!Agilent Technologies,E8363B,MY43030201,A.06.04.32
!Agilent E8363B: A.06.04.32
!Date: Tuesday, November 11, 2014 21:51:07
!Correction: S21(Response(S21)) 
!S1P File: Measurement: S21:
# Hz S  dB   R 50
3000000000  -4.375560e+001  -1.615846e+002 
3003125000  -4.544585e+001  -1.684146e+002 
3006250000  -4.523551e+001  -1.678378e+002 
3009375000  -4.620016e+001  -1.664449e+002 
3012500000  -4.504963e+001  -1.728688e+002 
3015625000  -4.500431e+001  -1.789103e+002 
3018750000  -4.536646e+001  -1.796217e+002 
3021875000  -4.396335e+001  -1.795096e+002 
3025000000  -4.248229e+001  1.764535e+002 
3028125000  -4.207549e+001  1.647462e+002 
3031250000  -4.091589e+001  1.514575e+002 
3034375000  -4.075498e+001  1.371319e+002 
3037500000  -4.162431e+001  1.261735e+002 
3040625000  -4.295800e+001  1.196468e+002 
3043750000  -4.349057e+001  1.120293e+002 
3046875000  -4.397594e+001  1.042847e+002 
3050000000  -4.526577e+001  1.037468e+002 
3053125000  -4.448475e+001  1.054681e+002 
3056250000  -4.474870e+001  1.064368e+002 
3059375000  -4.413209e+001  1.072057e+002 
3062500000  -4.282337e+001  9.949352e+001 
3065625000  -4.210328e+001  8.717974e+001 
3068750000  -4.171286e+001  8.037444e+001 
3071875000  -4.156293e+001  7.724924e+001 
3075000000  -4.134674e+001  7.028085e+001 
3078125000  -4.123981e+001  6.243381e+001 
3081250000  -4.134103e+001  5.586598e+001 
3084375000  -4.046994e+001  5.053045e+001 
3087500000  -4.055724e+001  4.214415e+001 
3090625000  -4.004352e+001  2.963205e+001 
3093750000  -4.095261e+001  2.041322e+001 
3096875000  -4.127814e+001  1.411854e+001 
3100000000  -4.111044e+001  1.145345e+001 
3103125000  -4.152646e+001  5.974241e+000 
3106250000  -4.098759e+001  7.006608e-001 
3109375000  -4.100517e+001  -3.654210e+000 
3112500000  -4.088378e+001  -1.159837e+001 
3115625000  -4.100058e+001  -1.745330e+001 
3118750000  -4.076254e+001  -2.214471e+001 
3121875000  -4.022046e+001  -3.326339e+001 
3125000000  -4.206788e+001  -3.769352e+001 
3128125000  -4.197514e+001  -3.185069e+001 
3131250000  -3.941652e+001  -3.932940e+001 
3134375000  -3.896485e+001  -5.789169e+001 
3137500000  -3.964753e+001  -7.124596e+001 
3140625000  -4.083361e+001  -7.413126e+001 
3143750000  -4.161497e+001  -7.966754e+001 
3146875000  -4.111730e+001  -7.854837e+001 
3150000000  -4.035135e+001  -8.353504e+001 
3153125000  -4.070613e+001  -9.303020e+001 
3156250000  -4.135659e+001  -8.889247e+001 
3159375000  -3.926248e+001  -9.288919e+001 
3162500000  -3.769911e+001  -1.105203e+002 
3165625000  -3.903143e+001  -1.235561e+002 
3168750000  -3.897283e+001  -1.258515e+002 
3171875000  -3.858390e+001  -1.346822e+002 
3175000000  -3.907953e+001  -1.431841e+002 
3178125000  -3.874708e+001  -1.461573e+002 
3181250000  -3.803444e+001  -1.549348e+002 
3184375000  -3.799295e+001  -1.675590e+002 
3187500000  -3.921061e+001  1.755566e+002 
3190625000  -4.112193e+001  1.686021e+002 
3193750000  -4.102170e+001  1.738684e+002 
3196875000  -4.111903e+001  1.727545e+002 
3200000000  -3.984025e+001  1.689158e+002 
3203125000  -3.975268e+001  1.589714e+002 
3206250000  -3.982584e+001  1.494925e+002 
3209375000  -3.938928e+001  1.416715e+002 
3212500000  -3.982653e+001  1.350420e+002 
3215625000  -3.959797e+001  1.317126e+002 
3218750000  -4.018041e+001  1.193335e+002 
3221875000  -4.053296e+001  1.139418e+002 
3225000000  -4.066697e+001  1.069525e+002 
3228125000  -4.110160e+001  1.002744e+002 
3231250000  -4.134002e+001  9.604942e+001 
3234375000  -4.100090e+001  9.433122e+001 
3237500000  -4.085372e+001  8.820289e+001 
3240625000  -4.029726e+001  8.100041e+001 
3243750000  -4.018167e+001  7.024329e+001 
3246875000  -4.062143e+001  6.127969e+001 
3250000000  -4.111157e+001  5.809089e+001 
3253125000  -4.127998e+001  5.237877e+001 
3256250000  -4.044734e+001  4.323115e+001 
3259375000  -4.097205e+001  2.916789e+001 
3262500000  -4.229068e+001  2.494441e+001 
3265625000  -4.253380e+001  2.781971e+001 
3268750000  -4.261316e+001  2.647748e+001 
3271875000  -4.140841e+001  1.966689e+001 
3275000000  -4.096888e+001  9.554055e+000 
3278125000  -4.167418e+001  4.127101e+000 
3281250000  -4.197400e+001  -2.026331e+000 
3284375000  -4.103840e+001  -9.692837e+000 
3287500000  -4.142227e+001  -1.663404e+001 
3290625000  -4.146112e+001  -2.721687e+001 
3293750000  -4.168919e+001  -3.617724e+001 
3296875000  -4.280957e+001  -3.917903e+001 
3300000000  -4.193408e+001  -4.033773e+001 
3303125000  -4.083243e+001  -5.102523e+001 
3306250000  -4.074944e+001  -6.096510e+001 
3309375000  -4.064312e+001  -7.091792e+001 
3312500000  -4.107564e+001  -8.697382e+001 
3315625000  -4.253207e+001  -9.460120e+001 
3318750000  -4.391940e+001  -9.976334e+001 
3321875000  -4.533009e+001  -1.029617e+002 
3325000000  -4.495640e+001  -9.708765e+001 
3328125000  -4.441177e+001  -9.674213e+001 
3331250000  -4.227794e+001  -9.808830e+001 
3334375000  -3.990451e+001  -1.182117e+002 
3337500000  -4.090079e+001  -1.413969e+002 
3340625000  -4.247150e+001  -1.514286e+002 
3343750000  -4.458178e+001  -1.561938e+002 
3346875000  -4.402565e+001  -1.561976e+002 
3350000000  -4.348909e+001  -1.637079e+002 
3353125000  -4.345242e+001  -1.715639e+002 
3356250000  -4.313253e+001  1.799195e+002 
3359375000  -4.463044e+001  1.649595e+002 
3362500000  -4.498306e+001  1.550146e+002 
3365625000  -4.577174e+001  1.514667e+002 
3368750000  -4.610133e+001  1.468002e+002 
3371875000  -4.698646e+001  1.393925e+002 
3375000000  -4.849199e+001  1.328983e+002 
3378125000  -4.926554e+001  1.291130e+002 
3381250000  -5.059995e+001  1.409677e+002 
3384375000  -4.708830e+001  1.525865e+002 
3387500000  -4.470431e+001  1.270298e+002 
3390625000  -4.676640e+001  1.034536e+002 
3393750000  -4.750677e+001  1.053260e+002 
3396875000  -4.675198e+001  9.590022e+001 
3400000000  -4.664353e+001  8.534566e+001 
3403125000  -4.646435e+001  7.956291e+001 
3406250000  -4.700686e+001  7.138255e+001 
3409375000  -4.694596e+001  5.951395e+001 
3412500000  -4.768490e+001  5.452483e+001 
3415625000  -4.874815e+001  5.156549e+001 
3418750000  -4.852145e+001  4.314664e+001 
3421875000  -4.939721e+001  4.165977e+001 
3425000000  -4.748041e+001  3.494241e+001 
3428125000  -4.703263e+001  2.597096e+001 
3431250000  -4.656309e+001  1.616479e+001 
3434375000  -4.717992e+001  1.324012e+000 
3437500000  -4.752071e+001  -5.313834e+000 
3440625000  -4.790524e+001  -8.124220e+000 
3443750000  -4.607238e+001  -1.182576e+001 
3446875000  -4.583002e+001  -2.981958e+001 
3450000000  -4.510039e+001  -4.308751e+001 
3453125000  -4.580231e+001  -6.106670e+001 
3456250000  -4.755801e+001  -7.215683e+001 
3459375000  -4.828175e+001  -7.200476e+001 
3462500000  -4.755513e+001  -7.673785e+001 
3465625000  -4.739737e+001  -9.060970e+001 
3468750000  -4.781690e+001  -9.617335e+001 
3471875000  -4.723882e+001  -1.032118e+002 
3475000000  -4.713160e+001  -1.161267e+002 
3478125000  -4.780353e+001  -1.294349e+002 
3481250000  -4.944837e+001  -1.320816e+002 
3484375000  -4.869048e+001  -1.328706e+002 
3487500000  -4.769575e+001  -1.415027e+002 
3490625000  -4.712311e+001  -1.553551e+002 
3493750000  -4.792656e+001  -1.709489e+002 
3496875000  -4.798341e+001  -1.701176e+002 
3500000000  -4.854225e+001  -1.731443e+002 
3503125000  -4.723270e+001  -1.769979e+002 
3506250000  -4.545432e+001  1.703586e+002 
3509375000  -4.532235e+001  1.511518e+002 
3512500000  -4.667348e+001  1.351110e+002 
3515625000  -4.729633e+001  1.292326e+002 
3518750000  -4.772464e+001  1.298046e+002 
3521875000  -4.805582e+001  1.184340e+002 
3525000000  -4.860054e+001  1.134654e+002 
3528125000  -4.740602e+001  1.160976e+002 
3531250000  -4.680535e+001  1.062127e+002 
3534375000  -4.648352e+001  8.816620e+001 
3537500000  -4.767414e+001  7.792912e+001 
3540625000  -4.863725e+001  7.269102e+001 
3543750000  -4.976313e+001  8.116530e+001 
3546875000  -4.859060e+001  7.967393e+001 
3550000000  -4.633450e+001  7.345411e+001 
3553125000  -4.608561e+001  5.798254e+001 
3556250000  -4.696267e+001  4.650251e+001 
3559375000  -4.663821e+001  4.265662e+001 
3562500000  -4.647909e+001  3.304753e+001 
3565625000  -4.747118e+001  2.205396e+001 
3568750000  -4.802839e+001  2.240256e+001 
3571875000  -4.765954e+001  2.023196e+001 
3575000000  -4.729988e+001  1.053935e+001 
3578125000  -4.803547e+001  8.810269e+000 
3581250000  -4.757799e+001  3.475280e+000 
3584375000  -4.597062e+001  -5.279641e+000 
3587500000  -4.573457e+001  -1.533696e+001 
3590625000  -4.629864e+001  -2.604693e+001 
3593750000  -4.780684e+001  -2.724990e+001 
3596875000  -4.682174e+001  -2.333674e+001 
3600000000  -4.473056e+001  -3.509522e+001 
3603125000  -4.517056e+001  -4.659456e+001 
3606250000  -4.588901e+001  -5.666460e+001 
3609375000  -4.573711e+001  -5.755240e+001 
3612500000  -4.641537e+001  -6.572199e+001 
3615625000  -4.589766e+001  -6.850890e+001 
3618750000  -4.611435e+001  -7.176817e+001 
3621875000  -4.522400e+001  -8.101092e+001 
3625000000  -4.572126e+001  -8.326380e+001 
3628125000  -4.489809e+001  -8.824952e+001 
3631250000  -4.532783e+001  -9.959248e+001 
3634375000  -4.549326e+001  -1.012265e+002 
3637500000  -4.478033e+001  -1.007319e+002 
3640625000  -4.354835e+001  -1.079179e+002 
3643750000  -4.308137e+001  -1.201912e+002 
3646875000  -4.360664e+001  -1.311027e+002 
3650000000  -4.339874e+001  -1.354603e+002 
3653125000  -4.326397e+001  -1.447289e+002 
3656250000  -4.420127e+001  -1.492770e+002 
3659375000  -4.390083e+001  -1.533967e+002 
3662500000  -4.290935e+001  -1.608656e+002 
3665625000  -4.319295e+001  -1.645028e+002 
3668750000  -4.179340e+001  -1.698221e+002 
3671875000  -4.155437e+001  1.750885e+002 
3675000000  -4.222889e+001  1.651872e+002 
3678125000  -4.233039e+001  1.599827e+002 
3681250000  -4.238546e+001  1.571266e+002 
3684375000  -4.270804e+001  1.474572e+002 
3687500000  -4.286467e+001  1.377682e+002 
3690625000  -4.339267e+001  1.313790e+002 
3693750000  -4.443650e+001  1.309772e+002 
3696875000  -4.395646e+001  1.285250e+002 
3700000000  -4.301763e+001  1.170104e+002 
3703125000  -4.383210e+001  1.121492e+002 
3706250000  -4.456562e+001  1.117898e+002 
3709375000  -4.386639e+001  1.107592e+002 
3712500000  -4.291149e+001  1.021521e+002 
3715625000  -4.166298e+001  9.369718e+001 
3718750000  -4.161178e+001  8.405085e+001 
3721875000  -4.180384e+001  7.519751e+001 
3725000000  -4.249554e+001  6.785445e+001 
3728125000  -4.218336e+001  6.455450e+001 
3731250000  -4.181174e+001  5.829467e+001 
3734375000  -4.193526e+001  5.107144e+001 
3737500000  -4.271319e+001  4.067892e+001 
3740625000  -4.311092e+001  3.633091e+001 
3743750000  -4.298796e+001  3.130778e+001 
3746875000  -4.303814e+001  2.439572e+001 
3750000000  -4.319573e+001  1.827100e+001 
3753125000  -4.381225e+001  1.833784e+001 
3756250000  -4.339897e+001  1.411283e+001 
3759375000  -4.339088e+001  6.853143e+000 
3762500000  -4.350184e+001  2.422833e+000 
3765625000  -4.413213e+001  -3.640421e+000 
3768750000  -4.392088e+001  -3.448261e+000 
3771875000  -4.190972e+001  -8.969985e+000 
3775000000  -4.208640e+001  -1.996849e+001 
3778125000  -4.264085e+001  -2.686376e+001 
3781250000  -4.244125e+001  -3.546312e+001 
3784375000  -4.252608e+001  -3.682422e+001 
3787500000  -4.224132e+001  -4.190881e+001 
3790625000  -4.276691e+001  -5.383241e+001 
3793750000  -4.249848e+001  -5.821633e+001 
3796875000  -4.156104e+001  -6.263248e+001 
3800000000  -4.070286e+001  -6.896435e+001 
3803125000  -4.157607e+001  -8.107513e+001 
3806250000  -4.227481e+001  -8.351103e+001 
3809375000  -4.171483e+001  -8.982610e+001 
3812500000  -4.176684e+001  -1.026692e+002 
3815625000  -4.294011e+001  -1.121846e+002 
3818750000  -4.410802e+001  -1.101352e+002 
3821875000  -4.356816e+001  -9.980972e+001 
3825000000  -4.158005e+001  -1.061988e+002 
3828125000  -4.063329e+001  -1.270564e+002 
3831250000  -4.174946e+001  -1.397461e+002 
3834375000  -4.346091e+001  -1.431876e+002 
3837500000  -4.361588e+001  -1.418732e+002 
3840625000  -4.268351e+001  -1.460453e+002 
3843750000  -4.190052e+001  -1.618322e+002 
3846875000  -4.322616e+001  -1.675526e+002 
3850000000  -4.407854e+001  -1.612641e+002 
3853125000  -4.350753e+001  -1.642043e+002 
3856250000  -4.253115e+001  -1.727765e+002 
3859375000  -4.189472e+001  -1.796547e+002 
3862500000  -4.203444e+001  1.655759e+002 
3865625000  -4.260167e+001  1.609850e+002 
3868750000  -4.244384e+001  1.624399e+002 
3871875000  -4.179462e+001  1.519601e+002 
3875000000  -4.216534e+001  1.409333e+002 
3878125000  -4.307146e+001  1.384041e+002 
3881250000  -4.299202e+001  1.349825e+002 
3884375000  -4.280316e+001  1.262448e+002 
3887500000  -4.315207e+001  1.174369e+002 
3890625000  -4.367856e+001  1.159896e+002 
3893750000  -4.420377e+001  1.139431e+002 
3896875000  -4.390380e+001  1.096764e+002 
3900000000  -4.454785e+001  1.042961e+002 
3903125000  -4.373262e+001  9.875565e+001 
3906250000  -4.350137e+001  9.721886e+001 
3909375000  -4.230733e+001  8.696384e+001 
3912500000  -4.406983e+001  7.671941e+001 
3915625000  -4.457137e+001  7.689374e+001 
3918750000  -4.452715e+001  7.398005e+001 
3921875000  -4.360373e+001  6.899459e+001 
3925000000  -4.319770e+001  6.306045e+001 
3928125000  -4.306963e+001  5.524953e+001 
3931250000  -4.324880e+001  4.869786e+001 
3934375000  -4.420873e+001  4.634184e+001 
3937500000  -4.423561e+001  4.245302e+001 
3940625000  -4.459910e+001  3.893710e+001 
3943750000  -4.322794e+001  3.718223e+001 
3946875000  -4.297677e+001  2.644362e+001 
3950000000  -4.372196e+001  1.922307e+001 
3953125000  -4.468856e+001  1.805847e+001 
3956250000  -4.292318e+001  1.747815e+001 
3959375000  -4.197263e+001  9.426699e+000 
3962500000  -4.165036e+001  6.002846e-001 
3965625000  -4.183727e+001  -9.089353e+000 
3968750000  -4.251111e+001  -1.779614e+001 
3971875000  -4.206073e+001  -2.303908e+001 
3975000000  -4.169368e+001  -2.630142e+001 
3978125000  -4.198074e+001  -3.513258e+001 
3981250000  -4.172706e+001  -4.213797e+001 
3984375000  -4.268115e+001  -4.796874e+001 
3987500000  -4.256293e+001  -5.276751e+001 
3990625000  -4.326954e+001  -5.628939e+001 
3993750000  -4.286456e+001  -6.355009e+001 
3996875000  -4.290614e+001  -7.064882e+001 
4000000000  -4.382824e+001  -7.299109e+001 
4003125000  -4.360651e+001  -7.544047e+001 
4006250000  -4.197021e+001  -7.970234e+001 
4009375000  -4.117802e+001  -9.629171e+001 
4012500000  -4.291153e+001  -1.029828e+002 
4015625000  -4.400077e+001  -1.081124e+002 
4018750000  -4.366022e+001  -1.080807e+002 
4021875000  -4.282860e+001  -1.172811e+002 
4025000000  -4.294869e+001  -1.232257e+002 
4028125000  -4.321843e+001  -1.314131e+002 
4031250000  -4.417899e+001  -1.372344e+002 
4034375000  -4.380791e+001  -1.390131e+002 
4037500000  -4.406574e+001  -1.454925e+002 
4040625000  -4.398406e+001  -1.489958e+002 
4043750000  -4.450229e+001  -1.543105e+002 
4046875000  -4.433703e+001  -1.585564e+002 
4050000000  -4.427449e+001  -1.648961e+002 
4053125000  -4.511233e+001  -1.675758e+002 
4056250000  -4.536613e+001  -1.678307e+002 
4059375000  -4.370346e+001  -1.677817e+002 
4062500000  -4.338291e+001  -1.755609e+002 
4065625000  -4.360344e+001  1.776342e+002 
4068750000  -4.280890e+001  1.709878e+002 
4071875000  -4.253725e+001  1.599597e+002 
4075000000  -4.360548e+001  1.531015e+002 
4078125000  -4.387578e+001  1.510908e+002 
4081250000  -4.370782e+001  1.440591e+002 
4084375000  -4.325673e+001  1.342143e+002 
4087500000  -4.396080e+001  1.282052e+002 
4090625000  -4.468690e+001  1.287051e+002 
4093750000  -4.434188e+001  1.234968e+002 
4096875000  -4.445292e+001  1.159693e+002 
4100000000  -4.496171e+001  1.083818e+002 
4103125000  -4.578682e+001  1.109148e+002 
4106250000  -4.506886e+001  1.122559e+002 
4109375000  -4.439075e+001  1.063326e+002 
4112500000  -4.379703e+001  9.784503e+001 
4115625000  -4.401731e+001  9.428475e+001 
4118750000  -4.378857e+001  8.791409e+001 
4121875000  -4.350748e+001  8.285654e+001 
4125000000  -4.428513e+001  7.327138e+001 
4128125000  -4.467507e+001  7.814130e+001 
4131250000  -4.372408e+001  7.729977e+001 
4134375000  -4.166936e+001  6.845341e+001 
4137500000  -4.234338e+001  4.814341e+001 
4140625000  -4.422621e+001  4.008529e+001 
4143750000  -4.489395e+001  4.545890e+001 
4146875000  -4.376339e+001  4.659549e+001 
4150000000  -4.290917e+001  3.673730e+001 
4153125000  -4.303025e+001  2.881079e+001 
4156250000  -4.435365e+001  2.428802e+001 
4159375000  -4.349242e+001  2.808633e+001 
4162500000  -4.218636e+001  2.480698e+001 
4165625000  -4.146664e+001  1.414964e+001 
4168750000  -4.082398e+001  2.521735e+000 
4171875000  -4.101977e+001  -9.315109e+000 
4175000000  -4.200128e+001  -1.621608e+001 
4178125000  -4.241412e+001  -1.876473e+001 
4181250000  -4.216076e+001  -2.553572e+001 
4184375000  -4.256240e+001  -3.261003e+001 
4187500000  -4.242030e+001  -3.722316e+001 
4190625000  -4.302077e+001  -4.874074e+001 
4193750000  -4.365245e+001  -5.581543e+001 
4196875000  -4.493623e+001  -5.434991e+001 
4200000000  -4.586823e+001  -5.299656e+001 
4203125000  -4.437112e+001  -4.217481e+001 
4206250000  -4.096193e+001  -5.052451e+001 
4209375000  -4.130444e+001  -7.668621e+001 
4212500000  -4.397548e+001  -8.034528e+001 
4215625000  -4.381177e+001  -7.431833e+001 
4218750000  -4.229852e+001  -7.412602e+001 
4221875000  -4.093396e+001  -8.812687e+001 
4225000000  -4.226481e+001  -9.838248e+001 
4228125000  -4.251315e+001  -9.424129e+001 
4231250000  -4.119474e+001  -1.036811e+002 
4234375000  -4.086649e+001  -1.163413e+002 
4237500000  -4.087013e+001  -1.230265e+002 
4240625000  -4.111066e+001  -1.337244e+002 
4243750000  -4.229373e+001  -1.405605e+002 
4246875000  -4.267374e+001  -1.397039e+002 
4250000000  -4.290043e+001  -1.412366e+002 
4253125000  -4.230909e+001  -1.437479e+002 
4256250000  -4.258456e+001  -1.523799e+002 
4259375000  -4.205323e+001  -1.589125e+002 
4262500000  -4.213572e+001  -1.636161e+002 
4265625000  -4.181949e+001  -1.627078e+002 
4268750000  -4.043539e+001  -1.706116e+002 
4271875000  -4.075406e+001  1.793338e+002 
4275000000  -4.024533e+001  1.681498e+002 
4278125000  -4.133800e+001  1.561618e+002 
4281250000  -4.286899e+001  1.569712e+002 
4284375000  -4.219582e+001  1.498767e+002 
4287500000  -4.378338e+001  1.479749e+002 
4290625000  -4.372208e+001  1.538421e+002 
4293750000  -4.178113e+001  1.521936e+002 
4296875000  -4.050907e+001  1.387495e+002 
4300000000  -4.134124e+001  1.283043e+002 
4303125000  -4.190216e+001  1.301154e+002 
4306250000  -4.041134e+001  1.282872e+002 
4309375000  -3.976049e+001  1.186043e+002 
4312500000  -3.988801e+001  1.068857e+002 
4315625000  -3.981098e+001  9.787773e+001 
4318750000  -4.089688e+001  9.305773e+001 
4321875000  -4.094542e+001  8.962399e+001 
4325000000  -4.014894e+001  8.586106e+001 
4328125000  -3.945863e+001  7.378857e+001 
4331250000  -3.997786e+001  6.063377e+001 
4334375000  -4.081059e+001  5.224751e+001 
4337500000  -4.177120e+001  5.248336e+001 
4340625000  -4.212695e+001  5.548257e+001 
4343750000  -4.084423e+001  4.946469e+001 
4346875000  -4.076707e+001  3.791903e+001 
4350000000  -4.099638e+001  3.137343e+001 
4353125000  -4.206025e+001  2.237469e+001 
4356250000  -4.385815e+001  2.928741e+001 
4359375000  -4.266278e+001  3.866080e+001 
4362500000  -3.945718e+001  2.785612e+001 
4365625000  -3.901139e+001  1.017331e+001 
4368750000  -4.018079e+001  -6.258812e-001 
4371875000  -4.105184e+001  -5.255849e+000 
4375000000  -4.047620e+001  -8.896039e+000 
4378125000  -4.038530e+001  -1.828219e+001 
4381250000  -4.011685e+001  -2.533200e+001 
4384375000  -4.022830e+001  -3.331184e+001 
4387500000  -4.139436e+001  -4.164191e+001 
4390625000  -4.218399e+001  -4.409674e+001 
4393750000  -4.146684e+001  -4.309449e+001 
4396875000  -4.128448e+001  -4.764135e+001 
4400000000  -4.073707e+001  -5.344326e+001 
4403125000  -4.134438e+001  -6.806156e+001 
4406250000  -4.205725e+001  -7.335270e+001 
4409375000  -4.249338e+001  -7.768900e+001 
4412500000  -4.351110e+001  -8.040007e+001 
4415625000  -4.326970e+001  -7.570940e+001 
4418750000  -4.198794e+001  -7.657359e+001 
