!Agilent Technologies,E8363B,MY43030201,A.06.04.32
!Agilent E8363B: A.06.04.32
!Date: Tuesday, November 11, 2014 21:41:03
!Correction: S21(Response(S21)) 
!S1P File: Measurement: S21:
# Hz S  dB   R 50
3000000000  -4.362486e+001  -1.567607e+002 
3003125000  -4.526368e+001  -1.641012e+002 
3006250000  -4.531164e+001  -1.632881e+002 
3009375000  -4.598819e+001  -1.592396e+002 
3012500000  -4.480879e+001  -1.660975e+002 
3015625000  -4.497953e+001  -1.733430e+002 
3018750000  -4.549710e+001  -1.746165e+002 
3021875000  -4.383475e+001  -1.746185e+002 
3025000000  -4.251888e+001  -1.795685e+002 
3028125000  -4.162734e+001  1.691383e+002 
3031250000  -4.090372e+001  1.554751e+002 
3034375000  -4.080611e+001  1.416104e+002 
3037500000  -4.146963e+001  1.324228e+002 
3040625000  -4.296505e+001  1.237458e+002 
3043750000  -4.333819e+001  1.154417e+002 
3046875000  -4.415847e+001  1.101730e+002 
3050000000  -4.519257e+001  1.063727e+002 
3053125000  -4.473835e+001  1.094487e+002 
3056250000  -4.476004e+001  1.129328e+002 
3059375000  -4.358575e+001  1.084034e+002 
3062500000  -4.252745e+001  1.048391e+002 
3065625000  -4.199370e+001  9.296511e+001 
3068750000  -4.173721e+001  8.540722e+001 
3071875000  -4.180377e+001  8.394803e+001 
3075000000  -4.122044e+001  7.381028e+001 
3078125000  -4.122018e+001  6.797850e+001 
3081250000  -4.124614e+001  6.130016e+001 
3084375000  -4.041836e+001  5.549773e+001 
3087500000  -4.053876e+001  4.802758e+001 
3090625000  -3.995092e+001  3.511080e+001 
3093750000  -4.091273e+001  2.515048e+001 
3096875000  -4.113815e+001  2.081871e+001 
3100000000  -4.110653e+001  1.663708e+001 
3103125000  -4.145980e+001  1.172780e+001 
3106250000  -4.094842e+001  4.350220e+000 
3109375000  -4.100390e+001  1.045132e+000 
3112500000  -4.074448e+001  -6.719240e+000 
3115625000  -4.086903e+001  -1.251324e+001 
3118750000  -4.080346e+001  -1.667622e+001 
3121875000  -4.014240e+001  -2.938255e+001 
3125000000  -4.207085e+001  -3.370664e+001 
3128125000  -4.201602e+001  -2.759919e+001 
3131250000  -3.963578e+001  -3.550971e+001 
3134375000  -3.879841e+001  -5.259973e+001 
3137500000  -3.952083e+001  -6.637585e+001 
3140625000  -4.071144e+001  -7.123637e+001 
3143750000  -4.149292e+001  -7.460010e+001 
3146875000  -4.109000e+001  -7.299957e+001 
3150000000  -4.046078e+001  -7.876003e+001 
3153125000  -4.080692e+001  -8.847386e+001 
3156250000  -4.139194e+001  -8.564909e+001 
3159375000  -3.928019e+001  -8.929922e+001 
3162500000  -3.772755e+001  -1.044121e+002 
3165625000  -3.913599e+001  -1.193128e+002 
3168750000  -3.918803e+001  -1.206123e+002 
3171875000  -3.869196e+001  -1.296853e+002 
3175000000  -3.909299e+001  -1.397468e+002 
3178125000  -3.873814e+001  -1.417289e+002 
3181250000  -3.811484e+001  -1.514466e+002 
3184375000  -3.794642e+001  -1.628805e+002 
3187500000  -3.930971e+001  -1.777617e+002 
3190625000  -4.121434e+001  1.753536e+002 
3193750000  -4.103654e+001  1.791823e+002 
3196875000  -4.100109e+001  1.780322e+002 
3200000000  -4.005004e+001  1.715790e+002 
3203125000  -3.953882e+001  1.639138e+002 
3206250000  -3.983497e+001  1.550203e+002 
3209375000  -3.944315e+001  1.473048e+002 
3212500000  -4.008145e+001  1.403798e+002 
3215625000  -3.976815e+001  1.367467e+002 
3218750000  -4.044901e+001  1.239908e+002 
3221875000  -4.087793e+001  1.169008e+002 
3225000000  -4.028446e+001  1.111567e+002 
3228125000  -4.112283e+001  1.045543e+002 
3231250000  -4.142942e+001  1.012875e+002 
3234375000  -4.100674e+001  9.860569e+001 
3237500000  -4.094245e+001  9.301924e+001 
3240625000  -4.040778e+001  8.746488e+001 
3243750000  -4.044554e+001  7.573297e+001 
3246875000  -4.076913e+001  6.680701e+001 
3250000000  -4.110126e+001  6.253311e+001 
3253125000  -4.135549e+001  5.821993e+001 
3256250000  -4.029590e+001  4.814660e+001 
3259375000  -4.107130e+001  3.428023e+001 
3262500000  -4.249952e+001  3.094759e+001 
3265625000  -4.270843e+001  3.063527e+001 
3268750000  -4.276746e+001  2.980809e+001 
3271875000  -4.138527e+001  2.311674e+001 
3275000000  -4.112769e+001  1.371481e+001 
3278125000  -4.178006e+001  6.224826e+000 
3281250000  -4.228259e+001  1.545187e+000 
3284375000  -4.116712e+001  -4.814364e+000 
3287500000  -4.171290e+001  -1.198115e+001 
3290625000  -4.160827e+001  -2.162673e+001 
3293750000  -4.162582e+001  -3.056614e+001 
3296875000  -4.267771e+001  -3.539959e+001 
3300000000  -4.193525e+001  -3.735725e+001 
3303125000  -4.107043e+001  -4.479113e+001 
3306250000  -4.098246e+001  -5.675754e+001 
3309375000  -4.081975e+001  -6.807423e+001 
3312500000  -4.126389e+001  -8.396495e+001 
3315625000  -4.245297e+001  -8.892152e+001 
3318750000  -4.442121e+001  -9.798229e+001 
3321875000  -4.538344e+001  -9.558915e+001 
3325000000  -4.525794e+001  -9.069591e+001 
3328125000  -4.458432e+001  -9.362439e+001 
3331250000  -4.227305e+001  -9.643889e+001 
3334375000  -4.029083e+001  -1.132994e+002 
3337500000  -4.096854e+001  -1.386291e+002 
3340625000  -4.285778e+001  -1.483369e+002 
3343750000  -4.481768e+001  -1.501496e+002 
3346875000  -4.421239e+001  -1.525608e+002 
3350000000  -4.376759e+001  -1.588066e+002 
3353125000  -4.366418e+001  -1.677883e+002 
3356250000  -4.337726e+001  -1.770274e+002 
3359375000  -4.462842e+001  1.689265e+002 
3362500000  -4.516673e+001  1.607277e+002 
3365625000  -4.563557e+001  1.542015e+002 
3368750000  -4.677380e+001  1.486805e+002 
3371875000  -4.709712e+001  1.442777e+002 
3375000000  -4.839637e+001  1.370086e+002 
3378125000  -4.988350e+001  1.353475e+002 
3381250000  -5.095076e+001  1.425480e+002 
3384375000  -4.783285e+001  1.594234e+002 
3387500000  -4.504875e+001  1.306771e+002 
3390625000  -4.719910e+001  1.093532e+002 
3393750000  -4.790403e+001  1.098614e+002 
3396875000  -4.665918e+001  1.047705e+002 
3400000000  -4.616262e+001  8.961481e+001 
3403125000  -4.722571e+001  7.755595e+001 
3406250000  -4.741765e+001  7.529005e+001 
3409375000  -4.682960e+001  6.309258e+001 
3412500000  -4.774719e+001  5.597028e+001 
3415625000  -4.888729e+001  5.151833e+001 
3418750000  -4.918685e+001  4.571609e+001 
3421875000  -4.907766e+001  4.344430e+001 
3425000000  -4.800172e+001  3.772121e+001 
3428125000  -4.735755e+001  3.054877e+001 
3431250000  -4.662272e+001  1.682480e+001 
3434375000  -4.681432e+001  5.474038e+000 
3437500000  -4.797606e+001  4.006460e-001 
3440625000  -4.822463e+001  -9.919227e+000 
3443750000  -4.655846e+001  -8.355928e+000 
3446875000  -4.562039e+001  -2.500616e+001 
3450000000  -4.513963e+001  -4.098736e+001 
3453125000  -4.573985e+001  -5.705171e+001 
3456250000  -4.730642e+001  -6.619111e+001 
3459375000  -4.760093e+001  -6.828831e+001 
3462500000  -4.794015e+001  -7.194321e+001 
3465625000  -4.714967e+001  -8.528212e+001 
3468750000  -4.704923e+001  -9.166312e+001 
3471875000  -4.698753e+001  -1.013200e+002 
3475000000  -4.714304e+001  -1.130432e+002 
3478125000  -4.797343e+001  -1.264307e+002 
3481250000  -4.918922e+001  -1.312236e+002 
3484375000  -4.816629e+001  -1.332749e+002 
3487500000  -4.765014e+001  -1.396138e+002 
3490625000  -4.734316e+001  -1.510909e+002 
3493750000  -4.766563e+001  -1.628221e+002 
3496875000  -4.801439e+001  -1.668959e+002 
3500000000  -4.875086e+001  -1.706311e+002 
3503125000  -4.732914e+001  -1.683433e+002 
3506250000  -4.522322e+001  1.740813e+002 
3509375000  -4.547791e+001  1.557573e+002 
3512500000  -4.629198e+001  1.411870e+002 
3515625000  -4.734477e+001  1.357186e+002 
3518750000  -4.777739e+001  1.336917e+002 
3521875000  -4.754486e+001  1.222523e+002 
3525000000  -4.856400e+001  1.225564e+002 
3528125000  -4.718599e+001  1.217101e+002 
3531250000  -4.694641e+001  1.059991e+002 
3534375000  -4.669953e+001  9.388865e+001 
3537500000  -4.745194e+001  8.364822e+001 
3540625000  -4.865775e+001  7.761802e+001 
3543750000  -4.909246e+001  8.217745e+001 
3546875000  -4.837555e+001  8.813905e+001 
3550000000  -4.671332e+001  7.991425e+001 
3553125000  -4.608831e+001  6.029861e+001 
3556250000  -4.718202e+001  5.357366e+001 
3559375000  -4.632022e+001  4.512113e+001 
3562500000  -4.635385e+001  3.734224e+001 
3565625000  -4.740870e+001  2.916051e+001 
3568750000  -4.756838e+001  2.862793e+001 
3571875000  -4.734836e+001  2.498986e+001 
3575000000  -4.700695e+001  1.719397e+001 
3578125000  -4.754757e+001  1.344161e+001 
3581250000  -4.720837e+001  9.661059e+000 
3584375000  -4.592990e+001  2.928409e+000 
3587500000  -4.564809e+001  -9.628036e+000 
3590625000  -4.632477e+001  -2.266385e+001 
3593750000  -4.793338e+001  -2.245583e+001 
3596875000  -4.672619e+001  -1.614030e+001 
3600000000  -4.494639e+001  -2.961295e+001 
3603125000  -4.487581e+001  -4.628639e+001 
3606250000  -4.626455e+001  -4.782684e+001 
3609375000  -4.620821e+001  -5.329030e+001 
3612500000  -4.593203e+001  -6.016695e+001 
3615625000  -4.604515e+001  -6.481207e+001 
3618750000  -4.654602e+001  -6.732954e+001 
3621875000  -4.555694e+001  -7.352351e+001 
3625000000  -4.558394e+001  -7.732765e+001 
3628125000  -4.492532e+001  -8.287471e+001 
3631250000  -4.503872e+001  -9.232240e+001 
3634375000  -4.568322e+001  -9.326068e+001 
3637500000  -4.447029e+001  -9.374545e+001 
3640625000  -4.390757e+001  -1.039410e+002 
3643750000  -4.319797e+001  -1.151784e+002 
3646875000  -4.400667e+001  -1.255974e+002 
3650000000  -4.384160e+001  -1.303815e+002 
3653125000  -4.348621e+001  -1.365482e+002 
3656250000  -4.415269e+001  -1.427982e+002 
3659375000  -4.371984e+001  -1.493978e+002 
3662500000  -4.339086e+001  -1.553562e+002 
3665625000  -4.344750e+001  -1.613995e+002 
3668750000  -4.226696e+001  -1.627114e+002 
3671875000  -4.152517e+001  -1.766036e+002 
3675000000  -4.227382e+001  1.731800e+002 
3678125000  -4.291877e+001  1.678251e+002 
3681250000  -4.259931e+001  1.615285e+002 
3684375000  -4.260682e+001  1.522553e+002 
3687500000  -4.299813e+001  1.449837e+002 
3690625000  -4.351600e+001  1.393123e+002 
3693750000  -4.452471e+001  1.378603e+002 
3696875000  -4.396959e+001  1.356509e+002 
3700000000  -4.325374e+001  1.281024e+002 
3703125000  -4.366930e+001  1.194234e+002 
3706250000  -4.472636e+001  1.175497e+002 
3709375000  -4.421909e+001  1.159314e+002 
3712500000  -4.301007e+001  1.100903e+002 
3715625000  -4.182367e+001  9.966657e+001 
3718750000  -4.180352e+001  9.085311e+001 
3721875000  -4.202024e+001  8.126649e+001 
3725000000  -4.225632e+001  7.485197e+001 
3728125000  -4.273349e+001  7.004978e+001 
3731250000  -4.206686e+001  6.618425e+001 
3734375000  -4.207553e+001  5.739983e+001 
3737500000  -4.308203e+001  4.920609e+001 
3740625000  -4.328376e+001  4.032663e+001 
3743750000  -4.281967e+001  3.590676e+001 
3746875000  -4.344125e+001  2.832976e+001 
3750000000  -4.392305e+001  2.554685e+001 
3753125000  -4.376450e+001  2.415240e+001 
3756250000  -4.404152e+001  1.846607e+001 
3759375000  -4.338765e+001  1.403299e+001 
3762500000  -4.334919e+001  8.881599e+000 
3765625000  -4.425079e+001  4.376438e+000 
3768750000  -4.354848e+001  5.390899e+000 
3771875000  -4.218599e+001  -1.265161e+000 
3775000000  -4.219416e+001  -1.374881e+001 
3778125000  -4.264400e+001  -1.993412e+001 
3781250000  -4.260801e+001  -2.415662e+001 
3784375000  -4.233412e+001  -3.040898e+001 
3787500000  -4.256479e+001  -3.513852e+001 
3790625000  -4.301513e+001  -4.463134e+001 
3793750000  -4.298558e+001  -4.804647e+001 
3796875000  -4.189207e+001  -5.402391e+001 
3800000000  -4.081065e+001  -6.232072e+001 
3803125000  -4.205753e+001  -7.384262e+001 
3806250000  -4.280239e+001  -7.991441e+001 
3809375000  -4.193729e+001  -8.379205e+001 
3812500000  -4.193167e+001  -9.533534e+001 
3815625000  -4.297878e+001  -1.050732e+002 
3818750000  -4.422000e+001  -1.054377e+002 
3821875000  -4.349931e+001  -9.498388e+001 
3825000000  -4.163311e+001  -9.625179e+001 
3828125000  -4.043274e+001  -1.202125e+002 
3831250000  -4.186309e+001  -1.350298e+002 
3834375000  -4.355538e+001  -1.357927e+002 
3837500000  -4.386415e+001  -1.353096e+002 
3840625000  -4.236028e+001  -1.393785e+002 
3843750000  -4.171994e+001  -1.547235e+002 
3846875000  -4.334498e+001  -1.625191e+002 
3850000000  -4.443948e+001  -1.551579e+002 
3853125000  -4.363873e+001  -1.582976e+002 
3856250000  -4.328336e+001  -1.655105e+002 
3859375000  -4.263325e+001  -1.736038e+002 
3862500000  -4.216893e+001  1.739212e+002 
3865625000  -4.277678e+001  1.677879e+002 
3868750000  -4.247250e+001  1.661595e+002 
3871875000  -4.198111e+001  1.580650e+002 
3875000000  -4.266243e+001  1.487276e+002 
3878125000  -4.332660e+001  1.451905e+002 
3881250000  -4.353321e+001  1.446489e+002 
3884375000  -4.271774e+001  1.342348e+002 
3887500000  -4.338610e+001  1.263749e+002 
3890625000  -4.390160e+001  1.222504e+002 
3893750000  -4.447427e+001  1.212785e+002 
3896875000  -4.442918e+001  1.149772e+002 
3900000000  -4.471949e+001  1.141135e+002 
3903125000  -4.430104e+001  1.051197e+002 
3906250000  -4.345511e+001  1.050316e+002 
3909375000  -4.275284e+001  9.522890e+001 
3912500000  -4.412300e+001  8.720428e+001 
3915625000  -4.465446e+001  8.661337e+001 
3918750000  -4.440013e+001  8.412719e+001 
3921875000  -4.387253e+001  7.624024e+001 
3925000000  -4.348908e+001  7.046880e+001 
3928125000  -4.335017e+001  6.272986e+001 
3931250000  -4.381423e+001  5.516148e+001 
3934375000  -4.408790e+001  5.265529e+001 
3937500000  -4.481705e+001  4.869582e+001 
3940625000  -4.487080e+001  4.973302e+001 
3943750000  -4.352549e+001  4.251314e+001 
3946875000  -4.296611e+001  3.536238e+001 
3950000000  -4.360774e+001  2.748760e+001 
3953125000  -4.500860e+001  2.904913e+001 
3956250000  -4.333184e+001  2.411613e+001 
3959375000  -4.181977e+001  1.995685e+001 
3962500000  -4.160823e+001  1.068325e+001 
3965625000  -4.221623e+001  -3.426206e+000 
3968750000  -4.287090e+001  -1.197365e+001 
3971875000  -4.287859e+001  -1.618073e+001 
3975000000  -4.222166e+001  -2.151598e+001 
3978125000  -4.232040e+001  -2.429336e+001 
3981250000  -4.189312e+001  -3.301109e+001 
3984375000  -4.290999e+001  -4.170327e+001 
3987500000  -4.285791e+001  -4.674956e+001 
3990625000  -4.320475e+001  -5.128032e+001 
3993750000  -4.315061e+001  -5.690450e+001 
3996875000  -4.362687e+001  -6.666251e+001 
4000000000  -4.403622e+001  -6.601962e+001 
4003125000  -4.404998e+001  -6.830694e+001 
4006250000  -4.218465e+001  -7.103149e+001 
4009375000  -4.167752e+001  -8.811416e+001 
4012500000  -4.316285e+001  -9.752496e+001 
4015625000  -4.434094e+001  -9.800940e+001 
4018750000  -4.414230e+001  -1.026662e+002 
4021875000  -4.333140e+001  -1.098778e+002 
4025000000  -4.342692e+001  -1.176243e+002 
4028125000  -4.338517e+001  -1.237223e+002 
4031250000  -4.447765e+001  -1.293177e+002 
4034375000  -4.409642e+001  -1.327010e+002 
4037500000  -4.438951e+001  -1.374359e+002 
4040625000  -4.430107e+001  -1.409789e+002 
4043750000  -4.472647e+001  -1.455723e+002 
4046875000  -4.474299e+001  -1.518835e+002 
4050000000  -4.462606e+001  -1.598102e+002 
4053125000  -4.564156e+001  -1.614817e+002 
4056250000  -4.572686e+001  -1.596972e+002 
4059375000  -4.424496e+001  -1.629576e+002 
4062500000  -4.404065e+001  -1.690396e+002 
4065625000  -4.396419e+001  -1.747058e+002 
4068750000  -4.269049e+001  1.768137e+002 
4071875000  -4.267406e+001  1.679368e+002 
4075000000  -4.375024e+001  1.610496e+002 
4078125000  -4.403877e+001  1.582028e+002 
4081250000  -4.397199e+001  1.509553e+002 
4084375000  -4.388425e+001  1.422270e+002 
4087500000  -4.452517e+001  1.332471e+002 
4090625000  -4.507768e+001  1.340021e+002 
4093750000  -4.489165e+001  1.320545e+002 
4096875000  -4.456514e+001  1.226163e+002 
4100000000  -4.570737e+001  1.133270e+002 
4103125000  -4.606944e+001  1.201399e+002 
4106250000  -4.502816e+001  1.196288e+002 
4109375000  -4.448200e+001  1.176291e+002 
4112500000  -4.458156e+001  1.083052e+002 
4115625000  -4.467886e+001  1.035136e+002 
4118750000  -4.450548e+001  9.635450e+001 
4121875000  -4.423410e+001  9.122826e+001 
4125000000  -4.478522e+001  8.084064e+001 
4128125000  -4.560363e+001  8.501305e+001 
4131250000  -4.450914e+001  8.813141e+001 
4134375000  -4.207897e+001  7.645737e+001 
4137500000  -4.221318e+001  5.716924e+001 
4140625000  -4.415321e+001  4.779356e+001 
4143750000  -4.537365e+001  5.462010e+001 
4146875000  -4.419305e+001  5.644278e+001 
4150000000  -4.343049e+001  4.644600e+001 
4153125000  -4.340233e+001  3.604571e+001 
4156250000  -4.486692e+001  3.310432e+001 
4159375000  -4.363226e+001  3.499054e+001 
4162500000  -4.259797e+001  3.290118e+001 
4165625000  -4.179156e+001  2.273635e+001 
4168750000  -4.177261e+001  1.187512e+001 
4171875000  -4.164494e+001  2.763124e+000 
4175000000  -4.237447e+001  -7.976255e+000 
4178125000  -4.300190e+001  -1.110609e+001 
4181250000  -4.219583e+001  -1.933985e+001 
4184375000  -4.327294e+001  -2.205538e+001 
4187500000  -4.271237e+001  -3.255143e+001 
4190625000  -4.317896e+001  -3.884202e+001 
4193750000  -4.439810e+001  -4.577020e+001 
4196875000  -4.524147e+001  -4.751425e+001 
4200000000  -4.629361e+001  -4.004594e+001 
4203125000  -4.486934e+001  -3.269007e+001 
4206250000  -4.170248e+001  -4.235304e+001 
4209375000  -4.172695e+001  -6.586491e+001 
4212500000  -4.415373e+001  -7.381590e+001 
4215625000  -4.456925e+001  -6.822008e+001 
4218750000  -4.309584e+001  -6.507478e+001 
4221875000  -4.131309e+001  -7.850809e+001 
4225000000  -4.245264e+001  -8.747985e+001 
4228125000  -4.296976e+001  -8.829983e+001 
4231250000  -4.125132e+001  -9.542616e+001 
4234375000  -4.160177e+001  -1.070435e+002 
4237500000  -4.115435e+001  -1.133077e+002 
4240625000  -4.136540e+001  -1.240851e+002 
4243750000  -4.298559e+001  -1.331951e+002 
4246875000  -4.333622e+001  -1.323516e+002 
4250000000  -4.332071e+001  -1.332046e+002 
4253125000  -4.304987e+001  -1.331493e+002 
4256250000  -4.327684e+001  -1.451503e+002 
4259375000  -4.229240e+001  -1.479917e+002 
4262500000  -4.279356e+001  -1.530968e+002 
4265625000  -4.245322e+001  -1.543293e+002 
4268750000  -4.124250e+001  -1.624296e+002 
4271875000  -4.108650e+001  -1.710002e+002 
4275000000  -4.093716e+001  1.788492e+002 
4278125000  -4.182319e+001  1.657014e+002 
4281250000  -4.277863e+001  1.629559e+002 
4284375000  -4.282915e+001  1.614165e+002 
4287500000  -4.417304e+001  1.581601e+002 
4290625000  -4.382913e+001  1.641646e+002 
4293750000  -4.228186e+001  1.621186e+002 
4296875000  -4.088830e+001  1.481719e+002 
4300000000  -4.206078e+001  1.363486e+002 
4303125000  -4.270842e+001  1.379832e+002 
4306250000  -4.150635e+001  1.363535e+002 
4309375000  -4.037473e+001  1.275007e+002 
4312500000  -3.992615e+001  1.168116e+002 
4315625000  -4.052665e+001  1.059260e+002 
4318750000  -4.116935e+001  1.014606e+002 
4321875000  -4.104021e+001  9.936350e+001 
4325000000  -4.071663e+001  9.374835e+001 
4328125000  -3.980406e+001  8.408110e+001 
4331250000  -4.027548e+001  7.214436e+001 
4334375000  -4.155334e+001  6.215519e+001 
4337500000  -4.242328e+001  6.181955e+001 
4340625000  -4.309119e+001  6.262765e+001 
4343750000  -4.134708e+001  5.825750e+001 
4346875000  -4.131772e+001  5.046673e+001 
4350000000  -4.146870e+001  4.041989e+001 
4353125000  -4.275811e+001  3.100404e+001 
4356250000  -4.460846e+001  3.328106e+001 
4359375000  -4.334575e+001  4.795811e+001 
4362500000  -3.988960e+001  3.826505e+001 
4365625000  -3.936569e+001  1.781701e+001 
4368750000  -4.074477e+001  8.865870e+000 
4371875000  -4.144291e+001  7.346405e+000 
4375000000  -4.120192e+001  -7.885247e-001 
4378125000  -4.070301e+001  -5.728463e+000 
4381250000  -4.115615e+001  -1.564724e+001 
4384375000  -4.149929e+001  -2.288008e+001 
4387500000  -4.274367e+001  -2.860389e+001 
4390625000  -4.294731e+001  -3.240358e+001 
4393750000  -4.212505e+001  -3.374883e+001 
4396875000  -4.151268e+001  -3.568602e+001 
4400000000  -4.132027e+001  -4.761376e+001 
4403125000  -4.248829e+001  -5.657222e+001 
4406250000  -4.276513e+001  -6.151160e+001 
4409375000  -4.298936e+001  -6.732195e+001 
4412500000  -4.452025e+001  -6.911069e+001 
4415625000  -4.359153e+001  -6.475729e+001 
4418750000  -4.258863e+001  -6.316674e+001 
