!Agilent Technologies,E8363B,MY43030201,A.06.04.32
!Agilent E8363B: A.06.04.32
!Date: Tuesday, November 11, 2014 21:46:22
!Correction: S21(Response(S21)) 
!S1P File: Measurement: S21:
# Hz S  dB   R 50
3000000000  -4.363591e+001  -1.612867e+002 
3003125000  -4.523564e+001  -1.661639e+002 
3006250000  -4.522889e+001  -1.685309e+002 
3009375000  -4.585049e+001  -1.639908e+002 
3012500000  -4.479298e+001  -1.706208e+002 
3015625000  -4.505430e+001  -1.796046e+002 
3018750000  -4.531122e+001  -1.779119e+002 
3021875000  -4.388776e+001  -1.796118e+002 
3025000000  -4.258875e+001  1.767800e+002 
3028125000  -4.190281e+001  1.648034e+002 
3031250000  -4.087959e+001  1.518427e+002 
3034375000  -4.075769e+001  1.382724e+002 
3037500000  -4.162561e+001  1.273206e+002 
3040625000  -4.284430e+001  1.211083e+002 
3043750000  -4.322620e+001  1.137119e+002 
3046875000  -4.408488e+001  1.060445e+002 
3050000000  -4.509701e+001  1.021513e+002 
3053125000  -4.501937e+001  1.064527e+002 
3056250000  -4.480825e+001  1.082064e+002 
3059375000  -4.399898e+001  1.043371e+002 
3062500000  -4.244658e+001  9.972266e+001 
3065625000  -4.218064e+001  8.923294e+001 
3068750000  -4.172493e+001  8.186185e+001 
3071875000  -4.183836e+001  7.747546e+001 
3075000000  -4.118587e+001  7.226498e+001 
3078125000  -4.133029e+001  6.329673e+001 
3081250000  -4.140946e+001  5.671861e+001 
3084375000  -4.039169e+001  5.168629e+001 
3087500000  -4.071675e+001  4.361942e+001 
3090625000  -4.000912e+001  3.138062e+001 
3093750000  -4.101958e+001  2.113979e+001 
3096875000  -4.116803e+001  1.760737e+001 
3100000000  -4.112767e+001  1.183133e+001 
3103125000  -4.143918e+001  8.332065e+000 
3106250000  -4.099099e+001  1.520753e+000 
3109375000  -4.103660e+001  -4.038798e+000 
3112500000  -4.086808e+001  -1.099450e+001 
3115625000  -4.070458e+001  -1.564342e+001 
3118750000  -4.062282e+001  -2.025320e+001 
3121875000  -4.020810e+001  -3.310068e+001 
3125000000  -4.201603e+001  -3.660771e+001 
3128125000  -4.181993e+001  -3.045680e+001 
3131250000  -3.950620e+001  -3.919319e+001 
3134375000  -3.888914e+001  -5.608538e+001 
3137500000  -3.945364e+001  -6.899654e+001 
3140625000  -4.102435e+001  -7.333989e+001 
3143750000  -4.146902e+001  -7.739119e+001 
3146875000  -4.105340e+001  -7.673113e+001 
3150000000  -4.032272e+001  -8.306464e+001 
3153125000  -4.088455e+001  -9.231058e+001 
3156250000  -4.156768e+001  -8.705967e+001 
3159375000  -3.914619e+001  -9.157217e+001 
3162500000  -3.752272e+001  -1.082754e+002 
3165625000  -3.893633e+001  -1.231267e+002 
3168750000  -3.897702e+001  -1.243859e+002 
3171875000  -3.856200e+001  -1.339879e+002 
3175000000  -3.914963e+001  -1.429229e+002 
3178125000  -3.872472e+001  -1.442607e+002 
3181250000  -3.810260e+001  -1.547430e+002 
3184375000  -3.780320e+001  -1.663817e+002 
3187500000  -3.909647e+001  1.771406e+002 
3190625000  -4.085798e+001  1.724093e+002 
3193750000  -4.108329e+001  1.748076e+002 
3196875000  -4.110646e+001  1.754598e+002 
3200000000  -3.999435e+001  1.686850e+002 
3203125000  -3.964402e+001  1.601303e+002 
3206250000  -3.999157e+001  1.518562e+002 
3209375000  -3.941023e+001  1.435844e+002 
3212500000  -3.994072e+001  1.355116e+002 
3215625000  -3.979501e+001  1.346641e+002 
3218750000  -4.017816e+001  1.204248e+002 
3221875000  -4.058033e+001  1.126856e+002 
3225000000  -4.044931e+001  1.089765e+002 
3228125000  -4.099531e+001  1.008801e+002 
3231250000  -4.145316e+001  9.700250e+001 
3234375000  -4.112951e+001  9.437392e+001 
3237500000  -4.102363e+001  9.098473e+001 
3240625000  -4.038691e+001  8.322388e+001 
3243750000  -4.024603e+001  7.176904e+001 
3246875000  -4.075272e+001  6.291057e+001 
3250000000  -4.109167e+001  5.816513e+001 
3253125000  -4.109647e+001  5.511106e+001 
3256250000  -4.047297e+001  4.457628e+001 
3259375000  -4.097390e+001  3.095940e+001 
3262500000  -4.236920e+001  2.620970e+001 
3265625000  -4.275400e+001  2.736359e+001 
3268750000  -4.264574e+001  2.641139e+001 
3271875000  -4.138997e+001  1.948845e+001 
3275000000  -4.096615e+001  9.914874e+000 
3278125000  -4.175815e+001  4.119486e+000 
3281250000  -4.185270e+001  -4.425759e-001 
3284375000  -4.090295e+001  -8.912555e+000 
3287500000  -4.159236e+001  -1.646491e+001 
3290625000  -4.162665e+001  -2.751034e+001 
3293750000  -4.158727e+001  -3.256362e+001 
3296875000  -4.259370e+001  -3.821193e+001 
3300000000  -4.218067e+001  -4.073896e+001 
3303125000  -4.105065e+001  -5.031662e+001 
3306250000  -4.085115e+001  -6.075922e+001 
3309375000  -4.051538e+001  -6.982214e+001 
3312500000  -4.123532e+001  -8.726805e+001 
3315625000  -4.263208e+001  -9.501319e+001 
3318750000  -4.406021e+001  -1.014221e+002 
3321875000  -4.489516e+001  -9.884971e+001 
3325000000  -4.493457e+001  -9.568268e+001 
3328125000  -4.414173e+001  -9.706789e+001 
3331250000  -4.231515e+001  -9.734781e+001 
3334375000  -4.005800e+001  -1.159920e+002 
3337500000  -4.098291e+001  -1.405947e+002 
3340625000  -4.267278e+001  -1.506671e+002 
3343750000  -4.465766e+001  -1.513443e+002 
3346875000  -4.396658e+001  -1.558611e+002 
3350000000  -4.387342e+001  -1.614988e+002 
3353125000  -4.366209e+001  -1.702666e+002 
3356250000  -4.317509e+001  1.780173e+002 
3359375000  -4.450081e+001  1.659868e+002 
3362500000  -4.490261e+001  1.579662e+002 
3365625000  -4.588630e+001  1.538637e+002 
3368750000  -4.637520e+001  1.466563e+002 
3371875000  -4.720872e+001  1.405293e+002 
3375000000  -4.790615e+001  1.326718e+002 
3378125000  -4.888859e+001  1.315265e+002 
3381250000  -5.003178e+001  1.401200e+002 
3384375000  -4.780605e+001  1.511303e+002 
3387500000  -4.479661e+001  1.267072e+002 
3390625000  -4.724757e+001  1.057392e+002 
3393750000  -4.743412e+001  1.048857e+002 
3396875000  -4.642124e+001  9.992850e+001 
3400000000  -4.632278e+001  8.704749e+001 
3403125000  -4.687313e+001  7.892553e+001 
3406250000  -4.721847e+001  7.279556e+001 
3409375000  -4.741779e+001  6.207771e+001 
3412500000  -4.768483e+001  5.189559e+001 
3415625000  -4.883847e+001  4.853956e+001 
3418750000  -4.855120e+001  4.289104e+001 
3421875000  -4.937294e+001  4.176970e+001 
3425000000  -4.810059e+001  3.111737e+001 
3428125000  -4.739742e+001  2.721336e+001 
3431250000  -4.651623e+001  1.345677e+001 
3434375000  -4.706293e+001  6.102394e+000 
3437500000  -4.770691e+001  -5.682831e+000 
3440625000  -4.782359e+001  -7.255512e+000 
3443750000  -4.651463e+001  -1.277794e+001 
3446875000  -4.521437e+001  -2.840075e+001 
3450000000  -4.536277e+001  -4.223108e+001 
3453125000  -4.592501e+001  -6.013018e+001 
3456250000  -4.724193e+001  -7.082942e+001 
3459375000  -4.801825e+001  -7.146583e+001 
3462500000  -4.793489e+001  -7.717956e+001 
3465625000  -4.710672e+001  -8.896311e+001 
3468750000  -4.745630e+001  -9.530254e+001 
3471875000  -4.681628e+001  -1.035852e+002 
3475000000  -4.690783e+001  -1.141329e+002 
3478125000  -4.753942e+001  -1.308791e+002 
3481250000  -4.877952e+001  -1.350636e+002 
3484375000  -4.874906e+001  -1.330556e+002 
3487500000  -4.766022e+001  -1.392539e+002 
3490625000  -4.701009e+001  -1.521700e+002 
3493750000  -4.826814e+001  -1.685784e+002 
3496875000  -4.765819e+001  -1.719821e+002 
3500000000  -4.852710e+001  -1.718713e+002 
3503125000  -4.767181e+001  -1.791831e+002 
3506250000  -4.546225e+001  1.708945e+002 
3509375000  -4.552531e+001  1.520001e+002 
3512500000  -4.635179e+001  1.364655e+002 
3515625000  -4.738689e+001  1.299225e+002 
3518750000  -4.778606e+001  1.290135e+002 
3521875000  -4.795317e+001  1.153364e+002 
3525000000  -4.902400e+001  1.098867e+002 
3528125000  -4.733747e+001  1.151777e+002 
3531250000  -4.637262e+001  1.070243e+002 
3534375000  -4.672799e+001  8.628119e+001 
3537500000  -4.799741e+001  8.150189e+001 
3540625000  -4.883094e+001  7.171825e+001 
3543750000  -4.990604e+001  7.998364e+001 
3546875000  -4.899698e+001  8.065364e+001 
3550000000  -4.637058e+001  7.438928e+001 
3553125000  -4.580209e+001  5.415979e+001 
3556250000  -4.742085e+001  4.578455e+001 
3559375000  -4.663964e+001  4.253759e+001 
3562500000  -4.635413e+001  3.160313e+001 
3565625000  -4.761545e+001  1.869090e+001 
3568750000  -4.769057e+001  2.275146e+001 
3571875000  -4.724597e+001  1.797017e+001 
3575000000  -4.707274e+001  1.063973e+001 
3578125000  -4.795655e+001  7.761712e+000 
3581250000  -4.757857e+001  2.432208e+000 
3584375000  -4.599301e+001  -4.901831e+000 
3587500000  -4.564491e+001  -1.430973e+001 
3590625000  -4.667830e+001  -2.358878e+001 
3593750000  -4.732088e+001  -2.392483e+001 
3596875000  -4.695137e+001  -1.826828e+001 
3600000000  -4.487960e+001  -3.304265e+001 
3603125000  -4.512391e+001  -4.898366e+001 
3606250000  -4.588732e+001  -5.318695e+001 
3609375000  -4.633491e+001  -5.934958e+001 
3612500000  -4.594468e+001  -6.404988e+001 
3615625000  -4.649618e+001  -6.893442e+001 
3618750000  -4.601570e+001  -7.289412e+001 
3621875000  -4.556740e+001  -7.784468e+001 
3625000000  -4.572516e+001  -8.238686e+001 
3628125000  -4.479903e+001  -9.106783e+001 
3631250000  -4.487922e+001  -9.989828e+001 
3634375000  -4.565127e+001  -1.002614e+002 
3637500000  -4.456245e+001  -1.016329e+002 
3640625000  -4.351547e+001  -1.052181e+002 
3643750000  -4.308294e+001  -1.193927e+002 
3646875000  -4.375096e+001  -1.283522e+002 
3650000000  -4.410346e+001  -1.331570e+002 
3653125000  -4.323581e+001  -1.431222e+002 
3656250000  -4.393092e+001  -1.494701e+002 
3659375000  -4.387056e+001  -1.533297e+002 
3662500000  -4.297613e+001  -1.593227e+002 
3665625000  -4.320009e+001  -1.623960e+002 
3668750000  -4.207637e+001  -1.696067e+002 
3671875000  -4.153039e+001  1.764779e+002 
3675000000  -4.211304e+001  1.669613e+002 
3678125000  -4.250354e+001  1.619684e+002 
3681250000  -4.245934e+001  1.578913e+002 
3684375000  -4.244982e+001  1.489908e+002 
3687500000  -4.287173e+001  1.389284e+002 
3690625000  -4.336599e+001  1.328099e+002 
3693750000  -4.479776e+001  1.339031e+002 
3696875000  -4.363572e+001  1.292285e+002 
3700000000  -4.307495e+001  1.215792e+002 
3703125000  -4.406962e+001  1.120210e+002 
3706250000  -4.492583e+001  1.113977e+002 
3709375000  -4.418652e+001  1.101741e+002 
3712500000  -4.305322e+001  1.030235e+002 
3715625000  -4.170039e+001  9.541408e+001 
3718750000  -4.169549e+001  8.612902e+001 
3721875000  -4.170005e+001  7.697630e+001 
3725000000  -4.267424e+001  6.836931e+001 
3728125000  -4.247863e+001  6.444488e+001 
3731250000  -4.202559e+001  5.868992e+001 
3734375000  -4.179197e+001  5.173758e+001 
3737500000  -4.255196e+001  4.345016e+001 
3740625000  -4.284271e+001  3.628436e+001 
3743750000  -4.273821e+001  3.149682e+001 
3746875000  -4.380274e+001  2.498713e+001 
3750000000  -4.367553e+001  2.061226e+001 
3753125000  -4.374738e+001  1.895656e+001 
3756250000  -4.397977e+001  1.310891e+001 
3759375000  -4.336692e+001  6.959555e+000 
3762500000  -4.349800e+001  3.139388e+000 
3765625000  -4.413531e+001  -3.048906e+000 
3768750000  -4.350330e+001  -1.831957e+000 
3771875000  -4.224057e+001  -8.045999e+000 
3775000000  -4.238826e+001  -1.949491e+001 
3778125000  -4.256271e+001  -2.566798e+001 
3781250000  -4.271618e+001  -2.939169e+001 
3784375000  -4.226423e+001  -3.698895e+001 
3787500000  -4.239460e+001  -4.093912e+001 
3790625000  -4.269596e+001  -5.287833e+001 
3793750000  -4.268787e+001  -5.553056e+001 
3796875000  -4.169239e+001  -5.972288e+001 
3800000000  -4.075992e+001  -6.620843e+001 
3803125000  -4.174620e+001  -8.001218e+001 
3806250000  -4.239289e+001  -8.479884e+001 
3809375000  -4.177798e+001  -9.016287e+001 
3812500000  -4.175846e+001  -1.003332e+002 
3815625000  -4.277291e+001  -1.098126e+002 
3818750000  -4.414735e+001  -1.072480e+002 
3821875000  -4.372492e+001  -9.592516e+001 
3825000000  -4.145813e+001  -1.030320e+002 
3828125000  -4.032605e+001  -1.242220e+002 
3831250000  -4.144792e+001  -1.414716e+002 
3834375000  -4.362620e+001  -1.415834e+002 
3837500000  -4.351548e+001  -1.390438e+002 
3840625000  -4.246243e+001  -1.455870e+002 
3843750000  -4.163229e+001  -1.600753e+002 
3846875000  -4.322585e+001  -1.675645e+002 
3850000000  -4.371926e+001  -1.603904e+002 
3853125000  -4.331670e+001  -1.656722e+002 
3856250000  -4.249463e+001  -1.713521e+002 
3859375000  -4.247607e+001  1.786323e+002 
3862500000  -4.220427e+001  1.705620e+002 
3865625000  -4.283292e+001  1.634359e+002 
3868750000  -4.223199e+001  1.612823e+002 
3871875000  -4.192159e+001  1.520103e+002 
3875000000  -4.218249e+001  1.415677e+002 
3878125000  -4.317973e+001  1.414322e+002 
3881250000  -4.315172e+001  1.397513e+002 
3884375000  -4.258054e+001  1.290448e+002 
3887500000  -4.341227e+001  1.215677e+002 
3890625000  -4.349059e+001  1.188762e+002 
3893750000  -4.381876e+001  1.140894e+002 
3896875000  -4.425013e+001  1.132899e+002 
3900000000  -4.450655e+001  1.056248e+002 
3903125000  -4.332395e+001  1.025930e+002 
3906250000  -4.402125e+001  9.918417e+001 
3909375000  -4.289175e+001  9.007905e+001 
3912500000  -4.366785e+001  8.139806e+001 
3915625000  -4.505605e+001  7.757951e+001 
3918750000  -4.486813e+001  7.938058e+001 
3921875000  -4.360482e+001  7.235906e+001 
3925000000  -4.322049e+001  6.620231e+001 
3928125000  -4.293705e+001  5.967269e+001 
3931250000  -4.362833e+001  4.872861e+001 
3934375000  -4.406406e+001  4.659163e+001 
3937500000  -4.458564e+001  4.495232e+001 
3940625000  -4.442740e+001  4.282346e+001 
3943750000  -4.314301e+001  3.911621e+001 
3946875000  -4.268260e+001  3.051436e+001 
3950000000  -4.339443e+001  2.212248e+001 
3953125000  -4.476350e+001  1.989410e+001 
3956250000  -4.247219e+001  2.176980e+001 
3959375000  -4.177755e+001  1.530655e+001 
3962500000  -4.130183e+001  2.645531e+000 
3965625000  -4.188734e+001  -1.006796e+001 
3968750000  -4.248221e+001  -1.503310e+001 
3971875000  -4.236882e+001  -1.938582e+001 
3975000000  -4.171828e+001  -2.399551e+001 
3978125000  -4.207014e+001  -3.298787e+001 
3981250000  -4.179216e+001  -3.952288e+001 
3984375000  -4.236903e+001  -4.745803e+001 
3987500000  -4.280204e+001  -5.283741e+001 
3990625000  -4.298047e+001  -5.639836e+001 
3993750000  -4.300458e+001  -6.439606e+001 
3996875000  -4.334724e+001  -6.582747e+001 
4000000000  -4.365988e+001  -7.285254e+001 
4003125000  -4.378445e+001  -7.188374e+001 
4006250000  -4.181732e+001  -8.023640e+001 
4009375000  -4.104507e+001  -9.465988e+001 
4012500000  -4.277631e+001  -1.019693e+002 
4015625000  -4.362314e+001  -1.037046e+002 
4018750000  -4.358098e+001  -1.086182e+002 
4021875000  -4.286331e+001  -1.122699e+002 
4025000000  -4.266927e+001  -1.212819e+002 
4028125000  -4.350553e+001  -1.269139e+002 
4031250000  -4.384927e+001  -1.349599e+002 
4034375000  -4.386409e+001  -1.394067e+002 
4037500000  -4.413158e+001  -1.418945e+002 
4040625000  -4.417298e+001  -1.451300e+002 
4043750000  -4.444250e+001  -1.505146e+002 
4046875000  -4.432772e+001  -1.577470e+002 
4050000000  -4.425459e+001  -1.637992e+002 
4053125000  -4.557888e+001  -1.627885e+002 
4056250000  -4.591438e+001  -1.647355e+002 
4059375000  -4.352018e+001  -1.645517e+002 
4062500000  -4.325366e+001  -1.765751e+002 
4065625000  -4.369070e+001  1.765614e+002 
4068750000  -4.292248e+001  1.716758e+002 
4071875000  -4.264711e+001  1.619256e+002 
4075000000  -4.321832e+001  1.524150e+002 
4078125000  -4.406031e+001  1.536693e+002 
4081250000  -4.338054e+001  1.465697e+002 
4084375000  -4.352697e+001  1.358542e+002 
4087500000  -4.388122e+001  1.303293e+002 
4090625000  -4.426349e+001  1.264966e+002 
4093750000  -4.440047e+001  1.241692e+002 
4096875000  -4.426275e+001  1.170879e+002 
4100000000  -4.549415e+001  1.089822e+002 
4103125000  -4.585163e+001  1.140890e+002 
4106250000  -4.503238e+001  1.137577e+002 
4109375000  -4.428260e+001  1.091398e+002 
4112500000  -4.363910e+001  1.011805e+002 
4115625000  -4.403155e+001  9.547642e+001 
4118750000  -4.369464e+001  8.957718e+001 
4121875000  -4.363002e+001  8.207117e+001 
4125000000  -4.505329e+001  7.719653e+001 
4128125000  -4.484838e+001  7.884859e+001 
4131250000  -4.369846e+001  8.256367e+001 
4134375000  -4.134867e+001  7.127943e+001 
4137500000  -4.194595e+001  5.073809e+001 
4140625000  -4.380185e+001  4.248177e+001 
4143750000  -4.457145e+001  4.849812e+001 
4146875000  -4.379204e+001  4.717240e+001 
4150000000  -4.292897e+001  4.054351e+001 
4153125000  -4.301585e+001  2.964392e+001 
4156250000  -4.402043e+001  2.509705e+001 
4159375000  -4.396347e+001  2.968769e+001 
4162500000  -4.234598e+001  2.482503e+001 
4165625000  -4.185663e+001  1.672692e+001 
4168750000  -4.112127e+001  5.934565e+000 
4171875000  -4.133753e+001  -5.400783e+000 
4175000000  -4.163399e+001  -1.366225e+001 
4178125000  -4.224191e+001  -1.683459e+001 
4181250000  -4.216016e+001  -2.297260e+001 
4184375000  -4.233425e+001  -2.867163e+001 
4187500000  -4.209240e+001  -3.658568e+001 
4190625000  -4.306793e+001  -4.595347e+001 
4193750000  -4.370454e+001  -5.113346e+001 
4196875000  -4.530347e+001  -5.508325e+001 
4200000000  -4.581808e+001  -4.999400e+001 
4203125000  -4.417021e+001  -4.022648e+001 
4206250000  -4.087446e+001  -5.031100e+001 
4209375000  -4.154372e+001  -7.423602e+001 
4212500000  -4.385204e+001  -7.824348e+001 
4215625000  -4.399368e+001  -7.430977e+001 
4218750000  -4.242218e+001  -7.209131e+001 
4221875000  -4.090859e+001  -8.501830e+001 
4225000000  -4.243773e+001  -9.719083e+001 
4228125000  -4.210345e+001  -9.372244e+001 
4231250000  -4.073068e+001  -1.032939e+002 
4234375000  -4.070456e+001  -1.153624e+002 
4237500000  -4.067680e+001  -1.198092e+002 
4240625000  -4.100111e+001  -1.341880e+002 
4243750000  -4.212794e+001  -1.397728e+002 
4246875000  -4.325655e+001  -1.382781e+002 
4250000000  -4.259110e+001  -1.397255e+002 
4253125000  -4.252786e+001  -1.428494e+002 
4256250000  -4.241246e+001  -1.477327e+002 
4259375000  -4.227499e+001  -1.559760e+002 
4262500000  -4.231805e+001  -1.593351e+002 
4265625000  -4.210371e+001  -1.641827e+002 
4268750000  -4.103123e+001  -1.695420e+002 
4271875000  -4.059451e+001  -1.784447e+002 
4275000000  -3.996384e+001  1.709445e+002 
4278125000  -4.114633e+001  1.579010e+002 
4281250000  -4.243304e+001  1.572526e+002 
4284375000  -4.186284e+001  1.536077e+002 
4287500000  -4.350068e+001  1.517584e+002 
4290625000  -4.323998e+001  1.583744e+002 
4293750000  -4.163235e+001  1.570899e+002 
4296875000  -4.045304e+001  1.401602e+002 
4300000000  -4.127297e+001  1.296778e+002 
4303125000  -4.177145e+001  1.340816e+002 
4306250000  -4.064435e+001  1.288074e+002 
4309375000  -3.966539e+001  1.205218e+002 
4312500000  -3.957230e+001  1.091235e+002 
4315625000  -3.984021e+001  9.904943e+001 
4318750000  -4.058129e+001  9.430326e+001 
4321875000  -4.052883e+001  9.121980e+001 
4325000000  -4.010466e+001  8.756378e+001 
4328125000  -3.924301e+001  7.496359e+001 
4331250000  -3.945238e+001  6.293210e+001 
4334375000  -4.096790e+001  5.567153e+001 
4337500000  -4.215397e+001  5.280844e+001 
4340625000  -4.208585e+001  5.818165e+001 
4343750000  -4.091684e+001  5.274769e+001 
4346875000  -4.102123e+001  4.071717e+001 
4350000000  -4.096014e+001  3.161000e+001 
4353125000  -4.178220e+001  2.092726e+001 
4356250000  -4.402068e+001  2.754998e+001 
4359375000  -4.287954e+001  4.083981e+001 
4362500000  -3.930147e+001  3.108755e+001 
4365625000  -3.874088e+001  1.149723e+001 
4368750000  -4.040267e+001  -5.765612e-001 
4371875000  -4.114553e+001  -2.671594e-001 
4375000000  -4.054819e+001  -6.088224e+000 
4378125000  -4.047791e+001  -1.572859e+001 
4381250000  -4.058482e+001  -2.307236e+001 
4384375000  -4.055062e+001  -3.063830e+001 
4387500000  -4.141641e+001  -3.862685e+001 
4390625000  -4.195438e+001  -3.901206e+001 
4393750000  -4.156696e+001  -3.872468e+001 
4396875000  -4.137131e+001  -4.816731e+001 
4400000000  -4.044074e+001  -5.360791e+001 
4403125000  -4.145141e+001  -6.750113e+001 
4406250000  -4.179829e+001  -6.828190e+001 
4409375000  -4.238782e+001  -7.542425e+001 
4412500000  -4.345161e+001  -7.760760e+001 
4415625000  -4.326654e+001  -7.300966e+001 
4418750000  -4.200050e+001  -7.597937e+001 
