!Agilent Technologies,E8363B,MY43030201,A.06.04.32
!Agilent E8363B: A.06.04.32
!Date: Tuesday, November 11, 2014 21:41:44
!Correction: S21(Response(S21)) 
!S1P File: Measurement: S21:
# Hz S  dB   R 50
3000000000  -4.373604e+001  -1.581730e+002 
3003125000  -4.536890e+001  -1.630636e+002 
3006250000  -4.531371e+001  -1.646304e+002 
3009375000  -4.581070e+001  -1.620205e+002 
3012500000  -4.474093e+001  -1.677732e+002 
3015625000  -4.499369e+001  -1.749965e+002 
3018750000  -4.530478e+001  -1.749867e+002 
3021875000  -4.418888e+001  -1.759919e+002 
3025000000  -4.247930e+001  -1.787585e+002 
3028125000  -4.174183e+001  1.669762e+002 
3031250000  -4.097680e+001  1.540082e+002 
3034375000  -4.097441e+001  1.413658e+002 
3037500000  -4.155017e+001  1.299687e+002 
3040625000  -4.284610e+001  1.238008e+002 
3043750000  -4.321873e+001  1.166225e+002 
3046875000  -4.393660e+001  1.097388e+002 
3050000000  -4.506442e+001  1.048976e+002 
3053125000  -4.485577e+001  1.081757e+002 
3056250000  -4.469905e+001  1.136815e+002 
3059375000  -4.415332e+001  1.099464e+002 
3062500000  -4.231209e+001  1.034324e+002 
3065625000  -4.214579e+001  9.408011e+001 
3068750000  -4.181555e+001  8.447691e+001 
3071875000  -4.179379e+001  8.273557e+001 
3075000000  -4.103128e+001  7.448076e+001 
3078125000  -4.121253e+001  6.792663e+001 
3081250000  -4.143245e+001  5.999940e+001 
3084375000  -4.034867e+001  5.477991e+001 
3087500000  -4.054212e+001  4.717525e+001 
3090625000  -3.999045e+001  3.438434e+001 
3093750000  -4.102324e+001  2.489239e+001 
3096875000  -4.121486e+001  1.960110e+001 
3100000000  -4.117299e+001  1.548146e+001 
3103125000  -4.131918e+001  1.166075e+001 
3106250000  -4.097316e+001  4.270382e+000 
3109375000  -4.107052e+001  -4.184180e-001 
3112500000  -4.081627e+001  -8.378002e+000 
3115625000  -4.080820e+001  -1.398707e+001 
3118750000  -4.069911e+001  -1.762840e+001 
3121875000  -4.015007e+001  -2.980547e+001 
3125000000  -4.209733e+001  -3.461889e+001 
3128125000  -4.212846e+001  -2.791713e+001 
3131250000  -3.933455e+001  -3.626439e+001 
3134375000  -3.893817e+001  -5.276471e+001 
3137500000  -3.953207e+001  -6.745631e+001 
3140625000  -4.101408e+001  -6.940875e+001 
3143750000  -4.146567e+001  -7.537753e+001 
3146875000  -4.115826e+001  -7.361275e+001 
3150000000  -4.041414e+001  -7.908423e+001 
3153125000  -4.090849e+001  -9.040033e+001 
3156250000  -4.148310e+001  -8.660121e+001 
3159375000  -3.923677e+001  -9.002148e+001 
3162500000  -3.780606e+001  -1.048056e+002 
3165625000  -3.893075e+001  -1.180719e+002 
3168750000  -3.911118e+001  -1.209827e+002 
3171875000  -3.858113e+001  -1.303316e+002 
3175000000  -3.917583e+001  -1.400567e+002 
3178125000  -3.881789e+001  -1.413233e+002 
3181250000  -3.812919e+001  -1.516874e+002 
3184375000  -3.793998e+001  -1.634433e+002 
3187500000  -3.923939e+001  -1.795034e+002 
3190625000  -4.094859e+001  1.724690e+002 
3193750000  -4.143809e+001  1.786507e+002 
3196875000  -4.106409e+001  1.773576e+002 
3200000000  -3.999662e+001  1.725207e+002 
3203125000  -3.963412e+001  1.642238e+002 
3206250000  -3.998233e+001  1.548911e+002 
3209375000  -3.963796e+001  1.466522e+002 
3212500000  -3.994434e+001  1.376900e+002 
3215625000  -3.987732e+001  1.356588e+002 
3218750000  -4.034111e+001  1.230157e+002 
3221875000  -4.060849e+001  1.164963e+002 
3225000000  -4.035299e+001  1.121836e+002 
3228125000  -4.116960e+001  1.037519e+002 
3231250000  -4.158451e+001  1.006272e+002 
3234375000  -4.123919e+001  9.840561e+001 
3237500000  -4.105057e+001  9.356991e+001 
3240625000  -4.041735e+001  8.710073e+001 
3243750000  -4.038187e+001  7.373745e+001 
3246875000  -4.070368e+001  6.639786e+001 
3250000000  -4.137369e+001  6.124239e+001 
3253125000  -4.119286e+001  5.811210e+001 
3256250000  -4.057415e+001  4.770084e+001 
3259375000  -4.115100e+001  3.500910e+001 
3262500000  -4.232563e+001  2.949414e+001 
3265625000  -4.267495e+001  3.100377e+001 
3268750000  -4.260997e+001  2.838241e+001 
3271875000  -4.181211e+001  2.426674e+001 
3275000000  -4.112625e+001  1.343233e+001 
3278125000  -4.186723e+001  6.898290e+000 
3281250000  -4.182432e+001  2.764139e+000 
3284375000  -4.125060e+001  -5.874723e+000 
3287500000  -4.191657e+001  -1.237809e+001 
3290625000  -4.155659e+001  -2.224802e+001 
3293750000  -4.184344e+001  -3.048076e+001 
3296875000  -4.278377e+001  -3.610571e+001 
3300000000  -4.208865e+001  -3.559662e+001 
3303125000  -4.107387e+001  -4.850457e+001 
3306250000  -4.103619e+001  -5.836224e+001 
3309375000  -4.087633e+001  -6.949937e+001 
3312500000  -4.137442e+001  -8.393413e+001 
3315625000  -4.233078e+001  -9.061249e+001 
3318750000  -4.395780e+001  -9.892805e+001 
3321875000  -4.528056e+001  -9.697756e+001 
3325000000  -4.524057e+001  -9.314368e+001 
3328125000  -4.437300e+001  -9.498976e+001 
3331250000  -4.260923e+001  -9.554159e+001 
3334375000  -4.025518e+001  -1.149147e+002 
3337500000  -4.094385e+001  -1.374788e+002 
3340625000  -4.284941e+001  -1.492380e+002 
3343750000  -4.470783e+001  -1.495538e+002 
3346875000  -4.416960e+001  -1.547198e+002 
3350000000  -4.410379e+001  -1.592554e+002 
3353125000  -4.372089e+001  -1.701133e+002 
3356250000  -4.331418e+001  -1.797947e+002 
3359375000  -4.419607e+001  1.687282e+002 
3362500000  -4.514199e+001  1.596890e+002 
3365625000  -4.566000e+001  1.541388e+002 
3368750000  -4.626212e+001  1.509261e+002 
3371875000  -4.683439e+001  1.430512e+002 
3375000000  -4.848159e+001  1.349092e+002 
3378125000  -4.983163e+001  1.351308e+002 
3381250000  -5.089671e+001  1.422399e+002 
3384375000  -4.773006e+001  1.554719e+002 
3387500000  -4.497930e+001  1.304764e+002 
3390625000  -4.755413e+001  1.074309e+002 
3393750000  -4.822839e+001  1.094340e+002 
3396875000  -4.659545e+001  1.025066e+002 
3400000000  -4.659509e+001  9.143710e+001 
3403125000  -4.730600e+001  8.040594e+001 
3406250000  -4.795030e+001  7.608865e+001 
3409375000  -4.751052e+001  6.610604e+001 
3412500000  -4.815896e+001  5.646262e+001 
3415625000  -4.846172e+001  5.189884e+001 
3418750000  -4.942281e+001  4.543849e+001 
3421875000  -4.906846e+001  4.322530e+001 
3425000000  -4.754247e+001  3.816042e+001 
3428125000  -4.762483e+001  2.833727e+001 
3431250000  -4.687579e+001  1.798557e+001 
3434375000  -4.688615e+001  5.456407e+000 
3437500000  -4.770763e+001  -1.399305e+000 
3440625000  -4.825949e+001  -6.146458e+000 
3443750000  -4.674462e+001  -8.249184e+000 
3446875000  -4.546411e+001  -2.492575e+001 
3450000000  -4.553237e+001  -4.080993e+001 
3453125000  -4.567659e+001  -5.930209e+001 
3456250000  -4.723170e+001  -6.813387e+001 
3459375000  -4.820403e+001  -6.890444e+001 
3462500000  -4.760056e+001  -7.396344e+001 
3465625000  -4.744965e+001  -8.910314e+001 
3468750000  -4.786846e+001  -9.470143e+001 
3471875000  -4.716361e+001  -9.916150e+001 
3475000000  -4.698068e+001  -1.123999e+002 
3478125000  -4.760106e+001  -1.244202e+002 
3481250000  -4.913240e+001  -1.358542e+002 
3484375000  -4.882354e+001  -1.291081e+002 
3487500000  -4.772044e+001  -1.391633e+002 
3490625000  -4.705150e+001  -1.486315e+002 
3493750000  -4.783114e+001  -1.648578e+002 
3496875000  -4.826769e+001  -1.674780e+002 
3500000000  -4.911823e+001  -1.697261e+002 
3503125000  -4.700803e+001  -1.699547e+002 
3506250000  -4.519894e+001  1.750288e+002 
3509375000  -4.573173e+001  1.560208e+002 
3512500000  -4.615622e+001  1.383126e+002 
3515625000  -4.691331e+001  1.347708e+002 
3518750000  -4.791586e+001  1.310000e+002 
3521875000  -4.764910e+001  1.188768e+002 
3525000000  -4.891935e+001  1.153778e+002 
3528125000  -4.754276e+001  1.194491e+002 
3531250000  -4.653641e+001  1.099650e+002 
3534375000  -4.684740e+001  9.071416e+001 
3537500000  -4.836018e+001  8.457818e+001 
3540625000  -4.900787e+001  8.092004e+001 
3543750000  -4.913496e+001  8.400454e+001 
3546875000  -4.821644e+001  8.903789e+001 
3550000000  -4.648455e+001  7.504660e+001 
3553125000  -4.585572e+001  5.771526e+001 
3556250000  -4.741532e+001  5.153822e+001 
3559375000  -4.675475e+001  4.634755e+001 
3562500000  -4.629731e+001  3.528443e+001 
3565625000  -4.765838e+001  2.892623e+001 
3568750000  -4.790371e+001  3.085353e+001 
3571875000  -4.722738e+001  2.152128e+001 
3575000000  -4.714057e+001  1.760368e+001 
3578125000  -4.811838e+001  1.205159e+001 
3581250000  -4.766077e+001  7.546615e+000 
3584375000  -4.591447e+001  1.887542e+000 
3587500000  -4.562949e+001  -9.721640e+000 
3590625000  -4.638809e+001  -2.295727e+001 
3593750000  -4.798655e+001  -2.141560e+001 
3596875000  -4.695416e+001  -1.934123e+001 
3600000000  -4.494530e+001  -2.785576e+001 
3603125000  -4.505957e+001  -4.527832e+001 
3606250000  -4.590532e+001  -4.834269e+001 
3609375000  -4.575656e+001  -5.130517e+001 
3612500000  -4.615107e+001  -6.239726e+001 
3615625000  -4.638774e+001  -6.301762e+001 
3618750000  -4.614441e+001  -6.642155e+001 
3621875000  -4.543494e+001  -7.387594e+001 
3625000000  -4.556538e+001  -7.708410e+001 
3628125000  -4.493024e+001  -8.428069e+001 
3631250000  -4.494784e+001  -9.403108e+001 
3634375000  -4.579989e+001  -9.519624e+001 
3637500000  -4.441203e+001  -9.569233e+001 
3640625000  -4.378393e+001  -1.011538e+002 
3643750000  -4.309742e+001  -1.143890e+002 
3646875000  -4.382714e+001  -1.267886e+002 
3650000000  -4.390130e+001  -1.299805e+002 
3653125000  -4.313762e+001  -1.381934e+002 
3656250000  -4.414259e+001  -1.444709e+002 
3659375000  -4.383937e+001  -1.469476e+002 
3662500000  -4.346857e+001  -1.563810e+002 
3665625000  -4.348953e+001  -1.587896e+002 
3668750000  -4.214804e+001  -1.636146e+002 
3671875000  -4.157780e+001  -1.789197e+002 
3675000000  -4.205337e+001  1.730986e+002 
3678125000  -4.273206e+001  1.667735e+002 
3681250000  -4.237786e+001  1.592945e+002 
3684375000  -4.265123e+001  1.523480e+002 
3687500000  -4.294659e+001  1.442664e+002 
3690625000  -4.335273e+001  1.376638e+002 
3693750000  -4.439172e+001  1.370105e+002 
3696875000  -4.410964e+001  1.332580e+002 
3700000000  -4.309959e+001  1.266520e+002 
3703125000  -4.378364e+001  1.175835e+002 
3706250000  -4.464627e+001  1.156382e+002 
3709375000  -4.368472e+001  1.191139e+002 
3712500000  -4.312865e+001  1.096567e+002 
3715625000  -4.171624e+001  9.916222e+001 
3718750000  -4.187635e+001  8.849204e+001 
3721875000  -4.178512e+001  8.087914e+001 
3725000000  -4.242019e+001  7.482376e+001 
3728125000  -4.248245e+001  6.887292e+001 
3731250000  -4.221261e+001  6.243666e+001 
3734375000  -4.221626e+001  5.750487e+001 
3737500000  -4.281176e+001  4.655444e+001 
3740625000  -4.282835e+001  4.162737e+001 
3743750000  -4.286390e+001  3.552146e+001 
3746875000  -4.323437e+001  2.771369e+001 
3750000000  -4.373375e+001  2.468594e+001 
3753125000  -4.371931e+001  2.149912e+001 
3756250000  -4.392703e+001  1.838423e+001 
3759375000  -4.377113e+001  1.434668e+001 
3762500000  -4.355816e+001  8.189481e+000 
3765625000  -4.403631e+001  2.701008e+000 
3768750000  -4.369174e+001  6.126999e+000 
3771875000  -4.202242e+001  -4.009299e+000 
3775000000  -4.224231e+001  -1.551519e+001 
3778125000  -4.238693e+001  -2.147972e+001 
3781250000  -4.238702e+001  -2.682651e+001 
3784375000  -4.261122e+001  -3.084917e+001 
3787500000  -4.259679e+001  -3.528996e+001 
3790625000  -4.279014e+001  -4.842376e+001 
3793750000  -4.301790e+001  -5.019810e+001 
3796875000  -4.174277e+001  -5.572552e+001 
3800000000  -4.079729e+001  -6.234489e+001 
3803125000  -4.181156e+001  -7.416730e+001 
3806250000  -4.268342e+001  -7.985751e+001 
3809375000  -4.185112e+001  -8.377305e+001 
3812500000  -4.170799e+001  -9.672807e+001 
3815625000  -4.312655e+001  -1.060197e+002 
3818750000  -4.443487e+001  -1.011252e+002 
3821875000  -4.352091e+001  -9.321252e+001 
3825000000  -4.171325e+001  -9.888853e+001 
3828125000  -4.027136e+001  -1.204383e+002 
3831250000  -4.194814e+001  -1.365826e+002 
3834375000  -4.367554e+001  -1.381664e+002 
3837500000  -4.439057e+001  -1.333247e+002 
3840625000  -4.246578e+001  -1.389438e+002 
3843750000  -4.186792e+001  -1.556137e+002 
3846875000  -4.369930e+001  -1.626014e+002 
3850000000  -4.407153e+001  -1.563395e+002 
3853125000  -4.346645e+001  -1.577172e+002 
3856250000  -4.313071e+001  -1.671437e+002 
3859375000  -4.273697e+001  -1.734361e+002 
3862500000  -4.221545e+001  1.746919e+002 
3865625000  -4.282528e+001  1.683625e+002 
3868750000  -4.279810e+001  1.675731e+002 
3871875000  -4.172749e+001  1.576971e+002 
3875000000  -4.248792e+001  1.473398e+002 
3878125000  -4.352573e+001  1.430549e+002 
3881250000  -4.344541e+001  1.420252e+002 
3884375000  -4.267546e+001  1.330220e+002 
3887500000  -4.350675e+001  1.263900e+002 
3890625000  -4.409368e+001  1.208935e+002 
3893750000  -4.445422e+001  1.201526e+002 
3896875000  -4.442928e+001  1.156178e+002 
3900000000  -4.456953e+001  1.106176e+002 
3903125000  -4.391920e+001  1.078899e+002 
3906250000  -4.363882e+001  9.865556e+001 
3909375000  -4.291944e+001  9.370602e+001 
3912500000  -4.416815e+001  8.314584e+001 
3915625000  -4.498686e+001  8.360281e+001 
3918750000  -4.501562e+001  8.283234e+001 
3921875000  -4.401575e+001  7.855827e+001 
3925000000  -4.321271e+001  6.960413e+001 
3928125000  -4.313462e+001  6.129998e+001 
3931250000  -4.383665e+001  5.440574e+001 
3934375000  -4.404557e+001  5.003429e+001 
3937500000  -4.455573e+001  4.933204e+001 
3940625000  -4.494587e+001  4.857460e+001 
3943750000  -4.339960e+001  4.451427e+001 
3946875000  -4.309811e+001  3.351629e+001 
3950000000  -4.403239e+001  2.404647e+001 
3953125000  -4.477557e+001  2.532646e+001 
3956250000  -4.303956e+001  2.516634e+001 
3959375000  -4.182246e+001  2.043483e+001 
3962500000  -4.203555e+001  8.671069e+000 
3965625000  -4.193466e+001  -4.024464e+000 
3968750000  -4.242270e+001  -1.397299e+001 
3971875000  -4.282782e+001  -1.443903e+001 
3975000000  -4.203367e+001  -2.001384e+001 
3978125000  -4.239262e+001  -2.659751e+001 
3981250000  -4.199270e+001  -3.512282e+001 
3984375000  -4.254866e+001  -4.162823e+001 
3987500000  -4.305983e+001  -4.768664e+001 
3990625000  -4.343365e+001  -5.060795e+001 
3993750000  -4.343206e+001  -5.594989e+001 
3996875000  -4.319233e+001  -6.473892e+001 
4000000000  -4.400503e+001  -6.818517e+001 
4003125000  -4.393246e+001  -6.655576e+001 
4006250000  -4.203263e+001  -7.450142e+001 
4009375000  -4.136879e+001  -9.129826e+001 
4012500000  -4.321232e+001  -9.959160e+001 
4015625000  -4.426494e+001  -9.790266e+001 
4018750000  -4.377073e+001  -1.015057e+002 
4021875000  -4.355596e+001  -1.076115e+002 
4025000000  -4.330256e+001  -1.177117e+002 
4028125000  -4.380514e+001  -1.256628e+002 
4031250000  -4.402755e+001  -1.293174e+002 
4034375000  -4.442435e+001  -1.341444e+002 
4037500000  -4.443483e+001  -1.369963e+002 
4040625000  -4.428338e+001  -1.433779e+002 
4043750000  -4.474445e+001  -1.476093e+002 
4046875000  -4.440509e+001  -1.498233e+002 
4050000000  -4.507385e+001  -1.600706e+002 
4053125000  -4.531348e+001  -1.633888e+002 
4056250000  -4.600397e+001  -1.570746e+002 
4059375000  -4.432205e+001  -1.598128e+002 
4062500000  -4.368757e+001  -1.682918e+002 
4065625000  -4.395757e+001  -1.765464e+002 
4068750000  -4.300686e+001  1.747361e+002 
4071875000  -4.274193e+001  1.667163e+002 
4075000000  -4.431544e+001  1.592764e+002 
4078125000  -4.484958e+001  1.539026e+002 
4081250000  -4.393105e+001  1.504198e+002 
4084375000  -4.360718e+001  1.420762e+002 
4087500000  -4.451180e+001  1.332154e+002 
4090625000  -4.524379e+001  1.332385e+002 
4093750000  -4.531234e+001  1.320664e+002 
4096875000  -4.451904e+001  1.227828e+002 
4100000000  -4.565987e+001  1.158661e+002 
4103125000  -4.618722e+001  1.190326e+002 
4106250000  -4.546440e+001  1.180750e+002 
4109375000  -4.446347e+001  1.165609e+002 
4112500000  -4.437231e+001  1.031427e+002 
4115625000  -4.477908e+001  1.009954e+002 
4118750000  -4.404820e+001  9.760718e+001 
4121875000  -4.397250e+001  8.632939e+001 
4125000000  -4.491239e+001  8.014753e+001 
4128125000  -4.571981e+001  8.659841e+001 
4131250000  -4.409498e+001  8.779510e+001 
4134375000  -4.201251e+001  7.416715e+001 
4137500000  -4.236188e+001  5.517851e+001 
4140625000  -4.454602e+001  4.774867e+001 
4143750000  -4.570005e+001  5.272997e+001 
4146875000  -4.450529e+001  5.172589e+001 
4150000000  -4.318357e+001  4.523290e+001 
4153125000  -4.372464e+001  3.599443e+001 
4156250000  -4.449711e+001  3.107672e+001 
4159375000  -4.391927e+001  3.349343e+001 
4162500000  -4.279298e+001  3.189975e+001 
4165625000  -4.156530e+001  2.183565e+001 
4168750000  -4.175928e+001  9.838373e+000 
4171875000  -4.136351e+001  -6.378061e-001 
4175000000  -4.223756e+001  -7.797960e+000 
4178125000  -4.238091e+001  -1.143963e+001 
4181250000  -4.236222e+001  -1.779019e+001 
4184375000  -4.284009e+001  -2.668483e+001 
4187500000  -4.247757e+001  -3.065921e+001 
4190625000  -4.303193e+001  -4.117264e+001 
4193750000  -4.421287e+001  -4.548783e+001 
4196875000  -4.556757e+001  -4.979085e+001 
4200000000  -4.632063e+001  -4.072119e+001 
4203125000  -4.492207e+001  -3.079143e+001 
4206250000  -4.157058e+001  -4.433334e+001 
4209375000  -4.177782e+001  -6.780915e+001 
4212500000  -4.452700e+001  -7.530339e+001 
4215625000  -4.482194e+001  -6.936146e+001 
4218750000  -4.319999e+001  -6.639505e+001 
4221875000  -4.157095e+001  -7.878429e+001 
4225000000  -4.311583e+001  -8.816717e+001 
4228125000  -4.281984e+001  -8.881655e+001 
4231250000  -4.146563e+001  -9.886900e+001 
4234375000  -4.141495e+001  -1.065465e+002 
4237500000  -4.133812e+001  -1.164549e+002 
4240625000  -4.143855e+001  -1.232474e+002 
4243750000  -4.237332e+001  -1.343642e+002 
4246875000  -4.349975e+001  -1.324442e+002 
4250000000  -4.337752e+001  -1.329065e+002 
4253125000  -4.332671e+001  -1.368055e+002 
4256250000  -4.284324e+001  -1.425720e+002 
4259375000  -4.260138e+001  -1.470437e+002 
4262500000  -4.261666e+001  -1.531875e+002 
4265625000  -4.258393e+001  -1.562901e+002 
4268750000  -4.099648e+001  -1.643368e+002 
4271875000  -4.138296e+001  -1.719929e+002 
4275000000  -4.081634e+001  1.783606e+002 
4278125000  -4.196149e+001  1.653825e+002 
4281250000  -4.273484e+001  1.646183e+002 
4284375000  -4.258549e+001  1.588184e+002 
4287500000  -4.407708e+001  1.557966e+002 
4290625000  -4.416478e+001  1.635374e+002 
4293750000  -4.194787e+001  1.596253e+002 
4296875000  -4.104582e+001  1.468628e+002 
4300000000  -4.175118e+001  1.351577e+002 
4303125000  -4.231271e+001  1.337405e+002 
4306250000  -4.115850e+001  1.379494e+002 
4309375000  -4.015876e+001  1.248831e+002 
4312500000  -3.999158e+001  1.136618e+002 
4315625000  -4.054078e+001  1.044209e+002 
4318750000  -4.130613e+001  9.944635e+001 
4321875000  -4.153024e+001  9.826294e+001 
4325000000  -4.086885e+001  9.197259e+001 
4328125000  -3.984881e+001  8.140257e+001 
4331250000  -4.027444e+001  6.983239e+001 
4334375000  -4.118130e+001  6.206161e+001 
4337500000  -4.227580e+001  5.897815e+001 
4340625000  -4.240442e+001  6.402694e+001 
4343750000  -4.152552e+001  5.830923e+001 
4346875000  -4.172911e+001  4.682259e+001 
4350000000  -4.139231e+001  4.042047e+001 
4353125000  -4.287602e+001  2.935834e+001 
4356250000  -4.524212e+001  3.444816e+001 
4359375000  -4.331705e+001  4.993509e+001 
4362500000  -4.024842e+001  3.727934e+001 
4365625000  -3.961111e+001  1.704313e+001 
4368750000  -4.101092e+001  6.555452e+000 
4371875000  -4.163608e+001  7.372751e+000 
4375000000  -4.084324e+001  5.096523e-001 
4378125000  -4.099260e+001  -7.028446e+000 
4381250000  -4.106706e+001  -1.515326e+001 
4384375000  -4.119511e+001  -2.319197e+001 
4387500000  -4.176096e+001  -3.141563e+001 
4390625000  -4.241711e+001  -3.276743e+001 
4393750000  -4.229913e+001  -3.305680e+001 
4396875000  -4.183532e+001  -3.827981e+001 
4400000000  -4.137877e+001  -4.657855e+001 
4403125000  -4.240715e+001  -5.738718e+001 
4406250000  -4.235413e+001  -6.298415e+001 
4409375000  -4.286102e+001  -6.617521e+001 
4412500000  -4.415052e+001  -6.871854e+001 
4415625000  -4.383760e+001  -6.727000e+001 
4418750000  -4.283843e+001  -6.591998e+001 
