!Agilent Technologies,E8363B,MY43030201,A.06.04.32
!Agilent E8363B: A.06.04.32
!Date: Tuesday, November 11, 2014 21:47:58
!Correction: S21(Response(S21)) 
!S1P File: Measurement: S21:
# Hz S  dB   R 50
3000000000  -4.377508e+001  -1.622498e+002 
3003125000  -4.509729e+001  -1.665593e+002 
3006250000  -4.521817e+001  -1.680884e+002 
3009375000  -4.593034e+001  -1.640452e+002 
3012500000  -4.492279e+001  -1.724268e+002 
3015625000  -4.507135e+001  -1.785459e+002 
3018750000  -4.553114e+001  -1.780107e+002 
3021875000  -4.371162e+001  -1.790210e+002 
3025000000  -4.253120e+001  1.756440e+002 
3028125000  -4.190698e+001  1.648295e+002 
3031250000  -4.102448e+001  1.519433e+002 
3034375000  -4.076097e+001  1.379511e+002 
3037500000  -4.175531e+001  1.263867e+002 
3040625000  -4.306247e+001  1.201409e+002 
3043750000  -4.314517e+001  1.128141e+002 
3046875000  -4.411631e+001  1.077267e+002 
3050000000  -4.546811e+001  1.020079e+002 
3053125000  -4.469736e+001  1.058363e+002 
3056250000  -4.476379e+001  1.068400e+002 
3059375000  -4.376008e+001  1.052057e+002 
3062500000  -4.239212e+001  1.008246e+002 
3065625000  -4.205824e+001  8.952450e+001 
3068750000  -4.177959e+001  8.105168e+001 
3071875000  -4.181803e+001  7.903430e+001 
3075000000  -4.131010e+001  7.179883e+001 
3078125000  -4.113769e+001  6.441993e+001 
3081250000  -4.136076e+001  5.589001e+001 
3084375000  -4.044258e+001  5.160510e+001 
3087500000  -4.059100e+001  4.317935e+001 
3090625000  -3.998093e+001  3.054254e+001 
3093750000  -4.087632e+001  2.218560e+001 
3096875000  -4.110742e+001  1.550279e+001 
3100000000  -4.122915e+001  1.287644e+001 
3103125000  -4.132035e+001  7.585090e+000 
3106250000  -4.108997e+001  1.662536e+000 
3109375000  -4.088316e+001  -3.607487e+000 
3112500000  -4.085602e+001  -1.210929e+001 
3115625000  -4.075842e+001  -1.613837e+001 
3118750000  -4.074473e+001  -2.193272e+001 
3121875000  -4.026600e+001  -3.354083e+001 
3125000000  -4.207553e+001  -3.707268e+001 
3128125000  -4.201929e+001  -3.017321e+001 
3131250000  -3.948618e+001  -3.909194e+001 
3134375000  -3.892058e+001  -5.653168e+001 
3137500000  -3.964048e+001  -6.983710e+001 
3140625000  -4.103622e+001  -7.576341e+001 
3143750000  -4.160339e+001  -7.920702e+001 
3146875000  -4.112523e+001  -7.770818e+001 
3150000000  -4.026128e+001  -8.346614e+001 
3153125000  -4.071669e+001  -9.112776e+001 
3156250000  -4.142174e+001  -9.075521e+001 
3159375000  -3.912874e+001  -9.247239e+001 
3162500000  -3.762319e+001  -1.091776e+002 
3165625000  -3.909050e+001  -1.226794e+002 
3168750000  -3.922049e+001  -1.247685e+002 
3171875000  -3.856697e+001  -1.328599e+002 
3175000000  -3.931274e+001  -1.424099e+002 
3178125000  -3.868467e+001  -1.456754e+002 
3181250000  -3.815499e+001  -1.550536e+002 
3184375000  -3.786444e+001  -1.672585e+002 
3187500000  -3.935417e+001  1.770762e+002 
3190625000  -4.071800e+001  1.707981e+002 
3193750000  -4.109275e+001  1.737104e+002 
3196875000  -4.119022e+001  1.737714e+002 
3200000000  -3.966817e+001  1.683272e+002 
3203125000  -3.965586e+001  1.602537e+002 
3206250000  -3.992929e+001  1.525222e+002 
3209375000  -3.940757e+001  1.430166e+002 
3212500000  -4.013309e+001  1.360262e+002 
3215625000  -3.967214e+001  1.337795e+002 
3218750000  -4.047516e+001  1.203008e+002 
3221875000  -4.064217e+001  1.133796e+002 
3225000000  -4.048098e+001  1.082912e+002 
3228125000  -4.102435e+001  1.005333e+002 
3231250000  -4.133271e+001  9.876131e+001 
3234375000  -4.090559e+001  9.233560e+001 
3237500000  -4.104808e+001  8.891315e+001 
3240625000  -4.042302e+001  8.341896e+001 
3243750000  -4.036023e+001  7.190311e+001 
3246875000  -4.064110e+001  6.293885e+001 
3250000000  -4.135757e+001  5.841573e+001 
3253125000  -4.110270e+001  5.353502e+001 
3256250000  -4.023710e+001  4.566835e+001 
3259375000  -4.099308e+001  3.027267e+001 
3262500000  -4.257928e+001  2.628629e+001 
3265625000  -4.253092e+001  2.841753e+001 
3268750000  -4.234601e+001  2.694810e+001 
3271875000  -4.163699e+001  1.998009e+001 
3275000000  -4.111864e+001  9.442689e+000 
3278125000  -4.184784e+001  2.691148e+000 
3281250000  -4.190589e+001  -9.177318e-001 
3284375000  -4.102692e+001  -7.713962e+000 
3287500000  -4.164250e+001  -1.774166e+001 
3290625000  -4.157875e+001  -2.547857e+001 
3293750000  -4.162746e+001  -3.383227e+001 
3296875000  -4.273082e+001  -3.729975e+001 
3300000000  -4.192850e+001  -4.022599e+001 
3303125000  -4.123490e+001  -5.001615e+001 
3306250000  -4.083629e+001  -6.104135e+001 
3309375000  -4.074832e+001  -7.161071e+001 
3312500000  -4.119835e+001  -8.636252e+001 
3315625000  -4.235401e+001  -9.221927e+001 
3318750000  -4.392311e+001  -1.001346e+002 
3321875000  -4.543888e+001  -9.784437e+001 
3325000000  -4.504702e+001  -9.492483e+001 
3328125000  -4.420638e+001  -9.852657e+001 
3331250000  -4.251331e+001  -9.874757e+001 
3334375000  -4.017155e+001  -1.170075e+002 
3337500000  -4.110139e+001  -1.413033e+002 
3340625000  -4.280709e+001  -1.523182e+002 
3343750000  -4.458022e+001  -1.547565e+002 
3346875000  -4.422571e+001  -1.561031e+002 
3350000000  -4.371431e+001  -1.618177e+002 
3353125000  -4.362899e+001  -1.704416e+002 
3356250000  -4.335042e+001  1.775364e+002 
3359375000  -4.415051e+001  1.639463e+002 
3362500000  -4.493174e+001  1.574404e+002 
3365625000  -4.594908e+001  1.528432e+002 
3368750000  -4.659790e+001  1.441922e+002 
3371875000  -4.675063e+001  1.406304e+002 
3375000000  -4.879216e+001  1.325852e+002 
3378125000  -4.898232e+001  1.319181e+002 
3381250000  -5.025773e+001  1.395780e+002 
3384375000  -4.753442e+001  1.508672e+002 
3387500000  -4.441073e+001  1.296857e+002 
3390625000  -4.678440e+001  1.100981e+002 
3393750000  -4.783601e+001  1.061130e+002 
3396875000  -4.617083e+001  1.008230e+002 
3400000000  -4.586178e+001  8.706853e+001 
3403125000  -4.663927e+001  7.919579e+001 
3406250000  -4.744171e+001  7.104891e+001 
3409375000  -4.735530e+001  6.050053e+001 
3412500000  -4.821861e+001  5.160167e+001 
3415625000  -4.875168e+001  4.617157e+001 
3418750000  -4.893919e+001  4.324544e+001 
3421875000  -4.897269e+001  4.195686e+001 
3425000000  -4.760375e+001  3.681718e+001 
3428125000  -4.743687e+001  2.776773e+001 
3431250000  -4.657636e+001  1.595996e+001 
3434375000  -4.708277e+001  2.284402e+000 
3437500000  -4.767451e+001  -6.585675e+000 
3440625000  -4.772683e+001  -8.162658e+000 
3443750000  -4.620972e+001  -1.376146e+001 
3446875000  -4.578641e+001  -2.865832e+001 
3450000000  -4.563723e+001  -4.338826e+001 
3453125000  -4.600738e+001  -5.974276e+001 
3456250000  -4.748096e+001  -6.839483e+001 
3459375000  -4.816017e+001  -6.996283e+001 
3462500000  -4.782892e+001  -7.740765e+001 
3465625000  -4.738143e+001  -9.033237e+001 
3468750000  -4.757283e+001  -9.491017e+001 
3471875000  -4.704410e+001  -1.052765e+002 
3475000000  -4.728732e+001  -1.156653e+002 
3478125000  -4.770071e+001  -1.294034e+002 
3481250000  -4.923783e+001  -1.345442e+002 
3484375000  -4.884575e+001  -1.329715e+002 
3487500000  -4.726884e+001  -1.421347e+002 
3490625000  -4.706124e+001  -1.528341e+002 
3493750000  -4.771543e+001  -1.675811e+002 
3496875000  -4.789750e+001  -1.706948e+002 
3500000000  -4.867888e+001  -1.713057e+002 
3503125000  -4.683298e+001  -1.757166e+002 
3506250000  -4.552297e+001  1.716837e+002 
3509375000  -4.539508e+001  1.508555e+002 
3512500000  -4.598328e+001  1.357122e+002 
3515625000  -4.754615e+001  1.313212e+002 
3518750000  -4.825930e+001  1.297509e+002 
3521875000  -4.805586e+001  1.199933e+002 
3525000000  -4.923197e+001  1.132796e+002 
3528125000  -4.746206e+001  1.155777e+002 
3531250000  -4.666513e+001  1.017156e+002 
3534375000  -4.687915e+001  8.643538e+001 
3537500000  -4.777540e+001  7.933353e+001 
3540625000  -4.849684e+001  7.341677e+001 
3543750000  -4.932402e+001  7.710143e+001 
3546875000  -4.864486e+001  8.196532e+001 
3550000000  -4.656458e+001  7.760075e+001 
3553125000  -4.599709e+001  5.399507e+001 
3556250000  -4.729761e+001  4.636504e+001 
3559375000  -4.655212e+001  4.295465e+001 
3562500000  -4.633001e+001  3.036928e+001 
3565625000  -4.766548e+001  2.446584e+001 
3568750000  -4.766679e+001  2.402628e+001 
3571875000  -4.756893e+001  1.639966e+001 
3575000000  -4.723842e+001  7.908465e+000 
3578125000  -4.744133e+001  4.941442e+000 
3581250000  -4.764306e+001  7.301510e+000 
3584375000  -4.588932e+001  -5.949375e+000 
3587500000  -4.579341e+001  -1.437731e+001 
3590625000  -4.655869e+001  -2.515389e+001 
3593750000  -4.756735e+001  -2.379933e+001 
3596875000  -4.676355e+001  -2.408344e+001 
3600000000  -4.487411e+001  -3.408499e+001 
3603125000  -4.559571e+001  -4.885440e+001 
3606250000  -4.559099e+001  -5.215221e+001 
3609375000  -4.605720e+001  -5.743073e+001 
3612500000  -4.609278e+001  -6.459109e+001 
3615625000  -4.662315e+001  -6.711257e+001 
3618750000  -4.598355e+001  -7.310065e+001 
3621875000  -4.562322e+001  -8.011768e+001 
3625000000  -4.565238e+001  -8.361983e+001 
3628125000  -4.471373e+001  -8.854375e+001 
3631250000  -4.528249e+001  -9.698335e+001 
3634375000  -4.532319e+001  -9.760301e+001 
3637500000  -4.442322e+001  -1.002841e+002 
3640625000  -4.358381e+001  -1.061848e+002 
3643750000  -4.332364e+001  -1.203715e+002 
3646875000  -4.389622e+001  -1.295677e+002 
3650000000  -4.386186e+001  -1.337263e+002 
3653125000  -4.361498e+001  -1.443738e+002 
3656250000  -4.392971e+001  -1.475291e+002 
3659375000  -4.354815e+001  -1.533344e+002 
3662500000  -4.320113e+001  -1.585224e+002 
3665625000  -4.352457e+001  -1.636337e+002 
3668750000  -4.210882e+001  -1.687430e+002 
3671875000  -4.157391e+001  1.789689e+002 
3675000000  -4.210406e+001  1.686541e+002 
3678125000  -4.231194e+001  1.629785e+002 
3681250000  -4.195172e+001  1.581683e+002 
3684375000  -4.253202e+001  1.469304e+002 
3687500000  -4.281760e+001  1.384304e+002 
3690625000  -4.321880e+001  1.337582e+002 
3693750000  -4.426670e+001  1.329193e+002 
3696875000  -4.403167e+001  1.285860e+002 
3700000000  -4.329802e+001  1.208819e+002 
3703125000  -4.385224e+001  1.116090e+002 
3706250000  -4.437321e+001  1.112216e+002 
3709375000  -4.390965e+001  1.110530e+002 
3712500000  -4.312492e+001  1.041835e+002 
3715625000  -4.163745e+001  9.556336e+001 
3718750000  -4.188185e+001  8.478445e+001 
3721875000  -4.219587e+001  7.718399e+001 
3725000000  -4.210279e+001  6.597851e+001 
3728125000  -4.243188e+001  6.593894e+001 
3731250000  -4.193135e+001  5.963937e+001 
3734375000  -4.173979e+001  5.252402e+001 
3737500000  -4.239447e+001  4.377335e+001 
3740625000  -4.302584e+001  3.556833e+001 
3743750000  -4.280985e+001  2.912449e+001 
3746875000  -4.308741e+001  2.473019e+001 
3750000000  -4.348618e+001  1.947923e+001 
3753125000  -4.348711e+001  1.871122e+001 
3756250000  -4.352158e+001  1.181412e+001 
3759375000  -4.330160e+001  7.452547e+000 
3762500000  -4.347258e+001  4.652317e+000 
3765625000  -4.395012e+001  -1.174087e+000 
3768750000  -4.388986e+001  -1.513430e+000 
3771875000  -4.217964e+001  -8.508957e+000 
3775000000  -4.250361e+001  -1.977384e+001 
3778125000  -4.284685e+001  -2.636584e+001 
3781250000  -4.255821e+001  -3.072549e+001 
3784375000  -4.220668e+001  -3.721971e+001 
3787500000  -4.236670e+001  -4.295366e+001 
3790625000  -4.275723e+001  -5.087827e+001 
3793750000  -4.251108e+001  -5.354746e+001 
3796875000  -4.181202e+001  -6.084542e+001 
3800000000  -4.060648e+001  -6.768172e+001 
3803125000  -4.183705e+001  -7.768855e+001 
3806250000  -4.238395e+001  -8.368211e+001 
3809375000  -4.163266e+001  -8.876890e+001 
3812500000  -4.181303e+001  -9.958872e+001 
3815625000  -4.312403e+001  -1.084401e+002 
3818750000  -4.417495e+001  -1.094500e+002 
3821875000  -4.374086e+001  -9.903820e+001 
3825000000  -4.139252e+001  -1.030047e+002 
3828125000  -4.022966e+001  -1.268053e+002 
3831250000  -4.131678e+001  -1.425535e+002 
3834375000  -4.393009e+001  -1.414757e+002 
3837500000  -4.405644e+001  -1.385201e+002 
3840625000  -4.255424e+001  -1.469589e+002 
3843750000  -4.189106e+001  -1.580690e+002 
3846875000  -4.375806e+001  -1.679301e+002 
3850000000  -4.366099e+001  -1.608970e+002 
3853125000  -4.386817e+001  -1.624798e+002 
3856250000  -4.268925e+001  -1.708280e+002 
3859375000  -4.226335e+001  1.793746e+002 
3862500000  -4.228935e+001  1.705604e+002 
3865625000  -4.276852e+001  1.624846e+002 
3868750000  -4.239473e+001  1.633956e+002 
3871875000  -4.186191e+001  1.532296e+002 
3875000000  -4.246517e+001  1.408927e+002 
3878125000  -4.298380e+001  1.407082e+002 
3881250000  -4.301657e+001  1.376006e+002 
3884375000  -4.265276e+001  1.308716e+002 
3887500000  -4.311960e+001  1.206394e+002 
3890625000  -4.377360e+001  1.159870e+002 
3893750000  -4.429854e+001  1.143725e+002 
3896875000  -4.450307e+001  1.107475e+002 
3900000000  -4.401403e+001  1.055346e+002 
3903125000  -4.388977e+001  1.013195e+002 
3906250000  -4.320651e+001  9.830400e+001 
3909375000  -4.249239e+001  8.865980e+001 
3912500000  -4.358199e+001  7.961565e+001 
3915625000  -4.480125e+001  7.853426e+001 
3918750000  -4.463574e+001  7.753089e+001 
3921875000  -4.325135e+001  7.394032e+001 
3925000000  -4.294434e+001  6.556118e+001 
3928125000  -4.290593e+001  5.574023e+001 
3931250000  -4.355572e+001  4.850795e+001 
3934375000  -4.365900e+001  4.856328e+001 
3937500000  -4.444264e+001  4.300078e+001 
3940625000  -4.465093e+001  4.551150e+001 
3943750000  -4.347635e+001  3.811950e+001 
3946875000  -4.312899e+001  3.024248e+001 
3950000000  -4.341332e+001  2.356600e+001 
3953125000  -4.438252e+001  2.048973e+001 
3956250000  -4.251128e+001  2.032054e+001 
3959375000  -4.207221e+001  1.445756e+001 
3962500000  -4.127379e+001  2.575335e+000 
3965625000  -4.168606e+001  -7.235319e+000 
3968750000  -4.228637e+001  -1.697708e+001 
3971875000  -4.215546e+001  -2.048958e+001 
3975000000  -4.220753e+001  -2.675194e+001 
3978125000  -4.215285e+001  -3.442990e+001 
3981250000  -4.187317e+001  -4.012687e+001 
3984375000  -4.263930e+001  -4.836463e+001 
3987500000  -4.328044e+001  -5.361521e+001 
3990625000  -4.325379e+001  -5.749299e+001 
3993750000  -4.331387e+001  -6.273558e+001 
3996875000  -4.276348e+001  -6.916252e+001 
4000000000  -4.356963e+001  -7.340216e+001 
4003125000  -4.394660e+001  -7.423557e+001 
4006250000  -4.211886e+001  -7.976555e+001 
4009375000  -4.138945e+001  -9.426775e+001 
4012500000  -4.269252e+001  -1.016889e+002 
4015625000  -4.419103e+001  -1.036407e+002 
4018750000  -4.342747e+001  -1.063929e+002 
4021875000  -4.328758e+001  -1.147779e+002 
4025000000  -4.310593e+001  -1.226037e+002 
4028125000  -4.328352e+001  -1.299288e+002 
4031250000  -4.405621e+001  -1.351857e+002 
4034375000  -4.389395e+001  -1.387844e+002 
4037500000  -4.405901e+001  -1.432169e+002 
4040625000  -4.400502e+001  -1.489799e+002 
4043750000  -4.407074e+001  -1.531085e+002 
4046875000  -4.450778e+001  -1.556115e+002 
4050000000  -4.411703e+001  -1.637271e+002 
4053125000  -4.534894e+001  -1.684929e+002 
4056250000  -4.554460e+001  -1.642642e+002 
4059375000  -4.406630e+001  -1.662729e+002 
4062500000  -4.341617e+001  -1.772230e+002 
4065625000  -4.400901e+001  -1.795288e+002 
4068750000  -4.290581e+001  1.704881e+002 
4071875000  -4.268821e+001  1.606812e+002 
4075000000  -4.355300e+001  1.548410e+002 
4078125000  -4.391307e+001  1.514148e+002 
4081250000  -4.331606e+001  1.466910e+002 
4084375000  -4.331606e+001  1.378976e+002 
4087500000  -4.399603e+001  1.270622e+002 
4090625000  -4.468756e+001  1.274993e+002 
4093750000  -4.434665e+001  1.229201e+002 
4096875000  -4.443147e+001  1.169515e+002 
4100000000  -4.533920e+001  1.098470e+002 
4103125000  -4.574083e+001  1.125545e+002 
4106250000  -4.589199e+001  1.139527e+002 
4109375000  -4.441898e+001  1.085086e+002 
4112500000  -4.392451e+001  9.743423e+001 
4115625000  -4.406605e+001  9.776366e+001 
4118750000  -4.433422e+001  8.836424e+001 
4121875000  -4.373539e+001  8.434317e+001 
4125000000  -4.479890e+001  7.429060e+001 
4128125000  -4.528852e+001  7.949232e+001 
4131250000  -4.410010e+001  8.252437e+001 
4134375000  -4.159571e+001  6.940476e+001 
4137500000  -4.186543e+001  4.852971e+001 
4140625000  -4.442646e+001  4.392920e+001 
4143750000  -4.478531e+001  4.945171e+001 
4146875000  -4.402169e+001  5.061068e+001 
4150000000  -4.285471e+001  4.006495e+001 
4153125000  -4.320103e+001  2.983953e+001 
4156250000  -4.386200e+001  2.592147e+001 
4159375000  -4.365957e+001  2.908091e+001 
4162500000  -4.227574e+001  2.727462e+001 
4165625000  -4.150009e+001  1.599412e+001 
4168750000  -4.121165e+001  3.757051e+000 
4171875000  -4.095894e+001  -7.748421e+000 
4175000000  -4.162306e+001  -1.367628e+001 
4178125000  -4.213570e+001  -1.728361e+001 
4181250000  -4.217581e+001  -2.570313e+001 
4184375000  -4.249485e+001  -3.140549e+001 
4187500000  -4.202815e+001  -3.588779e+001 
4190625000  -4.259224e+001  -4.749221e+001 
4193750000  -4.405895e+001  -4.980652e+001 
4196875000  -4.460465e+001  -5.516285e+001 
4200000000  -4.592654e+001  -5.040230e+001 
4203125000  -4.449881e+001  -3.710938e+001 
4206250000  -4.118336e+001  -4.783546e+001 
4209375000  -4.117373e+001  -7.399954e+001 
4212500000  -4.407861e+001  -7.920005e+001 
4215625000  -4.419100e+001  -7.316849e+001 
4218750000  -4.233561e+001  -7.493012e+001 
4221875000  -4.079916e+001  -8.419871e+001 
4225000000  -4.262550e+001  -9.667691e+001 
4228125000  -4.207395e+001  -9.416260e+001 
4231250000  -4.087301e+001  -1.040584e+002 
4234375000  -4.094341e+001  -1.145490e+002 
4237500000  -4.072417e+001  -1.195326e+002 
4240625000  -4.120774e+001  -1.312033e+002 
4243750000  -4.202202e+001  -1.376250e+002 
4246875000  -4.305977e+001  -1.405796e+002 
4250000000  -4.249291e+001  -1.406434e+002 
4253125000  -4.239731e+001  -1.449158e+002 
4256250000  -4.214892e+001  -1.475439e+002 
4259375000  -4.226218e+001  -1.553827e+002 
4262500000  -4.210500e+001  -1.587096e+002 
4265625000  -4.212006e+001  -1.593864e+002 
4268750000  -4.131823e+001  -1.710809e+002 
4271875000  -4.053584e+001  -1.796624e+002 
4275000000  -4.010504e+001  1.708345e+002 
4278125000  -4.156252e+001  1.578981e+002 
4281250000  -4.267799e+001  1.577351e+002 
4284375000  -4.218174e+001  1.510237e+002 
4287500000  -4.358836e+001  1.472277e+002 
4290625000  -4.402386e+001  1.576223e+002 
4293750000  -4.148308e+001  1.566612e+002 
4296875000  -4.035987e+001  1.401491e+002 
4300000000  -4.162846e+001  1.284124e+002 
4303125000  -4.183520e+001  1.311105e+002 
4306250000  -4.068923e+001  1.284757e+002 
4309375000  -3.985500e+001  1.182077e+002 
4312500000  -3.979768e+001  1.063427e+002 
4315625000  -4.015705e+001  9.785943e+001 
4318750000  -4.070255e+001  9.322206e+001 
4321875000  -4.106581e+001  9.202203e+001 
4325000000  -3.997610e+001  8.518105e+001 
4328125000  -3.929837e+001  7.364549e+001 
4331250000  -3.956721e+001  6.261543e+001 
4334375000  -4.064198e+001  5.497172e+001 
4337500000  -4.152334e+001  5.328681e+001 
4340625000  -4.201332e+001  5.376870e+001 
4343750000  -4.086385e+001  5.142023e+001 
4346875000  -4.101951e+001  4.054718e+001 
4350000000  -4.102372e+001  3.131501e+001 
4353125000  -4.191626e+001  2.545440e+001 
4356250000  -4.414062e+001  2.628086e+001 
4359375000  -4.238500e+001  4.241116e+001 
4362500000  -3.965206e+001  2.933754e+001 
4365625000  -3.903726e+001  1.182087e+001 
4368750000  -4.004127e+001  4.932768e-001 
4371875000  -4.145785e+001  -1.313500e-001 
4375000000  -4.061753e+001  -7.236070e+000 
4378125000  -4.071164e+001  -1.569077e+001 
4381250000  -4.063222e+001  -2.350113e+001 
4384375000  -4.061255e+001  -3.183136e+001 
4387500000  -4.183469e+001  -3.706829e+001 
4390625000  -4.211733e+001  -4.000793e+001 
4393750000  -4.149647e+001  -4.101088e+001 
4396875000  -4.120758e+001  -4.683344e+001 
4400000000  -4.075027e+001  -5.524899e+001 
4403125000  -4.118271e+001  -6.741048e+001 
4406250000  -4.228500e+001  -7.012002e+001 
4409375000  -4.249210e+001  -7.452222e+001 
4412500000  -4.351165e+001  -7.800789e+001 
4415625000  -4.290654e+001  -7.443462e+001 
4418750000  -4.225413e+001  -7.636455e+001 
