!Agilent Technologies,E8363B,MY43030201,A.06.04.32
!Agilent E8363B: A.06.04.32
!Date: Tuesday, November 11, 2014 21:45:33
!Correction: S21(Response(S21)) 
!S1P File: Measurement: S21:
# Hz S  dB   R 50
3000000000  -4.371695e+001  -1.609262e+002 
3003125000  -4.552306e+001  -1.667225e+002 
3006250000  -4.523235e+001  -1.669106e+002 
3009375000  -4.621069e+001  -1.607380e+002 
3012500000  -4.494231e+001  -1.720172e+002 
3015625000  -4.492223e+001  -1.780145e+002 
3018750000  -4.533456e+001  -1.776765e+002 
3021875000  -4.411620e+001  -1.791959e+002 
3025000000  -4.268775e+001  1.780759e+002 
3028125000  -4.177963e+001  1.670535e+002 
3031250000  -4.096066e+001  1.521360e+002 
3034375000  -4.079126e+001  1.394571e+002 
3037500000  -4.156187e+001  1.272135e+002 
3040625000  -4.326369e+001  1.218373e+002 
3043750000  -4.333346e+001  1.139613e+002 
3046875000  -4.419813e+001  1.081938e+002 
3050000000  -4.546432e+001  1.040873e+002 
3053125000  -4.470689e+001  1.069614e+002 
3056250000  -4.476672e+001  1.082939e+002 
3059375000  -4.378135e+001  1.072118e+002 
3062500000  -4.248919e+001  1.019623e+002 
3065625000  -4.203549e+001  8.973287e+001 
3068750000  -4.185778e+001  8.229864e+001 
3071875000  -4.192016e+001  7.993214e+001 
3075000000  -4.113674e+001  7.151013e+001 
3078125000  -4.131887e+001  6.417243e+001 
3081250000  -4.139619e+001  5.702311e+001 
3084375000  -4.044906e+001  5.172153e+001 
3087500000  -4.051112e+001  4.324387e+001 
3090625000  -3.987444e+001  3.168468e+001 
3093750000  -4.087745e+001  2.159705e+001 
3096875000  -4.117549e+001  1.614535e+001 
3100000000  -4.119619e+001  1.218675e+001 
3103125000  -4.145053e+001  6.820192e+000 
3106250000  -4.111005e+001  2.792603e+000 
3109375000  -4.116886e+001  -1.861655e+000 
3112500000  -4.078337e+001  -1.172753e+001 
3115625000  -4.093184e+001  -1.551558e+001 
3118750000  -4.064477e+001  -2.098310e+001 
3121875000  -4.023267e+001  -3.164037e+001 
3125000000  -4.212846e+001  -3.530417e+001 
3128125000  -4.200632e+001  -3.037074e+001 
3131250000  -3.935917e+001  -3.824339e+001 
3134375000  -3.882452e+001  -5.566025e+001 
3137500000  -3.965738e+001  -6.945997e+001 
3140625000  -4.085617e+001  -7.455241e+001 
3143750000  -4.150152e+001  -7.673748e+001 
3146875000  -4.121204e+001  -7.646002e+001 
3150000000  -4.041771e+001  -8.124065e+001 
3153125000  -4.064585e+001  -9.117441e+001 
3156250000  -4.134372e+001  -8.781831e+001 
3159375000  -3.916890e+001  -9.205724e+001 
3162500000  -3.773568e+001  -1.085914e+002 
3165625000  -3.890552e+001  -1.221470e+002 
3168750000  -3.900364e+001  -1.235741e+002 
3171875000  -3.871187e+001  -1.329133e+002 
3175000000  -3.920281e+001  -1.423637e+002 
3178125000  -3.875095e+001  -1.453903e+002 
3181250000  -3.798280e+001  -1.545903e+002 
3184375000  -3.788088e+001  -1.662408e+002 
3187500000  -3.927790e+001  1.793663e+002 
3190625000  -4.101167e+001  1.730223e+002 
3193750000  -4.109393e+001  1.755830e+002 
3196875000  -4.118190e+001  1.761489e+002 
3200000000  -3.991733e+001  1.687960e+002 
3203125000  -3.961151e+001  1.605589e+002 
3206250000  -3.979557e+001  1.520992e+002 
3209375000  -3.961270e+001  1.444315e+002 
3212500000  -4.008397e+001  1.374900e+002 
3215625000  -3.962038e+001  1.335501e+002 
3218750000  -4.024326e+001  1.207334e+002 
3221875000  -4.067785e+001  1.135896e+002 
3225000000  -4.026512e+001  1.091471e+002 
3228125000  -4.105487e+001  1.020127e+002 
3231250000  -4.159925e+001  9.813886e+001 
3234375000  -4.088216e+001  9.427049e+001 
3237500000  -4.094202e+001  9.081115e+001 
3240625000  -4.039164e+001  8.284949e+001 
3243750000  -4.038340e+001  7.229942e+001 
3246875000  -4.074982e+001  6.415815e+001 
3250000000  -4.117029e+001  5.946442e+001 
3253125000  -4.116855e+001  5.514800e+001 
3256250000  -4.051073e+001  4.489682e+001 
3259375000  -4.076791e+001  3.176188e+001 
3262500000  -4.246977e+001  2.610312e+001 
3265625000  -4.270008e+001  2.858608e+001 
3268750000  -4.241689e+001  2.805798e+001 
3271875000  -4.159056e+001  2.192266e+001 
3275000000  -4.098389e+001  9.447231e+000 
3278125000  -4.162518e+001  3.670047e+000 
3281250000  -4.159073e+001  -3.451052e-001 
3284375000  -4.097470e+001  -6.714895e+000 
3287500000  -4.137917e+001  -1.630087e+001 
3290625000  -4.145895e+001  -2.468274e+001 
3293750000  -4.145718e+001  -3.301795e+001 
3296875000  -4.242585e+001  -3.689034e+001 
3300000000  -4.208486e+001  -4.037516e+001 
3303125000  -4.087165e+001  -5.038686e+001 
3306250000  -4.081737e+001  -5.953935e+001 
3309375000  -4.077657e+001  -7.033673e+001 
3312500000  -4.123964e+001  -8.612923e+001 
3315625000  -4.244803e+001  -9.345953e+001 
3318750000  -4.390755e+001  -1.013526e+002 
3321875000  -4.530774e+001  -9.793217e+001 
3325000000  -4.526809e+001  -9.460506e+001 
3328125000  -4.413941e+001  -9.849850e+001 
3331250000  -4.250735e+001  -9.796407e+001 
3334375000  -4.004118e+001  -1.155069e+002 
3337500000  -4.076880e+001  -1.407594e+002 
3340625000  -4.270940e+001  -1.518085e+002 
3343750000  -4.458702e+001  -1.527979e+002 
3346875000  -4.407738e+001  -1.555884e+002 
3350000000  -4.376390e+001  -1.599314e+002 
3353125000  -4.370942e+001  -1.716969e+002 
3356250000  -4.368381e+001  1.776035e+002 
3359375000  -4.408870e+001  1.665626e+002 
3362500000  -4.523641e+001  1.563619e+002 
3365625000  -4.558673e+001  1.548880e+002 
3368750000  -4.643734e+001  1.468641e+002 
3371875000  -4.687015e+001  1.399772e+002 
3375000000  -4.837181e+001  1.316324e+002 
3378125000  -4.937209e+001  1.311764e+002 
3381250000  -5.004425e+001  1.427718e+002 
3384375000  -4.734748e+001  1.520742e+002 
3387500000  -4.502689e+001  1.296749e+002 
3390625000  -4.666415e+001  1.082305e+002 
3393750000  -4.732197e+001  1.065571e+002 
3396875000  -4.627865e+001  1.004213e+002 
3400000000  -4.619807e+001  8.560261e+001 
3403125000  -4.703226e+001  8.079936e+001 
3406250000  -4.761907e+001  7.064223e+001 
3409375000  -4.735560e+001  5.918659e+001 
3412500000  -4.791535e+001  5.295501e+001 
3415625000  -4.875493e+001  5.047197e+001 
3418750000  -4.888453e+001  4.394054e+001 
3421875000  -4.893430e+001  4.475052e+001 
3425000000  -4.814475e+001  3.252960e+001 
3428125000  -4.741678e+001  2.938772e+001 
3431250000  -4.703617e+001  1.759203e+001 
3434375000  -4.710631e+001  2.314198e+000 
3437500000  -4.743327e+001  -4.259367e+000 
3440625000  -4.808851e+001  -9.226970e+000 
3443750000  -4.677115e+001  -1.425869e+001 
3446875000  -4.601052e+001  -2.924036e+001 
3450000000  -4.552693e+001  -4.434414e+001 
3453125000  -4.598427e+001  -6.035868e+001 
3456250000  -4.755896e+001  -6.779530e+001 
3459375000  -4.809614e+001  -6.959964e+001 
3462500000  -4.757590e+001  -7.664047e+001 
3465625000  -4.713555e+001  -8.750656e+001 
3468750000  -4.727402e+001  -9.721529e+001 
3471875000  -4.709052e+001  -1.019657e+002 
3475000000  -4.661362e+001  -1.139983e+002 
3478125000  -4.754671e+001  -1.291799e+002 
3481250000  -4.944395e+001  -1.338021e+002 
3484375000  -4.918410e+001  -1.326972e+002 
3487500000  -4.773967e+001  -1.425020e+002 
3490625000  -4.733651e+001  -1.516584e+002 
3493750000  -4.780425e+001  -1.642308e+002 
3496875000  -4.818203e+001  -1.682955e+002 
3500000000  -4.833134e+001  -1.705108e+002 
3503125000  -4.695396e+001  -1.739597e+002 
3506250000  -4.589478e+001  1.731568e+002 
3509375000  -4.581295e+001  1.500505e+002 
3512500000  -4.631851e+001  1.392431e+002 
3515625000  -4.712927e+001  1.320451e+002 
3518750000  -4.803001e+001  1.319236e+002 
3521875000  -4.793079e+001  1.179056e+002 
3525000000  -4.863528e+001  1.150061e+002 
3528125000  -4.747145e+001  1.165421e+002 
3531250000  -4.658755e+001  1.064063e+002 
3534375000  -4.683413e+001  8.800134e+001 
3537500000  -4.791925e+001  8.068925e+001 
3540625000  -4.840730e+001  7.592034e+001 
3543750000  -4.980575e+001  7.793649e+001 
3546875000  -4.858926e+001  8.012743e+001 
3550000000  -4.646474e+001  7.188268e+001 
3553125000  -4.600833e+001  5.605042e+001 
3556250000  -4.765362e+001  4.642746e+001 
3559375000  -4.631491e+001  4.294552e+001 
3562500000  -4.620171e+001  3.119223e+001 
3565625000  -4.745884e+001  2.580150e+001 
3568750000  -4.798301e+001  2.346519e+001 
3571875000  -4.727384e+001  2.032887e+001 
3575000000  -4.701835e+001  9.859774e+000 
3578125000  -4.765103e+001  1.018854e+001 
3581250000  -4.743818e+001  1.552778e+000 
3584375000  -4.600459e+001  -4.179108e+000 
3587500000  -4.561497e+001  -1.690926e+001 
3590625000  -4.642865e+001  -1.979305e+001 
3593750000  -4.838681e+001  -2.856057e+001 
3596875000  -4.681071e+001  -1.990005e+001 
3600000000  -4.480058e+001  -3.173297e+001 
3603125000  -4.536367e+001  -4.923607e+001 
3606250000  -4.593779e+001  -5.344192e+001 
3609375000  -4.585170e+001  -5.623090e+001 
3612500000  -4.605563e+001  -6.332663e+001 
3615625000  -4.626907e+001  -6.652168e+001 
3618750000  -4.669163e+001  -6.952673e+001 
3621875000  -4.544250e+001  -8.034918e+001 
3625000000  -4.606314e+001  -8.111481e+001 
3628125000  -4.492994e+001  -8.686910e+001 
3631250000  -4.532944e+001  -9.571857e+001 
3634375000  -4.572713e+001  -9.820249e+001 
3637500000  -4.436856e+001  -9.987921e+001 
3640625000  -4.371799e+001  -1.059112e+002 
3643750000  -4.309497e+001  -1.189024e+002 
3646875000  -4.373782e+001  -1.309626e+002 
3650000000  -4.365984e+001  -1.343419e+002 
3653125000  -4.320479e+001  -1.413263e+002 
3656250000  -4.394175e+001  -1.481012e+002 
3659375000  -4.383752e+001  -1.521649e+002 
3662500000  -4.330799e+001  -1.603406e+002 
3665625000  -4.332180e+001  -1.633408e+002 
3668750000  -4.195031e+001  -1.677880e+002 
3671875000  -4.146265e+001  1.780746e+002 
3675000000  -4.226833e+001  1.668732e+002 
3678125000  -4.262231e+001  1.645467e+002 
3681250000  -4.233332e+001  1.558614e+002 
3684375000  -4.233738e+001  1.499998e+002 
3687500000  -4.284732e+001  1.398302e+002 
3690625000  -4.346959e+001  1.333027e+002 
3693750000  -4.451732e+001  1.328506e+002 
3696875000  -4.371050e+001  1.295764e+002 
3700000000  -4.331279e+001  1.237310e+002 
3703125000  -4.357100e+001  1.158419e+002 
3706250000  -4.455952e+001  1.122407e+002 
3709375000  -4.363836e+001  1.124745e+002 
3712500000  -4.282797e+001  1.035930e+002 
3715625000  -4.211534e+001  9.591665e+001 
3718750000  -4.180355e+001  8.706374e+001 
3721875000  -4.143848e+001  7.679225e+001 
3725000000  -4.238054e+001  6.927519e+001 
3728125000  -4.262921e+001  6.581924e+001 
3731250000  -4.198435e+001  5.910673e+001 
3734375000  -4.207971e+001  5.157440e+001 
3737500000  -4.272024e+001  4.285139e+001 
3740625000  -4.342409e+001  3.697512e+001 
3743750000  -4.272846e+001  3.211411e+001 
3746875000  -4.347015e+001  2.543333e+001 
3750000000  -4.353578e+001  2.072855e+001 
3753125000  -4.369026e+001  1.716819e+001 
3756250000  -4.354020e+001  1.536045e+001 
3759375000  -4.365551e+001  8.676105e+000 
3762500000  -4.340541e+001  4.032549e+000 
3765625000  -4.388495e+001  -1.494230e+000 
3768750000  -4.375275e+001  1.698786e+000 
3771875000  -4.196492e+001  -8.932547e+000 
3775000000  -4.196663e+001  -1.886464e+001 
3778125000  -4.272406e+001  -2.452713e+001 
3781250000  -4.260909e+001  -3.041026e+001 
3784375000  -4.248644e+001  -3.637575e+001 
3787500000  -4.214562e+001  -3.921452e+001 
3790625000  -4.279956e+001  -5.071988e+001 
3793750000  -4.270649e+001  -5.475486e+001 
3796875000  -4.168062e+001  -5.952140e+001 
3800000000  -4.079765e+001  -6.560062e+001 
3803125000  -4.180904e+001  -7.763910e+001 
3806250000  -4.260172e+001  -8.518327e+001 
3809375000  -4.209248e+001  -8.829202e+001 
3812500000  -4.173950e+001  -1.014218e+002 
3815625000  -4.303434e+001  -1.106995e+002 
3818750000  -4.473971e+001  -1.061485e+002 
3821875000  -4.346736e+001  -9.778529e+001 
3825000000  -4.123588e+001  -1.039110e+002 
3828125000  -4.047586e+001  -1.250069e+002 
3831250000  -4.154730e+001  -1.396212e+002 
3834375000  -4.427602e+001  -1.402209e+002 
3837500000  -4.408788e+001  -1.358385e+002 
3840625000  -4.263201e+001  -1.449893e+002 
3843750000  -4.159338e+001  -1.569830e+002 
3846875000  -4.369585e+001  -1.665014e+002 
3850000000  -4.372744e+001  -1.572768e+002 
3853125000  -4.392599e+001  -1.642015e+002 
3856250000  -4.317803e+001  -1.707931e+002 
3859375000  -4.239253e+001  -1.782830e+002 
3862500000  -4.238148e+001  1.726758e+002 
3865625000  -4.284208e+001  1.633096e+002 
3868750000  -4.251805e+001  1.629748e+002 
3871875000  -4.169751e+001  1.526630e+002 
3875000000  -4.251297e+001  1.404716e+002 
3878125000  -4.312699e+001  1.425689e+002 
3881250000  -4.291495e+001  1.406357e+002 
3884375000  -4.249779e+001  1.280237e+002 
3887500000  -4.358804e+001  1.204317e+002 
3890625000  -4.407104e+001  1.212217e+002 
3893750000  -4.411992e+001  1.153248e+002 
3896875000  -4.454150e+001  1.120825e+002 
3900000000  -4.436585e+001  1.067589e+002 
3903125000  -4.383243e+001  1.014197e+002 
3906250000  -4.298444e+001  9.848548e+001 
3909375000  -4.281297e+001  9.192743e+001 
3912500000  -4.385532e+001  7.956924e+001 
3915625000  -4.489974e+001  8.041438e+001 
3918750000  -4.498938e+001  7.797213e+001 
3921875000  -4.398719e+001  7.576793e+001 
3925000000  -4.298753e+001  6.641350e+001 
3928125000  -4.274064e+001  5.927874e+001 
3931250000  -4.368716e+001  5.020827e+001 
3934375000  -4.391255e+001  4.908145e+001 
3937500000  -4.455273e+001  4.522866e+001 
3940625000  -4.435540e+001  4.508018e+001 
3943750000  -4.337260e+001  4.026342e+001 
3946875000  -4.247933e+001  3.164027e+001 
3950000000  -4.355553e+001  2.087095e+001 
3953125000  -4.414642e+001  2.026724e+001 
3956250000  -4.253059e+001  2.230257e+001 
3959375000  -4.169968e+001  1.435451e+001 
3962500000  -4.142686e+001  4.851549e+000 
3965625000  -4.171016e+001  -6.496997e+000 
3968750000  -4.234698e+001  -1.294409e+001 
3971875000  -4.250165e+001  -2.063027e+001 
3975000000  -4.184813e+001  -2.410543e+001 
3978125000  -4.195014e+001  -3.127110e+001 
3981250000  -4.164487e+001  -3.799530e+001 
3984375000  -4.228546e+001  -4.703542e+001 
3987500000  -4.289537e+001  -4.910033e+001 
3990625000  -4.310168e+001  -5.556792e+001 
3993750000  -4.289667e+001  -6.034788e+001 
3996875000  -4.302885e+001  -6.844541e+001 
4000000000  -4.356852e+001  -7.101202e+001 
4003125000  -4.370397e+001  -7.207674e+001 
4006250000  -4.219107e+001  -7.427342e+001 
4009375000  -4.116187e+001  -9.246014e+001 
4012500000  -4.275623e+001  -1.004800e+002 
4015625000  -4.407825e+001  -1.050963e+002 
4018750000  -4.381285e+001  -1.070666e+002 
4021875000  -4.315124e+001  -1.154099e+002 
4025000000  -4.323630e+001  -1.211031e+002 
4028125000  -4.324581e+001  -1.290420e+002 
4031250000  -4.399150e+001  -1.336809e+002 
4034375000  -4.411810e+001  -1.362590e+002 
4037500000  -4.391259e+001  -1.411332e+002 
4040625000  -4.407121e+001  -1.460874e+002 
4043750000  -4.459380e+001  -1.475767e+002 
4046875000  -4.464221e+001  -1.533238e+002 
4050000000  -4.384399e+001  -1.633636e+002 
4053125000  -4.514659e+001  -1.649851e+002 
4056250000  -4.531826e+001  -1.633031e+002 
4059375000  -4.382186e+001  -1.660011e+002 
4062500000  -4.303756e+001  -1.742614e+002 
4065625000  -4.373076e+001  -1.741161e+002 
4068750000  -4.313928e+001  1.732400e+002 
4071875000  -4.258537e+001  1.633629e+002 
4075000000  -4.364070e+001  1.519426e+002 
4078125000  -4.447926e+001  1.538825e+002 
4081250000  -4.378540e+001  1.464519e+002 
4084375000  -4.308326e+001  1.356480e+002 
4087500000  -4.355172e+001  1.295589e+002 
4090625000  -4.481295e+001  1.299447e+002 
4093750000  -4.454416e+001  1.261601e+002 
4096875000  -4.439410e+001  1.172765e+002 
4100000000  -4.505527e+001  1.103702e+002 
4103125000  -4.598840e+001  1.139122e+002 
4106250000  -4.522950e+001  1.158736e+002 
4109375000  -4.414305e+001  1.115099e+002 
4112500000  -4.408728e+001  9.873377e+001 
4115625000  -4.412866e+001  9.553346e+001 
4118750000  -4.385607e+001  9.154321e+001 
4121875000  -4.389217e+001  8.275320e+001 
4125000000  -4.495227e+001  7.698215e+001 
4128125000  -4.521281e+001  8.266408e+001 
4131250000  -4.413844e+001  8.285911e+001 
4134375000  -4.180511e+001  7.252508e+001 
4137500000  -4.247390e+001  5.064615e+001 
4140625000  -4.448416e+001  4.374751e+001 
4143750000  -4.471215e+001  4.793811e+001 
4146875000  -4.426595e+001  5.022707e+001 
4150000000  -4.293170e+001  3.826854e+001 
4153125000  -4.306493e+001  3.140103e+001 
4156250000  -4.421087e+001  2.439514e+001 
4159375000  -4.412661e+001  2.889058e+001 
4162500000  -4.249093e+001  2.658146e+001 
4165625000  -4.145433e+001  1.611946e+001 
4168750000  -4.125952e+001  5.576102e+000 
4171875000  -4.131215e+001  -5.779770e+000 
4175000000  -4.193745e+001  -1.687039e+001 
4178125000  -4.237743e+001  -1.754549e+001 
4181250000  -4.207648e+001  -2.156234e+001 
4184375000  -4.253453e+001  -3.130553e+001 
4187500000  -4.214290e+001  -3.614161e+001 
4190625000  -4.276416e+001  -4.741842e+001 
4193750000  -4.386473e+001  -5.012495e+001 
4196875000  -4.441971e+001  -5.350215e+001 
4200000000  -4.574026e+001  -4.682372e+001 
4203125000  -4.382613e+001  -3.728357e+001 
4206250000  -4.077216e+001  -4.833141e+001 
4209375000  -4.120538e+001  -7.137868e+001 
4212500000  -4.387965e+001  -7.796318e+001 
4215625000  -4.403876e+001  -7.039226e+001 
4218750000  -4.238717e+001  -7.403751e+001 
4221875000  -4.091557e+001  -8.212348e+001 
4225000000  -4.200349e+001  -9.503448e+001 
4228125000  -4.241180e+001  -9.198836e+001 
4231250000  -4.105359e+001  -1.022393e+002 
4234375000  -4.087297e+001  -1.117851e+002 
4237500000  -4.067205e+001  -1.196873e+002 
4240625000  -4.123648e+001  -1.278506e+002 
4243750000  -4.237334e+001  -1.387085e+002 
4246875000  -4.322111e+001  -1.384600e+002 
4250000000  -4.277806e+001  -1.377265e+002 
4253125000  -4.267418e+001  -1.432099e+002 
4256250000  -4.248688e+001  -1.473993e+002 
4259375000  -4.209421e+001  -1.548305e+002 
4262500000  -4.201095e+001  -1.614628e+002 
4265625000  -4.216119e+001  -1.620430e+002 
4268750000  -4.107745e+001  -1.698484e+002 
4271875000  -4.088317e+001  -1.787742e+002 
4275000000  -4.005023e+001  1.719548e+002 
4278125000  -4.124265e+001  1.567268e+002 
4281250000  -4.210259e+001  1.537829e+002 
4284375000  -4.205243e+001  1.503453e+002 
4287500000  -4.370793e+001  1.513730e+002 
4290625000  -4.396237e+001  1.588829e+002 
4293750000  -4.165444e+001  1.563381e+002 
4296875000  -4.041747e+001  1.394830e+002 
4300000000  -4.166294e+001  1.310397e+002 
4303125000  -4.216088e+001  1.304211e+002 
4306250000  -4.071773e+001  1.297882e+002 
4309375000  -3.975811e+001  1.203592e+002 
4312500000  -3.958778e+001  1.093690e+002 
4315625000  -4.024196e+001  9.842793e+001 
4318750000  -4.062347e+001  9.553815e+001 
4321875000  -4.052843e+001  9.213142e+001 
4325000000  -4.019931e+001  8.842490e+001 
4328125000  -3.961557e+001  7.694752e+001 
4331250000  -3.980497e+001  6.454749e+001 
4334375000  -4.052153e+001  5.705432e+001 
4337500000  -4.199620e+001  5.526283e+001 
4340625000  -4.221059e+001  5.552559e+001 
4343750000  -4.122084e+001  5.054348e+001 
4346875000  -4.113474e+001  4.212046e+001 
4350000000  -4.088994e+001  3.282438e+001 
4353125000  -4.168552e+001  2.416923e+001 
4356250000  -4.341452e+001  2.890966e+001 
4359375000  -4.255108e+001  3.950338e+001 
4362500000  -3.953259e+001  3.134817e+001 
4365625000  -3.887506e+001  1.127279e+001 
4368750000  -4.048080e+001  1.569101e-001 
4371875000  -4.110883e+001  1.882811e-001 
4375000000  -4.061452e+001  -6.641671e+000 
4378125000  -4.057400e+001  -1.235608e+001 
4381250000  -4.084647e+001  -2.363269e+001 
4384375000  -4.080861e+001  -3.013353e+001 
4387500000  -4.153715e+001  -3.661898e+001 
4390625000  -4.189882e+001  -3.989960e+001 
4393750000  -4.164642e+001  -3.905702e+001 
4396875000  -4.102727e+001  -4.591466e+001 
4400000000  -4.093981e+001  -5.175948e+001 
4403125000  -4.176776e+001  -6.477769e+001 
4406250000  -4.215438e+001  -6.742283e+001 
4409375000  -4.260691e+001  -7.235767e+001 
4412500000  -4.388820e+001  -7.580626e+001 
4415625000  -4.304461e+001  -7.379552e+001 
4418750000  -4.188851e+001  -7.407803e+001 
