!Agilent Technologies,E8363B,MY43030201,A.06.04.32
!Agilent E8363B: A.06.04.32
!Date: Tuesday, November 11, 2014 21:43:16
!Correction: S21(Response(S21)) 
!S1P File: Measurement: S21:
# Hz S  dB   R 50
3000000000  -4.366583e+001  -1.594105e+002 
3003125000  -4.537701e+001  -1.629884e+002 
3006250000  -4.503553e+001  -1.654177e+002 
3009375000  -4.596078e+001  -1.612982e+002 
3012500000  -4.478262e+001  -1.699943e+002 
3015625000  -4.523101e+001  -1.754008e+002 
3018750000  -4.527845e+001  -1.766109e+002 
3021875000  -4.389702e+001  -1.756765e+002 
3025000000  -4.275611e+001  1.783983e+002 
3028125000  -4.189345e+001  1.661469e+002 
3031250000  -4.110735e+001  1.553232e+002 
3034375000  -4.067783e+001  1.406750e+002 
3037500000  -4.144645e+001  1.280507e+002 
3040625000  -4.285834e+001  1.231115e+002 
3043750000  -4.337323e+001  1.156081e+002 
3046875000  -4.409446e+001  1.103962e+002 
3050000000  -4.536753e+001  1.035939e+002 
3053125000  -4.492410e+001  1.081514e+002 
3056250000  -4.468023e+001  1.110621e+002 
3059375000  -4.381519e+001  1.096081e+002 
3062500000  -4.249500e+001  1.029122e+002 
3065625000  -4.211849e+001  9.181367e+001 
3068750000  -4.169645e+001  8.397048e+001 
3071875000  -4.163810e+001  7.979496e+001 
3075000000  -4.113423e+001  7.294422e+001 
3078125000  -4.132148e+001  6.551689e+001 
3081250000  -4.138015e+001  5.919700e+001 
3084375000  -4.053153e+001  5.328371e+001 
3087500000  -4.062386e+001  4.649109e+001 
3090625000  -4.011545e+001  3.282266e+001 
3093750000  -4.090190e+001  2.393763e+001 
3096875000  -4.121428e+001  1.767616e+001 
3100000000  -4.117732e+001  1.381839e+001 
3103125000  -4.137486e+001  1.001749e+001 
3106250000  -4.103148e+001  2.746056e+000 
3109375000  -4.086758e+001  -1.278164e+000 
3112500000  -4.084851e+001  -1.049732e+001 
3115625000  -4.075629e+001  -1.418560e+001 
3118750000  -4.082273e+001  -2.025266e+001 
3121875000  -4.019342e+001  -2.977960e+001 
3125000000  -4.211549e+001  -3.535260e+001 
3128125000  -4.201333e+001  -2.764092e+001 
3131250000  -3.960664e+001  -3.585823e+001 
3134375000  -3.878592e+001  -5.626332e+001 
3137500000  -3.977364e+001  -6.876933e+001 
3140625000  -4.087891e+001  -7.366683e+001 
3143750000  -4.158165e+001  -7.636526e+001 
3146875000  -4.099626e+001  -7.573235e+001 
3150000000  -4.036374e+001  -8.047277e+001 
3153125000  -4.083762e+001  -8.986190e+001 
3156250000  -4.156006e+001  -8.575407e+001 
3159375000  -3.920903e+001  -9.067388e+001 
3162500000  -3.768167e+001  -1.066399e+002 
3165625000  -3.899350e+001  -1.209058e+002 
3168750000  -3.924450e+001  -1.221158e+002 
3171875000  -3.866629e+001  -1.307589e+002 
3175000000  -3.907420e+001  -1.408635e+002 
3178125000  -3.874969e+001  -1.431903e+002 
3181250000  -3.818896e+001  -1.523498e+002 
3184375000  -3.793732e+001  -1.643263e+002 
3187500000  -3.920646e+001  1.794167e+002 
3190625000  -4.100435e+001  1.720582e+002 
3193750000  -4.129523e+001  1.768394e+002 
3196875000  -4.111763e+001  1.764303e+002 
3200000000  -3.993473e+001  1.707389e+002 
3203125000  -3.953209e+001  1.622149e+002 
3206250000  -3.982298e+001  1.547178e+002 
3209375000  -3.944047e+001  1.445361e+002 
3212500000  -3.988213e+001  1.364601e+002 
3215625000  -3.967869e+001  1.341387e+002 
3218750000  -4.034543e+001  1.222368e+002 
3221875000  -4.074325e+001  1.137474e+002 
3225000000  -4.049305e+001  1.102143e+002 
3228125000  -4.109946e+001  1.019358e+002 
3231250000  -4.149997e+001  9.860706e+001 
3234375000  -4.114841e+001  9.543009e+001 
3237500000  -4.101245e+001  9.261665e+001 
3240625000  -4.041098e+001  8.375482e+001 
3243750000  -4.064021e+001  7.172701e+001 
3246875000  -4.077585e+001  6.465728e+001 
3250000000  -4.137420e+001  6.033507e+001 
3253125000  -4.140621e+001  5.517266e+001 
3256250000  -4.046547e+001  4.624294e+001 
3259375000  -4.104695e+001  3.370860e+001 
3262500000  -4.236943e+001  2.763798e+001 
3265625000  -4.273441e+001  2.954312e+001 
3268750000  -4.263014e+001  2.821315e+001 
3271875000  -4.160342e+001  2.133724e+001 
3275000000  -4.124327e+001  1.207967e+001 
3278125000  -4.155850e+001  4.790587e+000 
3281250000  -4.202516e+001  1.324579e+000 
3284375000  -4.121795e+001  -8.399080e+000 
3287500000  -4.159052e+001  -1.296170e+001 
3290625000  -4.166786e+001  -2.568083e+001 
3293750000  -4.164277e+001  -3.281634e+001 
3296875000  -4.275503e+001  -3.743135e+001 
3300000000  -4.208970e+001  -3.843035e+001 
3303125000  -4.103094e+001  -4.800490e+001 
3306250000  -4.117619e+001  -5.949654e+001 
3309375000  -4.081836e+001  -6.928829e+001 
3312500000  -4.117476e+001  -8.470850e+001 
3315625000  -4.246998e+001  -9.216209e+001 
3318750000  -4.416955e+001  -9.858964e+001 
3321875000  -4.546020e+001  -9.739101e+001 
3325000000  -4.497149e+001  -9.601591e+001 
3328125000  -4.420274e+001  -9.606207e+001 
3331250000  -4.235330e+001  -9.708065e+001 
3334375000  -4.008757e+001  -1.164808e+002 
3337500000  -4.089467e+001  -1.407537e+002 
3340625000  -4.295777e+001  -1.496880e+002 
3343750000  -4.463123e+001  -1.524651e+002 
3346875000  -4.436905e+001  -1.553167e+002 
3350000000  -4.368706e+001  -1.598738e+002 
3353125000  -4.367185e+001  -1.693654e+002 
3356250000  -4.354522e+001  -1.792829e+002 
3359375000  -4.441430e+001  1.680522e+002 
3362500000  -4.520966e+001  1.607330e+002 
3365625000  -4.558142e+001  1.534293e+002 
3368750000  -4.661169e+001  1.479282e+002 
3371875000  -4.711639e+001  1.408359e+002 
3375000000  -4.831096e+001  1.355277e+002 
3378125000  -4.958190e+001  1.303949e+002 
3381250000  -5.086352e+001  1.412065e+002 
3384375000  -4.741223e+001  1.506226e+002 
3387500000  -4.453678e+001  1.270860e+002 
3390625000  -4.708531e+001  1.052466e+002 
3393750000  -4.767930e+001  1.067843e+002 
3396875000  -4.657354e+001  1.016771e+002 
3400000000  -4.628005e+001  8.635604e+001 
3403125000  -4.658242e+001  8.248013e+001 
3406250000  -4.703189e+001  6.990477e+001 
3409375000  -4.745486e+001  6.578458e+001 
3412500000  -4.813868e+001  5.326361e+001 
3415625000  -4.862688e+001  4.995356e+001 
3418750000  -4.856899e+001  4.540057e+001 
3421875000  -4.867565e+001  4.187062e+001 
3425000000  -4.787505e+001  3.594907e+001 
3428125000  -4.733394e+001  2.675669e+001 
3431250000  -4.678669e+001  1.921367e+001 
3434375000  -4.702119e+001  2.485126e+000 
3437500000  -4.772860e+001  -7.174159e+000 
3440625000  -4.798311e+001  -8.894320e+000 
3443750000  -4.660897e+001  -1.103883e+001 
3446875000  -4.549985e+001  -2.346522e+001 
3450000000  -4.551175e+001  -4.099742e+001 
3453125000  -4.566385e+001  -5.913798e+001 
3456250000  -4.697359e+001  -7.154573e+001 
3459375000  -4.762211e+001  -7.182394e+001 
3462500000  -4.823770e+001  -7.881096e+001 
3465625000  -4.726695e+001  -8.810181e+001 
3468750000  -4.726281e+001  -9.694960e+001 
3471875000  -4.688331e+001  -1.033573e+002 
3475000000  -4.710173e+001  -1.122301e+002 
3478125000  -4.752430e+001  -1.269183e+002 
3481250000  -4.855826e+001  -1.346165e+002 
3484375000  -4.876999e+001  -1.315603e+002 
3487500000  -4.758113e+001  -1.408148e+002 
3490625000  -4.682374e+001  -1.522309e+002 
3493750000  -4.782410e+001  -1.646222e+002 
3496875000  -4.797006e+001  -1.691109e+002 
3500000000  -4.866906e+001  -1.692378e+002 
3503125000  -4.658747e+001  -1.726748e+002 
3506250000  -4.536489e+001  1.714385e+002 
3509375000  -4.506718e+001  1.531918e+002 
3512500000  -4.570057e+001  1.389159e+002 
3515625000  -4.689516e+001  1.332875e+002 
3518750000  -4.786134e+001  1.328507e+002 
3521875000  -4.779251e+001  1.201796e+002 
3525000000  -4.935005e+001  1.182740e+002 
3528125000  -4.764244e+001  1.214571e+002 
3531250000  -4.685773e+001  1.033298e+002 
3534375000  -4.658065e+001  8.783949e+001 
3537500000  -4.793171e+001  8.085757e+001 
3540625000  -4.918652e+001  8.053793e+001 
3543750000  -4.879279e+001  8.229474e+001 
3546875000  -4.843645e+001  8.427345e+001 
3550000000  -4.623454e+001  7.336188e+001 
3553125000  -4.574262e+001  5.870324e+001 
3556250000  -4.707723e+001  5.012269e+001 
3559375000  -4.633713e+001  4.284219e+001 
3562500000  -4.626069e+001  3.434013e+001 
3565625000  -4.730453e+001  2.797887e+001 
3568750000  -4.774666e+001  2.620401e+001 
3571875000  -4.759280e+001  2.155370e+001 
3575000000  -4.705850e+001  1.249404e+001 
3578125000  -4.800006e+001  1.112768e+001 
3581250000  -4.710504e+001  5.308792e+000 
3584375000  -4.569118e+001  5.619645e-001 
3587500000  -4.576242e+001  -1.406626e+001 
3590625000  -4.655548e+001  -2.241772e+001 
3593750000  -4.796013e+001  -2.516492e+001 
3596875000  -4.653466e+001  -1.797911e+001 
3600000000  -4.488790e+001  -3.006914e+001 
3603125000  -4.487502e+001  -4.662762e+001 
3606250000  -4.605555e+001  -4.875436e+001 
3609375000  -4.639340e+001  -5.364083e+001 
3612500000  -4.598592e+001  -5.969255e+001 
3615625000  -4.621730e+001  -6.540551e+001 
3618750000  -4.660966e+001  -6.923892e+001 
3621875000  -4.552261e+001  -7.352993e+001 
3625000000  -4.578238e+001  -7.781454e+001 
3628125000  -4.491609e+001  -8.293896e+001 
3631250000  -4.511663e+001  -9.354530e+001 
3634375000  -4.577193e+001  -9.868234e+001 
3637500000  -4.442660e+001  -9.783100e+001 
3640625000  -4.382179e+001  -1.054681e+002 
3643750000  -4.326868e+001  -1.156571e+002 
3646875000  -4.369942e+001  -1.270699e+002 
3650000000  -4.395254e+001  -1.301713e+002 
3653125000  -4.347286e+001  -1.409771e+002 
3656250000  -4.393225e+001  -1.442186e+002 
3659375000  -4.357973e+001  -1.499230e+002 
3662500000  -4.329421e+001  -1.570669e+002 
3665625000  -4.347946e+001  -1.604356e+002 
3668750000  -4.216246e+001  -1.652751e+002 
3671875000  -4.136271e+001  -1.794605e+002 
3675000000  -4.216818e+001  1.699573e+002 
3678125000  -4.272444e+001  1.630859e+002 
3681250000  -4.232604e+001  1.602751e+002 
3684375000  -4.271991e+001  1.513306e+002 
3687500000  -4.275368e+001  1.431125e+002 
3690625000  -4.342479e+001  1.346467e+002 
3693750000  -4.436620e+001  1.350526e+002 
3696875000  -4.368636e+001  1.321693e+002 
3700000000  -4.331050e+001  1.229597e+002 
3703125000  -4.350278e+001  1.164563e+002 
3706250000  -4.455516e+001  1.164794e+002 
3709375000  -4.392641e+001  1.131527e+002 
3712500000  -4.281079e+001  1.094421e+002 
3715625000  -4.178570e+001  1.000898e+002 
3718750000  -4.174758e+001  8.834072e+001 
3721875000  -4.172573e+001  8.032283e+001 
3725000000  -4.240780e+001  7.184755e+001 
3728125000  -4.266741e+001  6.881237e+001 
3731250000  -4.193148e+001  5.984420e+001 
3734375000  -4.181161e+001  5.450375e+001 
3737500000  -4.272869e+001  4.611150e+001 
3740625000  -4.314158e+001  4.195160e+001 
3743750000  -4.283878e+001  3.516166e+001 
3746875000  -4.347263e+001  2.695840e+001 
3750000000  -4.387103e+001  2.534096e+001 
3753125000  -4.374945e+001  2.187482e+001 
3756250000  -4.382291e+001  1.698413e+001 
3759375000  -4.373766e+001  1.244236e+001 
3762500000  -4.328750e+001  6.528995e+000 
3765625000  -4.436329e+001  6.833467e-001 
3768750000  -4.352073e+001  2.481926e+000 
3771875000  -4.203891e+001  -5.705407e+000 
3775000000  -4.204827e+001  -1.792218e+001 
3778125000  -4.271375e+001  -2.102193e+001 
3781250000  -4.252971e+001  -2.721027e+001 
3784375000  -4.259399e+001  -3.417389e+001 
3787500000  -4.228839e+001  -3.833140e+001 
3790625000  -4.328024e+001  -4.902593e+001 
3793750000  -4.253677e+001  -5.133799e+001 
3796875000  -4.193953e+001  -5.480840e+001 
3800000000  -4.086280e+001  -6.388114e+001 
3803125000  -4.178160e+001  -7.564328e+001 
3806250000  -4.237982e+001  -8.009978e+001 
3809375000  -4.171991e+001  -8.428317e+001 
3812500000  -4.163150e+001  -9.616555e+001 
3815625000  -4.302522e+001  -1.068056e+002 
3818750000  -4.442529e+001  -1.066998e+002 
3821875000  -4.361723e+001  -9.562353e+001 
3825000000  -4.175153e+001  -1.016961e+002 
3828125000  -4.001243e+001  -1.222316e+002 
3831250000  -4.160383e+001  -1.366090e+002 
3834375000  -4.419678e+001  -1.382544e+002 
3837500000  -4.404074e+001  -1.354849e+002 
3840625000  -4.246695e+001  -1.408490e+002 
3843750000  -4.190810e+001  -1.575084e+002 
3846875000  -4.330502e+001  -1.648306e+002 
3850000000  -4.444503e+001  -1.555823e+002 
3853125000  -4.380901e+001  -1.586277e+002 
3856250000  -4.290662e+001  -1.702531e+002 
3859375000  -4.263128e+001  -1.773374e+002 
3862500000  -4.256628e+001  1.736778e+002 
3865625000  -4.277127e+001  1.694062e+002 
3868750000  -4.242920e+001  1.649424e+002 
3871875000  -4.178210e+001  1.561333e+002 
3875000000  -4.228383e+001  1.439473e+002 
3878125000  -4.329987e+001  1.431769e+002 
3881250000  -4.350100e+001  1.383547e+002 
3884375000  -4.257346e+001  1.291874e+002 
3887500000  -4.313021e+001  1.242767e+002 
3890625000  -4.362748e+001  1.203780e+002 
3893750000  -4.417674e+001  1.160856e+002 
3896875000  -4.432703e+001  1.147561e+002 
3900000000  -4.447984e+001  1.122619e+002 
3903125000  -4.365587e+001  1.048168e+002 
3906250000  -4.331106e+001  9.973486e+001 
3909375000  -4.277583e+001  9.082253e+001 
3912500000  -4.406660e+001  8.353139e+001 
3915625000  -4.456270e+001  7.850285e+001 
3918750000  -4.437139e+001  8.182192e+001 
3921875000  -4.385265e+001  7.524824e+001 
3925000000  -4.285626e+001  7.069960e+001 
3928125000  -4.308097e+001  6.132104e+001 
3931250000  -4.358015e+001  5.432205e+001 
3934375000  -4.409158e+001  5.070124e+001 
3937500000  -4.503777e+001  4.456168e+001 
3940625000  -4.406282e+001  4.584713e+001 
3943750000  -4.327863e+001  3.893332e+001 
3946875000  -4.293611e+001  3.373924e+001 
3950000000  -4.411066e+001  2.403250e+001 
3953125000  -4.427975e+001  2.518250e+001 
3956250000  -4.335934e+001  2.240987e+001 
3959375000  -4.199713e+001  1.443871e+001 
3962500000  -4.181935e+001  4.645106e+000 
3965625000  -4.215125e+001  -6.897110e+000 
3968750000  -4.292011e+001  -1.193398e+001 
3971875000  -4.255572e+001  -1.684906e+001 
3975000000  -4.209725e+001  -2.170643e+001 
3978125000  -4.236824e+001  -2.762682e+001 
3981250000  -4.179886e+001  -3.739079e+001 
3984375000  -4.284043e+001  -4.456922e+001 
3987500000  -4.340416e+001  -4.918399e+001 
3990625000  -4.307851e+001  -5.388694e+001 
3993750000  -4.288490e+001  -6.077953e+001 
3996875000  -4.299057e+001  -6.680922e+001 
4000000000  -4.341786e+001  -6.968370e+001 
4003125000  -4.361907e+001  -6.781557e+001 
4006250000  -4.203827e+001  -7.695396e+001 
4009375000  -4.150169e+001  -8.988206e+001 
4012500000  -4.293853e+001  -9.887331e+001 
4015625000  -4.410952e+001  -1.008823e+002 
4018750000  -4.390339e+001  -1.053411e+002 
4021875000  -4.342734e+001  -1.119392e+002 
4025000000  -4.370566e+001  -1.183243e+002 
4028125000  -4.323604e+001  -1.260801e+002 
4031250000  -4.434175e+001  -1.346851e+002 
4034375000  -4.433171e+001  -1.344178e+002 
4037500000  -4.415450e+001  -1.379296e+002 
4040625000  -4.456211e+001  -1.476192e+002 
4043750000  -4.457998e+001  -1.480750e+002 
4046875000  -4.441311e+001  -1.516976e+002 
4050000000  -4.450000e+001  -1.600990e+002 
4053125000  -4.505291e+001  -1.651950e+002 
4056250000  -4.593892e+001  -1.630807e+002 
4059375000  -4.409206e+001  -1.618068e+002 
4062500000  -4.365342e+001  -1.724198e+002 
4065625000  -4.381840e+001  -1.755414e+002 
4068750000  -4.333728e+001  1.721337e+002 
4071875000  -4.284838e+001  1.647462e+002 
4075000000  -4.370303e+001  1.547406e+002 
4078125000  -4.443985e+001  1.557296e+002 
4081250000  -4.401738e+001  1.458891e+002 
4084375000  -4.370422e+001  1.405332e+002 
4087500000  -4.429306e+001  1.317516e+002 
4090625000  -4.505715e+001  1.321157e+002 
4093750000  -4.493600e+001  1.292705e+002 
4096875000  -4.497044e+001  1.202166e+002 
4100000000  -4.571116e+001  1.157862e+002 
4103125000  -4.580701e+001  1.170874e+002 
4106250000  -4.516539e+001  1.185224e+002 
4109375000  -4.440105e+001  1.147820e+002 
4112500000  -4.433669e+001  1.028682e+002 
4115625000  -4.433702e+001  9.801434e+001 
4118750000  -4.459239e+001  9.358101e+001 
4121875000  -4.405925e+001  8.474857e+001 
4125000000  -4.443055e+001  8.080694e+001 
4128125000  -4.530550e+001  8.276769e+001 
4131250000  -4.409134e+001  8.457365e+001 
4134375000  -4.206248e+001  7.301460e+001 
4137500000  -4.281649e+001  5.375376e+001 
4140625000  -4.430791e+001  4.686940e+001 
4143750000  -4.474648e+001  5.001645e+001 
4146875000  -4.444454e+001  5.267810e+001 
4150000000  -4.272901e+001  4.306311e+001 
4153125000  -4.362502e+001  3.519987e+001 
4156250000  -4.440937e+001  2.988226e+001 
4159375000  -4.404269e+001  3.246828e+001 
4162500000  -4.302710e+001  2.973052e+001 
4165625000  -4.208078e+001  1.879570e+001 
4168750000  -4.141761e+001  1.042643e+001 
4171875000  -4.146657e+001  -2.109380e+000 
4175000000  -4.197408e+001  -1.261741e+001 
4178125000  -4.287815e+001  -1.423896e+001 
4181250000  -4.240026e+001  -2.049543e+001 
4184375000  -4.285849e+001  -2.621207e+001 
4187500000  -4.265487e+001  -3.271462e+001 
4190625000  -4.306028e+001  -4.345034e+001 
4193750000  -4.407387e+001  -4.782780e+001 
4196875000  -4.522378e+001  -5.155633e+001 
4200000000  -4.636752e+001  -4.646053e+001 
4203125000  -4.472249e+001  -3.536938e+001 
4206250000  -4.170075e+001  -4.791951e+001 
4209375000  -4.205022e+001  -6.959368e+001 
4212500000  -4.433302e+001  -7.548845e+001 
4215625000  -4.488649e+001  -6.838556e+001 
4218750000  -4.288167e+001  -7.102880e+001 
4221875000  -4.170701e+001  -7.946171e+001 
4225000000  -4.254639e+001  -9.041511e+001 
4228125000  -4.311815e+001  -8.926321e+001 
4231250000  -4.137114e+001  -9.793536e+001 
4234375000  -4.107733e+001  -1.096412e+002 
4237500000  -4.102207e+001  -1.178214e+002 
4240625000  -4.130202e+001  -1.270993e+002 
4243750000  -4.325626e+001  -1.362139e+002 
4246875000  -4.365888e+001  -1.351620e+002 
4250000000  -4.315276e+001  -1.339442e+002 
4253125000  -4.297839e+001  -1.419022e+002 
4256250000  -4.299758e+001  -1.448315e+002 
4259375000  -4.256268e+001  -1.480162e+002 
4262500000  -4.272044e+001  -1.557896e+002 
4265625000  -4.247892e+001  -1.578557e+002 
4268750000  -4.147572e+001  -1.646533e+002 
4271875000  -4.146449e+001  -1.757158e+002 
4275000000  -4.092263e+001  1.761938e+002 
4278125000  -4.175475e+001  1.631802e+002 
4281250000  -4.270903e+001  1.612256e+002 
4284375000  -4.262918e+001  1.555085e+002 
4287500000  -4.400200e+001  1.514772e+002 
4290625000  -4.412539e+001  1.584742e+002 
4293750000  -4.173426e+001  1.603108e+002 
4296875000  -4.058196e+001  1.440916e+002 
4300000000  -4.177124e+001  1.332399e+002 
4303125000  -4.269832e+001  1.377086e+002 
4306250000  -4.128250e+001  1.311497e+002 
4309375000  -4.019231e+001  1.240984e+002 
4312500000  -4.009734e+001  1.125143e+002 
4315625000  -4.070328e+001  1.026376e+002 
4318750000  -4.112978e+001  9.678857e+001 
4321875000  -4.116917e+001  9.589643e+001 
4325000000  -4.042585e+001  9.139553e+001 
4328125000  -3.959379e+001  8.079594e+001 
4331250000  -4.007469e+001  6.864024e+001 
4334375000  -4.098256e+001  6.005797e+001 
4337500000  -4.221734e+001  5.718057e+001 
4340625000  -4.269215e+001  6.189358e+001 
4343750000  -4.136705e+001  5.508924e+001 
4346875000  -4.169033e+001  4.492389e+001 
4350000000  -4.165751e+001  3.742149e+001 
4353125000  -4.255914e+001  2.679711e+001 
4356250000  -4.424879e+001  3.086992e+001 
4359375000  -4.320872e+001  4.563061e+001 
4362500000  -4.015954e+001  3.461862e+001 
4365625000  -3.975023e+001  1.353668e+001 
4368750000  -4.078216e+001  6.350145e+000 
4371875000  -4.141237e+001  1.769043e+000 
4375000000  -4.082500e+001  -1.558928e+000 
4378125000  -4.088127e+001  -1.008815e+001 
4381250000  -4.125739e+001  -1.989097e+001 
4384375000  -4.145339e+001  -2.607154e+001 
4387500000  -4.262561e+001  -3.349875e+001 
4390625000  -4.255986e+001  -3.361597e+001 
4393750000  -4.211135e+001  -3.568924e+001 
4396875000  -4.173462e+001  -4.119706e+001 
4400000000  -4.101686e+001  -4.933870e+001 
4403125000  -4.252135e+001  -5.958865e+001 
4406250000  -4.256101e+001  -6.502939e+001 
4409375000  -4.368494e+001  -7.006452e+001 
4412500000  -4.412235e+001  -7.334344e+001 
4415625000  -4.368042e+001  -6.770951e+001 
4418750000  -4.216726e+001  -6.916166e+001 
