!Agilent Technologies,E8363B,MY43030201,A.06.04.32
!Agilent E8363B: A.06.04.32
!Date: Tuesday, November 11, 2014 21:41:49
!Correction: S21(Response(S21)) 
!S1P File: Measurement: S21:
# Hz S  dB   R 50
3000000000  -4.369364e+001  -1.576511e+002 
3003125000  -4.503380e+001  -1.638340e+002 
3006250000  -4.513900e+001  -1.642794e+002 
3009375000  -4.589108e+001  -1.605253e+002 
3012500000  -4.491018e+001  -1.689317e+002 
3015625000  -4.506502e+001  -1.743065e+002 
3018750000  -4.523630e+001  -1.742982e+002 
3021875000  -4.402288e+001  -1.757016e+002 
3025000000  -4.263924e+001  -1.784850e+002 
3028125000  -4.165099e+001  1.681773e+002 
3031250000  -4.090336e+001  1.550852e+002 
3034375000  -4.083872e+001  1.413079e+002 
3037500000  -4.168244e+001  1.315595e+002 
3040625000  -4.279351e+001  1.246660e+002 
3043750000  -4.329038e+001  1.169249e+002 
3046875000  -4.404522e+001  1.085534e+002 
3050000000  -4.535026e+001  1.057528e+002 
3053125000  -4.496819e+001  1.085236e+002 
3056250000  -4.452864e+001  1.120464e+002 
3059375000  -4.392714e+001  1.104359e+002 
3062500000  -4.228719e+001  1.024945e+002 
3065625000  -4.215325e+001  9.286918e+001 
3068750000  -4.182976e+001  8.459818e+001 
3071875000  -4.171395e+001  8.142346e+001 
3075000000  -4.113330e+001  7.470010e+001 
3078125000  -4.123171e+001  6.597416e+001 
3081250000  -4.134109e+001  5.976647e+001 
3084375000  -4.032304e+001  5.410553e+001 
3087500000  -4.056195e+001  4.640746e+001 
3090625000  -3.988118e+001  3.365523e+001 
3093750000  -4.097723e+001  2.476427e+001 
3096875000  -4.132094e+001  1.927101e+001 
3100000000  -4.116153e+001  1.468066e+001 
3103125000  -4.123923e+001  1.147060e+001 
3106250000  -4.101311e+001  3.679914e+000 
3109375000  -4.110699e+001  1.139918e-001 
3112500000  -4.075869e+001  -7.972031e+000 
3115625000  -4.081038e+001  -1.220323e+001 
3118750000  -4.072158e+001  -1.906407e+001 
3121875000  -4.008227e+001  -2.967516e+001 
3125000000  -4.198584e+001  -3.377822e+001 
3128125000  -4.198386e+001  -2.837888e+001 
3131250000  -3.948210e+001  -3.604835e+001 
3134375000  -3.889925e+001  -5.460720e+001 
3137500000  -3.966808e+001  -6.728242e+001 
3140625000  -4.076986e+001  -7.037212e+001 
3143750000  -4.161544e+001  -7.439037e+001 
3146875000  -4.105872e+001  -7.485511e+001 
3150000000  -4.049799e+001  -7.823179e+001 
3153125000  -4.081623e+001  -8.845705e+001 
3156250000  -4.151183e+001  -8.709314e+001 
3159375000  -3.913114e+001  -8.843214e+001 
3162500000  -3.774942e+001  -1.064718e+002 
3165625000  -3.892176e+001  -1.197700e+002 
3168750000  -3.909269e+001  -1.211280e+002 
3171875000  -3.878540e+001  -1.295410e+002 
3175000000  -3.906631e+001  -1.396440e+002 
3178125000  -3.886578e+001  -1.421938e+002 
3181250000  -3.815103e+001  -1.509704e+002 
3184375000  -3.804214e+001  -1.639408e+002 
3187500000  -3.937176e+001  -1.794620e+002 
3190625000  -4.096989e+001  1.742688e+002 
3193750000  -4.139484e+001  1.773888e+002 
3196875000  -4.115147e+001  1.776911e+002 
3200000000  -3.994391e+001  1.733791e+002 
3203125000  -3.948742e+001  1.635782e+002 
3206250000  -3.992718e+001  1.541924e+002 
3209375000  -3.943349e+001  1.460470e+002 
3212500000  -3.994101e+001  1.397312e+002 
3215625000  -3.992688e+001  1.366528e+002 
3218750000  -4.049286e+001  1.242911e+002 
3221875000  -4.057785e+001  1.162730e+002 
3225000000  -4.056355e+001  1.117723e+002 
3228125000  -4.122464e+001  1.031707e+002 
3231250000  -4.132438e+001  1.015993e+002 
3234375000  -4.106805e+001  9.747588e+001 
3237500000  -4.105877e+001  9.265369e+001 
3240625000  -4.052691e+001  8.579709e+001 
3243750000  -4.049495e+001  7.393063e+001 
3246875000  -4.084381e+001  6.530946e+001 
3250000000  -4.117259e+001  6.108022e+001 
3253125000  -4.135159e+001  5.848232e+001 
3256250000  -4.072312e+001  4.802093e+001 
3259375000  -4.109187e+001  3.351009e+001 
3262500000  -4.262844e+001  2.977481e+001 
3265625000  -4.277108e+001  3.183183e+001 
3268750000  -4.286216e+001  2.956279e+001 
3271875000  -4.170884e+001  2.321674e+001 
3275000000  -4.114255e+001  1.334779e+001 
3278125000  -4.202109e+001  6.042448e+000 
3281250000  -4.183405e+001  1.359832e+000 
3284375000  -4.101408e+001  -3.968866e+000 
3287500000  -4.162674e+001  -1.307929e+001 
3290625000  -4.180090e+001  -2.298538e+001 
3293750000  -4.172591e+001  -3.226677e+001 
3296875000  -4.294133e+001  -3.618320e+001 
3300000000  -4.206733e+001  -3.703309e+001 
3303125000  -4.110167e+001  -4.801930e+001 
3306250000  -4.108460e+001  -5.809890e+001 
3309375000  -4.085073e+001  -6.784823e+001 
3312500000  -4.130339e+001  -8.379762e+001 
3315625000  -4.247075e+001  -9.198876e+001 
3318750000  -4.414571e+001  -9.735797e+001 
3321875000  -4.518276e+001  -9.629193e+001 
3325000000  -4.512686e+001  -9.221635e+001 
3328125000  -4.431279e+001  -9.608126e+001 
3331250000  -4.272219e+001  -9.645928e+001 
3334375000  -4.058397e+001  -1.149677e+002 
3337500000  -4.076389e+001  -1.393424e+002 
3340625000  -4.305114e+001  -1.500252e+002 
3343750000  -4.480233e+001  -1.517947e+002 
3346875000  -4.422913e+001  -1.535211e+002 
3350000000  -4.410344e+001  -1.582499e+002 
3353125000  -4.361631e+001  -1.677986e+002 
3356250000  -4.367145e+001  -1.784103e+002 
3359375000  -4.426986e+001  1.677049e+002 
3362500000  -4.517480e+001  1.616681e+002 
3365625000  -4.611138e+001  1.542787e+002 
3368750000  -4.647720e+001  1.466807e+002 
3371875000  -4.730360e+001  1.413272e+002 
3375000000  -4.857844e+001  1.378956e+002 
3378125000  -4.979950e+001  1.334042e+002 
3381250000  -5.062395e+001  1.417323e+002 
3384375000  -4.773719e+001  1.532533e+002 
3387500000  -4.472913e+001  1.318178e+002 
3390625000  -4.709342e+001  1.116018e+002 
3393750000  -4.763412e+001  1.052141e+002 
3396875000  -4.662661e+001  1.017145e+002 
3400000000  -4.659026e+001  9.204942e+001 
3403125000  -4.712094e+001  7.980399e+001 
3406250000  -4.814813e+001  7.243451e+001 
3409375000  -4.781834e+001  6.673328e+001 
3412500000  -4.805453e+001  5.571793e+001 
3415625000  -4.872971e+001  5.437328e+001 
3418750000  -4.855941e+001  4.695716e+001 
3421875000  -4.946333e+001  4.071114e+001 
3425000000  -4.785087e+001  3.813761e+001 
3428125000  -4.703199e+001  2.769027e+001 
3431250000  -4.672652e+001  1.665860e+001 
3434375000  -4.683741e+001  4.898849e+000 
3437500000  -4.807739e+001  -7.621613e-001 
3440625000  -4.761448e+001  -7.830485e+000 
3443750000  -4.626323e+001  -1.073748e+001 
3446875000  -4.562882e+001  -2.441064e+001 
3450000000  -4.515688e+001  -4.030996e+001 
3453125000  -4.564137e+001  -5.616822e+001 
3456250000  -4.733447e+001  -6.714052e+001 
3459375000  -4.797925e+001  -7.169556e+001 
3462500000  -4.766484e+001  -7.529639e+001 
3465625000  -4.708353e+001  -8.232626e+001 
3468750000  -4.711648e+001  -9.370131e+001 
3471875000  -4.713283e+001  -1.026936e+002 
3475000000  -4.676223e+001  -1.130554e+002 
3478125000  -4.773818e+001  -1.289296e+002 
3481250000  -4.910453e+001  -1.296316e+002 
3484375000  -4.840120e+001  -1.348736e+002 
3487500000  -4.756915e+001  -1.394366e+002 
3490625000  -4.708854e+001  -1.508864e+002 
3493750000  -4.774731e+001  -1.655326e+002 
3496875000  -4.818054e+001  -1.657021e+002 
3500000000  -4.828704e+001  -1.734217e+002 
3503125000  -4.678082e+001  -1.685953e+002 
3506250000  -4.579615e+001  1.746910e+002 
3509375000  -4.550285e+001  1.554846e+002 
3512500000  -4.622466e+001  1.416013e+002 
3515625000  -4.686613e+001  1.341863e+002 
3518750000  -4.805462e+001  1.321153e+002 
3521875000  -4.755038e+001  1.224654e+002 
3525000000  -4.867432e+001  1.165120e+002 
3528125000  -4.709154e+001  1.201337e+002 
3531250000  -4.701558e+001  1.083818e+002 
3534375000  -4.657243e+001  9.231140e+001 
3537500000  -4.740178e+001  8.138305e+001 
3540625000  -4.891443e+001  7.787060e+001 
3543750000  -4.962371e+001  8.512529e+001 
3546875000  -4.816881e+001  8.486893e+001 
3550000000  -4.624395e+001  7.753128e+001 
3553125000  -4.587760e+001  5.845934e+001 
3556250000  -4.736594e+001  5.124285e+001 
3559375000  -4.656344e+001  4.453855e+001 
3562500000  -4.681588e+001  3.706176e+001 
3565625000  -4.756412e+001  2.719499e+001 
3568750000  -4.799371e+001  2.827620e+001 
3571875000  -4.743993e+001  2.522831e+001 
3575000000  -4.700047e+001  1.482450e+001 
3578125000  -4.746080e+001  1.020404e+001 
3581250000  -4.729723e+001  4.533041e+000 
3584375000  -4.613504e+001  -1.399865e-001 
3587500000  -4.560278e+001  -1.143885e+001 
3590625000  -4.644153e+001  -2.295441e+001 
3593750000  -4.743901e+001  -2.216327e+001 
3596875000  -4.674307e+001  -1.905319e+001 
3600000000  -4.455512e+001  -2.858636e+001 
3603125000  -4.509946e+001  -4.424296e+001 
3606250000  -4.600726e+001  -5.143771e+001 
3609375000  -4.599870e+001  -5.287014e+001 
3612500000  -4.618951e+001  -6.015219e+001 
3615625000  -4.598384e+001  -6.737759e+001 
3618750000  -4.595396e+001  -6.683393e+001 
3621875000  -4.553215e+001  -7.019190e+001 
3625000000  -4.605778e+001  -7.712543e+001 
3628125000  -4.477194e+001  -8.461943e+001 
3631250000  -4.515998e+001  -9.292120e+001 
3634375000  -4.579808e+001  -9.273706e+001 
3637500000  -4.462506e+001  -9.649494e+001 
3640625000  -4.374264e+001  -1.049704e+002 
3643750000  -4.304502e+001  -1.137442e+002 
3646875000  -4.398802e+001  -1.242795e+002 
3650000000  -4.369098e+001  -1.292117e+002 
3653125000  -4.338366e+001  -1.397550e+002 
3656250000  -4.397178e+001  -1.451091e+002 
3659375000  -4.389012e+001  -1.488609e+002 
3662500000  -4.316238e+001  -1.563619e+002 
3665625000  -4.342480e+001  -1.599841e+002 
3668750000  -4.197034e+001  -1.636902e+002 
3671875000  -4.164841e+001  -1.786308e+002 
3675000000  -4.215096e+001  1.708055e+002 
3678125000  -4.285304e+001  1.672198e+002 
3681250000  -4.254585e+001  1.607451e+002 
3684375000  -4.268700e+001  1.524623e+002 
3687500000  -4.296667e+001  1.436388e+002 
3690625000  -4.345557e+001  1.379285e+002 
3693750000  -4.454427e+001  1.371291e+002 
3696875000  -4.393053e+001  1.332963e+002 
3700000000  -4.310368e+001  1.254474e+002 
3703125000  -4.370105e+001  1.175406e+002 
3706250000  -4.453934e+001  1.157393e+002 
3709375000  -4.409571e+001  1.171301e+002 
3712500000  -4.303434e+001  1.089621e+002 
3715625000  -4.179531e+001  1.020697e+002 
3718750000  -4.206182e+001  8.975356e+001 
3721875000  -4.190215e+001  8.184650e+001 
3725000000  -4.252451e+001  7.551746e+001 
3728125000  -4.233006e+001  7.243505e+001 
3731250000  -4.206119e+001  6.394166e+001 
3734375000  -4.228886e+001  5.630874e+001 
3737500000  -4.300893e+001  4.670592e+001 
3740625000  -4.336926e+001  4.070459e+001 
3743750000  -4.285928e+001  3.548896e+001 
3746875000  -4.352590e+001  2.938160e+001 
3750000000  -4.385721e+001  2.452377e+001 
3753125000  -4.407364e+001  2.305795e+001 
3756250000  -4.397442e+001  1.832820e+001 
3759375000  -4.366026e+001  1.376155e+001 
3762500000  -4.356372e+001  9.816091e+000 
3765625000  -4.416451e+001  2.563042e+000 
3768750000  -4.370782e+001  4.340742e+000 
3771875000  -4.210776e+001  -3.035228e+000 
3775000000  -4.218574e+001  -1.468942e+001 
3778125000  -4.264831e+001  -2.361526e+001 
3781250000  -4.269099e+001  -2.643684e+001 
3784375000  -4.253333e+001  -3.019611e+001 
3787500000  -4.248623e+001  -3.708250e+001 
3790625000  -4.299725e+001  -4.775429e+001 
3793750000  -4.266435e+001  -4.973508e+001 
3796875000  -4.168265e+001  -5.473402e+001 
3800000000  -4.064161e+001  -6.224351e+001 
3803125000  -4.182019e+001  -7.300417e+001 
3806250000  -4.224788e+001  -7.852114e+001 
3809375000  -4.195806e+001  -8.207085e+001 
3812500000  -4.183688e+001  -9.570397e+001 
3815625000  -4.317583e+001  -1.060495e+002 
3818750000  -4.413657e+001  -1.021690e+002 
3821875000  -4.370439e+001  -9.280775e+001 
3825000000  -4.151293e+001  -9.967216e+001 
3828125000  -4.041800e+001  -1.211558e+002 
3831250000  -4.133616e+001  -1.375333e+002 
3834375000  -4.377747e+001  -1.390517e+002 
3837500000  -4.387233e+001  -1.318210e+002 
3840625000  -4.216784e+001  -1.403563e+002 
3843750000  -4.193940e+001  -1.552292e+002 
3846875000  -4.373106e+001  -1.610132e+002 
3850000000  -4.473862e+001  -1.555455e+002 
3853125000  -4.365840e+001  -1.566394e+002 
3856250000  -4.268682e+001  -1.648238e+002 
3859375000  -4.206220e+001  -1.772262e+002 
3862500000  -4.191803e+001  1.755427e+002 
3865625000  -4.276877e+001  1.681133e+002 
3868750000  -4.247761e+001  1.660170e+002 
3871875000  -4.191612e+001  1.581348e+002 
3875000000  -4.268473e+001  1.482693e+002 
3878125000  -4.339313e+001  1.445078e+002 
3881250000  -4.328363e+001  1.419275e+002 
3884375000  -4.287678e+001  1.328114e+002 
3887500000  -4.344987e+001  1.256621e+002 
3890625000  -4.404195e+001  1.216660e+002 
3893750000  -4.425251e+001  1.178550e+002 
3896875000  -4.423405e+001  1.156482e+002 
3900000000  -4.427574e+001  1.094016e+002 
3903125000  -4.431678e+001  1.072223e+002 
3906250000  -4.378366e+001  1.023429e+002 
3909375000  -4.277036e+001  9.369950e+001 
3912500000  -4.381036e+001  8.490720e+001 
3915625000  -4.520007e+001  8.484956e+001 
3918750000  -4.473569e+001  8.034477e+001 
3921875000  -4.402528e+001  7.921422e+001 
3925000000  -4.347161e+001  7.075796e+001 
3928125000  -4.276939e+001  5.983038e+001 
3931250000  -4.386309e+001  5.664075e+001 
3934375000  -4.412678e+001  5.241529e+001 
3937500000  -4.476799e+001  4.878609e+001 
3940625000  -4.472617e+001  4.743912e+001 
3943750000  -4.345768e+001  4.230946e+001 
3946875000  -4.295897e+001  3.393157e+001 
3950000000  -4.378005e+001  2.450970e+001 
3953125000  -4.473689e+001  2.964284e+001 
3956250000  -4.273218e+001  2.570076e+001 
3959375000  -4.228867e+001  1.833971e+001 
3962500000  -4.132906e+001  8.090949e+000 
3965625000  -4.208418e+001  -3.768641e+000 
3968750000  -4.282785e+001  -1.181936e+001 
3971875000  -4.279153e+001  -1.554233e+001 
3975000000  -4.212244e+001  -2.009832e+001 
3978125000  -4.250200e+001  -2.717405e+001 
3981250000  -4.194030e+001  -3.374716e+001 
3984375000  -4.240444e+001  -4.544621e+001 
3987500000  -4.320257e+001  -4.944733e+001 
3990625000  -4.325026e+001  -5.236517e+001 
3993750000  -4.326981e+001  -5.671422e+001 
3996875000  -4.324360e+001  -6.287264e+001 
4000000000  -4.364342e+001  -6.782126e+001 
4003125000  -4.415511e+001  -6.974219e+001 
4006250000  -4.240975e+001  -7.406234e+001 
4009375000  -4.157887e+001  -8.997765e+001 
4012500000  -4.277639e+001  -1.011101e+002 
4015625000  -4.428009e+001  -1.005532e+002 
4018750000  -4.395021e+001  -1.028456e+002 
4021875000  -4.319161e+001  -1.093718e+002 
4025000000  -4.310502e+001  -1.155104e+002 
4028125000  -4.339718e+001  -1.242312e+002 
4031250000  -4.435356e+001  -1.315350e+002 
4034375000  -4.410783e+001  -1.327518e+002 
4037500000  -4.448204e+001  -1.384821e+002 
4040625000  -4.428527e+001  -1.417968e+002 
4043750000  -4.475654e+001  -1.480896e+002 
4046875000  -4.471132e+001  -1.510448e+002 
4050000000  -4.463200e+001  -1.591764e+002 
4053125000  -4.526587e+001  -1.613582e+002 
4056250000  -4.572505e+001  -1.608037e+002 
4059375000  -4.439853e+001  -1.627395e+002 
4062500000  -4.393499e+001  -1.707395e+002 
4065625000  -4.345116e+001  -1.745918e+002 
4068750000  -4.323533e+001  1.759632e+002 
4071875000  -4.299234e+001  1.664825e+002 
4075000000  -4.416758e+001  1.601254e+002 
4078125000  -4.440196e+001  1.568217e+002 
4081250000  -4.382514e+001  1.484029e+002 
4084375000  -4.358932e+001  1.427092e+002 
4087500000  -4.444050e+001  1.342762e+002 
4090625000  -4.502225e+001  1.315566e+002 
4093750000  -4.517050e+001  1.297315e+002 
4096875000  -4.447029e+001  1.218811e+002 
4100000000  -4.563583e+001  1.149866e+002 
4103125000  -4.579325e+001  1.203689e+002 
4106250000  -4.513088e+001  1.193569e+002 
4109375000  -4.462485e+001  1.116241e+002 
4112500000  -4.455325e+001  1.056521e+002 
4115625000  -4.453144e+001  1.004891e+002 
4118750000  -4.426320e+001  9.350838e+001 
4121875000  -4.365098e+001  8.656251e+001 
4125000000  -4.483950e+001  8.065361e+001 
4128125000  -4.566962e+001  8.274796e+001 
4131250000  -4.420075e+001  8.683176e+001 
4134375000  -4.186787e+001  7.803088e+001 
4137500000  -4.269598e+001  5.425113e+001 
4140625000  -4.458115e+001  4.770868e+001 
4143750000  -4.556202e+001  5.256004e+001 
4146875000  -4.474904e+001  5.715274e+001 
4150000000  -4.314883e+001  4.555827e+001 
4153125000  -4.362180e+001  3.579125e+001 
4156250000  -4.455359e+001  3.254040e+001 
4159375000  -4.410711e+001  3.320381e+001 
4162500000  -4.297613e+001  3.099161e+001 
4165625000  -4.193390e+001  2.013445e+001 
4168750000  -4.175327e+001  1.169596e+001 
4171875000  -4.138897e+001  -2.111326e+000 
4175000000  -4.253198e+001  -1.002220e+001 
4178125000  -4.255725e+001  -1.253297e+001 
4181250000  -4.232635e+001  -1.913693e+001 
4184375000  -4.304717e+001  -2.479103e+001 
4187500000  -4.297543e+001  -3.267746e+001 
4190625000  -4.303371e+001  -3.892854e+001 
4193750000  -4.435976e+001  -4.508664e+001 
4196875000  -4.531486e+001  -4.961523e+001 
4200000000  -4.659600e+001  -4.204667e+001 
4203125000  -4.517944e+001  -3.463083e+001 
4206250000  -4.172889e+001  -4.336396e+001 
4209375000  -4.199878e+001  -6.961308e+001 
4212500000  -4.420689e+001  -7.567796e+001 
4215625000  -4.424948e+001  -6.717656e+001 
4218750000  -4.256488e+001  -6.529197e+001 
4221875000  -4.125884e+001  -7.349744e+001 
4225000000  -4.242239e+001  -9.157742e+001 
4228125000  -4.280733e+001  -8.485505e+001 
4231250000  -4.151377e+001  -9.512746e+001 
4234375000  -4.126077e+001  -1.112233e+002 
4237500000  -4.125183e+001  -1.127795e+002 
4240625000  -4.211175e+001  -1.240351e+002 
4243750000  -4.297489e+001  -1.338554e+002 
4246875000  -4.405106e+001  -1.334678e+002 
4250000000  -4.344661e+001  -1.318743e+002 
4253125000  -4.314533e+001  -1.377580e+002 
4256250000  -4.336566e+001  -1.399348e+002 
4259375000  -4.249771e+001  -1.485636e+002 
4262500000  -4.282401e+001  -1.512045e+002 
4265625000  -4.234998e+001  -1.556615e+002 
4268750000  -4.108947e+001  -1.628153e+002 
4271875000  -4.124436e+001  -1.738228e+002 
4275000000  -4.095755e+001  1.788788e+002 
4278125000  -4.182549e+001  1.656958e+002 
4281250000  -4.300001e+001  1.630584e+002 
4284375000  -4.282282e+001  1.602223e+002 
4287500000  -4.426474e+001  1.576534e+002 
4290625000  -4.416626e+001  1.643927e+002 
4293750000  -4.198535e+001  1.607937e+002 
4296875000  -4.036389e+001  1.435875e+002 
4300000000  -4.192609e+001  1.340180e+002 
4303125000  -4.258127e+001  1.384922e+002 
4306250000  -4.095311e+001  1.365732e+002 
4309375000  -4.017068e+001  1.275935e+002 
4312500000  -4.019368e+001  1.153186e+002 
4315625000  -4.029898e+001  1.045395e+002 
4318750000  -4.131330e+001  1.004205e+002 
4321875000  -4.136320e+001  9.830769e+001 
4325000000  -4.037844e+001  9.324647e+001 
4328125000  -4.006596e+001  8.240015e+001 
4331250000  -4.019334e+001  7.204160e+001 
4334375000  -4.126182e+001  6.193788e+001 
4337500000  -4.240427e+001  6.097514e+001 
4340625000  -4.264650e+001  6.454738e+001 
4343750000  -4.153176e+001  5.933387e+001 
4346875000  -4.149900e+001  4.525092e+001 
4350000000  -4.177349e+001  3.751163e+001 
4353125000  -4.245492e+001  2.985218e+001 
4356250000  -4.440598e+001  3.538350e+001 
4359375000  -4.315824e+001  4.388531e+001 
4362500000  -4.015309e+001  3.523083e+001 
4365625000  -3.952245e+001  1.813117e+001 
4368750000  -4.074081e+001  7.188205e+000 
4371875000  -4.168656e+001  5.714216e+000 
4375000000  -4.126134e+001  -3.346287e-001 
4378125000  -4.086393e+001  -1.006787e+001 
4381250000  -4.108086e+001  -1.442282e+001 
4384375000  -4.125496e+001  -2.170120e+001 
4387500000  -4.219038e+001  -2.787659e+001 
4390625000  -4.238770e+001  -3.359791e+001 
4393750000  -4.262329e+001  -3.263939e+001 
4396875000  -4.211239e+001  -3.733512e+001 
4400000000  -4.167328e+001  -4.752804e+001 
4403125000  -4.248576e+001  -6.068972e+001 
4406250000  -4.276889e+001  -5.993200e+001 
4409375000  -4.295791e+001  -6.503244e+001 
4412500000  -4.436649e+001  -6.871654e+001 
4415625000  -4.385708e+001  -6.631123e+001 
4418750000  -4.262678e+001  -6.886349e+001 
