!Agilent Technologies,E8363B,MY43030201,A.06.04.32
!Agilent E8363B: A.06.04.32
!Date: Tuesday, November 11, 2014 21:52:43
!Correction: S21(Response(S21)) 
!S1P File: Measurement: S21:
# Hz S  dB   R 50
3000000000  -4.364960e+001  -1.626547e+002 
3003125000  -4.536176e+001  -1.698697e+002 
3006250000  -4.537111e+001  -1.692075e+002 
3009375000  -4.612625e+001  -1.650045e+002 
3012500000  -4.511090e+001  -1.736480e+002 
3015625000  -4.525523e+001  1.793065e+002 
3018750000  -4.524678e+001  -1.799396e+002 
3021875000  -4.382920e+001  1.791845e+002 
3025000000  -4.260990e+001  1.739706e+002 
3028125000  -4.162326e+001  1.625564e+002 
3031250000  -4.105075e+001  1.492831e+002 
3034375000  -4.081689e+001  1.351640e+002 
3037500000  -4.167372e+001  1.250425e+002 
3040625000  -4.296049e+001  1.196578e+002 
3043750000  -4.320872e+001  1.119384e+002 
3046875000  -4.411086e+001  1.051346e+002 
3050000000  -4.550183e+001  9.969497e+001 
3053125000  -4.481242e+001  1.027511e+002 
3056250000  -4.492413e+001  1.060178e+002 
3059375000  -4.386869e+001  1.044943e+002 
3062500000  -4.258533e+001  9.891386e+001 
3065625000  -4.216880e+001  8.761710e+001 
3068750000  -4.192591e+001  7.991129e+001 
3071875000  -4.179845e+001  7.692609e+001 
3075000000  -4.139530e+001  6.887143e+001 
3078125000  -4.139978e+001  6.097129e+001 
3081250000  -4.137170e+001  5.494437e+001 
3084375000  -4.044594e+001  4.963583e+001 
3087500000  -4.061135e+001  4.172833e+001 
3090625000  -4.010469e+001  2.824369e+001 
3093750000  -4.090021e+001  1.997013e+001 
3096875000  -4.140197e+001  1.383454e+001 
3100000000  -4.113486e+001  1.018459e+001 
3103125000  -4.150632e+001  5.307605e+000 
3106250000  -4.114281e+001  -7.546778e-001 
3109375000  -4.093343e+001  -4.766438e+000 
3112500000  -4.081599e+001  -1.313920e+001 
3115625000  -4.068347e+001  -1.758740e+001 
3118750000  -4.097751e+001  -2.287681e+001 
3121875000  -4.028485e+001  -3.423232e+001 
3125000000  -4.212135e+001  -3.690905e+001 
3128125000  -4.212598e+001  -3.236215e+001 
3131250000  -3.940828e+001  -4.079707e+001 
3134375000  -3.899429e+001  -5.770061e+001 
3137500000  -3.959547e+001  -7.185658e+001 
3140625000  -4.100763e+001  -7.425910e+001 
3143750000  -4.145006e+001  -8.030891e+001 
3146875000  -4.097060e+001  -7.804484e+001 
3150000000  -4.030150e+001  -8.471036e+001 
3153125000  -4.076340e+001  -9.307318e+001 
3156250000  -4.130567e+001  -9.009343e+001 
3159375000  -3.917310e+001  -9.325075e+001 
3162500000  -3.765252e+001  -1.109482e+002 
3165625000  -3.903865e+001  -1.246640e+002 
3168750000  -3.892770e+001  -1.264390e+002 
3171875000  -3.853917e+001  -1.352020e+002 
3175000000  -3.906850e+001  -1.454501e+002 
3178125000  -3.846018e+001  -1.478214e+002 
3181250000  -3.801728e+001  -1.561816e+002 
3184375000  -3.800372e+001  -1.687849e+002 
3187500000  -3.934433e+001  1.761877e+002 
3190625000  -4.067952e+001  1.683951e+002 
3193750000  -4.127283e+001  1.721815e+002 
3196875000  -4.085402e+001  1.729821e+002 
3200000000  -3.989860e+001  1.679171e+002 
3203125000  -3.963461e+001  1.598321e+002 
3206250000  -3.986230e+001  1.507040e+002 
3209375000  -3.963228e+001  1.411767e+002 
3212500000  -3.984051e+001  1.340844e+002 
3215625000  -3.942735e+001  1.324021e+002 
3218750000  -4.031560e+001  1.196699e+002 
3221875000  -4.040817e+001  1.126510e+002 
3225000000  -4.031014e+001  1.063176e+002 
3228125000  -4.102744e+001  9.877538e+001 
3231250000  -4.151012e+001  9.567828e+001 
3234375000  -4.086201e+001  9.316859e+001 
3237500000  -4.084226e+001  8.949672e+001 
3240625000  -4.035748e+001  8.085869e+001 
3243750000  -4.033228e+001  6.891840e+001 
3246875000  -4.071502e+001  6.154573e+001 
3250000000  -4.111401e+001  5.631776e+001 
3253125000  -4.097607e+001  5.223286e+001 
3256250000  -4.022259e+001  4.248113e+001 
3259375000  -4.083794e+001  2.949760e+001 
3262500000  -4.249374e+001  2.484150e+001 
3265625000  -4.248299e+001  2.591950e+001 
3268750000  -4.243475e+001  2.506185e+001 
3271875000  -4.158464e+001  1.937733e+001 
3275000000  -4.107014e+001  8.893011e+000 
3278125000  -4.173229e+001  2.633685e+000 
3281250000  -4.187439e+001  -1.714095e+000 
3284375000  -4.106151e+001  -1.111274e+001 
3287500000  -4.150853e+001  -1.762252e+001 
3290625000  -4.139956e+001  -2.745570e+001 
3293750000  -4.151964e+001  -3.617989e+001 
3296875000  -4.260092e+001  -4.038871e+001 
3300000000  -4.201012e+001  -4.196821e+001 
3303125000  -4.082154e+001  -5.162508e+001 
3306250000  -4.074891e+001  -6.273496e+001 
3309375000  -4.071711e+001  -7.375479e+001 
3312500000  -4.096054e+001  -8.711566e+001 
3315625000  -4.244379e+001  -9.428660e+001 
3318750000  -4.371966e+001  -1.032689e+002 
3321875000  -4.525066e+001  -1.026204e+002 
3325000000  -4.501609e+001  -9.891086e+001 
3328125000  -4.401706e+001  -9.883403e+001 
3331250000  -4.248137e+001  -1.006049e+002 
3334375000  -4.011418e+001  -1.185401e+002 
3337500000  -4.080817e+001  -1.430030e+002 
3340625000  -4.239026e+001  -1.523557e+002 
3343750000  -4.482372e+001  -1.546309e+002 
3346875000  -4.390299e+001  -1.586907e+002 
3350000000  -4.353430e+001  -1.621247e+002 
3353125000  -4.359031e+001  -1.708559e+002 
3356250000  -4.320288e+001  1.788186e+002 
3359375000  -4.427395e+001  1.632023e+002 
3362500000  -4.511543e+001  1.571867e+002 
3365625000  -4.567627e+001  1.505750e+002 
3368750000  -4.642500e+001  1.446260e+002 
3371875000  -4.729066e+001  1.374426e+002 
3375000000  -4.825124e+001  1.317590e+002 
3378125000  -4.900985e+001  1.305577e+002 
3381250000  -5.070069e+001  1.415782e+002 
3384375000  -4.722898e+001  1.511064e+002 
3387500000  -4.433778e+001  1.278800e+002 
3390625000  -4.669156e+001  1.049067e+002 
3393750000  -4.788874e+001  1.024365e+002 
3396875000  -4.673606e+001  1.008232e+002 
3400000000  -4.600056e+001  8.308081e+001 
3403125000  -4.653422e+001  7.666806e+001 
3406250000  -4.731178e+001  7.181879e+001 
3409375000  -4.723658e+001  5.831759e+001 
3412500000  -4.776053e+001  5.444430e+001 
3415625000  -4.884343e+001  4.663319e+001 
3418750000  -4.841759e+001  4.379781e+001 
3421875000  -4.963362e+001  3.915917e+001 
3425000000  -4.750757e+001  3.179049e+001 
3428125000  -4.665904e+001  2.563401e+001 
3431250000  -4.663023e+001  1.399547e+001 
3434375000  -4.701947e+001  1.016738e+000 
3437500000  -4.764146e+001  -6.446493e+000 
3440625000  -4.806520e+001  -1.071780e+001 
3443750000  -4.664684e+001  -1.333270e+001 
3446875000  -4.597034e+001  -2.819253e+001 
3450000000  -4.528932e+001  -4.288040e+001 
3453125000  -4.581825e+001  -6.402792e+001 
3456250000  -4.747428e+001  -7.128968e+001 
3459375000  -4.787173e+001  -7.593138e+001 
3462500000  -4.805096e+001  -7.835397e+001 
3465625000  -4.745158e+001  -9.087602e+001 
3468750000  -4.766267e+001  -9.671183e+001 
3471875000  -4.704124e+001  -1.046543e+002 
3475000000  -4.733539e+001  -1.173081e+002 
3478125000  -4.793199e+001  -1.321552e+002 
3481250000  -4.903129e+001  -1.364107e+002 
3484375000  -4.865999e+001  -1.373182e+002 
3487500000  -4.763803e+001  -1.441245e+002 
3490625000  -4.745059e+001  -1.544074e+002 
3493750000  -4.776635e+001  -1.679254e+002 
3496875000  -4.821872e+001  -1.710341e+002 
3500000000  -4.853406e+001  -1.741842e+002 
3503125000  -4.730726e+001  -1.786610e+002 
3506250000  -4.592010e+001  1.695779e+002 
3509375000  -4.566268e+001  1.480261e+002 
3512500000  -4.617893e+001  1.352744e+002 
3515625000  -4.792171e+001  1.266462e+002 
3518750000  -4.851711e+001  1.271444e+002 
3521875000  -4.793280e+001  1.146801e+002 
3525000000  -4.902898e+001  1.129813e+002 
3528125000  -4.785791e+001  1.163696e+002 
3531250000  -4.695126e+001  1.045495e+002 
3534375000  -4.713321e+001  8.591482e+001 
3537500000  -4.750320e+001  7.758635e+001 
3540625000  -4.920283e+001  7.642925e+001 
3543750000  -4.911836e+001  7.670098e+001 
3546875000  -4.854102e+001  8.205320e+001 
3550000000  -4.682065e+001  7.020066e+001 
3553125000  -4.567424e+001  5.188314e+001 
3556250000  -4.758768e+001  4.366201e+001 
3559375000  -4.635955e+001  3.995668e+001 
3562500000  -4.688647e+001  2.929643e+001 
3565625000  -4.708038e+001  2.343344e+001 
3568750000  -4.789791e+001  2.348899e+001 
3571875000  -4.704581e+001  1.629125e+001 
3575000000  -4.682763e+001  1.152011e+001 
3578125000  -4.764110e+001  2.906654e+000 
3581250000  -4.744078e+001  2.877389e+000 
3584375000  -4.609016e+001  -5.282662e+000 
3587500000  -4.552471e+001  -1.796057e+001 
3590625000  -4.634750e+001  -2.656963e+001 
3593750000  -4.786250e+001  -2.551427e+001 
3596875000  -4.674665e+001  -2.498008e+001 
3600000000  -4.488884e+001  -3.434790e+001 
3603125000  -4.510676e+001  -4.904525e+001 
3606250000  -4.578867e+001  -5.553101e+001 
3609375000  -4.602956e+001  -5.727149e+001 
3612500000  -4.636495e+001  -6.612736e+001 
3615625000  -4.657266e+001  -7.160712e+001 
3618750000  -4.635601e+001  -7.688171e+001 
3621875000  -4.566360e+001  -7.852719e+001 
3625000000  -4.562939e+001  -8.578659e+001 
3628125000  -4.476840e+001  -9.267042e+001 
3631250000  -4.485907e+001  -9.916344e+001 
3634375000  -4.537915e+001  -1.004343e+002 
3637500000  -4.432978e+001  -1.029971e+002 
3640625000  -4.388598e+001  -1.099356e+002 
3643750000  -4.350418e+001  -1.215460e+002 
3646875000  -4.375034e+001  -1.310456e+002 
3650000000  -4.393692e+001  -1.381139e+002 
3653125000  -4.331093e+001  -1.458954e+002 
3656250000  -4.379874e+001  -1.514521e+002 
3659375000  -4.363021e+001  -1.552793e+002 
3662500000  -4.303527e+001  -1.631017e+002 
3665625000  -4.331016e+001  -1.667745e+002 
3668750000  -4.238874e+001  -1.708529e+002 
3671875000  -4.145759e+001  1.743312e+002 
3675000000  -4.251566e+001  1.663337e+002 
3678125000  -4.251462e+001  1.590947e+002 
3681250000  -4.245899e+001  1.538125e+002 
3684375000  -4.242506e+001  1.456649e+002 
3687500000  -4.284736e+001  1.373104e+002 
3690625000  -4.343658e+001  1.309882e+002 
3693750000  -4.422480e+001  1.313577e+002 
3696875000  -4.370569e+001  1.271671e+002 
3700000000  -4.303617e+001  1.203060e+002 
3703125000  -4.372116e+001  1.113666e+002 
3706250000  -4.470068e+001  1.091282e+002 
3709375000  -4.395542e+001  1.094549e+002 
3712500000  -4.275140e+001  1.012806e+002 
3715625000  -4.162897e+001  9.376620e+001 
3718750000  -4.165697e+001  8.362001e+001 
3721875000  -4.162096e+001  7.385846e+001 
3725000000  -4.237632e+001  6.817766e+001 
3728125000  -4.233747e+001  6.424050e+001 
3731250000  -4.186555e+001  5.538914e+001 
3734375000  -4.185562e+001  4.916089e+001 
3737500000  -4.258212e+001  4.059435e+001 
3740625000  -4.296508e+001  3.656113e+001 
3743750000  -4.284990e+001  2.780116e+001 
3746875000  -4.323499e+001  2.158942e+001 
3750000000  -4.333829e+001  1.737483e+001 
3753125000  -4.350128e+001  1.598105e+001 
3756250000  -4.349260e+001  1.175661e+001 
3759375000  -4.325659e+001  5.968331e+000 
3762500000  -4.331285e+001  1.575366e+000 
3765625000  -4.399890e+001  -2.762688e+000 
3768750000  -4.330349e+001  -3.552387e+000 
3771875000  -4.210458e+001  -1.227314e+001 
3775000000  -4.211462e+001  -2.206617e+001 
3778125000  -4.251911e+001  -2.727693e+001 
3781250000  -4.266014e+001  -3.245047e+001 
3784375000  -4.231762e+001  -3.801783e+001 
3787500000  -4.230908e+001  -4.414154e+001 
3790625000  -4.281530e+001  -5.446496e+001 
3793750000  -4.278179e+001  -5.773956e+001 
3796875000  -4.164204e+001  -6.130936e+001 
3800000000  -4.070351e+001  -6.982971e+001 
3803125000  -4.148680e+001  -8.215701e+001 
3806250000  -4.205523e+001  -8.532967e+001 
3809375000  -4.173484e+001  -9.190163e+001 
3812500000  -4.170941e+001  -1.045169e+002 
3815625000  -4.277729e+001  -1.131645e+002 
3818750000  -4.428783e+001  -1.109563e+002 
3821875000  -4.330772e+001  -1.014561e+002 
3825000000  -4.137948e+001  -1.068120e+002 
3828125000  -4.039582e+001  -1.285514e+002 
3831250000  -4.173447e+001  -1.433486e+002 
3834375000  -4.338924e+001  -1.441521e+002 
3837500000  -4.396281e+001  -1.377093e+002 
3840625000  -4.208440e+001  -1.462920e+002 
3843750000  -4.158560e+001  -1.619162e+002 
3846875000  -4.350110e+001  -1.697050e+002 
3850000000  -4.427552e+001  -1.632571e+002 
3853125000  -4.328551e+001  -1.616464e+002 
3856250000  -4.257323e+001  -1.730955e+002 
3859375000  -4.242300e+001  1.760988e+002 
3862500000  -4.161977e+001  1.667555e+002 
3865625000  -4.282772e+001  1.622779e+002 
3868750000  -4.232804e+001  1.602316e+002 
3871875000  -4.175706e+001  1.485489e+002 
3875000000  -4.261179e+001  1.403424e+002 
3878125000  -4.318369e+001  1.378989e+002 
3881250000  -4.310863e+001  1.348640e+002 
3884375000  -4.250652e+001  1.239866e+002 
3887500000  -4.311749e+001  1.198619e+002 
3890625000  -4.381252e+001  1.125820e+002 
3893750000  -4.406900e+001  1.129492e+002 
3896875000  -4.441397e+001  1.087909e+002 
3900000000  -4.400118e+001  1.058287e+002 
3903125000  -4.329216e+001  1.006860e+002 
3906250000  -4.353295e+001  9.587550e+001 
3909375000  -4.283035e+001  8.413756e+001 
3912500000  -4.386490e+001  7.950413e+001 
3915625000  -4.468688e+001  7.518899e+001 
3918750000  -4.452981e+001  7.538988e+001 
3921875000  -4.356329e+001  6.719682e+001 
3925000000  -4.335793e+001  6.435130e+001 
3928125000  -4.289357e+001  5.404705e+001 
3931250000  -4.390887e+001  4.678309e+001 
3934375000  -4.358625e+001  4.662579e+001 
3937500000  -4.442770e+001  4.236630e+001 
3940625000  -4.450184e+001  4.330980e+001 
3943750000  -4.303421e+001  3.470921e+001 
3946875000  -4.267144e+001  2.543983e+001 
3950000000  -4.360824e+001  1.810706e+001 
3953125000  -4.432734e+001  1.606966e+001 
3956250000  -4.250278e+001  1.662326e+001 
3959375000  -4.165560e+001  9.821831e+000 
3962500000  -4.121908e+001  1.074478e+000 
3965625000  -4.184760e+001  -1.079552e+001 
3968750000  -4.218187e+001  -1.890749e+001 
3971875000  -4.229952e+001  -2.290199e+001 
3975000000  -4.188373e+001  -2.906694e+001 
3978125000  -4.211978e+001  -3.435315e+001 
3981250000  -4.167505e+001  -4.504016e+001 
3984375000  -4.251909e+001  -5.081316e+001 
3987500000  -4.285696e+001  -5.736903e+001 
3990625000  -4.257903e+001  -6.106067e+001 
3993750000  -4.279233e+001  -6.484219e+001 
3996875000  -4.301463e+001  -7.234660e+001 
4000000000  -4.381328e+001  -7.686495e+001 
4003125000  -4.399329e+001  -7.563898e+001 
4006250000  -4.186169e+001  -8.326700e+001 
4009375000  -4.131152e+001  -9.792342e+001 
4012500000  -4.327735e+001  -1.051820e+002 
4015625000  -4.349409e+001  -1.082277e+002 
4018750000  -4.350103e+001  -1.098552e+002 
4021875000  -4.285505e+001  -1.175299e+002 
4025000000  -4.317726e+001  -1.237419e+002 
4028125000  -4.325726e+001  -1.327131e+002 
4031250000  -4.355180e+001  -1.376867e+002 
4034375000  -4.350928e+001  -1.387760e+002 
4037500000  -4.390281e+001  -1.442274e+002 
4040625000  -4.396378e+001  -1.499787e+002 
4043750000  -4.422504e+001  -1.540048e+002 
4046875000  -4.423172e+001  -1.607096e+002 
4050000000  -4.439036e+001  -1.666874e+002 
4053125000  -4.468153e+001  -1.680341e+002 
4056250000  -4.540644e+001  -1.667112e+002 
4059375000  -4.373710e+001  -1.686466e+002 
4062500000  -4.346781e+001  -1.764596e+002 
4065625000  -4.362526e+001  1.765736e+002 
4068750000  -4.312691e+001  1.691391e+002 
4071875000  -4.229351e+001  1.588560e+002 
4075000000  -4.328996e+001  1.527012e+002 
4078125000  -4.392551e+001  1.487506e+002 
4081250000  -4.346289e+001  1.412500e+002 
4084375000  -4.340835e+001  1.322794e+002 
4087500000  -4.390857e+001  1.246936e+002 
4090625000  -4.432735e+001  1.222422e+002 
4093750000  -4.450419e+001  1.202650e+002 
4096875000  -4.437231e+001  1.143262e+002 
4100000000  -4.493246e+001  1.071440e+002 
4103125000  -4.596289e+001  1.095222e+002 
4106250000  -4.471089e+001  1.121602e+002 
4109375000  -4.408483e+001  1.078760e+002 
4112500000  -4.386819e+001  9.567751e+001 
4115625000  -4.404710e+001  9.286726e+001 
4118750000  -4.385583e+001  8.619224e+001 
4121875000  -4.335508e+001  8.024564e+001 
4125000000  -4.408656e+001  7.352629e+001 
4128125000  -4.497235e+001  7.743607e+001 
4131250000  -4.387500e+001  7.816908e+001 
4134375000  -4.128868e+001  6.823357e+001 
4137500000  -4.190392e+001  4.606831e+001 
4140625000  -4.387188e+001  3.946523e+001 
4143750000  -4.465623e+001  4.400415e+001 
4146875000  -4.378926e+001  4.393286e+001 
4150000000  -4.282060e+001  3.737335e+001 
4153125000  -4.309235e+001  2.402791e+001 
4156250000  -4.384847e+001  2.163675e+001 
4159375000  -4.365621e+001  2.558562e+001 
4162500000  -4.235246e+001  2.369190e+001 
4165625000  -4.114311e+001  1.334921e+001 
4168750000  -4.103912e+001  4.466999e+000 
4171875000  -4.123356e+001  -1.090824e+001 
4175000000  -4.157726e+001  -1.854963e+001 
4178125000  -4.194627e+001  -2.005626e+001 
4181250000  -4.177978e+001  -2.800521e+001 
4184375000  -4.216568e+001  -3.296371e+001 
4187500000  -4.227876e+001  -4.045044e+001 
4190625000  -4.275499e+001  -4.793367e+001 
4193750000  -4.414347e+001  -5.690725e+001 
4196875000  -4.493296e+001  -5.461600e+001 
4200000000  -4.610999e+001  -5.112502e+001 
4203125000  -4.442357e+001  -4.050976e+001 
4206250000  -4.086505e+001  -5.132732e+001 
4209375000  -4.146014e+001  -7.658749e+001 
4212500000  -4.366512e+001  -8.136129e+001 
4215625000  -4.414143e+001  -7.620817e+001 
4218750000  -4.193425e+001  -7.857515e+001 
4221875000  -4.089551e+001  -8.861801e+001 
4225000000  -4.204107e+001  -9.921706e+001 
4228125000  -4.219439e+001  -9.705990e+001 
4231250000  -4.095227e+001  -1.058969e+002 
4234375000  -4.114676e+001  -1.156308e+002 
4237500000  -4.094833e+001  -1.215243e+002 
4240625000  -4.111247e+001  -1.342338e+002 
4243750000  -4.228568e+001  -1.421630e+002 
4246875000  -4.302244e+001  -1.411557e+002 
4250000000  -4.259279e+001  -1.424426e+002 
4253125000  -4.221022e+001  -1.468755e+002 
4256250000  -4.255677e+001  -1.495608e+002 
4259375000  -4.179496e+001  -1.595246e+002 
4262500000  -4.213485e+001  -1.614551e+002 
4265625000  -4.199118e+001  -1.631503e+002 
4268750000  -4.076085e+001  -1.717980e+002 
4271875000  -4.063683e+001  1.766529e+002 
4275000000  -4.022416e+001  1.676771e+002 
4278125000  -4.106932e+001  1.556034e+002 
4281250000  -4.217226e+001  1.496452e+002 
4284375000  -4.203828e+001  1.495435e+002 
4287500000  -4.349387e+001  1.469243e+002 
4290625000  -4.371088e+001  1.525383e+002 
4293750000  -4.166730e+001  1.531994e+002 
4296875000  -4.021302e+001  1.393874e+002 
4300000000  -4.174426e+001  1.263160e+002 
4303125000  -4.194592e+001  1.270506e+002 
4306250000  -4.055835e+001  1.259251e+002 
4309375000  -3.974506e+001  1.172561e+002 
4312500000  -3.971997e+001  1.061186e+002 
4315625000  -4.002628e+001  9.454954e+001 
4318750000  -4.075298e+001  9.079035e+001 
4321875000  -4.073282e+001  8.933459e+001 
4325000000  -3.999487e+001  8.298036e+001 
4328125000  -3.933508e+001  7.267615e+001 
4331250000  -3.985340e+001  6.026227e+001 
4334375000  -4.075086e+001  5.243570e+001 
4337500000  -4.190807e+001  5.158204e+001 
4340625000  -4.188984e+001  5.273220e+001 
4343750000  -4.102901e+001  4.938950e+001 
4346875000  -4.075139e+001  3.633058e+001 
4350000000  -4.083992e+001  2.994604e+001 
4353125000  -4.169454e+001  2.113132e+001 
4356250000  -4.419429e+001  2.521736e+001 
4359375000  -4.248952e+001  3.642598e+001 
4362500000  -3.906438e+001  2.857146e+001 
4365625000  -3.903047e+001  1.048884e+001 
4368750000  -4.038246e+001  -3.551878e+000 
4371875000  -4.109660e+001  -4.165563e+000 
4375000000  -4.061911e+001  -1.008858e+001 
4378125000  -4.038192e+001  -1.769379e+001 
4381250000  -4.016688e+001  -2.712154e+001 
4384375000  -4.062571e+001  -3.197843e+001 
4387500000  -4.133831e+001  -3.983772e+001 
4390625000  -4.223774e+001  -4.381125e+001 
4393750000  -4.131587e+001  -4.434240e+001 
4396875000  -4.089110e+001  -4.915689e+001 
4400000000  -4.076590e+001  -5.817071e+001 
4403125000  -4.158882e+001  -6.934234e+001 
4406250000  -4.154383e+001  -7.330470e+001 
4409375000  -4.240663e+001  -7.835935e+001 
4412500000  -4.351561e+001  -7.857920e+001 
4415625000  -4.306647e+001  -7.776180e+001 
4418750000  -4.163429e+001  -7.926039e+001 
