!Agilent Technologies,E8363B,MY43030201,A.06.04.32
!Agilent E8363B: A.06.04.32
!Date: Tuesday, November 11, 2014 21:53:11
!Correction: S21(Response(S21)) 
!S1P File: Measurement: S21:
# Hz S  dB   R 50
3000000000  -4.359031e+001  -1.624790e+002 
3003125000  -4.554425e+001  -1.695085e+002 
3006250000  -4.537718e+001  -1.699772e+002 
3009375000  -4.611755e+001  -1.688746e+002 
3012500000  -4.510396e+001  -1.744912e+002 
3015625000  -4.486769e+001  1.795978e+002 
3018750000  -4.544698e+001  1.786131e+002 
3021875000  -4.375367e+001  -1.797838e+002 
3025000000  -4.257619e+001  1.755315e+002 
3028125000  -4.177585e+001  1.611224e+002 
3031250000  -4.100070e+001  1.494261e+002 
3034375000  -4.070293e+001  1.354829e+002 
3037500000  -4.158324e+001  1.255356e+002 
3040625000  -4.309634e+001  1.194849e+002 
3043750000  -4.347043e+001  1.100788e+002 
3046875000  -4.400944e+001  1.051563e+002 
3050000000  -4.516381e+001  9.960379e+001 
3053125000  -4.475854e+001  1.064533e+002 
3056250000  -4.485398e+001  1.062754e+002 
3059375000  -4.398703e+001  1.020037e+002 
3062500000  -4.266902e+001  9.854181e+001 
3065625000  -4.205746e+001  8.732388e+001 
3068750000  -4.181777e+001  7.922963e+001 
3071875000  -4.161054e+001  7.736271e+001 
3075000000  -4.123396e+001  7.003688e+001 
3078125000  -4.117562e+001  6.034712e+001 
3081250000  -4.154187e+001  5.446168e+001 
3084375000  -4.045498e+001  4.954165e+001 
3087500000  -4.049715e+001  4.197848e+001 
3090625000  -3.992846e+001  2.928194e+001 
3093750000  -4.100202e+001  1.956502e+001 
3096875000  -4.116925e+001  1.524827e+001 
3100000000  -4.095977e+001  1.023458e+001 
3103125000  -4.148727e+001  3.965449e+000 
3106250000  -4.106860e+001  -2.048436e-001 
3109375000  -4.101093e+001  -6.001752e+000 
3112500000  -4.089178e+001  -1.306801e+001 
3115625000  -4.082247e+001  -1.758151e+001 
3118750000  -4.042525e+001  -2.272478e+001 
3121875000  -4.025049e+001  -3.492369e+001 
3125000000  -4.221694e+001  -3.840873e+001 
3128125000  -4.217131e+001  -3.145063e+001 
3131250000  -3.935570e+001  -3.991959e+001 
3134375000  -3.908484e+001  -5.790779e+001 
3137500000  -3.949459e+001  -7.194471e+001 
3140625000  -4.096113e+001  -7.470653e+001 
3143750000  -4.166165e+001  -8.021378e+001 
3146875000  -4.094347e+001  -7.985345e+001 
3150000000  -4.044345e+001  -8.510383e+001 
3153125000  -4.060958e+001  -9.373647e+001 
3156250000  -4.150940e+001  -9.150082e+001 
3159375000  -3.913021e+001  -9.506605e+001 
3162500000  -3.776632e+001  -1.107645e+002 
3165625000  -3.898847e+001  -1.243349e+002 
3168750000  -3.893505e+001  -1.253824e+002 
3171875000  -3.863727e+001  -1.339249e+002 
3175000000  -3.915447e+001  -1.453324e+002 
3178125000  -3.869087e+001  -1.465465e+002 
3181250000  -3.813035e+001  -1.569809e+002 
3184375000  -3.792622e+001  -1.683716e+002 
3187500000  -3.906189e+001  1.769363e+002 
3190625000  -4.077290e+001  1.688139e+002 
3193750000  -4.108038e+001  1.739226e+002 
3196875000  -4.101418e+001  1.739506e+002 
3200000000  -3.973736e+001  1.659522e+002 
3203125000  -3.969213e+001  1.564472e+002 
3206250000  -3.990483e+001  1.508647e+002 
3209375000  -3.942172e+001  1.409758e+002 
3212500000  -3.989259e+001  1.337311e+002 
3215625000  -3.978378e+001  1.319504e+002 
3218750000  -4.036587e+001  1.169287e+002 
3221875000  -4.051630e+001  1.115340e+002 
3225000000  -4.055524e+001  1.057587e+002 
3228125000  -4.100161e+001  9.782430e+001 
3231250000  -4.152768e+001  9.539968e+001 
3234375000  -4.116468e+001  9.329458e+001 
3237500000  -4.097146e+001  8.667306e+001 
3240625000  -4.027721e+001  8.123613e+001 
3243750000  -4.016757e+001  6.891844e+001 
3246875000  -4.071396e+001  6.173518e+001 
3250000000  -4.112894e+001  5.638578e+001 
3253125000  -4.131873e+001  5.148546e+001 
3256250000  -4.040862e+001  4.110447e+001 
3259375000  -4.093088e+001  2.930412e+001 
3262500000  -4.230623e+001  2.517871e+001 
3265625000  -4.239055e+001  2.536159e+001 
3268750000  -4.260961e+001  2.506833e+001 
3271875000  -4.152038e+001  1.875279e+001 
3275000000  -4.120770e+001  8.838188e+000 
3278125000  -4.166064e+001  9.106115e-001 
3281250000  -4.173096e+001  -1.574252e+000 
3284375000  -4.092318e+001  -1.132650e+001 
3287500000  -4.140945e+001  -1.868888e+001 
3290625000  -4.166457e+001  -2.791755e+001 
3293750000  -4.156463e+001  -3.603272e+001 
3296875000  -4.290306e+001  -4.232835e+001 
3300000000  -4.190705e+001  -4.068406e+001 
3303125000  -4.071773e+001  -5.196862e+001 
3306250000  -4.119107e+001  -6.286616e+001 
3309375000  -4.064596e+001  -7.290863e+001 
3312500000  -4.099181e+001  -8.688457e+001 
3315625000  -4.256546e+001  -9.432156e+001 
3318750000  -4.393683e+001  -1.023810e+002 
3321875000  -4.499180e+001  -1.016624e+002 
3325000000  -4.468820e+001  -9.641363e+001 
3328125000  -4.422343e+001  -1.015360e+002 
3331250000  -4.239855e+001  -9.968956e+001 
3334375000  -3.992010e+001  -1.185301e+002 
3337500000  -4.079511e+001  -1.425269e+002 
3340625000  -4.259718e+001  -1.525399e+002 
3343750000  -4.448754e+001  -1.523258e+002 
3346875000  -4.389245e+001  -1.575333e+002 
3350000000  -4.362210e+001  -1.645259e+002 
3353125000  -4.348685e+001  -1.727569e+002 
3356250000  -4.321753e+001  1.785793e+002 
3359375000  -4.426104e+001  1.616277e+002 
3362500000  -4.493330e+001  1.558167e+002 
3365625000  -4.575517e+001  1.487413e+002 
3368750000  -4.658963e+001  1.444480e+002 
3371875000  -4.657877e+001  1.362854e+002 
3375000000  -4.836327e+001  1.336512e+002 
3378125000  -4.905742e+001  1.310007e+002 
3381250000  -5.065479e+001  1.464202e+002 
3384375000  -4.686259e+001  1.491991e+002 
3387500000  -4.443349e+001  1.262659e+002 
3390625000  -4.655062e+001  1.030889e+002 
3393750000  -4.753247e+001  1.023134e+002 
3396875000  -4.612062e+001  1.004027e+002 
3400000000  -4.661739e+001  8.527238e+001 
3403125000  -4.658577e+001  7.760275e+001 
3406250000  -4.759385e+001  6.780505e+001 
3409375000  -4.722969e+001  6.025611e+001 
3412500000  -4.766391e+001  5.509314e+001 
3415625000  -4.876921e+001  4.734968e+001 
3418750000  -4.872175e+001  4.400469e+001 
3421875000  -4.903962e+001  3.843750e+001 
3425000000  -4.750663e+001  3.765784e+001 
3428125000  -4.747194e+001  2.443557e+001 
3431250000  -4.669900e+001  1.361881e+001 
3434375000  -4.708522e+001  3.067407e+000 
3437500000  -4.750802e+001  -8.104547e+000 
3440625000  -4.795423e+001  -1.060522e+001 
3443750000  -4.653326e+001  -1.284969e+001 
3446875000  -4.552342e+001  -2.779518e+001 
3450000000  -4.527665e+001  -4.554421e+001 
3453125000  -4.575790e+001  -6.176273e+001 
3456250000  -4.718645e+001  -7.063013e+001 
3459375000  -4.873994e+001  -7.224559e+001 
3462500000  -4.790504e+001  -7.638744e+001 
3465625000  -4.736601e+001  -9.270255e+001 
3468750000  -4.747955e+001  -9.824956e+001 
3471875000  -4.704548e+001  -1.044049e+002 
3475000000  -4.692727e+001  -1.215002e+002 
3478125000  -4.769770e+001  -1.322489e+002 
3481250000  -4.867220e+001  -1.352705e+002 
3484375000  -4.865825e+001  -1.370256e+002 
3487500000  -4.754051e+001  -1.438952e+002 
3490625000  -4.684351e+001  -1.574198e+002 
3493750000  -4.839256e+001  -1.675260e+002 
3496875000  -4.844348e+001  -1.726153e+002 
3500000000  -4.836412e+001  -1.723698e+002 
3503125000  -4.738120e+001  -1.776887e+002 
3506250000  -4.576993e+001  1.708158e+002 
3509375000  -4.565318e+001  1.520558e+002 
3512500000  -4.615809e+001  1.332297e+002 
3515625000  -4.729898e+001  1.301662e+002 
3518750000  -4.811676e+001  1.288338e+002 
3521875000  -4.797653e+001  1.184090e+002 
3525000000  -4.931886e+001  1.116098e+002 
3528125000  -4.767861e+001  1.132171e+002 
3531250000  -4.669020e+001  1.013930e+002 
3534375000  -4.719229e+001  8.629787e+001 
3537500000  -4.812005e+001  7.754590e+001 
3540625000  -4.885737e+001  7.245257e+001 
3543750000  -4.957831e+001  7.736197e+001 
3546875000  -4.840237e+001  8.184903e+001 
3550000000  -4.623262e+001  6.894924e+001 
3553125000  -4.563333e+001  5.531328e+001 
3556250000  -4.784864e+001  4.495557e+001 
3559375000  -4.696617e+001  3.956923e+001 
3562500000  -4.644891e+001  2.889753e+001 
3565625000  -4.695492e+001  2.160913e+001 
3568750000  -4.770536e+001  1.960958e+001 
3571875000  -4.700029e+001  1.368870e+001 
3575000000  -4.707431e+001  6.842052e+000 
3578125000  -4.793707e+001  6.683061e+000 
3581250000  -4.708202e+001  1.662634e+000 
3584375000  -4.587551e+001  -2.895307e+000 
3587500000  -4.551572e+001  -1.628041e+001 
3590625000  -4.651270e+001  -2.815899e+001 
3593750000  -4.821747e+001  -2.791121e+001 
3596875000  -4.644582e+001  -2.364323e+001 
3600000000  -4.439819e+001  -3.467613e+001 
3603125000  -4.473771e+001  -5.256821e+001 
3606250000  -4.581712e+001  -5.770998e+001 
3609375000  -4.590660e+001  -5.905542e+001 
3612500000  -4.575420e+001  -6.509882e+001 
3615625000  -4.633368e+001  -7.162174e+001 
3618750000  -4.610886e+001  -7.536982e+001 
3621875000  -4.541053e+001  -7.963850e+001 
3625000000  -4.538985e+001  -8.511645e+001 
3628125000  -4.508828e+001  -9.054070e+001 
3631250000  -4.531057e+001  -1.003861e+002 
3634375000  -4.546292e+001  -1.006822e+002 
3637500000  -4.471797e+001  -1.032830e+002 
3640625000  -4.367215e+001  -1.090789e+002 
3643750000  -4.330872e+001  -1.207202e+002 
3646875000  -4.352588e+001  -1.328581e+002 
3650000000  -4.352230e+001  -1.368922e+002 
3653125000  -4.340180e+001  -1.436104e+002 
3656250000  -4.398581e+001  -1.516837e+002 
3659375000  -4.364347e+001  -1.560795e+002 
3662500000  -4.329733e+001  -1.634600e+002 
3665625000  -4.329131e+001  -1.642135e+002 
3668750000  -4.190258e+001  -1.690741e+002 
3671875000  -4.159480e+001  1.757189e+002 
3675000000  -4.223776e+001  1.656911e+002 
3678125000  -4.270685e+001  1.607291e+002 
3681250000  -4.231264e+001  1.556165e+002 
3684375000  -4.252167e+001  1.455090e+002 
3687500000  -4.290922e+001  1.359007e+002 
3690625000  -4.379166e+001  1.327579e+002 
3693750000  -4.481647e+001  1.311666e+002 
3696875000  -4.378190e+001  1.261698e+002 
3700000000  -4.278460e+001  1.191439e+002 
3703125000  -4.386503e+001  1.106050e+002 
3706250000  -4.471187e+001  1.074088e+002 
3709375000  -4.397254e+001  1.093458e+002 
3712500000  -4.294336e+001  1.026523e+002 
3715625000  -4.150111e+001  9.348856e+001 
3718750000  -4.154396e+001  8.280279e+001 
3721875000  -4.169479e+001  7.614303e+001 
3725000000  -4.241865e+001  6.673125e+001 
3728125000  -4.226783e+001  6.406356e+001 
3731250000  -4.192196e+001  5.639768e+001 
3734375000  -4.196511e+001  4.753202e+001 
3737500000  -4.260446e+001  4.182352e+001 
3740625000  -4.303153e+001  3.339064e+001 
3743750000  -4.259212e+001  2.873506e+001 
3746875000  -4.346359e+001  2.220833e+001 
3750000000  -4.367913e+001  1.786000e+001 
3753125000  -4.340751e+001  1.407823e+001 
3756250000  -4.392894e+001  1.052983e+001 
3759375000  -4.368155e+001  4.981321e+000 
3762500000  -4.344316e+001  -1.721332e-001 
3765625000  -4.420818e+001  -5.302631e+000 
3768750000  -4.368466e+001  -3.475181e+000 
3771875000  -4.207830e+001  -1.070877e+001 
3775000000  -4.229090e+001  -2.127075e+001 
3778125000  -4.267591e+001  -2.765528e+001 
3781250000  -4.273114e+001  -3.187436e+001 
3784375000  -4.226884e+001  -3.980877e+001 
3787500000  -4.223948e+001  -4.390260e+001 
3790625000  -4.264972e+001  -5.444799e+001 
3793750000  -4.223450e+001  -5.766696e+001 
3796875000  -4.147060e+001  -6.115197e+001 
3800000000  -4.087424e+001  -6.919329e+001 
3803125000  -4.189536e+001  -8.168596e+001 
3806250000  -4.205902e+001  -8.758833e+001 
3809375000  -4.182084e+001  -9.005793e+001 
3812500000  -4.193729e+001  -1.028535e+002 
3815625000  -4.290774e+001  -1.120952e+002 
3818750000  -4.460635e+001  -1.100566e+002 
3821875000  -4.294574e+001  -1.000328e+002 
3825000000  -4.139714e+001  -1.079918e+002 
3828125000  -4.025142e+001  -1.280512e+002 
3831250000  -4.143134e+001  -1.445256e+002 
3834375000  -4.359589e+001  -1.423701e+002 
3837500000  -4.403405e+001  -1.381907e+002 
3840625000  -4.246115e+001  -1.485867e+002 
3843750000  -4.156629e+001  -1.619467e+002 
3846875000  -4.272286e+001  -1.698221e+002 
3850000000  -4.380942e+001  -1.609646e+002 
3853125000  -4.296499e+001  -1.657234e+002 
3856250000  -4.290818e+001  -1.724259e+002 
3859375000  -4.160628e+001  1.772557e+002 
3862500000  -4.210077e+001  1.677562e+002 
3865625000  -4.251323e+001  1.622132e+002 
3868750000  -4.212814e+001  1.608982e+002 
3871875000  -4.167157e+001  1.508533e+002 
3875000000  -4.235999e+001  1.379950e+002 
3878125000  -4.328894e+001  1.375749e+002 
3881250000  -4.346034e+001  1.345219e+002 
3884375000  -4.249444e+001  1.244648e+002 
3887500000  -4.296846e+001  1.197470e+002 
3890625000  -4.383368e+001  1.156623e+002 
3893750000  -4.415056e+001  1.121626e+002 
3896875000  -4.425475e+001  1.082299e+002 
3900000000  -4.452264e+001  1.024051e+002 
3903125000  -4.362685e+001  9.565459e+001 
3906250000  -4.331683e+001  9.599403e+001 
3909375000  -4.303886e+001  8.615249e+001 
3912500000  -4.355450e+001  7.717170e+001 
3915625000  -4.476883e+001  7.790136e+001 
3918750000  -4.434401e+001  7.409531e+001 
3921875000  -4.359942e+001  7.059515e+001 
3925000000  -4.340781e+001  6.375624e+001 
3928125000  -4.289061e+001  5.490430e+001 
3931250000  -4.317688e+001  4.629919e+001 
3934375000  -4.407426e+001  4.340832e+001 
3937500000  -4.421845e+001  4.319992e+001 
3940625000  -4.427671e+001  4.133611e+001 
3943750000  -4.322369e+001  3.724997e+001 
3946875000  -4.312858e+001  2.539480e+001 
3950000000  -4.336809e+001  1.856691e+001 
3953125000  -4.458300e+001  2.021293e+001 
3956250000  -4.272996e+001  1.794973e+001 
3959375000  -4.165452e+001  1.027014e+001 
3962500000  -4.156990e+001  -5.443439e-001 
3965625000  -4.187621e+001  -1.101942e+001 
3968750000  -4.245667e+001  -1.989404e+001 
3971875000  -4.258449e+001  -2.391921e+001 
3975000000  -4.195167e+001  -2.835547e+001 
3978125000  -4.211718e+001  -3.537375e+001 
3981250000  -4.191746e+001  -4.436497e+001 
3984375000  -4.196212e+001  -5.022224e+001 
3987500000  -4.291375e+001  -5.535538e+001 
3990625000  -4.270716e+001  -5.874797e+001 
3993750000  -4.303448e+001  -6.577814e+001 
3996875000  -4.281984e+001  -7.115149e+001 
4000000000  -4.332163e+001  -7.522056e+001 
4003125000  -4.374267e+001  -7.586772e+001 
4006250000  -4.158497e+001  -8.293991e+001 
4009375000  -4.109621e+001  -9.701497e+001 
4012500000  -4.270926e+001  -1.080858e+002 
4015625000  -4.415282e+001  -1.081914e+002 
4018750000  -4.380151e+001  -1.123012e+002 
4021875000  -4.298746e+001  -1.185251e+002 
4025000000  -4.297150e+001  -1.248591e+002 
4028125000  -4.308771e+001  -1.337775e+002 
4031250000  -4.373133e+001  -1.394790e+002 
4034375000  -4.435602e+001  -1.421644e+002 
4037500000  -4.383494e+001  -1.455511e+002 
4040625000  -4.409313e+001  -1.506907e+002 
4043750000  -4.480436e+001  -1.540450e+002 
4046875000  -4.417887e+001  -1.568471e+002 
4050000000  -4.391442e+001  -1.686399e+002 
4053125000  -4.539172e+001  -1.696340e+002 
4056250000  -4.592803e+001  -1.669852e+002 
4059375000  -4.381142e+001  -1.676084e+002 
4062500000  -4.339544e+001  -1.763623e+002 
4065625000  -4.312713e+001  1.772246e+002 
4068750000  -4.263828e+001  1.680141e+002 
4071875000  -4.256297e+001  1.573365e+002 
4075000000  -4.345408e+001  1.503742e+002 
4078125000  -4.410963e+001  1.497040e+002 
4081250000  -4.350890e+001  1.425870e+002 
4084375000  -4.253180e+001  1.331074e+002 
4087500000  -4.382713e+001  1.247593e+002 
4090625000  -4.487165e+001  1.243873e+002 
4093750000  -4.437147e+001  1.210978e+002 
4096875000  -4.405505e+001  1.143631e+002 
4100000000  -4.505109e+001  1.056164e+002 
4103125000  -4.593476e+001  1.063291e+002 
4106250000  -4.500464e+001  1.117691e+002 
4109375000  -4.403343e+001  1.061134e+002 
4112500000  -4.408565e+001  9.627123e+001 
4115625000  -4.421083e+001  9.167776e+001 
4118750000  -4.390435e+001  8.547386e+001 
4121875000  -4.361609e+001  7.794239e+001 
4125000000  -4.484628e+001  7.215693e+001 
4128125000  -4.448608e+001  7.270317e+001 
4131250000  -4.348651e+001  8.104815e+001 
4134375000  -4.135709e+001  6.782351e+001 
4137500000  -4.233212e+001  4.470606e+001 
4140625000  -4.379198e+001  3.768100e+001 
4143750000  -4.448782e+001  4.333908e+001 
4146875000  -4.347520e+001  4.509316e+001 
4150000000  -4.225822e+001  3.811772e+001 
4153125000  -4.312885e+001  2.742123e+001 
4156250000  -4.400340e+001  2.305716e+001 
4159375000  -4.364550e+001  2.504530e+001 
4162500000  -4.228315e+001  2.393089e+001 
4165625000  -4.130714e+001  1.179236e+001 
4168750000  -4.089791e+001  1.205047e+000 
4171875000  -4.086969e+001  -9.832074e+000 
4175000000  -4.153666e+001  -1.829939e+001 
4178125000  -4.224037e+001  -1.996406e+001 
4181250000  -4.205074e+001  -2.718007e+001 
4184375000  -4.236555e+001  -3.567310e+001 
4187500000  -4.215019e+001  -3.891164e+001 
4190625000  -4.276764e+001  -4.923185e+001 
4193750000  -4.371759e+001  -5.344849e+001 
4196875000  -4.487859e+001  -5.853136e+001 
4200000000  -4.558907e+001  -4.932166e+001 
4203125000  -4.374669e+001  -4.006316e+001 
4206250000  -4.095517e+001  -5.085180e+001 
4209375000  -4.130499e+001  -7.945537e+001 
4212500000  -4.351276e+001  -8.277057e+001 
4215625000  -4.412317e+001  -7.586911e+001 
4218750000  -4.236163e+001  -7.835265e+001 
4221875000  -4.072187e+001  -8.712527e+001 
4225000000  -4.233272e+001  -1.007508e+002 
4228125000  -4.248866e+001  -9.739907e+001 
4231250000  -4.077859e+001  -1.069080e+002 
4234375000  -4.086289e+001  -1.174534e+002 
4237500000  -4.102514e+001  -1.231153e+002 
4240625000  -4.085279e+001  -1.338662e+002 
4243750000  -4.226000e+001  -1.461963e+002 
4246875000  -4.312400e+001  -1.419715e+002 
4250000000  -4.265199e+001  -1.431198e+002 
4253125000  -4.253571e+001  -1.471526e+002 
4256250000  -4.260945e+001  -1.507472e+002 
4259375000  -4.215262e+001  -1.574520e+002 
4262500000  -4.221917e+001  -1.646427e+002 
4265625000  -4.202510e+001  -1.647601e+002 
4268750000  -4.080817e+001  -1.715762e+002 
4271875000  -4.080011e+001  1.735700e+002 
4275000000  -4.037815e+001  1.670514e+002 
4278125000  -4.145332e+001  1.529300e+002 
4281250000  -4.235427e+001  1.542100e+002 
4284375000  -4.222130e+001  1.488654e+002 
4287500000  -4.367583e+001  1.477402e+002 
4290625000  -4.362764e+001  1.540860e+002 
4293750000  -4.139304e+001  1.519208e+002 
4296875000  -4.000232e+001  1.364116e+002 
4300000000  -4.157442e+001  1.281290e+002 
4303125000  -4.181017e+001  1.245880e+002 
4306250000  -4.054462e+001  1.254851e+002 
4309375000  -3.951470e+001  1.158654e+002 
4312500000  -3.959793e+001  1.030805e+002 
4315625000  -4.012647e+001  9.232133e+001 
4318750000  -4.078445e+001  8.970365e+001 
4321875000  -4.052296e+001  8.720154e+001 
4325000000  -3.994700e+001  8.444247e+001 
4328125000  -3.962696e+001  7.185188e+001 
4331250000  -3.958848e+001  6.160007e+001 
4334375000  -4.076617e+001  5.302638e+001 
4337500000  -4.211275e+001  4.892591e+001 
4340625000  -4.189973e+001  5.112840e+001 
4343750000  -4.090401e+001  4.666894e+001 
4346875000  -4.121962e+001  3.752118e+001 
4350000000  -4.117770e+001  2.590304e+001 
4353125000  -4.162795e+001  2.153253e+001 
4356250000  -4.349976e+001  2.120173e+001 
4359375000  -4.280164e+001  3.366788e+001 
4362500000  -3.949599e+001  2.749516e+001 
4365625000  -3.894085e+001  1.047138e+001 
4368750000  -4.006449e+001  -3.684611e+000 
4371875000  -4.134597e+001  -5.092669e+000 
4375000000  -4.022631e+001  -1.174934e+001 
4378125000  -4.034175e+001  -1.895232e+001 
4381250000  -4.046196e+001  -2.903127e+001 
4384375000  -4.033791e+001  -3.256395e+001 
4387500000  -4.123695e+001  -4.184524e+001 
4390625000  -4.214443e+001  -4.201944e+001 
4393750000  -4.152185e+001  -4.213543e+001 
4396875000  -4.132118e+001  -4.798628e+001 
4400000000  -4.060435e+001  -6.017268e+001 
4403125000  -4.141135e+001  -6.845039e+001 
4406250000  -4.179004e+001  -7.288771e+001 
4409375000  -4.241516e+001  -7.588701e+001 
4412500000  -4.333491e+001  -8.113013e+001 
4415625000  -4.317133e+001  -7.914216e+001 
4418750000  -4.189524e+001  -8.091598e+001 
