!Agilent Technologies,E8363B,MY43030201,A.06.04.32
!Agilent E8363B: A.06.04.32
!Date: Tuesday, November 11, 2014 21:53:14
!Correction: S21(Response(S21)) 
!S1P File: Measurement: S21:
# Hz S  dB   R 50
3000000000  -4.379869e+001  -1.630465e+002 
3003125000  -4.536468e+001  -1.692805e+002 
3006250000  -4.537206e+001  -1.709469e+002 
3009375000  -4.593879e+001  -1.672541e+002 
3012500000  -4.499565e+001  -1.728956e+002 
3015625000  -4.513602e+001  -1.796535e+002 
3018750000  -4.551108e+001  -1.790135e+002 
3021875000  -4.388816e+001  1.793806e+002 
3025000000  -4.287359e+001  1.741194e+002 
3028125000  -4.167484e+001  1.628164e+002 
3031250000  -4.083667e+001  1.497779e+002 
3034375000  -4.085447e+001  1.362505e+002 
3037500000  -4.158634e+001  1.245402e+002 
3040625000  -4.297243e+001  1.186499e+002 
3043750000  -4.323760e+001  1.115772e+002 
3046875000  -4.417813e+001  1.045331e+002 
3050000000  -4.550560e+001  9.836339e+001 
3053125000  -4.496526e+001  1.031972e+002 
3056250000  -4.459607e+001  1.061590e+002 
3059375000  -4.362999e+001  1.048841e+002 
3062500000  -4.253779e+001  9.859565e+001 
3065625000  -4.201769e+001  8.863321e+001 
3068750000  -4.190077e+001  7.933344e+001 
3071875000  -4.178543e+001  7.637293e+001 
3075000000  -4.120536e+001  6.834634e+001 
3078125000  -4.136299e+001  6.113598e+001 
3081250000  -4.120164e+001  5.497948e+001 
3084375000  -4.041583e+001  4.969111e+001 
3087500000  -4.038685e+001  4.233447e+001 
3090625000  -4.005505e+001  2.879059e+001 
3093750000  -4.104665e+001  1.949240e+001 
3096875000  -4.091544e+001  1.477404e+001 
3100000000  -4.127586e+001  9.516281e+000 
3103125000  -4.145704e+001  5.299232e+000 
3106250000  -4.113305e+001  -3.694496e-001 
3109375000  -4.096184e+001  -4.183067e+000 
3112500000  -4.091056e+001  -1.350223e+001 
3115625000  -4.093279e+001  -1.748939e+001 
3118750000  -4.089720e+001  -2.125450e+001 
3121875000  -4.026280e+001  -3.450599e+001 
3125000000  -4.215971e+001  -3.793100e+001 
3128125000  -4.206135e+001  -3.335309e+001 
3131250000  -3.966861e+001  -4.058266e+001 
3134375000  -3.883990e+001  -5.927252e+001 
3137500000  -3.941409e+001  -7.167841e+001 
3140625000  -4.096238e+001  -7.689560e+001 
3143750000  -4.166731e+001  -7.867284e+001 
3146875000  -4.099542e+001  -7.790824e+001 
3150000000  -4.034853e+001  -8.470253e+001 
3153125000  -4.075280e+001  -9.322636e+001 
3156250000  -4.141380e+001  -9.053076e+001 
3159375000  -3.912966e+001  -9.438205e+001 
3162500000  -3.770467e+001  -1.107571e+002 
3165625000  -3.893220e+001  -1.249603e+002 
3168750000  -3.897895e+001  -1.263428e+002 
3171875000  -3.847993e+001  -1.338046e+002 
3175000000  -3.911525e+001  -1.448910e+002 
3178125000  -3.871088e+001  -1.476334e+002 
3181250000  -3.801919e+001  -1.563200e+002 
3184375000  -3.790544e+001  -1.688925e+002 
3187500000  -3.906388e+001  1.758811e+002 
3190625000  -4.084698e+001  1.686055e+002 
3193750000  -4.108461e+001  1.719667e+002 
3196875000  -4.113761e+001  1.715324e+002 
3200000000  -3.971734e+001  1.672504e+002 
3203125000  -3.957666e+001  1.584276e+002 
3206250000  -3.989236e+001  1.493535e+002 
3209375000  -3.945507e+001  1.405233e+002 
3212500000  -3.983522e+001  1.344544e+002 
3215625000  -3.962516e+001  1.308041e+002 
3218750000  -4.025448e+001  1.177454e+002 
3221875000  -4.060203e+001  1.114663e+002 
3225000000  -4.029424e+001  1.067923e+002 
3228125000  -4.099925e+001  9.935656e+001 
3231250000  -4.153605e+001  9.589963e+001 
3234375000  -4.084672e+001  9.193381e+001 
3237500000  -4.078622e+001  8.832436e+001 
3240625000  -4.027319e+001  8.060075e+001 
3243750000  -4.043240e+001  6.912292e+001 
3246875000  -4.051812e+001  6.181395e+001 
3250000000  -4.101646e+001  5.711760e+001 
3253125000  -4.120708e+001  5.428072e+001 
3256250000  -4.033177e+001  4.225220e+001 
3259375000  -4.077565e+001  2.882561e+001 
3262500000  -4.231868e+001  2.419381e+001 
3265625000  -4.260702e+001  2.694481e+001 
3268750000  -4.231043e+001  2.616540e+001 
3271875000  -4.148510e+001  1.951126e+001 
3275000000  -4.117201e+001  8.150318e+000 
3278125000  -4.161272e+001  3.001054e+000 
3281250000  -4.177415e+001  -2.640815e+000 
3284375000  -4.092706e+001  -9.146671e+000 
3287500000  -4.158635e+001  -1.946888e+001 
3290625000  -4.146093e+001  -2.877049e+001 
3293750000  -4.129654e+001  -3.556588e+001 
3296875000  -4.250850e+001  -4.148526e+001 
3300000000  -4.183349e+001  -4.304100e+001 
3303125000  -4.104573e+001  -5.186285e+001 
3306250000  -4.102529e+001  -6.289673e+001 
3309375000  -4.071521e+001  -7.209423e+001 
3312500000  -4.106038e+001  -8.707208e+001 
3315625000  -4.241145e+001  -9.580645e+001 
3318750000  -4.388056e+001  -1.039067e+002 
3321875000  -4.506020e+001  -1.000041e+002 
3325000000  -4.472412e+001  -9.548966e+001 
3328125000  -4.374612e+001  -1.002651e+002 
3331250000  -4.208059e+001  -9.890955e+001 
3334375000  -4.007283e+001  -1.193296e+002 
3337500000  -4.080669e+001  -1.421960e+002 
3340625000  -4.269511e+001  -1.514848e+002 
3343750000  -4.462469e+001  -1.543428e+002 
3346875000  -4.382352e+001  -1.579053e+002 
3350000000  -4.368335e+001  -1.614387e+002 
3353125000  -4.347992e+001  -1.729176e+002 
3356250000  -4.326002e+001  1.770871e+002 
3359375000  -4.421057e+001  1.640850e+002 
3362500000  -4.491047e+001  1.550974e+002 
3365625000  -4.544905e+001  1.494602e+002 
3368750000  -4.642372e+001  1.429548e+002 
3371875000  -4.674908e+001  1.403647e+002 
3375000000  -4.805239e+001  1.307071e+002 
3378125000  -4.943543e+001  1.310282e+002 
3381250000  -5.078456e+001  1.416400e+002 
3384375000  -4.694510e+001  1.486516e+002 
3387500000  -4.421364e+001  1.276073e+002 
3390625000  -4.691873e+001  1.069722e+002 
3393750000  -4.739291e+001  1.034061e+002 
3396875000  -4.613063e+001  9.838211e+001 
3400000000  -4.601529e+001  8.351488e+001 
3403125000  -4.706950e+001  7.715850e+001 
3406250000  -4.778945e+001  6.905891e+001 
3409375000  -4.729850e+001  6.098443e+001 
3412500000  -4.788568e+001  5.206044e+001 
3415625000  -4.845195e+001  5.113530e+001 
3418750000  -4.851871e+001  4.198801e+001 
3421875000  -4.917469e+001  4.241682e+001 
3425000000  -4.761356e+001  3.347024e+001 
3428125000  -4.742113e+001  2.633233e+001 
3431250000  -4.652923e+001  1.126053e+001 
3434375000  -4.716069e+001  2.030105e+000 
3437500000  -4.754223e+001  -7.658072e+000 
3440625000  -4.800399e+001  -1.242585e+001 
3443750000  -4.622218e+001  -1.423192e+001 
3446875000  -4.566233e+001  -2.874052e+001 
3450000000  -4.515088e+001  -4.311976e+001 
3453125000  -4.555357e+001  -6.179728e+001 
3456250000  -4.710418e+001  -7.134833e+001 
3459375000  -4.806228e+001  -7.398528e+001 
3462500000  -4.835946e+001  -7.547228e+001 
3465625000  -4.726970e+001  -9.174303e+001 
3468750000  -4.759662e+001  -9.645631e+001 
3471875000  -4.722556e+001  -1.029421e+002 
3475000000  -4.730346e+001  -1.169811e+002 
3478125000  -4.743430e+001  -1.298803e+002 
3481250000  -4.897535e+001  -1.350965e+002 
3484375000  -4.865377e+001  -1.350457e+002 
3487500000  -4.753804e+001  -1.436472e+002 
3490625000  -4.753778e+001  -1.574874e+002 
3493750000  -4.803537e+001  -1.669204e+002 
3496875000  -4.790944e+001  -1.720856e+002 
3500000000  -4.885173e+001  -1.740573e+002 
3503125000  -4.761360e+001  -1.751903e+002 
3506250000  -4.533690e+001  1.714239e+002 
3509375000  -4.557838e+001  1.481287e+002 
3512500000  -4.601874e+001  1.346744e+002 
3515625000  -4.745192e+001  1.307933e+002 
3518750000  -4.778974e+001  1.276435e+002 
3521875000  -4.779007e+001  1.174936e+002 
3525000000  -4.854213e+001  1.144832e+002 
3528125000  -4.742134e+001  1.149151e+002 
3531250000  -4.700938e+001  1.019876e+002 
3534375000  -4.720843e+001  8.871368e+001 
3537500000  -4.783740e+001  7.779095e+001 
3540625000  -4.948400e+001  7.194677e+001 
3543750000  -4.949194e+001  7.745894e+001 
3546875000  -4.858343e+001  8.062732e+001 
3550000000  -4.657522e+001  7.349252e+001 
3553125000  -4.592908e+001  5.005393e+001 
3556250000  -4.749897e+001  4.655836e+001 
3559375000  -4.649986e+001  3.836888e+001 
3562500000  -4.635508e+001  3.088535e+001 
3565625000  -4.744272e+001  2.162420e+001 
3568750000  -4.783178e+001  2.358492e+001 
3571875000  -4.722041e+001  1.680368e+001 
3575000000  -4.701557e+001  1.090137e+001 
3578125000  -4.810210e+001  1.881207e+000 
3581250000  -4.766811e+001  4.653200e+000 
3584375000  -4.579785e+001  -5.664462e+000 
3587500000  -4.547515e+001  -1.854993e+001 
3590625000  -4.673452e+001  -2.435701e+001 
3593750000  -4.822607e+001  -3.096141e+001 
3596875000  -4.658199e+001  -2.128140e+001 
3600000000  -4.533956e+001  -3.478407e+001 
3603125000  -4.545895e+001  -4.858865e+001 
3606250000  -4.608488e+001  -5.502993e+001 
3609375000  -4.603266e+001  -6.291531e+001 
3612500000  -4.578410e+001  -6.965469e+001 
3615625000  -4.618494e+001  -7.029538e+001 
3618750000  -4.612722e+001  -7.566227e+001 
3621875000  -4.536314e+001  -7.975252e+001 
3625000000  -4.573291e+001  -8.268130e+001 
3628125000  -4.477145e+001  -9.150288e+001 
3631250000  -4.549162e+001  -1.002029e+002 
3634375000  -4.558529e+001  -1.015460e+002 
3637500000  -4.462528e+001  -1.032846e+002 
3640625000  -4.394209e+001  -1.100579e+002 
3643750000  -4.323530e+001  -1.212442e+002 
3646875000  -4.372888e+001  -1.323124e+002 
3650000000  -4.366147e+001  -1.376906e+002 
3653125000  -4.334164e+001  -1.458092e+002 
3656250000  -4.458066e+001  -1.497349e+002 
3659375000  -4.373360e+001  -1.538577e+002 
3662500000  -4.317506e+001  -1.628337e+002 
3665625000  -4.352829e+001  -1.673869e+002 
3668750000  -4.233582e+001  -1.693869e+002 
3671875000  -4.141941e+001  1.737867e+002 
3675000000  -4.234184e+001  1.651008e+002 
3678125000  -4.285997e+001  1.599803e+002 
3681250000  -4.241564e+001  1.549758e+002 
3684375000  -4.286855e+001  1.457807e+002 
3687500000  -4.315238e+001  1.376373e+002 
3690625000  -4.342239e+001  1.313591e+002 
3693750000  -4.448450e+001  1.298121e+002 
3696875000  -4.366806e+001  1.275074e+002 
3700000000  -4.324134e+001  1.196609e+002 
3703125000  -4.360893e+001  1.129786e+002 
3706250000  -4.473396e+001  1.091158e+002 
3709375000  -4.371664e+001  1.064214e+002 
3712500000  -4.292052e+001  1.024539e+002 
3715625000  -4.162202e+001  9.292207e+001 
3718750000  -4.157063e+001  8.450819e+001 
3721875000  -4.191977e+001  7.378456e+001 
3725000000  -4.233597e+001  6.664384e+001 
3728125000  -4.246216e+001  6.274428e+001 
3731250000  -4.174659e+001  5.564248e+001 
3734375000  -4.203714e+001  4.985841e+001 
3737500000  -4.260823e+001  3.915792e+001 
3740625000  -4.321368e+001  3.401542e+001 
3743750000  -4.266125e+001  2.752354e+001 
3746875000  -4.314772e+001  2.259362e+001 
3750000000  -4.332002e+001  1.940647e+001 
3753125000  -4.376421e+001  1.444246e+001 
3756250000  -4.356784e+001  1.013512e+001 
3759375000  -4.344222e+001  7.225609e+000 
3762500000  -4.330629e+001  1.555984e+000 
3765625000  -4.391221e+001  -4.474605e+000 
3768750000  -4.360024e+001  -4.022567e+000 
3771875000  -4.256791e+001  -1.185926e+001 
3775000000  -4.185282e+001  -2.046900e+001 
3778125000  -4.255189e+001  -2.860763e+001 
3781250000  -4.240259e+001  -3.289713e+001 
3784375000  -4.224428e+001  -4.021045e+001 
3787500000  -4.250596e+001  -4.507328e+001 
3790625000  -4.314846e+001  -5.478939e+001 
3793750000  -4.258085e+001  -5.918608e+001 
3796875000  -4.191199e+001  -6.400047e+001 
3800000000  -4.052573e+001  -6.989174e+001 
3803125000  -4.166115e+001  -8.179250e+001 
3806250000  -4.253323e+001  -8.757126e+001 
3809375000  -4.221501e+001  -9.225471e+001 
3812500000  -4.163318e+001  -1.018667e+002 
3815625000  -4.265991e+001  -1.134770e+002 
3818750000  -4.423190e+001  -1.103218e+002 
3821875000  -4.353087e+001  -1.002368e+002 
3825000000  -4.146104e+001  -1.057460e+002 
3828125000  -4.029857e+001  -1.277910e+002 
3831250000  -4.137219e+001  -1.442313e+002 
3834375000  -4.375219e+001  -1.450704e+002 
3837500000  -4.386606e+001  -1.392754e+002 
3840625000  -4.261784e+001  -1.492912e+002 
3843750000  -4.158660e+001  -1.630077e+002 
3846875000  -4.335655e+001  -1.694005e+002 
3850000000  -4.385774e+001  -1.644619e+002 
3853125000  -4.334133e+001  -1.638169e+002 
3856250000  -4.282772e+001  -1.730181e+002 
3859375000  -4.224227e+001  1.775014e+002 
3862500000  -4.191213e+001  1.670022e+002 
3865625000  -4.300410e+001  1.605020e+002 
3868750000  -4.212585e+001  1.605350e+002 
3871875000  -4.147543e+001  1.494126e+002 
3875000000  -4.219371e+001  1.411827e+002 
3878125000  -4.330842e+001  1.364456e+002 
3881250000  -4.328901e+001  1.354721e+002 
3884375000  -4.263230e+001  1.248629e+002 
3887500000  -4.316327e+001  1.189033e+002 
3890625000  -4.364289e+001  1.145519e+002 
3893750000  -4.418592e+001  1.132867e+002 
3896875000  -4.431368e+001  1.086798e+002 
3900000000  -4.421717e+001  1.035383e+002 
3903125000  -4.386402e+001  9.616559e+001 
3906250000  -4.365281e+001  9.647640e+001 
3909375000  -4.256266e+001  8.538066e+001 
3912500000  -4.390660e+001  7.756934e+001 
3915625000  -4.500413e+001  7.686176e+001 
3918750000  -4.480686e+001  7.534227e+001 
3921875000  -4.380824e+001  7.174316e+001 
3925000000  -4.306121e+001  6.390442e+001 
3928125000  -4.282865e+001  5.441343e+001 
3931250000  -4.354521e+001  4.820712e+001 
3934375000  -4.385429e+001  4.275837e+001 
3937500000  -4.471170e+001  4.036405e+001 
3940625000  -4.466972e+001  4.189365e+001 
3943750000  -4.332815e+001  3.494228e+001 
3946875000  -4.279111e+001  2.759786e+001 
3950000000  -4.325250e+001  1.574121e+001 
3953125000  -4.451727e+001  1.815713e+001 
3956250000  -4.273514e+001  1.771294e+001 
3959375000  -4.152850e+001  9.895756e+000 
3962500000  -4.109053e+001  -6.936172e-001 
3965625000  -4.186945e+001  -1.165843e+001 
3968750000  -4.228642e+001  -1.964067e+001 
3971875000  -4.247477e+001  -2.463866e+001 
3975000000  -4.193422e+001  -2.791881e+001 
3978125000  -4.208887e+001  -3.558484e+001 
3981250000  -4.182727e+001  -4.278939e+001 
3984375000  -4.215609e+001  -5.292017e+001 
3987500000  -4.288897e+001  -5.467840e+001 
3990625000  -4.278789e+001  -5.868979e+001 
3993750000  -4.285400e+001  -6.644842e+001 
3996875000  -4.290700e+001  -7.287691e+001 
4000000000  -4.361195e+001  -7.469599e+001 
4003125000  -4.363498e+001  -7.383539e+001 
4006250000  -4.188395e+001  -8.296606e+001 
4009375000  -4.124345e+001  -9.731791e+001 
4012500000  -4.285744e+001  -1.073454e+002 
4015625000  -4.417414e+001  -1.028464e+002 
4018750000  -4.379796e+001  -1.102335e+002 
4021875000  -4.307138e+001  -1.186087e+002 
4025000000  -4.315307e+001  -1.256074e+002 
4028125000  -4.332517e+001  -1.327319e+002 
4031250000  -4.400735e+001  -1.405556e+002 
4034375000  -4.412081e+001  -1.375531e+002 
4037500000  -4.402781e+001  -1.458702e+002 
4040625000  -4.363832e+001  -1.498754e+002 
4043750000  -4.449352e+001  -1.540456e+002 
4046875000  -4.429812e+001  -1.597887e+002 
4050000000  -4.420866e+001  -1.656529e+002 
4053125000  -4.551904e+001  -1.708516e+002 
4056250000  -4.546425e+001  -1.640709e+002 
4059375000  -4.350885e+001  -1.670223e+002 
4062500000  -4.362796e+001  -1.766896e+002 
4065625000  -4.366272e+001  1.764472e+002 
4068750000  -4.263700e+001  1.677075e+002 
4071875000  -4.251217e+001  1.565648e+002 
4075000000  -4.315098e+001  1.513508e+002 
4078125000  -4.368224e+001  1.484223e+002 
4081250000  -4.341437e+001  1.432686e+002 
4084375000  -4.326624e+001  1.356481e+002 
4087500000  -4.386183e+001  1.277931e+002 
4090625000  -4.430828e+001  1.205411e+002 
4093750000  -4.440545e+001  1.210133e+002 
4096875000  -4.407136e+001  1.148143e+002 
4100000000  -4.488989e+001  1.058314e+002 
4103125000  -4.584387e+001  1.094255e+002 
4106250000  -4.503260e+001  1.104556e+002 
4109375000  -4.381374e+001  1.063216e+002 
4112500000  -4.379133e+001  9.664536e+001 
4115625000  -4.412947e+001  9.457069e+001 
4118750000  -4.410804e+001  8.830701e+001 
4121875000  -4.395060e+001  8.048647e+001 
4125000000  -4.447269e+001  7.186705e+001 
4128125000  -4.477686e+001  7.493292e+001 
4131250000  -4.370358e+001  7.854196e+001 
4134375000  -4.122396e+001  6.607377e+001 
4137500000  -4.176592e+001  4.518562e+001 
4140625000  -4.373325e+001  3.778488e+001 
4143750000  -4.448631e+001  4.054192e+001 
4146875000  -4.407442e+001  4.762546e+001 
4150000000  -4.267548e+001  3.484066e+001 
4153125000  -4.336571e+001  2.467907e+001 
4156250000  -4.386519e+001  2.468961e+001 
4159375000  -4.381023e+001  2.530631e+001 
4162500000  -4.269826e+001  2.317838e+001 
4165625000  -4.146996e+001  1.400099e+001 
4168750000  -4.105429e+001  3.955116e+000 
4171875000  -4.082631e+001  -8.699207e+000 
4175000000  -4.167888e+001  -1.663645e+001 
4178125000  -4.220664e+001  -2.132219e+001 
4181250000  -4.188618e+001  -2.734597e+001 
4184375000  -4.246028e+001  -3.500770e+001 
4187500000  -4.231749e+001  -4.204101e+001 
4190625000  -4.266790e+001  -4.948511e+001 
4193750000  -4.391833e+001  -5.526865e+001 
4196875000  -4.467309e+001  -5.785223e+001 
4200000000  -4.578915e+001  -4.965386e+001 
4203125000  -4.432738e+001  -4.155183e+001 
4206250000  -4.076631e+001  -5.067710e+001 
4209375000  -4.145622e+001  -7.522531e+001 
4212500000  -4.398077e+001  -8.436468e+001 
4215625000  -4.369469e+001  -7.416840e+001 
4218750000  -4.219918e+001  -7.587206e+001 
4221875000  -4.053176e+001  -8.748101e+001 
4225000000  -4.233571e+001  -9.601949e+001 
4228125000  -4.201561e+001  -1.000082e+002 
4231250000  -4.077828e+001  -1.052493e+002 
4234375000  -4.086135e+001  -1.165129e+002 
4237500000  -4.069844e+001  -1.233796e+002 
4240625000  -4.103531e+001  -1.361288e+002 
4243750000  -4.186535e+001  -1.448586e+002 
4246875000  -4.294047e+001  -1.424262e+002 
4250000000  -4.277669e+001  -1.435771e+002 
4253125000  -4.267132e+001  -1.439630e+002 
4256250000  -4.232848e+001  -1.514749e+002 
4259375000  -4.200617e+001  -1.587242e+002 
4262500000  -4.213412e+001  -1.625670e+002 
4265625000  -4.197545e+001  -1.653528e+002 
4268750000  -4.081391e+001  -1.724368e+002 
4271875000  -4.050006e+001  1.784593e+002 
4275000000  -4.014037e+001  1.675247e+002 
4278125000  -4.157110e+001  1.557723e+002 
4281250000  -4.246684e+001  1.536015e+002 
4284375000  -4.211296e+001  1.496785e+002 
4287500000  -4.376413e+001  1.436479e+002 
4290625000  -4.382469e+001  1.523811e+002 
4293750000  -4.159591e+001  1.532227e+002 
4296875000  -4.029678e+001  1.358986e+002 
4300000000  -4.121672e+001  1.231550e+002 
4303125000  -4.203130e+001  1.264789e+002 
4306250000  -4.060885e+001  1.254758e+002 
4309375000  -3.964115e+001  1.177448e+002 
4312500000  -3.960202e+001  1.033657e+002 
4315625000  -4.001917e+001  9.605324e+001 
4318750000  -4.061203e+001  9.054700e+001 
4321875000  -4.060916e+001  8.855539e+001 
4325000000  -3.987697e+001  8.115907e+001 
4328125000  -3.940016e+001  7.154563e+001 
4331250000  -3.964940e+001  6.036880e+001 
4334375000  -4.084000e+001  5.209438e+001 
4337500000  -4.175005e+001  5.100418e+001 
4340625000  -4.190573e+001  5.234047e+001 
4343750000  -4.097295e+001  4.988605e+001 
4346875000  -4.100919e+001  3.531818e+001 
4350000000  -4.092902e+001  2.598730e+001 
4353125000  -4.204285e+001  2.136005e+001 
4356250000  -4.353031e+001  2.301266e+001 
4359375000  -4.262965e+001  3.805338e+001 
4362500000  -3.937484e+001  2.682672e+001 
4365625000  -3.911908e+001  7.352547e+000 
4368750000  -3.989440e+001  -3.628157e+000 
4371875000  -4.076350e+001  -4.494341e+000 
4375000000  -4.071802e+001  -1.050279e+001 
4378125000  -4.030230e+001  -1.777458e+001 
4381250000  -4.055130e+001  -2.660245e+001 
4384375000  -4.064378e+001  -3.448295e+001 
4387500000  -4.123878e+001  -3.930825e+001 
4390625000  -4.182901e+001  -4.355436e+001 
4393750000  -4.191501e+001  -4.334718e+001 
4396875000  -4.095282e+001  -5.047418e+001 
4400000000  -4.037904e+001  -5.607257e+001 
4403125000  -4.167410e+001  -6.682466e+001 
4406250000  -4.210727e+001  -7.458597e+001 
4409375000  -4.249868e+001  -7.786518e+001 
4412500000  -4.376227e+001  -7.950088e+001 
4415625000  -4.290442e+001  -7.555431e+001 
4418750000  -4.167070e+001  -7.717188e+001 
