!Agilent Technologies,E8363B,MY43030201,A.06.04.32
!Agilent E8363B: A.06.04.32
!Date: Tuesday, November 11, 2014 21:49:59
!Correction: S21(Response(S21)) 
!S1P File: Measurement: S21:
# Hz S  dB   R 50
3000000000  -4.371049e+001  -1.619649e+002 
3003125000  -4.519994e+001  -1.669204e+002 
3006250000  -4.523055e+001  -1.687974e+002 
3009375000  -4.630178e+001  -1.635496e+002 
3012500000  -4.493812e+001  -1.734622e+002 
3015625000  -4.491805e+001  -1.786666e+002 
3018750000  -4.517025e+001  -1.794643e+002 
3021875000  -4.398235e+001  -1.799243e+002 
3025000000  -4.266756e+001  1.763454e+002 
3028125000  -4.208021e+001  1.639605e+002 
3031250000  -4.087321e+001  1.525788e+002 
3034375000  -4.082285e+001  1.368881e+002 
3037500000  -4.169246e+001  1.263332e+002 
3040625000  -4.274745e+001  1.211005e+002 
3043750000  -4.341411e+001  1.132945e+002 
3046875000  -4.426295e+001  1.058594e+002 
3050000000  -4.517707e+001  1.018938e+002 
3053125000  -4.461549e+001  1.054105e+002 
3056250000  -4.512850e+001  1.075199e+002 
3059375000  -4.418006e+001  1.063451e+002 
3062500000  -4.235667e+001  9.709456e+001 
3065625000  -4.222016e+001  8.783250e+001 
3068750000  -4.178496e+001  7.847031e+001 
3071875000  -4.169640e+001  7.851733e+001 
3075000000  -4.121830e+001  7.030346e+001 
3078125000  -4.118541e+001  6.331480e+001 
3081250000  -4.144205e+001  5.625306e+001 
3084375000  -4.048626e+001  5.118252e+001 
3087500000  -4.053681e+001  4.325179e+001 
3090625000  -4.004296e+001  3.007805e+001 
3093750000  -4.096827e+001  2.112237e+001 
3096875000  -4.109568e+001  1.465082e+001 
3100000000  -4.122415e+001  1.143944e+001 
3103125000  -4.131172e+001  6.551692e+000 
3106250000  -4.102628e+001  5.426518e-001 
3109375000  -4.104243e+001  -5.403743e+000 
3112500000  -4.090850e+001  -1.119076e+001 
3115625000  -4.072145e+001  -1.693037e+001 
3118750000  -4.083060e+001  -2.209760e+001 
3121875000  -4.018082e+001  -3.378358e+001 
3125000000  -4.211498e+001  -3.703697e+001 
3128125000  -4.215191e+001  -3.177149e+001 
3131250000  -3.947044e+001  -4.093520e+001 
3134375000  -3.878616e+001  -5.757086e+001 
3137500000  -3.967553e+001  -7.001305e+001 
3140625000  -4.095573e+001  -7.553078e+001 
3143750000  -4.161020e+001  -7.911723e+001 
3146875000  -4.115487e+001  -7.725785e+001 
3150000000  -4.031017e+001  -8.314290e+001 
3153125000  -4.085279e+001  -9.181113e+001 
3156250000  -4.144460e+001  -8.933737e+001 
3159375000  -3.921819e+001  -9.325213e+001 
3162500000  -3.778351e+001  -1.093932e+002 
3165625000  -3.888703e+001  -1.231670e+002 
3168750000  -3.895464e+001  -1.245847e+002 
3171875000  -3.862576e+001  -1.332414e+002 
3175000000  -3.917805e+001  -1.436857e+002 
3178125000  -3.871721e+001  -1.458815e+002 
3181250000  -3.806659e+001  -1.554206e+002 
3184375000  -3.781579e+001  -1.663166e+002 
3187500000  -3.918353e+001  1.781801e+002 
3190625000  -4.074630e+001  1.718772e+002 
3193750000  -4.119828e+001  1.743411e+002 
3196875000  -4.118211e+001  1.742189e+002 
3200000000  -3.962487e+001  1.691362e+002 
3203125000  -3.953252e+001  1.590200e+002 
3206250000  -3.979696e+001  1.513701e+002 
3209375000  -3.953642e+001  1.413783e+002 
3212500000  -3.985356e+001  1.351059e+002 
3215625000  -3.967030e+001  1.324290e+002 
3218750000  -4.022594e+001  1.203052e+002 
3221875000  -4.056249e+001  1.129962e+002 
3225000000  -4.036551e+001  1.071661e+002 
3228125000  -4.111216e+001  9.969228e+001 
3231250000  -4.139656e+001  9.664497e+001 
3234375000  -4.107505e+001  9.384863e+001 
3237500000  -4.090759e+001  8.949415e+001 
3240625000  -4.023444e+001  8.202173e+001 
3243750000  -4.020243e+001  7.015234e+001 
3246875000  -4.055715e+001  6.278247e+001 
3250000000  -4.108331e+001  5.777991e+001 
3253125000  -4.119481e+001  5.389499e+001 
3256250000  -4.048165e+001  4.402980e+001 
3259375000  -4.094605e+001  3.050075e+001 
3262500000  -4.231798e+001  2.433127e+001 
3265625000  -4.254422e+001  2.665991e+001 
3268750000  -4.245463e+001  2.602451e+001 
3271875000  -4.132899e+001  2.060856e+001 
3275000000  -4.116415e+001  1.047059e+001 
3278125000  -4.157994e+001  3.806456e+000 
3281250000  -4.176048e+001  -1.454729e+000 
3284375000  -4.104741e+001  -9.749046e+000 
3287500000  -4.145745e+001  -1.561760e+001 
3290625000  -4.147301e+001  -2.674494e+001 
3293750000  -4.155624e+001  -3.543965e+001 
3296875000  -4.262463e+001  -3.863007e+001 
3300000000  -4.198523e+001  -4.203902e+001 
3303125000  -4.118218e+001  -5.026320e+001 
3306250000  -4.065572e+001  -6.021508e+001 
3309375000  -4.072645e+001  -7.175336e+001 
3312500000  -4.110311e+001  -8.682870e+001 
3315625000  -4.236174e+001  -9.544684e+001 
3318750000  -4.401762e+001  -1.015189e+002 
3321875000  -4.529171e+001  -1.006906e+002 
3325000000  -4.497920e+001  -9.588678e+001 
3328125000  -4.391807e+001  -9.829716e+001 
3331250000  -4.238653e+001  -9.948149e+001 
3334375000  -3.990516e+001  -1.164772e+002 
3337500000  -4.079935e+001  -1.414007e+002 
3340625000  -4.286442e+001  -1.530221e+002 
3343750000  -4.429744e+001  -1.526730e+002 
3346875000  -4.395365e+001  -1.566024e+002 
3350000000  -4.351097e+001  -1.616830e+002 
3353125000  -4.379221e+001  -1.712652e+002 
3356250000  -4.323399e+001  1.787268e+002 
3359375000  -4.431979e+001  1.639684e+002 
3362500000  -4.502400e+001  1.581626e+002 
3365625000  -4.562323e+001  1.525312e+002 
3368750000  -4.650839e+001  1.439105e+002 
3371875000  -4.715838e+001  1.377667e+002 
3375000000  -4.814695e+001  1.313969e+002 
3378125000  -4.943094e+001  1.346089e+002 
3381250000  -5.084367e+001  1.416647e+002 
3384375000  -4.728118e+001  1.513535e+002 
3387500000  -4.466053e+001  1.286825e+002 
3390625000  -4.684206e+001  1.037775e+002 
3393750000  -4.753360e+001  1.059456e+002 
3396875000  -4.650725e+001  1.002271e+002 
3400000000  -4.576672e+001  8.540097e+001 
3403125000  -4.682680e+001  7.926043e+001 
3406250000  -4.730063e+001  7.263031e+001 
3409375000  -4.713965e+001  6.084202e+001 
3412500000  -4.773615e+001  4.936185e+001 
3415625000  -4.834640e+001  4.804500e+001 
3418750000  -4.878325e+001  4.330008e+001 
3421875000  -4.929611e+001  4.282378e+001 
3425000000  -4.784786e+001  3.487620e+001 
3428125000  -4.679196e+001  2.606084e+001 
3431250000  -4.687802e+001  1.455341e+001 
3434375000  -4.667411e+001  3.704155e+000 
3437500000  -4.749909e+001  -6.022882e+000 
3440625000  -4.780955e+001  -8.762895e+000 
3443750000  -4.641399e+001  -1.417697e+001 
3446875000  -4.570681e+001  -3.070292e+001 
3450000000  -4.513329e+001  -4.370251e+001 
3453125000  -4.535946e+001  -6.012821e+001 
3456250000  -4.739303e+001  -7.097514e+001 
3459375000  -4.800513e+001  -7.223590e+001 
3462500000  -4.800216e+001  -7.814292e+001 
3465625000  -4.715771e+001  -9.054739e+001 
3468750000  -4.772864e+001  -9.700134e+001 
3471875000  -4.711462e+001  -1.057035e+002 
3475000000  -4.740205e+001  -1.171148e+002 
3478125000  -4.737752e+001  -1.292164e+002 
3481250000  -4.884588e+001  -1.342178e+002 
3484375000  -4.841172e+001  -1.323874e+002 
3487500000  -4.798230e+001  -1.452007e+002 
3490625000  -4.780321e+001  -1.533320e+002 
3493750000  -4.776252e+001  -1.651069e+002 
3496875000  -4.779099e+001  -1.680440e+002 
3500000000  -4.838529e+001  -1.717374e+002 
3503125000  -4.724019e+001  -1.752415e+002 
3506250000  -4.571416e+001  1.729997e+002 
3509375000  -4.552404e+001  1.485275e+002 
3512500000  -4.590005e+001  1.357222e+002 
3515625000  -4.732499e+001  1.301003e+002 
3518750000  -4.796119e+001  1.321774e+002 
3521875000  -4.789469e+001  1.181503e+002 
3525000000  -4.890162e+001  1.134291e+002 
3528125000  -4.774789e+001  1.156408e+002 
3531250000  -4.670072e+001  1.056900e+002 
3534375000  -4.698701e+001  8.815475e+001 
3537500000  -4.769333e+001  7.679456e+001 
3540625000  -4.955012e+001  7.693725e+001 
3543750000  -4.984183e+001  7.855961e+001 
3546875000  -4.853280e+001  8.288493e+001 
3550000000  -4.644497e+001  6.883070e+001 
3553125000  -4.566911e+001  5.346215e+001 
3556250000  -4.725716e+001  4.266718e+001 
3559375000  -4.680340e+001  4.194678e+001 
3562500000  -4.657553e+001  3.351966e+001 
3565625000  -4.703182e+001  2.574234e+001 
3568750000  -4.823003e+001  2.123115e+001 
3571875000  -4.761683e+001  1.708028e+001 
3575000000  -4.696446e+001  1.149724e+001 
3578125000  -4.758323e+001  6.972677e+000 
3581250000  -4.751180e+001  2.764647e+000 
3584375000  -4.608751e+001  -4.269931e+000 
3587500000  -4.594173e+001  -1.598875e+001 
3590625000  -4.660252e+001  -2.606907e+001 
3593750000  -4.772181e+001  -2.972405e+001 
3596875000  -4.665243e+001  -2.357516e+001 
3600000000  -4.491580e+001  -3.155523e+001 
3603125000  -4.501104e+001  -4.730198e+001 
3606250000  -4.599105e+001  -5.334025e+001 
3609375000  -4.605928e+001  -5.681794e+001 
3612500000  -4.597709e+001  -6.338569e+001 
3615625000  -4.608862e+001  -6.948708e+001 
3618750000  -4.613633e+001  -7.122392e+001 
3621875000  -4.540419e+001  -7.971719e+001 
3625000000  -4.543617e+001  -8.238383e+001 
3628125000  -4.500139e+001  -8.910678e+001 
3631250000  -4.542799e+001  -9.983853e+001 
3634375000  -4.581425e+001  -9.998479e+001 
3637500000  -4.438171e+001  -1.002292e+002 
3640625000  -4.370616e+001  -1.068540e+002 
3643750000  -4.302104e+001  -1.179887e+002 
3646875000  -4.388759e+001  -1.308426e+002 
3650000000  -4.387472e+001  -1.354881e+002 
3653125000  -4.335821e+001  -1.440856e+002 
3656250000  -4.406108e+001  -1.489705e+002 
3659375000  -4.389283e+001  -1.538775e+002 
3662500000  -4.310531e+001  -1.609996e+002 
3665625000  -4.331711e+001  -1.641920e+002 
3668750000  -4.177760e+001  -1.684966e+002 
3671875000  -4.136084e+001  1.776044e+002 
3675000000  -4.212818e+001  1.667895e+002 
3678125000  -4.248940e+001  1.618509e+002 
3681250000  -4.253592e+001  1.556433e+002 
3684375000  -4.240088e+001  1.473782e+002 
3687500000  -4.275996e+001  1.379629e+002 
3690625000  -4.358609e+001  1.335376e+002 
3693750000  -4.445151e+001  1.286815e+002 
3696875000  -4.362354e+001  1.283797e+002 
3700000000  -4.304453e+001  1.208690e+002 
3703125000  -4.390568e+001  1.136229e+002 
3706250000  -4.452335e+001  1.087715e+002 
3709375000  -4.419210e+001  1.102680e+002 
3712500000  -4.279151e+001  1.032487e+002 
3715625000  -4.156771e+001  9.539885e+001 
3718750000  -4.165785e+001  8.386839e+001 
3721875000  -4.193623e+001  7.564020e+001 
3725000000  -4.265390e+001  6.728981e+001 
3728125000  -4.234028e+001  6.462897e+001 
3731250000  -4.195063e+001  5.765910e+001 
3734375000  -4.209807e+001  5.191250e+001 
3737500000  -4.281077e+001  4.244209e+001 
3740625000  -4.282906e+001  3.593600e+001 
3743750000  -4.285740e+001  2.827677e+001 
3746875000  -4.323783e+001  2.597996e+001 
3750000000  -4.358900e+001  2.008471e+001 
3753125000  -4.351268e+001  1.829987e+001 
3756250000  -4.359238e+001  1.343139e+001 
3759375000  -4.368304e+001  8.643079e+000 
3762500000  -4.313737e+001  2.980543e+000 
3765625000  -4.393716e+001  -2.318316e+000 
3768750000  -4.358181e+001  -8.757652e-001 
3771875000  -4.213261e+001  -9.657608e+000 
3775000000  -4.208236e+001  -1.908984e+001 
3778125000  -4.255713e+001  -2.722614e+001 
3781250000  -4.251993e+001  -3.094352e+001 
3784375000  -4.242073e+001  -3.541965e+001 
3787500000  -4.240623e+001  -4.061862e+001 
3790625000  -4.284592e+001  -5.376273e+001 
3793750000  -4.253566e+001  -5.619596e+001 
3796875000  -4.159146e+001  -6.199378e+001 
3800000000  -4.084354e+001  -6.787484e+001 
3803125000  -4.171405e+001  -8.063473e+001 
3806250000  -4.235157e+001  -8.390742e+001 
3809375000  -4.183141e+001  -8.790272e+001 
3812500000  -4.158484e+001  -1.014045e+002 
3815625000  -4.303041e+001  -1.102202e+002 
3818750000  -4.438515e+001  -1.097183e+002 
3821875000  -4.366705e+001  -1.019994e+002 
3825000000  -4.138996e+001  -1.054316e+002 
3828125000  -4.034077e+001  -1.251403e+002 
3831250000  -4.150451e+001  -1.411568e+002 
3834375000  -4.376236e+001  -1.421136e+002 
3837500000  -4.414165e+001  -1.398622e+002 
3840625000  -4.243131e+001  -1.455293e+002 
3843750000  -4.164731e+001  -1.606316e+002 
3846875000  -4.311995e+001  -1.667244e+002 
3850000000  -4.419659e+001  -1.594861e+002 
3853125000  -4.386475e+001  -1.630440e+002 
3856250000  -4.291154e+001  -1.722476e+002 
3859375000  -4.219682e+001  1.780592e+002 
3862500000  -4.194033e+001  1.677143e+002 
3865625000  -4.273314e+001  1.621931e+002 
3868750000  -4.230957e+001  1.596672e+002 
3871875000  -4.173516e+001  1.510975e+002 
3875000000  -4.221513e+001  1.411125e+002 
3878125000  -4.340436e+001  1.401428e+002 
3881250000  -4.313434e+001  1.355907e+002 
3884375000  -4.234166e+001  1.276685e+002 
3887500000  -4.318056e+001  1.213467e+002 
3890625000  -4.384285e+001  1.147186e+002 
3893750000  -4.396731e+001  1.131650e+002 
3896875000  -4.416123e+001  1.110289e+002 
3900000000  -4.438160e+001  1.053784e+002 
3903125000  -4.350517e+001  1.012990e+002 
3906250000  -4.321898e+001  9.543919e+001 
3909375000  -4.272271e+001  8.910075e+001 
3912500000  -4.374419e+001  7.548930e+001 
3915625000  -4.470064e+001  7.519009e+001 
3918750000  -4.426370e+001  7.663538e+001 
3921875000  -4.373909e+001  7.118314e+001 
3925000000  -4.277538e+001  6.498019e+001 
3928125000  -4.296580e+001  5.389677e+001 
3931250000  -4.354573e+001  4.881704e+001 
3934375000  -4.364539e+001  4.611102e+001 
3937500000  -4.453535e+001  4.335248e+001 
3940625000  -4.462899e+001  4.122810e+001 
3943750000  -4.309414e+001  3.567641e+001 
3946875000  -4.256003e+001  3.026029e+001 
3950000000  -4.391047e+001  2.033430e+001 
3953125000  -4.447425e+001  2.027309e+001 
3956250000  -4.278973e+001  1.930805e+001 
3959375000  -4.192349e+001  1.124062e+001 
3962500000  -4.139767e+001  2.452132e+000 
3965625000  -4.154870e+001  -1.141626e+001 
3968750000  -4.237072e+001  -1.793855e+001 
3971875000  -4.231152e+001  -2.184174e+001 
3975000000  -4.184163e+001  -2.588419e+001 
3978125000  -4.178820e+001  -3.284552e+001 
3981250000  -4.179844e+001  -4.048072e+001 
3984375000  -4.228164e+001  -4.824410e+001 
3987500000  -4.293958e+001  -5.248642e+001 
3990625000  -4.286138e+001  -5.899517e+001 
3993750000  -4.308339e+001  -6.608799e+001 
3996875000  -4.263182e+001  -7.117753e+001 
4000000000  -4.346154e+001  -7.522044e+001 
4003125000  -4.377825e+001  -7.419682e+001 
4006250000  -4.203745e+001  -7.719418e+001 
4009375000  -4.126339e+001  -9.682359e+001 
4012500000  -4.270079e+001  -1.022090e+002 
4015625000  -4.413100e+001  -1.065588e+002 
4018750000  -4.429909e+001  -1.065875e+002 
4021875000  -4.280721e+001  -1.138548e+002 
4025000000  -4.285440e+001  -1.215311e+002 
4028125000  -4.331982e+001  -1.300008e+002 
4031250000  -4.382612e+001  -1.348588e+002 
4034375000  -4.415852e+001  -1.387571e+002 
4037500000  -4.381775e+001  -1.427595e+002 
4040625000  -4.422728e+001  -1.486974e+002 
4043750000  -4.400108e+001  -1.526476e+002 
4046875000  -4.404125e+001  -1.583600e+002 
4050000000  -4.452067e+001  -1.627951e+002 
4053125000  -4.489364e+001  -1.686653e+002 
4056250000  -4.591145e+001  -1.668282e+002 
4059375000  -4.414498e+001  -1.631172e+002 
4062500000  -4.331699e+001  -1.742986e+002 
4065625000  -4.379554e+001  1.778559e+002 
4068750000  -4.313776e+001  1.712461e+002 
4071875000  -4.228894e+001  1.612672e+002 
4075000000  -4.352024e+001  1.517192e+002 
4078125000  -4.397691e+001  1.514057e+002 
4081250000  -4.332800e+001  1.446555e+002 
4084375000  -4.320454e+001  1.344368e+002 
4087500000  -4.368939e+001  1.282306e+002 
4090625000  -4.449706e+001  1.242405e+002 
4093750000  -4.429058e+001  1.227758e+002 
4096875000  -4.440989e+001  1.165929e+002 
4100000000  -4.540942e+001  1.095502e+002 
4103125000  -4.575114e+001  1.125704e+002 
4106250000  -4.483795e+001  1.123319e+002 
4109375000  -4.385077e+001  1.089286e+002 
4112500000  -4.374850e+001  1.024306e+002 
4115625000  -4.432508e+001  9.450911e+001 
4118750000  -4.404545e+001  8.893147e+001 
4121875000  -4.383672e+001  8.190759e+001 
4125000000  -4.463866e+001  7.531560e+001 
4128125000  -4.478233e+001  7.631458e+001 
4131250000  -4.342999e+001  8.138391e+001 
4134375000  -4.187041e+001  6.971152e+001 
4137500000  -4.238311e+001  4.717603e+001 
4140625000  -4.444249e+001  3.992357e+001 
4143750000  -4.464560e+001  4.934782e+001 
4146875000  -4.387783e+001  4.875348e+001 
4150000000  -4.258477e+001  3.654125e+001 
4153125000  -4.355484e+001  2.560417e+001 
4156250000  -4.362288e+001  2.441495e+001 
4159375000  -4.374175e+001  2.728979e+001 
4162500000  -4.260670e+001  2.689244e+001 
4165625000  -4.143071e+001  1.600144e+001 
4168750000  -4.124751e+001  4.677838e+000 
4171875000  -4.111694e+001  -8.894026e+000 
4175000000  -4.191887e+001  -1.656365e+001 
4178125000  -4.223399e+001  -1.974061e+001 
4181250000  -4.195946e+001  -2.466901e+001 
4184375000  -4.259552e+001  -3.139947e+001 
4187500000  -4.223642e+001  -3.581122e+001 
4190625000  -4.249298e+001  -4.742986e+001 
4193750000  -4.358603e+001  -5.270150e+001 
4196875000  -4.518568e+001  -5.388252e+001 
4200000000  -4.597311e+001  -4.999573e+001 
4203125000  -4.425554e+001  -4.121127e+001 
4206250000  -4.109523e+001  -5.182505e+001 
4209375000  -4.110010e+001  -7.686685e+001 
4212500000  -4.363752e+001  -8.086382e+001 
4215625000  -4.419538e+001  -7.086309e+001 
4218750000  -4.217264e+001  -7.008988e+001 
4221875000  -4.095525e+001  -8.519316e+001 
4225000000  -4.247548e+001  -9.607509e+001 
4228125000  -4.186668e+001  -9.578798e+001 
4231250000  -4.071382e+001  -1.067130e+002 
4234375000  -4.076929e+001  -1.154006e+002 
4237500000  -4.084139e+001  -1.215360e+002 
4240625000  -4.134667e+001  -1.331684e+002 
4243750000  -4.237278e+001  -1.422683e+002 
4246875000  -4.267907e+001  -1.413790e+002 
4250000000  -4.276931e+001  -1.415550e+002 
4253125000  -4.273590e+001  -1.438433e+002 
4256250000  -4.232897e+001  -1.488311e+002 
4259375000  -4.173980e+001  -1.574103e+002 
4262500000  -4.223385e+001  -1.623029e+002 
4265625000  -4.192708e+001  -1.627153e+002 
4268750000  -4.094115e+001  -1.702508e+002 
4271875000  -4.054515e+001  -1.791032e+002 
4275000000  -4.010100e+001  1.717068e+002 
4278125000  -4.094547e+001  1.571028e+002 
4281250000  -4.218097e+001  1.537140e+002 
4284375000  -4.186430e+001  1.481835e+002 
4287500000  -4.365944e+001  1.488917e+002 
4290625000  -4.352134e+001  1.542085e+002 
4293750000  -4.172304e+001  1.541037e+002 
4296875000  -4.024013e+001  1.383057e+002 
4300000000  -4.117965e+001  1.285916e+002 
4303125000  -4.152743e+001  1.269608e+002 
4306250000  -4.053614e+001  1.290008e+002 
4309375000  -3.983295e+001  1.189542e+002 
4312500000  -3.975155e+001  1.066809e+002 
4315625000  -4.035519e+001  9.747155e+001 
4318750000  -4.077968e+001  9.347432e+001 
4321875000  -4.048960e+001  8.845254e+001 
4325000000  -4.005223e+001  8.468420e+001 
4328125000  -3.930954e+001  7.427897e+001 
4331250000  -3.971589e+001  6.174648e+001 
4334375000  -4.077581e+001  5.420089e+001 
4337500000  -4.199125e+001  5.170407e+001 
4340625000  -4.224626e+001  5.426692e+001 
4343750000  -4.110766e+001  4.924369e+001 
4346875000  -4.089468e+001  3.944077e+001 
4350000000  -4.094984e+001  3.116288e+001 
4353125000  -4.178494e+001  2.125334e+001 
4356250000  -4.382002e+001  2.533386e+001 
4359375000  -4.216426e+001  4.147728e+001 
4362500000  -3.961366e+001  2.766739e+001 
4365625000  -3.875619e+001  8.822086e+000 
4368750000  -4.018340e+001  -6.777023e-001 
4371875000  -4.107214e+001  -3.425200e+000 
4375000000  -4.029594e+001  -6.902122e+000 
4378125000  -4.049029e+001  -1.676565e+001 
4381250000  -4.063959e+001  -2.370889e+001 
4384375000  -4.071642e+001  -3.267649e+001 
4387500000  -4.142339e+001  -4.040493e+001 
4390625000  -4.206878e+001  -4.067472e+001 
4393750000  -4.178593e+001  -4.063796e+001 
4396875000  -4.112727e+001  -4.639184e+001 
4400000000  -4.047617e+001  -5.515657e+001 
4403125000  -4.138383e+001  -6.756889e+001 
4406250000  -4.192985e+001  -7.095181e+001 
4409375000  -4.236671e+001  -7.659634e+001 
4412500000  -4.330491e+001  -7.788709e+001 
4415625000  -4.287510e+001  -7.521329e+001 
4418750000  -4.159536e+001  -7.763203e+001 
