!Agilent Technologies,E8363B,MY43030201,A.06.04.32
!Agilent E8363B: A.06.04.32
!Date: Tuesday, November 11, 2014 21:46:59
!Correction: S21(Response(S21)) 
!S1P File: Measurement: S21:
# Hz S  dB   R 50
3000000000  -4.365210e+001  -1.615510e+002 
3003125000  -4.524908e+001  -1.667600e+002 
3006250000  -4.537656e+001  -1.677982e+002 
3009375000  -4.609857e+001  -1.656432e+002 
3012500000  -4.482383e+001  -1.689080e+002 
3015625000  -4.511427e+001  -1.799056e+002 
3018750000  -4.555344e+001  1.794510e+002 
3021875000  -4.394426e+001  -1.782492e+002 
3025000000  -4.256073e+001  1.775201e+002 
3028125000  -4.189874e+001  1.649491e+002 
3031250000  -4.094799e+001  1.523838e+002 
3034375000  -4.073660e+001  1.377273e+002 
3037500000  -4.143179e+001  1.281748e+002 
3040625000  -4.265507e+001  1.195093e+002 
3043750000  -4.335789e+001  1.146896e+002 
3046875000  -4.429905e+001  1.077574e+002 
3050000000  -4.515202e+001  1.021402e+002 
3053125000  -4.451987e+001  1.083713e+002 
3056250000  -4.476135e+001  1.076818e+002 
3059375000  -4.392329e+001  1.074773e+002 
3062500000  -4.270097e+001  1.016591e+002 
3065625000  -4.230082e+001  8.787236e+001 
3068750000  -4.175446e+001  8.159425e+001 
3071875000  -4.167949e+001  7.794210e+001 
3075000000  -4.131554e+001  6.983072e+001 
3078125000  -4.119959e+001  6.302201e+001 
3081250000  -4.153846e+001  5.688592e+001 
3084375000  -4.045403e+001  5.130577e+001 
3087500000  -4.057921e+001  4.345452e+001 
3090625000  -3.997424e+001  3.047684e+001 
3093750000  -4.110354e+001  2.205582e+001 
3096875000  -4.132947e+001  1.636253e+001 
3100000000  -4.110052e+001  1.098265e+001 
3103125000  -4.145030e+001  8.076503e+000 
3106250000  -4.109239e+001  1.685251e+000 
3109375000  -4.105817e+001  -3.236134e+000 
3112500000  -4.093435e+001  -1.129267e+001 
3115625000  -4.090592e+001  -1.478759e+001 
3118750000  -4.077348e+001  -2.143539e+001 
3121875000  -4.020178e+001  -3.242052e+001 
3125000000  -4.212563e+001  -3.570954e+001 
3128125000  -4.206685e+001  -3.039299e+001 
3131250000  -3.934526e+001  -3.832932e+001 
3134375000  -3.872340e+001  -5.701663e+001 
3137500000  -3.951830e+001  -6.961155e+001 
3140625000  -4.079419e+001  -7.391123e+001 
3143750000  -4.157041e+001  -7.791634e+001 
3146875000  -4.124110e+001  -7.825077e+001 
3150000000  -4.027639e+001  -8.269274e+001 
3153125000  -4.091473e+001  -9.115338e+001 
3156250000  -4.142229e+001  -8.944608e+001 
3159375000  -3.905151e+001  -9.243781e+001 
3162500000  -3.775735e+001  -1.079149e+002 
3165625000  -3.899633e+001  -1.230393e+002 
3168750000  -3.899689e+001  -1.248872e+002 
3171875000  -3.867453e+001  -1.331237e+002 
3175000000  -3.923093e+001  -1.418084e+002 
3178125000  -3.859708e+001  -1.449061e+002 
3181250000  -3.828335e+001  -1.545723e+002 
3184375000  -3.777034e+001  -1.670754e+002 
3187500000  -3.929995e+001  1.786195e+002 
3190625000  -4.082125e+001  1.699609e+002 
3193750000  -4.132701e+001  1.758453e+002 
3196875000  -4.122108e+001  1.738029e+002 
3200000000  -3.986701e+001  1.688564e+002 
3203125000  -3.956306e+001  1.603096e+002 
3206250000  -3.980601e+001  1.517026e+002 
3209375000  -3.955653e+001  1.429377e+002 
3212500000  -4.000274e+001  1.355247e+002 
3215625000  -3.961356e+001  1.326127e+002 
3218750000  -4.048938e+001  1.205480e+002 
3221875000  -4.047842e+001  1.133375e+002 
3225000000  -4.031477e+001  1.089289e+002 
3228125000  -4.120866e+001  9.991205e+001 
3231250000  -4.145666e+001  9.786295e+001 
3234375000  -4.112933e+001  9.381611e+001 
3237500000  -4.095950e+001  9.014958e+001 
3240625000  -4.034695e+001  8.281274e+001 
3243750000  -4.046614e+001  7.201659e+001 
3246875000  -4.068536e+001  6.470517e+001 
3250000000  -4.113363e+001  5.932853e+001 
3253125000  -4.142369e+001  5.529145e+001 
3256250000  -4.062275e+001  4.358273e+001 
3259375000  -4.088608e+001  2.991276e+001 
3262500000  -4.234892e+001  2.622381e+001 
3265625000  -4.252797e+001  2.642637e+001 
3268750000  -4.247111e+001  2.713778e+001 
3271875000  -4.150231e+001  2.006786e+001 
3275000000  -4.094045e+001  1.018305e+001 
3278125000  -4.179212e+001  3.866154e+000 
3281250000  -4.177700e+001  -6.303792e-001 
3284375000  -4.111184e+001  -8.373056e+000 
3287500000  -4.132076e+001  -1.542591e+001 
3290625000  -4.134904e+001  -2.579699e+001 
3293750000  -4.138441e+001  -3.394452e+001 
3296875000  -4.254621e+001  -3.848505e+001 
3300000000  -4.192459e+001  -3.944948e+001 
3303125000  -4.095566e+001  -5.112338e+001 
3306250000  -4.081614e+001  -6.118525e+001 
3309375000  -4.079400e+001  -7.062513e+001 
3312500000  -4.119479e+001  -8.564728e+001 
3315625000  -4.242109e+001  -9.300710e+001 
3318750000  -4.368793e+001  -1.026983e+002 
3321875000  -4.532007e+001  -9.988412e+001 
3325000000  -4.519433e+001  -9.561813e+001 
3328125000  -4.448731e+001  -9.865687e+001 
3331250000  -4.272847e+001  -9.719566e+001 
3334375000  -3.994928e+001  -1.179069e+002 
3337500000  -4.075009e+001  -1.413863e+002 
3340625000  -4.271165e+001  -1.502202e+002 
3343750000  -4.469738e+001  -1.553524e+002 
3346875000  -4.355985e+001  -1.561365e+002 
3350000000  -4.350138e+001  -1.624592e+002 
3353125000  -4.343238e+001  -1.706303e+002 
3356250000  -4.353967e+001  1.796026e+002 
3359375000  -4.418481e+001  1.653224e+002 
3362500000  -4.509834e+001  1.587581e+002 
3365625000  -4.564455e+001  1.512113e+002 
3368750000  -4.647471e+001  1.454512e+002 
3371875000  -4.696213e+001  1.399666e+002 
3375000000  -4.872577e+001  1.321746e+002 
3378125000  -4.918288e+001  1.334430e+002 
3381250000  -5.039436e+001  1.419558e+002 
3384375000  -4.734021e+001  1.532392e+002 
3387500000  -4.486722e+001  1.273968e+002 
3390625000  -4.670842e+001  1.056177e+002 
3393750000  -4.722112e+001  1.031617e+002 
3396875000  -4.597351e+001  1.016118e+002 
3400000000  -4.657259e+001  8.934309e+001 
3403125000  -4.692447e+001  8.013919e+001 
3406250000  -4.733668e+001  7.007662e+001 
3409375000  -4.679331e+001  6.042548e+001 
3412500000  -4.769551e+001  5.306515e+001 
3415625000  -4.857380e+001  5.037262e+001 
3418750000  -4.845168e+001  4.346011e+001 
3421875000  -4.911274e+001  3.978253e+001 
3425000000  -4.749853e+001  3.448645e+001 
3428125000  -4.706267e+001  3.027354e+001 
3431250000  -4.681099e+001  1.591434e+001 
3434375000  -4.767723e+001  1.935250e+000 
3437500000  -4.788920e+001  -2.019880e+000 
3440625000  -4.782351e+001  -7.533623e+000 
3443750000  -4.655830e+001  -1.447457e+001 
3446875000  -4.589387e+001  -2.644231e+001 
3450000000  -4.521246e+001  -3.945465e+001 
3453125000  -4.581606e+001  -6.133142e+001 
3456250000  -4.713585e+001  -7.234103e+001 
3459375000  -4.822535e+001  -7.413051e+001 
3462500000  -4.818324e+001  -7.541478e+001 
3465625000  -4.735117e+001  -8.734417e+001 
3468750000  -4.753727e+001  -9.539496e+001 
3471875000  -4.737220e+001  -1.030539e+002 
3475000000  -4.714048e+001  -1.155627e+002 
3478125000  -4.785983e+001  -1.303858e+002 
3481250000  -4.911394e+001  -1.335124e+002 
3484375000  -4.802639e+001  -1.356600e+002 
3487500000  -4.761569e+001  -1.415687e+002 
3490625000  -4.721109e+001  -1.530663e+002 
3493750000  -4.811866e+001  -1.680066e+002 
3496875000  -4.805594e+001  -1.660524e+002 
3500000000  -4.842757e+001  -1.742659e+002 
3503125000  -4.702456e+001  -1.769199e+002 
3506250000  -4.562666e+001  1.705556e+002 
3509375000  -4.541225e+001  1.515635e+002 
3512500000  -4.626962e+001  1.374153e+002 
3515625000  -4.740009e+001  1.337081e+002 
3518750000  -4.744792e+001  1.329482e+002 
3521875000  -4.842705e+001  1.165404e+002 
3525000000  -4.902180e+001  1.165954e+002 
3528125000  -4.774254e+001  1.190952e+002 
3531250000  -4.659358e+001  1.037748e+002 
3534375000  -4.690921e+001  8.769611e+001 
3537500000  -4.797198e+001  7.898447e+001 
3540625000  -4.877224e+001  7.438154e+001 
3543750000  -4.944089e+001  7.943501e+001 
3546875000  -4.830252e+001  8.458994e+001 
3550000000  -4.647639e+001  7.310229e+001 
3553125000  -4.642397e+001  5.503541e+001 
3556250000  -4.711559e+001  4.327412e+001 
3559375000  -4.657558e+001  4.166926e+001 
3562500000  -4.661184e+001  3.165321e+001 
3565625000  -4.736752e+001  2.352926e+001 
3568750000  -4.803551e+001  2.155703e+001 
3571875000  -4.727312e+001  1.955984e+001 
3575000000  -4.717284e+001  1.188347e+001 
3578125000  -4.814767e+001  6.920650e+000 
3581250000  -4.719491e+001  5.641296e+000 
3584375000  -4.593364e+001  -3.748053e+000 
3587500000  -4.578881e+001  -1.737491e+001 
3590625000  -4.645327e+001  -2.702108e+001 
3593750000  -4.800795e+001  -2.597980e+001 
3596875000  -4.671651e+001  -1.945632e+001 
3600000000  -4.464186e+001  -3.370345e+001 
3603125000  -4.484947e+001  -4.726002e+001 
3606250000  -4.608872e+001  -5.404263e+001 
3609375000  -4.608858e+001  -6.040331e+001 
3612500000  -4.598819e+001  -6.462994e+001 
3615625000  -4.598430e+001  -7.126965e+001 
3618750000  -4.637711e+001  -7.095758e+001 
3621875000  -4.560722e+001  -7.667530e+001 
3625000000  -4.544092e+001  -8.005292e+001 
3628125000  -4.453535e+001  -8.958857e+001 
3631250000  -4.486974e+001  -9.831144e+001 
3634375000  -4.555628e+001  -1.003428e+002 
3637500000  -4.438233e+001  -1.011501e+002 
3640625000  -4.318632e+001  -1.055449e+002 
3643750000  -4.346077e+001  -1.199171e+002 
3646875000  -4.418714e+001  -1.308473e+002 
3650000000  -4.392449e+001  -1.339270e+002 
3653125000  -4.364602e+001  -1.431448e+002 
3656250000  -4.412517e+001  -1.487217e+002 
3659375000  -4.406176e+001  -1.522808e+002 
3662500000  -4.348118e+001  -1.584666e+002 
3665625000  -4.322538e+001  -1.627967e+002 
3668750000  -4.212949e+001  -1.695791e+002 
3671875000  -4.171505e+001  1.769259e+002 
3675000000  -4.201684e+001  1.665954e+002 
3678125000  -4.260749e+001  1.599618e+002 
3681250000  -4.234382e+001  1.562018e+002 
3684375000  -4.266611e+001  1.482742e+002 
3687500000  -4.312602e+001  1.404525e+002 
3690625000  -4.368911e+001  1.340964e+002 
3693750000  -4.482515e+001  1.329187e+002 
3696875000  -4.389900e+001  1.287689e+002 
3700000000  -4.304855e+001  1.203131e+002 
3703125000  -4.377040e+001  1.133563e+002 
3706250000  -4.474151e+001  1.119887e+002 
3709375000  -4.370282e+001  1.113390e+002 
3712500000  -4.288726e+001  1.033911e+002 
3715625000  -4.145682e+001  9.346923e+001 
3718750000  -4.166747e+001  8.637093e+001 
3721875000  -4.175900e+001  7.617533e+001 
3725000000  -4.240699e+001  6.742277e+001 
3728125000  -4.236512e+001  6.786270e+001 
3731250000  -4.217078e+001  5.853455e+001 
3734375000  -4.211242e+001  5.089468e+001 
3737500000  -4.262894e+001  4.406308e+001 
3740625000  -4.273288e+001  3.672704e+001 
3743750000  -4.282616e+001  2.967463e+001 
3746875000  -4.360550e+001  2.470053e+001 
3750000000  -4.365337e+001  2.204744e+001 
3753125000  -4.379412e+001  1.713872e+001 
3756250000  -4.391031e+001  1.427174e+001 
3759375000  -4.350159e+001  9.853958e+000 
3762500000  -4.351730e+001  1.205665e+000 
3765625000  -4.377676e+001  -1.827865e+000 
3768750000  -4.348619e+001  -2.972796e+000 
3771875000  -4.213245e+001  -7.198984e+000 
3775000000  -4.201245e+001  -2.017757e+001 
3778125000  -4.272830e+001  -2.756372e+001 
3781250000  -4.245754e+001  -3.111497e+001 
3784375000  -4.240180e+001  -3.616429e+001 
3787500000  -4.224027e+001  -3.965453e+001 
3790625000  -4.257237e+001  -5.369195e+001 
3793750000  -4.301406e+001  -5.596170e+001 
3796875000  -4.186846e+001  -6.079635e+001 
3800000000  -4.053926e+001  -6.724451e+001 
3803125000  -4.182709e+001  -8.059055e+001 
3806250000  -4.238911e+001  -8.370680e+001 
3809375000  -4.188232e+001  -8.942059e+001 
3812500000  -4.174667e+001  -9.984129e+001 
3815625000  -4.308363e+001  -1.101148e+002 
3818750000  -4.439270e+001  -1.066478e+002 
3821875000  -4.319734e+001  -9.864384e+001 
3825000000  -4.115085e+001  -1.044173e+002 
3828125000  -4.049312e+001  -1.253442e+002 
3831250000  -4.113022e+001  -1.431132e+002 
3834375000  -4.378909e+001  -1.425741e+002 
3837500000  -4.394809e+001  -1.379683e+002 
3840625000  -4.255019e+001  -1.455996e+002 
3843750000  -4.141010e+001  -1.599613e+002 
3846875000  -4.347656e+001  -1.683819e+002 
3850000000  -4.401281e+001  -1.602459e+002 
3853125000  -4.368765e+001  -1.609899e+002 
3856250000  -4.265140e+001  -1.688278e+002 
3859375000  -4.222197e+001  -1.783122e+002 
3862500000  -4.217839e+001  1.691913e+002 
3865625000  -4.276633e+001  1.632249e+002 
3868750000  -4.257785e+001  1.631569e+002 
3871875000  -4.189508e+001  1.523559e+002 
3875000000  -4.256132e+001  1.408170e+002 
3878125000  -4.347616e+001  1.395467e+002 
3881250000  -4.315559e+001  1.386137e+002 
3884375000  -4.232407e+001  1.271655e+002 
3887500000  -4.330078e+001  1.190208e+002 
3890625000  -4.409468e+001  1.176045e+002 
3893750000  -4.379866e+001  1.135196e+002 
3896875000  -4.385093e+001  1.117982e+002 
3900000000  -4.405285e+001  1.051547e+002 
3903125000  -4.368381e+001  1.017840e+002 
3906250000  -4.342147e+001  9.743661e+001 
3909375000  -4.274221e+001  8.891088e+001 
3912500000  -4.363531e+001  8.002290e+001 
3915625000  -4.467330e+001  7.931247e+001 
3918750000  -4.407644e+001  7.778875e+001 
3921875000  -4.378705e+001  7.303339e+001 
3925000000  -4.289128e+001  6.582408e+001 
3928125000  -4.260838e+001  5.579033e+001 
3931250000  -4.398854e+001  5.115067e+001 
3934375000  -4.365771e+001  4.836557e+001 
3937500000  -4.433954e+001  4.457228e+001 
3940625000  -4.448334e+001  4.537975e+001 
3943750000  -4.341293e+001  3.766271e+001 
3946875000  -4.256432e+001  3.027051e+001 
3950000000  -4.385811e+001  2.365381e+001 
3953125000  -4.407070e+001  2.250543e+001 
3956250000  -4.274682e+001  1.920199e+001 
3959375000  -4.172408e+001  1.392130e+001 
3962500000  -4.099525e+001  3.269493e+000 
3965625000  -4.193541e+001  -8.741445e+000 
3968750000  -4.276509e+001  -1.706408e+001 
3971875000  -4.263288e+001  -2.215223e+001 
3975000000  -4.183611e+001  -2.594311e+001 
3978125000  -4.206551e+001  -3.176098e+001 
3981250000  -4.203270e+001  -4.058377e+001 
3984375000  -4.277784e+001  -4.706133e+001 
3987500000  -4.294299e+001  -5.233315e+001 
3990625000  -4.301556e+001  -5.613847e+001 
3993750000  -4.290380e+001  -6.163702e+001 
3996875000  -4.278765e+001  -6.795330e+001 
4000000000  -4.367210e+001  -7.253252e+001 
4003125000  -4.369527e+001  -7.209711e+001 
4006250000  -4.207716e+001  -7.728457e+001 
4009375000  -4.110749e+001  -9.281557e+001 
4012500000  -4.290749e+001  -1.030788e+002 
4015625000  -4.365720e+001  -1.037079e+002 
4018750000  -4.379086e+001  -1.063366e+002 
4021875000  -4.325504e+001  -1.143936e+002 
4025000000  -4.333756e+001  -1.212068e+002 
4028125000  -4.387873e+001  -1.287223e+002 
4031250000  -4.387344e+001  -1.352160e+002 
4034375000  -4.410396e+001  -1.373900e+002 
4037500000  -4.383146e+001  -1.417406e+002 
4040625000  -4.423869e+001  -1.491796e+002 
4043750000  -4.458919e+001  -1.516653e+002 
4046875000  -4.417683e+001  -1.590058e+002 
4050000000  -4.379703e+001  -1.642811e+002 
4053125000  -4.501775e+001  -1.697836e+002 
4056250000  -4.509673e+001  -1.622255e+002 
4059375000  -4.408499e+001  -1.629387e+002 
4062500000  -4.366391e+001  -1.734971e+002 
4065625000  -4.349771e+001  -1.784279e+002 
4068750000  -4.323955e+001  1.714490e+002 
4071875000  -4.273785e+001  1.618945e+002 
4075000000  -4.389595e+001  1.543385e+002 
4078125000  -4.426249e+001  1.508757e+002 
4081250000  -4.336968e+001  1.481973e+002 
4084375000  -4.301103e+001  1.375311e+002 
4087500000  -4.397406e+001  1.288362e+002 
4090625000  -4.524519e+001  1.275132e+002 
4093750000  -4.452091e+001  1.242114e+002 
4096875000  -4.434081e+001  1.172280e+002 
4100000000  -4.529174e+001  1.135405e+002 
4103125000  -4.602776e+001  1.155144e+002 
4106250000  -4.525890e+001  1.148847e+002 
4109375000  -4.432682e+001  1.098602e+002 
4112500000  -4.373112e+001  1.002026e+002 
4115625000  -4.400666e+001  9.599828e+001 
4118750000  -4.409189e+001  8.880731e+001 
4121875000  -4.358395e+001  8.258187e+001 
4125000000  -4.462559e+001  7.444066e+001 
4128125000  -4.515083e+001  7.719941e+001 
4131250000  -4.387173e+001  8.253964e+001 
4134375000  -4.162894e+001  7.002235e+001 
4137500000  -4.219496e+001  4.905962e+001 
4140625000  -4.410305e+001  4.365197e+001 
4143750000  -4.473170e+001  4.705574e+001 
4146875000  -4.402439e+001  5.011980e+001 
4150000000  -4.295339e+001  4.049498e+001 
4153125000  -4.343560e+001  2.885846e+001 
4156250000  -4.368992e+001  2.358645e+001 
4159375000  -4.395278e+001  2.917514e+001 
4162500000  -4.244213e+001  2.381429e+001 
4165625000  -4.157132e+001  1.735804e+001 
4168750000  -4.096974e+001  7.062554e+000 
4171875000  -4.119020e+001  -6.639751e+000 
4175000000  -4.163343e+001  -1.574953e+001 
4178125000  -4.240106e+001  -1.699151e+001 
4181250000  -4.168543e+001  -2.531100e+001 
4184375000  -4.225463e+001  -3.107509e+001 
4187500000  -4.224607e+001  -3.691824e+001 
4190625000  -4.242386e+001  -4.556099e+001 
4193750000  -4.446949e+001  -5.175918e+001 
4196875000  -4.493013e+001  -5.383240e+001 
4200000000  -4.604103e+001  -4.286822e+001 
4203125000  -4.426097e+001  -3.736154e+001 
4206250000  -4.114948e+001  -4.986918e+001 
4209375000  -4.130206e+001  -7.519506e+001 
4212500000  -4.374197e+001  -7.839512e+001 
4215625000  -4.400153e+001  -7.078667e+001 
4218750000  -4.244849e+001  -7.456721e+001 
4221875000  -4.124532e+001  -8.527400e+001 
4225000000  -4.232618e+001  -9.768465e+001 
4228125000  -4.234875e+001  -9.500091e+001 
4231250000  -4.113671e+001  -1.040749e+002 
4234375000  -4.059367e+001  -1.128220e+002 
4237500000  -4.082985e+001  -1.191842e+002 
4240625000  -4.134065e+001  -1.291871e+002 
4243750000  -4.250486e+001  -1.392560e+002 
4246875000  -4.294715e+001  -1.385178e+002 
4250000000  -4.267121e+001  -1.418027e+002 
4253125000  -4.271752e+001  -1.412071e+002 
4256250000  -4.224803e+001  -1.503227e+002 
4259375000  -4.176714e+001  -1.555368e+002 
4262500000  -4.192032e+001  -1.611124e+002 
4265625000  -4.211933e+001  -1.608244e+002 
4268750000  -4.066868e+001  -1.683542e+002 
4271875000  -4.061034e+001  1.779366e+002 
4275000000  -3.978283e+001  1.693240e+002 
4278125000  -4.144590e+001  1.582947e+002 
4281250000  -4.288956e+001  1.536124e+002 
4284375000  -4.216542e+001  1.524947e+002 
4287500000  -4.357832e+001  1.516829e+002 
4290625000  -4.363134e+001  1.575318e+002 
4293750000  -4.137751e+001  1.558001e+002 
4296875000  -4.033172e+001  1.401472e+002 
4300000000  -4.115288e+001  1.287635e+002 
4303125000  -4.204818e+001  1.287418e+002 
4306250000  -4.086452e+001  1.312958e+002 
4309375000  -3.971520e+001  1.199348e+002 
4312500000  -3.977655e+001  1.073559e+002 
4315625000  -4.039791e+001  9.815287e+001 
4318750000  -4.075650e+001  9.449079e+001 
4321875000  -4.063640e+001  8.931915e+001 
4325000000  -4.019962e+001  8.586523e+001 
4328125000  -3.935519e+001  7.451518e+001 
4331250000  -3.966925e+001  6.398071e+001 
4334375000  -4.072635e+001  5.527925e+001 
4337500000  -4.166288e+001  5.262782e+001 
4340625000  -4.190768e+001  5.712138e+001 
4343750000  -4.094595e+001  5.239921e+001 
4346875000  -4.085192e+001  4.200930e+001 
4350000000  -4.111435e+001  3.395270e+001 
4353125000  -4.160465e+001  2.290129e+001 
4356250000  -4.390728e+001  2.364453e+001 
4359375000  -4.272388e+001  3.876408e+001 
4362500000  -3.922997e+001  2.959890e+001 
4365625000  -3.896725e+001  9.689505e+000 
4368750000  -4.043971e+001  -2.235538e-001 
4371875000  -4.126201e+001  -2.843155e+000 
4375000000  -4.053074e+001  -7.604180e+000 
4378125000  -4.024676e+001  -1.573544e+001 
4381250000  -4.080237e+001  -2.139348e+001 
4384375000  -4.099986e+001  -3.118798e+001 
4387500000  -4.141322e+001  -3.849559e+001 
4390625000  -4.216782e+001  -3.952879e+001 
4393750000  -4.172626e+001  -4.135347e+001 
4396875000  -4.124630e+001  -4.599914e+001 
4400000000  -4.074132e+001  -5.521522e+001 
4403125000  -4.190339e+001  -6.503651e+001 
4406250000  -4.211887e+001  -7.098927e+001 
4409375000  -4.255889e+001  -7.573957e+001 
4412500000  -4.373778e+001  -7.708918e+001 
4415625000  -4.287159e+001  -7.212326e+001 
4418750000  -4.191394e+001  -7.405599e+001 
