!Agilent Technologies,E8363B,MY43030201,A.06.04.32
!Agilent E8363B: A.06.04.32
!Date: Tuesday, November 11, 2014 21:41:12
!Correction: S21(Response(S21)) 
!S1P File: Measurement: S21:
# Hz S  dB   R 50
3000000000  -4.377730e+001  -1.571152e+002 
3003125000  -4.505788e+001  -1.615054e+002 
3006250000  -4.538832e+001  -1.628755e+002 
3009375000  -4.616000e+001  -1.602986e+002 
3012500000  -4.466274e+001  -1.674335e+002 
3015625000  -4.520336e+001  -1.737314e+002 
3018750000  -4.563082e+001  -1.747726e+002 
3021875000  -4.393030e+001  -1.728607e+002 
3025000000  -4.252916e+001  -1.787901e+002 
3028125000  -4.156767e+001  1.669692e+002 
3031250000  -4.094589e+001  1.552049e+002 
3034375000  -4.077221e+001  1.424314e+002 
3037500000  -4.173227e+001  1.302880e+002 
3040625000  -4.296787e+001  1.241874e+002 
3043750000  -4.324477e+001  1.173635e+002 
3046875000  -4.416861e+001  1.110699e+002 
3050000000  -4.530429e+001  1.063007e+002 
3053125000  -4.493669e+001  1.091966e+002 
3056250000  -4.480128e+001  1.117429e+002 
3059375000  -4.363700e+001  1.098569e+002 
3062500000  -4.241219e+001  1.047561e+002 
3065625000  -4.220591e+001  9.391555e+001 
3068750000  -4.191068e+001  8.570607e+001 
3071875000  -4.178547e+001  8.066680e+001 
3075000000  -4.105251e+001  7.478162e+001 
3078125000  -4.125462e+001  6.705627e+001 
3081250000  -4.135382e+001  6.049227e+001 
3084375000  -4.032666e+001  5.503107e+001 
3087500000  -4.041242e+001  4.779328e+001 
3090625000  -4.001624e+001  3.391177e+001 
3093750000  -4.089845e+001  2.582211e+001 
3096875000  -4.110146e+001  2.024342e+001 
3100000000  -4.121085e+001  1.514716e+001 
3103125000  -4.143587e+001  1.125047e+001 
3106250000  -4.105237e+001  4.887458e+000 
3109375000  -4.093954e+001  5.396464e-001 
3112500000  -4.080837e+001  -6.914790e+000 
3115625000  -4.081358e+001  -1.210405e+001 
3118750000  -4.089286e+001  -1.699214e+001 
3121875000  -4.018534e+001  -2.899844e+001 
3125000000  -4.215808e+001  -3.377332e+001 
3128125000  -4.185323e+001  -2.683950e+001 
3131250000  -3.945083e+001  -3.503726e+001 
3134375000  -3.899538e+001  -5.358863e+001 
3137500000  -3.951422e+001  -6.667594e+001 
3140625000  -4.079671e+001  -7.059071e+001 
3143750000  -4.146118e+001  -7.495593e+001 
3146875000  -4.113092e+001  -7.326852e+001 
3150000000  -4.043941e+001  -7.929423e+001 
3153125000  -4.094564e+001  -8.693312e+001 
3156250000  -4.151696e+001  -8.537964e+001 
3159375000  -3.916628e+001  -8.814921e+001 
3162500000  -3.760961e+001  -1.051483e+002 
3165625000  -3.910685e+001  -1.186297e+002 
3168750000  -3.906553e+001  -1.214956e+002 
3171875000  -3.874904e+001  -1.297961e+002 
3175000000  -3.916100e+001  -1.401825e+002 
3178125000  -3.895669e+001  -1.413627e+002 
3181250000  -3.805555e+001  -1.509937e+002 
3184375000  -3.780065e+001  -1.626480e+002 
3187500000  -3.921428e+001  -1.788842e+002 
3190625000  -4.086888e+001  1.737538e+002 
3193750000  -4.103899e+001  1.782916e+002 
3196875000  -4.116965e+001  1.784097e+002 
3200000000  -3.979303e+001  1.720776e+002 
3203125000  -3.975607e+001  1.638398e+002 
3206250000  -3.993809e+001  1.550959e+002 
3209375000  -3.958849e+001  1.456850e+002 
3212500000  -3.994446e+001  1.386219e+002 
3215625000  -3.963065e+001  1.358949e+002 
3218750000  -4.047087e+001  1.251473e+002 
3221875000  -4.075828e+001  1.173878e+002 
3225000000  -4.054600e+001  1.108895e+002 
3228125000  -4.091517e+001  1.033651e+002 
3231250000  -4.149221e+001  1.011628e+002 
3234375000  -4.089159e+001  9.846999e+001 
3237500000  -4.110147e+001  9.379080e+001 
3240625000  -4.020155e+001  8.688561e+001 
3243750000  -4.035889e+001  7.404555e+001 
3246875000  -4.077169e+001  6.784247e+001 
3250000000  -4.117471e+001  6.163374e+001 
3253125000  -4.117225e+001  5.798785e+001 
3256250000  -4.047945e+001  4.916644e+001 
3259375000  -4.084156e+001  3.661137e+001 
3262500000  -4.236363e+001  3.129952e+001 
3265625000  -4.266718e+001  3.153761e+001 
3268750000  -4.264060e+001  3.033164e+001 
3271875000  -4.168034e+001  2.295558e+001 
3275000000  -4.115910e+001  1.419322e+001 
3278125000  -4.181471e+001  7.131649e+000 
3281250000  -4.192459e+001  3.182868e+000 
3284375000  -4.086267e+001  -6.485583e+000 
3287500000  -4.165530e+001  -1.195677e+001 
3290625000  -4.168463e+001  -2.250408e+001 
3293750000  -4.172039e+001  -3.116675e+001 
3296875000  -4.264532e+001  -3.381218e+001 
3300000000  -4.211233e+001  -3.652312e+001 
3303125000  -4.098778e+001  -4.640859e+001 
3306250000  -4.099057e+001  -5.652736e+001 
3309375000  -4.069324e+001  -6.799775e+001 
3312500000  -4.132654e+001  -8.361726e+001 
3315625000  -4.242221e+001  -9.287664e+001 
3318750000  -4.414458e+001  -9.791109e+001 
3321875000  -4.544250e+001  -9.596244e+001 
3325000000  -4.565600e+001  -9.238721e+001 
3328125000  -4.443156e+001  -9.754990e+001 
3331250000  -4.278010e+001  -9.501805e+001 
3334375000  -4.016812e+001  -1.151294e+002 
3337500000  -4.113295e+001  -1.388333e+002 
3340625000  -4.301968e+001  -1.476999e+002 
3343750000  -4.479378e+001  -1.494089e+002 
3346875000  -4.425447e+001  -1.565558e+002 
3350000000  -4.369496e+001  -1.590556e+002 
3353125000  -4.375042e+001  -1.677989e+002 
3356250000  -4.339680e+001  -1.782036e+002 
3359375000  -4.425587e+001  1.670098e+002 
3362500000  -4.542644e+001  1.607341e+002 
3365625000  -4.579926e+001  1.549265e+002 
3368750000  -4.646680e+001  1.502575e+002 
3371875000  -4.706907e+001  1.418739e+002 
3375000000  -4.833265e+001  1.340618e+002 
3378125000  -4.925037e+001  1.364404e+002 
3381250000  -4.972089e+001  1.473044e+002 
3384375000  -4.732981e+001  1.506737e+002 
3387500000  -4.530738e+001  1.293845e+002 
3390625000  -4.755307e+001  1.067331e+002 
3393750000  -4.775541e+001  1.060178e+002 
3396875000  -4.683923e+001  1.015812e+002 
3400000000  -4.633108e+001  8.833023e+001 
3403125000  -4.701081e+001  8.397159e+001 
3406250000  -4.813933e+001  7.063918e+001 
3409375000  -4.744101e+001  6.297933e+001 
3412500000  -4.794242e+001  5.778996e+001 
3415625000  -4.849968e+001  5.257125e+001 
3418750000  -4.885248e+001  4.869190e+001 
3421875000  -4.938832e+001  4.368040e+001 
3425000000  -4.801057e+001  3.949582e+001 
3428125000  -4.728195e+001  3.032151e+001 
3431250000  -4.680684e+001  1.999599e+001 
3434375000  -4.696348e+001  4.916892e+000 
3437500000  -4.704727e+001  -1.882987e+000 
3440625000  -4.820353e+001  -2.926730e+000 
3443750000  -4.653196e+001  -7.254094e+000 
3446875000  -4.572365e+001  -2.463704e+001 
3450000000  -4.564969e+001  -4.141830e+001 
3453125000  -4.595581e+001  -5.602898e+001 
3456250000  -4.720045e+001  -6.773135e+001 
3459375000  -4.795160e+001  -6.959669e+001 
3462500000  -4.842007e+001  -7.249336e+001 
3465625000  -4.699086e+001  -8.602883e+001 
3468750000  -4.737385e+001  -9.306771e+001 
3471875000  -4.719788e+001  -1.003402e+002 
3475000000  -4.679591e+001  -1.124782e+002 
3478125000  -4.777205e+001  -1.259104e+002 
3481250000  -4.874728e+001  -1.311746e+002 
3484375000  -4.848221e+001  -1.307803e+002 
3487500000  -4.750707e+001  -1.382764e+002 
3490625000  -4.678744e+001  -1.507748e+002 
3493750000  -4.775558e+001  -1.619020e+002 
3496875000  -4.851549e+001  -1.667162e+002 
3500000000  -4.830293e+001  -1.672750e+002 
3503125000  -4.744306e+001  -1.737347e+002 
3506250000  -4.551536e+001  1.749807e+002 
3509375000  -4.578104e+001  1.557584e+002 
3512500000  -4.616669e+001  1.401480e+002 
3515625000  -4.718219e+001  1.352258e+002 
3518750000  -4.746526e+001  1.324640e+002 
3521875000  -4.806575e+001  1.241258e+002 
3525000000  -4.882124e+001  1.199314e+002 
3528125000  -4.787148e+001  1.213647e+002 
3531250000  -4.699075e+001  1.070449e+002 
3534375000  -4.701260e+001  9.193359e+001 
3537500000  -4.782608e+001  8.191999e+001 
3540625000  -4.865853e+001  8.147264e+001 
3543750000  -4.956418e+001  8.347098e+001 
3546875000  -4.840127e+001  8.780607e+001 
3550000000  -4.638697e+001  7.783617e+001 
3553125000  -4.626806e+001  5.878022e+001 
3556250000  -4.715959e+001  5.141856e+001 
3559375000  -4.656643e+001  4.787406e+001 
3562500000  -4.644363e+001  3.690164e+001 
3565625000  -4.734742e+001  3.087923e+001 
3568750000  -4.818786e+001  2.878591e+001 
3571875000  -4.720634e+001  2.253627e+001 
3575000000  -4.701027e+001  1.486591e+001 
3578125000  -4.810498e+001  1.502247e+001 
3581250000  -4.762197e+001  8.706104e+000 
3584375000  -4.576612e+001  9.067726e-001 
3587500000  -4.564209e+001  -1.208004e+001 
3590625000  -4.675258e+001  -1.935689e+001 
3593750000  -4.747020e+001  -2.063644e+001 
3596875000  -4.664157e+001  -1.686908e+001 
3600000000  -4.479122e+001  -2.615079e+001 
3603125000  -4.484579e+001  -4.332100e+001 
3606250000  -4.603704e+001  -4.641238e+001 
3609375000  -4.603271e+001  -5.053588e+001 
3612500000  -4.596126e+001  -6.264811e+001 
3615625000  -4.638493e+001  -6.312798e+001 
3618750000  -4.608432e+001  -6.520654e+001 
3621875000  -4.533812e+001  -7.373211e+001 
3625000000  -4.618070e+001  -7.690882e+001 
3628125000  -4.477334e+001  -8.453127e+001 
3631250000  -4.504493e+001  -9.507885e+001 
3634375000  -4.562751e+001  -9.503149e+001 
3637500000  -4.457647e+001  -9.511563e+001 
3640625000  -4.389458e+001  -1.006692e+002 
3643750000  -4.315063e+001  -1.154369e+002 
3646875000  -4.403075e+001  -1.225075e+002 
3650000000  -4.356291e+001  -1.290488e+002 
3653125000  -4.329311e+001  -1.383945e+002 
3656250000  -4.380850e+001  -1.431155e+002 
3659375000  -4.412079e+001  -1.472770e+002 
3662500000  -4.349797e+001  -1.552171e+002 
3665625000  -4.339284e+001  -1.606007e+002 
3668750000  -4.206985e+001  -1.637334e+002 
3671875000  -4.154863e+001  -1.790553e+002 
3675000000  -4.202719e+001  1.726107e+002 
3678125000  -4.284260e+001  1.667011e+002 
3681250000  -4.231652e+001  1.617392e+002 
3684375000  -4.271164e+001  1.541968e+002 
3687500000  -4.288220e+001  1.440945e+002 
3690625000  -4.343929e+001  1.376489e+002 
3693750000  -4.420078e+001  1.377117e+002 
3696875000  -4.397510e+001  1.334461e+002 
3700000000  -4.289751e+001  1.257547e+002 
3703125000  -4.352803e+001  1.190514e+002 
3706250000  -4.443587e+001  1.158949e+002 
3709375000  -4.377874e+001  1.157749e+002 
3712500000  -4.316320e+001  1.117210e+002 
3715625000  -4.174651e+001  1.004889e+002 
3718750000  -4.174576e+001  9.162386e+001 
3721875000  -4.213635e+001  8.203655e+001 
3725000000  -4.234927e+001  7.359714e+001 
3728125000  -4.271607e+001  7.046236e+001 
3731250000  -4.202769e+001  6.301949e+001 
3734375000  -4.218721e+001  5.863549e+001 
3737500000  -4.296653e+001  4.927321e+001 
3740625000  -4.323882e+001  4.252070e+001 
3743750000  -4.292822e+001  3.560275e+001 
3746875000  -4.334790e+001  2.857001e+001 
3750000000  -4.377014e+001  2.452329e+001 
3753125000  -4.386768e+001  2.335685e+001 
3756250000  -4.385309e+001  2.024181e+001 
3759375000  -4.357764e+001  1.286415e+001 
3762500000  -4.361937e+001  9.270513e+000 
3765625000  -4.397416e+001  3.024618e+000 
3768750000  -4.363172e+001  4.866638e+000 
3771875000  -4.187839e+001  -3.936879e+000 
3775000000  -4.243701e+001  -1.400191e+001 
3778125000  -4.270412e+001  -1.974079e+001 
3781250000  -4.294781e+001  -2.356336e+001 
3784375000  -4.259761e+001  -3.079327e+001 
3787500000  -4.256161e+001  -3.663248e+001 
3790625000  -4.287315e+001  -4.509455e+001 
3793750000  -4.289647e+001  -5.237971e+001 
3796875000  -4.185566e+001  -5.331106e+001 
3800000000  -4.099858e+001  -6.216037e+001 
3803125000  -4.176094e+001  -7.225098e+001 
3806250000  -4.225990e+001  -7.858983e+001 
3809375000  -4.188961e+001  -8.366432e+001 
3812500000  -4.175908e+001  -9.510153e+001 
3815625000  -4.299334e+001  -1.044240e+002 
3818750000  -4.392576e+001  -1.013013e+002 
3821875000  -4.358123e+001  -9.464551e+001 
3825000000  -4.137745e+001  -9.994207e+001 
3828125000  -4.072878e+001  -1.206517e+002 
3831250000  -4.196629e+001  -1.364221e+002 
3834375000  -4.419268e+001  -1.341835e+002 
3837500000  -4.393244e+001  -1.343650e+002 
3840625000  -4.236560e+001  -1.399120e+002 
3843750000  -4.163947e+001  -1.551715e+002 
3846875000  -4.329465e+001  -1.602500e+002 
3850000000  -4.401259e+001  -1.547374e+002 
3853125000  -4.380938e+001  -1.588172e+002 
3856250000  -4.290306e+001  -1.652712e+002 
3859375000  -4.206674e+001  -1.740583e+002 
3862500000  -4.229586e+001  1.762526e+002 
3865625000  -4.265368e+001  1.670496e+002 
3868750000  -4.251537e+001  1.668424e+002 
3871875000  -4.227318e+001  1.572450e+002 
3875000000  -4.263649e+001  1.453628e+002 
3878125000  -4.296661e+001  1.453366e+002 
3881250000  -4.288991e+001  1.448919e+002 
3884375000  -4.271582e+001  1.326734e+002 
3887500000  -4.313045e+001  1.274967e+002 
3890625000  -4.350325e+001  1.248759e+002 
3893750000  -4.447229e+001  1.218234e+002 
3896875000  -4.432189e+001  1.189551e+002 
3900000000  -4.459728e+001  1.109635e+002 
3903125000  -4.410362e+001  1.052398e+002 
3906250000  -4.363885e+001  1.028430e+002 
3909375000  -4.282972e+001  9.285025e+001 
3912500000  -4.398507e+001  8.630283e+001 
3915625000  -4.436304e+001  8.343725e+001 
3918750000  -4.501017e+001  8.220389e+001 
3921875000  -4.410754e+001  8.023569e+001 
3925000000  -4.293179e+001  7.093510e+001 
3928125000  -4.315493e+001  6.351402e+001 
3931250000  -4.351605e+001  5.316342e+001 
3934375000  -4.435728e+001  5.123723e+001 
3937500000  -4.523764e+001  5.020913e+001 
3940625000  -4.474361e+001  4.704649e+001 
3943750000  -4.342907e+001  4.356434e+001 
3946875000  -4.287173e+001  3.362473e+001 
3950000000  -4.403816e+001  2.460552e+001 
3953125000  -4.441089e+001  2.703490e+001 
3956250000  -4.308670e+001  2.694352e+001 
3959375000  -4.227398e+001  1.929722e+001 
3962500000  -4.182135e+001  8.002522e+000 
3965625000  -4.241483e+001  -2.512621e+000 
3968750000  -4.258247e+001  -1.103643e+001 
3971875000  -4.263944e+001  -1.564190e+001 
3975000000  -4.211161e+001  -2.023557e+001 
3978125000  -4.219430e+001  -2.648223e+001 
3981250000  -4.219494e+001  -3.478502e+001 
3984375000  -4.241966e+001  -4.209895e+001 
3987500000  -4.317945e+001  -4.463946e+001 
3990625000  -4.306045e+001  -4.953009e+001 
3993750000  -4.313691e+001  -5.655859e+001 
3996875000  -4.293670e+001  -6.352864e+001 
4000000000  -4.414612e+001  -6.763763e+001 
4003125000  -4.429319e+001  -6.888918e+001 
4006250000  -4.230251e+001  -7.274073e+001 
4009375000  -4.157623e+001  -9.021133e+001 
4012500000  -4.301402e+001  -9.818681e+001 
4015625000  -4.447617e+001  -1.003966e+002 
4018750000  -4.366021e+001  -1.035593e+002 
4021875000  -4.336134e+001  -1.103317e+002 
4025000000  -4.324509e+001  -1.155469e+002 
4028125000  -4.364347e+001  -1.236612e+002 
4031250000  -4.421014e+001  -1.307716e+002 
4034375000  -4.421312e+001  -1.335875e+002 
4037500000  -4.436149e+001  -1.374489e+002 
4040625000  -4.428791e+001  -1.418792e+002 
4043750000  -4.492251e+001  -1.464628e+002 
4046875000  -4.453878e+001  -1.524194e+002 
4050000000  -4.456018e+001  -1.573306e+002 
4053125000  -4.541074e+001  -1.622309e+002 
4056250000  -4.558755e+001  -1.569825e+002 
4059375000  -4.400207e+001  -1.621591e+002 
4062500000  -4.429349e+001  -1.681501e+002 
4065625000  -4.362670e+001  -1.757225e+002 
4068750000  -4.309222e+001  1.763242e+002 
4071875000  -4.294381e+001  1.683170e+002 
4075000000  -4.389169e+001  1.605172e+002 
4078125000  -4.452660e+001  1.565496e+002 
4081250000  -4.399805e+001  1.490152e+002 
4084375000  -4.352220e+001  1.438654e+002 
4087500000  -4.450288e+001  1.340656e+002 
4090625000  -4.533834e+001  1.358544e+002 
4093750000  -4.492340e+001  1.316771e+002 
4096875000  -4.467542e+001  1.232794e+002 
4100000000  -4.545314e+001  1.155468e+002 
4103125000  -4.618404e+001  1.218951e+002 
4106250000  -4.570504e+001  1.217629e+002 
4109375000  -4.441003e+001  1.140966e+002 
4112500000  -4.429118e+001  1.058555e+002 
4115625000  -4.448454e+001  1.011611e+002 
4118750000  -4.406191e+001  9.549394e+001 
4121875000  -4.413037e+001  9.009059e+001 
4125000000  -4.479867e+001  8.383302e+001 
4128125000  -4.531626e+001  8.728419e+001 
4131250000  -4.417656e+001  8.967229e+001 
4134375000  -4.191715e+001  7.738098e+001 
4137500000  -4.240982e+001  5.642739e+001 
4140625000  -4.449718e+001  4.868658e+001 
4143750000  -4.521496e+001  5.513518e+001 
4146875000  -4.435410e+001  5.648259e+001 
4150000000  -4.290986e+001  4.490920e+001 
4153125000  -4.333393e+001  3.615318e+001 
4156250000  -4.449917e+001  3.393150e+001 
4159375000  -4.430083e+001  3.502237e+001 
4162500000  -4.251223e+001  3.417024e+001 
4165625000  -4.201414e+001  1.964726e+001 
4168750000  -4.144104e+001  1.118255e+001 
4171875000  -4.140109e+001  4.312174e-001 
4175000000  -4.231752e+001  -8.855021e+000 
4178125000  -4.263021e+001  -1.108419e+001 
4181250000  -4.246133e+001  -1.740999e+001 
4184375000  -4.289936e+001  -2.383920e+001 
4187500000  -4.305605e+001  -3.051708e+001 
4190625000  -4.302332e+001  -4.178649e+001 
4193750000  -4.434259e+001  -4.538975e+001 
4196875000  -4.529329e+001  -4.799573e+001 
4200000000  -4.673605e+001  -3.649115e+001 
4203125000  -4.464441e+001  -3.229536e+001 
4206250000  -4.178188e+001  -4.245181e+001 
4209375000  -4.185906e+001  -6.793031e+001 
4212500000  -4.410183e+001  -7.477534e+001 
4215625000  -4.431748e+001  -6.410984e+001 
4218750000  -4.321976e+001  -6.546655e+001 
4221875000  -4.139827e+001  -7.822974e+001 
4225000000  -4.278940e+001  -9.012935e+001 
4228125000  -4.254073e+001  -9.106927e+001 
4231250000  -4.142864e+001  -9.599696e+001 
4234375000  -4.132656e+001  -1.094765e+002 
4237500000  -4.088631e+001  -1.147048e+002 
4240625000  -4.191037e+001  -1.244005e+002 
4243750000  -4.276546e+001  -1.341660e+002 
4246875000  -4.351974e+001  -1.327582e+002 
4250000000  -4.321976e+001  -1.341132e+002 
4253125000  -4.305920e+001  -1.353677e+002 
4256250000  -4.317985e+001  -1.436492e+002 
4259375000  -4.326223e+001  -1.482121e+002 
4262500000  -4.244967e+001  -1.533532e+002 
4265625000  -4.233501e+001  -1.569466e+002 
4268750000  -4.147852e+001  -1.638975e+002 
4271875000  -4.082726e+001  -1.726655e+002 
4275000000  -4.083569e+001  1.783130e+002 
4278125000  -4.193758e+001  1.667166e+002 
4281250000  -4.325479e+001  1.660995e+002 
4284375000  -4.267039e+001  1.616309e+002 
4287500000  -4.387945e+001  1.574066e+002 
4290625000  -4.395292e+001  1.634725e+002 
4293750000  -4.190036e+001  1.623280e+002 
4296875000  -4.111908e+001  1.473261e+002 
4300000000  -4.180335e+001  1.383331e+002 
4303125000  -4.226854e+001  1.381290e+002 
4306250000  -4.134594e+001  1.357384e+002 
4309375000  -4.024224e+001  1.273158e+002 
4312500000  -4.013043e+001  1.158652e+002 
4315625000  -4.052950e+001  1.046812e+002 
4318750000  -4.132005e+001  1.016556e+002 
4321875000  -4.145592e+001  1.002544e+002 
4325000000  -4.044141e+001  9.498911e+001 
4328125000  -3.978439e+001  8.287483e+001 
4331250000  -4.003421e+001  7.214873e+001 
4334375000  -4.144761e+001  6.242947e+001 
4337500000  -4.259597e+001  5.934870e+001 
4340625000  -4.256111e+001  6.445794e+001 
4343750000  -4.173860e+001  5.794476e+001 
4346875000  -4.140520e+001  4.912276e+001 
4350000000  -4.186386e+001  3.929332e+001 
4353125000  -4.278264e+001  3.068900e+001 
4356250000  -4.510345e+001  3.578862e+001 
4359375000  -4.327447e+001  5.081055e+001 
4362500000  -3.990328e+001  3.802573e+001 
4365625000  -3.966014e+001  1.755142e+001 
4368750000  -4.100164e+001  1.079506e+001 
4371875000  -4.175428e+001  7.635755e+000 
4375000000  -4.109333e+001  1.273784e+000 
4378125000  -4.123870e+001  -5.847164e+000 
4381250000  -4.112461e+001  -1.700551e+001 
4384375000  -4.110252e+001  -2.385886e+001 
4387500000  -4.187348e+001  -2.834533e+001 
4390625000  -4.274338e+001  -3.226870e+001 
4393750000  -4.226533e+001  -3.046223e+001 
4396875000  -4.176797e+001  -3.643427e+001 
4400000000  -4.118016e+001  -4.759949e+001 
4403125000  -4.249624e+001  -5.599460e+001 
4406250000  -4.272356e+001  -6.100248e+001 
4409375000  -4.304629e+001  -6.598356e+001 
4412500000  -4.436464e+001  -6.756106e+001 
4415625000  -4.388498e+001  -6.452625e+001 
4418750000  -4.234557e+001  -6.714699e+001 
