!Agilent Technologies,E8363B,MY43030201,A.06.04.32
!Agilent E8363B: A.06.04.32
!Date: Tuesday, November 11, 2014 21:49:49
!Correction: S21(Response(S21)) 
!S1P File: Measurement: S21:
# Hz S  dB   R 50
3000000000  -4.358051e+001  -1.615537e+002 
3003125000  -4.530708e+001  -1.667642e+002 
3006250000  -4.528267e+001  -1.684677e+002 
3009375000  -4.603109e+001  -1.639304e+002 
3012500000  -4.500221e+001  -1.707732e+002 
3015625000  -4.512110e+001  -1.777100e+002 
3018750000  -4.528248e+001  -1.798669e+002 
3021875000  -4.378066e+001  -1.789517e+002 
3025000000  -4.256715e+001  1.775074e+002 
3028125000  -4.182840e+001  1.639373e+002 
3031250000  -4.089147e+001  1.520638e+002 
3034375000  -4.096077e+001  1.363027e+002 
3037500000  -4.150142e+001  1.263041e+002 
3040625000  -4.280083e+001  1.208279e+002 
3043750000  -4.329679e+001  1.125235e+002 
3046875000  -4.428994e+001  1.068751e+002 
3050000000  -4.537682e+001  1.023041e+002 
3053125000  -4.515495e+001  1.053926e+002 
3056250000  -4.493385e+001  1.065589e+002 
3059375000  -4.384041e+001  1.058296e+002 
3062500000  -4.241898e+001  9.853207e+001 
3065625000  -4.210197e+001  8.861488e+001 
3068750000  -4.164003e+001  7.999065e+001 
3071875000  -4.193135e+001  7.799030e+001 
3075000000  -4.116407e+001  6.945940e+001 
3078125000  -4.112664e+001  6.396220e+001 
3081250000  -4.136549e+001  5.652966e+001 
3084375000  -4.045808e+001  5.044268e+001 
3087500000  -4.054932e+001  4.342063e+001 
3090625000  -3.996389e+001  3.099266e+001 
3093750000  -4.106364e+001  2.068912e+001 
3096875000  -4.108617e+001  1.633751e+001 
3100000000  -4.113661e+001  1.156265e+001 
3103125000  -4.134528e+001  6.821199e+000 
3106250000  -4.088403e+001  -2.747521e-001 
3109375000  -4.096353e+001  -3.041333e+000 
3112500000  -4.091834e+001  -1.180238e+001 
3115625000  -4.084783e+001  -1.607650e+001 
3118750000  -4.071974e+001  -2.059278e+001 
3121875000  -4.018347e+001  -3.367442e+001 
3125000000  -4.213473e+001  -3.782529e+001 
3128125000  -4.204408e+001  -3.010635e+001 
3131250000  -3.945950e+001  -3.969885e+001 
3134375000  -3.883841e+001  -5.643499e+001 
3137500000  -3.931408e+001  -7.040214e+001 
3140625000  -4.101514e+001  -7.573297e+001 
3143750000  -4.167065e+001  -7.883628e+001 
3146875000  -4.100417e+001  -7.841608e+001 
3150000000  -4.030059e+001  -8.329175e+001 
3153125000  -4.067728e+001  -9.295392e+001 
3156250000  -4.130328e+001  -8.798312e+001 
3159375000  -3.910941e+001  -9.217879e+001 
3162500000  -3.778844e+001  -1.090511e+002 
3165625000  -3.895278e+001  -1.228458e+002 
3168750000  -3.915081e+001  -1.248933e+002 
3171875000  -3.842385e+001  -1.333989e+002 
3175000000  -3.920524e+001  -1.443400e+002 
3178125000  -3.858177e+001  -1.460974e+002 
3181250000  -3.824664e+001  -1.561936e+002 
3184375000  -3.791120e+001  -1.662603e+002 
3187500000  -3.908464e+001  1.773223e+002 
3190625000  -4.081784e+001  1.693574e+002 
3193750000  -4.122895e+001  1.737617e+002 
3196875000  -4.107236e+001  1.744562e+002 
3200000000  -3.996333e+001  1.679930e+002 
3203125000  -3.963530e+001  1.601464e+002 
3206250000  -3.982771e+001  1.522359e+002 
3209375000  -3.944486e+001  1.427456e+002 
3212500000  -3.986197e+001  1.352243e+002 
3215625000  -3.957401e+001  1.318803e+002 
3218750000  -4.048694e+001  1.202320e+002 
3221875000  -4.055584e+001  1.130486e+002 
3225000000  -4.031575e+001  1.068382e+002 
3228125000  -4.110759e+001  1.000084e+002 
3231250000  -4.135912e+001  9.739631e+001 
3234375000  -4.110074e+001  9.334829e+001 
3237500000  -4.103052e+001  8.965638e+001 
3240625000  -4.018206e+001  8.194159e+001 
3243750000  -4.005949e+001  7.098329e+001 
3246875000  -4.055388e+001  6.381865e+001 
3250000000  -4.095707e+001  5.775038e+001 
3253125000  -4.106350e+001  5.429841e+001 
3256250000  -4.044174e+001  4.452776e+001 
3259375000  -4.096245e+001  3.058980e+001 
3262500000  -4.237498e+001  2.553401e+001 
3265625000  -4.247128e+001  2.751644e+001 
3268750000  -4.240886e+001  2.788400e+001 
3271875000  -4.150283e+001  1.956936e+001 
3275000000  -4.095147e+001  8.645267e+000 
3278125000  -4.153000e+001  2.712222e+000 
3281250000  -4.168496e+001  -2.785447e+000 
3284375000  -4.087708e+001  -9.069402e+000 
3287500000  -4.151128e+001  -1.621636e+001 
3290625000  -4.148805e+001  -2.677435e+001 
3293750000  -4.164698e+001  -3.470184e+001 
3296875000  -4.271583e+001  -3.758960e+001 
3300000000  -4.188518e+001  -4.027940e+001 
3303125000  -4.091133e+001  -5.165614e+001 
3306250000  -4.075130e+001  -6.000971e+001 
3309375000  -4.065915e+001  -7.241978e+001 
3312500000  -4.102067e+001  -8.563906e+001 
3315625000  -4.261382e+001  -9.404137e+001 
3318750000  -4.405710e+001  -9.969880e+001 
3321875000  -4.524376e+001  -1.000499e+002 
3325000000  -4.476190e+001  -9.406101e+001 
3328125000  -4.390184e+001  -9.795314e+001 
3331250000  -4.254371e+001  -9.907404e+001 
3334375000  -4.005878e+001  -1.170921e+002 
3337500000  -4.078779e+001  -1.412845e+002 
3340625000  -4.240674e+001  -1.524683e+002 
3343750000  -4.463521e+001  -1.538133e+002 
3346875000  -4.401256e+001  -1.563475e+002 
3350000000  -4.358463e+001  -1.623178e+002 
3353125000  -4.359643e+001  -1.713040e+002 
3356250000  -4.332653e+001  1.787389e+002 
3359375000  -4.428596e+001  1.655653e+002 
3362500000  -4.505456e+001  1.586890e+002 
3365625000  -4.552205e+001  1.514518e+002 
3368750000  -4.682522e+001  1.459999e+002 
3371875000  -4.695464e+001  1.391734e+002 
3375000000  -4.853038e+001  1.329700e+002 
3378125000  -4.954698e+001  1.331623e+002 
3381250000  -5.012559e+001  1.430542e+002 
3384375000  -4.708497e+001  1.527822e+002 
3387500000  -4.491104e+001  1.268554e+002 
3390625000  -4.649360e+001  1.069467e+002 
3393750000  -4.741558e+001  1.058078e+002 
3396875000  -4.608801e+001  9.757153e+001 
3400000000  -4.588976e+001  8.586442e+001 
3403125000  -4.690560e+001  7.910509e+001 
3406250000  -4.736128e+001  7.113654e+001 
3409375000  -4.741644e+001  6.319470e+001 
3412500000  -4.754752e+001  5.312831e+001 
3415625000  -4.880276e+001  5.003436e+001 
3418750000  -4.852371e+001  4.683750e+001 
3421875000  -4.914122e+001  4.188473e+001 
3425000000  -4.744117e+001  3.485694e+001 
3428125000  -4.706794e+001  2.657574e+001 
3431250000  -4.675211e+001  1.631539e+001 
3434375000  -4.670196e+001  2.902709e+000 
3437500000  -4.753931e+001  -7.221565e+000 
3440625000  -4.739038e+001  -1.069561e+001 
3443750000  -4.649571e+001  -1.167161e+001 
3446875000  -4.591530e+001  -2.881886e+001 
3450000000  -4.518912e+001  -4.276521e+001 
3453125000  -4.597117e+001  -6.271179e+001 
3456250000  -4.720860e+001  -7.032064e+001 
3459375000  -4.807963e+001  -7.335556e+001 
3462500000  -4.839370e+001  -7.663378e+001 
3465625000  -4.727383e+001  -8.671507e+001 
3468750000  -4.779607e+001  -9.658406e+001 
3471875000  -4.703919e+001  -1.046398e+002 
3475000000  -4.737893e+001  -1.137880e+002 
3478125000  -4.761292e+001  -1.325337e+002 
3481250000  -4.912242e+001  -1.355213e+002 
3484375000  -4.843027e+001  -1.347449e+002 
3487500000  -4.743710e+001  -1.429714e+002 
3490625000  -4.731282e+001  -1.540043e+002 
3493750000  -4.760866e+001  -1.680148e+002 
3496875000  -4.839511e+001  -1.665848e+002 
3500000000  -4.838240e+001  -1.729102e+002 
3503125000  -4.720719e+001  -1.756305e+002 
3506250000  -4.547633e+001  1.702411e+002 
3509375000  -4.587052e+001  1.516840e+002 
3512500000  -4.619859e+001  1.361671e+002 
3515625000  -4.750932e+001  1.301153e+002 
3518750000  -4.804595e+001  1.295992e+002 
3521875000  -4.814648e+001  1.165191e+002 
3525000000  -4.894659e+001  1.145358e+002 
3528125000  -4.779795e+001  1.176532e+002 
3531250000  -4.661744e+001  1.026822e+002 
3534375000  -4.673187e+001  9.028063e+001 
3537500000  -4.796303e+001  7.882068e+001 
3540625000  -4.887090e+001  7.824916e+001 
3543750000  -4.992864e+001  7.817229e+001 
3546875000  -4.827935e+001  8.467929e+001 
3550000000  -4.704022e+001  7.785810e+001 
3553125000  -4.614321e+001  5.366840e+001 
3556250000  -4.718466e+001  5.068555e+001 
3559375000  -4.640023e+001  3.853752e+001 
3562500000  -4.631946e+001  3.329184e+001 
3565625000  -4.749195e+001  2.610303e+001 
3568750000  -4.844538e+001  2.187031e+001 
3571875000  -4.781105e+001  1.945154e+001 
3575000000  -4.684111e+001  1.136833e+001 
3578125000  -4.770554e+001  5.987131e+000 
3581250000  -4.772243e+001  7.360191e-002 
3584375000  -4.579068e+001  -6.584071e+000 
3587500000  -4.603812e+001  -1.746087e+001 
3590625000  -4.661446e+001  -2.550979e+001 
3593750000  -4.774049e+001  -2.498686e+001 
3596875000  -4.692420e+001  -2.273454e+001 
3600000000  -4.491136e+001  -3.324082e+001 
3603125000  -4.509898e+001  -5.094355e+001 
3606250000  -4.636432e+001  -5.512397e+001 
3609375000  -4.618948e+001  -6.071772e+001 
3612500000  -4.559354e+001  -6.490967e+001 
3615625000  -4.626033e+001  -6.989083e+001 
3618750000  -4.633622e+001  -7.060336e+001 
3621875000  -4.538261e+001  -7.801080e+001 
3625000000  -4.555358e+001  -8.187366e+001 
3628125000  -4.457719e+001  -9.120573e+001 
3631250000  -4.478320e+001  -9.918352e+001 
3634375000  -4.538699e+001  -1.006333e+002 
3637500000  -4.429670e+001  -1.003867e+002 
3640625000  -4.365552e+001  -1.100887e+002 
3643750000  -4.307742e+001  -1.203701e+002 
3646875000  -4.367014e+001  -1.307349e+002 
3650000000  -4.385395e+001  -1.351227e+002 
3653125000  -4.311733e+001  -1.439465e+002 
3656250000  -4.351765e+001  -1.512256e+002 
3659375000  -4.355222e+001  -1.525018e+002 
3662500000  -4.330061e+001  -1.612122e+002 
3665625000  -4.336218e+001  -1.633848e+002 
3668750000  -4.194285e+001  -1.707685e+002 
3671875000  -4.144961e+001  1.763700e+002 
3675000000  -4.229353e+001  1.664619e+002 
3678125000  -4.273192e+001  1.627576e+002 
3681250000  -4.249014e+001  1.557196e+002 
3684375000  -4.247909e+001  1.467006e+002 
3687500000  -4.307076e+001  1.380134e+002 
3690625000  -4.381003e+001  1.348164e+002 
3693750000  -4.466120e+001  1.318215e+002 
3696875000  -4.365645e+001  1.294374e+002 
3700000000  -4.329964e+001  1.196497e+002 
3703125000  -4.398019e+001  1.127420e+002 
3706250000  -4.452097e+001  1.088317e+002 
3709375000  -4.390413e+001  1.113245e+002 
3712500000  -4.281386e+001  1.022151e+002 
3715625000  -4.175435e+001  9.395819e+001 
3718750000  -4.190449e+001  8.463808e+001 
3721875000  -4.180804e+001  7.568547e+001 
3725000000  -4.225924e+001  6.989907e+001 
3728125000  -4.240098e+001  6.570988e+001 
3731250000  -4.173309e+001  5.848507e+001 
3734375000  -4.190112e+001  5.182963e+001 
3737500000  -4.266589e+001  4.307072e+001 
3740625000  -4.303286e+001  3.595093e+001 
3743750000  -4.289743e+001  3.004656e+001 
3746875000  -4.314861e+001  2.299685e+001 
3750000000  -4.391299e+001  2.094674e+001 
3753125000  -4.383133e+001  1.622087e+001 
3756250000  -4.388647e+001  1.543352e+001 
3759375000  -4.380120e+001  8.430499e+000 
3762500000  -4.325487e+001  4.303842e+000 
3765625000  -4.415305e+001  -2.331272e+000 
3768750000  -4.359341e+001  -1.883576e+000 
3771875000  -4.183502e+001  -1.080950e+001 
3775000000  -4.202532e+001  -2.092849e+001 
3778125000  -4.266032e+001  -2.680221e+001 
3781250000  -4.274837e+001  -3.006825e+001 
3784375000  -4.249472e+001  -3.826450e+001 
3787500000  -4.235631e+001  -4.276837e+001 
3790625000  -4.300373e+001  -5.458905e+001 
3793750000  -4.267856e+001  -5.583325e+001 
3796875000  -4.152211e+001  -6.016866e+001 
3800000000  -4.081656e+001  -6.722057e+001 
3803125000  -4.169627e+001  -8.219802e+001 
3806250000  -4.236039e+001  -8.416547e+001 
3809375000  -4.197758e+001  -8.880442e+001 
3812500000  -4.175430e+001  -1.016939e+002 
3815625000  -4.296361e+001  -1.122844e+002 
3818750000  -4.435055e+001  -1.100400e+002 
3821875000  -4.334084e+001  -9.918405e+001 
3825000000  -4.137930e+001  -1.054692e+002 
3828125000  -4.049456e+001  -1.277537e+002 
3831250000  -4.191028e+001  -1.453454e+002 
3834375000  -4.368740e+001  -1.439695e+002 
3837500000  -4.412270e+001  -1.410372e+002 
3840625000  -4.230784e+001  -1.438130e+002 
3843750000  -4.178212e+001  -1.620205e+002 
3846875000  -4.334002e+001  -1.659062e+002 
3850000000  -4.407442e+001  -1.602117e+002 
3853125000  -4.334089e+001  -1.641023e+002 
3856250000  -4.303901e+001  -1.715179e+002 
3859375000  -4.180998e+001  -1.786755e+002 
3862500000  -4.213122e+001  1.690840e+002 
3865625000  -4.255016e+001  1.606921e+002 
3868750000  -4.186899e+001  1.586393e+002 
3871875000  -4.195092e+001  1.506773e+002 
3875000000  -4.256482e+001  1.416528e+002 
3878125000  -4.331232e+001  1.372862e+002 
3881250000  -4.322692e+001  1.376523e+002 
3884375000  -4.281404e+001  1.275397e+002 
3887500000  -4.309171e+001  1.223895e+002 
3890625000  -4.360083e+001  1.176347e+002 
3893750000  -4.410740e+001  1.149175e+002 
3896875000  -4.472208e+001  1.113729e+002 
3900000000  -4.426223e+001  1.055311e+002 
3903125000  -4.358787e+001  1.000584e+002 
3906250000  -4.339943e+001  9.523364e+001 
3909375000  -4.266088e+001  8.824279e+001 
3912500000  -4.356109e+001  7.844540e+001 
3915625000  -4.483913e+001  7.931184e+001 
3918750000  -4.473206e+001  7.964924e+001 
3921875000  -4.370722e+001  7.180094e+001 
3925000000  -4.298233e+001  6.319046e+001 
3928125000  -4.301121e+001  5.590887e+001 
3931250000  -4.342332e+001  4.700103e+001 
3934375000  -4.394838e+001  4.625571e+001 
3937500000  -4.470878e+001  4.514899e+001 
3940625000  -4.429414e+001  4.134370e+001 
3943750000  -4.324653e+001  3.807217e+001 
3946875000  -4.264983e+001  2.681052e+001 
3950000000  -4.380074e+001  1.847255e+001 
3953125000  -4.411977e+001  1.789550e+001 
3956250000  -4.282395e+001  1.912638e+001 
3959375000  -4.189865e+001  1.212377e+001 
3962500000  -4.155746e+001  1.564438e+000 
3965625000  -4.193644e+001  -7.903409e+000 
3968750000  -4.256466e+001  -1.762973e+001 
3971875000  -4.239875e+001  -2.274649e+001 
3975000000  -4.180288e+001  -2.679653e+001 
3978125000  -4.213576e+001  -3.424876e+001 
3981250000  -4.184648e+001  -4.049118e+001 
3984375000  -4.253466e+001  -4.886464e+001 
3987500000  -4.283953e+001  -5.183945e+001 
3990625000  -4.279904e+001  -5.843865e+001 
3993750000  -4.273430e+001  -6.483293e+001 
3996875000  -4.292447e+001  -7.200509e+001 
4000000000  -4.403978e+001  -7.105928e+001 
4003125000  -4.360338e+001  -7.377392e+001 
4006250000  -4.202943e+001  -7.964168e+001 
4009375000  -4.113641e+001  -9.924587e+001 
4012500000  -4.277564e+001  -1.053336e+002 
4015625000  -4.381765e+001  -1.057408e+002 
4018750000  -4.373807e+001  -1.081141e+002 
4021875000  -4.308781e+001  -1.155495e+002 
4025000000  -4.304321e+001  -1.218327e+002 
4028125000  -4.330407e+001  -1.298902e+002 
4031250000  -4.398723e+001  -1.354341e+002 
4034375000  -4.399167e+001  -1.401415e+002 
4037500000  -4.369312e+001  -1.438454e+002 
4040625000  -4.415094e+001  -1.487023e+002 
4043750000  -4.404823e+001  -1.517462e+002 
4046875000  -4.383674e+001  -1.588298e+002 
4050000000  -4.433483e+001  -1.658266e+002 
4053125000  -4.531660e+001  -1.704460e+002 
4056250000  -4.562505e+001  -1.628716e+002 
4059375000  -4.372905e+001  -1.655363e+002 
4062500000  -4.350807e+001  -1.750745e+002 
4065625000  -4.329636e+001  1.786398e+002 
4068750000  -4.298203e+001  1.726870e+002 
4071875000  -4.304850e+001  1.627113e+002 
4075000000  -4.353190e+001  1.531420e+002 
4078125000  -4.368486e+001  1.486659e+002 
4081250000  -4.335696e+001  1.451460e+002 
4084375000  -4.315135e+001  1.374763e+002 
4087500000  -4.410392e+001  1.293755e+002 
4090625000  -4.467941e+001  1.242449e+002 
4093750000  -4.449195e+001  1.246818e+002 
4096875000  -4.438914e+001  1.156813e+002 
4100000000  -4.522392e+001  1.078348e+002 
4103125000  -4.572606e+001  1.130764e+002 
4106250000  -4.520636e+001  1.145205e+002 
4109375000  -4.437339e+001  1.071582e+002 
4112500000  -4.398792e+001  9.930903e+001 
4115625000  -4.438935e+001  9.662079e+001 
4118750000  -4.414795e+001  8.465664e+001 
4121875000  -4.359528e+001  8.349854e+001 
4125000000  -4.435893e+001  7.403622e+001 
4128125000  -4.549543e+001  7.753430e+001 
4131250000  -4.394835e+001  8.225401e+001 
4134375000  -4.164828e+001  6.839243e+001 
4137500000  -4.202299e+001  4.822026e+001 
4140625000  -4.412880e+001  4.029117e+001 
4143750000  -4.486493e+001  4.636989e+001 
4146875000  -4.394351e+001  4.814463e+001 
4150000000  -4.267458e+001  3.986389e+001 
4153125000  -4.319222e+001  2.699582e+001 
4156250000  -4.376869e+001  2.436285e+001 
4159375000  -4.395263e+001  2.577938e+001 
4162500000  -4.268400e+001  2.414909e+001 
4165625000  -4.140532e+001  1.488532e+001 
4168750000  -4.127062e+001  3.808210e+000 
4171875000  -4.085345e+001  -5.851006e+000 
4175000000  -4.194792e+001  -1.502438e+001 
4178125000  -4.223541e+001  -1.969010e+001 
4181250000  -4.191705e+001  -2.265483e+001 
4184375000  -4.225980e+001  -3.157936e+001 
4187500000  -4.229156e+001  -3.934317e+001 
4190625000  -4.254593e+001  -4.798648e+001 
4193750000  -4.413692e+001  -5.130781e+001 
4196875000  -4.499346e+001  -5.284136e+001 
4200000000  -4.579536e+001  -4.957693e+001 
4203125000  -4.474967e+001  -3.587609e+001 
4206250000  -4.129226e+001  -4.911361e+001 
4209375000  -4.118309e+001  -7.253112e+001 
4212500000  -4.388652e+001  -8.159734e+001 
4215625000  -4.368031e+001  -7.549766e+001 
4218750000  -4.261299e+001  -7.347807e+001 
4221875000  -4.131074e+001  -8.501326e+001 
4225000000  -4.249800e+001  -9.370018e+001 
4228125000  -4.219748e+001  -9.560716e+001 
4231250000  -4.087408e+001  -1.029484e+002 
4234375000  -4.077467e+001  -1.153631e+002 
4237500000  -4.053767e+001  -1.200099e+002 
4240625000  -4.119905e+001  -1.311573e+002 
4243750000  -4.231376e+001  -1.410590e+002 
4246875000  -4.288122e+001  -1.404309e+002 
4250000000  -4.292926e+001  -1.412572e+002 
4253125000  -4.263845e+001  -1.434910e+002 
4256250000  -4.228398e+001  -1.492215e+002 
4259375000  -4.185122e+001  -1.557419e+002 
4262500000  -4.196404e+001  -1.629279e+002 
4265625000  -4.223594e+001  -1.629518e+002 
4268750000  -4.073285e+001  -1.731585e+002 
4271875000  -4.059573e+001  -1.795402e+002 
4275000000  -4.010583e+001  1.690418e+002 
4278125000  -4.131575e+001  1.568806e+002 
4281250000  -4.241924e+001  1.556904e+002 
4284375000  -4.180849e+001  1.488992e+002 
4287500000  -4.351473e+001  1.449127e+002 
4290625000  -4.355617e+001  1.557375e+002 
4293750000  -4.159395e+001  1.531686e+002 
4296875000  -4.031213e+001  1.359729e+002 
4300000000  -4.152169e+001  1.288529e+002 
4303125000  -4.186882e+001  1.310438e+002 
4306250000  -4.046766e+001  1.282997e+002 
4309375000  -3.988274e+001  1.204162e+002 
4312500000  -3.968042e+001  1.082318e+002 
4315625000  -4.033091e+001  9.623460e+001 
4318750000  -4.067496e+001  9.120557e+001 
4321875000  -4.080556e+001  8.982995e+001 
4325000000  -4.017469e+001  8.708716e+001 
4328125000  -3.946400e+001  7.429275e+001 
4331250000  -3.980639e+001  6.079271e+001 
4334375000  -4.067223e+001  5.374690e+001 
4337500000  -4.177094e+001  4.991172e+001 
4340625000  -4.207354e+001  5.409761e+001 
4343750000  -4.122110e+001  5.130507e+001 
4346875000  -4.091368e+001  3.944506e+001 
4350000000  -4.105964e+001  3.287032e+001 
4353125000  -4.186413e+001  2.423589e+001 
4356250000  -4.389694e+001  2.299781e+001 
4359375000  -4.251763e+001  4.148448e+001 
4362500000  -3.948425e+001  2.592139e+001 
4365625000  -3.886662e+001  9.880846e+000 
4368750000  -4.039651e+001  -7.112216e-001 
4371875000  -4.126917e+001  -3.887975e+000 
4375000000  -4.064028e+001  -6.469438e+000 
4378125000  -4.046292e+001  -1.507588e+001 
4381250000  -4.045350e+001  -2.469872e+001 
4384375000  -4.032920e+001  -3.103344e+001 
4387500000  -4.142554e+001  -3.741957e+001 
4390625000  -4.213276e+001  -3.933872e+001 
4393750000  -4.134097e+001  -4.216715e+001 
4396875000  -4.100088e+001  -4.873309e+001 
4400000000  -4.051471e+001  -5.699485e+001 
4403125000  -4.181329e+001  -6.790873e+001 
4406250000  -4.204370e+001  -7.192660e+001 
4409375000  -4.220847e+001  -7.404122e+001 
4412500000  -4.350958e+001  -7.689488e+001 
4415625000  -4.332939e+001  -7.581527e+001 
4418750000  -4.167920e+001  -7.456570e+001 
