!Agilent Technologies,E8363B,MY43030201,A.06.04.32
!Agilent E8363B: A.06.04.32
!Date: Tuesday, November 11, 2014 21:44:54
!Correction: S21(Response(S21)) 
!S1P File: Measurement: S21:
# Hz S  dB   R 50
3000000000  -4.354171e+001  -1.619270e+002 
3003125000  -4.517373e+001  -1.653481e+002 
3006250000  -4.532217e+001  -1.674949e+002 
3009375000  -4.626055e+001  -1.630526e+002 
3012500000  -4.502502e+001  -1.705258e+002 
3015625000  -4.497127e+001  -1.788044e+002 
3018750000  -4.521565e+001  -1.766285e+002 
3021875000  -4.383134e+001  -1.783005e+002 
3025000000  -4.228783e+001  1.775125e+002 
3028125000  -4.165688e+001  1.661952e+002 
3031250000  -4.083216e+001  1.530369e+002 
3034375000  -4.072572e+001  1.386982e+002 
3037500000  -4.164137e+001  1.285159e+002 
3040625000  -4.286365e+001  1.215354e+002 
3043750000  -4.320072e+001  1.140390e+002 
3046875000  -4.389944e+001  1.079072e+002 
3050000000  -4.527385e+001  1.016330e+002 
3053125000  -4.480287e+001  1.074579e+002 
3056250000  -4.472008e+001  1.101303e+002 
3059375000  -4.372374e+001  1.090738e+002 
3062500000  -4.244310e+001  1.024124e+002 
3065625000  -4.208502e+001  9.052354e+001 
3068750000  -4.150029e+001  8.255794e+001 
3071875000  -4.182039e+001  7.894722e+001 
3075000000  -4.123631e+001  6.986552e+001 
3078125000  -4.136100e+001  6.344624e+001 
3081250000  -4.142160e+001  5.693828e+001 
3084375000  -4.052515e+001  5.232765e+001 
3087500000  -4.066919e+001  4.515083e+001 
3090625000  -3.995718e+001  3.118853e+001 
3093750000  -4.093771e+001  2.291352e+001 
3096875000  -4.126701e+001  1.682799e+001 
3100000000  -4.118155e+001  1.325955e+001 
3103125000  -4.137349e+001  8.758486e+000 
3106250000  -4.088455e+001  3.383745e+000 
3109375000  -4.096213e+001  -1.241995e+000 
3112500000  -4.091714e+001  -1.000416e+001 
3115625000  -4.088457e+001  -1.524272e+001 
3118750000  -4.061987e+001  -2.052530e+001 
3121875000  -4.023465e+001  -3.327356e+001 
3125000000  -4.208229e+001  -3.575071e+001 
3128125000  -4.194468e+001  -3.030260e+001 
3131250000  -3.939868e+001  -3.861154e+001 
3134375000  -3.910049e+001  -5.582560e+001 
3137500000  -3.942943e+001  -6.922823e+001 
3140625000  -4.093111e+001  -7.371497e+001 
3143750000  -4.150611e+001  -7.627696e+001 
3146875000  -4.088599e+001  -7.553090e+001 
3150000000  -4.042028e+001  -8.239516e+001 
3153125000  -4.068667e+001  -9.183870e+001 
3156250000  -4.162714e+001  -8.884075e+001 
3159375000  -3.913089e+001  -9.116693e+001 
3162500000  -3.780851e+001  -1.075196e+002 
3165625000  -3.912692e+001  -1.220624e+002 
3168750000  -3.906944e+001  -1.237225e+002 
3171875000  -3.867368e+001  -1.325042e+002 
3175000000  -3.909227e+001  -1.422061e+002 
3178125000  -3.883738e+001  -1.449575e+002 
3181250000  -3.823337e+001  -1.546749e+002 
3184375000  -3.782875e+001  -1.655008e+002 
3187500000  -3.924791e+001  1.778715e+002 
3190625000  -4.088189e+001  1.703783e+002 
3193750000  -4.123107e+001  1.762544e+002 
3196875000  -4.131562e+001  1.758884e+002 
3200000000  -3.992188e+001  1.691097e+002 
3203125000  -3.968516e+001  1.605090e+002 
3206250000  -3.970903e+001  1.518433e+002 
3209375000  -3.948985e+001  1.442285e+002 
3212500000  -3.981713e+001  1.354049e+002 
3215625000  -3.975806e+001  1.323601e+002 
3218750000  -4.034678e+001  1.211547e+002 
3221875000  -4.045473e+001  1.139518e+002 
3225000000  -4.034719e+001  1.092992e+002 
3228125000  -4.105016e+001  1.004816e+002 
3231250000  -4.143242e+001  9.709658e+001 
3234375000  -4.132420e+001  9.431083e+001 
3237500000  -4.109721e+001  8.967500e+001 
3240625000  -4.052305e+001  8.301443e+001 
3243750000  -4.045118e+001  7.157416e+001 
3246875000  -4.063757e+001  6.367879e+001 
3250000000  -4.112474e+001  5.928642e+001 
3253125000  -4.108126e+001  5.502867e+001 
3256250000  -4.030402e+001  4.513083e+001 
3259375000  -4.114695e+001  3.157402e+001 
3262500000  -4.247085e+001  2.736646e+001 
3265625000  -4.274730e+001  2.868806e+001 
3268750000  -4.278933e+001  2.737645e+001 
3271875000  -4.185593e+001  2.043859e+001 
3275000000  -4.128913e+001  1.073662e+001 
3278125000  -4.160706e+001  4.638795e+000 
3281250000  -4.174849e+001  -2.737011e-001 
3284375000  -4.112420e+001  -8.148088e+000 
3287500000  -4.151282e+001  -1.702694e+001 
3290625000  -4.161117e+001  -2.657995e+001 
3293750000  -4.172803e+001  -3.403334e+001 
3296875000  -4.305349e+001  -3.802945e+001 
3300000000  -4.204447e+001  -4.060641e+001 
3303125000  -4.100600e+001  -4.912898e+001 
3306250000  -4.106717e+001  -5.885402e+001 
3309375000  -4.089787e+001  -7.115640e+001 
3312500000  -4.128412e+001  -8.654689e+001 
3315625000  -4.226582e+001  -9.316143e+001 
3318750000  -4.402782e+001  -1.021175e+002 
3321875000  -4.525592e+001  -9.923251e+001 
3325000000  -4.518979e+001  -9.445939e+001 
3328125000  -4.423831e+001  -9.857983e+001 
3331250000  -4.260802e+001  -9.974948e+001 
3334375000  -4.020374e+001  -1.157291e+002 
3337500000  -4.104830e+001  -1.407047e+002 
3340625000  -4.304857e+001  -1.504760e+002 
3343750000  -4.463093e+001  -1.537590e+002 
3346875000  -4.428849e+001  -1.560997e+002 
3350000000  -4.360357e+001  -1.622095e+002 
3353125000  -4.394897e+001  -1.701559e+002 
3356250000  -4.355697e+001  1.799659e+002 
3359375000  -4.441387e+001  1.670499e+002 
3362500000  -4.501759e+001  1.582712e+002 
3365625000  -4.572463e+001  1.507343e+002 
3368750000  -4.636086e+001  1.445188e+002 
3371875000  -4.709500e+001  1.386031e+002 
3375000000  -4.884417e+001  1.326839e+002 
3378125000  -4.939025e+001  1.341820e+002 
3381250000  -5.112259e+001  1.420658e+002 
3384375000  -4.756349e+001  1.486318e+002 
3387500000  -4.578789e+001  1.268726e+002 
3390625000  -4.728527e+001  1.038014e+002 
3393750000  -4.807186e+001  1.043288e+002 
3396875000  -4.640326e+001  9.958353e+001 
3400000000  -4.613382e+001  8.906137e+001 
3403125000  -4.641471e+001  8.126460e+001 
3406250000  -4.723510e+001  6.878807e+001 
3409375000  -4.741386e+001  6.283841e+001 
3412500000  -4.788983e+001  5.118167e+001 
3415625000  -4.896413e+001  4.553980e+001 
3418750000  -4.847886e+001  4.450153e+001 
3421875000  -4.937378e+001  3.915361e+001 
3425000000  -4.774810e+001  3.568302e+001 
3428125000  -4.759043e+001  2.897403e+001 
3431250000  -4.712720e+001  1.352096e+001 
3434375000  -4.727409e+001  2.143453e+000 
3437500000  -4.759373e+001  -7.238657e+000 
3440625000  -4.792152e+001  -8.747828e+000 
3443750000  -4.665095e+001  -1.375558e+001 
3446875000  -4.564198e+001  -2.980088e+001 
3450000000  -4.544133e+001  -4.258203e+001 
3453125000  -4.564740e+001  -6.069544e+001 
3456250000  -4.718348e+001  -6.990715e+001 
3459375000  -4.817585e+001  -7.211475e+001 
3462500000  -4.803107e+001  -7.446049e+001 
3465625000  -4.682673e+001  -8.993391e+001 
3468750000  -4.731923e+001  -9.624569e+001 
3471875000  -4.722572e+001  -9.990594e+001 
3475000000  -4.693505e+001  -1.146832e+002 
3478125000  -4.763200e+001  -1.274269e+002 
3481250000  -4.936010e+001  -1.386678e+002 
3484375000  -4.845870e+001  -1.336840e+002 
3487500000  -4.737722e+001  -1.412781e+002 
3490625000  -4.727237e+001  -1.521031e+002 
3493750000  -4.727084e+001  -1.664756e+002 
3496875000  -4.811085e+001  -1.690259e+002 
3500000000  -4.824162e+001  -1.731674e+002 
3503125000  -4.712983e+001  -1.750258e+002 
3506250000  -4.551371e+001  1.740960e+002 
3509375000  -4.578762e+001  1.542372e+002 
3512500000  -4.587613e+001  1.366311e+002 
3515625000  -4.719107e+001  1.320131e+002 
3518750000  -4.748448e+001  1.326319e+002 
3521875000  -4.797802e+001  1.208925e+002 
3525000000  -4.875338e+001  1.116879e+002 
3528125000  -4.741828e+001  1.178459e+002 
3531250000  -4.650601e+001  1.050669e+002 
3534375000  -4.645772e+001  9.017321e+001 
3537500000  -4.763292e+001  7.920300e+001 
3540625000  -4.860557e+001  7.635240e+001 
3543750000  -4.952131e+001  7.653196e+001 
3546875000  -4.790510e+001  8.104547e+001 
3550000000  -4.684278e+001  7.812394e+001 
3553125000  -4.609340e+001  5.557062e+001 
3556250000  -4.718450e+001  4.711349e+001 
3559375000  -4.650905e+001  4.571268e+001 
3562500000  -4.703648e+001  3.288383e+001 
3565625000  -4.748617e+001  2.297163e+001 
3568750000  -4.779528e+001  2.445348e+001 
3571875000  -4.737519e+001  1.815240e+001 
3575000000  -4.738479e+001  1.360040e+001 
3578125000  -4.787839e+001  1.008526e+001 
3581250000  -4.714531e+001  5.680522e+000 
3584375000  -4.582277e+001  -5.962304e+000 
3587500000  -4.609343e+001  -1.299436e+001 
3590625000  -4.685309e+001  -2.425443e+001 
3593750000  -4.780437e+001  -2.400091e+001 
3596875000  -4.646964e+001  -2.252180e+001 
3600000000  -4.471155e+001  -3.235695e+001 
3603125000  -4.531359e+001  -4.890970e+001 
3606250000  -4.616590e+001  -5.132758e+001 
3609375000  -4.609453e+001  -5.572063e+001 
3612500000  -4.567046e+001  -6.163710e+001 
3615625000  -4.591341e+001  -6.919632e+001 
3618750000  -4.622590e+001  -7.105527e+001 
3621875000  -4.514438e+001  -7.612288e+001 
3625000000  -4.574196e+001  -8.137700e+001 
3628125000  -4.479657e+001  -8.731094e+001 
3631250000  -4.488702e+001  -9.481242e+001 
3634375000  -4.562055e+001  -9.941016e+001 
3637500000  -4.438757e+001  -9.895829e+001 
3640625000  -4.347242e+001  -1.048772e+002 
3643750000  -4.338741e+001  -1.167524e+002 
3646875000  -4.378102e+001  -1.275028e+002 
3650000000  -4.369032e+001  -1.346753e+002 
3653125000  -4.332215e+001  -1.433674e+002 
3656250000  -4.409240e+001  -1.457756e+002 
3659375000  -4.381287e+001  -1.519122e+002 
3662500000  -4.346109e+001  -1.606756e+002 
3665625000  -4.322885e+001  -1.615536e+002 
3668750000  -4.211951e+001  -1.674506e+002 
3671875000  -4.159396e+001  1.786620e+002 
3675000000  -4.207822e+001  1.683020e+002 
3678125000  -4.243428e+001  1.637642e+002 
3681250000  -4.279659e+001  1.563185e+002 
3684375000  -4.272062e+001  1.496254e+002 
3687500000  -4.287706e+001  1.403426e+002 
3690625000  -4.361851e+001  1.336752e+002 
3693750000  -4.450573e+001  1.325092e+002 
3696875000  -4.394216e+001  1.315373e+002 
3700000000  -4.299877e+001  1.233743e+002 
3703125000  -4.356500e+001  1.157350e+002 
3706250000  -4.462722e+001  1.123067e+002 
3709375000  -4.378395e+001  1.109211e+002 
3712500000  -4.290376e+001  1.051039e+002 
3715625000  -4.182249e+001  9.673895e+001 
3718750000  -4.194460e+001  8.643486e+001 
3721875000  -4.200699e+001  7.830309e+001 
3725000000  -4.244413e+001  7.307319e+001 
3728125000  -4.241980e+001  6.836819e+001 
3731250000  -4.209455e+001  6.086712e+001 
3734375000  -4.213287e+001  5.314599e+001 
3737500000  -4.278625e+001  4.451049e+001 
3740625000  -4.316366e+001  3.979360e+001 
3743750000  -4.271890e+001  3.238575e+001 
3746875000  -4.314217e+001  2.474488e+001 
3750000000  -4.358387e+001  2.057911e+001 
3753125000  -4.373375e+001  1.928689e+001 
3756250000  -4.381870e+001  1.339566e+001 
3759375000  -4.363914e+001  1.166175e+001 
3762500000  -4.362381e+001  6.927453e+000 
3765625000  -4.443790e+001  -1.037250e+000 
3768750000  -4.359757e+001  -5.669151e-001 
3771875000  -4.220890e+001  -6.982049e+000 
3775000000  -4.202424e+001  -1.690341e+001 
3778125000  -4.257489e+001  -2.387502e+001 
3781250000  -4.277909e+001  -2.773989e+001 
3784375000  -4.248813e+001  -3.506696e+001 
3787500000  -4.249714e+001  -3.967316e+001 
3790625000  -4.251220e+001  -4.890078e+001 
3793750000  -4.301585e+001  -5.459511e+001 
3796875000  -4.166885e+001  -5.707098e+001 
3800000000  -4.077286e+001  -6.550205e+001 
3803125000  -4.170582e+001  -7.800560e+001 
3806250000  -4.224955e+001  -8.108688e+001 
3809375000  -4.173790e+001  -8.811797e+001 
3812500000  -4.195523e+001  -9.836582e+001 
3815625000  -4.317670e+001  -1.107634e+002 
3818750000  -4.426004e+001  -1.051489e+002 
3821875000  -4.335565e+001  -9.648256e+001 
3825000000  -4.152820e+001  -1.037278e+002 
3828125000  -4.060350e+001  -1.254518e+002 
3831250000  -4.137488e+001  -1.384686e+002 
3834375000  -4.361589e+001  -1.409347e+002 
3837500000  -4.347125e+001  -1.372141e+002 
3840625000  -4.230407e+001  -1.452229e+002 
3843750000  -4.154040e+001  -1.571965e+002 
3846875000  -4.340258e+001  -1.622769e+002 
3850000000  -4.424020e+001  -1.596108e+002 
3853125000  -4.369045e+001  -1.612789e+002 
3856250000  -4.262556e+001  -1.723851e+002 
3859375000  -4.202589e+001  -1.797861e+002 
3862500000  -4.192091e+001  1.707691e+002 
3865625000  -4.262473e+001  1.633166e+002 
3868750000  -4.249600e+001  1.627683e+002 
3871875000  -4.172442e+001  1.537374e+002 
3875000000  -4.226699e+001  1.407448e+002 
3878125000  -4.326365e+001  1.422973e+002 
3881250000  -4.342282e+001  1.389165e+002 
3884375000  -4.256482e+001  1.302819e+002 
3887500000  -4.296334e+001  1.227730e+002 
3890625000  -4.393210e+001  1.185377e+002 
3893750000  -4.427006e+001  1.173982e+002 
3896875000  -4.451511e+001  1.128723e+002 
3900000000  -4.470501e+001  1.088564e+002 
3903125000  -4.391370e+001  1.023305e+002 
3906250000  -4.329346e+001  1.003799e+002 
3909375000  -4.316486e+001  8.977609e+001 
3912500000  -4.376522e+001  8.007353e+001 
3915625000  -4.484554e+001  7.985343e+001 
3918750000  -4.464378e+001  7.830320e+001 
3921875000  -4.378729e+001  7.419373e+001 
3925000000  -4.352353e+001  6.871402e+001 
3928125000  -4.282561e+001  5.856293e+001 
3931250000  -4.382415e+001  4.908806e+001 
3934375000  -4.396790e+001  4.877720e+001 
3937500000  -4.440614e+001  4.387221e+001 
3940625000  -4.481915e+001  4.673436e+001 
3943750000  -4.356576e+001  3.993985e+001 
3946875000  -4.268473e+001  2.842347e+001 
3950000000  -4.391899e+001  2.176509e+001 
3953125000  -4.466816e+001  1.966541e+001 
3956250000  -4.256331e+001  2.045706e+001 
3959375000  -4.177957e+001  1.652553e+001 
3962500000  -4.160199e+001  3.316023e+000 
3965625000  -4.224194e+001  -9.751197e+000 
3968750000  -4.251690e+001  -1.417948e+001 
3971875000  -4.247552e+001  -2.034295e+001 
3975000000  -4.230099e+001  -2.432130e+001 
3978125000  -4.202421e+001  -3.290447e+001 
3981250000  -4.211849e+001  -3.918905e+001 
3984375000  -4.248648e+001  -4.748390e+001 
3987500000  -4.349600e+001  -5.092352e+001 
3990625000  -4.341438e+001  -5.321511e+001 
3993750000  -4.316679e+001  -6.020037e+001 
3996875000  -4.293823e+001  -6.959721e+001 
4000000000  -4.370046e+001  -7.096764e+001 
4003125000  -4.351736e+001  -7.200751e+001 
4006250000  -4.224315e+001  -7.772227e+001 
4009375000  -4.168727e+001  -9.256878e+001 
4012500000  -4.341850e+001  -1.005797e+002 
4015625000  -4.409804e+001  -1.047320e+002 
4018750000  -4.385511e+001  -1.079139e+002 
4021875000  -4.359875e+001  -1.153422e+002 
4025000000  -4.299308e+001  -1.222070e+002 
4028125000  -4.351814e+001  -1.280090e+002 
4031250000  -4.400055e+001  -1.343912e+002 
4034375000  -4.426464e+001  -1.406518e+002 
4037500000  -4.428116e+001  -1.383521e+002 
4040625000  -4.445799e+001  -1.468096e+002 
4043750000  -4.451439e+001  -1.508914e+002 
4046875000  -4.450789e+001  -1.567774e+002 
4050000000  -4.473445e+001  -1.601573e+002 
4053125000  -4.570598e+001  -1.669944e+002 
4056250000  -4.590116e+001  -1.605403e+002 
4059375000  -4.378725e+001  -1.653548e+002 
4062500000  -4.371159e+001  -1.748075e+002 
4065625000  -4.372969e+001  1.794221e+002 
4068750000  -4.339803e+001  1.714883e+002 
4071875000  -4.285210e+001  1.614136e+002 
4075000000  -4.346776e+001  1.558949e+002 
4078125000  -4.453698e+001  1.511040e+002 
4081250000  -4.368309e+001  1.462750e+002 
4084375000  -4.388751e+001  1.380959e+002 
4087500000  -4.424045e+001  1.280317e+002 
4090625000  -4.464744e+001  1.285404e+002 
4093750000  -4.464520e+001  1.250885e+002 
4096875000  -4.436995e+001  1.176577e+002 
4100000000  -4.576566e+001  1.102664e+002 
4103125000  -4.603413e+001  1.168267e+002 
4106250000  -4.557268e+001  1.179684e+002 
4109375000  -4.450651e+001  1.125608e+002 
4112500000  -4.435915e+001  1.009096e+002 
4115625000  -4.471569e+001  9.933075e+001 
4118750000  -4.423489e+001  9.219730e+001 
4121875000  -4.384030e+001  8.560243e+001 
4125000000  -4.476212e+001  7.942819e+001 
4128125000  -4.524302e+001  8.003896e+001 
4131250000  -4.447230e+001  8.423106e+001 
4134375000  -4.215509e+001  7.342841e+001 
4137500000  -4.238344e+001  5.342805e+001 
4140625000  -4.459081e+001  4.651462e+001 
4143750000  -4.502699e+001  4.918831e+001 
4146875000  -4.427834e+001  4.748698e+001 
4150000000  -4.295993e+001  3.900272e+001 
4153125000  -4.367073e+001  3.253263e+001 
4156250000  -4.441763e+001  3.038563e+001 
4159375000  -4.394861e+001  2.889989e+001 
4162500000  -4.258033e+001  2.893053e+001 
4165625000  -4.162595e+001  1.779807e+001 
4168750000  -4.164336e+001  7.899694e+000 
4171875000  -4.130328e+001  -4.516284e+000 
4175000000  -4.185302e+001  -1.311567e+001 
4178125000  -4.289917e+001  -1.791232e+001 
4181250000  -4.230051e+001  -2.276959e+001 
4184375000  -4.292469e+001  -2.837807e+001 
4187500000  -4.264854e+001  -3.532700e+001 
4190625000  -4.267062e+001  -4.492131e+001 
4193750000  -4.436029e+001  -4.916322e+001 
4196875000  -4.497533e+001  -5.255187e+001 
4200000000  -4.645056e+001  -4.563805e+001 
4203125000  -4.490524e+001  -3.814280e+001 
4206250000  -4.137569e+001  -4.892394e+001 
4209375000  -4.158308e+001  -7.135236e+001 
4212500000  -4.413415e+001  -7.926138e+001 
4215625000  -4.445959e+001  -7.177259e+001 
4218750000  -4.277134e+001  -6.996379e+001 
4221875000  -4.153695e+001  -8.438854e+001 
4225000000  -4.265473e+001  -9.511028e+001 
4228125000  -4.262062e+001  -9.218787e+001 
4231250000  -4.136524e+001  -1.021480e+002 
4234375000  -4.135712e+001  -1.103199e+002 
4237500000  -4.118556e+001  -1.185376e+002 
4240625000  -4.136884e+001  -1.293838e+002 
4243750000  -4.311913e+001  -1.380971e+002 
4246875000  -4.333632e+001  -1.351481e+002 
4250000000  -4.337637e+001  -1.379507e+002 
4253125000  -4.287552e+001  -1.394872e+002 
4256250000  -4.268714e+001  -1.468358e+002 
4259375000  -4.268750e+001  -1.564425e+002 
4262500000  -4.250460e+001  -1.562707e+002 
4265625000  -4.233787e+001  -1.571748e+002 
4268750000  -4.113783e+001  -1.674801e+002 
4271875000  -4.114777e+001  -1.785616e+002 
4275000000  -4.046035e+001  1.749745e+002 
4278125000  -4.172643e+001  1.613016e+002 
4281250000  -4.320945e+001  1.608377e+002 
4284375000  -4.246598e+001  1.566415e+002 
4287500000  -4.421671e+001  1.504689e+002 
4290625000  -4.382346e+001  1.597384e+002 
4293750000  -4.199070e+001  1.567093e+002 
4296875000  -4.048240e+001  1.406631e+002 
4300000000  -4.164279e+001  1.302897e+002 
4303125000  -4.265843e+001  1.303891e+002 
4306250000  -4.114388e+001  1.316295e+002 
4309375000  -4.013017e+001  1.228648e+002 
4312500000  -4.017109e+001  1.102290e+002 
4315625000  -4.058941e+001  9.995091e+001 
4318750000  -4.122962e+001  9.590987e+001 
4321875000  -4.106010e+001  9.380943e+001 
4325000000  -4.051634e+001  8.978242e+001 
4328125000  -3.986363e+001  7.957259e+001 
4331250000  -4.024955e+001  6.638550e+001 
4334375000  -4.134621e+001  5.580777e+001 
4337500000  -4.230630e+001  5.565319e+001 
4340625000  -4.241141e+001  5.792796e+001 
4343750000  -4.184038e+001  5.512241e+001 
4346875000  -4.100219e+001  4.357711e+001 
4350000000  -4.175821e+001  3.515275e+001 
4353125000  -4.257250e+001  2.759300e+001 
4356250000  -4.437150e+001  3.236507e+001 
4359375000  -4.326171e+001  4.446961e+001 
4362500000  -4.016750e+001  3.263770e+001 
4365625000  -3.928584e+001  1.344961e+001 
4368750000  -4.076624e+001  2.586499e+000 
4371875000  -4.159927e+001  2.888446e+000 
4375000000  -4.105701e+001  -4.748379e+000 
4378125000  -4.076899e+001  -1.247526e+001 
4381250000  -4.117763e+001  -2.063319e+001 
4384375000  -4.143865e+001  -2.772470e+001 
4387500000  -4.187497e+001  -3.201352e+001 
4390625000  -4.271053e+001  -3.874015e+001 
4393750000  -4.219663e+001  -3.655706e+001 
4396875000  -4.162429e+001  -4.302203e+001 
4400000000  -4.132938e+001  -5.292269e+001 
4403125000  -4.222294e+001  -6.067140e+001 
4406250000  -4.233718e+001  -6.574618e+001 
4409375000  -4.269267e+001  -6.905197e+001 
4412500000  -4.404096e+001  -7.575896e+001 
4415625000  -4.369111e+001  -7.185925e+001 
4418750000  -4.219589e+001  -6.981078e+001 
