!Agilent Technologies,E8363B,MY43030201,A.06.04.32
!Agilent E8363B: A.06.04.32
!Date: Tuesday, November 11, 2014 21:43:04
!Correction: S21(Response(S21)) 
!S1P File: Measurement: S21:
# Hz S  dB   R 50
3000000000  -4.348758e+001  -1.582500e+002 
3003125000  -4.522859e+001  -1.643255e+002 
3006250000  -4.535192e+001  -1.652507e+002 
3009375000  -4.643329e+001  -1.615146e+002 
3012500000  -4.484202e+001  -1.683890e+002 
3015625000  -4.493461e+001  -1.752805e+002 
3018750000  -4.522981e+001  -1.755843e+002 
3021875000  -4.408921e+001  -1.760669e+002 
3025000000  -4.221418e+001  1.796222e+002 
3028125000  -4.160271e+001  1.672228e+002 
3031250000  -4.083702e+001  1.538294e+002 
3034375000  -4.065372e+001  1.403517e+002 
3037500000  -4.148769e+001  1.302909e+002 
3040625000  -4.293628e+001  1.226580e+002 
3043750000  -4.334634e+001  1.146103e+002 
3046875000  -4.406096e+001  1.093185e+002 
3050000000  -4.488240e+001  1.043275e+002 
3053125000  -4.473904e+001  1.096507e+002 
3056250000  -4.462270e+001  1.117507e+002 
3059375000  -4.413742e+001  1.080413e+002 
3062500000  -4.236212e+001  1.031694e+002 
3065625000  -4.248683e+001  9.225625e+001 
3068750000  -4.175031e+001  8.363557e+001 
3071875000  -4.174324e+001  8.045839e+001 
3075000000  -4.124929e+001  7.349741e+001 
3078125000  -4.121145e+001  6.614458e+001 
3081250000  -4.142959e+001  5.952692e+001 
3084375000  -4.052333e+001  5.310426e+001 
3087500000  -4.056634e+001  4.554596e+001 
3090625000  -4.002679e+001  3.347250e+001 
3093750000  -4.099513e+001  2.452396e+001 
3096875000  -4.108426e+001  1.790833e+001 
3100000000  -4.104366e+001  1.373756e+001 
3103125000  -4.151868e+001  8.910480e+000 
3106250000  -4.111007e+001  3.105547e+000 
3109375000  -4.115203e+001  -1.363059e+000 
3112500000  -4.086071e+001  -9.463627e+000 
3115625000  -4.093336e+001  -1.447276e+001 
3118750000  -4.087052e+001  -1.799500e+001 
3121875000  -4.023392e+001  -3.038842e+001 
3125000000  -4.214144e+001  -3.412210e+001 
3128125000  -4.176639e+001  -2.894884e+001 
3131250000  -3.965811e+001  -3.588858e+001 
3134375000  -3.892657e+001  -5.386132e+001 
3137500000  -3.954126e+001  -6.728558e+001 
3140625000  -4.090608e+001  -7.277213e+001 
3143750000  -4.174050e+001  -7.681382e+001 
3146875000  -4.105977e+001  -7.296371e+001 
3150000000  -4.037757e+001  -8.059248e+001 
3153125000  -4.083158e+001  -8.920735e+001 
3156250000  -4.137349e+001  -8.602695e+001 
3159375000  -3.922604e+001  -9.001605e+001 
3162500000  -3.788795e+001  -1.061939e+002 
3165625000  -3.902282e+001  -1.205438e+002 
3168750000  -3.915171e+001  -1.219699e+002 
3171875000  -3.860256e+001  -1.303861e+002 
3175000000  -3.918357e+001  -1.415072e+002 
3178125000  -3.857605e+001  -1.426690e+002 
3181250000  -3.811083e+001  -1.524918e+002 
3184375000  -3.789431e+001  -1.648829e+002 
3187500000  -3.934661e+001  1.797875e+002 
3190625000  -4.088483e+001  1.725463e+002 
3193750000  -4.110534e+001  1.772517e+002 
3196875000  -4.130930e+001  1.763327e+002 
3200000000  -3.997200e+001  1.707986e+002 
3203125000  -3.970548e+001  1.618983e+002 
3206250000  -3.992754e+001  1.543087e+002 
3209375000  -3.968245e+001  1.456882e+002 
3212500000  -3.996770e+001  1.386060e+002 
3215625000  -3.971933e+001  1.358817e+002 
3218750000  -4.024291e+001  1.239962e+002 
3221875000  -4.062250e+001  1.166658e+002 
3225000000  -4.035797e+001  1.107204e+002 
3228125000  -4.102847e+001  1.024710e+002 
3231250000  -4.169751e+001  9.896737e+001 
3234375000  -4.123078e+001  9.615703e+001 
3237500000  -4.099585e+001  9.218372e+001 
3240625000  -4.046191e+001  8.519301e+001 
3243750000  -4.032884e+001  7.297773e+001 
3246875000  -4.078215e+001  6.538850e+001 
3250000000  -4.119582e+001  6.103716e+001 
3253125000  -4.138148e+001  5.611085e+001 
3256250000  -4.071140e+001  4.604209e+001 
3259375000  -4.088055e+001  3.437024e+001 
3262500000  -4.230581e+001  2.860930e+001 
3265625000  -4.276894e+001  3.057223e+001 
3268750000  -4.249052e+001  2.860618e+001 
3271875000  -4.158148e+001  2.293355e+001 
3275000000  -4.112502e+001  1.184278e+001 
3278125000  -4.197998e+001  4.428175e+000 
3281250000  -4.182972e+001  2.070434e+000 
3284375000  -4.111987e+001  -7.772198e+000 
3287500000  -4.148737e+001  -1.417429e+001 
3290625000  -4.161114e+001  -2.379163e+001 
3293750000  -4.155077e+001  -3.071857e+001 
3296875000  -4.298322e+001  -3.567053e+001 
3300000000  -4.217852e+001  -3.722515e+001 
3303125000  -4.090506e+001  -4.676293e+001 
3306250000  -4.096445e+001  -5.906406e+001 
3309375000  -4.083285e+001  -6.917374e+001 
3312500000  -4.132937e+001  -8.397610e+001 
3315625000  -4.238374e+001  -9.299313e+001 
3318750000  -4.426678e+001  -9.836572e+001 
3321875000  -4.570686e+001  -9.610381e+001 
3325000000  -4.536930e+001  -9.471255e+001 
3328125000  -4.446543e+001  -9.835065e+001 
3331250000  -4.249921e+001  -9.815068e+001 
3334375000  -4.019176e+001  -1.157955e+002 
3337500000  -4.103967e+001  -1.372032e+002 
3340625000  -4.294650e+001  -1.495182e+002 
3343750000  -4.487426e+001  -1.511353e+002 
3346875000  -4.398172e+001  -1.558181e+002 
3350000000  -4.364033e+001  -1.591498e+002 
3353125000  -4.370937e+001  -1.686415e+002 
3356250000  -4.376334e+001  1.798084e+002 
3359375000  -4.454756e+001  1.651293e+002 
3362500000  -4.501331e+001  1.592173e+002 
3365625000  -4.603503e+001  1.532569e+002 
3368750000  -4.655927e+001  1.460077e+002 
3371875000  -4.696345e+001  1.408374e+002 
3375000000  -4.908471e+001  1.332490e+002 
3378125000  -4.888501e+001  1.342173e+002 
3381250000  -5.090558e+001  1.442030e+002 
3384375000  -4.770753e+001  1.536211e+002 
3387500000  -4.486075e+001  1.297128e+002 
3390625000  -4.664053e+001  1.092135e+002 
3393750000  -4.794838e+001  1.041568e+002 
3396875000  -4.666175e+001  1.018398e+002 
3400000000  -4.651286e+001  8.779161e+001 
3403125000  -4.688025e+001  8.150025e+001 
3406250000  -4.736716e+001  7.268320e+001 
3409375000  -4.715825e+001  6.421658e+001 
3412500000  -4.800682e+001  5.361903e+001 
3415625000  -4.915869e+001  5.183926e+001 
3418750000  -4.872805e+001  4.550268e+001 
3421875000  -4.897559e+001  4.081618e+001 
3425000000  -4.765580e+001  3.563187e+001 
3428125000  -4.754263e+001  2.591721e+001 
3431250000  -4.677438e+001  1.586531e+001 
3434375000  -4.704390e+001  4.099505e+000 
3437500000  -4.793634e+001  -1.598718e+000 
3440625000  -4.791121e+001  -7.686513e+000 
3443750000  -4.653214e+001  -1.258578e+001 
3446875000  -4.570233e+001  -2.647787e+001 
3450000000  -4.544853e+001  -4.137551e+001 
3453125000  -4.569437e+001  -5.694627e+001 
3456250000  -4.744893e+001  -7.061656e+001 
3459375000  -4.823357e+001  -7.046124e+001 
3462500000  -4.760430e+001  -7.441781e+001 
3465625000  -4.746076e+001  -8.700864e+001 
3468750000  -4.734461e+001  -9.286411e+001 
3471875000  -4.729070e+001  -1.036933e+002 
3475000000  -4.687935e+001  -1.153439e+002 
3478125000  -4.752827e+001  -1.273777e+002 
3481250000  -4.883920e+001  -1.332264e+002 
3484375000  -4.797218e+001  -1.312658e+002 
3487500000  -4.743630e+001  -1.375826e+002 
3490625000  -4.720520e+001  -1.536842e+002 
3493750000  -4.778339e+001  -1.633238e+002 
3496875000  -4.849441e+001  -1.701495e+002 
3500000000  -4.782893e+001  -1.732937e+002 
3503125000  -4.726802e+001  -1.736561e+002 
3506250000  -4.531191e+001  1.743514e+002 
3509375000  -4.527835e+001  1.540504e+002 
3512500000  -4.619930e+001  1.421406e+002 
3515625000  -4.736305e+001  1.349375e+002 
3518750000  -4.803220e+001  1.330850e+002 
3521875000  -4.784626e+001  1.153282e+002 
3525000000  -4.917548e+001  1.150579e+002 
3528125000  -4.721524e+001  1.201977e+002 
3531250000  -4.668702e+001  1.094169e+002 
3534375000  -4.691212e+001  9.231577e+001 
3537500000  -4.734554e+001  8.094572e+001 
3540625000  -4.904675e+001  7.668042e+001 
3543750000  -4.949863e+001  8.096159e+001 
3546875000  -4.892677e+001  8.324162e+001 
3550000000  -4.623508e+001  7.546014e+001 
3553125000  -4.603538e+001  5.608551e+001 
3556250000  -4.718526e+001  4.908474e+001 
3559375000  -4.646840e+001  4.883013e+001 
3562500000  -4.648381e+001  3.574974e+001 
3565625000  -4.796351e+001  2.573429e+001 
3568750000  -4.795700e+001  2.727445e+001 
3571875000  -4.683487e+001  2.036712e+001 
3575000000  -4.712448e+001  1.472492e+001 
3578125000  -4.718667e+001  9.390042e+000 
3581250000  -4.738720e+001  7.076200e+000 
3584375000  -4.619666e+001  -1.873841e+000 
3587500000  -4.584656e+001  -1.141708e+001 
3590625000  -4.655896e+001  -2.282916e+001 
3593750000  -4.735934e+001  -2.152134e+001 
3596875000  -4.621112e+001  -1.829210e+001 
3600000000  -4.482325e+001  -2.828026e+001 
3603125000  -4.520854e+001  -4.526597e+001 
3606250000  -4.578971e+001  -5.100167e+001 
3609375000  -4.615509e+001  -5.271847e+001 
3612500000  -4.605417e+001  -6.483136e+001 
3615625000  -4.634055e+001  -6.792185e+001 
3618750000  -4.633352e+001  -6.958171e+001 
3621875000  -4.530217e+001  -7.348661e+001 
3625000000  -4.548318e+001  -7.911383e+001 
3628125000  -4.507098e+001  -8.586632e+001 
3631250000  -4.484979e+001  -9.564794e+001 
3634375000  -4.587589e+001  -9.392997e+001 
3637500000  -4.460365e+001  -9.759707e+001 
3640625000  -4.352160e+001  -1.043807e+002 
3643750000  -4.327296e+001  -1.155877e+002 
3646875000  -4.387899e+001  -1.277731e+002 
3650000000  -4.379998e+001  -1.312387e+002 
3653125000  -4.320904e+001  -1.393526e+002 
3656250000  -4.374792e+001  -1.459876e+002 
3659375000  -4.353610e+001  -1.488136e+002 
3662500000  -4.342381e+001  -1.568119e+002 
3665625000  -4.335116e+001  -1.606275e+002 
3668750000  -4.202578e+001  -1.643345e+002 
3671875000  -4.158823e+001  1.798167e+002 
3675000000  -4.247565e+001  1.721281e+002 
3678125000  -4.273442e+001  1.641832e+002 
3681250000  -4.221032e+001  1.595141e+002 
3684375000  -4.255517e+001  1.506047e+002 
3687500000  -4.317730e+001  1.415872e+002 
3690625000  -4.371584e+001  1.375695e+002 
3693750000  -4.418595e+001  1.347664e+002 
3696875000  -4.390068e+001  1.325091e+002 
3700000000  -4.320010e+001  1.246764e+002 
3703125000  -4.387217e+001  1.174226e+002 
3706250000  -4.453154e+001  1.150238e+002 
3709375000  -4.399946e+001  1.136450e+002 
3712500000  -4.285881e+001  1.087122e+002 
3715625000  -4.176059e+001  1.011264e+002 
3718750000  -4.173576e+001  8.902255e+001 
3721875000  -4.164177e+001  7.943588e+001 
3725000000  -4.221521e+001  6.983488e+001 
3728125000  -4.276024e+001  6.983377e+001 
3731250000  -4.194495e+001  6.196117e+001 
3734375000  -4.167752e+001  5.552558e+001 
3737500000  -4.286673e+001  4.572498e+001 
3740625000  -4.321498e+001  3.994853e+001 
3743750000  -4.337863e+001  3.344484e+001 
3746875000  -4.332655e+001  2.442785e+001 
3750000000  -4.346819e+001  2.529002e+001 
3753125000  -4.378600e+001  2.248993e+001 
3756250000  -4.377370e+001  1.698354e+001 
3759375000  -4.358629e+001  1.279472e+001 
3762500000  -4.350776e+001  6.418067e+000 
3765625000  -4.432336e+001  1.141482e+000 
3768750000  -4.374692e+001  5.579840e+000 
3771875000  -4.221782e+001  -5.313285e+000 
3775000000  -4.228032e+001  -1.481365e+001 
3778125000  -4.289938e+001  -2.484816e+001 
3781250000  -4.276762e+001  -2.829739e+001 
3784375000  -4.247226e+001  -3.251151e+001 
3787500000  -4.237074e+001  -3.754223e+001 
3790625000  -4.291647e+001  -4.757291e+001 
3793750000  -4.264071e+001  -5.107951e+001 
3796875000  -4.169827e+001  -5.639639e+001 
3800000000  -4.095643e+001  -6.324271e+001 
3803125000  -4.189555e+001  -7.637033e+001 
3806250000  -4.257129e+001  -8.013642e+001 
3809375000  -4.187794e+001  -8.678082e+001 
3812500000  -4.176061e+001  -9.613024e+001 
3815625000  -4.324166e+001  -1.065741e+002 
3818750000  -4.432372e+001  -1.043575e+002 
3821875000  -4.383879e+001  -9.580941e+001 
3825000000  -4.121171e+001  -1.011011e+002 
3828125000  -4.055412e+001  -1.212161e+002 
3831250000  -4.158679e+001  -1.382836e+002 
3834375000  -4.372445e+001  -1.362542e+002 
3837500000  -4.388957e+001  -1.346198e+002 
3840625000  -4.220134e+001  -1.402678e+002 
3843750000  -4.188604e+001  -1.556140e+002 
3846875000  -4.357121e+001  -1.635379e+002 
3850000000  -4.453022e+001  -1.559213e+002 
3853125000  -4.333920e+001  -1.623333e+002 
3856250000  -4.322600e+001  -1.682556e+002 
3859375000  -4.235207e+001  -1.732093e+002 
3862500000  -4.218017e+001  1.714647e+002 
3865625000  -4.271857e+001  1.677894e+002 
3868750000  -4.263454e+001  1.651115e+002 
3871875000  -4.209740e+001  1.567111e+002 
3875000000  -4.283668e+001  1.454458e+002 
3878125000  -4.313218e+001  1.415935e+002 
3881250000  -4.346062e+001  1.407932e+002 
3884375000  -4.297237e+001  1.297349e+002 
3887500000  -4.341688e+001  1.227525e+002 
3890625000  -4.414442e+001  1.202830e+002 
3893750000  -4.444563e+001  1.169900e+002 
3896875000  -4.424699e+001  1.157861e+002 
3900000000  -4.480036e+001  1.089174e+002 
3903125000  -4.353858e+001  1.062079e+002 
3906250000  -4.366367e+001  9.894552e+001 
3909375000  -4.269509e+001  9.230487e+001 
3912500000  -4.378269e+001  8.199805e+001 
3915625000  -4.489905e+001  8.239097e+001 
3918750000  -4.474487e+001  8.012930e+001 
3921875000  -4.401262e+001  7.663088e+001 
3925000000  -4.337161e+001  6.882790e+001 
3928125000  -4.318675e+001  6.027874e+001 
3931250000  -4.380473e+001  5.191226e+001 
3934375000  -4.416781e+001  4.990386e+001 
3937500000  -4.485758e+001  4.712992e+001 
3940625000  -4.462490e+001  4.764115e+001 
3943750000  -4.329705e+001  4.121967e+001 
3946875000  -4.275196e+001  3.238660e+001 
3950000000  -4.350975e+001  2.311703e+001 
3953125000  -4.505391e+001  2.503877e+001 
3956250000  -4.290349e+001  2.253548e+001 
3959375000  -4.191307e+001  1.931303e+001 
3962500000  -4.206001e+001  7.015746e+000 
3965625000  -4.189589e+001  -5.672830e+000 
3968750000  -4.310415e+001  -1.629595e+001 
3971875000  -4.247427e+001  -1.741911e+001 
3975000000  -4.228666e+001  -2.108353e+001 
3978125000  -4.244262e+001  -3.131259e+001 
3981250000  -4.209752e+001  -3.501876e+001 
3984375000  -4.237698e+001  -4.407303e+001 
3987500000  -4.320794e+001  -4.983907e+001 
3990625000  -4.344201e+001  -5.460222e+001 
3993750000  -4.319881e+001  -5.765924e+001 
3996875000  -4.276713e+001  -6.479497e+001 
4000000000  -4.377626e+001  -7.060995e+001 
4003125000  -4.415437e+001  -6.793220e+001 
4006250000  -4.171494e+001  -7.346721e+001 
4009375000  -4.143735e+001  -9.308363e+001 
4012500000  -4.336411e+001  -9.989198e+001 
4015625000  -4.424705e+001  -9.958475e+001 
4018750000  -4.408335e+001  -1.034892e+002 
4021875000  -4.301509e+001  -1.118390e+002 
4025000000  -4.313184e+001  -1.183326e+002 
4028125000  -4.350513e+001  -1.277705e+002 
4031250000  -4.440494e+001  -1.329712e+002 
4034375000  -4.425888e+001  -1.349984e+002 
4037500000  -4.450108e+001  -1.404911e+002 
4040625000  -4.436234e+001  -1.429760e+002 
4043750000  -4.479307e+001  -1.482122e+002 
4046875000  -4.457653e+001  -1.518711e+002 
4050000000  -4.456465e+001  -1.607483e+002 
4053125000  -4.527180e+001  -1.626485e+002 
4056250000  -4.559864e+001  -1.592478e+002 
4059375000  -4.438406e+001  -1.619503e+002 
4062500000  -4.360292e+001  -1.731194e+002 
4065625000  -4.390124e+001  -1.782399e+002 
4068750000  -4.328065e+001  1.734241e+002 
4071875000  -4.303625e+001  1.632356e+002 
4075000000  -4.374520e+001  1.580830e+002 
4078125000  -4.456590e+001  1.569060e+002 
4081250000  -4.401179e+001  1.486855e+002 
4084375000  -4.363583e+001  1.396903e+002 
4087500000  -4.424476e+001  1.328921e+002 
4090625000  -4.542012e+001  1.299184e+002 
4093750000  -4.472086e+001  1.287922e+002 
4096875000  -4.452080e+001  1.215976e+002 
4100000000  -4.514333e+001  1.152760e+002 
4103125000  -4.615973e+001  1.166595e+002 
4106250000  -4.557164e+001  1.192748e+002 
4109375000  -4.481894e+001  1.113160e+002 
4112500000  -4.433968e+001  1.062690e+002 
4115625000  -4.469230e+001  1.025384e+002 
4118750000  -4.466293e+001  9.369012e+001 
4121875000  -4.393209e+001  8.656513e+001 
4125000000  -4.454922e+001  8.096033e+001 
4128125000  -4.575138e+001  7.939079e+001 
4131250000  -4.402030e+001  8.532050e+001 
4134375000  -4.164299e+001  7.388639e+001 
4137500000  -4.276515e+001  5.358818e+001 
4140625000  -4.452288e+001  4.571435e+001 
4143750000  -4.507436e+001  5.266951e+001 
4146875000  -4.420296e+001  5.058280e+001 
4150000000  -4.320412e+001  4.208179e+001 
4153125000  -4.345711e+001  3.066051e+001 
4156250000  -4.433116e+001  2.912497e+001 
4159375000  -4.372974e+001  3.448292e+001 
4162500000  -4.287307e+001  3.011580e+001 
4165625000  -4.189390e+001  2.019551e+001 
4168750000  -4.143860e+001  1.026025e+001 
4171875000  -4.154779e+001  -2.886010e+000 
4175000000  -4.244958e+001  -9.651852e+000 
4178125000  -4.248524e+001  -1.086604e+001 
4181250000  -4.261896e+001  -2.235174e+001 
4184375000  -4.278712e+001  -2.588481e+001 
4187500000  -4.282775e+001  -3.281011e+001 
4190625000  -4.288356e+001  -4.336287e+001 
4193750000  -4.438034e+001  -4.728425e+001 
4196875000  -4.546146e+001  -5.005466e+001 
4200000000  -4.677330e+001  -4.280283e+001 
4203125000  -4.474881e+001  -3.559101e+001 
4206250000  -4.158743e+001  -4.458390e+001 
4209375000  -4.234421e+001  -6.793766e+001 
4212500000  -4.420934e+001  -7.653398e+001 
4215625000  -4.407837e+001  -7.235867e+001 
4218750000  -4.309388e+001  -7.250298e+001 
4221875000  -4.162335e+001  -7.927513e+001 
4225000000  -4.258677e+001  -9.024017e+001 
4228125000  -4.272073e+001  -9.030919e+001 
4231250000  -4.155566e+001  -9.758029e+001 
4234375000  -4.129482e+001  -1.105075e+002 
4237500000  -4.120733e+001  -1.160518e+002 
4240625000  -4.127324e+001  -1.262572e+002 
4243750000  -4.263859e+001  -1.378122e+002 
4246875000  -4.362296e+001  -1.355210e+002 
4250000000  -4.331345e+001  -1.381189e+002 
4253125000  -4.338042e+001  -1.413005e+002 
4256250000  -4.238802e+001  -1.457905e+002 
4259375000  -4.264130e+001  -1.488287e+002 
4262500000  -4.266833e+001  -1.562693e+002 
4265625000  -4.233635e+001  -1.562720e+002 
4268750000  -4.105297e+001  -1.663095e+002 
4271875000  -4.134434e+001  -1.743271e+002 
4275000000  -4.095038e+001  1.787271e+002 
4278125000  -4.163917e+001  1.629355e+002 
4281250000  -4.279234e+001  1.607294e+002 
4284375000  -4.291336e+001  1.565224e+002 
4287500000  -4.415641e+001  1.548743e+002 
4290625000  -4.388884e+001  1.601261e+002 
4293750000  -4.191008e+001  1.610437e+002 
4296875000  -4.090180e+001  1.449814e+002 
4300000000  -4.215436e+001  1.331238e+002 
4303125000  -4.248178e+001  1.353918e+002 
4306250000  -4.149624e+001  1.331380e+002 
4309375000  -4.009628e+001  1.244090e+002 
4312500000  -4.031367e+001  1.111552e+002 
4315625000  -4.064075e+001  1.026622e+002 
4318750000  -4.119666e+001  9.905694e+001 
4321875000  -4.139598e+001  9.682118e+001 
4325000000  -4.054356e+001  9.152209e+001 
4328125000  -3.980151e+001  8.115770e+001 
4331250000  -4.024616e+001  6.722923e+001 
4334375000  -4.114864e+001  6.040807e+001 
4337500000  -4.249553e+001  5.790537e+001 
4340625000  -4.259139e+001  5.946707e+001 
4343750000  -4.158178e+001  5.486037e+001 
4346875000  -4.160682e+001  4.664719e+001 
4350000000  -4.181213e+001  3.844954e+001 
4353125000  -4.265147e+001  2.545110e+001 
4356250000  -4.446905e+001  3.423423e+001 
4359375000  -4.352972e+001  4.576413e+001 
4362500000  -3.980613e+001  3.330700e+001 
4365625000  -3.923746e+001  1.551075e+001 
4368750000  -4.089481e+001  6.292852e+000 
4371875000  -4.156912e+001  3.168738e+000 
4375000000  -4.149778e+001  -1.861977e+000 
4378125000  -4.106560e+001  -8.874717e+000 
4381250000  -4.096776e+001  -1.780284e+001 
4384375000  -4.108865e+001  -2.677564e+001 
4387500000  -4.191841e+001  -2.994097e+001 
4390625000  -4.279340e+001  -3.594646e+001 
4393750000  -4.229715e+001  -3.425605e+001 
4396875000  -4.190695e+001  -4.273717e+001 
4400000000  -4.143319e+001  -5.099232e+001 
4403125000  -4.224884e+001  -5.864385e+001 
4406250000  -4.275880e+001  -6.374599e+001 
4409375000  -4.323253e+001  -6.910772e+001 
4412500000  -4.418639e+001  -7.331756e+001 
4415625000  -4.347569e+001  -7.001110e+001 
4418750000  -4.213676e+001  -6.794975e+001 
