!Agilent Technologies,E8363B,MY43030201,A.06.04.32
!Agilent E8363B: A.06.04.32
!Date: Tuesday, November 11, 2014 21:52:15
!Correction: S21(Response(S21)) 
!S1P File: Measurement: S21:
# Hz S  dB   R 50
3000000000  -4.394175e+001  -1.631474e+002 
3003125000  -4.549876e+001  -1.670184e+002 
3006250000  -4.537944e+001  -1.679519e+002 
3009375000  -4.610077e+001  -1.652943e+002 
3012500000  -4.485573e+001  -1.718439e+002 
3015625000  -4.499411e+001  -1.785875e+002 
3018750000  -4.537730e+001  1.794277e+002 
3021875000  -4.408559e+001  1.781226e+002 
3025000000  -4.247136e+001  1.760074e+002 
3028125000  -4.179183e+001  1.630644e+002 
3031250000  -4.109068e+001  1.504123e+002 
3034375000  -4.071568e+001  1.364541e+002 
3037500000  -4.160232e+001  1.258133e+002 
3040625000  -4.283385e+001  1.203360e+002 
3043750000  -4.329339e+001  1.125023e+002 
3046875000  -4.405809e+001  1.051598e+002 
3050000000  -4.541013e+001  9.956317e+001 
3053125000  -4.480138e+001  1.040535e+002 
3056250000  -4.488800e+001  1.090637e+002 
3059375000  -4.388939e+001  1.069405e+002 
3062500000  -4.249310e+001  9.864719e+001 
3065625000  -4.213842e+001  8.733390e+001 
3068750000  -4.209041e+001  7.976388e+001 
3071875000  -4.185137e+001  7.665237e+001 
3075000000  -4.126409e+001  6.879126e+001 
3078125000  -4.126582e+001  6.168291e+001 
3081250000  -4.133546e+001  5.411739e+001 
3084375000  -4.052917e+001  5.032736e+001 
3087500000  -4.048729e+001  4.171562e+001 
3090625000  -3.996259e+001  2.846387e+001 
3093750000  -4.104569e+001  1.954954e+001 
3096875000  -4.129457e+001  1.330843e+001 
3100000000  -4.124619e+001  1.087043e+001 
3103125000  -4.149310e+001  5.458179e+000 
3106250000  -4.090679e+001  -3.777807e-001 
3109375000  -4.112203e+001  -3.908802e+000 
3112500000  -4.079868e+001  -1.286754e+001 
3115625000  -4.087273e+001  -1.736667e+001 
3118750000  -4.086743e+001  -2.260538e+001 
3121875000  -4.013726e+001  -3.508717e+001 
3125000000  -4.208136e+001  -3.729222e+001 
3128125000  -4.205857e+001  -3.189435e+001 
3131250000  -3.950599e+001  -4.039305e+001 
3134375000  -3.900272e+001  -5.796490e+001 
3137500000  -3.960461e+001  -7.039791e+001 
3140625000  -4.100183e+001  -7.597364e+001 
3143750000  -4.179401e+001  -7.997032e+001 
3146875000  -4.101521e+001  -7.825331e+001 
3150000000  -4.025910e+001  -8.415897e+001 
3153125000  -4.051247e+001  -9.359680e+001 
3156250000  -4.134649e+001  -8.954273e+001 
3159375000  -3.915084e+001  -9.427492e+001 
3162500000  -3.773777e+001  -1.096715e+002 
3165625000  -3.895222e+001  -1.248110e+002 
3168750000  -3.903757e+001  -1.258319e+002 
3171875000  -3.842791e+001  -1.355694e+002 
3175000000  -3.920529e+001  -1.449389e+002 
3178125000  -3.873193e+001  -1.461192e+002 
3181250000  -3.804258e+001  -1.558413e+002 
3184375000  -3.779548e+001  -1.685864e+002 
3187500000  -3.941135e+001  1.755198e+002 
3190625000  -4.081000e+001  1.671809e+002 
3193750000  -4.118543e+001  1.737191e+002 
3196875000  -4.126879e+001  1.729959e+002 
3200000000  -3.988859e+001  1.675116e+002 
3203125000  -3.967365e+001  1.590950e+002 
3206250000  -3.989288e+001  1.501887e+002 
3209375000  -3.959938e+001  1.414622e+002 
3212500000  -3.987678e+001  1.340559e+002 
3215625000  -3.954872e+001  1.301958e+002 
3218750000  -4.026177e+001  1.188247e+002 
3221875000  -4.054234e+001  1.117452e+002 
3225000000  -4.042871e+001  1.051746e+002 
3228125000  -4.124621e+001  9.959464e+001 
3231250000  -4.138083e+001  9.652459e+001 
3234375000  -4.079511e+001  9.295700e+001 
3237500000  -4.093436e+001  8.779502e+001 
3240625000  -4.026983e+001  8.099709e+001 
3243750000  -4.023640e+001  7.013671e+001 
3246875000  -4.061835e+001  6.138932e+001 
3250000000  -4.101476e+001  5.642267e+001 
3253125000  -4.119215e+001  5.176146e+001 
3256250000  -4.021959e+001  4.378397e+001 
3259375000  -4.094370e+001  2.999800e+001 
3262500000  -4.230083e+001  2.541777e+001 
3265625000  -4.255750e+001  2.617677e+001 
3268750000  -4.236485e+001  2.437219e+001 
3271875000  -4.169154e+001  1.797339e+001 
3275000000  -4.099691e+001  8.340852e+000 
3278125000  -4.167774e+001  1.532250e+000 
3281250000  -4.178595e+001  -1.400887e+000 
3284375000  -4.099880e+001  -1.034592e+001 
3287500000  -4.161930e+001  -1.735531e+001 
3290625000  -4.137488e+001  -2.698052e+001 
3293750000  -4.164586e+001  -3.604555e+001 
3296875000  -4.256087e+001  -3.945602e+001 
3300000000  -4.192819e+001  -4.104376e+001 
3303125000  -4.099532e+001  -5.119339e+001 
3306250000  -4.093460e+001  -6.092479e+001 
3309375000  -4.052745e+001  -7.245055e+001 
3312500000  -4.111072e+001  -8.737498e+001 
3315625000  -4.248714e+001  -9.508957e+001 
3318750000  -4.366980e+001  -9.951560e+001 
3321875000  -4.532254e+001  -1.029706e+002 
3325000000  -4.498891e+001  -9.549543e+001 
3328125000  -4.428826e+001  -9.846629e+001 
3331250000  -4.219032e+001  -1.001842e+002 
3334375000  -4.015736e+001  -1.182738e+002 
3337500000  -4.066488e+001  -1.419543e+002 
3340625000  -4.248013e+001  -1.526861e+002 
3343750000  -4.464489e+001  -1.544972e+002 
3346875000  -4.390374e+001  -1.572076e+002 
3350000000  -4.362494e+001  -1.612463e+002 
3353125000  -4.356659e+001  -1.728255e+002 
3356250000  -4.321960e+001  1.782725e+002 
3359375000  -4.435366e+001  1.651414e+002 
3362500000  -4.496642e+001  1.577907e+002 
3365625000  -4.552154e+001  1.503345e+002 
3368750000  -4.651785e+001  1.454287e+002 
3371875000  -4.712369e+001  1.387771e+002 
3375000000  -4.842461e+001  1.311330e+002 
3378125000  -4.921561e+001  1.300135e+002 
3381250000  -5.131932e+001  1.367447e+002 
3384375000  -4.721553e+001  1.517281e+002 
3387500000  -4.483255e+001  1.272832e+002 
3390625000  -4.660521e+001  1.040482e+002 
3393750000  -4.751770e+001  1.052602e+002 
3396875000  -4.621211e+001  9.931371e+001 
3400000000  -4.631487e+001  8.313042e+001 
3403125000  -4.701573e+001  7.858164e+001 
3406250000  -4.733402e+001  6.895251e+001 
3409375000  -4.776946e+001  5.733107e+001 
3412500000  -4.776367e+001  5.130060e+001 
3415625000  -4.887025e+001  4.596704e+001 
3418750000  -4.855215e+001  4.276093e+001 
3421875000  -4.878524e+001  4.007444e+001 
3425000000  -4.780667e+001  3.704596e+001 
3428125000  -4.726952e+001  2.450901e+001 
3431250000  -4.683083e+001  1.400117e+001 
3434375000  -4.729553e+001  2.922020e+000 
3437500000  -4.781126e+001  -7.582810e+000 
3440625000  -4.734615e+001  -7.911164e+000 
3443750000  -4.654178e+001  -1.367149e+001 
3446875000  -4.565823e+001  -2.949062e+001 
3450000000  -4.502596e+001  -4.287894e+001 
3453125000  -4.581503e+001  -6.306665e+001 
3456250000  -4.706390e+001  -7.212733e+001 
3459375000  -4.821541e+001  -6.972214e+001 
3462500000  -4.790487e+001  -7.614365e+001 
3465625000  -4.720749e+001  -8.872472e+001 
3468750000  -4.751111e+001  -9.536472e+001 
3471875000  -4.745089e+001  -1.025300e+002 
3475000000  -4.734455e+001  -1.188262e+002 
3478125000  -4.783479e+001  -1.308705e+002 
3481250000  -4.985109e+001  -1.359200e+002 
3484375000  -4.876717e+001  -1.325255e+002 
3487500000  -4.792598e+001  -1.410104e+002 
3490625000  -4.727537e+001  -1.546209e+002 
3493750000  -4.840320e+001  -1.673489e+002 
3496875000  -4.793161e+001  -1.688655e+002 
3500000000  -4.866317e+001  -1.725023e+002 
3503125000  -4.771899e+001  -1.744048e+002 
3506250000  -4.563905e+001  1.738806e+002 
3509375000  -4.559179e+001  1.499960e+002 
3512500000  -4.593759e+001  1.330567e+002 
3515625000  -4.744145e+001  1.340416e+002 
3518750000  -4.829028e+001  1.290858e+002 
3521875000  -4.786150e+001  1.158389e+002 
3525000000  -4.858660e+001  1.157798e+002 
3528125000  -4.751283e+001  1.152939e+002 
3531250000  -4.640165e+001  1.020931e+002 
3534375000  -4.667961e+001  8.746403e+001 
3537500000  -4.804685e+001  7.690692e+001 
3540625000  -4.921440e+001  7.073441e+001 
3543750000  -4.960837e+001  7.878880e+001 
3546875000  -4.869340e+001  8.370647e+001 
3550000000  -4.668637e+001  6.860636e+001 
3553125000  -4.626124e+001  4.930298e+001 
3556250000  -4.775262e+001  4.561832e+001 
3559375000  -4.731017e+001  4.369838e+001 
3562500000  -4.599497e+001  2.960005e+001 
3565625000  -4.739212e+001  2.330104e+001 
3568750000  -4.769572e+001  1.910308e+001 
3571875000  -4.734645e+001  1.700492e+001 
3575000000  -4.672127e+001  8.330126e+000 
3578125000  -4.790797e+001  6.974313e+000 
3581250000  -4.719263e+001  1.081192e+000 
3584375000  -4.577171e+001  -2.256956e+000 
3587500000  -4.546150e+001  -1.954738e+001 
3590625000  -4.659955e+001  -2.758159e+001 
3593750000  -4.752721e+001  -2.731338e+001 
3596875000  -4.640737e+001  -2.287192e+001 
3600000000  -4.459797e+001  -3.455968e+001 
3603125000  -4.471408e+001  -5.049453e+001 
3606250000  -4.580401e+001  -5.569907e+001 
3609375000  -4.577442e+001  -5.754187e+001 
3612500000  -4.608522e+001  -6.636160e+001 
3615625000  -4.638063e+001  -7.071166e+001 
3618750000  -4.613617e+001  -7.267200e+001 
3621875000  -4.513241e+001  -7.925039e+001 
3625000000  -4.571753e+001  -8.301794e+001 
3628125000  -4.462987e+001  -9.026556e+001 
3631250000  -4.524267e+001  -9.994270e+001 
3634375000  -4.571836e+001  -1.004395e+002 
3637500000  -4.477368e+001  -1.028191e+002 
3640625000  -4.390890e+001  -1.094513e+002 
3643750000  -4.320295e+001  -1.212190e+002 
3646875000  -4.337873e+001  -1.308049e+002 
3650000000  -4.356116e+001  -1.373466e+002 
3653125000  -4.318916e+001  -1.431543e+002 
3656250000  -4.419361e+001  -1.525814e+002 
3659375000  -4.378498e+001  -1.537261e+002 
3662500000  -4.316763e+001  -1.630257e+002 
3665625000  -4.326336e+001  -1.630398e+002 
3668750000  -4.215698e+001  -1.682417e+002 
3671875000  -4.164230e+001  1.745020e+002 
3675000000  -4.215439e+001  1.652652e+002 
3678125000  -4.246838e+001  1.619744e+002 
3681250000  -4.241828e+001  1.535595e+002 
3684375000  -4.270269e+001  1.463174e+002 
3687500000  -4.304602e+001  1.380831e+002 
3690625000  -4.348306e+001  1.316729e+002 
3693750000  -4.464519e+001  1.322503e+002 
3696875000  -4.381412e+001  1.264919e+002 
3700000000  -4.317025e+001  1.174801e+002 
3703125000  -4.352280e+001  1.105018e+002 
3706250000  -4.468648e+001  1.100903e+002 
3709375000  -4.408976e+001  1.092754e+002 
3712500000  -4.286416e+001  1.037193e+002 
3715625000  -4.185433e+001  9.375223e+001 
3718750000  -4.176290e+001  8.429371e+001 
3721875000  -4.202598e+001  7.435445e+001 
3725000000  -4.206073e+001  6.667028e+001 
3728125000  -4.248011e+001  6.358422e+001 
3731250000  -4.159377e+001  5.659181e+001 
3734375000  -4.206337e+001  4.764201e+001 
3737500000  -4.278421e+001  3.984750e+001 
3740625000  -4.316395e+001  3.526533e+001 
3743750000  -4.292006e+001  2.681036e+001 
3746875000  -4.328621e+001  2.205000e+001 
3750000000  -4.319397e+001  1.837199e+001 
3753125000  -4.330375e+001  1.518671e+001 
3756250000  -4.357914e+001  1.066809e+001 
3759375000  -4.363736e+001  6.060145e+000 
3762500000  -4.340651e+001  4.602126e-001 
3765625000  -4.429279e+001  -5.026155e+000 
3768750000  -4.346510e+001  -3.292121e+000 
3771875000  -4.195962e+001  -9.804422e+000 
3775000000  -4.219411e+001  -2.249438e+001 
3778125000  -4.285640e+001  -2.672971e+001 
3781250000  -4.255128e+001  -3.270645e+001 
3784375000  -4.222021e+001  -3.967340e+001 
3787500000  -4.216573e+001  -4.342880e+001 
3790625000  -4.275332e+001  -5.504602e+001 
3793750000  -4.242022e+001  -5.819194e+001 
3796875000  -4.164786e+001  -6.275371e+001 
3800000000  -4.062703e+001  -6.915499e+001 
3803125000  -4.176406e+001  -8.228799e+001 
3806250000  -4.256105e+001  -8.582645e+001 
3809375000  -4.170122e+001  -8.935780e+001 
3812500000  -4.194193e+001  -1.029528e+002 
3815625000  -4.302020e+001  -1.136793e+002 
3818750000  -4.428400e+001  -1.089820e+002 
3821875000  -4.325559e+001  -9.994626e+001 
3825000000  -4.162506e+001  -1.083978e+002 
3828125000  -4.022853e+001  -1.277032e+002 
3831250000  -4.154717e+001  -1.422709e+002 
3834375000  -4.383172e+001  -1.440190e+002 
3837500000  -4.390729e+001  -1.405716e+002 
3840625000  -4.238557e+001  -1.456895e+002 
3843750000  -4.186289e+001  -1.619679e+002 
3846875000  -4.364717e+001  -1.679761e+002 
3850000000  -4.380957e+001  -1.613168e+002 
3853125000  -4.394984e+001  -1.652239e+002 
3856250000  -4.257986e+001  -1.720529e+002 
3859375000  -4.231397e+001  1.786214e+002 
3862500000  -4.211781e+001  1.681732e+002 
3865625000  -4.246727e+001  1.608490e+002 
3868750000  -4.224393e+001  1.601606e+002 
3871875000  -4.187493e+001  1.494925e+002 
3875000000  -4.210300e+001  1.395559e+002 
3878125000  -4.336135e+001  1.371260e+002 
3881250000  -4.330032e+001  1.356221e+002 
3884375000  -4.263977e+001  1.234065e+002 
3887500000  -4.306704e+001  1.188677e+002 
3890625000  -4.355035e+001  1.159035e+002 
3893750000  -4.445211e+001  1.135540e+002 
3896875000  -4.405306e+001  1.086158e+002 
3900000000  -4.443508e+001  1.057312e+002 
3903125000  -4.370592e+001  1.007950e+002 
3906250000  -4.339053e+001  9.527588e+001 
3909375000  -4.267685e+001  8.697232e+001 
3912500000  -4.362766e+001  7.775607e+001 
3915625000  -4.474437e+001  7.570695e+001 
3918750000  -4.450554e+001  7.351439e+001 
3921875000  -4.367869e+001  6.982355e+001 
3925000000  -4.305167e+001  6.271646e+001 
3928125000  -4.269699e+001  5.387733e+001 
3931250000  -4.350253e+001  4.856828e+001 
3934375000  -4.385351e+001  4.603668e+001 
3937500000  -4.439829e+001  4.317607e+001 
3940625000  -4.474781e+001  4.101020e+001 
3943750000  -4.313108e+001  3.324141e+001 
3946875000  -4.253992e+001  2.638946e+001 
3950000000  -4.343253e+001  1.771423e+001 
3953125000  -4.400042e+001  1.988108e+001 
3956250000  -4.292065e+001  1.892719e+001 
3959375000  -4.184165e+001  1.115692e+001 
3962500000  -4.116801e+001  2.290751e-002 
3965625000  -4.192260e+001  -1.048168e+001 
3968750000  -4.229544e+001  -1.713844e+001 
3971875000  -4.224067e+001  -2.241036e+001 
3975000000  -4.183350e+001  -2.838833e+001 
3978125000  -4.196494e+001  -3.481683e+001 
3981250000  -4.173959e+001  -4.349081e+001 
3984375000  -4.234426e+001  -5.089139e+001 
3987500000  -4.323428e+001  -5.375599e+001 
3990625000  -4.325840e+001  -5.683883e+001 
3993750000  -4.311063e+001  -6.544895e+001 
3996875000  -4.282410e+001  -7.181153e+001 
4000000000  -4.369219e+001  -7.619881e+001 
4003125000  -4.345884e+001  -7.505251e+001 
4006250000  -4.183616e+001  -8.216669e+001 
4009375000  -4.120921e+001  -9.916454e+001 
4012500000  -4.277509e+001  -1.036786e+002 
4015625000  -4.372715e+001  -1.062410e+002 
4018750000  -4.373318e+001  -1.077495e+002 
4021875000  -4.283485e+001  -1.169776e+002 
4025000000  -4.315437e+001  -1.235199e+002 
4028125000  -4.319286e+001  -1.347910e+002 
4031250000  -4.395452e+001  -1.359544e+002 
4034375000  -4.397191e+001  -1.414820e+002 
4037500000  -4.421920e+001  -1.439065e+002 
4040625000  -4.443562e+001  -1.504617e+002 
4043750000  -4.445612e+001  -1.529435e+002 
4046875000  -4.414853e+001  -1.605689e+002 
4050000000  -4.400044e+001  -1.694865e+002 
4053125000  -4.532407e+001  -1.669868e+002 
4056250000  -4.504516e+001  -1.651967e+002 
4059375000  -4.404480e+001  -1.689809e+002 
4062500000  -4.332260e+001  -1.719032e+002 
4065625000  -4.318641e+001  1.797411e+002 
4068750000  -4.300620e+001  1.676288e+002 
4071875000  -4.244561e+001  1.572209e+002 
4075000000  -4.332428e+001  1.500202e+002 
4078125000  -4.361420e+001  1.505645e+002 
4081250000  -4.344595e+001  1.419303e+002 
4084375000  -4.328774e+001  1.353262e+002 
4087500000  -4.372684e+001  1.266382e+002 
4090625000  -4.454467e+001  1.245531e+002 
4093750000  -4.428693e+001  1.217403e+002 
4096875000  -4.438625e+001  1.148052e+002 
4100000000  -4.525286e+001  1.061205e+002 
4103125000  -4.548809e+001  1.093574e+002 
4106250000  -4.537423e+001  1.131299e+002 
4109375000  -4.467824e+001  1.070040e+002 
4112500000  -4.396804e+001  9.789020e+001 
4115625000  -4.417250e+001  9.401138e+001 
4118750000  -4.386800e+001  8.778782e+001 
4121875000  -4.380215e+001  8.180984e+001 
4125000000  -4.496443e+001  7.102448e+001 
4128125000  -4.533022e+001  7.519250e+001 
4131250000  -4.393521e+001  8.043279e+001 
4134375000  -4.121479e+001  6.825026e+001 
4137500000  -4.170510e+001  4.580575e+001 
4140625000  -4.453359e+001  4.035204e+001 
4143750000  -4.442588e+001  4.354839e+001 
4146875000  -4.404611e+001  4.635072e+001 
4150000000  -4.249288e+001  3.926472e+001 
4153125000  -4.325210e+001  2.681631e+001 
4156250000  -4.409862e+001  2.438432e+001 
4159375000  -4.398782e+001  2.689821e+001 
4162500000  -4.258427e+001  2.438869e+001 
4165625000  -4.112845e+001  1.557497e+001 
4168750000  -4.100954e+001  2.361115e+000 
4171875000  -4.128725e+001  -1.012260e+001 
4175000000  -4.206314e+001  -1.742493e+001 
4178125000  -4.217737e+001  -2.111701e+001 
4181250000  -4.204856e+001  -2.604996e+001 
4184375000  -4.234526e+001  -3.396451e+001 
4187500000  -4.247795e+001  -3.915918e+001 
4190625000  -4.268089e+001  -5.096297e+001 
4193750000  -4.378688e+001  -5.345355e+001 
4196875000  -4.458235e+001  -5.738397e+001 
4200000000  -4.583896e+001  -5.138345e+001 
4203125000  -4.427423e+001  -4.180763e+001 
4206250000  -4.126873e+001  -5.182550e+001 
4209375000  -4.121432e+001  -7.657294e+001 
4212500000  -4.350986e+001  -8.419678e+001 
4215625000  -4.399878e+001  -7.601057e+001 
4218750000  -4.217535e+001  -7.590849e+001 
4221875000  -4.116515e+001  -8.942459e+001 
4225000000  -4.230102e+001  -9.883118e+001 
4228125000  -4.246351e+001  -9.703973e+001 
4231250000  -4.077781e+001  -1.071030e+002 
4234375000  -4.087134e+001  -1.181021e+002 
4237500000  -4.064634e+001  -1.213444e+002 
4240625000  -4.147340e+001  -1.355182e+002 
4243750000  -4.222333e+001  -1.408860e+002 
4246875000  -4.335033e+001  -1.405087e+002 
4250000000  -4.274979e+001  -1.428757e+002 
4253125000  -4.228716e+001  -1.433893e+002 
4256250000  -4.226974e+001  -1.508396e+002 
4259375000  -4.202398e+001  -1.569035e+002 
4262500000  -4.202577e+001  -1.627894e+002 
4265625000  -4.204452e+001  -1.622053e+002 
4268750000  -4.094711e+001  -1.714564e+002 
4271875000  -4.058217e+001  1.777368e+002 
4275000000  -4.010118e+001  1.653520e+002 
4278125000  -4.135345e+001  1.549408e+002 
4281250000  -4.237321e+001  1.536470e+002 
4284375000  -4.223172e+001  1.492631e+002 
4287500000  -4.352887e+001  1.467834e+002 
4290625000  -4.384821e+001  1.526308e+002 
4293750000  -4.179914e+001  1.526286e+002 
4296875000  -4.024508e+001  1.394766e+002 
4300000000  -4.158948e+001  1.277921e+002 
4303125000  -4.183586e+001  1.271909e+002 
4306250000  -4.035770e+001  1.274488e+002 
4309375000  -3.975482e+001  1.186221e+002 
4312500000  -3.961493e+001  1.057204e+002 
4315625000  -4.016311e+001  9.651412e+001 
4318750000  -4.081131e+001  9.267046e+001 
4321875000  -4.073448e+001  8.795226e+001 
4325000000  -4.010094e+001  8.552399e+001 
4328125000  -3.956057e+001  7.205810e+001 
4331250000  -3.967732e+001  6.074077e+001 
4334375000  -4.066147e+001  5.398773e+001 
4337500000  -4.228265e+001  5.129195e+001 
4340625000  -4.198859e+001  5.142031e+001 
4343750000  -4.135478e+001  4.698557e+001 
4346875000  -4.079766e+001  3.910390e+001 
4350000000  -4.091719e+001  3.039206e+001 
4353125000  -4.168528e+001  1.988272e+001 
4356250000  -4.413945e+001  2.382244e+001 
4359375000  -4.200555e+001  3.688512e+001 
4362500000  -3.945712e+001  2.555876e+001 
4365625000  -3.901752e+001  8.292118e+000 
4368750000  -4.027504e+001  -2.517929e+000 
4371875000  -4.149642e+001  -4.428006e+000 
4375000000  -4.056292e+001  -9.753264e+000 
4378125000  -4.033302e+001  -1.873218e+001 
4381250000  -4.049781e+001  -2.611426e+001 
4384375000  -4.088267e+001  -3.298678e+001 
4387500000  -4.168210e+001  -4.259390e+001 
4390625000  -4.205122e+001  -4.187134e+001 
4393750000  -4.158434e+001  -4.471194e+001 
4396875000  -4.096952e+001  -4.755564e+001 
4400000000  -4.060880e+001  -5.701376e+001 
4403125000  -4.142787e+001  -6.924519e+001 
4406250000  -4.217758e+001  -7.192413e+001 
4409375000  -4.230578e+001  -7.829634e+001 
4412500000  -4.384661e+001  -8.019576e+001 
4415625000  -4.296484e+001  -7.609959e+001 
4418750000  -4.191803e+001  -7.768661e+001 
