!Agilent Technologies,E8363B,MY43030201,A.06.04.32
!Agilent E8363B: A.06.04.32
!Date: Tuesday, November 11, 2014 21:43:24
!Correction: S21(Response(S21)) 
!S1P File: Measurement: S21:
# Hz S  dB   R 50
3000000000  -4.368412e+001  -1.592928e+002 
3003125000  -4.497970e+001  -1.643874e+002 
3006250000  -4.529279e+001  -1.675445e+002 
3009375000  -4.606909e+001  -1.614530e+002 
3012500000  -4.490511e+001  -1.686744e+002 
3015625000  -4.509071e+001  -1.772024e+002 
3018750000  -4.526154e+001  -1.769086e+002 
3021875000  -4.382147e+001  -1.769986e+002 
3025000000  -4.249880e+001  1.794833e+002 
3028125000  -4.170349e+001  1.663292e+002 
3031250000  -4.092531e+001  1.539251e+002 
3034375000  -4.083772e+001  1.398835e+002 
3037500000  -4.151326e+001  1.295869e+002 
3040625000  -4.292095e+001  1.222177e+002 
3043750000  -4.336857e+001  1.160819e+002 
3046875000  -4.369138e+001  1.090198e+002 
3050000000  -4.516218e+001  1.028972e+002 
3053125000  -4.467764e+001  1.075156e+002 
3056250000  -4.484574e+001  1.109873e+002 
3059375000  -4.421815e+001  1.076740e+002 
3062500000  -4.234882e+001  1.020637e+002 
3065625000  -4.206047e+001  9.110995e+001 
3068750000  -4.190712e+001  8.390830e+001 
3071875000  -4.172830e+001  8.074284e+001 
3075000000  -4.113789e+001  7.202884e+001 
3078125000  -4.119264e+001  6.567938e+001 
3081250000  -4.133514e+001  5.892456e+001 
3084375000  -4.056843e+001  5.335336e+001 
3087500000  -4.047189e+001  4.467240e+001 
3090625000  -4.003359e+001  3.326823e+001 
3093750000  -4.107103e+001  2.368038e+001 
3096875000  -4.116428e+001  1.775508e+001 
3100000000  -4.115067e+001  1.274296e+001 
3103125000  -4.172472e+001  8.800447e+000 
3106250000  -4.103817e+001  3.561039e+000 
3109375000  -4.104013e+001  -9.196659e-001 
3112500000  -4.090336e+001  -8.238325e+000 
3115625000  -4.087308e+001  -1.365105e+001 
3118750000  -4.072225e+001  -1.919009e+001 
3121875000  -4.024303e+001  -3.155130e+001 
3125000000  -4.213912e+001  -3.495304e+001 
3128125000  -4.201524e+001  -2.862131e+001 
3131250000  -3.951374e+001  -3.730549e+001 
3134375000  -3.883964e+001  -5.508708e+001 
3137500000  -3.963548e+001  -6.943336e+001 
3140625000  -4.089098e+001  -7.212527e+001 
3143750000  -4.170116e+001  -7.793204e+001 
3146875000  -4.113540e+001  -7.628100e+001 
3150000000  -4.049709e+001  -8.086579e+001 
3153125000  -4.083620e+001  -9.021140e+001 
3156250000  -4.136424e+001  -8.586272e+001 
3159375000  -3.915468e+001  -9.052531e+001 
3162500000  -3.756684e+001  -1.055486e+002 
3165625000  -3.918458e+001  -1.214888e+002 
3168750000  -3.904113e+001  -1.227618e+002 
3171875000  -3.881087e+001  -1.298172e+002 
3175000000  -3.913119e+001  -1.404339e+002 
3178125000  -3.885846e+001  -1.423284e+002 
3181250000  -3.820284e+001  -1.528685e+002 
3184375000  -3.782456e+001  -1.642136e+002 
3187500000  -3.921173e+001  1.797586e+002 
3190625000  -4.105981e+001  1.717054e+002 
3193750000  -4.125971e+001  1.768850e+002 
3196875000  -4.108849e+001  1.763845e+002 
3200000000  -3.987181e+001  1.699481e+002 
3203125000  -3.961034e+001  1.622641e+002 
3206250000  -3.975855e+001  1.530674e+002 
3209375000  -3.949846e+001  1.444744e+002 
3212500000  -3.989269e+001  1.377647e+002 
3215625000  -3.966071e+001  1.349173e+002 
3218750000  -4.026974e+001  1.207912e+002 
3221875000  -4.070177e+001  1.133572e+002 
3225000000  -4.037351e+001  1.104712e+002 
3228125000  -4.126809e+001  1.017513e+002 
3231250000  -4.159008e+001  9.977811e+001 
3234375000  -4.132907e+001  9.572792e+001 
3237500000  -4.082124e+001  9.167430e+001 
3240625000  -4.048026e+001  8.585086e+001 
3243750000  -4.041687e+001  7.235128e+001 
3246875000  -4.075604e+001  6.494495e+001 
3250000000  -4.104921e+001  6.026659e+001 
3253125000  -4.121099e+001  5.639281e+001 
3256250000  -4.055647e+001  4.500778e+001 
3259375000  -4.115462e+001  3.308145e+001 
3262500000  -4.250487e+001  2.734647e+001 
3265625000  -4.255910e+001  2.873863e+001 
3268750000  -4.252655e+001  2.886015e+001 
3271875000  -4.171611e+001  2.103788e+001 
3275000000  -4.116887e+001  1.144298e+001 
3278125000  -4.180839e+001  3.868586e+000 
3281250000  -4.167521e+001  -5.906869e-001 
3284375000  -4.110812e+001  -6.777021e+000 
3287500000  -4.166020e+001  -1.436309e+001 
3290625000  -4.168237e+001  -2.439179e+001 
3293750000  -4.155415e+001  -3.486471e+001 
3296875000  -4.261746e+001  -3.574079e+001 
3300000000  -4.231573e+001  -3.924691e+001 
3303125000  -4.102722e+001  -4.859859e+001 
3306250000  -4.096733e+001  -6.046436e+001 
3309375000  -4.068592e+001  -6.965699e+001 
3312500000  -4.122124e+001  -8.504418e+001 
3315625000  -4.243422e+001  -9.334877e+001 
3318750000  -4.413826e+001  -9.917754e+001 
3321875000  -4.533274e+001  -9.724040e+001 
3325000000  -4.505824e+001  -9.693814e+001 
3328125000  -4.435398e+001  -9.578127e+001 
3331250000  -4.271746e+001  -9.659303e+001 
3334375000  -4.026960e+001  -1.156073e+002 
3337500000  -4.107054e+001  -1.397790e+002 
3340625000  -4.310626e+001  -1.503257e+002 
3343750000  -4.472194e+001  -1.512515e+002 
3346875000  -4.398924e+001  -1.545624e+002 
3350000000  -4.395938e+001  -1.597139e+002 
3353125000  -4.399189e+001  -1.698736e+002 
3356250000  -4.340492e+001  -1.799365e+002 
3359375000  -4.451075e+001  1.657552e+002 
3362500000  -4.514565e+001  1.583525e+002 
3365625000  -4.587630e+001  1.529695e+002 
3368750000  -4.708754e+001  1.470286e+002 
3371875000  -4.712012e+001  1.400940e+002 
3375000000  -4.913474e+001  1.355587e+002 
3378125000  -4.873839e+001  1.325379e+002 
3381250000  -5.139104e+001  1.432581e+002 
3384375000  -4.740861e+001  1.510959e+002 
3387500000  -4.476672e+001  1.299130e+002 
3390625000  -4.658172e+001  1.067628e+002 
3393750000  -4.747084e+001  1.069910e+002 
3396875000  -4.662477e+001  1.016406e+002 
3400000000  -4.638862e+001  8.894183e+001 
3403125000  -4.686309e+001  8.159530e+001 
3406250000  -4.755558e+001  7.245232e+001 
3409375000  -4.744003e+001  5.968374e+001 
3412500000  -4.814040e+001  5.533087e+001 
3415625000  -4.867782e+001  5.305853e+001 
3418750000  -4.849668e+001  4.826953e+001 
3421875000  -4.888686e+001  4.020372e+001 
3425000000  -4.824530e+001  3.679507e+001 
3428125000  -4.698043e+001  2.925926e+001 
3431250000  -4.701517e+001  1.566980e+001 
3434375000  -4.701213e+001  4.970997e+000 
3437500000  -4.800925e+001  -3.052026e+000 
3440625000  -4.755391e+001  -7.341861e+000 
3443750000  -4.640477e+001  -1.097233e+001 
3446875000  -4.568520e+001  -2.487483e+001 
3450000000  -4.527449e+001  -4.189012e+001 
3453125000  -4.545768e+001  -6.010090e+001 
3456250000  -4.769544e+001  -6.812112e+001 
3459375000  -4.825129e+001  -7.005203e+001 
3462500000  -4.804482e+001  -7.483325e+001 
3465625000  -4.708472e+001  -8.726651e+001 
3468750000  -4.745945e+001  -9.477431e+001 
3471875000  -4.729110e+001  -1.059640e+002 
3475000000  -4.699295e+001  -1.143681e+002 
3478125000  -4.779244e+001  -1.282395e+002 
3481250000  -4.900535e+001  -1.291055e+002 
3484375000  -4.841288e+001  -1.327519e+002 
3487500000  -4.772595e+001  -1.376498e+002 
3490625000  -4.685493e+001  -1.512534e+002 
3493750000  -4.780716e+001  -1.657178e+002 
3496875000  -4.782291e+001  -1.658676e+002 
3500000000  -4.836266e+001  -1.713257e+002 
3503125000  -4.717359e+001  -1.706139e+002 
3506250000  -4.533684e+001  1.733104e+002 
3509375000  -4.566369e+001  1.536505e+002 
3512500000  -4.596967e+001  1.407895e+002 
3515625000  -4.721227e+001  1.341801e+002 
3518750000  -4.784874e+001  1.320755e+002 
3521875000  -4.833721e+001  1.216251e+002 
3525000000  -4.883537e+001  1.148739e+002 
3528125000  -4.702909e+001  1.215573e+002 
3531250000  -4.653298e+001  1.057798e+002 
3534375000  -4.688452e+001  9.050732e+001 
3537500000  -4.725504e+001  8.093706e+001 
3540625000  -4.905666e+001  7.696674e+001 
3543750000  -4.887623e+001  8.324805e+001 
3546875000  -4.873650e+001  8.687301e+001 
3550000000  -4.621308e+001  7.795293e+001 
3553125000  -4.617164e+001  5.563091e+001 
3556250000  -4.691277e+001  4.818541e+001 
3559375000  -4.631856e+001  4.471252e+001 
3562500000  -4.593735e+001  3.385917e+001 
3565625000  -4.740447e+001  2.780415e+001 
3568750000  -4.768587e+001  2.607681e+001 
3571875000  -4.768753e+001  1.999894e+001 
3575000000  -4.728739e+001  1.297036e+001 
3578125000  -4.784293e+001  9.868600e+000 
3581250000  -4.740514e+001  7.187969e+000 
3584375000  -4.599804e+001  1.458812e-001 
3587500000  -4.533872e+001  -1.330947e+001 
3590625000  -4.703521e+001  -2.508156e+001 
3593750000  -4.831458e+001  -2.529497e+001 
3596875000  -4.660360e+001  -1.854016e+001 
3600000000  -4.485904e+001  -2.866077e+001 
3603125000  -4.479548e+001  -4.539356e+001 
3606250000  -4.624109e+001  -4.912141e+001 
3609375000  -4.625823e+001  -5.422181e+001 
3612500000  -4.595596e+001  -5.992199e+001 
3615625000  -4.602273e+001  -6.630910e+001 
3618750000  -4.641077e+001  -6.973529e+001 
3621875000  -4.522313e+001  -7.558842e+001 
3625000000  -4.593182e+001  -7.975961e+001 
3628125000  -4.484918e+001  -8.298156e+001 
3631250000  -4.497542e+001  -9.393961e+001 
3634375000  -4.569343e+001  -9.520281e+001 
3637500000  -4.476248e+001  -9.816772e+001 
3640625000  -4.360588e+001  -1.043057e+002 
3643750000  -4.311895e+001  -1.146737e+002 
3646875000  -4.384909e+001  -1.269566e+002 
3650000000  -4.394213e+001  -1.311823e+002 
3653125000  -4.350457e+001  -1.398499e+002 
3656250000  -4.421588e+001  -1.459970e+002 
3659375000  -4.380488e+001  -1.487872e+002 
3662500000  -4.330563e+001  -1.566947e+002 
3665625000  -4.356525e+001  -1.621387e+002 
3668750000  -4.191870e+001  -1.667278e+002 
3671875000  -4.161057e+001  -1.797934e+002 
3675000000  -4.228161e+001  1.698907e+002 
3678125000  -4.280323e+001  1.658947e+002 
3681250000  -4.240554e+001  1.605738e+002 
3684375000  -4.274448e+001  1.505848e+002 
3687500000  -4.285176e+001  1.420990e+002 
3690625000  -4.360992e+001  1.352237e+002 
3693750000  -4.458162e+001  1.361726e+002 
3696875000  -4.381427e+001  1.316969e+002 
3700000000  -4.299675e+001  1.237731e+002 
3703125000  -4.404963e+001  1.170696e+002 
3706250000  -4.450553e+001  1.129098e+002 
3709375000  -4.406627e+001  1.139384e+002 
3712500000  -4.318700e+001  1.086670e+002 
3715625000  -4.167586e+001  9.958221e+001 
3718750000  -4.154419e+001  8.853320e+001 
3721875000  -4.191125e+001  7.865485e+001 
3725000000  -4.240402e+001  7.242389e+001 
3728125000  -4.254551e+001  6.931818e+001 
3731250000  -4.200608e+001  6.111827e+001 
3734375000  -4.194200e+001  5.383702e+001 
3737500000  -4.255737e+001  4.274963e+001 
3740625000  -4.341436e+001  4.106813e+001 
3743750000  -4.273064e+001  3.376043e+001 
3746875000  -4.344553e+001  2.756697e+001 
3750000000  -4.390108e+001  2.414924e+001 
3753125000  -4.390574e+001  1.950886e+001 
3756250000  -4.390527e+001  1.538873e+001 
3759375000  -4.386266e+001  1.232271e+001 
3762500000  -4.375063e+001  7.810140e+000 
3765625000  -4.420419e+001  1.915164e+000 
3768750000  -4.323547e+001  4.192618e+000 
3771875000  -4.215382e+001  -4.049407e+000 
3775000000  -4.203666e+001  -1.713037e+001 
3778125000  -4.262754e+001  -2.202896e+001 
3781250000  -4.258961e+001  -2.580785e+001 
3784375000  -4.251340e+001  -3.445374e+001 
3787500000  -4.236203e+001  -3.873860e+001 
3790625000  -4.285549e+001  -4.969200e+001 
3793750000  -4.280079e+001  -5.135275e+001 
3796875000  -4.186878e+001  -5.553609e+001 
3800000000  -4.082994e+001  -6.461897e+001 
3803125000  -4.192968e+001  -7.530666e+001 
3806250000  -4.260151e+001  -8.012160e+001 
3809375000  -4.194049e+001  -8.764952e+001 
3812500000  -4.182051e+001  -9.650873e+001 
3815625000  -4.348462e+001  -1.058700e+002 
3818750000  -4.460926e+001  -1.035586e+002 
3821875000  -4.338670e+001  -9.794420e+001 
3825000000  -4.187138e+001  -1.004692e+002 
3828125000  -4.074707e+001  -1.242247e+002 
3831250000  -4.175788e+001  -1.372371e+002 
3834375000  -4.400474e+001  -1.376077e+002 
3837500000  -4.385672e+001  -1.343138e+002 
3840625000  -4.222050e+001  -1.419485e+002 
3843750000  -4.169040e+001  -1.553014e+002 
3846875000  -4.335785e+001  -1.624586e+002 
3850000000  -4.411918e+001  -1.566919e+002 
3853125000  -4.332056e+001  -1.605914e+002 
3856250000  -4.291747e+001  -1.693331e+002 
3859375000  -4.247908e+001  -1.785398e+002 
3862500000  -4.237202e+001  1.744128e+002 
3865625000  -4.275693e+001  1.661127e+002 
3868750000  -4.249248e+001  1.640904e+002 
3871875000  -4.178652e+001  1.554274e+002 
3875000000  -4.254906e+001  1.454092e+002 
3878125000  -4.329770e+001  1.406952e+002 
3881250000  -4.340249e+001  1.415397e+002 
3884375000  -4.293245e+001  1.298756e+002 
3887500000  -4.342326e+001  1.251105e+002 
3890625000  -4.394856e+001  1.211495e+002 
3893750000  -4.420935e+001  1.175918e+002 
3896875000  -4.428210e+001  1.136353e+002 
3900000000  -4.451090e+001  1.113903e+002 
3903125000  -4.351441e+001  1.054966e+002 
3906250000  -4.399650e+001  1.010269e+002 
3909375000  -4.282222e+001  9.036414e+001 
3912500000  -4.425232e+001  8.247215e+001 
3915625000  -4.468323e+001  8.271574e+001 
3918750000  -4.463132e+001  8.143331e+001 
3921875000  -4.373394e+001  7.629173e+001 
3925000000  -4.328999e+001  6.783500e+001 
3928125000  -4.290730e+001  5.893270e+001 
3931250000  -4.369987e+001  5.192382e+001 
3934375000  -4.409171e+001  4.829528e+001 
3937500000  -4.454256e+001  4.690577e+001 
3940625000  -4.453448e+001  4.513411e+001 
3943750000  -4.353046e+001  3.899301e+001 
3946875000  -4.305589e+001  3.137965e+001 
3950000000  -4.409305e+001  2.174588e+001 
3953125000  -4.448188e+001  2.149010e+001 
3956250000  -4.311044e+001  2.452140e+001 
3959375000  -4.239124e+001  1.664986e+001 
3962500000  -4.190182e+001  6.409017e+000 
3965625000  -4.202197e+001  -7.891390e+000 
3968750000  -4.248195e+001  -1.085434e+001 
3971875000  -4.239803e+001  -1.529853e+001 
3975000000  -4.228365e+001  -2.174275e+001 
3978125000  -4.218512e+001  -3.081924e+001 
3981250000  -4.213781e+001  -3.690111e+001 
3984375000  -4.242104e+001  -4.458981e+001 
3987500000  -4.312889e+001  -5.229571e+001 
3990625000  -4.306178e+001  -5.467480e+001 
3993750000  -4.308101e+001  -5.967801e+001 
3996875000  -4.318735e+001  -6.497413e+001 
4000000000  -4.367255e+001  -6.748692e+001 
4003125000  -4.381982e+001  -7.038708e+001 
4006250000  -4.225060e+001  -7.618142e+001 
4009375000  -4.159723e+001  -9.352391e+001 
4012500000  -4.315774e+001  -9.872520e+001 
4015625000  -4.396414e+001  -1.002077e+002 
4018750000  -4.386515e+001  -1.049072e+002 
4021875000  -4.313880e+001  -1.128447e+002 
4025000000  -4.299567e+001  -1.196271e+002 
4028125000  -4.348786e+001  -1.257361e+002 
4031250000  -4.421318e+001  -1.330414e+002 
4034375000  -4.463072e+001  -1.359362e+002 
4037500000  -4.439323e+001  -1.390778e+002 
4040625000  -4.401645e+001  -1.433278e+002 
4043750000  -4.463757e+001  -1.491233e+002 
4046875000  -4.468959e+001  -1.529946e+002 
4050000000  -4.427928e+001  -1.614109e+002 
4053125000  -4.529585e+001  -1.637908e+002 
4056250000  -4.591891e+001  -1.628850e+002 
4059375000  -4.420100e+001  -1.636266e+002 
4062500000  -4.389759e+001  -1.734807e+002 
4065625000  -4.394304e+001  -1.788017e+002 
4068750000  -4.350054e+001  1.746295e+002 
4071875000  -4.291666e+001  1.638279e+002 
4075000000  -4.424918e+001  1.553345e+002 
4078125000  -4.428277e+001  1.553117e+002 
4081250000  -4.373216e+001  1.490378e+002 
4084375000  -4.397488e+001  1.381486e+002 
4087500000  -4.399894e+001  1.311526e+002 
4090625000  -4.503510e+001  1.319447e+002 
4093750000  -4.484518e+001  1.285301e+002 
4096875000  -4.488506e+001  1.180442e+002 
4100000000  -4.550597e+001  1.150006e+002 
4103125000  -4.644490e+001  1.172890e+002 
4106250000  -4.536285e+001  1.174325e+002 
4109375000  -4.470572e+001  1.106101e+002 
4112500000  -4.450202e+001  1.014100e+002 
4115625000  -4.469272e+001  9.861683e+001 
4118750000  -4.419764e+001  9.469399e+001 
4121875000  -4.384388e+001  8.763660e+001 
4125000000  -4.497541e+001  7.595643e+001 
4128125000  -4.504883e+001  8.077092e+001 
4131250000  -4.443478e+001  8.366225e+001 
4134375000  -4.169389e+001  7.381859e+001 
4137500000  -4.200420e+001  5.454029e+001 
4140625000  -4.456720e+001  4.770984e+001 
4143750000  -4.479021e+001  5.341205e+001 
4146875000  -4.462854e+001  5.439463e+001 
4150000000  -4.306755e+001  4.065077e+001 
4153125000  -4.357482e+001  3.209087e+001 
4156250000  -4.434354e+001  2.950391e+001 
4159375000  -4.402372e+001  3.028773e+001 
4162500000  -4.263903e+001  3.062479e+001 
4165625000  -4.174870e+001  1.903142e+001 
4168750000  -4.139396e+001  9.673639e+000 
4171875000  -4.134777e+001  -1.863557e+000 
4175000000  -4.253672e+001  -1.056994e+001 
4178125000  -4.269067e+001  -1.294680e+001 
4181250000  -4.252801e+001  -2.071805e+001 
4184375000  -4.341893e+001  -2.655525e+001 
4187500000  -4.277090e+001  -3.303992e+001 
4190625000  -4.322142e+001  -4.268417e+001 
4193750000  -4.409999e+001  -4.841362e+001 
4196875000  -4.547416e+001  -5.092400e+001 
4200000000  -4.680721e+001  -4.581427e+001 
4203125000  -4.498639e+001  -3.672358e+001 
4206250000  -4.164762e+001  -4.388050e+001 
4209375000  -4.164432e+001  -7.133402e+001 
4212500000  -4.434356e+001  -7.899262e+001 
4215625000  -4.447392e+001  -7.044768e+001 
4218750000  -4.306355e+001  -7.182396e+001 
4221875000  -4.144615e+001  -7.963717e+001 
4225000000  -4.223645e+001  -9.333451e+001 
4228125000  -4.285173e+001  -9.206027e+001 
4231250000  -4.108980e+001  -9.865720e+001 
4234375000  -4.141913e+001  -1.093672e+002 
4237500000  -4.112640e+001  -1.160924e+002 
4240625000  -4.187213e+001  -1.273536e+002 
4243750000  -4.271315e+001  -1.352020e+002 
4246875000  -4.369695e+001  -1.333002e+002 
4250000000  -4.327759e+001  -1.347289e+002 
4253125000  -4.327098e+001  -1.397565e+002 
4256250000  -4.293279e+001  -1.431347e+002 
4259375000  -4.223953e+001  -1.499143e+002 
4262500000  -4.258232e+001  -1.578360e+002 
4265625000  -4.279466e+001  -1.578926e+002 
4268750000  -4.117753e+001  -1.654155e+002 
4271875000  -4.121230e+001  -1.770171e+002 
4275000000  -4.090515e+001  1.743278e+002 
4278125000  -4.213230e+001  1.624908e+002 
4281250000  -4.289755e+001  1.617915e+002 
4284375000  -4.281028e+001  1.564693e+002 
4287500000  -4.395047e+001  1.524477e+002 
4290625000  -4.408959e+001  1.606256e+002 
4293750000  -4.220261e+001  1.595031e+002 
4296875000  -4.084848e+001  1.451614e+002 
4300000000  -4.225238e+001  1.342482e+002 
4303125000  -4.246189e+001  1.359769e+002 
4306250000  -4.097231e+001  1.354182e+002 
4309375000  -4.000320e+001  1.236859e+002 
4312500000  -4.010372e+001  1.126470e+002 
4315625000  -4.044976e+001  1.026949e+002 
4318750000  -4.116773e+001  9.847232e+001 
4321875000  -4.109671e+001  9.482911e+001 
4325000000  -4.046828e+001  9.076079e+001 
4328125000  -3.974068e+001  7.943159e+001 
4331250000  -3.994804e+001  6.950779e+001 
4334375000  -4.120539e+001  6.056757e+001 
4337500000  -4.212783e+001  5.920929e+001 
4340625000  -4.287132e+001  6.153730e+001 
4343750000  -4.143879e+001  5.774986e+001 
4346875000  -4.161977e+001  4.562262e+001 
4350000000  -4.135840e+001  3.627553e+001 
4353125000  -4.229683e+001  2.683306e+001 
4356250000  -4.487503e+001  3.190721e+001 
4359375000  -4.328144e+001  4.421181e+001 
4362500000  -3.991612e+001  3.570582e+001 
4365625000  -3.945086e+001  1.621962e+001 
4368750000  -4.094027e+001  5.217690e+000 
4371875000  -4.191672e+001  4.413444e+000 
4375000000  -4.100901e+001  -2.023489e+000 
4378125000  -4.120923e+001  -1.131363e+001 
4381250000  -4.122332e+001  -1.806174e+001 
4384375000  -4.143255e+001  -2.690150e+001 
4387500000  -4.209333e+001  -3.434689e+001 
4390625000  -4.245855e+001  -3.469108e+001 
4393750000  -4.218818e+001  -3.390859e+001 
4396875000  -4.178354e+001  -4.104044e+001 
4400000000  -4.124213e+001  -5.128283e+001 
4403125000  -4.217192e+001  -5.917816e+001 
4406250000  -4.282121e+001  -6.377944e+001 
4409375000  -4.299971e+001  -6.902521e+001 
4412500000  -4.429703e+001  -7.052857e+001 
4415625000  -4.379734e+001  -7.047886e+001 
4418750000  -4.237479e+001  -6.984146e+001 
