!Agilent Technologies,E8363B,MY43030201,A.06.04.32
!Agilent E8363B: A.06.04.32
!Date: Tuesday, November 11, 2014 21:41:15
!Correction: S21(Response(S21)) 
!S1P File: Measurement: S21:
# Hz S  dB   R 50
3000000000  -4.369967e+001  -1.578555e+002 
3003125000  -4.543553e+001  -1.621626e+002 
3006250000  -4.543479e+001  -1.635310e+002 
3009375000  -4.607887e+001  -1.614712e+002 
3012500000  -4.485887e+001  -1.683818e+002 
3015625000  -4.507236e+001  -1.740765e+002 
3018750000  -4.561716e+001  -1.752631e+002 
3021875000  -4.396238e+001  -1.742237e+002 
3025000000  -4.249487e+001  -1.794260e+002 
3028125000  -4.165253e+001  1.692362e+002 
3031250000  -4.106241e+001  1.555913e+002 
3034375000  -4.083059e+001  1.406435e+002 
3037500000  -4.164600e+001  1.309818e+002 
3040625000  -4.316482e+001  1.251270e+002 
3043750000  -4.329134e+001  1.166029e+002 
3046875000  -4.410130e+001  1.107255e+002 
3050000000  -4.525200e+001  1.053090e+002 
3053125000  -4.485774e+001  1.116793e+002 
3056250000  -4.466347e+001  1.112699e+002 
3059375000  -4.386500e+001  1.096057e+002 
3062500000  -4.238584e+001  1.039667e+002 
3065625000  -4.236095e+001  9.224207e+001 
3068750000  -4.197020e+001  8.661633e+001 
3071875000  -4.184286e+001  8.193913e+001 
3075000000  -4.118649e+001  7.492880e+001 
3078125000  -4.129876e+001  6.791482e+001 
3081250000  -4.133462e+001  5.973309e+001 
3084375000  -4.041224e+001  5.493523e+001 
3087500000  -4.064971e+001  4.755391e+001 
3090625000  -4.014175e+001  3.390370e+001 
3093750000  -4.104504e+001  2.505383e+001 
3096875000  -4.107969e+001  2.162025e+001 
3100000000  -4.122961e+001  1.622737e+001 
3103125000  -4.147369e+001  1.144005e+001 
3106250000  -4.102348e+001  5.699549e+000 
3109375000  -4.095964e+001  8.826689e-001 
3112500000  -4.063903e+001  -7.044065e+000 
3115625000  -4.078696e+001  -1.216483e+001 
3118750000  -4.077671e+001  -1.767788e+001 
3121875000  -4.027832e+001  -2.830813e+001 
3125000000  -4.214606e+001  -3.387293e+001 
3128125000  -4.205302e+001  -2.814441e+001 
3131250000  -3.944625e+001  -3.588787e+001 
3134375000  -3.894332e+001  -5.280054e+001 
3137500000  -3.960739e+001  -6.619886e+001 
3140625000  -4.082193e+001  -7.024537e+001 
3143750000  -4.170092e+001  -7.426297e+001 
3146875000  -4.124514e+001  -7.474945e+001 
3150000000  -4.043627e+001  -7.934317e+001 
3153125000  -4.092069e+001  -8.771085e+001 
3156250000  -4.150726e+001  -8.653116e+001 
3159375000  -3.916533e+001  -8.896085e+001 
3162500000  -3.788065e+001  -1.055354e+002 
3165625000  -3.902421e+001  -1.186242e+002 
3168750000  -3.909199e+001  -1.204644e+002 
3171875000  -3.860096e+001  -1.282365e+002 
3175000000  -3.934091e+001  -1.401508e+002 
3178125000  -3.884923e+001  -1.414248e+002 
3181250000  -3.804470e+001  -1.511762e+002 
3184375000  -3.780179e+001  -1.634303e+002 
3187500000  -3.924690e+001  -1.784907e+002 
3190625000  -4.082499e+001  1.744268e+002 
3193750000  -4.124630e+001  -1.798194e+002 
3196875000  -4.106985e+001  1.785076e+002 
3200000000  -3.973136e+001  1.724867e+002 
3203125000  -3.964202e+001  1.642492e+002 
3206250000  -3.985082e+001  1.562153e+002 
3209375000  -3.940776e+001  1.462158e+002 
3212500000  -3.998906e+001  1.392691e+002 
3215625000  -3.967663e+001  1.364015e+002 
3218750000  -4.043863e+001  1.242771e+002 
3221875000  -4.059851e+001  1.168589e+002 
3225000000  -4.057231e+001  1.117410e+002 
3228125000  -4.122397e+001  1.045615e+002 
3231250000  -4.147987e+001  1.023209e+002 
3234375000  -4.119740e+001  9.789658e+001 
3237500000  -4.098129e+001  9.319230e+001 
3240625000  -4.042493e+001  8.730103e+001 
3243750000  -4.021553e+001  7.458972e+001 
3246875000  -4.072339e+001  6.737970e+001 
3250000000  -4.095833e+001  6.237703e+001 
3253125000  -4.141370e+001  5.804543e+001 
3256250000  -4.057515e+001  4.726721e+001 
3259375000  -4.115205e+001  3.457690e+001 
3262500000  -4.252534e+001  3.134651e+001 
3265625000  -4.254700e+001  3.057528e+001 
3268750000  -4.275841e+001  3.082805e+001 
3271875000  -4.168827e+001  2.502699e+001 
3275000000  -4.112452e+001  1.439980e+001 
3278125000  -4.175706e+001  6.324251e+000 
3281250000  -4.186124e+001  1.983780e+000 
3284375000  -4.101432e+001  -5.629694e+000 
3287500000  -4.156910e+001  -1.211125e+001 
3290625000  -4.162858e+001  -2.255612e+001 
3293750000  -4.170238e+001  -3.054543e+001 
3296875000  -4.298919e+001  -3.582906e+001 
3300000000  -4.205168e+001  -3.796413e+001 
3303125000  -4.099680e+001  -4.594349e+001 
3306250000  -4.091167e+001  -5.700802e+001 
3309375000  -4.087151e+001  -6.847630e+001 
3312500000  -4.133881e+001  -8.219087e+001 
3315625000  -4.238330e+001  -9.083613e+001 
3318750000  -4.425183e+001  -9.888126e+001 
3321875000  -4.522505e+001  -9.356911e+001 
3325000000  -4.501164e+001  -9.009575e+001 
3328125000  -4.415499e+001  -9.364332e+001 
3331250000  -4.233045e+001  -9.566099e+001 
3334375000  -4.007405e+001  -1.152006e+002 
3337500000  -4.118287e+001  -1.369677e+002 
3340625000  -4.309712e+001  -1.473501e+002 
3343750000  -4.494810e+001  -1.502911e+002 
3346875000  -4.426202e+001  -1.542101e+002 
3350000000  -4.378313e+001  -1.581044e+002 
3353125000  -4.379531e+001  -1.674395e+002 
3356250000  -4.345599e+001  -1.779816e+002 
3359375000  -4.436296e+001  1.699544e+002 
3362500000  -4.515918e+001  1.612300e+002 
3365625000  -4.580094e+001  1.572368e+002 
3368750000  -4.668606e+001  1.484562e+002 
3371875000  -4.753252e+001  1.416921e+002 
3375000000  -4.825442e+001  1.350504e+002 
3378125000  -4.981958e+001  1.337866e+002 
3381250000  -5.025501e+001  1.446919e+002 
3384375000  -4.737969e+001  1.607680e+002 
3387500000  -4.460656e+001  1.314843e+002 
3390625000  -4.688985e+001  1.092072e+002 
3393750000  -4.816976e+001  1.074233e+002 
3396875000  -4.660612e+001  1.028238e+002 
3400000000  -4.640060e+001  8.939844e+001 
3403125000  -4.674112e+001  8.085162e+001 
3406250000  -4.758521e+001  7.344645e+001 
3409375000  -4.708029e+001  6.486124e+001 
3412500000  -4.754609e+001  5.633635e+001 
3415625000  -4.877859e+001  5.196852e+001 
3418750000  -4.863755e+001  4.660314e+001 
3421875000  -4.904416e+001  4.392481e+001 
3425000000  -4.785519e+001  3.827064e+001 
3428125000  -4.743828e+001  3.140699e+001 
3431250000  -4.695205e+001  2.074374e+001 
3434375000  -4.718740e+001  5.446480e+000 
3437500000  -4.764359e+001  -2.942287e+000 
3440625000  -4.745038e+001  -3.434335e+000 
3443750000  -4.619739e+001  -1.010137e+001 
3446875000  -4.565343e+001  -2.514029e+001 
3450000000  -4.501017e+001  -3.877527e+001 
3453125000  -4.584433e+001  -5.682799e+001 
3456250000  -4.722386e+001  -6.964352e+001 
3459375000  -4.842056e+001  -6.896350e+001 
3462500000  -4.796803e+001  -7.853706e+001 
3465625000  -4.740930e+001  -8.596664e+001 
3468750000  -4.762819e+001  -9.198124e+001 
3471875000  -4.702298e+001  -9.834415e+001 
3475000000  -4.717568e+001  -1.149072e+002 
3478125000  -4.762113e+001  -1.273586e+002 
3481250000  -4.904135e+001  -1.318521e+002 
3484375000  -4.857824e+001  -1.309820e+002 
3487500000  -4.736280e+001  -1.397047e+002 
3490625000  -4.759815e+001  -1.501971e+002 
3493750000  -4.801931e+001  -1.597493e+002 
3496875000  -4.833461e+001  -1.675131e+002 
3500000000  -4.838457e+001  -1.712728e+002 
3503125000  -4.745805e+001  -1.761704e+002 
3506250000  -4.520882e+001  1.747666e+002 
3509375000  -4.531643e+001  1.548972e+002 
3512500000  -4.622478e+001  1.393260e+002 
3515625000  -4.716406e+001  1.343850e+002 
3518750000  -4.765718e+001  1.348482e+002 
3521875000  -4.798001e+001  1.226468e+002 
3525000000  -4.936031e+001  1.178068e+002 
3528125000  -4.669863e+001  1.216416e+002 
3531250000  -4.632651e+001  1.086651e+002 
3534375000  -4.644225e+001  9.269382e+001 
3537500000  -4.813778e+001  8.433585e+001 
3540625000  -4.871489e+001  8.555247e+001 
3543750000  -4.988619e+001  8.148019e+001 
3546875000  -4.854712e+001  9.055100e+001 
3550000000  -4.717712e+001  7.733428e+001 
3553125000  -4.589526e+001  5.880446e+001 
3556250000  -4.750890e+001  5.213708e+001 
3559375000  -4.668486e+001  4.804831e+001 
3562500000  -4.671966e+001  3.779213e+001 
3565625000  -4.706972e+001  2.815503e+001 
3568750000  -4.745255e+001  2.953497e+001 
3571875000  -4.680640e+001  2.297818e+001 
3575000000  -4.699327e+001  1.393673e+001 
3578125000  -4.725536e+001  1.038742e+001 
3581250000  -4.758347e+001  8.750010e+000 
3584375000  -4.609495e+001  2.488076e+000 
3587500000  -4.616064e+001  -1.108628e+001 
3590625000  -4.649974e+001  -2.033293e+001 
3593750000  -4.822021e+001  -1.665437e+001 
3596875000  -4.694429e+001  -1.640660e+001 
3600000000  -4.494618e+001  -2.857474e+001 
3603125000  -4.479190e+001  -4.580565e+001 
3606250000  -4.576078e+001  -4.964121e+001 
3609375000  -4.585781e+001  -5.161306e+001 
3612500000  -4.591746e+001  -6.022087e+001 
3615625000  -4.619791e+001  -6.481607e+001 
3618750000  -4.647224e+001  -6.833957e+001 
3621875000  -4.549147e+001  -7.263477e+001 
3625000000  -4.588911e+001  -7.835527e+001 
3628125000  -4.495071e+001  -8.589285e+001 
3631250000  -4.516716e+001  -9.448415e+001 
3634375000  -4.601866e+001  -9.392744e+001 
3637500000  -4.436170e+001  -9.616275e+001 
3640625000  -4.379519e+001  -1.025795e+002 
3643750000  -4.335088e+001  -1.145840e+002 
3646875000  -4.388150e+001  -1.251943e+002 
3650000000  -4.395943e+001  -1.310142e+002 
3653125000  -4.340327e+001  -1.383805e+002 
3656250000  -4.394248e+001  -1.450207e+002 
3659375000  -4.386914e+001  -1.489954e+002 
3662500000  -4.329719e+001  -1.545486e+002 
3665625000  -4.351628e+001  -1.610381e+002 
3668750000  -4.228846e+001  -1.644640e+002 
3671875000  -4.150047e+001  -1.789363e+002 
3675000000  -4.226967e+001  1.705152e+002 
3678125000  -4.241889e+001  1.683531e+002 
3681250000  -4.252067e+001  1.612247e+002 
3684375000  -4.240755e+001  1.538892e+002 
3687500000  -4.319919e+001  1.447966e+002 
3690625000  -4.361371e+001  1.402924e+002 
3693750000  -4.449060e+001  1.376875e+002 
3696875000  -4.358589e+001  1.334279e+002 
3700000000  -4.339455e+001  1.255544e+002 
3703125000  -4.400259e+001  1.197171e+002 
3706250000  -4.465904e+001  1.153289e+002 
3709375000  -4.393937e+001  1.167310e+002 
3712500000  -4.318755e+001  1.108801e+002 
3715625000  -4.193472e+001  1.002571e+002 
3718750000  -4.167308e+001  9.106391e+001 
3721875000  -4.200745e+001  8.254897e+001 
3725000000  -4.253157e+001  7.292737e+001 
3728125000  -4.260629e+001  7.120097e+001 
3731250000  -4.203070e+001  6.244545e+001 
3734375000  -4.213856e+001  5.654873e+001 
3737500000  -4.308594e+001  4.838415e+001 
3740625000  -4.321119e+001  4.185347e+001 
3743750000  -4.309938e+001  3.549073e+001 
3746875000  -4.350257e+001  2.907404e+001 
3750000000  -4.386006e+001  2.450509e+001 
3753125000  -4.389451e+001  2.180424e+001 
3756250000  -4.377238e+001  1.895620e+001 
3759375000  -4.401454e+001  1.536297e+001 
3762500000  -4.374573e+001  8.722486e+000 
3765625000  -4.401826e+001  3.344834e+000 
3768750000  -4.390812e+001  4.035053e+000 
3771875000  -4.248648e+001  -3.628850e+000 
3775000000  -4.251694e+001  -1.362369e+001 
3778125000  -4.273568e+001  -2.047733e+001 
3781250000  -4.247525e+001  -2.333303e+001 
3784375000  -4.247319e+001  -3.134516e+001 
3787500000  -4.266746e+001  -3.757005e+001 
3790625000  -4.279110e+001  -4.888163e+001 
3793750000  -4.263086e+001  -4.933150e+001 
3796875000  -4.190482e+001  -5.492723e+001 
3800000000  -4.086752e+001  -6.115105e+001 
3803125000  -4.176091e+001  -7.253564e+001 
3806250000  -4.268909e+001  -7.843471e+001 
3809375000  -4.191093e+001  -8.311777e+001 
3812500000  -4.203953e+001  -9.577816e+001 
3815625000  -4.319374e+001  -1.040746e+002 
3818750000  -4.455054e+001  -1.032202e+002 
3821875000  -4.365054e+001  -9.063860e+001 
3825000000  -4.131073e+001  -9.819988e+001 
3828125000  -4.026682e+001  -1.202359e+002 
3831250000  -4.191502e+001  -1.357757e+002 
3834375000  -4.383364e+001  -1.354727e+002 
3837500000  -4.412710e+001  -1.328412e+002 
3840625000  -4.242574e+001  -1.390618e+002 
3843750000  -4.168680e+001  -1.520623e+002 
3846875000  -4.342000e+001  -1.619662e+002 
3850000000  -4.425183e+001  -1.575304e+002 
3853125000  -4.386740e+001  -1.572170e+002 
3856250000  -4.325623e+001  -1.624669e+002 
3859375000  -4.224794e+001  -1.758573e+002 
3862500000  -4.208878e+001  1.754848e+002 
3865625000  -4.303493e+001  1.682656e+002 
3868750000  -4.223413e+001  1.672423e+002 
3871875000  -4.244820e+001  1.569766e+002 
3875000000  -4.246646e+001  1.485202e+002 
3878125000  -4.330478e+001  1.441286e+002 
3881250000  -4.301172e+001  1.436894e+002 
3884375000  -4.260892e+001  1.319849e+002 
3887500000  -4.338311e+001  1.249006e+002 
3890625000  -4.394386e+001  1.254087e+002 
3893750000  -4.419652e+001  1.186962e+002 
3896875000  -4.423059e+001  1.181869e+002 
3900000000  -4.430700e+001  1.138198e+002 
3903125000  -4.397367e+001  1.053238e+002 
3906250000  -4.341337e+001  1.037194e+002 
3909375000  -4.321202e+001  9.492592e+001 
3912500000  -4.387148e+001  8.326582e+001 
3915625000  -4.465089e+001  8.404282e+001 
3918750000  -4.465666e+001  8.253336e+001 
3921875000  -4.386986e+001  7.940928e+001 
3925000000  -4.346954e+001  7.361114e+001 
3928125000  -4.286259e+001  6.154924e+001 
3931250000  -4.368649e+001  5.557957e+001 
3934375000  -4.386769e+001  5.638478e+001 
3937500000  -4.475563e+001  5.043631e+001 
3940625000  -4.464982e+001  5.191028e+001 
3943750000  -4.343324e+001  4.513624e+001 
3946875000  -4.305651e+001  3.462689e+001 
3950000000  -4.414372e+001  2.297072e+001 
3953125000  -4.482276e+001  2.537456e+001 
3956250000  -4.278732e+001  2.736604e+001 
3959375000  -4.212635e+001  1.915379e+001 
3962500000  -4.172613e+001  7.671816e+000 
3965625000  -4.168787e+001  -4.540728e-001 
3968750000  -4.281336e+001  -1.022449e+001 
3971875000  -4.259051e+001  -1.638334e+001 
3975000000  -4.221872e+001  -1.901063e+001 
3978125000  -4.231074e+001  -2.757067e+001 
3981250000  -4.218961e+001  -3.354516e+001 
3984375000  -4.277154e+001  -4.140495e+001 
3987500000  -4.349235e+001  -4.649356e+001 
3990625000  -4.327674e+001  -5.138682e+001 
3993750000  -4.324989e+001  -5.783030e+001 
3996875000  -4.314790e+001  -6.618159e+001 
4000000000  -4.394225e+001  -6.829859e+001 
4003125000  -4.401769e+001  -6.697778e+001 
4006250000  -4.205122e+001  -7.487971e+001 
4009375000  -4.131698e+001  -8.880691e+001 
4012500000  -4.278711e+001  -9.801320e+001 
4015625000  -4.399640e+001  -9.657332e+001 
4018750000  -4.385820e+001  -1.026162e+002 
4021875000  -4.358305e+001  -1.078475e+002 
4025000000  -4.344692e+001  -1.152290e+002 
4028125000  -4.369607e+001  -1.254820e+002 
4031250000  -4.455893e+001  -1.287069e+002 
4034375000  -4.427202e+001  -1.318903e+002 
4037500000  -4.417154e+001  -1.358395e+002 
4040625000  -4.428081e+001  -1.439445e+002 
4043750000  -4.507088e+001  -1.446311e+002 
4046875000  -4.459919e+001  -1.539757e+002 
4050000000  -4.495871e+001  -1.591698e+002 
4053125000  -4.560871e+001  -1.610766e+002 
4056250000  -4.567542e+001  -1.567656e+002 
4059375000  -4.442853e+001  -1.619858e+002 
4062500000  -4.375504e+001  -1.704155e+002 
4065625000  -4.389016e+001  -1.757954e+002 
4068750000  -4.351652e+001  1.743739e+002 
4071875000  -4.302513e+001  1.628375e+002 
4075000000  -4.417204e+001  1.595643e+002 
4078125000  -4.452666e+001  1.560855e+002 
4081250000  -4.352741e+001  1.523522e+002 
4084375000  -4.389234e+001  1.440072e+002 
4087500000  -4.437524e+001  1.341277e+002 
4090625000  -4.513040e+001  1.346815e+002 
4093750000  -4.471914e+001  1.303317e+002 
4096875000  -4.463775e+001  1.233561e+002 
4100000000  -4.607253e+001  1.162991e+002 
4103125000  -4.596713e+001  1.171461e+002 
4106250000  -4.570776e+001  1.194764e+002 
4109375000  -4.494757e+001  1.167602e+002 
4112500000  -4.450019e+001  1.068352e+002 
4115625000  -4.470705e+001  9.964446e+001 
4118750000  -4.377997e+001  9.435807e+001 
4121875000  -4.391078e+001  8.916899e+001 
4125000000  -4.521972e+001  8.345011e+001 
4128125000  -4.568182e+001  8.411581e+001 
4131250000  -4.436603e+001  9.131207e+001 
4134375000  -4.180837e+001  7.875270e+001 
4137500000  -4.210565e+001  5.759382e+001 
4140625000  -4.454278e+001  5.032190e+001 
4143750000  -4.504692e+001  5.430248e+001 
4146875000  -4.411045e+001  5.225026e+001 
4150000000  -4.308511e+001  4.718989e+001 
4153125000  -4.368714e+001  3.674421e+001 
4156250000  -4.431927e+001  3.283559e+001 
4159375000  -4.394096e+001  3.421299e+001 
4162500000  -4.269622e+001  3.216826e+001 
4165625000  -4.218262e+001  2.046828e+001 
4168750000  -4.148077e+001  1.019666e+001 
4171875000  -4.185903e+001  2.337524e+000 
4175000000  -4.216754e+001  -8.550542e+000 
4178125000  -4.267747e+001  -1.063218e+001 
4181250000  -4.259756e+001  -1.624351e+001 
4184375000  -4.284719e+001  -2.563087e+001 
4187500000  -4.284070e+001  -3.070401e+001 
4190625000  -4.283959e+001  -3.964087e+001 
4193750000  -4.455081e+001  -4.545516e+001 
4196875000  -4.591125e+001  -5.032647e+001 
4200000000  -4.669093e+001  -4.183882e+001 
4203125000  -4.461099e+001  -3.439339e+001 
4206250000  -4.122949e+001  -4.203289e+001 
4209375000  -4.175910e+001  -6.622768e+001 
4212500000  -4.442791e+001  -7.510777e+001 
4215625000  -4.463891e+001  -6.567983e+001 
4218750000  -4.283862e+001  -6.731631e+001 
4221875000  -4.139811e+001  -7.748554e+001 
4225000000  -4.257688e+001  -8.776597e+001 
4228125000  -4.239749e+001  -9.043027e+001 
4231250000  -4.140928e+001  -9.533590e+001 
4234375000  -4.137587e+001  -1.083894e+002 
4237500000  -4.102983e+001  -1.154878e+002 
4240625000  -4.157428e+001  -1.246548e+002 
4243750000  -4.291967e+001  -1.333193e+002 
4246875000  -4.350258e+001  -1.335018e+002 
4250000000  -4.311301e+001  -1.346104e+002 
4253125000  -4.314996e+001  -1.345694e+002 
4256250000  -4.319129e+001  -1.443156e+002 
4259375000  -4.221965e+001  -1.460273e+002 
4262500000  -4.269880e+001  -1.533535e+002 
4265625000  -4.264550e+001  -1.532610e+002 
4268750000  -4.148968e+001  -1.610126e+002 
4271875000  -4.116406e+001  -1.742244e+002 
4275000000  -4.108780e+001  1.765161e+002 
4278125000  -4.160403e+001  1.636463e+002 
4281250000  -4.297106e+001  1.628761e+002 
4284375000  -4.273125e+001  1.600685e+002 
4287500000  -4.411935e+001  1.541760e+002 
4290625000  -4.396569e+001  1.620694e+002 
4293750000  -4.213068e+001  1.619483e+002 
4296875000  -4.074087e+001  1.456762e+002 
4300000000  -4.159777e+001  1.365230e+002 
4303125000  -4.241511e+001  1.371674e+002 
4306250000  -4.128898e+001  1.390611e+002 
4309375000  -4.020572e+001  1.299286e+002 
4312500000  -3.985155e+001  1.134583e+002 
4315625000  -4.047161e+001  1.037869e+002 
4318750000  -4.115917e+001  9.970833e+001 
4321875000  -4.101251e+001  9.832646e+001 
4325000000  -4.052553e+001  9.519730e+001 
4328125000  -4.019172e+001  8.228405e+001 
4331250000  -4.005318e+001  7.060950e+001 
4334375000  -4.121465e+001  6.271885e+001 
4337500000  -4.267299e+001  5.985250e+001 
4340625000  -4.263724e+001  6.600819e+001 
4343750000  -4.185623e+001  5.731959e+001 
4346875000  -4.143613e+001  4.883497e+001 
4350000000  -4.163489e+001  3.882706e+001 
4353125000  -4.246497e+001  3.105119e+001 
4356250000  -4.441698e+001  3.420295e+001 
4359375000  -4.324298e+001  4.398188e+001 
4362500000  -4.020292e+001  3.714350e+001 
4365625000  -3.908625e+001  1.851857e+001 
4368750000  -4.106893e+001  5.423461e+000 
4371875000  -4.171793e+001  5.455902e+000 
4375000000  -4.113694e+001  2.283341e+000 
4378125000  -4.117791e+001  -6.612934e+000 
4381250000  -4.131828e+001  -1.307450e+001 
4384375000  -4.123034e+001  -2.360929e+001 
4387500000  -4.211445e+001  -2.980886e+001 
4390625000  -4.265294e+001  -3.397440e+001 
4393750000  -4.267029e+001  -3.324665e+001 
4396875000  -4.170024e+001  -3.597371e+001 
4400000000  -4.126450e+001  -4.843357e+001 
4403125000  -4.208762e+001  -5.818695e+001 
4406250000  -4.278956e+001  -6.038361e+001 
4409375000  -4.328169e+001  -6.656020e+001 
4412500000  -4.376588e+001  -7.010303e+001 
4415625000  -4.359829e+001  -6.638026e+001 
4418750000  -4.250290e+001  -6.492200e+001 
