!Agilent Technologies,E8363B,MY43030201,A.06.04.32
!Agilent E8363B: A.06.04.32
!Date: Tuesday, November 11, 2014 21:47:15
!Correction: S21(Response(S21)) 
!S1P File: Measurement: S21:
# Hz S  dB   R 50
3000000000  -4.387630e+001  -1.618295e+002 
3003125000  -4.555872e+001  -1.656859e+002 
3006250000  -4.534685e+001  -1.673060e+002 
3009375000  -4.600822e+001  -1.644413e+002 
3012500000  -4.508769e+001  -1.703645e+002 
3015625000  -4.490853e+001  -1.787932e+002 
3018750000  -4.522163e+001  -1.772774e+002 
3021875000  -4.399449e+001  -1.786522e+002 
3025000000  -4.270564e+001  1.769191e+002 
3028125000  -4.168272e+001  1.647718e+002 
3031250000  -4.094438e+001  1.513680e+002 
3034375000  -4.079517e+001  1.381269e+002 
3037500000  -4.167929e+001  1.271607e+002 
3040625000  -4.292359e+001  1.211947e+002 
3043750000  -4.330100e+001  1.137675e+002 
3046875000  -4.399324e+001  1.058536e+002 
3050000000  -4.534315e+001  1.034106e+002 
3053125000  -4.483836e+001  1.078611e+002 
3056250000  -4.498666e+001  1.083191e+002 
3059375000  -4.378384e+001  1.043941e+002 
3062500000  -4.260586e+001  1.005099e+002 
3065625000  -4.201195e+001  8.994261e+001 
3068750000  -4.173169e+001  8.151840e+001 
3071875000  -4.177705e+001  7.947787e+001 
3075000000  -4.127329e+001  7.117727e+001 
3078125000  -4.118821e+001  6.389980e+001 
3081250000  -4.142408e+001  5.790396e+001 
3084375000  -4.042802e+001  5.089468e+001 
3087500000  -4.058975e+001  4.310048e+001 
3090625000  -4.005578e+001  3.040360e+001 
3093750000  -4.098354e+001  2.296415e+001 
3096875000  -4.113821e+001  1.550586e+001 
3100000000  -4.123292e+001  1.224658e+001 
3103125000  -4.122570e+001  7.352322e+000 
3106250000  -4.097933e+001  1.845185e+000 
3109375000  -4.107538e+001  -3.538055e+000 
3112500000  -4.088974e+001  -1.057571e+001 
3115625000  -4.091311e+001  -1.585805e+001 
3118750000  -4.067514e+001  -2.219106e+001 
3121875000  -4.022315e+001  -3.250897e+001 
3125000000  -4.220375e+001  -3.811849e+001 
3128125000  -4.197513e+001  -3.102751e+001 
3131250000  -3.943274e+001  -3.814408e+001 
3134375000  -3.878185e+001  -5.700637e+001 
3137500000  -3.949519e+001  -6.969855e+001 
3140625000  -4.095424e+001  -7.446213e+001 
3143750000  -4.155242e+001  -7.882294e+001 
3146875000  -4.106274e+001  -7.662882e+001 
3150000000  -4.036289e+001  -8.231062e+001 
3153125000  -4.075044e+001  -9.102792e+001 
3156250000  -4.150987e+001  -8.825725e+001 
3159375000  -3.901856e+001  -9.179739e+001 
3162500000  -3.772666e+001  -1.079510e+002 
3165625000  -3.901008e+001  -1.229440e+002 
3168750000  -3.915210e+001  -1.255688e+002 
3171875000  -3.855784e+001  -1.327432e+002 
3175000000  -3.901591e+001  -1.426737e+002 
3178125000  -3.874726e+001  -1.443186e+002 
3181250000  -3.803193e+001  -1.537045e+002 
3184375000  -3.773595e+001  -1.670477e+002 
3187500000  -3.917747e+001  1.778804e+002 
3190625000  -4.096069e+001  1.702758e+002 
3193750000  -4.088042e+001  1.752524e+002 
3196875000  -4.099007e+001  1.745708e+002 
3200000000  -3.982545e+001  1.688211e+002 
3203125000  -3.942592e+001  1.601862e+002 
3206250000  -3.980804e+001  1.529869e+002 
3209375000  -3.952509e+001  1.431678e+002 
3212500000  -3.992112e+001  1.362075e+002 
3215625000  -3.953331e+001  1.335011e+002 
3218750000  -4.043285e+001  1.197217e+002 
3221875000  -4.066041e+001  1.120641e+002 
3225000000  -4.023984e+001  1.086060e+002 
3228125000  -4.116114e+001  1.005125e+002 
3231250000  -4.142492e+001  9.735255e+001 
3234375000  -4.096151e+001  9.519829e+001 
3237500000  -4.094712e+001  9.115067e+001 
3240625000  -4.020374e+001  8.395200e+001 
3243750000  -4.028019e+001  7.024369e+001 
3246875000  -4.068021e+001  6.317777e+001 
3250000000  -4.094717e+001  5.781314e+001 
3253125000  -4.107645e+001  5.293739e+001 
3256250000  -4.036538e+001  4.234692e+001 
3259375000  -4.104901e+001  3.091864e+001 
3262500000  -4.240937e+001  2.551207e+001 
3265625000  -4.267957e+001  2.814533e+001 
3268750000  -4.240096e+001  2.584995e+001 
3271875000  -4.159064e+001  1.982433e+001 
3275000000  -4.104561e+001  1.089901e+001 
3278125000  -4.172290e+001  4.581374e+000 
3281250000  -4.166048e+001  7.594321e-001 
3284375000  -4.083278e+001  -8.473445e+000 
3287500000  -4.160403e+001  -1.597080e+001 
3290625000  -4.150581e+001  -2.598480e+001 
3293750000  -4.146624e+001  -3.259098e+001 
3296875000  -4.260599e+001  -3.781610e+001 
3300000000  -4.194067e+001  -4.160243e+001 
3303125000  -4.125847e+001  -4.971739e+001 
3306250000  -4.079276e+001  -5.985460e+001 
3309375000  -4.050894e+001  -7.081231e+001 
3312500000  -4.108836e+001  -8.516895e+001 
3315625000  -4.233626e+001  -9.421710e+001 
3318750000  -4.437612e+001  -1.016549e+002 
3321875000  -4.512013e+001  -1.007524e+002 
3325000000  -4.497849e+001  -9.382758e+001 
3328125000  -4.395815e+001  -9.919196e+001 
3331250000  -4.262617e+001  -9.911974e+001 
3334375000  -4.005488e+001  -1.167941e+002 
3337500000  -4.063336e+001  -1.408534e+002 
3340625000  -4.290690e+001  -1.488711e+002 
3343750000  -4.471949e+001  -1.533701e+002 
3346875000  -4.407250e+001  -1.572289e+002 
3350000000  -4.362371e+001  -1.616631e+002 
3353125000  -4.368570e+001  -1.709518e+002 
3356250000  -4.334002e+001  1.789648e+002 
3359375000  -4.419563e+001  1.661951e+002 
3362500000  -4.513104e+001  1.578528e+002 
3365625000  -4.564985e+001  1.531808e+002 
3368750000  -4.638352e+001  1.446092e+002 
3371875000  -4.686022e+001  1.409533e+002 
3375000000  -4.862444e+001  1.338901e+002 
3378125000  -4.914205e+001  1.352045e+002 
3381250000  -5.013612e+001  1.424014e+002 
3384375000  -4.749820e+001  1.519449e+002 
3387500000  -4.483118e+001  1.291737e+002 
3390625000  -4.702731e+001  1.071391e+002 
3393750000  -4.745717e+001  1.044432e+002 
3396875000  -4.649343e+001  9.998568e+001 
3400000000  -4.635306e+001  8.760159e+001 
3403125000  -4.701558e+001  7.714796e+001 
3406250000  -4.721601e+001  7.029183e+001 
3409375000  -4.709856e+001  6.080556e+001 
3412500000  -4.782565e+001  5.903696e+001 
3415625000  -4.856411e+001  4.906231e+001 
3418750000  -4.853202e+001  4.188945e+001 
3421875000  -4.909094e+001  4.049020e+001 
3425000000  -4.744747e+001  3.594953e+001 
3428125000  -4.736470e+001  2.833735e+001 
3431250000  -4.673878e+001  1.536009e+001 
3434375000  -4.695433e+001  3.392845e+000 
3437500000  -4.758574e+001  -6.861954e+000 
3440625000  -4.778888e+001  -6.557679e+000 
3443750000  -4.675884e+001  -1.377654e+001 
3446875000  -4.568968e+001  -2.831432e+001 
3450000000  -4.542045e+001  -4.193421e+001 
3453125000  -4.556930e+001  -6.033153e+001 
3456250000  -4.750458e+001  -6.844651e+001 
3459375000  -4.801334e+001  -7.060765e+001 
3462500000  -4.822902e+001  -7.665192e+001 
3465625000  -4.709013e+001  -8.819094e+001 
3468750000  -4.756717e+001  -9.354193e+001 
3471875000  -4.728968e+001  -1.036731e+002 
3475000000  -4.667730e+001  -1.147044e+002 
3478125000  -4.780195e+001  -1.267622e+002 
3481250000  -4.850293e+001  -1.356559e+002 
3484375000  -4.858718e+001  -1.362302e+002 
3487500000  -4.786931e+001  -1.409277e+002 
3490625000  -4.736701e+001  -1.552270e+002 
3493750000  -4.788637e+001  -1.650670e+002 
3496875000  -4.788131e+001  -1.683177e+002 
3500000000  -4.848238e+001  -1.702049e+002 
3503125000  -4.735313e+001  -1.780514e+002 
3506250000  -4.561972e+001  1.696685e+002 
3509375000  -4.534299e+001  1.508786e+002 
3512500000  -4.625251e+001  1.365908e+002 
3515625000  -4.683224e+001  1.299359e+002 
3518750000  -4.830624e+001  1.277514e+002 
3521875000  -4.783861e+001  1.214846e+002 
3525000000  -4.874315e+001  1.140405e+002 
3528125000  -4.810002e+001  1.184651e+002 
3531250000  -4.621062e+001  1.026716e+002 
3534375000  -4.676160e+001  8.612763e+001 
3537500000  -4.772107e+001  8.088900e+001 
3540625000  -4.905544e+001  7.858308e+001 
3543750000  -4.959517e+001  7.864123e+001 
3546875000  -4.888148e+001  8.259254e+001 
3550000000  -4.669578e+001  7.317421e+001 
3553125000  -4.614801e+001  5.407129e+001 
3556250000  -4.732998e+001  4.804546e+001 
3559375000  -4.652365e+001  4.271698e+001 
3562500000  -4.657911e+001  3.198952e+001 
3565625000  -4.728271e+001  2.361014e+001 
3568750000  -4.813385e+001  2.050815e+001 
3571875000  -4.742698e+001  1.701355e+001 
3575000000  -4.651305e+001  1.259348e+001 
3578125000  -4.778303e+001  6.538002e+000 
3581250000  -4.748526e+001  1.892869e+000 
3584375000  -4.598976e+001  -3.509935e+000 
3587500000  -4.580944e+001  -1.683439e+001 
3590625000  -4.626649e+001  -2.440881e+001 
3593750000  -4.760481e+001  -2.498840e+001 
3596875000  -4.689250e+001  -2.013479e+001 
3600000000  -4.488359e+001  -3.306412e+001 
3603125000  -4.536927e+001  -4.964291e+001 
3606250000  -4.558004e+001  -5.435319e+001 
3609375000  -4.570178e+001  -5.748072e+001 
3612500000  -4.573376e+001  -6.345139e+001 
3615625000  -4.564912e+001  -6.932592e+001 
3618750000  -4.618930e+001  -7.360258e+001 
3621875000  -4.546245e+001  -7.875076e+001 
3625000000  -4.593745e+001  -8.345376e+001 
3628125000  -4.444745e+001  -8.724638e+001 
3631250000  -4.496344e+001  -9.658283e+001 
3634375000  -4.568981e+001  -9.912871e+001 
3637500000  -4.458501e+001  -1.030536e+002 
3640625000  -4.353098e+001  -1.073549e+002 
3643750000  -4.308923e+001  -1.172745e+002 
3646875000  -4.377052e+001  -1.288394e+002 
3650000000  -4.364033e+001  -1.339862e+002 
3653125000  -4.342540e+001  -1.418553e+002 
3656250000  -4.401086e+001  -1.469463e+002 
3659375000  -4.387115e+001  -1.532939e+002 
3662500000  -4.337015e+001  -1.609795e+002 
3665625000  -4.337259e+001  -1.635557e+002 
3668750000  -4.195745e+001  -1.684931e+002 
3671875000  -4.156192e+001  1.761037e+002 
3675000000  -4.230420e+001  1.678159e+002 
3678125000  -4.262763e+001  1.641032e+002 
3681250000  -4.256482e+001  1.551010e+002 
3684375000  -4.265182e+001  1.454758e+002 
3687500000  -4.295127e+001  1.388669e+002 
3690625000  -4.358640e+001  1.347296e+002 
3693750000  -4.457277e+001  1.344898e+002 
3696875000  -4.378504e+001  1.283046e+002 
3700000000  -4.337832e+001  1.212094e+002 
3703125000  -4.399545e+001  1.128426e+002 
3706250000  -4.451299e+001  1.126339e+002 
3709375000  -4.404830e+001  1.104019e+002 
3712500000  -4.290693e+001  1.050269e+002 
3715625000  -4.201246e+001  9.383107e+001 
3718750000  -4.187680e+001  8.490722e+001 
3721875000  -4.186018e+001  7.682511e+001 
3725000000  -4.218569e+001  6.702778e+001 
3728125000  -4.266764e+001  6.427639e+001 
3731250000  -4.212769e+001  5.743404e+001 
3734375000  -4.228765e+001  5.105723e+001 
3737500000  -4.296226e+001  4.332272e+001 
3740625000  -4.310619e+001  3.650673e+001 
3743750000  -4.279412e+001  2.975149e+001 
3746875000  -4.321373e+001  2.279921e+001 
3750000000  -4.349331e+001  2.030179e+001 
3753125000  -4.367181e+001  1.774046e+001 
3756250000  -4.372690e+001  1.177916e+001 
3759375000  -4.378585e+001  5.469805e+000 
3762500000  -4.331919e+001  2.934045e+000 
3765625000  -4.397292e+001  -2.621779e+000 
3768750000  -4.332020e+001  -9.639121e-001 
3771875000  -4.178559e+001  -6.789562e+000 
3775000000  -4.188184e+001  -1.921829e+001 
3778125000  -4.277911e+001  -2.636185e+001 
3781250000  -4.285179e+001  -2.923213e+001 
3784375000  -4.238338e+001  -3.641673e+001 
3787500000  -4.239919e+001  -4.125028e+001 
3790625000  -4.281156e+001  -5.297173e+001 
3793750000  -4.276889e+001  -5.674826e+001 
3796875000  -4.131557e+001  -5.828642e+001 
3800000000  -4.059344e+001  -6.601093e+001 
3803125000  -4.180799e+001  -7.736261e+001 
3806250000  -4.234549e+001  -8.275172e+001 
3809375000  -4.194482e+001  -8.875809e+001 
3812500000  -4.142766e+001  -9.994467e+001 
3815625000  -4.319426e+001  -1.106794e+002 
3818750000  -4.445506e+001  -1.087318e+002 
3821875000  -4.337997e+001  -9.653167e+001 
3825000000  -4.118563e+001  -1.016276e+002 
3828125000  -4.032761e+001  -1.292107e+002 
3831250000  -4.172203e+001  -1.426879e+002 
3834375000  -4.376490e+001  -1.419836e+002 
3837500000  -4.384210e+001  -1.385441e+002 
3840625000  -4.249017e+001  -1.456891e+002 
3843750000  -4.177096e+001  -1.593745e+002 
3846875000  -4.327172e+001  -1.651725e+002 
3850000000  -4.396320e+001  -1.608812e+002 
3853125000  -4.377571e+001  -1.622802e+002 
3856250000  -4.285295e+001  -1.684435e+002 
3859375000  -4.221658e+001  1.792312e+002 
3862500000  -4.262678e+001  1.698723e+002 
3865625000  -4.248031e+001  1.638324e+002 
3868750000  -4.237085e+001  1.634033e+002 
3871875000  -4.177124e+001  1.518914e+002 
3875000000  -4.252090e+001  1.403352e+002 
3878125000  -4.346733e+001  1.385739e+002 
3881250000  -4.353101e+001  1.373297e+002 
3884375000  -4.262076e+001  1.271235e+002 
3887500000  -4.317206e+001  1.225463e+002 
3890625000  -4.368865e+001  1.159161e+002 
3893750000  -4.422161e+001  1.153291e+002 
3896875000  -4.426142e+001  1.104879e+002 
3900000000  -4.462376e+001  1.062162e+002 
3903125000  -4.361954e+001  9.925153e+001 
3906250000  -4.354087e+001  9.982268e+001 
3909375000  -4.275463e+001  8.874847e+001 
3912500000  -4.412822e+001  7.793778e+001 
3915625000  -4.508472e+001  7.964936e+001 
3918750000  -4.450437e+001  7.917338e+001 
3921875000  -4.360081e+001  7.467866e+001 
3925000000  -4.280707e+001  6.541801e+001 
3928125000  -4.294753e+001  5.762114e+001 
3931250000  -4.349176e+001  4.912726e+001 
3934375000  -4.390992e+001  4.398110e+001 
3937500000  -4.448093e+001  4.667156e+001 
3940625000  -4.494666e+001  4.436972e+001 
3943750000  -4.319236e+001  3.926268e+001 
3946875000  -4.285035e+001  2.769498e+001 
3950000000  -4.366364e+001  2.081178e+001 
3953125000  -4.474826e+001  2.199005e+001 
3956250000  -4.249265e+001  2.119197e+001 
3959375000  -4.153360e+001  1.282918e+001 
3962500000  -4.165505e+001  3.587789e+000 
3965625000  -4.159078e+001  -6.833437e+000 
3968750000  -4.239729e+001  -1.657210e+001 
3971875000  -4.284592e+001  -2.187753e+001 
3975000000  -4.172276e+001  -2.770117e+001 
3978125000  -4.210150e+001  -3.036385e+001 
3981250000  -4.182930e+001  -3.912762e+001 
3984375000  -4.230614e+001  -4.767419e+001 
3987500000  -4.268029e+001  -5.197295e+001 
3990625000  -4.280273e+001  -5.644768e+001 
3993750000  -4.332239e+001  -6.209271e+001 
3996875000  -4.315818e+001  -6.967594e+001 
4000000000  -4.368453e+001  -7.201477e+001 
4003125000  -4.397916e+001  -7.160828e+001 
4006250000  -4.187993e+001  -7.869492e+001 
4009375000  -4.110034e+001  -9.505336e+001 
4012500000  -4.290023e+001  -1.017344e+002 
4015625000  -4.373446e+001  -1.049010e+002 
4018750000  -4.363031e+001  -1.078841e+002 
4021875000  -4.306142e+001  -1.157177e+002 
4025000000  -4.331809e+001  -1.225879e+002 
4028125000  -4.308150e+001  -1.306477e+002 
4031250000  -4.400495e+001  -1.363963e+002 
4034375000  -4.405424e+001  -1.372276e+002 
4037500000  -4.408757e+001  -1.412333e+002 
4040625000  -4.397655e+001  -1.463735e+002 
4043750000  -4.412582e+001  -1.497958e+002 
4046875000  -4.419003e+001  -1.565256e+002 
4050000000  -4.442315e+001  -1.640607e+002 
4053125000  -4.471083e+001  -1.673450e+002 
4056250000  -4.559552e+001  -1.620265e+002 
4059375000  -4.366982e+001  -1.676450e+002 
4062500000  -4.319535e+001  -1.727645e+002 
4065625000  -4.343857e+001  -1.794173e+002 
4068750000  -4.282638e+001  1.729098e+002 
4071875000  -4.258845e+001  1.613684e+002 
4075000000  -4.329836e+001  1.544948e+002 
4078125000  -4.420901e+001  1.513246e+002 
4081250000  -4.356208e+001  1.484701e+002 
4084375000  -4.348310e+001  1.388139e+002 
4087500000  -4.375338e+001  1.296548e+002 
4090625000  -4.444664e+001  1.264953e+002 
4093750000  -4.404527e+001  1.254981e+002 
4096875000  -4.416231e+001  1.175249e+002 
4100000000  -4.521721e+001  1.064074e+002 
4103125000  -4.590090e+001  1.152510e+002 
4106250000  -4.543331e+001  1.165709e+002 
4109375000  -4.443531e+001  1.090654e+002 
4112500000  -4.393651e+001  1.000570e+002 
4115625000  -4.384078e+001  9.730444e+001 
4118750000  -4.375195e+001  8.943684e+001 
4121875000  -4.350779e+001  8.378201e+001 
4125000000  -4.437678e+001  7.437191e+001 
4128125000  -4.465640e+001  8.050661e+001 
4131250000  -4.434107e+001  8.166991e+001 
4134375000  -4.140197e+001  7.137140e+001 
4137500000  -4.192047e+001  4.862127e+001 
4140625000  -4.383396e+001  4.039605e+001 
4143750000  -4.481446e+001  4.762504e+001 
4146875000  -4.373039e+001  4.655957e+001 
4150000000  -4.309063e+001  3.852862e+001 
4153125000  -4.345881e+001  2.995573e+001 
4156250000  -4.431045e+001  2.627929e+001 
4159375000  -4.403118e+001  2.991723e+001 
4162500000  -4.231203e+001  2.648142e+001 
4165625000  -4.141813e+001  1.762844e+001 
4168750000  -4.120531e+001  5.232306e+000 
4171875000  -4.105334e+001  -6.249066e+000 
4175000000  -4.176199e+001  -1.273501e+001 
4178125000  -4.242219e+001  -1.924052e+001 
4181250000  -4.191322e+001  -2.397089e+001 
4184375000  -4.229737e+001  -3.032096e+001 
4187500000  -4.238352e+001  -3.837985e+001 
4190625000  -4.303234e+001  -4.434280e+001 
4193750000  -4.391700e+001  -5.188789e+001 
4196875000  -4.515424e+001  -5.497590e+001 
4200000000  -4.662788e+001  -4.595633e+001 
4203125000  -4.415914e+001  -3.784444e+001 
4206250000  -4.101651e+001  -5.185584e+001 
4209375000  -4.143821e+001  -7.255126e+001 
4212500000  -4.400252e+001  -7.876832e+001 
4215625000  -4.374251e+001  -7.235822e+001 
4218750000  -4.249254e+001  -7.428863e+001 
4221875000  -4.118928e+001  -8.460918e+001 
4225000000  -4.208214e+001  -9.522350e+001 
4228125000  -4.205134e+001  -9.365748e+001 
4231250000  -4.115347e+001  -1.015423e+002 
4234375000  -4.031895e+001  -1.175518e+002 
4237500000  -4.071834e+001  -1.207710e+002 
4240625000  -4.101969e+001  -1.323040e+002 
4243750000  -4.222696e+001  -1.402290e+002 
4246875000  -4.280186e+001  -1.400690e+002 
4250000000  -4.254394e+001  -1.388965e+002 
4253125000  -4.264390e+001  -1.422981e+002 
4256250000  -4.220304e+001  -1.496535e+002 
4259375000  -4.185993e+001  -1.532243e+002 
4262500000  -4.199125e+001  -1.613027e+002 
4265625000  -4.185297e+001  -1.617947e+002 
4268750000  -4.075843e+001  -1.703623e+002 
4271875000  -4.066266e+001  1.797856e+002 
4275000000  -4.019090e+001  1.727373e+002 
4278125000  -4.149964e+001  1.570505e+002 
4281250000  -4.268566e+001  1.552905e+002 
4284375000  -4.212272e+001  1.492373e+002 
4287500000  -4.390432e+001  1.490419e+002 
4290625000  -4.356466e+001  1.569902e+002 
4293750000  -4.184163e+001  1.559686e+002 
4296875000  -4.021844e+001  1.407270e+002 
4300000000  -4.153436e+001  1.263954e+002 
4303125000  -4.206507e+001  1.311149e+002 
4306250000  -4.088692e+001  1.290018e+002 
4309375000  -4.011456e+001  1.200320e+002 
4312500000  -3.954486e+001  1.069089e+002 
4315625000  -4.013663e+001  9.915665e+001 
4318750000  -4.066572e+001  9.172852e+001 
4321875000  -4.076908e+001  8.983530e+001 
4325000000  -4.000809e+001  8.819144e+001 
4328125000  -3.940292e+001  7.493826e+001 
4331250000  -3.969049e+001  6.356475e+001 
4334375000  -4.085824e+001  5.675391e+001 
4337500000  -4.184320e+001  5.457011e+001 
4340625000  -4.233082e+001  5.740439e+001 
4343750000  -4.102990e+001  4.895757e+001 
4346875000  -4.091528e+001  4.184720e+001 
4350000000  -4.106957e+001  3.323778e+001 
4353125000  -4.172904e+001  2.275095e+001 
4356250000  -4.348360e+001  2.542963e+001 
4359375000  -4.282871e+001  4.057211e+001 
4362500000  -3.939162e+001  2.970938e+001 
4365625000  -3.899160e+001  1.096870e+001 
4368750000  -3.996580e+001  1.024820e+000 
4371875000  -4.110566e+001  -3.124436e+000 
4375000000  -4.038663e+001  -8.102151e+000 
4378125000  -4.036597e+001  -1.553611e+001 
4381250000  -4.064322e+001  -2.241891e+001 
4384375000  -4.040079e+001  -2.898851e+001 
4387500000  -4.121457e+001  -3.641776e+001 
4390625000  -4.202911e+001  -4.195165e+001 
4393750000  -4.162640e+001  -3.996770e+001 
4396875000  -4.118634e+001  -4.398115e+001 
4400000000  -4.064953e+001  -5.557660e+001 
4403125000  -4.139289e+001  -6.482017e+001 
4406250000  -4.220727e+001  -6.878117e+001 
4409375000  -4.247218e+001  -7.354543e+001 
4412500000  -4.366068e+001  -7.803860e+001 
4415625000  -4.285192e+001  -7.251911e+001 
4418750000  -4.191603e+001  -7.571231e+001 
