!Agilent Technologies,E8363B,MY43030201,A.06.04.32
!Agilent E8363B: A.06.04.32
!Date: Tuesday, November 11, 2014 21:46:34
!Correction: S21(Response(S21)) 
!S1P File: Measurement: S21:
# Hz S  dB   R 50
3000000000  -4.377307e+001  -1.613931e+002 
3003125000  -4.524862e+001  -1.675338e+002 
3006250000  -4.533452e+001  -1.673068e+002 
3009375000  -4.631601e+001  -1.641180e+002 
3012500000  -4.498608e+001  -1.710912e+002 
3015625000  -4.505913e+001  -1.783820e+002 
3018750000  -4.551325e+001  -1.772259e+002 
3021875000  -4.412507e+001  -1.788468e+002 
3025000000  -4.257650e+001  1.763239e+002 
3028125000  -4.174920e+001  1.654252e+002 
3031250000  -4.088026e+001  1.518717e+002 
3034375000  -4.084837e+001  1.373504e+002 
3037500000  -4.163008e+001  1.269401e+002 
3040625000  -4.302171e+001  1.204168e+002 
3043750000  -4.330429e+001  1.144368e+002 
3046875000  -4.402292e+001  1.063758e+002 
3050000000  -4.535313e+001  1.016073e+002 
3053125000  -4.471795e+001  1.076371e+002 
3056250000  -4.450410e+001  1.091830e+002 
3059375000  -4.389784e+001  1.072389e+002 
3062500000  -4.264283e+001  1.020188e+002 
3065625000  -4.236059e+001  8.963985e+001 
3068750000  -4.198239e+001  8.087687e+001 
3071875000  -4.186610e+001  7.758769e+001 
3075000000  -4.131232e+001  7.133312e+001 
3078125000  -4.132194e+001  6.371476e+001 
3081250000  -4.127456e+001  5.721045e+001 
3084375000  -4.048774e+001  5.188971e+001 
3087500000  -4.059847e+001  4.508437e+001 
3090625000  -3.996679e+001  3.104427e+001 
3093750000  -4.097418e+001  2.166809e+001 
3096875000  -4.108739e+001  1.642775e+001 
3100000000  -4.114311e+001  1.176380e+001 
3103125000  -4.131320e+001  6.974006e+000 
3106250000  -4.128040e+001  9.104842e-001 
3109375000  -4.097091e+001  -5.266977e+000 
3112500000  -4.086551e+001  -1.103929e+001 
3115625000  -4.080418e+001  -1.657554e+001 
3118750000  -4.076687e+001  -2.119587e+001 
3121875000  -4.025604e+001  -3.275831e+001 
3125000000  -4.200513e+001  -3.713121e+001 
3128125000  -4.195141e+001  -3.058229e+001 
3131250000  -3.935516e+001  -3.945081e+001 
3134375000  -3.877084e+001  -5.701118e+001 
3137500000  -3.948678e+001  -6.825620e+001 
3140625000  -4.090398e+001  -7.459984e+001 
3143750000  -4.170264e+001  -7.745571e+001 
3146875000  -4.097861e+001  -7.708690e+001 
3150000000  -4.034549e+001  -8.314528e+001 
3153125000  -4.069580e+001  -9.071121e+001 
3156250000  -4.148112e+001  -8.753760e+001 
3159375000  -3.902256e+001  -9.212102e+001 
3162500000  -3.767942e+001  -1.088729e+002 
3165625000  -3.900517e+001  -1.225678e+002 
3168750000  -3.902179e+001  -1.245623e+002 
3171875000  -3.859492e+001  -1.324074e+002 
3175000000  -3.911076e+001  -1.426994e+002 
3178125000  -3.866700e+001  -1.446521e+002 
3181250000  -3.803094e+001  -1.545782e+002 
3184375000  -3.787249e+001  -1.663493e+002 
3187500000  -3.921511e+001  1.772473e+002 
3190625000  -4.089985e+001  1.704552e+002 
3193750000  -4.114495e+001  1.752707e+002 
3196875000  -4.107639e+001  1.753998e+002 
3200000000  -3.970239e+001  1.696431e+002 
3203125000  -3.954685e+001  1.600954e+002 
3206250000  -3.973340e+001  1.518921e+002 
3209375000  -3.948902e+001  1.433597e+002 
3212500000  -3.989383e+001  1.356628e+002 
3215625000  -3.972123e+001  1.330759e+002 
3218750000  -4.039979e+001  1.197522e+002 
3221875000  -4.066529e+001  1.122336e+002 
3225000000  -4.035552e+001  1.073597e+002 
3228125000  -4.101110e+001  1.007160e+002 
3231250000  -4.156297e+001  9.711436e+001 
3234375000  -4.085674e+001  9.284153e+001 
3237500000  -4.090965e+001  8.962228e+001 
3240625000  -4.041724e+001  8.251230e+001 
3243750000  -4.040702e+001  7.125843e+001 
3246875000  -4.069622e+001  6.298003e+001 
3250000000  -4.103600e+001  5.861985e+001 
3253125000  -4.111044e+001  5.435871e+001 
3256250000  -4.027686e+001  4.481309e+001 
3259375000  -4.091122e+001  3.062700e+001 
3262500000  -4.218333e+001  2.583624e+001 
3265625000  -4.238729e+001  2.700115e+001 
3268750000  -4.245794e+001  2.637442e+001 
3271875000  -4.140712e+001  1.994724e+001 
3275000000  -4.113027e+001  9.499667e+000 
3278125000  -4.172183e+001  3.474257e+000 
3281250000  -4.180400e+001  -1.575070e+000 
3284375000  -4.098993e+001  -9.253454e+000 
3287500000  -4.158761e+001  -1.703127e+001 
3290625000  -4.148737e+001  -2.489370e+001 
3293750000  -4.127314e+001  -3.416875e+001 
3296875000  -4.270495e+001  -3.887912e+001 
3300000000  -4.213802e+001  -3.898614e+001 
3303125000  -4.104171e+001  -4.945403e+001 
3306250000  -4.085903e+001  -6.093229e+001 
3309375000  -4.061969e+001  -7.179449e+001 
3312500000  -4.120741e+001  -8.573045e+001 
3315625000  -4.254049e+001  -9.380193e+001 
3318750000  -4.363725e+001  -1.017175e+002 
3321875000  -4.485540e+001  -9.774599e+001 
3325000000  -4.472604e+001  -9.419804e+001 
3328125000  -4.408612e+001  -9.791603e+001 
3331250000  -4.224714e+001  -9.804897e+001 
3334375000  -3.994476e+001  -1.162747e+002 
3337500000  -4.071171e+001  -1.401647e+002 
3340625000  -4.260767e+001  -1.520448e+002 
3343750000  -4.464902e+001  -1.518296e+002 
3346875000  -4.407121e+001  -1.556386e+002 
3350000000  -4.373847e+001  -1.625428e+002 
3353125000  -4.371947e+001  -1.709937e+002 
3356250000  -4.330497e+001  1.785412e+002 
3359375000  -4.415303e+001  1.656107e+002 
3362500000  -4.520917e+001  1.571955e+002 
3365625000  -4.579342e+001  1.492970e+002 
3368750000  -4.647462e+001  1.467273e+002 
3371875000  -4.708245e+001  1.368890e+002 
3375000000  -4.817910e+001  1.326793e+002 
3378125000  -4.921116e+001  1.372509e+002 
3381250000  -5.048557e+001  1.421355e+002 
3384375000  -4.800723e+001  1.534137e+002 
3387500000  -4.448422e+001  1.261006e+002 
3390625000  -4.686980e+001  1.053479e+002 
3393750000  -4.778131e+001  1.033555e+002 
3396875000  -4.673576e+001  9.911298e+001 
3400000000  -4.613620e+001  8.435247e+001 
3403125000  -4.689666e+001  7.787097e+001 
3406250000  -4.752960e+001  7.070380e+001 
3409375000  -4.711975e+001  6.092024e+001 
3412500000  -4.783068e+001  5.056706e+001 
3415625000  -4.910476e+001  4.914975e+001 
3418750000  -4.858661e+001  4.488905e+001 
3421875000  -4.903657e+001  4.290126e+001 
3425000000  -4.780941e+001  3.603135e+001 
3428125000  -4.718922e+001  2.727106e+001 
3431250000  -4.691585e+001  1.202907e+001 
3434375000  -4.703065e+001  4.216608e+000 
3437500000  -4.757460e+001  -2.979854e+000 
3440625000  -4.777168e+001  -7.486647e+000 
3443750000  -4.655463e+001  -1.557237e+001 
3446875000  -4.596932e+001  -2.927712e+001 
3450000000  -4.513215e+001  -4.049242e+001 
3453125000  -4.566712e+001  -6.067093e+001 
3456250000  -4.759160e+001  -7.007045e+001 
3459375000  -4.821543e+001  -7.442545e+001 
3462500000  -4.781721e+001  -7.785137e+001 
3465625000  -4.718757e+001  -8.856441e+001 
3468750000  -4.744606e+001  -9.645427e+001 
3471875000  -4.708705e+001  -1.015933e+002 
3475000000  -4.711186e+001  -1.154869e+002 
3478125000  -4.756008e+001  -1.282943e+002 
3481250000  -4.886700e+001  -1.352170e+002 
3484375000  -4.862632e+001  -1.316861e+002 
3487500000  -4.813446e+001  -1.432181e+002 
3490625000  -4.756173e+001  -1.541592e+002 
3493750000  -4.791766e+001  -1.647646e+002 
3496875000  -4.780815e+001  -1.713878e+002 
3500000000  -4.855729e+001  -1.740667e+002 
3503125000  -4.767937e+001  -1.741488e+002 
3506250000  -4.540386e+001  1.698589e+002 
3509375000  -4.541700e+001  1.501706e+002 
3512500000  -4.551801e+001  1.355631e+002 
3515625000  -4.740240e+001  1.306569e+002 
3518750000  -4.803232e+001  1.275224e+002 
3521875000  -4.776586e+001  1.210108e+002 
3525000000  -4.880605e+001  1.132793e+002 
3528125000  -4.707542e+001  1.162395e+002 
3531250000  -4.669188e+001  1.010892e+002 
3534375000  -4.708962e+001  8.623505e+001 
3537500000  -4.808794e+001  7.799754e+001 
3540625000  -4.866323e+001  7.476669e+001 
3543750000  -4.977833e+001  7.765675e+001 
3546875000  -4.844610e+001  8.140976e+001 
3550000000  -4.612614e+001  7.091416e+001 
3553125000  -4.614052e+001  5.581855e+001 
3556250000  -4.775529e+001  4.714770e+001 
3559375000  -4.625651e+001  4.350688e+001 
3562500000  -4.677689e+001  2.964900e+001 
3565625000  -4.753733e+001  2.209698e+001 
3568750000  -4.798981e+001  2.633125e+001 
3571875000  -4.787180e+001  1.910551e+001 
3575000000  -4.657455e+001  7.611021e+000 
3578125000  -4.746702e+001  4.531896e+000 
3581250000  -4.793496e+001  3.086667e+000 
3584375000  -4.614626e+001  -4.851794e+000 
3587500000  -4.571305e+001  -1.347391e+001 
3590625000  -4.662086e+001  -2.682031e+001 
3593750000  -4.818388e+001  -2.255756e+001 
3596875000  -4.680937e+001  -2.149892e+001 
3600000000  -4.501978e+001  -3.249454e+001 
3603125000  -4.492929e+001  -4.952790e+001 
3606250000  -4.605349e+001  -5.227810e+001 
3609375000  -4.606771e+001  -5.710810e+001 
3612500000  -4.600707e+001  -6.839494e+001 
3615625000  -4.619678e+001  -6.930344e+001 
3618750000  -4.587294e+001  -6.993385e+001 
3621875000  -4.561668e+001  -7.956866e+001 
3625000000  -4.579201e+001  -8.094899e+001 
3628125000  -4.456478e+001  -9.025861e+001 
3631250000  -4.508912e+001  -9.691634e+001 
3634375000  -4.542263e+001  -9.918023e+001 
3637500000  -4.454554e+001  -1.002856e+002 
3640625000  -4.364579e+001  -1.075080e+002 
3643750000  -4.310473e+001  -1.187510e+002 
3646875000  -4.388512e+001  -1.307611e+002 
3650000000  -4.378674e+001  -1.348382e+002 
3653125000  -4.317741e+001  -1.419346e+002 
3656250000  -4.426485e+001  -1.472075e+002 
3659375000  -4.395288e+001  -1.523699e+002 
3662500000  -4.322828e+001  -1.598442e+002 
3665625000  -4.330902e+001  -1.654509e+002 
3668750000  -4.165839e+001  -1.672671e+002 
3671875000  -4.159881e+001  1.780432e+002 
3675000000  -4.225448e+001  1.672375e+002 
3678125000  -4.240354e+001  1.610295e+002 
3681250000  -4.215411e+001  1.556659e+002 
3684375000  -4.254745e+001  1.484403e+002 
3687500000  -4.298879e+001  1.405067e+002 
3690625000  -4.349272e+001  1.357058e+002 
3693750000  -4.442438e+001  1.321424e+002 
3696875000  -4.380422e+001  1.317052e+002 
3700000000  -4.312680e+001  1.202880e+002 
3703125000  -4.357237e+001  1.126681e+002 
3706250000  -4.448217e+001  1.125025e+002 
3709375000  -4.396678e+001  1.123087e+002 
3712500000  -4.305247e+001  1.049696e+002 
3715625000  -4.183176e+001  9.495781e+001 
3718750000  -4.157031e+001  8.368940e+001 
3721875000  -4.181203e+001  7.587689e+001 
3725000000  -4.244035e+001  6.868726e+001 
3728125000  -4.253231e+001  6.558630e+001 
3731250000  -4.208299e+001  5.779171e+001 
3734375000  -4.196952e+001  5.278685e+001 
3737500000  -4.268922e+001  4.413417e+001 
3740625000  -4.337797e+001  3.788658e+001 
3743750000  -4.276831e+001  3.122897e+001 
3746875000  -4.318297e+001  2.368149e+001 
3750000000  -4.369072e+001  1.972602e+001 
3753125000  -4.381192e+001  1.710824e+001 
3756250000  -4.368208e+001  1.281079e+001 
3759375000  -4.377796e+001  8.652060e+000 
3762500000  -4.356358e+001  5.405270e+000 
3765625000  -4.405792e+001  -1.772588e+000 
3768750000  -4.365279e+001  -9.169281e-002 
3771875000  -4.221866e+001  -6.789836e+000 
3775000000  -4.233989e+001  -1.886118e+001 
3778125000  -4.203767e+001  -2.772269e+001 
3781250000  -4.239271e+001  -3.062574e+001 
3784375000  -4.261184e+001  -3.648427e+001 
3787500000  -4.213341e+001  -4.250034e+001 
3790625000  -4.299891e+001  -5.049275e+001 
3793750000  -4.264329e+001  -5.532980e+001 
3796875000  -4.151119e+001  -6.036838e+001 
3800000000  -4.068113e+001  -6.659055e+001 
3803125000  -4.172596e+001  -7.770870e+001 
3806250000  -4.234198e+001  -8.508282e+001 
3809375000  -4.199257e+001  -8.958429e+001 
3812500000  -4.189156e+001  -1.000177e+002 
3815625000  -4.305199e+001  -1.090585e+002 
3818750000  -4.443168e+001  -1.105847e+002 
3821875000  -4.330685e+001  -9.788958e+001 
3825000000  -4.130760e+001  -1.052224e+002 
3828125000  -4.019815e+001  -1.248895e+002 
3831250000  -4.131232e+001  -1.411793e+002 
3834375000  -4.405117e+001  -1.401637e+002 
3837500000  -4.439239e+001  -1.378392e+002 
3840625000  -4.238610e+001  -1.468994e+002 
3843750000  -4.140550e+001  -1.586004e+002 
3846875000  -4.327116e+001  -1.655981e+002 
3850000000  -4.406061e+001  -1.600649e+002 
3853125000  -4.387259e+001  -1.624566e+002 
3856250000  -4.290356e+001  -1.694918e+002 
3859375000  -4.223189e+001  -1.789371e+002 
3862500000  -4.197019e+001  1.702789e+002 
3865625000  -4.263781e+001  1.632192e+002 
3868750000  -4.196525e+001  1.613410e+002 
3871875000  -4.159063e+001  1.514878e+002 
3875000000  -4.247757e+001  1.418940e+002 
3878125000  -4.349622e+001  1.411125e+002 
3881250000  -4.316011e+001  1.398811e+002 
3884375000  -4.232121e+001  1.285324e+002 
3887500000  -4.323349e+001  1.204661e+002 
3890625000  -4.407691e+001  1.196115e+002 
3893750000  -4.414697e+001  1.140079e+002 
3896875000  -4.393560e+001  1.121958e+002 
3900000000  -4.411258e+001  1.079179e+002 
3903125000  -4.383258e+001  1.010777e+002 
3906250000  -4.318353e+001  9.505096e+001 
3909375000  -4.248005e+001  8.952054e+001 
3912500000  -4.361158e+001  7.882898e+001 
3915625000  -4.521930e+001  7.768064e+001 
3918750000  -4.463481e+001  7.699725e+001 
3921875000  -4.351610e+001  7.110863e+001 
3925000000  -4.335999e+001  6.673202e+001 
3928125000  -4.280433e+001  5.723763e+001 
3931250000  -4.353403e+001  4.965722e+001 
3934375000  -4.417389e+001  4.600887e+001 
3937500000  -4.437466e+001  4.432146e+001 
3940625000  -4.447219e+001  4.230893e+001 
3943750000  -4.282120e+001  3.877722e+001 
3946875000  -4.263367e+001  2.927529e+001 
3950000000  -4.331371e+001  2.114958e+001 
3953125000  -4.422278e+001  2.161567e+001 
3956250000  -4.266729e+001  2.050203e+001 
3959375000  -4.189661e+001  1.116670e+001 
3962500000  -4.152089e+001  2.373199e+000 
3965625000  -4.199308e+001  -8.376382e+000 
3968750000  -4.263214e+001  -1.505157e+001 
3971875000  -4.269297e+001  -2.201718e+001 
3975000000  -4.196206e+001  -2.290338e+001 
3978125000  -4.195078e+001  -3.103576e+001 
3981250000  -4.186850e+001  -4.125617e+001 
3984375000  -4.276476e+001  -4.870878e+001 
3987500000  -4.285754e+001  -4.981485e+001 
3990625000  -4.291036e+001  -5.742848e+001 
3993750000  -4.295287e+001  -6.216838e+001 
3996875000  -4.271510e+001  -6.940215e+001 
4000000000  -4.376709e+001  -7.353525e+001 
4003125000  -4.384085e+001  -7.282110e+001 
4006250000  -4.189299e+001  -7.864256e+001 
4009375000  -4.108785e+001  -9.449835e+001 
4012500000  -4.276865e+001  -1.047354e+002 
4015625000  -4.407127e+001  -1.035132e+002 
4018750000  -4.375264e+001  -1.062095e+002 
4021875000  -4.317931e+001  -1.143522e+002 
4025000000  -4.273151e+001  -1.225396e+002 
4028125000  -4.327695e+001  -1.299239e+002 
4031250000  -4.385050e+001  -1.348491e+002 
4034375000  -4.400261e+001  -1.391955e+002 
4037500000  -4.404589e+001  -1.396740e+002 
4040625000  -4.417241e+001  -1.469044e+002 
4043750000  -4.424727e+001  -1.552645e+002 
4046875000  -4.453017e+001  -1.558934e+002 
4050000000  -4.395060e+001  -1.641975e+002 
4053125000  -4.504733e+001  -1.684584e+002 
4056250000  -4.599896e+001  -1.630579e+002 
4059375000  -4.391295e+001  -1.662060e+002 
4062500000  -4.330754e+001  -1.733321e+002 
4065625000  -4.345525e+001  -1.795484e+002 
4068750000  -4.291072e+001  1.723507e+002 
4071875000  -4.273030e+001  1.605917e+002 
4075000000  -4.351790e+001  1.544021e+002 
4078125000  -4.374311e+001  1.502222e+002 
4081250000  -4.331995e+001  1.446588e+002 
4084375000  -4.355120e+001  1.369303e+002 
4087500000  -4.392081e+001  1.315059e+002 
4090625000  -4.476568e+001  1.288855e+002 
4093750000  -4.459761e+001  1.238373e+002 
4096875000  -4.390789e+001  1.173171e+002 
4100000000  -4.531044e+001  1.114684e+002 
4103125000  -4.530550e+001  1.146831e+002 
4106250000  -4.491681e+001  1.118726e+002 
4109375000  -4.416257e+001  1.096250e+002 
4112500000  -4.399073e+001  9.938936e+001 
4115625000  -4.406746e+001  9.198512e+001 
4118750000  -4.426520e+001  8.836813e+001 
4121875000  -4.372915e+001  8.098014e+001 
4125000000  -4.431379e+001  7.902477e+001 
4128125000  -4.449223e+001  7.904807e+001 
4131250000  -4.353339e+001  8.048445e+001 
4134375000  -4.163108e+001  7.245730e+001 
4137500000  -4.187943e+001  4.859285e+001 
4140625000  -4.381509e+001  4.141928e+001 
4143750000  -4.496732e+001  4.765236e+001 
4146875000  -4.348187e+001  4.997703e+001 
4150000000  -4.257393e+001  3.812331e+001 
4153125000  -4.345510e+001  3.023116e+001 
4156250000  -4.415086e+001  2.486208e+001 
4159375000  -4.354044e+001  2.915129e+001 
4162500000  -4.221939e+001  2.699478e+001 
4165625000  -4.124896e+001  1.466069e+001 
4168750000  -4.078054e+001  7.061773e+000 
4171875000  -4.109082e+001  -8.267759e+000 
4175000000  -4.191148e+001  -1.502101e+001 
4178125000  -4.208535e+001  -1.928825e+001 
4181250000  -4.203474e+001  -2.447751e+001 
4184375000  -4.243635e+001  -3.059405e+001 
4187500000  -4.258731e+001  -3.741316e+001 
4190625000  -4.261963e+001  -5.068302e+001 
4193750000  -4.398996e+001  -5.186337e+001 
4196875000  -4.506313e+001  -5.362629e+001 
4200000000  -4.619939e+001  -5.184921e+001 
4203125000  -4.405307e+001  -3.694979e+001 
4206250000  -4.102657e+001  -5.200653e+001 
4209375000  -4.118545e+001  -7.286443e+001 
4212500000  -4.376699e+001  -8.223955e+001 
4215625000  -4.425553e+001  -7.217271e+001 
4218750000  -4.203534e+001  -7.458443e+001 
4221875000  -4.051822e+001  -8.629726e+001 
4225000000  -4.247347e+001  -9.632433e+001 
4228125000  -4.240752e+001  -9.251476e+001 
4231250000  -4.076750e+001  -1.049843e+002 
4234375000  -4.074617e+001  -1.142465e+002 
4237500000  -4.095986e+001  -1.218755e+002 
4240625000  -4.121558e+001  -1.321762e+002 
4243750000  -4.229971e+001  -1.384423e+002 
4246875000  -4.300523e+001  -1.398397e+002 
4250000000  -4.275258e+001  -1.391353e+002 
4253125000  -4.246489e+001  -1.434498e+002 
4256250000  -4.238491e+001  -1.493506e+002 
4259375000  -4.219749e+001  -1.540499e+002 
4262500000  -4.238507e+001  -1.583752e+002 
4265625000  -4.222497e+001  -1.581168e+002 
4268750000  -4.082243e+001  -1.696524e+002 
4271875000  -4.047996e+001  -1.794491e+002 
4275000000  -4.021371e+001  1.721691e+002 
4278125000  -4.098365e+001  1.571109e+002 
4281250000  -4.246776e+001  1.547116e+002 
4284375000  -4.230012e+001  1.527036e+002 
4287500000  -4.362733e+001  1.470798e+002 
4290625000  -4.379177e+001  1.572924e+002 
4293750000  -4.155939e+001  1.547224e+002 
4296875000  -4.035501e+001  1.415218e+002 
4300000000  -4.142426e+001  1.296859e+002 
4303125000  -4.175856e+001  1.306026e+002 
4306250000  -4.055995e+001  1.292715e+002 
4309375000  -3.963301e+001  1.216762e+002 
4312500000  -3.973383e+001  1.070618e+002 
4315625000  -4.000747e+001  9.747784e+001 
4318750000  -4.088219e+001  9.131219e+001 
4321875000  -4.063813e+001  9.123326e+001 
4325000000  -4.023021e+001  8.728762e+001 
4328125000  -3.933016e+001  7.582165e+001 
4331250000  -3.984991e+001  6.388458e+001 
4334375000  -4.070119e+001  5.540142e+001 
4337500000  -4.206870e+001  5.345535e+001 
4340625000  -4.185126e+001  5.677362e+001 
4343750000  -4.109488e+001  5.097978e+001 
4346875000  -4.090543e+001  4.060508e+001 
4350000000  -4.111959e+001  3.109207e+001 
4353125000  -4.168884e+001  2.214128e+001 
4356250000  -4.407096e+001  2.577489e+001 
4359375000  -4.214372e+001  3.905657e+001 
4362500000  -3.944905e+001  3.008749e+001 
4365625000  -3.874137e+001  1.043826e+001 
4368750000  -3.984538e+001  4.730058e-001 
4371875000  -4.087349e+001  -3.134749e+000 
4375000000  -4.009666e+001  -5.826668e+000 
4378125000  -4.057706e+001  -1.503424e+001 
4381250000  -4.067674e+001  -2.127649e+001 
4384375000  -4.040656e+001  -3.030002e+001 
4387500000  -4.183600e+001  -3.998801e+001 
4390625000  -4.194744e+001  -3.945575e+001 
4393750000  -4.171980e+001  -3.886026e+001 
4396875000  -4.093331e+001  -4.434493e+001 
4400000000  -4.074156e+001  -5.581747e+001 
4403125000  -4.153409e+001  -6.618948e+001 
4406250000  -4.217067e+001  -6.981438e+001 
4409375000  -4.226981e+001  -7.367772e+001 
4412500000  -4.337343e+001  -7.780531e+001 
4415625000  -4.306458e+001  -7.400818e+001 
4418750000  -4.163396e+001  -7.450338e+001 
