!Agilent Technologies,E8363B,MY43030201,A.06.04.32
!Agilent E8363B: A.06.04.32
!Date: Tuesday, November 11, 2014 21:45:05
!Correction: S21(Response(S21)) 
!S1P File: Measurement: S21:
# Hz S  dB   R 50
3000000000  -4.362207e+001  -1.608086e+002 
3003125000  -4.541284e+001  -1.648171e+002 
3006250000  -4.526125e+001  -1.668457e+002 
3009375000  -4.599310e+001  -1.634014e+002 
3012500000  -4.505916e+001  -1.703337e+002 
3015625000  -4.512415e+001  -1.782821e+002 
3018750000  -4.531883e+001  -1.785775e+002 
3021875000  -4.381625e+001  -1.769522e+002 
3025000000  -4.263990e+001  1.783300e+002 
3028125000  -4.171113e+001  1.660359e+002 
3031250000  -4.097954e+001  1.534504e+002 
3034375000  -4.075397e+001  1.387981e+002 
3037500000  -4.157298e+001  1.281696e+002 
3040625000  -4.300806e+001  1.214182e+002 
3043750000  -4.356806e+001  1.140739e+002 
3046875000  -4.418562e+001  1.085798e+002 
3050000000  -4.518509e+001  1.017773e+002 
3053125000  -4.474960e+001  1.066794e+002 
3056250000  -4.497858e+001  1.110119e+002 
3059375000  -4.402954e+001  1.083870e+002 
3062500000  -4.241094e+001  1.018468e+002 
3065625000  -4.229617e+001  8.922687e+001 
3068750000  -4.193391e+001  8.206165e+001 
3071875000  -4.169869e+001  8.039444e+001 
3075000000  -4.108198e+001  7.199196e+001 
3078125000  -4.127149e+001  6.337326e+001 
3081250000  -4.124773e+001  5.835189e+001 
3084375000  -4.035725e+001  5.249450e+001 
3087500000  -4.056267e+001  4.507822e+001 
3090625000  -4.009108e+001  3.226014e+001 
3093750000  -4.101344e+001  2.196119e+001 
3096875000  -4.123845e+001  1.569727e+001 
3100000000  -4.098597e+001  1.346110e+001 
3103125000  -4.142407e+001  6.728976e+000 
3106250000  -4.113105e+001  1.709874e+000 
3109375000  -4.102249e+001  -3.172976e+000 
3112500000  -4.083146e+001  -9.801640e+000 
3115625000  -4.093151e+001  -1.570095e+001 
3118750000  -4.077867e+001  -2.007909e+001 
3121875000  -4.023519e+001  -3.210058e+001 
3125000000  -4.199387e+001  -3.550305e+001 
3128125000  -4.209757e+001  -2.907944e+001 
3131250000  -3.943349e+001  -3.791925e+001 
3134375000  -3.894747e+001  -5.585966e+001 
3137500000  -3.949717e+001  -6.896512e+001 
3140625000  -4.091904e+001  -7.364046e+001 
3143750000  -4.165298e+001  -7.791746e+001 
3146875000  -4.106763e+001  -7.732430e+001 
3150000000  -4.036847e+001  -8.138763e+001 
3153125000  -4.081243e+001  -9.085983e+001 
3156250000  -4.160514e+001  -8.795161e+001 
3159375000  -3.912685e+001  -9.069036e+001 
3162500000  -3.777472e+001  -1.070725e+002 
3165625000  -3.922999e+001  -1.213555e+002 
3168750000  -3.904124e+001  -1.240168e+002 
3171875000  -3.848019e+001  -1.317514e+002 
3175000000  -3.917533e+001  -1.420994e+002 
3178125000  -3.878369e+001  -1.451891e+002 
3181250000  -3.799673e+001  -1.548886e+002 
3184375000  -3.781833e+001  -1.663869e+002 
3187500000  -3.923101e+001  1.780679e+002 
3190625000  -4.072025e+001  1.714602e+002 
3193750000  -4.113161e+001  1.743076e+002 
3196875000  -4.099215e+001  1.746520e+002 
3200000000  -3.977776e+001  1.686064e+002 
3203125000  -3.958798e+001  1.611773e+002 
3206250000  -3.983168e+001  1.520232e+002 
3209375000  -3.950737e+001  1.445354e+002 
3212500000  -3.990389e+001  1.368516e+002 
3215625000  -3.946320e+001  1.341794e+002 
3218750000  -4.045357e+001  1.217330e+002 
3221875000  -4.065257e+001  1.144874e+002 
3225000000  -4.049245e+001  1.098105e+002 
3228125000  -4.099400e+001  1.017251e+002 
3231250000  -4.158828e+001  9.822130e+001 
3234375000  -4.121535e+001  9.535963e+001 
3237500000  -4.095405e+001  9.022808e+001 
3240625000  -4.040147e+001  8.345056e+001 
3243750000  -4.040805e+001  7.291218e+001 
3246875000  -4.076326e+001  6.473357e+001 
3250000000  -4.112724e+001  6.085447e+001 
3253125000  -4.125759e+001  5.633052e+001 
3256250000  -4.036076e+001  4.544720e+001 
3259375000  -4.108210e+001  3.113289e+001 
3262500000  -4.246526e+001  2.751737e+001 
3265625000  -4.262113e+001  2.852766e+001 
3268750000  -4.258271e+001  2.688260e+001 
3271875000  -4.177264e+001  2.180700e+001 
3275000000  -4.119256e+001  1.071417e+001 
3278125000  -4.181335e+001  4.129230e+000 
3281250000  -4.182179e+001  2.243234e+000 
3284375000  -4.078847e+001  -7.453625e+000 
3287500000  -4.161826e+001  -1.528615e+001 
3290625000  -4.144765e+001  -2.485992e+001 
3293750000  -4.144479e+001  -3.393911e+001 
3296875000  -4.243981e+001  -3.575100e+001 
3300000000  -4.193707e+001  -3.961181e+001 
3303125000  -4.118102e+001  -4.957024e+001 
3306250000  -4.080442e+001  -5.867519e+001 
3309375000  -4.056421e+001  -7.061713e+001 
3312500000  -4.124258e+001  -8.491766e+001 
3315625000  -4.266858e+001  -9.330896e+001 
3318750000  -4.375035e+001  -9.804185e+001 
3321875000  -4.507526e+001  -1.001675e+002 
3325000000  -4.535629e+001  -9.597783e+001 
3328125000  -4.437418e+001  -9.751395e+001 
3331250000  -4.279086e+001  -9.932145e+001 
3334375000  -4.052639e+001  -1.168701e+002 
3337500000  -4.081343e+001  -1.409839e+002 
3340625000  -4.292791e+001  -1.501307e+002 
3343750000  -4.458862e+001  -1.526503e+002 
3346875000  -4.415850e+001  -1.562414e+002 
3350000000  -4.371743e+001  -1.607245e+002 
3353125000  -4.342673e+001  -1.690468e+002 
3356250000  -4.347146e+001  -1.790783e+002 
3359375000  -4.429352e+001  1.642704e+002 
3362500000  -4.525941e+001  1.601141e+002 
3365625000  -4.570104e+001  1.520334e+002 
3368750000  -4.643848e+001  1.448658e+002 
3371875000  -4.712051e+001  1.418020e+002 
3375000000  -4.847089e+001  1.320475e+002 
3378125000  -4.990007e+001  1.316668e+002 
3381250000  -5.091210e+001  1.439211e+002 
3384375000  -4.715598e+001  1.541278e+002 
3387500000  -4.481063e+001  1.291558e+002 
3390625000  -4.670947e+001  1.074105e+002 
3393750000  -4.756537e+001  1.043471e+002 
3396875000  -4.664201e+001  9.976318e+001 
3400000000  -4.604945e+001  8.599373e+001 
3403125000  -4.678284e+001  8.057114e+001 
3406250000  -4.756710e+001  7.084150e+001 
3409375000  -4.749183e+001  6.241555e+001 
3412500000  -4.810697e+001  5.783462e+001 
3415625000  -4.897343e+001  4.696763e+001 
3418750000  -4.911642e+001  4.379247e+001 
3421875000  -4.932114e+001  4.385913e+001 
3425000000  -4.777596e+001  3.353160e+001 
3428125000  -4.707857e+001  2.624980e+001 
3431250000  -4.694136e+001  1.558618e+001 
3434375000  -4.714800e+001  5.373591e+000 
3437500000  -4.750501e+001  -2.775176e+000 
3440625000  -4.808046e+001  -1.071699e+001 
3443750000  -4.638745e+001  -1.082225e+001 
3446875000  -4.577560e+001  -2.582556e+001 
3450000000  -4.514434e+001  -4.342519e+001 
3453125000  -4.579510e+001  -5.663422e+001 
3456250000  -4.705385e+001  -7.070190e+001 
3459375000  -4.839651e+001  -7.102262e+001 
3462500000  -4.778173e+001  -7.561572e+001 
3465625000  -4.722126e+001  -9.051493e+001 
3468750000  -4.731319e+001  -9.239587e+001 
3471875000  -4.668146e+001  -1.026199e+002 
3475000000  -4.668172e+001  -1.161201e+002 
3478125000  -4.776035e+001  -1.293885e+002 
3481250000  -4.903488e+001  -1.340406e+002 
3484375000  -4.857604e+001  -1.326701e+002 
3487500000  -4.744705e+001  -1.431411e+002 
3490625000  -4.713642e+001  -1.526521e+002 
3493750000  -4.765923e+001  -1.674263e+002 
3496875000  -4.809524e+001  -1.721710e+002 
3500000000  -4.828595e+001  -1.748216e+002 
3503125000  -4.732741e+001  -1.762375e+002 
3506250000  -4.572144e+001  1.718224e+002 
3509375000  -4.571448e+001  1.514342e+002 
3512500000  -4.604655e+001  1.397555e+002 
3515625000  -4.725923e+001  1.321485e+002 
3518750000  -4.777330e+001  1.324578e+002 
3521875000  -4.763341e+001  1.185180e+002 
3525000000  -4.868452e+001  1.167913e+002 
3528125000  -4.765211e+001  1.207483e+002 
3531250000  -4.696106e+001  1.045331e+002 
3534375000  -4.681449e+001  8.596985e+001 
3537500000  -4.797396e+001  7.750414e+001 
3540625000  -4.922334e+001  7.446365e+001 
3543750000  -5.002746e+001  8.442290e+001 
3546875000  -4.862370e+001  8.559441e+001 
3550000000  -4.601649e+001  7.316817e+001 
3553125000  -4.594887e+001  5.832452e+001 
3556250000  -4.743333e+001  4.758570e+001 
3559375000  -4.692897e+001  4.326533e+001 
3562500000  -4.654078e+001  3.437553e+001 
3565625000  -4.754592e+001  2.386187e+001 
3568750000  -4.795458e+001  2.516255e+001 
3571875000  -4.715661e+001  2.116379e+001 
3575000000  -4.678908e+001  1.277495e+001 
3578125000  -4.798795e+001  7.732477e+000 
3581250000  -4.792237e+001  5.608167e+000 
3584375000  -4.627969e+001  -2.312025e+000 
3587500000  -4.578443e+001  -1.453019e+001 
3590625000  -4.636436e+001  -2.254394e+001 
3593750000  -4.770439e+001  -2.263253e+001 
3596875000  -4.674635e+001  -2.153934e+001 
3600000000  -4.457272e+001  -3.219712e+001 
3603125000  -4.548106e+001  -4.823098e+001 
3606250000  -4.569308e+001  -5.078102e+001 
3609375000  -4.588393e+001  -5.867719e+001 
3612500000  -4.603981e+001  -6.210913e+001 
3615625000  -4.626945e+001  -6.809234e+001 
3618750000  -4.606011e+001  -7.130531e+001 
3621875000  -4.561287e+001  -7.779969e+001 
3625000000  -4.599068e+001  -8.279662e+001 
3628125000  -4.497787e+001  -8.759169e+001 
3631250000  -4.489113e+001  -9.538536e+001 
3634375000  -4.556913e+001  -9.748668e+001 
3637500000  -4.476612e+001  -1.001242e+002 
3640625000  -4.387812e+001  -1.057417e+002 
3643750000  -4.321323e+001  -1.170451e+002 
3646875000  -4.378236e+001  -1.274492e+002 
3650000000  -4.382245e+001  -1.353465e+002 
3653125000  -4.335198e+001  -1.411210e+002 
3656250000  -4.404174e+001  -1.463770e+002 
3659375000  -4.376579e+001  -1.523036e+002 
3662500000  -4.328617e+001  -1.584122e+002 
3665625000  -4.330241e+001  -1.599733e+002 
3668750000  -4.202831e+001  -1.678313e+002 
3671875000  -4.154829e+001  1.791924e+002 
3675000000  -4.197141e+001  1.704396e+002 
3678125000  -4.263723e+001  1.646083e+002 
3681250000  -4.232982e+001  1.578564e+002 
3684375000  -4.261371e+001  1.487246e+002 
3687500000  -4.278348e+001  1.427428e+002 
3690625000  -4.345552e+001  1.362174e+002 
3693750000  -4.417492e+001  1.326349e+002 
3696875000  -4.382700e+001  1.304392e+002 
3700000000  -4.296516e+001  1.209554e+002 
3703125000  -4.343378e+001  1.120938e+002 
3706250000  -4.469065e+001  1.128659e+002 
3709375000  -4.406731e+001  1.135432e+002 
3712500000  -4.318896e+001  1.044846e+002 
3715625000  -4.168586e+001  9.595129e+001 
3718750000  -4.144842e+001  8.648403e+001 
3721875000  -4.157153e+001  7.761737e+001 
3725000000  -4.221714e+001  7.024100e+001 
3728125000  -4.248818e+001  6.566872e+001 
3731250000  -4.201414e+001  6.006093e+001 
3734375000  -4.185699e+001  5.354812e+001 
3737500000  -4.288890e+001  4.355652e+001 
3740625000  -4.284800e+001  3.689903e+001 
3743750000  -4.292176e+001  3.066802e+001 
3746875000  -4.336927e+001  2.463363e+001 
3750000000  -4.364540e+001  2.339375e+001 
3753125000  -4.358509e+001  1.934937e+001 
3756250000  -4.367655e+001  1.449369e+001 
3759375000  -4.343426e+001  9.998261e+000 
3762500000  -4.330838e+001  3.434736e+000 
3765625000  -4.408281e+001  4.140065e-001 
3768750000  -4.366365e+001  7.897786e-001 
3771875000  -4.240413e+001  -7.398649e+000 
3775000000  -4.208423e+001  -1.810183e+001 
3778125000  -4.266103e+001  -2.390512e+001 
3781250000  -4.289610e+001  -2.951556e+001 
3784375000  -4.236767e+001  -3.577551e+001 
3787500000  -4.267591e+001  -4.024132e+001 
3790625000  -4.268993e+001  -5.093854e+001 
3793750000  -4.236111e+001  -5.435131e+001 
3796875000  -4.176083e+001  -5.938655e+001 
3800000000  -4.068457e+001  -6.553469e+001 
3803125000  -4.161331e+001  -7.782593e+001 
3806250000  -4.255764e+001  -8.301634e+001 
3809375000  -4.230370e+001  -8.722617e+001 
3812500000  -4.155172e+001  -9.981038e+001 
3815625000  -4.298351e+001  -1.075125e+002 
3818750000  -4.439537e+001  -1.070567e+002 
3821875000  -4.343045e+001  -9.661654e+001 
3825000000  -4.145874e+001  -1.028624e+002 
3828125000  -4.021088e+001  -1.234333e+002 
3831250000  -4.163097e+001  -1.409414e+002 
3834375000  -4.359806e+001  -1.395712e+002 
3837500000  -4.402539e+001  -1.385833e+002 
3840625000  -4.241030e+001  -1.430723e+002 
3843750000  -4.194486e+001  -1.568450e+002 
3846875000  -4.329786e+001  -1.666665e+002 
3850000000  -4.388560e+001  -1.579457e+002 
3853125000  -4.396215e+001  -1.632720e+002 
3856250000  -4.303380e+001  -1.688427e+002 
3859375000  -4.191106e+001  -1.774463e+002 
3862500000  -4.231921e+001  1.706541e+002 
3865625000  -4.263198e+001  1.646353e+002 
3868750000  -4.235384e+001  1.638811e+002 
3871875000  -4.193518e+001  1.554347e+002 
3875000000  -4.225411e+001  1.422220e+002 
3878125000  -4.364247e+001  1.426239e+002 
3881250000  -4.324199e+001  1.406117e+002 
3884375000  -4.264634e+001  1.278549e+002 
3887500000  -4.342766e+001  1.238987e+002 
3890625000  -4.394570e+001  1.195345e+002 
3893750000  -4.439914e+001  1.148906e+002 
3896875000  -4.467496e+001  1.148296e+002 
3900000000  -4.430199e+001  1.071203e+002 
3903125000  -4.377238e+001  1.041673e+002 
3906250000  -4.333239e+001  1.020975e+002 
3909375000  -4.265567e+001  8.948657e+001 
3912500000  -4.354494e+001  7.909116e+001 
3915625000  -4.492017e+001  8.212389e+001 
3918750000  -4.445588e+001  8.076519e+001 
3921875000  -4.411526e+001  7.284044e+001 
3925000000  -4.310287e+001  6.585955e+001 
3928125000  -4.310637e+001  5.682780e+001 
3931250000  -4.385658e+001  4.898553e+001 
3934375000  -4.448016e+001  4.677282e+001 
3937500000  -4.454196e+001  4.674922e+001 
3940625000  -4.458397e+001  4.690001e+001 
3943750000  -4.322027e+001  3.843174e+001 
3946875000  -4.299795e+001  3.036293e+001 
3950000000  -4.349179e+001  2.237249e+001 
3953125000  -4.448326e+001  2.089307e+001 
3956250000  -4.277829e+001  2.147293e+001 
3959375000  -4.204264e+001  1.326120e+001 
3962500000  -4.149963e+001  3.250929e+000 
3965625000  -4.182552e+001  -7.126895e+000 
3968750000  -4.271745e+001  -1.321886e+001 
3971875000  -4.265558e+001  -1.903815e+001 
3975000000  -4.203597e+001  -2.359594e+001 
3978125000  -4.197912e+001  -3.021620e+001 
3981250000  -4.164436e+001  -3.904189e+001 
3984375000  -4.233332e+001  -4.617162e+001 
3987500000  -4.334820e+001  -5.269663e+001 
3990625000  -4.307362e+001  -5.531007e+001 
3993750000  -4.303395e+001  -6.110729e+001 
3996875000  -4.299919e+001  -6.910473e+001 
4000000000  -4.369479e+001  -7.114420e+001 
4003125000  -4.372132e+001  -7.073392e+001 
4006250000  -4.226701e+001  -7.381939e+001 
4009375000  -4.118892e+001  -9.365166e+001 
4012500000  -4.284420e+001  -9.998186e+001 
4015625000  -4.420332e+001  -1.015765e+002 
4018750000  -4.396011e+001  -1.038788e+002 
4021875000  -4.329799e+001  -1.121733e+002 
4025000000  -4.305395e+001  -1.208874e+002 
4028125000  -4.321818e+001  -1.280159e+002 
4031250000  -4.393415e+001  -1.352929e+002 
4034375000  -4.383801e+001  -1.379800e+002 
4037500000  -4.415605e+001  -1.423455e+002 
4040625000  -4.446579e+001  -1.476206e+002 
4043750000  -4.439719e+001  -1.494086e+002 
4046875000  -4.422307e+001  -1.560631e+002 
4050000000  -4.454293e+001  -1.634505e+002 
4053125000  -4.527203e+001  -1.689846e+002 
4056250000  -4.564641e+001  -1.594293e+002 
4059375000  -4.361839e+001  -1.640022e+002 
4062500000  -4.365107e+001  -1.751302e+002 
4065625000  -4.366373e+001  -1.799793e+002 
4068750000  -4.302721e+001  1.718186e+002 
4071875000  -4.277125e+001  1.610735e+002 
4075000000  -4.364343e+001  1.560683e+002 
4078125000  -4.403220e+001  1.516931e+002 
4081250000  -4.375412e+001  1.481203e+002 
4084375000  -4.340579e+001  1.396970e+002 
4087500000  -4.380645e+001  1.306785e+002 
4090625000  -4.471009e+001  1.264634e+002 
4093750000  -4.468698e+001  1.257346e+002 
4096875000  -4.405679e+001  1.177605e+002 
4100000000  -4.524977e+001  1.120377e+002 
4103125000  -4.587726e+001  1.142879e+002 
4106250000  -4.509364e+001  1.139028e+002 
4109375000  -4.436086e+001  1.131983e+002 
4112500000  -4.427058e+001  1.016774e+002 
4115625000  -4.414193e+001  9.705733e+001 
4118750000  -4.408069e+001  9.284421e+001 
4121875000  -4.369039e+001  8.320864e+001 
4125000000  -4.474941e+001  7.669464e+001 
4128125000  -4.513030e+001  7.863005e+001 
4131250000  -4.395686e+001  8.172247e+001 
4134375000  -4.108317e+001  7.080032e+001 
4137500000  -4.211230e+001  5.105205e+001 
4140625000  -4.450428e+001  4.390671e+001 
4143750000  -4.518486e+001  5.056112e+001 
4146875000  -4.396669e+001  5.134357e+001 
4150000000  -4.276430e+001  4.059277e+001 
4153125000  -4.345609e+001  3.170036e+001 
4156250000  -4.399530e+001  2.624631e+001 
4159375000  -4.351123e+001  2.843185e+001 
4162500000  -4.208335e+001  2.584688e+001 
4165625000  -4.135802e+001  1.766517e+001 
4168750000  -4.139516e+001  5.867664e+000 
4171875000  -4.105694e+001  -4.042789e+000 
4175000000  -4.201013e+001  -1.511865e+001 
4178125000  -4.238772e+001  -1.540073e+001 
4181250000  -4.201960e+001  -2.190714e+001 
4184375000  -4.259890e+001  -2.847108e+001 
4187500000  -4.241399e+001  -3.699743e+001 
4190625000  -4.274533e+001  -4.467927e+001 
4193750000  -4.383158e+001  -5.118140e+001 
4196875000  -4.455281e+001  -5.041956e+001 
4200000000  -4.599802e+001  -4.494243e+001 
4203125000  -4.403112e+001  -3.867823e+001 
4206250000  -4.132456e+001  -4.739660e+001 
4209375000  -4.114290e+001  -7.104542e+001 
4212500000  -4.389074e+001  -7.432366e+001 
4215625000  -4.401856e+001  -7.276832e+001 
4218750000  -4.263030e+001  -6.991358e+001 
4221875000  -4.074510e+001  -8.280255e+001 
4225000000  -4.179642e+001  -9.474984e+001 
4228125000  -4.252502e+001  -9.214260e+001 
4231250000  -4.093900e+001  -1.034731e+002 
4234375000  -4.105108e+001  -1.144541e+002 
4237500000  -4.055208e+001  -1.186542e+002 
4240625000  -4.130390e+001  -1.305028e+002 
4243750000  -4.234652e+001  -1.398959e+002 
4246875000  -4.287177e+001  -1.389987e+002 
4250000000  -4.260453e+001  -1.383447e+002 
4253125000  -4.267442e+001  -1.400376e+002 
4256250000  -4.252266e+001  -1.455911e+002 
4259375000  -4.250770e+001  -1.534397e+002 
4262500000  -4.236051e+001  -1.602524e+002 
4265625000  -4.193066e+001  -1.594568e+002 
4268750000  -4.075873e+001  -1.696934e+002 
4271875000  -4.091122e+001  -1.780938e+002 
4275000000  -4.073016e+001  1.708928e+002 
4278125000  -4.142697e+001  1.573980e+002 
4281250000  -4.274150e+001  1.580262e+002 
4284375000  -4.209214e+001  1.549777e+002 
4287500000  -4.382543e+001  1.516352e+002 
4290625000  -4.379329e+001  1.580697e+002 
4293750000  -4.151518e+001  1.562317e+002 
4296875000  -4.035126e+001  1.412263e+002 
4300000000  -4.156829e+001  1.294949e+002 
4303125000  -4.161916e+001  1.312023e+002 
4306250000  -4.063612e+001  1.315007e+002 
4309375000  -3.996550e+001  1.229970e+002 
4312500000  -4.002425e+001  1.091475e+002 
4315625000  -4.021896e+001  9.985074e+001 
4318750000  -4.103972e+001  9.459267e+001 
4321875000  -4.080785e+001  9.326965e+001 
4325000000  -4.004746e+001  8.756524e+001 
4328125000  -3.952965e+001  7.759077e+001 
4331250000  -3.964367e+001  6.363614e+001 
4334375000  -4.100481e+001  5.629513e+001 
4337500000  -4.201963e+001  5.515378e+001 
4340625000  -4.203316e+001  5.516424e+001 
4343750000  -4.122740e+001  5.437086e+001 
4346875000  -4.075171e+001  4.446407e+001 
4350000000  -4.109232e+001  3.409674e+001 
4353125000  -4.169548e+001  2.440791e+001 
4356250000  -4.432480e+001  2.680725e+001 
4359375000  -4.260821e+001  4.108486e+001 
4362500000  -3.945964e+001  3.084579e+001 
4365625000  -3.929494e+001  1.471167e+001 
4368750000  -4.060683e+001  2.319017e+000 
4371875000  -4.139280e+001  -8.733853e-001 
4375000000  -4.067708e+001  -5.362198e+000 
4378125000  -4.049320e+001  -1.240989e+001 
4381250000  -4.064263e+001  -2.292062e+001 
4384375000  -4.085165e+001  -2.737148e+001 
4387500000  -4.169988e+001  -3.576974e+001 
4390625000  -4.238267e+001  -3.775542e+001 
4393750000  -4.155438e+001  -3.787952e+001 
4396875000  -4.149797e+001  -4.036477e+001 
4400000000  -4.084389e+001  -5.384368e+001 
4403125000  -4.167031e+001  -6.216583e+001 
4406250000  -4.231924e+001  -6.818945e+001 
4409375000  -4.249018e+001  -7.243140e+001 
4412500000  -4.360361e+001  -7.636127e+001 
4415625000  -4.329689e+001  -7.154426e+001 
4418750000  -4.221310e+001  -7.362486e+001 
