!Agilent Technologies,E8363B,MY43030201,A.06.04.32
!Agilent E8363B: A.06.04.32
!Date: Tuesday, November 11, 2014 21:48:29
!Correction: S21(Response(S21)) 
!S1P File: Measurement: S21:
# Hz S  dB   R 50
3000000000  -4.372353e+001  -1.613566e+002 
3003125000  -4.542728e+001  -1.685025e+002 
3006250000  -4.550411e+001  -1.679624e+002 
3009375000  -4.624055e+001  -1.645261e+002 
3012500000  -4.494670e+001  -1.711125e+002 
3015625000  -4.502644e+001  -1.791177e+002 
3018750000  -4.525506e+001  -1.795208e+002 
3021875000  -4.394590e+001  -1.790695e+002 
3025000000  -4.265923e+001  1.765675e+002 
3028125000  -4.163956e+001  1.649488e+002 
3031250000  -4.089766e+001  1.517847e+002 
3034375000  -4.074764e+001  1.376055e+002 
3037500000  -4.154801e+001  1.270929e+002 
3040625000  -4.278473e+001  1.215757e+002 
3043750000  -4.312342e+001  1.144846e+002 
3046875000  -4.422551e+001  1.080787e+002 
3050000000  -4.550047e+001  1.008558e+002 
3053125000  -4.504558e+001  1.052121e+002 
3056250000  -4.468130e+001  1.093837e+002 
3059375000  -4.406102e+001  1.047649e+002 
3062500000  -4.260530e+001  1.008052e+002 
3065625000  -4.219360e+001  8.842839e+001 
3068750000  -4.171206e+001  8.033768e+001 
3071875000  -4.183715e+001  7.958514e+001 
3075000000  -4.112605e+001  7.142367e+001 
3078125000  -4.124601e+001  6.315414e+001 
3081250000  -4.133918e+001  5.665723e+001 
3084375000  -4.038800e+001  5.092088e+001 
3087500000  -4.045502e+001  4.337546e+001 
3090625000  -3.994041e+001  3.091079e+001 
3093750000  -4.095492e+001  2.143185e+001 
3096875000  -4.146346e+001  1.548999e+001 
3100000000  -4.114382e+001  1.323065e+001 
3103125000  -4.146164e+001  8.078832e+000 
3106250000  -4.103075e+001  1.047717e+000 
3109375000  -4.099289e+001  -3.093730e+000 
3112500000  -4.073766e+001  -1.115800e+001 
3115625000  -4.085297e+001  -1.535044e+001 
3118750000  -4.067864e+001  -2.089725e+001 
3121875000  -4.015689e+001  -3.332885e+001 
3125000000  -4.202691e+001  -3.637964e+001 
3128125000  -4.208704e+001  -3.042941e+001 
3131250000  -3.949325e+001  -3.889261e+001 
3134375000  -3.883078e+001  -5.700451e+001 
3137500000  -3.963531e+001  -6.986398e+001 
3140625000  -4.098107e+001  -7.395932e+001 
3143750000  -4.158055e+001  -7.810891e+001 
3146875000  -4.107167e+001  -7.627152e+001 
3150000000  -4.040689e+001  -8.165251e+001 
3153125000  -4.074784e+001  -9.165308e+001 
3156250000  -4.137450e+001  -8.786646e+001 
3159375000  -3.912009e+001  -9.172395e+001 
3162500000  -3.778554e+001  -1.084796e+002 
3165625000  -3.887545e+001  -1.222265e+002 
3168750000  -3.907450e+001  -1.240112e+002 
3171875000  -3.852262e+001  -1.332576e+002 
3175000000  -3.909395e+001  -1.421312e+002 
3178125000  -3.870585e+001  -1.454606e+002 
3181250000  -3.805038e+001  -1.537360e+002 
3184375000  -3.778252e+001  -1.670039e+002 
3187500000  -3.927196e+001  1.776399e+002 
3190625000  -4.072753e+001  1.718884e+002 
3193750000  -4.112086e+001  1.736463e+002 
3196875000  -4.117907e+001  1.746008e+002 
3200000000  -3.979718e+001  1.696454e+002 
3203125000  -3.957795e+001  1.598144e+002 
3206250000  -3.987495e+001  1.517697e+002 
3209375000  -3.957154e+001  1.438830e+002 
3212500000  -3.992234e+001  1.345398e+002 
3215625000  -3.947949e+001  1.330135e+002 
3218750000  -4.031279e+001  1.215976e+002 
3221875000  -4.069900e+001  1.139175e+002 
3225000000  -4.053273e+001  1.077353e+002 
3228125000  -4.106786e+001  1.009675e+002 
3231250000  -4.140286e+001  9.691109e+001 
3234375000  -4.105768e+001  9.411581e+001 
3237500000  -4.091927e+001  9.067150e+001 
3240625000  -4.031808e+001  8.318366e+001 
3243750000  -4.045981e+001  7.051208e+001 
3246875000  -4.085786e+001  6.299957e+001 
3250000000  -4.107533e+001  5.854797e+001 
3253125000  -4.096717e+001  5.567458e+001 
3256250000  -4.045251e+001  4.414867e+001 
3259375000  -4.096527e+001  3.254280e+001 
3262500000  -4.239936e+001  2.644713e+001 
3265625000  -4.270196e+001  2.841266e+001 
3268750000  -4.227732e+001  2.577815e+001 
3271875000  -4.160992e+001  2.035229e+001 
3275000000  -4.108925e+001  1.016479e+001 
3278125000  -4.151559e+001  2.766021e+000 
3281250000  -4.181904e+001  -4.315201e-001 
3284375000  -4.117543e+001  -9.381868e+000 
3287500000  -4.147647e+001  -1.624755e+001 
3290625000  -4.143695e+001  -2.681741e+001 
3293750000  -4.146698e+001  -3.451087e+001 
3296875000  -4.261932e+001  -3.871833e+001 
3300000000  -4.197636e+001  -4.076225e+001 
3303125000  -4.095606e+001  -5.081121e+001 
3306250000  -4.089749e+001  -6.059890e+001 
3309375000  -4.060993e+001  -7.106478e+001 
3312500000  -4.097628e+001  -8.655794e+001 
3315625000  -4.238407e+001  -9.390884e+001 
3318750000  -4.397260e+001  -1.000701e+002 
3321875000  -4.540348e+001  -1.003542e+002 
3325000000  -4.503992e+001  -9.351289e+001 
3328125000  -4.420468e+001  -9.716982e+001 
3331250000  -4.246852e+001  -9.825255e+001 
3334375000  -4.001318e+001  -1.161366e+002 
3337500000  -4.073319e+001  -1.400444e+002 
3340625000  -4.299614e+001  -1.508356e+002 
3343750000  -4.461303e+001  -1.535205e+002 
3346875000  -4.382434e+001  -1.546648e+002 
3350000000  -4.359921e+001  -1.623269e+002 
3353125000  -4.339815e+001  -1.714608e+002 
3356250000  -4.337643e+001  1.798146e+002 
3359375000  -4.425208e+001  1.656762e+002 
3362500000  -4.488545e+001  1.605579e+002 
3365625000  -4.578422e+001  1.527126e+002 
3368750000  -4.620927e+001  1.454627e+002 
3371875000  -4.701253e+001  1.403724e+002 
3375000000  -4.880562e+001  1.306173e+002 
3378125000  -4.959198e+001  1.309348e+002 
3381250000  -5.036886e+001  1.446207e+002 
3384375000  -4.713329e+001  1.514672e+002 
3387500000  -4.425719e+001  1.283371e+002 
3390625000  -4.724169e+001  1.072618e+002 
3393750000  -4.731167e+001  1.033592e+002 
3396875000  -4.637295e+001  1.008275e+002 
3400000000  -4.620208e+001  8.725553e+001 
3403125000  -4.678634e+001  7.857086e+001 
3406250000  -4.763735e+001  7.252634e+001 
3409375000  -4.695977e+001  6.287695e+001 
3412500000  -4.773537e+001  5.466233e+001 
3415625000  -4.865421e+001  4.712993e+001 
3418750000  -4.844593e+001  4.250855e+001 
3421875000  -4.913542e+001  3.940782e+001 
3425000000  -4.792571e+001  3.661406e+001 
3428125000  -4.716075e+001  2.461006e+001 
3431250000  -4.669455e+001  1.430984e+001 
3434375000  -4.701697e+001  2.251678e+000 
3437500000  -4.782364e+001  -6.349934e+000 
3440625000  -4.832909e+001  -7.577506e+000 
3443750000  -4.635392e+001  -1.035689e+001 
3446875000  -4.571008e+001  -2.688928e+001 
3450000000  -4.533661e+001  -4.405729e+001 
3453125000  -4.567518e+001  -5.919586e+001 
3456250000  -4.717848e+001  -6.670909e+001 
3459375000  -4.818327e+001  -7.067280e+001 
3462500000  -4.835566e+001  -7.798640e+001 
3465625000  -4.728036e+001  -8.978178e+001 
3468750000  -4.849303e+001  -9.456770e+001 
3471875000  -4.748697e+001  -1.012880e+002 
3475000000  -4.694463e+001  -1.155348e+002 
3478125000  -4.793044e+001  -1.260589e+002 
3481250000  -4.908128e+001  -1.369097e+002 
3484375000  -4.840867e+001  -1.330843e+002 
3487500000  -4.783193e+001  -1.405942e+002 
3490625000  -4.679813e+001  -1.515934e+002 
3493750000  -4.852642e+001  -1.666979e+002 
3496875000  -4.861609e+001  -1.659196e+002 
3500000000  -4.862640e+001  -1.738550e+002 
3503125000  -4.743360e+001  -1.765254e+002 
3506250000  -4.566202e+001  1.738330e+002 
3509375000  -4.579049e+001  1.525906e+002 
3512500000  -4.638924e+001  1.386365e+002 
3515625000  -4.726775e+001  1.300629e+002 
3518750000  -4.795557e+001  1.308791e+002 
3521875000  -4.821073e+001  1.170577e+002 
3525000000  -4.876344e+001  1.149535e+002 
3528125000  -4.750173e+001  1.176453e+002 
3531250000  -4.646626e+001  1.018696e+002 
3534375000  -4.682099e+001  9.054344e+001 
3537500000  -4.799454e+001  7.987894e+001 
3540625000  -4.934676e+001  7.520554e+001 
3543750000  -4.878729e+001  7.659336e+001 
3546875000  -4.880952e+001  8.396075e+001 
3550000000  -4.643410e+001  7.397276e+001 
3553125000  -4.621640e+001  5.587990e+001 
3556250000  -4.718478e+001  4.915696e+001 
3559375000  -4.644738e+001  4.170057e+001 
3562500000  -4.629432e+001  2.914098e+001 
3565625000  -4.801057e+001  2.295929e+001 
3568750000  -4.774163e+001  2.550832e+001 
3571875000  -4.721452e+001  2.049641e+001 
3575000000  -4.697169e+001  9.439321e+000 
3578125000  -4.804912e+001  8.270171e+000 
3581250000  -4.792761e+001  3.125511e+000 
3584375000  -4.672469e+001  -6.206537e+000 
3587500000  -4.571195e+001  -1.276519e+001 
3590625000  -4.623903e+001  -2.482879e+001 
3593750000  -4.776701e+001  -2.965537e+001 
3596875000  -4.641998e+001  -2.228491e+001 
3600000000  -4.515173e+001  -3.317946e+001 
3603125000  -4.490821e+001  -4.964508e+001 
3606250000  -4.574500e+001  -5.409318e+001 
3609375000  -4.642808e+001  -5.932927e+001 
3612500000  -4.592375e+001  -6.508963e+001 
3615625000  -4.646728e+001  -6.977191e+001 
3618750000  -4.607966e+001  -6.905016e+001 
3621875000  -4.566642e+001  -7.850877e+001 
3625000000  -4.540779e+001  -8.228825e+001 
3628125000  -4.480923e+001  -8.842496e+001 
3631250000  -4.502882e+001  -9.900365e+001 
3634375000  -4.569596e+001  -9.911565e+001 
3637500000  -4.456131e+001  -9.935390e+001 
3640625000  -4.348854e+001  -1.076678e+002 
3643750000  -4.308701e+001  -1.185453e+002 
3646875000  -4.344586e+001  -1.298350e+002 
3650000000  -4.371854e+001  -1.324984e+002 
3653125000  -4.325991e+001  -1.435610e+002 
3656250000  -4.416145e+001  -1.502629e+002 
3659375000  -4.400714e+001  -1.535021e+002 
3662500000  -4.328938e+001  -1.596943e+002 
3665625000  -4.341689e+001  -1.637721e+002 
3668750000  -4.205939e+001  -1.683215e+002 
3671875000  -4.149217e+001  1.769367e+002 
3675000000  -4.208538e+001  1.673379e+002 
3678125000  -4.249672e+001  1.633111e+002 
3681250000  -4.273209e+001  1.568865e+002 
3684375000  -4.283057e+001  1.475752e+002 
3687500000  -4.262571e+001  1.398102e+002 
3690625000  -4.341586e+001  1.334739e+002 
3693750000  -4.438041e+001  1.331729e+002 
3696875000  -4.381079e+001  1.293782e+002 
3700000000  -4.298399e+001  1.200683e+002 
3703125000  -4.388934e+001  1.126090e+002 
3706250000  -4.453049e+001  1.100577e+002 
3709375000  -4.397865e+001  1.116264e+002 
3712500000  -4.290791e+001  1.041991e+002 
3715625000  -4.198704e+001  9.558075e+001 
3718750000  -4.178074e+001  8.492842e+001 
3721875000  -4.184708e+001  7.693089e+001 
3725000000  -4.220201e+001  6.929499e+001 
3728125000  -4.237565e+001  6.563173e+001 
3731250000  -4.190008e+001  5.773941e+001 
3734375000  -4.195467e+001  5.070512e+001 
3737500000  -4.303926e+001  4.411735e+001 
3740625000  -4.308711e+001  3.586205e+001 
3743750000  -4.253868e+001  3.064677e+001 
3746875000  -4.314071e+001  2.282561e+001 
3750000000  -4.347274e+001  2.180176e+001 
3753125000  -4.378564e+001  1.683261e+001 
3756250000  -4.360416e+001  1.472660e+001 
3759375000  -4.343413e+001  7.925128e+000 
3762500000  -4.354647e+001  2.906857e+000 
3765625000  -4.409813e+001  -2.436667e+000 
3768750000  -4.359009e+001  -3.124487e-001 
3771875000  -4.213219e+001  -8.884809e+000 
3775000000  -4.216565e+001  -1.855720e+001 
3778125000  -4.256384e+001  -2.517431e+001 
3781250000  -4.274966e+001  -3.085946e+001 
3784375000  -4.258176e+001  -3.983206e+001 
3787500000  -4.224689e+001  -4.129082e+001 
3790625000  -4.281699e+001  -5.063180e+001 
3793750000  -4.243000e+001  -5.486809e+001 
3796875000  -4.187281e+001  -6.040983e+001 
3800000000  -4.066772e+001  -6.838592e+001 
3803125000  -4.185950e+001  -7.815778e+001 
3806250000  -4.234981e+001  -8.414847e+001 
3809375000  -4.191254e+001  -8.867010e+001 
3812500000  -4.172637e+001  -1.015268e+002 
3815625000  -4.331671e+001  -1.106054e+002 
3818750000  -4.458516e+001  -1.084919e+002 
3821875000  -4.348855e+001  -9.965656e+001 
3825000000  -4.119357e+001  -1.047367e+002 
3828125000  -4.038866e+001  -1.246134e+002 
3831250000  -4.131246e+001  -1.408253e+002 
3834375000  -4.389664e+001  -1.409701e+002 
3837500000  -4.369090e+001  -1.366295e+002 
3840625000  -4.230430e+001  -1.443210e+002 
3843750000  -4.127464e+001  -1.592667e+002 
3846875000  -4.321658e+001  -1.682259e+002 
3850000000  -4.411548e+001  -1.591006e+002 
3853125000  -4.361920e+001  -1.629565e+002 
3856250000  -4.287808e+001  -1.732040e+002 
3859375000  -4.192213e+001  -1.780909e+002 
3862500000  -4.199940e+001  1.699815e+002 
3865625000  -4.251140e+001  1.617896e+002 
3868750000  -4.224095e+001  1.633311e+002 
3871875000  -4.193027e+001  1.528518e+002 
3875000000  -4.237403e+001  1.410320e+002 
3878125000  -4.355671e+001  1.385055e+002 
3881250000  -4.335654e+001  1.376527e+002 
3884375000  -4.247533e+001  1.281609e+002 
3887500000  -4.313055e+001  1.196828e+002 
3890625000  -4.361300e+001  1.188534e+002 
3893750000  -4.376476e+001  1.151056e+002 
3896875000  -4.422855e+001  1.105327e+002 
3900000000  -4.392545e+001  1.077359e+002 
3903125000  -4.371321e+001  1.021843e+002 
3906250000  -4.359843e+001  9.794884e+001 
3909375000  -4.267616e+001  8.723656e+001 
3912500000  -4.364070e+001  8.067329e+001 
3915625000  -4.488254e+001  7.843372e+001 
3918750000  -4.452015e+001  7.756422e+001 
3921875000  -4.363969e+001  7.500449e+001 
3925000000  -4.301668e+001  6.518932e+001 
3928125000  -4.284581e+001  5.712178e+001 
3931250000  -4.359636e+001  5.038831e+001 
3934375000  -4.381114e+001  4.734588e+001 
3937500000  -4.468077e+001  4.381488e+001 
3940625000  -4.482980e+001  4.551840e+001 
3943750000  -4.317857e+001  3.694203e+001 
3946875000  -4.243515e+001  2.666307e+001 
3950000000  -4.343300e+001  1.935701e+001 
3953125000  -4.453505e+001  1.978566e+001 
3956250000  -4.245665e+001  2.152316e+001 
3959375000  -4.205760e+001  1.350270e+001 
3962500000  -4.132332e+001  3.647599e+000 
3965625000  -4.164057e+001  -7.349773e+000 
3968750000  -4.262453e+001  -1.767600e+001 
3971875000  -4.254108e+001  -2.430569e+001 
3975000000  -4.200651e+001  -2.417465e+001 
3978125000  -4.225652e+001  -3.284826e+001 
3981250000  -4.174442e+001  -3.889144e+001 
3984375000  -4.241574e+001  -4.960996e+001 
3987500000  -4.318847e+001  -5.022442e+001 
3990625000  -4.283934e+001  -5.694226e+001 
3993750000  -4.299383e+001  -6.274012e+001 
3996875000  -4.291808e+001  -7.010538e+001 
4000000000  -4.374968e+001  -6.985643e+001 
4003125000  -4.377239e+001  -7.239830e+001 
4006250000  -4.173988e+001  -7.915815e+001 
4009375000  -4.097095e+001  -9.446885e+001 
4012500000  -4.300103e+001  -1.039556e+002 
4015625000  -4.397458e+001  -1.037486e+002 
4018750000  -4.382069e+001  -1.035906e+002 
4021875000  -4.311128e+001  -1.155045e+002 
4025000000  -4.318377e+001  -1.206225e+002 
4028125000  -4.312890e+001  -1.304135e+002 
4031250000  -4.340317e+001  -1.358252e+002 
4034375000  -4.418327e+001  -1.401261e+002 
4037500000  -4.401207e+001  -1.421205e+002 
4040625000  -4.432170e+001  -1.465077e+002 
4043750000  -4.469497e+001  -1.526448e+002 
4046875000  -4.445672e+001  -1.539819e+002 
4050000000  -4.433070e+001  -1.646604e+002 
4053125000  -4.500297e+001  -1.675536e+002 
4056250000  -4.604016e+001  -1.637585e+002 
4059375000  -4.391976e+001  -1.647577e+002 
4062500000  -4.377434e+001  -1.743087e+002 
4065625000  -4.352449e+001  -1.785029e+002 
4068750000  -4.266100e+001  1.754054e+002 
4071875000  -4.239547e+001  1.624347e+002 
4075000000  -4.331293e+001  1.537451e+002 
4078125000  -4.425500e+001  1.519978e+002 
4081250000  -4.347527e+001  1.488559e+002 
4084375000  -4.354820e+001  1.375624e+002 
4087500000  -4.367997e+001  1.287554e+002 
4090625000  -4.444207e+001  1.253288e+002 
4093750000  -4.452876e+001  1.250668e+002 
4096875000  -4.395639e+001  1.173799e+002 
4100000000  -4.485309e+001  1.114999e+002 
4103125000  -4.600655e+001  1.136710e+002 
4106250000  -4.488853e+001  1.159209e+002 
4109375000  -4.437141e+001  1.117602e+002 
4112500000  -4.418246e+001  9.820296e+001 
4115625000  -4.399171e+001  9.797696e+001 
4118750000  -4.395114e+001  9.148170e+001 
4121875000  -4.387510e+001  8.537665e+001 
4125000000  -4.472739e+001  7.569750e+001 
4128125000  -4.511393e+001  7.817486e+001 
4131250000  -4.372260e+001  8.330840e+001 
4134375000  -4.119232e+001  6.881647e+001 
4137500000  -4.203058e+001  4.871279e+001 
4140625000  -4.425146e+001  4.326686e+001 
4143750000  -4.471682e+001  4.525087e+001 
4146875000  -4.393425e+001  4.980634e+001 
4150000000  -4.264810e+001  3.709549e+001 
4153125000  -4.333100e+001  2.765066e+001 
4156250000  -4.420744e+001  2.796729e+001 
4159375000  -4.348986e+001  2.741099e+001 
4162500000  -4.240433e+001  2.716927e+001 
4165625000  -4.137572e+001  1.619997e+001 
4168750000  -4.094201e+001  7.428854e+000 
4171875000  -4.125577e+001  -5.904304e+000 
4175000000  -4.202669e+001  -1.542831e+001 
4178125000  -4.215100e+001  -1.784464e+001 
4181250000  -4.177496e+001  -2.513481e+001 
4184375000  -4.250578e+001  -3.163523e+001 
4187500000  -4.255151e+001  -3.633550e+001 
4190625000  -4.274365e+001  -4.713216e+001 
4193750000  -4.402572e+001  -5.148024e+001 
4196875000  -4.547693e+001  -5.427377e+001 
4200000000  -4.622798e+001  -5.093167e+001 
4203125000  -4.431546e+001  -3.754937e+001 
4206250000  -4.112754e+001  -4.861696e+001 
4209375000  -4.107767e+001  -7.047466e+001 
4212500000  -4.361757e+001  -7.982471e+001 
4215625000  -4.428275e+001  -7.129149e+001 
4218750000  -4.241928e+001  -7.357935e+001 
4221875000  -4.099090e+001  -8.216457e+001 
4225000000  -4.170623e+001  -9.604740e+001 
4228125000  -4.202402e+001  -9.373616e+001 
4231250000  -4.078773e+001  -1.022219e+002 
4234375000  -4.064629e+001  -1.114677e+002 
4237500000  -4.123071e+001  -1.200658e+002 
4240625000  -4.125383e+001  -1.318874e+002 
4243750000  -4.235831e+001  -1.379658e+002 
4246875000  -4.313308e+001  -1.391072e+002 
4250000000  -4.261046e+001  -1.380483e+002 
4253125000  -4.286132e+001  -1.423145e+002 
4256250000  -4.226666e+001  -1.518572e+002 
4259375000  -4.165439e+001  -1.530260e+002 
4262500000  -4.227080e+001  -1.605386e+002 
4265625000  -4.175769e+001  -1.603565e+002 
4268750000  -4.093150e+001  -1.707100e+002 
4271875000  -4.072364e+001  1.794872e+002 
4275000000  -4.018120e+001  1.704863e+002 
4278125000  -4.098460e+001  1.584278e+002 
4281250000  -4.243086e+001  1.550026e+002 
4284375000  -4.260940e+001  1.519096e+002 
4287500000  -4.348065e+001  1.510401e+002 
4290625000  -4.402911e+001  1.563178e+002 
4293750000  -4.144979e+001  1.561522e+002 
4296875000  -4.031988e+001  1.397723e+002 
4300000000  -4.132994e+001  1.294656e+002 
4303125000  -4.200410e+001  1.308342e+002 
4306250000  -4.058583e+001  1.289634e+002 
4309375000  -3.983709e+001  1.179312e+002 
4312500000  -3.952576e+001  1.091760e+002 
4315625000  -4.010001e+001  9.829702e+001 
4318750000  -4.092992e+001  9.262643e+001 
4321875000  -4.054582e+001  9.229618e+001 
4325000000  -4.007215e+001  8.767754e+001 
4328125000  -3.932060e+001  7.541467e+001 
4331250000  -3.971648e+001  6.309124e+001 
4334375000  -4.059647e+001  5.578856e+001 
4337500000  -4.167456e+001  5.290687e+001 
4340625000  -4.201633e+001  5.554142e+001 
4343750000  -4.113217e+001  5.019831e+001 
4346875000  -4.075981e+001  4.366058e+001 
4350000000  -4.096346e+001  3.392764e+001 
4353125000  -4.160312e+001  2.344131e+001 
4356250000  -4.410664e+001  2.526313e+001 
4359375000  -4.292646e+001  4.097724e+001 
4362500000  -3.979268e+001  2.884644e+001 
4365625000  -3.895020e+001  1.174000e+001 
4368750000  -4.033287e+001  1.220798e+000 
4371875000  -4.089898e+001  -2.687114e+000 
4375000000  -4.082260e+001  -5.811057e+000 
4378125000  -4.055424e+001  -1.522685e+001 
4381250000  -4.064218e+001  -2.153077e+001 
4384375000  -4.043058e+001  -3.062484e+001 
4387500000  -4.162332e+001  -3.723453e+001 
4390625000  -4.216025e+001  -4.099383e+001 
4393750000  -4.154166e+001  -4.035065e+001 
4396875000  -4.103522e+001  -4.587700e+001 
4400000000  -4.077618e+001  -5.550991e+001 
4403125000  -4.174670e+001  -6.609097e+001 
4406250000  -4.191520e+001  -6.971698e+001 
4409375000  -4.275316e+001  -7.576022e+001 
4412500000  -4.348135e+001  -7.663535e+001 
4415625000  -4.302632e+001  -7.423983e+001 
4418750000  -4.164881e+001  -7.452187e+001 
