!Agilent Technologies,E8363B,MY43030201,A.06.04.32
!Agilent E8363B: A.06.04.32
!Date: Tuesday, November 11, 2014 21:45:06
!Correction: S21(Response(S21)) 
!S1P File: Measurement: S21:
# Hz S  dB   R 50
3000000000  -4.368994e+001  -1.605310e+002 
3003125000  -4.522766e+001  -1.643498e+002 
3006250000  -4.528959e+001  -1.671664e+002 
3009375000  -4.620479e+001  -1.633565e+002 
3012500000  -4.482687e+001  -1.695508e+002 
3015625000  -4.523971e+001  -1.778398e+002 
3018750000  -4.534235e+001  -1.785718e+002 
3021875000  -4.365659e+001  -1.794272e+002 
3025000000  -4.252486e+001  1.778721e+002 
3028125000  -4.169878e+001  1.657398e+002 
3031250000  -4.091788e+001  1.529966e+002 
3034375000  -4.080624e+001  1.384572e+002 
3037500000  -4.148988e+001  1.283206e+002 
3040625000  -4.302237e+001  1.224201e+002 
3043750000  -4.332359e+001  1.151330e+002 
3046875000  -4.404850e+001  1.081707e+002 
3050000000  -4.492575e+001  1.028533e+002 
3053125000  -4.468772e+001  1.069137e+002 
3056250000  -4.448650e+001  1.105099e+002 
3059375000  -4.389925e+001  1.069669e+002 
3062500000  -4.257788e+001  1.012577e+002 
3065625000  -4.219276e+001  8.994558e+001 
3068750000  -4.185378e+001  8.042071e+001 
3071875000  -4.191362e+001  8.021037e+001 
3075000000  -4.129152e+001  7.162439e+001 
3078125000  -4.130404e+001  6.577262e+001 
3081250000  -4.126699e+001  5.813856e+001 
3084375000  -4.034382e+001  5.233412e+001 
3087500000  -4.058776e+001  4.460464e+001 
3090625000  -3.986205e+001  3.114316e+001 
3093750000  -4.079375e+001  2.219547e+001 
3096875000  -4.126562e+001  1.715655e+001 
3100000000  -4.112098e+001  1.277666e+001 
3103125000  -4.134097e+001  8.864505e+000 
3106250000  -4.102126e+001  2.086441e+000 
3109375000  -4.101415e+001  -2.751551e+000 
3112500000  -4.082910e+001  -9.584713e+000 
3115625000  -4.080502e+001  -1.506685e+001 
3118750000  -4.071635e+001  -1.974064e+001 
3121875000  -4.020759e+001  -3.234093e+001 
3125000000  -4.222790e+001  -3.500854e+001 
3128125000  -4.195623e+001  -2.984273e+001 
3131250000  -3.937887e+001  -3.722843e+001 
3134375000  -3.899220e+001  -5.487093e+001 
3137500000  -3.938924e+001  -6.924876e+001 
3140625000  -4.105056e+001  -7.344469e+001 
3143750000  -4.154452e+001  -7.710966e+001 
3146875000  -4.121030e+001  -7.650896e+001 
3150000000  -4.035772e+001  -8.109142e+001 
3153125000  -4.080081e+001  -9.061623e+001 
3156250000  -4.139033e+001  -8.640421e+001 
3159375000  -3.924379e+001  -9.116444e+001 
3162500000  -3.777404e+001  -1.075843e+002 
3165625000  -3.901360e+001  -1.220352e+002 
3168750000  -3.902346e+001  -1.240975e+002 
3171875000  -3.862661e+001  -1.328751e+002 
3175000000  -3.910135e+001  -1.417734e+002 
3178125000  -3.866464e+001  -1.444872e+002 
3181250000  -3.809202e+001  -1.543904e+002 
3184375000  -3.782089e+001  -1.656214e+002 
3187500000  -3.915495e+001  1.769264e+002 
3190625000  -4.091370e+001  1.718766e+002 
3193750000  -4.126350e+001  1.754717e+002 
3196875000  -4.117292e+001  1.762603e+002 
3200000000  -3.982539e+001  1.694221e+002 
3203125000  -3.959301e+001  1.611263e+002 
3206250000  -3.985670e+001  1.528609e+002 
3209375000  -3.945912e+001  1.434461e+002 
3212500000  -3.987769e+001  1.367856e+002 
3215625000  -3.957980e+001  1.346411e+002 
3218750000  -4.045158e+001  1.210132e+002 
3221875000  -4.060607e+001  1.146330e+002 
3225000000  -4.051340e+001  1.095690e+002 
3228125000  -4.124747e+001  1.012693e+002 
3231250000  -4.124207e+001  9.820061e+001 
3234375000  -4.094732e+001  9.492345e+001 
3237500000  -4.083126e+001  9.108305e+001 
3240625000  -4.042199e+001  8.446616e+001 
3243750000  -4.029609e+001  7.232991e+001 
3246875000  -4.068548e+001  6.420940e+001 
3250000000  -4.126796e+001  5.918412e+001 
3253125000  -4.113250e+001  5.507609e+001 
3256250000  -4.034407e+001  4.505685e+001 
3259375000  -4.105713e+001  3.128782e+001 
3262500000  -4.265230e+001  2.689463e+001 
3265625000  -4.252414e+001  2.767102e+001 
3268750000  -4.254299e+001  2.641130e+001 
3271875000  -4.153139e+001  2.173064e+001 
3275000000  -4.110783e+001  1.268216e+001 
3278125000  -4.165356e+001  4.328412e+000 
3281250000  -4.156800e+001  8.813716e-002 
3284375000  -4.078519e+001  -8.005834e+000 
3287500000  -4.158686e+001  -1.510363e+001 
3290625000  -4.167317e+001  -2.555867e+001 
3293750000  -4.157114e+001  -3.398090e+001 
3296875000  -4.263217e+001  -3.908136e+001 
3300000000  -4.215445e+001  -3.892511e+001 
3303125000  -4.100092e+001  -4.988972e+001 
3306250000  -4.077893e+001  -5.941694e+001 
3309375000  -4.075194e+001  -7.063515e+001 
3312500000  -4.130676e+001  -8.328658e+001 
3315625000  -4.254538e+001  -9.320333e+001 
3318750000  -4.429414e+001  -9.908800e+001 
3321875000  -4.512992e+001  -1.005529e+002 
3325000000  -4.502951e+001  -9.653283e+001 
3328125000  -4.445052e+001  -9.764255e+001 
3331250000  -4.264289e+001  -9.708563e+001 
3334375000  -4.011919e+001  -1.159811e+002 
3337500000  -4.101984e+001  -1.396313e+002 
3340625000  -4.279204e+001  -1.492996e+002 
3343750000  -4.478363e+001  -1.525747e+002 
3346875000  -4.389719e+001  -1.559792e+002 
3350000000  -4.364408e+001  -1.604952e+002 
3353125000  -4.352381e+001  -1.696684e+002 
3356250000  -4.317540e+001  1.777028e+002 
3359375000  -4.417592e+001  1.660195e+002 
3362500000  -4.508571e+001  1.585637e+002 
3365625000  -4.596895e+001  1.539307e+002 
3368750000  -4.643715e+001  1.457627e+002 
3371875000  -4.737100e+001  1.408314e+002 
3375000000  -4.869063e+001  1.347996e+002 
3378125000  -4.928837e+001  1.324419e+002 
3381250000  -5.022313e+001  1.448044e+002 
3384375000  -4.784541e+001  1.496768e+002 
3387500000  -4.475241e+001  1.283104e+002 
3390625000  -4.674216e+001  1.085201e+002 
3393750000  -4.782040e+001  1.016394e+002 
3396875000  -4.628081e+001  1.029484e+002 
3400000000  -4.664299e+001  8.635876e+001 
3403125000  -4.679174e+001  8.225561e+001 
3406250000  -4.749177e+001  7.308204e+001 
3409375000  -4.714132e+001  6.422681e+001 
3412500000  -4.770435e+001  5.401462e+001 
3415625000  -4.875131e+001  4.943759e+001 
3418750000  -4.838699e+001  4.336451e+001 
3421875000  -4.865004e+001  4.029616e+001 
3425000000  -4.759039e+001  3.698778e+001 
3428125000  -4.722094e+001  3.078209e+001 
3431250000  -4.727523e+001  1.656798e+001 
3434375000  -4.679067e+001  3.152024e+000 
3437500000  -4.783411e+001  -2.341066e+000 
3440625000  -4.792886e+001  -7.039144e+000 
3443750000  -4.632584e+001  -1.101828e+001 
3446875000  -4.553867e+001  -2.913557e+001 
3450000000  -4.518065e+001  -4.258652e+001 
3453125000  -4.553499e+001  -5.812388e+001 
3456250000  -4.695080e+001  -6.866784e+001 
3459375000  -4.811983e+001  -7.200362e+001 
3462500000  -4.806289e+001  -7.573152e+001 
3465625000  -4.726651e+001  -8.893772e+001 
3468750000  -4.775693e+001  -9.667860e+001 
3471875000  -4.696335e+001  -1.023543e+002 
3475000000  -4.676208e+001  -1.136060e+002 
3478125000  -4.774701e+001  -1.313371e+002 
3481250000  -4.936176e+001  -1.334780e+002 
3484375000  -4.881852e+001  -1.341517e+002 
3487500000  -4.783344e+001  -1.423063e+002 
3490625000  -4.747844e+001  -1.536812e+002 
3493750000  -4.827730e+001  -1.686188e+002 
3496875000  -4.813932e+001  -1.680655e+002 
3500000000  -4.829502e+001  -1.725288e+002 
3503125000  -4.731222e+001  -1.741555e+002 
3506250000  -4.572985e+001  1.731863e+002 
3509375000  -4.592028e+001  1.526973e+002 
3512500000  -4.617918e+001  1.370835e+002 
3515625000  -4.734224e+001  1.323857e+002 
3518750000  -4.782651e+001  1.298226e+002 
3521875000  -4.817283e+001  1.195104e+002 
3525000000  -4.867616e+001  1.135279e+002 
3528125000  -4.735165e+001  1.200441e+002 
3531250000  -4.676741e+001  1.029024e+002 
3534375000  -4.673063e+001  9.013187e+001 
3537500000  -4.759768e+001  7.815768e+001 
3540625000  -4.883786e+001  7.384014e+001 
3543750000  -4.937808e+001  7.872001e+001 
3546875000  -4.897250e+001  8.262778e+001 
3550000000  -4.607129e+001  7.730515e+001 
3553125000  -4.611292e+001  5.512453e+001 
3556250000  -4.698709e+001  4.745747e+001 
3559375000  -4.679381e+001  4.412947e+001 
3562500000  -4.634136e+001  3.107387e+001 
3565625000  -4.720663e+001  2.779358e+001 
3568750000  -4.742149e+001  2.568351e+001 
3571875000  -4.719976e+001  1.863817e+001 
3575000000  -4.681802e+001  1.067782e+001 
3578125000  -4.794675e+001  8.087114e+000 
3581250000  -4.756207e+001  3.243880e+000 
3584375000  -4.586735e+001  -1.453327e+000 
3587500000  -4.562770e+001  -1.172314e+001 
3590625000  -4.659447e+001  -2.110055e+001 
3593750000  -4.817213e+001  -2.754646e+001 
3596875000  -4.624002e+001  -1.870333e+001 
3600000000  -4.499947e+001  -3.261184e+001 
3603125000  -4.510437e+001  -4.792479e+001 
3606250000  -4.599643e+001  -5.362098e+001 
3609375000  -4.617608e+001  -5.797939e+001 
3612500000  -4.582333e+001  -6.437979e+001 
3615625000  -4.594627e+001  -6.777298e+001 
3618750000  -4.614631e+001  -6.842692e+001 
3621875000  -4.528270e+001  -7.727309e+001 
3625000000  -4.599498e+001  -8.232885e+001 
3628125000  -4.486277e+001  -8.779733e+001 
3631250000  -4.498408e+001  -9.728613e+001 
3634375000  -4.553697e+001  -9.989432e+001 
3637500000  -4.420423e+001  -1.004055e+002 
3640625000  -4.369940e+001  -1.062821e+002 
3643750000  -4.320968e+001  -1.183149e+002 
3646875000  -4.386394e+001  -1.250231e+002 
3650000000  -4.406136e+001  -1.329047e+002 
3653125000  -4.306841e+001  -1.414228e+002 
3656250000  -4.405747e+001  -1.460600e+002 
3659375000  -4.387790e+001  -1.516244e+002 
3662500000  -4.325824e+001  -1.594386e+002 
3665625000  -4.308891e+001  -1.637860e+002 
3668750000  -4.190377e+001  -1.691462e+002 
3671875000  -4.154591e+001  1.779368e+002 
3675000000  -4.218513e+001  1.694232e+002 
3678125000  -4.267252e+001  1.627851e+002 
3681250000  -4.247466e+001  1.566415e+002 
3684375000  -4.271530e+001  1.497337e+002 
3687500000  -4.290454e+001  1.408117e+002 
3690625000  -4.336325e+001  1.347555e+002 
3693750000  -4.456723e+001  1.326763e+002 
3696875000  -4.378576e+001  1.286417e+002 
3700000000  -4.303828e+001  1.228881e+002 
3703125000  -4.370953e+001  1.132986e+002 
3706250000  -4.491409e+001  1.120119e+002 
3709375000  -4.410201e+001  1.112460e+002 
3712500000  -4.273888e+001  1.049483e+002 
3715625000  -4.169658e+001  9.640802e+001 
3718750000  -4.186937e+001  8.718058e+001 
3721875000  -4.178292e+001  7.812307e+001 
3725000000  -4.221316e+001  6.973482e+001 
3728125000  -4.260043e+001  6.735784e+001 
3731250000  -4.217291e+001  6.222179e+001 
3734375000  -4.218225e+001  5.253892e+001 
3737500000  -4.268023e+001  4.336128e+001 
3740625000  -4.335338e+001  3.832138e+001 
3743750000  -4.281578e+001  3.325208e+001 
3746875000  -4.323137e+001  2.479486e+001 
3750000000  -4.361439e+001  2.298031e+001 
3753125000  -4.386044e+001  1.820660e+001 
3756250000  -4.401061e+001  1.557338e+001 
3759375000  -4.366984e+001  9.122316e+000 
3762500000  -4.329245e+001  3.825273e+000 
3765625000  -4.414972e+001  -1.248924e+000 
3768750000  -4.331189e+001  8.479485e-001 
3771875000  -4.237134e+001  -5.386824e+000 
3775000000  -4.211641e+001  -1.929714e+001 
3778125000  -4.282870e+001  -2.426379e+001 
3781250000  -4.284363e+001  -2.943247e+001 
3784375000  -4.265059e+001  -3.532590e+001 
3787500000  -4.212489e+001  -3.956042e+001 
3790625000  -4.289951e+001  -5.100382e+001 
3793750000  -4.279241e+001  -5.211466e+001 
3796875000  -4.156245e+001  -6.005843e+001 
3800000000  -4.065063e+001  -6.650279e+001 
3803125000  -4.188495e+001  -7.934481e+001 
3806250000  -4.274677e+001  -8.248017e+001 
3809375000  -4.170594e+001  -8.829476e+001 
3812500000  -4.178508e+001  -9.996206e+001 
3815625000  -4.298050e+001  -1.106419e+002 
3818750000  -4.458200e+001  -1.076317e+002 
3821875000  -4.339896e+001  -9.791389e+001 
3825000000  -4.160377e+001  -1.044420e+002 
3828125000  -4.057213e+001  -1.232678e+002 
3831250000  -4.134650e+001  -1.410549e+002 
3834375000  -4.377505e+001  -1.400178e+002 
3837500000  -4.353112e+001  -1.380985e+002 
3840625000  -4.260937e+001  -1.423052e+002 
3843750000  -4.161908e+001  -1.607071e+002 
3846875000  -4.361478e+001  -1.664200e+002 
3850000000  -4.389150e+001  -1.620067e+002 
3853125000  -4.330872e+001  -1.609174e+002 
3856250000  -4.270816e+001  -1.670213e+002 
3859375000  -4.201740e+001  -1.789814e+002 
3862500000  -4.202637e+001  1.707067e+002 
3865625000  -4.264027e+001  1.648103e+002 
3868750000  -4.233331e+001  1.631943e+002 
3871875000  -4.180246e+001  1.524545e+002 
3875000000  -4.250719e+001  1.443803e+002 
3878125000  -4.321974e+001  1.397086e+002 
3881250000  -4.334243e+001  1.399143e+002 
3884375000  -4.242639e+001  1.278400e+002 
3887500000  -4.309034e+001  1.219314e+002 
3890625000  -4.379977e+001  1.224225e+002 
3893750000  -4.414646e+001  1.159077e+002 
3896875000  -4.444402e+001  1.105869e+002 
3900000000  -4.438258e+001  1.081187e+002 
3903125000  -4.359598e+001  1.033043e+002 
3906250000  -4.344420e+001  9.657809e+001 
3909375000  -4.258385e+001  8.897848e+001 
3912500000  -4.381940e+001  7.758255e+001 
3915625000  -4.513893e+001  7.965047e+001 
3918750000  -4.451641e+001  8.004979e+001 
3921875000  -4.385116e+001  7.417632e+001 
3925000000  -4.299564e+001  6.703085e+001 
3928125000  -4.286420e+001  5.852897e+001 
3931250000  -4.363915e+001  5.020553e+001 
3934375000  -4.374136e+001  4.779288e+001 
3937500000  -4.443214e+001  4.507293e+001 
3940625000  -4.444494e+001  4.273846e+001 
3943750000  -4.337927e+001  3.794132e+001 
3946875000  -4.302304e+001  3.062562e+001 
3950000000  -4.342477e+001  2.218115e+001 
3953125000  -4.439867e+001  2.315729e+001 
3956250000  -4.305069e+001  2.103365e+001 
3959375000  -4.170667e+001  1.612795e+001 
3962500000  -4.141817e+001  4.409620e+000 
3965625000  -4.192084e+001  -6.644214e+000 
3968750000  -4.250145e+001  -1.464483e+001 
3971875000  -4.278198e+001  -1.983601e+001 
3975000000  -4.201286e+001  -2.270004e+001 
3978125000  -4.226515e+001  -2.979821e+001 
3981250000  -4.214553e+001  -3.877390e+001 
3984375000  -4.212933e+001  -4.744932e+001 
3987500000  -4.296970e+001  -5.318427e+001 
3990625000  -4.308848e+001  -5.525394e+001 
3993750000  -4.305878e+001  -6.051752e+001 
3996875000  -4.285257e+001  -6.969632e+001 
4000000000  -4.396026e+001  -6.840610e+001 
4003125000  -4.371875e+001  -6.912729e+001 
4006250000  -4.183977e+001  -7.814688e+001 
4009375000  -4.140664e+001  -9.416200e+001 
4012500000  -4.276377e+001  -1.014791e+002 
4015625000  -4.411244e+001  -1.018798e+002 
4018750000  -4.358694e+001  -1.072947e+002 
4021875000  -4.278006e+001  -1.136219e+002 
4025000000  -4.270173e+001  -1.209980e+002 
4028125000  -4.310754e+001  -1.274903e+002 
4031250000  -4.413160e+001  -1.335753e+002 
4034375000  -4.406798e+001  -1.370074e+002 
4037500000  -4.408571e+001  -1.412540e+002 
4040625000  -4.420506e+001  -1.451945e+002 
4043750000  -4.398119e+001  -1.507835e+002 
4046875000  -4.432945e+001  -1.550996e+002 
4050000000  -4.388602e+001  -1.628268e+002 
4053125000  -4.514943e+001  -1.647842e+002 
4056250000  -4.584759e+001  -1.612978e+002 
4059375000  -4.401104e+001  -1.650179e+002 
4062500000  -4.384378e+001  -1.729896e+002 
4065625000  -4.415108e+001  -1.781459e+002 
4068750000  -4.332289e+001  1.704059e+002 
4071875000  -4.257073e+001  1.649427e+002 
4075000000  -4.364530e+001  1.551176e+002 
4078125000  -4.409651e+001  1.532007e+002 
4081250000  -4.321827e+001  1.474191e+002 
4084375000  -4.341112e+001  1.386439e+002 
4087500000  -4.421732e+001  1.306347e+002 
4090625000  -4.474533e+001  1.274977e+002 
4093750000  -4.408304e+001  1.250751e+002 
4096875000  -4.452420e+001  1.187548e+002 
4100000000  -4.511814e+001  1.120079e+002 
4103125000  -4.581901e+001  1.156922e+002 
4106250000  -4.520376e+001  1.145831e+002 
4109375000  -4.415466e+001  1.103259e+002 
4112500000  -4.404624e+001  1.007337e+002 
4115625000  -4.410740e+001  9.701833e+001 
4118750000  -4.410275e+001  9.425297e+001 
4121875000  -4.354196e+001  8.370455e+001 
4125000000  -4.444347e+001  7.522478e+001 
4128125000  -4.542791e+001  8.280661e+001 
4131250000  -4.361990e+001  8.271468e+001 
4134375000  -4.160704e+001  7.155668e+001 
4137500000  -4.207233e+001  4.849110e+001 
4140625000  -4.409402e+001  4.389777e+001 
4143750000  -4.471724e+001  4.871208e+001 
4146875000  -4.376405e+001  5.150705e+001 
4150000000  -4.280099e+001  4.179478e+001 
4153125000  -4.342387e+001  3.061644e+001 
4156250000  -4.414621e+001  2.822076e+001 
4159375000  -4.375707e+001  3.152525e+001 
4162500000  -4.277180e+001  2.740521e+001 
4165625000  -4.147419e+001  1.910110e+001 
4168750000  -4.120791e+001  6.995778e+000 
4171875000  -4.098000e+001  -5.380638e+000 
4175000000  -4.194080e+001  -1.479910e+001 
4178125000  -4.215729e+001  -1.585362e+001 
4181250000  -4.224607e+001  -2.158514e+001 
4184375000  -4.299215e+001  -2.608669e+001 
4187500000  -4.224854e+001  -3.550854e+001 
4190625000  -4.275812e+001  -4.617925e+001 
4193750000  -4.409921e+001  -5.065767e+001 
4196875000  -4.462426e+001  -5.181282e+001 
4200000000  -4.629594e+001  -4.798333e+001 
4203125000  -4.411659e+001  -3.322596e+001 
4206250000  -4.129813e+001  -4.748141e+001 
4209375000  -4.129102e+001  -7.190522e+001 
4212500000  -4.372720e+001  -7.925122e+001 
4215625000  -4.419638e+001  -7.309696e+001 
4218750000  -4.282257e+001  -7.155416e+001 
4221875000  -4.140774e+001  -8.368759e+001 
4225000000  -4.217127e+001  -9.332095e+001 
4228125000  -4.223844e+001  -9.091485e+001 
4231250000  -4.077322e+001  -1.011905e+002 
4234375000  -4.076406e+001  -1.135819e+002 
4237500000  -4.104694e+001  -1.195501e+002 
4240625000  -4.122420e+001  -1.286778e+002 
4243750000  -4.254164e+001  -1.336140e+002 
4246875000  -4.292837e+001  -1.362192e+002 
4250000000  -4.280338e+001  -1.392337e+002 
4253125000  -4.261945e+001  -1.420706e+002 
4256250000  -4.245857e+001  -1.479282e+002 
4259375000  -4.180093e+001  -1.531836e+002 
4262500000  -4.201898e+001  -1.580372e+002 
4265625000  -4.187258e+001  -1.607578e+002 
4268750000  -4.088436e+001  -1.701858e+002 
4271875000  -4.064397e+001  -1.778264e+002 
4275000000  -4.015671e+001  1.698184e+002 
4278125000  -4.125562e+001  1.598913e+002 
4281250000  -4.250383e+001  1.570145e+002 
4284375000  -4.221488e+001  1.530844e+002 
4287500000  -4.346670e+001  1.503767e+002 
4290625000  -4.341998e+001  1.586893e+002 
4293750000  -4.180297e+001  1.547168e+002 
4296875000  -4.034163e+001  1.405276e+002 
4300000000  -4.150205e+001  1.290216e+002 
4303125000  -4.193492e+001  1.307651e+002 
4306250000  -4.081026e+001  1.316155e+002 
4309375000  -4.005479e+001  1.215344e+002 
4312500000  -3.951492e+001  1.103155e+002 
4315625000  -4.013510e+001  1.010828e+002 
4318750000  -4.094414e+001  9.377386e+001 
4321875000  -4.083956e+001  9.267262e+001 
4325000000  -4.011365e+001  8.637533e+001 
4328125000  -3.944896e+001  7.582874e+001 
4331250000  -3.983916e+001  6.599820e+001 
4334375000  -4.055642e+001  5.640064e+001 
4337500000  -4.225152e+001  5.517897e+001 
4340625000  -4.192311e+001  5.874512e+001 
4343750000  -4.097993e+001  5.515202e+001 
4346875000  -4.093721e+001  4.204433e+001 
4350000000  -4.107567e+001  3.407102e+001 
4353125000  -4.181417e+001  2.392046e+001 
4356250000  -4.404184e+001  3.083851e+001 
4359375000  -4.297398e+001  4.097319e+001 
4362500000  -3.907061e+001  3.128056e+001 
4365625000  -3.896162e+001  1.106704e+001 
4368750000  -4.059650e+001  9.202012e-001 
4371875000  -4.117440e+001  -1.422115e-001 
4375000000  -4.092879e+001  -2.561644e+000 
4378125000  -4.054606e+001  -1.288522e+001 
4381250000  -4.062890e+001  -2.018875e+001 
4384375000  -4.082717e+001  -2.834605e+001 
4387500000  -4.145433e+001  -3.616142e+001 
4390625000  -4.233432e+001  -3.768076e+001 
4393750000  -4.172986e+001  -4.085535e+001 
4396875000  -4.108676e+001  -4.398401e+001 
4400000000  -4.079029e+001  -5.475593e+001 
4403125000  -4.179964e+001  -6.341985e+001 
4406250000  -4.201296e+001  -6.692298e+001 
4409375000  -4.266157e+001  -7.238522e+001 
4412500000  -4.379045e+001  -7.679440e+001 
4415625000  -4.337398e+001  -7.014524e+001 
4418750000  -4.182803e+001  -7.533418e+001 
