!Agilent Technologies,E8363B,MY43030201,A.06.04.32
!Agilent E8363B: A.06.04.32
!Date: Tuesday, November 11, 2014 21:42:36
!Correction: S21(Response(S21)) 
!S1P File: Measurement: S21:
# Hz S  dB   R 50
3000000000  -4.365976e+001  -1.595185e+002 
3003125000  -4.501694e+001  -1.629277e+002 
3006250000  -4.528728e+001  -1.663536e+002 
3009375000  -4.609250e+001  -1.606327e+002 
3012500000  -4.492128e+001  -1.693567e+002 
3015625000  -4.498134e+001  -1.751042e+002 
3018750000  -4.513866e+001  -1.766742e+002 
3021875000  -4.408447e+001  -1.757976e+002 
3025000000  -4.262944e+001  -1.784504e+002 
3028125000  -4.166668e+001  1.673872e+002 
3031250000  -4.090149e+001  1.541884e+002 
3034375000  -4.080538e+001  1.418451e+002 
3037500000  -4.158112e+001  1.302474e+002 
3040625000  -4.285250e+001  1.236758e+002 
3043750000  -4.320414e+001  1.170404e+002 
3046875000  -4.419091e+001  1.097952e+002 
3050000000  -4.512534e+001  1.053456e+002 
3053125000  -4.484299e+001  1.083210e+002 
3056250000  -4.453933e+001  1.112714e+002 
3059375000  -4.406534e+001  1.111450e+002 
3062500000  -4.248198e+001  1.032765e+002 
3065625000  -4.196570e+001  9.300206e+001 
3068750000  -4.177707e+001  8.357864e+001 
3071875000  -4.189487e+001  8.147223e+001 
3075000000  -4.122475e+001  7.311161e+001 
3078125000  -4.135381e+001  6.677918e+001 
3081250000  -4.140581e+001  5.897000e+001 
3084375000  -4.045841e+001  5.327309e+001 
3087500000  -4.056004e+001  4.637661e+001 
3090625000  -3.992797e+001  3.369315e+001 
3093750000  -4.086461e+001  2.448515e+001 
3096875000  -4.124735e+001  1.956344e+001 
3100000000  -4.136015e+001  1.492781e+001 
3103125000  -4.149865e+001  1.075634e+001 
3106250000  -4.110357e+001  4.197856e+000 
3109375000  -4.108282e+001  -1.124340e-002 
3112500000  -4.089787e+001  -8.112108e+000 
3115625000  -4.101020e+001  -1.277091e+001 
3118750000  -4.061753e+001  -1.746597e+001 
3121875000  -4.025811e+001  -2.874103e+001 
3125000000  -4.195813e+001  -3.282810e+001 
3128125000  -4.200297e+001  -2.863034e+001 
3131250000  -3.960304e+001  -3.555627e+001 
3134375000  -3.890013e+001  -5.393483e+001 
3137500000  -3.955653e+001  -6.846132e+001 
3140625000  -4.084026e+001  -7.084129e+001 
3143750000  -4.168561e+001  -7.532225e+001 
3146875000  -4.111058e+001  -7.363333e+001 
3150000000  -4.027303e+001  -7.938389e+001 
3153125000  -4.109234e+001  -8.886313e+001 
3156250000  -4.159387e+001  -8.522514e+001 
3159375000  -3.926048e+001  -8.894062e+001 
3162500000  -3.775213e+001  -1.060351e+002 
3165625000  -3.916556e+001  -1.201016e+002 
3168750000  -3.907338e+001  -1.218743e+002 
3171875000  -3.863615e+001  -1.307994e+002 
3175000000  -3.911108e+001  -1.406745e+002 
3178125000  -3.874471e+001  -1.420760e+002 
3181250000  -3.817107e+001  -1.520201e+002 
3184375000  -3.793093e+001  -1.641032e+002 
3187500000  -3.914915e+001  -1.788858e+002 
3190625000  -4.097962e+001  1.732335e+002 
3193750000  -4.148117e+001  1.774292e+002 
3196875000  -4.119356e+001  1.776951e+002 
3200000000  -3.990094e+001  1.722993e+002 
3203125000  -3.976511e+001  1.634527e+002 
3206250000  -3.997530e+001  1.545300e+002 
3209375000  -3.968074e+001  1.461851e+002 
3212500000  -4.006055e+001  1.370374e+002 
3215625000  -3.977433e+001  1.355932e+002 
3218750000  -4.035427e+001  1.228283e+002 
3221875000  -4.053430e+001  1.167282e+002 
3225000000  -4.041068e+001  1.108796e+002 
3228125000  -4.103958e+001  1.021514e+002 
3231250000  -4.166222e+001  1.011043e+002 
3234375000  -4.098890e+001  9.642052e+001 
3237500000  -4.110172e+001  9.215456e+001 
3240625000  -4.045961e+001  8.569645e+001 
3243750000  -4.059405e+001  7.293597e+001 
3246875000  -4.075075e+001  6.609281e+001 
3250000000  -4.115121e+001  6.225444e+001 
3253125000  -4.152541e+001  5.656903e+001 
3256250000  -4.033782e+001  4.671257e+001 
3259375000  -4.122062e+001  3.287796e+001 
3262500000  -4.241601e+001  2.783904e+001 
3265625000  -4.250501e+001  2.928888e+001 
3268750000  -4.257617e+001  2.964921e+001 
3271875000  -4.150734e+001  2.286735e+001 
3275000000  -4.119803e+001  1.220835e+001 
3278125000  -4.178736e+001  4.513736e+000 
3281250000  -4.199062e+001  7.200069e-001 
3284375000  -4.122860e+001  -5.096142e+000 
3287500000  -4.155704e+001  -1.328002e+001 
3290625000  -4.165590e+001  -2.262908e+001 
3293750000  -4.165866e+001  -3.302095e+001 
3296875000  -4.277656e+001  -3.630777e+001 
3300000000  -4.196970e+001  -3.929252e+001 
3303125000  -4.110080e+001  -4.746301e+001 
3306250000  -4.122639e+001  -5.900163e+001 
3309375000  -4.066614e+001  -6.864085e+001 
3312500000  -4.122103e+001  -8.422299e+001 
3315625000  -4.237273e+001  -9.278650e+001 
3318750000  -4.415969e+001  -9.622414e+001 
3321875000  -4.544419e+001  -9.484809e+001 
3325000000  -4.512422e+001  -9.343975e+001 
3328125000  -4.417453e+001  -9.744289e+001 
3331250000  -4.271914e+001  -9.615927e+001 
3334375000  -4.012083e+001  -1.160944e+002 
3337500000  -4.081163e+001  -1.393483e+002 
3340625000  -4.296271e+001  -1.493208e+002 
3343750000  -4.453609e+001  -1.496580e+002 
3346875000  -4.410726e+001  -1.551503e+002 
3350000000  -4.395382e+001  -1.599969e+002 
3353125000  -4.362482e+001  -1.692182e+002 
3356250000  -4.357208e+001  -1.793765e+002 
3359375000  -4.459114e+001  1.671673e+002 
3362500000  -4.501689e+001  1.596650e+002 
3365625000  -4.603720e+001  1.544520e+002 
3368750000  -4.658595e+001  1.480012e+002 
3371875000  -4.703724e+001  1.422276e+002 
3375000000  -4.840358e+001  1.372898e+002 
3378125000  -4.937614e+001  1.360125e+002 
3381250000  -5.112104e+001  1.487515e+002 
3384375000  -4.756639e+001  1.539360e+002 
3387500000  -4.476935e+001  1.301262e+002 
3390625000  -4.669702e+001  1.091360e+002 
3393750000  -4.799546e+001  1.073955e+002 
3396875000  -4.666012e+001  1.022223e+002 
3400000000  -4.634142e+001  8.801149e+001 
3403125000  -4.689569e+001  7.964748e+001 
3406250000  -4.732089e+001  7.260337e+001 
3409375000  -4.769123e+001  6.363282e+001 
3412500000  -4.788957e+001  5.650223e+001 
3415625000  -4.885740e+001  4.912481e+001 
3418750000  -4.884479e+001  4.360923e+001 
3421875000  -4.903679e+001  4.250593e+001 
3425000000  -4.774733e+001  3.826709e+001 
3428125000  -4.703363e+001  3.095071e+001 
3431250000  -4.714837e+001  1.522557e+001 
3434375000  -4.686160e+001  3.542159e+000 
3437500000  -4.732378e+001  -2.619509e+000 
3440625000  -4.847281e+001  -4.367496e+000 
3443750000  -4.630287e+001  -1.161387e+001 
3446875000  -4.569503e+001  -2.494803e+001 
3450000000  -4.517575e+001  -4.163241e+001 
3453125000  -4.573625e+001  -5.754030e+001 
3456250000  -4.751151e+001  -6.597308e+001 
3459375000  -4.796457e+001  -6.801817e+001 
3462500000  -4.791857e+001  -7.625845e+001 
3465625000  -4.742850e+001  -8.604552e+001 
3468750000  -4.725637e+001  -9.433006e+001 
3471875000  -4.693063e+001  -1.012807e+002 
3475000000  -4.695884e+001  -1.118701e+002 
3478125000  -4.783719e+001  -1.253163e+002 
3481250000  -4.902038e+001  -1.307986e+002 
3484375000  -4.889431e+001  -1.317034e+002 
3487500000  -4.756919e+001  -1.421057e+002 
3490625000  -4.733844e+001  -1.489331e+002 
3493750000  -4.769596e+001  -1.627212e+002 
3496875000  -4.788771e+001  -1.652464e+002 
3500000000  -4.807087e+001  -1.708458e+002 
3503125000  -4.670041e+001  -1.722476e+002 
3506250000  -4.616220e+001  1.732505e+002 
3509375000  -4.583533e+001  1.570887e+002 
3512500000  -4.594863e+001  1.398742e+002 
3515625000  -4.708102e+001  1.353835e+002 
3518750000  -4.755511e+001  1.302091e+002 
3521875000  -4.744605e+001  1.210428e+002 
3525000000  -4.864227e+001  1.204572e+002 
3528125000  -4.834806e+001  1.203500e+002 
3531250000  -4.679192e+001  1.069339e+002 
3534375000  -4.649952e+001  8.921028e+001 
3537500000  -4.759202e+001  8.344575e+001 
3540625000  -4.898951e+001  7.738450e+001 
3543750000  -4.882015e+001  8.223824e+001 
3546875000  -4.887493e+001  8.523487e+001 
3550000000  -4.673659e+001  8.020457e+001 
3553125000  -4.642472e+001  5.615792e+001 
3556250000  -4.748829e+001  5.270935e+001 
3559375000  -4.690408e+001  4.507368e+001 
3562500000  -4.654182e+001  3.627048e+001 
3565625000  -4.740432e+001  2.521973e+001 
3568750000  -4.793858e+001  2.412964e+001 
3571875000  -4.717727e+001  2.106643e+001 
3575000000  -4.693185e+001  1.374220e+001 
3578125000  -4.838376e+001  1.123762e+001 
3581250000  -4.705136e+001  5.392096e+000 
3584375000  -4.589271e+001  2.430099e-002 
3587500000  -4.555787e+001  -1.288263e+001 
3590625000  -4.632962e+001  -2.383649e+001 
3593750000  -4.795814e+001  -2.303705e+001 
3596875000  -4.654883e+001  -1.808620e+001 
3600000000  -4.470787e+001  -2.823659e+001 
3603125000  -4.530533e+001  -4.165224e+001 
3606250000  -4.580706e+001  -5.098554e+001 
3609375000  -4.597305e+001  -5.326997e+001 
3612500000  -4.590873e+001  -6.099968e+001 
3615625000  -4.563932e+001  -6.393162e+001 
3618750000  -4.611497e+001  -6.630468e+001 
3621875000  -4.556425e+001  -7.470056e+001 
3625000000  -4.580446e+001  -7.718224e+001 
3628125000  -4.471366e+001  -8.546848e+001 
3631250000  -4.477487e+001  -9.345004e+001 
3634375000  -4.554477e+001  -9.728458e+001 
3637500000  -4.453302e+001  -9.730341e+001 
3640625000  -4.375991e+001  -1.029099e+002 
3643750000  -4.319389e+001  -1.134019e+002 
3646875000  -4.354222e+001  -1.243475e+002 
3650000000  -4.383166e+001  -1.288643e+002 
3653125000  -4.348059e+001  -1.371218e+002 
3656250000  -4.398385e+001  -1.454058e+002 
3659375000  -4.383219e+001  -1.494860e+002 
3662500000  -4.318867e+001  -1.574704e+002 
3665625000  -4.336515e+001  -1.600293e+002 
3668750000  -4.213342e+001  -1.639821e+002 
3671875000  -4.120910e+001  -1.782893e+002 
3675000000  -4.233830e+001  1.705342e+002 
3678125000  -4.270340e+001  1.649874e+002 
3681250000  -4.259459e+001  1.605358e+002 
3684375000  -4.274411e+001  1.532113e+002 
3687500000  -4.304541e+001  1.428101e+002 
3690625000  -4.350592e+001  1.370413e+002 
3693750000  -4.434243e+001  1.352899e+002 
3696875000  -4.382642e+001  1.360235e+002 
3700000000  -4.326988e+001  1.241637e+002 
3703125000  -4.372164e+001  1.179016e+002 
3706250000  -4.493246e+001  1.168286e+002 
3709375000  -4.401902e+001  1.161159e+002 
3712500000  -4.294811e+001  1.079916e+002 
3715625000  -4.191279e+001  9.871871e+001 
3718750000  -4.206572e+001  8.935657e+001 
3721875000  -4.161730e+001  8.014458e+001 
3725000000  -4.241355e+001  7.219133e+001 
3728125000  -4.251055e+001  6.885650e+001 
3731250000  -4.196781e+001  6.416944e+001 
3734375000  -4.200040e+001  5.606996e+001 
3737500000  -4.275568e+001  4.783043e+001 
3740625000  -4.346646e+001  4.035327e+001 
3743750000  -4.304324e+001  3.348737e+001 
3746875000  -4.348266e+001  2.763861e+001 
3750000000  -4.380782e+001  2.500442e+001 
3753125000  -4.394798e+001  2.004442e+001 
3756250000  -4.381797e+001  1.790297e+001 
3759375000  -4.374261e+001  1.197677e+001 
3762500000  -4.368077e+001  7.120740e+000 
3765625000  -4.407911e+001  -1.802161e-001 
3768750000  -4.345692e+001  2.339545e+000 
3771875000  -4.203773e+001  -4.839131e+000 
3775000000  -4.203943e+001  -1.615696e+001 
3778125000  -4.272990e+001  -2.082192e+001 
3781250000  -4.263549e+001  -2.433170e+001 
3784375000  -4.249950e+001  -3.134330e+001 
3787500000  -4.263179e+001  -3.744012e+001 
3790625000  -4.321222e+001  -4.619659e+001 
3793750000  -4.275824e+001  -4.900692e+001 
3796875000  -4.185762e+001  -5.593998e+001 
3800000000  -4.091735e+001  -6.160059e+001 
3803125000  -4.214113e+001  -7.384585e+001 
3806250000  -4.236140e+001  -7.898853e+001 
3809375000  -4.185650e+001  -8.370979e+001 
3812500000  -4.177327e+001  -9.661566e+001 
3815625000  -4.312742e+001  -1.096644e+002 
3818750000  -4.441538e+001  -1.066983e+002 
3821875000  -4.387104e+001  -9.501694e+001 
3825000000  -4.170518e+001  -1.019943e+002 
3828125000  -4.063701e+001  -1.214694e+002 
3831250000  -4.134132e+001  -1.374009e+002 
3834375000  -4.382723e+001  -1.359469e+002 
3837500000  -4.394316e+001  -1.353725e+002 
3840625000  -4.295893e+001  -1.410632e+002 
3843750000  -4.184047e+001  -1.566411e+002 
3846875000  -4.354247e+001  -1.625706e+002 
3850000000  -4.430477e+001  -1.577645e+002 
3853125000  -4.390804e+001  -1.573488e+002 
3856250000  -4.325955e+001  -1.665402e+002 
3859375000  -4.219567e+001  -1.762267e+002 
3862500000  -4.204185e+001  1.753753e+002 
3865625000  -4.284770e+001  1.661017e+002 
3868750000  -4.224170e+001  1.665503e+002 
3871875000  -4.176925e+001  1.569386e+002 
3875000000  -4.255661e+001  1.466579e+002 
3878125000  -4.359660e+001  1.434887e+002 
3881250000  -4.351410e+001  1.412771e+002 
3884375000  -4.281870e+001  1.330977e+002 
3887500000  -4.359675e+001  1.259850e+002 
3890625000  -4.409762e+001  1.217647e+002 
3893750000  -4.442744e+001  1.174328e+002 
3896875000  -4.466431e+001  1.145228e+002 
3900000000  -4.409295e+001  1.088589e+002 
3903125000  -4.385315e+001  1.061205e+002 
3906250000  -4.376183e+001  1.003812e+002 
3909375000  -4.296937e+001  9.186715e+001 
3912500000  -4.408385e+001  8.302597e+001 
3915625000  -4.479933e+001  8.406768e+001 
3918750000  -4.470477e+001  8.176167e+001 
3921875000  -4.414614e+001  7.657999e+001 
3925000000  -4.292758e+001  6.770727e+001 
3928125000  -4.304998e+001  6.130898e+001 
3931250000  -4.371410e+001  5.133585e+001 
3934375000  -4.384019e+001  5.107174e+001 
3937500000  -4.450563e+001  5.114417e+001 
3940625000  -4.494078e+001  4.839077e+001 
3943750000  -4.322765e+001  4.134142e+001 
3946875000  -4.306054e+001  3.278187e+001 
3950000000  -4.406330e+001  2.357644e+001 
3953125000  -4.480202e+001  2.453311e+001 
3956250000  -4.288716e+001  2.389309e+001 
3959375000  -4.170485e+001  1.670263e+001 
3962500000  -4.162072e+001  7.089624e+000 
3965625000  -4.186636e+001  -5.832150e+000 
3968750000  -4.298789e+001  -9.874711e+000 
3971875000  -4.260570e+001  -1.513644e+001 
3975000000  -4.181553e+001  -2.301018e+001 
3978125000  -4.260168e+001  -2.812836e+001 
3981250000  -4.211832e+001  -3.663639e+001 
3984375000  -4.266099e+001  -4.366473e+001 
3987500000  -4.311203e+001  -4.799568e+001 
3990625000  -4.310575e+001  -5.015163e+001 
3993750000  -4.327584e+001  -5.685822e+001 
3996875000  -4.310652e+001  -6.465696e+001 
4000000000  -4.376565e+001  -6.810714e+001 
4003125000  -4.371157e+001  -6.800394e+001 
4006250000  -4.195599e+001  -7.392743e+001 
4009375000  -4.118819e+001  -9.112229e+001 
4012500000  -4.304828e+001  -9.736738e+001 
4015625000  -4.421728e+001  -9.961861e+001 
4018750000  -4.403332e+001  -1.027479e+002 
4021875000  -4.345348e+001  -1.109415e+002 
4025000000  -4.313392e+001  -1.176608e+002 
4028125000  -4.381380e+001  -1.258270e+002 
4031250000  -4.457025e+001  -1.313486e+002 
4034375000  -4.431195e+001  -1.329255e+002 
4037500000  -4.446752e+001  -1.382509e+002 
4040625000  -4.425995e+001  -1.443130e+002 
4043750000  -4.488783e+001  -1.464303e+002 
4046875000  -4.425315e+001  -1.533573e+002 
4050000000  -4.429428e+001  -1.590856e+002 
4053125000  -4.497030e+001  -1.664332e+002 
4056250000  -4.606519e+001  -1.613185e+002 
4059375000  -4.413896e+001  -1.618154e+002 
4062500000  -4.346181e+001  -1.748409e+002 
4065625000  -4.373331e+001  -1.762982e+002 
4068750000  -4.334218e+001  1.749584e+002 
4071875000  -4.345222e+001  1.636806e+002 
4075000000  -4.370710e+001  1.586351e+002 
4078125000  -4.447430e+001  1.549106e+002 
4081250000  -4.411252e+001  1.512596e+002 
4084375000  -4.364255e+001  1.414499e+002 
4087500000  -4.401189e+001  1.323337e+002 
4090625000  -4.495934e+001  1.317071e+002 
4093750000  -4.474501e+001  1.319388e+002 
4096875000  -4.441616e+001  1.233133e+002 
4100000000  -4.537284e+001  1.156424e+002 
4103125000  -4.651221e+001  1.191484e+002 
4106250000  -4.539681e+001  1.197196e+002 
4109375000  -4.445794e+001  1.146316e+002 
4112500000  -4.429634e+001  1.038627e+002 
4115625000  -4.486654e+001  1.014559e+002 
4118750000  -4.467711e+001  9.291036e+001 
4121875000  -4.403588e+001  8.539861e+001 
4125000000  -4.480078e+001  7.963203e+001 
4128125000  -4.575935e+001  8.321082e+001 
4131250000  -4.432370e+001  8.989658e+001 
4134375000  -4.206857e+001  7.400773e+001 
4137500000  -4.238692e+001  5.354680e+001 
4140625000  -4.425888e+001  4.454024e+001 
4143750000  -4.507811e+001  5.271372e+001 
4146875000  -4.448404e+001  5.419888e+001 
4150000000  -4.313404e+001  4.483795e+001 
4153125000  -4.358322e+001  3.373273e+001 
4156250000  -4.465472e+001  3.102216e+001 
4159375000  -4.395185e+001  3.281231e+001 
4162500000  -4.265614e+001  2.891014e+001 
4165625000  -4.203223e+001  2.057527e+001 
4168750000  -4.180273e+001  8.957311e+000 
4171875000  -4.164457e+001  -5.599449e-001 
4175000000  -4.227760e+001  -1.022086e+001 
4178125000  -4.300314e+001  -1.489550e+001 
4181250000  -4.225719e+001  -1.969563e+001 
4184375000  -4.251086e+001  -2.585695e+001 
4187500000  -4.290203e+001  -3.270764e+001 
4190625000  -4.276845e+001  -4.108184e+001 
4193750000  -4.412731e+001  -4.832368e+001 
4196875000  -4.565545e+001  -5.043261e+001 
4200000000  -4.662436e+001  -4.190807e+001 
4203125000  -4.466876e+001  -3.336461e+001 
4206250000  -4.152840e+001  -4.425536e+001 
4209375000  -4.202733e+001  -7.015265e+001 
4212500000  -4.441440e+001  -7.399584e+001 
4215625000  -4.454920e+001  -6.662444e+001 
4218750000  -4.292175e+001  -6.620295e+001 
4221875000  -4.137193e+001  -7.934503e+001 
4225000000  -4.311357e+001  -9.217593e+001 
4228125000  -4.234398e+001  -8.872917e+001 
4231250000  -4.161496e+001  -9.797874e+001 
4234375000  -4.114179e+001  -1.100781e+002 
4237500000  -4.114305e+001  -1.159582e+002 
4240625000  -4.157684e+001  -1.255572e+002 
4243750000  -4.292257e+001  -1.321071e+002 
4246875000  -4.346853e+001  -1.328787e+002 
4250000000  -4.349319e+001  -1.330265e+002 
4253125000  -4.254176e+001  -1.405280e+002 
4256250000  -4.293434e+001  -1.440095e+002 
4259375000  -4.274539e+001  -1.477813e+002 
4262500000  -4.269814e+001  -1.514547e+002 
4265625000  -4.259472e+001  -1.552305e+002 
4268750000  -4.128644e+001  -1.634161e+002 
4271875000  -4.108315e+001  -1.743713e+002 
4275000000  -4.070175e+001  1.750554e+002 
4278125000  -4.183604e+001  1.645625e+002 
4281250000  -4.275480e+001  1.600488e+002 
4284375000  -4.253025e+001  1.576970e+002 
4287500000  -4.422229e+001  1.556799e+002 
4290625000  -4.423282e+001  1.606455e+002 
4293750000  -4.202084e+001  1.604958e+002 
4296875000  -4.074958e+001  1.450675e+002 
4300000000  -4.177155e+001  1.348808e+002 
4303125000  -4.245507e+001  1.372067e+002 
4306250000  -4.141564e+001  1.341896e+002 
4309375000  -4.026949e+001  1.255183e+002 
4312500000  -4.024131e+001  1.132253e+002 
4315625000  -4.078780e+001  1.035791e+002 
4318750000  -4.147083e+001  9.877193e+001 
4321875000  -4.119053e+001  9.636462e+001 
4325000000  -4.060012e+001  9.453851e+001 
4328125000  -3.984670e+001  8.337311e+001 
4331250000  -4.018177e+001  6.886006e+001 
4334375000  -4.093327e+001  6.275355e+001 
4337500000  -4.253876e+001  5.811943e+001 
4340625000  -4.228762e+001  6.168790e+001 
4343750000  -4.136388e+001  5.696382e+001 
4346875000  -4.104882e+001  4.686451e+001 
4350000000  -4.120644e+001  3.856136e+001 
4353125000  -4.214613e+001  2.785557e+001 
4356250000  -4.453379e+001  3.119762e+001 
4359375000  -4.322493e+001  4.760213e+001 
4362500000  -3.980628e+001  3.470817e+001 
4365625000  -3.944594e+001  1.662194e+001 
4368750000  -4.096562e+001  6.389255e+000 
4371875000  -4.153931e+001  5.478224e+000 
4375000000  -4.141299e+001  -9.266581e-001 
4378125000  -4.090682e+001  -9.995131e+000 
4381250000  -4.124552e+001  -1.610360e+001 
4384375000  -4.112888e+001  -2.160161e+001 
4387500000  -4.201697e+001  -2.888062e+001 
4390625000  -4.272030e+001  -3.414379e+001 
4393750000  -4.223099e+001  -3.207769e+001 
4396875000  -4.172818e+001  -3.829708e+001 
4400000000  -4.117834e+001  -4.643793e+001 
4403125000  -4.213839e+001  -5.927958e+001 
4406250000  -4.295720e+001  -6.123964e+001 
4409375000  -4.341336e+001  -6.766125e+001 
4412500000  -4.450577e+001  -7.008662e+001 
4415625000  -4.365792e+001  -6.792323e+001 
4418750000  -4.227159e+001  -6.829971e+001 
