!Agilent Technologies,E8363B,MY43030201,A.06.04.32
!Agilent E8363B: A.06.04.32
!Date: Tuesday, November 11, 2014 21:50:43
!Correction: S21(Response(S21)) 
!S1P File: Measurement: S21:
# Hz S  dB   R 50
3000000000  -4.371460e+001  -1.615873e+002 
3003125000  -4.532386e+001  -1.674287e+002 
3006250000  -4.540842e+001  -1.694931e+002 
3009375000  -4.607903e+001  -1.645591e+002 
3012500000  -4.479200e+001  -1.724677e+002 
3015625000  -4.498272e+001  -1.790294e+002 
3018750000  -4.551263e+001  -1.798040e+002 
3021875000  -4.393257e+001  -1.788398e+002 
3025000000  -4.281040e+001  1.762547e+002 
3028125000  -4.178549e+001  1.632102e+002 
3031250000  -4.111044e+001  1.514922e+002 
3034375000  -4.068309e+001  1.365043e+002 
3037500000  -4.171910e+001  1.259805e+002 
3040625000  -4.271311e+001  1.198354e+002 
3043750000  -4.334040e+001  1.122613e+002 
3046875000  -4.408968e+001  1.054081e+002 
3050000000  -4.520924e+001  1.010408e+002 
3053125000  -4.485168e+001  1.037490e+002 
3056250000  -4.499671e+001  1.077424e+002 
3059375000  -4.383477e+001  1.052396e+002 
3062500000  -4.252850e+001  1.000845e+002 
3065625000  -4.196937e+001  8.769357e+001 
3068750000  -4.191047e+001  7.987798e+001 
3071875000  -4.172729e+001  7.810296e+001 
3075000000  -4.118488e+001  6.936981e+001 
3078125000  -4.121178e+001  6.389314e+001 
3081250000  -4.121576e+001  5.621040e+001 
3084375000  -4.048001e+001  4.931158e+001 
3087500000  -4.064666e+001  4.267056e+001 
3090625000  -3.999456e+001  2.953190e+001 
3093750000  -4.096735e+001  1.998535e+001 
3096875000  -4.124421e+001  1.457046e+001 
3100000000  -4.105873e+001  1.051406e+001 
3103125000  -4.144439e+001  5.800622e+000 
3106250000  -4.088255e+001  -5.650197e-001 
3109375000  -4.104804e+001  -4.265434e+000 
3112500000  -4.079880e+001  -1.184729e+001 
3115625000  -4.076218e+001  -1.723867e+001 
3118750000  -4.080720e+001  -2.292043e+001 
3121875000  -4.026915e+001  -3.369740e+001 
3125000000  -4.203307e+001  -3.685800e+001 
3128125000  -4.197047e+001  -3.151022e+001 
3131250000  -3.939279e+001  -3.876651e+001 
3134375000  -3.888340e+001  -5.808710e+001 
3137500000  -3.952654e+001  -7.125484e+001 
3140625000  -4.099641e+001  -7.588484e+001 
3143750000  -4.156104e+001  -7.912448e+001 
3146875000  -4.107475e+001  -7.695570e+001 
3150000000  -4.028021e+001  -8.449055e+001 
3153125000  -4.086139e+001  -9.296776e+001 
3156250000  -4.145033e+001  -8.896094e+001 
3159375000  -3.909853e+001  -9.236280e+001 
3162500000  -3.770591e+001  -1.091357e+002 
3165625000  -3.896267e+001  -1.240680e+002 
3168750000  -3.901631e+001  -1.245532e+002 
3171875000  -3.857361e+001  -1.337412e+002 
3175000000  -3.920958e+001  -1.435135e+002 
3178125000  -3.864478e+001  -1.456720e+002 
3181250000  -3.799290e+001  -1.551449e+002 
3184375000  -3.779905e+001  -1.688779e+002 
3187500000  -3.923422e+001  1.764561e+002 
3190625000  -4.088206e+001  1.713526e+002 
3193750000  -4.108483e+001  1.735539e+002 
3196875000  -4.105246e+001  1.736362e+002 
3200000000  -3.981583e+001  1.685029e+002 
3203125000  -3.953870e+001  1.584090e+002 
3206250000  -3.968502e+001  1.502953e+002 
3209375000  -3.955175e+001  1.435659e+002 
3212500000  -3.993527e+001  1.353854e+002 
3215625000  -3.969199e+001  1.305548e+002 
3218750000  -4.024122e+001  1.207651e+002 
3221875000  -4.041504e+001  1.133907e+002 
3225000000  -4.037079e+001  1.077839e+002 
3228125000  -4.124681e+001  9.986862e+001 
3231250000  -4.116572e+001  9.700895e+001 
3234375000  -4.104565e+001  9.180204e+001 
3237500000  -4.091298e+001  8.862879e+001 
3240625000  -4.031644e+001  8.217220e+001 
3243750000  -4.047327e+001  7.089397e+001 
3246875000  -4.054965e+001  6.281464e+001 
3250000000  -4.119078e+001  5.796797e+001 
3253125000  -4.108790e+001  5.336037e+001 
3256250000  -4.028659e+001  4.349430e+001 
3259375000  -4.102589e+001  2.986130e+001 
3262500000  -4.225785e+001  2.478434e+001 
3265625000  -4.260280e+001  2.691812e+001 
3268750000  -4.224613e+001  2.550187e+001 
3271875000  -4.143738e+001  1.876424e+001 
3275000000  -4.104476e+001  9.334636e+000 
3278125000  -4.171881e+001  1.967211e+000 
3281250000  -4.179837e+001  -1.664824e+000 
3284375000  -4.116158e+001  -1.000713e+001 
3287500000  -4.159426e+001  -1.716528e+001 
3290625000  -4.162286e+001  -2.571277e+001 
3293750000  -4.160936e+001  -3.337257e+001 
3296875000  -4.275754e+001  -3.967429e+001 
3300000000  -4.193475e+001  -4.159849e+001 
3303125000  -4.089385e+001  -5.171590e+001 
3306250000  -4.060492e+001  -6.008966e+001 
3309375000  -4.075937e+001  -7.169016e+001 
3312500000  -4.111796e+001  -8.755328e+001 
3315625000  -4.220970e+001  -9.539218e+001 
3318750000  -4.395831e+001  -1.028751e+002 
3321875000  -4.525662e+001  -1.005159e+002 
3325000000  -4.470457e+001  -9.495802e+001 
3328125000  -4.361883e+001  -9.865588e+001 
3331250000  -4.260391e+001  -9.863251e+001 
3334375000  -3.999817e+001  -1.195661e+002 
3337500000  -4.083783e+001  -1.417151e+002 
3340625000  -4.269882e+001  -1.506822e+002 
3343750000  -4.444877e+001  -1.530504e+002 
3346875000  -4.397549e+001  -1.578560e+002 
3350000000  -4.363961e+001  -1.627041e+002 
3353125000  -4.341814e+001  -1.714874e+002 
3356250000  -4.349462e+001  1.790450e+002 
3359375000  -4.420822e+001  1.647573e+002 
3362500000  -4.504061e+001  1.551991e+002 
3365625000  -4.575949e+001  1.509918e+002 
3368750000  -4.631572e+001  1.451033e+002 
3371875000  -4.688834e+001  1.408243e+002 
3375000000  -4.844832e+001  1.330582e+002 
3378125000  -4.920485e+001  1.320468e+002 
3381250000  -5.030907e+001  1.426273e+002 
3384375000  -4.702792e+001  1.502511e+002 
3387500000  -4.476596e+001  1.285057e+002 
3390625000  -4.665302e+001  1.073838e+002 
3393750000  -4.808773e+001  1.073170e+002 
3396875000  -4.640122e+001  9.884355e+001 
3400000000  -4.594598e+001  8.525018e+001 
3403125000  -4.658784e+001  8.006123e+001 
3406250000  -4.758865e+001  7.309203e+001 
3409375000  -4.689388e+001  6.040128e+001 
3412500000  -4.777448e+001  5.336851e+001 
3415625000  -4.879048e+001  4.578690e+001 
3418750000  -4.893187e+001  4.148452e+001 
3421875000  -4.884282e+001  4.172625e+001 
3425000000  -4.764563e+001  3.383309e+001 
3428125000  -4.759171e+001  2.704100e+001 
3431250000  -4.673402e+001  1.391684e+001 
3434375000  -4.694801e+001  4.956090e-001 
3437500000  -4.783434e+001  -8.010351e+000 
3440625000  -4.781063e+001  -1.091077e+001 
3443750000  -4.665500e+001  -1.595010e+001 
3446875000  -4.613330e+001  -3.031547e+001 
3450000000  -4.536616e+001  -4.369172e+001 
3453125000  -4.579742e+001  -6.125739e+001 
3456250000  -4.712693e+001  -7.056558e+001 
3459375000  -4.793833e+001  -7.313713e+001 
3462500000  -4.768649e+001  -7.765521e+001 
3465625000  -4.725055e+001  -9.067735e+001 
3468750000  -4.751943e+001  -9.630486e+001 
3471875000  -4.699364e+001  -1.070316e+002 
3475000000  -4.688112e+001  -1.173484e+002 
3478125000  -4.792025e+001  -1.314277e+002 
3481250000  -4.883465e+001  -1.342733e+002 
3484375000  -4.904568e+001  -1.335680e+002 
3487500000  -4.786411e+001  -1.444191e+002 
3490625000  -4.718620e+001  -1.539666e+002 
3493750000  -4.829133e+001  -1.692968e+002 
3496875000  -4.854860e+001  -1.723204e+002 
3500000000  -4.824995e+001  -1.722642e+002 
3503125000  -4.726674e+001  -1.769008e+002 
3506250000  -4.563583e+001  1.693449e+002 
3509375000  -4.554959e+001  1.517399e+002 
3512500000  -4.632969e+001  1.349944e+002 
3515625000  -4.762015e+001  1.310852e+002 
3518750000  -4.809598e+001  1.277860e+002 
3521875000  -4.777819e+001  1.152265e+002 
3525000000  -4.911341e+001  1.136633e+002 
3528125000  -4.792728e+001  1.160805e+002 
3531250000  -4.666554e+001  1.026402e+002 
3534375000  -4.679903e+001  8.686119e+001 
3537500000  -4.774944e+001  7.775440e+001 
3540625000  -4.888678e+001  7.349342e+001 
3543750000  -4.908987e+001  7.228248e+001 
3546875000  -4.906916e+001  8.215582e+001 
3550000000  -4.635161e+001  7.142192e+001 
3553125000  -4.617241e+001  5.331966e+001 
3556250000  -4.704366e+001  4.678891e+001 
3559375000  -4.654958e+001  4.291147e+001 
3562500000  -4.658442e+001  2.996124e+001 
3565625000  -4.717505e+001  2.147964e+001 
3568750000  -4.873402e+001  2.380678e+001 
3571875000  -4.756150e+001  1.862705e+001 
3575000000  -4.711119e+001  8.963161e+000 
3578125000  -4.780347e+001  3.017513e+000 
3581250000  -4.780156e+001  4.609892e+000 
3584375000  -4.577380e+001  -5.345438e+000 
3587500000  -4.562201e+001  -1.524365e+001 
3590625000  -4.629947e+001  -2.592379e+001 
3593750000  -4.842963e+001  -2.843333e+001 
3596875000  -4.726925e+001  -2.406707e+001 
3600000000  -4.450775e+001  -3.486557e+001 
3603125000  -4.548965e+001  -5.078307e+001 
3606250000  -4.578527e+001  -5.448272e+001 
3609375000  -4.567760e+001  -5.785630e+001 
3612500000  -4.567643e+001  -6.549854e+001 
3615625000  -4.599765e+001  -7.074679e+001 
3618750000  -4.624253e+001  -7.480597e+001 
3621875000  -4.536106e+001  -7.954399e+001 
3625000000  -4.563931e+001  -8.489836e+001 
3628125000  -4.447874e+001  -8.788638e+001 
3631250000  -4.541632e+001  -9.851100e+001 
3634375000  -4.574581e+001  -1.002145e+002 
3637500000  -4.439619e+001  -1.005162e+002 
3640625000  -4.368453e+001  -1.075979e+002 
3643750000  -4.311606e+001  -1.201462e+002 
3646875000  -4.382745e+001  -1.287085e+002 
3650000000  -4.406759e+001  -1.365691e+002 
3653125000  -4.337778e+001  -1.455038e+002 
3656250000  -4.425983e+001  -1.497138e+002 
3659375000  -4.405178e+001  -1.534143e+002 
3662500000  -4.313681e+001  -1.609532e+002 
3665625000  -4.346907e+001  -1.638296e+002 
3668750000  -4.216690e+001  -1.699375e+002 
3671875000  -4.119658e+001  1.754991e+002 
3675000000  -4.191166e+001  1.645799e+002 
3678125000  -4.254226e+001  1.622113e+002 
3681250000  -4.240720e+001  1.562101e+002 
3684375000  -4.272803e+001  1.474942e+002 
3687500000  -4.296930e+001  1.377842e+002 
3690625000  -4.320355e+001  1.313438e+002 
3693750000  -4.449369e+001  1.296277e+002 
3696875000  -4.375488e+001  1.286140e+002 
3700000000  -4.281556e+001  1.196609e+002 
3703125000  -4.371868e+001  1.140159e+002 
3706250000  -4.424078e+001  1.111227e+002 
3709375000  -4.362323e+001  1.082391e+002 
3712500000  -4.272446e+001  1.036192e+002 
3715625000  -4.169408e+001  9.478581e+001 
3718750000  -4.166732e+001  8.528716e+001 
3721875000  -4.171170e+001  7.413584e+001 
3725000000  -4.219822e+001  6.879230e+001 
3728125000  -4.263995e+001  6.500089e+001 
3731250000  -4.166365e+001  5.717900e+001 
3734375000  -4.187131e+001  5.094717e+001 
3737500000  -4.237077e+001  4.137739e+001 
3740625000  -4.285799e+001  3.589134e+001 
3743750000  -4.252470e+001  2.887020e+001 
3746875000  -4.355158e+001  2.361338e+001 
3750000000  -4.361168e+001  1.803184e+001 
3753125000  -4.381587e+001  1.463572e+001 
3756250000  -4.391872e+001  1.276071e+001 
3759375000  -4.368112e+001  6.261666e+000 
3762500000  -4.368404e+001  2.849679e+000 
3765625000  -4.410754e+001  -2.398891e+000 
3768750000  -4.357423e+001  -2.362263e+000 
3771875000  -4.198587e+001  -1.045711e+001 
3775000000  -4.232695e+001  -2.041644e+001 
3778125000  -4.264790e+001  -2.571146e+001 
3781250000  -4.254037e+001  -3.257331e+001 
3784375000  -4.249324e+001  -4.019434e+001 
3787500000  -4.236037e+001  -4.500308e+001 
3790625000  -4.299847e+001  -5.239613e+001 
3793750000  -4.268837e+001  -5.573135e+001 
3796875000  -4.155401e+001  -5.991262e+001 
3800000000  -4.077711e+001  -6.862182e+001 
3803125000  -4.187962e+001  -8.104560e+001 
3806250000  -4.306419e+001  -8.456415e+001 
3809375000  -4.162292e+001  -9.124638e+001 
3812500000  -4.172123e+001  -1.014866e+002 
3815625000  -4.309695e+001  -1.105969e+002 
3818750000  -4.432157e+001  -1.094080e+002 
3821875000  -4.353883e+001  -9.877048e+001 
3825000000  -4.140835e+001  -1.055786e+002 
3828125000  -4.025339e+001  -1.280177e+002 
3831250000  -4.138604e+001  -1.425518e+002 
3834375000  -4.371301e+001  -1.428213e+002 
3837500000  -4.410680e+001  -1.386494e+002 
3840625000  -4.259148e+001  -1.476370e+002 
3843750000  -4.187948e+001  -1.601438e+002 
3846875000  -4.333266e+001  -1.662834e+002 
3850000000  -4.442593e+001  -1.613354e+002 
3853125000  -4.366038e+001  -1.646902e+002 
3856250000  -4.252899e+001  -1.723420e+002 
3859375000  -4.221009e+001  1.788678e+002 
3862500000  -4.264581e+001  1.668985e+002 
3865625000  -4.265630e+001  1.601796e+002 
3868750000  -4.223797e+001  1.599569e+002 
3871875000  -4.152162e+001  1.495664e+002 
3875000000  -4.253994e+001  1.397960e+002 
3878125000  -4.289783e+001  1.374485e+002 
3881250000  -4.322828e+001  1.370491e+002 
3884375000  -4.252452e+001  1.251673e+002 
3887500000  -4.304415e+001  1.205937e+002 
3890625000  -4.342459e+001  1.133454e+002 
3893750000  -4.392737e+001  1.140412e+002 
3896875000  -4.439657e+001  1.088402e+002 
3900000000  -4.443865e+001  1.036858e+002 
3903125000  -4.432530e+001  9.854896e+001 
3906250000  -4.305330e+001  9.561353e+001 
3909375000  -4.264743e+001  8.759515e+001 
3912500000  -4.362738e+001  7.646954e+001 
3915625000  -4.510344e+001  7.935839e+001 
3918750000  -4.462914e+001  7.533858e+001 
3921875000  -4.364997e+001  7.295027e+001 
3925000000  -4.285646e+001  6.453034e+001 
3928125000  -4.272974e+001  5.453194e+001 
3931250000  -4.390063e+001  4.672690e+001 
3934375000  -4.420319e+001  4.432697e+001 
3937500000  -4.442226e+001  4.277670e+001 
3940625000  -4.490119e+001  4.175564e+001 
3943750000  -4.284071e+001  3.480303e+001 
3946875000  -4.282898e+001  2.794844e+001 
3950000000  -4.384317e+001  1.879344e+001 
3953125000  -4.443865e+001  1.770165e+001 
3956250000  -4.275011e+001  1.828786e+001 
3959375000  -4.170073e+001  1.356820e+001 
3962500000  -4.161826e+001  1.029533e-001 
3965625000  -4.183739e+001  -9.274397e+000 
3968750000  -4.225378e+001  -1.873221e+001 
3971875000  -4.247300e+001  -2.107669e+001 
3975000000  -4.197860e+001  -2.954218e+001 
3978125000  -4.246324e+001  -3.331657e+001 
3981250000  -4.167577e+001  -4.161512e+001 
3984375000  -4.192948e+001  -4.936604e+001 
3987500000  -4.316990e+001  -5.280478e+001 
3990625000  -4.281273e+001  -5.875700e+001 
3993750000  -4.293036e+001  -6.363551e+001 
3996875000  -4.247249e+001  -6.784157e+001 
4000000000  -4.384727e+001  -7.437275e+001 
4003125000  -4.389074e+001  -7.385078e+001 
4006250000  -4.206946e+001  -7.856666e+001 
4009375000  -4.132159e+001  -9.565237e+001 
4012500000  -4.287393e+001  -1.044240e+002 
4015625000  -4.404105e+001  -1.079672e+002 
4018750000  -4.352520e+001  -1.096289e+002 
4021875000  -4.291046e+001  -1.170862e+002 
4025000000  -4.315396e+001  -1.221683e+002 
4028125000  -4.351703e+001  -1.312455e+002 
4031250000  -4.416361e+001  -1.371425e+002 
4034375000  -4.407968e+001  -1.409498e+002 
4037500000  -4.398219e+001  -1.432262e+002 
4040625000  -4.418943e+001  -1.492906e+002 
4043750000  -4.491507e+001  -1.531483e+002 
4046875000  -4.417908e+001  -1.562542e+002 
4050000000  -4.413374e+001  -1.654086e+002 
4053125000  -4.506027e+001  -1.675313e+002 
4056250000  -4.559346e+001  -1.636206e+002 
4059375000  -4.375307e+001  -1.667596e+002 
4062500000  -4.332225e+001  -1.735115e+002 
4065625000  -4.332759e+001  1.786167e+002 
4068750000  -4.270597e+001  1.715583e+002 
4071875000  -4.240952e+001  1.624053e+002 
4075000000  -4.381224e+001  1.534621e+002 
4078125000  -4.414311e+001  1.497602e+002 
4081250000  -4.361410e+001  1.430982e+002 
4084375000  -4.336020e+001  1.355479e+002 
4087500000  -4.379794e+001  1.266348e+002 
4090625000  -4.425431e+001  1.261347e+002 
4093750000  -4.437762e+001  1.229475e+002 
4096875000  -4.457397e+001  1.134967e+002 
4100000000  -4.547687e+001  1.096418e+002 
4103125000  -4.610929e+001  1.109284e+002 
4106250000  -4.507602e+001  1.144066e+002 
4109375000  -4.415273e+001  1.080476e+002 
4112500000  -4.380036e+001  9.598205e+001 
4115625000  -4.440449e+001  9.383159e+001 
4118750000  -4.361544e+001  8.790163e+001 
4121875000  -4.369153e+001  8.169836e+001 
4125000000  -4.472007e+001  7.171339e+001 
4128125000  -4.528954e+001  7.733367e+001 
4131250000  -4.345608e+001  7.928884e+001 
4134375000  -4.159009e+001  6.963366e+001 
4137500000  -4.206932e+001  4.522030e+001 
4140625000  -4.390845e+001  3.961651e+001 
4143750000  -4.469862e+001  4.367891e+001 
4146875000  -4.410585e+001  4.697303e+001 
4150000000  -4.270119e+001  3.976376e+001 
4153125000  -4.309606e+001  2.702621e+001 
4156250000  -4.407999e+001  2.721281e+001 
4159375000  -4.354930e+001  2.779999e+001 
4162500000  -4.242973e+001  2.309830e+001 
4165625000  -4.142644e+001  1.488122e+001 
4168750000  -4.120145e+001  3.206725e+000 
4171875000  -4.109481e+001  -9.489953e+000 
4175000000  -4.189956e+001  -1.536541e+001 
4178125000  -4.211956e+001  -1.900660e+001 
4181250000  -4.197044e+001  -2.578727e+001 
4184375000  -4.263914e+001  -3.159442e+001 
4187500000  -4.220227e+001  -3.859996e+001 
4190625000  -4.283794e+001  -4.828725e+001 
4193750000  -4.408287e+001  -5.284953e+001 
4196875000  -4.497987e+001  -5.652172e+001 
4200000000  -4.595567e+001  -4.818205e+001 
4203125000  -4.464650e+001  -3.866566e+001 
4206250000  -4.117989e+001  -4.993604e+001 
4209375000  -4.116743e+001  -7.548272e+001 
4212500000  -4.345963e+001  -8.016318e+001 
4215625000  -4.400080e+001  -7.317281e+001 
4218750000  -4.264922e+001  -7.524344e+001 
4221875000  -4.092219e+001  -8.591341e+001 
4225000000  -4.220419e+001  -9.297337e+001 
4228125000  -4.199268e+001  -9.482584e+001 
4231250000  -4.082527e+001  -1.051778e+002 
4234375000  -4.048532e+001  -1.165934e+002 
4237500000  -4.064232e+001  -1.241159e+002 
4240625000  -4.081462e+001  -1.330864e+002 
4243750000  -4.198211e+001  -1.426437e+002 
4246875000  -4.324797e+001  -1.410001e+002 
4250000000  -4.265228e+001  -1.435145e+002 
4253125000  -4.249086e+001  -1.446939e+002 
4256250000  -4.207511e+001  -1.496687e+002 
4259375000  -4.203886e+001  -1.564130e+002 
4262500000  -4.207126e+001  -1.602921e+002 
4265625000  -4.170454e+001  -1.658422e+002 
4268750000  -4.080371e+001  -1.724192e+002 
4271875000  -4.041704e+001  1.767228e+002 
4275000000  -4.006776e+001  1.685295e+002 
4278125000  -4.109598e+001  1.560138e+002 
4281250000  -4.236078e+001  1.545190e+002 
4284375000  -4.175092e+001  1.480850e+002 
4287500000  -4.343866e+001  1.462955e+002 
4290625000  -4.342350e+001  1.559543e+002 
4293750000  -4.163438e+001  1.510790e+002 
4296875000  -4.047243e+001  1.392637e+002 
4300000000  -4.130454e+001  1.253411e+002 
4303125000  -4.186070e+001  1.284090e+002 
4306250000  -4.034797e+001  1.290740e+002 
4309375000  -3.965883e+001  1.183180e+002 
4312500000  -3.964840e+001  1.058040e+002 
4315625000  -4.035031e+001  9.666174e+001 
4318750000  -4.086267e+001  9.147197e+001 
4321875000  -4.071877e+001  8.805292e+001 
4325000000  -4.000177e+001  8.539868e+001 
4328125000  -3.946473e+001  7.446328e+001 
4331250000  -3.960788e+001  6.142096e+001 
4334375000  -4.047870e+001  5.474985e+001 
4337500000  -4.179726e+001  5.171430e+001 
4340625000  -4.200703e+001  5.470893e+001 
4343750000  -4.083322e+001  4.851171e+001 
4346875000  -4.060497e+001  3.897047e+001 
4350000000  -4.073409e+001  2.799014e+001 
4353125000  -4.169509e+001  2.230008e+001 
4356250000  -4.399594e+001  2.489256e+001 
4359375000  -4.268937e+001  3.900841e+001 
4362500000  -3.956511e+001  2.847089e+001 
4365625000  -3.900546e+001  1.027739e+001 
4368750000  -4.015887e+001  -1.526129e+000 
4371875000  -4.121211e+001  -3.342827e+000 
4375000000  -4.026353e+001  -6.390203e+000 
4378125000  -4.024973e+001  -1.630962e+001 
4381250000  -4.056487e+001  -2.497286e+001 
4384375000  -4.059391e+001  -3.197830e+001 
4387500000  -4.155363e+001  -3.853539e+001 
4390625000  -4.197528e+001  -4.045042e+001 
4393750000  -4.160229e+001  -4.130827e+001 
4396875000  -4.093658e+001  -4.750850e+001 
4400000000  -4.047069e+001  -5.606275e+001 
4403125000  -4.136279e+001  -6.768769e+001 
4406250000  -4.222813e+001  -7.235816e+001 
4409375000  -4.237165e+001  -7.663110e+001 
4412500000  -4.338806e+001  -7.847134e+001 
4415625000  -4.306265e+001  -7.778826e+001 
4418750000  -4.128345e+001  -7.764317e+001 
