!Agilent Technologies,E8363B,MY43030201,A.06.04.32
!Agilent E8363B: A.06.04.32
!Date: Tuesday, November 11, 2014 21:48:18
!Correction: S21(Response(S21)) 
!S1P File: Measurement: S21:
# Hz S  dB   R 50
3000000000  -4.368501e+001  -1.616158e+002 
3003125000  -4.543145e+001  -1.667665e+002 
3006250000  -4.532847e+001  -1.686373e+002 
3009375000  -4.621624e+001  -1.643410e+002 
3012500000  -4.506842e+001  -1.716783e+002 
3015625000  -4.489861e+001  -1.788817e+002 
3018750000  -4.502792e+001  1.796039e+002 
3021875000  -4.376977e+001  -1.790003e+002 
3025000000  -4.255566e+001  1.774438e+002 
3028125000  -4.158997e+001  1.652989e+002 
3031250000  -4.073624e+001  1.515759e+002 
3034375000  -4.079099e+001  1.380083e+002 
3037500000  -4.184789e+001  1.270223e+002 
3040625000  -4.299598e+001  1.217937e+002 
3043750000  -4.345624e+001  1.138258e+002 
3046875000  -4.417556e+001  1.070873e+002 
3050000000  -4.515839e+001  1.007335e+002 
3053125000  -4.500673e+001  1.047712e+002 
3056250000  -4.469019e+001  1.064613e+002 
3059375000  -4.402432e+001  1.063071e+002 
3062500000  -4.241291e+001  1.009389e+002 
3065625000  -4.221246e+001  8.971748e+001 
3068750000  -4.184224e+001  8.093391e+001 
3071875000  -4.193616e+001  7.759428e+001 
3075000000  -4.136613e+001  7.090807e+001 
3078125000  -4.134308e+001  6.467070e+001 
3081250000  -4.127976e+001  5.610408e+001 
3084375000  -4.047747e+001  5.172574e+001 
3087500000  -4.062526e+001  4.309546e+001 
3090625000  -4.003438e+001  3.077386e+001 
3093750000  -4.118597e+001  2.166414e+001 
3096875000  -4.122349e+001  1.635251e+001 
3100000000  -4.109416e+001  1.329870e+001 
3103125000  -4.121625e+001  7.202337e+000 
3106250000  -4.107767e+001  1.141473e+000 
3109375000  -4.090410e+001  -3.763502e+000 
3112500000  -4.080807e+001  -1.072470e+001 
3115625000  -4.083811e+001  -1.621499e+001 
3118750000  -4.072690e+001  -2.108188e+001 
3121875000  -4.015479e+001  -3.257687e+001 
3125000000  -4.215872e+001  -3.566732e+001 
3128125000  -4.201350e+001  -3.123681e+001 
3131250000  -3.944523e+001  -3.924914e+001 
3134375000  -3.889403e+001  -5.600783e+001 
3137500000  -3.952215e+001  -7.051686e+001 
3140625000  -4.093845e+001  -7.437859e+001 
3143750000  -4.128222e+001  -7.726614e+001 
3146875000  -4.113469e+001  -7.746990e+001 
3150000000  -4.042922e+001  -8.325700e+001 
3153125000  -4.085867e+001  -9.163078e+001 
3156250000  -4.152100e+001  -8.854173e+001 
3159375000  -3.914233e+001  -9.250766e+001 
3162500000  -3.766407e+001  -1.086368e+002 
3165625000  -3.891616e+001  -1.223783e+002 
3168750000  -3.900662e+001  -1.241721e+002 
3171875000  -3.859891e+001  -1.327392e+002 
3175000000  -3.923706e+001  -1.430332e+002 
3178125000  -3.861322e+001  -1.460897e+002 
3181250000  -3.788594e+001  -1.554937e+002 
3184375000  -3.781533e+001  -1.672974e+002 
3187500000  -3.929865e+001  1.776522e+002 
3190625000  -4.082813e+001  1.690974e+002 
3193750000  -4.127411e+001  1.742493e+002 
3196875000  -4.115812e+001  1.762817e+002 
3200000000  -3.988221e+001  1.692402e+002 
3203125000  -3.968189e+001  1.604075e+002 
3206250000  -3.986842e+001  1.518034e+002 
3209375000  -3.944267e+001  1.435382e+002 
3212500000  -3.991432e+001  1.354286e+002 
3215625000  -3.957273e+001  1.327514e+002 
3218750000  -4.026684e+001  1.201760e+002 
3221875000  -4.030801e+001  1.137596e+002 
3225000000  -4.044278e+001  1.085745e+002 
3228125000  -4.103199e+001  9.964198e+001 
3231250000  -4.138624e+001  9.794888e+001 
3234375000  -4.104617e+001  9.395362e+001 
3237500000  -4.089958e+001  9.035173e+001 
3240625000  -4.034227e+001  8.303360e+001 
3243750000  -4.039308e+001  7.179537e+001 
3246875000  -4.065612e+001  6.326082e+001 
3250000000  -4.095874e+001  5.922885e+001 
3253125000  -4.116246e+001  5.319927e+001 
3256250000  -4.035617e+001  4.402622e+001 
3259375000  -4.074600e+001  3.126241e+001 
3262500000  -4.239172e+001  2.533030e+001 
3265625000  -4.251350e+001  2.858159e+001 
3268750000  -4.257946e+001  2.550746e+001 
3271875000  -4.165218e+001  2.020103e+001 
3275000000  -4.105325e+001  1.071766e+001 
3278125000  -4.187101e+001  3.723204e+000 
3281250000  -4.170979e+001  1.508995e-001 
3284375000  -4.113885e+001  -8.474582e+000 
3287500000  -4.146309e+001  -1.585130e+001 
3290625000  -4.154742e+001  -2.514075e+001 
3293750000  -4.144918e+001  -3.452441e+001 
3296875000  -4.267193e+001  -3.785706e+001 
3300000000  -4.217125e+001  -3.945599e+001 
3303125000  -4.087190e+001  -5.059273e+001 
3306250000  -4.094923e+001  -6.023567e+001 
3309375000  -4.072844e+001  -7.138540e+001 
3312500000  -4.115675e+001  -8.602052e+001 
3315625000  -4.235637e+001  -9.245811e+001 
3318750000  -4.392670e+001  -9.902754e+001 
3321875000  -4.505811e+001  -1.004147e+002 
3325000000  -4.476731e+001  -9.476559e+001 
3328125000  -4.368581e+001  -9.737826e+001 
3331250000  -4.269531e+001  -9.804517e+001 
3334375000  -4.017276e+001  -1.170586e+002 
3337500000  -4.075146e+001  -1.409559e+002 
3340625000  -4.283901e+001  -1.500364e+002 
3343750000  -4.439647e+001  -1.524898e+002 
3346875000  -4.396964e+001  -1.548645e+002 
3350000000  -4.362619e+001  -1.616473e+002 
3353125000  -4.373606e+001  -1.730253e+002 
3356250000  -4.325946e+001  1.790969e+002 
3359375000  -4.439757e+001  1.642094e+002 
3362500000  -4.506554e+001  1.554931e+002 
3365625000  -4.586227e+001  1.505360e+002 
3368750000  -4.616383e+001  1.473533e+002 
3371875000  -4.653116e+001  1.394423e+002 
3375000000  -4.815664e+001  1.351596e+002 
3378125000  -4.908071e+001  1.334908e+002 
3381250000  -5.055207e+001  1.454500e+002 
3384375000  -4.794321e+001  1.514665e+002 
3387500000  -4.489848e+001  1.284487e+002 
3390625000  -4.654479e+001  1.089498e+002 
3393750000  -4.781052e+001  1.061323e+002 
3396875000  -4.604634e+001  9.806027e+001 
3400000000  -4.619367e+001  8.810184e+001 
3403125000  -4.684905e+001  7.871796e+001 
3406250000  -4.773140e+001  6.964072e+001 
3409375000  -4.757103e+001  6.081487e+001 
3412500000  -4.763288e+001  5.375658e+001 
3415625000  -4.882412e+001  4.899553e+001 
3418750000  -4.893399e+001  4.349478e+001 
3421875000  -4.904020e+001  3.990998e+001 
3425000000  -4.749156e+001  3.671024e+001 
3428125000  -4.692509e+001  2.639228e+001 
3431250000  -4.705901e+001  1.465822e+001 
3434375000  -4.703547e+001  3.512006e+000 
3437500000  -4.746620e+001  -5.499815e+000 
3440625000  -4.794316e+001  -6.916195e+000 
3443750000  -4.693380e+001  -1.367325e+001 
3446875000  -4.614383e+001  -3.023422e+001 
3450000000  -4.528331e+001  -4.290970e+001 
3453125000  -4.560738e+001  -6.148095e+001 
3456250000  -4.743134e+001  -7.094131e+001 
3459375000  -4.813249e+001  -7.296028e+001 
3462500000  -4.736718e+001  -7.607872e+001 
3465625000  -4.762888e+001  -8.921679e+001 
3468750000  -4.733027e+001  -9.516166e+001 
3471875000  -4.735365e+001  -1.027043e+002 
3475000000  -4.703587e+001  -1.160122e+002 
3478125000  -4.778468e+001  -1.295825e+002 
3481250000  -4.950946e+001  -1.347433e+002 
3484375000  -4.885359e+001  -1.347691e+002 
3487500000  -4.732354e+001  -1.442056e+002 
3490625000  -4.749315e+001  -1.515126e+002 
3493750000  -4.747561e+001  -1.678938e+002 
3496875000  -4.805913e+001  -1.696582e+002 
3500000000  -4.835695e+001  -1.689077e+002 
3503125000  -4.676596e+001  -1.745998e+002 
3506250000  -4.577086e+001  1.706478e+002 
3509375000  -4.561948e+001  1.526267e+002 
3512500000  -4.624979e+001  1.369024e+002 
3515625000  -4.738926e+001  1.292092e+002 
3518750000  -4.841412e+001  1.323922e+002 
3521875000  -4.835380e+001  1.147702e+002 
3525000000  -4.932634e+001  1.135500e+002 
3528125000  -4.780563e+001  1.174833e+002 
3531250000  -4.663803e+001  1.085416e+002 
3534375000  -4.657597e+001  8.892110e+001 
3537500000  -4.774572e+001  7.854539e+001 
3540625000  -4.898600e+001  7.402698e+001 
3543750000  -4.961686e+001  8.089109e+001 
3546875000  -4.809447e+001  8.366923e+001 
3550000000  -4.643537e+001  7.319044e+001 
3553125000  -4.616867e+001  5.485489e+001 
3556250000  -4.761696e+001  4.602825e+001 
3559375000  -4.680072e+001  4.327689e+001 
3562500000  -4.641770e+001  3.243240e+001 
3565625000  -4.733558e+001  2.548859e+001 
3568750000  -4.824968e+001  2.217176e+001 
3571875000  -4.723655e+001  1.944608e+001 
3575000000  -4.662621e+001  1.186901e+001 
3578125000  -4.834511e+001  6.827156e+000 
3581250000  -4.780412e+001  2.771864e+000 
3584375000  -4.650217e+001  -8.294564e+000 
3587500000  -4.581058e+001  -1.708369e+001 
3590625000  -4.640250e+001  -2.506523e+001 
3593750000  -4.771550e+001  -2.483153e+001 
3596875000  -4.681247e+001  -2.041143e+001 
3600000000  -4.451268e+001  -3.259507e+001 
3603125000  -4.530425e+001  -5.053435e+001 
3606250000  -4.582126e+001  -5.140839e+001 
3609375000  -4.630059e+001  -5.670623e+001 
3612500000  -4.593505e+001  -6.526707e+001 
3615625000  -4.597953e+001  -6.883452e+001 
3618750000  -4.643765e+001  -7.065808e+001 
3621875000  -4.532334e+001  -7.620012e+001 
3625000000  -4.566141e+001  -8.160049e+001 
3628125000  -4.488868e+001  -8.883360e+001 
3631250000  -4.510635e+001  -9.640448e+001 
3634375000  -4.591346e+001  -9.815940e+001 
3637500000  -4.436637e+001  -1.031959e+002 
3640625000  -4.364477e+001  -1.083889e+002 
3643750000  -4.333179e+001  -1.188621e+002 
3646875000  -4.355349e+001  -1.292675e+002 
3650000000  -4.382591e+001  -1.337796e+002 
3653125000  -4.331430e+001  -1.412827e+002 
3656250000  -4.406004e+001  -1.478354e+002 
3659375000  -4.378036e+001  -1.530596e+002 
3662500000  -4.363842e+001  -1.599845e+002 
3665625000  -4.305799e+001  -1.619771e+002 
3668750000  -4.201953e+001  -1.677828e+002 
3671875000  -4.143290e+001  1.764785e+002 
3675000000  -4.237043e+001  1.668521e+002 
3678125000  -4.229935e+001  1.620377e+002 
3681250000  -4.231313e+001  1.542904e+002 
3684375000  -4.245350e+001  1.463900e+002 
3687500000  -4.269992e+001  1.391178e+002 
3690625000  -4.332712e+001  1.331717e+002 
3693750000  -4.424289e+001  1.331091e+002 
3696875000  -4.391868e+001  1.287541e+002 
3700000000  -4.308963e+001  1.198367e+002 
3703125000  -4.358267e+001  1.124764e+002 
3706250000  -4.436807e+001  1.107759e+002 
3709375000  -4.375822e+001  1.106367e+002 
3712500000  -4.301617e+001  1.039947e+002 
3715625000  -4.156934e+001  9.749834e+001 
3718750000  -4.137263e+001  8.524387e+001 
3721875000  -4.171434e+001  7.551020e+001 
3725000000  -4.235248e+001  6.747131e+001 
3728125000  -4.212627e+001  6.627187e+001 
3731250000  -4.198048e+001  5.985101e+001 
3734375000  -4.183919e+001  5.283021e+001 
3737500000  -4.291992e+001  4.330137e+001 
3740625000  -4.344046e+001  3.923535e+001 
3743750000  -4.285163e+001  3.012039e+001 
3746875000  -4.310680e+001  2.189228e+001 
3750000000  -4.341279e+001  2.073466e+001 
3753125000  -4.373459e+001  1.626627e+001 
3756250000  -4.356986e+001  1.306268e+001 
3759375000  -4.357790e+001  7.241211e+000 
3762500000  -4.363013e+001  4.514716e+000 
3765625000  -4.388644e+001  -3.762328e+000 
3768750000  -4.341136e+001  -1.279450e+000 
3771875000  -4.227789e+001  -7.369495e+000 
3775000000  -4.205667e+001  -1.995062e+001 
3778125000  -4.287525e+001  -2.593489e+001 
3781250000  -4.268734e+001  -3.123608e+001 
3784375000  -4.226992e+001  -3.900034e+001 
3787500000  -4.220458e+001  -4.023243e+001 
3790625000  -4.268835e+001  -5.107797e+001 
3793750000  -4.267933e+001  -5.557817e+001 
3796875000  -4.128396e+001  -6.015232e+001 
3800000000  -4.080378e+001  -6.703384e+001 
3803125000  -4.164878e+001  -7.918712e+001 
3806250000  -4.246552e+001  -8.433858e+001 
3809375000  -4.199661e+001  -8.815975e+001 
3812500000  -4.165119e+001  -1.007033e+002 
3815625000  -4.322005e+001  -1.094713e+002 
3818750000  -4.442760e+001  -1.088905e+002 
3821875000  -4.365473e+001  -9.922047e+001 
3825000000  -4.132353e+001  -1.038420e+002 
3828125000  -4.034705e+001  -1.276594e+002 
3831250000  -4.149522e+001  -1.420888e+002 
3834375000  -4.391666e+001  -1.404010e+002 
3837500000  -4.380033e+001  -1.376809e+002 
3840625000  -4.240964e+001  -1.458133e+002 
3843750000  -4.158371e+001  -1.604727e+002 
3846875000  -4.323294e+001  -1.663421e+002 
3850000000  -4.436771e+001  -1.623546e+002 
3853125000  -4.344114e+001  -1.614937e+002 
3856250000  -4.266909e+001  -1.689573e+002 
3859375000  -4.219499e+001  -1.785015e+002 
3862500000  -4.229379e+001  1.693210e+002 
3865625000  -4.274191e+001  1.634953e+002 
3868750000  -4.237392e+001  1.605627e+002 
3871875000  -4.180796e+001  1.536435e+002 
3875000000  -4.256384e+001  1.428739e+002 
3878125000  -4.343038e+001  1.388982e+002 
3881250000  -4.319713e+001  1.362152e+002 
3884375000  -4.241375e+001  1.264815e+002 
3887500000  -4.321865e+001  1.186744e+002 
3890625000  -4.405379e+001  1.167173e+002 
3893750000  -4.397563e+001  1.118639e+002 
3896875000  -4.385660e+001  1.141387e+002 
3900000000  -4.435446e+001  1.068536e+002 
3903125000  -4.348601e+001  1.034746e+002 
3906250000  -4.317588e+001  9.582894e+001 
3909375000  -4.293572e+001  8.966496e+001 
3912500000  -4.375095e+001  7.810165e+001 
3915625000  -4.528048e+001  8.183037e+001 
3918750000  -4.389744e+001  7.766435e+001 
3921875000  -4.343871e+001  7.179415e+001 
3925000000  -4.317788e+001  6.306305e+001 
3928125000  -4.269806e+001  5.779122e+001 
3931250000  -4.335641e+001  5.035620e+001 
3934375000  -4.394542e+001  4.996850e+001 
3937500000  -4.430230e+001  4.276825e+001 
3940625000  -4.419539e+001  4.371530e+001 
3943750000  -4.324184e+001  3.758300e+001 
3946875000  -4.277673e+001  2.948900e+001 
3950000000  -4.379306e+001  1.988505e+001 
3953125000  -4.425834e+001  1.974018e+001 
3956250000  -4.249154e+001  2.152866e+001 
3959375000  -4.179744e+001  1.373276e+001 
3962500000  -4.131474e+001  2.995445e+000 
3965625000  -4.175958e+001  -7.997174e+000 
3968750000  -4.237835e+001  -1.620585e+001 
3971875000  -4.273684e+001  -2.097799e+001 
3975000000  -4.197334e+001  -2.619115e+001 
3978125000  -4.188468e+001  -3.485978e+001 
3981250000  -4.185588e+001  -4.049215e+001 
3984375000  -4.219644e+001  -4.823685e+001 
3987500000  -4.296601e+001  -5.179041e+001 
3990625000  -4.313806e+001  -5.600542e+001 
3993750000  -4.277505e+001  -6.241566e+001 
3996875000  -4.259014e+001  -6.682474e+001 
4000000000  -4.391472e+001  -7.234879e+001 
4003125000  -4.371223e+001  -7.076471e+001 
4006250000  -4.183697e+001  -7.871303e+001 
4009375000  -4.111868e+001  -9.454429e+001 
4012500000  -4.302732e+001  -1.035663e+002 
4015625000  -4.391471e+001  -1.047841e+002 
4018750000  -4.409375e+001  -1.065131e+002 
4021875000  -4.305141e+001  -1.137573e+002 
4025000000  -4.287312e+001  -1.208651e+002 
4028125000  -4.314497e+001  -1.316853e+002 
4031250000  -4.388239e+001  -1.358023e+002 
4034375000  -4.394434e+001  -1.370542e+002 
4037500000  -4.429128e+001  -1.408713e+002 
4040625000  -4.428629e+001  -1.501747e+002 
4043750000  -4.452324e+001  -1.490458e+002 
4046875000  -4.410961e+001  -1.567843e+002 
4050000000  -4.388003e+001  -1.643223e+002 
4053125000  -4.497890e+001  -1.692974e+002 
4056250000  -4.559043e+001  -1.625867e+002 
4059375000  -4.415794e+001  -1.641288e+002 
4062500000  -4.306513e+001  -1.717030e+002 
4065625000  -4.367878e+001  -1.796411e+002 
4068750000  -4.311499e+001  1.716550e+002 
4071875000  -4.243151e+001  1.632729e+002 
4075000000  -4.305526e+001  1.523730e+002 
4078125000  -4.388679e+001  1.520611e+002 
4081250000  -4.346015e+001  1.462138e+002 
4084375000  -4.379701e+001  1.367997e+002 
4087500000  -4.399951e+001  1.287329e+002 
4090625000  -4.455216e+001  1.273181e+002 
4093750000  -4.446564e+001  1.228924e+002 
4096875000  -4.393966e+001  1.178800e+002 
4100000000  -4.548694e+001  1.115046e+002 
4103125000  -4.585372e+001  1.135857e+002 
4106250000  -4.552993e+001  1.116582e+002 
4109375000  -4.399107e+001  1.092518e+002 
4112500000  -4.407401e+001  1.011266e+002 
4115625000  -4.374708e+001  9.521420e+001 
4118750000  -4.410685e+001  8.924749e+001 
4121875000  -4.393703e+001  8.163925e+001 
4125000000  -4.451234e+001  7.241445e+001 
4128125000  -4.522298e+001  7.876389e+001 
4131250000  -4.376537e+001  8.217989e+001 
4134375000  -4.142938e+001  7.171088e+001 
4137500000  -4.191134e+001  4.781731e+001 
4140625000  -4.376414e+001  4.163043e+001 
4143750000  -4.513783e+001  4.814194e+001 
4146875000  -4.431233e+001  4.993002e+001 
4150000000  -4.284623e+001  3.674774e+001 
4153125000  -4.320594e+001  3.115805e+001 
4156250000  -4.380707e+001  2.796684e+001 
4159375000  -4.362296e+001  2.749639e+001 
4162500000  -4.228061e+001  2.768134e+001 
4165625000  -4.154395e+001  1.619935e+001 
4168750000  -4.121107e+001  5.142505e+000 
4171875000  -4.121573e+001  -7.795286e+000 
4175000000  -4.182765e+001  -1.646427e+001 
4178125000  -4.221173e+001  -1.744996e+001 
4181250000  -4.181468e+001  -2.273993e+001 
4184375000  -4.252653e+001  -3.148343e+001 
4187500000  -4.221201e+001  -3.621894e+001 
4190625000  -4.259576e+001  -4.728596e+001 
4193750000  -4.393398e+001  -5.219228e+001 
4196875000  -4.502279e+001  -5.272792e+001 
4200000000  -4.623428e+001  -4.629158e+001 
4203125000  -4.417849e+001  -4.041292e+001 
4206250000  -4.117343e+001  -5.048280e+001 
4209375000  -4.126260e+001  -7.359143e+001 
4212500000  -4.373749e+001  -7.809970e+001 
4215625000  -4.380733e+001  -7.365855e+001 
4218750000  -4.259993e+001  -7.080535e+001 
4221875000  -4.116012e+001  -8.300392e+001 
4225000000  -4.246244e+001  -9.449389e+001 
4228125000  -4.217843e+001  -9.566543e+001 
4231250000  -4.090660e+001  -1.046907e+002 
4234375000  -4.081031e+001  -1.135355e+002 
4237500000  -4.052564e+001  -1.205991e+002 
4240625000  -4.099955e+001  -1.318789e+002 
4243750000  -4.272172e+001  -1.382020e+002 
4246875000  -4.276495e+001  -1.425212e+002 
4250000000  -4.265326e+001  -1.371459e+002 
4253125000  -4.248308e+001  -1.434929e+002 
4256250000  -4.243742e+001  -1.484839e+002 
4259375000  -4.200159e+001  -1.540809e+002 
4262500000  -4.215277e+001  -1.608531e+002 
4265625000  -4.193876e+001  -1.600657e+002 
4268750000  -4.074609e+001  -1.710471e+002 
4271875000  -4.092921e+001  1.787845e+002 
4275000000  -4.037129e+001  1.729779e+002 
4278125000  -4.108232e+001  1.593273e+002 
4281250000  -4.253250e+001  1.574341e+002 
4284375000  -4.254766e+001  1.514642e+002 
4287500000  -4.352556e+001  1.494710e+002 
4290625000  -4.340903e+001  1.560013e+002 
4293750000  -4.114843e+001  1.553535e+002 
4296875000  -4.046671e+001  1.390411e+002 
4300000000  -4.154716e+001  1.310289e+002 
4303125000  -4.203931e+001  1.315311e+002 
4306250000  -4.067298e+001  1.302301e+002 
4309375000  -3.966351e+001  1.181181e+002 
4312500000  -3.947424e+001  1.074817e+002 
4315625000  -4.012932e+001  9.840025e+001 
4318750000  -4.068888e+001  9.404085e+001 
4321875000  -4.083176e+001  9.108821e+001 
4325000000  -3.996124e+001  8.666461e+001 
4328125000  -3.940413e+001  7.383298e+001 
4331250000  -3.974002e+001  6.276461e+001 
4334375000  -4.055936e+001  5.573217e+001 
4337500000  -4.217427e+001  5.389870e+001 
4340625000  -4.225588e+001  5.667756e+001 
4343750000  -4.107573e+001  5.152832e+001 
4346875000  -4.090430e+001  4.257061e+001 
4350000000  -4.087079e+001  3.135963e+001 
4353125000  -4.179065e+001  2.552253e+001 
4356250000  -4.363301e+001  2.384892e+001 
4359375000  -4.246407e+001  4.141046e+001 
4362500000  -3.949944e+001  2.711225e+001 
4365625000  -3.911547e+001  1.212720e+001 
4368750000  -3.996452e+001  -2.101570e+000 
4371875000  -4.119402e+001  -1.106375e+000 
4375000000  -4.061834e+001  -5.497364e+000 
4378125000  -4.028782e+001  -1.379094e+001 
4381250000  -4.068931e+001  -2.201015e+001 
4384375000  -4.051129e+001  -3.031363e+001 
4387500000  -4.176369e+001  -3.697292e+001 
4390625000  -4.205379e+001  -3.873224e+001 
4393750000  -4.180115e+001  -4.245309e+001 
4396875000  -4.095386e+001  -4.530958e+001 
4400000000  -4.061095e+001  -5.574945e+001 
4403125000  -4.170594e+001  -6.592210e+001 
4406250000  -4.207618e+001  -6.979883e+001 
4409375000  -4.277295e+001  -7.633744e+001 
4412500000  -4.302939e+001  -7.501020e+001 
4415625000  -4.293385e+001  -7.191226e+001 
4418750000  -4.167997e+001  -7.633816e+001 
