!Agilent Technologies,E8363B,MY43030201,A.06.04.32
!Agilent E8363B: A.06.04.32
!Date: Tuesday, November 11, 2014 21:47:29
!Correction: S21(Response(S21)) 
!S1P File: Measurement: S21:
# Hz S  dB   R 50
3000000000  -4.379344e+001  -1.618762e+002 
3003125000  -4.508035e+001  -1.669149e+002 
3006250000  -4.507059e+001  -1.688980e+002 
3009375000  -4.584799e+001  -1.649038e+002 
3012500000  -4.476712e+001  -1.721092e+002 
3015625000  -4.498322e+001  -1.771318e+002 
3018750000  -4.525287e+001  1.788753e+002 
3021875000  -4.375067e+001  -1.773553e+002 
3025000000  -4.262840e+001  1.770504e+002 
3028125000  -4.174040e+001  1.633491e+002 
3031250000  -4.093259e+001  1.516862e+002 
3034375000  -4.068082e+001  1.374355e+002 
3037500000  -4.163103e+001  1.264435e+002 
3040625000  -4.307135e+001  1.203619e+002 
3043750000  -4.344970e+001  1.128131e+002 
3046875000  -4.409429e+001  1.062972e+002 
3050000000  -4.523418e+001  1.012621e+002 
3053125000  -4.490452e+001  1.061778e+002 
3056250000  -4.480457e+001  1.082264e+002 
3059375000  -4.381260e+001  1.046198e+002 
3062500000  -4.244294e+001  1.008684e+002 
3065625000  -4.231382e+001  8.861510e+001 
3068750000  -4.190815e+001  8.110761e+001 
3071875000  -4.178534e+001  7.835414e+001 
3075000000  -4.111887e+001  6.890011e+001 
3078125000  -4.114120e+001  6.309229e+001 
3081250000  -4.137252e+001  5.621702e+001 
3084375000  -4.047739e+001  5.066577e+001 
3087500000  -4.049604e+001  4.338696e+001 
3090625000  -3.994481e+001  2.921544e+001 
3093750000  -4.104700e+001  2.187450e+001 
3096875000  -4.115880e+001  1.491741e+001 
3100000000  -4.111073e+001  1.166740e+001 
3103125000  -4.126760e+001  6.650641e+000 
3106250000  -4.097295e+001  5.919647e-001 
3109375000  -4.120686e+001  -3.628947e+000 
3112500000  -4.100985e+001  -1.213779e+001 
3115625000  -4.095961e+001  -1.653103e+001 
3118750000  -4.064602e+001  -2.114740e+001 
3121875000  -4.012933e+001  -3.374207e+001 
3125000000  -4.210445e+001  -3.684909e+001 
3128125000  -4.194431e+001  -3.115154e+001 
3131250000  -3.942704e+001  -3.823013e+001 
3134375000  -3.882320e+001  -5.680458e+001 
3137500000  -3.957576e+001  -6.966548e+001 
3140625000  -4.096776e+001  -7.472987e+001 
3143750000  -4.149333e+001  -7.931490e+001 
3146875000  -4.097708e+001  -7.862876e+001 
3150000000  -4.025675e+001  -8.343478e+001 
3153125000  -4.091247e+001  -9.325862e+001 
3156250000  -4.145198e+001  -8.766679e+001 
3159375000  -3.929800e+001  -9.242888e+001 
3162500000  -3.784973e+001  -1.089409e+002 
3165625000  -3.899862e+001  -1.230983e+002 
3168750000  -3.896301e+001  -1.249696e+002 
3171875000  -3.858957e+001  -1.325336e+002 
3175000000  -3.903310e+001  -1.440883e+002 
3178125000  -3.876559e+001  -1.461475e+002 
3181250000  -3.813950e+001  -1.549519e+002 
3184375000  -3.803242e+001  -1.670281e+002 
3187500000  -3.932872e+001  1.770869e+002 
3190625000  -4.105653e+001  1.704712e+002 
3193750000  -4.095267e+001  1.751512e+002 
3196875000  -4.103455e+001  1.736033e+002 
3200000000  -3.980688e+001  1.677426e+002 
3203125000  -3.956039e+001  1.605524e+002 
3206250000  -3.973477e+001  1.515726e+002 
3209375000  -3.957125e+001  1.434834e+002 
3212500000  -4.000368e+001  1.348820e+002 
3215625000  -3.967172e+001  1.328114e+002 
3218750000  -4.041860e+001  1.199702e+002 
3221875000  -4.064362e+001  1.118967e+002 
3225000000  -4.050565e+001  1.072883e+002 
3228125000  -4.113644e+001  9.891550e+001 
3231250000  -4.152796e+001  9.807162e+001 
3234375000  -4.117460e+001  9.437797e+001 
3237500000  -4.092227e+001  9.022167e+001 
3240625000  -4.047775e+001  8.214948e+001 
3243750000  -4.028814e+001  7.080017e+001 
3246875000  -4.073772e+001  6.330750e+001 
3250000000  -4.131713e+001  5.798130e+001 
3253125000  -4.129085e+001  5.418377e+001 
3256250000  -4.055937e+001  4.207787e+001 
3259375000  -4.096311e+001  3.021029e+001 
3262500000  -4.245620e+001  2.643316e+001 
3265625000  -4.260218e+001  2.729818e+001 
3268750000  -4.268295e+001  2.714329e+001 
3271875000  -4.169298e+001  2.005030e+001 
3275000000  -4.120161e+001  8.608588e+000 
3278125000  -4.189685e+001  2.608271e+000 
3281250000  -4.179601e+001  -1.326446e+000 
3284375000  -4.117853e+001  -9.295882e+000 
3287500000  -4.155550e+001  -1.788739e+001 
3290625000  -4.161694e+001  -2.567276e+001 
3293750000  -4.168852e+001  -3.453211e+001 
3296875000  -4.272297e+001  -3.893666e+001 
3300000000  -4.185349e+001  -4.170533e+001 
3303125000  -4.115653e+001  -5.002777e+001 
3306250000  -4.098537e+001  -6.013882e+001 
3309375000  -4.076967e+001  -7.134126e+001 
3312500000  -4.126772e+001  -8.656767e+001 
3315625000  -4.243422e+001  -9.459820e+001 
3318750000  -4.409315e+001  -1.003439e+002 
3321875000  -4.535701e+001  -1.011971e+002 
3325000000  -4.486353e+001  -9.300744e+001 
3328125000  -4.472837e+001  -9.562116e+001 
3331250000  -4.229939e+001  -1.001565e+002 
3334375000  -4.020916e+001  -1.178572e+002 
3337500000  -4.083956e+001  -1.404684e+002 
3340625000  -4.276467e+001  -1.511857e+002 
3343750000  -4.452505e+001  -1.533440e+002 
3346875000  -4.399388e+001  -1.557884e+002 
3350000000  -4.353279e+001  -1.614597e+002 
3353125000  -4.365026e+001  -1.712315e+002 
3356250000  -4.374097e+001  1.795238e+002 
3359375000  -4.412691e+001  1.652087e+002 
3362500000  -4.545614e+001  1.584362e+002 
3365625000  -4.558805e+001  1.503976e+002 
3368750000  -4.663192e+001  1.481265e+002 
3371875000  -4.668332e+001  1.384485e+002 
3375000000  -4.882847e+001  1.319839e+002 
3378125000  -4.944428e+001  1.327684e+002 
3381250000  -5.077015e+001  1.410778e+002 
3384375000  -4.734573e+001  1.525520e+002 
3387500000  -4.480952e+001  1.271733e+002 
3390625000  -4.660258e+001  1.069327e+002 
3393750000  -4.774213e+001  1.031629e+002 
3396875000  -4.662509e+001  9.720710e+001 
3400000000  -4.619847e+001  8.464056e+001 
3403125000  -4.735895e+001  8.046146e+001 
3406250000  -4.751282e+001  6.864140e+001 
3409375000  -4.706252e+001  5.973570e+001 
3412500000  -4.762788e+001  5.527983e+001 
3415625000  -4.859371e+001  4.751964e+001 
3418750000  -4.854510e+001  4.069992e+001 
3421875000  -4.880248e+001  4.195564e+001 
3425000000  -4.761373e+001  3.233405e+001 
3428125000  -4.732053e+001  2.591754e+001 
3431250000  -4.714183e+001  1.443442e+001 
3434375000  -4.701571e+001  3.076383e+000 
3437500000  -4.794743e+001  -6.440109e+000 
3440625000  -4.812984e+001  -8.185823e+000 
3443750000  -4.637260e+001  -1.251711e+001 
3446875000  -4.572821e+001  -2.957888e+001 
3450000000  -4.499081e+001  -4.470504e+001 
3453125000  -4.586432e+001  -6.055089e+001 
3456250000  -4.732327e+001  -7.418287e+001 
3459375000  -4.782732e+001  -6.855698e+001 
3462500000  -4.822487e+001  -7.491170e+001 
3465625000  -4.734952e+001  -9.021856e+001 
3468750000  -4.791142e+001  -9.629953e+001 
3471875000  -4.703835e+001  -1.030132e+002 
3475000000  -4.696030e+001  -1.185987e+002 
3478125000  -4.737632e+001  -1.314314e+002 
3481250000  -4.863627e+001  -1.325029e+002 
3484375000  -4.889843e+001  -1.326130e+002 
3487500000  -4.775193e+001  -1.405401e+002 
3490625000  -4.724664e+001  -1.530709e+002 
3493750000  -4.745744e+001  -1.661690e+002 
3496875000  -4.832552e+001  -1.714146e+002 
3500000000  -4.879047e+001  -1.732652e+002 
3503125000  -4.708152e+001  -1.757212e+002 
3506250000  -4.573064e+001  1.689228e+002 
3509375000  -4.562920e+001  1.486337e+002 
3512500000  -4.607405e+001  1.391322e+002 
3515625000  -4.725928e+001  1.303092e+002 
3518750000  -4.777824e+001  1.291260e+002 
3521875000  -4.784995e+001  1.175352e+002 
3525000000  -4.900157e+001  1.136510e+002 
3528125000  -4.736435e+001  1.180846e+002 
3531250000  -4.692655e+001  1.058770e+002 
3534375000  -4.691296e+001  8.705834e+001 
3537500000  -4.774825e+001  7.957817e+001 
3540625000  -4.910517e+001  7.399338e+001 
3543750000  -4.908083e+001  8.025372e+001 
3546875000  -4.850957e+001  8.315081e+001 
3550000000  -4.667804e+001  7.281665e+001 
3553125000  -4.590627e+001  5.544580e+001 
3556250000  -4.687777e+001  4.845823e+001 
3559375000  -4.628097e+001  4.240409e+001 
3562500000  -4.662959e+001  3.019340e+001 
3565625000  -4.780169e+001  2.286442e+001 
3568750000  -4.818822e+001  2.101073e+001 
3571875000  -4.704239e+001  1.882393e+001 
3575000000  -4.709631e+001  1.044603e+001 
3578125000  -4.782020e+001  6.767609e+000 
3581250000  -4.795110e+001  2.643363e+000 
3584375000  -4.616751e+001  -5.702730e+000 
3587500000  -4.583654e+001  -1.542816e+001 
3590625000  -4.642382e+001  -2.620622e+001 
3593750000  -4.765773e+001  -2.402043e+001 
3596875000  -4.651490e+001  -2.211525e+001 
3600000000  -4.457685e+001  -3.355037e+001 
3603125000  -4.528447e+001  -4.772328e+001 
3606250000  -4.586989e+001  -5.496305e+001 
3609375000  -4.614871e+001  -5.830825e+001 
3612500000  -4.601613e+001  -6.616198e+001 
3615625000  -4.630042e+001  -6.857347e+001 
3618750000  -4.655832e+001  -7.149730e+001 
3621875000  -4.548214e+001  -7.719515e+001 
3625000000  -4.558267e+001  -8.191604e+001 
3628125000  -4.453759e+001  -9.036228e+001 
3631250000  -4.481915e+001  -9.743958e+001 
3634375000  -4.572016e+001  -9.700687e+001 
3637500000  -4.470850e+001  -9.929926e+001 
3640625000  -4.369734e+001  -1.092645e+002 
3643750000  -4.352463e+001  -1.187482e+002 
3646875000  -4.388405e+001  -1.302034e+002 
3650000000  -4.368161e+001  -1.349773e+002 
3653125000  -4.333022e+001  -1.419581e+002 
3656250000  -4.364996e+001  -1.500045e+002 
3659375000  -4.370298e+001  -1.543790e+002 
3662500000  -4.312346e+001  -1.594500e+002 
3665625000  -4.347207e+001  -1.653370e+002 
3668750000  -4.199815e+001  -1.687130e+002 
3671875000  -4.143076e+001  1.784217e+002 
3675000000  -4.224326e+001  1.678552e+002 
3678125000  -4.250137e+001  1.618136e+002 
3681250000  -4.233271e+001  1.581213e+002 
3684375000  -4.246648e+001  1.479210e+002 
3687500000  -4.325229e+001  1.395696e+002 
3690625000  -4.339457e+001  1.331358e+002 
3693750000  -4.469526e+001  1.326275e+002 
3696875000  -4.385433e+001  1.307148e+002 
3700000000  -4.316459e+001  1.209732e+002 
3703125000  -4.358641e+001  1.126921e+002 
3706250000  -4.462309e+001  1.130827e+002 
3709375000  -4.356436e+001  1.108518e+002 
3712500000  -4.311029e+001  1.036320e+002 
3715625000  -4.180416e+001  9.673816e+001 
3718750000  -4.177938e+001  8.692967e+001 
3721875000  -4.171076e+001  7.684660e+001 
3725000000  -4.231815e+001  6.740363e+001 
3728125000  -4.229064e+001  6.576562e+001 
3731250000  -4.205885e+001  5.915143e+001 
3734375000  -4.209451e+001  5.144980e+001 
3737500000  -4.314750e+001  4.307103e+001 
3740625000  -4.321333e+001  3.668661e+001 
3743750000  -4.258249e+001  3.147735e+001 
3746875000  -4.311503e+001  2.410193e+001 
3750000000  -4.362942e+001  2.004705e+001 
3753125000  -4.343195e+001  1.707471e+001 
3756250000  -4.405202e+001  1.472412e+001 
3759375000  -4.370153e+001  6.461678e+000 
3762500000  -4.317494e+001  4.204569e+000 
3765625000  -4.397885e+001  -1.313526e+000 
3768750000  -4.379011e+001  -1.691064e+000 
3771875000  -4.210019e+001  -8.206845e+000 
3775000000  -4.194520e+001  -1.685947e+001 
3778125000  -4.268304e+001  -2.439082e+001 
3781250000  -4.243925e+001  -3.108678e+001 
3784375000  -4.259112e+001  -3.550537e+001 
3787500000  -4.216960e+001  -4.116207e+001 
3790625000  -4.288848e+001  -5.151332e+001 
3793750000  -4.287396e+001  -5.463156e+001 
3796875000  -4.150059e+001  -6.290664e+001 
3800000000  -4.067633e+001  -6.729560e+001 
3803125000  -4.194683e+001  -7.864079e+001 
3806250000  -4.208677e+001  -8.545033e+001 
3809375000  -4.192420e+001  -8.923577e+001 
3812500000  -4.143551e+001  -9.993014e+001 
3815625000  -4.298796e+001  -1.100511e+002 
3818750000  -4.435480e+001  -1.097943e+002 
3821875000  -4.362117e+001  -9.827166e+001 
3825000000  -4.146818e+001  -1.040336e+002 
3828125000  -4.039028e+001  -1.250490e+002 
3831250000  -4.140714e+001  -1.416099e+002 
3834375000  -4.380061e+001  -1.399761e+002 
3837500000  -4.399788e+001  -1.375836e+002 
3840625000  -4.271164e+001  -1.451957e+002 
3843750000  -4.164090e+001  -1.596203e+002 
3846875000  -4.361005e+001  -1.674174e+002 
3850000000  -4.417146e+001  -1.603216e+002 
3853125000  -4.367700e+001  -1.615313e+002 
3856250000  -4.274238e+001  -1.717761e+002 
3859375000  -4.227350e+001  -1.771035e+002 
3862500000  -4.185765e+001  1.687682e+002 
3865625000  -4.272522e+001  1.613778e+002 
3868750000  -4.237531e+001  1.611158e+002 
3871875000  -4.177167e+001  1.508313e+002 
3875000000  -4.232919e+001  1.421881e+002 
3878125000  -4.364317e+001  1.411859e+002 
3881250000  -4.309070e+001  1.370372e+002 
3884375000  -4.243346e+001  1.273713e+002 
3887500000  -4.337118e+001  1.225134e+002 
3890625000  -4.408253e+001  1.193950e+002 
3893750000  -4.390217e+001  1.160671e+002 
3896875000  -4.436489e+001  1.096159e+002 
3900000000  -4.441122e+001  1.079463e+002 
3903125000  -4.403464e+001  1.025047e+002 
3906250000  -4.359029e+001  9.892560e+001 
3909375000  -4.266550e+001  8.751848e+001 
3912500000  -4.377475e+001  7.877501e+001 
3915625000  -4.489597e+001  7.987346e+001 
3918750000  -4.446542e+001  7.742359e+001 
3921875000  -4.379937e+001  7.445037e+001 
3925000000  -4.332903e+001  6.572269e+001 
3928125000  -4.294264e+001  5.835471e+001 
3931250000  -4.372589e+001  4.892936e+001 
3934375000  -4.362002e+001  4.675346e+001 
3937500000  -4.431308e+001  4.661863e+001 
3940625000  -4.456197e+001  4.297744e+001 
3943750000  -4.333514e+001  3.626246e+001 
3946875000  -4.283768e+001  2.855999e+001 
3950000000  -4.379885e+001  2.244150e+001 
3953125000  -4.488840e+001  2.158020e+001 
3956250000  -4.303311e+001  2.255991e+001 
3959375000  -4.156127e+001  1.582164e+001 
3962500000  -4.164997e+001  1.512862e+000 
3965625000  -4.199184e+001  -7.837949e+000 
3968750000  -4.212960e+001  -1.701996e+001 
3971875000  -4.235713e+001  -2.108533e+001 
3975000000  -4.210102e+001  -2.643865e+001 
3978125000  -4.206157e+001  -3.159962e+001 
3981250000  -4.192876e+001  -4.187556e+001 
3984375000  -4.256916e+001  -4.784573e+001 
3987500000  -4.310935e+001  -5.150932e+001 
3990625000  -4.320121e+001  -5.642334e+001 
3993750000  -4.297393e+001  -6.197323e+001 
3996875000  -4.303677e+001  -6.740916e+001 
4000000000  -4.382499e+001  -7.316628e+001 
4003125000  -4.385917e+001  -7.090187e+001 
4006250000  -4.204897e+001  -7.963543e+001 
4009375000  -4.127974e+001  -9.590231e+001 
4012500000  -4.293850e+001  -1.029487e+002 
4015625000  -4.406579e+001  -1.028338e+002 
4018750000  -4.354368e+001  -1.059767e+002 
4021875000  -4.310843e+001  -1.135993e+002 
4025000000  -4.314170e+001  -1.218974e+002 
4028125000  -4.344343e+001  -1.291982e+002 
4031250000  -4.410951e+001  -1.331490e+002 
4034375000  -4.425947e+001  -1.388257e+002 
4037500000  -4.426962e+001  -1.435385e+002 
4040625000  -4.387596e+001  -1.478158e+002 
4043750000  -4.455977e+001  -1.519650e+002 
4046875000  -4.425345e+001  -1.544110e+002 
4050000000  -4.417465e+001  -1.631721e+002 
4053125000  -4.516978e+001  -1.688355e+002 
4056250000  -4.533001e+001  -1.648266e+002 
4059375000  -4.398730e+001  -1.658840e+002 
4062500000  -4.377832e+001  -1.753372e+002 
4065625000  -4.326902e+001  -1.799361e+002 
4068750000  -4.319714e+001  1.704043e+002 
4071875000  -4.292855e+001  1.614179e+002 
4075000000  -4.355802e+001  1.525432e+002 
4078125000  -4.429966e+001  1.511388e+002 
4081250000  -4.373761e+001  1.468897e+002 
4084375000  -4.348210e+001  1.399401e+002 
4087500000  -4.401017e+001  1.283776e+002 
4090625000  -4.467743e+001  1.278766e+002 
4093750000  -4.475948e+001  1.263659e+002 
4096875000  -4.462939e+001  1.195628e+002 
4100000000  -4.534864e+001  1.114762e+002 
4103125000  -4.595607e+001  1.151559e+002 
4106250000  -4.561707e+001  1.129675e+002 
4109375000  -4.415247e+001  1.096279e+002 
4112500000  -4.404683e+001  1.027984e+002 
4115625000  -4.431522e+001  9.594736e+001 
4118750000  -4.402351e+001  9.296468e+001 
4121875000  -4.379018e+001  8.228175e+001 
4125000000  -4.463028e+001  7.593689e+001 
4128125000  -4.497065e+001  8.038966e+001 
4131250000  -4.394014e+001  8.113796e+001 
4134375000  -4.181488e+001  7.252331e+001 
4137500000  -4.212144e+001  5.111273e+001 
4140625000  -4.419633e+001  4.219397e+001 
4143750000  -4.477774e+001  4.838406e+001 
4146875000  -4.378994e+001  4.884333e+001 
4150000000  -4.258405e+001  4.054728e+001 
4153125000  -4.328830e+001  3.127361e+001 
4156250000  -4.405928e+001  2.703110e+001 
4159375000  -4.366193e+001  3.017469e+001 
4162500000  -4.261353e+001  2.633101e+001 
4165625000  -4.171604e+001  1.828611e+001 
4168750000  -4.141321e+001  5.965399e+000 
4171875000  -4.131020e+001  -4.602415e+000 
4175000000  -4.237998e+001  -1.622725e+001 
4178125000  -4.218997e+001  -1.772002e+001 
4181250000  -4.223340e+001  -2.228977e+001 
4184375000  -4.243602e+001  -3.127400e+001 
4187500000  -4.211580e+001  -3.664163e+001 
4190625000  -4.295185e+001  -4.474911e+001 
4193750000  -4.415584e+001  -5.170743e+001 
4196875000  -4.516425e+001  -5.660504e+001 
4200000000  -4.641701e+001  -4.848773e+001 
4203125000  -4.407825e+001  -3.886316e+001 
4206250000  -4.158460e+001  -4.976134e+001 
4209375000  -4.139527e+001  -7.547778e+001 
4212500000  -4.390034e+001  -7.966643e+001 
4215625000  -4.419760e+001  -7.046413e+001 
4218750000  -4.247899e+001  -7.190913e+001 
4221875000  -4.115535e+001  -8.300611e+001 
4225000000  -4.262223e+001  -9.560651e+001 
4228125000  -4.207050e+001  -9.378448e+001 
4231250000  -4.086572e+001  -1.036164e+002 
4234375000  -4.103482e+001  -1.176445e+002 
4237500000  -4.064648e+001  -1.218269e+002 
4240625000  -4.107248e+001  -1.328118e+002 
4243750000  -4.240051e+001  -1.379888e+002 
4246875000  -4.332510e+001  -1.404168e+002 
4250000000  -4.277679e+001  -1.408779e+002 
4253125000  -4.292516e+001  -1.423389e+002 
4256250000  -4.246944e+001  -1.509728e+002 
4259375000  -4.251452e+001  -1.551657e+002 
4262500000  -4.199472e+001  -1.583748e+002 
4265625000  -4.220375e+001  -1.599315e+002 
4268750000  -4.120804e+001  -1.709255e+002 
4271875000  -4.115945e+001  -1.787387e+002 
4275000000  -4.037436e+001  1.717583e+002 
4278125000  -4.146620e+001  1.580444e+002 
4281250000  -4.209199e+001  1.569381e+002 
4284375000  -4.225849e+001  1.511248e+002 
4287500000  -4.373992e+001  1.511931e+002 
4290625000  -4.406768e+001  1.586158e+002 
4293750000  -4.185731e+001  1.580721e+002 
4296875000  -4.023680e+001  1.415129e+002 
4300000000  -4.140965e+001  1.298384e+002 
4303125000  -4.186506e+001  1.296685e+002 
4306250000  -4.100588e+001  1.313164e+002 
4309375000  -4.004432e+001  1.199076e+002 
4312500000  -3.970330e+001  1.085374e+002 
4315625000  -4.038742e+001  9.762848e+001 
4318750000  -4.088147e+001  9.508636e+001 
4321875000  -4.078804e+001  9.186404e+001 
4325000000  -4.009163e+001  8.784731e+001 
4328125000  -3.930148e+001  7.740938e+001 
4331250000  -3.977620e+001  6.363771e+001 
4334375000  -4.086408e+001  5.701342e+001 
4337500000  -4.220310e+001  5.547244e+001 
4340625000  -4.242447e+001  5.738359e+001 
4343750000  -4.119472e+001  5.062201e+001 
4346875000  -4.116959e+001  4.091207e+001 
4350000000  -4.130660e+001  3.067942e+001 
4353125000  -4.210470e+001  2.549036e+001 
4356250000  -4.394344e+001  2.995027e+001 
4359375000  -4.287065e+001  4.156917e+001 
4362500000  -3.967395e+001  2.898444e+001 
4365625000  -3.901506e+001  1.150622e+001 
4368750000  -4.030415e+001  -1.055640e-001 
4371875000  -4.119352e+001  -1.908300e+000 
4375000000  -4.079950e+001  -6.739010e+000 
4378125000  -4.027622e+001  -1.356735e+001 
4381250000  -4.071120e+001  -2.423840e+001 
4384375000  -4.092130e+001  -3.071425e+001 
4387500000  -4.155494e+001  -3.550310e+001 
4390625000  -4.218305e+001  -3.714319e+001 
4393750000  -4.197307e+001  -4.119841e+001 
4396875000  -4.101420e+001  -4.461553e+001 
4400000000  -4.071454e+001  -5.463756e+001 
4403125000  -4.176740e+001  -6.688931e+001 
4406250000  -4.205932e+001  -7.061340e+001 
4409375000  -4.287364e+001  -7.197259e+001 
4412500000  -4.355217e+001  -7.373608e+001 
4415625000  -4.342457e+001  -7.378748e+001 
4418750000  -4.183783e+001  -7.604346e+001 
