!Agilent Technologies,E8363B,MY43030201,A.06.04.32
!Agilent E8363B: A.06.04.32
!Date: Tuesday, November 11, 2014 21:50:23
!Correction: S21(Response(S21)) 
!S1P File: Measurement: S21:
# Hz S  dB   R 50
3000000000  -4.364956e+001  -1.607821e+002 
3003125000  -4.559824e+001  -1.672218e+002 
3006250000  -4.553545e+001  -1.685474e+002 
3009375000  -4.619885e+001  -1.660989e+002 
3012500000  -4.480866e+001  -1.714331e+002 
3015625000  -4.517737e+001  -1.780039e+002 
3018750000  -4.552974e+001  -1.783264e+002 
3021875000  -4.385316e+001  1.798964e+002 
3025000000  -4.252057e+001  1.767512e+002 
3028125000  -4.184116e+001  1.638469e+002 
3031250000  -4.110366e+001  1.524470e+002 
3034375000  -4.075990e+001  1.363097e+002 
3037500000  -4.173195e+001  1.241155e+002 
3040625000  -4.282986e+001  1.203191e+002 
3043750000  -4.339457e+001  1.123101e+002 
3046875000  -4.422384e+001  1.062465e+002 
3050000000  -4.555107e+001  9.978361e+001 
3053125000  -4.471366e+001  1.051698e+002 
3056250000  -4.487973e+001  1.089173e+002 
3059375000  -4.410995e+001  1.039154e+002 
3062500000  -4.262688e+001  1.002969e+002 
3065625000  -4.214507e+001  8.806959e+001 
3068750000  -4.156126e+001  8.182452e+001 
3071875000  -4.163158e+001  7.836756e+001 
3075000000  -4.126188e+001  6.920948e+001 
3078125000  -4.147779e+001  6.295336e+001 
3081250000  -4.132679e+001  5.589300e+001 
3084375000  -4.044753e+001  5.036327e+001 
3087500000  -4.060559e+001  4.210351e+001 
3090625000  -4.015594e+001  2.941504e+001 
3093750000  -4.101077e+001  2.056928e+001 
3096875000  -4.110966e+001  1.452800e+001 
3100000000  -4.108557e+001  1.201437e+001 
3103125000  -4.146462e+001  6.212459e+000 
3106250000  -4.118557e+001  4.444745e-001 
3109375000  -4.110500e+001  -3.826713e+000 
3112500000  -4.086528e+001  -1.195090e+001 
3115625000  -4.089906e+001  -1.706869e+001 
3118750000  -4.069522e+001  -2.119399e+001 
3121875000  -4.018684e+001  -3.338216e+001 
3125000000  -4.205207e+001  -3.889454e+001 
3128125000  -4.198464e+001  -3.157463e+001 
3131250000  -3.957215e+001  -4.095314e+001 
3134375000  -3.879684e+001  -5.692752e+001 
3137500000  -3.949187e+001  -7.161510e+001 
3140625000  -4.077320e+001  -7.467943e+001 
3143750000  -4.137062e+001  -7.952511e+001 
3146875000  -4.102990e+001  -7.779891e+001 
3150000000  -4.025698e+001  -8.309486e+001 
3153125000  -4.083863e+001  -9.199978e+001 
3156250000  -4.148713e+001  -8.908032e+001 
3159375000  -3.922610e+001  -9.336526e+001 
3162500000  -3.759191e+001  -1.088601e+002 
3165625000  -3.896976e+001  -1.242138e+002 
3168750000  -3.890492e+001  -1.239316e+002 
3171875000  -3.855961e+001  -1.335720e+002 
3175000000  -3.896768e+001  -1.440199e+002 
3178125000  -3.856918e+001  -1.459519e+002 
3181250000  -3.806998e+001  -1.551112e+002 
3184375000  -3.781442e+001  -1.684468e+002 
3187500000  -3.921235e+001  1.775610e+002 
3190625000  -4.080931e+001  1.700898e+002 
3193750000  -4.118651e+001  1.737904e+002 
3196875000  -4.105807e+001  1.740427e+002 
3200000000  -3.995503e+001  1.681196e+002 
3203125000  -3.959431e+001  1.597498e+002 
3206250000  -3.990068e+001  1.519958e+002 
3209375000  -3.957100e+001  1.419937e+002 
3212500000  -3.990120e+001  1.351880e+002 
3215625000  -3.977553e+001  1.326931e+002 
3218750000  -4.007977e+001  1.188438e+002 
3221875000  -4.064561e+001  1.130093e+002 
3225000000  -4.038570e+001  1.061855e+002 
3228125000  -4.090019e+001  9.906332e+001 
3231250000  -4.157689e+001  9.639507e+001 
3234375000  -4.106320e+001  9.333899e+001 
3237500000  -4.108883e+001  9.011266e+001 
3240625000  -4.028615e+001  8.210998e+001 
3243750000  -4.031627e+001  7.075726e+001 
3246875000  -4.050083e+001  6.202377e+001 
3250000000  -4.112878e+001  5.783590e+001 
3253125000  -4.120664e+001  5.311306e+001 
3256250000  -4.041178e+001  4.326480e+001 
3259375000  -4.080733e+001  3.073639e+001 
3262500000  -4.221778e+001  2.472449e+001 
3265625000  -4.275842e+001  2.614450e+001 
3268750000  -4.267572e+001  2.587908e+001 
3271875000  -4.143272e+001  1.813479e+001 
3275000000  -4.113497e+001  1.006279e+001 
3278125000  -4.178400e+001  2.982139e+000 
3281250000  -4.188871e+001  -1.728505e+000 
3284375000  -4.126229e+001  -1.021111e+001 
3287500000  -4.163142e+001  -1.562306e+001 
3290625000  -4.130740e+001  -2.804424e+001 
3293750000  -4.157406e+001  -3.583595e+001 
3296875000  -4.274403e+001  -3.933252e+001 
3300000000  -4.180690e+001  -4.031983e+001 
3303125000  -4.092673e+001  -4.998757e+001 
3306250000  -4.086595e+001  -6.015762e+001 
3309375000  -4.052207e+001  -7.265600e+001 
3312500000  -4.119375e+001  -8.586103e+001 
3315625000  -4.229323e+001  -9.411691e+001 
3318750000  -4.403193e+001  -1.011337e+002 
3321875000  -4.526786e+001  -9.922807e+001 
3325000000  -4.512279e+001  -9.600052e+001 
3328125000  -4.392244e+001  -9.956461e+001 
3331250000  -4.215119e+001  -9.925283e+001 
3334375000  -4.012280e+001  -1.186177e+002 
3337500000  -4.096029e+001  -1.412242e+002 
3340625000  -4.285150e+001  -1.527645e+002 
3343750000  -4.430621e+001  -1.538118e+002 
3346875000  -4.395126e+001  -1.568419e+002 
3350000000  -4.372852e+001  -1.630386e+002 
3353125000  -4.354248e+001  -1.721171e+002 
3356250000  -4.317198e+001  1.781028e+002 
3359375000  -4.427060e+001  1.653103e+002 
3362500000  -4.503016e+001  1.564778e+002 
3365625000  -4.538934e+001  1.519020e+002 
3368750000  -4.636178e+001  1.444549e+002 
3371875000  -4.718043e+001  1.419477e+002 
3375000000  -4.826125e+001  1.334751e+002 
3378125000  -4.900739e+001  1.314240e+002 
3381250000  -5.088531e+001  1.381867e+002 
3384375000  -4.763969e+001  1.550707e+002 
3387500000  -4.484420e+001  1.274320e+002 
3390625000  -4.679557e+001  1.065647e+002 
3393750000  -4.810157e+001  1.050437e+002 
3396875000  -4.622909e+001  1.023176e+002 
3400000000  -4.617122e+001  8.537157e+001 
3403125000  -4.668055e+001  7.629904e+001 
3406250000  -4.744048e+001  6.834542e+001 
3409375000  -4.755396e+001  6.186177e+001 
3412500000  -4.773355e+001  5.181877e+001 
3415625000  -4.875953e+001  4.686556e+001 
3418750000  -4.861086e+001  4.266576e+001 
3421875000  -4.944118e+001  3.866188e+001 
3425000000  -4.749552e+001  3.446024e+001 
3428125000  -4.696761e+001  2.664796e+001 
3431250000  -4.684031e+001  1.435414e+001 
3434375000  -4.645731e+001  4.137257e+000 
3437500000  -4.751598e+001  -6.689081e+000 
3440625000  -4.798479e+001  -9.222733e+000 
3443750000  -4.656592e+001  -1.285149e+001 
3446875000  -4.576756e+001  -2.547167e+001 
3450000000  -4.526379e+001  -4.503180e+001 
3453125000  -4.553785e+001  -6.104752e+001 
3456250000  -4.738812e+001  -7.115488e+001 
3459375000  -4.819248e+001  -7.266479e+001 
3462500000  -4.805799e+001  -7.771220e+001 
3465625000  -4.768353e+001  -8.933037e+001 
3468750000  -4.774666e+001  -9.494046e+001 
3471875000  -4.697956e+001  -1.032327e+002 
3475000000  -4.662171e+001  -1.176202e+002 
3478125000  -4.804513e+001  -1.293763e+002 
3481250000  -4.904383e+001  -1.370945e+002 
3484375000  -4.870385e+001  -1.366597e+002 
3487500000  -4.769205e+001  -1.427267e+002 
3490625000  -4.724654e+001  -1.520035e+002 
3493750000  -4.810318e+001  -1.675352e+002 
3496875000  -4.849565e+001  -1.725872e+002 
3500000000  -4.860999e+001  -1.711676e+002 
3503125000  -4.725420e+001  -1.737572e+002 
3506250000  -4.569028e+001  1.723681e+002 
3509375000  -4.592437e+001  1.498574e+002 
3512500000  -4.604436e+001  1.370655e+002 
3515625000  -4.726308e+001  1.290968e+002 
3518750000  -4.775361e+001  1.292530e+002 
3521875000  -4.838080e+001  1.156886e+002 
3525000000  -4.889972e+001  1.143294e+002 
3528125000  -4.834997e+001  1.195546e+002 
3531250000  -4.652604e+001  1.014314e+002 
3534375000  -4.667369e+001  8.748096e+001 
3537500000  -4.743907e+001  7.692944e+001 
3540625000  -4.887869e+001  7.396305e+001 
3543750000  -4.971741e+001  7.620008e+001 
3546875000  -4.856388e+001  8.220732e+001 
3550000000  -4.653050e+001  7.360380e+001 
3553125000  -4.620440e+001  5.224755e+001 
3556250000  -4.751011e+001  4.600002e+001 
3559375000  -4.657773e+001  4.394065e+001 
3562500000  -4.622564e+001  2.862738e+001 
3565625000  -4.738013e+001  2.427510e+001 
3568750000  -4.764848e+001  2.378078e+001 
3571875000  -4.719859e+001  2.105911e+001 
3575000000  -4.718411e+001  7.799394e+000 
3578125000  -4.792984e+001  8.607096e+000 
3581250000  -4.761476e+001  5.780256e-002 
3584375000  -4.609805e+001  -4.287004e+000 
3587500000  -4.589441e+001  -1.897104e+001 
3590625000  -4.633706e+001  -2.685375e+001 
3593750000  -4.743788e+001  -2.976623e+001 
3596875000  -4.690113e+001  -2.257245e+001 
3600000000  -4.489681e+001  -3.499439e+001 
3603125000  -4.495782e+001  -5.190588e+001 
3606250000  -4.601426e+001  -5.467597e+001 
3609375000  -4.604713e+001  -5.619893e+001 
3612500000  -4.575875e+001  -6.375382e+001 
3615625000  -4.644956e+001  -7.043326e+001 
3618750000  -4.598831e+001  -7.389199e+001 
3621875000  -4.536627e+001  -7.926328e+001 
3625000000  -4.551702e+001  -8.401048e+001 
3628125000  -4.485199e+001  -8.982485e+001 
3631250000  -4.524083e+001  -9.856453e+001 
3634375000  -4.544386e+001  -1.013640e+002 
3637500000  -4.456388e+001  -1.014383e+002 
3640625000  -4.366372e+001  -1.065676e+002 
3643750000  -4.301519e+001  -1.198063e+002 
3646875000  -4.399865e+001  -1.314283e+002 
3650000000  -4.358937e+001  -1.346307e+002 
3653125000  -4.314013e+001  -1.428161e+002 
3656250000  -4.399231e+001  -1.487404e+002 
3659375000  -4.359544e+001  -1.536060e+002 
3662500000  -4.336168e+001  -1.609873e+002 
3665625000  -4.375958e+001  -1.651649e+002 
3668750000  -4.203696e+001  -1.691142e+002 
3671875000  -4.136648e+001  1.757221e+002 
3675000000  -4.220466e+001  1.682928e+002 
3678125000  -4.253466e+001  1.619388e+002 
3681250000  -4.250103e+001  1.552022e+002 
3684375000  -4.273727e+001  1.474523e+002 
3687500000  -4.296732e+001  1.384853e+002 
3690625000  -4.349274e+001  1.315594e+002 
3693750000  -4.452519e+001  1.311169e+002 
3696875000  -4.347041e+001  1.260274e+002 
3700000000  -4.314957e+001  1.209557e+002 
3703125000  -4.373994e+001  1.114827e+002 
3706250000  -4.466133e+001  1.090285e+002 
3709375000  -4.375886e+001  1.115619e+002 
3712500000  -4.287989e+001  1.059612e+002 
3715625000  -4.165463e+001  9.349762e+001 
3718750000  -4.168213e+001  8.523050e+001 
3721875000  -4.178434e+001  7.508386e+001 
3725000000  -4.225334e+001  6.827167e+001 
3728125000  -4.230106e+001  6.517126e+001 
3731250000  -4.181493e+001  5.902480e+001 
3734375000  -4.204915e+001  5.062144e+001 
3737500000  -4.289982e+001  3.880797e+001 
3740625000  -4.324821e+001  3.549875e+001 
3743750000  -4.293850e+001  2.817203e+001 
3746875000  -4.315472e+001  2.445912e+001 
3750000000  -4.364128e+001  1.827527e+001 
3753125000  -4.345741e+001  1.656698e+001 
3756250000  -4.370349e+001  1.235411e+001 
3759375000  -4.349562e+001  7.436929e+000 
3762500000  -4.336873e+001  1.613453e+000 
3765625000  -4.417474e+001  -4.007519e+000 
3768750000  -4.347084e+001  -1.530697e+000 
3771875000  -4.204472e+001  -1.177698e+001 
3775000000  -4.241652e+001  -2.015193e+001 
3778125000  -4.261767e+001  -2.649813e+001 
3781250000  -4.248016e+001  -3.143736e+001 
3784375000  -4.238740e+001  -3.861513e+001 
3787500000  -4.203875e+001  -4.211297e+001 
3790625000  -4.324306e+001  -5.191251e+001 
3793750000  -4.267105e+001  -5.700248e+001 
3796875000  -4.173829e+001  -6.206262e+001 
3800000000  -4.068494e+001  -6.858687e+001 
3803125000  -4.175654e+001  -8.140913e+001 
3806250000  -4.251981e+001  -8.467406e+001 
3809375000  -4.168158e+001  -8.936675e+001 
3812500000  -4.172169e+001  -1.021407e+002 
3815625000  -4.283228e+001  -1.144377e+002 
3818750000  -4.429196e+001  -1.078325e+002 
3821875000  -4.325877e+001  -9.996853e+001 
3825000000  -4.115930e+001  -1.066044e+002 
3828125000  -4.025861e+001  -1.270548e+002 
3831250000  -4.139291e+001  -1.433990e+002 
3834375000  -4.375235e+001  -1.413914e+002 
3837500000  -4.418164e+001  -1.403035e+002 
3840625000  -4.257215e+001  -1.466384e+002 
3843750000  -4.168694e+001  -1.599192e+002 
3846875000  -4.359639e+001  -1.693217e+002 
3850000000  -4.395302e+001  -1.624502e+002 
3853125000  -4.367618e+001  -1.630074e+002 
3856250000  -4.279902e+001  -1.737721e+002 
3859375000  -4.214240e+001  1.785497e+002 
3862500000  -4.195935e+001  1.668969e+002 
3865625000  -4.251373e+001  1.631914e+002 
3868750000  -4.233778e+001  1.596980e+002 
3871875000  -4.173864e+001  1.526845e+002 
3875000000  -4.225378e+001  1.407712e+002 
3878125000  -4.324802e+001  1.382738e+002 
3881250000  -4.326686e+001  1.362736e+002 
3884375000  -4.243478e+001  1.273167e+002 
3887500000  -4.286647e+001  1.210912e+002 
3890625000  -4.363620e+001  1.166863e+002 
3893750000  -4.398436e+001  1.112798e+002 
3896875000  -4.434581e+001  1.116031e+002 
3900000000  -4.383989e+001  1.046806e+002 
3903125000  -4.329471e+001  1.004088e+002 
3906250000  -4.311389e+001  9.622230e+001 
3909375000  -4.278576e+001  8.604057e+001 
3912500000  -4.361570e+001  7.740279e+001 
3915625000  -4.485111e+001  7.786071e+001 
3918750000  -4.489717e+001  7.540100e+001 
3921875000  -4.359763e+001  7.105708e+001 
3925000000  -4.288156e+001  6.621889e+001 
3928125000  -4.286038e+001  5.559476e+001 
3931250000  -4.374716e+001  4.691578e+001 
3934375000  -4.403487e+001  4.716071e+001 
3937500000  -4.417307e+001  4.219280e+001 
3940625000  -4.461386e+001  4.068647e+001 
3943750000  -4.308945e+001  3.793013e+001 
3946875000  -4.288460e+001  2.803899e+001 
3950000000  -4.358923e+001  1.666676e+001 
3953125000  -4.482232e+001  1.939402e+001 
3956250000  -4.244272e+001  1.802024e+001 
3959375000  -4.179850e+001  1.150542e+001 
3962500000  -4.129801e+001  2.953000e+000 
3965625000  -4.145111e+001  -1.032491e+001 
3968750000  -4.270986e+001  -1.629189e+001 
3971875000  -4.215954e+001  -2.388024e+001 
3975000000  -4.183185e+001  -2.748112e+001 
3978125000  -4.201545e+001  -3.295107e+001 
3981250000  -4.167177e+001  -4.133542e+001 
3984375000  -4.233872e+001  -4.893502e+001 
3987500000  -4.303558e+001  -5.074682e+001 
3990625000  -4.307907e+001  -5.634657e+001 
3993750000  -4.299806e+001  -6.475788e+001 
3996875000  -4.307256e+001  -7.188803e+001 
4000000000  -4.365104e+001  -7.470847e+001 
4003125000  -4.356907e+001  -7.429768e+001 
4006250000  -4.186248e+001  -7.968581e+001 
4009375000  -4.135606e+001  -9.581054e+001 
4012500000  -4.305132e+001  -1.056060e+002 
4015625000  -4.408311e+001  -1.074316e+002 
4018750000  -4.421567e+001  -1.090538e+002 
4021875000  -4.339918e+001  -1.161155e+002 
4025000000  -4.284816e+001  -1.232109e+002 
4028125000  -4.323281e+001  -1.308241e+002 
4031250000  -4.387317e+001  -1.383358e+002 
4034375000  -4.401972e+001  -1.401132e+002 
4037500000  -4.407320e+001  -1.438407e+002 
4040625000  -4.393399e+001  -1.474570e+002 
4043750000  -4.437817e+001  -1.501719e+002 
4046875000  -4.452691e+001  -1.573899e+002 
4050000000  -4.389318e+001  -1.651863e+002 
4053125000  -4.493393e+001  -1.701270e+002 
4056250000  -4.570100e+001  -1.674881e+002 
4059375000  -4.363603e+001  -1.676963e+002 
4062500000  -4.311544e+001  -1.733355e+002 
4065625000  -4.362545e+001  1.795996e+002 
4068750000  -4.317402e+001  1.693296e+002 
4071875000  -4.242816e+001  1.596781e+002 
4075000000  -4.294672e+001  1.532753e+002 
4078125000  -4.380696e+001  1.496065e+002 
4081250000  -4.325290e+001  1.439037e+002 
4084375000  -4.326894e+001  1.382512e+002 
4087500000  -4.384471e+001  1.275567e+002 
4090625000  -4.438153e+001  1.242361e+002 
4093750000  -4.401840e+001  1.231815e+002 
4096875000  -4.395560e+001  1.152619e+002 
4100000000  -4.520871e+001  1.085420e+002 
4103125000  -4.571041e+001  1.119541e+002 
4106250000  -4.535103e+001  1.160330e+002 
4109375000  -4.422758e+001  1.098853e+002 
4112500000  -4.386739e+001  1.005308e+002 
4115625000  -4.420053e+001  9.466566e+001 
4118750000  -4.386145e+001  9.005808e+001 
4121875000  -4.368589e+001  8.223019e+001 
4125000000  -4.428976e+001  7.592253e+001 
4128125000  -4.511758e+001  7.672592e+001 
4131250000  -4.373658e+001  8.391171e+001 
4134375000  -4.159432e+001  6.941769e+001 
4137500000  -4.219859e+001  4.940212e+001 
4140625000  -4.461503e+001  4.252794e+001 
4143750000  -4.476664e+001  4.846563e+001 
4146875000  -4.390741e+001  4.813817e+001 
4150000000  -4.245927e+001  3.749972e+001 
4153125000  -4.281445e+001  2.816046e+001 
4156250000  -4.406953e+001  2.875851e+001 
4159375000  -4.348369e+001  2.798997e+001 
4162500000  -4.250854e+001  2.343723e+001 
4165625000  -4.149695e+001  1.375243e+001 
4168750000  -4.114101e+001  3.895984e+000 
4171875000  -4.108672e+001  -1.045376e+001 
4175000000  -4.191667e+001  -1.615619e+001 
4178125000  -4.232661e+001  -1.967226e+001 
4181250000  -4.206831e+001  -2.456617e+001 
4184375000  -4.250624e+001  -3.138047e+001 
4187500000  -4.211244e+001  -3.842330e+001 
4190625000  -4.263515e+001  -4.896069e+001 
4193750000  -4.365684e+001  -5.288132e+001 
4196875000  -4.524566e+001  -5.808597e+001 
4200000000  -4.615694e+001  -4.788639e+001 
4203125000  -4.488650e+001  -4.114776e+001 
4206250000  -4.107774e+001  -4.838776e+001 
4209375000  -4.153072e+001  -7.331104e+001 
4212500000  -4.386213e+001  -8.228835e+001 
4215625000  -4.419361e+001  -7.191292e+001 
4218750000  -4.228335e+001  -7.376412e+001 
4221875000  -4.056474e+001  -8.293777e+001 
4225000000  -4.210013e+001  -9.703110e+001 
4228125000  -4.209349e+001  -9.237998e+001 
4231250000  -4.085773e+001  -1.045650e+002 
4234375000  -4.108055e+001  -1.156932e+002 
4237500000  -4.072081e+001  -1.224667e+002 
4240625000  -4.088996e+001  -1.332380e+002 
4243750000  -4.242637e+001  -1.417681e+002 
4246875000  -4.297472e+001  -1.417578e+002 
4250000000  -4.239916e+001  -1.423113e+002 
4253125000  -4.297093e+001  -1.446000e+002 
4256250000  -4.250953e+001  -1.514032e+002 
4259375000  -4.191665e+001  -1.583398e+002 
4262500000  -4.204843e+001  -1.616778e+002 
4265625000  -4.219380e+001  -1.654802e+002 
4268750000  -4.076487e+001  -1.711605e+002 
4271875000  -4.075171e+001  1.790690e+002 
4275000000  -3.997821e+001  1.679485e+002 
4278125000  -4.121236e+001  1.571436e+002 
4281250000  -4.246789e+001  1.560081e+002 
4284375000  -4.204039e+001  1.489308e+002 
4287500000  -4.377813e+001  1.450889e+002 
4290625000  -4.369254e+001  1.550411e+002 
4293750000  -4.130143e+001  1.539405e+002 
4296875000  -4.022548e+001  1.371407e+002 
4300000000  -4.128919e+001  1.274942e+002 
4303125000  -4.202799e+001  1.297833e+002 
4306250000  -4.070765e+001  1.283739e+002 
4309375000  -4.009009e+001  1.187335e+002 
4312500000  -3.959224e+001  1.069100e+002 
4315625000  -4.014624e+001  9.693527e+001 
4318750000  -4.085396e+001  9.534299e+001 
4321875000  -4.059746e+001  9.035271e+001 
4325000000  -3.995048e+001  8.567994e+001 
4328125000  -3.927354e+001  7.394384e+001 
4331250000  -3.990826e+001  6.104227e+001 
4334375000  -4.084396e+001  5.298462e+001 
4337500000  -4.161541e+001  5.281682e+001 
4340625000  -4.206575e+001  5.521489e+001 
4343750000  -4.101383e+001  4.810806e+001 
4346875000  -4.087675e+001  3.952765e+001 
4350000000  -4.093798e+001  3.072686e+001 
4353125000  -4.203723e+001  2.079719e+001 
4356250000  -4.390583e+001  2.397462e+001 
4359375000  -4.295947e+001  3.812495e+001 
4362500000  -3.942690e+001  3.046402e+001 
4365625000  -3.905643e+001  1.181119e+001 
4368750000  -4.028285e+001  -3.879087e+000 
4371875000  -4.104334e+001  -2.694738e+000 
4375000000  -4.059694e+001  -8.279209e+000 
4378125000  -4.041948e+001  -1.576871e+001 
4381250000  -4.046492e+001  -2.382206e+001 
4384375000  -4.062336e+001  -3.166513e+001 
4387500000  -4.138474e+001  -3.781685e+001 
4390625000  -4.195343e+001  -4.371762e+001 
4393750000  -4.154416e+001  -4.025805e+001 
4396875000  -4.121808e+001  -4.827428e+001 
4400000000  -4.043544e+001  -5.545708e+001 
4403125000  -4.158539e+001  -6.669832e+001 
4406250000  -4.215583e+001  -7.023540e+001 
4409375000  -4.262000e+001  -7.807465e+001 
4412500000  -4.315487e+001  -7.981445e+001 
4415625000  -4.303690e+001  -7.557768e+001 
4418750000  -4.167115e+001  -7.516154e+001 
