!Agilent Technologies,E8363B,MY43030201,A.06.04.32
!Agilent E8363B: A.06.04.32
!Date: Tuesday, November 11, 2014 21:52:33
!Correction: S21(Response(S21)) 
!S1P File: Measurement: S21:
# Hz S  dB   R 50
3000000000  -4.388313e+001  -1.628194e+002 
3003125000  -4.527463e+001  -1.681514e+002 
3006250000  -4.551073e+001  -1.690822e+002 
3009375000  -4.600737e+001  -1.649978e+002 
3012500000  -4.516877e+001  -1.727180e+002 
3015625000  -4.483836e+001  -1.790042e+002 
3018750000  -4.530139e+001  -1.797717e+002 
3021875000  -4.380053e+001  -1.799210e+002 
3025000000  -4.254787e+001  1.758697e+002 
3028125000  -4.163749e+001  1.638257e+002 
3031250000  -4.085328e+001  1.506777e+002 
3034375000  -4.089705e+001  1.363443e+002 
3037500000  -4.176227e+001  1.250827e+002 
3040625000  -4.277642e+001  1.201123e+002 
3043750000  -4.323062e+001  1.120296e+002 
3046875000  -4.422424e+001  1.049274e+002 
3050000000  -4.532248e+001  1.011359e+002 
3053125000  -4.479942e+001  1.053641e+002 
3056250000  -4.484060e+001  1.093723e+002 
3059375000  -4.380221e+001  1.035359e+002 
3062500000  -4.269210e+001  1.001922e+002 
3065625000  -4.212445e+001  8.633168e+001 
3068750000  -4.195564e+001  7.885682e+001 
3071875000  -4.177152e+001  7.760738e+001 
3075000000  -4.136980e+001  6.973252e+001 
3078125000  -4.126960e+001  6.081612e+001 
3081250000  -4.127871e+001  5.603773e+001 
3084375000  -4.039432e+001  4.903017e+001 
3087500000  -4.045126e+001  4.143538e+001 
3090625000  -3.997049e+001  2.811819e+001 
3093750000  -4.118417e+001  2.024573e+001 
3096875000  -4.132261e+001  1.386908e+001 
3100000000  -4.093040e+001  1.175272e+001 
3103125000  -4.136329e+001  4.805269e+000 
3106250000  -4.092168e+001  1.334396e+000 
3109375000  -4.098078e+001  -4.853638e+000 
3112500000  -4.076925e+001  -1.421773e+001 
3115625000  -4.088699e+001  -1.784002e+001 
3118750000  -4.078794e+001  -2.301637e+001 
3121875000  -4.033838e+001  -3.444780e+001 
3125000000  -4.237059e+001  -3.755968e+001 
3128125000  -4.212691e+001  -3.267069e+001 
3131250000  -3.939329e+001  -4.002045e+001 
3134375000  -3.875949e+001  -5.806133e+001 
3137500000  -3.935913e+001  -7.070680e+001 
3140625000  -4.067178e+001  -7.551801e+001 
3143750000  -4.142479e+001  -7.880713e+001 
3146875000  -4.112321e+001  -7.787087e+001 
3150000000  -4.031281e+001  -8.372589e+001 
3153125000  -4.051573e+001  -9.453364e+001 
3156250000  -4.148429e+001  -8.932909e+001 
3159375000  -3.909146e+001  -9.337392e+001 
3162500000  -3.748564e+001  -1.106089e+002 
3165625000  -3.900076e+001  -1.242393e+002 
3168750000  -3.903813e+001  -1.264356e+002 
3171875000  -3.856571e+001  -1.346199e+002 
3175000000  -3.900164e+001  -1.444588e+002 
3178125000  -3.862899e+001  -1.470108e+002 
3181250000  -3.816587e+001  -1.561395e+002 
3184375000  -3.779473e+001  -1.670244e+002 
3187500000  -3.893405e+001  1.757464e+002 
3190625000  -4.095295e+001  1.689612e+002 
3193750000  -4.116231e+001  1.734545e+002 
3196875000  -4.086063e+001  1.724627e+002 
3200000000  -3.976046e+001  1.662862e+002 
3203125000  -3.962188e+001  1.591027e+002 
3206250000  -3.967043e+001  1.503648e+002 
3209375000  -3.953687e+001  1.428822e+002 
3212500000  -3.988211e+001  1.336528e+002 
3215625000  -3.961813e+001  1.320760e+002 
3218750000  -4.018792e+001  1.181397e+002 
3221875000  -4.066065e+001  1.104781e+002 
3225000000  -4.038448e+001  1.067865e+002 
3228125000  -4.102020e+001  9.923881e+001 
3231250000  -4.143764e+001  9.574721e+001 
3234375000  -4.111819e+001  9.233461e+001 
3237500000  -4.091813e+001  8.812118e+001 
3240625000  -4.031188e+001  8.017050e+001 
3243750000  -4.035575e+001  6.986797e+001 
3246875000  -4.070152e+001  6.048203e+001 
3250000000  -4.113145e+001  5.746190e+001 
3253125000  -4.126801e+001  5.369055e+001 
3256250000  -4.030830e+001  4.134277e+001 
3259375000  -4.115744e+001  3.028047e+001 
3262500000  -4.224288e+001  2.549423e+001 
3265625000  -4.246323e+001  2.664194e+001 
3268750000  -4.263330e+001  2.442809e+001 
3271875000  -4.162169e+001  1.833779e+001 
3275000000  -4.137270e+001  6.700244e+000 
3278125000  -4.155669e+001  2.031205e+000 
3281250000  -4.186081e+001  -1.906534e+000 
3284375000  -4.098545e+001  -1.012279e+001 
3287500000  -4.155121e+001  -1.712441e+001 
3290625000  -4.154370e+001  -2.744269e+001 
3293750000  -4.148276e+001  -3.454513e+001 
3296875000  -4.264113e+001  -3.964045e+001 
3300000000  -4.199210e+001  -4.249997e+001 
3303125000  -4.097730e+001  -5.114138e+001 
3306250000  -4.082952e+001  -6.090121e+001 
3309375000  -4.053345e+001  -7.417805e+001 
3312500000  -4.111953e+001  -8.846533e+001 
3315625000  -4.257692e+001  -9.476384e+001 
3318750000  -4.385158e+001  -1.020758e+002 
3321875000  -4.529200e+001  -1.009580e+002 
3325000000  -4.467093e+001  -9.489556e+001 
3328125000  -4.429665e+001  -1.022035e+002 
3331250000  -4.241972e+001  -1.004357e+002 
3334375000  -3.984723e+001  -1.187264e+002 
3337500000  -4.080637e+001  -1.399615e+002 
3340625000  -4.290697e+001  -1.525484e+002 
3343750000  -4.466808e+001  -1.532146e+002 
3346875000  -4.384751e+001  -1.566608e+002 
3350000000  -4.361140e+001  -1.616947e+002 
3353125000  -4.348291e+001  -1.727862e+002 
3356250000  -4.339067e+001  1.783133e+002 
3359375000  -4.417596e+001  1.635269e+002 
3362500000  -4.495369e+001  1.583571e+002 
3365625000  -4.552500e+001  1.498239e+002 
3368750000  -4.625441e+001  1.439282e+002 
3371875000  -4.707452e+001  1.397621e+002 
3375000000  -4.877830e+001  1.349395e+002 
3378125000  -4.917837e+001  1.330794e+002 
3381250000  -5.028597e+001  1.435565e+002 
3384375000  -4.756848e+001  1.510762e+002 
3387500000  -4.518801e+001  1.269854e+002 
3390625000  -4.647620e+001  1.081374e+002 
3393750000  -4.756082e+001  1.045390e+002 
3396875000  -4.598814e+001  1.010890e+002 
3400000000  -4.634177e+001  8.666695e+001 
3403125000  -4.649870e+001  7.655199e+001 
3406250000  -4.732723e+001  6.926351e+001 
3409375000  -4.716364e+001  6.341883e+001 
3412500000  -4.767392e+001  5.339925e+001 
3415625000  -4.862942e+001  4.871350e+001 
3418750000  -4.846844e+001  4.284464e+001 
3421875000  -4.897638e+001  3.503404e+001 
3425000000  -4.779032e+001  3.283263e+001 
3428125000  -4.710852e+001  2.642194e+001 
3431250000  -4.675498e+001  1.585343e+001 
3434375000  -4.679730e+001  3.981197e+000 
3437500000  -4.771415e+001  -6.533428e+000 
3440625000  -4.774835e+001  -1.052922e+001 
3443750000  -4.656542e+001  -1.493573e+001 
3446875000  -4.552204e+001  -2.983724e+001 
3450000000  -4.496188e+001  -4.451986e+001 
3453125000  -4.585546e+001  -6.119572e+001 
3456250000  -4.731432e+001  -7.356670e+001 
3459375000  -4.861497e+001  -7.448870e+001 
3462500000  -4.803210e+001  -7.902831e+001 
3465625000  -4.739552e+001  -8.884865e+001 
3468750000  -4.742246e+001  -9.428466e+001 
3471875000  -4.713216e+001  -1.029300e+002 
3475000000  -4.693739e+001  -1.163609e+002 
3478125000  -4.815217e+001  -1.306141e+002 
3481250000  -4.873374e+001  -1.350394e+002 
3484375000  -4.881059e+001  -1.343480e+002 
3487500000  -4.770922e+001  -1.439755e+002 
3490625000  -4.729132e+001  -1.572131e+002 
3493750000  -4.805010e+001  -1.695750e+002 
3496875000  -4.837770e+001  -1.726425e+002 
3500000000  -4.842249e+001  -1.727363e+002 
3503125000  -4.708790e+001  -1.754734e+002 
3506250000  -4.590219e+001  1.732984e+002 
3509375000  -4.603563e+001  1.507575e+002 
3512500000  -4.641708e+001  1.350378e+002 
3515625000  -4.745781e+001  1.294073e+002 
3518750000  -4.823441e+001  1.290101e+002 
3521875000  -4.800496e+001  1.173921e+002 
3525000000  -4.849772e+001  1.127802e+002 
3528125000  -4.762076e+001  1.159442e+002 
3531250000  -4.673162e+001  1.061686e+002 
3534375000  -4.681987e+001  8.637445e+001 
3537500000  -4.785945e+001  7.694859e+001 
3540625000  -4.927851e+001  7.834781e+001 
3543750000  -4.920783e+001  7.773263e+001 
3546875000  -4.881936e+001  8.437189e+001 
3550000000  -4.624613e+001  7.165253e+001 
3553125000  -4.547013e+001  5.448689e+001 
3556250000  -4.775530e+001  4.508408e+001 
3559375000  -4.651628e+001  3.877655e+001 
3562500000  -4.628821e+001  2.884220e+001 
3565625000  -4.752193e+001  2.349438e+001 
3568750000  -4.790843e+001  2.129677e+001 
3571875000  -4.704359e+001  1.598418e+001 
3575000000  -4.728170e+001  6.668518e+000 
3578125000  -4.792129e+001  7.203489e+000 
3581250000  -4.702538e+001  2.392354e+000 
3584375000  -4.624583e+001  -4.185044e+000 
3587500000  -4.552312e+001  -1.814326e+001 
3590625000  -4.673309e+001  -2.644106e+001 
3593750000  -4.764351e+001  -2.839741e+001 
3596875000  -4.694161e+001  -2.272613e+001 
3600000000  -4.486375e+001  -3.483130e+001 
3603125000  -4.500388e+001  -4.956752e+001 
3606250000  -4.599508e+001  -5.595202e+001 
3609375000  -4.598076e+001  -5.868113e+001 
3612500000  -4.601410e+001  -6.649817e+001 
3615625000  -4.598042e+001  -7.251463e+001 
3618750000  -4.600464e+001  -7.490713e+001 
3621875000  -4.555243e+001  -8.011527e+001 
3625000000  -4.595164e+001  -8.614977e+001 
3628125000  -4.497250e+001  -8.923192e+001 
3631250000  -4.515371e+001  -1.023649e+002 
3634375000  -4.546192e+001  -1.007460e+002 
3637500000  -4.433718e+001  -1.042755e+002 
3640625000  -4.380080e+001  -1.103994e+002 
3643750000  -4.309003e+001  -1.217062e+002 
3646875000  -4.379259e+001  -1.306542e+002 
3650000000  -4.378205e+001  -1.379364e+002 
3653125000  -4.333571e+001  -1.440002e+002 
3656250000  -4.392741e+001  -1.495865e+002 
3659375000  -4.385267e+001  -1.542491e+002 
3662500000  -4.337254e+001  -1.624080e+002 
3665625000  -4.340691e+001  -1.671168e+002 
3668750000  -4.170285e+001  -1.705733e+002 
3671875000  -4.140722e+001  1.745405e+002 
3675000000  -4.226275e+001  1.660600e+002 
3678125000  -4.247460e+001  1.595677e+002 
3681250000  -4.229921e+001  1.547299e+002 
3684375000  -4.293105e+001  1.481780e+002 
3687500000  -4.296395e+001  1.370726e+002 
3690625000  -4.341413e+001  1.333670e+002 
3693750000  -4.427900e+001  1.297509e+002 
3696875000  -4.388403e+001  1.273491e+002 
3700000000  -4.323426e+001  1.188612e+002 
3703125000  -4.383406e+001  1.109753e+002 
3706250000  -4.452933e+001  1.086810e+002 
3709375000  -4.397056e+001  1.075379e+002 
3712500000  -4.282891e+001  1.037720e+002 
3715625000  -4.180344e+001  9.516473e+001 
3718750000  -4.182191e+001  8.482568e+001 
3721875000  -4.182999e+001  7.385321e+001 
3725000000  -4.265430e+001  6.663820e+001 
3728125000  -4.260535e+001  6.469044e+001 
3731250000  -4.173868e+001  5.686939e+001 
3734375000  -4.203999e+001  4.883655e+001 
3737500000  -4.279108e+001  4.046448e+001 
3740625000  -4.312274e+001  3.733194e+001 
3743750000  -4.260318e+001  2.834699e+001 
3746875000  -4.325917e+001  2.153790e+001 
3750000000  -4.378011e+001  1.740004e+001 
3753125000  -4.404076e+001  1.503544e+001 
3756250000  -4.366840e+001  9.482332e+000 
3759375000  -4.358519e+001  6.491719e+000 
3762500000  -4.358822e+001  2.153042e+000 
3765625000  -4.437066e+001  -3.995669e+000 
3768750000  -4.340606e+001  -4.537679e+000 
3771875000  -4.187598e+001  -1.185181e+001 
3775000000  -4.214639e+001  -2.135769e+001 
3778125000  -4.273551e+001  -2.773417e+001 
3781250000  -4.265513e+001  -3.291622e+001 
3784375000  -4.230534e+001  -3.875975e+001 
3787500000  -4.210998e+001  -4.450908e+001 
3790625000  -4.304739e+001  -5.418737e+001 
3793750000  -4.269911e+001  -5.709086e+001 
3796875000  -4.147017e+001  -6.287824e+001 
3800000000  -4.071071e+001  -6.894593e+001 
3803125000  -4.145724e+001  -8.100995e+001 
3806250000  -4.233303e+001  -8.621845e+001 
3809375000  -4.176472e+001  -9.081207e+001 
3812500000  -4.171377e+001  -1.028599e+002 
3815625000  -4.308920e+001  -1.119952e+002 
3818750000  -4.433594e+001  -1.095062e+002 
3821875000  -4.326898e+001  -9.725378e+001 
3825000000  -4.137952e+001  -1.093933e+002 
3828125000  -4.030533e+001  -1.281640e+002 
3831250000  -4.140808e+001  -1.434936e+002 
3834375000  -4.346971e+001  -1.426153e+002 
3837500000  -4.395337e+001  -1.420469e+002 
3840625000  -4.232177e+001  -1.466928e+002 
3843750000  -4.193000e+001  -1.615970e+002 
3846875000  -4.386555e+001  -1.688076e+002 
3850000000  -4.422382e+001  -1.628589e+002 
3853125000  -4.375315e+001  -1.659019e+002 
3856250000  -4.305880e+001  -1.711004e+002 
3859375000  -4.209887e+001  1.765571e+002 
3862500000  -4.204835e+001  1.677587e+002 
3865625000  -4.261815e+001  1.607842e+002 
3868750000  -4.217931e+001  1.606021e+002 
3871875000  -4.167665e+001  1.497737e+002 
3875000000  -4.252740e+001  1.399196e+002 
3878125000  -4.337033e+001  1.372709e+002 
3881250000  -4.327262e+001  1.365513e+002 
3884375000  -4.263440e+001  1.243160e+002 
3887500000  -4.322609e+001  1.199509e+002 
3890625000  -4.336086e+001  1.167481e+002 
3893750000  -4.416167e+001  1.123510e+002 
3896875000  -4.438103e+001  1.109614e+002 
3900000000  -4.438972e+001  1.029105e+002 
3903125000  -4.412896e+001  1.001129e+002 
3906250000  -4.322702e+001  9.802211e+001 
3909375000  -4.248862e+001  8.611790e+001 
3912500000  -4.352665e+001  7.640580e+001 
3915625000  -4.459409e+001  7.536842e+001 
3918750000  -4.424374e+001  7.467453e+001 
3921875000  -4.371836e+001  6.908209e+001 
3925000000  -4.261525e+001  6.307603e+001 
3928125000  -4.296515e+001  5.440147e+001 
3931250000  -4.362786e+001  4.675111e+001 
3934375000  -4.402779e+001  4.431421e+001 
3937500000  -4.406977e+001  4.280342e+001 
3940625000  -4.447699e+001  4.328137e+001 
3943750000  -4.331437e+001  3.579806e+001 
3946875000  -4.251938e+001  2.594965e+001 
3950000000  -4.353330e+001  2.053949e+001 
3953125000  -4.446806e+001  2.004534e+001 
3956250000  -4.286159e+001  1.658911e+001 
3959375000  -4.157925e+001  1.061247e+001 
3962500000  -4.123627e+001  -4.908963e-001 
3965625000  -4.179996e+001  -1.246755e+001 
3968750000  -4.215028e+001  -2.178645e+001 
3971875000  -4.254482e+001  -2.414322e+001 
3975000000  -4.209975e+001  -2.678601e+001 
3978125000  -4.210897e+001  -3.459978e+001 
3981250000  -4.204459e+001  -4.271540e+001 
3984375000  -4.233557e+001  -5.079308e+001 
3987500000  -4.317457e+001  -5.461684e+001 
3990625000  -4.288660e+001  -5.719231e+001 
3993750000  -4.341838e+001  -6.626785e+001 
3996875000  -4.308732e+001  -7.113832e+001 
4000000000  -4.344029e+001  -7.760465e+001 
4003125000  -4.345081e+001  -7.564200e+001 
4006250000  -4.193543e+001  -8.363141e+001 
4009375000  -4.099266e+001  -9.828747e+001 
4012500000  -4.267113e+001  -1.031627e+002 
4015625000  -4.398008e+001  -1.072889e+002 
4018750000  -4.386974e+001  -1.094503e+002 
4021875000  -4.322215e+001  -1.182096e+002 
4025000000  -4.264875e+001  -1.251842e+002 
4028125000  -4.348131e+001  -1.328241e+002 
4031250000  -4.393861e+001  -1.388355e+002 
4034375000  -4.387806e+001  -1.423922e+002 
4037500000  -4.409642e+001  -1.446701e+002 
4040625000  -4.430090e+001  -1.496661e+002 
4043750000  -4.429721e+001  -1.537190e+002 
4046875000  -4.429482e+001  -1.598852e+002 
4050000000  -4.412290e+001  -1.667195e+002 
4053125000  -4.525922e+001  -1.711329e+002 
4056250000  -4.526964e+001  -1.676875e+002 
4059375000  -4.366127e+001  -1.697153e+002 
4062500000  -4.332182e+001  -1.777543e+002 
4065625000  -4.346477e+001  1.769622e+002 
4068750000  -4.275746e+001  1.698155e+002 
4071875000  -4.256659e+001  1.568755e+002 
4075000000  -4.355728e+001  1.497834e+002 
4078125000  -4.358155e+001  1.496217e+002 
4081250000  -4.345531e+001  1.434633e+002 
4084375000  -4.336755e+001  1.329115e+002 
4087500000  -4.393933e+001  1.286299e+002 
4090625000  -4.477687e+001  1.244258e+002 
4093750000  -4.445153e+001  1.232066e+002 
4096875000  -4.413454e+001  1.164062e+002 
4100000000  -4.524779e+001  1.092677e+002 
4103125000  -4.606263e+001  1.123735e+002 
4106250000  -4.539067e+001  1.143144e+002 
4109375000  -4.385609e+001  1.072841e+002 
4112500000  -4.375793e+001  9.704035e+001 
4115625000  -4.418649e+001  9.227335e+001 
4118750000  -4.421700e+001  8.691591e+001 
4121875000  -4.354499e+001  8.299633e+001 
4125000000  -4.448620e+001  7.309374e+001 
4128125000  -4.488391e+001  7.462992e+001 
4131250000  -4.337735e+001  8.069241e+001 
4134375000  -4.161468e+001  6.659438e+001 
4137500000  -4.192025e+001  4.747597e+001 
4140625000  -4.429015e+001  3.943302e+001 
4143750000  -4.537029e+001  4.848326e+001 
4146875000  -4.402064e+001  4.337424e+001 
4150000000  -4.272937e+001  3.555343e+001 
4153125000  -4.322097e+001  2.444264e+001 
4156250000  -4.418150e+001  2.441178e+001 
4159375000  -4.369945e+001  2.792013e+001 
4162500000  -4.209485e+001  2.292170e+001 
4165625000  -4.120126e+001  1.289944e+001 
4168750000  -4.108433e+001  3.885135e+000 
4171875000  -4.084588e+001  -9.727377e+000 
4175000000  -4.191857e+001  -1.807575e+001 
4178125000  -4.241055e+001  -1.980882e+001 
4181250000  -4.200281e+001  -2.757932e+001 
4184375000  -4.250578e+001  -3.289456e+001 
4187500000  -4.233848e+001  -3.991126e+001 
4190625000  -4.276093e+001  -5.114655e+001 
4193750000  -4.392194e+001  -5.684227e+001 
4196875000  -4.517767e+001  -5.736306e+001 
4200000000  -4.598106e+001  -5.239484e+001 
4203125000  -4.440466e+001  -4.327245e+001 
4206250000  -4.119531e+001  -5.312296e+001 
4209375000  -4.109046e+001  -7.569746e+001 
4212500000  -4.333790e+001  -8.111765e+001 
4215625000  -4.400678e+001  -7.434018e+001 
4218750000  -4.268791e+001  -7.392228e+001 
4221875000  -4.101802e+001  -8.794211e+001 
4225000000  -4.279083e+001  -9.704758e+001 
4228125000  -4.263893e+001  -9.864566e+001 
4231250000  -4.057733e+001  -1.075079e+002 
4234375000  -4.088639e+001  -1.168930e+002 
4237500000  -4.070227e+001  -1.242955e+002 
4240625000  -4.117128e+001  -1.320182e+002 
4243750000  -4.214735e+001  -1.425063e+002 
4246875000  -4.300183e+001  -1.425102e+002 
4250000000  -4.236346e+001  -1.449064e+002 
4253125000  -4.277546e+001  -1.442211e+002 
4256250000  -4.263649e+001  -1.511913e+002 
4259375000  -4.178507e+001  -1.584587e+002 
4262500000  -4.208516e+001  -1.607551e+002 
4265625000  -4.213095e+001  -1.644817e+002 
4268750000  -4.064747e+001  -1.742295e+002 
4271875000  -4.057331e+001  1.764523e+002 
4275000000  -4.037593e+001  1.689141e+002 
4278125000  -4.115446e+001  1.541105e+002 
4281250000  -4.215347e+001  1.545538e+002 
4284375000  -4.238205e+001  1.478870e+002 
4287500000  -4.367439e+001  1.477821e+002 
4290625000  -4.378057e+001  1.524014e+002 
4293750000  -4.133115e+001  1.506064e+002 
4296875000  -4.020061e+001  1.360364e+002 
4300000000  -4.128485e+001  1.254819e+002 
4303125000  -4.188320e+001  1.273804e+002 
4306250000  -4.059194e+001  1.256986e+002 
4309375000  -3.957389e+001  1.154258e+002 
4312500000  -3.956367e+001  1.049015e+002 
4315625000  -4.020079e+001  9.514887e+001 
4318750000  -4.048586e+001  9.158314e+001 
4321875000  -4.050073e+001  8.877723e+001 
4325000000  -4.014695e+001  8.504931e+001 
4328125000  -3.964994e+001  7.195927e+001 
4331250000  -3.992707e+001  6.012265e+001 
4334375000  -4.041187e+001  5.396708e+001 
4337500000  -4.187278e+001  5.220035e+001 
4340625000  -4.174947e+001  5.339949e+001 
4343750000  -4.091495e+001  4.876035e+001 
4346875000  -4.084205e+001  3.952826e+001 
4350000000  -4.081686e+001  2.977519e+001 
4353125000  -4.176174e+001  2.034147e+001 
4356250000  -4.405989e+001  2.258986e+001 
4359375000  -4.233984e+001  3.863773e+001 
4362500000  -3.934397e+001  2.910523e+001 
4365625000  -3.913100e+001  7.410671e+000 
4368750000  -4.032025e+001  -4.214292e+000 
4371875000  -4.125174e+001  -4.653613e+000 
4375000000  -4.036363e+001  -1.012925e+001 
4378125000  -4.010770e+001  -1.796618e+001 
4381250000  -4.030555e+001  -2.592873e+001 
4384375000  -4.041151e+001  -3.418565e+001 
4387500000  -4.148776e+001  -4.219766e+001 
4390625000  -4.208360e+001  -4.442672e+001 
4393750000  -4.173783e+001  -4.441608e+001 
4396875000  -4.100119e+001  -5.008023e+001 
4400000000  -4.041468e+001  -5.775573e+001 
4403125000  -4.156235e+001  -6.626367e+001 
4406250000  -4.215055e+001  -7.370546e+001 
4409375000  -4.226006e+001  -7.831622e+001 
4412500000  -4.348389e+001  -8.046806e+001 
4415625000  -4.299269e+001  -7.734624e+001 
4418750000  -4.186978e+001  -7.806727e+001 
