!Agilent Technologies,E8363B,MY43030201,A.06.04.32
!Agilent E8363B: A.06.04.32
!Date: Tuesday, November 11, 2014 21:48:59
!Correction: S21(Response(S21)) 
!S1P File: Measurement: S21:
# Hz S  dB   R 50
3000000000  -4.359731e+001  -1.610210e+002 
3003125000  -4.528706e+001  -1.668514e+002 
3006250000  -4.555568e+001  -1.662423e+002 
3009375000  -4.588367e+001  -1.629488e+002 
3012500000  -4.495737e+001  -1.718532e+002 
3015625000  -4.514684e+001  -1.792058e+002 
3018750000  -4.537706e+001  -1.779643e+002 
3021875000  -4.390623e+001  -1.788417e+002 
3025000000  -4.263145e+001  1.776712e+002 
3028125000  -4.182627e+001  1.632723e+002 
3031250000  -4.109381e+001  1.515584e+002 
3034375000  -4.082560e+001  1.381605e+002 
3037500000  -4.165911e+001  1.281062e+002 
3040625000  -4.276954e+001  1.195978e+002 
3043750000  -4.315710e+001  1.146824e+002 
3046875000  -4.432031e+001  1.068950e+002 
3050000000  -4.523076e+001  1.028337e+002 
3053125000  -4.450584e+001  1.040777e+002 
3056250000  -4.503543e+001  1.088543e+002 
3059375000  -4.379792e+001  1.066223e+002 
3062500000  -4.228959e+001  1.004621e+002 
3065625000  -4.201910e+001  8.841816e+001 
3068750000  -4.170077e+001  8.067490e+001 
3071875000  -4.194458e+001  7.824391e+001 
3075000000  -4.122023e+001  7.095669e+001 
3078125000  -4.159551e+001  6.218716e+001 
3081250000  -4.127545e+001  5.635581e+001 
3084375000  -4.042351e+001  5.092358e+001 
3087500000  -4.057913e+001  4.325720e+001 
3090625000  -3.993122e+001  3.025079e+001 
3093750000  -4.106617e+001  2.133158e+001 
3096875000  -4.117402e+001  1.533044e+001 
3100000000  -4.111754e+001  1.224882e+001 
3103125000  -4.171376e+001  6.949492e+000 
3106250000  -4.106367e+001  1.591619e+000 
3109375000  -4.090747e+001  -4.170309e+000 
3112500000  -4.086668e+001  -1.207870e+001 
3115625000  -4.075843e+001  -1.583216e+001 
3118750000  -4.084226e+001  -2.075358e+001 
3121875000  -4.023431e+001  -3.357386e+001 
3125000000  -4.219215e+001  -3.649200e+001 
3128125000  -4.198455e+001  -3.093133e+001 
3131250000  -3.939917e+001  -3.946097e+001 
3134375000  -3.888984e+001  -5.732181e+001 
3137500000  -3.943621e+001  -6.978481e+001 
3140625000  -4.085673e+001  -7.561872e+001 
3143750000  -4.158860e+001  -7.786249e+001 
3146875000  -4.128408e+001  -7.714806e+001 
3150000000  -4.046861e+001  -8.201062e+001 
3153125000  -4.076923e+001  -9.129643e+001 
3156250000  -4.127156e+001  -8.798122e+001 
3159375000  -3.920468e+001  -9.145428e+001 
3162500000  -3.781916e+001  -1.091836e+002 
3165625000  -3.892858e+001  -1.229248e+002 
3168750000  -3.893821e+001  -1.250414e+002 
3171875000  -3.859375e+001  -1.330983e+002 
3175000000  -3.910515e+001  -1.440855e+002 
3178125000  -3.864102e+001  -1.456680e+002 
3181250000  -3.800859e+001  -1.546115e+002 
3184375000  -3.786885e+001  -1.657592e+002 
3187500000  -3.905757e+001  1.785505e+002 
3190625000  -4.087906e+001  1.708919e+002 
3193750000  -4.131350e+001  1.755713e+002 
3196875000  -4.116291e+001  1.753248e+002 
3200000000  -3.996001e+001  1.684104e+002 
3203125000  -3.957452e+001  1.605552e+002 
3206250000  -3.989247e+001  1.517563e+002 
3209375000  -3.949745e+001  1.436125e+002 
3212500000  -4.008323e+001  1.360062e+002 
3215625000  -3.960307e+001  1.347422e+002 
3218750000  -4.012700e+001  1.196283e+002 
3221875000  -4.053830e+001  1.135444e+002 
3225000000  -4.040974e+001  1.080769e+002 
3228125000  -4.099975e+001  1.011642e+002 
3231250000  -4.129494e+001  9.752588e+001 
3234375000  -4.102299e+001  9.333912e+001 
3237500000  -4.108228e+001  8.983119e+001 
3240625000  -4.046923e+001  8.310455e+001 
3243750000  -4.045790e+001  7.200031e+001 
3246875000  -4.067712e+001  6.356725e+001 
3250000000  -4.097889e+001  5.723462e+001 
3253125000  -4.140600e+001  5.380351e+001 
3256250000  -4.056201e+001  4.453651e+001 
3259375000  -4.091969e+001  3.112671e+001 
3262500000  -4.223795e+001  2.655808e+001 
3265625000  -4.264048e+001  2.669298e+001 
3268750000  -4.263356e+001  2.737851e+001 
3271875000  -4.165665e+001  2.130060e+001 
3275000000  -4.120304e+001  9.708441e+000 
3278125000  -4.172564e+001  3.350751e+000 
3281250000  -4.171659e+001  -8.246977e-001 
3284375000  -4.101072e+001  -8.865812e+000 
3287500000  -4.142810e+001  -1.675121e+001 
3290625000  -4.153638e+001  -2.586316e+001 
3293750000  -4.143931e+001  -3.283653e+001 
3296875000  -4.273001e+001  -3.878373e+001 
3300000000  -4.209923e+001  -4.023686e+001 
3303125000  -4.082304e+001  -5.163581e+001 
3306250000  -4.080917e+001  -6.023997e+001 
3309375000  -4.066554e+001  -7.083453e+001 
3312500000  -4.112505e+001  -8.497758e+001 
3315625000  -4.255348e+001  -9.437246e+001 
3318750000  -4.397958e+001  -9.936207e+001 
3321875000  -4.518184e+001  -9.774988e+001 
3325000000  -4.467035e+001  -9.738534e+001 
3328125000  -4.457226e+001  -9.904090e+001 
3331250000  -4.244261e+001  -9.842535e+001 
3334375000  -4.013109e+001  -1.172536e+002 
3337500000  -4.097774e+001  -1.406062e+002 
3340625000  -4.284792e+001  -1.494476e+002 
3343750000  -4.461951e+001  -1.522349e+002 
3346875000  -4.378370e+001  -1.545404e+002 
3350000000  -4.349129e+001  -1.618167e+002 
3353125000  -4.363807e+001  -1.715584e+002 
3356250000  -4.319845e+001  1.790526e+002 
3359375000  -4.421807e+001  1.656195e+002 
3362500000  -4.499920e+001  1.592823e+002 
3365625000  -4.568327e+001  1.510687e+002 
3368750000  -4.614415e+001  1.451577e+002 
3371875000  -4.698239e+001  1.404129e+002 
3375000000  -4.835456e+001  1.356149e+002 
3378125000  -4.901337e+001  1.334570e+002 
3381250000  -5.092029e+001  1.440289e+002 
3384375000  -4.709813e+001  1.502170e+002 
3387500000  -4.484255e+001  1.295050e+002 
3390625000  -4.687886e+001  1.059098e+002 
3393750000  -4.785269e+001  1.041733e+002 
3396875000  -4.628867e+001  1.010687e+002 
3400000000  -4.593768e+001  8.455372e+001 
3403125000  -4.704812e+001  7.954965e+001 
3406250000  -4.721387e+001  7.053213e+001 
3409375000  -4.770706e+001  6.331562e+001 
3412500000  -4.764937e+001  5.581424e+001 
3415625000  -4.868277e+001  5.265716e+001 
3418750000  -4.869350e+001  4.518969e+001 
3421875000  -4.911765e+001  4.208335e+001 
3425000000  -4.787497e+001  3.538843e+001 
3428125000  -4.697966e+001  2.638976e+001 
3431250000  -4.709647e+001  1.264012e+001 
3434375000  -4.718147e+001  3.081984e+000 
3437500000  -4.743931e+001  -6.357826e+000 
3440625000  -4.794449e+001  -1.048683e+001 
3443750000  -4.650927e+001  -1.491542e+001 
3446875000  -4.553214e+001  -2.704708e+001 
3450000000  -4.524894e+001  -4.174971e+001 
3453125000  -4.610780e+001  -6.038253e+001 
3456250000  -4.759510e+001  -7.033285e+001 
3459375000  -4.815234e+001  -7.153560e+001 
3462500000  -4.809048e+001  -7.657741e+001 
3465625000  -4.756957e+001  -8.968494e+001 
3468750000  -4.780706e+001  -9.642706e+001 
3471875000  -4.734013e+001  -1.005998e+002 
3475000000  -4.737748e+001  -1.155249e+002 
3478125000  -4.749125e+001  -1.287346e+002 
3481250000  -4.921033e+001  -1.324492e+002 
3484375000  -4.852902e+001  -1.359726e+002 
3487500000  -4.750747e+001  -1.422016e+002 
3490625000  -4.712403e+001  -1.541765e+002 
3493750000  -4.787584e+001  -1.662617e+002 
3496875000  -4.804802e+001  -1.730464e+002 
3500000000  -4.814081e+001  -1.706131e+002 
3503125000  -4.733339e+001  -1.770788e+002 
3506250000  -4.525407e+001  1.724033e+002 
3509375000  -4.602266e+001  1.520636e+002 
3512500000  -4.609159e+001  1.363277e+002 
3515625000  -4.726000e+001  1.296572e+002 
3518750000  -4.813296e+001  1.329506e+002 
3521875000  -4.803136e+001  1.181105e+002 
3525000000  -4.852499e+001  1.131995e+002 
3528125000  -4.774161e+001  1.169361e+002 
3531250000  -4.649178e+001  1.050831e+002 
3534375000  -4.715522e+001  8.788407e+001 
3537500000  -4.817862e+001  7.760610e+001 
3540625000  -4.923267e+001  7.474593e+001 
3543750000  -4.937302e+001  7.881888e+001 
3546875000  -4.837910e+001  8.341299e+001 
3550000000  -4.684581e+001  7.195609e+001 
3553125000  -4.620525e+001  5.527057e+001 
3556250000  -4.725600e+001  4.888315e+001 
3559375000  -4.714782e+001  4.400387e+001 
3562500000  -4.597084e+001  3.443161e+001 
3565625000  -4.722051e+001  2.289176e+001 
3568750000  -4.792536e+001  2.151348e+001 
3571875000  -4.725900e+001  1.882220e+001 
3575000000  -4.700978e+001  1.205389e+001 
3578125000  -4.748025e+001  5.950636e+000 
3581250000  -4.744354e+001  3.235540e+000 
3584375000  -4.640712e+001  -3.216445e+000 
3587500000  -4.571088e+001  -1.391179e+001 
3590625000  -4.625474e+001  -2.709385e+001 
3593750000  -4.760656e+001  -2.290007e+001 
3596875000  -4.663195e+001  -2.108607e+001 
3600000000  -4.460417e+001  -3.299136e+001 
3603125000  -4.493142e+001  -4.707550e+001 
3606250000  -4.616555e+001  -5.514729e+001 
3609375000  -4.600331e+001  -5.513606e+001 
3612500000  -4.594533e+001  -6.523324e+001 
3615625000  -4.619642e+001  -6.871445e+001 
3618750000  -4.610626e+001  -7.310887e+001 
3621875000  -4.581689e+001  -7.855724e+001 
3625000000  -4.570242e+001  -8.116525e+001 
3628125000  -4.488660e+001  -8.728334e+001 
3631250000  -4.531910e+001  -9.747452e+001 
3634375000  -4.561194e+001  -9.816378e+001 
3637500000  -4.433522e+001  -9.969932e+001 
3640625000  -4.375015e+001  -1.078598e+002 
3643750000  -4.317647e+001  -1.186898e+002 
3646875000  -4.384338e+001  -1.298602e+002 
3650000000  -4.413810e+001  -1.335819e+002 
3653125000  -4.331852e+001  -1.432818e+002 
3656250000  -4.419362e+001  -1.479897e+002 
3659375000  -4.367374e+001  -1.523711e+002 
3662500000  -4.353963e+001  -1.612538e+002 
3665625000  -4.345257e+001  -1.650515e+002 
3668750000  -4.196870e+001  -1.677032e+002 
3671875000  -4.170438e+001  1.784614e+002 
3675000000  -4.211579e+001  1.656447e+002 
3678125000  -4.264771e+001  1.625674e+002 
3681250000  -4.240655e+001  1.557790e+002 
3684375000  -4.268951e+001  1.486925e+002 
3687500000  -4.295979e+001  1.401652e+002 
3690625000  -4.363538e+001  1.341354e+002 
3693750000  -4.443695e+001  1.329871e+002 
3696875000  -4.369208e+001  1.312051e+002 
3700000000  -4.326049e+001  1.234289e+002 
3703125000  -4.319891e+001  1.131027e+002 
3706250000  -4.471078e+001  1.113888e+002 
3709375000  -4.399512e+001  1.120019e+002 
3712500000  -4.281802e+001  1.064160e+002 
3715625000  -4.160978e+001  9.517950e+001 
3718750000  -4.148959e+001  8.501991e+001 
3721875000  -4.152359e+001  7.721552e+001 
3725000000  -4.241619e+001  6.884411e+001 
3728125000  -4.218546e+001  6.462450e+001 
3731250000  -4.204153e+001  5.887570e+001 
3734375000  -4.203260e+001  5.050993e+001 
3737500000  -4.250587e+001  4.266758e+001 
3740625000  -4.329382e+001  3.796642e+001 
3743750000  -4.275076e+001  3.123973e+001 
3746875000  -4.328430e+001  2.495995e+001 
3750000000  -4.359797e+001  1.905684e+001 
3753125000  -4.341673e+001  1.825638e+001 
3756250000  -4.348677e+001  1.395530e+001 
3759375000  -4.326265e+001  7.033448e+000 
3762500000  -4.342213e+001  2.735145e+000 
3765625000  -4.367525e+001  -3.258855e+000 
3768750000  -4.321911e+001  -2.101190e-001 
3771875000  -4.220720e+001  -8.918108e+000 
3775000000  -4.205973e+001  -1.880996e+001 
3778125000  -4.240505e+001  -2.559844e+001 
3781250000  -4.245362e+001  -2.827057e+001 
3784375000  -4.254905e+001  -3.829439e+001 
3787500000  -4.241206e+001  -4.225891e+001 
3790625000  -4.307515e+001  -5.064856e+001 
3793750000  -4.280777e+001  -5.469572e+001 
3796875000  -4.157447e+001  -5.983144e+001 
3800000000  -4.086130e+001  -6.710968e+001 
3803125000  -4.143465e+001  -7.839010e+001 
3806250000  -4.225856e+001  -8.194355e+001 
3809375000  -4.188953e+001  -8.921268e+001 
3812500000  -4.190294e+001  -1.001703e+002 
3815625000  -4.281318e+001  -1.092247e+002 
3818750000  -4.437477e+001  -1.063466e+002 
3821875000  -4.347144e+001  -9.677805e+001 
3825000000  -4.116010e+001  -1.058091e+002 
3828125000  -4.036596e+001  -1.258880e+002 
3831250000  -4.150191e+001  -1.425889e+002 
3834375000  -4.371589e+001  -1.438337e+002 
3837500000  -4.410148e+001  -1.400040e+002 
3840625000  -4.242242e+001  -1.466332e+002 
3843750000  -4.145932e+001  -1.604990e+002 
3846875000  -4.337383e+001  -1.663515e+002 
3850000000  -4.441024e+001  -1.613397e+002 
3853125000  -4.358736e+001  -1.624142e+002 
3856250000  -4.290522e+001  -1.734698e+002 
3859375000  -4.252644e+001  -1.799968e+002 
3862500000  -4.216119e+001  1.706253e+002 
3865625000  -4.271856e+001  1.630860e+002 
3868750000  -4.211784e+001  1.605069e+002 
3871875000  -4.178450e+001  1.510170e+002 
3875000000  -4.246629e+001  1.425591e+002 
3878125000  -4.317229e+001  1.414973e+002 
3881250000  -4.336731e+001  1.377481e+002 
3884375000  -4.241100e+001  1.267332e+002 
3887500000  -4.315229e+001  1.219460e+002 
3890625000  -4.380450e+001  1.178939e+002 
3893750000  -4.410442e+001  1.163365e+002 
3896875000  -4.394773e+001  1.122438e+002 
3900000000  -4.411977e+001  1.086677e+002 
3903125000  -4.372014e+001  9.963725e+001 
3906250000  -4.358616e+001  9.742774e+001 
3909375000  -4.262835e+001  8.787850e+001 
3912500000  -4.374930e+001  8.009750e+001 
3915625000  -4.493127e+001  7.953239e+001 
3918750000  -4.418463e+001  7.979700e+001 
3921875000  -4.379626e+001  7.249031e+001 
3925000000  -4.320215e+001  6.359707e+001 
3928125000  -4.304784e+001  5.459064e+001 
3931250000  -4.358479e+001  5.104962e+001 
3934375000  -4.407762e+001  4.804389e+001 
3937500000  -4.468359e+001  4.447104e+001 
3940625000  -4.463338e+001  4.304449e+001 
3943750000  -4.368193e+001  3.663572e+001 
3946875000  -4.260169e+001  2.787604e+001 
3950000000  -4.343548e+001  2.043933e+001 
3953125000  -4.430445e+001  2.394268e+001 
3956250000  -4.283528e+001  1.918862e+001 
3959375000  -4.226479e+001  1.503158e+001 
3962500000  -4.121267e+001  2.281648e+000 
3965625000  -4.184091e+001  -9.473694e+000 
3968750000  -4.250049e+001  -1.463033e+001 
3971875000  -4.258532e+001  -2.143200e+001 
3975000000  -4.182166e+001  -2.478960e+001 
3978125000  -4.236245e+001  -3.380495e+001 
3981250000  -4.179722e+001  -3.919191e+001 
3984375000  -4.272602e+001  -4.814291e+001 
3987500000  -4.331066e+001  -5.282554e+001 
3990625000  -4.321651e+001  -5.730780e+001 
3993750000  -4.258347e+001  -6.201313e+001 
3996875000  -4.294503e+001  -6.824509e+001 
4000000000  -4.323817e+001  -7.256281e+001 
4003125000  -4.375338e+001  -7.127509e+001 
4006250000  -4.203873e+001  -7.989696e+001 
4009375000  -4.132159e+001  -9.568135e+001 
4012500000  -4.295868e+001  -1.033114e+002 
4015625000  -4.400817e+001  -1.025252e+002 
4018750000  -4.367093e+001  -1.092923e+002 
4021875000  -4.288575e+001  -1.164353e+002 
4025000000  -4.315835e+001  -1.214423e+002 
4028125000  -4.335595e+001  -1.287472e+002 
4031250000  -4.395408e+001  -1.371779e+002 
4034375000  -4.377385e+001  -1.384911e+002 
4037500000  -4.429787e+001  -1.414803e+002 
4040625000  -4.425847e+001  -1.483694e+002 
4043750000  -4.473735e+001  -1.505520e+002 
4046875000  -4.382351e+001  -1.573621e+002 
4050000000  -4.402271e+001  -1.635787e+002 
4053125000  -4.499733e+001  -1.652655e+002 
4056250000  -4.556918e+001  -1.611248e+002 
4059375000  -4.375139e+001  -1.644409e+002 
4062500000  -4.374428e+001  -1.743761e+002 
4065625000  -4.361323e+001  -1.779346e+002 
4068750000  -4.307768e+001  1.698714e+002 
4071875000  -4.235441e+001  1.623133e+002 
4075000000  -4.336663e+001  1.543205e+002 
4078125000  -4.413928e+001  1.512307e+002 
4081250000  -4.360842e+001  1.456536e+002 
4084375000  -4.312498e+001  1.354608e+002 
4087500000  -4.371294e+001  1.277455e+002 
4090625000  -4.450355e+001  1.257112e+002 
4093750000  -4.432645e+001  1.263683e+002 
4096875000  -4.381921e+001  1.184906e+002 
4100000000  -4.497665e+001  1.113977e+002 
4103125000  -4.562204e+001  1.137547e+002 
4106250000  -4.468858e+001  1.150381e+002 
4109375000  -4.430039e+001  1.110671e+002 
4112500000  -4.405212e+001  1.005956e+002 
4115625000  -4.421553e+001  9.629583e+001 
4118750000  -4.402947e+001  8.914254e+001 
4121875000  -4.356725e+001  8.022125e+001 
4125000000  -4.450744e+001  7.650340e+001 
4128125000  -4.495750e+001  7.665527e+001 
4131250000  -4.390112e+001  7.930438e+001 
4134375000  -4.126960e+001  7.174314e+001 
4137500000  -4.212942e+001  5.021006e+001 
4140625000  -4.378738e+001  4.310893e+001 
4143750000  -4.463863e+001  4.642962e+001 
4146875000  -4.335303e+001  4.607589e+001 
4150000000  -4.285278e+001  4.073847e+001 
4153125000  -4.315676e+001  2.775427e+001 
4156250000  -4.387032e+001  2.704396e+001 
4159375000  -4.371663e+001  2.927288e+001 
4162500000  -4.221594e+001  2.860476e+001 
4165625000  -4.137436e+001  1.552472e+001 
4168750000  -4.131082e+001  6.027494e+000 
4171875000  -4.101020e+001  -6.968133e+000 
4175000000  -4.171527e+001  -1.337918e+001 
4178125000  -4.230035e+001  -1.837775e+001 
4181250000  -4.208508e+001  -2.359708e+001 
4184375000  -4.231172e+001  -2.925164e+001 
4187500000  -4.209953e+001  -3.610667e+001 
4190625000  -4.275320e+001  -4.590303e+001 
4193750000  -4.391787e+001  -5.203589e+001 
4196875000  -4.497032e+001  -5.636479e+001 
4200000000  -4.600118e+001  -4.853711e+001 
4203125000  -4.393524e+001  -3.728054e+001 
4206250000  -4.101212e+001  -5.094806e+001 
4209375000  -4.133054e+001  -7.550245e+001 
4212500000  -4.398502e+001  -7.721876e+001 
4215625000  -4.432304e+001  -6.859447e+001 
4218750000  -4.244631e+001  -7.393182e+001 
4221875000  -4.088868e+001  -8.252223e+001 
4225000000  -4.238535e+001  -9.737594e+001 
4228125000  -4.203364e+001  -9.641017e+001 
4231250000  -4.077896e+001  -1.039349e+002 
4234375000  -4.082836e+001  -1.144924e+002 
4237500000  -4.076825e+001  -1.209435e+002 
4240625000  -4.110263e+001  -1.320727e+002 
4243750000  -4.254163e+001  -1.379692e+002 
4246875000  -4.291512e+001  -1.394049e+002 
4250000000  -4.279430e+001  -1.405742e+002 
4253125000  -4.247951e+001  -1.417269e+002 
4256250000  -4.232399e+001  -1.516717e+002 
4259375000  -4.216612e+001  -1.592656e+002 
4262500000  -4.242521e+001  -1.584264e+002 
4265625000  -4.228788e+001  -1.625062e+002 
4268750000  -4.065307e+001  -1.703354e+002 
4271875000  -4.064942e+001  -1.790629e+002 
4275000000  -4.007336e+001  1.703282e+002 
4278125000  -4.138921e+001  1.590053e+002 
4281250000  -4.249369e+001  1.596247e+002 
4284375000  -4.213418e+001  1.542310e+002 
4287500000  -4.379028e+001  1.483630e+002 
4290625000  -4.346718e+001  1.579168e+002 
4293750000  -4.152955e+001  1.551758e+002 
4296875000  -4.028798e+001  1.412467e+002 
4300000000  -4.146566e+001  1.313266e+002 
4303125000  -4.165503e+001  1.324217e+002 
4306250000  -4.069563e+001  1.297312e+002 
4309375000  -3.958638e+001  1.181884e+002 
4312500000  -3.991311e+001  1.079924e+002 
4315625000  -3.996848e+001  9.779075e+001 
4318750000  -4.053747e+001  9.445554e+001 
4321875000  -4.062304e+001  9.201693e+001 
4325000000  -4.027569e+001  8.646342e+001 
4328125000  -3.911682e+001  7.600792e+001 
4331250000  -3.974876e+001  6.403029e+001 
4334375000  -4.074446e+001  5.461660e+001 
4337500000  -4.178036e+001  5.492242e+001 
4340625000  -4.208547e+001  5.592110e+001 
4343750000  -4.101995e+001  5.052015e+001 
4346875000  -4.106824e+001  4.113512e+001 
4350000000  -4.100127e+001  3.129281e+001 
4353125000  -4.192089e+001  2.269964e+001 
4356250000  -4.403736e+001  2.678886e+001 
4359375000  -4.285422e+001  3.990192e+001 
4362500000  -3.926977e+001  2.854722e+001 
4365625000  -3.894532e+001  1.036721e+001 
4368750000  -4.028387e+001  1.384472e+000 
4371875000  -4.125575e+001  -1.932814e+000 
4375000000  -4.051540e+001  -4.840532e+000 
4378125000  -4.093462e+001  -1.461222e+001 
4381250000  -4.038169e+001  -2.197939e+001 
4384375000  -4.054295e+001  -2.931078e+001 
4387500000  -4.163050e+001  -3.592359e+001 
4390625000  -4.229466e+001  -4.232546e+001 
4393750000  -4.170335e+001  -4.073474e+001 
4396875000  -4.091150e+001  -4.728033e+001 
4400000000  -4.071642e+001  -5.541274e+001 
4403125000  -4.146214e+001  -6.629945e+001 
4406250000  -4.190500e+001  -6.807709e+001 
4409375000  -4.249176e+001  -7.464912e+001 
4412500000  -4.348418e+001  -7.734592e+001 
4415625000  -4.326014e+001  -7.355760e+001 
4418750000  -4.169791e+001  -7.448145e+001 
