!Agilent Technologies,E8363B,MY43030201,A.06.04.32
!Agilent E8363B: A.06.04.32
!Date: Tuesday, November 11, 2014 21:42:21
!Correction: S21(Response(S21)) 
!S1P File: Measurement: S21:
# Hz S  dB   R 50
3000000000  -4.380705e+001  -1.588440e+002 
3003125000  -4.504917e+001  -1.644154e+002 
3006250000  -4.505434e+001  -1.640431e+002 
3009375000  -4.613624e+001  -1.631129e+002 
3012500000  -4.465790e+001  -1.678935e+002 
3015625000  -4.487281e+001  -1.748617e+002 
3018750000  -4.521812e+001  -1.760814e+002 
3021875000  -4.384545e+001  -1.754476e+002 
3025000000  -4.251765e+001  -1.784975e+002 
3028125000  -4.172691e+001  1.684951e+002 
3031250000  -4.106719e+001  1.548848e+002 
3034375000  -4.078796e+001  1.411590e+002 
3037500000  -4.170373e+001  1.303864e+002 
3040625000  -4.288624e+001  1.231181e+002 
3043750000  -4.346590e+001  1.180629e+002 
3046875000  -4.436251e+001  1.102177e+002 
3050000000  -4.542289e+001  1.060148e+002 
3053125000  -4.451189e+001  1.086068e+002 
3056250000  -4.449926e+001  1.110555e+002 
3059375000  -4.376324e+001  1.084587e+002 
3062500000  -4.232595e+001  1.022188e+002 
3065625000  -4.222659e+001  9.112809e+001 
3068750000  -4.169791e+001  8.431038e+001 
3071875000  -4.168629e+001  8.201134e+001 
3075000000  -4.105468e+001  7.428928e+001 
3078125000  -4.138611e+001  6.653265e+001 
3081250000  -4.141003e+001  6.036446e+001 
3084375000  -4.034790e+001  5.432771e+001 
3087500000  -4.059548e+001  4.551643e+001 
3090625000  -4.017150e+001  3.347530e+001 
3093750000  -4.090172e+001  2.506839e+001 
3096875000  -4.126915e+001  1.829577e+001 
3100000000  -4.104719e+001  1.467503e+001 
3103125000  -4.152407e+001  9.399699e+000 
3106250000  -4.107179e+001  3.638001e+000 
3109375000  -4.081731e+001  5.192581e-003 
3112500000  -4.087990e+001  -8.603790e+000 
3115625000  -4.080686e+001  -1.354012e+001 
3118750000  -4.075672e+001  -1.848291e+001 
3121875000  -4.023447e+001  -3.049852e+001 
3125000000  -4.194923e+001  -3.314052e+001 
3128125000  -4.196746e+001  -2.964420e+001 
3131250000  -3.949487e+001  -3.651288e+001 
3134375000  -3.898852e+001  -5.386481e+001 
3137500000  -3.967177e+001  -6.650937e+001 
3140625000  -4.111164e+001  -7.262895e+001 
3143750000  -4.198566e+001  -7.522713e+001 
3146875000  -4.096164e+001  -7.495902e+001 
3150000000  -4.026886e+001  -7.944658e+001 
3153125000  -4.072213e+001  -8.880957e+001 
3156250000  -4.152544e+001  -8.700220e+001 
3159375000  -3.920217e+001  -8.953792e+001 
3162500000  -3.774635e+001  -1.057801e+002 
3165625000  -3.900777e+001  -1.199184e+002 
3168750000  -3.908609e+001  -1.208456e+002 
3171875000  -3.866070e+001  -1.285457e+002 
3175000000  -3.939146e+001  -1.400924e+002 
3178125000  -3.884085e+001  -1.417166e+002 
3181250000  -3.810297e+001  -1.521512e+002 
3184375000  -3.791095e+001  -1.643557e+002 
3187500000  -3.929917e+001  -1.792838e+002 
3190625000  -4.077047e+001  1.743102e+002 
3193750000  -4.132826e+001  1.766640e+002 
3196875000  -4.109584e+001  1.761207e+002 
3200000000  -3.974508e+001  1.722548e+002 
3203125000  -3.989568e+001  1.630758e+002 
3206250000  -3.976815e+001  1.554841e+002 
3209375000  -3.955356e+001  1.458465e+002 
3212500000  -4.000275e+001  1.383380e+002 
3215625000  -3.987675e+001  1.353925e+002 
3218750000  -4.044940e+001  1.228642e+002 
3221875000  -4.077924e+001  1.163336e+002 
3225000000  -4.044281e+001  1.111727e+002 
3228125000  -4.108446e+001  1.027514e+002 
3231250000  -4.149807e+001  9.935487e+001 
3234375000  -4.120648e+001  9.669492e+001 
3237500000  -4.103632e+001  9.325967e+001 
3240625000  -4.044535e+001  8.524586e+001 
3243750000  -4.042197e+001  7.347713e+001 
3246875000  -4.079390e+001  6.675066e+001 
3250000000  -4.119777e+001  6.134528e+001 
3253125000  -4.129063e+001  5.762520e+001 
3256250000  -4.024570e+001  4.543398e+001 
3259375000  -4.109889e+001  3.245239e+001 
3262500000  -4.241650e+001  3.098116e+001 
3265625000  -4.250666e+001  3.089134e+001 
3268750000  -4.258744e+001  2.890642e+001 
3271875000  -4.163321e+001  2.296118e+001 
3275000000  -4.112649e+001  1.326876e+001 
3278125000  -4.179480e+001  4.582327e+000 
3281250000  -4.196680e+001  2.369927e+000 
3284375000  -4.115043e+001  -5.526130e+000 
3287500000  -4.176253e+001  -1.387162e+001 
3290625000  -4.149315e+001  -2.287737e+001 
3293750000  -4.181156e+001  -3.179351e+001 
3296875000  -4.296885e+001  -3.651431e+001 
3300000000  -4.207490e+001  -3.620251e+001 
3303125000  -4.101719e+001  -4.721407e+001 
3306250000  -4.095101e+001  -5.931825e+001 
3309375000  -4.083967e+001  -6.819707e+001 
3312500000  -4.111586e+001  -8.346022e+001 
3315625000  -4.245486e+001  -8.987027e+001 
3318750000  -4.395065e+001  -9.848029e+001 
3321875000  -4.545863e+001  -9.688150e+001 
3325000000  -4.548894e+001  -9.601328e+001 
3328125000  -4.388405e+001  -9.573650e+001 
3331250000  -4.235730e+001  -9.545661e+001 
3334375000  -4.029895e+001  -1.161484e+002 
3337500000  -4.095050e+001  -1.385328e+002 
3340625000  -4.302470e+001  -1.485640e+002 
3343750000  -4.480837e+001  -1.495282e+002 
3346875000  -4.419423e+001  -1.545353e+002 
3350000000  -4.372304e+001  -1.568885e+002 
3353125000  -4.377980e+001  -1.692333e+002 
3356250000  -4.358629e+001  1.798706e+002 
3359375000  -4.460214e+001  1.681181e+002 
3362500000  -4.529935e+001  1.592871e+002 
3365625000  -4.589226e+001  1.560783e+002 
3368750000  -4.624808e+001  1.488121e+002 
3371875000  -4.733572e+001  1.437251e+002 
3375000000  -4.908901e+001  1.322539e+002 
3378125000  -4.956892e+001  1.331689e+002 
3381250000  -5.111500e+001  1.462943e+002 
3384375000  -4.725012e+001  1.549454e+002 
3387500000  -4.518575e+001  1.276120e+002 
3390625000  -4.686578e+001  1.093927e+002 
3393750000  -4.782882e+001  1.059067e+002 
3396875000  -4.649610e+001  1.021305e+002 
3400000000  -4.653534e+001  9.164870e+001 
3403125000  -4.703151e+001  8.265455e+001 
3406250000  -4.792788e+001  7.344015e+001 
3409375000  -4.799197e+001  6.263051e+001 
3412500000  -4.795754e+001  5.573156e+001 
3415625000  -4.910773e+001  5.398550e+001 
3418750000  -4.878576e+001  4.793129e+001 
3421875000  -4.938842e+001  4.393662e+001 
3425000000  -4.819707e+001  3.904355e+001 
3428125000  -4.718176e+001  2.916800e+001 
3431250000  -4.685130e+001  1.619611e+001 
3434375000  -4.699554e+001  3.206630e+000 
3437500000  -4.754270e+001  -4.184441e+000 
3440625000  -4.785529e+001  -8.049298e+000 
3443750000  -4.654965e+001  -1.136262e+001 
3446875000  -4.561910e+001  -2.495310e+001 
3450000000  -4.534680e+001  -4.111992e+001 
3453125000  -4.552505e+001  -5.734229e+001 
3456250000  -4.717674e+001  -6.702617e+001 
3459375000  -4.844792e+001  -6.948091e+001 
3462500000  -4.788649e+001  -7.608405e+001 
3465625000  -4.729908e+001  -8.341556e+001 
3468750000  -4.737598e+001  -9.334343e+001 
3471875000  -4.722696e+001  -1.025045e+002 
3475000000  -4.687646e+001  -1.142180e+002 
3478125000  -4.776304e+001  -1.269306e+002 
3481250000  -4.898067e+001  -1.323625e+002 
3484375000  -4.882715e+001  -1.305908e+002 
3487500000  -4.772996e+001  -1.400641e+002 
3490625000  -4.672591e+001  -1.511901e+002 
3493750000  -4.786478e+001  -1.636642e+002 
3496875000  -4.825196e+001  -1.688929e+002 
3500000000  -4.786207e+001  -1.701359e+002 
3503125000  -4.718890e+001  -1.719834e+002 
3506250000  -4.559557e+001  1.732887e+002 
3509375000  -4.490283e+001  1.548201e+002 
3512500000  -4.588914e+001  1.407531e+002 
3515625000  -4.695677e+001  1.336672e+002 
3518750000  -4.762801e+001  1.325073e+002 
3521875000  -4.795264e+001  1.199504e+002 
3525000000  -4.860289e+001  1.138501e+002 
3528125000  -4.758689e+001  1.174600e+002 
3531250000  -4.649526e+001  1.074683e+002 
3534375000  -4.712480e+001  9.023534e+001 
3537500000  -4.801378e+001  8.174040e+001 
3540625000  -4.913552e+001  8.008707e+001 
3543750000  -4.969965e+001  8.451331e+001 
3546875000  -4.867020e+001  8.438134e+001 
3550000000  -4.681304e+001  7.774117e+001 
3553125000  -4.585496e+001  5.654588e+001 
3556250000  -4.782821e+001  5.118555e+001 
3559375000  -4.621214e+001  4.650588e+001 
3562500000  -4.657064e+001  3.599181e+001 
3565625000  -4.708197e+001  2.704037e+001 
3568750000  -4.763784e+001  2.972429e+001 
3571875000  -4.742782e+001  2.475465e+001 
3575000000  -4.699586e+001  1.350346e+001 
3578125000  -4.750454e+001  1.122835e+001 
3581250000  -4.760070e+001  5.679734e+000 
3584375000  -4.589255e+001  2.793578e+000 
3587500000  -4.542073e+001  -9.770905e+000 
3590625000  -4.622460e+001  -1.979206e+001 
3593750000  -4.814012e+001  -2.410318e+001 
3596875000  -4.696241e+001  -1.706783e+001 
3600000000  -4.449886e+001  -3.021683e+001 
3603125000  -4.533841e+001  -4.433853e+001 
3606250000  -4.626023e+001  -4.976408e+001 
3609375000  -4.626639e+001  -5.274530e+001 
3612500000  -4.559698e+001  -6.110916e+001 
3615625000  -4.581095e+001  -6.369385e+001 
3618750000  -4.598822e+001  -6.815314e+001 
3621875000  -4.546210e+001  -7.304637e+001 
3625000000  -4.577810e+001  -7.685319e+001 
3628125000  -4.461188e+001  -8.227353e+001 
3631250000  -4.520841e+001  -9.512569e+001 
3634375000  -4.581549e+001  -9.409363e+001 
3637500000  -4.446405e+001  -9.703925e+001 
3640625000  -4.373257e+001  -1.022347e+002 
3643750000  -4.335751e+001  -1.146454e+002 
3646875000  -4.389632e+001  -1.256169e+002 
3650000000  -4.386981e+001  -1.304980e+002 
3653125000  -4.324443e+001  -1.370747e+002 
3656250000  -4.387406e+001  -1.454597e+002 
3659375000  -4.369574e+001  -1.486527e+002 
3662500000  -4.369959e+001  -1.561776e+002 
3665625000  -4.344751e+001  -1.601584e+002 
3668750000  -4.205626e+001  -1.629468e+002 
3671875000  -4.150127e+001  -1.775706e+002 
3675000000  -4.233338e+001  1.708239e+002 
3678125000  -4.262620e+001  1.674283e+002 
3681250000  -4.258702e+001  1.596414e+002 
3684375000  -4.260924e+001  1.519467e+002 
3687500000  -4.289515e+001  1.423425e+002 
3690625000  -4.360133e+001  1.356150e+002 
3693750000  -4.467894e+001  1.365136e+002 
3696875000  -4.370271e+001  1.320248e+002 
3700000000  -4.284382e+001  1.248757e+002 
3703125000  -4.370848e+001  1.165893e+002 
3706250000  -4.488736e+001  1.166694e+002 
3709375000  -4.368107e+001  1.157660e+002 
3712500000  -4.294619e+001  1.091889e+002 
3715625000  -4.181919e+001  9.934848e+001 
3718750000  -4.176680e+001  9.019621e+001 
3721875000  -4.178836e+001  8.162308e+001 
3725000000  -4.257440e+001  7.287955e+001 
3728125000  -4.272711e+001  7.009088e+001 
3731250000  -4.177954e+001  6.422694e+001 
3734375000  -4.178511e+001  5.646177e+001 
3737500000  -4.274896e+001  4.654924e+001 
3740625000  -4.357470e+001  3.995629e+001 
3743750000  -4.294567e+001  3.572164e+001 
3746875000  -4.351236e+001  2.990245e+001 
3750000000  -4.363486e+001  2.529455e+001 
3753125000  -4.406953e+001  2.345057e+001 
3756250000  -4.396365e+001  1.797133e+001 
3759375000  -4.406269e+001  1.264079e+001 
3762500000  -4.367726e+001  9.714328e+000 
3765625000  -4.473304e+001  1.632442e+000 
3768750000  -4.401888e+001  2.690078e+000 
3771875000  -4.211952e+001  -2.815772e+000 
3775000000  -4.216463e+001  -1.638872e+001 
3778125000  -4.259258e+001  -2.204180e+001 
3781250000  -4.250045e+001  -2.725061e+001 
3784375000  -4.259736e+001  -3.292567e+001 
3787500000  -4.249282e+001  -3.720599e+001 
3790625000  -4.271544e+001  -4.606173e+001 
3793750000  -4.298142e+001  -5.050455e+001 
3796875000  -4.183897e+001  -5.502315e+001 
3800000000  -4.097094e+001  -6.225373e+001 
3803125000  -4.172105e+001  -7.472978e+001 
3806250000  -4.236843e+001  -7.871309e+001 
3809375000  -4.212891e+001  -8.334055e+001 
3812500000  -4.179427e+001  -9.597865e+001 
3815625000  -4.310560e+001  -1.063820e+002 
3818750000  -4.419548e+001  -1.034048e+002 
3821875000  -4.380125e+001  -9.403320e+001 
3825000000  -4.134431e+001  -9.954246e+001 
3828125000  -4.023306e+001  -1.202040e+002 
3831250000  -4.152593e+001  -1.371531e+002 
3834375000  -4.370663e+001  -1.383779e+002 
3837500000  -4.424919e+001  -1.334046e+002 
3840625000  -4.273738e+001  -1.394836e+002 
3843750000  -4.171573e+001  -1.551054e+002 
3846875000  -4.339082e+001  -1.634765e+002 
3850000000  -4.423891e+001  -1.557942e+002 
3853125000  -4.321968e+001  -1.582780e+002 
3856250000  -4.303156e+001  -1.680917e+002 
3859375000  -4.271351e+001  -1.765860e+002 
3862500000  -4.246975e+001  1.725824e+002 
3865625000  -4.284438e+001  1.673123e+002 
3868750000  -4.224726e+001  1.651629e+002 
3871875000  -4.168234e+001  1.572952e+002 
3875000000  -4.274766e+001  1.437249e+002 
3878125000  -4.347196e+001  1.448352e+002 
3881250000  -4.359066e+001  1.420791e+002 
3884375000  -4.242426e+001  1.333929e+002 
3887500000  -4.344616e+001  1.257604e+002 
3890625000  -4.445121e+001  1.201288e+002 
3893750000  -4.427959e+001  1.182717e+002 
3896875000  -4.450268e+001  1.174876e+002 
3900000000  -4.418252e+001  1.094861e+002 
3903125000  -4.419550e+001  1.050177e+002 
3906250000  -4.376923e+001  1.016455e+002 
3909375000  -4.276591e+001  9.425620e+001 
3912500000  -4.398378e+001  8.299015e+001 
3915625000  -4.482955e+001  8.264922e+001 
3918750000  -4.494844e+001  8.394978e+001 
3921875000  -4.396288e+001  7.887479e+001 
3925000000  -4.327909e+001  7.013707e+001 
3928125000  -4.270060e+001  6.092037e+001 
3931250000  -4.388911e+001  5.344038e+001 
3934375000  -4.395050e+001  5.330112e+001 
3937500000  -4.451987e+001  4.828548e+001 
3940625000  -4.479605e+001  4.805866e+001 
3943750000  -4.323047e+001  4.100491e+001 
3946875000  -4.279195e+001  3.590121e+001 
3950000000  -4.398168e+001  2.578631e+001 
3953125000  -4.462901e+001  2.696951e+001 
3956250000  -4.328053e+001  2.107474e+001 
3959375000  -4.222145e+001  1.639207e+001 
3962500000  -4.139184e+001  5.314675e+000 
3965625000  -4.195875e+001  -4.608568e+000 
3968750000  -4.253383e+001  -1.193394e+001 
3971875000  -4.270835e+001  -1.969050e+001 
3975000000  -4.203454e+001  -2.173516e+001 
3978125000  -4.223516e+001  -2.834363e+001 
3981250000  -4.234964e+001  -3.602686e+001 
3984375000  -4.242950e+001  -4.333649e+001 
3987500000  -4.324757e+001  -4.830790e+001 
3990625000  -4.316259e+001  -5.123744e+001 
3993750000  -4.319458e+001  -5.949524e+001 
3996875000  -4.307080e+001  -6.257985e+001 
4000000000  -4.354491e+001  -6.854899e+001 
4003125000  -4.409649e+001  -7.045242e+001 
4006250000  -4.246114e+001  -7.351227e+001 
4009375000  -4.143223e+001  -9.089915e+001 
4012500000  -4.308456e+001  -9.780762e+001 
4015625000  -4.446269e+001  -9.994118e+001 
4018750000  -4.383622e+001  -1.028660e+002 
4021875000  -4.311627e+001  -1.102058e+002 
4025000000  -4.306659e+001  -1.174426e+002 
4028125000  -4.345786e+001  -1.286952e+002 
4031250000  -4.419470e+001  -1.331283e+002 
4034375000  -4.471178e+001  -1.354539e+002 
4037500000  -4.451184e+001  -1.376116e+002 
4040625000  -4.441613e+001  -1.420579e+002 
4043750000  -4.476620e+001  -1.465195e+002 
4046875000  -4.430419e+001  -1.538710e+002 
4050000000  -4.436658e+001  -1.570684e+002 
4053125000  -4.542537e+001  -1.615895e+002 
4056250000  -4.637576e+001  -1.575031e+002 
4059375000  -4.379433e+001  -1.615566e+002 
4062500000  -4.339318e+001  -1.703234e+002 
4065625000  -4.404218e+001  -1.758983e+002 
4068750000  -4.358662e+001  1.752077e+002 
4071875000  -4.289341e+001  1.642776e+002 
4075000000  -4.390364e+001  1.594907e+002 
4078125000  -4.447884e+001  1.545992e+002 
4081250000  -4.384258e+001  1.499491e+002 
4084375000  -4.387593e+001  1.429193e+002 
4087500000  -4.439475e+001  1.358501e+002 
4090625000  -4.508047e+001  1.317439e+002 
4093750000  -4.512173e+001  1.295147e+002 
4096875000  -4.455069e+001  1.180571e+002 
4100000000  -4.611872e+001  1.162806e+002 
4103125000  -4.626266e+001  1.174295e+002 
4106250000  -4.562070e+001  1.188757e+002 
4109375000  -4.489849e+001  1.163465e+002 
4112500000  -4.463138e+001  1.069082e+002 
4115625000  -4.435754e+001  1.000466e+002 
4118750000  -4.437127e+001  9.605153e+001 
4121875000  -4.388401e+001  8.573531e+001 
4125000000  -4.528390e+001  8.223887e+001 
4128125000  -4.542328e+001  8.335493e+001 
4131250000  -4.430489e+001  8.745329e+001 
4134375000  -4.184111e+001  7.577909e+001 
4137500000  -4.197579e+001  5.713615e+001 
4140625000  -4.420197e+001  4.701024e+001 
4143750000  -4.478493e+001  5.116454e+001 
4146875000  -4.417942e+001  5.072269e+001 
4150000000  -4.302836e+001  4.455253e+001 
4153125000  -4.369322e+001  3.527708e+001 
4156250000  -4.428339e+001  2.897350e+001 
4159375000  -4.430336e+001  3.236272e+001 
4162500000  -4.274335e+001  3.013043e+001 
4165625000  -4.175146e+001  2.293183e+001 
4168750000  -4.123755e+001  1.156833e+001 
4171875000  -4.166591e+001  -1.394939e+000 
4175000000  -4.247184e+001  -9.413129e+000 
4178125000  -4.273290e+001  -1.335763e+001 
4181250000  -4.234988e+001  -1.836563e+001 
4184375000  -4.290964e+001  -2.313260e+001 
4187500000  -4.249465e+001  -3.062971e+001 
4190625000  -4.310423e+001  -4.181731e+001 
4193750000  -4.438160e+001  -4.627743e+001 
4196875000  -4.537115e+001  -4.839119e+001 
4200000000  -4.630463e+001  -4.123870e+001 
4203125000  -4.453902e+001  -3.303087e+001 
4206250000  -4.139722e+001  -4.249803e+001 
4209375000  -4.176902e+001  -6.913894e+001 
4212500000  -4.425115e+001  -7.249196e+001 
4215625000  -4.505254e+001  -6.708245e+001 
4218750000  -4.259613e+001  -6.946493e+001 
4221875000  -4.164782e+001  -7.868434e+001 
4225000000  -4.296504e+001  -8.858015e+001 
4228125000  -4.268436e+001  -8.878097e+001 
4231250000  -4.134063e+001  -9.941637e+001 
4234375000  -4.094258e+001  -1.096050e+002 
4237500000  -4.119003e+001  -1.135121e+002 
4240625000  -4.164694e+001  -1.248630e+002 
4243750000  -4.306687e+001  -1.340997e+002 
4246875000  -4.359682e+001  -1.347646e+002 
4250000000  -4.303973e+001  -1.342279e+002 
4253125000  -4.287072e+001  -1.386768e+002 
4256250000  -4.293739e+001  -1.453125e+002 
4259375000  -4.263821e+001  -1.499484e+002 
4262500000  -4.235083e+001  -1.553628e+002 
4265625000  -4.243333e+001  -1.541495e+002 
4268750000  -4.117109e+001  -1.646955e+002 
4271875000  -4.154691e+001  -1.727314e+002 
4275000000  -4.087001e+001  1.760615e+002 
4278125000  -4.211600e+001  1.670030e+002 
4281250000  -4.310181e+001  1.631237e+002 
4284375000  -4.268459e+001  1.596461e+002 
4287500000  -4.407919e+001  1.575768e+002 
4290625000  -4.410535e+001  1.634795e+002 
4293750000  -4.204158e+001  1.599113e+002 
4296875000  -4.071153e+001  1.458091e+002 
4300000000  -4.196497e+001  1.369685e+002 
4303125000  -4.274039e+001  1.379770e+002 
4306250000  -4.153993e+001  1.375003e+002 
4309375000  -4.028996e+001  1.260457e+002 
4312500000  -4.031089e+001  1.135965e+002 
4315625000  -4.072759e+001  1.047773e+002 
4318750000  -4.133854e+001  1.008054e+002 
4321875000  -4.112720e+001  9.685359e+001 
4325000000  -4.071782e+001  9.472359e+001 
4328125000  -3.995004e+001  8.166882e+001 
4331250000  -4.027617e+001  7.145196e+001 
4334375000  -4.130546e+001  6.090844e+001 
4337500000  -4.239090e+001  6.094919e+001 
4340625000  -4.269515e+001  6.219139e+001 
4343750000  -4.163807e+001  5.730674e+001 
4346875000  -4.142030e+001  4.404592e+001 
4350000000  -4.168679e+001  3.819643e+001 
4353125000  -4.230806e+001  3.090679e+001 
4356250000  -4.412726e+001  3.473639e+001 
4359375000  -4.319619e+001  4.684162e+001 
4362500000  -4.029062e+001  3.380567e+001 
4365625000  -3.959465e+001  1.833842e+001 
4368750000  -4.124607e+001  9.047965e+000 
4371875000  -4.173315e+001  4.375724e+000 
4375000000  -4.127184e+001  -1.375150e+000 
4378125000  -4.086347e+001  -8.057890e+000 
4381250000  -4.142202e+001  -1.588972e+001 
4384375000  -4.158129e+001  -2.389252e+001 
4387500000  -4.182477e+001  -3.085515e+001 
4390625000  -4.273581e+001  -3.408141e+001 
4393750000  -4.236699e+001  -3.547453e+001 
4396875000  -4.139272e+001  -3.779219e+001 
4400000000  -4.114453e+001  -4.972282e+001 
4403125000  -4.189710e+001  -5.895025e+001 
4406250000  -4.278710e+001  -6.245858e+001 
4409375000  -4.301575e+001  -6.772186e+001 
4412500000  -4.379430e+001  -6.903270e+001 
4415625000  -4.345889e+001  -6.818546e+001 
4418750000  -4.257085e+001  -6.906705e+001 
