!Agilent Technologies,E8363B,MY43030201,A.06.04.32
!Agilent E8363B: A.06.04.32
!Date: Tuesday, November 11, 2014 21:45:28
!Correction: S21(Response(S21)) 
!S1P File: Measurement: S21:
# Hz S  dB   R 50
3000000000  -4.373171e+001  -1.616359e+002 
3003125000  -4.527403e+001  -1.661378e+002 
3006250000  -4.524128e+001  -1.679176e+002 
3009375000  -4.649358e+001  -1.663036e+002 
3012500000  -4.503980e+001  -1.702061e+002 
3015625000  -4.507529e+001  -1.778498e+002 
3018750000  -4.530409e+001  -1.790927e+002 
3021875000  -4.402246e+001  -1.790186e+002 
3025000000  -4.258282e+001  1.780773e+002 
3028125000  -4.187247e+001  1.649242e+002 
3031250000  -4.090759e+001  1.534152e+002 
3034375000  -4.082865e+001  1.378411e+002 
3037500000  -4.168438e+001  1.280683e+002 
3040625000  -4.289045e+001  1.219968e+002 
3043750000  -4.331530e+001  1.150357e+002 
3046875000  -4.433650e+001  1.079563e+002 
3050000000  -4.520000e+001  1.030404e+002 
3053125000  -4.510576e+001  1.052440e+002 
3056250000  -4.462546e+001  1.094415e+002 
3059375000  -4.373167e+001  1.045449e+002 
3062500000  -4.278330e+001  1.008920e+002 
3065625000  -4.227783e+001  8.910078e+001 
3068750000  -4.186684e+001  8.229828e+001 
3071875000  -4.175705e+001  8.000033e+001 
3075000000  -4.127745e+001  7.093244e+001 
3078125000  -4.114331e+001  6.444706e+001 
3081250000  -4.129618e+001  5.740013e+001 
3084375000  -4.051725e+001  5.226123e+001 
3087500000  -4.071972e+001  4.432492e+001 
3090625000  -3.997440e+001  3.128012e+001 
3093750000  -4.108434e+001  2.155777e+001 
3096875000  -4.125323e+001  1.721943e+001 
3100000000  -4.113039e+001  1.225248e+001 
3103125000  -4.133735e+001  7.312769e+000 
3106250000  -4.119424e+001  1.096462e+000 
3109375000  -4.110691e+001  -2.709521e+000 
3112500000  -4.084478e+001  -9.328398e+000 
3115625000  -4.095288e+001  -1.522346e+001 
3118750000  -4.080417e+001  -1.983061e+001 
3121875000  -4.018125e+001  -3.210827e+001 
3125000000  -4.205019e+001  -3.654587e+001 
3128125000  -4.203403e+001  -2.981333e+001 
3131250000  -3.938787e+001  -3.814109e+001 
3134375000  -3.888509e+001  -5.653262e+001 
3137500000  -3.958649e+001  -7.038680e+001 
3140625000  -4.099414e+001  -7.530003e+001 
3143750000  -4.165443e+001  -7.715875e+001 
3146875000  -4.115543e+001  -7.675495e+001 
3150000000  -4.034929e+001  -8.110313e+001 
3153125000  -4.052996e+001  -9.060665e+001 
3156250000  -4.140099e+001  -8.890786e+001 
3159375000  -3.914441e+001  -9.147592e+001 
3162500000  -3.763005e+001  -1.072137e+002 
3165625000  -3.891728e+001  -1.224021e+002 
3168750000  -3.908901e+001  -1.238918e+002 
3171875000  -3.850597e+001  -1.315821e+002 
3175000000  -3.922152e+001  -1.417154e+002 
3178125000  -3.859167e+001  -1.445447e+002 
3181250000  -3.800114e+001  -1.533267e+002 
3184375000  -3.787860e+001  -1.659825e+002 
3187500000  -3.911539e+001  1.781810e+002 
3190625000  -4.074594e+001  1.714331e+002 
3193750000  -4.125875e+001  1.747422e+002 
3196875000  -4.122465e+001  1.738258e+002 
3200000000  -3.989050e+001  1.702088e+002 
3203125000  -3.966444e+001  1.616572e+002 
3206250000  -3.990840e+001  1.515710e+002 
3209375000  -3.944815e+001  1.437052e+002 
3212500000  -4.003256e+001  1.357287e+002 
3215625000  -3.966623e+001  1.336371e+002 
3218750000  -4.035678e+001  1.205801e+002 
3221875000  -4.073423e+001  1.139857e+002 
3225000000  -4.033457e+001  1.092800e+002 
3228125000  -4.126852e+001  1.012824e+002 
3231250000  -4.135564e+001  9.911330e+001 
3234375000  -4.110433e+001  9.400219e+001 
3237500000  -4.092593e+001  8.983643e+001 
3240625000  -4.032744e+001  8.290112e+001 
3243750000  -4.032668e+001  7.076933e+001 
3246875000  -4.060501e+001  6.472450e+001 
3250000000  -4.111742e+001  6.008800e+001 
3253125000  -4.109316e+001  5.488536e+001 
3256250000  -4.020915e+001  4.545097e+001 
3259375000  -4.106961e+001  3.269900e+001 
3262500000  -4.223436e+001  2.647124e+001 
3265625000  -4.244874e+001  2.919232e+001 
3268750000  -4.257791e+001  2.853289e+001 
3271875000  -4.156405e+001  2.179913e+001 
3275000000  -4.123561e+001  1.053611e+001 
3278125000  -4.179486e+001  4.829134e+000 
3281250000  -4.191501e+001  -7.439537e-001 
3284375000  -4.107537e+001  -8.026853e+000 
3287500000  -4.161800e+001  -1.465010e+001 
3290625000  -4.152160e+001  -2.557230e+001 
3293750000  -4.166157e+001  -3.302745e+001 
3296875000  -4.263723e+001  -3.664190e+001 
3300000000  -4.190610e+001  -3.994297e+001 
3303125000  -4.105547e+001  -4.996283e+001 
3306250000  -4.114199e+001  -5.953078e+001 
3309375000  -4.063520e+001  -6.970987e+001 
3312500000  -4.110456e+001  -8.558179e+001 
3315625000  -4.262294e+001  -9.533521e+001 
3318750000  -4.396972e+001  -9.895520e+001 
3321875000  -4.529754e+001  -9.969373e+001 
3325000000  -4.503149e+001  -9.427868e+001 
3328125000  -4.400875e+001  -9.773306e+001 
3331250000  -4.233356e+001  -9.854351e+001 
3334375000  -4.025328e+001  -1.184175e+002 
3337500000  -4.077293e+001  -1.415541e+002 
3340625000  -4.293147e+001  -1.503621e+002 
3343750000  -4.466235e+001  -1.522601e+002 
3346875000  -4.445427e+001  -1.583324e+002 
3350000000  -4.407008e+001  -1.611793e+002 
3353125000  -4.387593e+001  -1.695146e+002 
3356250000  -4.331568e+001  -1.794822e+002 
3359375000  -4.452169e+001  1.667621e+002 
3362500000  -4.520073e+001  1.570114e+002 
3365625000  -4.567913e+001  1.541874e+002 
3368750000  -4.643090e+001  1.464199e+002 
3371875000  -4.704048e+001  1.394518e+002 
3375000000  -4.871849e+001  1.335686e+002 
3378125000  -4.886957e+001  1.310246e+002 
3381250000  -5.017787e+001  1.436812e+002 
3384375000  -4.749210e+001  1.509024e+002 
3387500000  -4.480247e+001  1.273772e+002 
3390625000  -4.678804e+001  1.018266e+002 
3393750000  -4.801577e+001  1.038855e+002 
3396875000  -4.623383e+001  9.892998e+001 
3400000000  -4.620619e+001  8.544302e+001 
3403125000  -4.695676e+001  8.135387e+001 
3406250000  -4.781230e+001  7.339601e+001 
3409375000  -4.761009e+001  6.300092e+001 
3412500000  -4.768026e+001  5.506602e+001 
3415625000  -4.892424e+001  4.946223e+001 
3418750000  -4.858474e+001  4.304725e+001 
3421875000  -4.893545e+001  4.071916e+001 
3425000000  -4.777251e+001  3.466040e+001 
3428125000  -4.728064e+001  2.872244e+001 
3431250000  -4.670976e+001  1.512300e+001 
3434375000  -4.696848e+001  2.300572e+000 
3437500000  -4.789515e+001  -1.898358e+000 
3440625000  -4.781510e+001  -7.337345e+000 
3443750000  -4.681789e+001  -1.154418e+001 
3446875000  -4.586821e+001  -2.758772e+001 
3450000000  -4.554975e+001  -4.500171e+001 
3453125000  -4.596866e+001  -6.134248e+001 
3456250000  -4.694220e+001  -7.230301e+001 
3459375000  -4.817883e+001  -7.372396e+001 
3462500000  -4.851305e+001  -7.443892e+001 
3465625000  -4.749522e+001  -8.986340e+001 
3468750000  -4.767652e+001  -9.738564e+001 
3471875000  -4.708782e+001  -1.040011e+002 
3475000000  -4.685174e+001  -1.178581e+002 
3478125000  -4.773032e+001  -1.326178e+002 
3481250000  -4.911863e+001  -1.330288e+002 
3484375000  -4.850063e+001  -1.356817e+002 
3487500000  -4.712627e+001  -1.422703e+002 
3490625000  -4.711400e+001  -1.523661e+002 
3493750000  -4.827080e+001  -1.680725e+002 
3496875000  -4.827061e+001  -1.731324e+002 
3500000000  -4.788347e+001  -1.714512e+002 
3503125000  -4.728310e+001  -1.770629e+002 
3506250000  -4.535766e+001  1.702357e+002 
3509375000  -4.530612e+001  1.539562e+002 
3512500000  -4.634036e+001  1.380644e+002 
3515625000  -4.729670e+001  1.309210e+002 
3518750000  -4.780452e+001  1.279642e+002 
3521875000  -4.801109e+001  1.191603e+002 
3525000000  -4.855464e+001  1.175556e+002 
3528125000  -4.734903e+001  1.158110e+002 
3531250000  -4.688873e+001  1.065519e+002 
3534375000  -4.640994e+001  8.954202e+001 
3537500000  -4.787022e+001  7.740097e+001 
3540625000  -4.879294e+001  7.722343e+001 
3543750000  -4.945431e+001  7.849764e+001 
3546875000  -4.864190e+001  8.086193e+001 
3550000000  -4.673207e+001  7.360295e+001 
3553125000  -4.589803e+001  5.491254e+001 
3556250000  -4.727267e+001  4.463149e+001 
3559375000  -4.653769e+001  4.325247e+001 
3562500000  -4.646663e+001  3.142418e+001 
3565625000  -4.748013e+001  2.400956e+001 
3568750000  -4.741906e+001  2.600413e+001 
3571875000  -4.719006e+001  1.868577e+001 
3575000000  -4.699239e+001  1.089582e+001 
3578125000  -4.811417e+001  1.042343e+001 
3581250000  -4.752266e+001  4.591632e+000 
3584375000  -4.604393e+001  -3.336451e+000 
3587500000  -4.573459e+001  -1.243050e+001 
3590625000  -4.664159e+001  -2.254341e+001 
3593750000  -4.781037e+001  -2.568690e+001 
3596875000  -4.690464e+001  -2.021890e+001 
3600000000  -4.464669e+001  -3.226105e+001 
3603125000  -4.503299e+001  -4.662452e+001 
3606250000  -4.586842e+001  -5.114108e+001 
3609375000  -4.652221e+001  -5.830394e+001 
3612500000  -4.589749e+001  -6.377540e+001 
3615625000  -4.608362e+001  -6.928772e+001 
3618750000  -4.625167e+001  -7.036899e+001 
3621875000  -4.582037e+001  -7.815588e+001 
3625000000  -4.528212e+001  -8.057786e+001 
3628125000  -4.468911e+001  -8.831902e+001 
3631250000  -4.511099e+001  -9.699850e+001 
3634375000  -4.551593e+001  -9.879352e+001 
3637500000  -4.436424e+001  -9.701995e+001 
3640625000  -4.345971e+001  -1.068319e+002 
3643750000  -4.300246e+001  -1.191304e+002 
3646875000  -4.378584e+001  -1.294969e+002 
3650000000  -4.394555e+001  -1.319458e+002 
3653125000  -4.350330e+001  -1.433208e+002 
3656250000  -4.363123e+001  -1.487716e+002 
3659375000  -4.371017e+001  -1.541238e+002 
3662500000  -4.375639e+001  -1.605231e+002 
3665625000  -4.332553e+001  -1.627389e+002 
3668750000  -4.210553e+001  -1.675670e+002 
3671875000  -4.162663e+001  1.771298e+002 
3675000000  -4.174127e+001  1.683412e+002 
3678125000  -4.249067e+001  1.629112e+002 
3681250000  -4.240203e+001  1.576337e+002 
3684375000  -4.256674e+001  1.499872e+002 
3687500000  -4.309225e+001  1.419833e+002 
3690625000  -4.345193e+001  1.335243e+002 
3693750000  -4.434795e+001  1.319881e+002 
3696875000  -4.366760e+001  1.306485e+002 
3700000000  -4.302855e+001  1.219920e+002 
3703125000  -4.367945e+001  1.169823e+002 
3706250000  -4.445100e+001  1.112028e+002 
3709375000  -4.392760e+001  1.123991e+002 
3712500000  -4.266385e+001  1.042058e+002 
3715625000  -4.153699e+001  9.371730e+001 
3718750000  -4.152946e+001  8.488947e+001 
3721875000  -4.185935e+001  7.662654e+001 
3725000000  -4.246933e+001  6.795358e+001 
3728125000  -4.234478e+001  6.622615e+001 
3731250000  -4.176382e+001  5.832936e+001 
3734375000  -4.232603e+001  5.378058e+001 
3737500000  -4.269836e+001  4.322123e+001 
3740625000  -4.330313e+001  3.820650e+001 
3743750000  -4.282986e+001  3.037605e+001 
3746875000  -4.333420e+001  2.437482e+001 
3750000000  -4.365833e+001  1.761813e+001 
3753125000  -4.383688e+001  1.846887e+001 
3756250000  -4.378376e+001  1.430091e+001 
3759375000  -4.342008e+001  8.038404e+000 
3762500000  -4.314514e+001  3.350267e+000 
3765625000  -4.389162e+001  -3.115961e+000 
3768750000  -4.382040e+001  6.333054e-001 
3771875000  -4.223225e+001  -6.581757e+000 
3775000000  -4.231526e+001  -2.044997e+001 
3778125000  -4.264525e+001  -2.499816e+001 
3781250000  -4.266933e+001  -2.971879e+001 
3784375000  -4.251402e+001  -3.650583e+001 
3787500000  -4.208548e+001  -3.911977e+001 
3790625000  -4.296902e+001  -5.302103e+001 
3793750000  -4.278814e+001  -5.322902e+001 
3796875000  -4.152159e+001  -5.880275e+001 
3800000000  -4.079317e+001  -6.529906e+001 
3803125000  -4.159596e+001  -8.021434e+001 
3806250000  -4.250124e+001  -8.332386e+001 
3809375000  -4.163943e+001  -8.862475e+001 
3812500000  -4.180500e+001  -9.879810e+001 
3815625000  -4.331235e+001  -1.084643e+002 
3818750000  -4.437847e+001  -1.090467e+002 
3821875000  -4.381162e+001  -9.790647e+001 
3825000000  -4.144062e+001  -1.043186e+002 
3828125000  -4.050756e+001  -1.252802e+002 
3831250000  -4.152673e+001  -1.415124e+002 
3834375000  -4.342631e+001  -1.408397e+002 
3837500000  -4.379365e+001  -1.384741e+002 
3840625000  -4.242233e+001  -1.443585e+002 
3843750000  -4.206945e+001  -1.598681e+002 
3846875000  -4.335755e+001  -1.655858e+002 
3850000000  -4.383759e+001  -1.601935e+002 
3853125000  -4.324166e+001  -1.615462e+002 
3856250000  -4.290975e+001  -1.705444e+002 
3859375000  -4.211762e+001  -1.791985e+002 
3862500000  -4.222255e+001  1.702394e+002 
3865625000  -4.261940e+001  1.619130e+002 
3868750000  -4.247947e+001  1.629143e+002 
3871875000  -4.177683e+001  1.532197e+002 
3875000000  -4.268156e+001  1.411625e+002 
3878125000  -4.344762e+001  1.394441e+002 
3881250000  -4.324373e+001  1.399299e+002 
3884375000  -4.247997e+001  1.273640e+002 
3887500000  -4.315899e+001  1.210662e+002 
3890625000  -4.356357e+001  1.198474e+002 
3893750000  -4.467230e+001  1.163302e+002 
3896875000  -4.425984e+001  1.130427e+002 
3900000000  -4.426200e+001  1.084714e+002 
3903125000  -4.362340e+001  1.031291e+002 
3906250000  -4.352349e+001  9.935425e+001 
3909375000  -4.235358e+001  9.028748e+001 
3912500000  -4.390174e+001  7.987235e+001 
3915625000  -4.498981e+001  8.189971e+001 
3918750000  -4.440240e+001  8.087241e+001 
3921875000  -4.367661e+001  7.517059e+001 
3925000000  -4.306531e+001  6.508044e+001 
3928125000  -4.288667e+001  5.770634e+001 
3931250000  -4.354233e+001  4.976979e+001 
3934375000  -4.376981e+001  4.672908e+001 
3937500000  -4.500741e+001  4.450078e+001 
3940625000  -4.449084e+001  4.287962e+001 
3943750000  -4.314962e+001  3.888394e+001 
3946875000  -4.281707e+001  2.883013e+001 
3950000000  -4.352979e+001  2.048650e+001 
3953125000  -4.451382e+001  2.083294e+001 
3956250000  -4.302949e+001  2.015029e+001 
3959375000  -4.192314e+001  1.616792e+001 
3962500000  -4.130182e+001  3.723700e+000 
3965625000  -4.149522e+001  -9.670827e+000 
3968750000  -4.248095e+001  -1.509146e+001 
3971875000  -4.244638e+001  -2.052602e+001 
3975000000  -4.214072e+001  -2.531301e+001 
3978125000  -4.217171e+001  -3.231153e+001 
3981250000  -4.196874e+001  -3.957089e+001 
3984375000  -4.237102e+001  -4.612820e+001 
3987500000  -4.277134e+001  -5.223999e+001 
3990625000  -4.292384e+001  -5.379669e+001 
3993750000  -4.322242e+001  -5.994166e+001 
3996875000  -4.277095e+001  -6.957844e+001 
4000000000  -4.388156e+001  -7.203125e+001 
4003125000  -4.409543e+001  -7.444962e+001 
4006250000  -4.204575e+001  -7.442079e+001 
4009375000  -4.150346e+001  -9.285032e+001 
4012500000  -4.260851e+001  -1.003569e+002 
4015625000  -4.384877e+001  -1.025135e+002 
4018750000  -4.386417e+001  -1.075915e+002 
4021875000  -4.290726e+001  -1.137301e+002 
4025000000  -4.291724e+001  -1.206544e+002 
4028125000  -4.328374e+001  -1.283558e+002 
4031250000  -4.422264e+001  -1.346471e+002 
4034375000  -4.405420e+001  -1.367085e+002 
4037500000  -4.367024e+001  -1.409390e+002 
4040625000  -4.417854e+001  -1.460849e+002 
4043750000  -4.493889e+001  -1.514276e+002 
4046875000  -4.457257e+001  -1.565251e+002 
4050000000  -4.444600e+001  -1.625148e+002 
4053125000  -4.501451e+001  -1.648208e+002 
4056250000  -4.542410e+001  -1.648351e+002 
4059375000  -4.388010e+001  -1.645655e+002 
4062500000  -4.349818e+001  -1.735719e+002 
4065625000  -4.328485e+001  -1.763995e+002 
4068750000  -4.304119e+001  1.729693e+002 
4071875000  -4.305445e+001  1.603823e+002 
4075000000  -4.385440e+001  1.560439e+002 
4078125000  -4.382380e+001  1.506597e+002 
4081250000  -4.384247e+001  1.482332e+002 
4084375000  -4.336721e+001  1.390720e+002 
4087500000  -4.373683e+001  1.283603e+002 
4090625000  -4.454062e+001  1.275099e+002 
4093750000  -4.448956e+001  1.279775e+002 
4096875000  -4.415819e+001  1.162360e+002 
4100000000  -4.558421e+001  1.107795e+002 
4103125000  -4.611565e+001  1.125965e+002 
4106250000  -4.496205e+001  1.160627e+002 
4109375000  -4.471222e+001  1.103895e+002 
4112500000  -4.431646e+001  1.001610e+002 
4115625000  -4.430276e+001  9.795266e+001 
4118750000  -4.393422e+001  8.934025e+001 
4121875000  -4.352103e+001  8.336233e+001 
4125000000  -4.456525e+001  7.872582e+001 
4128125000  -4.541159e+001  8.274060e+001 
4131250000  -4.419928e+001  8.091396e+001 
4134375000  -4.168579e+001  7.149693e+001 
4137500000  -4.247866e+001  5.065508e+001 
4140625000  -4.421003e+001  4.283482e+001 
4143750000  -4.503444e+001  5.103043e+001 
4146875000  -4.389260e+001  4.716353e+001 
4150000000  -4.286600e+001  4.078418e+001 
4153125000  -4.305582e+001  3.285111e+001 
4156250000  -4.392502e+001  2.946109e+001 
4159375000  -4.391235e+001  2.727107e+001 
4162500000  -4.258678e+001  2.742040e+001 
4165625000  -4.163502e+001  1.739621e+001 
4168750000  -4.107381e+001  6.731395e+000 
4171875000  -4.113062e+001  -3.443515e+000 
4175000000  -4.173557e+001  -1.257359e+001 
4178125000  -4.244880e+001  -1.621449e+001 
4181250000  -4.219397e+001  -2.205023e+001 
4184375000  -4.242500e+001  -2.836907e+001 
4187500000  -4.229467e+001  -3.715070e+001 
4190625000  -4.289815e+001  -4.646508e+001 
4193750000  -4.441933e+001  -5.008014e+001 
4196875000  -4.505116e+001  -5.520704e+001 
4200000000  -4.588861e+001  -4.664801e+001 
4203125000  -4.417135e+001  -3.743765e+001 
4206250000  -4.111217e+001  -4.909061e+001 
4209375000  -4.130147e+001  -7.389924e+001 
4212500000  -4.356098e+001  -7.710366e+001 
4215625000  -4.408204e+001  -7.235941e+001 
4218750000  -4.261419e+001  -7.150925e+001 
4221875000  -4.137251e+001  -8.515649e+001 
4225000000  -4.230976e+001  -9.502207e+001 
4228125000  -4.242575e+001  -9.280704e+001 
4231250000  -4.079281e+001  -1.041576e+002 
4234375000  -4.080258e+001  -1.099842e+002 
4237500000  -4.079575e+001  -1.226347e+002 
4240625000  -4.111407e+001  -1.296993e+002 
4243750000  -4.225370e+001  -1.396571e+002 
4246875000  -4.314170e+001  -1.387575e+002 
4250000000  -4.304528e+001  -1.369462e+002 
4253125000  -4.233683e+001  -1.426961e+002 
4256250000  -4.282460e+001  -1.453363e+002 
4259375000  -4.197138e+001  -1.540122e+002 
4262500000  -4.208128e+001  -1.602960e+002 
4265625000  -4.217418e+001  -1.598658e+002 
4268750000  -4.070531e+001  -1.683817e+002 
4271875000  -4.069806e+001  -1.787469e+002 
4275000000  -4.033199e+001  1.722596e+002 
4278125000  -4.124218e+001  1.579146e+002 
4281250000  -4.246334e+001  1.579075e+002 
4284375000  -4.248669e+001  1.511556e+002 
4287500000  -4.357901e+001  1.518962e+002 
4290625000  -4.351742e+001  1.585336e+002 
4293750000  -4.155333e+001  1.550486e+002 
4296875000  -4.074617e+001  1.421433e+002 
4300000000  -4.142387e+001  1.309746e+002 
4303125000  -4.194664e+001  1.299497e+002 
4306250000  -4.059156e+001  1.299244e+002 
4309375000  -4.013396e+001  1.220634e+002 
4312500000  -3.984520e+001  1.078974e+002 
4315625000  -4.035281e+001  9.955848e+001 
4318750000  -4.102051e+001  9.406036e+001 
4321875000  -4.081063e+001  9.233807e+001 
4325000000  -4.016149e+001  8.740937e+001 
4328125000  -3.918029e+001  7.781893e+001 
4331250000  -3.971407e+001  6.576621e+001 
4334375000  -4.083276e+001  5.676289e+001 
4337500000  -4.231214e+001  5.490371e+001 
4340625000  -4.207522e+001  5.674104e+001 
4343750000  -4.108413e+001  5.179108e+001 
4346875000  -4.109124e+001  4.181174e+001 
4350000000  -4.134074e+001  3.221199e+001 
4353125000  -4.178649e+001  2.586813e+001 
4356250000  -4.417696e+001  2.921105e+001 
4359375000  -4.266719e+001  4.174245e+001 
4362500000  -3.952016e+001  3.097039e+001 
4365625000  -3.912589e+001  1.446579e+001 
4368750000  -4.070577e+001  6.847214e-001 
4371875000  -4.138663e+001  5.998038e-001 
4375000000  -4.059991e+001  -6.386437e+000 
4378125000  -4.113154e+001  -1.217256e+001 
4381250000  -4.092229e+001  -2.121241e+001 
4384375000  -4.087210e+001  -2.879113e+001 
4387500000  -4.169496e+001  -3.715578e+001 
4390625000  -4.219515e+001  -3.948528e+001 
4393750000  -4.184849e+001  -4.015180e+001 
4396875000  -4.119934e+001  -4.350262e+001 
4400000000  -4.078592e+001  -5.499692e+001 
4403125000  -4.174952e+001  -6.327222e+001 
4406250000  -4.234143e+001  -6.629834e+001 
4409375000  -4.273413e+001  -7.359386e+001 
4412500000  -4.374536e+001  -7.641664e+001 
4415625000  -4.299122e+001  -7.339902e+001 
4418750000  -4.186565e+001  -7.414128e+001 
