!Agilent Technologies,E8363B,MY43030201,A.06.04.32
!Agilent E8363B: A.06.04.32
!Date: Tuesday, November 11, 2014 21:48:39
!Correction: S21(Response(S21)) 
!S1P File: Measurement: S21:
# Hz S  dB   R 50
3000000000  -4.369266e+001  -1.616592e+002 
3003125000  -4.534092e+001  -1.649376e+002 
3006250000  -4.532253e+001  -1.702199e+002 
3009375000  -4.597968e+001  -1.633518e+002 
3012500000  -4.489315e+001  -1.684366e+002 
3015625000  -4.496596e+001  -1.777235e+002 
3018750000  -4.533078e+001  -1.789082e+002 
3021875000  -4.396532e+001  -1.778510e+002 
3025000000  -4.263966e+001  1.769719e+002 
3028125000  -4.166756e+001  1.648430e+002 
3031250000  -4.082118e+001  1.504761e+002 
3034375000  -4.088620e+001  1.374696e+002 
3037500000  -4.165717e+001  1.260393e+002 
3040625000  -4.306942e+001  1.194658e+002 
3043750000  -4.356459e+001  1.107358e+002 
3046875000  -4.440849e+001  1.079508e+002 
3050000000  -4.530458e+001  1.028869e+002 
3053125000  -4.492267e+001  1.067388e+002 
3056250000  -4.451089e+001  1.081858e+002 
3059375000  -4.383593e+001  1.051970e+002 
3062500000  -4.246246e+001  1.017054e+002 
3065625000  -4.215508e+001  9.012440e+001 
3068750000  -4.194326e+001  8.095549e+001 
3071875000  -4.180226e+001  7.839227e+001 
3075000000  -4.108311e+001  6.992360e+001 
3078125000  -4.119075e+001  6.364949e+001 
3081250000  -4.157486e+001  5.783839e+001 
3084375000  -4.020470e+001  5.223095e+001 
3087500000  -4.075089e+001  4.402318e+001 
3090625000  -4.005880e+001  3.122165e+001 
3093750000  -4.089619e+001  2.134062e+001 
3096875000  -4.136499e+001  1.509086e+001 
3100000000  -4.113191e+001  1.209687e+001 
3103125000  -4.137240e+001  6.858569e+000 
3106250000  -4.101900e+001  2.065391e+000 
3109375000  -4.106554e+001  -3.171693e+000 
3112500000  -4.086723e+001  -1.163147e+001 
3115625000  -4.101846e+001  -1.564749e+001 
3118750000  -4.061411e+001  -2.148337e+001 
3121875000  -4.013260e+001  -3.269912e+001 
3125000000  -4.220144e+001  -3.622483e+001 
3128125000  -4.208013e+001  -3.150302e+001 
3131250000  -3.960600e+001  -3.978083e+001 
3134375000  -3.891329e+001  -5.636310e+001 
3137500000  -3.928360e+001  -6.960776e+001 
3140625000  -4.086714e+001  -7.496345e+001 
3143750000  -4.159621e+001  -7.804784e+001 
3146875000  -4.093722e+001  -7.601959e+001 
3150000000  -4.037852e+001  -8.240764e+001 
3153125000  -4.071780e+001  -9.182806e+001 
3156250000  -4.136995e+001  -8.808141e+001 
3159375000  -3.909130e+001  -9.254682e+001 
3162500000  -3.772290e+001  -1.083952e+002 
3165625000  -3.905878e+001  -1.216796e+002 
3168750000  -3.899224e+001  -1.243410e+002 
3171875000  -3.862086e+001  -1.336395e+002 
3175000000  -3.904875e+001  -1.416243e+002 
3178125000  -3.877327e+001  -1.453442e+002 
3181250000  -3.817604e+001  -1.539567e+002 
3184375000  -3.786964e+001  -1.658289e+002 
3187500000  -3.932630e+001  1.763560e+002 
3190625000  -4.096378e+001  1.710435e+002 
3193750000  -4.109254e+001  1.752550e+002 
3196875000  -4.107896e+001  1.756610e+002 
3200000000  -3.987951e+001  1.684241e+002 
3203125000  -3.957274e+001  1.598625e+002 
3206250000  -3.981871e+001  1.533053e+002 
3209375000  -3.932150e+001  1.431534e+002 
3212500000  -3.990637e+001  1.361912e+002 
3215625000  -3.965160e+001  1.343097e+002 
3218750000  -4.007508e+001  1.204786e+002 
3221875000  -4.046298e+001  1.144011e+002 
3225000000  -4.057322e+001  1.092387e+002 
3228125000  -4.124217e+001  9.921193e+001 
3231250000  -4.127079e+001  9.702722e+001 
3234375000  -4.102744e+001  9.390183e+001 
3237500000  -4.116383e+001  8.953473e+001 
3240625000  -4.036815e+001  8.325833e+001 
3243750000  -4.040931e+001  7.154372e+001 
3246875000  -4.059116e+001  6.421524e+001 
3250000000  -4.107992e+001  5.902374e+001 
3253125000  -4.104190e+001  5.446554e+001 
3256250000  -4.024401e+001  4.494370e+001 
3259375000  -4.092804e+001  3.048073e+001 
3262500000  -4.226864e+001  2.517489e+001 
3265625000  -4.252442e+001  2.951253e+001 
3268750000  -4.253991e+001  2.618778e+001 
3271875000  -4.180559e+001  2.181744e+001 
3275000000  -4.104088e+001  1.009671e+001 
3278125000  -4.175721e+001  3.689019e+000 
3281250000  -4.204696e+001  5.038313e-001 
3284375000  -4.107082e+001  -8.557497e+000 
3287500000  -4.144923e+001  -1.555455e+001 
3290625000  -4.166367e+001  -2.585097e+001 
3293750000  -4.155815e+001  -3.349414e+001 
3296875000  -4.281609e+001  -3.912244e+001 
3300000000  -4.198808e+001  -4.027806e+001 
3303125000  -4.090714e+001  -4.922931e+001 
3306250000  -4.077102e+001  -5.928321e+001 
3309375000  -4.052349e+001  -7.147691e+001 
3312500000  -4.100666e+001  -8.689806e+001 
3315625000  -4.234146e+001  -9.424419e+001 
3318750000  -4.377927e+001  -1.001652e+002 
3321875000  -4.505634e+001  -9.928217e+001 
3325000000  -4.480059e+001  -9.622668e+001 
3328125000  -4.427754e+001  -9.710901e+001 
3331250000  -4.235841e+001  -9.688940e+001 
3334375000  -4.010371e+001  -1.180530e+002 
3337500000  -4.086913e+001  -1.407873e+002 
3340625000  -4.273929e+001  -1.508847e+002 
3343750000  -4.438900e+001  -1.524154e+002 
3346875000  -4.383361e+001  -1.555469e+002 
3350000000  -4.380405e+001  -1.611845e+002 
3353125000  -4.339641e+001  -1.715500e+002 
3356250000  -4.325501e+001  1.785165e+002 
3359375000  -4.424226e+001  1.652847e+002 
3362500000  -4.501461e+001  1.566892e+002 
3365625000  -4.572649e+001  1.530366e+002 
3368750000  -4.671450e+001  1.458656e+002 
3371875000  -4.703944e+001  1.396175e+002 
3375000000  -4.860960e+001  1.325810e+002 
3378125000  -4.913513e+001  1.322282e+002 
3381250000  -5.071905e+001  1.452019e+002 
3384375000  -4.706754e+001  1.504438e+002 
3387500000  -4.509344e+001  1.289877e+002 
3390625000  -4.705615e+001  1.045645e+002 
3393750000  -4.829479e+001  1.027917e+002 
3396875000  -4.650586e+001  9.914774e+001 
3400000000  -4.606249e+001  8.658488e+001 
3403125000  -4.661921e+001  7.753872e+001 
3406250000  -4.746393e+001  6.732928e+001 
3409375000  -4.723807e+001  6.312364e+001 
3412500000  -4.814384e+001  5.722518e+001 
3415625000  -4.864582e+001  4.821183e+001 
3418750000  -4.926919e+001  4.280799e+001 
3421875000  -4.895246e+001  4.001994e+001 
3425000000  -4.787397e+001  3.774844e+001 
3428125000  -4.752837e+001  2.934942e+001 
3431250000  -4.716239e+001  1.649715e+001 
3434375000  -4.688247e+001  4.975953e+000 
3437500000  -4.762208e+001  -5.476016e+000 
3440625000  -4.745518e+001  -1.083925e+001 
3443750000  -4.667529e+001  -1.248193e+001 
3446875000  -4.608414e+001  -2.860763e+001 
3450000000  -4.541806e+001  -4.281794e+001 
3453125000  -4.599306e+001  -5.845319e+001 
3456250000  -4.739877e+001  -7.036119e+001 
3459375000  -4.805396e+001  -6.921986e+001 
3462500000  -4.750122e+001  -7.705482e+001 
3465625000  -4.758137e+001  -9.080412e+001 
3468750000  -4.794084e+001  -9.462326e+001 
3471875000  -4.689708e+001  -1.027251e+002 
3475000000  -4.669080e+001  -1.131913e+002 
3478125000  -4.735799e+001  -1.302575e+002 
3481250000  -4.886925e+001  -1.337729e+002 
3484375000  -4.905584e+001  -1.338077e+002 
3487500000  -4.779159e+001  -1.396954e+002 
3490625000  -4.714386e+001  -1.546065e+002 
3493750000  -4.750800e+001  -1.669584e+002 
3496875000  -4.808560e+001  -1.660311e+002 
3500000000  -4.893999e+001  -1.735656e+002 
3503125000  -4.735847e+001  -1.754693e+002 
3506250000  -4.519464e+001  1.681875e+002 
3509375000  -4.538398e+001  1.560368e+002 
3512500000  -4.587841e+001  1.362312e+002 
3515625000  -4.776532e+001  1.318660e+002 
3518750000  -4.774089e+001  1.291811e+002 
3521875000  -4.791809e+001  1.184668e+002 
3525000000  -4.885446e+001  1.147528e+002 
3528125000  -4.754199e+001  1.155336e+002 
3531250000  -4.670861e+001  1.044235e+002 
3534375000  -4.660675e+001  8.670910e+001 
3537500000  -4.781616e+001  7.908005e+001 
3540625000  -4.891053e+001  7.673473e+001 
3543750000  -4.963569e+001  7.759342e+001 
3546875000  -4.879084e+001  8.401441e+001 
3550000000  -4.654336e+001  7.276241e+001 
3553125000  -4.654414e+001  5.400356e+001 
3556250000  -4.759760e+001  4.778667e+001 
3559375000  -4.677028e+001  4.555561e+001 
3562500000  -4.667360e+001  3.330893e+001 
3565625000  -4.736029e+001  2.445003e+001 
3568750000  -4.812932e+001  2.325658e+001 
3571875000  -4.743459e+001  1.965893e+001 
3575000000  -4.730867e+001  1.288113e+001 
3578125000  -4.793002e+001  6.033323e+000 
3581250000  -4.766723e+001  2.129357e+000 
3584375000  -4.582804e+001  -2.073989e+000 
3587500000  -4.562386e+001  -1.672200e+001 
3590625000  -4.658451e+001  -2.753214e+001 
3593750000  -4.761462e+001  -2.854783e+001 
3596875000  -4.652121e+001  -2.119802e+001 
3600000000  -4.441619e+001  -3.280788e+001 
3603125000  -4.523144e+001  -5.096248e+001 
3606250000  -4.619946e+001  -5.349242e+001 
3609375000  -4.590321e+001  -5.733462e+001 
3612500000  -4.596944e+001  -6.263712e+001 
3615625000  -4.599299e+001  -7.049988e+001 
3618750000  -4.615495e+001  -7.235534e+001 
3621875000  -4.579470e+001  -7.853922e+001 
3625000000  -4.565318e+001  -8.239241e+001 
3628125000  -4.503511e+001  -8.848784e+001 
3631250000  -4.507012e+001  -9.827975e+001 
3634375000  -4.585669e+001  -9.791611e+001 
3637500000  -4.424350e+001  -9.868473e+001 
3640625000  -4.385086e+001  -1.076688e+002 
3643750000  -4.303024e+001  -1.177537e+002 
3646875000  -4.369433e+001  -1.306497e+002 
3650000000  -4.373316e+001  -1.333870e+002 
3653125000  -4.328183e+001  -1.429898e+002 
3656250000  -4.409995e+001  -1.466713e+002 
3659375000  -4.361888e+001  -1.527883e+002 
3662500000  -4.348813e+001  -1.597060e+002 
3665625000  -4.339167e+001  -1.630682e+002 
3668750000  -4.192065e+001  -1.679377e+002 
3671875000  -4.139528e+001  1.771530e+002 
3675000000  -4.207318e+001  1.680533e+002 
3678125000  -4.259746e+001  1.619749e+002 
3681250000  -4.231459e+001  1.577832e+002 
3684375000  -4.247364e+001  1.467023e+002 
3687500000  -4.275586e+001  1.392520e+002 
3690625000  -4.323191e+001  1.328115e+002 
3693750000  -4.441246e+001  1.318674e+002 
3696875000  -4.385994e+001  1.289531e+002 
3700000000  -4.299485e+001  1.212892e+002 
3703125000  -4.345274e+001  1.139098e+002 
3706250000  -4.468693e+001  1.114950e+002 
3709375000  -4.393295e+001  1.121526e+002 
3712500000  -4.290404e+001  1.058640e+002 
3715625000  -4.200685e+001  9.617287e+001 
3718750000  -4.191955e+001  8.465598e+001 
3721875000  -4.189374e+001  7.576620e+001 
3725000000  -4.224842e+001  6.917027e+001 
3728125000  -4.224280e+001  6.654074e+001 
3731250000  -4.193634e+001  5.897812e+001 
3734375000  -4.198426e+001  5.314040e+001 
3737500000  -4.269049e+001  4.290941e+001 
3740625000  -4.284422e+001  3.734980e+001 
3743750000  -4.276903e+001  3.161676e+001 
3746875000  -4.354358e+001  2.334366e+001 
3750000000  -4.363350e+001  2.105182e+001 
3753125000  -4.365173e+001  1.723338e+001 
3756250000  -4.349035e+001  1.449833e+001 
3759375000  -4.370076e+001  9.457185e+000 
3762500000  -4.328428e+001  4.516650e+000 
3765625000  -4.391878e+001  -2.864443e+000 
3768750000  -4.330948e+001  -6.574380e-001 
3771875000  -4.193044e+001  -1.010982e+001 
3775000000  -4.187338e+001  -1.935891e+001 
3778125000  -4.279606e+001  -2.536567e+001 
3781250000  -4.262280e+001  -2.882180e+001 
3784375000  -4.246030e+001  -3.574395e+001 
3787500000  -4.228906e+001  -4.162822e+001 
3790625000  -4.264428e+001  -5.344360e+001 
3793750000  -4.262925e+001  -5.544272e+001 
3796875000  -4.155022e+001  -5.922155e+001 
3800000000  -4.076586e+001  -6.767107e+001 
3803125000  -4.152515e+001  -7.784937e+001 
3806250000  -4.267917e+001  -8.437120e+001 
3809375000  -4.187291e+001  -8.896803e+001 
3812500000  -4.158533e+001  -1.001017e+002 
3815625000  -4.298153e+001  -1.096604e+002 
3818750000  -4.448415e+001  -1.075908e+002 
3821875000  -4.375403e+001  -1.003269e+002 
3825000000  -4.134266e+001  -1.051259e+002 
3828125000  -4.031995e+001  -1.238815e+002 
3831250000  -4.170698e+001  -1.417656e+002 
3834375000  -4.365894e+001  -1.403631e+002 
3837500000  -4.357426e+001  -1.381552e+002 
3840625000  -4.250504e+001  -1.436732e+002 
3843750000  -4.144569e+001  -1.592842e+002 
3846875000  -4.380241e+001  -1.673987e+002 
3850000000  -4.413990e+001  -1.609182e+002 
3853125000  -4.370387e+001  -1.626992e+002 
3856250000  -4.313183e+001  -1.721497e+002 
3859375000  -4.214423e+001  -1.797233e+002 
3862500000  -4.221246e+001  1.706745e+002 
3865625000  -4.281557e+001  1.633404e+002 
3868750000  -4.247352e+001  1.618664e+002 
3871875000  -4.189152e+001  1.546112e+002 
3875000000  -4.239584e+001  1.435347e+002 
3878125000  -4.342253e+001  1.412357e+002 
3881250000  -4.317736e+001  1.383628e+002 
3884375000  -4.230474e+001  1.284712e+002 
3887500000  -4.331672e+001  1.212969e+002 
3890625000  -4.373706e+001  1.173530e+002 
3893750000  -4.416858e+001  1.116442e+002 
3896875000  -4.398135e+001  1.123045e+002 
3900000000  -4.441325e+001  1.051835e+002 
3903125000  -4.392513e+001  1.018892e+002 
3906250000  -4.352753e+001  9.969240e+001 
3909375000  -4.263951e+001  8.763637e+001 
3912500000  -4.367363e+001  7.815258e+001 
3915625000  -4.438543e+001  7.925525e+001 
3918750000  -4.432871e+001  7.951106e+001 
3921875000  -4.363149e+001  7.427128e+001 
3925000000  -4.292509e+001  6.690038e+001 
3928125000  -4.303345e+001  5.752232e+001 
3931250000  -4.351181e+001  4.884988e+001 
3934375000  -4.389452e+001  4.845633e+001 
3937500000  -4.387434e+001  4.509260e+001 
3940625000  -4.425649e+001  4.436829e+001 
3943750000  -4.326849e+001  3.701677e+001 
3946875000  -4.276573e+001  2.735650e+001 
3950000000  -4.364137e+001  1.874702e+001 
3953125000  -4.400764e+001  2.323086e+001 
3956250000  -4.270106e+001  1.896123e+001 
3959375000  -4.170999e+001  1.401716e+001 
3962500000  -4.129007e+001  2.920612e+000 
3965625000  -4.193908e+001  -8.170798e+000 
3968750000  -4.258473e+001  -1.801639e+001 
3971875000  -4.262970e+001  -2.069854e+001 
3975000000  -4.224068e+001  -2.729980e+001 
3978125000  -4.238519e+001  -3.404040e+001 
3981250000  -4.182160e+001  -3.977266e+001 
3984375000  -4.257087e+001  -4.531955e+001 
3987500000  -4.336422e+001  -5.273987e+001 
3990625000  -4.300029e+001  -6.030627e+001 
3993750000  -4.335188e+001  -6.430454e+001 
3996875000  -4.262577e+001  -6.885991e+001 
4000000000  -4.355664e+001  -7.324885e+001 
4003125000  -4.381876e+001  -7.224221e+001 
4006250000  -4.199029e+001  -7.953751e+001 
4009375000  -4.141457e+001  -9.350446e+001 
4012500000  -4.286368e+001  -1.029604e+002 
4015625000  -4.407069e+001  -1.014599e+002 
4018750000  -4.373198e+001  -1.068588e+002 
4021875000  -4.271160e+001  -1.146546e+002 
4025000000  -4.283458e+001  -1.194723e+002 
4028125000  -4.345043e+001  -1.298855e+002 
4031250000  -4.376060e+001  -1.366061e+002 
4034375000  -4.426572e+001  -1.406695e+002 
4037500000  -4.398202e+001  -1.399813e+002 
4040625000  -4.423214e+001  -1.454899e+002 
4043750000  -4.438721e+001  -1.513714e+002 
4046875000  -4.416275e+001  -1.563466e+002 
4050000000  -4.428058e+001  -1.644002e+002 
4053125000  -4.528049e+001  -1.634826e+002 
4056250000  -4.590350e+001  -1.637328e+002 
4059375000  -4.395758e+001  -1.659886e+002 
4062500000  -4.385688e+001  -1.741830e+002 
4065625000  -4.356177e+001  -1.796346e+002 
4068750000  -4.331755e+001  1.741911e+002 
4071875000  -4.213525e+001  1.620113e+002 
4075000000  -4.314832e+001  1.507160e+002 
4078125000  -4.393807e+001  1.513822e+002 
4081250000  -4.338121e+001  1.451565e+002 
4084375000  -4.338478e+001  1.363329e+002 
4087500000  -4.377082e+001  1.312203e+002 
4090625000  -4.483636e+001  1.277358e+002 
4093750000  -4.436709e+001  1.268104e+002 
4096875000  -4.425800e+001  1.162841e+002 
4100000000  -4.527843e+001  1.087628e+002 
4103125000  -4.561863e+001  1.094974e+002 
4106250000  -4.527666e+001  1.176558e+002 
4109375000  -4.399947e+001  1.084809e+002 
4112500000  -4.413575e+001  1.025937e+002 
4115625000  -4.389800e+001  9.558694e+001 
4118750000  -4.376881e+001  8.979860e+001 
4121875000  -4.331817e+001  8.377091e+001 
4125000000  -4.468270e+001  7.609660e+001 
4128125000  -4.492350e+001  7.708955e+001 
4131250000  -4.364029e+001  7.975843e+001 
4134375000  -4.141597e+001  6.954830e+001 
4137500000  -4.217271e+001  5.199797e+001 
4140625000  -4.445009e+001  4.230061e+001 
4143750000  -4.460758e+001  4.864704e+001 
4146875000  -4.373970e+001  4.707750e+001 
4150000000  -4.257777e+001  3.866241e+001 
4153125000  -4.305890e+001  2.903228e+001 
4156250000  -4.390881e+001  2.487418e+001 
4159375000  -4.370805e+001  2.691344e+001 
4162500000  -4.226461e+001  2.697262e+001 
4165625000  -4.134391e+001  1.662542e+001 
4168750000  -4.131829e+001  4.882856e+000 
4171875000  -4.124520e+001  -7.657066e+000 
4175000000  -4.196539e+001  -1.442119e+001 
4178125000  -4.236019e+001  -1.753194e+001 
4181250000  -4.245640e+001  -2.517459e+001 
4184375000  -4.248096e+001  -3.071061e+001 
4187500000  -4.219897e+001  -3.814277e+001 
4190625000  -4.244444e+001  -4.734820e+001 
4193750000  -4.376483e+001  -5.324685e+001 
4196875000  -4.504596e+001  -5.551343e+001 
4200000000  -4.661407e+001  -4.989771e+001 
4203125000  -4.471122e+001  -3.709083e+001 
4206250000  -4.091315e+001  -4.859237e+001 
4209375000  -4.121742e+001  -7.186287e+001 
4212500000  -4.391562e+001  -8.070874e+001 
4215625000  -4.441784e+001  -7.082882e+001 
4218750000  -4.237740e+001  -7.163187e+001 
4221875000  -4.082592e+001  -8.119611e+001 
4225000000  -4.211033e+001  -9.469621e+001 
4228125000  -4.203349e+001  -9.423934e+001 
4231250000  -4.090726e+001  -1.031381e+002 
4234375000  -4.077878e+001  -1.150135e+002 
4237500000  -4.081042e+001  -1.200725e+002 
4240625000  -4.098024e+001  -1.340370e+002 
4243750000  -4.216375e+001  -1.389762e+002 
4246875000  -4.314663e+001  -1.406076e+002 
4250000000  -4.285950e+001  -1.406687e+002 
4253125000  -4.282762e+001  -1.405710e+002 
4256250000  -4.215922e+001  -1.497950e+002 
4259375000  -4.193041e+001  -1.574874e+002 
4262500000  -4.218605e+001  -1.611505e+002 
4265625000  -4.196994e+001  -1.628376e+002 
4268750000  -4.103419e+001  -1.701731e+002 
4271875000  -4.036397e+001  1.788487e+002 
4275000000  -4.060154e+001  1.725243e+002 
4278125000  -4.134124e+001  1.601770e+002 
4281250000  -4.263545e+001  1.564013e+002 
4284375000  -4.254135e+001  1.535077e+002 
4287500000  -4.387103e+001  1.490550e+002 
4290625000  -4.371108e+001  1.562705e+002 
4293750000  -4.174633e+001  1.549096e+002 
4296875000  -4.000517e+001  1.407791e+002 
4300000000  -4.151957e+001  1.315661e+002 
4303125000  -4.224448e+001  1.283741e+002 
4306250000  -4.051545e+001  1.283363e+002 
4309375000  -3.995127e+001  1.189694e+002 
4312500000  -3.966043e+001  1.076577e+002 
4315625000  -4.003389e+001  9.798148e+001 
4318750000  -4.069552e+001  9.348186e+001 
4321875000  -4.063436e+001  9.205245e+001 
4325000000  -4.022520e+001  8.602929e+001 
4328125000  -3.957857e+001  7.551462e+001 
4331250000  -3.996412e+001  6.183813e+001 
4334375000  -4.095663e+001  5.401025e+001 
4337500000  -4.186822e+001  5.492120e+001 
4340625000  -4.217464e+001  5.476291e+001 
4343750000  -4.140314e+001  5.215108e+001 
4346875000  -4.117709e+001  4.316297e+001 
4350000000  -4.092304e+001  3.151096e+001 
4353125000  -4.198085e+001  2.117241e+001 
4356250000  -4.397823e+001  2.476854e+001 
4359375000  -4.270978e+001  3.707512e+001 
4362500000  -3.945493e+001  2.872721e+001 
4365625000  -3.911425e+001  1.446844e+001 
4368750000  -4.032615e+001  -3.370669e+000 
4371875000  -4.087883e+001  -1.149304e+000 
4375000000  -4.054286e+001  -6.218343e+000 
4378125000  -4.060706e+001  -1.374182e+001 
4381250000  -4.054211e+001  -2.296902e+001 
4384375000  -4.030593e+001  -3.097835e+001 
4387500000  -4.161277e+001  -3.895391e+001 
4390625000  -4.197091e+001  -4.022161e+001 
4393750000  -4.162935e+001  -4.068681e+001 
4396875000  -4.117289e+001  -4.498811e+001 
4400000000  -4.066719e+001  -5.380096e+001 
4403125000  -4.140054e+001  -6.656232e+001 
4406250000  -4.222569e+001  -6.903574e+001 
4409375000  -4.234585e+001  -7.522572e+001 
4412500000  -4.380748e+001  -7.588049e+001 
4415625000  -4.315934e+001  -7.483877e+001 
4418750000  -4.209641e+001  -7.467305e+001 
