!Agilent Technologies,E8363B,MY43030201,A.06.04.32
!Agilent E8363B: A.06.04.32
!Date: Tuesday, November 11, 2014 21:50:31
!Correction: S21(Response(S21)) 
!S1P File: Measurement: S21:
# Hz S  dB   R 50
3000000000  -4.377384e+001  -1.634694e+002 
3003125000  -4.524314e+001  -1.687315e+002 
3006250000  -4.526219e+001  -1.702208e+002 
3009375000  -4.593856e+001  -1.648900e+002 
3012500000  -4.503090e+001  -1.738550e+002 
3015625000  -4.498093e+001  -1.786293e+002 
3018750000  -4.528726e+001  1.796373e+002 
3021875000  -4.379363e+001  1.791247e+002 
3025000000  -4.269608e+001  1.764240e+002 
3028125000  -4.176620e+001  1.636940e+002 
3031250000  -4.089725e+001  1.508555e+002 
3034375000  -4.063632e+001  1.365529e+002 
3037500000  -4.169383e+001  1.248659e+002 
3040625000  -4.299086e+001  1.196937e+002 
3043750000  -4.350337e+001  1.123183e+002 
3046875000  -4.408018e+001  1.042676e+002 
3050000000  -4.509699e+001  1.016978e+002 
3053125000  -4.475233e+001  1.041123e+002 
3056250000  -4.484114e+001  1.069597e+002 
3059375000  -4.404549e+001  1.046947e+002 
3062500000  -4.229310e+001  9.907304e+001 
3065625000  -4.219161e+001  8.634152e+001 
3068750000  -4.193053e+001  8.000344e+001 
3071875000  -4.175291e+001  7.736514e+001 
3075000000  -4.121553e+001  6.919508e+001 
3078125000  -4.118601e+001  6.269448e+001 
3081250000  -4.129836e+001  5.506049e+001 
3084375000  -4.055808e+001  5.019687e+001 
3087500000  -4.074737e+001  4.145137e+001 
3090625000  -4.008699e+001  2.903473e+001 
3093750000  -4.108868e+001  2.078567e+001 
3096875000  -4.152880e+001  1.445453e+001 
3100000000  -4.120854e+001  1.021174e+001 
3103125000  -4.141203e+001  6.947952e+000 
3106250000  -4.113140e+001  8.009735e-001 
3109375000  -4.116175e+001  -4.200521e+000 
3112500000  -4.084322e+001  -1.172116e+001 
3115625000  -4.074977e+001  -1.698697e+001 
3118750000  -4.059353e+001  -2.199782e+001 
3121875000  -4.020316e+001  -3.390721e+001 
3125000000  -4.217634e+001  -3.708831e+001 
3128125000  -4.212312e+001  -3.225802e+001 
3131250000  -3.940758e+001  -4.006659e+001 
3134375000  -3.881860e+001  -5.723704e+001 
3137500000  -3.948315e+001  -7.101934e+001 
3140625000  -4.088426e+001  -7.398653e+001 
3143750000  -4.163263e+001  -8.040222e+001 
3146875000  -4.112629e+001  -7.776018e+001 
3150000000  -4.036457e+001  -8.293394e+001 
3153125000  -4.066992e+001  -9.364644e+001 
3156250000  -4.145678e+001  -8.951209e+001 
3159375000  -3.906620e+001  -9.369268e+001 
3162500000  -3.762645e+001  -1.092258e+002 
3165625000  -3.901688e+001  -1.239212e+002 
3168750000  -3.900950e+001  -1.244981e+002 
3171875000  -3.856035e+001  -1.328933e+002 
3175000000  -3.919393e+001  -1.446417e+002 
3178125000  -3.860314e+001  -1.459212e+002 
3181250000  -3.810149e+001  -1.548103e+002 
3184375000  -3.781212e+001  -1.677712e+002 
3187500000  -3.921360e+001  1.754502e+002 
3190625000  -4.085910e+001  1.687980e+002 
3193750000  -4.121734e+001  1.746641e+002 
3196875000  -4.103255e+001  1.731869e+002 
3200000000  -3.989994e+001  1.682147e+002 
3203125000  -3.971189e+001  1.597734e+002 
3206250000  -3.983613e+001  1.501269e+002 
3209375000  -3.943875e+001  1.420629e+002 
3212500000  -4.005776e+001  1.351028e+002 
3215625000  -3.979037e+001  1.314845e+002 
3218750000  -4.036971e+001  1.189511e+002 
3221875000  -4.060234e+001  1.119927e+002 
3225000000  -4.042447e+001  1.061357e+002 
3228125000  -4.101775e+001  9.954305e+001 
3231250000  -4.144062e+001  9.750968e+001 
3234375000  -4.091855e+001  9.336663e+001 
3237500000  -4.078019e+001  9.121036e+001 
3240625000  -4.043414e+001  8.270761e+001 
3243750000  -4.026396e+001  7.063965e+001 
3246875000  -4.062057e+001  6.229958e+001 
3250000000  -4.112430e+001  5.853991e+001 
3253125000  -4.133292e+001  5.357863e+001 
3256250000  -4.023415e+001  4.340277e+001 
3259375000  -4.084016e+001  3.032862e+001 
3262500000  -4.241260e+001  2.461022e+001 
3265625000  -4.245565e+001  2.660094e+001 
3268750000  -4.276026e+001  2.576368e+001 
3271875000  -4.136925e+001  1.868561e+001 
3275000000  -4.099069e+001  1.058203e+001 
3278125000  -4.163658e+001  2.552643e+000 
3281250000  -4.175361e+001  -9.441844e-001 
3284375000  -4.120822e+001  -9.099382e+000 
3287500000  -4.174164e+001  -1.784475e+001 
3290625000  -4.143528e+001  -2.702027e+001 
3293750000  -4.140247e+001  -3.602458e+001 
3296875000  -4.275416e+001  -4.027130e+001 
3300000000  -4.191869e+001  -4.050924e+001 
3303125000  -4.076623e+001  -5.004425e+001 
3306250000  -4.096019e+001  -6.041171e+001 
3309375000  -4.074136e+001  -7.209428e+001 
3312500000  -4.112562e+001  -8.654216e+001 
3315625000  -4.244295e+001  -9.348390e+001 
3318750000  -4.380693e+001  -1.027377e+002 
3321875000  -4.510171e+001  -1.025659e+002 
3325000000  -4.502696e+001  -9.704086e+001 
3328125000  -4.430806e+001  -9.900706e+001 
3331250000  -4.233913e+001  -1.002811e+002 
3334375000  -4.003289e+001  -1.170802e+002 
3337500000  -4.101693e+001  -1.427983e+002 
3340625000  -4.259291e+001  -1.501219e+002 
3343750000  -4.438473e+001  -1.540468e+002 
3346875000  -4.407702e+001  -1.556968e+002 
3350000000  -4.361582e+001  -1.618792e+002 
3353125000  -4.358506e+001  -1.705296e+002 
3356250000  -4.323893e+001  1.781900e+002 
3359375000  -4.417542e+001  1.647376e+002 
3362500000  -4.510656e+001  1.579993e+002 
3365625000  -4.583754e+001  1.511057e+002 
3368750000  -4.640504e+001  1.441438e+002 
3371875000  -4.712338e+001  1.397918e+002 
3375000000  -4.836095e+001  1.326067e+002 
3378125000  -4.937725e+001  1.330075e+002 
3381250000  -5.081152e+001  1.429500e+002 
3384375000  -4.711037e+001  1.536557e+002 
3387500000  -4.465528e+001  1.292152e+002 
3390625000  -4.683857e+001  1.042562e+002 
3393750000  -4.809223e+001  1.024288e+002 
3396875000  -4.640477e+001  1.006246e+002 
3400000000  -4.614082e+001  8.658658e+001 
3403125000  -4.685080e+001  7.659912e+001 
3406250000  -4.732968e+001  6.969103e+001 
3409375000  -4.702505e+001  6.215623e+001 
3412500000  -4.811084e+001  5.119411e+001 
3415625000  -4.868456e+001  4.803000e+001 
3418750000  -4.866380e+001  4.444467e+001 
3421875000  -4.933968e+001  4.272533e+001 
3425000000  -4.789150e+001  3.515481e+001 
3428125000  -4.718102e+001  2.406407e+001 
3431250000  -4.677269e+001  1.445351e+001 
3434375000  -4.701566e+001  6.079643e-001 
3437500000  -4.749464e+001  -7.347505e+000 
3440625000  -4.792628e+001  -8.709283e+000 
3443750000  -4.620099e+001  -1.394388e+001 
3446875000  -4.560003e+001  -2.791846e+001 
3450000000  -4.528817e+001  -4.326925e+001 
3453125000  -4.575771e+001  -5.944322e+001 
3456250000  -4.721317e+001  -6.793956e+001 
3459375000  -4.822525e+001  -7.128244e+001 
3462500000  -4.835413e+001  -7.736080e+001 
3465625000  -4.762815e+001  -8.837036e+001 
3468750000  -4.835551e+001  -9.622397e+001 
3471875000  -4.704982e+001  -1.038576e+002 
3475000000  -4.729244e+001  -1.155089e+002 
3478125000  -4.774440e+001  -1.309744e+002 
3481250000  -4.894402e+001  -1.339736e+002 
3484375000  -4.886389e+001  -1.343346e+002 
3487500000  -4.738725e+001  -1.407683e+002 
3490625000  -4.697849e+001  -1.557163e+002 
3493750000  -4.799463e+001  -1.675600e+002 
3496875000  -4.843170e+001  -1.684424e+002 
3500000000  -4.832682e+001  -1.755302e+002 
3503125000  -4.753332e+001  -1.791128e+002 
3506250000  -4.547630e+001  1.693097e+002 
3509375000  -4.587724e+001  1.500517e+002 
3512500000  -4.625075e+001  1.365682e+002 
3515625000  -4.680872e+001  1.297431e+002 
3518750000  -4.768369e+001  1.281149e+002 
3521875000  -4.798129e+001  1.165604e+002 
3525000000  -4.891602e+001  1.136456e+002 
3528125000  -4.742747e+001  1.172442e+002 
3531250000  -4.630701e+001  1.030726e+002 
3534375000  -4.738084e+001  9.007380e+001 
3537500000  -4.765213e+001  7.621450e+001 
3540625000  -4.906647e+001  7.687481e+001 
3543750000  -4.950665e+001  7.606620e+001 
3546875000  -4.851194e+001  7.782282e+001 
3550000000  -4.658543e+001  7.649320e+001 
3553125000  -4.602982e+001  5.472656e+001 
3556250000  -4.804398e+001  4.770842e+001 
3559375000  -4.619906e+001  4.060899e+001 
3562500000  -4.645523e+001  3.332659e+001 
3565625000  -4.743658e+001  2.306795e+001 
3568750000  -4.802821e+001  2.400796e+001 
3571875000  -4.758603e+001  2.127337e+001 
3575000000  -4.754026e+001  7.982867e+000 
3578125000  -4.782601e+001  4.680010e+000 
3581250000  -4.713131e+001  1.382599e+000 
3584375000  -4.586762e+001  -4.669789e+000 
3587500000  -4.558762e+001  -1.604383e+001 
3590625000  -4.624152e+001  -2.877708e+001 
3593750000  -4.801007e+001  -2.732545e+001 
3596875000  -4.680865e+001  -1.922720e+001 
3600000000  -4.467599e+001  -3.535136e+001 
3603125000  -4.494204e+001  -5.059512e+001 
3606250000  -4.590731e+001  -5.383471e+001 
3609375000  -4.628706e+001  -5.686749e+001 
3612500000  -4.615926e+001  -6.653934e+001 
3615625000  -4.577763e+001  -7.138468e+001 
3618750000  -4.595810e+001  -7.350966e+001 
3621875000  -4.554017e+001  -7.898579e+001 
3625000000  -4.574458e+001  -8.355502e+001 
3628125000  -4.490765e+001  -9.137550e+001 
3631250000  -4.533021e+001  -9.943542e+001 
3634375000  -4.554702e+001  -9.843466e+001 
3637500000  -4.465384e+001  -1.034567e+002 
3640625000  -4.395753e+001  -1.083075e+002 
3643750000  -4.334132e+001  -1.200535e+002 
3646875000  -4.366220e+001  -1.331814e+002 
3650000000  -4.390300e+001  -1.359663e+002 
3653125000  -4.342308e+001  -1.474001e+002 
3656250000  -4.387995e+001  -1.489783e+002 
3659375000  -4.358819e+001  -1.551311e+002 
3662500000  -4.326652e+001  -1.604091e+002 
3665625000  -4.323936e+001  -1.658312e+002 
3668750000  -4.201355e+001  -1.688722e+002 
3671875000  -4.137442e+001  1.757532e+002 
3675000000  -4.202376e+001  1.678005e+002 
3678125000  -4.270692e+001  1.609128e+002 
3681250000  -4.217638e+001  1.552804e+002 
3684375000  -4.261872e+001  1.481377e+002 
3687500000  -4.295391e+001  1.373929e+002 
3690625000  -4.342643e+001  1.335886e+002 
3693750000  -4.439260e+001  1.326095e+002 
3696875000  -4.374073e+001  1.288166e+002 
3700000000  -4.278543e+001  1.208975e+002 
3703125000  -4.378500e+001  1.124997e+002 
3706250000  -4.489633e+001  1.092280e+002 
3709375000  -4.368724e+001  1.114706e+002 
3712500000  -4.299316e+001  1.029314e+002 
3715625000  -4.184682e+001  9.510488e+001 
3718750000  -4.146714e+001  8.590589e+001 
3721875000  -4.155346e+001  7.583146e+001 
3725000000  -4.214743e+001  6.865170e+001 
3728125000  -4.230231e+001  6.497263e+001 
3731250000  -4.184125e+001  5.875541e+001 
3734375000  -4.223704e+001  5.102664e+001 
3737500000  -4.282047e+001  4.084914e+001 
3740625000  -4.266654e+001  3.477424e+001 
3743750000  -4.286029e+001  3.093640e+001 
3746875000  -4.300107e+001  2.364396e+001 
3750000000  -4.342891e+001  1.930105e+001 
3753125000  -4.370618e+001  1.604405e+001 
3756250000  -4.385811e+001  1.183320e+001 
3759375000  -4.404573e+001  6.659744e+000 
3762500000  -4.337168e+001  1.898265e+000 
3765625000  -4.391618e+001  -3.538787e+000 
3768750000  -4.360686e+001  -2.857244e+000 
3771875000  -4.187910e+001  -9.094259e+000 
3775000000  -4.202544e+001  -2.327821e+001 
3778125000  -4.283476e+001  -2.627884e+001 
3781250000  -4.257060e+001  -3.150397e+001 
3784375000  -4.244928e+001  -3.558333e+001 
3787500000  -4.234810e+001  -4.401281e+001 
3790625000  -4.279789e+001  -5.373626e+001 
3793750000  -4.252656e+001  -5.667060e+001 
3796875000  -4.153611e+001  -6.217122e+001 
3800000000  -4.068605e+001  -6.906539e+001 
3803125000  -4.142026e+001  -8.011157e+001 
3806250000  -4.244722e+001  -8.602202e+001 
3809375000  -4.198953e+001  -8.969666e+001 
3812500000  -4.152722e+001  -1.022113e+002 
3815625000  -4.329878e+001  -1.145698e+002 
3818750000  -4.433383e+001  -1.117197e+002 
3821875000  -4.382675e+001  -9.971513e+001 
3825000000  -4.136607e+001  -1.052374e+002 
3828125000  -4.019936e+001  -1.258019e+002 
3831250000  -4.159818e+001  -1.434890e+002 
3834375000  -4.371663e+001  -1.439824e+002 
3837500000  -4.375576e+001  -1.401895e+002 
3840625000  -4.259221e+001  -1.460848e+002 
3843750000  -4.176944e+001  -1.616468e+002 
3846875000  -4.382927e+001  -1.727705e+002 
3850000000  -4.459953e+001  -1.626791e+002 
3853125000  -4.376200e+001  -1.638486e+002 
3856250000  -4.295718e+001  -1.735405e+002 
3859375000  -4.218300e+001  1.798995e+002 
3862500000  -4.212596e+001  1.690403e+002 
3865625000  -4.273410e+001  1.605601e+002 
3868750000  -4.204793e+001  1.609802e+002 
3871875000  -4.165483e+001  1.503887e+002 
3875000000  -4.253170e+001  1.400441e+002 
3878125000  -4.336551e+001  1.392738e+002 
3881250000  -4.336843e+001  1.369585e+002 
3884375000  -4.243512e+001  1.262760e+002 
3887500000  -4.321426e+001  1.203179e+002 
3890625000  -4.424917e+001  1.159015e+002 
3893750000  -4.403226e+001  1.116418e+002 
3896875000  -4.423737e+001  1.145566e+002 
3900000000  -4.434074e+001  1.071577e+002 
3903125000  -4.355278e+001  1.028370e+002 
3906250000  -4.319612e+001  9.815034e+001 
3909375000  -4.256681e+001  8.593810e+001 
3912500000  -4.387056e+001  7.640683e+001 
3915625000  -4.456742e+001  7.702535e+001 
3918750000  -4.460489e+001  7.608500e+001 
3921875000  -4.355399e+001  7.156413e+001 
3925000000  -4.300467e+001  6.253696e+001 
3928125000  -4.283445e+001  5.700927e+001 
3931250000  -4.374371e+001  4.738656e+001 
3934375000  -4.365921e+001  4.575327e+001 
3937500000  -4.458262e+001  4.466035e+001 
3940625000  -4.459000e+001  4.287000e+001 
3943750000  -4.329394e+001  3.755246e+001 
3946875000  -4.296350e+001  2.768776e+001 
3950000000  -4.360090e+001  1.817443e+001 
3953125000  -4.428092e+001  1.886314e+001 
3956250000  -4.262072e+001  1.755216e+001 
3959375000  -4.152537e+001  1.027940e+001 
3962500000  -4.188826e+001  2.526721e+000 
3965625000  -4.160848e+001  -1.213330e+001 
3968750000  -4.209494e+001  -1.683727e+001 
3971875000  -4.260081e+001  -2.375100e+001 
3975000000  -4.180428e+001  -2.789727e+001 
3978125000  -4.211684e+001  -3.285992e+001 
3981250000  -4.167166e+001  -4.281147e+001 
3984375000  -4.214988e+001  -4.845888e+001 
3987500000  -4.299409e+001  -5.250083e+001 
3990625000  -4.318414e+001  -5.883226e+001 
3993750000  -4.294257e+001  -6.384142e+001 
3996875000  -4.296166e+001  -7.142139e+001 
4000000000  -4.364721e+001  -7.326038e+001 
4003125000  -4.344890e+001  -7.494024e+001 
4006250000  -4.190058e+001  -7.972291e+001 
4009375000  -4.141130e+001  -9.400152e+001 
4012500000  -4.271257e+001  -1.034964e+002 
4015625000  -4.385484e+001  -1.047717e+002 
4018750000  -4.356121e+001  -1.071950e+002 
4021875000  -4.303704e+001  -1.160568e+002 
4025000000  -4.306068e+001  -1.223212e+002 
4028125000  -4.316949e+001  -1.300322e+002 
4031250000  -4.384801e+001  -1.378140e+002 
4034375000  -4.411588e+001  -1.425438e+002 
4037500000  -4.382661e+001  -1.403473e+002 
4040625000  -4.423638e+001  -1.495885e+002 
4043750000  -4.419480e+001  -1.510591e+002 
4046875000  -4.443394e+001  -1.603753e+002 
4050000000  -4.426672e+001  -1.654207e+002 
4053125000  -4.541221e+001  -1.668404e+002 
4056250000  -4.539991e+001  -1.664079e+002 
4059375000  -4.419607e+001  -1.699718e+002 
4062500000  -4.324416e+001  -1.751846e+002 
4065625000  -4.328909e+001  -1.792192e+002 
4068750000  -4.283818e+001  1.714646e+002 
4071875000  -4.237795e+001  1.608142e+002 
4075000000  -4.328794e+001  1.536711e+002 
4078125000  -4.399173e+001  1.518061e+002 
4081250000  -4.344382e+001  1.436997e+002 
4084375000  -4.321943e+001  1.370204e+002 
4087500000  -4.387667e+001  1.281975e+002 
4090625000  -4.449354e+001  1.241925e+002 
4093750000  -4.461739e+001  1.215109e+002 
4096875000  -4.376960e+001  1.142397e+002 
4100000000  -4.514062e+001  1.081261e+002 
4103125000  -4.617757e+001  1.110926e+002 
4106250000  -4.492000e+001  1.124474e+002 
4109375000  -4.419823e+001  1.063618e+002 
4112500000  -4.390946e+001  9.752488e+001 
4115625000  -4.400882e+001  9.411669e+001 
4118750000  -4.394532e+001  8.874914e+001 
4121875000  -4.381160e+001  8.076909e+001 
4125000000  -4.476962e+001  7.354358e+001 
4128125000  -4.503477e+001  7.880087e+001 
4131250000  -4.365844e+001  8.190233e+001 
4134375000  -4.148265e+001  6.894283e+001 
4137500000  -4.195141e+001  4.896525e+001 
4140625000  -4.455399e+001  4.009725e+001 
4143750000  -4.462297e+001  4.581083e+001 
4146875000  -4.403745e+001  4.516326e+001 
4150000000  -4.297520e+001  3.559592e+001 
4153125000  -4.302703e+001  2.600330e+001 
4156250000  -4.434876e+001  2.510175e+001 
4159375000  -4.354633e+001  2.616943e+001 
4162500000  -4.182936e+001  2.480732e+001 
4165625000  -4.124589e+001  1.477202e+001 
4168750000  -4.125743e+001  5.027144e+000 
4171875000  -4.110845e+001  -8.700005e+000 
4175000000  -4.169925e+001  -1.475547e+001 
4178125000  -4.254417e+001  -1.928760e+001 
4181250000  -4.223951e+001  -2.789823e+001 
4184375000  -4.257264e+001  -3.297729e+001 
4187500000  -4.243594e+001  -3.733359e+001 
4190625000  -4.258648e+001  -4.774799e+001 
4193750000  -4.380521e+001  -5.389196e+001 
4196875000  -4.507169e+001  -5.678526e+001 
4200000000  -4.605820e+001  -5.147828e+001 
4203125000  -4.427936e+001  -4.087880e+001 
4206250000  -4.087244e+001  -4.983288e+001 
4209375000  -4.138166e+001  -7.405300e+001 
4212500000  -4.405230e+001  -7.874100e+001 
4215625000  -4.432066e+001  -7.462057e+001 
4218750000  -4.219472e+001  -7.619256e+001 
4221875000  -4.093362e+001  -8.600903e+001 
4225000000  -4.233819e+001  -9.879543e+001 
4228125000  -4.217125e+001  -9.820425e+001 
4231250000  -4.061578e+001  -1.053764e+002 
4234375000  -4.085943e+001  -1.149065e+002 
4237500000  -4.085275e+001  -1.228043e+002 
4240625000  -4.122099e+001  -1.320828e+002 
4243750000  -4.215430e+001  -1.408065e+002 
4246875000  -4.314553e+001  -1.403978e+002 
4250000000  -4.263212e+001  -1.428249e+002 
4253125000  -4.231427e+001  -1.464756e+002 
4256250000  -4.231462e+001  -1.521791e+002 
4259375000  -4.183243e+001  -1.575352e+002 
4262500000  -4.226582e+001  -1.619582e+002 
4265625000  -4.184613e+001  -1.632617e+002 
4268750000  -4.085313e+001  -1.710579e+002 
4271875000  -4.069204e+001  1.781636e+002 
4275000000  -4.018900e+001  1.696849e+002 
4278125000  -4.115911e+001  1.567440e+002 
4281250000  -4.252664e+001  1.544064e+002 
4284375000  -4.219441e+001  1.518028e+002 
4287500000  -4.390122e+001  1.482538e+002 
4290625000  -4.344153e+001  1.558181e+002 
4293750000  -4.159785e+001  1.520717e+002 
4296875000  -4.055163e+001  1.384475e+002 
4300000000  -4.115075e+001  1.269407e+002 
4303125000  -4.180758e+001  1.272139e+002 
4306250000  -4.091714e+001  1.295387e+002 
4309375000  -3.941861e+001  1.190614e+002 
4312500000  -3.966633e+001  1.062369e+002 
4315625000  -4.011981e+001  9.767362e+001 
4318750000  -4.081013e+001  9.252012e+001 
4321875000  -4.054889e+001  8.975935e+001 
4325000000  -4.014416e+001  8.592397e+001 
4328125000  -3.929049e+001  7.452630e+001 
4331250000  -3.991781e+001  6.317525e+001 
4334375000  -4.076671e+001  5.345371e+001 
4337500000  -4.201472e+001  5.088485e+001 
4340625000  -4.203239e+001  5.528711e+001 
4343750000  -4.094768e+001  5.009017e+001 
4346875000  -4.097791e+001  3.779481e+001 
4350000000  -4.102028e+001  2.945881e+001 
4353125000  -4.171309e+001  2.173754e+001 
4356250000  -4.375727e+001  2.588637e+001 
4359375000  -4.300522e+001  3.770768e+001 
4362500000  -3.976908e+001  3.014515e+001 
4365625000  -3.892164e+001  7.840611e+000 
4368750000  -4.018492e+001  -1.208220e+000 
4371875000  -4.071083e+001  -2.668715e+000 
4375000000  -4.057660e+001  -7.942555e+000 
4378125000  -4.045620e+001  -1.562504e+001 
4381250000  -4.027396e+001  -2.418299e+001 
4384375000  -4.056337e+001  -3.446454e+001 
4387500000  -4.133789e+001  -3.982861e+001 
4390625000  -4.253791e+001  -4.217503e+001 
4393750000  -4.161832e+001  -4.263838e+001 
4396875000  -4.103907e+001  -4.844553e+001 
4400000000  -4.061966e+001  -5.753004e+001 
4403125000  -4.168929e+001  -6.760240e+001 
4406250000  -4.189790e+001  -7.051006e+001 
4409375000  -4.240229e+001  -7.639843e+001 
4412500000  -4.332740e+001  -7.930717e+001 
4415625000  -4.303373e+001  -7.380780e+001 
4418750000  -4.185901e+001  -7.635434e+001 
