!Agilent Technologies,E8363B,MY43030201,A.06.04.32
!Agilent E8363B: A.06.04.32
!Date: Tuesday, November 11, 2014 21:49:23
!Correction: S21(Response(S21)) 
!S1P File: Measurement: S21:
# Hz S  dB   R 50
3000000000  -4.372568e+001  -1.620464e+002 
3003125000  -4.534015e+001  -1.664646e+002 
3006250000  -4.536079e+001  -1.681257e+002 
3009375000  -4.599452e+001  -1.631178e+002 
3012500000  -4.473261e+001  -1.715153e+002 
3015625000  -4.513626e+001  -1.777058e+002 
3018750000  -4.515546e+001  -1.795569e+002 
3021875000  -4.376319e+001  -1.783840e+002 
3025000000  -4.264130e+001  1.764444e+002 
3028125000  -4.176877e+001  1.645612e+002 
3031250000  -4.107630e+001  1.521782e+002 
3034375000  -4.083996e+001  1.375274e+002 
3037500000  -4.180809e+001  1.268946e+002 
3040625000  -4.291260e+001  1.211623e+002 
3043750000  -4.310638e+001  1.148585e+002 
3046875000  -4.405365e+001  1.054991e+002 
3050000000  -4.531472e+001  9.992178e+001 
3053125000  -4.499166e+001  1.054254e+002 
3056250000  -4.475990e+001  1.084689e+002 
3059375000  -4.401146e+001  1.058402e+002 
3062500000  -4.244077e+001  9.959440e+001 
3065625000  -4.198518e+001  8.751728e+001 
3068750000  -4.177846e+001  8.055904e+001 
3071875000  -4.198248e+001  7.986298e+001 
3075000000  -4.134959e+001  7.081634e+001 
3078125000  -4.143853e+001  6.236433e+001 
3081250000  -4.128576e+001  5.581234e+001 
3084375000  -4.057475e+001  5.130680e+001 
3087500000  -4.056589e+001  4.366533e+001 
3090625000  -3.995740e+001  3.032672e+001 
3093750000  -4.097916e+001  2.030090e+001 
3096875000  -4.118090e+001  1.639398e+001 
3100000000  -4.111140e+001  1.170031e+001 
3103125000  -4.139216e+001  5.802732e+000 
3106250000  -4.102829e+001  1.345415e+000 
3109375000  -4.106887e+001  -3.929424e+000 
3112500000  -4.080690e+001  -1.169869e+001 
3115625000  -4.079382e+001  -1.558010e+001 
3118750000  -4.054669e+001  -2.076945e+001 
3121875000  -4.013662e+001  -3.194963e+001 
3125000000  -4.212889e+001  -3.787590e+001 
3128125000  -4.192664e+001  -3.151216e+001 
3131250000  -3.952542e+001  -3.899766e+001 
3134375000  -3.890538e+001  -5.749599e+001 
3137500000  -3.960091e+001  -7.166400e+001 
3140625000  -4.095081e+001  -7.413625e+001 
3143750000  -4.142590e+001  -7.860221e+001 
3146875000  -4.098622e+001  -7.725089e+001 
3150000000  -4.038040e+001  -8.419727e+001 
3153125000  -4.067347e+001  -9.035406e+001 
3156250000  -4.137516e+001  -8.853065e+001 
3159375000  -3.916528e+001  -9.230658e+001 
3162500000  -3.790849e+001  -1.084243e+002 
3165625000  -3.884021e+001  -1.238514e+002 
3168750000  -3.897652e+001  -1.251044e+002 
3171875000  -3.854462e+001  -1.336244e+002 
3175000000  -3.904551e+001  -1.430887e+002 
3178125000  -3.869404e+001  -1.453340e+002 
3181250000  -3.807166e+001  -1.544421e+002 
3184375000  -3.789965e+001  -1.665263e+002 
3187500000  -3.923898e+001  1.770757e+002 
3190625000  -4.101839e+001  1.693493e+002 
3193750000  -4.115612e+001  1.746917e+002 
3196875000  -4.125477e+001  1.742478e+002 
3200000000  -3.979064e+001  1.691898e+002 
3203125000  -3.949150e+001  1.598670e+002 
3206250000  -3.994932e+001  1.520441e+002 
3209375000  -3.943127e+001  1.429903e+002 
3212500000  -3.979726e+001  1.367504e+002 
3215625000  -3.957107e+001  1.333307e+002 
3218750000  -4.036584e+001  1.212023e+002 
3221875000  -4.090514e+001  1.134778e+002 
3225000000  -4.030438e+001  1.070212e+002 
3228125000  -4.101294e+001  9.972017e+001 
3231250000  -4.153915e+001  9.646654e+001 
3234375000  -4.093892e+001  9.104064e+001 
3237500000  -4.090226e+001  9.055193e+001 
3240625000  -4.051996e+001  8.304352e+001 
3243750000  -4.047820e+001  7.147508e+001 
3246875000  -4.057259e+001  6.347162e+001 
3250000000  -4.113060e+001  5.718869e+001 
3253125000  -4.109937e+001  5.527969e+001 
3256250000  -4.034238e+001  4.327502e+001 
3259375000  -4.093710e+001  3.131275e+001 
3262500000  -4.223063e+001  2.503636e+001 
3265625000  -4.255437e+001  2.797719e+001 
3268750000  -4.244452e+001  2.546469e+001 
3271875000  -4.152321e+001  1.971391e+001 
3275000000  -4.098646e+001  9.518617e+000 
3278125000  -4.171677e+001  2.837291e+000 
3281250000  -4.172649e+001  -1.732444e+000 
3284375000  -4.091320e+001  -1.002322e+001 
3287500000  -4.169390e+001  -1.646121e+001 
3290625000  -4.161472e+001  -2.632947e+001 
3293750000  -4.162410e+001  -3.515026e+001 
3296875000  -4.263361e+001  -3.740250e+001 
3300000000  -4.197519e+001  -4.027401e+001 
3303125000  -4.086576e+001  -5.051292e+001 
3306250000  -4.083602e+001  -6.052349e+001 
3309375000  -4.048145e+001  -7.135364e+001 
3312500000  -4.107924e+001  -8.612724e+001 
3315625000  -4.234832e+001  -9.464462e+001 
3318750000  -4.379893e+001  -1.003844e+002 
3321875000  -4.503856e+001  -1.005747e+002 
3325000000  -4.521038e+001  -9.570467e+001 
3328125000  -4.401049e+001  -9.461945e+001 
3331250000  -4.196163e+001  -9.850449e+001 
3334375000  -4.007630e+001  -1.180711e+002 
3337500000  -4.096143e+001  -1.402060e+002 
3340625000  -4.268251e+001  -1.497392e+002 
3343750000  -4.433392e+001  -1.510833e+002 
3346875000  -4.399276e+001  -1.571323e+002 
3350000000  -4.358016e+001  -1.633696e+002 
3353125000  -4.351312e+001  -1.701895e+002 
3356250000  -4.335011e+001  1.780343e+002 
3359375000  -4.430031e+001  1.637491e+002 
3362500000  -4.484958e+001  1.573165e+002 
3365625000  -4.587243e+001  1.518072e+002 
3368750000  -4.622636e+001  1.438715e+002 
3371875000  -4.671370e+001  1.389155e+002 
3375000000  -4.885697e+001  1.314785e+002 
3378125000  -4.971653e+001  1.306150e+002 
3381250000  -5.018231e+001  1.453185e+002 
3384375000  -4.739363e+001  1.545700e+002 
3387500000  -4.490454e+001  1.306521e+002 
3390625000  -4.686489e+001  1.095131e+002 
3393750000  -4.758549e+001  1.045641e+002 
3396875000  -4.606500e+001  9.968980e+001 
3400000000  -4.611875e+001  8.452861e+001 
3403125000  -4.703430e+001  7.954697e+001 
3406250000  -4.748596e+001  7.229660e+001 
3409375000  -4.725521e+001  5.975031e+001 
3412500000  -4.790307e+001  5.686131e+001 
3415625000  -4.908675e+001  4.886508e+001 
3418750000  -4.850996e+001  4.396484e+001 
3421875000  -4.899021e+001  4.215384e+001 
3425000000  -4.798027e+001  3.630548e+001 
3428125000  -4.756657e+001  2.922986e+001 
3431250000  -4.688460e+001  1.612144e+001 
3434375000  -4.697832e+001  2.524674e+000 
3437500000  -4.743825e+001  -4.679680e+000 
3440625000  -4.747920e+001  -9.126301e+000 
3443750000  -4.638080e+001  -1.309428e+001 
3446875000  -4.579657e+001  -2.673023e+001 
3450000000  -4.528479e+001  -4.303025e+001 
3453125000  -4.544561e+001  -6.038982e+001 
3456250000  -4.724204e+001  -6.932813e+001 
3459375000  -4.809374e+001  -7.295124e+001 
3462500000  -4.760036e+001  -7.572770e+001 
3465625000  -4.727352e+001  -9.040257e+001 
3468750000  -4.735331e+001  -9.609724e+001 
3471875000  -4.704573e+001  -1.028196e+002 
3475000000  -4.686536e+001  -1.142919e+002 
3478125000  -4.765563e+001  -1.309096e+002 
3481250000  -4.913906e+001  -1.348732e+002 
3484375000  -4.803971e+001  -1.319140e+002 
3487500000  -4.772584e+001  -1.411604e+002 
3490625000  -4.702888e+001  -1.539099e+002 
3493750000  -4.755509e+001  -1.702394e+002 
3496875000  -4.898031e+001  -1.719311e+002 
3500000000  -4.878007e+001  -1.750100e+002 
3503125000  -4.687978e+001  -1.754422e+002 
3506250000  -4.550652e+001  1.716443e+002 
3509375000  -4.507472e+001  1.521859e+002 
3512500000  -4.649639e+001  1.350352e+002 
3515625000  -4.738837e+001  1.306332e+002 
3518750000  -4.786973e+001  1.292894e+002 
3521875000  -4.785351e+001  1.174008e+002 
3525000000  -4.858554e+001  1.124581e+002 
3528125000  -4.755864e+001  1.171577e+002 
3531250000  -4.657396e+001  1.031203e+002 
3534375000  -4.682913e+001  8.848238e+001 
3537500000  -4.750953e+001  7.976740e+001 
3540625000  -4.847423e+001  7.439063e+001 
3543750000  -4.901762e+001  7.957367e+001 
3546875000  -4.835238e+001  8.296623e+001 
3550000000  -4.663963e+001  7.414289e+001 
3553125000  -4.620557e+001  5.386360e+001 
3556250000  -4.706372e+001  4.583657e+001 
3559375000  -4.665135e+001  4.296836e+001 
3562500000  -4.634883e+001  3.272125e+001 
3565625000  -4.749515e+001  2.344714e+001 
3568750000  -4.766224e+001  2.505896e+001 
3571875000  -4.723687e+001  2.040765e+001 
3575000000  -4.744730e+001  1.066626e+001 
3578125000  -4.785348e+001  7.281545e+000 
3581250000  -4.728943e+001  3.778939e+000 
3584375000  -4.583573e+001  -3.994609e+000 
3587500000  -4.587917e+001  -1.672753e+001 
3590625000  -4.647711e+001  -2.381820e+001 
3593750000  -4.793914e+001  -2.700216e+001 
3596875000  -4.667148e+001  -2.209074e+001 
3600000000  -4.469854e+001  -3.281396e+001 
3603125000  -4.513045e+001  -5.058463e+001 
3606250000  -4.579836e+001  -5.552692e+001 
3609375000  -4.589611e+001  -5.708468e+001 
3612500000  -4.619732e+001  -6.391345e+001 
3615625000  -4.584767e+001  -6.964196e+001 
3618750000  -4.637118e+001  -6.968478e+001 
3621875000  -4.537447e+001  -7.726039e+001 
3625000000  -4.552681e+001  -8.293449e+001 
3628125000  -4.471344e+001  -8.979461e+001 
3631250000  -4.494055e+001  -9.754811e+001 
3634375000  -4.559151e+001  -9.687708e+001 
3637500000  -4.452378e+001  -1.001209e+002 
3640625000  -4.373432e+001  -1.077347e+002 
3643750000  -4.325084e+001  -1.169578e+002 
3646875000  -4.366146e+001  -1.292572e+002 
3650000000  -4.356038e+001  -1.341262e+002 
3653125000  -4.325338e+001  -1.433766e+002 
3656250000  -4.390039e+001  -1.506163e+002 
3659375000  -4.413473e+001  -1.512841e+002 
3662500000  -4.330690e+001  -1.591843e+002 
3665625000  -4.313831e+001  -1.639106e+002 
3668750000  -4.195086e+001  -1.673692e+002 
3671875000  -4.143334e+001  1.776482e+002 
3675000000  -4.214079e+001  1.675264e+002 
3678125000  -4.248022e+001  1.632989e+002 
3681250000  -4.236838e+001  1.567735e+002 
3684375000  -4.269699e+001  1.477632e+002 
3687500000  -4.285331e+001  1.385454e+002 
3690625000  -4.348538e+001  1.330913e+002 
3693750000  -4.428651e+001  1.314817e+002 
3696875000  -4.385493e+001  1.282774e+002 
3700000000  -4.323505e+001  1.207331e+002 
3703125000  -4.356541e+001  1.135072e+002 
3706250000  -4.493904e+001  1.098907e+002 
3709375000  -4.376035e+001  1.123794e+002 
3712500000  -4.279040e+001  1.049481e+002 
3715625000  -4.158835e+001  9.553119e+001 
3718750000  -4.149147e+001  8.521310e+001 
3721875000  -4.193132e+001  7.865017e+001 
3725000000  -4.255321e+001  6.864481e+001 
3728125000  -4.233049e+001  6.469749e+001 
3731250000  -4.180177e+001  5.953032e+001 
3734375000  -4.215101e+001  5.064016e+001 
3737500000  -4.291063e+001  4.386292e+001 
3740625000  -4.311909e+001  3.745124e+001 
3743750000  -4.283726e+001  3.084692e+001 
3746875000  -4.306129e+001  2.368941e+001 
3750000000  -4.368965e+001  2.226331e+001 
3753125000  -4.340463e+001  1.762460e+001 
3756250000  -4.360081e+001  1.264774e+001 
3759375000  -4.332801e+001  6.806638e+000 
3762500000  -4.359005e+001  3.191013e+000 
3765625000  -4.438365e+001  -2.483364e+000 
3768750000  -4.353797e+001  -1.431931e+000 
3771875000  -4.196609e+001  -9.259677e+000 
3775000000  -4.199042e+001  -1.938515e+001 
3778125000  -4.274369e+001  -2.654410e+001 
3781250000  -4.257790e+001  -3.001081e+001 
3784375000  -4.260937e+001  -3.794201e+001 
3787500000  -4.230692e+001  -4.273380e+001 
3790625000  -4.299962e+001  -5.224589e+001 
3793750000  -4.259234e+001  -5.472359e+001 
3796875000  -4.163384e+001  -5.912210e+001 
3800000000  -4.080450e+001  -6.765913e+001 
3803125000  -4.163313e+001  -7.989034e+001 
3806250000  -4.240680e+001  -8.425209e+001 
3809375000  -4.146381e+001  -8.789376e+001 
3812500000  -4.132110e+001  -1.020762e+002 
3815625000  -4.291565e+001  -1.094678e+002 
3818750000  -4.433436e+001  -1.099822e+002 
3821875000  -4.352253e+001  -9.993633e+001 
3825000000  -4.151921e+001  -1.062964e+002 
3828125000  -4.035466e+001  -1.261655e+002 
3831250000  -4.157469e+001  -1.415184e+002 
3834375000  -4.358318e+001  -1.413764e+002 
3837500000  -4.396216e+001  -1.405722e+002 
3840625000  -4.263845e+001  -1.468140e+002 
3843750000  -4.181493e+001  -1.590442e+002 
3846875000  -4.333782e+001  -1.647021e+002 
3850000000  -4.385548e+001  -1.600220e+002 
3853125000  -4.343576e+001  -1.615880e+002 
3856250000  -4.288084e+001  -1.692145e+002 
3859375000  -4.208285e+001  -1.798743e+002 
3862500000  -4.198008e+001  1.704011e+002 
3865625000  -4.254843e+001  1.615729e+002 
3868750000  -4.220203e+001  1.625745e+002 
3871875000  -4.178818e+001  1.524827e+002 
3875000000  -4.240477e+001  1.404192e+002 
3878125000  -4.311661e+001  1.386957e+002 
3881250000  -4.322938e+001  1.373250e+002 
3884375000  -4.265125e+001  1.274852e+002 
3887500000  -4.310383e+001  1.220437e+002 
3890625000  -4.346579e+001  1.191429e+002 
3893750000  -4.450934e+001  1.136077e+002 
3896875000  -4.446761e+001  1.141718e+002 
3900000000  -4.410019e+001  1.084572e+002 
3903125000  -4.362338e+001  1.022434e+002 
3906250000  -4.334889e+001  9.839146e+001 
3909375000  -4.272014e+001  8.854880e+001 
3912500000  -4.405660e+001  7.762827e+001 
3915625000  -4.507087e+001  8.181999e+001 
3918750000  -4.455503e+001  8.004300e+001 
3921875000  -4.367596e+001  7.236713e+001 
3925000000  -4.285282e+001  6.515980e+001 
3928125000  -4.283102e+001  5.586723e+001 
3931250000  -4.337409e+001  4.954358e+001 
3934375000  -4.370135e+001  4.466750e+001 
3937500000  -4.471297e+001  4.269946e+001 
3940625000  -4.458078e+001  4.230197e+001 
3943750000  -4.317599e+001  3.519466e+001 
3946875000  -4.277277e+001  2.916348e+001 
3950000000  -4.397035e+001  2.387253e+001 
3953125000  -4.444886e+001  2.081738e+001 
3956250000  -4.267271e+001  1.774335e+001 
3959375000  -4.182320e+001  1.143067e+001 
3962500000  -4.127074e+001  1.534793e+000 
3965625000  -4.202300e+001  -8.359918e+000 
3968750000  -4.232069e+001  -1.839355e+001 
3971875000  -4.233387e+001  -2.330478e+001 
3975000000  -4.201243e+001  -2.298337e+001 
3978125000  -4.217184e+001  -3.112030e+001 
3981250000  -4.205894e+001  -3.923826e+001 
3984375000  -4.223685e+001  -4.630301e+001 
3987500000  -4.293579e+001  -5.344582e+001 
3990625000  -4.301860e+001  -5.831435e+001 
3993750000  -4.307846e+001  -6.346448e+001 
3996875000  -4.311579e+001  -6.838721e+001 
4000000000  -4.385321e+001  -7.132476e+001 
4003125000  -4.392815e+001  -7.493413e+001 
4006250000  -4.247405e+001  -7.998734e+001 
4009375000  -4.108548e+001  -9.682219e+001 
4012500000  -4.291994e+001  -1.030062e+002 
4015625000  -4.381445e+001  -1.039697e+002 
4018750000  -4.349094e+001  -1.095200e+002 
4021875000  -4.287988e+001  -1.133696e+002 
4025000000  -4.304209e+001  -1.232357e+002 
4028125000  -4.383020e+001  -1.271925e+002 
4031250000  -4.396951e+001  -1.368658e+002 
4034375000  -4.425078e+001  -1.404767e+002 
4037500000  -4.447448e+001  -1.393201e+002 
4040625000  -4.410941e+001  -1.468173e+002 
4043750000  -4.473973e+001  -1.520846e+002 
4046875000  -4.433433e+001  -1.564319e+002 
4050000000  -4.420992e+001  -1.624947e+002 
4053125000  -4.523981e+001  -1.681801e+002 
4056250000  -4.556708e+001  -1.628760e+002 
4059375000  -4.397417e+001  -1.665043e+002 
4062500000  -4.384261e+001  -1.737264e+002 
4065625000  -4.385921e+001  -1.796040e+002 
4068750000  -4.294657e+001  1.718477e+002 
4071875000  -4.257098e+001  1.622160e+002 
4075000000  -4.352428e+001  1.547569e+002 
4078125000  -4.405775e+001  1.503315e+002 
4081250000  -4.348525e+001  1.483387e+002 
4084375000  -4.344950e+001  1.384458e+002 
4087500000  -4.385998e+001  1.281935e+002 
4090625000  -4.458762e+001  1.255349e+002 
4093750000  -4.418104e+001  1.252722e+002 
4096875000  -4.402371e+001  1.172557e+002 
4100000000  -4.529717e+001  1.096822e+002 
4103125000  -4.580338e+001  1.116373e+002 
4106250000  -4.507597e+001  1.137052e+002 
4109375000  -4.418848e+001  1.092226e+002 
4112500000  -4.375265e+001  1.015660e+002 
4115625000  -4.391712e+001  9.486360e+001 
4118750000  -4.389744e+001  8.988410e+001 
4121875000  -4.369587e+001  8.158922e+001 
4125000000  -4.465629e+001  7.520140e+001 
4128125000  -4.521006e+001  7.531430e+001 
4131250000  -4.377778e+001  8.482254e+001 
4134375000  -4.175957e+001  7.112351e+001 
4137500000  -4.187519e+001  4.777420e+001 
4140625000  -4.409354e+001  4.293008e+001 
4143750000  -4.497707e+001  4.513197e+001 
4146875000  -4.372102e+001  5.237579e+001 
4150000000  -4.281711e+001  3.726408e+001 
4153125000  -4.304809e+001  3.040112e+001 
4156250000  -4.426010e+001  2.723895e+001 
4159375000  -4.374874e+001  2.723964e+001 
4162500000  -4.266862e+001  2.655226e+001 
4165625000  -4.133928e+001  1.497076e+001 
4168750000  -4.102891e+001  4.635530e+000 
4171875000  -4.116148e+001  -7.261561e+000 
4175000000  -4.182258e+001  -1.609339e+001 
4178125000  -4.221444e+001  -1.776418e+001 
4181250000  -4.194487e+001  -2.283478e+001 
4184375000  -4.232521e+001  -3.048796e+001 
4187500000  -4.217862e+001  -3.802565e+001 
4190625000  -4.263348e+001  -4.625385e+001 
4193750000  -4.434267e+001  -5.063392e+001 
4196875000  -4.497062e+001  -5.464692e+001 
4200000000  -4.565873e+001  -4.887534e+001 
4203125000  -4.474883e+001  -3.954112e+001 
4206250000  -4.107450e+001  -4.921683e+001 
4209375000  -4.143458e+001  -7.434371e+001 
4212500000  -4.319333e+001  -8.131459e+001 
4215625000  -4.384676e+001  -7.388641e+001 
4218750000  -4.247068e+001  -7.259127e+001 
4221875000  -4.067666e+001  -8.577489e+001 
4225000000  -4.233099e+001  -9.635426e+001 
4228125000  -4.193960e+001  -9.500371e+001 
4231250000  -4.083510e+001  -1.036448e+002 
4234375000  -4.072570e+001  -1.173701e+002 
4237500000  -4.095931e+001  -1.210701e+002 
4240625000  -4.078358e+001  -1.319201e+002 
4243750000  -4.216285e+001  -1.408275e+002 
4246875000  -4.306613e+001  -1.398009e+002 
4250000000  -4.275820e+001  -1.410620e+002 
4253125000  -4.226619e+001  -1.438854e+002 
4256250000  -4.224138e+001  -1.523435e+002 
4259375000  -4.220202e+001  -1.561017e+002 
4262500000  -4.243285e+001  -1.577670e+002 
4265625000  -4.193496e+001  -1.589295e+002 
4268750000  -4.047299e+001  -1.710579e+002 
4271875000  -4.053168e+001  1.797503e+002 
4275000000  -4.016607e+001  1.688175e+002 
4278125000  -4.134590e+001  1.591218e+002 
4281250000  -4.191883e+001  1.579440e+002 
4284375000  -4.232923e+001  1.500413e+002 
4287500000  -4.346281e+001  1.508175e+002 
4290625000  -4.370342e+001  1.554712e+002 
4293750000  -4.117289e+001  1.536812e+002 
4296875000  -4.027722e+001  1.388882e+002 
4300000000  -4.156676e+001  1.276978e+002 
4303125000  -4.162525e+001  1.313506e+002 
4306250000  -4.062465e+001  1.282952e+002 
4309375000  -3.968692e+001  1.205943e+002 
4312500000  -3.972912e+001  1.085461e+002 
4315625000  -4.011666e+001  9.808941e+001 
4318750000  -4.094976e+001  9.438267e+001 
4321875000  -4.084582e+001  9.105843e+001 
4325000000  -3.998573e+001  8.676710e+001 
4328125000  -3.937843e+001  7.578056e+001 
4331250000  -3.978112e+001  6.289186e+001 
4334375000  -4.048052e+001  5.502136e+001 
4337500000  -4.216253e+001  5.273336e+001 
4340625000  -4.204222e+001  5.595817e+001 
4343750000  -4.138036e+001  5.043147e+001 
4346875000  -4.097869e+001  4.272188e+001 
4350000000  -4.077085e+001  3.108220e+001 
4353125000  -4.190937e+001  2.197098e+001 
4356250000  -4.396215e+001  2.630781e+001 
4359375000  -4.269762e+001  3.459257e+001 
4362500000  -3.910077e+001  3.057524e+001 
4365625000  -3.918360e+001  1.166364e+001 
4368750000  -4.037521e+001  4.238189e-001 
4371875000  -4.085047e+001  -1.522458e+000 
4375000000  -4.040006e+001  -8.178367e+000 
4378125000  -4.061460e+001  -1.472436e+001 
4381250000  -4.047026e+001  -2.386143e+001 
4384375000  -4.055709e+001  -3.129601e+001 
4387500000  -4.189742e+001  -3.832875e+001 
4390625000  -4.186872e+001  -3.966351e+001 
4393750000  -4.148934e+001  -4.126023e+001 
4396875000  -4.105258e+001  -4.545488e+001 
4400000000  -4.063806e+001  -5.565426e+001 
4403125000  -4.132436e+001  -6.716534e+001 
4406250000  -4.219757e+001  -7.172094e+001 
4409375000  -4.248595e+001  -7.604444e+001 
4412500000  -4.353365e+001  -7.743900e+001 
4415625000  -4.324921e+001  -7.474239e+001 
4418750000  -4.190469e+001  -7.721040e+001 
