!Agilent Technologies,E8363B,MY43030201,A.06.04.32
!Agilent E8363B: A.06.04.32
!Date: Tuesday, November 11, 2014 21:47:17
!Correction: S21(Response(S21)) 
!S1P File: Measurement: S21:
# Hz S  dB   R 50
3000000000  -4.384938e+001  -1.607434e+002 
3003125000  -4.532072e+001  -1.660624e+002 
3006250000  -4.546547e+001  -1.664633e+002 
3009375000  -4.619041e+001  -1.648244e+002 
3012500000  -4.498608e+001  -1.706476e+002 
3015625000  -4.493183e+001  -1.776870e+002 
3018750000  -4.536410e+001  -1.771507e+002 
3021875000  -4.401571e+001  1.799894e+002 
3025000000  -4.256562e+001  1.768407e+002 
3028125000  -4.154818e+001  1.646117e+002 
3031250000  -4.092749e+001  1.524686e+002 
3034375000  -4.081723e+001  1.381293e+002 
3037500000  -4.146723e+001  1.268010e+002 
3040625000  -4.282608e+001  1.202575e+002 
3043750000  -4.330840e+001  1.157755e+002 
3046875000  -4.396640e+001  1.070190e+002 
3050000000  -4.505950e+001  1.026883e+002 
3053125000  -4.482025e+001  1.049285e+002 
3056250000  -4.454014e+001  1.090032e+002 
3059375000  -4.389068e+001  1.057694e+002 
3062500000  -4.250417e+001  1.009933e+002 
3065625000  -4.218185e+001  9.077743e+001 
3068750000  -4.167009e+001  8.140205e+001 
3071875000  -4.188770e+001  7.852873e+001 
3075000000  -4.123359e+001  7.106830e+001 
3078125000  -4.131911e+001  6.346155e+001 
3081250000  -4.131006e+001  5.639180e+001 
3084375000  -4.044555e+001  5.182197e+001 
3087500000  -4.047572e+001  4.390897e+001 
3090625000  -4.002128e+001  3.061214e+001 
3093750000  -4.087315e+001  2.220087e+001 
3096875000  -4.117602e+001  1.635168e+001 
3100000000  -4.110494e+001  1.176770e+001 
3103125000  -4.146595e+001  6.060824e+000 
3106250000  -4.098786e+001  2.008686e+000 
3109375000  -4.094912e+001  -3.152280e+000 
3112500000  -4.082340e+001  -1.183153e+001 
3115625000  -4.080212e+001  -1.466810e+001 
3118750000  -4.075148e+001  -2.149877e+001 
3121875000  -4.026001e+001  -3.251298e+001 
3125000000  -4.194029e+001  -3.583675e+001 
3128125000  -4.191845e+001  -3.120404e+001 
3131250000  -3.949512e+001  -3.810349e+001 
3134375000  -3.894931e+001  -5.708560e+001 
3137500000  -3.942278e+001  -7.035461e+001 
3140625000  -4.095108e+001  -7.429462e+001 
3143750000  -4.171994e+001  -7.856355e+001 
3146875000  -4.101884e+001  -7.674572e+001 
3150000000  -4.025514e+001  -8.259821e+001 
3153125000  -4.064845e+001  -9.099265e+001 
3156250000  -4.138292e+001  -8.898594e+001 
3159375000  -3.903255e+001  -9.229578e+001 
3162500000  -3.774789e+001  -1.083783e+002 
3165625000  -3.895147e+001  -1.226399e+002 
3168750000  -3.909067e+001  -1.244298e+002 
3171875000  -3.852627e+001  -1.321607e+002 
3175000000  -3.913742e+001  -1.426516e+002 
3178125000  -3.877523e+001  -1.453828e+002 
3181250000  -3.805173e+001  -1.547781e+002 
3184375000  -3.791798e+001  -1.662238e+002 
3187500000  -3.923638e+001  1.782809e+002 
3190625000  -4.080551e+001  1.696828e+002 
3193750000  -4.107296e+001  1.760500e+002 
3196875000  -4.098725e+001  1.732557e+002 
3200000000  -3.979248e+001  1.688453e+002 
3203125000  -3.969798e+001  1.604838e+002 
3206250000  -3.990561e+001  1.516243e+002 
3209375000  -3.951897e+001  1.423000e+002 
3212500000  -3.979332e+001  1.348687e+002 
3215625000  -3.950467e+001  1.339283e+002 
3218750000  -4.032817e+001  1.202494e+002 
3221875000  -4.053442e+001  1.137122e+002 
3225000000  -4.057630e+001  1.075453e+002 
3228125000  -4.106839e+001  1.016421e+002 
3231250000  -4.151212e+001  9.724014e+001 
3234375000  -4.109356e+001  9.502728e+001 
3237500000  -4.111716e+001  8.982905e+001 
3240625000  -4.027261e+001  8.310180e+001 
3243750000  -4.035316e+001  7.194334e+001 
3246875000  -4.061499e+001  6.369866e+001 
3250000000  -4.114988e+001  5.819073e+001 
3253125000  -4.105652e+001  5.419701e+001 
3256250000  -4.038887e+001  4.570345e+001 
3259375000  -4.090340e+001  3.091092e+001 
3262500000  -4.233070e+001  2.630958e+001 
3265625000  -4.262294e+001  2.661974e+001 
3268750000  -4.268109e+001  2.720205e+001 
3271875000  -4.165293e+001  2.080340e+001 
3275000000  -4.101128e+001  1.034566e+001 
3278125000  -4.174750e+001  2.970789e+000 
3281250000  -4.183873e+001  6.437697e-001 
3284375000  -4.125086e+001  -8.108524e+000 
3287500000  -4.152557e+001  -1.580974e+001 
3290625000  -4.166323e+001  -2.616123e+001 
3293750000  -4.161289e+001  -3.392369e+001 
3296875000  -4.275520e+001  -3.801324e+001 
3300000000  -4.211071e+001  -4.019453e+001 
3303125000  -4.080686e+001  -4.926133e+001 
3306250000  -4.100726e+001  -6.155008e+001 
3309375000  -4.061367e+001  -7.150602e+001 
3312500000  -4.116557e+001  -8.545761e+001 
3315625000  -4.230825e+001  -9.463625e+001 
3318750000  -4.370384e+001  -1.005260e+002 
3321875000  -4.535885e+001  -9.953728e+001 
3325000000  -4.510820e+001  -9.618495e+001 
3328125000  -4.377827e+001  -9.583984e+001 
3331250000  -4.239700e+001  -1.003197e+002 
3334375000  -4.004583e+001  -1.172103e+002 
3337500000  -4.093480e+001  -1.400570e+002 
3340625000  -4.270370e+001  -1.493753e+002 
3343750000  -4.472435e+001  -1.535108e+002 
3346875000  -4.419180e+001  -1.571828e+002 
3350000000  -4.370113e+001  -1.624799e+002 
3353125000  -4.346401e+001  -1.696517e+002 
3356250000  -4.333482e+001  1.794776e+002 
3359375000  -4.420786e+001  1.660314e+002 
3362500000  -4.503835e+001  1.584117e+002 
3365625000  -4.589022e+001  1.516869e+002 
3368750000  -4.667751e+001  1.491052e+002 
3371875000  -4.677152e+001  1.406673e+002 
3375000000  -4.826925e+001  1.355228e+002 
3378125000  -4.925769e+001  1.327366e+002 
3381250000  -5.006697e+001  1.428346e+002 
3384375000  -4.729455e+001  1.512941e+002 
3387500000  -4.480984e+001  1.292939e+002 
3390625000  -4.637303e+001  1.099289e+002 
3393750000  -4.768759e+001  1.049989e+002 
3396875000  -4.597407e+001  9.906174e+001 
3400000000  -4.592113e+001  8.795487e+001 
3403125000  -4.652024e+001  7.909732e+001 
3406250000  -4.769595e+001  6.813332e+001 
3409375000  -4.677501e+001  6.198510e+001 
3412500000  -4.782669e+001  5.360077e+001 
3415625000  -4.852496e+001  5.097575e+001 
3418750000  -4.949255e+001  4.612065e+001 
3421875000  -4.941976e+001  4.304683e+001 
3425000000  -4.787736e+001  3.591240e+001 
3428125000  -4.710455e+001  2.917971e+001 
3431250000  -4.682518e+001  1.675993e+001 
3434375000  -4.689613e+001  4.275975e+000 
3437500000  -4.769043e+001  -5.423140e+000 
3440625000  -4.766386e+001  -9.929502e+000 
3443750000  -4.633709e+001  -1.018077e+001 
3446875000  -4.587844e+001  -2.952047e+001 
3450000000  -4.537755e+001  -4.424153e+001 
3453125000  -4.571733e+001  -5.883737e+001 
3456250000  -4.729226e+001  -6.867881e+001 
3459375000  -4.823411e+001  -7.088907e+001 
3462500000  -4.766841e+001  -7.652617e+001 
3465625000  -4.755358e+001  -8.835537e+001 
3468750000  -4.754060e+001  -9.546659e+001 
3471875000  -4.713538e+001  -1.031078e+002 
3475000000  -4.673480e+001  -1.166158e+002 
3478125000  -4.755009e+001  -1.310600e+002 
3481250000  -4.888762e+001  -1.359835e+002 
3484375000  -4.840916e+001  -1.346445e+002 
3487500000  -4.763409e+001  -1.427768e+002 
3490625000  -4.702020e+001  -1.534436e+002 
3493750000  -4.769247e+001  -1.661015e+002 
3496875000  -4.827257e+001  -1.716579e+002 
3500000000  -4.777795e+001  -1.715838e+002 
3503125000  -4.745677e+001  -1.702385e+002 
3506250000  -4.527852e+001  1.716043e+002 
3509375000  -4.540934e+001  1.517242e+002 
3512500000  -4.632809e+001  1.359462e+002 
3515625000  -4.727224e+001  1.327433e+002 
3518750000  -4.788384e+001  1.303989e+002 
3521875000  -4.811430e+001  1.208241e+002 
3525000000  -4.861118e+001  1.136295e+002 
3528125000  -4.762411e+001  1.157550e+002 
3531250000  -4.666404e+001  1.027131e+002 
3534375000  -4.681165e+001  8.955824e+001 
3537500000  -4.779650e+001  7.809393e+001 
3540625000  -4.888506e+001  7.389350e+001 
3543750000  -4.938002e+001  8.007635e+001 
3546875000  -4.874665e+001  8.325333e+001 
3550000000  -4.650677e+001  7.042252e+001 
3553125000  -4.590627e+001  5.385695e+001 
3556250000  -4.741347e+001  4.781092e+001 
3559375000  -4.665067e+001  4.121648e+001 
3562500000  -4.668173e+001  3.124189e+001 
3565625000  -4.747826e+001  2.469454e+001 
3568750000  -4.802492e+001  2.089333e+001 
3571875000  -4.696739e+001  1.906390e+001 
3575000000  -4.662363e+001  1.144613e+001 
3578125000  -4.785837e+001  6.966832e+000 
3581250000  -4.748648e+001  5.567597e+000 
3584375000  -4.586831e+001  -2.413271e+000 
3587500000  -4.549291e+001  -1.475343e+001 
3590625000  -4.646099e+001  -2.468836e+001 
3593750000  -4.785650e+001  -2.437869e+001 
3596875000  -4.698551e+001  -2.069332e+001 
3600000000  -4.509665e+001  -3.257126e+001 
3603125000  -4.480451e+001  -4.889161e+001 
3606250000  -4.574340e+001  -5.473322e+001 
3609375000  -4.636562e+001  -5.978379e+001 
3612500000  -4.625119e+001  -6.625995e+001 
3615625000  -4.606654e+001  -6.719960e+001 
3618750000  -4.603661e+001  -7.101392e+001 
3621875000  -4.551125e+001  -7.808339e+001 
3625000000  -4.575309e+001  -7.952517e+001 
3628125000  -4.492241e+001  -9.022811e+001 
3631250000  -4.466844e+001  -9.861640e+001 
3634375000  -4.549279e+001  -1.002292e+002 
3637500000  -4.443383e+001  -9.899870e+001 
3640625000  -4.363103e+001  -1.066223e+002 
3643750000  -4.311269e+001  -1.168021e+002 
3646875000  -4.397740e+001  -1.298395e+002 
3650000000  -4.382345e+001  -1.341454e+002 
3653125000  -4.297587e+001  -1.436358e+002 
3656250000  -4.392615e+001  -1.494581e+002 
3659375000  -4.364820e+001  -1.531247e+002 
3662500000  -4.340827e+001  -1.600071e+002 
3665625000  -4.351348e+001  -1.628889e+002 
3668750000  -4.194361e+001  -1.686021e+002 
3671875000  -4.129527e+001  1.764550e+002 
3675000000  -4.207263e+001  1.671059e+002 
3678125000  -4.257861e+001  1.638472e+002 
3681250000  -4.239661e+001  1.557157e+002 
3684375000  -4.257016e+001  1.506775e+002 
3687500000  -4.306562e+001  1.392493e+002 
3690625000  -4.358725e+001  1.317985e+002 
3693750000  -4.440892e+001  1.330867e+002 
3696875000  -4.373357e+001  1.277255e+002 
3700000000  -4.297573e+001  1.215435e+002 
3703125000  -4.358646e+001  1.119339e+002 
3706250000  -4.516532e+001  1.095769e+002 
3709375000  -4.384792e+001  1.119883e+002 
3712500000  -4.261488e+001  1.066231e+002 
3715625000  -4.177831e+001  9.588408e+001 
3718750000  -4.153147e+001  8.835344e+001 
3721875000  -4.169392e+001  7.488174e+001 
3725000000  -4.239577e+001  6.837618e+001 
3728125000  -4.250558e+001  6.531330e+001 
3731250000  -4.216310e+001  5.742219e+001 
3734375000  -4.178606e+001  5.195157e+001 
3737500000  -4.256977e+001  4.296788e+001 
3740625000  -4.294830e+001  3.764144e+001 
3743750000  -4.272900e+001  3.089811e+001 
3746875000  -4.334056e+001  2.269053e+001 
3750000000  -4.369470e+001  2.170430e+001 
3753125000  -4.350596e+001  1.716945e+001 
3756250000  -4.388783e+001  1.418615e+001 
3759375000  -4.332993e+001  6.845381e+000 
3762500000  -4.360998e+001  5.014265e+000 
3765625000  -4.406111e+001  -1.617596e+000 
3768750000  -4.320676e+001  9.810732e-001 
3771875000  -4.192712e+001  -7.927902e+000 
3775000000  -4.214651e+001  -2.041905e+001 
3778125000  -4.257368e+001  -2.628352e+001 
3781250000  -4.253641e+001  -2.994082e+001 
3784375000  -4.251658e+001  -3.691614e+001 
3787500000  -4.212806e+001  -4.096573e+001 
3790625000  -4.298097e+001  -5.277032e+001 
3793750000  -4.288157e+001  -5.634526e+001 
3796875000  -4.150473e+001  -5.886921e+001 
3800000000  -4.059915e+001  -6.815476e+001 
3803125000  -4.160978e+001  -7.958910e+001 
3806250000  -4.261501e+001  -8.351212e+001 
3809375000  -4.186674e+001  -8.731385e+001 
3812500000  -4.185691e+001  -9.895303e+001 
3815625000  -4.312217e+001  -1.106680e+002 
3818750000  -4.418607e+001  -1.066731e+002 
3821875000  -4.354614e+001  -9.745922e+001 
3825000000  -4.119467e+001  -1.035205e+002 
3828125000  -4.021476e+001  -1.241063e+002 
3831250000  -4.150866e+001  -1.412499e+002 
3834375000  -4.381009e+001  -1.420512e+002 
3837500000  -4.406921e+001  -1.373829e+002 
3840625000  -4.238989e+001  -1.430257e+002 
3843750000  -4.193247e+001  -1.597242e+002 
3846875000  -4.354202e+001  -1.679562e+002 
3850000000  -4.419438e+001  -1.601130e+002 
3853125000  -4.319923e+001  -1.622002e+002 
3856250000  -4.277166e+001  -1.687339e+002 
3859375000  -4.189068e+001  -1.782592e+002 
3862500000  -4.201836e+001  1.712823e+002 
3865625000  -4.242100e+001  1.629669e+002 
3868750000  -4.245755e+001  1.611935e+002 
3871875000  -4.165552e+001  1.556829e+002 
3875000000  -4.247893e+001  1.396993e+002 
3878125000  -4.308401e+001  1.395637e+002 
3881250000  -4.308977e+001  1.375746e+002 
3884375000  -4.260571e+001  1.282210e+002 
3887500000  -4.318483e+001  1.229983e+002 
3890625000  -4.404782e+001  1.191374e+002 
3893750000  -4.390451e+001  1.133576e+002 
3896875000  -4.388728e+001  1.112689e+002 
3900000000  -4.441819e+001  1.077598e+002 
3903125000  -4.326120e+001  1.015747e+002 
3906250000  -4.353898e+001  9.906126e+001 
3909375000  -4.263919e+001  8.936690e+001 
3912500000  -4.354943e+001  8.022999e+001 
3915625000  -4.485635e+001  8.057375e+001 
3918750000  -4.489608e+001  7.789442e+001 
3921875000  -4.402075e+001  7.267061e+001 
3925000000  -4.300150e+001  6.694242e+001 
3928125000  -4.275417e+001  5.566626e+001 
3931250000  -4.337663e+001  4.751284e+001 
3934375000  -4.403910e+001  4.595051e+001 
3937500000  -4.425386e+001  4.831941e+001 
3940625000  -4.456378e+001  4.304107e+001 
3943750000  -4.299499e+001  3.893351e+001 
3946875000  -4.286934e+001  3.087822e+001 
3950000000  -4.370393e+001  2.350379e+001 
3953125000  -4.438499e+001  2.515067e+001 
3956250000  -4.309814e+001  2.103587e+001 
3959375000  -4.177822e+001  1.378029e+001 
3962500000  -4.154787e+001  3.666240e+000 
3965625000  -4.177897e+001  -7.824599e+000 
3968750000  -4.227935e+001  -1.628116e+001 
3971875000  -4.243109e+001  -2.238401e+001 
3975000000  -4.210662e+001  -2.412392e+001 
3978125000  -4.180830e+001  -3.124197e+001 
3981250000  -4.169331e+001  -3.991172e+001 
3984375000  -4.220340e+001  -4.984938e+001 
3987500000  -4.313215e+001  -5.227681e+001 
3990625000  -4.275425e+001  -5.753834e+001 
3993750000  -4.296706e+001  -6.318621e+001 
3996875000  -4.293867e+001  -6.700072e+001 
4000000000  -4.376786e+001  -7.181130e+001 
4003125000  -4.386644e+001  -7.292471e+001 
4006250000  -4.194595e+001  -7.782906e+001 
4009375000  -4.136276e+001  -9.646001e+001 
4012500000  -4.257065e+001  -1.026560e+002 
4015625000  -4.376204e+001  -1.026219e+002 
4018750000  -4.366556e+001  -1.087202e+002 
4021875000  -4.305492e+001  -1.153602e+002 
4025000000  -4.317183e+001  -1.207948e+002 
4028125000  -4.339878e+001  -1.299573e+002 
4031250000  -4.376359e+001  -1.356130e+002 
4034375000  -4.376632e+001  -1.415455e+002 
4037500000  -4.393787e+001  -1.440591e+002 
4040625000  -4.417981e+001  -1.472091e+002 
4043750000  -4.452658e+001  -1.514972e+002 
4046875000  -4.417720e+001  -1.551416e+002 
4050000000  -4.399879e+001  -1.638377e+002 
4053125000  -4.519100e+001  -1.649029e+002 
4056250000  -4.578348e+001  -1.609830e+002 
4059375000  -4.413777e+001  -1.659070e+002 
4062500000  -4.341187e+001  -1.768900e+002 
4065625000  -4.342027e+001  -1.798463e+002 
4068750000  -4.311605e+001  1.710996e+002 
4071875000  -4.255063e+001  1.611949e+002 
4075000000  -4.343834e+001  1.532962e+002 
4078125000  -4.369551e+001  1.535608e+002 
4081250000  -4.333510e+001  1.463663e+002 
4084375000  -4.339372e+001  1.367121e+002 
4087500000  -4.376524e+001  1.280993e+002 
4090625000  -4.461165e+001  1.279162e+002 
4093750000  -4.435973e+001  1.246393e+002 
4096875000  -4.411874e+001  1.172342e+002 
4100000000  -4.518560e+001  1.081815e+002 
4103125000  -4.617727e+001  1.140083e+002 
4106250000  -4.553847e+001  1.124472e+002 
4109375000  -4.443482e+001  1.100091e+002 
4112500000  -4.399039e+001  1.003406e+002 
4115625000  -4.413465e+001  9.474503e+001 
4118750000  -4.438605e+001  8.856276e+001 
4121875000  -4.359209e+001  8.361943e+001 
4125000000  -4.441180e+001  7.456584e+001 
4128125000  -4.500774e+001  7.921406e+001 
4131250000  -4.362295e+001  8.035337e+001 
4134375000  -4.128584e+001  6.978017e+001 
4137500000  -4.221299e+001  4.838401e+001 
4140625000  -4.389428e+001  4.199338e+001 
4143750000  -4.488304e+001  5.020407e+001 
4146875000  -4.406870e+001  4.876594e+001 
4150000000  -4.280324e+001  3.997398e+001 
4153125000  -4.332655e+001  2.904082e+001 
4156250000  -4.373499e+001  2.673838e+001 
4159375000  -4.379530e+001  2.835824e+001 
4162500000  -4.233527e+001  2.595062e+001 
4165625000  -4.152272e+001  1.599201e+001 
4168750000  -4.121492e+001  3.967229e+000 
4171875000  -4.111031e+001  -7.863685e+000 
4175000000  -4.170538e+001  -1.446125e+001 
4178125000  -4.246222e+001  -1.823460e+001 
4181250000  -4.179071e+001  -2.588036e+001 
4184375000  -4.252205e+001  -3.041929e+001 
4187500000  -4.257853e+001  -3.518959e+001 
4190625000  -4.261164e+001  -4.744903e+001 
4193750000  -4.376304e+001  -5.223679e+001 
4196875000  -4.445671e+001  -5.487163e+001 
4200000000  -4.596379e+001  -4.633101e+001 
4203125000  -4.415607e+001  -3.891076e+001 
4206250000  -4.108514e+001  -4.930749e+001 
4209375000  -4.138793e+001  -7.415430e+001 
4212500000  -4.390538e+001  -7.994228e+001 
4215625000  -4.401550e+001  -7.224634e+001 
4218750000  -4.246641e+001  -7.445577e+001 
4221875000  -4.127611e+001  -8.590480e+001 
4225000000  -4.216564e+001  -9.572120e+001 
4228125000  -4.191845e+001  -9.483601e+001 
4231250000  -4.093075e+001  -1.024526e+002 
4234375000  -4.093135e+001  -1.165647e+002 
4237500000  -4.078985e+001  -1.206739e+002 
4240625000  -4.110516e+001  -1.323087e+002 
4243750000  -4.213911e+001  -1.386593e+002 
4246875000  -4.330055e+001  -1.389797e+002 
4250000000  -4.251018e+001  -1.382650e+002 
4253125000  -4.276793e+001  -1.428933e+002 
4256250000  -4.229636e+001  -1.499163e+002 
4259375000  -4.248290e+001  -1.548142e+002 
4262500000  -4.221509e+001  -1.624319e+002 
4265625000  -4.204122e+001  -1.624006e+002 
4268750000  -4.107639e+001  -1.694720e+002 
4271875000  -4.045615e+001  1.799152e+002 
4275000000  -4.033390e+001  1.690915e+002 
4278125000  -4.120707e+001  1.603753e+002 
4281250000  -4.240747e+001  1.581366e+002 
4284375000  -4.247064e+001  1.530298e+002 
4287500000  -4.352513e+001  1.519951e+002 
4290625000  -4.381770e+001  1.557464e+002 
4293750000  -4.120719e+001  1.559462e+002 
4296875000  -4.063406e+001  1.405998e+002 
4300000000  -4.113225e+001  1.311233e+002 
4303125000  -4.178172e+001  1.285791e+002 
4306250000  -4.087031e+001  1.283518e+002 
4309375000  -3.987496e+001  1.198966e+002 
4312500000  -3.958574e+001  1.077370e+002 
4315625000  -4.015899e+001  9.828758e+001 
4318750000  -4.101698e+001  9.318396e+001 
4321875000  -4.084666e+001  9.101307e+001 
4325000000  -4.000724e+001  8.658091e+001 
4328125000  -3.914442e+001  7.480733e+001 
4331250000  -3.958638e+001  6.353587e+001 
4334375000  -4.064468e+001  5.593868e+001 
4337500000  -4.200449e+001  5.210055e+001 
4340625000  -4.213506e+001  5.536589e+001 
4343750000  -4.101354e+001  5.113050e+001 
4346875000  -4.096107e+001  3.955115e+001 
4350000000  -4.097158e+001  3.178904e+001 
4353125000  -4.202381e+001  2.351941e+001 
4356250000  -4.385788e+001  2.443794e+001 
4359375000  -4.242818e+001  3.844779e+001 
4362500000  -3.932925e+001  2.722693e+001 
4365625000  -3.926178e+001  1.264008e+001 
4368750000  -4.015075e+001  2.149195e+000 
4371875000  -4.130436e+001  -5.371208e-001 
4375000000  -4.060331e+001  -6.082753e+000 
4378125000  -4.037029e+001  -1.363491e+001 
4381250000  -4.049688e+001  -2.225294e+001 
4384375000  -4.073411e+001  -3.113319e+001 
4387500000  -4.152145e+001  -3.695290e+001 
4390625000  -4.234533e+001  -3.871691e+001 
4393750000  -4.151896e+001  -4.226648e+001 
4396875000  -4.131914e+001  -4.555972e+001 
4400000000  -4.077776e+001  -5.680635e+001 
4403125000  -4.165192e+001  -6.611827e+001 
4406250000  -4.198184e+001  -6.785573e+001 
4409375000  -4.240124e+001  -7.478738e+001 
4412500000  -4.384761e+001  -7.895479e+001 
4415625000  -4.297635e+001  -7.544366e+001 
4418750000  -4.205907e+001  -7.697978e+001 
