!Agilent Technologies,E8363B,MY43030201,A.06.04.32
!Agilent E8363B: A.06.04.32
!Date: Tuesday, November 11, 2014 21:50:57
!Correction: S21(Response(S21)) 
!S1P File: Measurement: S21:
# Hz S  dB   R 50
3000000000  -4.351991e+001  -1.632439e+002 
3003125000  -4.503956e+001  -1.685890e+002 
3006250000  -4.536370e+001  -1.681614e+002 
3009375000  -4.613850e+001  -1.661012e+002 
3012500000  -4.495154e+001  -1.717231e+002 
3015625000  -4.523846e+001  -1.783748e+002 
3018750000  -4.547746e+001  -1.799993e+002 
3021875000  -4.393657e+001  -1.788963e+002 
3025000000  -4.271416e+001  1.759447e+002 
3028125000  -4.172350e+001  1.638513e+002 
3031250000  -4.096700e+001  1.504135e+002 
3034375000  -4.089524e+001  1.372785e+002 
3037500000  -4.152615e+001  1.261214e+002 
3040625000  -4.288184e+001  1.205098e+002 
3043750000  -4.358919e+001  1.144515e+002 
3046875000  -4.433400e+001  1.079192e+002 
3050000000  -4.495912e+001  1.037046e+002 
3053125000  -4.498919e+001  1.045344e+002 
3056250000  -4.443135e+001  1.059614e+002 
3059375000  -4.412102e+001  1.044320e+002 
3062500000  -4.235564e+001  1.004591e+002 
3065625000  -4.208257e+001  8.802068e+001 
3068750000  -4.176427e+001  8.035423e+001 
3071875000  -4.191838e+001  7.905068e+001 
3075000000  -4.119215e+001  6.865464e+001 
3078125000  -4.114210e+001  6.313613e+001 
3081250000  -4.132579e+001  5.502699e+001 
3084375000  -4.043250e+001  5.011665e+001 
3087500000  -4.068658e+001  4.218433e+001 
3090625000  -4.008887e+001  2.930936e+001 
3093750000  -4.111777e+001  2.057083e+001 
3096875000  -4.111051e+001  1.476209e+001 
3100000000  -4.113564e+001  1.060529e+001 
3103125000  -4.145877e+001  6.889903e+000 
3106250000  -4.106330e+001  -4.634988e-001 
3109375000  -4.099246e+001  -4.363335e+000 
3112500000  -4.095291e+001  -1.149335e+001 
3115625000  -4.084349e+001  -1.612072e+001 
3118750000  -4.068801e+001  -2.203382e+001 
3121875000  -4.017688e+001  -3.290121e+001 
3125000000  -4.211007e+001  -3.672150e+001 
3128125000  -4.198115e+001  -3.115996e+001 
3131250000  -3.946726e+001  -3.961463e+001 
3134375000  -3.905173e+001  -5.832900e+001 
3137500000  -3.961590e+001  -7.103116e+001 
3140625000  -4.072068e+001  -7.582658e+001 
3143750000  -4.153689e+001  -7.866142e+001 
3146875000  -4.097250e+001  -7.734234e+001 
3150000000  -4.053344e+001  -8.417284e+001 
3153125000  -4.070294e+001  -9.252480e+001 
3156250000  -4.139449e+001  -8.948190e+001 
3159375000  -3.907052e+001  -9.255472e+001 
3162500000  -3.760766e+001  -1.106523e+002 
3165625000  -3.892358e+001  -1.242259e+002 
3168750000  -3.900761e+001  -1.251429e+002 
3171875000  -3.859410e+001  -1.339456e+002 
3175000000  -3.913605e+001  -1.440002e+002 
3178125000  -3.867016e+001  -1.462400e+002 
3181250000  -3.801053e+001  -1.557833e+002 
3184375000  -3.782365e+001  -1.676901e+002 
3187500000  -3.910246e+001  1.775995e+002 
3190625000  -4.068676e+001  1.695075e+002 
3193750000  -4.116705e+001  1.739278e+002 
3196875000  -4.119893e+001  1.737055e+002 
3200000000  -3.978842e+001  1.680887e+002 
3203125000  -3.958144e+001  1.597172e+002 
3206250000  -3.992281e+001  1.516380e+002 
3209375000  -3.950783e+001  1.419592e+002 
3212500000  -3.992502e+001  1.349548e+002 
3215625000  -3.961137e+001  1.316320e+002 
3218750000  -4.019858e+001  1.186730e+002 
3221875000  -4.077275e+001  1.121011e+002 
3225000000  -4.057870e+001  1.072433e+002 
3228125000  -4.122346e+001  9.991968e+001 
3231250000  -4.126013e+001  9.629984e+001 
3234375000  -4.079315e+001  9.412329e+001 
3237500000  -4.098792e+001  8.861211e+001 
3240625000  -4.039678e+001  8.076001e+001 
3243750000  -4.019535e+001  7.011314e+001 
3246875000  -4.065573e+001  6.361621e+001 
3250000000  -4.113785e+001  5.781834e+001 
3253125000  -4.114257e+001  5.353999e+001 
3256250000  -4.036709e+001  4.456705e+001 
3259375000  -4.071347e+001  3.165195e+001 
3262500000  -4.235300e+001  2.597181e+001 
3265625000  -4.275994e+001  2.623481e+001 
3268750000  -4.232704e+001  2.645390e+001 
3271875000  -4.154198e+001  2.042305e+001 
3275000000  -4.106853e+001  9.796608e+000 
3278125000  -4.164594e+001  2.487487e+000 
3281250000  -4.201251e+001  -1.737839e+000 
3284375000  -4.110382e+001  -1.040889e+001 
3287500000  -4.152610e+001  -1.679926e+001 
3290625000  -4.162622e+001  -2.656011e+001 
3293750000  -4.169480e+001  -3.540816e+001 
3296875000  -4.262007e+001  -3.919843e+001 
3300000000  -4.204052e+001  -4.056841e+001 
3303125000  -4.100927e+001  -5.014051e+001 
3306250000  -4.062165e+001  -6.117036e+001 
3309375000  -4.049503e+001  -7.231251e+001 
3312500000  -4.119834e+001  -8.675828e+001 
3315625000  -4.213706e+001  -9.477144e+001 
3318750000  -4.391315e+001  -1.012760e+002 
3321875000  -4.545915e+001  -9.900830e+001 
3325000000  -4.474171e+001  -9.546958e+001 
3328125000  -4.417464e+001  -9.886103e+001 
3331250000  -4.240852e+001  -9.966702e+001 
3334375000  -4.019502e+001  -1.179851e+002 
3337500000  -4.095534e+001  -1.417501e+002 
3340625000  -4.269047e+001  -1.522207e+002 
3343750000  -4.473651e+001  -1.531994e+002 
3346875000  -4.412766e+001  -1.556576e+002 
3350000000  -4.346018e+001  -1.630509e+002 
3353125000  -4.364383e+001  -1.733235e+002 
3356250000  -4.317359e+001  1.790368e+002 
3359375000  -4.425425e+001  1.641762e+002 
3362500000  -4.506126e+001  1.561120e+002 
3365625000  -4.549534e+001  1.507518e+002 
3368750000  -4.624006e+001  1.449910e+002 
3371875000  -4.706005e+001  1.396923e+002 
3375000000  -4.853913e+001  1.334069e+002 
3378125000  -4.918929e+001  1.321913e+002 
3381250000  -5.027036e+001  1.411111e+002 
3384375000  -4.764603e+001  1.500112e+002 
3387500000  -4.449746e+001  1.296615e+002 
3390625000  -4.645565e+001  1.041926e+002 
3393750000  -4.785314e+001  1.031453e+002 
3396875000  -4.600129e+001  9.834968e+001 
3400000000  -4.595842e+001  8.470052e+001 
3403125000  -4.669557e+001  7.880954e+001 
3406250000  -4.714555e+001  7.224678e+001 
3409375000  -4.725216e+001  5.905014e+001 
3412500000  -4.762986e+001  5.300020e+001 
3415625000  -4.880340e+001  4.891096e+001 
3418750000  -4.867492e+001  4.310518e+001 
3421875000  -4.856649e+001  3.898177e+001 
3425000000  -4.766458e+001  3.326590e+001 
3428125000  -4.708056e+001  2.683073e+001 
3431250000  -4.685543e+001  1.262500e+001 
3434375000  -4.694349e+001  3.232420e+000 
3437500000  -4.783214e+001  -8.372488e+000 
3440625000  -4.770402e+001  -9.169905e+000 
3443750000  -4.618159e+001  -1.393322e+001 
3446875000  -4.583850e+001  -2.945301e+001 
3450000000  -4.510769e+001  -4.408264e+001 
3453125000  -4.575980e+001  -5.951377e+001 
3456250000  -4.702832e+001  -7.101517e+001 
3459375000  -4.846877e+001  -7.227914e+001 
3462500000  -4.811243e+001  -7.855026e+001 
3465625000  -4.730247e+001  -9.183233e+001 
3468750000  -4.721328e+001  -9.511105e+001 
3471875000  -4.733762e+001  -1.053560e+002 
3475000000  -4.671029e+001  -1.174563e+002 
3478125000  -4.797386e+001  -1.294130e+002 
3481250000  -4.913892e+001  -1.365609e+002 
3484375000  -4.892123e+001  -1.376849e+002 
3487500000  -4.783039e+001  -1.433283e+002 
3490625000  -4.738856e+001  -1.526560e+002 
3493750000  -4.763333e+001  -1.674489e+002 
3496875000  -4.787379e+001  -1.697289e+002 
3500000000  -4.870224e+001  -1.739568e+002 
3503125000  -4.690577e+001  -1.764795e+002 
3506250000  -4.582479e+001  1.735743e+002 
3509375000  -4.582314e+001  1.523595e+002 
3512500000  -4.618375e+001  1.339412e+002 
3515625000  -4.673471e+001  1.323467e+002 
3518750000  -4.821857e+001  1.275246e+002 
3521875000  -4.811678e+001  1.168588e+002 
3525000000  -4.814705e+001  1.126600e+002 
3528125000  -4.798352e+001  1.170287e+002 
3531250000  -4.672112e+001  1.011129e+002 
3534375000  -4.656618e+001  8.675379e+001 
3537500000  -4.774553e+001  7.699537e+001 
3540625000  -4.984553e+001  7.105744e+001 
3543750000  -4.977023e+001  7.489555e+001 
3546875000  -4.864403e+001  8.372915e+001 
3550000000  -4.681302e+001  7.242191e+001 
3553125000  -4.575743e+001  5.395593e+001 
3556250000  -4.711514e+001  4.382138e+001 
3559375000  -4.647188e+001  4.165499e+001 
3562500000  -4.636188e+001  3.098304e+001 
3565625000  -4.732856e+001  2.225578e+001 
3568750000  -4.732547e+001  2.130901e+001 
3571875000  -4.696327e+001  1.826367e+001 
3575000000  -4.709626e+001  9.174641e+000 
3578125000  -4.779170e+001  7.582297e+000 
3581250000  -4.709825e+001  1.510819e+000 
3584375000  -4.594632e+001  -4.558120e+000 
3587500000  -4.565741e+001  -1.675141e+001 
3590625000  -4.632009e+001  -2.795383e+001 
3593750000  -4.768333e+001  -2.827291e+001 
3596875000  -4.672047e+001  -1.954037e+001 
3600000000  -4.486802e+001  -3.276449e+001 
3603125000  -4.524630e+001  -5.005344e+001 
3606250000  -4.577794e+001  -5.428613e+001 
3609375000  -4.634212e+001  -5.802894e+001 
3612500000  -4.565715e+001  -6.687064e+001 
3615625000  -4.569588e+001  -7.121278e+001 
3618750000  -4.619178e+001  -7.416875e+001 
3621875000  -4.553886e+001  -7.844115e+001 
3625000000  -4.571001e+001  -8.410870e+001 
3628125000  -4.498904e+001  -8.857507e+001 
3631250000  -4.511579e+001  -9.941353e+001 
3634375000  -4.558385e+001  -1.009875e+002 
3637500000  -4.435982e+001  -1.021707e+002 
3640625000  -4.334850e+001  -1.084765e+002 
3643750000  -4.332640e+001  -1.201649e+002 
3646875000  -4.383661e+001  -1.297067e+002 
3650000000  -4.400993e+001  -1.347544e+002 
3653125000  -4.304689e+001  -1.444242e+002 
3656250000  -4.403219e+001  -1.495551e+002 
3659375000  -4.371495e+001  -1.537028e+002 
3662500000  -4.357712e+001  -1.621026e+002 
3665625000  -4.326601e+001  -1.654284e+002 
3668750000  -4.208418e+001  -1.712442e+002 
3671875000  -4.176664e+001  1.758768e+002 
3675000000  -4.207496e+001  1.665198e+002 
3678125000  -4.256980e+001  1.631493e+002 
3681250000  -4.240955e+001  1.555133e+002 
3684375000  -4.285976e+001  1.454108e+002 
3687500000  -4.292364e+001  1.371379e+002 
3690625000  -4.343241e+001  1.337851e+002 
3693750000  -4.445249e+001  1.313180e+002 
3696875000  -4.359543e+001  1.300602e+002 
3700000000  -4.312978e+001  1.213150e+002 
3703125000  -4.356744e+001  1.103284e+002 
3706250000  -4.439677e+001  1.118623e+002 
3709375000  -4.368331e+001  1.106450e+002 
3712500000  -4.307780e+001  1.043629e+002 
3715625000  -4.178218e+001  9.396183e+001 
3718750000  -4.176888e+001  8.512142e+001 
3721875000  -4.177121e+001  7.662474e+001 
3725000000  -4.226997e+001  6.558490e+001 
3728125000  -4.253410e+001  6.403826e+001 
3731250000  -4.168537e+001  5.938792e+001 
3734375000  -4.197979e+001  4.914988e+001 
3737500000  -4.243750e+001  4.043010e+001 
3740625000  -4.308855e+001  3.641601e+001 
3743750000  -4.254943e+001  2.980155e+001 
3746875000  -4.318409e+001  2.345059e+001 
3750000000  -4.346932e+001  1.860439e+001 
3753125000  -4.379274e+001  1.479999e+001 
3756250000  -4.390866e+001  1.252776e+001 
3759375000  -4.361218e+001  7.460380e+000 
3762500000  -4.339970e+001  1.362490e+000 
3765625000  -4.430001e+001  -3.442476e+000 
3768750000  -4.330346e+001  -2.976655e+000 
3771875000  -4.195967e+001  -1.023823e+001 
3775000000  -4.202884e+001  -2.138225e+001 
3778125000  -4.297073e+001  -2.728625e+001 
3781250000  -4.268130e+001  -3.261049e+001 
3784375000  -4.233103e+001  -3.936262e+001 
3787500000  -4.229160e+001  -4.390367e+001 
3790625000  -4.311956e+001  -5.257964e+001 
3793750000  -4.272808e+001  -5.829134e+001 
3796875000  -4.161794e+001  -6.176402e+001 
3800000000  -4.074129e+001  -6.840459e+001 
3803125000  -4.167347e+001  -8.035231e+001 
3806250000  -4.254124e+001  -8.512962e+001 
3809375000  -4.187848e+001  -8.942088e+001 
3812500000  -4.192268e+001  -1.002146e+002 
3815625000  -4.337168e+001  -1.126642e+002 
3818750000  -4.424317e+001  -1.078945e+002 
3821875000  -4.384466e+001  -1.003568e+002 
3825000000  -4.148463e+001  -1.065875e+002 
3828125000  -4.063309e+001  -1.284722e+002 
3831250000  -4.125567e+001  -1.424080e+002 
3834375000  -4.313360e+001  -1.436218e+002 
3837500000  -4.396038e+001  -1.392616e+002 
3840625000  -4.204465e+001  -1.446154e+002 
3843750000  -4.181764e+001  -1.612587e+002 
3846875000  -4.354073e+001  -1.681537e+002 
3850000000  -4.391098e+001  -1.634796e+002 
3853125000  -4.352383e+001  -1.623275e+002 
3856250000  -4.291708e+001  -1.726391e+002 
3859375000  -4.231607e+001  1.796090e+002 
3862500000  -4.214843e+001  1.678247e+002 
3865625000  -4.261030e+001  1.612893e+002 
3868750000  -4.217867e+001  1.605581e+002 
3871875000  -4.167773e+001  1.486801e+002 
3875000000  -4.250611e+001  1.394001e+002 
3878125000  -4.322086e+001  1.413404e+002 
3881250000  -4.350473e+001  1.385975e+002 
3884375000  -4.241393e+001  1.264186e+002 
3887500000  -4.311938e+001  1.199912e+002 
3890625000  -4.394016e+001  1.148197e+002 
3893750000  -4.411194e+001  1.180847e+002 
3896875000  -4.461148e+001  1.084064e+002 
3900000000  -4.435431e+001  1.044506e+002 
3903125000  -4.382903e+001  1.015001e+002 
3906250000  -4.339898e+001  9.696405e+001 
3909375000  -4.246957e+001  8.558121e+001 
3912500000  -4.370799e+001  7.715541e+001 
3915625000  -4.442223e+001  7.679880e+001 
3918750000  -4.476525e+001  7.625471e+001 
3921875000  -4.370264e+001  6.872226e+001 
3925000000  -4.330076e+001  6.297172e+001 
3928125000  -4.301964e+001  5.577420e+001 
3931250000  -4.351566e+001  4.832673e+001 
3934375000  -4.394692e+001  4.370572e+001 
3937500000  -4.447754e+001  4.422129e+001 
3940625000  -4.460138e+001  4.143212e+001 
3943750000  -4.326577e+001  3.836370e+001 
3946875000  -4.271352e+001  2.643094e+001 
3950000000  -4.352584e+001  1.845301e+001 
3953125000  -4.451857e+001  2.034135e+001 
3956250000  -4.281261e+001  1.916467e+001 
3959375000  -4.202713e+001  1.320869e+001 
3962500000  -4.146657e+001  1.017888e+000 
3965625000  -4.219074e+001  -1.052117e+001 
3968750000  -4.246354e+001  -1.768997e+001 
3971875000  -4.242002e+001  -2.094791e+001 
3975000000  -4.192938e+001  -2.444620e+001 
3978125000  -4.178222e+001  -3.330024e+001 
3981250000  -4.184866e+001  -4.009939e+001 
3984375000  -4.257502e+001  -5.162160e+001 
3987500000  -4.311739e+001  -5.457579e+001 
3990625000  -4.322382e+001  -5.705592e+001 
3993750000  -4.283226e+001  -6.421422e+001 
3996875000  -4.286677e+001  -6.989642e+001 
4000000000  -4.354938e+001  -7.463036e+001 
4003125000  -4.359715e+001  -7.584481e+001 
4006250000  -4.177200e+001  -8.130205e+001 
4009375000  -4.146254e+001  -9.755344e+001 
4012500000  -4.274315e+001  -1.060488e+002 
4015625000  -4.407243e+001  -1.041764e+002 
4018750000  -4.384239e+001  -1.067325e+002 
4021875000  -4.291532e+001  -1.174383e+002 
4025000000  -4.284748e+001  -1.249244e+002 
4028125000  -4.328640e+001  -1.318768e+002 
4031250000  -4.350516e+001  -1.387558e+002 
4034375000  -4.380378e+001  -1.411858e+002 
4037500000  -4.383540e+001  -1.412742e+002 
4040625000  -4.417607e+001  -1.502696e+002 
4043750000  -4.444769e+001  -1.525813e+002 
4046875000  -4.423070e+001  -1.591653e+002 
4050000000  -4.433779e+001  -1.610525e+002 
4053125000  -4.475801e+001  -1.679478e+002 
4056250000  -4.561683e+001  -1.670719e+002 
4059375000  -4.411069e+001  -1.664314e+002 
4062500000  -4.310600e+001  -1.759113e+002 
4065625000  -4.335999e+001  1.792587e+002 
4068750000  -4.295411e+001  1.692259e+002 
4071875000  -4.264360e+001  1.618022e+002 
4075000000  -4.345884e+001  1.531063e+002 
4078125000  -4.416883e+001  1.513570e+002 
4081250000  -4.313958e+001  1.460382e+002 
4084375000  -4.306234e+001  1.363401e+002 
4087500000  -4.377250e+001  1.261741e+002 
4090625000  -4.455444e+001  1.250867e+002 
4093750000  -4.440317e+001  1.221610e+002 
4096875000  -4.385051e+001  1.181774e+002 
4100000000  -4.531544e+001  1.089441e+002 
4103125000  -4.538871e+001  1.106531e+002 
4106250000  -4.478196e+001  1.119425e+002 
4109375000  -4.408427e+001  1.090927e+002 
4112500000  -4.384827e+001  9.617297e+001 
4115625000  -4.422287e+001  9.207419e+001 
4118750000  -4.409164e+001  8.682755e+001 
4121875000  -4.355885e+001  8.058186e+001 
4125000000  -4.466671e+001  7.605957e+001 
4128125000  -4.498547e+001  7.805433e+001 
4131250000  -4.381846e+001  8.155630e+001 
4134375000  -4.117216e+001  6.939435e+001 
4137500000  -4.218328e+001  4.760347e+001 
4140625000  -4.434422e+001  3.983052e+001 
4143750000  -4.459444e+001  4.899770e+001 
4146875000  -4.380247e+001  4.607140e+001 
4150000000  -4.276235e+001  3.751025e+001 
4153125000  -4.333393e+001  2.740328e+001 
4156250000  -4.382892e+001  2.436226e+001 
4159375000  -4.323409e+001  2.979862e+001 
4162500000  -4.230643e+001  2.558963e+001 
4165625000  -4.152320e+001  1.204350e+001 
4168750000  -4.104184e+001  4.411433e+000 
4171875000  -4.076764e+001  -5.826350e+000 
4175000000  -4.173584e+001  -1.658491e+001 
4178125000  -4.222832e+001  -1.926081e+001 
4181250000  -4.189941e+001  -2.603198e+001 
4184375000  -4.260339e+001  -3.145936e+001 
4187500000  -4.253707e+001  -3.813243e+001 
4190625000  -4.260707e+001  -4.777567e+001 
4193750000  -4.398963e+001  -5.478811e+001 
4196875000  -4.496821e+001  -5.558718e+001 
4200000000  -4.569725e+001  -5.249222e+001 
4203125000  -4.422570e+001  -3.891632e+001 
4206250000  -4.087933e+001  -5.175157e+001 
4209375000  -4.153098e+001  -7.480690e+001 
4212500000  -4.363233e+001  -8.257662e+001 
4215625000  -4.437920e+001  -7.577600e+001 
4218750000  -4.255610e+001  -7.596461e+001 
4221875000  -4.102028e+001  -8.484512e+001 
4225000000  -4.234525e+001  -9.861900e+001 
4228125000  -4.207314e+001  -9.504460e+001 
4231250000  -4.076633e+001  -1.045984e+002 
4234375000  -4.067145e+001  -1.138491e+002 
4237500000  -4.063283e+001  -1.239240e+002 
4240625000  -4.104509e+001  -1.339924e+002 
4243750000  -4.242694e+001  -1.420213e+002 
4246875000  -4.305327e+001  -1.422560e+002 
4250000000  -4.245833e+001  -1.414087e+002 
4253125000  -4.265080e+001  -1.435937e+002 
4256250000  -4.220407e+001  -1.480615e+002 
4259375000  -4.187431e+001  -1.567369e+002 
4262500000  -4.200816e+001  -1.606912e+002 
4265625000  -4.217126e+001  -1.658909e+002 
4268750000  -4.089707e+001  -1.731794e+002 
4271875000  -4.022330e+001  1.787664e+002 
4275000000  -3.997748e+001  1.709807e+002 
4278125000  -4.099662e+001  1.568526e+002 
4281250000  -4.248270e+001  1.520641e+002 
4284375000  -4.240587e+001  1.491267e+002 
4287500000  -4.353356e+001  1.481176e+002 
4290625000  -4.409493e+001  1.564952e+002 
4293750000  -4.126505e+001  1.539621e+002 
4296875000  -4.053960e+001  1.374611e+002 
4300000000  -4.123346e+001  1.259337e+002 
4303125000  -4.178874e+001  1.277690e+002 
4306250000  -4.078157e+001  1.281520e+002 
4309375000  -3.964969e+001  1.191732e+002 
4312500000  -3.968465e+001  1.045638e+002 
4315625000  -4.049451e+001  9.706250e+001 
4318750000  -4.080883e+001  9.221650e+001 
4321875000  -4.086365e+001  9.025146e+001 
4325000000  -4.013153e+001  8.601319e+001 
4328125000  -3.938570e+001  7.430138e+001 
4331250000  -3.983115e+001  6.230619e+001 
4334375000  -4.078470e+001  5.434014e+001 
4337500000  -4.192498e+001  5.139011e+001 
4340625000  -4.187472e+001  5.569478e+001 
4343750000  -4.065341e+001  4.987265e+001 
4346875000  -4.100823e+001  3.972700e+001 
4350000000  -4.100528e+001  3.225811e+001 
4353125000  -4.156129e+001  2.332283e+001 
4356250000  -4.388893e+001  2.421443e+001 
4359375000  -4.209570e+001  3.706793e+001 
4362500000  -3.931750e+001  2.930349e+001 
4365625000  -3.881768e+001  8.224689e+000 
4368750000  -4.009663e+001  -2.631366e+000 
4371875000  -4.106627e+001  -3.318250e+000 
4375000000  -4.050107e+001  -9.374310e+000 
4378125000  -4.035649e+001  -1.539793e+001 
4381250000  -4.035540e+001  -2.431622e+001 
4384375000  -4.038934e+001  -3.325057e+001 
4387500000  -4.195917e+001  -3.961938e+001 
4390625000  -4.206683e+001  -4.211453e+001 
4393750000  -4.158147e+001  -4.307589e+001 
4396875000  -4.120628e+001  -4.695105e+001 
4400000000  -4.078677e+001  -5.979005e+001 
4403125000  -4.164955e+001  -6.544601e+001 
4406250000  -4.218037e+001  -7.060976e+001 
4409375000  -4.227983e+001  -7.622224e+001 
4412500000  -4.334460e+001  -7.717354e+001 
4415625000  -4.301385e+001  -7.739069e+001 
4418750000  -4.192486e+001  -7.615222e+001 
