!Agilent Technologies,E8363B,MY43030201,A.06.04.32
!Agilent E8363B: A.06.04.32
!Date: Tuesday, November 11, 2014 21:46:01
!Correction: S21(Response(S21)) 
!S1P File: Measurement: S21:
# Hz S  dB   R 50
3000000000  -4.377218e+001  -1.608789e+002 
3003125000  -4.539715e+001  -1.681524e+002 
3006250000  -4.545342e+001  -1.677281e+002 
3009375000  -4.604447e+001  -1.649111e+002 
3012500000  -4.494743e+001  -1.698325e+002 
3015625000  -4.510623e+001  -1.770690e+002 
3018750000  -4.540153e+001  -1.780195e+002 
3021875000  -4.409509e+001  -1.779769e+002 
3025000000  -4.271387e+001  1.755811e+002 
3028125000  -4.182394e+001  1.641711e+002 
3031250000  -4.097331e+001  1.523204e+002 
3034375000  -4.089323e+001  1.376411e+002 
3037500000  -4.158030e+001  1.268123e+002 
3040625000  -4.279360e+001  1.213573e+002 
3043750000  -4.325455e+001  1.153839e+002 
3046875000  -4.414017e+001  1.057328e+002 
3050000000  -4.532270e+001  1.024672e+002 
3053125000  -4.464829e+001  1.054719e+002 
3056250000  -4.480028e+001  1.070341e+002 
3059375000  -4.395866e+001  1.083756e+002 
3062500000  -4.251188e+001  1.004201e+002 
3065625000  -4.216303e+001  8.936413e+001 
3068750000  -4.176870e+001  8.104234e+001 
3071875000  -4.165052e+001  7.854965e+001 
3075000000  -4.130658e+001  7.181193e+001 
3078125000  -4.122131e+001  6.385667e+001 
3081250000  -4.151541e+001  5.733131e+001 
3084375000  -4.050766e+001  5.235509e+001 
3087500000  -4.052640e+001  4.427194e+001 
3090625000  -3.998038e+001  3.115424e+001 
3093750000  -4.093387e+001  2.309622e+001 
3096875000  -4.128100e+001  1.684451e+001 
3100000000  -4.107048e+001  1.288063e+001 
3103125000  -4.141764e+001  7.814492e+000 
3106250000  -4.099158e+001  2.231756e+000 
3109375000  -4.099682e+001  -2.883147e+000 
3112500000  -4.091244e+001  -1.158927e+001 
3115625000  -4.096714e+001  -1.563887e+001 
3118750000  -4.074239e+001  -2.194299e+001 
3121875000  -4.020074e+001  -3.257578e+001 
3125000000  -4.224792e+001  -3.619761e+001 
3128125000  -4.204411e+001  -3.014459e+001 
3131250000  -3.938127e+001  -3.802074e+001 
3134375000  -3.891368e+001  -5.584311e+001 
3137500000  -3.953978e+001  -7.029446e+001 
3140625000  -4.096269e+001  -7.357629e+001 
3143750000  -4.135918e+001  -7.849084e+001 
3146875000  -4.130148e+001  -7.691839e+001 
3150000000  -4.040559e+001  -8.311632e+001 
3153125000  -4.076717e+001  -9.276858e+001 
3156250000  -4.150028e+001  -8.816924e+001 
3159375000  -3.911303e+001  -9.280290e+001 
3162500000  -3.777157e+001  -1.087179e+002 
3165625000  -3.905651e+001  -1.232046e+002 
3168750000  -3.899695e+001  -1.231021e+002 
3171875000  -3.861710e+001  -1.328432e+002 
3175000000  -3.902065e+001  -1.422820e+002 
3178125000  -3.874619e+001  -1.462323e+002 
3181250000  -3.799751e+001  -1.549680e+002 
3184375000  -3.794170e+001  -1.666984e+002 
3187500000  -3.906316e+001  1.782932e+002 
3190625000  -4.073304e+001  1.704039e+002 
3193750000  -4.114367e+001  1.750050e+002 
3196875000  -4.108106e+001  1.743215e+002 
3200000000  -3.989323e+001  1.695328e+002 
3203125000  -3.968553e+001  1.604883e+002 
3206250000  -3.985508e+001  1.525559e+002 
3209375000  -3.942358e+001  1.446528e+002 
3212500000  -3.991916e+001  1.358571e+002 
3215625000  -3.958697e+001  1.341795e+002 
3218750000  -4.039011e+001  1.213360e+002 
3221875000  -4.077386e+001  1.146149e+002 
3225000000  -4.044241e+001  1.083161e+002 
3228125000  -4.108421e+001  1.007604e+002 
3231250000  -4.119603e+001  9.805028e+001 
3234375000  -4.110142e+001  9.469390e+001 
3237500000  -4.099582e+001  9.109203e+001 
3240625000  -4.031234e+001  8.358377e+001 
3243750000  -4.035334e+001  7.105917e+001 
3246875000  -4.056873e+001  6.340241e+001 
3250000000  -4.098018e+001  5.955575e+001 
3253125000  -4.133426e+001  5.538957e+001 
3256250000  -4.043705e+001  4.320592e+001 
3259375000  -4.084164e+001  3.183569e+001 
3262500000  -4.237881e+001  2.679105e+001 
3265625000  -4.255019e+001  2.824433e+001 
3268750000  -4.240748e+001  2.571433e+001 
3271875000  -4.160613e+001  1.972992e+001 
3275000000  -4.110582e+001  9.815530e+000 
3278125000  -4.149594e+001  3.637646e+000 
3281250000  -4.186002e+001  2.538182e-001 
3284375000  -4.094147e+001  -7.581321e+000 
3287500000  -4.131928e+001  -1.671424e+001 
3290625000  -4.154502e+001  -2.611715e+001 
3293750000  -4.157437e+001  -3.377632e+001 
3296875000  -4.279138e+001  -3.752828e+001 
3300000000  -4.201436e+001  -3.903515e+001 
3303125000  -4.097044e+001  -4.949308e+001 
3306250000  -4.085187e+001  -5.992065e+001 
3309375000  -4.063942e+001  -7.089330e+001 
3312500000  -4.112310e+001  -8.516811e+001 
3315625000  -4.234553e+001  -9.623268e+001 
3318750000  -4.355708e+001  -1.023497e+002 
3321875000  -4.544783e+001  -1.007778e+002 
3325000000  -4.495060e+001  -9.525514e+001 
3328125000  -4.381123e+001  -9.736465e+001 
3331250000  -4.234466e+001  -9.967762e+001 
3334375000  -4.006969e+001  -1.169461e+002 
3337500000  -4.100722e+001  -1.403701e+002 
3340625000  -4.305368e+001  -1.523242e+002 
3343750000  -4.459437e+001  -1.520852e+002 
3346875000  -4.395288e+001  -1.590898e+002 
3350000000  -4.358670e+001  -1.607806e+002 
3353125000  -4.359433e+001  -1.708231e+002 
3356250000  -4.336997e+001  1.798178e+002 
3359375000  -4.420453e+001  1.657244e+002 
3362500000  -4.530922e+001  1.561045e+002 
3365625000  -4.593174e+001  1.518161e+002 
3368750000  -4.639683e+001  1.458949e+002 
3371875000  -4.695299e+001  1.386441e+002 
3375000000  -4.857429e+001  1.328976e+002 
3378125000  -4.927432e+001  1.316317e+002 
3381250000  -5.045815e+001  1.445590e+002 
3384375000  -4.723055e+001  1.516852e+002 
3387500000  -4.542598e+001  1.305212e+002 
3390625000  -4.665997e+001  1.055136e+002 
3393750000  -4.786200e+001  1.058964e+002 
3396875000  -4.640240e+001  9.941056e+001 
3400000000  -4.634983e+001  8.758000e+001 
3403125000  -4.670137e+001  8.000669e+001 
3406250000  -4.726487e+001  6.755048e+001 
3409375000  -4.730693e+001  5.973675e+001 
3412500000  -4.805142e+001  5.199803e+001 
3415625000  -4.931475e+001  4.942203e+001 
3418750000  -4.856340e+001  4.288554e+001 
3421875000  -4.894473e+001  4.457184e+001 
3425000000  -4.782224e+001  3.572636e+001 
3428125000  -4.752381e+001  2.659177e+001 
3431250000  -4.664365e+001  1.393346e+001 
3434375000  -4.722958e+001  5.129771e+000 
3437500000  -4.737705e+001  -2.595592e+000 
3440625000  -4.773951e+001  -8.105095e+000 
3443750000  -4.607151e+001  -1.279197e+001 
3446875000  -4.559293e+001  -2.764360e+001 
3450000000  -4.527197e+001  -4.194663e+001 
3453125000  -4.560575e+001  -6.235923e+001 
3456250000  -4.744751e+001  -7.270581e+001 
3459375000  -4.803756e+001  -7.389853e+001 
3462500000  -4.786752e+001  -7.393835e+001 
3465625000  -4.711352e+001  -8.931403e+001 
3468750000  -4.752295e+001  -9.351264e+001 
3471875000  -4.698170e+001  -1.028413e+002 
3475000000  -4.714207e+001  -1.153105e+002 
3478125000  -4.770474e+001  -1.307515e+002 
3481250000  -4.942405e+001  -1.350655e+002 
3484375000  -4.832323e+001  -1.341232e+002 
3487500000  -4.777372e+001  -1.403270e+002 
3490625000  -4.758103e+001  -1.518959e+002 
3493750000  -4.789440e+001  -1.660723e+002 
3496875000  -4.800570e+001  -1.688762e+002 
3500000000  -4.855668e+001  -1.718481e+002 
3503125000  -4.694582e+001  -1.756730e+002 
3506250000  -4.563422e+001  1.721188e+002 
3509375000  -4.590166e+001  1.507676e+002 
3512500000  -4.597720e+001  1.372562e+002 
3515625000  -4.717443e+001  1.344700e+002 
3518750000  -4.750040e+001  1.289819e+002 
3521875000  -4.823402e+001  1.183839e+002 
3525000000  -4.858360e+001  1.127592e+002 
3528125000  -4.734869e+001  1.186411e+002 
3531250000  -4.701411e+001  1.036821e+002 
3534375000  -4.706879e+001  8.621571e+001 
3537500000  -4.755095e+001  8.097563e+001 
3540625000  -4.887081e+001  7.709405e+001 
3543750000  -4.952857e+001  8.072066e+001 
3546875000  -4.829225e+001  8.361679e+001 
3550000000  -4.640869e+001  7.343431e+001 
3553125000  -4.648764e+001  5.174083e+001 
3556250000  -4.755754e+001  4.835238e+001 
3559375000  -4.663659e+001  4.437103e+001 
3562500000  -4.667919e+001  3.230268e+001 
3565625000  -4.759480e+001  2.387477e+001 
3568750000  -4.816378e+001  2.507689e+001 
3571875000  -4.709090e+001  1.737528e+001 
3575000000  -4.712509e+001  1.094540e+001 
3578125000  -4.741800e+001  5.690081e+000 
3581250000  -4.759160e+001  1.848426e+000 
3584375000  -4.614491e+001  -2.391831e+000 
3587500000  -4.589032e+001  -1.572951e+001 
3590625000  -4.625496e+001  -2.627850e+001 
3593750000  -4.794550e+001  -2.568919e+001 
3596875000  -4.628741e+001  -1.799046e+001 
3600000000  -4.485714e+001  -3.124460e+001 
3603125000  -4.513934e+001  -4.878875e+001 
3606250000  -4.555524e+001  -5.104092e+001 
3609375000  -4.648174e+001  -5.565349e+001 
3612500000  -4.556553e+001  -6.584795e+001 
3615625000  -4.633313e+001  -7.058252e+001 
3618750000  -4.615384e+001  -7.138442e+001 
3621875000  -4.582506e+001  -7.858846e+001 
3625000000  -4.580597e+001  -8.254658e+001 
3628125000  -4.504231e+001  -8.898096e+001 
3631250000  -4.527717e+001  -9.936127e+001 
3634375000  -4.545528e+001  -9.667798e+001 
3637500000  -4.430851e+001  -9.944643e+001 
3640625000  -4.359452e+001  -1.064207e+002 
3643750000  -4.288177e+001  -1.179231e+002 
3646875000  -4.399883e+001  -1.288913e+002 
3650000000  -4.386905e+001  -1.336337e+002 
3653125000  -4.306484e+001  -1.408077e+002 
3656250000  -4.384351e+001  -1.460091e+002 
3659375000  -4.391924e+001  -1.526258e+002 
3662500000  -4.323138e+001  -1.590041e+002 
3665625000  -4.325957e+001  -1.634981e+002 
3668750000  -4.196788e+001  -1.688588e+002 
3671875000  -4.139523e+001  1.779948e+002 
3675000000  -4.224141e+001  1.660172e+002 
3678125000  -4.238165e+001  1.625088e+002 
3681250000  -4.221379e+001  1.581251e+002 
3684375000  -4.235100e+001  1.486705e+002 
3687500000  -4.311882e+001  1.390045e+002 
3690625000  -4.368401e+001  1.336852e+002 
3693750000  -4.419522e+001  1.325002e+002 
3696875000  -4.385441e+001  1.299534e+002 
3700000000  -4.306938e+001  1.201634e+002 
3703125000  -4.362051e+001  1.146980e+002 
3706250000  -4.451974e+001  1.111722e+002 
3709375000  -4.355952e+001  1.098213e+002 
3712500000  -4.293645e+001  1.044396e+002 
3715625000  -4.151671e+001  9.412356e+001 
3718750000  -4.191011e+001  8.508572e+001 
3721875000  -4.178465e+001  7.762542e+001 
3725000000  -4.238207e+001  6.792085e+001 
3728125000  -4.235526e+001  6.770260e+001 
3731250000  -4.200486e+001  6.001395e+001 
3734375000  -4.212425e+001  5.140451e+001 
3737500000  -4.283819e+001  4.357429e+001 
3740625000  -4.302736e+001  3.855529e+001 
3743750000  -4.283008e+001  3.057269e+001 
3746875000  -4.319160e+001  2.450256e+001 
3750000000  -4.363189e+001  2.166612e+001 
3753125000  -4.359511e+001  1.682017e+001 
3756250000  -4.375309e+001  1.330303e+001 
3759375000  -4.358521e+001  8.136164e+000 
3762500000  -4.343285e+001  1.920715e+000 
3765625000  -4.410474e+001  -1.727036e+000 
3768750000  -4.355588e+001  -6.192771e-001 
3771875000  -4.212737e+001  -7.432112e+000 
3775000000  -4.227354e+001  -1.842928e+001 
3778125000  -4.267095e+001  -2.562957e+001 
3781250000  -4.293106e+001  -2.831805e+001 
3784375000  -4.234247e+001  -3.658913e+001 
3787500000  -4.203357e+001  -4.197789e+001 
3790625000  -4.274092e+001  -5.197575e+001 
3793750000  -4.249141e+001  -5.611903e+001 
3796875000  -4.160237e+001  -6.007561e+001 
3800000000  -4.057833e+001  -6.662717e+001 
3803125000  -4.160571e+001  -8.101041e+001 
3806250000  -4.232344e+001  -8.475986e+001 
3809375000  -4.193688e+001  -8.797500e+001 
3812500000  -4.153584e+001  -1.012792e+002 
3815625000  -4.292434e+001  -1.114668e+002 
3818750000  -4.439842e+001  -1.082642e+002 
3821875000  -4.335506e+001  -9.965098e+001 
3825000000  -4.123661e+001  -1.057087e+002 
3828125000  -4.042557e+001  -1.235258e+002 
3831250000  -4.144653e+001  -1.426392e+002 
3834375000  -4.367031e+001  -1.407382e+002 
3837500000  -4.372950e+001  -1.384573e+002 
3840625000  -4.231821e+001  -1.463959e+002 
3843750000  -4.179620e+001  -1.610989e+002 
3846875000  -4.336556e+001  -1.643703e+002 
3850000000  -4.424468e+001  -1.614633e+002 
3853125000  -4.355110e+001  -1.631231e+002 
3856250000  -4.307399e+001  -1.702973e+002 
3859375000  -4.222451e+001  -1.785842e+002 
3862500000  -4.234017e+001  1.720028e+002 
3865625000  -4.274890e+001  1.630757e+002 
3868750000  -4.224804e+001  1.628821e+002 
3871875000  -4.179958e+001  1.527031e+002 
3875000000  -4.270079e+001  1.407806e+002 
3878125000  -4.341349e+001  1.416591e+002 
3881250000  -4.336724e+001  1.370981e+002 
3884375000  -4.270052e+001  1.266142e+002 
3887500000  -4.295370e+001  1.197850e+002 
3890625000  -4.405756e+001  1.172324e+002 
3893750000  -4.426352e+001  1.158083e+002 
3896875000  -4.467909e+001  1.145523e+002 
3900000000  -4.440184e+001  1.086523e+002 
3903125000  -4.415145e+001  1.012745e+002 
3906250000  -4.365799e+001  9.837425e+001 
3909375000  -4.254029e+001  8.901221e+001 
3912500000  -4.408202e+001  8.058132e+001 
3915625000  -4.518846e+001  8.009857e+001 
3918750000  -4.432929e+001  7.896412e+001 
3921875000  -4.357127e+001  7.252396e+001 
3925000000  -4.311443e+001  6.818781e+001 
3928125000  -4.289306e+001  5.854258e+001 
3931250000  -4.346595e+001  5.166043e+001 
3934375000  -4.398660e+001  4.657354e+001 
3937500000  -4.465030e+001  4.378320e+001 
3940625000  -4.471559e+001  4.676350e+001 
3943750000  -4.314803e+001  3.716162e+001 
3946875000  -4.270692e+001  2.854403e+001 
3950000000  -4.385832e+001  2.209040e+001 
3953125000  -4.474208e+001  1.880003e+001 
3956250000  -4.287718e+001  1.769696e+001 
3959375000  -4.177899e+001  1.450169e+001 
3962500000  -4.129631e+001  2.102041e+000 
3965625000  -4.165533e+001  -7.916291e+000 
3968750000  -4.282116e+001  -1.429188e+001 
3971875000  -4.220386e+001  -2.108999e+001 
3975000000  -4.191022e+001  -2.618082e+001 
3978125000  -4.203765e+001  -3.131639e+001 
3981250000  -4.189132e+001  -3.843447e+001 
3984375000  -4.240785e+001  -4.721232e+001 
3987500000  -4.303093e+001  -5.204445e+001 
3990625000  -4.338542e+001  -5.604338e+001 
3993750000  -4.269687e+001  -6.107850e+001 
3996875000  -4.293303e+001  -6.755625e+001 
4000000000  -4.354013e+001  -7.209950e+001 
4003125000  -4.351001e+001  -7.134627e+001 
4006250000  -4.227633e+001  -7.848256e+001 
4009375000  -4.120149e+001  -9.556606e+001 
4012500000  -4.315784e+001  -1.028709e+002 
4015625000  -4.385834e+001  -1.015938e+002 
4018750000  -4.379959e+001  -1.085381e+002 
4021875000  -4.294830e+001  -1.145136e+002 
4025000000  -4.292416e+001  -1.194831e+002 
4028125000  -4.317311e+001  -1.298097e+002 
4031250000  -4.403847e+001  -1.361951e+002 
4034375000  -4.391074e+001  -1.379180e+002 
4037500000  -4.409683e+001  -1.412342e+002 
4040625000  -4.395861e+001  -1.441343e+002 
4043750000  -4.420948e+001  -1.493143e+002 
4046875000  -4.438100e+001  -1.565910e+002 
4050000000  -4.420446e+001  -1.631825e+002 
4053125000  -4.515423e+001  -1.660061e+002 
4056250000  -4.572038e+001  -1.610406e+002 
4059375000  -4.396704e+001  -1.636754e+002 
4062500000  -4.320625e+001  -1.757724e+002 
4065625000  -4.328739e+001  -1.790509e+002 
4068750000  -4.299710e+001  1.741787e+002 
4071875000  -4.254634e+001  1.597754e+002 
4075000000  -4.309592e+001  1.546668e+002 
4078125000  -4.423052e+001  1.527324e+002 
4081250000  -4.350921e+001  1.452991e+002 
4084375000  -4.324082e+001  1.377862e+002 
4087500000  -4.379941e+001  1.287383e+002 
4090625000  -4.487212e+001  1.279116e+002 
4093750000  -4.427528e+001  1.225578e+002 
4096875000  -4.412803e+001  1.202762e+002 
4100000000  -4.544430e+001  1.095713e+002 
4103125000  -4.586333e+001  1.154642e+002 
4106250000  -4.575059e+001  1.151540e+002 
4109375000  -4.404878e+001  1.123149e+002 
4112500000  -4.382966e+001  1.011375e+002 
4115625000  -4.391586e+001  9.705133e+001 
4118750000  -4.399781e+001  8.863981e+001 
4121875000  -4.388368e+001  8.235337e+001 
4125000000  -4.477372e+001  7.541388e+001 
4128125000  -4.537954e+001  7.660084e+001 
4131250000  -4.381541e+001  8.065817e+001 
4134375000  -4.165440e+001  6.876095e+001 
4137500000  -4.188634e+001  4.907844e+001 
4140625000  -4.422289e+001  4.174411e+001 
4143750000  -4.470831e+001  4.652529e+001 
4146875000  -4.370441e+001  4.712522e+001 
4150000000  -4.236129e+001  3.835367e+001 
4153125000  -4.301849e+001  3.020064e+001 
4156250000  -4.375445e+001  2.615428e+001 
4159375000  -4.398050e+001  2.926702e+001 
4162500000  -4.215854e+001  2.689440e+001 
4165625000  -4.166736e+001  1.708500e+001 
4168750000  -4.076978e+001  5.360238e+000 
4171875000  -4.141112e+001  -5.784290e+000 
4175000000  -4.180661e+001  -1.350089e+001 
4178125000  -4.239753e+001  -1.915056e+001 
4181250000  -4.192517e+001  -2.300963e+001 
4184375000  -4.229026e+001  -2.973075e+001 
4187500000  -4.237104e+001  -3.717956e+001 
4190625000  -4.263894e+001  -4.597797e+001 
4193750000  -4.399043e+001  -5.404102e+001 
4196875000  -4.483289e+001  -5.421970e+001 
4200000000  -4.579480e+001  -5.015001e+001 
4203125000  -4.479554e+001  -3.552687e+001 
4206250000  -4.081352e+001  -4.572566e+001 
4209375000  -4.105865e+001  -7.191256e+001 
4212500000  -4.412122e+001  -8.256380e+001 
4215625000  -4.416996e+001  -7.293978e+001 
4218750000  -4.258335e+001  -7.413815e+001 
4221875000  -4.133597e+001  -8.458033e+001 
4225000000  -4.220689e+001  -9.509045e+001 
4228125000  -4.217380e+001  -9.457095e+001 
4231250000  -4.066356e+001  -1.048838e+002 
4234375000  -4.114841e+001  -1.143953e+002 
4237500000  -4.074293e+001  -1.212819e+002 
4240625000  -4.075581e+001  -1.314403e+002 
4243750000  -4.197570e+001  -1.383334e+002 
4246875000  -4.297266e+001  -1.397995e+002 
4250000000  -4.253974e+001  -1.412841e+002 
4253125000  -4.278197e+001  -1.431667e+002 
4256250000  -4.202958e+001  -1.501869e+002 
4259375000  -4.187017e+001  -1.522326e+002 
4262500000  -4.234721e+001  -1.568523e+002 
4265625000  -4.187650e+001  -1.614034e+002 
4268750000  -4.073977e+001  -1.695555e+002 
4271875000  -4.064248e+001  -1.792216e+002 
4275000000  -4.006815e+001  1.721487e+002 
4278125000  -4.115355e+001  1.581918e+002 
4281250000  -4.255564e+001  1.561418e+002 
4284375000  -4.230798e+001  1.542179e+002 
4287500000  -4.364369e+001  1.519899e+002 
4290625000  -4.407532e+001  1.571326e+002 
4293750000  -4.142088e+001  1.560933e+002 
4296875000  -4.023151e+001  1.394194e+002 
4300000000  -4.157733e+001  1.298809e+002 
4303125000  -4.211974e+001  1.319384e+002 
4306250000  -4.065329e+001  1.300218e+002 
4309375000  -3.948946e+001  1.211010e+002 
4312500000  -3.967349e+001  1.079529e+002 
4315625000  -4.012392e+001  9.708694e+001 
4318750000  -4.064373e+001  9.330941e+001 
4321875000  -4.097503e+001  9.112104e+001 
4325000000  -4.009417e+001  8.774166e+001 
4328125000  -3.940918e+001  7.681525e+001 
4331250000  -3.984566e+001  6.243322e+001 
4334375000  -4.086737e+001  5.562051e+001 
4337500000  -4.172815e+001  5.550592e+001 
4340625000  -4.225397e+001  5.457617e+001 
4343750000  -4.112922e+001  5.203702e+001 
4346875000  -4.122635e+001  4.272990e+001 
4350000000  -4.108122e+001  3.240635e+001 
4353125000  -4.151878e+001  2.302716e+001 
4356250000  -4.393062e+001  2.793545e+001 
4359375000  -4.258754e+001  4.197459e+001 
4362500000  -3.942618e+001  3.223345e+001 
4365625000  -3.944553e+001  1.128539e+001 
4368750000  -4.032420e+001  -5.607106e-001 
4371875000  -4.133048e+001  -2.149768e+000 
4375000000  -4.036965e+001  -7.508878e+000 
4378125000  -4.031507e+001  -1.496409e+001 
4381250000  -4.069981e+001  -2.215144e+001 
4384375000  -4.043678e+001  -3.098076e+001 
4387500000  -4.130130e+001  -3.779613e+001 
4390625000  -4.204333e+001  -4.006723e+001 
4393750000  -4.177983e+001  -3.962924e+001 
4396875000  -4.082507e+001  -4.522237e+001 
4400000000  -4.079942e+001  -5.654747e+001 
4403125000  -4.139825e+001  -6.397061e+001 
4406250000  -4.226025e+001  -6.853283e+001 
4409375000  -4.259266e+001  -7.598264e+001 
4412500000  -4.370047e+001  -7.514930e+001 
4415625000  -4.329202e+001  -7.295762e+001 
4418750000  -4.189269e+001  -7.312780e+001 
