!Agilent Technologies,E8363B,MY43030201,A.06.04.32
!Agilent E8363B: A.06.04.32
!Date: Tuesday, November 11, 2014 21:49:12
!Correction: S21(Response(S21)) 
!S1P File: Measurement: S21:
# Hz S  dB   R 50
3000000000  -4.363126e+001  -1.613108e+002 
3003125000  -4.553935e+001  -1.659033e+002 
3006250000  -4.540482e+001  -1.674568e+002 
3009375000  -4.612452e+001  -1.652151e+002 
3012500000  -4.504280e+001  -1.711711e+002 
3015625000  -4.488003e+001  -1.794011e+002 
3018750000  -4.524399e+001  -1.776398e+002 
3021875000  -4.384157e+001  -1.797324e+002 
3025000000  -4.249786e+001  1.749764e+002 
3028125000  -4.159335e+001  1.645170e+002 
3031250000  -4.091071e+001  1.520378e+002 
3034375000  -4.068091e+001  1.380389e+002 
3037500000  -4.159464e+001  1.273882e+002 
3040625000  -4.281329e+001  1.205564e+002 
3043750000  -4.346455e+001  1.134920e+002 
3046875000  -4.407672e+001  1.069847e+002 
3050000000  -4.496449e+001  1.016947e+002 
3053125000  -4.466016e+001  1.074908e+002 
3056250000  -4.425749e+001  1.071056e+002 
3059375000  -4.362351e+001  1.056962e+002 
3062500000  -4.243372e+001  1.016159e+002 
3065625000  -4.229006e+001  8.761682e+001 
3068750000  -4.172339e+001  7.977331e+001 
3071875000  -4.149574e+001  7.946384e+001 
3075000000  -4.139714e+001  7.059210e+001 
3078125000  -4.136395e+001  6.393560e+001 
3081250000  -4.123855e+001  5.650173e+001 
3084375000  -4.045217e+001  5.071069e+001 
3087500000  -4.045474e+001  4.405227e+001 
3090625000  -4.000366e+001  3.102690e+001 
3093750000  -4.095724e+001  2.198994e+001 
3096875000  -4.134912e+001  1.512702e+001 
3100000000  -4.107309e+001  1.138546e+001 
3103125000  -4.154237e+001  6.921739e+000 
3106250000  -4.093884e+001  1.364754e+000 
3109375000  -4.098964e+001  -3.409198e+000 
3112500000  -4.079733e+001  -1.185137e+001 
3115625000  -4.096954e+001  -1.628491e+001 
3118750000  -4.068890e+001  -2.117212e+001 
3121875000  -4.019551e+001  -3.246681e+001 
3125000000  -4.213833e+001  -3.742556e+001 
3128125000  -4.215934e+001  -3.077031e+001 
3131250000  -3.946179e+001  -3.875370e+001 
3134375000  -3.869796e+001  -5.620694e+001 
3137500000  -3.965194e+001  -7.054420e+001 
3140625000  -4.081147e+001  -7.305933e+001 
3143750000  -4.146379e+001  -7.779149e+001 
3146875000  -4.110640e+001  -7.669975e+001 
3150000000  -4.030368e+001  -8.237511e+001 
3153125000  -4.060962e+001  -9.184215e+001 
3156250000  -4.171843e+001  -8.801289e+001 
3159375000  -3.932629e+001  -9.226524e+001 
3162500000  -3.775301e+001  -1.085235e+002 
3165625000  -3.900065e+001  -1.235025e+002 
3168750000  -3.876664e+001  -1.244894e+002 
3171875000  -3.854494e+001  -1.334206e+002 
3175000000  -3.909437e+001  -1.425698e+002 
3178125000  -3.872702e+001  -1.455826e+002 
3181250000  -3.806923e+001  -1.557493e+002 
3184375000  -3.769498e+001  -1.674854e+002 
3187500000  -3.916935e+001  1.770587e+002 
3190625000  -4.070457e+001  1.688429e+002 
3193750000  -4.114478e+001  1.732685e+002 
3196875000  -4.128485e+001  1.746056e+002 
3200000000  -3.978957e+001  1.680433e+002 
3203125000  -3.964181e+001  1.598287e+002 
3206250000  -3.973531e+001  1.513550e+002 
3209375000  -3.938560e+001  1.442584e+002 
3212500000  -3.999497e+001  1.348463e+002 
3215625000  -3.961045e+001  1.333431e+002 
3218750000  -4.037528e+001  1.200246e+002 
3221875000  -4.055505e+001  1.126398e+002 
3225000000  -4.017520e+001  1.086958e+002 
3228125000  -4.106506e+001  1.005702e+002 
3231250000  -4.139313e+001  9.754402e+001 
3234375000  -4.107002e+001  9.396414e+001 
3237500000  -4.102866e+001  9.139844e+001 
3240625000  -4.030920e+001  8.245811e+001 
3243750000  -4.025117e+001  7.066737e+001 
3246875000  -4.062693e+001  6.323553e+001 
3250000000  -4.115702e+001  5.664932e+001 
3253125000  -4.128111e+001  5.400267e+001 
3256250000  -4.034132e+001  4.436583e+001 
3259375000  -4.080735e+001  3.254158e+001 
3262500000  -4.243565e+001  2.678510e+001 
3265625000  -4.257317e+001  2.732125e+001 
3268750000  -4.264001e+001  2.651532e+001 
3271875000  -4.168933e+001  1.986338e+001 
3275000000  -4.105090e+001  9.874155e+000 
3278125000  -4.151722e+001  3.624569e+000 
3281250000  -4.167701e+001  -1.215740e+000 
3284375000  -4.115845e+001  -8.715652e+000 
3287500000  -4.144523e+001  -1.612602e+001 
3290625000  -4.134865e+001  -2.733469e+001 
3293750000  -4.163245e+001  -3.284332e+001 
3296875000  -4.261858e+001  -3.722313e+001 
3300000000  -4.183991e+001  -4.014160e+001 
3303125000  -4.101860e+001  -4.972354e+001 
3306250000  -4.097003e+001  -5.992049e+001 
3309375000  -4.061227e+001  -7.039668e+001 
3312500000  -4.104834e+001  -8.612302e+001 
3315625000  -4.246020e+001  -9.523550e+001 
3318750000  -4.374619e+001  -1.004878e+002 
3321875000  -4.536169e+001  -9.899332e+001 
3325000000  -4.471344e+001  -9.503602e+001 
3328125000  -4.393586e+001  -9.935261e+001 
3331250000  -4.272524e+001  -9.688997e+001 
3334375000  -3.987271e+001  -1.171513e+002 
3337500000  -4.074142e+001  -1.402529e+002 
3340625000  -4.287354e+001  -1.504450e+002 
3343750000  -4.441491e+001  -1.523960e+002 
3346875000  -4.412858e+001  -1.566813e+002 
3350000000  -4.363321e+001  -1.615198e+002 
3353125000  -4.351709e+001  -1.708152e+002 
3356250000  -4.328622e+001  1.795975e+002 
3359375000  -4.418103e+001  1.645167e+002 
3362500000  -4.504446e+001  1.576362e+002 
3365625000  -4.563167e+001  1.521201e+002 
3368750000  -4.671617e+001  1.459974e+002 
3371875000  -4.689181e+001  1.389702e+002 
3375000000  -4.837534e+001  1.329124e+002 
3378125000  -4.908603e+001  1.325466e+002 
3381250000  -5.118866e+001  1.442833e+002 
3384375000  -4.736650e+001  1.493250e+002 
3387500000  -4.446874e+001  1.277340e+002 
3390625000  -4.722726e+001  1.064401e+002 
3393750000  -4.753305e+001  1.040662e+002 
3396875000  -4.651237e+001  1.007642e+002 
3400000000  -4.613367e+001  8.759216e+001 
3403125000  -4.667860e+001  8.001809e+001 
3406250000  -4.772066e+001  6.982309e+001 
3409375000  -4.729386e+001  5.890462e+001 
3412500000  -4.789068e+001  5.453354e+001 
3415625000  -4.843973e+001  5.064373e+001 
3418750000  -4.871207e+001  4.250605e+001 
3421875000  -4.926394e+001  4.016640e+001 
3425000000  -4.770979e+001  3.408578e+001 
3428125000  -4.718235e+001  2.905741e+001 
3431250000  -4.718856e+001  1.576622e+001 
3434375000  -4.738425e+001  1.934360e+000 
3437500000  -4.782933e+001  -3.665721e+000 
3440625000  -4.779750e+001  -6.014630e+000 
3443750000  -4.672592e+001  -1.169854e+001 
3446875000  -4.568390e+001  -2.640336e+001 
3450000000  -4.536125e+001  -4.046682e+001 
3453125000  -4.585705e+001  -5.859507e+001 
3456250000  -4.726340e+001  -6.753349e+001 
3459375000  -4.788316e+001  -7.295911e+001 
3462500000  -4.782908e+001  -7.821104e+001 
3465625000  -4.738085e+001  -8.846495e+001 
3468750000  -4.760190e+001  -9.693925e+001 
3471875000  -4.712685e+001  -1.042127e+002 
3475000000  -4.730360e+001  -1.142344e+002 
3478125000  -4.783709e+001  -1.296344e+002 
3481250000  -4.907527e+001  -1.336897e+002 
3484375000  -4.863679e+001  -1.343822e+002 
3487500000  -4.828817e+001  -1.396564e+002 
3490625000  -4.745970e+001  -1.534359e+002 
3493750000  -4.743898e+001  -1.647531e+002 
3496875000  -4.837515e+001  -1.702164e+002 
3500000000  -4.831152e+001  -1.721083e+002 
3503125000  -4.669964e+001  -1.715582e+002 
3506250000  -4.565662e+001  1.729934e+002 
3509375000  -4.544564e+001  1.584678e+002 
3512500000  -4.626506e+001  1.361665e+002 
3515625000  -4.761112e+001  1.310621e+002 
3518750000  -4.766047e+001  1.293861e+002 
3521875000  -4.838679e+001  1.172324e+002 
3525000000  -4.929032e+001  1.150904e+002 
3528125000  -4.738861e+001  1.146512e+002 
3531250000  -4.649928e+001  1.047026e+002 
3534375000  -4.693370e+001  8.505714e+001 
3537500000  -4.770098e+001  7.973825e+001 
3540625000  -4.803830e+001  7.633926e+001 
3543750000  -4.928513e+001  7.810054e+001 
3546875000  -4.853658e+001  8.372315e+001 
3550000000  -4.650259e+001  7.205385e+001 
3553125000  -4.605198e+001  5.431292e+001 
3556250000  -4.742269e+001  4.825460e+001 
3559375000  -4.722089e+001  4.500914e+001 
3562500000  -4.629102e+001  3.131488e+001 
3565625000  -4.732668e+001  2.946641e+001 
3568750000  -4.779399e+001  2.520712e+001 
3571875000  -4.756962e+001  1.983850e+001 
3575000000  -4.662878e+001  1.162058e+001 
3578125000  -4.763195e+001  7.820182e+000 
3581250000  -4.736769e+001  4.086217e+000 
3584375000  -4.612106e+001  -2.849912e+000 
3587500000  -4.552261e+001  -1.584823e+001 
3590625000  -4.629433e+001  -2.473988e+001 
3593750000  -4.770407e+001  -2.590495e+001 
3596875000  -4.683204e+001  -2.262478e+001 
3600000000  -4.456832e+001  -3.142441e+001 
3603125000  -4.511169e+001  -5.127731e+001 
3606250000  -4.630575e+001  -5.192855e+001 
3609375000  -4.584398e+001  -5.810179e+001 
3612500000  -4.603275e+001  -6.545461e+001 
3615625000  -4.607285e+001  -7.006493e+001 
3618750000  -4.601344e+001  -7.346157e+001 
3621875000  -4.572492e+001  -7.871893e+001 
3625000000  -4.598441e+001  -8.410952e+001 
3628125000  -4.509224e+001  -8.824317e+001 
3631250000  -4.497052e+001  -9.617182e+001 
3634375000  -4.577295e+001  -9.883328e+001 
3637500000  -4.456126e+001  -1.015363e+002 
3640625000  -4.388858e+001  -1.066688e+002 
3643750000  -4.317434e+001  -1.191384e+002 
3646875000  -4.355571e+001  -1.294865e+002 
3650000000  -4.362458e+001  -1.360930e+002 
3653125000  -4.306205e+001  -1.442961e+002 
3656250000  -4.418388e+001  -1.499787e+002 
3659375000  -4.390395e+001  -1.533639e+002 
3662500000  -4.311500e+001  -1.600054e+002 
3665625000  -4.329330e+001  -1.635443e+002 
3668750000  -4.189735e+001  -1.686218e+002 
3671875000  -4.150954e+001  1.770244e+002 
3675000000  -4.217313e+001  1.666777e+002 
3678125000  -4.269202e+001  1.629021e+002 
3681250000  -4.220120e+001  1.561476e+002 
3684375000  -4.254029e+001  1.485144e+002 
3687500000  -4.288384e+001  1.384556e+002 
3690625000  -4.346395e+001  1.310489e+002 
3693750000  -4.447386e+001  1.329216e+002 
3696875000  -4.358275e+001  1.292686e+002 
3700000000  -4.332755e+001  1.183796e+002 
3703125000  -4.388671e+001  1.135054e+002 
3706250000  -4.491367e+001  1.105146e+002 
3709375000  -4.379532e+001  1.120737e+002 
3712500000  -4.299930e+001  1.049388e+002 
3715625000  -4.175887e+001  9.485429e+001 
3718750000  -4.165780e+001  8.418889e+001 
3721875000  -4.185983e+001  7.598145e+001 
3725000000  -4.227466e+001  6.928049e+001 
3728125000  -4.230272e+001  6.451913e+001 
3731250000  -4.182344e+001  5.950717e+001 
3734375000  -4.185887e+001  5.246548e+001 
3737500000  -4.262159e+001  4.294946e+001 
3740625000  -4.307159e+001  3.470657e+001 
3743750000  -4.284267e+001  3.000441e+001 
3746875000  -4.310608e+001  2.447894e+001 
3750000000  -4.359771e+001  2.122459e+001 
3753125000  -4.366008e+001  1.647091e+001 
3756250000  -4.384129e+001  1.308740e+001 
3759375000  -4.349871e+001  7.609802e+000 
3762500000  -4.366763e+001  2.379937e+000 
3765625000  -4.436631e+001  -2.410451e+000 
3768750000  -4.347237e+001  -1.895828e+000 
3771875000  -4.186232e+001  -8.635386e+000 
3775000000  -4.192606e+001  -2.085828e+001 
3778125000  -4.263222e+001  -2.592405e+001 
3781250000  -4.276224e+001  -2.864068e+001 
3784375000  -4.229650e+001  -3.602842e+001 
3787500000  -4.207743e+001  -4.083385e+001 
3790625000  -4.292175e+001  -5.215604e+001 
3793750000  -4.256962e+001  -5.504502e+001 
3796875000  -4.155802e+001  -5.924965e+001 
3800000000  -4.075796e+001  -6.821694e+001 
3803125000  -4.179332e+001  -7.989382e+001 
3806250000  -4.258431e+001  -8.401633e+001 
3809375000  -4.177913e+001  -9.078950e+001 
3812500000  -4.183061e+001  -9.967617e+001 
3815625000  -4.285635e+001  -1.109743e+002 
3818750000  -4.375478e+001  -1.091833e+002 
3821875000  -4.340926e+001  -9.713850e+001 
3825000000  -4.117961e+001  -1.052861e+002 
3828125000  -4.026133e+001  -1.260827e+002 
3831250000  -4.136179e+001  -1.402460e+002 
3834375000  -4.377394e+001  -1.417995e+002 
3837500000  -4.385155e+001  -1.394084e+002 
3840625000  -4.199413e+001  -1.440437e+002 
3843750000  -4.171838e+001  -1.578677e+002 
3846875000  -4.384104e+001  -1.675105e+002 
3850000000  -4.401999e+001  -1.596697e+002 
3853125000  -4.341819e+001  -1.614313e+002 
3856250000  -4.287156e+001  -1.719579e+002 
3859375000  -4.233787e+001  -1.798965e+002 
3862500000  -4.209736e+001  1.708490e+002 
3865625000  -4.271178e+001  1.606676e+002 
3868750000  -4.239478e+001  1.628669e+002 
3871875000  -4.182043e+001  1.523981e+002 
3875000000  -4.229819e+001  1.412579e+002 
3878125000  -4.325146e+001  1.392299e+002 
3881250000  -4.322855e+001  1.359232e+002 
3884375000  -4.257998e+001  1.259627e+002 
3887500000  -4.309095e+001  1.204862e+002 
3890625000  -4.381119e+001  1.150601e+002 
3893750000  -4.398983e+001  1.125339e+002 
3896875000  -4.406012e+001  1.125154e+002 
3900000000  -4.450634e+001  1.041633e+002 
3903125000  -4.385961e+001  9.927694e+001 
3906250000  -4.340800e+001  9.935248e+001 
3909375000  -4.243567e+001  8.947818e+001 
3912500000  -4.368485e+001  7.834278e+001 
3915625000  -4.495991e+001  7.732764e+001 
3918750000  -4.459247e+001  7.855164e+001 
3921875000  -4.393786e+001  7.349490e+001 
3925000000  -4.346630e+001  6.601723e+001 
3928125000  -4.262766e+001  5.763726e+001 
3931250000  -4.381286e+001  5.094726e+001 
3934375000  -4.413580e+001  4.671113e+001 
3937500000  -4.443366e+001  4.252307e+001 
3940625000  -4.430552e+001  4.378290e+001 
3943750000  -4.319385e+001  3.780197e+001 
3946875000  -4.260228e+001  2.647237e+001 
3950000000  -4.367762e+001  2.147761e+001 
3953125000  -4.428340e+001  1.937262e+001 
3956250000  -4.283341e+001  1.813355e+001 
3959375000  -4.194422e+001  1.450217e+001 
3962500000  -4.159137e+001  -7.525383e-001 
3965625000  -4.202160e+001  -8.698247e+000 
3968750000  -4.251790e+001  -1.577404e+001 
3971875000  -4.236421e+001  -2.188105e+001 
3975000000  -4.166045e+001  -2.535642e+001 
3978125000  -4.162558e+001  -3.269705e+001 
3981250000  -4.185516e+001  -3.906822e+001 
3984375000  -4.220036e+001  -4.670694e+001 
3987500000  -4.274226e+001  -5.062997e+001 
3990625000  -4.289891e+001  -5.708751e+001 
3993750000  -4.282571e+001  -6.378288e+001 
3996875000  -4.328977e+001  -6.848712e+001 
4000000000  -4.343686e+001  -7.134013e+001 
4003125000  -4.383578e+001  -7.296844e+001 
4006250000  -4.167267e+001  -7.979495e+001 
4009375000  -4.076498e+001  -9.345897e+001 
4012500000  -4.262603e+001  -1.034737e+002 
4015625000  -4.433131e+001  -1.054424e+002 
4018750000  -4.383154e+001  -1.074289e+002 
4021875000  -4.316014e+001  -1.135764e+002 
4025000000  -4.345704e+001  -1.195122e+002 
4028125000  -4.333566e+001  -1.298521e+002 
4031250000  -4.412283e+001  -1.359722e+002 
4034375000  -4.368626e+001  -1.375877e+002 
4037500000  -4.381609e+001  -1.420511e+002 
4040625000  -4.378046e+001  -1.479639e+002 
4043750000  -4.425927e+001  -1.504063e+002 
4046875000  -4.409614e+001  -1.542618e+002 
4050000000  -4.458909e+001  -1.646770e+002 
4053125000  -4.497834e+001  -1.693201e+002 
4056250000  -4.553831e+001  -1.652145e+002 
4059375000  -4.407791e+001  -1.660621e+002 
4062500000  -4.315006e+001  -1.728972e+002 
4065625000  -4.380975e+001  -1.785807e+002 
4068750000  -4.291349e+001  1.697721e+002 
4071875000  -4.263302e+001  1.615798e+002 
4075000000  -4.384304e+001  1.535030e+002 
4078125000  -4.382230e+001  1.533789e+002 
4081250000  -4.370302e+001  1.479260e+002 
4084375000  -4.342985e+001  1.372057e+002 
4087500000  -4.345423e+001  1.281882e+002 
4090625000  -4.509737e+001  1.280962e+002 
4093750000  -4.461877e+001  1.247615e+002 
4096875000  -4.365293e+001  1.165584e+002 
4100000000  -4.521626e+001  1.079384e+002 
4103125000  -4.547195e+001  1.148386e+002 
4106250000  -4.525146e+001  1.140039e+002 
4109375000  -4.450589e+001  1.121000e+002 
4112500000  -4.369886e+001  1.004521e+002 
4115625000  -4.433138e+001  9.395551e+001 
4118750000  -4.374941e+001  8.912894e+001 
4121875000  -4.379168e+001  8.358053e+001 
4125000000  -4.477049e+001  7.307567e+001 
4128125000  -4.514391e+001  7.869254e+001 
4131250000  -4.372078e+001  8.286012e+001 
4134375000  -4.178507e+001  6.938830e+001 
4137500000  -4.176664e+001  4.864852e+001 
4140625000  -4.357091e+001  4.271882e+001 
4143750000  -4.502409e+001  4.763482e+001 
4146875000  -4.400939e+001  4.856964e+001 
4150000000  -4.281090e+001  4.046819e+001 
4153125000  -4.287925e+001  2.912985e+001 
4156250000  -4.397805e+001  2.757279e+001 
4159375000  -4.375211e+001  2.805117e+001 
4162500000  -4.245121e+001  2.839075e+001 
4165625000  -4.123372e+001  1.432709e+001 
4168750000  -4.113465e+001  5.051425e+000 
4171875000  -4.104197e+001  -3.989435e+000 
4175000000  -4.178436e+001  -1.661077e+001 
4178125000  -4.209770e+001  -1.942418e+001 
4181250000  -4.189178e+001  -2.460853e+001 
4184375000  -4.223095e+001  -2.969605e+001 
4187500000  -4.217763e+001  -3.798457e+001 
4190625000  -4.272451e+001  -4.664366e+001 
4193750000  -4.402412e+001  -5.119793e+001 
4196875000  -4.481322e+001  -5.610026e+001 
4200000000  -4.588734e+001  -4.901291e+001 
4203125000  -4.390895e+001  -4.169149e+001 
4206250000  -4.085441e+001  -4.974916e+001 
4209375000  -4.101828e+001  -7.351904e+001 
4212500000  -4.393990e+001  -8.017749e+001 
4215625000  -4.391963e+001  -7.420715e+001 
4218750000  -4.240935e+001  -7.298490e+001 
4221875000  -4.105643e+001  -8.334385e+001 
4225000000  -4.239538e+001  -9.917389e+001 
4228125000  -4.188714e+001  -9.396993e+001 
4231250000  -4.084335e+001  -1.022791e+002 
4234375000  -4.073135e+001  -1.156681e+002 
4237500000  -4.068165e+001  -1.217154e+002 
4240625000  -4.104515e+001  -1.317865e+002 
4243750000  -4.259729e+001  -1.403908e+002 
4246875000  -4.287738e+001  -1.371647e+002 
4250000000  -4.261687e+001  -1.385051e+002 
4253125000  -4.231650e+001  -1.424412e+002 
4256250000  -4.225476e+001  -1.505133e+002 
4259375000  -4.169633e+001  -1.535224e+002 
4262500000  -4.208982e+001  -1.577083e+002 
4265625000  -4.198143e+001  -1.614482e+002 
4268750000  -4.125702e+001  -1.708186e+002 
4271875000  -4.033838e+001  -1.795321e+002 
4275000000  -4.028037e+001  1.718400e+002 
4278125000  -4.127809e+001  1.586944e+002 
4281250000  -4.250421e+001  1.555069e+002 
4284375000  -4.175181e+001  1.497005e+002 
4287500000  -4.370222e+001  1.495072e+002 
4290625000  -4.392000e+001  1.568725e+002 
4293750000  -4.119690e+001  1.558049e+002 
4296875000  -4.036730e+001  1.411609e+002 
4300000000  -4.120757e+001  1.281416e+002 
4303125000  -4.197003e+001  1.292781e+002 
4306250000  -4.061369e+001  1.281156e+002 
4309375000  -3.990751e+001  1.182803e+002 
4312500000  -3.971779e+001  1.073117e+002 
4315625000  -4.032358e+001  9.926634e+001 
4318750000  -4.069044e+001  9.410025e+001 
4321875000  -4.083466e+001  9.187347e+001 
4325000000  -4.025779e+001  8.732281e+001 
4328125000  -3.948573e+001  7.477359e+001 
4331250000  -3.959614e+001  6.377143e+001 
4334375000  -4.079308e+001  5.587631e+001 
4337500000  -4.188764e+001  5.284571e+001 
4340625000  -4.239680e+001  5.678118e+001 
4343750000  -4.082533e+001  5.387119e+001 
4346875000  -4.081335e+001  4.128665e+001 
4350000000  -4.113877e+001  3.142772e+001 
4353125000  -4.170986e+001  2.251869e+001 
4356250000  -4.351236e+001  2.588465e+001 
4359375000  -4.289373e+001  4.010085e+001 
4362500000  -3.972480e+001  2.742731e+001 
4365625000  -3.919727e+001  1.070222e+001 
4368750000  -4.034181e+001  1.280646e-001 
4371875000  -4.123336e+001  5.478802e-001 
4375000000  -4.055228e+001  -8.648048e+000 
4378125000  -4.071550e+001  -1.654332e+001 
4381250000  -4.078285e+001  -2.297626e+001 
4384375000  -4.059776e+001  -3.177933e+001 
4387500000  -4.146414e+001  -4.035319e+001 
4390625000  -4.175424e+001  -4.016948e+001 
4393750000  -4.164346e+001  -4.078492e+001 
4396875000  -4.127114e+001  -4.547046e+001 
4400000000  -4.064447e+001  -5.823598e+001 
4403125000  -4.152721e+001  -6.609270e+001 
4406250000  -4.169099e+001  -7.064141e+001 
4409375000  -4.271178e+001  -7.589005e+001 
4412500000  -4.339253e+001  -7.728190e+001 
4415625000  -4.309279e+001  -7.157378e+001 
4418750000  -4.159124e+001  -7.649184e+001 
