!Agilent Technologies,E8363B,MY43030201,A.06.04.32
!Agilent E8363B: A.06.04.32
!Date: Tuesday, November 11, 2014 21:52:10
!Correction: S21(Response(S21)) 
!S1P File: Measurement: S21:
# Hz S  dB   R 50
3000000000  -4.356392e+001  -1.620615e+002 
3003125000  -4.526380e+001  -1.677252e+002 
3006250000  -4.545803e+001  -1.694432e+002 
3009375000  -4.604425e+001  -1.666693e+002 
3012500000  -4.488188e+001  -1.739868e+002 
3015625000  -4.483140e+001  -1.789725e+002 
3018750000  -4.569862e+001  -1.794332e+002 
3021875000  -4.420656e+001  1.782741e+002 
3025000000  -4.270800e+001  1.753586e+002 
3028125000  -4.186496e+001  1.624847e+002 
3031250000  -4.084436e+001  1.513063e+002 
3034375000  -4.088968e+001  1.367372e+002 
3037500000  -4.172127e+001  1.253118e+002 
3040625000  -4.288329e+001  1.186601e+002 
3043750000  -4.329899e+001  1.129540e+002 
3046875000  -4.436013e+001  1.047429e+002 
3050000000  -4.526131e+001  1.003540e+002 
3053125000  -4.494771e+001  1.050623e+002 
3056250000  -4.482481e+001  1.072699e+002 
3059375000  -4.400121e+001  1.028577e+002 
3062500000  -4.275286e+001  9.855183e+001 
3065625000  -4.207232e+001  8.846038e+001 
3068750000  -4.171990e+001  8.063954e+001 
3071875000  -4.170200e+001  7.769433e+001 
3075000000  -4.137414e+001  6.862724e+001 
3078125000  -4.123378e+001  6.189362e+001 
3081250000  -4.133530e+001  5.630541e+001 
3084375000  -4.049373e+001  4.932213e+001 
3087500000  -4.064271e+001  4.140630e+001 
3090625000  -3.999958e+001  2.955687e+001 
3093750000  -4.092703e+001  1.990584e+001 
3096875000  -4.119125e+001  1.509948e+001 
3100000000  -4.118192e+001  1.121966e+001 
3103125000  -4.140353e+001  6.198215e+000 
3106250000  -4.107633e+001  3.182761e-001 
3109375000  -4.100232e+001  -4.488245e+000 
3112500000  -4.097309e+001  -1.255685e+001 
3115625000  -4.095608e+001  -1.735551e+001 
3118750000  -4.077061e+001  -2.299562e+001 
3121875000  -4.009485e+001  -3.335933e+001 
3125000000  -4.226866e+001  -3.771286e+001 
3128125000  -4.205388e+001  -3.127451e+001 
3131250000  -3.964655e+001  -3.968208e+001 
3134375000  -3.900835e+001  -5.748435e+001 
3137500000  -3.977695e+001  -7.200841e+001 
3140625000  -4.097976e+001  -7.511906e+001 
3143750000  -4.149030e+001  -7.898006e+001 
3146875000  -4.104305e+001  -7.763239e+001 
3150000000  -4.036995e+001  -8.406266e+001 
3153125000  -4.071104e+001  -9.224454e+001 
3156250000  -4.136670e+001  -9.074727e+001 
3159375000  -3.924242e+001  -9.312578e+001 
3162500000  -3.768514e+001  -1.093220e+002 
3165625000  -3.901522e+001  -1.238925e+002 
3168750000  -3.888128e+001  -1.256255e+002 
3171875000  -3.856356e+001  -1.352298e+002 
3175000000  -3.937625e+001  -1.448188e+002 
3178125000  -3.874884e+001  -1.469318e+002 
3181250000  -3.796692e+001  -1.554706e+002 
3184375000  -3.782539e+001  -1.672674e+002 
3187500000  -3.910225e+001  1.761332e+002 
3190625000  -4.081979e+001  1.677310e+002 
3193750000  -4.134820e+001  1.734335e+002 
3196875000  -4.107856e+001  1.732845e+002 
3200000000  -3.991174e+001  1.658389e+002 
3203125000  -3.961166e+001  1.587053e+002 
3206250000  -3.989029e+001  1.517654e+002 
3209375000  -3.950636e+001  1.420308e+002 
3212500000  -3.988681e+001  1.336467e+002 
3215625000  -3.975951e+001  1.327553e+002 
3218750000  -4.028120e+001  1.185600e+002 
3221875000  -4.064796e+001  1.113909e+002 
3225000000  -4.016516e+001  1.065155e+002 
3228125000  -4.123315e+001  9.979459e+001 
3231250000  -4.133235e+001  9.734603e+001 
3234375000  -4.098566e+001  9.213485e+001 
3237500000  -4.100760e+001  8.877029e+001 
3240625000  -4.018197e+001  8.149683e+001 
3243750000  -4.031281e+001  6.964883e+001 
3246875000  -4.081791e+001  6.195543e+001 
3250000000  -4.092386e+001  5.715841e+001 
3253125000  -4.117946e+001  5.445877e+001 
3256250000  -4.042850e+001  4.278817e+001 
3259375000  -4.085220e+001  3.001993e+001 
3262500000  -4.235584e+001  2.335297e+001 
3265625000  -4.255911e+001  2.678992e+001 
3268750000  -4.239101e+001  2.466045e+001 
3271875000  -4.149676e+001  1.984643e+001 
3275000000  -4.097295e+001  9.254878e+000 
3278125000  -4.179750e+001  2.692978e+000 
3281250000  -4.179932e+001  -1.501384e+000 
3284375000  -4.092558e+001  -1.134464e+001 
3287500000  -4.157457e+001  -1.808730e+001 
3290625000  -4.140104e+001  -2.725381e+001 
3293750000  -4.151069e+001  -3.552337e+001 
3296875000  -4.259528e+001  -4.026101e+001 
3300000000  -4.201372e+001  -4.197539e+001 
3303125000  -4.091802e+001  -5.207428e+001 
3306250000  -4.075589e+001  -5.984061e+001 
3309375000  -4.056860e+001  -7.232240e+001 
3312500000  -4.116055e+001  -8.821228e+001 
3315625000  -4.232940e+001  -9.444363e+001 
3318750000  -4.404601e+001  -1.027651e+002 
3321875000  -4.512107e+001  -9.950299e+001 
3325000000  -4.498965e+001  -9.873774e+001 
3328125000  -4.388743e+001  -9.934331e+001 
3331250000  -4.243224e+001  -1.016285e+002 
3334375000  -4.014533e+001  -1.182714e+002 
3337500000  -4.068824e+001  -1.420907e+002 
3340625000  -4.285827e+001  -1.526888e+002 
3343750000  -4.448809e+001  -1.555207e+002 
3346875000  -4.408133e+001  -1.563385e+002 
3350000000  -4.366120e+001  -1.614724e+002 
3353125000  -4.352745e+001  -1.722822e+002 
3356250000  -4.327809e+001  1.782200e+002 
3359375000  -4.442704e+001  1.622774e+002 
3362500000  -4.524607e+001  1.560007e+002 
3365625000  -4.611431e+001  1.506045e+002 
3368750000  -4.640086e+001  1.440095e+002 
3371875000  -4.707698e+001  1.400424e+002 
3375000000  -4.830104e+001  1.325342e+002 
3378125000  -4.951034e+001  1.311210e+002 
3381250000  -5.028405e+001  1.385925e+002 
3384375000  -4.766164e+001  1.502319e+002 
3387500000  -4.493111e+001  1.267461e+002 
3390625000  -4.671396e+001  1.050373e+002 
3393750000  -4.773779e+001  1.046687e+002 
3396875000  -4.632857e+001  9.711047e+001 
3400000000  -4.640154e+001  8.445879e+001 
3403125000  -4.680847e+001  7.557613e+001 
3406250000  -4.765441e+001  6.792040e+001 
3409375000  -4.694369e+001  5.628230e+001 
3412500000  -4.807221e+001  5.111699e+001 
3415625000  -4.851706e+001  4.807381e+001 
3418750000  -4.853603e+001  4.313944e+001 
3421875000  -4.895563e+001  4.117813e+001 
3425000000  -4.784628e+001  3.234782e+001 
3428125000  -4.733699e+001  2.704660e+001 
3431250000  -4.683472e+001  1.545599e+001 
3434375000  -4.664141e+001  1.848083e+000 
3437500000  -4.801736e+001  -4.163622e+000 
3440625000  -4.794423e+001  -9.528279e+000 
3443750000  -4.630098e+001  -1.516245e+001 
3446875000  -4.553173e+001  -2.955653e+001 
3450000000  -4.508453e+001  -4.506679e+001 
3453125000  -4.624764e+001  -6.009914e+001 
3456250000  -4.721947e+001  -7.288799e+001 
3459375000  -4.819982e+001  -7.374429e+001 
3462500000  -4.776187e+001  -7.553350e+001 
3465625000  -4.763148e+001  -9.057470e+001 
3468750000  -4.758529e+001  -9.885354e+001 
3471875000  -4.699039e+001  -1.031033e+002 
3475000000  -4.673083e+001  -1.161925e+002 
3478125000  -4.827197e+001  -1.302554e+002 
3481250000  -4.934613e+001  -1.370155e+002 
3484375000  -4.904969e+001  -1.359409e+002 
3487500000  -4.734338e+001  -1.437050e+002 
3490625000  -4.727731e+001  -1.542696e+002 
3493750000  -4.810147e+001  -1.684319e+002 
3496875000  -4.830774e+001  -1.727095e+002 
3500000000  -4.884040e+001  -1.720782e+002 
3503125000  -4.693782e+001  -1.786628e+002 
3506250000  -4.533829e+001  1.720688e+002 
3509375000  -4.583799e+001  1.521937e+002 
3512500000  -4.621368e+001  1.352700e+002 
3515625000  -4.739145e+001  1.314868e+002 
3518750000  -4.736592e+001  1.266853e+002 
3521875000  -4.782605e+001  1.154354e+002 
3525000000  -4.885687e+001  1.124930e+002 
3528125000  -4.731540e+001  1.183985e+002 
3531250000  -4.683203e+001  1.005622e+002 
3534375000  -4.693142e+001  8.699803e+001 
3537500000  -4.757990e+001  7.894278e+001 
3540625000  -4.938935e+001  7.251585e+001 
3543750000  -4.920842e+001  8.019004e+001 
3546875000  -4.863874e+001  8.363844e+001 
3550000000  -4.645992e+001  7.240183e+001 
3553125000  -4.625645e+001  5.501741e+001 
3556250000  -4.743902e+001  4.374931e+001 
3559375000  -4.639252e+001  3.979558e+001 
3562500000  -4.645264e+001  2.901670e+001 
3565625000  -4.772791e+001  2.163313e+001 
3568750000  -4.808863e+001  2.126136e+001 
3571875000  -4.715165e+001  1.626341e+001 
3575000000  -4.687408e+001  1.035139e+001 
3578125000  -4.772532e+001  6.937575e+000 
3581250000  -4.816862e+001  5.440409e+000 
3584375000  -4.649172e+001  -3.488785e+000 
3587500000  -4.546588e+001  -1.605738e+001 
3590625000  -4.685407e+001  -2.725944e+001 
3593750000  -4.778705e+001  -2.682794e+001 
3596875000  -4.661794e+001  -2.057785e+001 
3600000000  -4.482942e+001  -3.485073e+001 
3603125000  -4.510873e+001  -5.200000e+001 
3606250000  -4.586595e+001  -5.454688e+001 
3609375000  -4.611152e+001  -5.754729e+001 
3612500000  -4.578482e+001  -6.650420e+001 
3615625000  -4.613018e+001  -6.961998e+001 
3618750000  -4.635921e+001  -7.502592e+001 
3621875000  -4.557315e+001  -8.149429e+001 
3625000000  -4.560690e+001  -8.255386e+001 
3628125000  -4.471059e+001  -9.259670e+001 
3631250000  -4.508820e+001  -1.022616e+002 
3634375000  -4.573406e+001  -1.027603e+002 
3637500000  -4.429773e+001  -1.013039e+002 
3640625000  -4.343223e+001  -1.078955e+002 
3643750000  -4.321976e+001  -1.213084e+002 
3646875000  -4.371271e+001  -1.324981e+002 
3650000000  -4.385465e+001  -1.346438e+002 
3653125000  -4.321577e+001  -1.447236e+002 
3656250000  -4.386147e+001  -1.518644e+002 
3659375000  -4.404437e+001  -1.554023e+002 
3662500000  -4.335217e+001  -1.621343e+002 
3665625000  -4.339622e+001  -1.658775e+002 
3668750000  -4.200291e+001  -1.703909e+002 
3671875000  -4.140722e+001  1.771046e+002 
3675000000  -4.230998e+001  1.653649e+002 
3678125000  -4.250534e+001  1.611891e+002 
3681250000  -4.232455e+001  1.537536e+002 
3684375000  -4.268904e+001  1.445239e+002 
3687500000  -4.302478e+001  1.377326e+002 
3690625000  -4.345145e+001  1.330320e+002 
3693750000  -4.421635e+001  1.297614e+002 
3696875000  -4.388667e+001  1.262698e+002 
3700000000  -4.314975e+001  1.212607e+002 
3703125000  -4.389025e+001  1.128512e+002 
3706250000  -4.479052e+001  1.076795e+002 
3709375000  -4.374477e+001  1.093986e+002 
3712500000  -4.308883e+001  1.021297e+002 
3715625000  -4.170929e+001  9.225242e+001 
3718750000  -4.167666e+001  8.508670e+001 
3721875000  -4.154675e+001  7.560591e+001 
3725000000  -4.233773e+001  6.879112e+001 
3728125000  -4.240324e+001  6.467693e+001 
3731250000  -4.200153e+001  5.605379e+001 
3734375000  -4.214011e+001  4.970054e+001 
3737500000  -4.273989e+001  4.105062e+001 
3740625000  -4.308115e+001  3.479893e+001 
3743750000  -4.268691e+001  2.708574e+001 
3746875000  -4.308001e+001  1.986719e+001 
3750000000  -4.372151e+001  1.914526e+001 
3753125000  -4.355338e+001  1.588093e+001 
3756250000  -4.382173e+001  1.169527e+001 
3759375000  -4.343267e+001  6.032006e+000 
3762500000  -4.352223e+001  2.426274e+000 
3765625000  -4.399879e+001  -4.873939e+000 
3768750000  -4.383686e+001  -6.656682e-001 
3771875000  -4.223835e+001  -1.083897e+001 
3775000000  -4.204636e+001  -2.237804e+001 
3778125000  -4.246572e+001  -2.825989e+001 
3781250000  -4.253882e+001  -3.202325e+001 
3784375000  -4.207579e+001  -3.859034e+001 
3787500000  -4.239438e+001  -4.510988e+001 
3790625000  -4.255180e+001  -5.354439e+001 
3793750000  -4.269798e+001  -5.614615e+001 
3796875000  -4.162225e+001  -6.251738e+001 
3800000000  -4.070074e+001  -6.982413e+001 
3803125000  -4.196262e+001  -8.117950e+001 
3806250000  -4.231635e+001  -8.531538e+001 
3809375000  -4.187317e+001  -9.262753e+001 
3812500000  -4.182703e+001  -1.026400e+002 
3815625000  -4.299355e+001  -1.111868e+002 
3818750000  -4.429593e+001  -1.089256e+002 
3821875000  -4.352334e+001  -1.014597e+002 
3825000000  -4.130757e+001  -1.073568e+002 
3828125000  -4.030761e+001  -1.274819e+002 
3831250000  -4.144787e+001  -1.435264e+002 
3834375000  -4.365339e+001  -1.468827e+002 
3837500000  -4.393749e+001  -1.397821e+002 
3840625000  -4.223301e+001  -1.471890e+002 
3843750000  -4.189928e+001  -1.616683e+002 
3846875000  -4.351736e+001  -1.725156e+002 
3850000000  -4.413792e+001  -1.622082e+002 
3853125000  -4.336943e+001  -1.632420e+002 
3856250000  -4.282556e+001  -1.731973e+002 
3859375000  -4.244044e+001  1.777067e+002 
3862500000  -4.224976e+001  1.677322e+002 
3865625000  -4.244641e+001  1.621734e+002 
3868750000  -4.228151e+001  1.602801e+002 
3871875000  -4.188145e+001  1.517543e+002 
3875000000  -4.256707e+001  1.410295e+002 
3878125000  -4.319448e+001  1.356559e+002 
3881250000  -4.310152e+001  1.361240e+002 
3884375000  -4.243598e+001  1.258485e+002 
3887500000  -4.289339e+001  1.206665e+002 
3890625000  -4.382943e+001  1.166780e+002 
3893750000  -4.393819e+001  1.135453e+002 
3896875000  -4.435500e+001  1.110988e+002 
3900000000  -4.448529e+001  1.046878e+002 
3903125000  -4.355611e+001  9.902065e+001 
3906250000  -4.366266e+001  9.707824e+001 
3909375000  -4.273192e+001  8.590897e+001 
3912500000  -4.357825e+001  7.706841e+001 
3915625000  -4.461429e+001  7.848176e+001 
3918750000  -4.457494e+001  7.617442e+001 
3921875000  -4.359018e+001  7.213625e+001 
3925000000  -4.316940e+001  6.292397e+001 
3928125000  -4.271763e+001  5.438913e+001 
3931250000  -4.342493e+001  4.885550e+001 
3934375000  -4.365841e+001  4.463233e+001 
3937500000  -4.433643e+001  4.295888e+001 
3940625000  -4.449687e+001  4.120700e+001 
3943750000  -4.322890e+001  3.795924e+001 
3946875000  -4.241519e+001  2.966340e+001 
3950000000  -4.368245e+001  1.651431e+001 
3953125000  -4.404060e+001  1.862622e+001 
3956250000  -4.317218e+001  1.739699e+001 
3959375000  -4.187087e+001  1.097496e+001 
3962500000  -4.168399e+001  -5.091131e-001 
3965625000  -4.179844e+001  -1.047325e+001 
3968750000  -4.227044e+001  -1.691186e+001 
3971875000  -4.209823e+001  -2.447150e+001 
3975000000  -4.175475e+001  -2.775933e+001 
3978125000  -4.204042e+001  -3.430121e+001 
3981250000  -4.191058e+001  -4.242612e+001 
3984375000  -4.238725e+001  -5.046360e+001 
3987500000  -4.303640e+001  -5.432880e+001 
3990625000  -4.289109e+001  -5.763639e+001 
3993750000  -4.270117e+001  -6.614219e+001 
3996875000  -4.300133e+001  -7.116019e+001 
4000000000  -4.368910e+001  -7.394411e+001 
4003125000  -4.379058e+001  -7.433993e+001 
4006250000  -4.190893e+001  -8.006517e+001 
4009375000  -4.096783e+001  -1.006850e+002 
4012500000  -4.285278e+001  -1.061421e+002 
4015625000  -4.393230e+001  -1.065389e+002 
4018750000  -4.371307e+001  -1.110399e+002 
4021875000  -4.318232e+001  -1.184668e+002 
4025000000  -4.315625e+001  -1.228601e+002 
4028125000  -4.307780e+001  -1.326493e+002 
4031250000  -4.383816e+001  -1.382137e+002 
4034375000  -4.377699e+001  -1.417496e+002 
4037500000  -4.399732e+001  -1.431508e+002 
4040625000  -4.403270e+001  -1.495683e+002 
4043750000  -4.429695e+001  -1.536966e+002 
4046875000  -4.478304e+001  -1.612890e+002 
4050000000  -4.417932e+001  -1.641651e+002 
4053125000  -4.497262e+001  -1.697853e+002 
4056250000  -4.603397e+001  -1.662614e+002 
4059375000  -4.373557e+001  -1.691921e+002 
4062500000  -4.336777e+001  -1.747932e+002 
4065625000  -4.397429e+001  1.785280e+002 
4068750000  -4.302055e+001  1.707988e+002 
4071875000  -4.247160e+001  1.596525e+002 
4075000000  -4.325373e+001  1.515106e+002 
4078125000  -4.367746e+001  1.489518e+002 
4081250000  -4.318432e+001  1.428527e+002 
4084375000  -4.327875e+001  1.360799e+002 
4087500000  -4.413803e+001  1.256397e+002 
4090625000  -4.427200e+001  1.269722e+002 
4093750000  -4.403630e+001  1.190697e+002 
4096875000  -4.424671e+001  1.142593e+002 
4100000000  -4.533618e+001  1.086929e+002 
4103125000  -4.569216e+001  1.092492e+002 
4106250000  -4.485086e+001  1.123470e+002 
4109375000  -4.472838e+001  1.079998e+002 
4112500000  -4.393373e+001  9.970194e+001 
4115625000  -4.412645e+001  9.267753e+001 
4118750000  -4.411829e+001  8.977160e+001 
4121875000  -4.380087e+001  7.881470e+001 
4125000000  -4.461087e+001  7.592646e+001 
4128125000  -4.501890e+001  7.537641e+001 
4131250000  -4.353516e+001  8.247183e+001 
4134375000  -4.136006e+001  6.960389e+001 
4137500000  -4.195194e+001  4.822238e+001 
4140625000  -4.459309e+001  3.895834e+001 
4143750000  -4.436444e+001  4.592268e+001 
4146875000  -4.398080e+001  4.707208e+001 
4150000000  -4.267957e+001  3.899101e+001 
4153125000  -4.341989e+001  2.793621e+001 
4156250000  -4.432446e+001  2.296031e+001 
4159375000  -4.383469e+001  2.637175e+001 
4162500000  -4.216323e+001  2.221601e+001 
4165625000  -4.156564e+001  1.474151e+001 
4168750000  -4.122896e+001  7.415329e-001 
4171875000  -4.102197e+001  -6.900156e+000 
4175000000  -4.174833e+001  -1.771253e+001 
4178125000  -4.202928e+001  -2.025061e+001 
4181250000  -4.214187e+001  -2.627847e+001 
4184375000  -4.208127e+001  -3.356219e+001 
4187500000  -4.222613e+001  -3.762461e+001 
4190625000  -4.299263e+001  -4.971482e+001 
4193750000  -4.404213e+001  -5.381372e+001 
4196875000  -4.504714e+001  -5.919707e+001 
4200000000  -4.595412e+001  -5.112218e+001 
4203125000  -4.490882e+001  -3.924245e+001 
4206250000  -4.090814e+001  -5.284811e+001 
4209375000  -4.140758e+001  -7.531150e+001 
4212500000  -4.352596e+001  -8.231384e+001 
4215625000  -4.409723e+001  -7.454534e+001 
4218750000  -4.209487e+001  -7.634281e+001 
4221875000  -4.099063e+001  -8.588084e+001 
4225000000  -4.259892e+001  -9.599218e+001 
4228125000  -4.198946e+001  -9.370599e+001 
4231250000  -4.103278e+001  -1.039854e+002 
4234375000  -4.075815e+001  -1.175652e+002 
4237500000  -4.058463e+001  -1.227393e+002 
4240625000  -4.133179e+001  -1.352788e+002 
4243750000  -4.258635e+001  -1.414948e+002 
4246875000  -4.310429e+001  -1.424039e+002 
4250000000  -4.260334e+001  -1.428952e+002 
4253125000  -4.237479e+001  -1.445621e+002 
4256250000  -4.248797e+001  -1.502257e+002 
4259375000  -4.160614e+001  -1.579868e+002 
4262500000  -4.218002e+001  -1.623762e+002 
4265625000  -4.221531e+001  -1.628864e+002 
4268750000  -4.072900e+001  -1.725107e+002 
4271875000  -4.054621e+001  1.761440e+002 
4275000000  -4.031396e+001  1.706228e+002 
4278125000  -4.143992e+001  1.556909e+002 
4281250000  -4.266758e+001  1.557652e+002 
4284375000  -4.225733e+001  1.496869e+002 
4287500000  -4.387556e+001  1.460568e+002 
4290625000  -4.347550e+001  1.519135e+002 
4293750000  -4.175995e+001  1.531921e+002 
4296875000  -4.029243e+001  1.355823e+002 
4300000000  -4.117962e+001  1.280984e+002 
4303125000  -4.174902e+001  1.277199e+002 
4306250000  -4.086460e+001  1.279160e+002 
4309375000  -3.949538e+001  1.167887e+002 
4312500000  -3.955148e+001  1.062484e+002 
4315625000  -4.005756e+001  9.625361e+001 
4318750000  -4.069288e+001  9.157487e+001 
4321875000  -4.095931e+001  8.915814e+001 
4325000000  -4.005126e+001  8.463898e+001 
4328125000  -3.960686e+001  7.251550e+001 
4331250000  -3.974169e+001  6.143330e+001 
4334375000  -4.070002e+001  5.374131e+001 
4337500000  -4.167011e+001  5.060453e+001 
4340625000  -4.212663e+001  5.477824e+001 
4343750000  -4.105816e+001  5.154494e+001 
4346875000  -4.121276e+001  3.963762e+001 
4350000000  -4.103995e+001  3.050019e+001 
4353125000  -4.177311e+001  1.935141e+001 
4356250000  -4.411039e+001  2.182049e+001 
4359375000  -4.241625e+001  3.651988e+001 
4362500000  -3.904539e+001  2.694693e+001 
4365625000  -3.867672e+001  8.676383e+000 
4368750000  -4.043376e+001  -2.544578e+000 
4371875000  -4.093840e+001  -6.700872e+000 
4375000000  -4.079901e+001  -7.940073e+000 
4378125000  -4.038301e+001  -1.762375e+001 
4381250000  -4.046218e+001  -2.493304e+001 
4384375000  -4.051059e+001  -3.388581e+001 
4387500000  -4.130751e+001  -4.115668e+001 
4390625000  -4.232793e+001  -4.321779e+001 
4393750000  -4.175288e+001  -4.386281e+001 
4396875000  -4.109242e+001  -4.916763e+001 
4400000000  -4.054823e+001  -5.785820e+001 
4403125000  -4.148273e+001  -6.783630e+001 
4406250000  -4.240270e+001  -7.191904e+001 
4409375000  -4.242673e+001  -7.561606e+001 
4412500000  -4.352623e+001  -8.076269e+001 
4415625000  -4.302981e+001  -7.557772e+001 
4418750000  -4.201545e+001  -7.942841e+001 
