!Agilent Technologies,E8363B,MY43030201,A.06.04.32
!Agilent E8363B: A.06.04.32
!Date: Tuesday, November 11, 2014 21:53:00
!Correction: S21(Response(S21)) 
!S1P File: Measurement: S21:
# Hz S  dB   R 50
3000000000  -4.362957e+001  -1.637268e+002 
3003125000  -4.528632e+001  -1.679692e+002 
3006250000  -4.551019e+001  -1.705771e+002 
3009375000  -4.622230e+001  -1.672914e+002 
3012500000  -4.482926e+001  -1.739947e+002 
3015625000  -4.500492e+001  1.788584e+002 
3018750000  -4.544417e+001  1.798129e+002 
3021875000  -4.403195e+001  -1.793052e+002 
3025000000  -4.248661e+001  1.751885e+002 
3028125000  -4.171030e+001  1.630974e+002 
3031250000  -4.104205e+001  1.500312e+002 
3034375000  -4.073385e+001  1.350178e+002 
3037500000  -4.158396e+001  1.237445e+002 
3040625000  -4.281868e+001  1.188423e+002 
3043750000  -4.337781e+001  1.120667e+002 
3046875000  -4.392179e+001  1.043186e+002 
3050000000  -4.511139e+001  9.992869e+001 
3053125000  -4.467883e+001  1.046104e+002 
3056250000  -4.476438e+001  1.084063e+002 
3059375000  -4.390568e+001  1.042071e+002 
3062500000  -4.275428e+001  9.660932e+001 
3065625000  -4.230054e+001  8.717640e+001 
3068750000  -4.205130e+001  7.980975e+001 
3071875000  -4.190790e+001  7.618256e+001 
3075000000  -4.107577e+001  6.769015e+001 
3078125000  -4.126008e+001  6.222567e+001 
3081250000  -4.152523e+001  5.482614e+001 
3084375000  -4.034742e+001  4.886942e+001 
3087500000  -4.064786e+001  4.179027e+001 
3090625000  -4.015731e+001  2.892650e+001 
3093750000  -4.111330e+001  1.895773e+001 
3096875000  -4.093296e+001  1.471589e+001 
3100000000  -4.125791e+001  1.098175e+001 
3103125000  -4.142369e+001  5.238191e+000 
3106250000  -4.094947e+001  6.004524e-001 
3109375000  -4.089222e+001  -5.140742e+000 
3112500000  -4.061645e+001  -1.366700e+001 
3115625000  -4.070404e+001  -1.718967e+001 
3118750000  -4.060881e+001  -2.399311e+001 
3121875000  -4.016892e+001  -3.527250e+001 
3125000000  -4.209958e+001  -3.797604e+001 
3128125000  -4.201847e+001  -3.131631e+001 
3131250000  -3.952916e+001  -4.035132e+001 
3134375000  -3.890532e+001  -5.759552e+001 
3137500000  -3.951342e+001  -7.220358e+001 
3140625000  -4.084673e+001  -7.430889e+001 
3143750000  -4.155390e+001  -8.021236e+001 
3146875000  -4.121291e+001  -7.743953e+001 
3150000000  -4.031656e+001  -8.543966e+001 
3153125000  -4.068999e+001  -9.331683e+001 
3156250000  -4.123473e+001  -9.025266e+001 
3159375000  -3.899612e+001  -9.428371e+001 
3162500000  -3.763911e+001  -1.104587e+002 
3165625000  -3.899295e+001  -1.251525e+002 
3168750000  -3.895199e+001  -1.261929e+002 
3171875000  -3.843278e+001  -1.349958e+002 
3175000000  -3.912540e+001  -1.452879e+002 
3178125000  -3.877224e+001  -1.468756e+002 
3181250000  -3.810411e+001  -1.566061e+002 
3184375000  -3.776146e+001  -1.686778e+002 
3187500000  -3.934303e+001  1.757873e+002 
3190625000  -4.094603e+001  1.687764e+002 
3193750000  -4.117834e+001  1.723979e+002 
3196875000  -4.089404e+001  1.724482e+002 
3200000000  -3.983712e+001  1.671857e+002 
3203125000  -3.956553e+001  1.579546e+002 
3206250000  -3.992694e+001  1.498921e+002 
3209375000  -3.939042e+001  1.420024e+002 
3212500000  -3.987657e+001  1.347558e+002 
3215625000  -3.955028e+001  1.324253e+002 
3218750000  -4.029604e+001  1.186339e+002 
3221875000  -4.078353e+001  1.110412e+002 
3225000000  -4.032704e+001  1.066537e+002 
3228125000  -4.109790e+001  9.727999e+001 
3231250000  -4.138599e+001  9.587704e+001 
3234375000  -4.108378e+001  9.225712e+001 
3237500000  -4.107384e+001  8.812745e+001 
3240625000  -4.040699e+001  8.138780e+001 
3243750000  -4.024637e+001  6.892000e+001 
3246875000  -4.068230e+001  6.240593e+001 
3250000000  -4.111110e+001  5.697522e+001 
3253125000  -4.118458e+001  5.173873e+001 
3256250000  -4.051757e+001  4.223558e+001 
3259375000  -4.087313e+001  2.935141e+001 
3262500000  -4.229946e+001  2.544336e+001 
3265625000  -4.258533e+001  2.548210e+001 
3268750000  -4.256758e+001  2.491117e+001 
3271875000  -4.175473e+001  1.904117e+001 
3275000000  -4.112895e+001  8.784935e+000 
3278125000  -4.188589e+001  1.310157e+000 
3281250000  -4.177295e+001  -1.168332e+000 
3284375000  -4.102156e+001  -1.074560e+001 
3287500000  -4.160575e+001  -1.777805e+001 
3290625000  -4.144430e+001  -2.757626e+001 
3293750000  -4.155485e+001  -3.559501e+001 
3296875000  -4.264996e+001  -3.928561e+001 
3300000000  -4.210139e+001  -4.351304e+001 
3303125000  -4.098304e+001  -5.154731e+001 
3306250000  -4.090945e+001  -6.130668e+001 
3309375000  -4.057014e+001  -7.191100e+001 
3312500000  -4.108155e+001  -8.735003e+001 
3315625000  -4.270353e+001  -9.615608e+001 
3318750000  -4.399475e+001  -1.021228e+002 
3321875000  -4.508076e+001  -1.009824e+002 
3325000000  -4.470201e+001  -9.708732e+001 
3328125000  -4.449133e+001  -1.020925e+002 
3331250000  -4.216921e+001  -9.935616e+001 
3334375000  -4.012955e+001  -1.196748e+002 
3337500000  -4.079307e+001  -1.422876e+002 
3340625000  -4.250095e+001  -1.539692e+002 
3343750000  -4.445474e+001  -1.551009e+002 
3346875000  -4.412111e+001  -1.558311e+002 
3350000000  -4.352678e+001  -1.635177e+002 
3353125000  -4.362919e+001  -1.727998e+002 
3356250000  -4.324271e+001  1.774897e+002 
3359375000  -4.439423e+001  1.629155e+002 
3362500000  -4.526719e+001  1.565631e+002 
3365625000  -4.558252e+001  1.496692e+002 
3368750000  -4.649021e+001  1.447105e+002 
3371875000  -4.711142e+001  1.377698e+002 
3375000000  -4.812111e+001  1.309318e+002 
3378125000  -4.902780e+001  1.326659e+002 
3381250000  -5.120031e+001  1.394820e+002 
3384375000  -4.687782e+001  1.497278e+002 
3387500000  -4.483974e+001  1.275234e+002 
3390625000  -4.648883e+001  1.085733e+002 
3393750000  -4.800191e+001  1.059685e+002 
3396875000  -4.599966e+001  1.008050e+002 
3400000000  -4.595004e+001  8.648532e+001 
3403125000  -4.666937e+001  7.283954e+001 
3406250000  -4.750604e+001  6.702815e+001 
3409375000  -4.711353e+001  5.591854e+001 
3412500000  -4.767073e+001  5.043260e+001 
3415625000  -4.851949e+001  4.803764e+001 
3418750000  -4.854491e+001  4.371074e+001 
3421875000  -4.868808e+001  3.674732e+001 
3425000000  -4.753700e+001  3.390506e+001 
3428125000  -4.724085e+001  2.653265e+001 
3431250000  -4.697739e+001  1.250625e+001 
3434375000  -4.689741e+001  2.886566e+000 
3437500000  -4.748586e+001  -6.229891e+000 
3440625000  -4.751538e+001  -1.091438e+001 
3443750000  -4.667218e+001  -1.474413e+001 
3446875000  -4.583071e+001  -2.870249e+001 
3450000000  -4.490130e+001  -4.450077e+001 
3453125000  -4.588396e+001  -6.352510e+001 
3456250000  -4.693447e+001  -6.956526e+001 
3459375000  -4.805147e+001  -7.434624e+001 
3462500000  -4.813603e+001  -7.961009e+001 
3465625000  -4.735394e+001  -9.071703e+001 
3468750000  -4.756757e+001  -1.004141e+002 
3471875000  -4.713761e+001  -1.057024e+002 
3475000000  -4.701272e+001  -1.159691e+002 
3478125000  -4.750519e+001  -1.302053e+002 
3481250000  -4.949578e+001  -1.376423e+002 
3484375000  -4.858356e+001  -1.328765e+002 
3487500000  -4.758484e+001  -1.439803e+002 
3490625000  -4.734979e+001  -1.548617e+002 
3493750000  -4.749199e+001  -1.691189e+002 
3496875000  -4.799416e+001  -1.715801e+002 
3500000000  -4.863223e+001  -1.746932e+002 
3503125000  -4.758354e+001  1.787643e+002 
3506250000  -4.535745e+001  1.684132e+002 
3509375000  -4.556495e+001  1.494464e+002 
3512500000  -4.671572e+001  1.347473e+002 
3515625000  -4.766743e+001  1.281525e+002 
3518750000  -4.799146e+001  1.286237e+002 
3521875000  -4.848111e+001  1.177727e+002 
3525000000  -4.867975e+001  1.146183e+002 
3528125000  -4.765253e+001  1.155355e+002 
3531250000  -4.697269e+001  1.040188e+002 
3534375000  -4.705558e+001  8.504792e+001 
3537500000  -4.810463e+001  7.510465e+001 
3540625000  -4.915385e+001  7.600648e+001 
3543750000  -4.936012e+001  7.587418e+001 
3546875000  -4.825905e+001  8.078407e+001 
3550000000  -4.637606e+001  7.407409e+001 
3553125000  -4.627336e+001  4.960360e+001 
3556250000  -4.763578e+001  4.324263e+001 
3559375000  -4.614043e+001  4.258638e+001 
3562500000  -4.639205e+001  2.688132e+001 
3565625000  -4.697046e+001  2.452355e+001 
3568750000  -4.798518e+001  2.007892e+001 
3571875000  -4.764870e+001  1.764421e+001 
3575000000  -4.761771e+001  6.483093e+000 
3578125000  -4.794340e+001  4.889470e+000 
3581250000  -4.755163e+001  1.615492e+000 
3584375000  -4.584905e+001  -5.934514e+000 
3587500000  -4.537254e+001  -1.536809e+001 
3590625000  -4.642308e+001  -2.957278e+001 
3593750000  -4.747215e+001  -2.927209e+001 
3596875000  -4.689965e+001  -2.041441e+001 
3600000000  -4.469389e+001  -3.501514e+001 
3603125000  -4.497250e+001  -4.993938e+001 
3606250000  -4.620243e+001  -5.626701e+001 
3609375000  -4.587736e+001  -5.753421e+001 
3612500000  -4.607124e+001  -6.586496e+001 
3615625000  -4.623598e+001  -7.027856e+001 
3618750000  -4.593776e+001  -7.400060e+001 
3621875000  -4.541128e+001  -7.978747e+001 
3625000000  -4.580489e+001  -8.506071e+001 
3628125000  -4.473278e+001  -8.860974e+001 
3631250000  -4.521883e+001  -1.026668e+002 
3634375000  -4.536084e+001  -1.032178e+002 
3637500000  -4.434694e+001  -1.028640e+002 
3640625000  -4.369004e+001  -1.111371e+002 
3643750000  -4.322110e+001  -1.217010e+002 
3646875000  -4.378744e+001  -1.329603e+002 
3650000000  -4.347980e+001  -1.366070e+002 
3653125000  -4.318835e+001  -1.470911e+002 
3656250000  -4.396144e+001  -1.487495e+002 
3659375000  -4.391533e+001  -1.542177e+002 
3662500000  -4.349830e+001  -1.628987e+002 
3665625000  -4.339305e+001  -1.657451e+002 
3668750000  -4.180362e+001  -1.692115e+002 
3671875000  -4.148231e+001  1.736065e+002 
3675000000  -4.216394e+001  1.657568e+002 
3678125000  -4.275595e+001  1.612220e+002 
3681250000  -4.218200e+001  1.547660e+002 
3684375000  -4.250060e+001  1.458459e+002 
3687500000  -4.306185e+001  1.361553e+002 
3690625000  -4.354982e+001  1.311943e+002 
3693750000  -4.453051e+001  1.315255e+002 
3696875000  -4.395464e+001  1.260833e+002 
3700000000  -4.278205e+001  1.199792e+002 
3703125000  -4.363917e+001  1.113081e+002 
3706250000  -4.477313e+001  1.075907e+002 
3709375000  -4.404464e+001  1.086944e+002 
3712500000  -4.311608e+001  1.011702e+002 
3715625000  -4.181568e+001  9.264417e+001 
3718750000  -4.152251e+001  8.259925e+001 
3721875000  -4.169131e+001  7.475312e+001 
3725000000  -4.203032e+001  6.583324e+001 
3728125000  -4.223955e+001  6.456371e+001 
3731250000  -4.187428e+001  5.789523e+001 
3734375000  -4.195196e+001  4.873430e+001 
3737500000  -4.271330e+001  4.076448e+001 
3740625000  -4.309771e+001  3.371933e+001 
3743750000  -4.274892e+001  2.859435e+001 
3746875000  -4.325724e+001  2.210237e+001 
3750000000  -4.339520e+001  1.891926e+001 
3753125000  -4.372227e+001  1.492207e+001 
3756250000  -4.360128e+001  1.187306e+001 
3759375000  -4.363743e+001  5.838732e+000 
3762500000  -4.323267e+001  2.391136e-001 
3765625000  -4.398892e+001  -7.225574e+000 
3768750000  -4.347206e+001  -3.390490e+000 
3771875000  -4.220654e+001  -1.082963e+001 
3775000000  -4.189855e+001  -2.196987e+001 
3778125000  -4.285684e+001  -2.923155e+001 
3781250000  -4.244480e+001  -3.245624e+001 
3784375000  -4.236388e+001  -3.985891e+001 
3787500000  -4.236677e+001  -4.406800e+001 
3790625000  -4.269225e+001  -5.365784e+001 
3793750000  -4.255593e+001  -5.751654e+001 
3796875000  -4.150694e+001  -6.344009e+001 
3800000000  -4.063509e+001  -7.029299e+001 
3803125000  -4.161323e+001  -8.146690e+001 
3806250000  -4.212305e+001  -8.533624e+001 
3809375000  -4.185974e+001  -9.015614e+001 
3812500000  -4.181982e+001  -1.022941e+002 
3815625000  -4.313398e+001  -1.117796e+002 
3818750000  -4.420319e+001  -1.108945e+002 
3821875000  -4.325521e+001  -1.029802e+002 
3825000000  -4.151309e+001  -1.068533e+002 
3828125000  -4.056913e+001  -1.288584e+002 
3831250000  -4.156430e+001  -1.433617e+002 
3834375000  -4.373867e+001  -1.442948e+002 
3837500000  -4.373021e+001  -1.411313e+002 
3840625000  -4.204760e+001  -1.474632e+002 
3843750000  -4.165281e+001  -1.632115e+002 
3846875000  -4.324434e+001  -1.696515e+002 
3850000000  -4.414917e+001  -1.613381e+002 
3853125000  -4.317942e+001  -1.665686e+002 
3856250000  -4.289453e+001  -1.763607e+002 
3859375000  -4.187423e+001  -1.797017e+002 
3862500000  -4.196877e+001  1.667333e+002 
3865625000  -4.237810e+001  1.593253e+002 
3868750000  -4.230959e+001  1.590281e+002 
3871875000  -4.177152e+001  1.513726e+002 
3875000000  -4.269912e+001  1.390087e+002 
3878125000  -4.335252e+001  1.371161e+002 
3881250000  -4.325768e+001  1.373309e+002 
3884375000  -4.252819e+001  1.268570e+002 
3887500000  -4.359794e+001  1.188509e+002 
3890625000  -4.372209e+001  1.164737e+002 
3893750000  -4.415384e+001  1.124964e+002 
3896875000  -4.413243e+001  1.071568e+002 
3900000000  -4.431027e+001  1.047102e+002 
3903125000  -4.336451e+001  1.000567e+002 
3906250000  -4.344180e+001  9.129757e+001 
3909375000  -4.272461e+001  8.678552e+001 
3912500000  -4.358070e+001  7.572866e+001 
3915625000  -4.498642e+001  7.626086e+001 
3918750000  -4.460526e+001  7.798260e+001 
3921875000  -4.366334e+001  7.008923e+001 
3925000000  -4.300370e+001  6.165771e+001 
3928125000  -4.299836e+001  5.476210e+001 
3931250000  -4.370323e+001  4.676390e+001 
3934375000  -4.381423e+001  4.062860e+001 
3937500000  -4.446384e+001  4.171792e+001 
3940625000  -4.466717e+001  4.123897e+001 
3943750000  -4.321264e+001  3.491458e+001 
3946875000  -4.238818e+001  2.696298e+001 
3950000000  -4.381980e+001  1.787842e+001 
3953125000  -4.441480e+001  1.563508e+001 
3956250000  -4.314406e+001  1.865712e+001 
3959375000  -4.171368e+001  1.253859e+001 
3962500000  -4.142627e+001  -6.945308e-002 
3965625000  -4.170123e+001  -1.155202e+001 
3968750000  -4.236261e+001  -1.767111e+001 
3971875000  -4.230541e+001  -2.599914e+001 
3975000000  -4.192667e+001  -3.077307e+001 
3978125000  -4.168411e+001  -3.664067e+001 
3981250000  -4.185222e+001  -4.199955e+001 
3984375000  -4.195885e+001  -5.128728e+001 
3987500000  -4.291172e+001  -5.316145e+001 
3990625000  -4.302686e+001  -6.100256e+001 
3993750000  -4.329337e+001  -6.496127e+001 
3996875000  -4.299139e+001  -7.042372e+001 
4000000000  -4.372166e+001  -7.626254e+001 
4003125000  -4.383008e+001  -7.381435e+001 
4006250000  -4.169021e+001  -8.077399e+001 
4009375000  -4.122387e+001  -9.703059e+001 
4012500000  -4.299969e+001  -1.079849e+002 
4015625000  -4.390622e+001  -1.059393e+002 
4018750000  -4.360432e+001  -1.117899e+002 
4021875000  -4.262106e+001  -1.164210e+002 
4025000000  -4.288911e+001  -1.248702e+002 
4028125000  -4.353430e+001  -1.330459e+002 
4031250000  -4.381597e+001  -1.408617e+002 
4034375000  -4.367434e+001  -1.411890e+002 
4037500000  -4.419845e+001  -1.425938e+002 
4040625000  -4.378906e+001  -1.481779e+002 
4043750000  -4.448531e+001  -1.528124e+002 
4046875000  -4.423173e+001  -1.584570e+002 
4050000000  -4.429747e+001  -1.648614e+002 
4053125000  -4.499822e+001  -1.691624e+002 
4056250000  -4.534469e+001  -1.681591e+002 
4059375000  -4.365071e+001  -1.685727e+002 
4062500000  -4.305409e+001  -1.764246e+002 
4065625000  -4.334373e+001  1.752479e+002 
4068750000  -4.279968e+001  1.691596e+002 
4071875000  -4.228369e+001  1.602496e+002 
4075000000  -4.308923e+001  1.505562e+002 
4078125000  -4.420322e+001  1.485860e+002 
4081250000  -4.367807e+001  1.426424e+002 
4084375000  -4.325693e+001  1.334949e+002 
4087500000  -4.382597e+001  1.241217e+002 
4090625000  -4.457059e+001  1.241267e+002 
4093750000  -4.431545e+001  1.208848e+002 
4096875000  -4.430207e+001  1.131404e+002 
4100000000  -4.512292e+001  1.073005e+002 
4103125000  -4.608391e+001  1.124364e+002 
4106250000  -4.499210e+001  1.090316e+002 
4109375000  -4.426741e+001  1.047763e+002 
4112500000  -4.393060e+001  9.833682e+001 
4115625000  -4.429737e+001  9.533132e+001 
4118750000  -4.396341e+001  8.775051e+001 
4121875000  -4.395107e+001  7.787234e+001 
4125000000  -4.476220e+001  7.062691e+001 
4128125000  -4.506856e+001  7.456167e+001 
4131250000  -4.391871e+001  7.858498e+001 
4134375000  -4.125290e+001  6.578547e+001 
4137500000  -4.185328e+001  4.467496e+001 
4140625000  -4.392144e+001  4.060962e+001 
4143750000  -4.468834e+001  4.262080e+001 
4146875000  -4.346316e+001  4.587016e+001 
4150000000  -4.283626e+001  3.360153e+001 
4153125000  -4.316162e+001  2.545210e+001 
4156250000  -4.398698e+001  2.085868e+001 
4159375000  -4.361448e+001  2.527156e+001 
4162500000  -4.233587e+001  2.186521e+001 
4165625000  -4.093189e+001  1.098583e+001 
4168750000  -4.114072e+001  4.026543e+000 
4171875000  -4.121957e+001  -1.218539e+001 
4175000000  -4.161338e+001  -1.736332e+001 
4178125000  -4.227899e+001  -1.986133e+001 
4181250000  -4.214083e+001  -2.825763e+001 
4184375000  -4.238573e+001  -3.426525e+001 
4187500000  -4.242238e+001  -3.921073e+001 
4190625000  -4.278785e+001  -4.973458e+001 
4193750000  -4.378793e+001  -5.760649e+001 
4196875000  -4.525016e+001  -5.607056e+001 
4200000000  -4.591860e+001  -5.189565e+001 
4203125000  -4.439420e+001  -4.094499e+001 
4206250000  -4.121378e+001  -5.294540e+001 
4209375000  -4.120577e+001  -7.500269e+001 
4212500000  -4.387187e+001  -8.325890e+001 
4215625000  -4.393806e+001  -7.485658e+001 
4218750000  -4.232362e+001  -7.447312e+001 
4221875000  -4.122812e+001  -8.983441e+001 
4225000000  -4.225198e+001  -9.871945e+001 
4228125000  -4.220683e+001  -9.742075e+001 
4231250000  -4.082495e+001  -1.074399e+002 
4234375000  -4.113512e+001  -1.166613e+002 
4237500000  -4.086715e+001  -1.245580e+002 
4240625000  -4.116109e+001  -1.348699e+002 
4243750000  -4.224426e+001  -1.436873e+002 
4246875000  -4.285236e+001  -1.428303e+002 
4250000000  -4.260590e+001  -1.419421e+002 
4253125000  -4.246284e+001  -1.431882e+002 
4256250000  -4.204011e+001  -1.517398e+002 
4259375000  -4.221629e+001  -1.593827e+002 
4262500000  -4.217147e+001  -1.635594e+002 
4265625000  -4.188985e+001  -1.655238e+002 
4268750000  -4.074092e+001  -1.725944e+002 
4271875000  -4.043725e+001  1.777225e+002 
4275000000  -4.002027e+001  1.657463e+002 
4278125000  -4.127313e+001  1.542411e+002 
4281250000  -4.224998e+001  1.521502e+002 
4284375000  -4.247835e+001  1.510300e+002 
4287500000  -4.402078e+001  1.467428e+002 
4290625000  -4.372643e+001  1.537349e+002 
4293750000  -4.126493e+001  1.509283e+002 
4296875000  -4.015243e+001  1.389784e+002 
4300000000  -4.138247e+001  1.263236e+002 
4303125000  -4.153307e+001  1.267724e+002 
4306250000  -4.073507e+001  1.258812e+002 
4309375000  -3.950841e+001  1.169287e+002 
4312500000  -3.959148e+001  1.062296e+002 
4315625000  -4.006428e+001  9.558270e+001 
4318750000  -4.074673e+001  8.763410e+001 
4321875000  -4.069246e+001  8.868095e+001 
4325000000  -4.006276e+001  8.373306e+001 
4328125000  -3.942002e+001  7.096487e+001 
4331250000  -3.964103e+001  6.017682e+001 
4334375000  -4.062504e+001  5.073285e+001 
4337500000  -4.195965e+001  5.033720e+001 
4340625000  -4.202209e+001  5.354626e+001 
4343750000  -4.100336e+001  4.768708e+001 
4346875000  -4.072054e+001  3.751751e+001 
4350000000  -4.073011e+001  3.042472e+001 
4353125000  -4.224654e+001  1.895321e+001 
4356250000  -4.408517e+001  2.400760e+001 
4359375000  -4.263307e+001  3.713241e+001 
4362500000  -3.910136e+001  2.709577e+001 
4365625000  -3.893717e+001  7.034486e+000 
4368750000  -4.005783e+001  -1.563153e+000 
4371875000  -4.103970e+001  -2.746522e+000 
4375000000  -4.045056e+001  -9.083084e+000 
4378125000  -4.055270e+001  -1.848035e+001 
4381250000  -4.025516e+001  -2.743628e+001 
4384375000  -4.047424e+001  -3.526989e+001 
4387500000  -4.138947e+001  -4.023214e+001 
4390625000  -4.195751e+001  -4.376011e+001 
4393750000  -4.170060e+001  -4.336068e+001 
4396875000  -4.125111e+001  -4.946428e+001 
4400000000  -4.059939e+001  -5.968034e+001 
4403125000  -4.180115e+001  -6.922619e+001 
4406250000  -4.210850e+001  -7.155183e+001 
4409375000  -4.217609e+001  -7.866173e+001 
4412500000  -4.346733e+001  -8.112125e+001 
4415625000  -4.291450e+001  -7.665120e+001 
4418750000  -4.182703e+001  -7.785776e+001 
