!Agilent Technologies,E8363B,MY43030201,A.06.04.32
!Agilent E8363B: A.06.04.32
!Date: Tuesday, November 11, 2014 21:50:26
!Correction: S21(Response(S21)) 
!S1P File: Measurement: S21:
# Hz S  dB   R 50
3000000000  -4.377782e+001  -1.628778e+002 
3003125000  -4.530506e+001  -1.658940e+002 
3006250000  -4.533561e+001  -1.681349e+002 
3009375000  -4.610617e+001  -1.656286e+002 
3012500000  -4.495477e+001  -1.710766e+002 
3015625000  -4.518578e+001  -1.791199e+002 
3018750000  -4.522207e+001  1.797139e+002 
3021875000  -4.400700e+001  -1.787347e+002 
3025000000  -4.232092e+001  1.779557e+002 
3028125000  -4.167009e+001  1.629984e+002 
3031250000  -4.099389e+001  1.504709e+002 
3034375000  -4.093013e+001  1.366429e+002 
3037500000  -4.175891e+001  1.263663e+002 
3040625000  -4.290029e+001  1.193341e+002 
3043750000  -4.325666e+001  1.134905e+002 
3046875000  -4.408820e+001  1.037797e+002 
3050000000  -4.546708e+001  1.002930e+002 
3053125000  -4.473696e+001  1.052011e+002 
3056250000  -4.494597e+001  1.088634e+002 
3059375000  -4.408020e+001  1.032530e+002 
3062500000  -4.262045e+001  1.002123e+002 
3065625000  -4.211194e+001  8.911031e+001 
3068750000  -4.174297e+001  7.981036e+001 
3071875000  -4.192919e+001  7.913152e+001 
3075000000  -4.116835e+001  7.019855e+001 
3078125000  -4.134208e+001  6.317060e+001 
3081250000  -4.137457e+001  5.559093e+001 
3084375000  -4.032547e+001  5.046281e+001 
3087500000  -4.060989e+001  4.318236e+001 
3090625000  -3.992765e+001  2.959678e+001 
3093750000  -4.103566e+001  2.107434e+001 
3096875000  -4.108604e+001  1.550179e+001 
3100000000  -4.121449e+001  1.133126e+001 
3103125000  -4.121532e+001  7.047206e+000 
3106250000  -4.097314e+001  5.336519e-001 
3109375000  -4.096128e+001  -5.020968e+000 
3112500000  -4.076918e+001  -1.098457e+001 
3115625000  -4.076665e+001  -1.645192e+001 
3118750000  -4.071585e+001  -2.047882e+001 
3121875000  -4.030789e+001  -3.425475e+001 
3125000000  -4.210365e+001  -3.728549e+001 
3128125000  -4.207484e+001  -3.030830e+001 
3131250000  -3.942492e+001  -4.043475e+001 
3134375000  -3.887727e+001  -5.780364e+001 
3137500000  -3.937723e+001  -7.011319e+001 
3140625000  -4.086620e+001  -7.533849e+001 
3143750000  -4.177469e+001  -7.913428e+001 
3146875000  -4.115668e+001  -7.829407e+001 
3150000000  -4.026849e+001  -8.406496e+001 
3153125000  -4.073701e+001  -9.135630e+001 
3156250000  -4.144832e+001  -8.941508e+001 
3159375000  -3.916979e+001  -9.363801e+001 
3162500000  -3.751500e+001  -1.098151e+002 
3165625000  -3.899203e+001  -1.239990e+002 
3168750000  -3.895249e+001  -1.253789e+002 
3171875000  -3.850563e+001  -1.328749e+002 
3175000000  -3.906408e+001  -1.433851e+002 
3178125000  -3.871719e+001  -1.465513e+002 
3181250000  -3.787563e+001  -1.548083e+002 
3184375000  -3.794513e+001  -1.675273e+002 
3187500000  -3.926017e+001  1.767947e+002 
3190625000  -4.096719e+001  1.690097e+002 
3193750000  -4.108362e+001  1.731652e+002 
3196875000  -4.114204e+001  1.727733e+002 
3200000000  -3.993836e+001  1.682619e+002 
3203125000  -3.961512e+001  1.596708e+002 
3206250000  -3.972924e+001  1.503632e+002 
3209375000  -3.939464e+001  1.418337e+002 
3212500000  -3.986106e+001  1.362009e+002 
3215625000  -3.966196e+001  1.325469e+002 
3218750000  -4.006821e+001  1.201620e+002 
3221875000  -4.048136e+001  1.115959e+002 
3225000000  -4.040384e+001  1.073817e+002 
3228125000  -4.105568e+001  1.000491e+002 
3231250000  -4.133710e+001  9.662565e+001 
3234375000  -4.086735e+001  9.274164e+001 
3237500000  -4.102003e+001  8.916515e+001 
3240625000  -4.036106e+001  8.191817e+001 
3243750000  -4.029010e+001  7.068770e+001 
3246875000  -4.051543e+001  6.213147e+001 
3250000000  -4.102874e+001  5.812341e+001 
3253125000  -4.110462e+001  5.419638e+001 
3256250000  -4.036795e+001  4.395860e+001 
3259375000  -4.116152e+001  3.052896e+001 
3262500000  -4.224482e+001  2.686213e+001 
3265625000  -4.267113e+001  2.643184e+001 
3268750000  -4.240792e+001  2.551843e+001 
3271875000  -4.149057e+001  1.998073e+001 
3275000000  -4.113570e+001  1.027930e+001 
3278125000  -4.184637e+001  1.470741e+000 
3281250000  -4.166282e+001  -1.947543e+000 
3284375000  -4.087656e+001  -9.511333e+000 
3287500000  -4.156762e+001  -1.606626e+001 
3290625000  -4.138605e+001  -2.956235e+001 
3293750000  -4.146676e+001  -3.488594e+001 
3296875000  -4.265639e+001  -3.841013e+001 
3300000000  -4.193158e+001  -3.995070e+001 
3303125000  -4.095966e+001  -4.950279e+001 
3306250000  -4.097663e+001  -6.143151e+001 
3309375000  -4.058543e+001  -7.243980e+001 
3312500000  -4.112284e+001  -8.614306e+001 
3315625000  -4.212486e+001  -9.550759e+001 
3318750000  -4.386616e+001  -1.015916e+002 
3321875000  -4.525955e+001  -9.938031e+001 
3325000000  -4.517371e+001  -9.385502e+001 
3328125000  -4.407609e+001  -9.796686e+001 
3331250000  -4.233043e+001  -9.970808e+001 
3334375000  -3.997631e+001  -1.175205e+002 
3337500000  -4.070910e+001  -1.406864e+002 
3340625000  -4.279428e+001  -1.523787e+002 
3343750000  -4.443905e+001  -1.529162e+002 
3346875000  -4.398549e+001  -1.581840e+002 
3350000000  -4.355259e+001  -1.626430e+002 
3353125000  -4.367392e+001  -1.720906e+002 
3356250000  -4.318460e+001  1.785319e+002 
3359375000  -4.418895e+001  1.633814e+002 
3362500000  -4.502969e+001  1.570920e+002 
3365625000  -4.559581e+001  1.508005e+002 
3368750000  -4.618837e+001  1.467772e+002 
3371875000  -4.700315e+001  1.389600e+002 
3375000000  -4.787917e+001  1.366985e+002 
3378125000  -4.923040e+001  1.300864e+002 
3381250000  -5.100603e+001  1.393308e+002 
3384375000  -4.741357e+001  1.515625e+002 
3387500000  -4.445395e+001  1.261307e+002 
3390625000  -4.656110e+001  1.054839e+002 
3393750000  -4.791700e+001  1.053630e+002 
3396875000  -4.620781e+001  9.994524e+001 
3400000000  -4.634782e+001  8.628457e+001 
3403125000  -4.756430e+001  7.928735e+001 
3406250000  -4.771717e+001  7.112509e+001 
3409375000  -4.709056e+001  6.090445e+001 
3412500000  -4.777073e+001  5.255201e+001 
3415625000  -4.879037e+001  4.966079e+001 
3418750000  -4.878868e+001  4.435638e+001 
3421875000  -4.857801e+001  4.072989e+001 
3425000000  -4.718464e+001  3.567772e+001 
3428125000  -4.717785e+001  2.850228e+001 
3431250000  -4.684691e+001  1.562480e+001 
3434375000  -4.683382e+001  4.274272e+000 
3437500000  -4.770303e+001  -5.966141e+000 
3440625000  -4.754518e+001  -1.030166e+001 
3443750000  -4.640021e+001  -1.114937e+001 
3446875000  -4.577631e+001  -2.741197e+001 
3450000000  -4.540989e+001  -4.265976e+001 
3453125000  -4.582850e+001  -5.792534e+001 
3456250000  -4.734765e+001  -7.017408e+001 
3459375000  -4.840533e+001  -7.007776e+001 
3462500000  -4.781917e+001  -7.980458e+001 
3465625000  -4.731699e+001  -9.179341e+001 
3468750000  -4.746572e+001  -9.441563e+001 
3471875000  -4.715636e+001  -1.036677e+002 
3475000000  -4.675974e+001  -1.159107e+002 
3478125000  -4.813542e+001  -1.321502e+002 
3481250000  -4.973156e+001  -1.359336e+002 
3484375000  -4.865372e+001  -1.334588e+002 
3487500000  -4.762892e+001  -1.415282e+002 
3490625000  -4.724925e+001  -1.551833e+002 
3493750000  -4.798638e+001  -1.683986e+002 
3496875000  -4.822997e+001  -1.711125e+002 
3500000000  -4.866700e+001  -1.716346e+002 
3503125000  -4.735731e+001  -1.757633e+002 
3506250000  -4.576904e+001  1.728174e+002 
3509375000  -4.569845e+001  1.515956e+002 
3512500000  -4.603679e+001  1.378088e+002 
3515625000  -4.721356e+001  1.325426e+002 
3518750000  -4.780930e+001  1.293921e+002 
3521875000  -4.822923e+001  1.183456e+002 
3525000000  -4.886058e+001  1.136302e+002 
3528125000  -4.762977e+001  1.178840e+002 
3531250000  -4.679265e+001  1.038857e+002 
3534375000  -4.685125e+001  8.700831e+001 
3537500000  -4.768212e+001  7.769858e+001 
3540625000  -4.898386e+001  7.526828e+001 
3543750000  -4.926111e+001  7.942587e+001 
3546875000  -4.890803e+001  8.156281e+001 
3550000000  -4.647488e+001  7.438947e+001 
3553125000  -4.623282e+001  5.342857e+001 
3556250000  -4.708547e+001  4.620498e+001 
3559375000  -4.684178e+001  4.235601e+001 
3562500000  -4.643164e+001  3.261349e+001 
3565625000  -4.735768e+001  2.341799e+001 
3568750000  -4.818882e+001  2.114975e+001 
3571875000  -4.696761e+001  1.584529e+001 
3575000000  -4.711820e+001  8.046810e+000 
3578125000  -4.750901e+001  6.651720e+000 
3581250000  -4.774438e+001  2.181438e+000 
3584375000  -4.580923e+001  -3.692521e+000 
3587500000  -4.547555e+001  -1.549795e+001 
3590625000  -4.640785e+001  -2.731779e+001 
3593750000  -4.804985e+001  -2.938665e+001 
3596875000  -4.645225e+001  -1.992020e+001 
3600000000  -4.461560e+001  -3.382161e+001 
3603125000  -4.533157e+001  -4.730798e+001 
3606250000  -4.617574e+001  -5.658148e+001 
3609375000  -4.582265e+001  -5.948182e+001 
3612500000  -4.616975e+001  -6.430785e+001 
3615625000  -4.599134e+001  -7.099203e+001 
3618750000  -4.623104e+001  -7.284151e+001 
3621875000  -4.565314e+001  -7.685381e+001 
3625000000  -4.549994e+001  -8.453042e+001 
3628125000  -4.503199e+001  -8.965671e+001 
3631250000  -4.513771e+001  -9.763789e+001 
3634375000  -4.566466e+001  -9.881174e+001 
3637500000  -4.446201e+001  -1.022555e+002 
3640625000  -4.350423e+001  -1.082134e+002 
3643750000  -4.321051e+001  -1.211633e+002 
3646875000  -4.372183e+001  -1.300934e+002 
3650000000  -4.369066e+001  -1.361163e+002 
3653125000  -4.319471e+001  -1.427048e+002 
3656250000  -4.437291e+001  -1.503984e+002 
3659375000  -4.359636e+001  -1.552552e+002 
3662500000  -4.323450e+001  -1.641229e+002 
3665625000  -4.334052e+001  -1.658912e+002 
3668750000  -4.218709e+001  -1.699158e+002 
3671875000  -4.149463e+001  1.756282e+002 
3675000000  -4.213371e+001  1.660012e+002 
3678125000  -4.260412e+001  1.613336e+002 
3681250000  -4.239438e+001  1.546556e+002 
3684375000  -4.273957e+001  1.490336e+002 
3687500000  -4.310368e+001  1.394767e+002 
3690625000  -4.350910e+001  1.330219e+002 
3693750000  -4.431444e+001  1.298824e+002 
3696875000  -4.405851e+001  1.286525e+002 
3700000000  -4.323627e+001  1.198048e+002 
3703125000  -4.340684e+001  1.130623e+002 
3706250000  -4.484170e+001  1.079189e+002 
3709375000  -4.368003e+001  1.086291e+002 
3712500000  -4.272767e+001  1.037027e+002 
3715625000  -4.177012e+001  9.423695e+001 
3718750000  -4.167411e+001  8.359927e+001 
3721875000  -4.178492e+001  7.508894e+001 
3725000000  -4.239503e+001  6.805747e+001 
3728125000  -4.229870e+001  6.531830e+001 
3731250000  -4.208383e+001  5.631339e+001 
3734375000  -4.187712e+001  5.124183e+001 
3737500000  -4.264270e+001  4.246492e+001 
3740625000  -4.294886e+001  3.573655e+001 
3743750000  -4.294108e+001  3.080037e+001 
3746875000  -4.326676e+001  2.129618e+001 
3750000000  -4.368318e+001  1.960141e+001 
3753125000  -4.391019e+001  1.573483e+001 
3756250000  -4.352702e+001  1.197581e+001 
3759375000  -4.398440e+001  7.684519e+000 
3762500000  -4.351875e+001  3.161548e+000 
3765625000  -4.436389e+001  -3.412699e+000 
3768750000  -4.339669e+001  -2.732805e+000 
3771875000  -4.167647e+001  -8.697214e+000 
3775000000  -4.205603e+001  -1.995333e+001 
3778125000  -4.255252e+001  -2.626975e+001 
3781250000  -4.251534e+001  -3.274989e+001 
3784375000  -4.237672e+001  -3.713787e+001 
3787500000  -4.230821e+001  -4.375100e+001 
3790625000  -4.288106e+001  -5.247117e+001 
3793750000  -4.257392e+001  -5.871724e+001 
3796875000  -4.170329e+001  -6.076870e+001 
3800000000  -4.069368e+001  -6.900202e+001 
3803125000  -4.160706e+001  -8.155510e+001 
3806250000  -4.251323e+001  -8.575475e+001 
3809375000  -4.211486e+001  -9.128695e+001 
3812500000  -4.171694e+001  -1.004078e+002 
3815625000  -4.350736e+001  -1.118737e+002 
3818750000  -4.423525e+001  -1.104849e+002 
3821875000  -4.398886e+001  -9.942941e+001 
3825000000  -4.161840e+001  -1.070648e+002 
3828125000  -4.033109e+001  -1.276132e+002 
3831250000  -4.144991e+001  -1.415348e+002 
3834375000  -4.363243e+001  -1.417401e+002 
3837500000  -4.375834e+001  -1.420016e+002 
3840625000  -4.258503e+001  -1.461405e+002 
3843750000  -4.167027e+001  -1.617085e+002 
3846875000  -4.320002e+001  -1.676796e+002 
3850000000  -4.437631e+001  -1.606276e+002 
3853125000  -4.341131e+001  -1.643015e+002 
3856250000  -4.284808e+001  -1.723295e+002 
3859375000  -4.212725e+001  1.798226e+002 
3862500000  -4.183548e+001  1.683673e+002 
3865625000  -4.272741e+001  1.619095e+002 
3868750000  -4.208864e+001  1.599108e+002 
3871875000  -4.162329e+001  1.504119e+002 
3875000000  -4.262722e+001  1.408552e+002 
3878125000  -4.319335e+001  1.394594e+002 
3881250000  -4.330204e+001  1.366151e+002 
3884375000  -4.261975e+001  1.270840e+002 
3887500000  -4.308246e+001  1.192531e+002 
3890625000  -4.372595e+001  1.164569e+002 
3893750000  -4.426330e+001  1.120103e+002 
3896875000  -4.394460e+001  1.110763e+002 
3900000000  -4.420141e+001  1.068373e+002 
3903125000  -4.436829e+001  1.000204e+002 
3906250000  -4.350620e+001  9.554474e+001 
3909375000  -4.263719e+001  8.605730e+001 
3912500000  -4.353341e+001  8.017248e+001 
3915625000  -4.487772e+001  7.960425e+001 
3918750000  -4.474628e+001  7.484812e+001 
3921875000  -4.359129e+001  7.124715e+001 
3925000000  -4.292340e+001  6.697365e+001 
3928125000  -4.286057e+001  5.399124e+001 
3931250000  -4.398927e+001  4.665306e+001 
3934375000  -4.409703e+001  4.601894e+001 
3937500000  -4.459940e+001  4.274829e+001 
3940625000  -4.464784e+001  4.346224e+001 
3943750000  -4.334694e+001  3.559193e+001 
3946875000  -4.263979e+001  2.785071e+001 
3950000000  -4.369068e+001  1.809977e+001 
3953125000  -4.442099e+001  1.930010e+001 
3956250000  -4.293530e+001  1.933037e+001 
3959375000  -4.178653e+001  1.255674e+001 
3962500000  -4.136793e+001  1.428313e+000 
3965625000  -4.182984e+001  -1.105218e+001 
3968750000  -4.252430e+001  -1.878545e+001 
3971875000  -4.254708e+001  -2.203303e+001 
3975000000  -4.203375e+001  -2.512766e+001 
3978125000  -4.198119e+001  -3.390938e+001 
3981250000  -4.174015e+001  -4.275655e+001 
3984375000  -4.237603e+001  -4.848550e+001 
3987500000  -4.298735e+001  -5.508743e+001 
3990625000  -4.310379e+001  -5.666653e+001 
3993750000  -4.279443e+001  -6.584653e+001 
3996875000  -4.322351e+001  -7.046814e+001 
4000000000  -4.363889e+001  -7.315347e+001 
4003125000  -4.389658e+001  -7.422922e+001 
4006250000  -4.174017e+001  -8.112291e+001 
4009375000  -4.144286e+001  -9.806061e+001 
4012500000  -4.281796e+001  -1.046352e+002 
4015625000  -4.396804e+001  -1.057008e+002 
4018750000  -4.386017e+001  -1.094063e+002 
4021875000  -4.279930e+001  -1.154084e+002 
4025000000  -4.335556e+001  -1.235458e+002 
4028125000  -4.358918e+001  -1.291782e+002 
4031250000  -4.382136e+001  -1.367057e+002 
4034375000  -4.414521e+001  -1.403402e+002 
4037500000  -4.411577e+001  -1.417673e+002 
4040625000  -4.432590e+001  -1.473014e+002 
4043750000  -4.453313e+001  -1.525317e+002 
4046875000  -4.435271e+001  -1.564251e+002 
4050000000  -4.419249e+001  -1.645638e+002 
4053125000  -4.502757e+001  -1.713288e+002 
4056250000  -4.558552e+001  -1.609879e+002 
4059375000  -4.361193e+001  -1.666177e+002 
4062500000  -4.353022e+001  -1.753755e+002 
4065625000  -4.293283e+001  1.772778e+002 
4068750000  -4.299886e+001  1.722755e+002 
4071875000  -4.239921e+001  1.597423e+002 
4075000000  -4.352372e+001  1.519619e+002 
4078125000  -4.432408e+001  1.518414e+002 
4081250000  -4.350632e+001  1.427631e+002 
4084375000  -4.326979e+001  1.349167e+002 
4087500000  -4.349692e+001  1.278052e+002 
4090625000  -4.482203e+001  1.262668e+002 
4093750000  -4.463018e+001  1.225047e+002 
4096875000  -4.387946e+001  1.155238e+002 
4100000000  -4.534826e+001  1.070536e+002 
4103125000  -4.546669e+001  1.098947e+002 
4106250000  -4.515714e+001  1.127333e+002 
4109375000  -4.435640e+001  1.067978e+002 
4112500000  -4.394138e+001  9.883820e+001 
4115625000  -4.429761e+001  9.111469e+001 
4118750000  -4.441379e+001  9.067300e+001 
4121875000  -4.371523e+001  8.021558e+001 
4125000000  -4.512849e+001  7.352523e+001 
4128125000  -4.529694e+001  7.799834e+001 
4131250000  -4.386034e+001  7.873163e+001 
4134375000  -4.141416e+001  6.958410e+001 
4137500000  -4.196332e+001  4.964767e+001 
4140625000  -4.387645e+001  4.119356e+001 
4143750000  -4.510031e+001  4.638776e+001 
4146875000  -4.377728e+001  4.723632e+001 
4150000000  -4.292777e+001  3.741950e+001 
4153125000  -4.325051e+001  2.808886e+001 
4156250000  -4.389622e+001  2.409173e+001 
4159375000  -4.351515e+001  2.930241e+001 
4162500000  -4.281029e+001  2.532982e+001 
4165625000  -4.148122e+001  1.263630e+001 
4168750000  -4.110686e+001  4.840765e+000 
4171875000  -4.091031e+001  -8.177942e+000 
4175000000  -4.178687e+001  -1.697103e+001 
4178125000  -4.277102e+001  -1.991447e+001 
4181250000  -4.195831e+001  -2.537992e+001 
4184375000  -4.269043e+001  -3.375084e+001 
4187500000  -4.248562e+001  -3.635634e+001 
4190625000  -4.278460e+001  -4.890281e+001 
4193750000  -4.410712e+001  -5.478536e+001 
4196875000  -4.473881e+001  -5.567346e+001 
4200000000  -4.635719e+001  -5.437522e+001 
4203125000  -4.441165e+001  -3.818179e+001 
4206250000  -4.079393e+001  -4.923399e+001 
4209375000  -4.151968e+001  -7.499081e+001 
4212500000  -4.397781e+001  -8.356257e+001 
4215625000  -4.386811e+001  -7.379981e+001 
4218750000  -4.239538e+001  -7.509822e+001 
4221875000  -4.102227e+001  -8.689404e+001 
4225000000  -4.203820e+001  -9.914931e+001 
4228125000  -4.213702e+001  -9.550991e+001 
4231250000  -4.056504e+001  -1.037613e+002 
4234375000  -4.054234e+001  -1.149737e+002 
4237500000  -4.070861e+001  -1.235860e+002 
4240625000  -4.079947e+001  -1.283216e+002 
4243750000  -4.245607e+001  -1.421270e+002 
4246875000  -4.296282e+001  -1.412601e+002 
4250000000  -4.258649e+001  -1.427561e+002 
4253125000  -4.261110e+001  -1.461008e+002 
4256250000  -4.253359e+001  -1.511217e+002 
4259375000  -4.202505e+001  -1.563024e+002 
4262500000  -4.222739e+001  -1.614828e+002 
4265625000  -4.217294e+001  -1.618118e+002 
4268750000  -4.066571e+001  -1.721333e+002 
4271875000  -4.027409e+001  1.790257e+002 
4275000000  -4.017727e+001  1.691450e+002 
4278125000  -4.114739e+001  1.574768e+002 
4281250000  -4.235723e+001  1.533951e+002 
4284375000  -4.198998e+001  1.509686e+002 
4287500000  -4.346140e+001  1.487861e+002 
4290625000  -4.371931e+001  1.550789e+002 
4293750000  -4.166914e+001  1.517596e+002 
4296875000  -4.035839e+001  1.382411e+002 
4300000000  -4.157009e+001  1.287070e+002 
4303125000  -4.202110e+001  1.291626e+002 
4306250000  -4.087346e+001  1.278085e+002 
4309375000  -3.967402e+001  1.193311e+002 
4312500000  -3.963187e+001  1.057559e+002 
4315625000  -4.024512e+001  9.677061e+001 
4318750000  -4.057769e+001  9.274414e+001 
4321875000  -4.096742e+001  9.112054e+001 
4325000000  -4.011208e+001  8.373621e+001 
4328125000  -3.916944e+001  7.498557e+001 
4331250000  -3.981457e+001  6.069542e+001 
4334375000  -4.071942e+001  5.548767e+001 
4337500000  -4.211799e+001  4.963911e+001 
4340625000  -4.192453e+001  5.357839e+001 
4343750000  -4.100028e+001  5.175368e+001 
4346875000  -4.089183e+001  4.022419e+001 
4350000000  -4.103391e+001  3.083745e+001 
4353125000  -4.198558e+001  2.076509e+001 
4356250000  -4.375016e+001  2.466523e+001 
4359375000  -4.302656e+001  3.786814e+001 
4362500000  -3.916449e+001  2.762018e+001 
4365625000  -3.914169e+001  1.006428e+001 
4368750000  -4.034232e+001  -2.056715e+000 
4371875000  -4.105546e+001  -3.298452e+000 
4375000000  -4.074822e+001  -8.607936e+000 
4378125000  -4.016476e+001  -1.691866e+001 
4381250000  -4.082355e+001  -2.607383e+001 
4384375000  -4.071952e+001  -2.998537e+001 
4387500000  -4.120521e+001  -3.986957e+001 
4390625000  -4.175253e+001  -4.333839e+001 
4393750000  -4.168899e+001  -4.298518e+001 
4396875000  -4.131968e+001  -4.866371e+001 
4400000000  -4.071764e+001  -5.731256e+001 
4403125000  -4.150507e+001  -6.837702e+001 
4406250000  -4.217652e+001  -7.139676e+001 
4409375000  -4.261753e+001  -7.664919e+001 
4412500000  -4.353902e+001  -7.690131e+001 
4415625000  -4.320373e+001  -7.404961e+001 
4418750000  -4.144353e+001  -7.733544e+001 
