!Agilent Technologies,E8363B,MY43030201,A.06.04.32
!Agilent E8363B: A.06.04.32
!Date: Tuesday, November 11, 2014 21:48:57
!Correction: S21(Response(S21)) 
!S1P File: Measurement: S21:
# Hz S  dB   R 50
3000000000  -4.365941e+001  -1.605038e+002 
3003125000  -4.541557e+001  -1.666710e+002 
3006250000  -4.537682e+001  -1.686363e+002 
3009375000  -4.635064e+001  -1.628268e+002 
3012500000  -4.483602e+001  -1.712471e+002 
3015625000  -4.505282e+001  1.799876e+002 
3018750000  -4.561185e+001  -1.776218e+002 
3021875000  -4.383101e+001  -1.791632e+002 
3025000000  -4.279123e+001  1.772116e+002 
3028125000  -4.167451e+001  1.648485e+002 
3031250000  -4.084127e+001  1.517413e+002 
3034375000  -4.084299e+001  1.383702e+002 
3037500000  -4.161794e+001  1.266365e+002 
3040625000  -4.294229e+001  1.194544e+002 
3043750000  -4.353669e+001  1.128996e+002 
3046875000  -4.427571e+001  1.075760e+002 
3050000000  -4.536837e+001  1.034051e+002 
3053125000  -4.508432e+001  1.076221e+002 
3056250000  -4.460304e+001  1.098887e+002 
3059375000  -4.372252e+001  1.040323e+002 
3062500000  -4.243381e+001  1.005191e+002 
3065625000  -4.233462e+001  8.896466e+001 
3068750000  -4.178458e+001  8.005659e+001 
3071875000  -4.178334e+001  7.798050e+001 
3075000000  -4.124744e+001  7.300920e+001 
3078125000  -4.155117e+001  6.288016e+001 
3081250000  -4.157303e+001  5.641566e+001 
3084375000  -4.027113e+001  5.108825e+001 
3087500000  -4.059342e+001  4.355111e+001 
3090625000  -4.001959e+001  3.155225e+001 
3093750000  -4.106923e+001  2.149842e+001 
3096875000  -4.132951e+001  1.666023e+001 
3100000000  -4.122683e+001  1.233313e+001 
3103125000  -4.163568e+001  8.172695e+000 
3106250000  -4.104232e+001  8.307269e-001 
3109375000  -4.091021e+001  -3.671259e+000 
3112500000  -4.112381e+001  -1.031174e+001 
3115625000  -4.095725e+001  -1.489961e+001 
3118750000  -4.078965e+001  -2.008317e+001 
3121875000  -4.028136e+001  -3.356229e+001 
3125000000  -4.205317e+001  -3.635283e+001 
3128125000  -4.195549e+001  -3.220039e+001 
3131250000  -3.950801e+001  -3.879295e+001 
3134375000  -3.871238e+001  -5.622071e+001 
3137500000  -3.951765e+001  -7.142268e+001 
3140625000  -4.082075e+001  -7.408213e+001 
3143750000  -4.158516e+001  -7.796664e+001 
3146875000  -4.132711e+001  -7.681842e+001 
3150000000  -4.006020e+001  -8.290940e+001 
3153125000  -4.074985e+001  -9.182907e+001 
3156250000  -4.144638e+001  -8.782130e+001 
3159375000  -3.915228e+001  -9.289571e+001 
3162500000  -3.775365e+001  -1.090521e+002 
3165625000  -3.882876e+001  -1.220925e+002 
3168750000  -3.894091e+001  -1.242006e+002 
3171875000  -3.848355e+001  -1.332558e+002 
3175000000  -3.918803e+001  -1.425304e+002 
3178125000  -3.872206e+001  -1.454605e+002 
3181250000  -3.814280e+001  -1.545185e+002 
3184375000  -3.788798e+001  -1.658051e+002 
3187500000  -3.895865e+001  1.772659e+002 
3190625000  -4.100711e+001  1.708846e+002 
3193750000  -4.119533e+001  1.755291e+002 
3196875000  -4.106824e+001  1.726011e+002 
3200000000  -4.003461e+001  1.690808e+002 
3203125000  -3.964601e+001  1.600494e+002 
3206250000  -3.972760e+001  1.521977e+002 
3209375000  -3.945184e+001  1.431128e+002 
3212500000  -3.983948e+001  1.361994e+002 
3215625000  -3.960849e+001  1.334299e+002 
3218750000  -4.042008e+001  1.203475e+002 
3221875000  -4.046538e+001  1.128813e+002 
3225000000  -4.032945e+001  1.089816e+002 
3228125000  -4.099567e+001  1.005655e+002 
3231250000  -4.144727e+001  9.771675e+001 
3234375000  -4.095225e+001  9.473869e+001 
3237500000  -4.087392e+001  9.005742e+001 
3240625000  -4.033184e+001  8.327705e+001 
3243750000  -4.025527e+001  7.082818e+001 
3246875000  -4.076637e+001  6.311554e+001 
3250000000  -4.108908e+001  5.898915e+001 
3253125000  -4.104348e+001  5.385209e+001 
3256250000  -4.045411e+001  4.400247e+001 
3259375000  -4.081697e+001  3.235913e+001 
3262500000  -4.230208e+001  2.731926e+001 
3265625000  -4.252597e+001  2.754334e+001 
3268750000  -4.235957e+001  2.684025e+001 
3271875000  -4.148339e+001  2.015056e+001 
3275000000  -4.114106e+001  1.062990e+001 
3278125000  -4.185568e+001  2.946777e+000 
3281250000  -4.174759e+001  -1.097882e-002 
3284375000  -4.076915e+001  -8.479599e+000 
3287500000  -4.141468e+001  -1.599198e+001 
3290625000  -4.149326e+001  -2.652006e+001 
3293750000  -4.165138e+001  -3.406965e+001 
3296875000  -4.262954e+001  -3.757951e+001 
3300000000  -4.189882e+001  -4.025560e+001 
3303125000  -4.086994e+001  -5.030258e+001 
3306250000  -4.082081e+001  -6.011219e+001 
3309375000  -4.079031e+001  -7.117805e+001 
3312500000  -4.140440e+001  -8.539751e+001 
3315625000  -4.243591e+001  -9.335308e+001 
3318750000  -4.405186e+001  -9.941841e+001 
3321875000  -4.517413e+001  -9.837910e+001 
3325000000  -4.498523e+001  -9.399131e+001 
3328125000  -4.384460e+001  -9.652651e+001 
3331250000  -4.208874e+001  -9.799678e+001 
3334375000  -4.028266e+001  -1.163420e+002 
3337500000  -4.097058e+001  -1.403704e+002 
3340625000  -4.260283e+001  -1.509251e+002 
3343750000  -4.456926e+001  -1.536729e+002 
3346875000  -4.392046e+001  -1.552759e+002 
3350000000  -4.363971e+001  -1.611270e+002 
3353125000  -4.343462e+001  -1.709527e+002 
3356250000  -4.349822e+001  1.784026e+002 
3359375000  -4.445797e+001  1.645239e+002 
3362500000  -4.499953e+001  1.566110e+002 
3365625000  -4.552626e+001  1.509929e+002 
3368750000  -4.639028e+001  1.454633e+002 
3371875000  -4.677020e+001  1.415881e+002 
3375000000  -4.859624e+001  1.307345e+002 
3378125000  -4.975610e+001  1.286447e+002 
3381250000  -5.108232e+001  1.405595e+002 
3384375000  -4.691198e+001  1.517381e+002 
3387500000  -4.455935e+001  1.297107e+002 
3390625000  -4.724603e+001  1.065571e+002 
3393750000  -4.757111e+001  1.043111e+002 
3396875000  -4.648996e+001  9.797965e+001 
3400000000  -4.631676e+001  8.777616e+001 
3403125000  -4.711118e+001  8.002794e+001 
3406250000  -4.723351e+001  6.983475e+001 
3409375000  -4.701311e+001  6.181622e+001 
3412500000  -4.791997e+001  5.507209e+001 
3415625000  -4.896318e+001  4.796209e+001 
3418750000  -4.863150e+001  4.141875e+001 
3421875000  -4.862817e+001  4.046673e+001 
3425000000  -4.785987e+001  3.683514e+001 
3428125000  -4.722491e+001  2.959296e+001 
3431250000  -4.694374e+001  1.529955e+001 
3434375000  -4.687620e+001  6.021608e+000 
3437500000  -4.779552e+001  -5.289893e+000 
3440625000  -4.809235e+001  -9.234443e+000 
3443750000  -4.676909e+001  -1.412907e+001 
3446875000  -4.554149e+001  -2.716544e+001 
3450000000  -4.545715e+001  -4.253564e+001 
3453125000  -4.579846e+001  -5.948591e+001 
3456250000  -4.741165e+001  -6.972724e+001 
3459375000  -4.841842e+001  -7.436269e+001 
3462500000  -4.774762e+001  -7.632325e+001 
3465625000  -4.666592e+001  -8.708942e+001 
3468750000  -4.740960e+001  -9.707189e+001 
3471875000  -4.711638e+001  -1.018534e+002 
3475000000  -4.726056e+001  -1.146290e+002 
3478125000  -4.745186e+001  -1.299616e+002 
3481250000  -4.893576e+001  -1.354093e+002 
3484375000  -4.884180e+001  -1.331709e+002 
3487500000  -4.739768e+001  -1.417269e+002 
3490625000  -4.720570e+001  -1.530150e+002 
3493750000  -4.811837e+001  -1.681896e+002 
3496875000  -4.860739e+001  -1.683497e+002 
3500000000  -4.862854e+001  -1.722458e+002 
3503125000  -4.723470e+001  -1.781522e+002 
3506250000  -4.605917e+001  1.719031e+002 
3509375000  -4.581699e+001  1.508096e+002 
3512500000  -4.600026e+001  1.351856e+002 
3515625000  -4.727744e+001  1.307802e+002 
3518750000  -4.808921e+001  1.321559e+002 
3521875000  -4.816342e+001  1.187380e+002 
3525000000  -4.887965e+001  1.152096e+002 
3528125000  -4.747282e+001  1.160251e+002 
3531250000  -4.705079e+001  1.058353e+002 
3534375000  -4.675740e+001  8.809651e+001 
3537500000  -4.799053e+001  7.706699e+001 
3540625000  -4.887907e+001  7.925416e+001 
3543750000  -4.946385e+001  8.190741e+001 
3546875000  -4.839743e+001  8.383245e+001 
3550000000  -4.616974e+001  7.318914e+001 
3553125000  -4.632301e+001  5.569821e+001 
3556250000  -4.685164e+001  4.643432e+001 
3559375000  -4.653725e+001  4.005709e+001 
3562500000  -4.662016e+001  3.156982e+001 
3565625000  -4.734962e+001  2.415758e+001 
3568750000  -4.748397e+001  2.368384e+001 
3571875000  -4.732413e+001  1.780861e+001 
3575000000  -4.733135e+001  1.011098e+001 
3578125000  -4.789319e+001  8.794796e+000 
3581250000  -4.785436e+001  3.459624e+000 
3584375000  -4.577390e+001  -3.436363e+000 
3587500000  -4.538646e+001  -1.635654e+001 
3590625000  -4.642422e+001  -2.663253e+001 
3593750000  -4.777495e+001  -2.239291e+001 
3596875000  -4.651581e+001  -2.200156e+001 
3600000000  -4.479241e+001  -3.310019e+001 
3603125000  -4.534731e+001  -4.930368e+001 
3606250000  -4.598015e+001  -5.292005e+001 
3609375000  -4.577499e+001  -5.680575e+001 
3612500000  -4.584349e+001  -6.461396e+001 
3615625000  -4.621834e+001  -6.967958e+001 
3618750000  -4.623957e+001  -7.316793e+001 
3621875000  -4.557557e+001  -7.688338e+001 
3625000000  -4.579430e+001  -8.376537e+001 
3628125000  -4.474730e+001  -8.845181e+001 
3631250000  -4.486287e+001  -9.819201e+001 
3634375000  -4.553089e+001  -9.912148e+001 
3637500000  -4.426013e+001  -1.016863e+002 
3640625000  -4.373151e+001  -1.091166e+002 
3643750000  -4.328346e+001  -1.186402e+002 
3646875000  -4.382884e+001  -1.294525e+002 
3650000000  -4.376023e+001  -1.345831e+002 
3653125000  -4.317385e+001  -1.426009e+002 
3656250000  -4.410491e+001  -1.507267e+002 
3659375000  -4.386075e+001  -1.508559e+002 
3662500000  -4.351539e+001  -1.606372e+002 
3665625000  -4.307812e+001  -1.646049e+002 
3668750000  -4.215186e+001  -1.689146e+002 
3671875000  -4.145765e+001  1.765013e+002 
3675000000  -4.205489e+001  1.675991e+002 
3678125000  -4.274181e+001  1.630597e+002 
3681250000  -4.221438e+001  1.557862e+002 
3684375000  -4.248988e+001  1.474429e+002 
3687500000  -4.273776e+001  1.389818e+002 
3690625000  -4.369323e+001  1.330116e+002 
3693750000  -4.463440e+001  1.308518e+002 
3696875000  -4.355892e+001  1.304150e+002 
3700000000  -4.341499e+001  1.200667e+002 
3703125000  -4.374193e+001  1.137684e+002 
3706250000  -4.443883e+001  1.107406e+002 
3709375000  -4.385670e+001  1.124492e+002 
3712500000  -4.258403e+001  1.048747e+002 
3715625000  -4.151727e+001  9.444431e+001 
3718750000  -4.189777e+001  8.790210e+001 
3721875000  -4.176093e+001  7.531216e+001 
3725000000  -4.224748e+001  6.907960e+001 
3728125000  -4.243002e+001  6.751096e+001 
3731250000  -4.191145e+001  5.944104e+001 
3734375000  -4.203001e+001  5.036675e+001 
3737500000  -4.276168e+001  4.513237e+001 
3740625000  -4.293213e+001  3.729512e+001 
3743750000  -4.290643e+001  2.967414e+001 
3746875000  -4.331805e+001  2.477067e+001 
3750000000  -4.365930e+001  2.026997e+001 
3753125000  -4.383751e+001  1.716357e+001 
3756250000  -4.361955e+001  1.310628e+001 
3759375000  -4.371159e+001  7.385214e+000 
3762500000  -4.337865e+001  3.809655e+000 
3765625000  -4.411710e+001  -1.823721e+000 
3768750000  -4.335144e+001  -1.830287e+000 
3771875000  -4.181120e+001  -8.099706e+000 
3775000000  -4.206667e+001  -1.959389e+001 
3778125000  -4.275399e+001  -2.512191e+001 
3781250000  -4.268688e+001  -2.992381e+001 
3784375000  -4.238816e+001  -3.903952e+001 
3787500000  -4.236954e+001  -4.016246e+001 
3790625000  -4.270901e+001  -5.167216e+001 
3793750000  -4.263046e+001  -5.697083e+001 
3796875000  -4.154464e+001  -6.092739e+001 
3800000000  -4.060089e+001  -6.908269e+001 
3803125000  -4.136184e+001  -8.005290e+001 
3806250000  -4.216027e+001  -8.536248e+001 
3809375000  -4.178819e+001  -9.116033e+001 
3812500000  -4.187146e+001  -1.003526e+002 
3815625000  -4.290389e+001  -1.092975e+002 
3818750000  -4.430484e+001  -1.081088e+002 
3821875000  -4.339289e+001  -9.879613e+001 
3825000000  -4.133585e+001  -1.034666e+002 
3828125000  -4.042786e+001  -1.259696e+002 
3831250000  -4.147530e+001  -1.390447e+002 
3834375000  -4.351416e+001  -1.416578e+002 
3837500000  -4.410711e+001  -1.380234e+002 
3840625000  -4.245957e+001  -1.455511e+002 
3843750000  -4.175117e+001  -1.597828e+002 
3846875000  -4.394735e+001  -1.667539e+002 
3850000000  -4.422998e+001  -1.621972e+002 
3853125000  -4.375234e+001  -1.631758e+002 
3856250000  -4.286869e+001  -1.713336e+002 
3859375000  -4.214407e+001  1.792572e+002 
3862500000  -4.234106e+001  1.711435e+002 
3865625000  -4.269665e+001  1.626659e+002 
3868750000  -4.211133e+001  1.639174e+002 
3871875000  -4.183713e+001  1.526089e+002 
3875000000  -4.271233e+001  1.425630e+002 
3878125000  -4.373420e+001  1.392050e+002 
3881250000  -4.322947e+001  1.373337e+002 
3884375000  -4.269910e+001  1.288059e+002 
3887500000  -4.317044e+001  1.202961e+002 
3890625000  -4.346392e+001  1.167707e+002 
3893750000  -4.409422e+001  1.165267e+002 
3896875000  -4.394227e+001  1.115336e+002 
3900000000  -4.448161e+001  1.050498e+002 
3903125000  -4.391338e+001  1.043476e+002 
3906250000  -4.358123e+001  9.540731e+001 
3909375000  -4.267536e+001  8.645779e+001 
3912500000  -4.373052e+001  7.968645e+001 
3915625000  -4.479828e+001  8.099306e+001 
3918750000  -4.476980e+001  7.863245e+001 
3921875000  -4.359417e+001  7.403768e+001 
3925000000  -4.276705e+001  6.518175e+001 
3928125000  -4.298877e+001  5.539699e+001 
3931250000  -4.360123e+001  5.036082e+001 
3934375000  -4.394628e+001  4.807416e+001 
3937500000  -4.423915e+001  4.463393e+001 
3940625000  -4.455507e+001  4.477269e+001 
3943750000  -4.347474e+001  3.831491e+001 
3946875000  -4.279261e+001  2.884365e+001 
3950000000  -4.384551e+001  1.904480e+001 
3953125000  -4.438729e+001  1.930455e+001 
3956250000  -4.284881e+001  2.013657e+001 
3959375000  -4.206896e+001  1.307942e+001 
3962500000  -4.194302e+001  7.562791e-001 
3965625000  -4.181128e+001  -6.716056e+000 
3968750000  -4.257774e+001  -1.660654e+001 
3971875000  -4.256831e+001  -2.133450e+001 
3975000000  -4.200386e+001  -2.559055e+001 
3978125000  -4.212886e+001  -3.115171e+001 
3981250000  -4.172078e+001  -4.146017e+001 
3984375000  -4.240580e+001  -4.767749e+001 
3987500000  -4.309137e+001  -5.122502e+001 
3990625000  -4.277071e+001  -5.586897e+001 
3993750000  -4.306711e+001  -6.432854e+001 
3996875000  -4.306547e+001  -6.872904e+001 
4000000000  -4.384002e+001  -7.051189e+001 
4003125000  -4.338048e+001  -7.251679e+001 
4006250000  -4.198869e+001  -7.581541e+001 
4009375000  -4.108632e+001  -9.600687e+001 
4012500000  -4.297705e+001  -9.983502e+001 
4015625000  -4.404840e+001  -1.027828e+002 
4018750000  -4.378112e+001  -1.054841e+002 
4021875000  -4.283463e+001  -1.136430e+002 
4025000000  -4.316881e+001  -1.209659e+002 
4028125000  -4.332108e+001  -1.306980e+002 
4031250000  -4.401603e+001  -1.372990e+002 
4034375000  -4.377282e+001  -1.386406e+002 
4037500000  -4.386208e+001  -1.400587e+002 
4040625000  -4.411444e+001  -1.489706e+002 
4043750000  -4.451988e+001  -1.526414e+002 
4046875000  -4.465769e+001  -1.561013e+002 
4050000000  -4.463037e+001  -1.614020e+002 
4053125000  -4.512119e+001  -1.690294e+002 
4056250000  -4.506925e+001  -1.672493e+002 
4059375000  -4.347297e+001  -1.659194e+002 
4062500000  -4.367200e+001  -1.751206e+002 
4065625000  -4.359880e+001  1.799722e+002 
4068750000  -4.277555e+001  1.709086e+002 
4071875000  -4.255534e+001  1.616358e+002 
4075000000  -4.378893e+001  1.544230e+002 
4078125000  -4.417288e+001  1.493543e+002 
4081250000  -4.398799e+001  1.443699e+002 
4084375000  -4.325589e+001  1.356065e+002 
4087500000  -4.398959e+001  1.276304e+002 
4090625000  -4.487615e+001  1.278083e+002 
4093750000  -4.432041e+001  1.242658e+002 
4096875000  -4.434049e+001  1.187358e+002 
4100000000  -4.503112e+001  1.104958e+002 
4103125000  -4.582399e+001  1.131673e+002 
4106250000  -4.498146e+001  1.130337e+002 
4109375000  -4.449068e+001  1.094766e+002 
4112500000  -4.383075e+001  9.859960e+001 
4115625000  -4.445147e+001  9.395881e+001 
4118750000  -4.408783e+001  9.232481e+001 
4121875000  -4.381589e+001  8.353289e+001 
4125000000  -4.484284e+001  7.473920e+001 
4128125000  -4.509571e+001  8.022334e+001 
4131250000  -4.350217e+001  8.109177e+001 
4134375000  -4.168114e+001  7.094916e+001 
4137500000  -4.201291e+001  5.034273e+001 
4140625000  -4.364704e+001  4.379784e+001 
4143750000  -4.498450e+001  4.890739e+001 
4146875000  -4.377547e+001  4.930576e+001 
4150000000  -4.301387e+001  3.962720e+001 
4153125000  -4.332277e+001  3.026403e+001 
4156250000  -4.385460e+001  2.406786e+001 
4159375000  -4.366299e+001  2.891833e+001 
4162500000  -4.217855e+001  2.871274e+001 
4165625000  -4.117729e+001  1.570135e+001 
4168750000  -4.149912e+001  5.963977e+000 
4171875000  -4.102199e+001  -8.189470e+000 
4175000000  -4.179007e+001  -1.382563e+001 
4178125000  -4.240691e+001  -1.760454e+001 
4181250000  -4.198826e+001  -2.284323e+001 
4184375000  -4.242984e+001  -3.028731e+001 
4187500000  -4.257249e+001  -3.902112e+001 
4190625000  -4.267914e+001  -4.911715e+001 
4193750000  -4.391139e+001  -5.156632e+001 
4196875000  -4.509980e+001  -5.457948e+001 
4200000000  -4.634531e+001  -4.706895e+001 
4203125000  -4.416418e+001  -3.736896e+001 
4206250000  -4.110274e+001  -5.033618e+001 
4209375000  -4.091555e+001  -7.550425e+001 
4212500000  -4.371156e+001  -7.970378e+001 
4215625000  -4.376072e+001  -7.292338e+001 
4218750000  -4.234859e+001  -7.217999e+001 
4221875000  -4.106279e+001  -8.450742e+001 
4225000000  -4.193524e+001  -9.511772e+001 
4228125000  -4.228249e+001  -9.440540e+001 
4231250000  -4.081586e+001  -1.007927e+002 
4234375000  -4.072676e+001  -1.147629e+002 
4237500000  -4.071894e+001  -1.217159e+002 
4240625000  -4.119144e+001  -1.303901e+002 
4243750000  -4.258719e+001  -1.395345e+002 
4246875000  -4.279798e+001  -1.405899e+002 
4250000000  -4.283513e+001  -1.393117e+002 
4253125000  -4.205540e+001  -1.425431e+002 
4256250000  -4.222899e+001  -1.482235e+002 
4259375000  -4.196739e+001  -1.563468e+002 
4262500000  -4.205558e+001  -1.625583e+002 
4265625000  -4.236273e+001  -1.620789e+002 
4268750000  -4.092691e+001  -1.689616e+002 
4271875000  -4.053004e+001  1.794433e+002 
4275000000  -4.037028e+001  1.687766e+002 
4278125000  -4.167776e+001  1.589114e+002 
4281250000  -4.235390e+001  1.553133e+002 
4284375000  -4.210623e+001  1.538303e+002 
4287500000  -4.378365e+001  1.498501e+002 
4290625000  -4.343619e+001  1.566537e+002 
4293750000  -4.165317e+001  1.531680e+002 
4296875000  -4.021500e+001  1.388459e+002 
4300000000  -4.127557e+001  1.294276e+002 
4303125000  -4.160625e+001  1.303937e+002 
4306250000  -4.062217e+001  1.300023e+002 
4309375000  -3.963717e+001  1.209975e+002 
4312500000  -3.959087e+001  1.070574e+002 
4315625000  -4.025625e+001  9.910747e+001 
4318750000  -4.059669e+001  9.476890e+001 
4321875000  -4.088187e+001  9.097363e+001 
4325000000  -3.995071e+001  8.547292e+001 
4328125000  -3.946328e+001  7.769606e+001 
4331250000  -3.974841e+001  6.492474e+001 
4334375000  -4.075672e+001  5.598273e+001 
4337500000  -4.207329e+001  5.399979e+001 
4340625000  -4.210828e+001  5.674998e+001 
4343750000  -4.126528e+001  5.244761e+001 
4346875000  -4.112507e+001  4.112434e+001 
4350000000  -4.102666e+001  3.175774e+001 
4353125000  -4.192560e+001  2.207790e+001 
4356250000  -4.415488e+001  2.429960e+001 
4359375000  -4.225964e+001  3.979355e+001 
4362500000  -3.973119e+001  3.135185e+001 
4365625000  -3.940837e+001  1.098767e+001 
4368750000  -4.033542e+001  -1.754693e+000 
4371875000  -4.117670e+001  -1.865779e+000 
4375000000  -4.062320e+001  -7.276974e+000 
4378125000  -4.051808e+001  -1.432636e+001 
4381250000  -4.062262e+001  -2.276306e+001 
4384375000  -4.055788e+001  -3.114260e+001 
4387500000  -4.130958e+001  -3.899868e+001 
4390625000  -4.203901e+001  -4.009737e+001 
4393750000  -4.170177e+001  -3.963373e+001 
4396875000  -4.108301e+001  -4.534018e+001 
4400000000  -4.091964e+001  -5.492472e+001 
4403125000  -4.184729e+001  -6.533671e+001 
4406250000  -4.210685e+001  -6.984895e+001 
4409375000  -4.260802e+001  -7.533072e+001 
4412500000  -4.308685e+001  -7.522249e+001 
4415625000  -4.322049e+001  -7.531702e+001 
4418750000  -4.189054e+001  -7.534573e+001 
