!Agilent Technologies,E8363B,MY43030201,A.06.04.32
!Agilent E8363B: A.06.04.32
!Date: Tuesday, November 11, 2014 21:49:05
!Correction: S21(Response(S21)) 
!S1P File: Measurement: S21:
# Hz S  dB   R 50
3000000000  -4.372181e+001  -1.618239e+002 
3003125000  -4.536206e+001  -1.664183e+002 
3006250000  -4.535582e+001  -1.678214e+002 
3009375000  -4.616288e+001  -1.634278e+002 
3012500000  -4.460648e+001  -1.708866e+002 
3015625000  -4.507102e+001  -1.778304e+002 
3018750000  -4.538675e+001  -1.784808e+002 
3021875000  -4.396301e+001  -1.791657e+002 
3025000000  -4.261659e+001  1.776894e+002 
3028125000  -4.170562e+001  1.649787e+002 
3031250000  -4.076765e+001  1.525255e+002 
3034375000  -4.096599e+001  1.371841e+002 
3037500000  -4.139732e+001  1.268867e+002 
3040625000  -4.293291e+001  1.208332e+002 
3043750000  -4.319928e+001  1.140008e+002 
3046875000  -4.430071e+001  1.050373e+002 
3050000000  -4.513297e+001  1.011879e+002 
3053125000  -4.464354e+001  1.061494e+002 
3056250000  -4.451151e+001  1.094205e+002 
3059375000  -4.375093e+001  1.066162e+002 
3062500000  -4.267175e+001  9.968998e+001 
3065625000  -4.233067e+001  9.061526e+001 
3068750000  -4.166329e+001  8.098420e+001 
3071875000  -4.177793e+001  7.749211e+001 
3075000000  -4.119794e+001  7.189285e+001 
3078125000  -4.125290e+001  6.292932e+001 
3081250000  -4.121551e+001  5.654892e+001 
3084375000  -4.046843e+001  5.182507e+001 
3087500000  -4.052511e+001  4.398423e+001 
3090625000  -3.998134e+001  3.049742e+001 
3093750000  -4.108001e+001  2.091688e+001 
3096875000  -4.135132e+001  1.612561e+001 
3100000000  -4.121277e+001  1.181790e+001 
3103125000  -4.137986e+001  6.410691e+000 
3106250000  -4.101802e+001  1.407558e+000 
3109375000  -4.094293e+001  -3.940735e+000 
3112500000  -4.079753e+001  -1.126439e+001 
3115625000  -4.076768e+001  -1.572492e+001 
3118750000  -4.086863e+001  -2.060765e+001 
3121875000  -4.006670e+001  -3.299810e+001 
3125000000  -4.207961e+001  -3.734435e+001 
3128125000  -4.199658e+001  -3.128615e+001 
3131250000  -3.960115e+001  -3.886055e+001 
3134375000  -3.891922e+001  -5.712356e+001 
3137500000  -3.955825e+001  -7.152393e+001 
3140625000  -4.083280e+001  -7.370161e+001 
3143750000  -4.162148e+001  -7.846729e+001 
3146875000  -4.081149e+001  -7.673448e+001 
3150000000  -4.041407e+001  -8.221120e+001 
3153125000  -4.064570e+001  -9.207158e+001 
3156250000  -4.143656e+001  -8.883323e+001 
3159375000  -3.913784e+001  -9.305917e+001 
3162500000  -3.771679e+001  -1.087863e+002 
3165625000  -3.915050e+001  -1.230193e+002 
3168750000  -3.894986e+001  -1.248314e+002 
3171875000  -3.860102e+001  -1.324353e+002 
3175000000  -3.922374e+001  -1.434539e+002 
3178125000  -3.862214e+001  -1.461034e+002 
3181250000  -3.809936e+001  -1.544295e+002 
3184375000  -3.794308e+001  -1.657872e+002 
3187500000  -3.925473e+001  1.778260e+002 
3190625000  -4.087134e+001  1.711288e+002 
3193750000  -4.104554e+001  1.746817e+002 
3196875000  -4.111203e+001  1.741036e+002 
3200000000  -3.980267e+001  1.682449e+002 
3203125000  -3.963458e+001  1.602202e+002 
3206250000  -3.983080e+001  1.530708e+002 
3209375000  -3.958909e+001  1.434844e+002 
3212500000  -3.984688e+001  1.365567e+002 
3215625000  -3.973757e+001  1.327623e+002 
3218750000  -4.040524e+001  1.217300e+002 
3221875000  -4.069802e+001  1.125991e+002 
3225000000  -4.021964e+001  1.078150e+002 
3228125000  -4.124651e+001  1.011001e+002 
3231250000  -4.150850e+001  9.757204e+001 
3234375000  -4.104391e+001  9.545566e+001 
3237500000  -4.080767e+001  8.993536e+001 
3240625000  -4.032629e+001  8.341239e+001 
3243750000  -4.007646e+001  7.122715e+001 
3246875000  -4.072674e+001  6.227195e+001 
3250000000  -4.120934e+001  5.882074e+001 
3253125000  -4.099076e+001  5.427670e+001 
3256250000  -4.030412e+001  4.478106e+001 
3259375000  -4.080072e+001  3.196704e+001 
3262500000  -4.226504e+001  2.704110e+001 
3265625000  -4.261597e+001  2.777506e+001 
3268750000  -4.255659e+001  2.634757e+001 
3271875000  -4.166702e+001  2.046143e+001 
3275000000  -4.099790e+001  9.265615e+000 
3278125000  -4.160506e+001  3.647659e+000 
3281250000  -4.188428e+001  -3.347222e-001 
3284375000  -4.112597e+001  -7.951555e+000 
3287500000  -4.148985e+001  -1.663380e+001 
3290625000  -4.150135e+001  -2.547542e+001 
3293750000  -4.165702e+001  -3.460128e+001 
3296875000  -4.258660e+001  -3.751952e+001 
3300000000  -4.202856e+001  -4.119465e+001 
3303125000  -4.110091e+001  -5.003243e+001 
3306250000  -4.084068e+001  -6.008854e+001 
3309375000  -4.079611e+001  -7.091524e+001 
3312500000  -4.110111e+001  -8.632063e+001 
3315625000  -4.232398e+001  -9.417841e+001 
3318750000  -4.420939e+001  -1.002332e+002 
3321875000  -4.494785e+001  -1.004206e+002 
3325000000  -4.500117e+001  -9.733147e+001 
3328125000  -4.452081e+001  -9.991201e+001 
3331250000  -4.253399e+001  -9.852834e+001 
3334375000  -4.034465e+001  -1.167779e+002 
3337500000  -4.083634e+001  -1.413428e+002 
3340625000  -4.290187e+001  -1.504391e+002 
3343750000  -4.429415e+001  -1.532436e+002 
3346875000  -4.377805e+001  -1.575236e+002 
3350000000  -4.390854e+001  -1.602109e+002 
3353125000  -4.370382e+001  -1.705646e+002 
3356250000  -4.346778e+001  1.792424e+002 
3359375000  -4.399271e+001  1.655715e+002 
3362500000  -4.499971e+001  1.571397e+002 
3365625000  -4.547497e+001  1.522346e+002 
3368750000  -4.657566e+001  1.480202e+002 
3371875000  -4.697924e+001  1.396224e+002 
3375000000  -4.834358e+001  1.349290e+002 
3378125000  -4.916954e+001  1.323947e+002 
3381250000  -5.038330e+001  1.402983e+002 
3384375000  -4.721334e+001  1.529936e+002 
3387500000  -4.451165e+001  1.268528e+002 
3390625000  -4.695098e+001  1.047906e+002 
3393750000  -4.770483e+001  1.039727e+002 
3396875000  -4.616619e+001  9.833759e+001 
3400000000  -4.633931e+001  8.893329e+001 
3403125000  -4.654955e+001  7.884964e+001 
3406250000  -4.754004e+001  6.800359e+001 
3409375000  -4.722656e+001  6.167112e+001 
3412500000  -4.760094e+001  5.060066e+001 
3415625000  -4.829676e+001  4.620406e+001 
3418750000  -4.880016e+001  4.017844e+001 
3421875000  -4.912402e+001  4.228999e+001 
3425000000  -4.757416e+001  3.392288e+001 
3428125000  -4.737616e+001  2.625804e+001 
3431250000  -4.683713e+001  1.686314e+001 
3434375000  -4.691162e+001  3.407027e+000 
3437500000  -4.763213e+001  -3.643784e+000 
3440625000  -4.793453e+001  -7.256139e+000 
3443750000  -4.689148e+001  -1.385171e+001 
3446875000  -4.598900e+001  -2.912775e+001 
3450000000  -4.507323e+001  -4.155905e+001 
3453125000  -4.569973e+001  -6.025986e+001 
3456250000  -4.709794e+001  -6.908369e+001 
3459375000  -4.804102e+001  -7.295659e+001 
3462500000  -4.831620e+001  -7.566758e+001 
3465625000  -4.762594e+001  -9.070269e+001 
3468750000  -4.746714e+001  -9.662813e+001 
3471875000  -4.748051e+001  -1.023425e+002 
3475000000  -4.715724e+001  -1.162453e+002 
3478125000  -4.786956e+001  -1.307150e+002 
3481250000  -4.868694e+001  -1.347721e+002 
3484375000  -4.918326e+001  -1.374944e+002 
3487500000  -4.758615e+001  -1.394557e+002 
3490625000  -4.731403e+001  -1.529132e+002 
3493750000  -4.806614e+001  -1.680333e+002 
3496875000  -4.833969e+001  -1.711361e+002 
3500000000  -4.831532e+001  -1.751982e+002 
3503125000  -4.716539e+001  -1.777929e+002 
3506250000  -4.577098e+001  1.683085e+002 
3509375000  -4.594413e+001  1.536280e+002 
3512500000  -4.584406e+001  1.378389e+002 
3515625000  -4.684801e+001  1.293782e+002 
3518750000  -4.801789e+001  1.273324e+002 
3521875000  -4.806645e+001  1.165205e+002 
3525000000  -4.868870e+001  1.157244e+002 
3528125000  -4.762286e+001  1.160751e+002 
3531250000  -4.690073e+001  1.033626e+002 
3534375000  -4.699966e+001  8.699520e+001 
3537500000  -4.780627e+001  7.752372e+001 
3540625000  -4.874092e+001  7.485352e+001 
3543750000  -4.905456e+001  7.254155e+001 
3546875000  -4.866533e+001  8.182354e+001 
3550000000  -4.699084e+001  7.394098e+001 
3553125000  -4.582867e+001  5.785099e+001 
3556250000  -4.711967e+001  4.824562e+001 
3559375000  -4.656300e+001  4.129536e+001 
3562500000  -4.648580e+001  3.298011e+001 
3565625000  -4.753308e+001  2.402289e+001 
3568750000  -4.792245e+001  2.647762e+001 
3571875000  -4.705984e+001  1.700103e+001 
3575000000  -4.745181e+001  1.012243e+001 
3578125000  -4.782430e+001  8.120325e+000 
3581250000  -4.771693e+001  1.815777e+000 
3584375000  -4.565097e+001  -2.855878e+000 
3587500000  -4.552789e+001  -1.566541e+001 
3590625000  -4.655963e+001  -2.356289e+001 
3593750000  -4.773971e+001  -2.570226e+001 
3596875000  -4.704474e+001  -1.716491e+001 
3600000000  -4.468827e+001  -3.426600e+001 
3603125000  -4.532370e+001  -5.039669e+001 
3606250000  -4.596537e+001  -5.523924e+001 
3609375000  -4.562191e+001  -5.803608e+001 
3612500000  -4.592467e+001  -6.690902e+001 
3615625000  -4.640221e+001  -6.874210e+001 
3618750000  -4.597445e+001  -7.109219e+001 
3621875000  -4.544875e+001  -7.671642e+001 
3625000000  -4.578734e+001  -8.194780e+001 
3628125000  -4.463145e+001  -8.736523e+001 
3631250000  -4.507449e+001  -9.821930e+001 
3634375000  -4.544760e+001  -9.787801e+001 
3637500000  -4.458846e+001  -1.009900e+002 
3640625000  -4.373263e+001  -1.057479e+002 
3643750000  -4.313244e+001  -1.195796e+002 
3646875000  -4.406931e+001  -1.277561e+002 
3650000000  -4.361976e+001  -1.331883e+002 
3653125000  -4.335832e+001  -1.417261e+002 
3656250000  -4.419646e+001  -1.485783e+002 
3659375000  -4.413629e+001  -1.513014e+002 
3662500000  -4.350578e+001  -1.574038e+002 
3665625000  -4.348862e+001  -1.645953e+002 
3668750000  -4.198641e+001  -1.695361e+002 
3671875000  -4.146055e+001  1.774981e+002 
3675000000  -4.228356e+001  1.675764e+002 
3678125000  -4.268996e+001  1.627779e+002 
3681250000  -4.226886e+001  1.551619e+002 
3684375000  -4.275912e+001  1.461554e+002 
3687500000  -4.337629e+001  1.412483e+002 
3690625000  -4.372447e+001  1.320004e+002 
3693750000  -4.478299e+001  1.311905e+002 
3696875000  -4.395721e+001  1.291716e+002 
3700000000  -4.289789e+001  1.210847e+002 
3703125000  -4.374314e+001  1.130502e+002 
3706250000  -4.474924e+001  1.117768e+002 
3709375000  -4.395336e+001  1.104171e+002 
3712500000  -4.261970e+001  1.028773e+002 
3715625000  -4.158706e+001  9.584880e+001 
3718750000  -4.155666e+001  8.635029e+001 
3721875000  -4.182999e+001  7.721536e+001 
3725000000  -4.225429e+001  6.818873e+001 
3728125000  -4.261188e+001  6.556647e+001 
3731250000  -4.189350e+001  5.869940e+001 
3734375000  -4.189389e+001  5.066863e+001 
3737500000  -4.244116e+001  4.384381e+001 
3740625000  -4.304139e+001  3.809929e+001 
3743750000  -4.246002e+001  3.100035e+001 
3746875000  -4.326505e+001  2.442958e+001 
3750000000  -4.344260e+001  2.186384e+001 
3753125000  -4.351601e+001  1.902861e+001 
3756250000  -4.383516e+001  1.385635e+001 
3759375000  -4.332161e+001  7.310146e+000 
3762500000  -4.320054e+001  4.343955e+000 
3765625000  -4.424001e+001  -3.281218e+000 
3768750000  -4.348817e+001  -2.078132e+000 
3771875000  -4.203082e+001  -8.982843e+000 
3775000000  -4.235333e+001  -2.034644e+001 
3778125000  -4.286552e+001  -2.468334e+001 
3781250000  -4.271619e+001  -3.112525e+001 
3784375000  -4.221808e+001  -3.937827e+001 
3787500000  -4.229866e+001  -4.125292e+001 
3790625000  -4.277531e+001  -5.324301e+001 
3793750000  -4.259215e+001  -5.372219e+001 
3796875000  -4.116274e+001  -5.927736e+001 
3800000000  -4.066203e+001  -6.774485e+001 
3803125000  -4.180325e+001  -7.942795e+001 
3806250000  -4.223604e+001  -8.340213e+001 
3809375000  -4.156178e+001  -8.779145e+001 
3812500000  -4.154462e+001  -1.000226e+002 
3815625000  -4.296621e+001  -1.117330e+002 
3818750000  -4.420314e+001  -1.107310e+002 
3821875000  -4.376621e+001  -9.943755e+001 
3825000000  -4.143267e+001  -1.049742e+002 
3828125000  -4.061515e+001  -1.257972e+002 
3831250000  -4.132359e+001  -1.407007e+002 
3834375000  -4.411105e+001  -1.408170e+002 
3837500000  -4.395747e+001  -1.371033e+002 
3840625000  -4.191684e+001  -1.456940e+002 
3843750000  -4.200500e+001  -1.581195e+002 
3846875000  -4.364243e+001  -1.685957e+002 
3850000000  -4.373596e+001  -1.576562e+002 
3853125000  -4.375017e+001  -1.644651e+002 
3856250000  -4.326116e+001  -1.707257e+002 
3859375000  -4.183036e+001  -1.792480e+002 
3862500000  -4.207097e+001  1.703045e+002 
3865625000  -4.266691e+001  1.634388e+002 
3868750000  -4.235448e+001  1.612409e+002 
3871875000  -4.179793e+001  1.517487e+002 
3875000000  -4.248846e+001  1.425326e+002 
3878125000  -4.365937e+001  1.397026e+002 
3881250000  -4.334490e+001  1.379328e+002 
3884375000  -4.276881e+001  1.265641e+002 
3887500000  -4.286213e+001  1.210423e+002 
3890625000  -4.358843e+001  1.175309e+002 
3893750000  -4.421850e+001  1.159310e+002 
3896875000  -4.391850e+001  1.127463e+002 
3900000000  -4.435732e+001  1.054546e+002 
3903125000  -4.370525e+001  1.006530e+002 
3906250000  -4.326753e+001  9.843298e+001 
3909375000  -4.261163e+001  8.865424e+001 
3912500000  -4.358667e+001  8.046699e+001 
3915625000  -4.467168e+001  7.840798e+001 
3918750000  -4.457978e+001  7.706533e+001 
3921875000  -4.369997e+001  7.378168e+001 
3925000000  -4.310183e+001  6.576853e+001 
3928125000  -4.267725e+001  5.565319e+001 
3931250000  -4.381876e+001  4.735583e+001 
3934375000  -4.368395e+001  4.407950e+001 
3937500000  -4.427162e+001  4.346424e+001 
3940625000  -4.417072e+001  4.710798e+001 
3943750000  -4.340048e+001  3.936070e+001 
3946875000  -4.246075e+001  3.067544e+001 
3950000000  -4.350628e+001  1.942903e+001 
3953125000  -4.393245e+001  2.052594e+001 
3956250000  -4.257500e+001  1.997790e+001 
3959375000  -4.160254e+001  1.268519e+001 
3962500000  -4.177027e+001  2.350623e+000 
3965625000  -4.205202e+001  -7.016988e+000 
3968750000  -4.216476e+001  -1.634000e+001 
3971875000  -4.272018e+001  -2.228352e+001 
3975000000  -4.211443e+001  -2.437736e+001 
3978125000  -4.203061e+001  -3.303637e+001 
3981250000  -4.173077e+001  -3.892483e+001 
3984375000  -4.227761e+001  -4.914348e+001 
3987500000  -4.309921e+001  -5.226395e+001 
3990625000  -4.327945e+001  -5.755905e+001 
3993750000  -4.286370e+001  -6.401165e+001 
3996875000  -4.306925e+001  -6.835970e+001 
4000000000  -4.363874e+001  -7.145249e+001 
4003125000  -4.375360e+001  -7.466447e+001 
4006250000  -4.237032e+001  -7.893505e+001 
4009375000  -4.104749e+001  -9.513416e+001 
4012500000  -4.313336e+001  -1.047900e+002 
4015625000  -4.418290e+001  -1.039993e+002 
4018750000  -4.374586e+001  -1.082059e+002 
4021875000  -4.310793e+001  -1.151713e+002 
4025000000  -4.337924e+001  -1.213054e+002 
4028125000  -4.316963e+001  -1.297135e+002 
4031250000  -4.397290e+001  -1.358768e+002 
4034375000  -4.378949e+001  -1.355125e+002 
4037500000  -4.398715e+001  -1.430222e+002 
4040625000  -4.422026e+001  -1.486988e+002 
4043750000  -4.451619e+001  -1.505736e+002 
4046875000  -4.393221e+001  -1.571956e+002 
4050000000  -4.408583e+001  -1.642658e+002 
4053125000  -4.535794e+001  -1.708809e+002 
4056250000  -4.553605e+001  -1.653384e+002 
4059375000  -4.377837e+001  -1.648120e+002 
4062500000  -4.331619e+001  -1.738490e+002 
4065625000  -4.365933e+001  -1.786407e+002 
4068750000  -4.330708e+001  1.713741e+002 
4071875000  -4.219561e+001  1.619007e+002 
4075000000  -4.338728e+001  1.519149e+002 
4078125000  -4.338632e+001  1.521108e+002 
4081250000  -4.308432e+001  1.460688e+002 
4084375000  -4.357191e+001  1.372446e+002 
4087500000  -4.396701e+001  1.294907e+002 
4090625000  -4.431996e+001  1.261913e+002 
4093750000  -4.474878e+001  1.265899e+002 
4096875000  -4.433135e+001  1.196198e+002 
4100000000  -4.502530e+001  1.102141e+002 
4103125000  -4.559259e+001  1.179576e+002 
4106250000  -4.485096e+001  1.142330e+002 
4109375000  -4.444059e+001  1.073732e+002 
4112500000  -4.398061e+001  9.984103e+001 
4115625000  -4.437820e+001  9.546268e+001 
4118750000  -4.414437e+001  8.975211e+001 
4121875000  -4.356668e+001  8.094923e+001 
4125000000  -4.484490e+001  7.344807e+001 
4128125000  -4.541862e+001  7.944987e+001 
4131250000  -4.346817e+001  8.157797e+001 
4134375000  -4.165676e+001  6.898692e+001 
4137500000  -4.224525e+001  5.063038e+001 
4140625000  -4.403553e+001  4.341294e+001 
4143750000  -4.514209e+001  4.875120e+001 
4146875000  -4.374356e+001  5.195056e+001 
4150000000  -4.268056e+001  3.963605e+001 
4153125000  -4.338722e+001  3.032623e+001 
4156250000  -4.386372e+001  2.501594e+001 
4159375000  -4.363461e+001  2.965741e+001 
4162500000  -4.235608e+001  2.550524e+001 
4165625000  -4.126358e+001  1.790175e+001 
4168750000  -4.121594e+001  6.091377e+000 
4171875000  -4.110619e+001  -8.019552e+000 
4175000000  -4.147126e+001  -1.310971e+001 
4178125000  -4.214334e+001  -1.830168e+001 
4181250000  -4.172472e+001  -2.525994e+001 
4184375000  -4.256372e+001  -3.151711e+001 
4187500000  -4.224479e+001  -3.713972e+001 
4190625000  -4.218874e+001  -4.906820e+001 
4193750000  -4.359153e+001  -5.058393e+001 
4196875000  -4.496354e+001  -5.395713e+001 
4200000000  -4.587378e+001  -4.828792e+001 
4203125000  -4.430100e+001  -4.246776e+001 
4206250000  -4.125752e+001  -5.005231e+001 
4209375000  -4.144592e+001  -7.337254e+001 
4212500000  -4.407006e+001  -7.922844e+001 
4215625000  -4.404483e+001  -7.312212e+001 
4218750000  -4.222649e+001  -7.081385e+001 
4221875000  -4.108828e+001  -8.354583e+001 
4225000000  -4.212271e+001  -9.559573e+001 
4228125000  -4.203922e+001  -9.556658e+001 
4231250000  -4.068473e+001  -1.035241e+002 
4234375000  -4.091065e+001  -1.164512e+002 
4237500000  -4.064389e+001  -1.204719e+002 
4240625000  -4.152362e+001  -1.302550e+002 
4243750000  -4.206446e+001  -1.391314e+002 
4246875000  -4.298603e+001  -1.386285e+002 
4250000000  -4.252113e+001  -1.399378e+002 
4253125000  -4.223223e+001  -1.422936e+002 
4256250000  -4.251336e+001  -1.501591e+002 
4259375000  -4.212218e+001  -1.537290e+002 
4262500000  -4.213858e+001  -1.597601e+002 
4265625000  -4.231190e+001  -1.624545e+002 
4268750000  -4.073523e+001  -1.688269e+002 
4271875000  -4.074765e+001  1.796582e+002 
4275000000  -4.039092e+001  1.720942e+002 
4278125000  -4.131310e+001  1.605814e+002 
4281250000  -4.248262e+001  1.553764e+002 
4284375000  -4.222383e+001  1.503924e+002 
4287500000  -4.316646e+001  1.501438e+002 
4290625000  -4.362923e+001  1.573305e+002 
4293750000  -4.151564e+001  1.563678e+002 
4296875000  -4.060119e+001  1.387642e+002 
4300000000  -4.113505e+001  1.302574e+002 
4303125000  -4.193304e+001  1.305305e+002 
4306250000  -4.077106e+001  1.293432e+002 
4309375000  -3.972869e+001  1.193224e+002 
4312500000  -3.980066e+001  1.070891e+002 
4315625000  -4.016692e+001  9.739847e+001 
4318750000  -4.074094e+001  9.256553e+001 
4321875000  -4.074837e+001  9.079144e+001 
4325000000  -3.997129e+001  8.755834e+001 
4328125000  -3.924529e+001  7.450822e+001 
4331250000  -3.959076e+001  6.484191e+001 
4334375000  -4.095856e+001  5.543364e+001 
4337500000  -4.182606e+001  5.453350e+001 
4340625000  -4.190392e+001  5.664706e+001 
4343750000  -4.092395e+001  5.242020e+001 
4346875000  -4.083888e+001  4.077623e+001 
4350000000  -4.098440e+001  3.226966e+001 
4353125000  -4.171712e+001  2.359791e+001 
4356250000  -4.421199e+001  2.310820e+001 
4359375000  -4.263051e+001  3.826989e+001 
4362500000  -3.913949e+001  2.973057e+001 
4365625000  -3.850555e+001  1.128314e+001 
4368750000  -4.005346e+001  -4.138532e-001 
4371875000  -4.113929e+001  -6.156841e-001 
4375000000  -4.065947e+001  -7.910219e+000 
4378125000  -4.069274e+001  -1.347205e+001 
4381250000  -4.048014e+001  -2.381158e+001 
4384375000  -4.033871e+001  -2.992309e+001 
4387500000  -4.146418e+001  -3.746044e+001 
4390625000  -4.197805e+001  -4.164112e+001 
4393750000  -4.164759e+001  -3.996139e+001 
4396875000  -4.128708e+001  -4.601814e+001 
4400000000  -4.064516e+001  -5.412658e+001 
4403125000  -4.161881e+001  -6.546169e+001 
4406250000  -4.211057e+001  -6.742587e+001 
4409375000  -4.256418e+001  -7.312656e+001 
4412500000  -4.372327e+001  -7.630125e+001 
4415625000  -4.323172e+001  -7.341486e+001 
4418750000  -4.146276e+001  -7.478480e+001 
