!Agilent Technologies,E8363B,MY43030201,A.06.04.32
!Agilent E8363B: A.06.04.32
!Date: Tuesday, November 11, 2014 21:52:01
!Correction: S21(Response(S21)) 
!S1P File: Measurement: S21:
# Hz S  dB   R 50
3000000000  -4.374485e+001  -1.624729e+002 
3003125000  -4.511153e+001  -1.676170e+002 
3006250000  -4.553887e+001  -1.684610e+002 
3009375000  -4.632336e+001  -1.644242e+002 
3012500000  -4.480320e+001  -1.730013e+002 
3015625000  -4.501384e+001  -1.778957e+002 
3018750000  -4.526484e+001  1.793204e+002 
3021875000  -4.397574e+001  1.796829e+002 
3025000000  -4.262238e+001  1.774614e+002 
3028125000  -4.182212e+001  1.624284e+002 
3031250000  -4.097100e+001  1.508474e+002 
3034375000  -4.075111e+001  1.359691e+002 
3037500000  -4.161111e+001  1.254268e+002 
3040625000  -4.299508e+001  1.188144e+002 
3043750000  -4.358146e+001  1.131510e+002 
3046875000  -4.429999e+001  1.050896e+002 
3050000000  -4.490401e+001  1.016152e+002 
3053125000  -4.480682e+001  1.073175e+002 
3056250000  -4.476814e+001  1.078481e+002 
3059375000  -4.421749e+001  1.038200e+002 
3062500000  -4.232238e+001  9.920680e+001 
3065625000  -4.237770e+001  8.778005e+001 
3068750000  -4.182457e+001  7.916904e+001 
3071875000  -4.193076e+001  7.756177e+001 
3075000000  -4.119967e+001  6.949117e+001 
3078125000  -4.144731e+001  6.239371e+001 
3081250000  -4.117789e+001  5.708541e+001 
3084375000  -4.044422e+001  4.954018e+001 
3087500000  -4.067747e+001  4.206190e+001 
3090625000  -3.994209e+001  2.939529e+001 
3093750000  -4.097980e+001  1.980006e+001 
3096875000  -4.126806e+001  1.606088e+001 
3100000000  -4.111687e+001  1.012698e+001 
3103125000  -4.135737e+001  6.924801e+000 
3106250000  -4.114086e+001  -2.034468e-001 
3109375000  -4.085127e+001  -3.647300e+000 
3112500000  -4.087267e+001  -1.206831e+001 
3115625000  -4.077364e+001  -1.719143e+001 
3118750000  -4.074115e+001  -2.265463e+001 
3121875000  -4.033751e+001  -3.386304e+001 
3125000000  -4.229180e+001  -3.760821e+001 
3128125000  -4.204522e+001  -3.218834e+001 
3131250000  -3.941888e+001  -4.031925e+001 
3134375000  -3.875181e+001  -5.766280e+001 
3137500000  -3.976532e+001  -7.122198e+001 
3140625000  -4.104581e+001  -7.548090e+001 
3143750000  -4.163272e+001  -7.885816e+001 
3146875000  -4.111716e+001  -7.821101e+001 
3150000000  -4.054213e+001  -8.393773e+001 
3153125000  -4.071129e+001  -9.257987e+001 
3156250000  -4.141115e+001  -9.050075e+001 
3159375000  -3.911392e+001  -9.192470e+001 
3162500000  -3.786411e+001  -1.100816e+002 
3165625000  -3.905927e+001  -1.238691e+002 
3168750000  -3.891171e+001  -1.259324e+002 
3171875000  -3.855083e+001  -1.341176e+002 
3175000000  -3.908400e+001  -1.442239e+002 
3178125000  -3.856109e+001  -1.471049e+002 
3181250000  -3.800967e+001  -1.554423e+002 
3184375000  -3.788985e+001  -1.674940e+002 
3187500000  -3.927678e+001  1.767422e+002 
3190625000  -4.084094e+001  1.705867e+002 
3193750000  -4.132901e+001  1.725240e+002 
3196875000  -4.091430e+001  1.744724e+002 
3200000000  -3.984735e+001  1.682710e+002 
3203125000  -3.957173e+001  1.584987e+002 
3206250000  -3.974824e+001  1.503106e+002 
3209375000  -3.960570e+001  1.412864e+002 
3212500000  -3.974145e+001  1.350721e+002 
3215625000  -3.963065e+001  1.310486e+002 
3218750000  -4.042180e+001  1.177898e+002 
3221875000  -4.059306e+001  1.130191e+002 
3225000000  -4.048737e+001  1.075284e+002 
3228125000  -4.108299e+001  9.916063e+001 
3231250000  -4.134875e+001  9.594492e+001 
3234375000  -4.093520e+001  9.284990e+001 
3237500000  -4.084908e+001  8.871700e+001 
3240625000  -4.043174e+001  8.180923e+001 
3243750000  -4.037148e+001  6.896883e+001 
3246875000  -4.064762e+001  6.141234e+001 
3250000000  -4.109587e+001  5.751072e+001 
3253125000  -4.111920e+001  5.225130e+001 
3256250000  -4.030566e+001  4.454981e+001 
3259375000  -4.086803e+001  2.930110e+001 
3262500000  -4.243881e+001  2.495393e+001 
3265625000  -4.251334e+001  2.559664e+001 
3268750000  -4.248767e+001  2.493284e+001 
3271875000  -4.165820e+001  2.003347e+001 
3275000000  -4.107163e+001  8.140997e+000 
3278125000  -4.178252e+001  1.906080e+000 
3281250000  -4.174656e+001  -1.906053e+000 
3284375000  -4.109988e+001  -8.820048e+000 
3287500000  -4.170918e+001  -1.839278e+001 
3290625000  -4.154403e+001  -2.690707e+001 
3293750000  -4.141045e+001  -3.514002e+001 
3296875000  -4.262051e+001  -4.045954e+001 
3300000000  -4.204380e+001  -4.105236e+001 
3303125000  -4.095493e+001  -4.991237e+001 
3306250000  -4.088346e+001  -6.144610e+001 
3309375000  -4.053549e+001  -7.181139e+001 
3312500000  -4.123059e+001  -8.741758e+001 
3315625000  -4.255327e+001  -9.505399e+001 
3318750000  -4.389591e+001  -1.021795e+002 
3321875000  -4.531134e+001  -1.003072e+002 
3325000000  -4.479057e+001  -9.591522e+001 
3328125000  -4.381516e+001  -1.011074e+002 
3331250000  -4.237887e+001  -1.018063e+002 
3334375000  -3.996735e+001  -1.171921e+002 
3337500000  -4.062513e+001  -1.414572e+002 
3340625000  -4.284429e+001  -1.518938e+002 
3343750000  -4.468359e+001  -1.550952e+002 
3346875000  -4.396478e+001  -1.569061e+002 
3350000000  -4.347122e+001  -1.613119e+002 
3353125000  -4.359536e+001  -1.707875e+002 
3356250000  -4.342902e+001  1.790332e+002 
3359375000  -4.410506e+001  1.628416e+002 
3362500000  -4.498323e+001  1.579228e+002 
3365625000  -4.552913e+001  1.496761e+002 
3368750000  -4.623036e+001  1.451693e+002 
3371875000  -4.655870e+001  1.425475e+002 
3375000000  -4.835866e+001  1.322108e+002 
3378125000  -4.971896e+001  1.334607e+002 
3381250000  -5.099830e+001  1.398180e+002 
3384375000  -4.731047e+001  1.511844e+002 
3387500000  -4.448240e+001  1.258096e+002 
3390625000  -4.672603e+001  1.051898e+002 
3393750000  -4.730468e+001  1.030129e+002 
3396875000  -4.582034e+001  1.000403e+002 
3400000000  -4.643509e+001  8.686774e+001 
3403125000  -4.725108e+001  7.947233e+001 
3406250000  -4.712542e+001  6.863895e+001 
3409375000  -4.677874e+001  5.863468e+001 
3412500000  -4.767484e+001  4.864977e+001 
3415625000  -4.890436e+001  4.850614e+001 
3418750000  -4.890318e+001  4.286507e+001 
3421875000  -4.940466e+001  3.711885e+001 
3425000000  -4.723534e+001  3.522758e+001 
3428125000  -4.713147e+001  2.724974e+001 
3431250000  -4.661031e+001  1.556478e+001 
3434375000  -4.684410e+001  -4.427578e-001 
3437500000  -4.792781e+001  -6.472781e+000 
3440625000  -4.789297e+001  -1.072979e+001 
3443750000  -4.661833e+001  -1.461473e+001 
3446875000  -4.558323e+001  -3.139322e+001 
3450000000  -4.536051e+001  -4.313136e+001 
3453125000  -4.581860e+001  -6.246274e+001 
3456250000  -4.756274e+001  -7.357944e+001 
3459375000  -4.850587e+001  -7.218594e+001 
3462500000  -4.825788e+001  -7.865218e+001 
3465625000  -4.721051e+001  -9.143144e+001 
3468750000  -4.758788e+001  -9.386611e+001 
3471875000  -4.691169e+001  -1.036985e+002 
3475000000  -4.699769e+001  -1.171481e+002 
3478125000  -4.766979e+001  -1.288026e+002 
3481250000  -4.918926e+001  -1.352081e+002 
3484375000  -4.852649e+001  -1.356269e+002 
3487500000  -4.736467e+001  -1.423183e+002 
3490625000  -4.728273e+001  -1.550294e+002 
3493750000  -4.822203e+001  -1.667884e+002 
3496875000  -4.827170e+001  -1.727117e+002 
3500000000  -4.920990e+001  -1.725129e+002 
3503125000  -4.712421e+001  -1.773953e+002 
3506250000  -4.529839e+001  1.721090e+002 
3509375000  -4.603148e+001  1.513685e+002 
3512500000  -4.601466e+001  1.367345e+002 
3515625000  -4.769262e+001  1.307745e+002 
3518750000  -4.815589e+001  1.289755e+002 
3521875000  -4.742963e+001  1.170435e+002 
3525000000  -4.876553e+001  1.168302e+002 
3528125000  -4.718495e+001  1.153191e+002 
3531250000  -4.658173e+001  1.017767e+002 
3534375000  -4.690147e+001  8.535125e+001 
3537500000  -4.809212e+001  8.020813e+001 
3540625000  -4.900121e+001  7.431811e+001 
3543750000  -4.929133e+001  7.450961e+001 
3546875000  -4.923779e+001  8.348145e+001 
3550000000  -4.687568e+001  7.403323e+001 
3553125000  -4.600003e+001  5.098787e+001 
3556250000  -4.753532e+001  4.652581e+001 
3559375000  -4.673251e+001  3.995578e+001 
3562500000  -4.638294e+001  3.098091e+001 
3565625000  -4.770856e+001  2.197926e+001 
3568750000  -4.804089e+001  2.177670e+001 
3571875000  -4.705843e+001  1.770915e+001 
3575000000  -4.710500e+001  7.280650e+000 
3578125000  -4.799159e+001  8.339906e+000 
3581250000  -4.759706e+001  3.063746e+000 
3584375000  -4.623733e+001  -5.958652e+000 
3587500000  -4.543996e+001  -1.716719e+001 
3590625000  -4.671259e+001  -2.698402e+001 
3593750000  -4.751728e+001  -2.589689e+001 
3596875000  -4.646992e+001  -2.107557e+001 
3600000000  -4.460346e+001  -3.193501e+001 
3603125000  -4.524330e+001  -4.896513e+001 
3606250000  -4.605756e+001  -5.495987e+001 
3609375000  -4.579378e+001  -5.880385e+001 
3612500000  -4.606211e+001  -6.504594e+001 
3615625000  -4.594123e+001  -7.044452e+001 
3618750000  -4.624505e+001  -7.528720e+001 
3621875000  -4.560879e+001  -8.021236e+001 
3625000000  -4.569939e+001  -8.559948e+001 
3628125000  -4.457011e+001  -9.012688e+001 
3631250000  -4.506862e+001  -1.011880e+002 
3634375000  -4.563924e+001  -1.018584e+002 
3637500000  -4.448061e+001  -1.015082e+002 
3640625000  -4.374451e+001  -1.071277e+002 
3643750000  -4.337931e+001  -1.211073e+002 
3646875000  -4.367184e+001  -1.323252e+002 
3650000000  -4.400141e+001  -1.362621e+002 
3653125000  -4.321097e+001  -1.450057e+002 
3656250000  -4.397924e+001  -1.521813e+002 
3659375000  -4.393899e+001  -1.537603e+002 
3662500000  -4.340109e+001  -1.617127e+002 
3665625000  -4.321103e+001  -1.648210e+002 
3668750000  -4.200611e+001  -1.699919e+002 
3671875000  -4.140548e+001  1.753510e+002 
3675000000  -4.206178e+001  1.648869e+002 
3678125000  -4.285995e+001  1.603460e+002 
3681250000  -4.237358e+001  1.540867e+002 
3684375000  -4.269672e+001  1.456276e+002 
3687500000  -4.280438e+001  1.366329e+002 
3690625000  -4.336674e+001  1.301361e+002 
3693750000  -4.466379e+001  1.311035e+002 
3696875000  -4.369146e+001  1.290933e+002 
3700000000  -4.290380e+001  1.190302e+002 
3703125000  -4.364370e+001  1.108976e+002 
3706250000  -4.460060e+001  1.103378e+002 
3709375000  -4.386372e+001  1.095466e+002 
3712500000  -4.262130e+001  1.040671e+002 
3715625000  -4.186578e+001  9.500713e+001 
3718750000  -4.176629e+001  8.503638e+001 
3721875000  -4.180794e+001  7.544048e+001 
3725000000  -4.224416e+001  6.576319e+001 
3728125000  -4.237680e+001  6.447288e+001 
3731250000  -4.174340e+001  5.717994e+001 
3734375000  -4.196700e+001  4.953119e+001 
3737500000  -4.276963e+001  3.998909e+001 
3740625000  -4.287645e+001  3.494084e+001 
3743750000  -4.266696e+001  2.943676e+001 
3746875000  -4.288842e+001  2.434141e+001 
3750000000  -4.371804e+001  1.784113e+001 
3753125000  -4.369769e+001  1.384490e+001 
3756250000  -4.355183e+001  1.053729e+001 
3759375000  -4.332431e+001  6.082447e+000 
3762500000  -4.348844e+001  3.065724e+000 
3765625000  -4.424133e+001  -4.039448e+000 
3768750000  -4.345686e+001  -3.633040e+000 
3771875000  -4.227452e+001  -1.009985e+001 
3775000000  -4.212069e+001  -2.063809e+001 
3778125000  -4.263719e+001  -2.703855e+001 
3781250000  -4.284717e+001  -3.164119e+001 
3784375000  -4.221954e+001  -3.841132e+001 
3787500000  -4.247479e+001  -4.346479e+001 
3790625000  -4.272367e+001  -5.309907e+001 
3793750000  -4.264762e+001  -5.775260e+001 
3796875000  -4.158657e+001  -6.225002e+001 
3800000000  -4.072226e+001  -6.911217e+001 
3803125000  -4.183910e+001  -8.060176e+001 
3806250000  -4.247694e+001  -8.637388e+001 
3809375000  -4.183510e+001  -9.150144e+001 
3812500000  -4.180569e+001  -1.036254e+002 
3815625000  -4.292525e+001  -1.116982e+002 
3818750000  -4.418954e+001  -1.118284e+002 
3821875000  -4.325346e+001  -1.011247e+002 
3825000000  -4.146190e+001  -1.081481e+002 
3828125000  -4.012172e+001  -1.263577e+002 
3831250000  -4.159804e+001  -1.436721e+002 
3834375000  -4.390295e+001  -1.429058e+002 
3837500000  -4.390559e+001  -1.394068e+002 
3840625000  -4.250946e+001  -1.479601e+002 
3843750000  -4.189698e+001  -1.616549e+002 
3846875000  -4.350581e+001  -1.669682e+002 
3850000000  -4.387271e+001  -1.627255e+002 
3853125000  -4.367332e+001  -1.643066e+002 
3856250000  -4.300885e+001  -1.712526e+002 
3859375000  -4.201203e+001  1.793301e+002 
3862500000  -4.202874e+001  1.684026e+002 
3865625000  -4.257733e+001  1.597754e+002 
3868750000  -4.221720e+001  1.587374e+002 
3871875000  -4.169886e+001  1.505406e+002 
3875000000  -4.253472e+001  1.386416e+002 
3878125000  -4.313305e+001  1.379080e+002 
3881250000  -4.331943e+001  1.374097e+002 
3884375000  -4.246429e+001  1.260319e+002 
3887500000  -4.323814e+001  1.174847e+002 
3890625000  -4.403165e+001  1.154659e+002 
3893750000  -4.433315e+001  1.101165e+002 
3896875000  -4.417821e+001  1.106812e+002 
3900000000  -4.446264e+001  1.057994e+002 
3903125000  -4.337232e+001  1.011079e+002 
3906250000  -4.317294e+001  9.549125e+001 
3909375000  -4.278481e+001  8.576645e+001 
3912500000  -4.381116e+001  7.755878e+001 
3915625000  -4.493312e+001  7.846801e+001 
3918750000  -4.465412e+001  7.504612e+001 
3921875000  -4.360863e+001  7.317325e+001 
3925000000  -4.282076e+001  6.484010e+001 
3928125000  -4.257515e+001  5.377307e+001 
3931250000  -4.346328e+001  4.516221e+001 
3934375000  -4.375280e+001  4.427769e+001 
3937500000  -4.458895e+001  4.440366e+001 
3940625000  -4.440779e+001  4.270576e+001 
3943750000  -4.296585e+001  3.702417e+001 
3946875000  -4.262130e+001  2.649391e+001 
3950000000  -4.364060e+001  1.849438e+001 
3953125000  -4.435199e+001  1.988143e+001 
3956250000  -4.275915e+001  1.732537e+001 
3959375000  -4.178557e+001  9.131421e+000 
3962500000  -4.133659e+001  -6.253890e-001 
3965625000  -4.186737e+001  -9.295492e+000 
3968750000  -4.271104e+001  -2.011159e+001 
3971875000  -4.260062e+001  -2.519404e+001 
3975000000  -4.193648e+001  -2.651722e+001 
3978125000  -4.179606e+001  -3.426091e+001 
3981250000  -4.208047e+001  -4.177932e+001 
3984375000  -4.202237e+001  -4.980663e+001 
3987500000  -4.309121e+001  -5.495066e+001 
3990625000  -4.300601e+001  -5.851380e+001 
3993750000  -4.339306e+001  -6.537595e+001 
3996875000  -4.319250e+001  -7.206320e+001 
4000000000  -4.370883e+001  -7.424497e+001 
4003125000  -4.395863e+001  -7.617794e+001 
4006250000  -4.181727e+001  -8.010610e+001 
4009375000  -4.137820e+001  -9.607962e+001 
4012500000  -4.298024e+001  -1.041524e+002 
4015625000  -4.427483e+001  -1.063102e+002 
4018750000  -4.396772e+001  -1.069547e+002 
4021875000  -4.279811e+001  -1.161822e+002 
4025000000  -4.287329e+001  -1.214519e+002 
4028125000  -4.367648e+001  -1.321669e+002 
4031250000  -4.380947e+001  -1.399379e+002 
4034375000  -4.400465e+001  -1.377758e+002 
4037500000  -4.359731e+001  -1.433889e+002 
4040625000  -4.388449e+001  -1.494185e+002 
4043750000  -4.390938e+001  -1.533710e+002 
4046875000  -4.416523e+001  -1.568748e+002 
4050000000  -4.399733e+001  -1.660665e+002 
4053125000  -4.512677e+001  -1.693033e+002 
4056250000  -4.591088e+001  -1.668831e+002 
4059375000  -4.394191e+001  -1.660842e+002 
4062500000  -4.352229e+001  -1.758279e+002 
4065625000  -4.367846e+001  1.798930e+002 
4068750000  -4.312315e+001  1.687923e+002 
4071875000  -4.258127e+001  1.607915e+002 
4075000000  -4.360242e+001  1.523061e+002 
4078125000  -4.398971e+001  1.513915e+002 
4081250000  -4.344733e+001  1.423811e+002 
4084375000  -4.300549e+001  1.320337e+002 
4087500000  -4.390207e+001  1.251350e+002 
4090625000  -4.432065e+001  1.269240e+002 
4093750000  -4.432837e+001  1.240777e+002 
4096875000  -4.443187e+001  1.165447e+002 
4100000000  -4.529550e+001  1.074813e+002 
4103125000  -4.568242e+001  1.088490e+002 
4106250000  -4.473800e+001  1.137377e+002 
4109375000  -4.429257e+001  1.068446e+002 
4112500000  -4.395686e+001  9.847531e+001 
4115625000  -4.392682e+001  9.354696e+001 
4118750000  -4.435321e+001  8.579157e+001 
4121875000  -4.384536e+001  7.920187e+001 
4125000000  -4.471656e+001  7.413512e+001 
4128125000  -4.511281e+001  7.848550e+001 
4131250000  -4.361381e+001  8.247833e+001 
4134375000  -4.132788e+001  6.687876e+001 
4137500000  -4.208094e+001  4.742153e+001 
4140625000  -4.391776e+001  4.120305e+001 
4143750000  -4.464340e+001  4.487092e+001 
4146875000  -4.396229e+001  4.981781e+001 
4150000000  -4.298070e+001  3.579550e+001 
4153125000  -4.292356e+001  2.832757e+001 
4156250000  -4.409060e+001  2.248049e+001 
4159375000  -4.336570e+001  2.696736e+001 
4162500000  -4.210933e+001  2.314782e+001 
4165625000  -4.148249e+001  1.348444e+001 
4168750000  -4.134050e+001  3.380867e+000 
4171875000  -4.136750e+001  -9.263309e+000 
4175000000  -4.185441e+001  -1.752161e+001 
4178125000  -4.214763e+001  -1.995018e+001 
4181250000  -4.200503e+001  -2.499435e+001 
4184375000  -4.260421e+001  -3.369793e+001 
4187500000  -4.235480e+001  -3.985385e+001 
4190625000  -4.294497e+001  -4.906884e+001 
4193750000  -4.427741e+001  -5.616548e+001 
4196875000  -4.450702e+001  -5.817086e+001 
4200000000  -4.598534e+001  -4.887903e+001 
4203125000  -4.459163e+001  -3.998862e+001 
4206250000  -4.087437e+001  -5.101056e+001 
4209375000  -4.131811e+001  -7.578450e+001 
4212500000  -4.408497e+001  -8.132159e+001 
4215625000  -4.387498e+001  -7.609778e+001 
4218750000  -4.261549e+001  -7.629042e+001 
4221875000  -4.086679e+001  -8.715791e+001 
4225000000  -4.225624e+001  -9.928806e+001 
4228125000  -4.220821e+001  -9.860780e+001 
4231250000  -4.100340e+001  -1.052548e+002 
4234375000  -4.074609e+001  -1.181238e+002 
4237500000  -4.067622e+001  -1.239171e+002 
4240625000  -4.130707e+001  -1.329831e+002 
4243750000  -4.248116e+001  -1.422073e+002 
4246875000  -4.292532e+001  -1.405627e+002 
4250000000  -4.240337e+001  -1.418034e+002 
4253125000  -4.250180e+001  -1.466318e+002 
4256250000  -4.220166e+001  -1.520478e+002 
4259375000  -4.194724e+001  -1.569476e+002 
4262500000  -4.223863e+001  -1.621260e+002 
4265625000  -4.218502e+001  -1.631569e+002 
4268750000  -4.095736e+001  -1.727765e+002 
4271875000  -4.061519e+001  1.769985e+002 
4275000000  -3.994341e+001  1.694360e+002 
4278125000  -4.167017e+001  1.560302e+002 
4281250000  -4.246077e+001  1.534377e+002 
4284375000  -4.199699e+001  1.475997e+002 
4287500000  -4.362973e+001  1.506552e+002 
4290625000  -4.348549e+001  1.550846e+002 
4293750000  -4.148844e+001  1.543938e+002 
4296875000  -4.038906e+001  1.355732e+002 
4300000000  -4.134549e+001  1.277514e+002 
4303125000  -4.198153e+001  1.298439e+002 
4306250000  -4.057278e+001  1.259081e+002 
4309375000  -3.979805e+001  1.188490e+002 
4312500000  -3.949632e+001  1.054390e+002 
4315625000  -3.993756e+001  9.643855e+001 
4318750000  -4.064142e+001  9.249667e+001 
4321875000  -4.094057e+001  8.801973e+001 
4325000000  -4.034791e+001  8.197990e+001 
4328125000  -3.965957e+001  7.326609e+001 
4331250000  -3.979366e+001  6.074947e+001 
4334375000  -4.088614e+001  5.283277e+001 
4337500000  -4.196289e+001  5.125090e+001 
4340625000  -4.207395e+001  5.388339e+001 
4343750000  -4.126062e+001  5.066449e+001 
4346875000  -4.090332e+001  4.070174e+001 
4350000000  -4.104099e+001  2.863200e+001 
4353125000  -4.157130e+001  2.101404e+001 
4356250000  -4.438539e+001  2.573124e+001 
4359375000  -4.258142e+001  3.808738e+001 
4362500000  -3.916648e+001  2.808559e+001 
4365625000  -3.858660e+001  9.230137e+000 
4368750000  -4.013342e+001  -3.140488e+000 
4371875000  -4.120238e+001  -4.672874e+000 
4375000000  -4.051992e+001  -1.027667e+001 
4378125000  -4.027554e+001  -1.747261e+001 
4381250000  -4.068079e+001  -2.708230e+001 
4384375000  -4.046854e+001  -3.151960e+001 
4387500000  -4.151769e+001  -4.072138e+001 
4390625000  -4.208962e+001  -4.251934e+001 
4393750000  -4.167556e+001  -4.177775e+001 
4396875000  -4.090265e+001  -4.812966e+001 
4400000000  -4.094779e+001  -5.822922e+001 
4403125000  -4.133622e+001  -6.943640e+001 
4406250000  -4.217035e+001  -7.268371e+001 
4409375000  -4.246992e+001  -7.708035e+001 
4412500000  -4.350449e+001  -7.978650e+001 
4415625000  -4.321859e+001  -7.846243e+001 
4418750000  -4.190730e+001  -7.632192e+001 
