!Agilent Technologies,E8363B,MY43030201,A.06.04.32
!Agilent E8363B: A.06.04.32
!Date: Tuesday, November 11, 2014 21:42:45
!Correction: S21(Response(S21)) 
!S1P File: Measurement: S21:
# Hz S  dB   R 50
3000000000  -4.353479e+001  -1.582352e+002 
3003125000  -4.545045e+001  -1.629870e+002 
3006250000  -4.527120e+001  -1.649773e+002 
3009375000  -4.607520e+001  -1.606428e+002 
3012500000  -4.493414e+001  -1.694295e+002 
3015625000  -4.480930e+001  -1.758477e+002 
3018750000  -4.531586e+001  -1.756787e+002 
3021875000  -4.383635e+001  -1.770042e+002 
3025000000  -4.262826e+001  -1.786385e+002 
3028125000  -4.170926e+001  1.671366e+002 
3031250000  -4.095646e+001  1.540012e+002 
3034375000  -4.100464e+001  1.399887e+002 
3037500000  -4.134626e+001  1.294933e+002 
3040625000  -4.278390e+001  1.241114e+002 
3043750000  -4.317592e+001  1.161310e+002 
3046875000  -4.407560e+001  1.093470e+002 
3050000000  -4.539669e+001  1.026068e+002 
3053125000  -4.477958e+001  1.084600e+002 
3056250000  -4.463348e+001  1.121727e+002 
3059375000  -4.403538e+001  1.086815e+002 
3062500000  -4.236134e+001  1.024006e+002 
3065625000  -4.197524e+001  9.241570e+001 
3068750000  -4.176948e+001  8.481049e+001 
3071875000  -4.195695e+001  7.965032e+001 
3075000000  -4.115592e+001  7.384549e+001 
3078125000  -4.126144e+001  6.626691e+001 
3081250000  -4.144575e+001  5.970507e+001 
3084375000  -4.037503e+001  5.362392e+001 
3087500000  -4.047697e+001  4.583904e+001 
3090625000  -3.989872e+001  3.383757e+001 
3093750000  -4.102592e+001  2.359486e+001 
3096875000  -4.128421e+001  1.773711e+001 
3100000000  -4.128635e+001  1.470027e+001 
3103125000  -4.135419e+001  9.917056e+000 
3106250000  -4.099780e+001  4.826206e+000 
3109375000  -4.091893e+001  -4.446582e-001 
3112500000  -4.091320e+001  -9.004395e+000 
3115625000  -4.084414e+001  -1.267945e+001 
3118750000  -4.082934e+001  -1.938687e+001 
3121875000  -4.014857e+001  -2.922907e+001 
3125000000  -4.207278e+001  -3.473878e+001 
3128125000  -4.187992e+001  -2.895579e+001 
3131250000  -3.953996e+001  -3.721177e+001 
3134375000  -3.903993e+001  -5.511145e+001 
3137500000  -3.959792e+001  -6.756332e+001 
3140625000  -4.118217e+001  -7.229004e+001 
3143750000  -4.145113e+001  -7.712145e+001 
3146875000  -4.098902e+001  -7.427784e+001 
3150000000  -4.049796e+001  -8.000570e+001 
3153125000  -4.094750e+001  -9.056299e+001 
3156250000  -4.125204e+001  -8.645138e+001 
3159375000  -3.934927e+001  -8.894860e+001 
3162500000  -3.766435e+001  -1.061216e+002 
3165625000  -3.912067e+001  -1.198111e+002 
3168750000  -3.919907e+001  -1.212177e+002 
3171875000  -3.872887e+001  -1.297565e+002 
3175000000  -3.923216e+001  -1.401506e+002 
3178125000  -3.880214e+001  -1.431619e+002 
3181250000  -3.820044e+001  -1.525972e+002 
3184375000  -3.793044e+001  -1.640100e+002 
3187500000  -3.925800e+001  1.791116e+002 
3190625000  -4.070975e+001  1.735443e+002 
3193750000  -4.119738e+001  1.775177e+002 
3196875000  -4.118008e+001  1.772157e+002 
3200000000  -3.993349e+001  1.715883e+002 
3203125000  -3.968991e+001  1.628794e+002 
3206250000  -3.987136e+001  1.543170e+002 
3209375000  -3.945462e+001  1.455224e+002 
3212500000  -4.003555e+001  1.388094e+002 
3215625000  -3.968076e+001  1.358534e+002 
3218750000  -4.026626e+001  1.236687e+002 
3221875000  -4.064959e+001  1.156525e+002 
3225000000  -4.043081e+001  1.104891e+002 
3228125000  -4.107110e+001  1.033725e+002 
3231250000  -4.139473e+001  9.901115e+001 
3234375000  -4.114440e+001  9.608469e+001 
3237500000  -4.114109e+001  9.341524e+001 
3240625000  -4.051976e+001  8.463132e+001 
3243750000  -4.043251e+001  7.445425e+001 
3246875000  -4.069401e+001  6.619660e+001 
3250000000  -4.141054e+001  6.092908e+001 
3253125000  -4.135979e+001  5.570586e+001 
3256250000  -4.038427e+001  4.710578e+001 
3259375000  -4.095039e+001  3.316869e+001 
3262500000  -4.244818e+001  2.889009e+001 
3265625000  -4.272218e+001  3.022419e+001 
3268750000  -4.245901e+001  2.913677e+001 
3271875000  -4.192476e+001  2.296737e+001 
3275000000  -4.116959e+001  1.189849e+001 
3278125000  -4.190166e+001  5.071126e+000 
3281250000  -4.183572e+001  2.293395e+000 
3284375000  -4.115667e+001  -6.353444e+000 
3287500000  -4.159269e+001  -1.375029e+001 
3290625000  -4.142797e+001  -2.455313e+001 
3293750000  -4.166255e+001  -3.100751e+001 
3296875000  -4.273033e+001  -3.562259e+001 
3300000000  -4.223509e+001  -3.837708e+001 
3303125000  -4.104834e+001  -4.876850e+001 
3306250000  -4.082658e+001  -5.772461e+001 
3309375000  -4.065108e+001  -6.918696e+001 
3312500000  -4.121553e+001  -8.338414e+001 
3315625000  -4.250254e+001  -9.128435e+001 
3318750000  -4.396925e+001  -9.897215e+001 
3321875000  -4.517559e+001  -9.532207e+001 
3325000000  -4.538946e+001  -9.289787e+001 
3328125000  -4.452266e+001  -9.599908e+001 
3331250000  -4.253579e+001  -9.648281e+001 
3334375000  -4.003382e+001  -1.151596e+002 
3337500000  -4.100104e+001  -1.394455e+002 
3340625000  -4.286496e+001  -1.497157e+002 
3343750000  -4.451616e+001  -1.487268e+002 
3346875000  -4.437939e+001  -1.540874e+002 
3350000000  -4.396831e+001  -1.613835e+002 
3353125000  -4.357935e+001  -1.693770e+002 
3356250000  -4.343171e+001  -1.787203e+002 
3359375000  -4.443756e+001  1.661288e+002 
3362500000  -4.540821e+001  1.579901e+002 
3365625000  -4.588106e+001  1.569995e+002 
3368750000  -4.658480e+001  1.501337e+002 
3371875000  -4.667226e+001  1.420423e+002 
3375000000  -4.828761e+001  1.330628e+002 
3378125000  -4.980809e+001  1.354049e+002 
3381250000  -5.099924e+001  1.441452e+002 
3384375000  -4.740055e+001  1.560710e+002 
3387500000  -4.530927e+001  1.272073e+002 
3390625000  -4.677911e+001  1.088330e+002 
3393750000  -4.722070e+001  1.053306e+002 
3396875000  -4.682100e+001  1.042987e+002 
3400000000  -4.599492e+001  8.898154e+001 
3403125000  -4.704283e+001  8.059117e+001 
3406250000  -4.756721e+001  7.278659e+001 
3409375000  -4.743368e+001  6.744108e+001 
3412500000  -4.795448e+001  5.433765e+001 
3415625000  -4.884298e+001  5.069262e+001 
3418750000  -4.899816e+001  4.597614e+001 
3421875000  -4.884634e+001  4.609919e+001 
3425000000  -4.774379e+001  3.805722e+001 
3428125000  -4.761509e+001  3.105627e+001 
3431250000  -4.698603e+001  1.524044e+001 
3434375000  -4.704002e+001  3.352647e+000 
3437500000  -4.773103e+001  -4.671751e+000 
3440625000  -4.759913e+001  -5.400251e+000 
3443750000  -4.653136e+001  -9.653247e+000 
3446875000  -4.556888e+001  -2.337267e+001 
3450000000  -4.508431e+001  -4.019061e+001 
3453125000  -4.556776e+001  -5.919429e+001 
3456250000  -4.748227e+001  -6.981949e+001 
3459375000  -4.845045e+001  -6.919299e+001 
3462500000  -4.785430e+001  -7.517289e+001 
3465625000  -4.728552e+001  -8.894290e+001 
3468750000  -4.722463e+001  -9.193610e+001 
3471875000  -4.717561e+001  -1.010153e+002 
3475000000  -4.736269e+001  -1.119085e+002 
3478125000  -4.805262e+001  -1.288763e+002 
3481250000  -4.899968e+001  -1.340166e+002 
3484375000  -4.876631e+001  -1.297377e+002 
3487500000  -4.801654e+001  -1.402640e+002 
3490625000  -4.710497e+001  -1.515034e+002 
3493750000  -4.794678e+001  -1.671641e+002 
3496875000  -4.787558e+001  -1.691528e+002 
3500000000  -4.837086e+001  -1.697999e+002 
3503125000  -4.712621e+001  -1.742110e+002 
3506250000  -4.527244e+001  1.714294e+002 
3509375000  -4.520360e+001  1.533344e+002 
3512500000  -4.561527e+001  1.396369e+002 
3515625000  -4.705610e+001  1.316128e+002 
3518750000  -4.718891e+001  1.312674e+002 
3521875000  -4.749118e+001  1.218113e+002 
3525000000  -4.864765e+001  1.180663e+002 
3528125000  -4.723020e+001  1.205664e+002 
3531250000  -4.665997e+001  1.054889e+002 
3534375000  -4.686573e+001  9.136232e+001 
3537500000  -4.797046e+001  7.836591e+001 
3540625000  -4.866689e+001  7.489722e+001 
3543750000  -4.978462e+001  8.091615e+001 
3546875000  -4.840323e+001  8.407471e+001 
3550000000  -4.625253e+001  7.655935e+001 
3553125000  -4.570733e+001  5.496541e+001 
3556250000  -4.775599e+001  4.692540e+001 
3559375000  -4.652151e+001  4.778074e+001 
3562500000  -4.649780e+001  3.659396e+001 
3565625000  -4.725207e+001  2.825747e+001 
3568750000  -4.760484e+001  2.629370e+001 
3571875000  -4.734437e+001  2.213934e+001 
3575000000  -4.674301e+001  1.390889e+001 
3578125000  -4.784161e+001  9.881369e+000 
3581250000  -4.751063e+001  5.963099e+000 
3584375000  -4.621899e+001  2.537692e+000 
3587500000  -4.562296e+001  -1.341628e+001 
3590625000  -4.645923e+001  -2.130009e+001 
3593750000  -4.757015e+001  -2.286962e+001 
3596875000  -4.676852e+001  -2.044741e+001 
3600000000  -4.480193e+001  -2.922296e+001 
3603125000  -4.518733e+001  -4.372000e+001 
3606250000  -4.607087e+001  -5.027553e+001 
3609375000  -4.622405e+001  -5.267649e+001 
3612500000  -4.610522e+001  -6.212655e+001 
3615625000  -4.585719e+001  -6.467720e+001 
3618750000  -4.635499e+001  -6.701451e+001 
3621875000  -4.536175e+001  -7.418597e+001 
3625000000  -4.593104e+001  -7.685184e+001 
3628125000  -4.486012e+001  -8.461816e+001 
3631250000  -4.524026e+001  -9.319408e+001 
3634375000  -4.561434e+001  -9.603430e+001 
3637500000  -4.454857e+001  -9.683743e+001 
3640625000  -4.360123e+001  -1.029251e+002 
3643750000  -4.298479e+001  -1.157271e+002 
3646875000  -4.364790e+001  -1.270838e+002 
3650000000  -4.414650e+001  -1.321510e+002 
3653125000  -4.309098e+001  -1.397399e+002 
3656250000  -4.420090e+001  -1.462112e+002 
3659375000  -4.382857e+001  -1.484457e+002 
3662500000  -4.352803e+001  -1.564454e+002 
3665625000  -4.358878e+001  -1.595611e+002 
3668750000  -4.193151e+001  -1.654987e+002 
3671875000  -4.161956e+001  -1.791353e+002 
3675000000  -4.218164e+001  1.706976e+002 
3678125000  -4.254602e+001  1.665196e+002 
3681250000  -4.251160e+001  1.610826e+002 
3684375000  -4.254820e+001  1.519295e+002 
3687500000  -4.289146e+001  1.413730e+002 
3690625000  -4.355110e+001  1.354425e+002 
3693750000  -4.415672e+001  1.384324e+002 
3696875000  -4.388860e+001  1.354867e+002 
3700000000  -4.323792e+001  1.239602e+002 
3703125000  -4.355818e+001  1.183310e+002 
3706250000  -4.480783e+001  1.148875e+002 
3709375000  -4.376454e+001  1.138445e+002 
3712500000  -4.302969e+001  1.075687e+002 
3715625000  -4.180708e+001  9.915955e+001 
3718750000  -4.182734e+001  9.029044e+001 
3721875000  -4.194184e+001  7.977744e+001 
3725000000  -4.256635e+001  7.074087e+001 
3728125000  -4.237140e+001  7.034665e+001 
3731250000  -4.210239e+001  6.193649e+001 
3734375000  -4.196839e+001  5.553929e+001 
3737500000  -4.296681e+001  4.688957e+001 
3740625000  -4.360624e+001  4.220094e+001 
3743750000  -4.294453e+001  3.531798e+001 
3746875000  -4.379000e+001  2.894398e+001 
3750000000  -4.374813e+001  2.411717e+001 
3753125000  -4.378331e+001  1.911680e+001 
3756250000  -4.393638e+001  1.802615e+001 
3759375000  -4.380694e+001  1.157992e+001 
3762500000  -4.350972e+001  7.700574e+000 
3765625000  -4.416842e+001  1.690600e+000 
3768750000  -4.357051e+001  2.528407e+000 
3771875000  -4.236145e+001  -4.719853e+000 
3775000000  -4.222688e+001  -1.619760e+001 
3778125000  -4.294847e+001  -2.020481e+001 
3781250000  -4.272162e+001  -2.797218e+001 
3784375000  -4.240157e+001  -3.060862e+001 
3787500000  -4.244273e+001  -3.764318e+001 
3790625000  -4.286657e+001  -4.776091e+001 
3793750000  -4.256400e+001  -5.202695e+001 
3796875000  -4.168701e+001  -5.623668e+001 
3800000000  -4.067514e+001  -6.286090e+001 
3803125000  -4.178101e+001  -7.615343e+001 
3806250000  -4.269812e+001  -8.134362e+001 
3809375000  -4.210021e+001  -8.447710e+001 
3812500000  -4.184820e+001  -9.752034e+001 
3815625000  -4.286670e+001  -1.075263e+002 
3818750000  -4.441882e+001  -1.030306e+002 
3821875000  -4.370085e+001  -9.564200e+001 
3825000000  -4.172517e+001  -1.021667e+002 
3828125000  -4.057204e+001  -1.225489e+002 
3831250000  -4.171971e+001  -1.375392e+002 
3834375000  -4.360899e+001  -1.378354e+002 
3837500000  -4.364456e+001  -1.350737e+002 
3840625000  -4.260867e+001  -1.416883e+002 
3843750000  -4.199412e+001  -1.548070e+002 
3846875000  -4.354085e+001  -1.634482e+002 
3850000000  -4.404193e+001  -1.560753e+002 
3853125000  -4.384752e+001  -1.595682e+002 
3856250000  -4.329124e+001  -1.660998e+002 
3859375000  -4.201124e+001  -1.743437e+002 
3862500000  -4.217712e+001  1.743373e+002 
3865625000  -4.259435e+001  1.674770e+002 
3868750000  -4.241302e+001  1.655556e+002 
3871875000  -4.183377e+001  1.556484e+002 
3875000000  -4.246985e+001  1.454085e+002 
3878125000  -4.350326e+001  1.442105e+002 
3881250000  -4.356374e+001  1.407144e+002 
3884375000  -4.285770e+001  1.328012e+002 
3887500000  -4.337560e+001  1.243974e+002 
3890625000  -4.389192e+001  1.191271e+002 
3893750000  -4.435318e+001  1.184031e+002 
3896875000  -4.443145e+001  1.139794e+002 
3900000000  -4.459928e+001  1.105245e+002 
3903125000  -4.388942e+001  1.024066e+002 
3906250000  -4.340534e+001  1.012398e+002 
3909375000  -4.300491e+001  9.134357e+001 
3912500000  -4.409826e+001  8.530512e+001 
3915625000  -4.504253e+001  8.055333e+001 
3918750000  -4.492252e+001  8.085430e+001 
3921875000  -4.386247e+001  7.667873e+001 
3925000000  -4.352160e+001  7.139369e+001 
3928125000  -4.289032e+001  6.126784e+001 
3931250000  -4.380077e+001  5.231188e+001 
3934375000  -4.426614e+001  4.983161e+001 
3937500000  -4.475591e+001  4.853806e+001 
3940625000  -4.431814e+001  4.903856e+001 
3943750000  -4.330901e+001  4.168487e+001 
3946875000  -4.324366e+001  3.438078e+001 
3950000000  -4.409981e+001  2.346963e+001 
3953125000  -4.480174e+001  2.994196e+001 
3956250000  -4.352130e+001  2.165587e+001 
3959375000  -4.247954e+001  1.690454e+001 
3962500000  -4.144579e+001  5.862579e+000 
3965625000  -4.188845e+001  -3.070704e+000 
3968750000  -4.254781e+001  -1.171323e+001 
3971875000  -4.240253e+001  -1.884028e+001 
3975000000  -4.224161e+001  -2.272030e+001 
3978125000  -4.216596e+001  -2.875573e+001 
3981250000  -4.211536e+001  -3.574762e+001 
3984375000  -4.270596e+001  -4.316471e+001 
3987500000  -4.304731e+001  -4.850352e+001 
3990625000  -4.305293e+001  -5.069661e+001 
3993750000  -4.338736e+001  -5.758286e+001 
3996875000  -4.342419e+001  -6.395782e+001 
4000000000  -4.401875e+001  -6.571037e+001 
4003125000  -4.420118e+001  -6.771812e+001 
4006250000  -4.207801e+001  -7.651687e+001 
4009375000  -4.177543e+001  -9.064109e+001 
4012500000  -4.316262e+001  -9.832243e+001 
4015625000  -4.446877e+001  -9.837859e+001 
4018750000  -4.432593e+001  -1.036734e+002 
4021875000  -4.345607e+001  -1.094184e+002 
4025000000  -4.340392e+001  -1.201693e+002 
4028125000  -4.307752e+001  -1.262786e+002 
4031250000  -4.437898e+001  -1.317367e+002 
4034375000  -4.430408e+001  -1.339049e+002 
4037500000  -4.428528e+001  -1.382832e+002 
4040625000  -4.402560e+001  -1.443636e+002 
4043750000  -4.504594e+001  -1.468355e+002 
4046875000  -4.476707e+001  -1.540932e+002 
4050000000  -4.455616e+001  -1.588575e+002 
4053125000  -4.515678e+001  -1.624622e+002 
4056250000  -4.573820e+001  -1.602742e+002 
4059375000  -4.367501e+001  -1.609545e+002 
4062500000  -4.372666e+001  -1.718197e+002 
4065625000  -4.361298e+001  -1.774048e+002 
4068750000  -4.322661e+001  1.740483e+002 
4071875000  -4.316924e+001  1.643019e+002 
4075000000  -4.378852e+001  1.566465e+002 
4078125000  -4.463002e+001  1.529111e+002 
4081250000  -4.383025e+001  1.483432e+002 
4084375000  -4.377272e+001  1.406972e+002 
4087500000  -4.398278e+001  1.302029e+002 
4090625000  -4.489001e+001  1.306921e+002 
4093750000  -4.472719e+001  1.267878e+002 
4096875000  -4.468610e+001  1.238478e+002 
4100000000  -4.535537e+001  1.132441e+002 
4103125000  -4.594621e+001  1.214032e+002 
4106250000  -4.564857e+001  1.205082e+002 
4109375000  -4.493299e+001  1.148199e+002 
4112500000  -4.486944e+001  1.056583e+002 
4115625000  -4.449969e+001  9.955511e+001 
4118750000  -4.458451e+001  9.386059e+001 
4121875000  -4.442474e+001  8.652356e+001 
4125000000  -4.510295e+001  8.035575e+001 
4128125000  -4.513479e+001  8.401150e+001 
4131250000  -4.420522e+001  8.479779e+001 
4134375000  -4.200924e+001  7.598033e+001 
4137500000  -4.295034e+001  5.244065e+001 
4140625000  -4.457747e+001  4.669129e+001 
4143750000  -4.537625e+001  5.649673e+001 
4146875000  -4.398711e+001  5.499886e+001 
4150000000  -4.308624e+001  4.443623e+001 
4153125000  -4.351614e+001  3.471977e+001 
4156250000  -4.417488e+001  3.016373e+001 
4159375000  -4.388369e+001  3.353841e+001 
4162500000  -4.272772e+001  3.238528e+001 
4165625000  -4.171367e+001  2.011766e+001 
4168750000  -4.141690e+001  1.060537e+001 
4171875000  -4.160358e+001  -2.463165e+000 
4175000000  -4.234740e+001  -9.843235e+000 
4178125000  -4.267099e+001  -1.267616e+001 
4181250000  -4.271264e+001  -2.033222e+001 
4184375000  -4.310745e+001  -2.723217e+001 
4187500000  -4.278743e+001  -3.149261e+001 
4190625000  -4.307360e+001  -4.337858e+001 
4193750000  -4.430135e+001  -4.711542e+001 
4196875000  -4.547610e+001  -5.114649e+001 
4200000000  -4.585809e+001  -4.639240e+001 
4203125000  -4.451905e+001  -3.374782e+001 
4206250000  -4.132327e+001  -4.249825e+001 
4209375000  -4.152185e+001  -7.092771e+001 
4212500000  -4.457405e+001  -7.719876e+001 
4215625000  -4.454580e+001  -6.621796e+001 
4218750000  -4.319859e+001  -7.254069e+001 
4221875000  -4.171721e+001  -7.991113e+001 
4225000000  -4.288248e+001  -9.135889e+001 
4228125000  -4.276883e+001  -9.198402e+001 
4231250000  -4.147619e+001  -9.825236e+001 
4234375000  -4.160767e+001  -1.121300e+002 
4237500000  -4.129418e+001  -1.163749e+002 
4240625000  -4.131902e+001  -1.268163e+002 
4243750000  -4.241615e+001  -1.368754e+002 
4246875000  -4.348082e+001  -1.354482e+002 
4250000000  -4.316172e+001  -1.369925e+002 
4253125000  -4.316845e+001  -1.367016e+002 
4256250000  -4.286224e+001  -1.439752e+002 
4259375000  -4.247084e+001  -1.511370e+002 
4262500000  -4.284668e+001  -1.549091e+002 
4265625000  -4.208269e+001  -1.571812e+002 
4268750000  -4.114174e+001  -1.641406e+002 
4271875000  -4.129507e+001  -1.759453e+002 
4275000000  -4.061911e+001  1.776499e+002 
4278125000  -4.176531e+001  1.621223e+002 
4281250000  -4.303111e+001  1.597753e+002 
4284375000  -4.287532e+001  1.586621e+002 
4287500000  -4.399331e+001  1.527771e+002 
4290625000  -4.452063e+001  1.627052e+002 
4293750000  -4.191930e+001  1.612924e+002 
4296875000  -4.076847e+001  1.445210e+002 
4300000000  -4.167277e+001  1.338477e+002 
4303125000  -4.232558e+001  1.370796e+002 
4306250000  -4.106758e+001  1.349899e+002 
4309375000  -4.049442e+001  1.253160e+002 
4312500000  -3.999742e+001  1.139485e+002 
4315625000  -4.032696e+001  1.028133e+002 
4318750000  -4.125897e+001  9.839130e+001 
4321875000  -4.106444e+001  9.726917e+001 
4325000000  -4.036063e+001  9.192651e+001 
4328125000  -3.985448e+001  8.059383e+001 
4331250000  -4.016587e+001  7.052705e+001 
4334375000  -4.120882e+001  6.047230e+001 
4337500000  -4.262105e+001  5.701504e+001 
4340625000  -4.286135e+001  6.156701e+001 
4343750000  -4.149914e+001  5.608112e+001 
4346875000  -4.158819e+001  4.776254e+001 
4350000000  -4.137761e+001  3.780330e+001 
4353125000  -4.250966e+001  2.885426e+001 
4356250000  -4.464381e+001  3.358315e+001 
4359375000  -4.333751e+001  4.416588e+001 
4362500000  -3.998872e+001  3.615201e+001 
4365625000  -3.934681e+001  1.447707e+001 
4368750000  -4.097770e+001  5.408473e+000 
4371875000  -4.160623e+001  3.697011e+000 
4375000000  -4.101524e+001  -1.447072e+000 
4378125000  -4.100360e+001  -8.346767e+000 
4381250000  -4.125808e+001  -1.705301e+001 
4384375000  -4.127547e+001  -2.275143e+001 
4387500000  -4.208025e+001  -3.163997e+001 
4390625000  -4.302872e+001  -3.251440e+001 
4393750000  -4.230610e+001  -3.544357e+001 
4396875000  -4.158156e+001  -3.908486e+001 
4400000000  -4.126940e+001  -4.936561e+001 
4403125000  -4.216833e+001  -5.893369e+001 
4406250000  -4.256871e+001  -6.446577e+001 
4409375000  -4.321989e+001  -7.099812e+001 
4412500000  -4.421995e+001  -7.124044e+001 
4415625000  -4.367204e+001  -6.669073e+001 
4418750000  -4.220338e+001  -6.937928e+001 
