!Agilent Technologies,E8363B,MY43030201,A.06.04.32
!Agilent E8363B: A.06.04.32
!Date: Tuesday, November 11, 2014 21:42:02
!Correction: S21(Response(S21)) 
!S1P File: Measurement: S21:
# Hz S  dB   R 50
3000000000  -4.353397e+001  -1.585583e+002 
3003125000  -4.526512e+001  -1.640194e+002 
3006250000  -4.537943e+001  -1.649706e+002 
3009375000  -4.590136e+001  -1.606546e+002 
3012500000  -4.478037e+001  -1.672921e+002 
3015625000  -4.511485e+001  -1.758261e+002 
3018750000  -4.555129e+001  -1.730727e+002 
3021875000  -4.412054e+001  -1.771469e+002 
3025000000  -4.258970e+001  -1.790381e+002 
3028125000  -4.198598e+001  1.675990e+002 
3031250000  -4.077456e+001  1.546133e+002 
3034375000  -4.063062e+001  1.414815e+002 
3037500000  -4.157750e+001  1.294595e+002 
3040625000  -4.301924e+001  1.241345e+002 
3043750000  -4.348324e+001  1.173524e+002 
3046875000  -4.432165e+001  1.095844e+002 
3050000000  -4.571835e+001  1.036709e+002 
3053125000  -4.451988e+001  1.088832e+002 
3056250000  -4.468942e+001  1.115708e+002 
3059375000  -4.399364e+001  1.094600e+002 
3062500000  -4.242808e+001  1.026726e+002 
3065625000  -4.202216e+001  9.286728e+001 
3068750000  -4.194682e+001  8.463692e+001 
3071875000  -4.173493e+001  8.311546e+001 
3075000000  -4.115610e+001  7.324569e+001 
3078125000  -4.127413e+001  6.625558e+001 
3081250000  -4.128049e+001  5.988990e+001 
3084375000  -4.033897e+001  5.499287e+001 
3087500000  -4.051818e+001  4.637108e+001 
3090625000  -3.998775e+001  3.404316e+001 
3093750000  -4.092769e+001  2.502688e+001 
3096875000  -4.119916e+001  1.964975e+001 
3100000000  -4.114239e+001  1.412893e+001 
3103125000  -4.132008e+001  1.103634e+001 
3106250000  -4.100803e+001  5.191686e+000 
3109375000  -4.096266e+001  -3.730169e-001 
3112500000  -4.081572e+001  -7.928925e+000 
3115625000  -4.088837e+001  -1.218940e+001 
3118750000  -4.069147e+001  -1.705459e+001 
3121875000  -4.007423e+001  -2.905401e+001 
3125000000  -4.222632e+001  -3.378697e+001 
3128125000  -4.205747e+001  -2.810533e+001 
3131250000  -3.960825e+001  -3.630020e+001 
3134375000  -3.880691e+001  -5.363220e+001 
3137500000  -3.968768e+001  -6.718419e+001 
3140625000  -4.089123e+001  -7.175340e+001 
3143750000  -4.173729e+001  -7.644229e+001 
3146875000  -4.111354e+001  -7.309267e+001 
3150000000  -4.048080e+001  -7.963199e+001 
3153125000  -4.092022e+001  -8.804601e+001 
3156250000  -4.156691e+001  -8.576420e+001 
3159375000  -3.922932e+001  -8.919312e+001 
3162500000  -3.789308e+001  -1.050971e+002 
3165625000  -3.909366e+001  -1.189316e+002 
3168750000  -3.905494e+001  -1.218195e+002 
3171875000  -3.866814e+001  -1.292881e+002 
3175000000  -3.909637e+001  -1.407309e+002 
3178125000  -3.874649e+001  -1.422099e+002 
3181250000  -3.831646e+001  -1.511305e+002 
3184375000  -3.791306e+001  -1.630880e+002 
3187500000  -3.905973e+001  -1.787061e+002 
3190625000  -4.099722e+001  1.730233e+002 
3193750000  -4.129118e+001  1.787391e+002 
3196875000  -4.115252e+001  1.769839e+002 
3200000000  -3.990976e+001  1.718319e+002 
3203125000  -3.966538e+001  1.637426e+002 
3206250000  -3.991437e+001  1.545745e+002 
3209375000  -3.941476e+001  1.472951e+002 
3212500000  -3.997687e+001  1.375508e+002 
3215625000  -3.963406e+001  1.354508e+002 
3218750000  -4.059680e+001  1.240760e+002 
3221875000  -4.063873e+001  1.170532e+002 
3225000000  -4.047274e+001  1.113022e+002 
3228125000  -4.115803e+001  1.034285e+002 
3231250000  -4.139205e+001  1.006193e+002 
3234375000  -4.112117e+001  9.564641e+001 
3237500000  -4.103588e+001  9.330910e+001 
3240625000  -4.035037e+001  8.638340e+001 
3243750000  -4.056077e+001  7.429485e+001 
3246875000  -4.066064e+001  6.750648e+001 
3250000000  -4.120037e+001  6.140727e+001 
3253125000  -4.120750e+001  5.769497e+001 
3256250000  -4.067875e+001  4.797262e+001 
3259375000  -4.094276e+001  3.365982e+001 
3262500000  -4.249334e+001  3.030233e+001 
3265625000  -4.268131e+001  3.032677e+001 
3268750000  -4.250816e+001  3.014277e+001 
3271875000  -4.174974e+001  2.313668e+001 
3275000000  -4.105919e+001  1.303305e+001 
3278125000  -4.182689e+001  7.099880e+000 
3281250000  -4.200758e+001  2.175854e+000 
3284375000  -4.111821e+001  -5.685874e+000 
3287500000  -4.162349e+001  -1.371611e+001 
3290625000  -4.167683e+001  -2.276084e+001 
3293750000  -4.163575e+001  -3.081472e+001 
3296875000  -4.268328e+001  -3.739327e+001 
3300000000  -4.230091e+001  -3.665631e+001 
3303125000  -4.103741e+001  -4.733802e+001 
3306250000  -4.119499e+001  -5.727462e+001 
3309375000  -4.067576e+001  -6.909743e+001 
3312500000  -4.125329e+001  -8.296869e+001 
3315625000  -4.249300e+001  -9.097139e+001 
3318750000  -4.408458e+001  -9.636993e+001 
3321875000  -4.561061e+001  -9.755817e+001 
3325000000  -4.479631e+001  -9.266293e+001 
3328125000  -4.452714e+001  -9.851492e+001 
3331250000  -4.249710e+001  -9.544374e+001 
3334375000  -4.008007e+001  -1.150976e+002 
3337500000  -4.109292e+001  -1.386383e+002 
3340625000  -4.291965e+001  -1.483307e+002 
3343750000  -4.482487e+001  -1.500122e+002 
3346875000  -4.403346e+001  -1.529379e+002 
3350000000  -4.361139e+001  -1.596897e+002 
3353125000  -4.362843e+001  -1.685653e+002 
3356250000  -4.344329e+001  1.793667e+002 
3359375000  -4.469449e+001  1.677779e+002 
3362500000  -4.522808e+001  1.590935e+002 
3365625000  -4.603021e+001  1.534658e+002 
3368750000  -4.654104e+001  1.481479e+002 
3371875000  -4.688322e+001  1.396087e+002 
3375000000  -4.885950e+001  1.320621e+002 
3378125000  -4.944664e+001  1.346574e+002 
3381250000  -5.171650e+001  1.473367e+002 
3384375000  -4.788721e+001  1.540071e+002 
3387500000  -4.501867e+001  1.286255e+002 
3390625000  -4.682697e+001  1.091022e+002 
3393750000  -4.792708e+001  1.086258e+002 
3396875000  -4.639767e+001  1.019031e+002 
3400000000  -4.602415e+001  8.882533e+001 
3403125000  -4.769188e+001  8.265270e+001 
3406250000  -4.774298e+001  7.179040e+001 
3409375000  -4.750865e+001  6.382187e+001 
3412500000  -4.840147e+001  5.648297e+001 
3415625000  -4.877086e+001  5.429719e+001 
3418750000  -4.934966e+001  4.566132e+001 
3421875000  -4.920380e+001  4.350320e+001 
3425000000  -4.777201e+001  3.637968e+001 
3428125000  -4.708487e+001  3.122232e+001 
3431250000  -4.663672e+001  1.705452e+001 
3434375000  -4.715830e+001  4.772787e+000 
3437500000  -4.740673e+001  -6.047991e+000 
3440625000  -4.781742e+001  -5.616034e+000 
3443750000  -4.654903e+001  -1.131920e+001 
3446875000  -4.567548e+001  -2.444589e+001 
3450000000  -4.539397e+001  -4.208955e+001 
3453125000  -4.582421e+001  -5.756075e+001 
3456250000  -4.739590e+001  -6.705682e+001 
3459375000  -4.843047e+001  -6.922556e+001 
3462500000  -4.798753e+001  -7.796225e+001 
3465625000  -4.717498e+001  -8.621754e+001 
3468750000  -4.775220e+001  -9.469308e+001 
3471875000  -4.722196e+001  -1.016764e+002 
3475000000  -4.684290e+001  -1.114134e+002 
3478125000  -4.732625e+001  -1.288791e+002 
3481250000  -4.881888e+001  -1.327599e+002 
3484375000  -4.812007e+001  -1.309780e+002 
3487500000  -4.777937e+001  -1.379388e+002 
3490625000  -4.718724e+001  -1.480321e+002 
3493750000  -4.799683e+001  -1.635795e+002 
3496875000  -4.821407e+001  -1.680040e+002 
3500000000  -4.793298e+001  -1.690083e+002 
3503125000  -4.692448e+001  -1.722149e+002 
3506250000  -4.545326e+001  1.728899e+002 
3509375000  -4.560292e+001  1.545961e+002 
3512500000  -4.593645e+001  1.380673e+002 
3515625000  -4.728475e+001  1.339072e+002 
3518750000  -4.763744e+001  1.329068e+002 
3521875000  -4.796837e+001  1.228161e+002 
3525000000  -4.826035e+001  1.177101e+002 
3528125000  -4.756347e+001  1.207116e+002 
3531250000  -4.674971e+001  1.084523e+002 
3534375000  -4.674923e+001  9.055482e+001 
3537500000  -4.797248e+001  7.909391e+001 
3540625000  -4.908774e+001  7.676716e+001 
3543750000  -4.959731e+001  8.132693e+001 
3546875000  -4.844298e+001  8.776675e+001 
3550000000  -4.652162e+001  7.632812e+001 
3553125000  -4.602386e+001  5.847211e+001 
3556250000  -4.697204e+001  4.980096e+001 
3559375000  -4.651136e+001  4.715216e+001 
3562500000  -4.711102e+001  3.586547e+001 
3565625000  -4.760326e+001  2.704053e+001 
3568750000  -4.786061e+001  2.908672e+001 
3571875000  -4.717500e+001  2.508441e+001 
3575000000  -4.671270e+001  1.499486e+001 
3578125000  -4.775414e+001  1.184819e+001 
3581250000  -4.792759e+001  6.212336e+000 
3584375000  -4.612371e+001  2.283889e+000 
3587500000  -4.591301e+001  -1.149708e+001 
3590625000  -4.626749e+001  -2.346562e+001 
3593750000  -4.773201e+001  -1.943943e+001 
3596875000  -4.698124e+001  -2.078663e+001 
3600000000  -4.473411e+001  -2.974699e+001 
3603125000  -4.523331e+001  -4.394801e+001 
3606250000  -4.623600e+001  -4.969541e+001 
3609375000  -4.610236e+001  -5.375880e+001 
3612500000  -4.589338e+001  -5.906173e+001 
3615625000  -4.628578e+001  -6.543077e+001 
3618750000  -4.649642e+001  -7.039707e+001 
3621875000  -4.552679e+001  -7.490959e+001 
3625000000  -4.547997e+001  -7.680332e+001 
3628125000  -4.475696e+001  -8.721105e+001 
3631250000  -4.502423e+001  -9.385242e+001 
3634375000  -4.591379e+001  -9.423595e+001 
3637500000  -4.424379e+001  -9.554076e+001 
3640625000  -4.367704e+001  -1.028348e+002 
3643750000  -4.341813e+001  -1.142482e+002 
3646875000  -4.363916e+001  -1.267744e+002 
3650000000  -4.365059e+001  -1.311806e+002 
3653125000  -4.329268e+001  -1.389502e+002 
3656250000  -4.385799e+001  -1.433044e+002 
3659375000  -4.383946e+001  -1.491422e+002 
3662500000  -4.343647e+001  -1.538844e+002 
3665625000  -4.339503e+001  -1.603910e+002 
3668750000  -4.201496e+001  -1.637404e+002 
3671875000  -4.148653e+001  -1.790043e+002 
3675000000  -4.171416e+001  1.723357e+002 
3678125000  -4.292175e+001  1.663190e+002 
3681250000  -4.228222e+001  1.594466e+002 
3684375000  -4.263716e+001  1.514504e+002 
3687500000  -4.304663e+001  1.449336e+002 
3690625000  -4.350018e+001  1.369694e+002 
3693750000  -4.451568e+001  1.370404e+002 
3696875000  -4.390620e+001  1.343202e+002 
3700000000  -4.309912e+001  1.257332e+002 
3703125000  -4.366621e+001  1.155869e+002 
3706250000  -4.511951e+001  1.140460e+002 
3709375000  -4.379926e+001  1.143521e+002 
3712500000  -4.316177e+001  1.081560e+002 
3715625000  -4.200199e+001  1.012058e+002 
3718750000  -4.199708e+001  9.157469e+001 
3721875000  -4.156408e+001  8.188659e+001 
3725000000  -4.261745e+001  7.173720e+001 
3728125000  -4.272864e+001  6.996166e+001 
3731250000  -4.198761e+001  6.296079e+001 
3734375000  -4.192957e+001  5.680189e+001 
3737500000  -4.294667e+001  4.680346e+001 
3740625000  -4.332715e+001  4.300349e+001 
3743750000  -4.293756e+001  3.401569e+001 
3746875000  -4.332579e+001  2.876350e+001 
3750000000  -4.375527e+001  2.527847e+001 
3753125000  -4.384941e+001  2.251700e+001 
3756250000  -4.405297e+001  1.946200e+001 
3759375000  -4.369439e+001  1.396231e+001 
3762500000  -4.329564e+001  7.983835e+000 
3765625000  -4.418113e+001  1.354904e+000 
3768750000  -4.352163e+001  5.305583e+000 
3771875000  -4.200197e+001  -3.075825e+000 
3775000000  -4.214571e+001  -1.535165e+001 
3778125000  -4.309534e+001  -2.119746e+001 
3781250000  -4.273825e+001  -2.754051e+001 
3784375000  -4.241863e+001  -3.199682e+001 
3787500000  -4.234161e+001  -3.880188e+001 
3790625000  -4.275125e+001  -4.904168e+001 
3793750000  -4.297126e+001  -5.147122e+001 
3796875000  -4.173075e+001  -5.560614e+001 
3800000000  -4.073890e+001  -6.183551e+001 
3803125000  -4.196507e+001  -7.564673e+001 
3806250000  -4.253661e+001  -8.040513e+001 
3809375000  -4.208108e+001  -8.445585e+001 
3812500000  -4.192755e+001  -9.539021e+001 
3815625000  -4.297875e+001  -1.070480e+002 
3818750000  -4.464431e+001  -1.030586e+002 
3821875000  -4.363991e+001  -9.401192e+001 
3825000000  -4.168297e+001  -9.955463e+001 
3828125000  -4.033874e+001  -1.209051e+002 
3831250000  -4.171641e+001  -1.358211e+002 
3834375000  -4.353512e+001  -1.360073e+002 
3837500000  -4.385442e+001  -1.353045e+002 
3840625000  -4.241965e+001  -1.397582e+002 
3843750000  -4.143107e+001  -1.550801e+002 
3846875000  -4.339303e+001  -1.650716e+002 
3850000000  -4.424345e+001  -1.558731e+002 
3853125000  -4.371415e+001  -1.567299e+002 
3856250000  -4.291253e+001  -1.688977e+002 
3859375000  -4.228505e+001  -1.735270e+002 
3862500000  -4.222501e+001  1.742601e+002 
3865625000  -4.284793e+001  1.675972e+002 
3868750000  -4.238219e+001  1.652526e+002 
3871875000  -4.196507e+001  1.555466e+002 
3875000000  -4.258972e+001  1.453669e+002 
3878125000  -4.354946e+001  1.426823e+002 
3881250000  -4.340924e+001  1.403120e+002 
3884375000  -4.292918e+001  1.323510e+002 
3887500000  -4.305666e+001  1.254830e+002 
3890625000  -4.418776e+001  1.207958e+002 
3893750000  -4.435776e+001  1.193581e+002 
3896875000  -4.460743e+001  1.165518e+002 
3900000000  -4.448537e+001  1.119343e+002 
3903125000  -4.388719e+001  1.085424e+002 
3906250000  -4.376764e+001  1.026208e+002 
3909375000  -4.279343e+001  9.297141e+001 
3912500000  -4.415842e+001  8.659463e+001 
3915625000  -4.514286e+001  8.350787e+001 
3918750000  -4.452716e+001  8.012831e+001 
3921875000  -4.357666e+001  7.771102e+001 
3925000000  -4.339885e+001  6.913457e+001 
3928125000  -4.257676e+001  6.220607e+001 
3931250000  -4.364084e+001  5.177296e+001 
3934375000  -4.467622e+001  5.118612e+001 
3937500000  -4.474129e+001  4.508521e+001 
3940625000  -4.501573e+001  4.578912e+001 
3943750000  -4.372456e+001  4.342743e+001 
3946875000  -4.328733e+001  3.184750e+001 
3950000000  -4.445441e+001  2.170499e+001 
3953125000  -4.481085e+001  2.360256e+001 
3956250000  -4.294846e+001  2.515763e+001 
3959375000  -4.207632e+001  1.875739e+001 
3962500000  -4.160898e+001  7.813134e+000 
3965625000  -4.194522e+001  -4.078423e+000 
3968750000  -4.264814e+001  -1.296698e+001 
3971875000  -4.275381e+001  -1.525565e+001 
3975000000  -4.221122e+001  -2.095085e+001 
3978125000  -4.212993e+001  -2.697044e+001 
3981250000  -4.185431e+001  -3.463172e+001 
3984375000  -4.267491e+001  -4.066521e+001 
3987500000  -4.296915e+001  -4.852181e+001 
3990625000  -4.340524e+001  -5.228806e+001 
3993750000  -4.287340e+001  -5.970032e+001 
3996875000  -4.332641e+001  -6.530975e+001 
4000000000  -4.404562e+001  -6.927798e+001 
4003125000  -4.384440e+001  -6.844922e+001 
4006250000  -4.200891e+001  -7.135814e+001 
4009375000  -4.161605e+001  -8.869431e+001 
4012500000  -4.314898e+001  -9.740452e+001 
4015625000  -4.430579e+001  -9.979628e+001 
4018750000  -4.434863e+001  -1.035029e+002 
4021875000  -4.326777e+001  -1.112124e+002 
4025000000  -4.320970e+001  -1.170921e+002 
4028125000  -4.310303e+001  -1.247434e+002 
4031250000  -4.406862e+001  -1.312294e+002 
4034375000  -4.395739e+001  -1.340620e+002 
4037500000  -4.405220e+001  -1.386873e+002 
4040625000  -4.441422e+001  -1.446422e+002 
4043750000  -4.474903e+001  -1.466887e+002 
4046875000  -4.469500e+001  -1.527178e+002 
4050000000  -4.455015e+001  -1.592822e+002 
4053125000  -4.584422e+001  -1.617086e+002 
4056250000  -4.579847e+001  -1.590336e+002 
4059375000  -4.440898e+001  -1.618451e+002 
4062500000  -4.352495e+001  -1.723593e+002 
4065625000  -4.384460e+001  -1.743799e+002 
4068750000  -4.333252e+001  1.774677e+002 
4071875000  -4.329912e+001  1.641040e+002 
4075000000  -4.368594e+001  1.571000e+002 
4078125000  -4.450985e+001  1.557619e+002 
4081250000  -4.384983e+001  1.493154e+002 
4084375000  -4.369496e+001  1.426799e+002 
4087500000  -4.416637e+001  1.347244e+002 
4090625000  -4.513630e+001  1.324679e+002 
4093750000  -4.465657e+001  1.294577e+002 
4096875000  -4.489882e+001  1.215897e+002 
4100000000  -4.573458e+001  1.146753e+002 
4103125000  -4.599518e+001  1.198683e+002 
4106250000  -4.554061e+001  1.221903e+002 
4109375000  -4.460917e+001  1.127490e+002 
4112500000  -4.403828e+001  1.043686e+002 
4115625000  -4.422733e+001  1.017805e+002 
4118750000  -4.431703e+001  9.601447e+001 
4121875000  -4.439361e+001  9.021967e+001 
4125000000  -4.523398e+001  8.044245e+001 
4128125000  -4.602855e+001  8.299648e+001 
4131250000  -4.424355e+001  8.794263e+001 
4134375000  -4.239917e+001  7.569788e+001 
4137500000  -4.271208e+001  5.462851e+001 
4140625000  -4.419038e+001  4.892979e+001 
4143750000  -4.496388e+001  5.030027e+001 
4146875000  -4.422295e+001  5.420699e+001 
4150000000  -4.291790e+001  4.401065e+001 
4153125000  -4.361861e+001  3.299891e+001 
4156250000  -4.473137e+001  2.937223e+001 
4159375000  -4.401114e+001  3.333031e+001 
4162500000  -4.285785e+001  3.083789e+001 
4165625000  -4.200705e+001  2.174755e+001 
4168750000  -4.143413e+001  1.088896e+001 
4171875000  -4.146524e+001  -8.328009e-001 
4175000000  -4.246341e+001  -9.146506e+000 
4178125000  -4.276494e+001  -1.420775e+001 
4181250000  -4.236192e+001  -1.877585e+001 
4184375000  -4.325440e+001  -2.346925e+001 
4187500000  -4.284550e+001  -3.227470e+001 
4190625000  -4.335589e+001  -4.207823e+001 
4193750000  -4.445446e+001  -4.854321e+001 
4196875000  -4.507401e+001  -4.944465e+001 
4200000000  -4.632038e+001  -4.713152e+001 
4203125000  -4.478548e+001  -2.942630e+001 
4206250000  -4.186002e+001  -4.552483e+001 
4209375000  -4.171869e+001  -6.796966e+001 
4212500000  -4.412180e+001  -7.293041e+001 
4215625000  -4.477086e+001  -6.658266e+001 
4218750000  -4.299444e+001  -6.565805e+001 
4221875000  -4.131939e+001  -8.030135e+001 
4225000000  -4.300726e+001  -9.029353e+001 
4228125000  -4.258718e+001  -8.633506e+001 
4231250000  -4.113011e+001  -9.726962e+001 
4234375000  -4.163002e+001  -1.103922e+002 
4237500000  -4.115039e+001  -1.142174e+002 
4240625000  -4.151250e+001  -1.230137e+002 
4243750000  -4.291983e+001  -1.341937e+002 
4246875000  -4.378259e+001  -1.333557e+002 
4250000000  -4.339636e+001  -1.340688e+002 
4253125000  -4.343710e+001  -1.375104e+002 
4256250000  -4.332415e+001  -1.440622e+002 
4259375000  -4.255756e+001  -1.505341e+002 
4262500000  -4.283205e+001  -1.548866e+002 
4265625000  -4.259014e+001  -1.545621e+002 
4268750000  -4.127104e+001  -1.626079e+002 
4271875000  -4.095465e+001  -1.758684e+002 
4275000000  -4.069917e+001  1.783286e+002 
4278125000  -4.168364e+001  1.652751e+002 
4281250000  -4.286100e+001  1.630556e+002 
4284375000  -4.293610e+001  1.588224e+002 
4287500000  -4.409910e+001  1.548078e+002 
4290625000  -4.400196e+001  1.610953e+002 
4293750000  -4.225314e+001  1.614467e+002 
4296875000  -4.070124e+001  1.450530e+002 
4300000000  -4.191467e+001  1.344146e+002 
4303125000  -4.264032e+001  1.371062e+002 
4306250000  -4.103106e+001  1.380212e+002 
4309375000  -4.005397e+001  1.278097e+002 
4312500000  -4.002902e+001  1.133309e+002 
4315625000  -4.039095e+001  1.061984e+002 
4318750000  -4.131409e+001  1.014263e+002 
4321875000  -4.143073e+001  9.803656e+001 
4325000000  -4.038597e+001  9.214551e+001 
4328125000  -4.008904e+001  8.096903e+001 
4331250000  -4.026875e+001  6.943802e+001 
4334375000  -4.119773e+001  6.152045e+001 
4337500000  -4.246050e+001  5.992083e+001 
4340625000  -4.277224e+001  6.398624e+001 
4343750000  -4.161176e+001  5.692909e+001 
4346875000  -4.185071e+001  4.498421e+001 
4350000000  -4.146659e+001  3.731995e+001 
4353125000  -4.261147e+001  2.912364e+001 
4356250000  -4.409411e+001  3.208424e+001 
4359375000  -4.324759e+001  4.514604e+001 
4362500000  -4.011023e+001  3.872775e+001 
4365625000  -3.969564e+001  1.866091e+001 
4368750000  -4.091148e+001  8.028945e+000 
4371875000  -4.160458e+001  1.641982e+000 
4375000000  -4.133423e+001  6.404184e-001 
4378125000  -4.116421e+001  -8.875076e+000 
4381250000  -4.133989e+001  -1.699207e+001 
4384375000  -4.153308e+001  -2.404056e+001 
4387500000  -4.206234e+001  -2.967704e+001 
4390625000  -4.251551e+001  -3.097962e+001 
4393750000  -4.221617e+001  -3.360392e+001 
4396875000  -4.159251e+001  -3.787394e+001 
4400000000  -4.162423e+001  -4.816384e+001 
4403125000  -4.240379e+001  -5.788017e+001 
4406250000  -4.276323e+001  -6.320656e+001 
4409375000  -4.316540e+001  -6.716183e+001 
4412500000  -4.423467e+001  -6.990173e+001 
4415625000  -4.382904e+001  -6.757515e+001 
4418750000  -4.260119e+001  -6.920718e+001 
