!Agilent Technologies,E8363B,MY43030201,A.06.04.32
!Agilent E8363B: A.06.04.32
!Date: Tuesday, November 11, 2014 21:51:10
!Correction: S21(Response(S21)) 
!S1P File: Measurement: S21:
# Hz S  dB   R 50
3000000000  -4.388407e+001  -1.627139e+002 
3003125000  -4.528227e+001  -1.672181e+002 
3006250000  -4.533163e+001  -1.684569e+002 
3009375000  -4.631775e+001  -1.632959e+002 
3012500000  -4.530225e+001  -1.718204e+002 
3015625000  -4.531106e+001  1.783755e+002 
3018750000  -4.522136e+001  1.795883e+002 
3021875000  -4.417443e+001  -1.799415e+002 
3025000000  -4.265499e+001  1.756300e+002 
3028125000  -4.185619e+001  1.650005e+002 
3031250000  -4.095181e+001  1.505768e+002 
3034375000  -4.070575e+001  1.359568e+002 
3037500000  -4.172224e+001  1.267876e+002 
3040625000  -4.286694e+001  1.201661e+002 
3043750000  -4.342506e+001  1.123351e+002 
3046875000  -4.381754e+001  1.056111e+002 
3050000000  -4.531416e+001  1.000070e+002 
3053125000  -4.472724e+001  1.059583e+002 
3056250000  -4.496048e+001  1.077930e+002 
3059375000  -4.384721e+001  1.044836e+002 
3062500000  -4.231948e+001  9.919833e+001 
3065625000  -4.221117e+001  8.751376e+001 
3068750000  -4.187835e+001  8.163645e+001 
3071875000  -4.173066e+001  7.855382e+001 
3075000000  -4.102911e+001  7.065373e+001 
3078125000  -4.123159e+001  6.367091e+001 
3081250000  -4.127978e+001  5.664890e+001 
3084375000  -4.032513e+001  4.965166e+001 
3087500000  -4.067248e+001  4.324290e+001 
3090625000  -4.005219e+001  2.939526e+001 
3093750000  -4.113422e+001  2.041485e+001 
3096875000  -4.115068e+001  1.484833e+001 
3100000000  -4.113048e+001  1.051055e+001 
3103125000  -4.145445e+001  6.365689e+000 
3106250000  -4.093026e+001  1.124203e+000 
3109375000  -4.088321e+001  -4.485659e+000 
3112500000  -4.096877e+001  -1.153969e+001 
3115625000  -4.076685e+001  -1.680933e+001 
3118750000  -4.077112e+001  -2.145029e+001 
3121875000  -4.029141e+001  -3.385933e+001 
3125000000  -4.203904e+001  -3.625503e+001 
3128125000  -4.195583e+001  -3.217039e+001 
3131250000  -3.947719e+001  -4.057834e+001 
3134375000  -3.884452e+001  -5.795410e+001 
3137500000  -3.952120e+001  -7.060164e+001 
3140625000  -4.097105e+001  -7.540765e+001 
3143750000  -4.148299e+001  -7.970776e+001 
3146875000  -4.108427e+001  -7.781436e+001 
3150000000  -4.049606e+001  -8.366438e+001 
3153125000  -4.058805e+001  -9.275139e+001 
3156250000  -4.146488e+001  -8.860075e+001 
3159375000  -3.915913e+001  -9.433871e+001 
3162500000  -3.777177e+001  -1.088633e+002 
3165625000  -3.888754e+001  -1.231200e+002 
3168750000  -3.898119e+001  -1.257688e+002 
3171875000  -3.866867e+001  -1.329617e+002 
3175000000  -3.906493e+001  -1.428985e+002 
3178125000  -3.871610e+001  -1.455273e+002 
3181250000  -3.818849e+001  -1.558687e+002 
3184375000  -3.788403e+001  -1.680581e+002 
3187500000  -3.926639e+001  1.771626e+002 
3190625000  -4.078951e+001  1.701648e+002 
3193750000  -4.118214e+001  1.741829e+002 
3196875000  -4.099615e+001  1.724470e+002 
3200000000  -3.985720e+001  1.675697e+002 
3203125000  -3.954264e+001  1.589229e+002 
3206250000  -3.975208e+001  1.507997e+002 
3209375000  -3.956688e+001  1.429035e+002 
3212500000  -3.986107e+001  1.360953e+002 
3215625000  -3.960129e+001  1.331395e+002 
3218750000  -4.055015e+001  1.181000e+002 
3221875000  -4.066210e+001  1.128716e+002 
3225000000  -4.027523e+001  1.076934e+002 
3228125000  -4.103903e+001  1.007659e+002 
3231250000  -4.133780e+001  9.550095e+001 
3234375000  -4.085026e+001  9.320863e+001 
3237500000  -4.109562e+001  8.968298e+001 
3240625000  -4.034900e+001  8.208638e+001 
3243750000  -4.027612e+001  6.983656e+001 
3246875000  -4.052124e+001  6.248701e+001 
3250000000  -4.108715e+001  5.799196e+001 
3253125000  -4.118108e+001  5.374686e+001 
3256250000  -4.038431e+001  4.181501e+001 
3259375000  -4.104428e+001  3.095451e+001 
3262500000  -4.236277e+001  2.558217e+001 
3265625000  -4.232986e+001  2.702650e+001 
3268750000  -4.242165e+001  2.620057e+001 
3271875000  -4.157633e+001  1.956696e+001 
3275000000  -4.098628e+001  8.981278e+000 
3278125000  -4.179124e+001  2.057833e+000 
3281250000  -4.193936e+001  -1.352250e+000 
3284375000  -4.097706e+001  -8.602806e+000 
3287500000  -4.125880e+001  -1.680638e+001 
3290625000  -4.153222e+001  -2.728330e+001 
3293750000  -4.143057e+001  -3.480800e+001 
3296875000  -4.275389e+001  -3.903541e+001 
3300000000  -4.191954e+001  -4.144832e+001 
3303125000  -4.096072e+001  -5.020506e+001 
3306250000  -4.089414e+001  -6.117805e+001 
3309375000  -4.046268e+001  -7.240571e+001 
3312500000  -4.093210e+001  -8.753768e+001 
3315625000  -4.252430e+001  -9.607101e+001 
3318750000  -4.391700e+001  -1.012612e+002 
3321875000  -4.539911e+001  -1.010537e+002 
3325000000  -4.491059e+001  -9.929652e+001 
3328125000  -4.368876e+001  -9.980377e+001 
3331250000  -4.246298e+001  -9.997744e+001 
3334375000  -4.001571e+001  -1.181982e+002 
3337500000  -4.083466e+001  -1.407109e+002 
3340625000  -4.280875e+001  -1.518890e+002 
3343750000  -4.434422e+001  -1.520966e+002 
3346875000  -4.416693e+001  -1.571584e+002 
3350000000  -4.364365e+001  -1.626174e+002 
3353125000  -4.346308e+001  -1.705765e+002 
3356250000  -4.339087e+001  1.788198e+002 
3359375000  -4.426484e+001  1.650110e+002 
3362500000  -4.513047e+001  1.576127e+002 
3365625000  -4.555764e+001  1.510330e+002 
3368750000  -4.623041e+001  1.484353e+002 
3371875000  -4.697069e+001  1.391172e+002 
3375000000  -4.867632e+001  1.315974e+002 
3378125000  -4.955716e+001  1.326512e+002 
3381250000  -5.033139e+001  1.411591e+002 
3384375000  -4.746990e+001  1.506110e+002 
3387500000  -4.487560e+001  1.276791e+002 
3390625000  -4.639452e+001  1.050542e+002 
3393750000  -4.801661e+001  1.029776e+002 
3396875000  -4.651935e+001  9.914328e+001 
3400000000  -4.612837e+001  8.440769e+001 
3403125000  -4.650979e+001  7.705942e+001 
3406250000  -4.710955e+001  7.031295e+001 
3409375000  -4.727245e+001  6.021394e+001 
3412500000  -4.771844e+001  5.452518e+001 
3415625000  -4.888018e+001  4.603662e+001 
3418750000  -4.877094e+001  4.160543e+001 
3421875000  -4.874245e+001  4.157134e+001 
3425000000  -4.788299e+001  3.094735e+001 
3428125000  -4.733233e+001  2.838729e+001 
3431250000  -4.692255e+001  1.299154e+001 
3434375000  -4.718015e+001  3.022192e+000 
3437500000  -4.751659e+001  -5.718113e+000 
3440625000  -4.774341e+001  -9.380600e+000 
3443750000  -4.630416e+001  -1.166930e+001 
3446875000  -4.550858e+001  -2.756321e+001 
3450000000  -4.533660e+001  -4.175447e+001 
3453125000  -4.570624e+001  -5.996317e+001 
3456250000  -4.777154e+001  -6.984264e+001 
3459375000  -4.848540e+001  -7.113044e+001 
3462500000  -4.780334e+001  -7.804183e+001 
3465625000  -4.721576e+001  -9.361037e+001 
3468750000  -4.759359e+001  -9.508501e+001 
3471875000  -4.724588e+001  -1.048663e+002 
3475000000  -4.692523e+001  -1.155772e+002 
3478125000  -4.761372e+001  -1.297785e+002 
3481250000  -4.928660e+001  -1.362563e+002 
3484375000  -4.843659e+001  -1.346019e+002 
3487500000  -4.737561e+001  -1.414461e+002 
3490625000  -4.737059e+001  -1.517912e+002 
3493750000  -4.806562e+001  -1.678525e+002 
3496875000  -4.751655e+001  -1.714625e+002 
3500000000  -4.880919e+001  -1.763291e+002 
3503125000  -4.694429e+001  -1.792783e+002 
3506250000  -4.588467e+001  1.721935e+002 
3509375000  -4.574426e+001  1.504073e+002 
3512500000  -4.615170e+001  1.368007e+002 
3515625000  -4.764275e+001  1.323548e+002 
3518750000  -4.757298e+001  1.274088e+002 
3521875000  -4.803651e+001  1.145729e+002 
3525000000  -4.899976e+001  1.147810e+002 
3528125000  -4.784843e+001  1.164156e+002 
3531250000  -4.678750e+001  1.031640e+002 
3534375000  -4.756844e+001  8.937216e+001 
3537500000  -4.767907e+001  8.036851e+001 
3540625000  -4.894671e+001  7.566563e+001 
3543750000  -4.933862e+001  7.973392e+001 
3546875000  -4.856176e+001  8.162459e+001 
3550000000  -4.666841e+001  7.346960e+001 
3553125000  -4.592887e+001  5.228749e+001 
3556250000  -4.715804e+001  4.510213e+001 
3559375000  -4.680477e+001  3.896707e+001 
3562500000  -4.646082e+001  2.905938e+001 
3565625000  -4.734050e+001  2.142935e+001 
3568750000  -4.782320e+001  2.317685e+001 
3571875000  -4.724569e+001  1.751768e+001 
3575000000  -4.705220e+001  9.442313e+000 
3578125000  -4.720848e+001  5.000653e+000 
3581250000  -4.708889e+001  2.510248e+000 
3584375000  -4.609278e+001  -5.624928e+000 
3587500000  -4.536628e+001  -1.556596e+001 
3590625000  -4.659642e+001  -2.538932e+001 
3593750000  -4.838050e+001  -2.510892e+001 
3596875000  -4.673189e+001  -2.270012e+001 
3600000000  -4.475164e+001  -3.348499e+001 
3603125000  -4.509758e+001  -4.876745e+001 
3606250000  -4.594406e+001  -5.448629e+001 
3609375000  -4.633876e+001  -5.987936e+001 
3612500000  -4.600708e+001  -6.550156e+001 
3615625000  -4.639008e+001  -7.417957e+001 
3618750000  -4.657516e+001  -7.519995e+001 
3621875000  -4.535491e+001  -7.879621e+001 
3625000000  -4.550630e+001  -8.509315e+001 
3628125000  -4.484322e+001  -8.819940e+001 
3631250000  -4.481769e+001  -1.004720e+002 
3634375000  -4.561348e+001  -1.005703e+002 
3637500000  -4.452677e+001  -1.013563e+002 
3640625000  -4.375896e+001  -1.064766e+002 
3643750000  -4.328083e+001  -1.212827e+002 
3646875000  -4.390490e+001  -1.311964e+002 
3650000000  -4.394091e+001  -1.341807e+002 
3653125000  -4.321122e+001  -1.446398e+002 
3656250000  -4.394364e+001  -1.504646e+002 
3659375000  -4.390511e+001  -1.539022e+002 
3662500000  -4.343045e+001  -1.616443e+002 
3665625000  -4.340179e+001  -1.627936e+002 
3668750000  -4.206369e+001  -1.690732e+002 
3671875000  -4.149736e+001  1.755700e+002 
3675000000  -4.248702e+001  1.663309e+002 
3678125000  -4.247177e+001  1.608268e+002 
3681250000  -4.248111e+001  1.548552e+002 
3684375000  -4.257834e+001  1.469688e+002 
3687500000  -4.272943e+001  1.382246e+002 
3690625000  -4.348180e+001  1.334013e+002 
3693750000  -4.444216e+001  1.324335e+002 
3696875000  -4.364074e+001  1.267428e+002 
3700000000  -4.286215e+001  1.207266e+002 
3703125000  -4.347203e+001  1.109770e+002 
3706250000  -4.445395e+001  1.088232e+002 
3709375000  -4.392924e+001  1.101611e+002 
3712500000  -4.320767e+001  1.041882e+002 
3715625000  -4.171855e+001  9.453166e+001 
3718750000  -4.185401e+001  8.266492e+001 
3721875000  -4.187372e+001  7.602163e+001 
3725000000  -4.245009e+001  6.787457e+001 
3728125000  -4.248550e+001  6.434940e+001 
3731250000  -4.178935e+001  5.660138e+001 
3734375000  -4.182464e+001  4.986086e+001 
3737500000  -4.275019e+001  3.997033e+001 
3740625000  -4.291277e+001  3.410187e+001 
3743750000  -4.266489e+001  2.948121e+001 
3746875000  -4.325548e+001  2.323945e+001 
3750000000  -4.361562e+001  1.951529e+001 
3753125000  -4.365018e+001  1.593873e+001 
3756250000  -4.368107e+001  1.197865e+001 
3759375000  -4.373035e+001  5.137462e+000 
3762500000  -4.341800e+001  1.988425e+000 
3765625000  -4.436744e+001  -2.882990e+000 
3768750000  -4.366409e+001  -3.676488e+000 
3771875000  -4.183637e+001  -9.214807e+000 
3775000000  -4.214672e+001  -1.981598e+001 
3778125000  -4.269724e+001  -2.589724e+001 
3781250000  -4.262374e+001  -3.089143e+001 
3784375000  -4.225862e+001  -3.815468e+001 
3787500000  -4.218296e+001  -4.175787e+001 
3790625000  -4.299463e+001  -5.066319e+001 
3793750000  -4.256086e+001  -5.522301e+001 
3796875000  -4.171814e+001  -6.282257e+001 
3800000000  -4.064517e+001  -6.786302e+001 
3803125000  -4.160253e+001  -7.998390e+001 
3806250000  -4.238269e+001  -8.430753e+001 
3809375000  -4.210981e+001  -9.031472e+001 
3812500000  -4.182180e+001  -1.011113e+002 
3815625000  -4.317124e+001  -1.130075e+002 
3818750000  -4.417443e+001  -1.078556e+002 
3821875000  -4.316530e+001  -1.000279e+002 
3825000000  -4.143126e+001  -1.063295e+002 
3828125000  -4.054794e+001  -1.289965e+002 
3831250000  -4.128560e+001  -1.423552e+002 
3834375000  -4.335437e+001  -1.450371e+002 
3837500000  -4.407314e+001  -1.409209e+002 
3840625000  -4.250263e+001  -1.472884e+002 
3843750000  -4.146927e+001  -1.607876e+002 
3846875000  -4.365111e+001  -1.670430e+002 
3850000000  -4.416923e+001  -1.609678e+002 
3853125000  -4.369542e+001  -1.662402e+002 
3856250000  -4.255278e+001  -1.694318e+002 
3859375000  -4.207988e+001  1.795583e+002 
3862500000  -4.145878e+001  1.683805e+002 
3865625000  -4.272283e+001  1.627567e+002 
3868750000  -4.228776e+001  1.619470e+002 
3871875000  -4.151804e+001  1.509296e+002 
3875000000  -4.236581e+001  1.423051e+002 
3878125000  -4.315543e+001  1.380327e+002 
3881250000  -4.312768e+001  1.356599e+002 
3884375000  -4.228404e+001  1.238195e+002 
3887500000  -4.304749e+001  1.202177e+002 
3890625000  -4.370178e+001  1.170940e+002 
3893750000  -4.423619e+001  1.157318e+002 
3896875000  -4.407803e+001  1.147528e+002 
3900000000  -4.459092e+001  1.033753e+002 
3903125000  -4.441102e+001  1.015786e+002 
3906250000  -4.331055e+001  9.634069e+001 
3909375000  -4.271950e+001  8.749376e+001 
3912500000  -4.394657e+001  7.815392e+001 
3915625000  -4.489057e+001  7.891924e+001 
3918750000  -4.456491e+001  7.638470e+001 
3921875000  -4.385315e+001  7.143448e+001 
3925000000  -4.302700e+001  6.191261e+001 
3928125000  -4.266697e+001  5.283480e+001 
3931250000  -4.340751e+001  4.601974e+001 
3934375000  -4.384619e+001  4.722840e+001 
3937500000  -4.450732e+001  4.388477e+001 
3940625000  -4.464816e+001  4.192628e+001 
3943750000  -4.296982e+001  3.583936e+001 
3946875000  -4.258688e+001  2.848115e+001 
3950000000  -4.369127e+001  2.017019e+001 
3953125000  -4.450364e+001  2.014503e+001 
3956250000  -4.266175e+001  1.806697e+001 
3959375000  -4.200104e+001  1.151311e+001 
3962500000  -4.161615e+001  1.240129e+000 
3965625000  -4.182750e+001  -1.163744e+001 
3968750000  -4.206483e+001  -1.586170e+001 
3971875000  -4.261944e+001  -2.399574e+001 
3975000000  -4.218149e+001  -2.741189e+001 
3978125000  -4.228415e+001  -3.405181e+001 
3981250000  -4.191954e+001  -4.073486e+001 
3984375000  -4.222301e+001  -5.089196e+001 
3987500000  -4.279934e+001  -5.350847e+001 
3990625000  -4.266774e+001  -5.738868e+001 
3993750000  -4.264914e+001  -6.359632e+001 
3996875000  -4.303135e+001  -7.173511e+001 
4000000000  -4.359071e+001  -7.461031e+001 
4003125000  -4.346359e+001  -7.479259e+001 
4006250000  -4.171355e+001  -7.919543e+001 
4009375000  -4.124982e+001  -9.706639e+001 
4012500000  -4.292956e+001  -1.052155e+002 
4015625000  -4.410975e+001  -1.059020e+002 
4018750000  -4.374427e+001  -1.089965e+002 
4021875000  -4.321780e+001  -1.180143e+002 
4025000000  -4.291949e+001  -1.240593e+002 
4028125000  -4.329821e+001  -1.317374e+002 
4031250000  -4.382295e+001  -1.379298e+002 
4034375000  -4.453438e+001  -1.393493e+002 
4037500000  -4.380593e+001  -1.420893e+002 
4040625000  -4.442617e+001  -1.490096e+002 
4043750000  -4.449966e+001  -1.551536e+002 
4046875000  -4.475594e+001  -1.582303e+002 
4050000000  -4.428019e+001  -1.666142e+002 
4053125000  -4.486363e+001  -1.667647e+002 
4056250000  -4.525813e+001  -1.666927e+002 
4059375000  -4.370321e+001  -1.678696e+002 
4062500000  -4.346880e+001  -1.745775e+002 
4065625000  -4.304814e+001  1.781605e+002 
4068750000  -4.264806e+001  1.694934e+002 
4071875000  -4.277241e+001  1.604772e+002 
4075000000  -4.339781e+001  1.541188e+002 
4078125000  -4.403968e+001  1.502648e+002 
4081250000  -4.312425e+001  1.423102e+002 
4084375000  -4.331430e+001  1.362739e+002 
4087500000  -4.404471e+001  1.260575e+002 
4090625000  -4.477345e+001  1.285104e+002 
4093750000  -4.473283e+001  1.237869e+002 
4096875000  -4.392027e+001  1.135859e+002 
4100000000  -4.523876e+001  1.091247e+002 
4103125000  -4.552926e+001  1.138014e+002 
4106250000  -4.479094e+001  1.129400e+002 
4109375000  -4.386058e+001  1.084618e+002 
4112500000  -4.367777e+001  9.859686e+001 
4115625000  -4.367886e+001  9.262160e+001 
4118750000  -4.419733e+001  8.907696e+001 
4121875000  -4.372388e+001  8.087130e+001 
4125000000  -4.460728e+001  7.199989e+001 
4128125000  -4.520564e+001  7.854815e+001 
4131250000  -4.360934e+001  7.896912e+001 
4134375000  -4.142767e+001  6.739089e+001 
4137500000  -4.201935e+001  4.665704e+001 
4140625000  -4.449190e+001  4.181169e+001 
4143750000  -4.501644e+001  4.588836e+001 
4146875000  -4.402050e+001  4.781606e+001 
4150000000  -4.279906e+001  3.686910e+001 
4153125000  -4.307195e+001  2.611022e+001 
4156250000  -4.397543e+001  2.372438e+001 
4159375000  -4.415403e+001  2.623803e+001 
4162500000  -4.258506e+001  2.448912e+001 
4165625000  -4.133602e+001  1.439850e+001 
4168750000  -4.131633e+001  2.651493e+000 
4171875000  -4.085949e+001  -7.929498e+000 
4175000000  -4.174935e+001  -1.713361e+001 
4178125000  -4.219191e+001  -2.005818e+001 
4181250000  -4.215976e+001  -3.022955e+001 
4184375000  -4.256365e+001  -3.172405e+001 
4187500000  -4.229437e+001  -3.902783e+001 
4190625000  -4.280705e+001  -4.720395e+001 
4193750000  -4.342353e+001  -5.635988e+001 
4196875000  -4.478998e+001  -5.718283e+001 
4200000000  -4.638253e+001  -5.036665e+001 
4203125000  -4.446482e+001  -3.709243e+001 
4206250000  -4.126802e+001  -5.161631e+001 
4209375000  -4.159158e+001  -7.506242e+001 
4212500000  -4.379698e+001  -8.045597e+001 
4215625000  -4.440594e+001  -7.533505e+001 
4218750000  -4.236491e+001  -7.576083e+001 
4221875000  -4.067051e+001  -8.353484e+001 
4225000000  -4.170727e+001  -9.678756e+001 
4228125000  -4.217026e+001  -9.238405e+001 
4231250000  -4.094156e+001  -1.077523e+002 
4234375000  -4.065836e+001  -1.156053e+002 
4237500000  -4.071238e+001  -1.227618e+002 
4240625000  -4.106156e+001  -1.334147e+002 
4243750000  -4.214592e+001  -1.407298e+002 
4246875000  -4.313967e+001  -1.426132e+002 
4250000000  -4.290158e+001  -1.438625e+002 
4253125000  -4.254178e+001  -1.443196e+002 
4256250000  -4.199806e+001  -1.510400e+002 
4259375000  -4.170851e+001  -1.595070e+002 
4262500000  -4.213039e+001  -1.600074e+002 
4265625000  -4.184056e+001  -1.625706e+002 
4268750000  -4.091362e+001  -1.734259e+002 
4271875000  -4.092661e+001  1.770750e+002 
4275000000  -3.983873e+001  1.671213e+002 
4278125000  -4.129330e+001  1.568252e+002 
4281250000  -4.289857e+001  1.519704e+002 
4284375000  -4.222352e+001  1.482675e+002 
4287500000  -4.391494e+001  1.477636e+002 
4290625000  -4.366877e+001  1.544982e+002 
4293750000  -4.173671e+001  1.536970e+002 
4296875000  -4.012327e+001  1.383297e+002 
4300000000  -4.145968e+001  1.267110e+002 
4303125000  -4.166752e+001  1.285121e+002 
4306250000  -4.058275e+001  1.280201e+002 
4309375000  -3.962499e+001  1.180496e+002 
4312500000  -3.955455e+001  1.048453e+002 
4315625000  -4.016523e+001  9.684745e+001 
4318750000  -4.074458e+001  9.126577e+001 
4321875000  -4.095719e+001  8.881947e+001 
4325000000  -3.993654e+001  8.465385e+001 
4328125000  -3.931719e+001  7.271567e+001 
4331250000  -3.989193e+001  6.262146e+001 
4334375000  -4.068233e+001  5.476169e+001 
4337500000  -4.174612e+001  5.135723e+001 
4340625000  -4.188227e+001  5.529238e+001 
4343750000  -4.091655e+001  4.878986e+001 
4346875000  -4.094448e+001  3.951080e+001 
4350000000  -4.099944e+001  3.102673e+001 
4353125000  -4.237884e+001  2.039164e+001 
4356250000  -4.395652e+001  2.314323e+001 
4359375000  -4.263232e+001  3.890945e+001 
4362500000  -3.931581e+001  2.922699e+001 
4365625000  -3.854583e+001  7.615470e+000 
4368750000  -4.060410e+001  -2.393100e+000 
4371875000  -4.111589e+001  -2.822057e+000 
4375000000  -4.056173e+001  -1.097396e+001 
4378125000  -4.038185e+001  -1.639243e+001 
4381250000  -4.057080e+001  -2.450795e+001 
4384375000  -4.034920e+001  -3.431826e+001 
4387500000  -4.133698e+001  -3.973234e+001 
4390625000  -4.186383e+001  -3.941084e+001 
4393750000  -4.171741e+001  -4.322823e+001 
4396875000  -4.121724e+001  -4.769070e+001 
4400000000  -4.054390e+001  -5.599742e+001 
4403125000  -4.147509e+001  -6.694825e+001 
4406250000  -4.200795e+001  -7.100328e+001 
4409375000  -4.244091e+001  -7.519803e+001 
4412500000  -4.373058e+001  -7.820201e+001 
4415625000  -4.308986e+001  -7.385303e+001 
4418750000  -4.188878e+001  -7.655878e+001 
