!Agilent Technologies,E8363B,MY43030201,A.06.04.32
!Agilent E8363B: A.06.04.32
!Date: Tuesday, November 11, 2014 21:47:53
!Correction: S21(Response(S21)) 
!S1P File: Measurement: S21:
# Hz S  dB   R 50
3000000000  -4.389860e+001  -1.610096e+002 
3003125000  -4.532068e+001  -1.682702e+002 
3006250000  -4.521601e+001  -1.698472e+002 
3009375000  -4.637508e+001  -1.629831e+002 
3012500000  -4.484951e+001  -1.711003e+002 
3015625000  -4.507537e+001  -1.784852e+002 
3018750000  -4.536434e+001  -1.785381e+002 
3021875000  -4.383110e+001  -1.795416e+002 
3025000000  -4.274066e+001  1.766794e+002 
3028125000  -4.173638e+001  1.642097e+002 
3031250000  -4.098437e+001  1.519144e+002 
3034375000  -4.082302e+001  1.372175e+002 
3037500000  -4.155270e+001  1.269721e+002 
3040625000  -4.290954e+001  1.202969e+002 
3043750000  -4.344216e+001  1.133733e+002 
3046875000  -4.428251e+001  1.060341e+002 
3050000000  -4.524494e+001  1.006537e+002 
3053125000  -4.441584e+001  1.069231e+002 
3056250000  -4.479541e+001  1.074293e+002 
3059375000  -4.388570e+001  1.048749e+002 
3062500000  -4.249723e+001  9.986620e+001 
3065625000  -4.211992e+001  8.753197e+001 
3068750000  -4.186348e+001  8.089584e+001 
3071875000  -4.175632e+001  7.699807e+001 
3075000000  -4.142997e+001  7.127483e+001 
3078125000  -4.122472e+001  6.277457e+001 
3081250000  -4.119445e+001  5.692127e+001 
3084375000  -4.043311e+001  5.030222e+001 
3087500000  -4.061165e+001  4.243620e+001 
3090625000  -3.992848e+001  3.061567e+001 
3093750000  -4.106875e+001  2.018161e+001 
3096875000  -4.137196e+001  1.581287e+001 
3100000000  -4.126024e+001  1.234499e+001 
3103125000  -4.161425e+001  6.783824e+000 
3106250000  -4.104913e+001  1.190831e+000 
3109375000  -4.096561e+001  -2.810589e+000 
3112500000  -4.072441e+001  -1.129592e+001 
3115625000  -4.093391e+001  -1.575396e+001 
3118750000  -4.055901e+001  -2.029503e+001 
3121875000  -4.010602e+001  -3.352312e+001 
3125000000  -4.195030e+001  -3.681812e+001 
3128125000  -4.198544e+001  -3.113339e+001 
3131250000  -3.951377e+001  -4.018076e+001 
3134375000  -3.901374e+001  -5.741696e+001 
3137500000  -3.957908e+001  -7.098370e+001 
3140625000  -4.099148e+001  -7.467113e+001 
3143750000  -4.167127e+001  -7.791389e+001 
3146875000  -4.114334e+001  -7.592545e+001 
3150000000  -4.038058e+001  -8.252911e+001 
3153125000  -4.073912e+001  -9.095192e+001 
3156250000  -4.163272e+001  -8.848275e+001 
3159375000  -3.906102e+001  -9.378210e+001 
3162500000  -3.782743e+001  -1.087924e+002 
3165625000  -3.902340e+001  -1.235935e+002 
3168750000  -3.925774e+001  -1.249942e+002 
3171875000  -3.856271e+001  -1.325040e+002 
3175000000  -3.917958e+001  -1.429909e+002 
3178125000  -3.869158e+001  -1.459344e+002 
3181250000  -3.805356e+001  -1.562004e+002 
3184375000  -3.789727e+001  -1.663391e+002 
3187500000  -3.916644e+001  1.773211e+002 
3190625000  -4.092498e+001  1.695826e+002 
3193750000  -4.124527e+001  1.740060e+002 
3196875000  -4.097298e+001  1.753082e+002 
3200000000  -3.987379e+001  1.689519e+002 
3203125000  -3.957079e+001  1.586503e+002 
3206250000  -3.990004e+001  1.508573e+002 
3209375000  -3.948241e+001  1.428250e+002 
3212500000  -3.998919e+001  1.342594e+002 
3215625000  -3.977943e+001  1.323489e+002 
3218750000  -4.025788e+001  1.197445e+002 
3221875000  -4.059606e+001  1.136724e+002 
3225000000  -4.050549e+001  1.074058e+002 
3228125000  -4.118285e+001  1.000458e+002 
3231250000  -4.148003e+001  9.601627e+001 
3234375000  -4.112508e+001  9.387538e+001 
3237500000  -4.094746e+001  8.960658e+001 
3240625000  -4.034967e+001  8.087940e+001 
3243750000  -4.019329e+001  7.073969e+001 
3246875000  -4.061293e+001  6.312522e+001 
3250000000  -4.118747e+001  5.851299e+001 
3253125000  -4.116332e+001  5.376241e+001 
3256250000  -4.050916e+001  4.452391e+001 
3259375000  -4.088607e+001  3.023960e+001 
3262500000  -4.249009e+001  2.610208e+001 
3265625000  -4.275079e+001  2.645697e+001 
3268750000  -4.264134e+001  2.410901e+001 
3271875000  -4.162778e+001  2.013569e+001 
3275000000  -4.106131e+001  9.387687e+000 
3278125000  -4.172575e+001  3.065803e+000 
3281250000  -4.183377e+001  -1.113938e+000 
3284375000  -4.108789e+001  -8.293106e+000 
3287500000  -4.172739e+001  -1.581731e+001 
3290625000  -4.162269e+001  -2.664554e+001 
3293750000  -4.153574e+001  -3.576912e+001 
3296875000  -4.268898e+001  -3.781292e+001 
3300000000  -4.212570e+001  -4.026053e+001 
3303125000  -4.080944e+001  -5.020447e+001 
3306250000  -4.084199e+001  -6.216670e+001 
3309375000  -4.077698e+001  -7.189255e+001 
3312500000  -4.111485e+001  -8.696380e+001 
3315625000  -4.238306e+001  -9.357478e+001 
3318750000  -4.394059e+001  -1.007334e+002 
3321875000  -4.483709e+001  -1.015476e+002 
3325000000  -4.462439e+001  -9.535687e+001 
3328125000  -4.387248e+001  -1.001648e+002 
3331250000  -4.246297e+001  -1.008638e+002 
3334375000  -4.015216e+001  -1.188313e+002 
3337500000  -4.075426e+001  -1.410216e+002 
3340625000  -4.288541e+001  -1.512340e+002 
3343750000  -4.451118e+001  -1.553475e+002 
3346875000  -4.431100e+001  -1.578969e+002 
3350000000  -4.378500e+001  -1.629295e+002 
3353125000  -4.363716e+001  -1.718915e+002 
3356250000  -4.348002e+001  -1.796947e+002 
3359375000  -4.421135e+001  1.651505e+002 
3362500000  -4.507344e+001  1.574279e+002 
3365625000  -4.593539e+001  1.515657e+002 
3368750000  -4.643811e+001  1.436500e+002 
3371875000  -4.695910e+001  1.370661e+002 
3375000000  -4.898739e+001  1.357319e+002 
3378125000  -4.956568e+001  1.304193e+002 
3381250000  -5.006889e+001  1.428509e+002 
3384375000  -4.760500e+001  1.479216e+002 
3387500000  -4.489027e+001  1.298234e+002 
3390625000  -4.676562e+001  1.044556e+002 
3393750000  -4.779038e+001  1.048161e+002 
3396875000  -4.639872e+001  9.880273e+001 
3400000000  -4.638970e+001  8.407404e+001 
3403125000  -4.731958e+001  7.653693e+001 
3406250000  -4.784415e+001  6.928742e+001 
3409375000  -4.703816e+001  5.966601e+001 
3412500000  -4.796844e+001  5.229936e+001 
3415625000  -4.878605e+001  4.661408e+001 
3418750000  -4.919047e+001  4.088962e+001 
3421875000  -4.878669e+001  3.847406e+001 
3425000000  -4.757083e+001  3.328587e+001 
3428125000  -4.731216e+001  2.694394e+001 
3431250000  -4.664701e+001  1.232900e+001 
3434375000  -4.693318e+001  4.086590e+000 
3437500000  -4.796438e+001  -7.523164e+000 
3440625000  -4.769074e+001  -1.084668e+001 
3443750000  -4.610290e+001  -1.295732e+001 
3446875000  -4.546558e+001  -2.750780e+001 
3450000000  -4.530957e+001  -4.338699e+001 
3453125000  -4.573664e+001  -6.078048e+001 
3456250000  -4.763050e+001  -6.977678e+001 
3459375000  -4.848042e+001  -7.286433e+001 
3462500000  -4.764534e+001  -7.638895e+001 
3465625000  -4.733716e+001  -9.098630e+001 
3468750000  -4.771690e+001  -9.656443e+001 
3471875000  -4.713413e+001  -1.042528e+002 
3475000000  -4.653214e+001  -1.197149e+002 
3478125000  -4.779002e+001  -1.324480e+002 
3481250000  -4.919875e+001  -1.330846e+002 
3484375000  -4.856470e+001  -1.343603e+002 
3487500000  -4.789073e+001  -1.421707e+002 
3490625000  -4.743755e+001  -1.527029e+002 
3493750000  -4.795580e+001  -1.662192e+002 
3496875000  -4.720324e+001  -1.678723e+002 
3500000000  -4.812033e+001  -1.716336e+002 
3503125000  -4.672749e+001  -1.757645e+002 
3506250000  -4.507912e+001  1.699850e+002 
3509375000  -4.546218e+001  1.526145e+002 
3512500000  -4.589821e+001  1.380294e+002 
3515625000  -4.704030e+001  1.331320e+002 
3518750000  -4.834686e+001  1.280676e+002 
3521875000  -4.790022e+001  1.180287e+002 
3525000000  -4.837935e+001  1.138300e+002 
3528125000  -4.732013e+001  1.159687e+002 
3531250000  -4.652041e+001  1.061583e+002 
3534375000  -4.696592e+001  8.840825e+001 
3537500000  -4.792463e+001  7.612901e+001 
3540625000  -4.928154e+001  7.425179e+001 
3543750000  -4.905154e+001  7.776921e+001 
3546875000  -4.855315e+001  8.269297e+001 
3550000000  -4.653507e+001  7.112563e+001 
3553125000  -4.607351e+001  5.342250e+001 
3556250000  -4.711142e+001  4.745172e+001 
3559375000  -4.663163e+001  4.136324e+001 
3562500000  -4.645413e+001  3.156025e+001 
3565625000  -4.728312e+001  2.232165e+001 
3568750000  -4.796431e+001  2.149490e+001 
3571875000  -4.722346e+001  1.574802e+001 
3575000000  -4.741210e+001  1.241558e+001 
3578125000  -4.799605e+001  7.526551e+000 
3581250000  -4.709033e+001  5.236825e+000 
3584375000  -4.593897e+001  -6.877109e+000 
3587500000  -4.545465e+001  -1.386323e+001 
3590625000  -4.652044e+001  -2.493812e+001 
3593750000  -4.784019e+001  -2.748103e+001 
3596875000  -4.652122e+001  -1.926301e+001 
3600000000  -4.471585e+001  -3.348838e+001 
3603125000  -4.478761e+001  -4.974099e+001 
3606250000  -4.590412e+001  -5.209951e+001 
3609375000  -4.608910e+001  -5.707172e+001 
3612500000  -4.569148e+001  -6.500044e+001 
3615625000  -4.629472e+001  -6.979925e+001 
3618750000  -4.643790e+001  -7.309966e+001 
3621875000  -4.586100e+001  -7.439187e+001 
3625000000  -4.603698e+001  -8.337181e+001 
3628125000  -4.461922e+001  -8.955798e+001 
3631250000  -4.493199e+001  -1.002093e+002 
3634375000  -4.592824e+001  -1.007155e+002 
3637500000  -4.435302e+001  -9.938768e+001 
3640625000  -4.355412e+001  -1.072547e+002 
3643750000  -4.311292e+001  -1.196642e+002 
3646875000  -4.375917e+001  -1.303334e+002 
3650000000  -4.402568e+001  -1.322543e+002 
3653125000  -4.308401e+001  -1.420430e+002 
3656250000  -4.403462e+001  -1.505211e+002 
3659375000  -4.377433e+001  -1.528129e+002 
3662500000  -4.326975e+001  -1.597255e+002 
3665625000  -4.306576e+001  -1.638055e+002 
3668750000  -4.205666e+001  -1.707189e+002 
3671875000  -4.148690e+001  1.765684e+002 
3675000000  -4.231406e+001  1.674472e+002 
3678125000  -4.246582e+001  1.623324e+002 
3681250000  -4.215587e+001  1.557967e+002 
3684375000  -4.241458e+001  1.485059e+002 
3687500000  -4.290926e+001  1.404477e+002 
3690625000  -4.324236e+001  1.332312e+002 
3693750000  -4.396039e+001  1.333020e+002 
3696875000  -4.370235e+001  1.263994e+002 
3700000000  -4.273191e+001  1.221882e+002 
3703125000  -4.339936e+001  1.140137e+002 
3706250000  -4.489376e+001  1.098254e+002 
3709375000  -4.403954e+001  1.106163e+002 
3712500000  -4.270699e+001  1.053604e+002 
3715625000  -4.169685e+001  9.436617e+001 
3718750000  -4.164051e+001  8.547353e+001 
3721875000  -4.164024e+001  7.830256e+001 
3725000000  -4.229844e+001  6.988394e+001 
3728125000  -4.268138e+001  6.472008e+001 
3731250000  -4.193542e+001  5.871325e+001 
3734375000  -4.182896e+001  5.128041e+001 
3737500000  -4.246365e+001  4.229427e+001 
3740625000  -4.313662e+001  3.683719e+001 
3743750000  -4.267009e+001  2.966495e+001 
3746875000  -4.307962e+001  2.560648e+001 
3750000000  -4.383885e+001  2.104635e+001 
3753125000  -4.385688e+001  1.673866e+001 
3756250000  -4.361199e+001  1.208603e+001 
3759375000  -4.383204e+001  8.978038e+000 
3762500000  -4.384733e+001  3.301610e+000 
3765625000  -4.405437e+001  -2.347058e+000 
3768750000  -4.382966e+001  1.294256e-001 
3771875000  -4.196957e+001  -8.772026e+000 
3775000000  -4.190012e+001  -2.080453e+001 
3778125000  -4.239319e+001  -2.626869e+001 
3781250000  -4.215578e+001  -2.996464e+001 
3784375000  -4.247965e+001  -3.726131e+001 
3787500000  -4.218139e+001  -4.093517e+001 
3790625000  -4.285173e+001  -5.436116e+001 
3793750000  -4.270310e+001  -5.456226e+001 
3796875000  -4.172819e+001  -6.001377e+001 
3800000000  -4.068845e+001  -6.769118e+001 
3803125000  -4.172325e+001  -7.939603e+001 
3806250000  -4.244302e+001  -8.530675e+001 
3809375000  -4.208672e+001  -8.703240e+001 
3812500000  -4.190372e+001  -1.008882e+002 
3815625000  -4.319809e+001  -1.099849e+002 
3818750000  -4.440805e+001  -1.081376e+002 
3821875000  -4.372257e+001  -1.009049e+002 
3825000000  -4.154972e+001  -1.056022e+002 
3828125000  -4.036891e+001  -1.259849e+002 
3831250000  -4.193407e+001  -1.392194e+002 
3834375000  -4.362769e+001  -1.428489e+002 
3837500000  -4.389286e+001  -1.370792e+002 
3840625000  -4.220950e+001  -1.429988e+002 
3843750000  -4.185680e+001  -1.597554e+002 
3846875000  -4.354829e+001  -1.671378e+002 
3850000000  -4.403153e+001  -1.600303e+002 
3853125000  -4.352642e+001  -1.626838e+002 
3856250000  -4.288272e+001  -1.734333e+002 
3859375000  -4.222805e+001  -1.788304e+002 
3862500000  -4.199451e+001  1.717039e+002 
3865625000  -4.281718e+001  1.604607e+002 
3868750000  -4.213407e+001  1.635665e+002 
3871875000  -4.187132e+001  1.535048e+002 
3875000000  -4.222498e+001  1.404206e+002 
3878125000  -4.327564e+001  1.372235e+002 
3881250000  -4.316424e+001  1.367012e+002 
3884375000  -4.264187e+001  1.292504e+002 
3887500000  -4.328115e+001  1.222849e+002 
3890625000  -4.381810e+001  1.178957e+002 
3893750000  -4.449133e+001  1.140955e+002 
3896875000  -4.437386e+001  1.113809e+002 
3900000000  -4.465323e+001  1.035106e+002 
3903125000  -4.342789e+001  1.007233e+002 
3906250000  -4.346943e+001  9.632771e+001 
3909375000  -4.264571e+001  8.901488e+001 
3912500000  -4.365928e+001  7.849288e+001 
3915625000  -4.475310e+001  7.904275e+001 
3918750000  -4.461204e+001  7.770891e+001 
3921875000  -4.376967e+001  7.481904e+001 
3925000000  -4.303901e+001  6.568928e+001 
3928125000  -4.311785e+001  5.887150e+001 
3931250000  -4.353214e+001  4.921769e+001 
3934375000  -4.437921e+001  4.709585e+001 
3937500000  -4.449850e+001  4.348827e+001 
3940625000  -4.488286e+001  4.500658e+001 
3943750000  -4.401633e+001  3.897284e+001 
3946875000  -4.282080e+001  2.731863e+001 
3950000000  -4.369949e+001  2.170709e+001 
3953125000  -4.454155e+001  1.764912e+001 
3956250000  -4.291489e+001  2.065323e+001 
3959375000  -4.182741e+001  1.277240e+001 
3962500000  -4.151760e+001  2.598454e+000 
3965625000  -4.204353e+001  -9.722477e+000 
3968750000  -4.277675e+001  -1.842842e+001 
3971875000  -4.258240e+001  -2.265958e+001 
3975000000  -4.230622e+001  -2.645456e+001 
3978125000  -4.238178e+001  -3.268862e+001 
3981250000  -4.194471e+001  -4.125330e+001 
3984375000  -4.233703e+001  -4.781094e+001 
3987500000  -4.275215e+001  -5.150699e+001 
3990625000  -4.325256e+001  -5.728565e+001 
3993750000  -4.300688e+001  -6.245423e+001 
3996875000  -4.307839e+001  -7.031760e+001 
4000000000  -4.415453e+001  -7.267281e+001 
4003125000  -4.367546e+001  -7.302417e+001 
4006250000  -4.181644e+001  -8.058373e+001 
4009375000  -4.128500e+001  -9.584414e+001 
4012500000  -4.316515e+001  -1.029008e+002 
4015625000  -4.403486e+001  -1.027509e+002 
4018750000  -4.392923e+001  -1.080387e+002 
4021875000  -4.330222e+001  -1.163793e+002 
4025000000  -4.321096e+001  -1.211515e+002 
4028125000  -4.342332e+001  -1.289037e+002 
4031250000  -4.409786e+001  -1.362361e+002 
4034375000  -4.419219e+001  -1.398397e+002 
4037500000  -4.453333e+001  -1.457177e+002 
4040625000  -4.402741e+001  -1.495309e+002 
4043750000  -4.452302e+001  -1.518121e+002 
4046875000  -4.451659e+001  -1.568905e+002 
4050000000  -4.438886e+001  -1.640757e+002 
4053125000  -4.570468e+001  -1.682575e+002 
4056250000  -4.576775e+001  -1.637996e+002 
4059375000  -4.380552e+001  -1.655028e+002 
4062500000  -4.372083e+001  -1.742085e+002 
4065625000  -4.376214e+001  1.775920e+002 
4068750000  -4.329340e+001  1.709108e+002 
4071875000  -4.285896e+001  1.598031e+002 
4075000000  -4.372855e+001  1.527315e+002 
4078125000  -4.441459e+001  1.480241e+002 
4081250000  -4.361348e+001  1.468118e+002 
4084375000  -4.350395e+001  1.376403e+002 
4087500000  -4.407266e+001  1.266309e+002 
4090625000  -4.524700e+001  1.301143e+002 
4093750000  -4.450104e+001  1.259165e+002 
4096875000  -4.444533e+001  1.166201e+002 
4100000000  -4.534975e+001  1.094569e+002 
4103125000  -4.591062e+001  1.160754e+002 
4106250000  -4.545660e+001  1.131056e+002 
4109375000  -4.445535e+001  1.088201e+002 
4112500000  -4.444616e+001  9.893520e+001 
4115625000  -4.452621e+001  9.850818e+001 
4118750000  -4.419287e+001  8.955698e+001 
4121875000  -4.387914e+001  8.343710e+001 
4125000000  -4.510588e+001  7.693821e+001 
4128125000  -4.536792e+001  7.777739e+001 
4131250000  -4.370098e+001  8.359740e+001 
4134375000  -4.178781e+001  7.024087e+001 
4137500000  -4.249381e+001  5.016349e+001 
4140625000  -4.455244e+001  4.203723e+001 
4143750000  -4.479343e+001  4.845752e+001 
4146875000  -4.427176e+001  4.964083e+001 
4150000000  -4.274305e+001  3.818198e+001 
4153125000  -4.354387e+001  3.017012e+001 
4156250000  -4.395589e+001  2.898775e+001 
4159375000  -4.376899e+001  2.951374e+001 
4162500000  -4.239309e+001  2.695110e+001 
4165625000  -4.164222e+001  1.587096e+001 
4168750000  -4.134285e+001  5.625687e+000 
4171875000  -4.096774e+001  -5.463652e+000 
4175000000  -4.170658e+001  -1.389362e+001 
4178125000  -4.237415e+001  -1.655487e+001 
4181250000  -4.217168e+001  -2.551818e+001 
4184375000  -4.288530e+001  -2.953880e+001 
4187500000  -4.267420e+001  -3.697871e+001 
4190625000  -4.292430e+001  -4.610551e+001 
4193750000  -4.438485e+001  -5.190853e+001 
4196875000  -4.521165e+001  -5.175260e+001 
4200000000  -4.610343e+001  -4.691248e+001 
4203125000  -4.436036e+001  -3.727697e+001 
4206250000  -4.143338e+001  -4.791016e+001 
4209375000  -4.185656e+001  -7.382568e+001 
4212500000  -4.390596e+001  -7.827704e+001 
4215625000  -4.411568e+001  -7.239689e+001 
4218750000  -4.286242e+001  -7.220026e+001 
4221875000  -4.122247e+001  -8.499136e+001 
4225000000  -4.277017e+001  -9.483068e+001 
4228125000  -4.244745e+001  -9.121381e+001 
4231250000  -4.114873e+001  -1.030714e+002 
4234375000  -4.082530e+001  -1.150514e+002 
4237500000  -4.119634e+001  -1.193648e+002 
4240625000  -4.134681e+001  -1.318377e+002 
4243750000  -4.286742e+001  -1.379973e+002 
4246875000  -4.359346e+001  -1.384988e+002 
4250000000  -4.284699e+001  -1.393510e+002 
4253125000  -4.295628e+001  -1.432869e+002 
4256250000  -4.234875e+001  -1.504134e+002 
4259375000  -4.217523e+001  -1.537508e+002 
4262500000  -4.248526e+001  -1.612870e+002 
4265625000  -4.207535e+001  -1.611292e+002 
4268750000  -4.103727e+001  -1.685522e+002 
4271875000  -4.083586e+001  -1.788586e+002 
4275000000  -4.055923e+001  1.721628e+002 
4278125000  -4.193130e+001  1.595287e+002 
4281250000  -4.244498e+001  1.558524e+002 
4284375000  -4.212921e+001  1.553350e+002 
4287500000  -4.383681e+001  1.472631e+002 
4290625000  -4.396095e+001  1.557516e+002 
4293750000  -4.143654e+001  1.545021e+002 
4296875000  -4.023367e+001  1.401303e+002 
4300000000  -4.103037e+001  1.282848e+002 
4303125000  -4.220444e+001  1.323034e+002 
4306250000  -4.091963e+001  1.302847e+002 
4309375000  -4.002370e+001  1.205888e+002 
4312500000  -3.973388e+001  1.063458e+002 
4315625000  -4.017185e+001  9.834476e+001 
4318750000  -4.106073e+001  9.368170e+001 
4321875000  -4.070631e+001  9.241530e+001 
4325000000  -4.012531e+001  8.895684e+001 
4328125000  -3.977576e+001  7.466132e+001 
4331250000  -3.976036e+001  6.409943e+001 
4334375000  -4.107090e+001  5.558136e+001 
4337500000  -4.197801e+001  5.151995e+001 
4340625000  -4.231933e+001  5.497850e+001 
4343750000  -4.127331e+001  5.182952e+001 
4346875000  -4.108416e+001  4.119094e+001 
4350000000  -4.110493e+001  3.103431e+001 
4353125000  -4.205027e+001  2.410066e+001 
4356250000  -4.437207e+001  2.517103e+001 
4359375000  -4.275610e+001  4.039979e+001 
4362500000  -3.950061e+001  2.871018e+001 
4365625000  -3.895560e+001  1.026705e+001 
4368750000  -4.047167e+001  5.877283e-001 
4371875000  -4.099367e+001  -1.335974e+000 
4375000000  -4.070477e+001  -3.526840e+000 
4378125000  -4.030698e+001  -1.431758e+001 
4381250000  -4.099344e+001  -2.248007e+001 
4384375000  -4.093261e+001  -3.190483e+001 
4387500000  -4.166274e+001  -3.481009e+001 
4390625000  -4.272837e+001  -3.836140e+001 
4393750000  -4.172357e+001  -3.890792e+001 
4396875000  -4.112926e+001  -4.564810e+001 
4400000000  -4.069236e+001  -5.461917e+001 
4403125000  -4.197498e+001  -6.624020e+001 
4406250000  -4.209860e+001  -7.084206e+001 
4409375000  -4.281058e+001  -7.446432e+001 
4412500000  -4.349153e+001  -7.804660e+001 
4415625000  -4.302962e+001  -7.029082e+001 
4418750000  -4.186560e+001  -7.363144e+001 
