!Agilent Technologies,E8363B,MY43030201,A.06.04.32
!Agilent E8363B: A.06.04.32
!Date: Tuesday, November 11, 2014 21:41:33
!Correction: S21(Response(S21)) 
!S1P File: Measurement: S21:
# Hz S  dB   R 50
3000000000  -4.368317e+001  -1.587996e+002 
3003125000  -4.527356e+001  -1.628998e+002 
3006250000  -4.536703e+001  -1.653804e+002 
3009375000  -4.602188e+001  -1.619530e+002 
3012500000  -4.488242e+001  -1.674758e+002 
3015625000  -4.472435e+001  -1.754686e+002 
3018750000  -4.556945e+001  -1.749881e+002 
3021875000  -4.383709e+001  -1.761763e+002 
3025000000  -4.273439e+001  -1.784379e+002 
3028125000  -4.165520e+001  1.681818e+002 
3031250000  -4.081543e+001  1.561255e+002 
3034375000  -4.071626e+001  1.414739e+002 
3037500000  -4.163458e+001  1.309431e+002 
3040625000  -4.300755e+001  1.249596e+002 
3043750000  -4.311983e+001  1.178333e+002 
3046875000  -4.385503e+001  1.094410e+002 
3050000000  -4.510152e+001  1.056298e+002 
3053125000  -4.478759e+001  1.111125e+002 
3056250000  -4.473029e+001  1.123039e+002 
3059375000  -4.409525e+001  1.094055e+002 
3062500000  -4.263036e+001  1.040583e+002 
3065625000  -4.220884e+001  9.306075e+001 
3068750000  -4.193315e+001  8.560504e+001 
3071875000  -4.176616e+001  8.172436e+001 
3075000000  -4.115849e+001  7.435739e+001 
3078125000  -4.124905e+001  6.791039e+001 
3081250000  -4.132084e+001  5.970612e+001 
3084375000  -4.036000e+001  5.466639e+001 
3087500000  -4.047081e+001  4.741175e+001 
3090625000  -3.996187e+001  3.451611e+001 
3093750000  -4.106489e+001  2.480539e+001 
3096875000  -4.111220e+001  1.970297e+001 
3100000000  -4.106435e+001  1.706075e+001 
3103125000  -4.138704e+001  1.063388e+001 
3106250000  -4.121808e+001  5.111114e+000 
3109375000  -4.108586e+001  -6.172672e-001 
3112500000  -4.076417e+001  -7.193679e+000 
3115625000  -4.091841e+001  -1.144205e+001 
3118750000  -4.075187e+001  -1.791085e+001 
3121875000  -4.024356e+001  -2.988889e+001 
3125000000  -4.213259e+001  -3.357473e+001 
3128125000  -4.199680e+001  -2.663870e+001 
3131250000  -3.931254e+001  -3.586572e+001 
3134375000  -3.886248e+001  -5.304573e+001 
3137500000  -3.953497e+001  -6.675797e+001 
3140625000  -4.093043e+001  -6.907251e+001 
3143750000  -4.166724e+001  -7.623383e+001 
3146875000  -4.114524e+001  -7.480325e+001 
3150000000  -4.054342e+001  -7.900307e+001 
3153125000  -4.057121e+001  -8.798074e+001 
3156250000  -4.139645e+001  -8.377692e+001 
3159375000  -3.926604e+001  -8.876930e+001 
3162500000  -3.793992e+001  -1.058954e+002 
3165625000  -3.901707e+001  -1.200526e+002 
3168750000  -3.921026e+001  -1.206600e+002 
3171875000  -3.851518e+001  -1.298630e+002 
3175000000  -3.907828e+001  -1.400347e+002 
3178125000  -3.887755e+001  -1.420377e+002 
3181250000  -3.809858e+001  -1.504859e+002 
3184375000  -3.805103e+001  -1.631060e+002 
3187500000  -3.924032e+001  -1.793178e+002 
3190625000  -4.097335e+001  1.745245e+002 
3193750000  -4.116280e+001  1.783228e+002 
3196875000  -4.137188e+001  1.771192e+002 
3200000000  -3.996794e+001  1.714200e+002 
3203125000  -3.965712e+001  1.634762e+002 
3206250000  -3.992784e+001  1.553428e+002 
3209375000  -3.950338e+001  1.465273e+002 
3212500000  -4.012842e+001  1.385514e+002 
3215625000  -3.981376e+001  1.375269e+002 
3218750000  -4.051678e+001  1.237270e+002 
3221875000  -4.037233e+001  1.169530e+002 
3225000000  -4.060888e+001  1.112506e+002 
3228125000  -4.121474e+001  1.038014e+002 
3231250000  -4.170483e+001  1.016770e+002 
3234375000  -4.099558e+001  9.730621e+001 
3237500000  -4.106762e+001  9.359284e+001 
3240625000  -4.029120e+001  8.693433e+001 
3243750000  -4.049911e+001  7.397466e+001 
3246875000  -4.084304e+001  6.693790e+001 
3250000000  -4.123880e+001  6.225582e+001 
3253125000  -4.113096e+001  5.641555e+001 
3256250000  -4.062137e+001  4.748139e+001 
3259375000  -4.097182e+001  3.357014e+001 
3262500000  -4.249082e+001  2.924976e+001 
3265625000  -4.280636e+001  3.019112e+001 
3268750000  -4.253879e+001  3.013932e+001 
3271875000  -4.180954e+001  2.354767e+001 
3275000000  -4.119119e+001  1.431080e+001 
3278125000  -4.184925e+001  6.925875e+000 
3281250000  -4.217319e+001  3.474370e+000 
3284375000  -4.126936e+001  -5.365746e+000 
3287500000  -4.185322e+001  -1.357852e+001 
3290625000  -4.158036e+001  -2.382078e+001 
3293750000  -4.173717e+001  -3.073037e+001 
3296875000  -4.299979e+001  -3.518845e+001 
3300000000  -4.210933e+001  -3.579831e+001 
3303125000  -4.115931e+001  -4.771886e+001 
3306250000  -4.096081e+001  -5.700011e+001 
3309375000  -4.074813e+001  -6.774260e+001 
3312500000  -4.129436e+001  -8.428825e+001 
3315625000  -4.255701e+001  -9.138242e+001 
3318750000  -4.391205e+001  -9.964622e+001 
3321875000  -4.540676e+001  -9.878721e+001 
3325000000  -4.474773e+001  -9.453125e+001 
3328125000  -4.437537e+001  -9.347507e+001 
3331250000  -4.307167e+001  -9.668485e+001 
3334375000  -4.026920e+001  -1.156082e+002 
3337500000  -4.086228e+001  -1.376194e+002 
3340625000  -4.294780e+001  -1.491416e+002 
3343750000  -4.479382e+001  -1.520264e+002 
3346875000  -4.397773e+001  -1.541807e+002 
3350000000  -4.357578e+001  -1.584993e+002 
3353125000  -4.346727e+001  -1.693928e+002 
3356250000  -4.357906e+001  -1.776088e+002 
3359375000  -4.459078e+001  1.706718e+002 
3362500000  -4.554869e+001  1.623371e+002 
3365625000  -4.602392e+001  1.536043e+002 
3368750000  -4.644909e+001  1.493703e+002 
3371875000  -4.721876e+001  1.418667e+002 
3375000000  -4.878663e+001  1.329122e+002 
3378125000  -4.934305e+001  1.361573e+002 
3381250000  -5.152602e+001  1.470125e+002 
3384375000  -4.799012e+001  1.543746e+002 
3387500000  -4.495577e+001  1.321617e+002 
3390625000  -4.698786e+001  1.085525e+002 
3393750000  -4.771244e+001  1.092164e+002 
3396875000  -4.615635e+001  1.026957e+002 
3400000000  -4.628909e+001  8.927760e+001 
3403125000  -4.729401e+001  8.214766e+001 
3406250000  -4.767287e+001  7.113045e+001 
3409375000  -4.714146e+001  6.362186e+001 
3412500000  -4.754990e+001  5.612110e+001 
3415625000  -4.873483e+001  5.368222e+001 
3418750000  -4.922720e+001  4.811344e+001 
3421875000  -4.953364e+001  4.147008e+001 
3425000000  -4.809661e+001  3.595571e+001 
3428125000  -4.666809e+001  2.937307e+001 
3431250000  -4.683486e+001  1.965054e+001 
3434375000  -4.725658e+001  5.426927e+000 
3437500000  -4.834494e+001  -1.900061e+000 
3440625000  -4.801006e+001  -4.382474e+000 
3443750000  -4.662495e+001  -9.090314e+000 
3446875000  -4.572413e+001  -2.489109e+001 
3450000000  -4.502460e+001  -3.907609e+001 
3453125000  -4.591302e+001  -5.698330e+001 
3456250000  -4.700322e+001  -6.620480e+001 
3459375000  -4.807776e+001  -6.738654e+001 
3462500000  -4.782096e+001  -7.486026e+001 
3465625000  -4.781898e+001  -8.875150e+001 
3468750000  -4.738147e+001  -9.030611e+001 
3471875000  -4.730992e+001  -1.007787e+002 
3475000000  -4.713417e+001  -1.122063e+002 
3478125000  -4.787973e+001  -1.248492e+002 
3481250000  -4.839769e+001  -1.322623e+002 
3484375000  -4.852103e+001  -1.340389e+002 
3487500000  -4.730134e+001  -1.379374e+002 
3490625000  -4.706546e+001  -1.507976e+002 
3493750000  -4.775703e+001  -1.636939e+002 
3496875000  -4.831476e+001  -1.665851e+002 
3500000000  -4.868773e+001  -1.701409e+002 
3503125000  -4.686855e+001  -1.690094e+002 
3506250000  -4.531158e+001  1.758909e+002 
3509375000  -4.549216e+001  1.559060e+002 
3512500000  -4.601387e+001  1.400364e+002 
3515625000  -4.748976e+001  1.356250e+002 
3518750000  -4.768298e+001  1.332447e+002 
3521875000  -4.829164e+001  1.217473e+002 
3525000000  -4.846018e+001  1.177119e+002 
3528125000  -4.765219e+001  1.199171e+002 
3531250000  -4.702184e+001  1.066622e+002 
3534375000  -4.695953e+001  9.269678e+001 
3537500000  -4.774738e+001  8.341419e+001 
3540625000  -4.884523e+001  8.289091e+001 
3543750000  -4.893856e+001  8.386561e+001 
3546875000  -4.872319e+001  8.597679e+001 
3550000000  -4.645032e+001  7.936538e+001 
3553125000  -4.579277e+001  5.654925e+001 
3556250000  -4.709335e+001  5.284014e+001 
3559375000  -4.674137e+001  4.953184e+001 
3562500000  -4.591564e+001  3.701492e+001 
3565625000  -4.708622e+001  2.757421e+001 
3568750000  -4.812643e+001  2.754560e+001 
3571875000  -4.700490e+001  2.381601e+001 
3575000000  -4.685842e+001  1.501748e+001 
3578125000  -4.768199e+001  1.295364e+001 
3581250000  -4.736839e+001  1.069695e+001 
3584375000  -4.598263e+001  3.029901e+000 
3587500000  -4.591160e+001  -1.067290e+001 
3590625000  -4.649998e+001  -2.012598e+001 
3593750000  -4.779534e+001  -1.913766e+001 
3596875000  -4.656027e+001  -1.328504e+001 
3600000000  -4.507790e+001  -2.622517e+001 
3603125000  -4.552895e+001  -4.400882e+001 
3606250000  -4.609905e+001  -5.064554e+001 
3609375000  -4.613224e+001  -5.257827e+001 
3612500000  -4.610715e+001  -5.962578e+001 
3615625000  -4.583311e+001  -6.365100e+001 
3618750000  -4.641233e+001  -6.643653e+001 
3621875000  -4.562328e+001  -7.307140e+001 
3625000000  -4.582466e+001  -7.739774e+001 
3628125000  -4.512230e+001  -8.065466e+001 
3631250000  -4.505822e+001  -9.212495e+001 
3634375000  -4.553701e+001  -9.780032e+001 
3637500000  -4.436735e+001  -9.521640e+001 
3640625000  -4.385997e+001  -9.982741e+001 
3643750000  -4.338272e+001  -1.136177e+002 
3646875000  -4.365635e+001  -1.236895e+002 
3650000000  -4.388282e+001  -1.285954e+002 
3653125000  -4.339038e+001  -1.378214e+002 
3656250000  -4.386269e+001  -1.426430e+002 
3659375000  -4.396109e+001  -1.458793e+002 
3662500000  -4.355864e+001  -1.554839e+002 
3665625000  -4.370976e+001  -1.569476e+002 
3668750000  -4.204991e+001  -1.633285e+002 
3671875000  -4.169601e+001  -1.780764e+002 
3675000000  -4.209976e+001  1.710343e+002 
3678125000  -4.280457e+001  1.654575e+002 
3681250000  -4.254783e+001  1.607134e+002 
3684375000  -4.278285e+001  1.523976e+002 
3687500000  -4.340451e+001  1.421782e+002 
3690625000  -4.376948e+001  1.392155e+002 
3693750000  -4.442304e+001  1.368908e+002 
3696875000  -4.374251e+001  1.334813e+002 
3700000000  -4.309640e+001  1.247108e+002 
3703125000  -4.374160e+001  1.183397e+002 
3706250000  -4.506535e+001  1.153697e+002 
3709375000  -4.413004e+001  1.156365e+002 
3712500000  -4.286523e+001  1.093398e+002 
3715625000  -4.201423e+001  1.001470e+002 
3718750000  -4.176413e+001  8.949225e+001 
3721875000  -4.189869e+001  8.115392e+001 
3725000000  -4.227504e+001  7.319427e+001 
3728125000  -4.248375e+001  7.192769e+001 
3731250000  -4.190701e+001  6.375523e+001 
3734375000  -4.214411e+001  5.636115e+001 
3737500000  -4.294382e+001  4.654819e+001 
3740625000  -4.331893e+001  4.196898e+001 
3743750000  -4.261275e+001  3.696381e+001 
3746875000  -4.348797e+001  2.777588e+001 
3750000000  -4.376085e+001  2.605226e+001 
3753125000  -4.387188e+001  2.274500e+001 
3756250000  -4.415750e+001  1.741899e+001 
3759375000  -4.375537e+001  1.249858e+001 
3762500000  -4.366636e+001  8.170456e+000 
3765625000  -4.396113e+001  3.810023e+000 
3768750000  -4.346572e+001  5.129865e+000 
3771875000  -4.242285e+001  -2.188091e+000 
3775000000  -4.218151e+001  -1.416282e+001 
3778125000  -4.281960e+001  -1.959635e+001 
3781250000  -4.274611e+001  -2.334484e+001 
3784375000  -4.241027e+001  -3.106125e+001 
3787500000  -4.252364e+001  -3.564230e+001 
3790625000  -4.314597e+001  -4.643631e+001 
3793750000  -4.294687e+001  -5.109769e+001 
3796875000  -4.165973e+001  -5.516787e+001 
3800000000  -4.066643e+001  -6.228482e+001 
3803125000  -4.142491e+001  -7.185466e+001 
3806250000  -4.250875e+001  -7.849956e+001 
3809375000  -4.190559e+001  -8.464532e+001 
3812500000  -4.160974e+001  -9.306063e+001 
3815625000  -4.318050e+001  -1.050973e+002 
3818750000  -4.432956e+001  -1.045286e+002 
3821875000  -4.346947e+001  -9.356107e+001 
3825000000  -4.156689e+001  -9.841302e+001 
3828125000  -4.078584e+001  -1.197272e+002 
3831250000  -4.150228e+001  -1.369470e+002 
3834375000  -4.376674e+001  -1.348679e+002 
3837500000  -4.397993e+001  -1.320200e+002 
3840625000  -4.211555e+001  -1.382944e+002 
3843750000  -4.218667e+001  -1.561979e+002 
3846875000  -4.358268e+001  -1.613583e+002 
3850000000  -4.466446e+001  -1.537859e+002 
3853125000  -4.398067e+001  -1.570050e+002 
3856250000  -4.293753e+001  -1.660333e+002 
3859375000  -4.231604e+001  -1.736913e+002 
3862500000  -4.211678e+001  1.740195e+002 
3865625000  -4.262534e+001  1.680220e+002 
3868750000  -4.242370e+001  1.662994e+002 
3871875000  -4.177784e+001  1.562050e+002 
3875000000  -4.241737e+001  1.451439e+002 
3878125000  -4.329263e+001  1.424844e+002 
3881250000  -4.341444e+001  1.441579e+002 
3884375000  -4.280986e+001  1.336010e+002 
3887500000  -4.340753e+001  1.252245e+002 
3890625000  -4.386266e+001  1.228932e+002 
3893750000  -4.423584e+001  1.238151e+002 
3896875000  -4.451939e+001  1.154231e+002 
3900000000  -4.458797e+001  1.133708e+002 
3903125000  -4.371070e+001  1.067737e+002 
3906250000  -4.374692e+001  1.027446e+002 
3909375000  -4.303406e+001  9.278831e+001 
3912500000  -4.422362e+001  8.438524e+001 
3915625000  -4.493941e+001  8.494059e+001 
3918750000  -4.463921e+001  8.421187e+001 
3921875000  -4.400516e+001  7.776855e+001 
3925000000  -4.314223e+001  7.183001e+001 
3928125000  -4.301307e+001  6.029143e+001 
3931250000  -4.397731e+001  5.362504e+001 
3934375000  -4.395189e+001  5.277032e+001 
3937500000  -4.507257e+001  4.914523e+001 
3940625000  -4.486336e+001  4.611686e+001 
3943750000  -4.366330e+001  4.437215e+001 
3946875000  -4.330721e+001  3.314562e+001 
3950000000  -4.362366e+001  2.454828e+001 
3953125000  -4.455628e+001  2.500388e+001 
3956250000  -4.307417e+001  2.536543e+001 
3959375000  -4.170508e+001  1.780273e+001 
3962500000  -4.152932e+001  7.672424e+000 
3965625000  -4.207949e+001  -5.948804e+000 
3968750000  -4.310102e+001  -1.324651e+001 
3971875000  -4.234429e+001  -1.316998e+001 
3975000000  -4.208497e+001  -1.986866e+001 
3978125000  -4.223332e+001  -2.703088e+001 
3981250000  -4.213533e+001  -3.721655e+001 
3984375000  -4.238895e+001  -4.416285e+001 
3987500000  -4.289258e+001  -4.601069e+001 
3990625000  -4.327927e+001  -4.757529e+001 
3993750000  -4.373104e+001  -5.712568e+001 
3996875000  -4.327713e+001  -6.289375e+001 
4000000000  -4.374428e+001  -6.669420e+001 
4003125000  -4.403475e+001  -6.723743e+001 
4006250000  -4.207416e+001  -7.301235e+001 
4009375000  -4.152150e+001  -9.369156e+001 
4012500000  -4.306565e+001  -9.841005e+001 
4015625000  -4.409308e+001  -9.891024e+001 
4018750000  -4.422336e+001  -1.042790e+002 
4021875000  -4.349844e+001  -1.088375e+002 
4025000000  -4.320745e+001  -1.156661e+002 
4028125000  -4.339317e+001  -1.245917e+002 
4031250000  -4.419979e+001  -1.310331e+002 
4034375000  -4.465253e+001  -1.333187e+002 
4037500000  -4.435126e+001  -1.374353e+002 
4040625000  -4.435538e+001  -1.429466e+002 
4043750000  -4.466104e+001  -1.460727e+002 
4046875000  -4.454177e+001  -1.517303e+002 
4050000000  -4.441417e+001  -1.599141e+002 
4053125000  -4.562238e+001  -1.631921e+002 
4056250000  -4.557150e+001  -1.555735e+002 
4059375000  -4.441595e+001  -1.601754e+002 
4062500000  -4.363511e+001  -1.727310e+002 
4065625000  -4.384305e+001  -1.754498e+002 
4068750000  -4.324553e+001  1.749130e+002 
4071875000  -4.297363e+001  1.657458e+002 
4075000000  -4.414208e+001  1.596052e+002 
4078125000  -4.409898e+001  1.579261e+002 
4081250000  -4.349232e+001  1.516572e+002 
4084375000  -4.388016e+001  1.434266e+002 
4087500000  -4.443504e+001  1.341547e+002 
4090625000  -4.509062e+001  1.326596e+002 
4093750000  -4.518692e+001  1.291125e+002 
4096875000  -4.450834e+001  1.203549e+002 
4100000000  -4.594454e+001  1.194262e+002 
4103125000  -4.625864e+001  1.181062e+002 
4106250000  -4.526788e+001  1.202625e+002 
4109375000  -4.438757e+001  1.161277e+002 
4112500000  -4.464402e+001  1.061993e+002 
4115625000  -4.408308e+001  1.022203e+002 
4118750000  -4.419683e+001  9.592722e+001 
4121875000  -4.408908e+001  8.853125e+001 
4125000000  -4.501473e+001  8.217290e+001 
4128125000  -4.552059e+001  8.380230e+001 
4131250000  -4.416246e+001  8.858636e+001 
4134375000  -4.198118e+001  7.528665e+001 
4137500000  -4.248589e+001  5.541549e+001 
4140625000  -4.442160e+001  4.759384e+001 
4143750000  -4.537506e+001  5.501789e+001 
4146875000  -4.409323e+001  5.371285e+001 
4150000000  -4.323168e+001  4.512514e+001 
4153125000  -4.390285e+001  3.619877e+001 
4156250000  -4.482008e+001  3.039235e+001 
4159375000  -4.399039e+001  3.265370e+001 
4162500000  -4.260590e+001  3.038736e+001 
4165625000  -4.167491e+001  2.255229e+001 
4168750000  -4.152488e+001  9.167336e+000 
4171875000  -4.183090e+001  7.148296e-002 
4175000000  -4.237846e+001  -8.151908e+000 
4178125000  -4.262540e+001  -1.139696e+001 
4181250000  -4.227219e+001  -2.033344e+001 
4184375000  -4.311882e+001  -2.547324e+001 
4187500000  -4.253063e+001  -2.971624e+001 
4190625000  -4.296800e+001  -4.263683e+001 
4193750000  -4.392997e+001  -4.646928e+001 
4196875000  -4.496938e+001  -4.835445e+001 
4200000000  -4.653374e+001  -4.313684e+001 
4203125000  -4.521946e+001  -2.987798e+001 
4206250000  -4.177011e+001  -4.228931e+001 
4209375000  -4.183391e+001  -6.849261e+001 
4212500000  -4.425595e+001  -7.278436e+001 
4215625000  -4.451991e+001  -6.797196e+001 
4218750000  -4.303967e+001  -6.811223e+001 
4221875000  -4.159280e+001  -7.840994e+001 
4225000000  -4.290059e+001  -9.015763e+001 
4228125000  -4.297886e+001  -8.954534e+001 
4231250000  -4.126118e+001  -9.746565e+001 
4234375000  -4.124760e+001  -1.069772e+002 
4237500000  -4.132958e+001  -1.128910e+002 
4240625000  -4.169941e+001  -1.243883e+002 
4243750000  -4.270661e+001  -1.301608e+002 
4246875000  -4.348238e+001  -1.345582e+002 
4250000000  -4.346385e+001  -1.350368e+002 
4253125000  -4.329295e+001  -1.359634e+002 
4256250000  -4.306351e+001  -1.427940e+002 
4259375000  -4.251002e+001  -1.474845e+002 
4262500000  -4.269075e+001  -1.524571e+002 
4265625000  -4.265546e+001  -1.552870e+002 
4268750000  -4.126284e+001  -1.642898e+002 
4271875000  -4.105856e+001  -1.743384e+002 
4275000000  -4.080221e+001  1.764792e+002 
4278125000  -4.157004e+001  1.656324e+002 
4281250000  -4.301829e+001  1.638740e+002 
4284375000  -4.246093e+001  1.621963e+002 
4287500000  -4.424927e+001  1.558394e+002 
4290625000  -4.391504e+001  1.647757e+002 
4293750000  -4.220797e+001  1.608328e+002 
4296875000  -4.079343e+001  1.453637e+002 
4300000000  -4.192059e+001  1.351129e+002 
4303125000  -4.231508e+001  1.376458e+002 
4306250000  -4.131763e+001  1.363646e+002 
4309375000  -4.022911e+001  1.251833e+002 
4312500000  -4.026753e+001  1.136272e+002 
4315625000  -4.062854e+001  1.042367e+002 
4318750000  -4.132971e+001  9.837318e+001 
4321875000  -4.130094e+001  9.768400e+001 
4325000000  -4.062778e+001  9.328806e+001 
4328125000  -4.002785e+001  8.210176e+001 
4331250000  -4.046209e+001  7.167838e+001 
4334375000  -4.131911e+001  6.243226e+001 
4337500000  -4.241887e+001  6.060113e+001 
4340625000  -4.253364e+001  6.319654e+001 
4343750000  -4.150953e+001  5.840326e+001 
4346875000  -4.157679e+001  4.665086e+001 
4350000000  -4.209170e+001  3.941772e+001 
4353125000  -4.244242e+001  3.385110e+001 
4356250000  -4.448428e+001  3.187124e+001 
4359375000  -4.354073e+001  4.547430e+001 
4362500000  -4.031186e+001  3.569013e+001 
4365625000  -3.978851e+001  1.920193e+001 
4368750000  -4.113453e+001  5.473156e+000 
4371875000  -4.181452e+001  8.011827e+000 
4375000000  -4.125765e+001  1.479127e+000 
4378125000  -4.086613e+001  -8.163445e+000 
4381250000  -4.141325e+001  -1.549304e+001 
4384375000  -4.116781e+001  -2.347371e+001 
4387500000  -4.246978e+001  -3.127757e+001 
4390625000  -4.239352e+001  -3.149205e+001 
4393750000  -4.213315e+001  -3.384867e+001 
4396875000  -4.162205e+001  -3.814543e+001 
4400000000  -4.141585e+001  -4.784399e+001 
4403125000  -4.275977e+001  -5.774321e+001 
4406250000  -4.260082e+001  -6.130533e+001 
4409375000  -4.330918e+001  -6.331439e+001 
4412500000  -4.430787e+001  -7.087075e+001 
4415625000  -4.395093e+001  -6.599030e+001 
4418750000  -4.252990e+001  -6.712073e+001 
