!Agilent Technologies,E8363B,MY43030201,A.06.04.32
!Agilent E8363B: A.06.04.32
!Date: Tuesday, November 11, 2014 21:43:42
!Correction: S21(Response(S21)) 
!S1P File: Measurement: S21:
# Hz S  dB   R 50
3000000000  -4.351651e+001  -1.598553e+002 
3003125000  -4.515987e+001  -1.661167e+002 
3006250000  -4.529023e+001  -1.664404e+002 
3009375000  -4.586087e+001  -1.618943e+002 
3012500000  -4.479480e+001  -1.701095e+002 
3015625000  -4.502487e+001  -1.758024e+002 
3018750000  -4.542226e+001  -1.748047e+002 
3021875000  -4.384932e+001  -1.776210e+002 
3025000000  -4.249516e+001  1.796100e+002 
3028125000  -4.163946e+001  1.663494e+002 
3031250000  -4.108256e+001  1.533592e+002 
3034375000  -4.070875e+001  1.395825e+002 
3037500000  -4.176314e+001  1.299932e+002 
3040625000  -4.285631e+001  1.236207e+002 
3043750000  -4.321709e+001  1.147123e+002 
3046875000  -4.404217e+001  1.093966e+002 
3050000000  -4.506938e+001  1.022422e+002 
3053125000  -4.478161e+001  1.077447e+002 
3056250000  -4.459608e+001  1.105422e+002 
3059375000  -4.375488e+001  1.065217e+002 
3062500000  -4.270579e+001  1.014339e+002 
3065625000  -4.211957e+001  9.036864e+001 
3068750000  -4.172221e+001  8.180653e+001 
3071875000  -4.167496e+001  7.883542e+001 
3075000000  -4.114167e+001  7.160930e+001 
3078125000  -4.120828e+001  6.519640e+001 
3081250000  -4.128283e+001  5.919328e+001 
3084375000  -4.049898e+001  5.264489e+001 
3087500000  -4.058964e+001  4.509381e+001 
3090625000  -3.996295e+001  3.210042e+001 
3093750000  -4.089629e+001  2.330483e+001 
3096875000  -4.108061e+001  1.749450e+001 
3100000000  -4.116270e+001  1.325108e+001 
3103125000  -4.139400e+001  9.810426e+000 
3106250000  -4.097281e+001  1.974731e+000 
3109375000  -4.113441e+001  -3.101372e+000 
3112500000  -4.083407e+001  -9.632368e+000 
3115625000  -4.078505e+001  -1.445088e+001 
3118750000  -4.087666e+001  -1.928586e+001 
3121875000  -4.018982e+001  -3.126573e+001 
3125000000  -4.209091e+001  -3.551593e+001 
3128125000  -4.178337e+001  -2.954101e+001 
3131250000  -3.958700e+001  -3.742012e+001 
3134375000  -3.899837e+001  -5.475932e+001 
3137500000  -3.965644e+001  -6.830932e+001 
3140625000  -4.084644e+001  -7.198634e+001 
3143750000  -4.142108e+001  -7.714458e+001 
3146875000  -4.118055e+001  -7.621674e+001 
3150000000  -4.043040e+001  -8.095022e+001 
3153125000  -4.060900e+001  -8.951032e+001 
3156250000  -4.132898e+001  -8.751532e+001 
3159375000  -3.920760e+001  -9.052679e+001 
3162500000  -3.777119e+001  -1.066717e+002 
3165625000  -3.909679e+001  -1.203857e+002 
3168750000  -3.923816e+001  -1.225440e+002 
3171875000  -3.867429e+001  -1.315147e+002 
3175000000  -3.914539e+001  -1.417083e+002 
3178125000  -3.873370e+001  -1.432839e+002 
3181250000  -3.821509e+001  -1.529991e+002 
3184375000  -3.770598e+001  -1.654647e+002 
3187500000  -3.933467e+001  1.794289e+002 
3190625000  -4.089760e+001  1.724686e+002 
3193750000  -4.110986e+001  1.755101e+002 
3196875000  -4.112255e+001  1.762454e+002 
3200000000  -3.986821e+001  1.707787e+002 
3203125000  -3.970271e+001  1.619535e+002 
3206250000  -3.976275e+001  1.540256e+002 
3209375000  -3.963535e+001  1.431161e+002 
3212500000  -3.990762e+001  1.368327e+002 
3215625000  -3.971508e+001  1.344193e+002 
3218750000  -4.032666e+001  1.221880e+002 
3221875000  -4.053279e+001  1.144115e+002 
3225000000  -4.053489e+001  1.095128e+002 
3228125000  -4.116726e+001  1.025371e+002 
3231250000  -4.137793e+001  9.952421e+001 
3234375000  -4.098886e+001  9.451512e+001 
3237500000  -4.097930e+001  9.133838e+001 
3240625000  -4.046872e+001  8.392017e+001 
3243750000  -4.027523e+001  7.241217e+001 
3246875000  -4.069268e+001  6.402368e+001 
3250000000  -4.133936e+001  5.930514e+001 
3253125000  -4.135873e+001  5.539779e+001 
3256250000  -4.045982e+001  4.643797e+001 
3259375000  -4.108446e+001  3.325654e+001 
3262500000  -4.245553e+001  2.823875e+001 
3265625000  -4.245419e+001  2.983819e+001 
3268750000  -4.255917e+001  2.634566e+001 
3271875000  -4.179039e+001  2.188019e+001 
3275000000  -4.104142e+001  1.195118e+001 
3278125000  -4.172461e+001  4.568521e+000 
3281250000  -4.196344e+001  -6.946348e-002 
3284375000  -4.112443e+001  -7.144840e+000 
3287500000  -4.182999e+001  -1.472692e+001 
3290625000  -4.173873e+001  -2.409792e+001 
3293750000  -4.157355e+001  -3.324122e+001 
3296875000  -4.282653e+001  -3.752752e+001 
3300000000  -4.228807e+001  -3.880455e+001 
3303125000  -4.093736e+001  -4.956127e+001 
3306250000  -4.093191e+001  -5.840757e+001 
3309375000  -4.072107e+001  -7.034602e+001 
3312500000  -4.124768e+001  -8.425254e+001 
3315625000  -4.236196e+001  -9.360373e+001 
3318750000  -4.395346e+001  -9.955225e+001 
3321875000  -4.533244e+001  -9.753828e+001 
3325000000  -4.496827e+001  -9.686178e+001 
3328125000  -4.411511e+001  -9.894778e+001 
3331250000  -4.245146e+001  -9.977518e+001 
3334375000  -3.998622e+001  -1.158084e+002 
3337500000  -4.094688e+001  -1.409497e+002 
3340625000  -4.284821e+001  -1.510472e+002 
3343750000  -4.486027e+001  -1.526794e+002 
3346875000  -4.397527e+001  -1.553606e+002 
3350000000  -4.384961e+001  -1.614774e+002 
3353125000  -4.375125e+001  -1.701755e+002 
3356250000  -4.338258e+001  -1.794253e+002 
3359375000  -4.418914e+001  1.656086e+002 
3362500000  -4.510397e+001  1.595967e+002 
3365625000  -4.574728e+001  1.532199e+002 
3368750000  -4.660807e+001  1.483455e+002 
3371875000  -4.730753e+001  1.408946e+002 
3375000000  -4.883476e+001  1.322709e+002 
3378125000  -4.948645e+001  1.332789e+002 
3381250000  -5.059501e+001  1.398997e+002 
3384375000  -4.779521e+001  1.549226e+002 
3387500000  -4.521652e+001  1.316336e+002 
3390625000  -4.724349e+001  1.044091e+002 
3393750000  -4.741556e+001  1.018477e+002 
3396875000  -4.639777e+001  1.045436e+002 
3400000000  -4.638882e+001  8.777048e+001 
3403125000  -4.759763e+001  7.773516e+001 
3406250000  -4.756091e+001  6.991251e+001 
3409375000  -4.746866e+001  6.137730e+001 
3412500000  -4.825801e+001  5.300790e+001 
3415625000  -4.878595e+001  5.163393e+001 
3418750000  -4.861577e+001  4.540897e+001 
3421875000  -4.896466e+001  3.996931e+001 
3425000000  -4.755125e+001  3.680973e+001 
3428125000  -4.709351e+001  2.772474e+001 
3431250000  -4.689202e+001  1.792891e+001 
3434375000  -4.690960e+001  4.314963e-001 
3437500000  -4.769200e+001  -5.759881e+000 
3440625000  -4.795533e+001  -6.954810e+000 
3443750000  -4.661655e+001  -1.331137e+001 
3446875000  -4.551471e+001  -2.761480e+001 
3450000000  -4.547453e+001  -4.212848e+001 
3453125000  -4.561095e+001  -6.092246e+001 
3456250000  -4.719244e+001  -6.917169e+001 
3459375000  -4.821216e+001  -7.225450e+001 
3462500000  -4.770173e+001  -7.129809e+001 
3465625000  -4.729872e+001  -8.812849e+001 
3468750000  -4.756096e+001  -9.643028e+001 
3471875000  -4.692531e+001  -1.044050e+002 
3475000000  -4.743696e+001  -1.162440e+002 
3478125000  -4.695435e+001  -1.282414e+002 
3481250000  -4.890361e+001  -1.336015e+002 
3484375000  -4.891462e+001  -1.298086e+002 
3487500000  -4.763658e+001  -1.417600e+002 
3490625000  -4.725986e+001  -1.491800e+002 
3493750000  -4.773447e+001  -1.655903e+002 
3496875000  -4.796877e+001  -1.678438e+002 
3500000000  -4.820734e+001  -1.685807e+002 
3503125000  -4.715424e+001  -1.727891e+002 
3506250000  -4.564719e+001  1.725285e+002 
3509375000  -4.530467e+001  1.553096e+002 
3512500000  -4.607161e+001  1.408358e+002 
3515625000  -4.746286e+001  1.314093e+002 
3518750000  -4.819250e+001  1.327291e+002 
3521875000  -4.815532e+001  1.179522e+002 
3525000000  -4.859894e+001  1.185035e+002 
3528125000  -4.751236e+001  1.167087e+002 
3531250000  -4.641662e+001  1.069166e+002 
3534375000  -4.690875e+001  8.897626e+001 
3537500000  -4.789263e+001  8.070840e+001 
3540625000  -4.889049e+001  7.690084e+001 
3543750000  -4.933583e+001  8.026550e+001 
3546875000  -4.857290e+001  8.630035e+001 
3550000000  -4.670291e+001  7.409215e+001 
3553125000  -4.594188e+001  5.905774e+001 
3556250000  -4.734221e+001  4.855938e+001 
3559375000  -4.671151e+001  4.624089e+001 
3562500000  -4.668517e+001  3.095004e+001 
3565625000  -4.772016e+001  2.665686e+001 
3568750000  -4.793999e+001  2.363816e+001 
3571875000  -4.721485e+001  2.227820e+001 
3575000000  -4.688696e+001  1.275429e+001 
3578125000  -4.735922e+001  1.058972e+001 
3581250000  -4.736869e+001  2.426219e+000 
3584375000  -4.574036e+001  1.279385e-001 
3587500000  -4.533788e+001  -1.299973e+001 
3590625000  -4.660059e+001  -2.189295e+001 
3593750000  -4.762423e+001  -2.583668e+001 
3596875000  -4.693484e+001  -1.866679e+001 
3600000000  -4.463494e+001  -3.320858e+001 
3603125000  -4.507584e+001  -4.556706e+001 
3606250000  -4.584375e+001  -5.450432e+001 
3609375000  -4.611062e+001  -5.492570e+001 
3612500000  -4.604459e+001  -6.165340e+001 
3615625000  -4.568388e+001  -6.862298e+001 
3618750000  -4.618933e+001  -6.704642e+001 
3621875000  -4.539532e+001  -7.448697e+001 
3625000000  -4.541317e+001  -7.932803e+001 
3628125000  -4.500901e+001  -8.477922e+001 
3631250000  -4.531901e+001  -9.576527e+001 
3634375000  -4.572931e+001  -9.352462e+001 
3637500000  -4.447638e+001  -1.000897e+002 
3640625000  -4.386127e+001  -1.039282e+002 
3643750000  -4.296341e+001  -1.164419e+002 
3646875000  -4.385675e+001  -1.289639e+002 
3650000000  -4.385382e+001  -1.322054e+002 
3653125000  -4.360751e+001  -1.411790e+002 
3656250000  -4.404432e+001  -1.457432e+002 
3659375000  -4.367201e+001  -1.500101e+002 
3662500000  -4.343663e+001  -1.570425e+002 
3665625000  -4.327792e+001  -1.636578e+002 
3668750000  -4.193267e+001  -1.654495e+002 
3671875000  -4.163714e+001  1.790770e+002 
3675000000  -4.213505e+001  1.694336e+002 
3678125000  -4.278184e+001  1.643736e+002 
3681250000  -4.216193e+001  1.598935e+002 
3684375000  -4.280749e+001  1.500826e+002 
3687500000  -4.314534e+001  1.424216e+002 
3690625000  -4.354887e+001  1.361949e+002 
3693750000  -4.433433e+001  1.363489e+002 
3696875000  -4.349002e+001  1.317764e+002 
3700000000  -4.297391e+001  1.236152e+002 
3703125000  -4.343930e+001  1.146651e+002 
3706250000  -4.463224e+001  1.115901e+002 
3709375000  -4.389151e+001  1.132241e+002 
3712500000  -4.272385e+001  1.077026e+002 
3715625000  -4.175048e+001  9.705733e+001 
3718750000  -4.191294e+001  8.818198e+001 
3721875000  -4.180930e+001  7.943301e+001 
3725000000  -4.241892e+001  7.101501e+001 
3728125000  -4.254943e+001  6.756769e+001 
3731250000  -4.200045e+001  6.134138e+001 
3734375000  -4.192823e+001  5.410853e+001 
3737500000  -4.298385e+001  4.507313e+001 
3740625000  -4.327213e+001  3.990396e+001 
3743750000  -4.302934e+001  3.517471e+001 
3746875000  -4.343761e+001  2.580827e+001 
3750000000  -4.349070e+001  2.301154e+001 
3753125000  -4.388602e+001  2.170802e+001 
3756250000  -4.365781e+001  1.625830e+001 
3759375000  -4.367587e+001  1.011160e+001 
3762500000  -4.349763e+001  5.674905e+000 
3765625000  -4.425029e+001  -9.415095e-001 
3768750000  -4.370788e+001  1.073062e+000 
3771875000  -4.239957e+001  -5.684819e+000 
3775000000  -4.221573e+001  -1.861249e+001 
3778125000  -4.278009e+001  -2.300791e+001 
3781250000  -4.264161e+001  -2.779752e+001 
3784375000  -4.276743e+001  -3.441957e+001 
3787500000  -4.254286e+001  -3.964806e+001 
3790625000  -4.287292e+001  -4.805630e+001 
3793750000  -4.263329e+001  -5.387536e+001 
3796875000  -4.184692e+001  -5.801204e+001 
3800000000  -4.072813e+001  -6.500291e+001 
3803125000  -4.191269e+001  -7.633281e+001 
3806250000  -4.261230e+001  -8.235915e+001 
3809375000  -4.195303e+001  -8.601965e+001 
3812500000  -4.148890e+001  -9.858818e+001 
3815625000  -4.289265e+001  -1.089599e+002 
3818750000  -4.469088e+001  -1.062399e+002 
3821875000  -4.357795e+001  -9.560797e+001 
3825000000  -4.152039e+001  -1.028728e+002 
3828125000  -4.029160e+001  -1.233527e+002 
3831250000  -4.154676e+001  -1.374441e+002 
3834375000  -4.368235e+001  -1.386583e+002 
3837500000  -4.395458e+001  -1.375957e+002 
3840625000  -4.207854e+001  -1.410019e+002 
3843750000  -4.194271e+001  -1.559869e+002 
3846875000  -4.361411e+001  -1.632808e+002 
3850000000  -4.424109e+001  -1.613408e+002 
3853125000  -4.338772e+001  -1.614998e+002 
3856250000  -4.280474e+001  -1.710453e+002 
3859375000  -4.215501e+001  -1.772696e+002 
3862500000  -4.245667e+001  1.720270e+002 
3865625000  -4.285869e+001  1.664895e+002 
3868750000  -4.248128e+001  1.638913e+002 
3871875000  -4.159464e+001  1.547491e+002 
3875000000  -4.256717e+001  1.433947e+002 
3878125000  -4.337276e+001  1.422436e+002 
3881250000  -4.315517e+001  1.419185e+002 
3884375000  -4.265904e+001  1.297815e+002 
3887500000  -4.364172e+001  1.263217e+002 
3890625000  -4.432184e+001  1.204408e+002 
3893750000  -4.423252e+001  1.176870e+002 
3896875000  -4.400800e+001  1.158559e+002 
3900000000  -4.420925e+001  1.108977e+002 
3903125000  -4.334678e+001  1.053828e+002 
3906250000  -4.352456e+001  1.014068e+002 
3909375000  -4.291191e+001  9.052089e+001 
3912500000  -4.384776e+001  8.049747e+001 
3915625000  -4.512907e+001  8.030344e+001 
3918750000  -4.440990e+001  7.790108e+001 
3921875000  -4.389145e+001  7.548998e+001 
3925000000  -4.315341e+001  6.719379e+001 
3928125000  -4.285151e+001  5.790653e+001 
3931250000  -4.399486e+001  5.239938e+001 
3934375000  -4.402125e+001  4.886179e+001 
3937500000  -4.472381e+001  4.676181e+001 
3940625000  -4.483422e+001  4.485685e+001 
3943750000  -4.335743e+001  3.837539e+001 
3946875000  -4.268847e+001  3.101697e+001 
3950000000  -4.372939e+001  2.219027e+001 
3953125000  -4.423285e+001  2.341818e+001 
3956250000  -4.327090e+001  2.316539e+001 
3959375000  -4.217710e+001  1.735381e+001 
3962500000  -4.184848e+001  6.561826e+000 
3965625000  -4.173058e+001  -6.209486e+000 
3968750000  -4.297751e+001  -1.282545e+001 
3971875000  -4.282646e+001  -1.929162e+001 
3975000000  -4.193283e+001  -2.541814e+001 
3978125000  -4.243762e+001  -3.064722e+001 
3981250000  -4.196861e+001  -3.673687e+001 
3984375000  -4.279372e+001  -4.543290e+001 
3987500000  -4.322888e+001  -5.162450e+001 
3990625000  -4.360801e+001  -5.155068e+001 
3993750000  -4.279998e+001  -6.189133e+001 
3996875000  -4.294842e+001  -6.664021e+001 
4000000000  -4.361921e+001  -6.921156e+001 
4003125000  -4.366846e+001  -7.049293e+001 
4006250000  -4.216785e+001  -7.616504e+001 
4009375000  -4.152809e+001  -9.317622e+001 
4012500000  -4.314318e+001  -1.010856e+002 
4015625000  -4.410610e+001  -1.010728e+002 
4018750000  -4.425932e+001  -1.051326e+002 
4021875000  -4.319642e+001  -1.113823e+002 
4025000000  -4.363774e+001  -1.182882e+002 
4028125000  -4.357775e+001  -1.242202e+002 
4031250000  -4.393656e+001  -1.325208e+002 
4034375000  -4.426764e+001  -1.363642e+002 
4037500000  -4.437105e+001  -1.395340e+002 
4040625000  -4.441460e+001  -1.433885e+002 
4043750000  -4.489072e+001  -1.506617e+002 
4046875000  -4.482241e+001  -1.536681e+002 
4050000000  -4.420403e+001  -1.631673e+002 
4053125000  -4.540758e+001  -1.638979e+002 
4056250000  -4.603165e+001  -1.605880e+002 
4059375000  -4.408885e+001  -1.625965e+002 
4062500000  -4.355367e+001  -1.724547e+002 
4065625000  -4.354926e+001  -1.758957e+002 
4068750000  -4.300916e+001  1.709500e+002 
4071875000  -4.320478e+001  1.626531e+002 
4075000000  -4.416933e+001  1.579838e+002 
4078125000  -4.434054e+001  1.530254e+002 
4081250000  -4.402805e+001  1.453992e+002 
4084375000  -4.394776e+001  1.358233e+002 
4087500000  -4.426959e+001  1.331113e+002 
4090625000  -4.519104e+001  1.310731e+002 
4093750000  -4.500255e+001  1.275048e+002 
4096875000  -4.473531e+001  1.205781e+002 
4100000000  -4.548448e+001  1.109222e+002 
4103125000  -4.587722e+001  1.192746e+002 
4106250000  -4.550390e+001  1.168483e+002 
4109375000  -4.456738e+001  1.123778e+002 
4112500000  -4.474821e+001  1.032513e+002 
4115625000  -4.427566e+001  9.923359e+001 
4118750000  -4.403787e+001  8.971130e+001 
4121875000  -4.432845e+001  8.567377e+001 
4125000000  -4.520676e+001  7.798694e+001 
4128125000  -4.557866e+001  8.204195e+001 
4131250000  -4.413968e+001  8.374281e+001 
4134375000  -4.184266e+001  7.387339e+001 
4137500000  -4.235482e+001  5.055605e+001 
4140625000  -4.441991e+001  4.574295e+001 
4143750000  -4.486782e+001  5.166680e+001 
4146875000  -4.438298e+001  5.075069e+001 
4150000000  -4.313709e+001  4.187364e+001 
4153125000  -4.362160e+001  3.341399e+001 
4156250000  -4.415042e+001  2.809496e+001 
4159375000  -4.384312e+001  3.080662e+001 
4162500000  -4.286277e+001  3.003220e+001 
4165625000  -4.188940e+001  1.959931e+001 
4168750000  -4.171298e+001  7.727948e+000 
4171875000  -4.147941e+001  -2.546924e+000 
4175000000  -4.217828e+001  -1.271499e+001 
4178125000  -4.266125e+001  -1.453154e+001 
4181250000  -4.193248e+001  -2.207203e+001 
4184375000  -4.307098e+001  -2.474662e+001 
4187500000  -4.285374e+001  -3.071198e+001 
4190625000  -4.312418e+001  -4.289988e+001 
4193750000  -4.454837e+001  -5.098354e+001 
4196875000  -4.542795e+001  -5.160463e+001 
4200000000  -4.632276e+001  -4.316442e+001 
4203125000  -4.482398e+001  -3.702058e+001 
4206250000  -4.195155e+001  -4.274368e+001 
4209375000  -4.187684e+001  -7.175587e+001 
4212500000  -4.397993e+001  -7.505087e+001 
4215625000  -4.428448e+001  -6.749930e+001 
4218750000  -4.278199e+001  -6.936604e+001 
4221875000  -4.144732e+001  -8.148265e+001 
4225000000  -4.275590e+001  -9.212969e+001 
4228125000  -4.263482e+001  -9.192433e+001 
4231250000  -4.162928e+001  -1.015312e+002 
4234375000  -4.138853e+001  -1.096894e+002 
4237500000  -4.088997e+001  -1.179065e+002 
4240625000  -4.155848e+001  -1.269948e+002 
4243750000  -4.292266e+001  -1.361279e+002 
4246875000  -4.363708e+001  -1.364861e+002 
4250000000  -4.338226e+001  -1.368576e+002 
4253125000  -4.285869e+001  -1.404584e+002 
4256250000  -4.283131e+001  -1.445236e+002 
4259375000  -4.242591e+001  -1.510056e+002 
4262500000  -4.246662e+001  -1.560031e+002 
4265625000  -4.287532e+001  -1.573732e+002 
4268750000  -4.149823e+001  -1.669272e+002 
4271875000  -4.128558e+001  -1.776432e+002 
4275000000  -4.084842e+001  1.749411e+002 
4278125000  -4.155947e+001  1.593210e+002 
4281250000  -4.296424e+001  1.597475e+002 
4284375000  -4.201942e+001  1.562549e+002 
4287500000  -4.379700e+001  1.534876e+002 
4290625000  -4.392596e+001  1.576792e+002 
4293750000  -4.191725e+001  1.566623e+002 
4296875000  -4.061956e+001  1.436587e+002 
4300000000  -4.197384e+001  1.339324e+002 
4303125000  -4.230216e+001  1.332364e+002 
4306250000  -4.113271e+001  1.345744e+002 
4309375000  -4.027635e+001  1.242003e+002 
4312500000  -4.004618e+001  1.120040e+002 
4315625000  -4.059526e+001  1.025774e+002 
4318750000  -4.124925e+001  9.823852e+001 
4321875000  -4.133111e+001  9.470860e+001 
4325000000  -4.048684e+001  8.973836e+001 
4328125000  -3.994631e+001  7.906056e+001 
4331250000  -4.003864e+001  6.724745e+001 
4334375000  -4.117748e+001  6.005599e+001 
4337500000  -4.257645e+001  5.897735e+001 
4340625000  -4.268148e+001  6.172635e+001 
4343750000  -4.166644e+001  5.550980e+001 
4346875000  -4.155500e+001  4.398108e+001 
4350000000  -4.187816e+001  3.568060e+001 
4353125000  -4.219191e+001  2.548215e+001 
4356250000  -4.448855e+001  3.129772e+001 
4359375000  -4.342099e+001  4.554047e+001 
4362500000  -3.986965e+001  3.159118e+001 
4365625000  -3.955540e+001  1.648256e+001 
4368750000  -4.108509e+001  4.155113e+000 
4371875000  -4.159265e+001  2.988610e+000 
4375000000  -4.103747e+001  -2.380707e+000 
4378125000  -4.106356e+001  -8.423855e+000 
4381250000  -4.096437e+001  -2.013590e+001 
4384375000  -4.132489e+001  -2.578248e+001 
4387500000  -4.227942e+001  -3.409793e+001 
4390625000  -4.296373e+001  -3.505362e+001 
4393750000  -4.227647e+001  -3.518523e+001 
4396875000  -4.136116e+001  -4.194482e+001 
4400000000  -4.134863e+001  -5.036264e+001 
4403125000  -4.218913e+001  -5.923539e+001 
4406250000  -4.286443e+001  -6.605225e+001 
4409375000  -4.333508e+001  -6.986170e+001 
4412500000  -4.398137e+001  -7.087403e+001 
4415625000  -4.344992e+001  -6.941550e+001 
4418750000  -4.228101e+001  -6.895587e+001 
