!Agilent Technologies,E8363B,MY43030201,A.06.04.32
!Agilent E8363B: A.06.04.32
!Date: Tuesday, November 11, 2014 21:53:13
!Correction: S21(Response(S21)) 
!S1P File: Measurement: S21:
# Hz S  dB   R 50
3000000000  -4.361906e+001  -1.631974e+002 
3003125000  -4.541196e+001  -1.693559e+002 
3006250000  -4.549425e+001  -1.688643e+002 
3009375000  -4.624569e+001  -1.658581e+002 
3012500000  -4.494134e+001  -1.739345e+002 
3015625000  -4.511239e+001  1.777471e+002 
3018750000  -4.550769e+001  -1.789919e+002 
3021875000  -4.392508e+001  1.791387e+002 
3025000000  -4.265854e+001  1.740826e+002 
3028125000  -4.186595e+001  1.639749e+002 
3031250000  -4.105924e+001  1.500539e+002 
3034375000  -4.073148e+001  1.357764e+002 
3037500000  -4.172419e+001  1.244553e+002 
3040625000  -4.276879e+001  1.198351e+002 
3043750000  -4.330333e+001  1.123104e+002 
3046875000  -4.433006e+001  1.040306e+002 
3050000000  -4.510286e+001  9.908717e+001 
3053125000  -4.500409e+001  1.050387e+002 
3056250000  -4.464866e+001  1.061886e+002 
3059375000  -4.377020e+001  1.048081e+002 
3062500000  -4.247435e+001  9.822240e+001 
3065625000  -4.213156e+001  8.584696e+001 
3068750000  -4.172758e+001  7.965689e+001 
3071875000  -4.161394e+001  7.727357e+001 
3075000000  -4.125004e+001  6.812658e+001 
3078125000  -4.129349e+001  6.167854e+001 
3081250000  -4.136170e+001  5.521658e+001 
3084375000  -4.037384e+001  4.917212e+001 
3087500000  -4.064716e+001  4.136349e+001 
3090625000  -4.002415e+001  2.961354e+001 
3093750000  -4.109485e+001  1.960943e+001 
3096875000  -4.130402e+001  1.507595e+001 
3100000000  -4.125145e+001  1.001486e+001 
3103125000  -4.123460e+001  5.355602e+000 
3106250000  -4.111279e+001  -2.606888e-001 
3109375000  -4.094243e+001  -5.004941e+000 
3112500000  -4.093641e+001  -1.385615e+001 
3115625000  -4.067299e+001  -1.767170e+001 
3118750000  -4.078977e+001  -2.370459e+001 
3121875000  -4.022509e+001  -3.441498e+001 
3125000000  -4.215831e+001  -3.874495e+001 
3128125000  -4.210796e+001  -3.236253e+001 
3131250000  -3.946040e+001  -4.096573e+001 
3134375000  -3.894343e+001  -5.831402e+001 
3137500000  -3.955793e+001  -7.214026e+001 
3140625000  -4.079726e+001  -7.602115e+001 
3143750000  -4.169458e+001  -8.233931e+001 
3146875000  -4.110858e+001  -7.873738e+001 
3150000000  -4.048217e+001  -8.409274e+001 
3153125000  -4.077439e+001  -9.343970e+001 
3156250000  -4.143205e+001  -9.032146e+001 
3159375000  -3.897353e+001  -9.239722e+001 
3162500000  -3.762744e+001  -1.102234e+002 
3165625000  -3.902300e+001  -1.236273e+002 
3168750000  -3.893536e+001  -1.257715e+002 
3171875000  -3.852313e+001  -1.350976e+002 
3175000000  -3.914320e+001  -1.444462e+002 
3178125000  -3.872787e+001  -1.468890e+002 
3181250000  -3.802345e+001  -1.560137e+002 
3184375000  -3.790138e+001  -1.668732e+002 
3187500000  -3.913416e+001  1.759528e+002 
3190625000  -4.076871e+001  1.671715e+002 
3193750000  -4.112752e+001  1.726463e+002 
3196875000  -4.099874e+001  1.725751e+002 
3200000000  -3.984276e+001  1.665126e+002 
3203125000  -3.955138e+001  1.580978e+002 
3206250000  -3.992519e+001  1.497411e+002 
3209375000  -3.948005e+001  1.412473e+002 
3212500000  -3.986109e+001  1.351267e+002 
3215625000  -3.957414e+001  1.315161e+002 
3218750000  -4.038861e+001  1.194155e+002 
3221875000  -4.053486e+001  1.109501e+002 
3225000000  -4.043265e+001  1.057959e+002 
3228125000  -4.114941e+001  9.730470e+001 
3231250000  -4.145276e+001  9.658900e+001 
3234375000  -4.090591e+001  9.165176e+001 
3237500000  -4.098822e+001  8.796804e+001 
3240625000  -4.038866e+001  8.088315e+001 
3243750000  -4.030516e+001  6.916174e+001 
3246875000  -4.059558e+001  6.131595e+001 
3250000000  -4.102964e+001  5.703254e+001 
3253125000  -4.109543e+001  5.375739e+001 
3256250000  -4.035073e+001  4.209999e+001 
3259375000  -4.077204e+001  2.994174e+001 
3262500000  -4.240529e+001  2.410654e+001 
3265625000  -4.250755e+001  2.546260e+001 
3268750000  -4.249248e+001  2.480632e+001 
3271875000  -4.164276e+001  1.860445e+001 
3275000000  -4.104628e+001  7.677179e+000 
3278125000  -4.171429e+001  1.797608e+000 
3281250000  -4.183751e+001  -2.793042e+000 
3284375000  -4.102168e+001  -1.105411e+001 
3287500000  -4.150202e+001  -1.779235e+001 
3290625000  -4.146441e+001  -2.735941e+001 
3293750000  -4.167386e+001  -3.693941e+001 
3296875000  -4.240691e+001  -4.133336e+001 
3300000000  -4.204666e+001  -4.209728e+001 
3303125000  -4.078606e+001  -5.224346e+001 
3306250000  -4.075773e+001  -6.279254e+001 
3309375000  -4.067251e+001  -7.319848e+001 
3312500000  -4.099475e+001  -8.794669e+001 
3315625000  -4.255366e+001  -9.589275e+001 
3318750000  -4.375504e+001  -1.030747e+002 
3321875000  -4.490794e+001  -9.992979e+001 
3325000000  -4.546059e+001  -9.527785e+001 
3328125000  -4.400792e+001  -9.845182e+001 
3331250000  -4.233549e+001  -9.875863e+001 
3334375000  -4.006735e+001  -1.177670e+002 
3337500000  -4.069087e+001  -1.420012e+002 
3340625000  -4.277908e+001  -1.509079e+002 
3343750000  -4.427509e+001  -1.532937e+002 
3346875000  -4.408033e+001  -1.581516e+002 
3350000000  -4.329479e+001  -1.633510e+002 
3353125000  -4.327969e+001  -1.750089e+002 
3356250000  -4.329839e+001  1.777795e+002 
3359375000  -4.433368e+001  1.656819e+002 
3362500000  -4.484174e+001  1.566973e+002 
3365625000  -4.571011e+001  1.507029e+002 
3368750000  -4.635352e+001  1.458198e+002 
3371875000  -4.701620e+001  1.389903e+002 
3375000000  -4.868710e+001  1.330567e+002 
3378125000  -4.920127e+001  1.311765e+002 
3381250000  -5.081212e+001  1.362902e+002 
3384375000  -4.777879e+001  1.487377e+002 
3387500000  -4.439440e+001  1.268065e+002 
3390625000  -4.682146e+001  1.042244e+002 
3393750000  -4.744477e+001  1.021440e+002 
3396875000  -4.605202e+001  9.850822e+001 
3400000000  -4.599482e+001  8.673620e+001 
3403125000  -4.700304e+001  7.958340e+001 
3406250000  -4.721531e+001  6.900207e+001 
3409375000  -4.747305e+001  5.943907e+001 
3412500000  -4.779870e+001  5.199687e+001 
3415625000  -4.885199e+001  4.712492e+001 
3418750000  -4.886857e+001  4.404685e+001 
3421875000  -4.874649e+001  4.026427e+001 
3425000000  -4.781171e+001  3.700141e+001 
3428125000  -4.725378e+001  2.543556e+001 
3431250000  -4.695517e+001  1.271301e+001 
3434375000  -4.751891e+001  1.473105e+000 
3437500000  -4.751950e+001  -6.286458e+000 
3440625000  -4.781785e+001  -8.343258e+000 
3443750000  -4.665557e+001  -1.379455e+001 
3446875000  -4.580042e+001  -2.765991e+001 
3450000000  -4.544240e+001  -4.506681e+001 
3453125000  -4.555865e+001  -6.105525e+001 
3456250000  -4.740321e+001  -7.251749e+001 
3459375000  -4.843412e+001  -7.532515e+001 
3462500000  -4.776726e+001  -8.009101e+001 
3465625000  -4.774881e+001  -9.125560e+001 
3468750000  -4.790138e+001  -9.693166e+001 
3471875000  -4.707963e+001  -1.055941e+002 
3475000000  -4.672355e+001  -1.180876e+002 
3478125000  -4.819619e+001  -1.305703e+002 
3481250000  -4.879845e+001  -1.351731e+002 
3484375000  -4.899340e+001  -1.365982e+002 
3487500000  -4.757693e+001  -1.437417e+002 
3490625000  -4.706178e+001  -1.532154e+002 
3493750000  -4.751882e+001  -1.666788e+002 
3496875000  -4.817544e+001  -1.714194e+002 
3500000000  -4.833977e+001  -1.728216e+002 
3503125000  -4.748336e+001  -1.749887e+002 
3506250000  -4.560872e+001  1.679588e+002 
3509375000  -4.544728e+001  1.496316e+002 
3512500000  -4.658087e+001  1.358592e+002 
3515625000  -4.722175e+001  1.306193e+002 
3518750000  -4.770472e+001  1.251110e+002 
3521875000  -4.773523e+001  1.155751e+002 
3525000000  -4.899564e+001  1.122152e+002 
3528125000  -4.741409e+001  1.118421e+002 
3531250000  -4.653093e+001  1.017516e+002 
3534375000  -4.678161e+001  8.338223e+001 
3537500000  -4.803212e+001  7.825814e+001 
3540625000  -4.908248e+001  7.153423e+001 
3543750000  -4.952626e+001  7.630103e+001 
3546875000  -4.898239e+001  8.054372e+001 
3550000000  -4.643372e+001  6.993684e+001 
3553125000  -4.589670e+001  5.407933e+001 
3556250000  -4.705017e+001  4.645256e+001 
3559375000  -4.669732e+001  3.960329e+001 
3562500000  -4.654670e+001  2.908801e+001 
3565625000  -4.715862e+001  2.287522e+001 
3568750000  -4.828144e+001  2.046932e+001 
3571875000  -4.713332e+001  1.654221e+001 
3575000000  -4.728085e+001  5.290621e+000 
3578125000  -4.730484e+001  3.649575e+000 
3581250000  -4.735183e+001  -4.585063e-001 
3584375000  -4.578526e+001  -6.110699e+000 
3587500000  -4.569876e+001  -1.562076e+001 
3590625000  -4.647239e+001  -2.844967e+001 
3593750000  -4.780126e+001  -2.869062e+001 
3596875000  -4.662199e+001  -2.426468e+001 
3600000000  -4.477147e+001  -3.703938e+001 
3603125000  -4.522604e+001  -5.316532e+001 
3606250000  -4.532303e+001  -5.752725e+001 
3609375000  -4.560806e+001  -5.908129e+001 
3612500000  -4.601746e+001  -6.716833e+001 
3615625000  -4.586856e+001  -7.143678e+001 
3618750000  -4.596507e+001  -7.484935e+001 
3621875000  -4.540445e+001  -8.075754e+001 
3625000000  -4.560915e+001  -8.243907e+001 
3628125000  -4.477991e+001  -9.099923e+001 
3631250000  -4.499997e+001  -1.021930e+002 
3634375000  -4.528510e+001  -1.037234e+002 
3637500000  -4.446253e+001  -1.026243e+002 
3640625000  -4.336458e+001  -1.105322e+002 
3643750000  -4.332179e+001  -1.203254e+002 
3646875000  -4.382544e+001  -1.320981e+002 
3650000000  -4.383989e+001  -1.397018e+002 
3653125000  -4.320941e+001  -1.447435e+002 
3656250000  -4.431163e+001  -1.505641e+002 
3659375000  -4.361123e+001  -1.551537e+002 
3662500000  -4.309256e+001  -1.624982e+002 
3665625000  -4.330181e+001  -1.673016e+002 
3668750000  -4.201202e+001  -1.722042e+002 
3671875000  -4.136751e+001  1.735418e+002 
3675000000  -4.229277e+001  1.645811e+002 
3678125000  -4.242802e+001  1.596461e+002 
3681250000  -4.225369e+001  1.541900e+002 
3684375000  -4.261874e+001  1.447957e+002 
3687500000  -4.274879e+001  1.368965e+002 
3690625000  -4.337718e+001  1.315363e+002 
3693750000  -4.448474e+001  1.292339e+002 
3696875000  -4.393814e+001  1.266865e+002 
3700000000  -4.298672e+001  1.175714e+002 
3703125000  -4.358637e+001  1.093131e+002 
3706250000  -4.475346e+001  1.088842e+002 
3709375000  -4.405947e+001  1.090662e+002 
3712500000  -4.274773e+001  1.041329e+002 
3715625000  -4.164603e+001  9.429682e+001 
3718750000  -4.186737e+001  8.424860e+001 
3721875000  -4.153624e+001  7.380217e+001 
3725000000  -4.237818e+001  6.680166e+001 
3728125000  -4.245473e+001  6.301726e+001 
3731250000  -4.165718e+001  5.657529e+001 
3734375000  -4.193789e+001  4.858496e+001 
3737500000  -4.272102e+001  4.244818e+001 
3740625000  -4.292907e+001  3.536194e+001 
3743750000  -4.301718e+001  2.749639e+001 
3746875000  -4.316372e+001  2.251370e+001 
3750000000  -4.334733e+001  1.785090e+001 
3753125000  -4.347610e+001  1.379058e+001 
3756250000  -4.377538e+001  1.235466e+001 
3759375000  -4.365990e+001  5.138125e+000 
3762500000  -4.330746e+001  3.040172e-002 
3765625000  -4.433057e+001  -6.747111e+000 
3768750000  -4.356282e+001  -3.005157e+000 
3771875000  -4.188211e+001  -1.115825e+001 
3775000000  -4.218408e+001  -2.001626e+001 
3778125000  -4.231893e+001  -2.892647e+001 
3781250000  -4.238463e+001  -3.355239e+001 
3784375000  -4.242516e+001  -4.043035e+001 
3787500000  -4.210690e+001  -4.320275e+001 
3790625000  -4.318045e+001  -5.437062e+001 
3793750000  -4.264953e+001  -5.679199e+001 
3796875000  -4.164846e+001  -6.438419e+001 
3800000000  -4.060279e+001  -6.836214e+001 
3803125000  -4.166479e+001  -8.220763e+001 
3806250000  -4.241478e+001  -8.581428e+001 
3809375000  -4.183499e+001  -9.113525e+001 
3812500000  -4.177228e+001  -1.026940e+002 
3815625000  -4.293221e+001  -1.134120e+002 
3818750000  -4.456334e+001  -1.127155e+002 
3821875000  -4.359344e+001  -1.011933e+002 
3825000000  -4.131348e+001  -1.072788e+002 
3828125000  -4.012693e+001  -1.261552e+002 
3831250000  -4.178476e+001  -1.446183e+002 
3834375000  -4.360312e+001  -1.442656e+002 
3837500000  -4.396321e+001  -1.415853e+002 
3840625000  -4.266211e+001  -1.468410e+002 
3843750000  -4.156058e+001  -1.622851e+002 
3846875000  -4.342612e+001  -1.680866e+002 
3850000000  -4.450436e+001  -1.593861e+002 
3853125000  -4.303194e+001  -1.657867e+002 
3856250000  -4.292737e+001  -1.750756e+002 
3859375000  -4.201097e+001  1.768145e+002 
3862500000  -4.214030e+001  1.650589e+002 
3865625000  -4.263068e+001  1.590498e+002 
3868750000  -4.222015e+001  1.594476e+002 
3871875000  -4.196030e+001  1.493576e+002 
3875000000  -4.233214e+001  1.386082e+002 
3878125000  -4.331180e+001  1.378208e+002 
3881250000  -4.305172e+001  1.343704e+002 
3884375000  -4.257655e+001  1.251076e+002 
3887500000  -4.303598e+001  1.180813e+002 
3890625000  -4.367292e+001  1.124139e+002 
3893750000  -4.396469e+001  1.109647e+002 
3896875000  -4.425606e+001  1.112353e+002 
3900000000  -4.411446e+001  1.053378e+002 
3903125000  -4.326672e+001  9.876245e+001 
3906250000  -4.366882e+001  9.335744e+001 
3909375000  -4.251381e+001  8.643899e+001 
3912500000  -4.359541e+001  7.711040e+001 
3915625000  -4.488687e+001  7.590165e+001 
3918750000  -4.391922e+001  7.383922e+001 
3921875000  -4.357628e+001  7.152337e+001 
3925000000  -4.314090e+001  6.233471e+001 
3928125000  -4.292599e+001  5.432444e+001 
3931250000  -4.368481e+001  4.710728e+001 
3934375000  -4.396718e+001  4.522974e+001 
3937500000  -4.429748e+001  4.222580e+001 
3940625000  -4.466245e+001  4.218316e+001 
3943750000  -4.301362e+001  3.420412e+001 
3946875000  -4.281739e+001  2.944730e+001 
3950000000  -4.340316e+001  1.734866e+001 
3953125000  -4.470246e+001  1.726132e+001 
3956250000  -4.238102e+001  1.517788e+001 
3959375000  -4.135473e+001  1.117969e+001 
3962500000  -4.155249e+001  -4.960718e-001 
3965625000  -4.181719e+001  -1.046468e+001 
3968750000  -4.235222e+001  -1.978206e+001 
3971875000  -4.226220e+001  -2.365370e+001 
3975000000  -4.209368e+001  -2.965524e+001 
3978125000  -4.201739e+001  -3.562410e+001 
3981250000  -4.158845e+001  -4.136939e+001 
3984375000  -4.241879e+001  -5.308301e+001 
3987500000  -4.283549e+001  -5.526031e+001 
3990625000  -4.286581e+001  -5.897553e+001 
3993750000  -4.289184e+001  -6.770287e+001 
3996875000  -4.304036e+001  -7.288297e+001 
4000000000  -4.367420e+001  -7.404314e+001 
4003125000  -4.352123e+001  -7.381672e+001 
4006250000  -4.206728e+001  -8.173558e+001 
4009375000  -4.142271e+001  -9.824293e+001 
4012500000  -4.232835e+001  -1.051649e+002 
4015625000  -4.390198e+001  -1.047356e+002 
4018750000  -4.344594e+001  -1.103370e+002 
4021875000  -4.268952e+001  -1.180524e+002 
4025000000  -4.301385e+001  -1.222591e+002 
4028125000  -4.344995e+001  -1.342793e+002 
4031250000  -4.365960e+001  -1.386457e+002 
4034375000  -4.428721e+001  -1.406474e+002 
4037500000  -4.398895e+001  -1.453967e+002 
4040625000  -4.419798e+001  -1.534809e+002 
4043750000  -4.434503e+001  -1.541864e+002 
4046875000  -4.408406e+001  -1.598459e+002 
4050000000  -4.389763e+001  -1.654970e+002 
4053125000  -4.495479e+001  -1.692057e+002 
4056250000  -4.587749e+001  -1.658507e+002 
4059375000  -4.413438e+001  -1.683840e+002 
4062500000  -4.317154e+001  -1.754711e+002 
4065625000  -4.296616e+001  1.772064e+002 
4068750000  -4.276962e+001  1.694591e+002 
4071875000  -4.246674e+001  1.572453e+002 
4075000000  -4.362933e+001  1.525269e+002 
4078125000  -4.372020e+001  1.493043e+002 
4081250000  -4.361517e+001  1.420589e+002 
4084375000  -4.328960e+001  1.330942e+002 
4087500000  -4.384134e+001  1.246038e+002 
4090625000  -4.471733e+001  1.242962e+002 
4093750000  -4.397470e+001  1.242523e+002 
4096875000  -4.420609e+001  1.136924e+002 
4100000000  -4.490033e+001  1.082589e+002 
4103125000  -4.535337e+001  1.091502e+002 
4106250000  -4.517045e+001  1.106324e+002 
4109375000  -4.392576e+001  1.067359e+002 
4112500000  -4.394315e+001  9.676353e+001 
4115625000  -4.414469e+001  9.191000e+001 
4118750000  -4.413850e+001  8.547595e+001 
4121875000  -4.361649e+001  7.914930e+001 
4125000000  -4.422579e+001  7.257938e+001 
4128125000  -4.512919e+001  7.328606e+001 
4131250000  -4.345050e+001  7.900220e+001 
4134375000  -4.163914e+001  6.604504e+001 
4137500000  -4.195883e+001  4.560378e+001 
4140625000  -4.435671e+001  3.865369e+001 
4143750000  -4.507893e+001  4.549896e+001 
4146875000  -4.392130e+001  4.628696e+001 
4150000000  -4.277407e+001  3.619855e+001 
4153125000  -4.324335e+001  2.549947e+001 
4156250000  -4.419633e+001  2.326892e+001 
4159375000  -4.355347e+001  2.658773e+001 
4162500000  -4.242584e+001  2.213095e+001 
4165625000  -4.115568e+001  1.362040e+001 
4168750000  -4.087381e+001  1.259795e+000 
4171875000  -4.111684e+001  -1.089435e+001 
4175000000  -4.192792e+001  -1.774924e+001 
4178125000  -4.228703e+001  -2.238030e+001 
4181250000  -4.215837e+001  -2.829106e+001 
4184375000  -4.263881e+001  -3.356633e+001 
4187500000  -4.218341e+001  -4.054736e+001 
4190625000  -4.237510e+001  -4.940054e+001 
4193750000  -4.421724e+001  -5.431130e+001 
4196875000  -4.462482e+001  -6.066224e+001 
4200000000  -4.639312e+001  -4.975106e+001 
4203125000  -4.396186e+001  -4.146399e+001 
4206250000  -4.116925e+001  -5.106798e+001 
4209375000  -4.103820e+001  -7.788022e+001 
4212500000  -4.345679e+001  -8.183489e+001 
4215625000  -4.384573e+001  -7.678464e+001 
4218750000  -4.241809e+001  -7.756634e+001 
4221875000  -4.057837e+001  -9.066568e+001 
4225000000  -4.193643e+001  -1.001912e+002 
4228125000  -4.196003e+001  -9.533443e+001 
4231250000  -4.081845e+001  -1.091447e+002 
4234375000  -4.059617e+001  -1.164080e+002 
4237500000  -4.054745e+001  -1.256427e+002 
4240625000  -4.103970e+001  -1.353898e+002 
4243750000  -4.232835e+001  -1.403559e+002 
4246875000  -4.254572e+001  -1.439943e+002 
4250000000  -4.270947e+001  -1.449288e+002 
4253125000  -4.245404e+001  -1.471657e+002 
4256250000  -4.243118e+001  -1.534957e+002 
4259375000  -4.201659e+001  -1.565752e+002 
4262500000  -4.227057e+001  -1.625625e+002 
4265625000  -4.208851e+001  -1.632749e+002 
4268750000  -4.059230e+001  -1.726175e+002 
4271875000  -4.075807e+001  1.756736e+002 
4275000000  -4.016732e+001  1.661841e+002 
4278125000  -4.154872e+001  1.538725e+002 
4281250000  -4.235971e+001  1.539928e+002 
4284375000  -4.227495e+001  1.509476e+002 
4287500000  -4.332431e+001  1.450610e+002 
4290625000  -4.399844e+001  1.523654e+002 
4293750000  -4.124310e+001  1.496036e+002 
4296875000  -4.072861e+001  1.374465e+002 
4300000000  -4.165956e+001  1.263734e+002 
4303125000  -4.159417e+001  1.275968e+002 
4306250000  -4.057935e+001  1.271966e+002 
4309375000  -3.968810e+001  1.173144e+002 
4312500000  -3.964001e+001  1.032994e+002 
4315625000  -4.016119e+001  9.440939e+001 
4318750000  -4.083549e+001  8.969945e+001 
4321875000  -4.078596e+001  8.906268e+001 
4325000000  -4.001480e+001  8.244300e+001 
4328125000  -3.923001e+001  7.200641e+001 
4331250000  -3.974722e+001  6.094171e+001 
4334375000  -4.075354e+001  4.986211e+001 
4337500000  -4.184736e+001  5.121761e+001 
4340625000  -4.236579e+001  5.291698e+001 
4343750000  -4.099197e+001  4.875453e+001 
4346875000  -4.070829e+001  4.029179e+001 
4350000000  -4.082462e+001  2.794994e+001 
4353125000  -4.193558e+001  2.027157e+001 
4356250000  -4.391160e+001  2.538672e+001 
4359375000  -4.282925e+001  3.395687e+001 
4362500000  -3.954070e+001  2.529720e+001 
4365625000  -3.873063e+001  8.736672e+000 
4368750000  -4.033574e+001  -1.834564e+000 
4371875000  -4.105709e+001  -4.159429e+000 
4375000000  -4.059338e+001  -1.107604e+001 
4378125000  -4.049290e+001  -1.861908e+001 
4381250000  -4.024906e+001  -2.721453e+001 
4384375000  -4.040620e+001  -3.275363e+001 
4387500000  -4.130159e+001  -4.312154e+001 
4390625000  -4.197198e+001  -4.112431e+001 
4393750000  -4.154717e+001  -4.352352e+001 
4396875000  -4.118695e+001  -5.086445e+001 
4400000000  -4.099918e+001  -5.979226e+001 
4403125000  -4.116606e+001  -6.981085e+001 
4406250000  -4.206659e+001  -7.263138e+001 
4409375000  -4.232030e+001  -7.483493e+001 
4412500000  -4.369438e+001  -7.899533e+001 
4415625000  -4.306300e+001  -7.647352e+001 
4418750000  -4.137222e+001  -7.766272e+001 
