!Agilent Technologies,E8363B,MY43030201,A.06.04.32
!Agilent E8363B: A.06.04.32
!Date: Tuesday, November 11, 2014 21:42:01
!Correction: S21(Response(S21)) 
!S1P File: Measurement: S21:
# Hz S  dB   R 50
3000000000  -4.372096e+001  -1.587122e+002 
3003125000  -4.517093e+001  -1.636396e+002 
3006250000  -4.520526e+001  -1.637289e+002 
3009375000  -4.611665e+001  -1.617769e+002 
3012500000  -4.514606e+001  -1.679164e+002 
3015625000  -4.502733e+001  -1.742119e+002 
3018750000  -4.544958e+001  -1.752129e+002 
3021875000  -4.383547e+001  -1.755876e+002 
3025000000  -4.260454e+001  1.799307e+002 
3028125000  -4.183094e+001  1.674718e+002 
3031250000  -4.091766e+001  1.560663e+002 
3034375000  -4.079172e+001  1.403696e+002 
3037500000  -4.178955e+001  1.304402e+002 
3040625000  -4.296623e+001  1.248344e+002 
3043750000  -4.328190e+001  1.165890e+002 
3046875000  -4.406526e+001  1.101257e+002 
3050000000  -4.521909e+001  1.053701e+002 
3053125000  -4.498285e+001  1.085988e+002 
3056250000  -4.483015e+001  1.121244e+002 
3059375000  -4.386831e+001  1.089439e+002 
3062500000  -4.265444e+001  1.019744e+002 
3065625000  -4.211843e+001  9.269306e+001 
3068750000  -4.191200e+001  8.491270e+001 
3071875000  -4.173988e+001  8.179602e+001 
3075000000  -4.136183e+001  7.471014e+001 
3078125000  -4.136092e+001  6.740376e+001 
3081250000  -4.121560e+001  5.968623e+001 
3084375000  -4.032848e+001  5.524136e+001 
3087500000  -4.054015e+001  4.646687e+001 
3090625000  -4.000643e+001  3.387455e+001 
3093750000  -4.098155e+001  2.533492e+001 
3096875000  -4.121972e+001  1.891827e+001 
3100000000  -4.096960e+001  1.516163e+001 
3103125000  -4.131386e+001  1.007697e+001 
3106250000  -4.086284e+001  4.043219e+000 
3109375000  -4.094616e+001  2.778883e-002 
3112500000  -4.102144e+001  -8.218682e+000 
3115625000  -4.090733e+001  -1.291571e+001 
3118750000  -4.075296e+001  -1.768718e+001 
3121875000  -4.016340e+001  -2.959513e+001 
3125000000  -4.219967e+001  -3.373965e+001 
3128125000  -4.206173e+001  -2.851179e+001 
3131250000  -3.947816e+001  -3.720885e+001 
3134375000  -3.879352e+001  -5.453875e+001 
3137500000  -3.957863e+001  -6.642220e+001 
3140625000  -4.094658e+001  -7.004678e+001 
3143750000  -4.148689e+001  -7.520304e+001 
3146875000  -4.117097e+001  -7.399597e+001 
3150000000  -4.054535e+001  -7.868463e+001 
3153125000  -4.079414e+001  -8.833698e+001 
3156250000  -4.142984e+001  -8.593491e+001 
3159375000  -3.907473e+001  -8.944662e+001 
3162500000  -3.775210e+001  -1.060884e+002 
3165625000  -3.890424e+001  -1.201755e+002 
3168750000  -3.927525e+001  -1.219254e+002 
3171875000  -3.877065e+001  -1.302828e+002 
3175000000  -3.920894e+001  -1.395916e+002 
3178125000  -3.889891e+001  -1.414444e+002 
3181250000  -3.809467e+001  -1.519682e+002 
3184375000  -3.777699e+001  -1.632178e+002 
3187500000  -3.955202e+001  -1.794267e+002 
3190625000  -4.100020e+001  1.718282e+002 
3193750000  -4.126979e+001  1.783495e+002 
3196875000  -4.108448e+001  1.785274e+002 
3200000000  -3.994208e+001  1.717971e+002 
3203125000  -3.966142e+001  1.635147e+002 
3206250000  -3.992889e+001  1.553599e+002 
3209375000  -3.943785e+001  1.465019e+002 
3212500000  -4.009808e+001  1.393654e+002 
3215625000  -3.967054e+001  1.363783e+002 
3218750000  -4.035656e+001  1.226869e+002 
3221875000  -4.058868e+001  1.164289e+002 
3225000000  -4.056769e+001  1.111548e+002 
3228125000  -4.124174e+001  1.038966e+002 
3231250000  -4.143954e+001  1.015408e+002 
3234375000  -4.121583e+001  9.734003e+001 
3237500000  -4.104207e+001  9.371345e+001 
3240625000  -4.047497e+001  8.506523e+001 
3243750000  -4.052648e+001  7.389313e+001 
3246875000  -4.080118e+001  6.665880e+001 
3250000000  -4.132675e+001  6.188589e+001 
3253125000  -4.160479e+001  5.736266e+001 
3256250000  -4.062038e+001  4.610048e+001 
3259375000  -4.089708e+001  3.482751e+001 
3262500000  -4.237273e+001  2.911941e+001 
3265625000  -4.265767e+001  3.210847e+001 
3268750000  -4.242451e+001  2.990746e+001 
3271875000  -4.158680e+001  2.387296e+001 
3275000000  -4.135416e+001  1.232924e+001 
3278125000  -4.190233e+001  6.572242e+000 
3281250000  -4.182218e+001  4.157256e+000 
3284375000  -4.119051e+001  -6.030004e+000 
3287500000  -4.154165e+001  -1.433106e+001 
3290625000  -4.158496e+001  -2.349002e+001 
3293750000  -4.171946e+001  -3.129725e+001 
3296875000  -4.287318e+001  -3.444419e+001 
3300000000  -4.211274e+001  -3.784670e+001 
3303125000  -4.097129e+001  -4.617812e+001 
3306250000  -4.095865e+001  -5.671766e+001 
3309375000  -4.072813e+001  -6.739413e+001 
3312500000  -4.132607e+001  -8.303905e+001 
3315625000  -4.265800e+001  -9.153474e+001 
3318750000  -4.385903e+001  -9.900649e+001 
3321875000  -4.540157e+001  -9.838463e+001 
3325000000  -4.535101e+001  -9.263609e+001 
3328125000  -4.411631e+001  -9.536945e+001 
3331250000  -4.247014e+001  -9.294747e+001 
3334375000  -4.016906e+001  -1.145799e+002 
3337500000  -4.092594e+001  -1.381731e+002 
3340625000  -4.309084e+001  -1.480119e+002 
3343750000  -4.479152e+001  -1.490508e+002 
3346875000  -4.419992e+001  -1.540562e+002 
3350000000  -4.396705e+001  -1.601337e+002 
3353125000  -4.406834e+001  -1.693874e+002 
3356250000  -4.355581e+001  -1.781022e+002 
3359375000  -4.448796e+001  1.673088e+002 
3362500000  -4.510402e+001  1.610522e+002 
3365625000  -4.586869e+001  1.527055e+002 
3368750000  -4.666082e+001  1.491032e+002 
3371875000  -4.685283e+001  1.414762e+002 
3375000000  -4.854684e+001  1.366033e+002 
3378125000  -4.890488e+001  1.376201e+002 
3381250000  -5.036806e+001  1.462728e+002 
3384375000  -4.746497e+001  1.554147e+002 
3387500000  -4.559423e+001  1.307384e+002 
3390625000  -4.713512e+001  1.082328e+002 
3393750000  -4.772003e+001  1.070920e+002 
3396875000  -4.635894e+001  1.029943e+002 
3400000000  -4.657761e+001  8.685535e+001 
3403125000  -4.731788e+001  8.064303e+001 
3406250000  -4.731004e+001  7.343969e+001 
3409375000  -4.728528e+001  6.453468e+001 
3412500000  -4.775701e+001  5.558613e+001 
3415625000  -4.938451e+001  5.159116e+001 
3418750000  -4.914499e+001  4.678652e+001 
3421875000  -4.931332e+001  4.307806e+001 
3425000000  -4.804839e+001  3.634153e+001 
3428125000  -4.705736e+001  3.033808e+001 
3431250000  -4.711636e+001  1.868162e+001 
3434375000  -4.700721e+001  4.074298e+000 
3437500000  -4.773323e+001  -5.038988e+000 
3440625000  -4.802116e+001  -6.180632e+000 
3443750000  -4.622461e+001  -9.683545e+000 
3446875000  -4.564977e+001  -2.508856e+001 
3450000000  -4.549082e+001  -3.953563e+001 
3453125000  -4.573917e+001  -6.020210e+001 
3456250000  -4.743467e+001  -6.592755e+001 
3459375000  -4.790093e+001  -6.894490e+001 
3462500000  -4.794608e+001  -7.300024e+001 
3465625000  -4.719378e+001  -8.716434e+001 
3468750000  -4.724689e+001  -9.459214e+001 
3471875000  -4.696665e+001  -1.038095e+002 
3475000000  -4.697795e+001  -1.155446e+002 
3478125000  -4.740146e+001  -1.282936e+002 
3481250000  -4.918674e+001  -1.314451e+002 
3484375000  -4.819116e+001  -1.307679e+002 
3487500000  -4.739386e+001  -1.392022e+002 
3490625000  -4.666276e+001  -1.504327e+002 
3493750000  -4.779124e+001  -1.659208e+002 
3496875000  -4.769750e+001  -1.670636e+002 
3500000000  -4.805370e+001  -1.685726e+002 
3503125000  -4.687643e+001  -1.709351e+002 
3506250000  -4.549581e+001  1.749371e+002 
3509375000  -4.563950e+001  1.539885e+002 
3512500000  -4.605669e+001  1.394322e+002 
3515625000  -4.709826e+001  1.360875e+002 
3518750000  -4.770834e+001  1.308499e+002 
3521875000  -4.827505e+001  1.210061e+002 
3525000000  -4.899497e+001  1.187467e+002 
3528125000  -4.720628e+001  1.196015e+002 
3531250000  -4.678975e+001  1.063067e+002 
3534375000  -4.664534e+001  8.959152e+001 
3537500000  -4.765799e+001  8.436536e+001 
3540625000  -4.929890e+001  7.807695e+001 
3543750000  -4.916851e+001  8.025879e+001 
3546875000  -4.853095e+001  8.510767e+001 
3550000000  -4.633700e+001  8.044434e+001 
3553125000  -4.586572e+001  5.976937e+001 
3556250000  -4.716575e+001  5.163524e+001 
3559375000  -4.652719e+001  4.614489e+001 
3562500000  -4.640567e+001  3.488852e+001 
3565625000  -4.709323e+001  2.825104e+001 
3568750000  -4.836131e+001  2.618952e+001 
3571875000  -4.746541e+001  2.169498e+001 
3575000000  -4.674492e+001  1.548092e+001 
3578125000  -4.755294e+001  1.094471e+001 
3581250000  -4.736245e+001  7.558422e+000 
3584375000  -4.618439e+001  -5.148920e-001 
3587500000  -4.563589e+001  -1.187049e+001 
3590625000  -4.643854e+001  -2.238963e+001 
3593750000  -4.743174e+001  -2.291686e+001 
3596875000  -4.701836e+001  -1.622724e+001 
3600000000  -4.463597e+001  -2.947697e+001 
3603125000  -4.497182e+001  -4.439129e+001 
3606250000  -4.628679e+001  -4.807603e+001 
3609375000  -4.591418e+001  -5.138758e+001 
3612500000  -4.572689e+001  -5.935999e+001 
3615625000  -4.586985e+001  -6.469046e+001 
3618750000  -4.602659e+001  -6.632808e+001 
3621875000  -4.580451e+001  -7.343199e+001 
3625000000  -4.571707e+001  -7.908643e+001 
3628125000  -4.478176e+001  -8.257728e+001 
3631250000  -4.478469e+001  -9.349662e+001 
3634375000  -4.595899e+001  -9.604420e+001 
3637500000  -4.461718e+001  -9.452680e+001 
3640625000  -4.350020e+001  -1.027652e+002 
3643750000  -4.317573e+001  -1.130811e+002 
3646875000  -4.387217e+001  -1.248084e+002 
3650000000  -4.388329e+001  -1.322145e+002 
3653125000  -4.335746e+001  -1.373376e+002 
3656250000  -4.411462e+001  -1.435379e+002 
3659375000  -4.369971e+001  -1.493450e+002 
3662500000  -4.359686e+001  -1.571455e+002 
3665625000  -4.362474e+001  -1.583128e+002 
3668750000  -4.203099e+001  -1.656550e+002 
3671875000  -4.159748e+001  -1.788331e+002 
3675000000  -4.206267e+001  1.723122e+002 
3678125000  -4.276731e+001  1.671203e+002 
3681250000  -4.213329e+001  1.606962e+002 
3684375000  -4.275863e+001  1.501211e+002 
3687500000  -4.275023e+001  1.437184e+002 
3690625000  -4.362085e+001  1.391046e+002 
3693750000  -4.478061e+001  1.345982e+002 
3696875000  -4.420683e+001  1.344927e+002 
3700000000  -4.311816e+001  1.250469e+002 
3703125000  -4.355542e+001  1.165821e+002 
3706250000  -4.486322e+001  1.173686e+002 
3709375000  -4.359542e+001  1.146947e+002 
3712500000  -4.292111e+001  1.088956e+002 
3715625000  -4.187675e+001  1.001313e+002 
3718750000  -4.177282e+001  8.973698e+001 
3721875000  -4.220770e+001  8.071886e+001 
3725000000  -4.264007e+001  7.302436e+001 
3728125000  -4.238838e+001  7.089185e+001 
3731250000  -4.213033e+001  6.278993e+001 
3734375000  -4.197944e+001  5.667048e+001 
3737500000  -4.275138e+001  4.661842e+001 
3740625000  -4.335078e+001  3.967830e+001 
3743750000  -4.295689e+001  3.589853e+001 
3746875000  -4.379149e+001  3.031035e+001 
3750000000  -4.370663e+001  2.546690e+001 
3753125000  -4.410053e+001  2.223780e+001 
3756250000  -4.380426e+001  1.903838e+001 
3759375000  -4.377856e+001  1.340286e+001 
3762500000  -4.351440e+001  1.027325e+001 
3765625000  -4.450539e+001  2.140390e+000 
3768750000  -4.350926e+001  2.474590e+000 
3771875000  -4.187168e+001  -4.738635e+000 
3775000000  -4.228025e+001  -1.615962e+001 
3778125000  -4.257787e+001  -2.141973e+001 
3781250000  -4.280637e+001  -2.573208e+001 
3784375000  -4.266013e+001  -3.349025e+001 
3787500000  -4.260886e+001  -3.594731e+001 
3790625000  -4.318289e+001  -4.744318e+001 
3793750000  -4.256861e+001  -5.116093e+001 
3796875000  -4.173688e+001  -5.495530e+001 
3800000000  -4.077167e+001  -6.163762e+001 
3803125000  -4.176859e+001  -7.273494e+001 
3806250000  -4.217057e+001  -7.900168e+001 
3809375000  -4.174338e+001  -8.391969e+001 
3812500000  -4.177474e+001  -9.670760e+001 
3815625000  -4.310429e+001  -1.053736e+002 
3818750000  -4.409229e+001  -1.056257e+002 
3821875000  -4.372932e+001  -9.478574e+001 
3825000000  -4.141001e+001  -1.004369e+002 
3828125000  -4.072556e+001  -1.205568e+002 
3831250000  -4.172948e+001  -1.360028e+002 
3834375000  -4.407357e+001  -1.356178e+002 
3837500000  -4.397426e+001  -1.346547e+002 
3840625000  -4.290778e+001  -1.427542e+002 
3843750000  -4.204654e+001  -1.556473e+002 
3846875000  -4.335074e+001  -1.633976e+002 
3850000000  -4.424263e+001  -1.556969e+002 
3853125000  -4.364607e+001  -1.548904e+002 
3856250000  -4.278993e+001  -1.685370e+002 
3859375000  -4.238616e+001  -1.759236e+002 
3862500000  -4.196661e+001  1.723219e+002 
3865625000  -4.273269e+001  1.658456e+002 
3868750000  -4.251652e+001  1.650085e+002 
3871875000  -4.197377e+001  1.581192e+002 
3875000000  -4.257446e+001  1.439611e+002 
3878125000  -4.352677e+001  1.436923e+002 
3881250000  -4.335017e+001  1.446716e+002 
3884375000  -4.265310e+001  1.313106e+002 
3887500000  -4.365416e+001  1.251089e+002 
3890625000  -4.432995e+001  1.229432e+002 
3893750000  -4.437542e+001  1.202401e+002 
3896875000  -4.428943e+001  1.166036e+002 
3900000000  -4.458976e+001  1.100749e+002 
3903125000  -4.364636e+001  1.049673e+002 
3906250000  -4.325489e+001  1.022853e+002 
3909375000  -4.309375e+001  9.333092e+001 
3912500000  -4.399816e+001  8.447110e+001 
3915625000  -4.504749e+001  8.549837e+001 
3918750000  -4.437157e+001  8.177730e+001 
3921875000  -4.384021e+001  7.895644e+001 
3925000000  -4.310608e+001  6.952499e+001 
3928125000  -4.310167e+001  6.141735e+001 
3931250000  -4.385017e+001  5.446068e+001 
3934375000  -4.404150e+001  5.169425e+001 
3937500000  -4.464217e+001  4.986453e+001 
3940625000  -4.460136e+001  4.958518e+001 
3943750000  -4.339106e+001  4.066570e+001 
3946875000  -4.309723e+001  3.457806e+001 
3950000000  -4.401673e+001  2.375993e+001 
3953125000  -4.477016e+001  2.593406e+001 
3956250000  -4.292821e+001  2.556211e+001 
3959375000  -4.196735e+001  1.765473e+001 
3962500000  -4.146893e+001  7.867574e+000 
3965625000  -4.198036e+001  -3.734884e+000 
3968750000  -4.247545e+001  -1.059379e+001 
3971875000  -4.253518e+001  -1.716977e+001 
3975000000  -4.215104e+001  -2.119713e+001 
3978125000  -4.246848e+001  -2.920581e+001 
3981250000  -4.199773e+001  -3.349205e+001 
3984375000  -4.271045e+001  -4.278557e+001 
3987500000  -4.313115e+001  -4.767764e+001 
3990625000  -4.306279e+001  -5.192696e+001 
3993750000  -4.367371e+001  -5.723024e+001 
3996875000  -4.333711e+001  -6.413919e+001 
4000000000  -4.399729e+001  -6.651810e+001 
4003125000  -4.384330e+001  -6.810820e+001 
4006250000  -4.237254e+001  -7.700451e+001 
4009375000  -4.119292e+001  -9.085535e+001 
4012500000  -4.320851e+001  -9.819624e+001 
4015625000  -4.385662e+001  -9.879921e+001 
4018750000  -4.366809e+001  -1.018171e+002 
4021875000  -4.332029e+001  -1.097775e+002 
4025000000  -4.327138e+001  -1.159008e+002 
4028125000  -4.335727e+001  -1.254609e+002 
4031250000  -4.420738e+001  -1.316818e+002 
4034375000  -4.425132e+001  -1.344751e+002 
4037500000  -4.438049e+001  -1.345036e+002 
4040625000  -4.432586e+001  -1.437630e+002 
4043750000  -4.449977e+001  -1.455729e+002 
4046875000  -4.491068e+001  -1.507072e+002 
4050000000  -4.483391e+001  -1.581352e+002 
4053125000  -4.617696e+001  -1.620602e+002 
4056250000  -4.634572e+001  -1.598241e+002 
4059375000  -4.400301e+001  -1.599676e+002 
4062500000  -4.372771e+001  -1.679604e+002 
4065625000  -4.387836e+001  -1.743218e+002 
4068750000  -4.337505e+001  1.759363e+002 
4071875000  -4.297552e+001  1.664349e+002 
4075000000  -4.396703e+001  1.579774e+002 
4078125000  -4.463247e+001  1.561719e+002 
4081250000  -4.372996e+001  1.515621e+002 
4084375000  -4.357395e+001  1.423502e+002 
4087500000  -4.393402e+001  1.337589e+002 
4090625000  -4.539832e+001  1.330396e+002 
4093750000  -4.461726e+001  1.306801e+002 
4096875000  -4.512485e+001  1.218936e+002 
4100000000  -4.555262e+001  1.164513e+002 
4103125000  -4.624678e+001  1.171871e+002 
4106250000  -4.568695e+001  1.207356e+002 
4109375000  -4.491667e+001  1.141595e+002 
4112500000  -4.465524e+001  1.076706e+002 
4115625000  -4.446056e+001  1.007833e+002 
4118750000  -4.468133e+001  9.370774e+001 
4121875000  -4.404933e+001  8.739471e+001 
4125000000  -4.473510e+001  8.204330e+001 
4128125000  -4.615631e+001  8.296357e+001 
4131250000  -4.454433e+001  8.763025e+001 
4134375000  -4.190409e+001  7.458508e+001 
4137500000  -4.249907e+001  5.380558e+001 
4140625000  -4.450382e+001  4.747657e+001 
4143750000  -4.498739e+001  5.202783e+001 
4146875000  -4.489357e+001  5.345977e+001 
4150000000  -4.285951e+001  4.456715e+001 
4153125000  -4.337921e+001  3.466603e+001 
4156250000  -4.428039e+001  3.116804e+001 
4159375000  -4.428746e+001  3.345393e+001 
4162500000  -4.259549e+001  3.026986e+001 
4165625000  -4.175913e+001  2.137525e+001 
4168750000  -4.125880e+001  1.206819e+001 
4171875000  -4.152668e+001  -8.321393e-001 
4175000000  -4.211662e+001  -1.001054e+001 
4178125000  -4.275710e+001  -1.333761e+001 
4181250000  -4.244752e+001  -1.837462e+001 
4184375000  -4.304329e+001  -2.393529e+001 
4187500000  -4.282462e+001  -3.348200e+001 
4190625000  -4.311843e+001  -4.227132e+001 
4193750000  -4.407802e+001  -4.732452e+001 
4196875000  -4.494016e+001  -4.782808e+001 
4200000000  -4.629134e+001  -4.084819e+001 
4203125000  -4.486880e+001  -3.279607e+001 
4206250000  -4.140226e+001  -4.277609e+001 
4209375000  -4.207899e+001  -6.866421e+001 
4212500000  -4.437481e+001  -7.612193e+001 
4215625000  -4.431404e+001  -6.848691e+001 
4218750000  -4.302631e+001  -6.769791e+001 
4221875000  -4.130601e+001  -8.181053e+001 
4225000000  -4.321967e+001  -9.125610e+001 
4228125000  -4.267082e+001  -8.846709e+001 
4231250000  -4.109389e+001  -9.574496e+001 
4234375000  -4.112498e+001  -1.094772e+002 
4237500000  -4.118372e+001  -1.153060e+002 
4240625000  -4.162241e+001  -1.235225e+002 
4243750000  -4.268433e+001  -1.320047e+002 
4246875000  -4.345212e+001  -1.339167e+002 
4250000000  -4.334941e+001  -1.312083e+002 
4253125000  -4.283413e+001  -1.362835e+002 
4256250000  -4.322469e+001  -1.418357e+002 
4259375000  -4.222359e+001  -1.476963e+002 
4262500000  -4.252356e+001  -1.540788e+002 
4265625000  -4.253034e+001  -1.546489e+002 
4268750000  -4.154774e+001  -1.645557e+002 
4271875000  -4.150212e+001  -1.735219e+002 
4275000000  -4.097182e+001  1.756083e+002 
4278125000  -4.167065e+001  1.638583e+002 
4281250000  -4.255556e+001  1.639167e+002 
4284375000  -4.308292e+001  1.580855e+002 
4287500000  -4.418793e+001  1.543991e+002 
4290625000  -4.412271e+001  1.612983e+002 
4293750000  -4.179858e+001  1.599709e+002 
4296875000  -4.076464e+001  1.472611e+002 
4300000000  -4.204959e+001  1.367767e+002 
4303125000  -4.208761e+001  1.357549e+002 
4306250000  -4.123306e+001  1.347236e+002 
4309375000  -4.025894e+001  1.251203e+002 
4312500000  -4.003344e+001  1.126722e+002 
4315625000  -4.054782e+001  1.044667e+002 
4318750000  -4.111464e+001  9.846805e+001 
4321875000  -4.136890e+001  9.710896e+001 
4325000000  -4.036885e+001  9.289556e+001 
4328125000  -3.977693e+001  8.127975e+001 
4331250000  -4.021130e+001  7.013853e+001 
4334375000  -4.141890e+001  6.241914e+001 
4337500000  -4.265428e+001  5.787438e+001 
4340625000  -4.268693e+001  6.362472e+001 
4343750000  -4.162319e+001  5.792784e+001 
4346875000  -4.166765e+001  4.924307e+001 
4350000000  -4.130612e+001  3.877942e+001 
4353125000  -4.250280e+001  2.854690e+001 
4356250000  -4.421072e+001  3.395028e+001 
4359375000  -4.304173e+001  4.368423e+001 
4362500000  -3.994415e+001  3.736089e+001 
4365625000  -3.987007e+001  1.646401e+001 
4368750000  -4.078403e+001  5.391905e+000 
4371875000  -4.201407e+001  5.377153e+000 
4375000000  -4.090981e+001  -1.246670e+000 
4378125000  -4.094287e+001  -8.400957e+000 
4381250000  -4.136298e+001  -1.794999e+001 
4384375000  -4.111861e+001  -2.366685e+001 
4387500000  -4.234384e+001  -2.977994e+001 
4390625000  -4.266400e+001  -3.454162e+001 
4393750000  -4.203079e+001  -3.182346e+001 
4396875000  -4.162437e+001  -4.061591e+001 
4400000000  -4.137104e+001  -5.018726e+001 
4403125000  -4.225468e+001  -5.726904e+001 
4406250000  -4.269035e+001  -6.401246e+001 
4409375000  -4.307783e+001  -6.829420e+001 
4412500000  -4.428917e+001  -6.902203e+001 
4415625000  -4.347265e+001  -6.609895e+001 
4418750000  -4.277390e+001  -6.885591e+001 
