!Agilent Technologies,E8363B,MY43030201,A.06.04.32
!Agilent E8363B: A.06.04.32
!Date: Tuesday, November 11, 2014 21:50:25
!Correction: S21(Response(S21)) 
!S1P File: Measurement: S21:
# Hz S  dB   R 50
3000000000  -4.370884e+001  -1.619557e+002 
3003125000  -4.526318e+001  -1.684654e+002 
3006250000  -4.544725e+001  -1.685888e+002 
3009375000  -4.591285e+001  -1.640224e+002 
3012500000  -4.480816e+001  -1.702681e+002 
3015625000  -4.515273e+001  -1.795718e+002 
3018750000  -4.529209e+001  -1.783941e+002 
3021875000  -4.390244e+001  -1.794310e+002 
3025000000  -4.277247e+001  1.758463e+002 
3028125000  -4.178840e+001  1.621073e+002 
3031250000  -4.084181e+001  1.505755e+002 
3034375000  -4.093115e+001  1.369631e+002 
3037500000  -4.168313e+001  1.260252e+002 
3040625000  -4.285987e+001  1.203102e+002 
3043750000  -4.331037e+001  1.109553e+002 
3046875000  -4.424511e+001  1.052756e+002 
3050000000  -4.535971e+001  1.014105e+002 
3053125000  -4.482962e+001  1.056620e+002 
3056250000  -4.509435e+001  1.060702e+002 
3059375000  -4.410544e+001  1.043157e+002 
3062500000  -4.261797e+001  9.850561e+001 
3065625000  -4.212374e+001  8.692159e+001 
3068750000  -4.179227e+001  8.110902e+001 
3071875000  -4.168128e+001  7.859681e+001 
3075000000  -4.120396e+001  6.899252e+001 
3078125000  -4.131065e+001  6.281379e+001 
3081250000  -4.121853e+001  5.571383e+001 
3084375000  -4.045588e+001  5.067100e+001 
3087500000  -4.049826e+001  4.260562e+001 
3090625000  -4.002032e+001  2.983803e+001 
3093750000  -4.107979e+001  2.004330e+001 
3096875000  -4.121865e+001  1.614189e+001 
3100000000  -4.110279e+001  1.159169e+001 
3103125000  -4.147715e+001  6.737270e+000 
3106250000  -4.110973e+001  3.092886e-001 
3109375000  -4.114226e+001  -4.026723e+000 
3112500000  -4.082612e+001  -1.287288e+001 
3115625000  -4.079888e+001  -1.669560e+001 
3118750000  -4.072002e+001  -2.246010e+001 
3121875000  -4.030711e+001  -3.342706e+001 
3125000000  -4.234141e+001  -3.855191e+001 
3128125000  -4.210410e+001  -3.215078e+001 
3131250000  -3.961343e+001  -4.033643e+001 
3134375000  -3.893671e+001  -5.878354e+001 
3137500000  -3.951564e+001  -6.896193e+001 
3140625000  -4.099760e+001  -7.448949e+001 
3143750000  -4.153770e+001  -7.941794e+001 
3146875000  -4.119816e+001  -7.791747e+001 
3150000000  -4.023189e+001  -8.415154e+001 
3153125000  -4.074817e+001  -9.223753e+001 
3156250000  -4.135982e+001  -9.030078e+001 
3159375000  -3.927808e+001  -9.367456e+001 
3162500000  -3.785738e+001  -1.092602e+002 
3165625000  -3.911097e+001  -1.244152e+002 
3168750000  -3.900991e+001  -1.250627e+002 
3171875000  -3.850817e+001  -1.338832e+002 
3175000000  -3.918201e+001  -1.433558e+002 
3178125000  -3.858247e+001  -1.456418e+002 
3181250000  -3.803507e+001  -1.558091e+002 
3184375000  -3.796067e+001  -1.670193e+002 
3187500000  -3.922348e+001  1.777513e+002 
3190625000  -4.089093e+001  1.697057e+002 
3193750000  -4.128345e+001  1.735877e+002 
3196875000  -4.093295e+001  1.742242e+002 
3200000000  -3.981054e+001  1.671481e+002 
3203125000  -3.964879e+001  1.594343e+002 
3206250000  -3.973367e+001  1.521442e+002 
3209375000  -3.950921e+001  1.420121e+002 
3212500000  -4.007456e+001  1.349066e+002 
3215625000  -3.942432e+001  1.322567e+002 
3218750000  -4.054335e+001  1.185059e+002 
3221875000  -4.034235e+001  1.117010e+002 
3225000000  -4.049554e+001  1.080408e+002 
3228125000  -4.119818e+001  9.963586e+001 
3231250000  -4.128881e+001  9.597567e+001 
3234375000  -4.092437e+001  9.289147e+001 
3237500000  -4.087448e+001  8.877327e+001 
3240625000  -4.036137e+001  8.158327e+001 
3243750000  -4.026670e+001  7.064013e+001 
3246875000  -4.081372e+001  6.347402e+001 
3250000000  -4.096758e+001  5.803470e+001 
3253125000  -4.121663e+001  5.428988e+001 
3256250000  -4.039832e+001  4.310245e+001 
3259375000  -4.081367e+001  2.933561e+001 
3262500000  -4.222855e+001  2.507637e+001 
3265625000  -4.278163e+001  2.772749e+001 
3268750000  -4.245955e+001  2.690780e+001 
3271875000  -4.154639e+001  2.016302e+001 
3275000000  -4.125705e+001  8.815584e+000 
3278125000  -4.189482e+001  2.592855e+000 
3281250000  -4.186104e+001  -6.364279e-001 
3284375000  -4.089363e+001  -8.470195e+000 
3287500000  -4.149514e+001  -1.635499e+001 
3290625000  -4.160592e+001  -2.597977e+001 
3293750000  -4.154682e+001  -3.466457e+001 
3296875000  -4.262276e+001  -3.983173e+001 
3300000000  -4.178160e+001  -4.295322e+001 
3303125000  -4.089545e+001  -5.062291e+001 
3306250000  -4.068847e+001  -6.185197e+001 
3309375000  -4.082803e+001  -7.209969e+001 
3312500000  -4.109237e+001  -8.656700e+001 
3315625000  -4.224658e+001  -9.552500e+001 
3318750000  -4.393898e+001  -1.019986e+002 
3321875000  -4.536998e+001  -1.030103e+002 
3325000000  -4.469066e+001  -9.599277e+001 
3328125000  -4.414283e+001  -1.001804e+002 
3331250000  -4.241787e+001  -9.998313e+001 
3334375000  -3.986730e+001  -1.185844e+002 
3337500000  -4.084978e+001  -1.413588e+002 
3340625000  -4.271927e+001  -1.518971e+002 
3343750000  -4.449198e+001  -1.521205e+002 
3346875000  -4.408213e+001  -1.577374e+002 
3350000000  -4.340646e+001  -1.604048e+002 
3353125000  -4.343646e+001  -1.714190e+002 
3356250000  -4.311033e+001  1.780535e+002 
3359375000  -4.425145e+001  1.640458e+002 
3362500000  -4.517369e+001  1.553059e+002 
3365625000  -4.550757e+001  1.489092e+002 
3368750000  -4.633468e+001  1.461517e+002 
3371875000  -4.691606e+001  1.390459e+002 
3375000000  -4.919469e+001  1.339632e+002 
3378125000  -4.902507e+001  1.337103e+002 
3381250000  -5.066986e+001  1.434698e+002 
3384375000  -4.752205e+001  1.522883e+002 
3387500000  -4.438708e+001  1.278992e+002 
3390625000  -4.708892e+001  1.053093e+002 
3393750000  -4.773812e+001  1.040030e+002 
3396875000  -4.618710e+001  1.040225e+002 
3400000000  -4.628672e+001  8.629630e+001 
3403125000  -4.677832e+001  7.751646e+001 
3406250000  -4.770694e+001  7.192804e+001 
3409375000  -4.772391e+001  5.952586e+001 
3412500000  -4.791528e+001  5.615299e+001 
3415625000  -4.823225e+001  4.980286e+001 
3418750000  -4.887457e+001  4.299577e+001 
3421875000  -4.848576e+001  4.221070e+001 
3425000000  -4.771121e+001  3.128635e+001 
3428125000  -4.704858e+001  2.914594e+001 
3431250000  -4.661743e+001  1.306416e+001 
3434375000  -4.671877e+001  3.363334e+000 
3437500000  -4.788866e+001  -4.488533e+000 
3440625000  -4.791856e+001  -1.080010e+001 
3443750000  -4.653794e+001  -1.672551e+001 
3446875000  -4.524611e+001  -2.836531e+001 
3450000000  -4.508218e+001  -4.308603e+001 
3453125000  -4.592600e+001  -5.976646e+001 
3456250000  -4.731242e+001  -7.092727e+001 
3459375000  -4.815082e+001  -7.634921e+001 
3462500000  -4.804889e+001  -7.636520e+001 
3465625000  -4.724582e+001  -8.622475e+001 
3468750000  -4.738625e+001  -9.480762e+001 
3471875000  -4.707401e+001  -1.035165e+002 
3475000000  -4.699980e+001  -1.162363e+002 
3478125000  -4.734013e+001  -1.309801e+002 
3481250000  -4.920193e+001  -1.326585e+002 
3484375000  -4.881539e+001  -1.379433e+002 
3487500000  -4.788286e+001  -1.424816e+002 
3490625000  -4.682302e+001  -1.525425e+002 
3493750000  -4.768038e+001  -1.661700e+002 
3496875000  -4.851538e+001  -1.709520e+002 
3500000000  -4.874371e+001  -1.688592e+002 
3503125000  -4.695562e+001  -1.745198e+002 
3506250000  -4.542708e+001  1.692826e+002 
3509375000  -4.560401e+001  1.509462e+002 
3512500000  -4.620327e+001  1.385804e+002 
3515625000  -4.695106e+001  1.322307e+002 
3518750000  -4.813965e+001  1.290069e+002 
3521875000  -4.825874e+001  1.143010e+002 
3525000000  -4.886615e+001  1.120963e+002 
3528125000  -4.790725e+001  1.164710e+002 
3531250000  -4.650503e+001  1.037445e+002 
3534375000  -4.655817e+001  8.841933e+001 
3537500000  -4.783062e+001  7.811599e+001 
3540625000  -4.904982e+001  7.188110e+001 
3543750000  -4.927279e+001  7.838368e+001 
3546875000  -4.826410e+001  8.202299e+001 
3550000000  -4.652776e+001  7.263931e+001 
3553125000  -4.617743e+001  5.170630e+001 
3556250000  -4.688968e+001  4.561245e+001 
3559375000  -4.632523e+001  4.325081e+001 
3562500000  -4.691574e+001  3.075854e+001 
3565625000  -4.760874e+001  2.147638e+001 
3568750000  -4.832034e+001  2.430408e+001 
3571875000  -4.776391e+001  1.851367e+001 
3575000000  -4.691853e+001  1.230526e+001 
3578125000  -4.822725e+001  8.880497e+000 
3581250000  -4.742929e+001  4.051607e+000 
3584375000  -4.607618e+001  -5.118447e+000 
3587500000  -4.565306e+001  -1.781230e+001 
3590625000  -4.655230e+001  -2.866523e+001 
3593750000  -4.757172e+001  -2.659891e+001 
3596875000  -4.705102e+001  -2.049270e+001 
3600000000  -4.457961e+001  -3.411132e+001 
3603125000  -4.554355e+001  -5.276127e+001 
3606250000  -4.582561e+001  -5.465231e+001 
3609375000  -4.605199e+001  -5.803611e+001 
3612500000  -4.600278e+001  -6.577674e+001 
3615625000  -4.622093e+001  -7.021276e+001 
3618750000  -4.585176e+001  -7.437774e+001 
3621875000  -4.568207e+001  -7.907362e+001 
3625000000  -4.564832e+001  -8.399191e+001 
3628125000  -4.467483e+001  -8.985810e+001 
3631250000  -4.507114e+001  -1.006127e+002 
3634375000  -4.576944e+001  -9.927773e+001 
3637500000  -4.459283e+001  -1.027564e+002 
3640625000  -4.364594e+001  -1.084766e+002 
3643750000  -4.329594e+001  -1.201548e+002 
3646875000  -4.365488e+001  -1.320468e+002 
3650000000  -4.363064e+001  -1.343434e+002 
3653125000  -4.312228e+001  -1.437916e+002 
3656250000  -4.409495e+001  -1.511851e+002 
3659375000  -4.370465e+001  -1.539669e+002 
3662500000  -4.318332e+001  -1.609261e+002 
3665625000  -4.343633e+001  -1.638471e+002 
3668750000  -4.202125e+001  -1.711344e+002 
3671875000  -4.145234e+001  1.754796e+002 
3675000000  -4.211719e+001  1.643022e+002 
3678125000  -4.276582e+001  1.612198e+002 
3681250000  -4.240692e+001  1.541322e+002 
3684375000  -4.257708e+001  1.468194e+002 
3687500000  -4.293992e+001  1.379264e+002 
3690625000  -4.378070e+001  1.314490e+002 
3693750000  -4.440067e+001  1.294714e+002 
3696875000  -4.387978e+001  1.288211e+002 
3700000000  -4.347218e+001  1.182832e+002 
3703125000  -4.377821e+001  1.112301e+002 
3706250000  -4.479447e+001  1.091566e+002 
3709375000  -4.371848e+001  1.112151e+002 
3712500000  -4.295739e+001  1.029207e+002 
3715625000  -4.155070e+001  9.529593e+001 
3718750000  -4.178502e+001  8.497121e+001 
3721875000  -4.176232e+001  7.535585e+001 
3725000000  -4.228878e+001  6.784282e+001 
3728125000  -4.230711e+001  6.442818e+001 
3731250000  -4.224691e+001  5.687465e+001 
3734375000  -4.164462e+001  5.115914e+001 
3737500000  -4.257053e+001  4.092467e+001 
3740625000  -4.314433e+001  3.352627e+001 
3743750000  -4.283826e+001  2.996926e+001 
3746875000  -4.316176e+001  2.202585e+001 
3750000000  -4.355909e+001  1.857186e+001 
3753125000  -4.338565e+001  1.585466e+001 
3756250000  -4.384808e+001  1.466017e+001 
3759375000  -4.370012e+001  7.017501e+000 
3762500000  -4.330342e+001  1.350651e+000 
3765625000  -4.455884e+001  -2.838731e+000 
3768750000  -4.353788e+001  -3.624115e+000 
3771875000  -4.202033e+001  -9.772493e+000 
3775000000  -4.226157e+001  -2.052847e+001 
3778125000  -4.253822e+001  -2.460253e+001 
3781250000  -4.265290e+001  -3.197991e+001 
3784375000  -4.217962e+001  -3.720616e+001 
3787500000  -4.203862e+001  -4.214363e+001 
3790625000  -4.283047e+001  -5.236562e+001 
3793750000  -4.246469e+001  -5.551766e+001 
3796875000  -4.154780e+001  -6.050542e+001 
3800000000  -4.058162e+001  -6.991612e+001 
3803125000  -4.155728e+001  -8.154524e+001 
3806250000  -4.242973e+001  -8.558311e+001 
3809375000  -4.187279e+001  -9.011729e+001 
3812500000  -4.155050e+001  -1.005792e+002 
3815625000  -4.291061e+001  -1.103788e+002 
3818750000  -4.437516e+001  -1.089089e+002 
3821875000  -4.352835e+001  -1.004903e+002 
3825000000  -4.137490e+001  -1.048931e+002 
3828125000  -4.040965e+001  -1.268087e+002 
3831250000  -4.160590e+001  -1.409051e+002 
3834375000  -4.365469e+001  -1.423667e+002 
3837500000  -4.420576e+001  -1.405059e+002 
3840625000  -4.246905e+001  -1.461190e+002 
3843750000  -4.169653e+001  -1.610961e+002 
3846875000  -4.350748e+001  -1.681091e+002 
3850000000  -4.437200e+001  -1.643144e+002 
3853125000  -4.383592e+001  -1.620498e+002 
3856250000  -4.284084e+001  -1.681224e+002 
3859375000  -4.184934e+001  1.784680e+002 
3862500000  -4.220209e+001  1.694568e+002 
3865625000  -4.258279e+001  1.607826e+002 
3868750000  -4.194633e+001  1.592475e+002 
3871875000  -4.172507e+001  1.514346e+002 
3875000000  -4.245469e+001  1.417748e+002 
3878125000  -4.316251e+001  1.397357e+002 
3881250000  -4.307850e+001  1.363974e+002 
3884375000  -4.240303e+001  1.266615e+002 
3887500000  -4.298728e+001  1.191192e+002 
3890625000  -4.358579e+001  1.147658e+002 
3893750000  -4.420439e+001  1.157609e+002 
3896875000  -4.411077e+001  1.116620e+002 
3900000000  -4.419858e+001  1.061792e+002 
3903125000  -4.361803e+001  1.004497e+002 
3906250000  -4.360703e+001  9.659712e+001 
3909375000  -4.261895e+001  8.961391e+001 
3912500000  -4.400505e+001  7.501357e+001 
3915625000  -4.470510e+001  7.907331e+001 
3918750000  -4.458351e+001  7.820222e+001 
3921875000  -4.379738e+001  7.090702e+001 
3925000000  -4.285767e+001  6.546683e+001 
3928125000  -4.298012e+001  5.564907e+001 
3931250000  -4.342739e+001  4.806372e+001 
3934375000  -4.383613e+001  4.563223e+001 
3937500000  -4.449718e+001  4.293468e+001 
3940625000  -4.459013e+001  4.313884e+001 
3943750000  -4.315602e+001  3.514892e+001 
3946875000  -4.289881e+001  2.590286e+001 
3950000000  -4.344847e+001  2.076625e+001 
3953125000  -4.446683e+001  2.061700e+001 
3956250000  -4.244718e+001  1.950898e+001 
3959375000  -4.234319e+001  1.138440e+001 
3962500000  -4.151013e+001  2.027555e+000 
3965625000  -4.175911e+001  -1.007570e+001 
3968750000  -4.254613e+001  -1.676699e+001 
3971875000  -4.260269e+001  -2.257405e+001 
3975000000  -4.211447e+001  -2.676665e+001 
3978125000  -4.214006e+001  -3.333569e+001 
3981250000  -4.191318e+001  -3.903403e+001 
3984375000  -4.254913e+001  -5.060530e+001 
3987500000  -4.294183e+001  -5.486022e+001 
3990625000  -4.317559e+001  -5.748759e+001 
3993750000  -4.272799e+001  -6.318009e+001 
3996875000  -4.290583e+001  -7.026312e+001 
4000000000  -4.372465e+001  -7.497835e+001 
4003125000  -4.368309e+001  -7.228141e+001 
4006250000  -4.167218e+001  -7.991454e+001 
4009375000  -4.131319e+001  -9.452626e+001 
4012500000  -4.261967e+001  -1.056805e+002 
4015625000  -4.397691e+001  -1.059519e+002 
4018750000  -4.390925e+001  -1.096462e+002 
4021875000  -4.342997e+001  -1.161150e+002 
4025000000  -4.333995e+001  -1.228331e+002 
4028125000  -4.321708e+001  -1.319765e+002 
4031250000  -4.384143e+001  -1.385884e+002 
4034375000  -4.417189e+001  -1.399025e+002 
4037500000  -4.378304e+001  -1.415300e+002 
4040625000  -4.396824e+001  -1.471453e+002 
4043750000  -4.412955e+001  -1.517334e+002 
4046875000  -4.451000e+001  -1.570211e+002 
4050000000  -4.424698e+001  -1.660932e+002 
4053125000  -4.499110e+001  -1.667667e+002 
4056250000  -4.606417e+001  -1.653583e+002 
4059375000  -4.399100e+001  -1.666036e+002 
4062500000  -4.329928e+001  -1.761130e+002 
4065625000  -4.372519e+001  1.794054e+002 
4068750000  -4.278126e+001  1.678273e+002 
4071875000  -4.234665e+001  1.590374e+002 
4075000000  -4.312082e+001  1.507453e+002 
4078125000  -4.393314e+001  1.533533e+002 
4081250000  -4.329609e+001  1.441851e+002 
4084375000  -4.321701e+001  1.343690e+002 
4087500000  -4.374332e+001  1.279233e+002 
4090625000  -4.486891e+001  1.254247e+002 
4093750000  -4.435733e+001  1.233546e+002 
4096875000  -4.382859e+001  1.171217e+002 
4100000000  -4.544763e+001  1.084907e+002 
4103125000  -4.574966e+001  1.135788e+002 
4106250000  -4.544201e+001  1.114412e+002 
4109375000  -4.396883e+001  1.081518e+002 
4112500000  -4.394495e+001  9.717606e+001 
4115625000  -4.384970e+001  9.409425e+001 
4118750000  -4.425795e+001  8.864297e+001 
4121875000  -4.365103e+001  8.097397e+001 
4125000000  -4.456763e+001  7.766420e+001 
4128125000  -4.528017e+001  7.671712e+001 
4131250000  -4.379377e+001  7.823145e+001 
4134375000  -4.164915e+001  6.986754e+001 
4137500000  -4.208641e+001  4.941392e+001 
4140625000  -4.442514e+001  4.043685e+001 
4143750000  -4.500616e+001  4.634419e+001 
4146875000  -4.395216e+001  4.712759e+001 
4150000000  -4.243582e+001  3.899585e+001 
4153125000  -4.340858e+001  2.802604e+001 
4156250000  -4.378400e+001  2.496921e+001 
4159375000  -4.375476e+001  2.595483e+001 
4162500000  -4.230000e+001  2.501422e+001 
4165625000  -4.101047e+001  1.382391e+001 
4168750000  -4.094979e+001  4.867966e+000 
4171875000  -4.093517e+001  -7.205385e+000 
4175000000  -4.191928e+001  -1.553331e+001 
4178125000  -4.231416e+001  -1.797395e+001 
4181250000  -4.174194e+001  -2.416652e+001 
4184375000  -4.238489e+001  -3.286935e+001 
4187500000  -4.234652e+001  -3.929118e+001 
4190625000  -4.296704e+001  -4.815938e+001 
4193750000  -4.393935e+001  -5.456656e+001 
4196875000  -4.519318e+001  -5.691750e+001 
4200000000  -4.523411e+001  -5.007351e+001 
4203125000  -4.417156e+001  -3.786156e+001 
4206250000  -4.122913e+001  -4.830785e+001 
4209375000  -4.156994e+001  -7.687297e+001 
4212500000  -4.361179e+001  -7.808861e+001 
4215625000  -4.479958e+001  -7.437811e+001 
4218750000  -4.233717e+001  -7.589006e+001 
4221875000  -4.073249e+001  -8.626472e+001 
4225000000  -4.246841e+001  -9.539579e+001 
4228125000  -4.197938e+001  -9.733437e+001 
4231250000  -4.077055e+001  -1.064431e+002 
4234375000  -4.110001e+001  -1.133204e+002 
4237500000  -4.071203e+001  -1.224333e+002 
4240625000  -4.087272e+001  -1.317651e+002 
4243750000  -4.207118e+001  -1.412040e+002 
4246875000  -4.269560e+001  -1.401071e+002 
4250000000  -4.309159e+001  -1.399732e+002 
4253125000  -4.260749e+001  -1.472346e+002 
4256250000  -4.236136e+001  -1.492657e+002 
4259375000  -4.230523e+001  -1.587369e+002 
4262500000  -4.204658e+001  -1.637123e+002 
4265625000  -4.235087e+001  -1.610646e+002 
4268750000  -4.072348e+001  -1.712137e+002 
4271875000  -4.041110e+001  -1.791906e+002 
4275000000  -4.049866e+001  1.683519e+002 
4278125000  -4.163015e+001  1.550610e+002 
4281250000  -4.243710e+001  1.540552e+002 
4284375000  -4.197280e+001  1.484188e+002 
4287500000  -4.357366e+001  1.466736e+002 
4290625000  -4.360683e+001  1.569295e+002 
4293750000  -4.129768e+001  1.536596e+002 
4296875000  -4.058868e+001  1.361816e+002 
4300000000  -4.104861e+001  1.289318e+002 
4303125000  -4.194179e+001  1.297206e+002 
4306250000  -4.065258e+001  1.277551e+002 
4309375000  -3.978237e+001  1.196417e+002 
4312500000  -3.952444e+001  1.068110e+002 
4315625000  -4.015277e+001  9.831753e+001 
4318750000  -4.089944e+001  9.175050e+001 
4321875000  -4.081800e+001  8.845759e+001 
4325000000  -3.993562e+001  8.480711e+001 
4328125000  -3.929049e+001  7.536391e+001 
4331250000  -3.965412e+001  6.111028e+001 
4334375000  -4.071779e+001  5.566562e+001 
4337500000  -4.184039e+001  5.100630e+001 
4340625000  -4.183784e+001  5.379145e+001 
4343750000  -4.090741e+001  4.914753e+001 
4346875000  -4.112275e+001  4.025379e+001 
4350000000  -4.080169e+001  3.036423e+001 
4353125000  -4.193755e+001  2.143596e+001 
4356250000  -4.327459e+001  2.424193e+001 
4359375000  -4.310482e+001  3.947174e+001 
4362500000  -3.918264e+001  2.892948e+001 
4365625000  -3.927327e+001  7.722870e+000 
4368750000  -4.019618e+001  -1.052009e+000 
4371875000  -4.137371e+001  -5.997826e+000 
4375000000  -4.027017e+001  -8.290072e+000 
4378125000  -4.051310e+001  -1.751237e+001 
4381250000  -4.039224e+001  -2.503098e+001 
4384375000  -4.065251e+001  -3.259045e+001 
4387500000  -4.177499e+001  -3.908398e+001 
4390625000  -4.185438e+001  -4.041955e+001 
4393750000  -4.153548e+001  -4.214867e+001 
4396875000  -4.085900e+001  -4.830029e+001 
4400000000  -4.070626e+001  -5.800353e+001 
4403125000  -4.137767e+001  -6.611919e+001 
4406250000  -4.210086e+001  -7.126197e+001 
4409375000  -4.245533e+001  -7.410831e+001 
4412500000  -4.341483e+001  -8.096528e+001 
4415625000  -4.296374e+001  -7.380627e+001 
4418750000  -4.170661e+001  -7.721338e+001 
