!Agilent Technologies,E8363B,MY43030201,A.06.04.32
!Agilent E8363B: A.06.04.32
!Date: Tuesday, November 11, 2014 21:42:16
!Correction: S21(Response(S21)) 
!S1P File: Measurement: S21:
# Hz S  dB   R 50
3000000000  -4.358995e+001  -1.588116e+002 
3003125000  -4.554796e+001  -1.627540e+002 
3006250000  -4.511070e+001  -1.645974e+002 
3009375000  -4.582186e+001  -1.608205e+002 
3012500000  -4.503904e+001  -1.692239e+002 
3015625000  -4.501579e+001  -1.741192e+002 
3018750000  -4.524239e+001  -1.765419e+002 
3021875000  -4.377780e+001  -1.765394e+002 
3025000000  -4.268209e+001  -1.787852e+002 
3028125000  -4.181566e+001  1.684805e+002 
3031250000  -4.084656e+001  1.551370e+002 
3034375000  -4.084168e+001  1.408759e+002 
3037500000  -4.176903e+001  1.307893e+002 
3040625000  -4.302785e+001  1.227703e+002 
3043750000  -4.342302e+001  1.176544e+002 
3046875000  -4.405262e+001  1.095888e+002 
3050000000  -4.544264e+001  1.061091e+002 
3053125000  -4.484807e+001  1.098201e+002 
3056250000  -4.517740e+001  1.117469e+002 
3059375000  -4.388095e+001  1.091001e+002 
3062500000  -4.260680e+001  1.040000e+002 
3065625000  -4.222593e+001  9.325269e+001 
3068750000  -4.169680e+001  8.401711e+001 
3071875000  -4.175967e+001  8.067199e+001 
3075000000  -4.129016e+001  7.431087e+001 
3078125000  -4.139729e+001  6.609978e+001 
3081250000  -4.128938e+001  5.998286e+001 
3084375000  -4.037426e+001  5.402472e+001 
3087500000  -4.069302e+001  4.709195e+001 
3090625000  -4.011671e+001  3.352769e+001 
3093750000  -4.091743e+001  2.518588e+001 
3096875000  -4.120840e+001  1.857584e+001 
3100000000  -4.111506e+001  1.487971e+001 
3103125000  -4.150233e+001  1.044213e+001 
3106250000  -4.085900e+001  4.194876e+000 
3109375000  -4.101691e+001  2.599016e-001 
3112500000  -4.100822e+001  -7.585815e+000 
3115625000  -4.080225e+001  -1.371466e+001 
3118750000  -4.078537e+001  -1.894152e+001 
3121875000  -4.008642e+001  -3.025632e+001 
3125000000  -4.207127e+001  -3.308702e+001 
3128125000  -4.188672e+001  -2.823360e+001 
3131250000  -3.942028e+001  -3.531060e+001 
3134375000  -3.885509e+001  -5.401066e+001 
3137500000  -3.963132e+001  -6.600056e+001 
3140625000  -4.093251e+001  -7.191647e+001 
3143750000  -4.149564e+001  -7.567741e+001 
3146875000  -4.099372e+001  -7.396585e+001 
3150000000  -4.033697e+001  -7.999524e+001 
3153125000  -4.080023e+001  -9.009800e+001 
3156250000  -4.154644e+001  -8.600666e+001 
3159375000  -3.918538e+001  -8.839392e+001 
3162500000  -3.792209e+001  -1.054136e+002 
3165625000  -3.902343e+001  -1.190474e+002 
3168750000  -3.926068e+001  -1.205471e+002 
3171875000  -3.864809e+001  -1.289508e+002 
3175000000  -3.924950e+001  -1.401619e+002 
3178125000  -3.868430e+001  -1.422406e+002 
3181250000  -3.810516e+001  -1.523717e+002 
3184375000  -3.796903e+001  -1.635434e+002 
3187500000  -3.941036e+001  1.799964e+002 
3190625000  -4.098038e+001  1.737269e+002 
3193750000  -4.117312e+001  1.775042e+002 
3196875000  -4.110334e+001  1.774593e+002 
3200000000  -3.980566e+001  1.705778e+002 
3203125000  -3.969735e+001  1.631723e+002 
3206250000  -3.981314e+001  1.543446e+002 
3209375000  -3.956136e+001  1.462371e+002 
3212500000  -4.002940e+001  1.383038e+002 
3215625000  -3.985114e+001  1.352634e+002 
3218750000  -4.041340e+001  1.241767e+002 
3221875000  -4.072911e+001  1.180162e+002 
3225000000  -4.062222e+001  1.108665e+002 
3228125000  -4.123201e+001  1.038604e+002 
3231250000  -4.144033e+001  1.010617e+002 
3234375000  -4.104445e+001  9.758793e+001 
3237500000  -4.083477e+001  9.345764e+001 
3240625000  -4.056848e+001  8.632684e+001 
3243750000  -4.056699e+001  7.386185e+001 
3246875000  -4.088216e+001  6.633255e+001 
3250000000  -4.124935e+001  6.205677e+001 
3253125000  -4.113931e+001  5.725120e+001 
3256250000  -4.054092e+001  4.719518e+001 
3259375000  -4.107447e+001  3.456757e+001 
3262500000  -4.230886e+001  2.950412e+001 
3265625000  -4.247752e+001  3.035006e+001 
3268750000  -4.263703e+001  2.802176e+001 
3271875000  -4.171073e+001  2.381314e+001 
3275000000  -4.117210e+001  1.269011e+001 
3278125000  -4.196442e+001  5.890036e+000 
3281250000  -4.191887e+001  2.088868e+000 
3284375000  -4.107624e+001  -5.940599e+000 
3287500000  -4.165226e+001  -1.337230e+001 
3290625000  -4.151249e+001  -2.465314e+001 
3293750000  -4.166046e+001  -3.218728e+001 
3296875000  -4.279982e+001  -3.618996e+001 
3300000000  -4.220324e+001  -3.837880e+001 
3303125000  -4.107153e+001  -4.795958e+001 
3306250000  -4.098605e+001  -5.816420e+001 
3309375000  -4.073891e+001  -6.765327e+001 
3312500000  -4.118386e+001  -8.262842e+001 
3315625000  -4.267611e+001  -9.222491e+001 
3318750000  -4.416783e+001  -9.948302e+001 
3321875000  -4.528587e+001  -9.784882e+001 
3325000000  -4.501469e+001  -9.500195e+001 
3328125000  -4.430021e+001  -9.454773e+001 
3331250000  -4.247871e+001  -9.743172e+001 
3334375000  -4.018845e+001  -1.149602e+002 
3337500000  -4.111274e+001  -1.376350e+002 
3340625000  -4.294820e+001  -1.478058e+002 
3343750000  -4.488210e+001  -1.516473e+002 
3346875000  -4.445813e+001  -1.558082e+002 
3350000000  -4.400633e+001  -1.589148e+002 
3353125000  -4.397669e+001  -1.686218e+002 
3356250000  -4.344445e+001  -1.780673e+002 
3359375000  -4.447075e+001  1.672402e+002 
3362500000  -4.520602e+001  1.604754e+002 
3365625000  -4.566278e+001  1.532105e+002 
3368750000  -4.645879e+001  1.491915e+002 
3371875000  -4.708864e+001  1.424005e+002 
3375000000  -4.857272e+001  1.362759e+002 
3378125000  -4.914111e+001  1.341259e+002 
3381250000  -5.088230e+001  1.446983e+002 
3384375000  -4.767659e+001  1.519730e+002 
3387500000  -4.488869e+001  1.310095e+002 
3390625000  -4.682024e+001  1.129399e+002 
3393750000  -4.778632e+001  1.081830e+002 
3396875000  -4.679364e+001  1.033489e+002 
3400000000  -4.648419e+001  9.126125e+001 
3403125000  -4.698933e+001  8.187056e+001 
3406250000  -4.731801e+001  7.584574e+001 
3409375000  -4.699670e+001  6.395933e+001 
3412500000  -4.767308e+001  5.649006e+001 
3415625000  -4.858560e+001  5.022320e+001 
3418750000  -4.947589e+001  4.425859e+001 
3421875000  -4.918734e+001  4.140653e+001 
3425000000  -4.783908e+001  3.867724e+001 
3428125000  -4.735460e+001  3.107191e+001 
3431250000  -4.701569e+001  1.518077e+001 
3434375000  -4.691632e+001  7.042375e+000 
3437500000  -4.739425e+001  -1.805328e+000 
3440625000  -4.753143e+001  -5.512074e+000 
3443750000  -4.594062e+001  -8.756082e+000 
3446875000  -4.564888e+001  -2.578232e+001 
3450000000  -4.510420e+001  -4.140212e+001 
3453125000  -4.572055e+001  -5.773928e+001 
3456250000  -4.736773e+001  -6.881198e+001 
3459375000  -4.805718e+001  -6.849490e+001 
3462500000  -4.754124e+001  -7.444392e+001 
3465625000  -4.717762e+001  -8.689845e+001 
3468750000  -4.775845e+001  -9.482410e+001 
3471875000  -4.674274e+001  -9.981297e+001 
3475000000  -4.701950e+001  -1.121929e+002 
3478125000  -4.770151e+001  -1.271990e+002 
3481250000  -4.843674e+001  -1.325407e+002 
3484375000  -4.855164e+001  -1.311692e+002 
3487500000  -4.776171e+001  -1.403272e+002 
3490625000  -4.727426e+001  -1.498443e+002 
3493750000  -4.792950e+001  -1.667556e+002 
3496875000  -4.822089e+001  -1.677696e+002 
3500000000  -4.765054e+001  -1.662596e+002 
3503125000  -4.670840e+001  -1.711933e+002 
3506250000  -4.566019e+001  1.752253e+002 
3509375000  -4.551911e+001  1.533833e+002 
3512500000  -4.630753e+001  1.394954e+002 
3515625000  -4.682894e+001  1.329098e+002 
3518750000  -4.743179e+001  1.330686e+002 
3521875000  -4.843467e+001  1.208218e+002 
3525000000  -4.845699e+001  1.175841e+002 
3528125000  -4.736373e+001  1.197074e+002 
3531250000  -4.701505e+001  1.071832e+002 
3534375000  -4.703220e+001  9.268640e+001 
3537500000  -4.782968e+001  8.206512e+001 
3540625000  -4.863728e+001  7.953361e+001 
3543750000  -4.929800e+001  8.289753e+001 
3546875000  -4.837349e+001  8.702470e+001 
3550000000  -4.666966e+001  7.893882e+001 
3553125000  -4.639140e+001  5.953408e+001 
3556250000  -4.727281e+001  4.986646e+001 
3559375000  -4.655394e+001  4.908620e+001 
3562500000  -4.655849e+001  3.437142e+001 
3565625000  -4.709895e+001  2.779601e+001 
3568750000  -4.797022e+001  2.572478e+001 
3571875000  -4.701724e+001  2.385887e+001 
3575000000  -4.728327e+001  1.472703e+001 
3578125000  -4.749475e+001  7.756120e+000 
3581250000  -4.702306e+001  8.125606e+000 
3584375000  -4.625227e+001  2.404218e-001 
3587500000  -4.554561e+001  -1.175731e+001 
3590625000  -4.638820e+001  -1.979060e+001 
3593750000  -4.795712e+001  -2.155597e+001 
3596875000  -4.633922e+001  -1.738754e+001 
3600000000  -4.509934e+001  -2.973552e+001 
3603125000  -4.539484e+001  -4.572034e+001 
3606250000  -4.616628e+001  -5.009985e+001 
3609375000  -4.632040e+001  -5.311253e+001 
3612500000  -4.594250e+001  -6.074177e+001 
3615625000  -4.620402e+001  -6.726045e+001 
3618750000  -4.613023e+001  -6.735016e+001 
3621875000  -4.562483e+001  -7.319196e+001 
3625000000  -4.554688e+001  -7.909570e+001 
3628125000  -4.502740e+001  -8.575116e+001 
3631250000  -4.540751e+001  -9.273455e+001 
3634375000  -4.562865e+001  -9.400704e+001 
3637500000  -4.424625e+001  -9.742711e+001 
3640625000  -4.345087e+001  -1.031656e+002 
3643750000  -4.320456e+001  -1.154910e+002 
3646875000  -4.397071e+001  -1.263081e+002 
3650000000  -4.398671e+001  -1.305583e+002 
3653125000  -4.326545e+001  -1.388579e+002 
3656250000  -4.399148e+001  -1.464353e+002 
3659375000  -4.370844e+001  -1.469026e+002 
3662500000  -4.347154e+001  -1.555519e+002 
3665625000  -4.340865e+001  -1.616421e+002 
3668750000  -4.213355e+001  -1.654283e+002 
3671875000  -4.182801e+001  -1.792601e+002 
3675000000  -4.236628e+001  1.719034e+002 
3678125000  -4.252871e+001  1.656712e+002 
3681250000  -4.250043e+001  1.595630e+002 
3684375000  -4.276984e+001  1.528688e+002 
3687500000  -4.301952e+001  1.434644e+002 
3690625000  -4.347344e+001  1.356660e+002 
3693750000  -4.484339e+001  1.368493e+002 
3696875000  -4.394481e+001  1.353487e+002 
3700000000  -4.310933e+001  1.252724e+002 
3703125000  -4.350974e+001  1.167662e+002 
3706250000  -4.448840e+001  1.154193e+002 
3709375000  -4.437592e+001  1.161126e+002 
3712500000  -4.296180e+001  1.096546e+002 
3715625000  -4.168507e+001  9.932778e+001 
3718750000  -4.161876e+001  8.937248e+001 
3721875000  -4.201104e+001  7.996442e+001 
3725000000  -4.261068e+001  7.367297e+001 
3728125000  -4.231779e+001  7.026460e+001 
3731250000  -4.229938e+001  6.424376e+001 
3734375000  -4.210508e+001  5.666121e+001 
3737500000  -4.290046e+001  4.738407e+001 
3740625000  -4.316084e+001  4.020675e+001 
3743750000  -4.283834e+001  3.551427e+001 
3746875000  -4.336825e+001  2.844752e+001 
3750000000  -4.381683e+001  2.237846e+001 
3753125000  -4.357917e+001  2.307996e+001 
3756250000  -4.381551e+001  1.820066e+001 
3759375000  -4.380908e+001  1.249163e+001 
3762500000  -4.357270e+001  9.177440e+000 
3765625000  -4.415279e+001  2.048678e+000 
3768750000  -4.336389e+001  4.839291e+000 
3771875000  -4.204756e+001  -4.348630e+000 
3775000000  -4.206385e+001  -1.686963e+001 
3778125000  -4.302884e+001  -2.112864e+001 
3781250000  -4.249390e+001  -2.431505e+001 
3784375000  -4.254570e+001  -3.032011e+001 
3787500000  -4.202995e+001  -3.830081e+001 
3790625000  -4.304259e+001  -4.534278e+001 
3793750000  -4.281026e+001  -5.120055e+001 
3796875000  -4.147195e+001  -5.524120e+001 
3800000000  -4.098400e+001  -6.183383e+001 
3803125000  -4.187879e+001  -7.525732e+001 
3806250000  -4.256806e+001  -7.953194e+001 
3809375000  -4.191372e+001  -8.565875e+001 
3812500000  -4.194440e+001  -9.571140e+001 
3815625000  -4.314029e+001  -1.070640e+002 
3818750000  -4.443688e+001  -1.036719e+002 
3821875000  -4.345041e+001  -9.319707e+001 
3825000000  -4.142669e+001  -9.984448e+001 
3828125000  -4.022678e+001  -1.206969e+002 
3831250000  -4.207455e+001  -1.383829e+002 
3834375000  -4.397472e+001  -1.370370e+002 
3837500000  -4.402417e+001  -1.332564e+002 
3840625000  -4.276247e+001  -1.418540e+002 
3843750000  -4.167713e+001  -1.545952e+002 
3846875000  -4.315602e+001  -1.633645e+002 
3850000000  -4.409224e+001  -1.568004e+002 
3853125000  -4.346762e+001  -1.570846e+002 
3856250000  -4.267883e+001  -1.666373e+002 
3859375000  -4.227293e+001  -1.758085e+002 
3862500000  -4.246127e+001  1.733890e+002 
3865625000  -4.270667e+001  1.689785e+002 
3868750000  -4.251685e+001  1.646165e+002 
3871875000  -4.208410e+001  1.559531e+002 
3875000000  -4.259779e+001  1.460043e+002 
3878125000  -4.344030e+001  1.432236e+002 
3881250000  -4.319563e+001  1.431894e+002 
3884375000  -4.266210e+001  1.304194e+002 
3887500000  -4.383248e+001  1.261670e+002 
3890625000  -4.401470e+001  1.206179e+002 
3893750000  -4.419574e+001  1.195312e+002 
3896875000  -4.449241e+001  1.163914e+002 
3900000000  -4.458014e+001  1.100133e+002 
3903125000  -4.383115e+001  1.048123e+002 
3906250000  -4.385610e+001  1.045895e+002 
3909375000  -4.280898e+001  9.341375e+001 
3912500000  -4.430432e+001  8.209602e+001 
3915625000  -4.497560e+001  8.343165e+001 
3918750000  -4.461536e+001  8.092203e+001 
3921875000  -4.397545e+001  7.674191e+001 
3925000000  -4.338335e+001  7.153634e+001 
3928125000  -4.325354e+001  6.141612e+001 
3931250000  -4.376199e+001  5.220606e+001 
3934375000  -4.428597e+001  5.006651e+001 
3937500000  -4.493608e+001  4.956033e+001 
3940625000  -4.457702e+001  4.704925e+001 
3943750000  -4.337091e+001  4.004819e+001 
3946875000  -4.320378e+001  3.337897e+001 
3950000000  -4.420015e+001  2.526020e+001 
3953125000  -4.479972e+001  2.173240e+001 
3956250000  -4.319331e+001  2.565380e+001 
3959375000  -4.203978e+001  1.761037e+001 
3962500000  -4.152143e+001  5.105645e+000 
3965625000  -4.202837e+001  -2.707845e+000 
3968750000  -4.292675e+001  -1.135907e+001 
3971875000  -4.267764e+001  -1.616991e+001 
3975000000  -4.250425e+001  -2.205765e+001 
3978125000  -4.227081e+001  -2.937624e+001 
3981250000  -4.164627e+001  -3.665636e+001 
3984375000  -4.243170e+001  -4.337925e+001 
3987500000  -4.308597e+001  -4.863382e+001 
3990625000  -4.324484e+001  -5.146552e+001 
3993750000  -4.337775e+001  -5.825780e+001 
3996875000  -4.285504e+001  -6.441632e+001 
4000000000  -4.379049e+001  -6.629009e+001 
4003125000  -4.380894e+001  -6.634048e+001 
4006250000  -4.225982e+001  -7.503345e+001 
4009375000  -4.151780e+001  -9.342355e+001 
4012500000  -4.320088e+001  -9.772621e+001 
4015625000  -4.460747e+001  -9.853019e+001 
4018750000  -4.388816e+001  -1.042639e+002 
4021875000  -4.305183e+001  -1.107220e+002 
4025000000  -4.347675e+001  -1.165454e+002 
4028125000  -4.339417e+001  -1.252872e+002 
4031250000  -4.449843e+001  -1.304271e+002 
4034375000  -4.436597e+001  -1.332538e+002 
4037500000  -4.440016e+001  -1.370003e+002 
4040625000  -4.469774e+001  -1.429120e+002 
4043750000  -4.475283e+001  -1.452569e+002 
4046875000  -4.445322e+001  -1.530084e+002 
4050000000  -4.423936e+001  -1.609896e+002 
4053125000  -4.555854e+001  -1.630913e+002 
4056250000  -4.609863e+001  -1.595631e+002 
4059375000  -4.394134e+001  -1.614002e+002 
4062500000  -4.368952e+001  -1.682753e+002 
4065625000  -4.378461e+001  -1.777794e+002 
4068750000  -4.350490e+001  1.776647e+002 
4071875000  -4.305573e+001  1.618478e+002 
4075000000  -4.414631e+001  1.561845e+002 
4078125000  -4.440530e+001  1.562731e+002 
4081250000  -4.374989e+001  1.474409e+002 
4084375000  -4.365242e+001  1.426443e+002 
4087500000  -4.442899e+001  1.313425e+002 
4090625000  -4.471727e+001  1.314149e+002 
4093750000  -4.476019e+001  1.287590e+002 
4096875000  -4.458685e+001  1.208496e+002 
4100000000  -4.589846e+001  1.130040e+002 
4103125000  -4.579703e+001  1.180788e+002 
4106250000  -4.593332e+001  1.208248e+002 
4109375000  -4.487387e+001  1.119621e+002 
4112500000  -4.428066e+001  1.063081e+002 
4115625000  -4.467164e+001  1.010837e+002 
4118750000  -4.400922e+001  9.425533e+001 
4121875000  -4.401798e+001  8.876729e+001 
4125000000  -4.498956e+001  8.141421e+001 
4128125000  -4.538478e+001  8.237531e+001 
4131250000  -4.437239e+001  8.770135e+001 
4134375000  -4.220284e+001  7.338924e+001 
4137500000  -4.280736e+001  5.347738e+001 
4140625000  -4.506755e+001  4.675454e+001 
4143750000  -4.531874e+001  5.427525e+001 
4146875000  -4.421836e+001  5.658636e+001 
4150000000  -4.331902e+001  4.429392e+001 
4153125000  -4.339651e+001  3.441234e+001 
4156250000  -4.410245e+001  3.147878e+001 
4159375000  -4.435523e+001  3.287881e+001 
4162500000  -4.266836e+001  2.975585e+001 
4165625000  -4.185401e+001  2.033748e+001 
4168750000  -4.158907e+001  9.081560e+000 
4171875000  -4.153572e+001  1.079045e+000 
4175000000  -4.240012e+001  -1.135758e+001 
4178125000  -4.255502e+001  -1.280367e+001 
4181250000  -4.257851e+001  -2.055971e+001 
4184375000  -4.313865e+001  -2.545544e+001 
4187500000  -4.318246e+001  -3.343003e+001 
4190625000  -4.345119e+001  -4.210672e+001 
4193750000  -4.457908e+001  -4.747835e+001 
4196875000  -4.531395e+001  -4.983415e+001 
4200000000  -4.643787e+001  -4.517670e+001 
4203125000  -4.461165e+001  -3.474560e+001 
4206250000  -4.151605e+001  -4.326369e+001 
4209375000  -4.189078e+001  -6.853973e+001 
4212500000  -4.452519e+001  -7.292653e+001 
4215625000  -4.462106e+001  -6.990836e+001 
4218750000  -4.322879e+001  -6.575053e+001 
4221875000  -4.128769e+001  -7.713470e+001 
4225000000  -4.295654e+001  -8.890266e+001 
4228125000  -4.297216e+001  -8.830856e+001 
4231250000  -4.183912e+001  -9.593195e+001 
4234375000  -4.139523e+001  -1.091311e+002 
4237500000  -4.099722e+001  -1.135774e+002 
4240625000  -4.152031e+001  -1.250482e+002 
4243750000  -4.324374e+001  -1.349760e+002 
4246875000  -4.333163e+001  -1.327632e+002 
4250000000  -4.325019e+001  -1.360512e+002 
4253125000  -4.319204e+001  -1.360918e+002 
4256250000  -4.247965e+001  -1.449650e+002 
4259375000  -4.266796e+001  -1.466824e+002 
4262500000  -4.242220e+001  -1.538887e+002 
4265625000  -4.254133e+001  -1.543925e+002 
4268750000  -4.161318e+001  -1.623282e+002 
4271875000  -4.106797e+001  -1.752751e+002 
4275000000  -4.078344e+001  1.785206e+002 
4278125000  -4.180318e+001  1.644908e+002 
4281250000  -4.265229e+001  1.628699e+002 
4284375000  -4.254752e+001  1.576941e+002 
4287500000  -4.427275e+001  1.538386e+002 
4290625000  -4.401794e+001  1.635159e+002 
4293750000  -4.176291e+001  1.647799e+002 
4296875000  -4.065398e+001  1.432963e+002 
4300000000  -4.176031e+001  1.351103e+002 
4303125000  -4.245976e+001  1.386371e+002 
4306250000  -4.110847e+001  1.362899e+002 
4309375000  -4.055571e+001  1.259071e+002 
4312500000  -4.038612e+001  1.137378e+002 
4315625000  -4.073572e+001  1.060887e+002 
4318750000  -4.103246e+001  9.960036e+001 
4321875000  -4.117726e+001  9.797636e+001 
4325000000  -4.045026e+001  9.326202e+001 
4328125000  -3.993002e+001  8.217032e+001 
4331250000  -4.004575e+001  6.920239e+001 
4334375000  -4.100001e+001  6.047953e+001 
4337500000  -4.237926e+001  6.062683e+001 
4340625000  -4.271226e+001  6.250346e+001 
4343750000  -4.132183e+001  5.912783e+001 
4346875000  -4.175526e+001  4.668382e+001 
4350000000  -4.149549e+001  3.748424e+001 
4353125000  -4.288420e+001  2.747091e+001 
4356250000  -4.406914e+001  3.262054e+001 
4359375000  -4.339608e+001  4.562703e+001 
4362500000  -4.017476e+001  3.429733e+001 
4365625000  -3.968603e+001  1.790855e+001 
4368750000  -4.104955e+001  6.378369e+000 
4371875000  -4.140560e+001  5.577284e+000 
4375000000  -4.121622e+001  -1.169743e-001 
4378125000  -4.101226e+001  -8.767771e+000 
4381250000  -4.112854e+001  -1.619055e+001 
4384375000  -4.109956e+001  -2.442351e+001 
4387500000  -4.220366e+001  -3.236659e+001 
4390625000  -4.289253e+001  -3.347239e+001 
4393750000  -4.237309e+001  -3.349214e+001 
4396875000  -4.162270e+001  -3.555792e+001 
4400000000  -4.118316e+001  -4.656881e+001 
4403125000  -4.218977e+001  -5.943790e+001 
4406250000  -4.278781e+001  -6.356844e+001 
4409375000  -4.320222e+001  -6.592460e+001 
4412500000  -4.424199e+001  -7.043942e+001 
4415625000  -4.411140e+001  -6.581573e+001 
4418750000  -4.262436e+001  -6.874628e+001 
