!Agilent Technologies,E8363B,MY43030201,A.06.04.32
!Agilent E8363B: A.06.04.32
!Date: Tuesday, November 11, 2014 21:43:52
!Correction: S21(Response(S21)) 
!S1P File: Measurement: S21:
# Hz S  dB   R 50
3000000000  -4.362394e+001  -1.592258e+002 
3003125000  -4.516254e+001  -1.656925e+002 
3006250000  -4.542947e+001  -1.656443e+002 
3009375000  -4.668778e+001  -1.608276e+002 
3012500000  -4.465851e+001  -1.682519e+002 
3015625000  -4.503088e+001  -1.762478e+002 
3018750000  -4.528858e+001  -1.778272e+002 
3021875000  -4.377170e+001  -1.757783e+002 
3025000000  -4.258799e+001  1.790243e+002 
3028125000  -4.175653e+001  1.663962e+002 
3031250000  -4.092479e+001  1.540073e+002 
3034375000  -4.071361e+001  1.397654e+002 
3037500000  -4.167580e+001  1.290075e+002 
3040625000  -4.277151e+001  1.208872e+002 
3043750000  -4.328235e+001  1.159090e+002 
3046875000  -4.426357e+001  1.091011e+002 
3050000000  -4.543550e+001  1.025838e+002 
3053125000  -4.493979e+001  1.083630e+002 
3056250000  -4.460122e+001  1.105598e+002 
3059375000  -4.383786e+001  1.070383e+002 
3062500000  -4.226355e+001  1.008262e+002 
3065625000  -4.213854e+001  8.974763e+001 
3068750000  -4.170164e+001  8.387829e+001 
3071875000  -4.181854e+001  7.952856e+001 
3075000000  -4.103591e+001  7.258025e+001 
3078125000  -4.102468e+001  6.373602e+001 
3081250000  -4.126197e+001  5.867535e+001 
3084375000  -4.047350e+001  5.250871e+001 
3087500000  -4.061739e+001  4.577933e+001 
3090625000  -3.989933e+001  3.243746e+001 
3093750000  -4.106960e+001  2.229081e+001 
3096875000  -4.125554e+001  1.780212e+001 
3100000000  -4.104305e+001  1.323649e+001 
3103125000  -4.141286e+001  8.837721e+000 
3106250000  -4.100336e+001  2.635576e+000 
3109375000  -4.104925e+001  -2.695673e+000 
3112500000  -4.073248e+001  -9.792139e+000 
3115625000  -4.074822e+001  -1.557597e+001 
3118750000  -4.065359e+001  -1.929649e+001 
3121875000  -4.003500e+001  -3.238795e+001 
3125000000  -4.209265e+001  -3.540907e+001 
3128125000  -4.200111e+001  -2.992877e+001 
3131250000  -3.953953e+001  -3.759581e+001 
3134375000  -3.885696e+001  -5.515817e+001 
3137500000  -3.970687e+001  -6.859792e+001 
3140625000  -4.088282e+001  -7.233430e+001 
3143750000  -4.161425e+001  -7.710304e+001 
3146875000  -4.098170e+001  -7.520703e+001 
3150000000  -4.037608e+001  -8.200333e+001 
3153125000  -4.078455e+001  -9.026157e+001 
3156250000  -4.161622e+001  -8.743031e+001 
3159375000  -3.921806e+001  -9.044038e+001 
3162500000  -3.788894e+001  -1.080430e+002 
3165625000  -3.919114e+001  -1.205574e+002 
3168750000  -3.916664e+001  -1.231306e+002 
3171875000  -3.864882e+001  -1.311732e+002 
3175000000  -3.907353e+001  -1.408049e+002 
3178125000  -3.883353e+001  -1.439000e+002 
3181250000  -3.815995e+001  -1.531099e+002 
3184375000  -3.792493e+001  -1.655489e+002 
3187500000  -3.929969e+001  1.793032e+002 
3190625000  -4.094878e+001  1.731282e+002 
3193750000  -4.120321e+001  1.754698e+002 
3196875000  -4.126718e+001  1.762659e+002 
3200000000  -3.977431e+001  1.696916e+002 
3203125000  -3.966794e+001  1.616832e+002 
3206250000  -3.977895e+001  1.530354e+002 
3209375000  -3.938647e+001  1.446542e+002 
3212500000  -3.998008e+001  1.360831e+002 
3215625000  -3.955239e+001  1.344160e+002 
3218750000  -4.055577e+001  1.218368e+002 
3221875000  -4.065909e+001  1.151042e+002 
3225000000  -4.036584e+001  1.086828e+002 
3228125000  -4.105869e+001  1.021398e+002 
3231250000  -4.161188e+001  9.834622e+001 
3234375000  -4.117493e+001  9.465823e+001 
3237500000  -4.123582e+001  9.154647e+001 
3240625000  -4.023890e+001  8.471497e+001 
3243750000  -4.034595e+001  7.280461e+001 
3246875000  -4.089842e+001  6.465754e+001 
3250000000  -4.122121e+001  6.135452e+001 
3253125000  -4.106702e+001  5.557079e+001 
3256250000  -4.044382e+001  4.544238e+001 
3259375000  -4.106663e+001  3.355058e+001 
3262500000  -4.253930e+001  2.677531e+001 
3265625000  -4.261255e+001  2.913698e+001 
3268750000  -4.259747e+001  2.817917e+001 
3271875000  -4.170110e+001  2.280931e+001 
3275000000  -4.120332e+001  1.081361e+001 
3278125000  -4.191108e+001  3.562510e+000 
3281250000  -4.187321e+001  2.087794e+000 
3284375000  -4.108117e+001  -6.991036e+000 
3287500000  -4.181043e+001  -1.566845e+001 
3290625000  -4.147042e+001  -2.441542e+001 
3293750000  -4.161553e+001  -3.214436e+001 
3296875000  -4.272265e+001  -3.613996e+001 
3300000000  -4.221812e+001  -3.821891e+001 
3303125000  -4.096216e+001  -4.878029e+001 
3306250000  -4.114306e+001  -5.904332e+001 
3309375000  -4.078592e+001  -7.005692e+001 
3312500000  -4.122265e+001  -8.326635e+001 
3315625000  -4.248030e+001  -9.371915e+001 
3318750000  -4.409489e+001  -1.010475e+002 
3321875000  -4.534161e+001  -9.830548e+001 
3325000000  -4.526295e+001  -9.487820e+001 
3328125000  -4.424762e+001  -9.685587e+001 
3331250000  -4.240855e+001  -9.741581e+001 
3334375000  -4.038227e+001  -1.174734e+002 
3337500000  -4.103814e+001  -1.387429e+002 
3340625000  -4.297933e+001  -1.490987e+002 
3343750000  -4.467575e+001  -1.499953e+002 
3346875000  -4.394776e+001  -1.551322e+002 
3350000000  -4.384474e+001  -1.615478e+002 
3353125000  -4.386289e+001  -1.698634e+002 
3356250000  -4.361552e+001  1.791763e+002 
3359375000  -4.441507e+001  1.661159e+002 
3362500000  -4.553629e+001  1.567948e+002 
3365625000  -4.582641e+001  1.525858e+002 
3368750000  -4.679485e+001  1.471640e+002 
3371875000  -4.737526e+001  1.409180e+002 
3375000000  -4.843326e+001  1.339126e+002 
3378125000  -5.011817e+001  1.298024e+002 
3381250000  -5.095893e+001  1.475784e+002 
3384375000  -4.733475e+001  1.499612e+002 
3387500000  -4.529254e+001  1.287830e+002 
3390625000  -4.745326e+001  1.084364e+002 
3393750000  -4.778771e+001  1.035312e+002 
3396875000  -4.672297e+001  1.000574e+002 
3400000000  -4.629550e+001  8.674421e+001 
3403125000  -4.699525e+001  8.104980e+001 
3406250000  -4.715646e+001  7.143411e+001 
3409375000  -4.729174e+001  5.958134e+001 
3412500000  -4.777413e+001  5.419423e+001 
3415625000  -4.895949e+001  4.991586e+001 
3418750000  -4.916850e+001  4.085692e+001 
3421875000  -4.887964e+001  4.003681e+001 
3425000000  -4.765753e+001  3.368906e+001 
3428125000  -4.741597e+001  3.130725e+001 
3431250000  -4.685985e+001  1.531549e+001 
3434375000  -4.673946e+001  2.351127e+000 
3437500000  -4.747736e+001  -3.960674e+000 
3440625000  -4.748011e+001  -7.060801e+000 
3443750000  -4.670635e+001  -1.130144e+001 
3446875000  -4.549567e+001  -2.558972e+001 
3450000000  -4.510671e+001  -3.936880e+001 
3453125000  -4.571939e+001  -6.070108e+001 
3456250000  -4.710646e+001  -6.959072e+001 
3459375000  -4.797112e+001  -7.188461e+001 
3462500000  -4.779367e+001  -7.924995e+001 
3465625000  -4.731989e+001  -9.092558e+001 
3468750000  -4.728592e+001  -9.435736e+001 
3471875000  -4.697381e+001  -1.013733e+002 
3475000000  -4.709821e+001  -1.156656e+002 
3478125000  -4.748156e+001  -1.274379e+002 
3481250000  -4.921278e+001  -1.320270e+002 
3484375000  -4.850222e+001  -1.336504e+002 
3487500000  -4.759601e+001  -1.421316e+002 
3490625000  -4.747216e+001  -1.506514e+002 
3493750000  -4.795657e+001  -1.666576e+002 
3496875000  -4.771306e+001  -1.674997e+002 
3500000000  -4.860065e+001  -1.710883e+002 
3503125000  -4.708009e+001  -1.757116e+002 
3506250000  -4.530389e+001  1.726566e+002 
3509375000  -4.552592e+001  1.535320e+002 
3512500000  -4.629453e+001  1.387777e+002 
3515625000  -4.723151e+001  1.331428e+002 
3518750000  -4.763557e+001  1.287204e+002 
3521875000  -4.764555e+001  1.187102e+002 
3525000000  -4.897799e+001  1.180675e+002 
3528125000  -4.774835e+001  1.170645e+002 
3531250000  -4.584176e+001  1.050283e+002 
3534375000  -4.687709e+001  8.907751e+001 
3537500000  -4.781812e+001  8.117683e+001 
3540625000  -4.962699e+001  7.497784e+001 
3543750000  -4.975935e+001  7.786295e+001 
3546875000  -4.849667e+001  8.624516e+001 
3550000000  -4.621800e+001  7.615214e+001 
3553125000  -4.608790e+001  5.323467e+001 
3556250000  -4.706000e+001  4.728587e+001 
3559375000  -4.616713e+001  4.215845e+001 
3562500000  -4.665459e+001  3.348000e+001 
3565625000  -4.752181e+001  2.620052e+001 
3568750000  -4.755214e+001  2.648676e+001 
3571875000  -4.724540e+001  2.230746e+001 
3575000000  -4.667795e+001  1.311132e+001 
3578125000  -4.814803e+001  1.200837e+001 
3581250000  -4.712037e+001  5.400307e+000 
3584375000  -4.561520e+001  1.582976e-001 
3587500000  -4.590604e+001  -1.143602e+001 
3590625000  -4.652870e+001  -2.424891e+001 
3593750000  -4.789979e+001  -2.336846e+001 
3596875000  -4.647473e+001  -1.911927e+001 
3600000000  -4.476038e+001  -2.949892e+001 
3603125000  -4.553755e+001  -4.675409e+001 
3606250000  -4.609758e+001  -5.124672e+001 
3609375000  -4.622540e+001  -5.629771e+001 
3612500000  -4.602266e+001  -6.158274e+001 
3615625000  -4.616701e+001  -6.731092e+001 
3618750000  -4.623560e+001  -7.074792e+001 
3621875000  -4.562206e+001  -7.469572e+001 
3625000000  -4.572920e+001  -7.912019e+001 
3628125000  -4.485315e+001  -8.505260e+001 
3631250000  -4.517675e+001  -9.733059e+001 
3634375000  -4.552202e+001  -9.806262e+001 
3637500000  -4.432782e+001  -9.710556e+001 
3640625000  -4.376614e+001  -1.063933e+002 
3643750000  -4.288908e+001  -1.153680e+002 
3646875000  -4.360355e+001  -1.249572e+002 
3650000000  -4.383471e+001  -1.322726e+002 
3653125000  -4.307967e+001  -1.392668e+002 
3656250000  -4.416446e+001  -1.445803e+002 
3659375000  -4.373585e+001  -1.514973e+002 
3662500000  -4.345541e+001  -1.561890e+002 
3665625000  -4.345506e+001  -1.615171e+002 
3668750000  -4.213707e+001  -1.664261e+002 
3671875000  -4.163408e+001  1.795714e+002 
3675000000  -4.211388e+001  1.703155e+002 
3678125000  -4.267946e+001  1.636119e+002 
3681250000  -4.268199e+001  1.582583e+002 
3684375000  -4.287869e+001  1.483449e+002 
3687500000  -4.306706e+001  1.414992e+002 
3690625000  -4.353120e+001  1.370787e+002 
3693750000  -4.448840e+001  1.363099e+002 
3696875000  -4.389297e+001  1.317900e+002 
3700000000  -4.300958e+001  1.239544e+002 
3703125000  -4.343879e+001  1.144645e+002 
3706250000  -4.456314e+001  1.140695e+002 
3709375000  -4.418164e+001  1.152669e+002 
3712500000  -4.298119e+001  1.061012e+002 
3715625000  -4.152081e+001  9.673264e+001 
3718750000  -4.199455e+001  8.776894e+001 
3721875000  -4.178595e+001  7.955623e+001 
3725000000  -4.263039e+001  7.294257e+001 
3728125000  -4.247406e+001  6.965131e+001 
3731250000  -4.202493e+001  5.956801e+001 
3734375000  -4.207551e+001  5.334822e+001 
3737500000  -4.295131e+001  4.591202e+001 
3740625000  -4.336279e+001  3.890846e+001 
3743750000  -4.294884e+001  3.311737e+001 
3746875000  -4.345489e+001  2.687288e+001 
3750000000  -4.374068e+001  2.224666e+001 
3753125000  -4.403175e+001  1.959185e+001 
3756250000  -4.394347e+001  1.913123e+001 
3759375000  -4.339153e+001  1.160292e+001 
3762500000  -4.344354e+001  5.867853e+000 
3765625000  -4.432378e+001  1.282591e+000 
3768750000  -4.373439e+001  2.010656e+000 
3771875000  -4.233334e+001  -6.044827e+000 
3775000000  -4.213778e+001  -1.658709e+001 
3778125000  -4.276040e+001  -2.351081e+001 
3781250000  -4.260057e+001  -2.478980e+001 
3784375000  -4.237946e+001  -3.324357e+001 
3787500000  -4.245910e+001  -3.892383e+001 
3790625000  -4.273426e+001  -4.899148e+001 
3793750000  -4.282787e+001  -5.401860e+001 
3796875000  -4.157579e+001  -5.851418e+001 
3800000000  -4.083137e+001  -6.470515e+001 
3803125000  -4.185521e+001  -7.711562e+001 
3806250000  -4.245525e+001  -8.190633e+001 
3809375000  -4.193537e+001  -8.679269e+001 
3812500000  -4.170630e+001  -9.977139e+001 
3815625000  -4.311554e+001  -1.076034e+002 
3818750000  -4.458465e+001  -1.048343e+002 
3821875000  -4.370487e+001  -9.705050e+001 
3825000000  -4.171775e+001  -1.026573e+002 
3828125000  -4.059893e+001  -1.233205e+002 
3831250000  -4.183554e+001  -1.402093e+002 
3834375000  -4.384148e+001  -1.377508e+002 
3837500000  -4.399360e+001  -1.370493e+002 
3840625000  -4.230540e+001  -1.412345e+002 
3843750000  -4.203192e+001  -1.563241e+002 
3846875000  -4.347479e+001  -1.655142e+002 
3850000000  -4.428432e+001  -1.567722e+002 
3853125000  -4.352511e+001  -1.573777e+002 
3856250000  -4.283500e+001  -1.695134e+002 
3859375000  -4.225434e+001  -1.788006e+002 
3862500000  -4.210656e+001  1.726230e+002 
3865625000  -4.262761e+001  1.676547e+002 
3868750000  -4.253046e+001  1.627778e+002 
3871875000  -4.198458e+001  1.555042e+002 
3875000000  -4.290414e+001  1.436315e+002 
3878125000  -4.364859e+001  1.431879e+002 
3881250000  -4.361469e+001  1.400803e+002 
3884375000  -4.255546e+001  1.293320e+002 
3887500000  -4.326635e+001  1.239761e+002 
3890625000  -4.411012e+001  1.221042e+002 
3893750000  -4.436667e+001  1.158203e+002 
3896875000  -4.440428e+001  1.161127e+002 
3900000000  -4.414622e+001  1.088518e+002 
3903125000  -4.357511e+001  1.043575e+002 
3906250000  -4.381495e+001  9.743938e+001 
3909375000  -4.285056e+001  8.973481e+001 
3912500000  -4.365573e+001  8.194115e+001 
3915625000  -4.509233e+001  8.156011e+001 
3918750000  -4.431214e+001  8.241393e+001 
3921875000  -4.412518e+001  7.528814e+001 
3925000000  -4.315271e+001  7.016483e+001 
3928125000  -4.300446e+001  5.851890e+001 
3931250000  -4.375062e+001  5.167284e+001 
3934375000  -4.385645e+001  4.980962e+001 
3937500000  -4.451513e+001  4.856921e+001 
3940625000  -4.433938e+001  4.597172e+001 
3943750000  -4.312099e+001  3.918501e+001 
3946875000  -4.318940e+001  3.337293e+001 
3950000000  -4.386528e+001  2.487519e+001 
3953125000  -4.497174e+001  2.329831e+001 
3956250000  -4.306055e+001  2.252692e+001 
3959375000  -4.184288e+001  1.594434e+001 
3962500000  -4.127339e+001  3.435902e+000 
3965625000  -4.201746e+001  -4.437642e+000 
3968750000  -4.281102e+001  -1.388498e+001 
3971875000  -4.264756e+001  -1.756462e+001 
3975000000  -4.216528e+001  -2.427077e+001 
3978125000  -4.209454e+001  -3.227541e+001 
3981250000  -4.211387e+001  -3.505322e+001 
3984375000  -4.243002e+001  -4.463630e+001 
3987500000  -4.334792e+001  -5.012646e+001 
3990625000  -4.305296e+001  -5.225299e+001 
3993750000  -4.356928e+001  -6.079517e+001 
3996875000  -4.344550e+001  -6.516985e+001 
4000000000  -4.365620e+001  -6.995823e+001 
4003125000  -4.373325e+001  -6.990401e+001 
4006250000  -4.203979e+001  -7.390895e+001 
4009375000  -4.130861e+001  -9.381773e+001 
4012500000  -4.294763e+001  -1.011546e+002 
4015625000  -4.407593e+001  -1.027877e+002 
4018750000  -4.416842e+001  -1.037343e+002 
4021875000  -4.311423e+001  -1.096716e+002 
4025000000  -4.303293e+001  -1.206224e+002 
4028125000  -4.334586e+001  -1.264207e+002 
4031250000  -4.394047e+001  -1.335788e+002 
4034375000  -4.411607e+001  -1.357530e+002 
4037500000  -4.407534e+001  -1.389890e+002 
4040625000  -4.423967e+001  -1.451540e+002 
4043750000  -4.452868e+001  -1.509596e+002 
4046875000  -4.433133e+001  -1.543532e+002 
4050000000  -4.446925e+001  -1.643900e+002 
4053125000  -4.553948e+001  -1.643727e+002 
4056250000  -4.568757e+001  -1.610375e+002 
4059375000  -4.431254e+001  -1.624076e+002 
4062500000  -4.403621e+001  -1.745262e+002 
4065625000  -4.396405e+001  -1.787804e+002 
4068750000  -4.338976e+001  1.745001e+002 
4071875000  -4.310052e+001  1.633786e+002 
4075000000  -4.369722e+001  1.555942e+002 
4078125000  -4.441014e+001  1.531937e+002 
4081250000  -4.380934e+001  1.498664e+002 
4084375000  -4.343732e+001  1.413824e+002 
4087500000  -4.378931e+001  1.333437e+002 
4090625000  -4.507529e+001  1.279238e+002 
4093750000  -4.451862e+001  1.270042e+002 
4096875000  -4.434057e+001  1.195420e+002 
4100000000  -4.568324e+001  1.130121e+002 
4103125000  -4.647944e+001  1.156419e+002 
4106250000  -4.550967e+001  1.191221e+002 
4109375000  -4.471600e+001  1.141325e+002 
4112500000  -4.424226e+001  1.036719e+002 
4115625000  -4.460045e+001  1.000856e+002 
4118750000  -4.405513e+001  9.373511e+001 
4121875000  -4.357433e+001  8.527870e+001 
4125000000  -4.480587e+001  7.685744e+001 
4128125000  -4.550621e+001  8.087912e+001 
4131250000  -4.410306e+001  8.753696e+001 
4134375000  -4.199966e+001  7.471432e+001 
4137500000  -4.246893e+001  5.124412e+001 
4140625000  -4.452893e+001  4.448502e+001 
4143750000  -4.563636e+001  4.742548e+001 
4146875000  -4.416880e+001  5.232597e+001 
4150000000  -4.343795e+001  3.919792e+001 
4153125000  -4.359670e+001  3.348137e+001 
4156250000  -4.449317e+001  2.931903e+001 
4159375000  -4.425553e+001  2.850076e+001 
4162500000  -4.301075e+001  2.835463e+001 
4165625000  -4.199283e+001  1.902751e+001 
4168750000  -4.154166e+001  8.399538e+000 
4171875000  -4.159261e+001  -2.659010e+000 
4175000000  -4.198167e+001  -1.335225e+001 
4178125000  -4.271191e+001  -1.297933e+001 
4181250000  -4.230314e+001  -2.034326e+001 
4184375000  -4.278376e+001  -2.802398e+001 
4187500000  -4.280075e+001  -3.429254e+001 
4190625000  -4.299541e+001  -4.503279e+001 
4193750000  -4.398575e+001  -4.725166e+001 
4196875000  -4.516656e+001  -5.178915e+001 
4200000000  -4.637130e+001  -4.841708e+001 
4203125000  -4.485266e+001  -3.314269e+001 
4206250000  -4.173006e+001  -4.626181e+001 
4209375000  -4.165028e+001  -7.099127e+001 
4212500000  -4.438081e+001  -7.655148e+001 
4215625000  -4.462063e+001  -7.081023e+001 
4218750000  -4.295182e+001  -6.787730e+001 
4221875000  -4.160408e+001  -8.183828e+001 
4225000000  -4.232927e+001  -9.094147e+001 
4228125000  -4.304649e+001  -9.262694e+001 
4231250000  -4.132011e+001  -1.006055e+002 
4234375000  -4.165156e+001  -1.112917e+002 
4237500000  -4.118383e+001  -1.170666e+002 
4240625000  -4.142868e+001  -1.304538e+002 
4243750000  -4.288045e+001  -1.391276e+002 
4246875000  -4.355063e+001  -1.367022e+002 
4250000000  -4.325634e+001  -1.362729e+002 
4253125000  -4.327636e+001  -1.387510e+002 
4256250000  -4.272510e+001  -1.441309e+002 
4259375000  -4.241052e+001  -1.525834e+002 
4262500000  -4.266728e+001  -1.578674e+002 
4265625000  -4.239767e+001  -1.572465e+002 
4268750000  -4.137561e+001  -1.667507e+002 
4271875000  -4.110031e+001  -1.745614e+002 
4275000000  -4.041788e+001  1.744960e+002 
4278125000  -4.155632e+001  1.610676e+002 
4281250000  -4.282129e+001  1.593272e+002 
4284375000  -4.262046e+001  1.547560e+002 
4287500000  -4.398988e+001  1.551000e+002 
4290625000  -4.402674e+001  1.598086e+002 
4293750000  -4.195828e+001  1.558571e+002 
4296875000  -4.090148e+001  1.435048e+002 
4300000000  -4.158006e+001  1.347268e+002 
4303125000  -4.253239e+001  1.375022e+002 
4306250000  -4.088759e+001  1.326244e+002 
4309375000  -4.018187e+001  1.251843e+002 
4312500000  -4.011212e+001  1.098348e+002 
4315625000  -4.039683e+001  1.019737e+002 
4318750000  -4.142254e+001  9.756270e+001 
4321875000  -4.114629e+001  9.605029e+001 
4325000000  -4.075446e+001  9.051485e+001 
4328125000  -4.002051e+001  7.969127e+001 
4331250000  -3.998335e+001  6.685519e+001 
4334375000  -4.105657e+001  5.960238e+001 
4337500000  -4.233325e+001  5.831690e+001 
4340625000  -4.254480e+001  5.903143e+001 
4343750000  -4.129736e+001  5.472721e+001 
4346875000  -4.155895e+001  4.589625e+001 
4350000000  -4.167615e+001  3.527042e+001 
4353125000  -4.221084e+001  2.805202e+001 
4356250000  -4.447791e+001  3.363193e+001 
4359375000  -4.297105e+001  4.429757e+001 
4362500000  -4.009414e+001  2.945252e+001 
4365625000  -3.939874e+001  1.417251e+001 
4368750000  -4.075396e+001  4.383336e+000 
4371875000  -4.169100e+001  1.632402e+000 
4375000000  -4.121040e+001  -1.816384e+000 
4378125000  -4.112125e+001  -1.079145e+001 
4381250000  -4.134586e+001  -1.661017e+001 
4384375000  -4.126488e+001  -2.621299e+001 
4387500000  -4.230723e+001  -3.483105e+001 
4390625000  -4.272479e+001  -3.438967e+001 
4393750000  -4.177820e+001  -3.604832e+001 
4396875000  -4.170717e+001  -3.993530e+001 
4400000000  -4.136964e+001  -5.135106e+001 
4403125000  -4.199828e+001  -6.112793e+001 
4406250000  -4.275838e+001  -6.598524e+001 
4409375000  -4.285120e+001  -6.796676e+001 
4412500000  -4.426290e+001  -7.053091e+001 
4415625000  -4.353908e+001  -6.985154e+001 
4418750000  -4.233855e+001  -6.845910e+001 
