!Agilent Technologies,E8363B,MY43030201,A.06.04.32
!Agilent E8363B: A.06.04.32
!Date: Tuesday, November 11, 2014 20:53:26
!Correction: S21(Response(S21)) 
!S1P File: Measurement: S21:
# Hz S  dB   R 50
3000000000  -2.655572e+001  1.496897e+002 
3003125000  -2.792688e+001  1.448698e+002 
3006250000  -2.801551e+001  1.425212e+002 
3009375000  -2.837454e+001  1.474715e+002 
3012500000  -2.782665e+001  1.470359e+002 
3015625000  -2.688806e+001  1.396410e+002 
3018750000  -2.771290e+001  1.390436e+002 
3021875000  -2.646387e+001  1.402339e+002 
3025000000  -2.513853e+001  1.370398e+002 
3028125000  -2.417577e+001  1.321030e+002 
3031250000  -2.313653e+001  1.207855e+002 
3034375000  -2.278636e+001  1.079383e+002 
3037500000  -2.313375e+001  9.590179e+001 
3040625000  -2.446826e+001  9.094894e+001 
3043750000  -2.517275e+001  8.627113e+001 
3046875000  -2.532005e+001  8.023865e+001 
3050000000  -2.706790e+001  7.309077e+001 
3053125000  -2.715422e+001  7.998351e+001 
3056250000  -2.653325e+001  8.231448e+001 
3059375000  -2.673183e+001  8.223677e+001 
3062500000  -2.529718e+001  7.845967e+001 
3065625000  -2.505540e+001  7.273441e+001 
3068750000  -2.480175e+001  6.591133e+001 
3071875000  -2.473724e+001  6.292884e+001 
3075000000  -2.468744e+001  5.888504e+001 
3078125000  -2.444050e+001  5.459134e+001 
3081250000  -2.505890e+001  5.026414e+001 
3084375000  -2.431127e+001  4.660358e+001 
3087500000  -2.419587e+001  4.302802e+001 
3090625000  -2.393340e+001  3.328109e+001 
3093750000  -2.439613e+001  2.547584e+001 
3096875000  -2.563640e+001  1.959366e+001 
3100000000  -2.579229e+001  1.824625e+001 
3103125000  -2.618843e+001  1.956746e+001 
3106250000  -2.589346e+001  1.594370e+001 
3109375000  -2.610318e+001  1.241055e+001 
3112500000  -2.627588e+001  1.152593e+001 
3115625000  -2.608902e+001  7.279058e+000 
3118750000  -2.653154e+001  8.918496e+000 
3121875000  -2.588595e+001  4.720513e-001 
3125000000  -2.709491e+001  -2.845444e+000 
3128125000  -2.829269e+001  5.712743e+000 
3131250000  -2.609964e+001  6.067078e+000 
3134375000  -2.474374e+001  -7.513630e+000 
3137500000  -2.537422e+001  -2.113329e+001 
3140625000  -2.696693e+001  -2.291647e+001 
3143750000  -2.799673e+001  -1.909790e+001 
3146875000  -2.757385e+001  -1.698219e+001 
3150000000  -2.660104e+001  -1.459739e+001 
3153125000  -2.660697e+001  -2.253945e+001 
3156250000  -2.755192e+001  -1.681607e+001 
3159375000  -2.593332e+001  -1.401005e+001 
3162500000  -2.393468e+001  -2.727194e+001 
3165625000  -2.487046e+001  -3.789693e+001 
3168750000  -2.522534e+001  -3.693221e+001 
3171875000  -2.428102e+001  -4.135231e+001 
3175000000  -2.493069e+001  -4.922208e+001 
3178125000  -2.472810e+001  -4.744429e+001 
3181250000  -2.352990e+001  -5.157263e+001 
3184375000  -2.275150e+001  -6.382956e+001 
3187500000  -2.388633e+001  -7.895738e+001 
3190625000  -2.665636e+001  -8.619152e+001 
3193750000  -2.723031e+001  -7.694579e+001 
3196875000  -2.683188e+001  -7.159676e+001 
3200000000  -2.596722e+001  -7.364782e+001 
3203125000  -2.512147e+001  -7.910558e+001 
3206250000  -2.541083e+001  -8.542587e+001 
3209375000  -2.496489e+001  -9.049171e+001 
3212500000  -2.508138e+001  -9.706044e+001 
3215625000  -2.522668e+001  -1.011473e+002 
3218750000  -2.596351e+001  -1.073330e+002 
3221875000  -2.693636e+001  -1.126558e+002 
3225000000  -2.653807e+001  -1.130650e+002 
3228125000  -2.685104e+001  -1.179447e+002 
3231250000  -2.762989e+001  -1.205130e+002 
3234375000  -2.748701e+001  -1.192653e+002 
3237500000  -2.756854e+001  -1.209309e+002 
3240625000  -2.725231e+001  -1.227844e+002 
3243750000  -2.684535e+001  -1.290420e+002 
3246875000  -2.732494e+001  -1.361877e+002 
3250000000  -2.773418e+001  -1.372909e+002 
3253125000  -2.793454e+001  -1.391710e+002 
3256250000  -2.780736e+001  -1.454061e+002 
3259375000  -2.808623e+001  -1.527589e+002 
3262500000  -2.938703e+001  -1.558013e+002 
3265625000  -3.005950e+001  -1.521477e+002 
3268750000  -3.001364e+001  -1.497927e+002 
3271875000  -2.978531e+001  -1.485163e+002 
3275000000  -2.869141e+001  -1.537683e+002 
3278125000  -2.918197e+001  -1.600217e+002 
3281250000  -2.940584e+001  -1.582425e+002 
3284375000  -2.900768e+001  -1.637154e+002 
3287500000  -2.920815e+001  -1.668107e+002 
3290625000  -2.956706e+001  -1.709721e+002 
3293750000  -2.929199e+001  -1.766753e+002 
3296875000  -3.021910e+001  -1.768894e+002 
3300000000  -3.014019e+001  -1.754665e+002 
3303125000  -2.901382e+001  -1.798298e+002 
3306250000  -2.881310e+001  1.736827e+002 
3309375000  -2.854030e+001  1.686895e+002 
3312500000  -2.859600e+001  1.583277e+002 
3315625000  -2.961716e+001  1.505838e+002 
3318750000  -3.100240e+001  1.483094e+002 
3321875000  -3.216385e+001  1.478481e+002 
3325000000  -3.271471e+001  1.528902e+002 
3328125000  -3.268433e+001  1.545085e+002 
3331250000  -3.144802e+001  1.622903e+002 
3334375000  -2.878812e+001  1.521816e+002 
3337500000  -2.893881e+001  1.338209e+002 
3340625000  -3.026469e+001  1.225697e+002 
3343750000  -3.215892e+001  1.214476e+002 
3346875000  -3.269487e+001  1.228773e+002 
3350000000  -3.208101e+001  1.214479e+002 
3353125000  -3.218640e+001  1.175137e+002 
3356250000  -3.199070e+001  1.095210e+002 
3359375000  -3.279597e+001  1.011705e+002 
3362500000  -3.408545e+001  9.572538e+001 
3365625000  -3.478465e+001  9.439886e+001 
3368750000  -3.562066e+001  9.283922e+001 
3371875000  -3.620247e+001  8.933295e+001 
3375000000  -3.779619e+001  8.708470e+001 
3378125000  -3.870913e+001  8.638592e+001 
3381250000  -4.030452e+001  9.379001e+001 
3384375000  -3.956205e+001  1.160481e+002 
3387500000  -3.631704e+001  1.022327e+002 
3390625000  -3.828355e+001  8.325210e+001 
3393750000  -4.008642e+001  8.685364e+001 
3396875000  -3.921512e+001  9.063319e+001 
3400000000  -3.926523e+001  8.570372e+001 
3403125000  -4.029111e+001  7.849319e+001 
3406250000  -4.099031e+001  8.175653e+001 
3409375000  -4.180843e+001  7.745120e+001 
3412500000  -4.265784e+001  7.972083e+001 
3415625000  -4.349852e+001  8.640467e+001 
3418750000  -4.368243e+001  8.911699e+001 
3421875000  -4.408818e+001  9.517403e+001 
3425000000  -4.304627e+001  9.862119e+001 
3428125000  -4.241740e+001  9.864286e+001 
3431250000  -4.212089e+001  9.432316e+001 
3434375000  -4.174443e+001  9.169434e+001 
3437500000  -4.234742e+001  8.907083e+001 
3440625000  -4.284953e+001  9.344861e+001 
3443750000  -4.153654e+001  9.514783e+001 
3446875000  -4.062854e+001  8.993121e+001 
3450000000  -4.028300e+001  8.173188e+001 
3453125000  -4.071900e+001  7.245692e+001 
3456250000  -4.183547e+001  6.843557e+001 
3459375000  -4.281768e+001  7.074492e+001 
3462500000  -4.295686e+001  7.144522e+001 
3465625000  -4.283025e+001  6.591675e+001 
3468750000  -4.352998e+001  6.519641e+001 
3471875000  -4.352594e+001  6.695993e+001 
3475000000  -4.365426e+001  6.158860e+001 
3478125000  -4.389528e+001  5.461691e+001 
3481250000  -4.522100e+001  5.443494e+001 
3484375000  -4.697743e+001  5.995406e+001 
3487500000  -4.654234e+001  6.544580e+001 
3490625000  -4.616151e+001  6.243795e+001 
3493750000  -4.677348e+001  5.720850e+001 
3496875000  -4.755183e+001  5.936449e+001 
3500000000  -4.915476e+001  6.832211e+001 
3503125000  -4.873383e+001  7.344540e+001 
3506250000  -4.749441e+001  7.791990e+001 
3509375000  -4.787752e+001  7.475360e+001 
3512500000  -4.861941e+001  7.302274e+001 
3515625000  -4.836551e+001  7.932560e+001 
3518750000  -4.903220e+001  8.491679e+001 
3521875000  -4.798783e+001  9.043249e+001 
3525000000  -4.826959e+001  8.735606e+001 
3528125000  -4.742625e+001  9.828250e+001 
3531250000  -4.595231e+001  1.005121e+002 
3534375000  -4.511793e+001  9.381252e+001 
3537500000  -4.505695e+001  8.812828e+001 
3540625000  -4.540030e+001  8.826156e+001 
3543750000  -4.591914e+001  8.870907e+001 
3546875000  -4.554687e+001  9.853173e+001 
3550000000  -4.271408e+001  1.042451e+002 
3553125000  -4.111745e+001  8.734958e+001 
3556250000  -4.206523e+001  8.150629e+001 
3559375000  -4.164229e+001  8.276495e+001 
3562500000  -4.056030e+001  7.493595e+001 
3565625000  -4.126389e+001  6.822160e+001 
3568750000  -4.135897e+001  7.058295e+001 
3571875000  -4.098590e+001  7.093712e+001 
3575000000  -4.051224e+001  6.484462e+001 
3578125000  -4.095433e+001  6.191209e+001 
3581250000  -4.106357e+001  6.123082e+001 
3584375000  -4.016572e+001  6.070969e+001 
3587500000  -3.953681e+001  5.355500e+001 
3590625000  -3.998077e+001  4.379089e+001 
3593750000  -4.094400e+001  4.463721e+001 
3596875000  -4.113610e+001  5.283862e+001 
3600000000  -3.936870e+001  4.819997e+001 
3603125000  -3.979636e+001  3.555256e+001 
3606250000  -4.030151e+001  3.171929e+001 
3609375000  -4.069300e+001  3.247926e+001 
3612500000  -4.109563e+001  3.058813e+001 
3615625000  -4.150394e+001  2.709348e+001 
3618750000  -4.200453e+001  2.991784e+001 
3621875000  -4.136290e+001  2.869410e+001 
3625000000  -4.169615e+001  2.802157e+001 
3628125000  -4.183815e+001  3.034351e+001 
3631250000  -4.160374e+001  2.523190e+001 
3634375000  -4.254298e+001  2.531492e+001 
3637500000  -4.225267e+001  3.322863e+001 
3640625000  -4.107571e+001  3.524405e+001 
3643750000  -4.088698e+001  2.796079e+001 
3646875000  -4.124879e+001  2.214003e+001 
3650000000  -4.169243e+001  2.196142e+001 
3653125000  -4.130830e+001  2.237783e+001 
3656250000  -4.147209e+001  2.375706e+001 
3659375000  -4.201913e+001  2.484941e+001 
3662500000  -4.127133e+001  2.451023e+001 
3665625000  -4.104294e+001  2.408421e+001 
3668750000  -4.007925e+001  2.758183e+001 
3671875000  -3.908403e+001  2.109380e+001 
3675000000  -3.947282e+001  1.364149e+001 
3678125000  -4.014405e+001  1.666100e+001 
3681250000  -3.961517e+001  1.759696e+001 
3684375000  -3.926317e+001  1.440714e+001 
3687500000  -3.944109e+001  1.259153e+001 
3690625000  -3.935297e+001  1.000486e+001 
3693750000  -3.994867e+001  1.279165e+001 
3696875000  -3.993167e+001  1.613383e+001 
3700000000  -3.844089e+001  1.401426e+001 
3703125000  -3.862103e+001  8.413557e+000 
3706250000  -3.909682e+001  1.180799e+001 
3709375000  -3.860153e+001  1.459697e+001 
3712500000  -3.740787e+001  1.388636e+001 
3715625000  -3.621287e+001  8.614882e+000 
3718750000  -3.555158e+001  5.663609e+000 
3721875000  -3.521218e+001  3.277922e-001 
3725000000  -3.521502e+001  -3.576585e+000 
3728125000  -3.542310e+001  -4.855774e+000 
3731250000  -3.487337e+001  -5.519067e+000 
3734375000  -3.379448e+001  -1.169784e+001 
3737500000  -3.437460e+001  -1.804654e+001 
3740625000  -3.499329e+001  -2.087701e+001 
3743750000  -3.467149e+001  -2.339903e+001 
3746875000  -3.467328e+001  -2.699309e+001 
3750000000  -3.502262e+001  -2.746685e+001 
3753125000  -3.472540e+001  -2.718431e+001 
3756250000  -3.453639e+001  -2.778956e+001 
3759375000  -3.448055e+001  -2.905204e+001 
3762500000  -3.374441e+001  -3.237731e+001 
3765625000  -3.417381e+001  -3.548838e+001 
3768750000  -3.431297e+001  -3.289081e+001 
3771875000  -3.254973e+001  -3.557911e+001 
3775000000  -3.228835e+001  -4.264508e+001 
3778125000  -3.262403e+001  -4.465603e+001 
3781250000  -3.231752e+001  -4.711198e+001 
3784375000  -3.229506e+001  -4.994794e+001 
3787500000  -3.156971e+001  -5.298779e+001 
3790625000  -3.220243e+001  -5.860347e+001 
3793750000  -3.237979e+001  -5.918968e+001 
3796875000  -3.144653e+001  -6.017195e+001 
3800000000  -2.985253e+001  -6.378135e+001 
3803125000  -3.050544e+001  -7.140362e+001 
3806250000  -3.118885e+001  -7.351618e+001 
3809375000  -3.099012e+001  -7.473133e+001 
3812500000  -3.023081e+001  -7.930150e+001 
3815625000  -3.089273e+001  -8.736511e+001 
3818750000  -3.188486e+001  -8.839033e+001 
3821875000  -3.192220e+001  -7.954797e+001 
3825000000  -2.996626e+001  -7.588976e+001 
3828125000  -2.856319e+001  -8.950178e+001 
3831250000  -2.916086e+001  -1.039264e+002 
3834375000  -3.046785e+001  -1.050707e+002 
3837500000  -3.129509e+001  -9.975580e+001 
3840625000  -3.028466e+001  -1.009702e+002 
3843750000  -2.915967e+001  -1.109143e+002 
3846875000  -2.987309e+001  -1.179337e+002 
3850000000  -3.118166e+001  -1.123498e+002 
3853125000  -3.049664e+001  -1.096769e+002 
3856250000  -3.044503e+001  -1.147020e+002 
3859375000  -2.965069e+001  -1.194181e+002 
3862500000  -2.933498e+001  -1.257721e+002 
3865625000  -2.956719e+001  -1.306859e+002 
3868750000  -2.949251e+001  -1.304988e+002 
3871875000  -2.886925e+001  -1.330844e+002 
3875000000  -2.901107e+001  -1.419412e+002 
3878125000  -2.998762e+001  -1.442505e+002 
3881250000  -3.007189e+001  -1.409809e+002 
3884375000  -2.947235e+001  -1.456319e+002 
3887500000  -2.959522e+001  -1.497971e+002 
3890625000  -3.009053e+001  -1.520827e+002 
3893750000  -3.055902e+001  -1.533809e+002 
3896875000  -3.051641e+001  -1.522789e+002 
3900000000  -3.082065e+001  -1.536095e+002 
3903125000  -3.039157e+001  -1.551554e+002 
3906250000  -3.014856e+001  -1.563833e+002 
3909375000  -2.939627e+001  -1.586093e+002 
3912500000  -2.944010e+001  -1.661731e+002 
3915625000  -3.062169e+001  -1.655488e+002 
3918750000  -3.068087e+001  -1.637535e+002 
3921875000  -3.015897e+001  -1.646694e+002 
3925000000  -2.931008e+001  -1.659106e+002 
3928125000  -2.869036e+001  -1.722608e+002 
3931250000  -2.905074e+001  -1.765408e+002 
3934375000  -2.924360e+001  -1.761129e+002 
3937500000  -2.946776e+001  -1.772028e+002 
3940625000  -2.995148e+001  -1.771165e+002 
3943750000  -2.904184e+001  -1.754198e+002 
3946875000  -2.771020e+001  1.792332e+002 
3950000000  -2.828983e+001  1.714976e+002 
3953125000  -2.910120e+001  1.719244e+002 
3956250000  -2.831917e+001  1.739431e+002 
3959375000  -2.701180e+001  1.709126e+002 
3962500000  -2.649840e+001  1.667085e+002 
3965625000  -2.618547e+001  1.575706e+002 
3968750000  -2.705030e+001  1.513064e+002 
3971875000  -2.742377e+001  1.491258e+002 
3975000000  -2.690679e+001  1.480320e+002 
3978125000  -2.677770e+001  1.466117e+002 
3981250000  -2.647256e+001  1.425370e+002 
3984375000  -2.670861e+001  1.362475e+002 
3987500000  -2.721430e+001  1.340643e+002 
3990625000  -2.719037e+001  1.334782e+002 
3993750000  -2.748285e+001  1.301447e+002 
3996875000  -2.746973e+001  1.281011e+002 
4000000000  -2.754678e+001  1.260032e+002 
4003125000  -2.817038e+001  1.283532e+002 
4006250000  -2.672201e+001  1.295074e+002 
4009375000  -2.548877e+001  1.172665e+002 
4012500000  -2.645626e+001  1.102729e+002 
4015625000  -2.766045e+001  1.106235e+002 
4018750000  -2.789265e+001  1.130785e+002 
4021875000  -2.719822e+001  1.109357e+002 
4025000000  -2.670458e+001  1.066292e+002 
4028125000  -2.667815e+001  1.028780e+002 
4031250000  -2.705810e+001  9.936146e+001 
4034375000  -2.724354e+001  9.930152e+001 
4037500000  -2.681978e+001  1.007608e+002 
4040625000  -2.668067e+001  9.739469e+001 
4043750000  -2.698287e+001  9.737451e+001 
4046875000  -2.648459e+001  9.652935e+001 
4050000000  -2.601809e+001  9.059821e+001 
4053125000  -2.644509e+001  8.851852e+001 
4056250000  -2.707232e+001  9.159824e+001 
4059375000  -2.591392e+001  9.409860e+001 
4062500000  -2.452606e+001  8.953209e+001 
4065625000  -2.442815e+001  8.482085e+001 
4068750000  -2.410547e+001  8.041537e+001 
4071875000  -2.340704e+001  7.208021e+001 
4075000000  -2.371643e+001  6.559164e+001 
4078125000  -2.430606e+001  6.433844e+001 
4081250000  -2.383235e+001  6.170545e+001 
4084375000  -2.346825e+001  5.491655e+001 
4087500000  -2.377761e+001  4.889242e+001 
4090625000  -2.438475e+001  4.718289e+001 
4093750000  -2.431032e+001  4.822735e+001 
4096875000  -2.391817e+001  4.249422e+001 
4100000000  -2.453044e+001  3.530293e+001 
4103125000  -2.542172e+001  3.599031e+001 
4106250000  -2.526572e+001  4.094311e+001 
4109375000  -2.441923e+001  4.022770e+001 
4112500000  -2.390861e+001  3.366595e+001 
4115625000  -2.415171e+001  2.957167e+001 
4118750000  -2.425665e+001  2.683909e+001 
4121875000  -2.398053e+001  2.209132e+001 
4125000000  -2.437048e+001  1.725397e+001 
4128125000  -2.536403e+001  1.819667e+001 
4131250000  -2.501195e+001  2.626978e+001 
4134375000  -2.265729e+001  2.172963e+001 
4137500000  -2.242932e+001  2.473462e+000 
4140625000  -2.453512e+001  -4.692433e+000 
4143750000  -2.590689e+001  1.028604e+000 
4146875000  -2.544942e+001  7.974574e+000 
4150000000  -2.451057e+001  4.988946e+000 
4153125000  -2.429923e+001  -1.556231e+000 
4156250000  -2.511586e+001  -4.335615e+000 
4159375000  -2.544823e+001  4.212870e-001 
4162500000  -2.428960e+001  4.568016e+000 
4165625000  -2.315478e+001  2.606803e-001 
4168750000  -2.247130e+001  -6.587272e+000 
4171875000  -2.238081e+001  -1.604582e+001 
4175000000  -2.293576e+001  -2.228930e+001 
4178125000  -2.354886e+001  -2.257906e+001 
4181250000  -2.342438e+001  -2.305659e+001 
4184375000  -2.328585e+001  -2.672630e+001 
4187500000  -2.327631e+001  -2.964326e+001 
4190625000  -2.312478e+001  -3.536509e+001 
4193750000  -2.389356e+001  -3.933278e+001 
4196875000  -2.466768e+001  -3.961544e+001 
4200000000  -2.549105e+001  -3.772182e+001 
4203125000  -2.547222e+001  -2.453607e+001 
4206250000  -2.223871e+001  -2.292384e+001 
4209375000  -2.109093e+001  -4.353202e+001 
4212500000  -2.301328e+001  -5.228315e+001 
4215625000  -2.394609e+001  -4.533860e+001 
4218750000  -2.253656e+001  -3.889352e+001 
4221875000  -2.027408e+001  -4.877644e+001 
4225000000  -2.145530e+001  -6.158528e+001 
4228125000  -2.222931e+001  -5.673139e+001 
4231250000  -2.078237e+001  -6.014878e+001 
4234375000  -2.066711e+001  -6.826154e+001 
4237500000  -2.026464e+001  -7.198415e+001 
4240625000  -2.036716e+001  -8.040143e+001 
4243750000  -2.136653e+001  -8.668943e+001 
4246875000  -2.219538e+001  -8.645014e+001 
4250000000  -2.219025e+001  -8.391224e+001 
4253125000  -2.163635e+001  -8.585067e+001 
4256250000  -2.189857e+001  -9.010909e+001 
4259375000  -2.165668e+001  -9.215591e+001 
4262500000  -2.165563e+001  -9.572887e+001 
4265625000  -2.179374e+001  -9.526081e+001 
4268750000  -2.103127e+001  -9.889864e+001 
4271875000  -2.067286e+001  -1.043897e+002 
4275000000  -1.997967e+001  -1.110317e+002 
4278125000  -2.053947e+001  -1.224787e+002 
4281250000  -2.230115e+001  -1.247181e+002 
4284375000  -2.205593e+001  -1.245425e+002 
4287500000  -2.290299e+001  -1.280294e+002 
4290625000  -2.418992e+001  -1.179356e+002 
4293750000  -2.220399e+001  -1.118142e+002 
4296875000  -2.079248e+001  -1.234931e+002 
4300000000  -2.165484e+001  -1.326117e+002 
4303125000  -2.264807e+001  -1.316563e+002 
4306250000  -2.197986e+001  -1.259754e+002 
4309375000  -2.060766e+001  -1.285555e+002 
4312500000  -2.053657e+001  -1.374897e+002 
4315625000  -2.080642e+001  -1.433992e+002 
4318750000  -2.113668e+001  -1.468051e+002 
4321875000  -2.127438e+001  -1.457614e+002 
4325000000  -2.070795e+001  -1.459502e+002 
4328125000  -2.015458e+001  -1.527945e+002 
4331250000  -2.018422e+001  -1.608155e+002 
4334375000  -2.064293e+001  -1.656472e+002 
4337500000  -2.142989e+001  -1.679885e+002 
4340625000  -2.194427e+001  -1.652411e+002 
4343750000  -2.140474e+001  -1.646470e+002 
4346875000  -2.104483e+001  -1.700357e+002 
4350000000  -2.098160e+001  -1.748036e+002 
4353125000  -2.101635e+001  1.773427e+002 
4356250000  -2.275898e+001  1.753794e+002 
4359375000  -2.347845e+001  -1.712284e+002 
4362500000  -2.086694e+001  -1.690918e+002 
4365625000  -1.931463e+001  1.793495e+002 
4368750000  -2.000294e+001  1.677838e+002 
4371875000  -2.112584e+001  1.680924e+002 
4375000000  -2.086041e+001  1.694538e+002 
4378125000  -2.025651e+001  1.638611e+002 
4381250000  -2.037692e+001  1.583483e+002 
4384375000  -2.020597e+001  1.538419e+002 
4387500000  -2.084993e+001  1.479027e+002 
4390625000  -2.190750e+001  1.484247e+002 
4393750000  -2.132761e+001  1.510289e+002 
4396875000  -2.063141e+001  1.488906e+002 
4400000000  -2.017953e+001  1.419377e+002 
4403125000  -2.067420e+001  1.345721e+002 
4406250000  -2.151609e+001  1.332781e+002 
4409375000  -2.145769e+001  1.307259e+002 
4412500000  -2.239145e+001  1.277584e+002 
4415625000  -2.284273e+001  1.327033e+002 
4418750000  -2.176453e+001  1.379200e+002 
