!Agilent Technologies,E8363B,MY43030201,A.06.04.32
!Agilent E8363B: A.06.04.32
!Date: Tuesday, November 11, 2014 20:57:38
!Correction: S21(Response(S21)) 
!S1P File: Measurement: S21:
# Hz S  dB   R 50
3000000000  -2.650758e+001  1.473215e+002 
3003125000  -2.790956e+001  1.427791e+002 
3006250000  -2.797981e+001  1.402633e+002 
3009375000  -2.837252e+001  1.453040e+002 
3012500000  -2.778404e+001  1.443673e+002 
3015625000  -2.683603e+001  1.377225e+002 
3018750000  -2.769421e+001  1.371295e+002 
3021875000  -2.639531e+001  1.382891e+002 
3025000000  -2.509515e+001  1.353140e+002 
3028125000  -2.410626e+001  1.298384e+002 
3031250000  -2.306512e+001  1.186199e+002 
3034375000  -2.274422e+001  1.054783e+002 
3037500000  -2.313186e+001  9.380228e+001 
3040625000  -2.447086e+001  8.891321e+001 
3043750000  -2.518962e+001  8.441909e+001 
3046875000  -2.533222e+001  7.810701e+001 
3050000000  -2.699906e+001  7.158246e+001 
3053125000  -2.706962e+001  7.812270e+001 
3056250000  -2.645224e+001  8.106760e+001 
3059375000  -2.667752e+001  8.049857e+001 
3062500000  -2.517791e+001  7.684933e+001 
3065625000  -2.493115e+001  7.084546e+001 
3068750000  -2.465755e+001  6.380227e+001 
3071875000  -2.464684e+001  6.115119e+001 
3075000000  -2.458728e+001  5.705322e+001 
3078125000  -2.432113e+001  5.271091e+001 
3081250000  -2.494705e+001  4.822163e+001 
3084375000  -2.419565e+001  4.469980e+001 
3087500000  -2.409905e+001  4.101841e+001 
3090625000  -2.380261e+001  3.106910e+001 
3093750000  -2.429570e+001  2.333252e+001 
3096875000  -2.553244e+001  1.751632e+001 
3100000000  -2.564894e+001  1.617001e+001 
3103125000  -2.602755e+001  1.715645e+001 
3106250000  -2.573279e+001  1.357310e+001 
3109375000  -2.599994e+001  1.042279e+001 
3112500000  -2.610112e+001  9.187641e+000 
3115625000  -2.591383e+001  5.121447e+000 
3118750000  -2.642087e+001  6.396983e+000 
3121875000  -2.572199e+001  -1.822900e+000 
3125000000  -2.699824e+001  -4.992828e+000 
3128125000  -2.811741e+001  3.240496e+000 
3131250000  -2.586823e+001  3.471153e+000 
3134375000  -2.460556e+001  -1.033170e+001 
3137500000  -2.525838e+001  -2.409729e+001 
3140625000  -2.692607e+001  -2.536495e+001 
3143750000  -2.785590e+001  -2.150608e+001 
3146875000  -2.749753e+001  -1.951822e+001 
3150000000  -2.644453e+001  -1.747461e+001 
3153125000  -2.643611e+001  -2.515221e+001 
3156250000  -2.748999e+001  -1.958022e+001 
3159375000  -2.580557e+001  -1.685374e+001 
3162500000  -2.382481e+001  -2.987304e+001 
3165625000  -2.476753e+001  -4.050246e+001 
3168750000  -2.516924e+001  -3.951052e+001 
3171875000  -2.421767e+001  -4.395695e+001 
3175000000  -2.487336e+001  -5.161326e+001 
3178125000  -2.459604e+001  -5.001654e+001 
3181250000  -2.347573e+001  -5.411071e+001 
3184375000  -2.270144e+001  -6.649546e+001 
3187500000  -2.384951e+001  -8.147588e+001 
3190625000  -2.658261e+001  -8.857756e+001 
3193750000  -2.711713e+001  -7.904002e+001 
3196875000  -2.671414e+001  -7.381549e+001 
3200000000  -2.581341e+001  -7.566637e+001 
3203125000  -2.500708e+001  -8.180508e+001 
3206250000  -2.531153e+001  -8.773009e+001 
3209375000  -2.481603e+001  -9.289600e+001 
3212500000  -2.497249e+001  -9.934338e+001 
3215625000  -2.510295e+001  -1.034427e+002 
3218750000  -2.586810e+001  -1.096919e+002 
3221875000  -2.680403e+001  -1.148808e+002 
3225000000  -2.640570e+001  -1.156706e+002 
3228125000  -2.676191e+001  -1.201390e+002 
3231250000  -2.753003e+001  -1.229269e+002 
3234375000  -2.731492e+001  -1.215824e+002 
3237500000  -2.732500e+001  -1.234724e+002 
3240625000  -2.700974e+001  -1.252032e+002 
3243750000  -2.667851e+001  -1.315982e+002 
3246875000  -2.717157e+001  -1.382636e+002 
3250000000  -2.760698e+001  -1.401127e+002 
3253125000  -2.781610e+001  -1.421560e+002 
3256250000  -2.763923e+001  -1.477722e+002 
3259375000  -2.793493e+001  -1.554964e+002 
3262500000  -2.924132e+001  -1.583344e+002 
3265625000  -2.989472e+001  -1.544781e+002 
3268750000  -2.980704e+001  -1.518421e+002 
3271875000  -2.958226e+001  -1.508891e+002 
3275000000  -2.849886e+001  -1.560198e+002 
3278125000  -2.899663e+001  -1.622365e+002 
3281250000  -2.927349e+001  -1.606266e+002 
3284375000  -2.877800e+001  -1.663340e+002 
3287500000  -2.898757e+001  -1.689091e+002 
3290625000  -2.939515e+001  -1.734206e+002 
3293750000  -2.907060e+001  -1.788330e+002 
3296875000  -3.012960e+001  -1.787755e+002 
3300000000  -3.003998e+001  -1.773823e+002 
3303125000  -2.885075e+001  1.781526e+002 
3306250000  -2.867292e+001  1.713261e+002 
3309375000  -2.837630e+001  1.663636e+002 
3312500000  -2.843924e+001  1.560631e+002 
3315625000  -2.951115e+001  1.482022e+002 
3318750000  -3.086369e+001  1.454702e+002 
3321875000  -3.207247e+001  1.463871e+002 
3325000000  -3.258437e+001  1.512825e+002 
3328125000  -3.235615e+001  1.533866e+002 
3331250000  -3.109332e+001  1.607973e+002 
3334375000  -2.846711e+001  1.499156e+002 
3337500000  -2.857297e+001  1.319439e+002 
3340625000  -3.002135e+001  1.205658e+002 
3343750000  -3.203141e+001  1.197570e+002 
3346875000  -3.238955e+001  1.211409e+002 
3350000000  -3.179568e+001  1.203468e+002 
3353125000  -3.184661e+001  1.159579e+002 
3356250000  -3.157575e+001  1.082677e+002 
3359375000  -3.246854e+001  9.949027e+001 
3362500000  -3.375100e+001  9.434234e+001 
3365625000  -3.446973e+001  9.275218e+001 
3368750000  -3.527020e+001  9.171906e+001 
3371875000  -3.569197e+001  8.802750e+001 
3375000000  -3.719746e+001  8.642268e+001 
3378125000  -3.835271e+001  8.626093e+001 
3381250000  -3.989563e+001  9.278365e+001 
3384375000  -3.893793e+001  1.149379e+002 
3387500000  -3.567318e+001  1.003903e+002 
3390625000  -3.767967e+001  8.176984e+001 
3393750000  -3.938344e+001  8.618878e+001 
3396875000  -3.872702e+001  8.937752e+001 
3400000000  -3.852479e+001  8.231848e+001 
3403125000  -3.957076e+001  7.732534e+001 
3406250000  -4.044141e+001  7.997540e+001 
3409375000  -4.091032e+001  7.504209e+001 
3412500000  -4.177171e+001  7.754681e+001 
3415625000  -4.267852e+001  8.259701e+001 
3418750000  -4.287256e+001  8.627978e+001 
3421875000  -4.314291e+001  9.274842e+001 
3425000000  -4.234441e+001  9.590059e+001 
3428125000  -4.118074e+001  9.323363e+001 
3431250000  -4.109853e+001  9.060953e+001 
3434375000  -4.077070e+001  8.812171e+001 
3437500000  -4.155353e+001  8.511366e+001 
3440625000  -4.167180e+001  9.071992e+001 
3443750000  -4.064453e+001  9.094847e+001 
3446875000  -3.946580e+001  8.638419e+001 
3450000000  -3.947602e+001  7.844141e+001 
3453125000  -3.979081e+001  6.767529e+001 
3456250000  -4.105252e+001  6.309187e+001 
3459375000  -4.189115e+001  6.586134e+001 
3462500000  -4.190231e+001  6.749237e+001 
3465625000  -4.180780e+001  6.285806e+001 
3468750000  -4.248560e+001  5.791043e+001 
3471875000  -4.237163e+001  6.035102e+001 
3475000000  -4.233863e+001  5.545689e+001 
3478125000  -4.304242e+001  5.059196e+001 
3481250000  -4.431951e+001  4.725575e+001 
3484375000  -4.595380e+001  5.504265e+001 
3487500000  -4.546246e+001  5.428479e+001 
3490625000  -4.476069e+001  5.304582e+001 
3493750000  -4.565127e+001  4.997878e+001 
3496875000  -4.647812e+001  5.148458e+001 
3500000000  -4.785052e+001  5.884653e+001 
3503125000  -4.759407e+001  6.144182e+001 
3506250000  -4.669321e+001  6.518275e+001 
3509375000  -4.618166e+001  6.316766e+001 
3512500000  -4.733383e+001  5.964290e+001 
3515625000  -4.787118e+001  6.441990e+001 
3518750000  -4.811486e+001  6.842950e+001 
3521875000  -4.766137e+001  6.947742e+001 
3525000000  -4.757701e+001  7.351483e+001 
3528125000  -4.734183e+001  8.799645e+001 
3531250000  -4.589445e+001  8.483531e+001 
3534375000  -4.502198e+001  8.051208e+001 
3537500000  -4.508587e+001  7.511473e+001 
3540625000  -4.556108e+001  7.517224e+001 
3543750000  -4.605000e+001  7.924789e+001 
3546875000  -4.560816e+001  9.207386e+001 
3550000000  -4.285918e+001  9.256253e+001 
3553125000  -4.130984e+001  7.767142e+001 
3556250000  -4.267065e+001  7.124233e+001 
3559375000  -4.223623e+001  7.497295e+001 
3562500000  -4.095786e+001  6.706685e+001 
3565625000  -4.195604e+001  5.913686e+001 
3568750000  -4.180609e+001  6.363448e+001 
3571875000  -4.171774e+001  6.309057e+001 
3575000000  -4.098859e+001  5.933736e+001 
3578125000  -4.155507e+001  5.517348e+001 
3581250000  -4.172155e+001  5.396434e+001 
3584375000  -4.088594e+001  5.394956e+001 
3587500000  -3.992244e+001  4.881191e+001 
3590625000  -4.025687e+001  4.040691e+001 
3593750000  -4.160296e+001  3.889303e+001 
3596875000  -4.126866e+001  4.639078e+001 
3600000000  -3.984271e+001  4.415032e+001 
3603125000  -4.000576e+001  3.142215e+001 
3606250000  -4.044614e+001  2.848426e+001 
3609375000  -4.098821e+001  2.664578e+001 
3612500000  -4.124341e+001  2.658879e+001 
3615625000  -4.116859e+001  2.342471e+001 
3618750000  -4.194816e+001  2.543977e+001 
3621875000  -4.172231e+001  2.529976e+001 
3625000000  -4.158587e+001  2.470644e+001 
3628125000  -4.136793e+001  2.483902e+001 
3631250000  -4.122270e+001  2.079207e+001 
3634375000  -4.244984e+001  2.128927e+001 
3637500000  -4.185796e+001  2.666371e+001 
3640625000  -4.109150e+001  2.645596e+001 
3643750000  -4.049812e+001  2.106921e+001 
3646875000  -4.096146e+001  1.568438e+001 
3650000000  -4.147646e+001  1.540664e+001 
3653125000  -4.133955e+001  1.531814e+001 
3656250000  -4.147396e+001  1.389439e+001 
3659375000  -4.176624e+001  1.769735e+001 
3662500000  -4.106568e+001  1.534083e+001 
3665625000  -4.115445e+001  1.533496e+001 
3668750000  -4.003175e+001  1.960723e+001 
3671875000  -3.928479e+001  1.254350e+001 
3675000000  -3.979855e+001  7.062361e+000 
3678125000  -4.041806e+001  8.752778e+000 
3681250000  -3.959210e+001  1.005136e+001 
3684375000  -3.968209e+001  6.524499e+000 
3687500000  -3.981294e+001  6.364854e+000 
3690625000  -3.979562e+001  3.551757e+000 
3693750000  -4.032175e+001  6.057511e+000 
3696875000  -3.998108e+001  1.092688e+001 
3700000000  -3.889174e+001  7.782530e+000 
3703125000  -3.875984e+001  5.055184e+000 
3706250000  -3.937141e+001  5.614979e+000 
3709375000  -3.859158e+001  9.154472e+000 
3712500000  -3.749904e+001  9.509228e+000 
3715625000  -3.635530e+001  3.300375e+000 
3718750000  -3.573687e+001  8.962314e-001 
3721875000  -3.531334e+001  -5.779144e+000 
3725000000  -3.525052e+001  -9.819880e+000 
3728125000  -3.531593e+001  -1.076624e+001 
3731250000  -3.458704e+001  -1.149846e+001 
3734375000  -3.378018e+001  -1.740272e+001 
3737500000  -3.425132e+001  -2.402194e+001 
3740625000  -3.479482e+001  -2.764887e+001 
3743750000  -3.452698e+001  -2.961347e+001 
3746875000  -3.449775e+001  -3.343630e+001 
3750000000  -3.495552e+001  -3.355122e+001 
3753125000  -3.454526e+001  -3.368974e+001 
3756250000  -3.452814e+001  -3.548518e+001 
3759375000  -3.429398e+001  -3.562069e+001 
3762500000  -3.363207e+001  -3.967024e+001 
3765625000  -3.424211e+001  -4.199171e+001 
3768750000  -3.427859e+001  -4.003691e+001 
3771875000  -3.236534e+001  -4.284241e+001 
3775000000  -3.216886e+001  -5.095055e+001 
3778125000  -3.245971e+001  -5.245948e+001 
3781250000  -3.227997e+001  -5.486539e+001 
3784375000  -3.232095e+001  -5.659681e+001 
3787500000  -3.174859e+001  -6.085153e+001 
3790625000  -3.222982e+001  -6.630011e+001 
3793750000  -3.238175e+001  -6.700719e+001 
3796875000  -3.152847e+001  -6.788359e+001 
3800000000  -2.989069e+001  -7.187690e+001 
3803125000  -3.071219e+001  -7.914021e+001 
3806250000  -3.131591e+001  -8.104584e+001 
3809375000  -3.106968e+001  -8.224911e+001 
3812500000  -3.041981e+001  -8.748217e+001 
3815625000  -3.099390e+001  -9.484512e+001 
3818750000  -3.212688e+001  -9.607056e+001 
3821875000  -3.212873e+001  -8.724324e+001 
3825000000  -3.002365e+001  -8.282192e+001 
3828125000  -2.870731e+001  -9.657357e+001 
3831250000  -2.929817e+001  -1.118665e+002 
3834375000  -3.078511e+001  -1.120042e+002 
3837500000  -3.165487e+001  -1.061490e+002 
3840625000  -3.040673e+001  -1.080731e+002 
3843750000  -2.927961e+001  -1.177422e+002 
3846875000  -2.990606e+001  -1.251009e+002 
3850000000  -3.121745e+001  -1.193077e+002 
3853125000  -3.035355e+001  -1.164671e+002 
3856250000  -3.034077e+001  -1.213720e+002 
3859375000  -2.968723e+001  -1.263908e+002 
3862500000  -2.920119e+001  -1.337256e+002 
3865625000  -2.946284e+001  -1.382833e+002 
3868750000  -2.952507e+001  -1.378626e+002 
3871875000  -2.882321e+001  -1.417887e+002 
3875000000  -2.894624e+001  -1.501650e+002 
3878125000  -2.997247e+001  -1.529220e+002 
3881250000  -3.006184e+001  -1.496051e+002 
3884375000  -2.955863e+001  -1.544827e+002 
3887500000  -2.963939e+001  -1.586815e+002 
3890625000  -3.020930e+001  -1.611462e+002 
3893750000  -3.064839e+001  -1.630195e+002 
3896875000  -3.071586e+001  -1.615372e+002 
3900000000  -3.109885e+001  -1.624971e+002 
3903125000  -3.062245e+001  -1.643889e+002 
3906250000  -3.037804e+001  -1.656033e+002 
3909375000  -2.962519e+001  -1.678411e+002 
3912500000  -2.969965e+001  -1.760196e+002 
3915625000  -3.093217e+001  -1.750135e+002 
3918750000  -3.096472e+001  -1.728695e+002 
3921875000  -3.054430e+001  -1.741100e+002 
3925000000  -2.977693e+001  -1.754155e+002 
3928125000  -2.911105e+001  1.792112e+002 
3931250000  -2.951701e+001  1.747402e+002 
3934375000  -2.983331e+001  1.752820e+002 
3937500000  -2.999477e+001  1.746165e+002 
3940625000  -3.039656e+001  1.751199e+002 
3943750000  -2.949993e+001  1.762829e+002 
3946875000  -2.816473e+001  1.705385e+002 
3950000000  -2.884198e+001  1.631964e+002 
3953125000  -2.961575e+001  1.645875e+002 
3956250000  -2.885854e+001  1.671164e+002 
3959375000  -2.747267e+001  1.640224e+002 
3962500000  -2.693368e+001  1.597485e+002 
3965625000  -2.666003e+001  1.509823e+002 
3968750000  -2.761569e+001  1.443521e+002 
3971875000  -2.787656e+001  1.426264e+002 
3975000000  -2.724064e+001  1.408865e+002 
3978125000  -2.705235e+001  1.392819e+002 
3981250000  -2.677724e+001  1.350132e+002 
3984375000  -2.698036e+001  1.285579e+002 
3987500000  -2.756020e+001  1.263485e+002 
3990625000  -2.754632e+001  1.259153e+002 
3993750000  -2.771301e+001  1.226986e+002 
3996875000  -2.771929e+001  1.202523e+002 
4000000000  -2.779983e+001  1.181999e+002 
4003125000  -2.839457e+001  1.202691e+002 
4006250000  -2.694279e+001  1.206114e+002 
4009375000  -2.572724e+001  1.080191e+002 
4012500000  -2.688910e+001  1.008539e+002 
4015625000  -2.814274e+001  1.013276e+002 
4018750000  -2.828149e+001  1.040961e+002 
4021875000  -2.760975e+001  1.025106e+002 
4025000000  -2.724485e+001  9.727528e+001 
4028125000  -2.721516e+001  9.323174e+001 
4031250000  -2.770824e+001  9.011504e+001 
4034375000  -2.793660e+001  8.983791e+001 
4037500000  -2.749122e+001  9.216526e+001 
4040625000  -2.742458e+001  8.869654e+001 
4043750000  -2.769515e+001  8.816761e+001 
4046875000  -2.733167e+001  8.785204e+001 
4050000000  -2.678128e+001  8.214114e+001 
4053125000  -2.734987e+001  8.035948e+001 
4056250000  -2.786752e+001  8.489631e+001 
4059375000  -2.666231e+001  8.676759e+001 
4062500000  -2.524906e+001  8.173363e+001 
4065625000  -2.510777e+001  7.727947e+001 
4068750000  -2.484990e+001  7.250642e+001 
4071875000  -2.420228e+001  6.513319e+001 
4075000000  -2.458956e+001  5.868999e+001 
4078125000  -2.511699e+001  5.765234e+001 
4081250000  -2.456500e+001  5.517952e+001 
4084375000  -2.421816e+001  4.853205e+001 
4087500000  -2.458493e+001  4.247083e+001 
4090625000  -2.518616e+001  4.147227e+001 
4093750000  -2.496663e+001  4.224218e+001 
4096875000  -2.452864e+001  3.600218e+001 
4100000000  -2.526275e+001  2.928161e+001 
4103125000  -2.605224e+001  2.998183e+001 
4106250000  -2.592314e+001  3.446052e+001 
4109375000  -2.504985e+001  3.421660e+001 
4112500000  -2.445314e+001  2.765312e+001 
4115625000  -2.481805e+001  2.322527e+001 
4118750000  -2.489469e+001  2.014230e+001 
4121875000  -2.449528e+001  1.555837e+001 
4125000000  -2.489866e+001  1.036176e+001 
4128125000  -2.594994e+001  1.039052e+001 
4131250000  -2.558588e+001  1.881390e+001 
4134375000  -2.326145e+001  1.410432e+001 
4137500000  -2.305114e+001  -4.552775e+000 
4140625000  -2.527540e+001  -1.196849e+001 
4143750000  -2.656134e+001  -6.876195e+000 
4146875000  -2.610954e+001  8.687791e-001 
4150000000  -2.521970e+001  -2.695828e+000 
4153125000  -2.502217e+001  -9.528565e+000 
4156250000  -2.596845e+001  -1.192822e+001 
4159375000  -2.620208e+001  -7.247495e+000 
4162500000  -2.510489e+001  -3.132697e+000 
4165625000  -2.390155e+001  -7.089657e+000 
4168750000  -2.338419e+001  -1.454507e+001 
4171875000  -2.336514e+001  -2.344263e+001 
4175000000  -2.392750e+001  -2.922922e+001 
4178125000  -2.455272e+001  -2.914116e+001 
4181250000  -2.442330e+001  -2.976652e+001 
4184375000  -2.430840e+001  -3.301663e+001 
4187500000  -2.434836e+001  -3.548242e+001 
4190625000  -2.416446e+001  -4.101960e+001 
4193750000  -2.501498e+001  -4.468803e+001 
4196875000  -2.565393e+001  -4.504520e+001 
4200000000  -2.658277e+001  -4.262114e+001 
4203125000  -2.654914e+001  -2.916533e+001 
4206250000  -2.313275e+001  -2.799509e+001 
4209375000  -2.197169e+001  -4.844006e+001 
4212500000  -2.391578e+001  -5.723647e+001 
4215625000  -2.489854e+001  -5.115435e+001 
4218750000  -2.354049e+001  -4.452519e+001 
4221875000  -2.123872e+001  -5.329144e+001 
4225000000  -2.257711e+001  -6.536485e+001 
4228125000  -2.316555e+001  -6.056723e+001 
4231250000  -2.159245e+001  -6.446802e+001 
4234375000  -2.152301e+001  -7.295257e+001 
4237500000  -2.111185e+001  -7.624136e+001 
4240625000  -2.112907e+001  -8.477965e+001 
4243750000  -2.205444e+001  -9.176126e+001 
4246875000  -2.296325e+001  -9.165865e+001 
4250000000  -2.296902e+001  -8.885461e+001 
4253125000  -2.242411e+001  -9.088637e+001 
4256250000  -2.273327e+001  -9.475728e+001 
4259375000  -2.242284e+001  -9.693825e+001 
4262500000  -2.249278e+001  -1.005974e+002 
4265625000  -2.260530e+001  -1.002614e+002 
4268750000  -2.170191e+001  -1.043937e+002 
4271875000  -2.150043e+001  -1.102490e+002 
4275000000  -2.088782e+001  -1.165856e+002 
4278125000  -2.153194e+001  -1.275716e+002 
4281250000  -2.333107e+001  -1.297928e+002 
4284375000  -2.301287e+001  -1.292364e+002 
4287500000  -2.383592e+001  -1.327554e+002 
4290625000  -2.508234e+001  -1.226844e+002 
4293750000  -2.308391e+001  -1.174896e+002 
4296875000  -2.172123e+001  -1.289699e+002 
4300000000  -2.258068e+001  -1.381991e+002 
4303125000  -2.373074e+001  -1.368126e+002 
4306250000  -2.304575e+001  -1.310214e+002 
4309375000  -2.173070e+001  -1.329376e+002 
4312500000  -2.160307e+001  -1.412887e+002 
4315625000  -2.180161e+001  -1.475481e+002 
4318750000  -2.213324e+001  -1.508822e+002 
4321875000  -2.233060e+001  -1.499821e+002 
4325000000  -2.174534e+001  -1.495771e+002 
4328125000  -2.123370e+001  -1.557737e+002 
4331250000  -2.116196e+001  -1.639837e+002 
4334375000  -2.161708e+001  -1.689884e+002 
4337500000  -2.246089e+001  -1.712529e+002 
4340625000  -2.302101e+001  -1.676191e+002 
4343750000  -2.239501e+001  -1.673079e+002 
4346875000  -2.195976e+001  -1.730074e+002 
4350000000  -2.202786e+001  -1.776972e+002 
4353125000  -2.207871e+001  1.747680e+002 
4356250000  -2.391413e+001  1.741151e+002 
4359375000  -2.441299e+001  -1.723799e+002 
4362500000  -2.161197e+001  -1.706476e+002 
4365625000  -2.004629e+001  1.773661e+002 
4368750000  -2.082046e+001  1.652990e+002 
4371875000  -2.201266e+001  1.665331e+002 
4375000000  -2.162409e+001  1.671117e+002 
4378125000  -2.103697e+001  1.612827e+002 
4381250000  -2.114441e+001  1.559744e+002 
4384375000  -2.098383e+001  1.511823e+002 
4387500000  -2.172255e+001  1.454521e+002 
4390625000  -2.272833e+001  1.464491e+002 
4393750000  -2.208073e+001  1.485081e+002 
4396875000  -2.140669e+001  1.463936e+002 
4400000000  -2.089627e+001  1.391472e+002 
4403125000  -2.148649e+001  1.318104e+002 
4406250000  -2.231414e+001  1.305785e+002 
4409375000  -2.230997e+001  1.282788e+002 
4412500000  -2.336760e+001  1.254796e+002 
4415625000  -2.371651e+001  1.303962e+002 
4418750000  -2.249895e+001  1.352505e+002 
