!Agilent Technologies,E8363B,MY43030201,A.06.04.32
!Agilent E8363B: A.06.04.32
!Date: Tuesday, November 11, 2014 20:52:35
!Correction: S21(Response(S21)) 
!S1P File: Measurement: S21:
# Hz S  dB   R 50
3000000000  -2.654673e+001  1.511815e+002 
3003125000  -2.794730e+001  1.467667e+002 
3006250000  -2.801736e+001  1.440367e+002 
3009375000  -2.836601e+001  1.489922e+002 
3012500000  -2.782115e+001  1.487009e+002 
3015625000  -2.691663e+001  1.417673e+002 
3018750000  -2.773798e+001  1.410458e+002 
3021875000  -2.647178e+001  1.419566e+002 
3025000000  -2.511608e+001  1.391051e+002 
3028125000  -2.417500e+001  1.339340e+002 
3031250000  -2.312623e+001  1.228486e+002 
3034375000  -2.275982e+001  1.098372e+002 
3037500000  -2.315228e+001  9.786816e+001 
3040625000  -2.445544e+001  9.304183e+001 
3043750000  -2.521234e+001  8.858641e+001 
3046875000  -2.529718e+001  8.216876e+001 
3050000000  -2.699818e+001  7.529554e+001 
3053125000  -2.715594e+001  8.179958e+001 
3056250000  -2.648643e+001  8.505903e+001 
3059375000  -2.670122e+001  8.430038e+001 
3062500000  -2.525807e+001  8.043942e+001 
3065625000  -2.500221e+001  7.482849e+001 
3068750000  -2.471300e+001  6.782788e+001 
3071875000  -2.464156e+001  6.521849e+001 
3075000000  -2.460965e+001  6.136734e+001 
3078125000  -2.433808e+001  5.675702e+001 
3081250000  -2.498174e+001  5.237989e+001 
3084375000  -2.423232e+001  4.877418e+001 
3087500000  -2.410996e+001  4.513620e+001 
3090625000  -2.381031e+001  3.546801e+001 
3093750000  -2.427177e+001  2.762685e+001 
3096875000  -2.555323e+001  2.162057e+001 
3100000000  -2.566632e+001  2.011532e+001 
3103125000  -2.604794e+001  2.153655e+001 
3106250000  -2.579310e+001  1.786541e+001 
3109375000  -2.599806e+001  1.457215e+001 
3112500000  -2.613129e+001  1.336844e+001 
3115625000  -2.595665e+001  9.261024e+000 
3118750000  -2.643201e+001  1.048287e+001 
3121875000  -2.576730e+001  2.457513e+000 
3125000000  -2.693608e+001  -1.116937e+000 
3128125000  -2.815481e+001  7.125221e+000 
3131250000  -2.594337e+001  7.553115e+000 
3134375000  -2.462868e+001  -6.203600e+000 
3137500000  -2.530221e+001  -1.992379e+001 
3140625000  -2.689434e+001  -2.140031e+001 
3143750000  -2.795573e+001  -1.766469e+001 
3146875000  -2.752991e+001  -1.568990e+001 
3150000000  -2.650751e+001  -1.348722e+001 
3153125000  -2.646668e+001  -2.090839e+001 
3156250000  -2.743917e+001  -1.562374e+001 
3159375000  -2.588786e+001  -1.267485e+001 
3162500000  -2.383241e+001  -2.560396e+001 
3165625000  -2.483151e+001  -3.643124e+001 
3168750000  -2.519346e+001  -3.566521e+001 
3171875000  -2.425721e+001  -3.955510e+001 
3175000000  -2.483965e+001  -4.744972e+001 
3178125000  -2.465348e+001  -4.594909e+001 
3181250000  -2.349437e+001  -5.001167e+001 
3184375000  -2.271393e+001  -6.224322e+001 
3187500000  -2.385118e+001  -7.729073e+001 
3190625000  -2.663192e+001  -8.499484e+001 
3193750000  -2.723526e+001  -7.528399e+001 
3196875000  -2.676126e+001  -6.935567e+001 
3200000000  -2.586806e+001  -7.164906e+001 
3203125000  -2.499557e+001  -7.738788e+001 
3206250000  -2.530743e+001  -8.362345e+001 
3209375000  -2.481246e+001  -8.860030e+001 
3212500000  -2.496534e+001  -9.524205e+001 
3215625000  -2.508294e+001  -9.924626e+001 
3218750000  -2.584910e+001  -1.056666e+002 
3221875000  -2.680390e+001  -1.108528e+002 
3225000000  -2.643682e+001  -1.111411e+002 
3228125000  -2.671963e+001  -1.160054e+002 
3231250000  -2.748658e+001  -1.185129e+002 
3234375000  -2.739007e+001  -1.174662e+002 
3237500000  -2.738996e+001  -1.191060e+002 
3240625000  -2.707088e+001  -1.209145e+002 
3243750000  -2.666532e+001  -1.276315e+002 
3246875000  -2.721015e+001  -1.340582e+002 
3250000000  -2.758996e+001  -1.357566e+002 
3253125000  -2.778843e+001  -1.377314e+002 
3256250000  -2.762593e+001  -1.437870e+002 
3259375000  -2.796837e+001  -1.513563e+002 
3262500000  -2.921384e+001  -1.541556e+002 
3265625000  -2.990845e+001  -1.505374e+002 
3268750000  -2.991949e+001  -1.481106e+002 
3271875000  -2.962270e+001  -1.470937e+002 
3275000000  -2.856718e+001  -1.520779e+002 
3278125000  -2.902317e+001  -1.582690e+002 
3281250000  -2.926557e+001  -1.564948e+002 
3284375000  -2.883454e+001  -1.624695e+002 
3287500000  -2.899880e+001  -1.645826e+002 
3290625000  -2.946580e+001  -1.693805e+002 
3293750000  -2.914822e+001  -1.751019e+002 
3296875000  -3.013524e+001  -1.747718e+002 
3300000000  -2.996969e+001  -1.736749e+002 
3303125000  -2.886026e+001  -1.777543e+002 
3306250000  -2.863261e+001  1.758564e+002 
3309375000  -2.839512e+001  1.706801e+002 
3312500000  -2.851105e+001  1.605775e+002 
3315625000  -2.949958e+001  1.524888e+002 
3318750000  -3.089588e+001  1.499805e+002 
3321875000  -3.206881e+001  1.500201e+002 
3325000000  -3.265039e+001  1.548128e+002 
3328125000  -3.237750e+001  1.569576e+002 
3331250000  -3.123138e+001  1.649376e+002 
3334375000  -2.857574e+001  1.544152e+002 
3337500000  -2.873812e+001  1.360664e+002 
3340625000  -3.010587e+001  1.248778e+002 
3343750000  -3.201937e+001  1.237707e+002 
3346875000  -3.244659e+001  1.250825e+002 
3350000000  -3.187819e+001  1.240996e+002 
3353125000  -3.188527e+001  1.196735e+002 
3356250000  -3.166974e+001  1.120757e+002 
3359375000  -3.254381e+001  1.039687e+002 
3362500000  -3.379498e+001  9.832079e+001 
3365625000  -3.450164e+001  9.670705e+001 
3368750000  -3.546960e+001  9.469168e+001 
3371875000  -3.584274e+001  9.225317e+001 
3375000000  -3.727729e+001  8.943272e+001 
3378125000  -3.850401e+001  8.886329e+001 
3381250000  -3.984972e+001  9.905929e+001 
3384375000  -3.903036e+001  1.178608e+002 
3387500000  -3.587643e+001  1.042313e+002 
3390625000  -3.770645e+001  8.480703e+001 
3393750000  -3.943592e+001  9.039824e+001 
3396875000  -3.841916e+001  9.325521e+001 
3400000000  -3.859317e+001  8.690050e+001 
3403125000  -3.955337e+001  8.087833e+001 
3406250000  -4.030730e+001  8.364465e+001 
3409375000  -4.091114e+001  7.915199e+001 
3412500000  -4.184019e+001  8.117399e+001 
3415625000  -4.272346e+001  8.451477e+001 
3418750000  -4.291700e+001  9.046163e+001 
3421875000  -4.322132e+001  9.550504e+001 
3425000000  -4.252121e+001  9.788141e+001 
3428125000  -4.139113e+001  9.899734e+001 
3431250000  -4.145647e+001  9.508805e+001 
3434375000  -4.119305e+001  9.215745e+001 
3437500000  -4.154029e+001  8.914028e+001 
3440625000  -4.209551e+001  9.406271e+001 
3443750000  -4.079653e+001  9.520641e+001 
3446875000  -3.994258e+001  8.981624e+001 
3450000000  -3.960913e+001  8.031539e+001 
3453125000  -4.002436e+001  7.256615e+001 
3456250000  -4.104974e+001  6.683817e+001 
3459375000  -4.227082e+001  6.928447e+001 
3462500000  -4.208331e+001  7.018743e+001 
3465625000  -4.213518e+001  6.511137e+001 
3468750000  -4.268848e+001  6.196318e+001 
3471875000  -4.252524e+001  6.292678e+001 
3475000000  -4.261266e+001  5.899991e+001 
3478125000  -4.319001e+001  5.390892e+001 
3481250000  -4.429313e+001  5.370640e+001 
3484375000  -4.594795e+001  6.150889e+001 
3487500000  -4.553977e+001  6.199897e+001 
3490625000  -4.485783e+001  5.827892e+001 
3493750000  -4.613377e+001  5.695885e+001 
3496875000  -4.670725e+001  5.582049e+001 
3500000000  -4.816212e+001  6.082286e+001 
3503125000  -4.752666e+001  6.811513e+001 
3506250000  -4.655170e+001  7.046304e+001 
3509375000  -4.672170e+001  6.399387e+001 
3512500000  -4.742214e+001  6.633070e+001 
3515625000  -4.796420e+001  6.474332e+001 
3518750000  -4.805380e+001  7.546458e+001 
3521875000  -4.795189e+001  7.847552e+001 
3525000000  -4.812781e+001  8.058049e+001 
3528125000  -4.781521e+001  9.221351e+001 
3531250000  -4.603026e+001  9.180453e+001 
3534375000  -4.487841e+001  8.243718e+001 
3537500000  -4.546931e+001  7.845164e+001 
3540625000  -4.583504e+001  8.034293e+001 
3543750000  -4.601267e+001  8.488796e+001 
3546875000  -4.573751e+001  9.845805e+001 
3550000000  -4.311330e+001  9.778429e+001 
3553125000  -4.155657e+001  8.174210e+001 
3556250000  -4.242761e+001  7.688486e+001 
3559375000  -4.214750e+001  7.959859e+001 
3562500000  -4.102140e+001  7.263913e+001 
3565625000  -4.197398e+001  6.499590e+001 
3568750000  -4.199081e+001  6.834746e+001 
3571875000  -4.187877e+001  6.865655e+001 
3575000000  -4.124049e+001  6.391708e+001 
3578125000  -4.161654e+001  6.070263e+001 
3581250000  -4.165070e+001  6.148397e+001 
3584375000  -4.078082e+001  5.974389e+001 
3587500000  -4.002483e+001  5.382901e+001 
3590625000  -4.050418e+001  4.620306e+001 
3593750000  -4.140804e+001  4.413047e+001 
3596875000  -4.143477e+001  5.101270e+001 
3600000000  -3.976977e+001  4.953963e+001 
3603125000  -4.014262e+001  3.731059e+001 
3606250000  -4.054293e+001  3.307336e+001 
3609375000  -4.107663e+001  3.373095e+001 
3612500000  -4.160539e+001  3.077735e+001 
3615625000  -4.157681e+001  2.816598e+001 
3618750000  -4.182872e+001  3.022464e+001 
3621875000  -4.154451e+001  3.004917e+001 
3625000000  -4.166074e+001  3.016275e+001 
3628125000  -4.178736e+001  2.953882e+001 
3631250000  -4.129563e+001  2.411504e+001 
3634375000  -4.252744e+001  2.494867e+001 
3637500000  -4.194513e+001  3.219670e+001 
3640625000  -4.117429e+001  3.290545e+001 
3643750000  -4.059214e+001  2.618833e+001 
3646875000  -4.096140e+001  1.989686e+001 
3650000000  -4.157267e+001  2.015772e+001 
3653125000  -4.129605e+001  1.981344e+001 
3656250000  -4.162811e+001  1.871457e+001 
3659375000  -4.180587e+001  2.200863e+001 
3662500000  -4.139312e+001  2.017002e+001 
3665625000  -4.120760e+001  2.260115e+001 
3668750000  -4.019742e+001  2.358722e+001 
3671875000  -3.922683e+001  1.865643e+001 
3675000000  -3.960331e+001  1.282652e+001 
3678125000  -4.017634e+001  1.511067e+001 
3681250000  -3.981285e+001  1.531650e+001 
3684375000  -3.957885e+001  1.311705e+001 
3687500000  -3.992432e+001  1.148236e+001 
3690625000  -3.982582e+001  8.907669e+000 
3693750000  -4.052877e+001  1.079109e+001 
3696875000  -3.979850e+001  1.521514e+001 
3700000000  -3.901860e+001  1.263365e+001 
3703125000  -3.870774e+001  9.693748e+000 
3706250000  -3.924624e+001  1.156719e+001 
3709375000  -3.861737e+001  1.472365e+001 
3712500000  -3.752508e+001  1.532689e+001 
3715625000  -3.647577e+001  9.952477e+000 
3718750000  -3.558968e+001  6.164934e+000 
3721875000  -3.526113e+001  6.981006e-001 
3725000000  -3.506748e+001  -4.186006e+000 
3728125000  -3.520542e+001  -4.985285e+000 
3731250000  -3.461148e+001  -6.008255e+000 
3734375000  -3.363005e+001  -1.152228e+001 
3737500000  -3.425424e+001  -1.916023e+001 
3740625000  -3.481219e+001  -2.198349e+001 
3743750000  -3.448289e+001  -2.488433e+001 
3746875000  -3.446219e+001  -2.763044e+001 
3750000000  -3.473776e+001  -2.831403e+001 
3753125000  -3.447763e+001  -2.881291e+001 
3756250000  -3.459330e+001  -2.996026e+001 
3759375000  -3.416846e+001  -3.051754e+001 
3762500000  -3.363276e+001  -3.408675e+001 
3765625000  -3.407821e+001  -3.696373e+001 
3768750000  -3.422854e+001  -3.507953e+001 
3771875000  -3.251485e+001  -3.710861e+001 
3775000000  -3.231559e+001  -4.544404e+001 
3778125000  -3.252039e+001  -4.690881e+001 
3781250000  -3.231231e+001  -4.955993e+001 
3784375000  -3.235497e+001  -5.131923e+001 
3787500000  -3.165553e+001  -5.555081e+001 
3790625000  -3.222545e+001  -6.075315e+001 
3793750000  -3.227433e+001  -6.137286e+001 
3796875000  -3.143937e+001  -6.320678e+001 
3800000000  -2.992753e+001  -6.695908e+001 
3803125000  -3.070075e+001  -7.345401e+001 
3806250000  -3.132040e+001  -7.567562e+001 
3809375000  -3.102844e+001  -7.738545e+001 
3812500000  -3.044703e+001  -8.209138e+001 
3815625000  -3.106883e+001  -8.957678e+001 
3818750000  -3.204045e+001  -9.057085e+001 
3821875000  -3.202511e+001  -8.222646e+001 
3825000000  -3.015264e+001  -7.714937e+001 
3828125000  -2.873660e+001  -9.151112e+001 
3831250000  -2.926676e+001  -1.057181e+002 
3834375000  -3.067098e+001  -1.066673e+002 
3837500000  -3.152315e+001  -1.013512e+002 
3840625000  -3.047369e+001  -1.026170e+002 
3843750000  -2.923574e+001  -1.125650e+002 
3846875000  -2.996805e+001  -1.198919e+002 
3850000000  -3.125773e+001  -1.143813e+002 
3853125000  -3.039975e+001  -1.108927e+002 
3856250000  -3.039389e+001  -1.164260e+002 
3859375000  -2.972389e+001  -1.209020e+002 
3862500000  -2.923090e+001  -1.275622e+002 
3865625000  -2.948969e+001  -1.331040e+002 
3868750000  -2.955050e+001  -1.332724e+002 
3871875000  -2.877987e+001  -1.363693e+002 
3875000000  -2.900040e+001  -1.448190e+002 
3878125000  -2.999988e+001  -1.480629e+002 
3881250000  -3.006679e+001  -1.447085e+002 
3884375000  -2.951092e+001  -1.491721e+002 
3887500000  -2.966641e+001  -1.535064e+002 
3890625000  -3.019502e+001  -1.559109e+002 
3893750000  -3.066194e+001  -1.565947e+002 
3896875000  -3.069724e+001  -1.567999e+002 
3900000000  -3.100135e+001  -1.570464e+002 
3903125000  -3.063631e+001  -1.592791e+002 
3906250000  -3.035424e+001  -1.599933e+002 
3909375000  -2.962372e+001  -1.632325e+002 
3912500000  -2.972693e+001  -1.702081e+002 
3915625000  -3.093921e+001  -1.702318e+002 
3918750000  -3.096064e+001  -1.681189e+002 
3921875000  -3.059143e+001  -1.697339e+002 
3925000000  -2.986690e+001  -1.696631e+002 
3928125000  -2.909711e+001  -1.755879e+002 
3931250000  -2.950812e+001  1.798939e+002 
3934375000  -2.977069e+001  -1.794194e+002 
3937500000  -2.996935e+001  1.797975e+002 
3940625000  -3.039279e+001  -1.796088e+002 
3943750000  -2.944128e+001  -1.782004e+002 
3946875000  -2.815403e+001  1.760832e+002 
3950000000  -2.869592e+001  1.686535e+002 
3953125000  -2.965067e+001  1.694119e+002 
3956250000  -2.876423e+001  1.721378e+002 
3959375000  -2.749224e+001  1.691225e+002 
3962500000  -2.693692e+001  1.652508e+002 
3965625000  -2.662504e+001  1.564631e+002 
3968750000  -2.749501e+001  1.494422e+002 
3971875000  -2.788352e+001  1.479168e+002 
3975000000  -2.722977e+001  1.462357e+002 
3978125000  -2.699840e+001  1.448761e+002 
3981250000  -2.674414e+001  1.401727e+002 
3984375000  -2.698688e+001  1.340045e+002 
3987500000  -2.749726e+001  1.318703e+002 
3990625000  -2.746554e+001  1.308483e+002 
3993750000  -2.768434e+001  1.275625e+002 
3996875000  -2.760268e+001  1.254812e+002 
4000000000  -2.777179e+001  1.235819e+002 
4003125000  -2.830590e+001  1.255822e+002 
4006250000  -2.694850e+001  1.255072e+002 
4009375000  -2.571521e+001  1.129021e+002 
4012500000  -2.685392e+001  1.060837e+002 
4015625000  -2.811046e+001  1.063662e+002 
4018750000  -2.829804e+001  1.087747e+002 
4021875000  -2.756818e+001  1.072212e+002 
4025000000  -2.724111e+001  1.025204e+002 
4028125000  -2.721844e+001  9.841346e+001 
4031250000  -2.763872e+001  9.495039e+001 
4034375000  -2.786787e+001  9.486694e+001 
4037500000  -2.743328e+001  9.686959e+001 
4040625000  -2.739746e+001  9.366322e+001 
4043750000  -2.764318e+001  9.324092e+001 
4046875000  -2.726791e+001  9.282817e+001 
4050000000  -2.679303e+001  8.730055e+001 
4053125000  -2.720126e+001  8.498013e+001 
4056250000  -2.785280e+001  8.947066e+001 
4059375000  -2.668174e+001  9.131944e+001 
4062500000  -2.520735e+001  8.716447e+001 
4065625000  -2.508726e+001  8.235159e+001 
4068750000  -2.485666e+001  7.753165e+001 
4071875000  -2.420697e+001  6.968159e+001 
4075000000  -2.454587e+001  6.347892e+001 
4078125000  -2.512262e+001  6.262989e+001 
4081250000  -2.460922e+001  6.038091e+001 
4084375000  -2.420988e+001  5.362793e+001 
4087500000  -2.453206e+001  4.732181e+001 
4090625000  -2.518387e+001  4.611934e+001 
4093750000  -2.497174e+001  4.701331e+001 
4096875000  -2.452959e+001  4.115839e+001 
4100000000  -2.522052e+001  3.407038e+001 
4103125000  -2.608432e+001  3.508686e+001 
4106250000  -2.592021e+001  3.988025e+001 
4109375000  -2.510315e+001  3.912260e+001 
4112500000  -2.450542e+001  3.213224e+001 
4115625000  -2.484742e+001  2.819577e+001 
4118750000  -2.491229e+001  2.492396e+001 
4121875000  -2.452836e+001  2.038268e+001 
4125000000  -2.487583e+001  1.535719e+001 
4128125000  -2.587213e+001  1.522761e+001 
4131250000  -2.561264e+001  2.326063e+001 
4134375000  -2.324117e+001  1.871563e+001 
4137500000  -2.302652e+001  7.794159e-002 
4140625000  -2.526718e+001  -6.988467e+000 
4143750000  -2.656861e+001  -2.109023e+000 
4146875000  -2.618405e+001  4.957937e+000 
4150000000  -2.523714e+001  1.835956e+000 
4153125000  -2.507048e+001  -4.488001e+000 
4156250000  -2.596268e+001  -7.208209e+000 
4159375000  -2.632525e+001  -2.720663e+000 
4162500000  -2.509377e+001  1.319504e+000 
4165625000  -2.396586e+001  -2.359102e+000 
4168750000  -2.344371e+001  -9.836632e+000 
4171875000  -2.343678e+001  -1.928018e+001 
4175000000  -2.402498e+001  -2.452750e+001 
4178125000  -2.462484e+001  -2.469951e+001 
4181250000  -2.452414e+001  -2.515331e+001 
4184375000  -2.435408e+001  -2.837967e+001 
4187500000  -2.440633e+001  -3.112095e+001 
4190625000  -2.420504e+001  -3.631845e+001 
4193750000  -2.499984e+001  -3.991426e+001 
4196875000  -2.569225e+001  -4.042530e+001 
4200000000  -2.655747e+001  -3.810606e+001 
4203125000  -2.661635e+001  -2.476451e+001 
4206250000  -2.325176e+001  -2.289067e+001 
4209375000  -2.201707e+001  -4.340413e+001 
4212500000  -2.395330e+001  -5.235491e+001 
4215625000  -2.493988e+001  -4.651091e+001 
4218750000  -2.363495e+001  -3.955256e+001 
4221875000  -2.136846e+001  -4.818301e+001 
4225000000  -2.258805e+001  -6.117438e+001 
4228125000  -2.322385e+001  -5.601101e+001 
4231250000  -2.165699e+001  -5.958092e+001 
4234375000  -2.159195e+001  -6.814191e+001 
4237500000  -2.119115e+001  -7.107763e+001 
4240625000  -2.119254e+001  -7.985168e+001 
4243750000  -2.212842e+001  -8.651521e+001 
4246875000  -2.305388e+001  -8.652140e+001 
4250000000  -2.306839e+001  -8.425522e+001 
4253125000  -2.251570e+001  -8.577962e+001 
4256250000  -2.275103e+001  -8.999535e+001 
4259375000  -2.252513e+001  -9.216475e+001 
4262500000  -2.252449e+001  -9.589681e+001 
4265625000  -2.270867e+001  -9.551765e+001 
4268750000  -2.181869e+001  -9.959120e+001 
4271875000  -2.159757e+001  -1.051257e+002 
4275000000  -2.098550e+001  -1.118796e+002 
4278125000  -2.166134e+001  -1.231172e+002 
4281250000  -2.343919e+001  -1.250062e+002 
4284375000  -2.310889e+001  -1.241374e+002 
4287500000  -2.396157e+001  -1.275498e+002 
4290625000  -2.514405e+001  -1.181938e+002 
4293750000  -2.317425e+001  -1.127887e+002 
4296875000  -2.180941e+001  -1.238911e+002 
4300000000  -2.267980e+001  -1.331990e+002 
4303125000  -2.382207e+001  -1.323552e+002 
4306250000  -2.321822e+001  -1.260022e+002 
4309375000  -2.188181e+001  -1.279339e+002 
4312500000  -2.175446e+001  -1.361380e+002 
4315625000  -2.195052e+001  -1.423611e+002 
4318750000  -2.230692e+001  -1.455445e+002 
4321875000  -2.246294e+001  -1.448725e+002 
4325000000  -2.189335e+001  -1.444020e+002 
4328125000  -2.137239e+001  -1.508817e+002 
4331250000  -2.129734e+001  -1.586168e+002 
4334375000  -2.177802e+001  -1.636061e+002 
4337500000  -2.259912e+001  -1.659321e+002 
4340625000  -2.319180e+001  -1.627176e+002 
4343750000  -2.255983e+001  -1.621431e+002 
4346875000  -2.215143e+001  -1.677127e+002 
4350000000  -2.216813e+001  -1.724404e+002 
4353125000  -2.223863e+001  1.799099e+002 
4356250000  -2.398908e+001  1.790576e+002 
4359375000  -2.461292e+001  -1.673226e+002 
4362500000  -2.186510e+001  -1.653862e+002 
4365625000  -2.022231e+001  -1.771871e+002 
4368750000  -2.090774e+001  1.710378e+002 
4371875000  -2.213756e+001  1.714214e+002 
4375000000  -2.184982e+001  1.726046e+002 
4378125000  -2.115015e+001  1.665245e+002 
4381250000  -2.136486e+001  1.609890e+002 
4384375000  -2.116657e+001  1.564308e+002 
4387500000  -2.191504e+001  1.509253e+002 
4390625000  -2.291095e+001  1.518012e+002 
4393750000  -2.220569e+001  1.539286e+002 
4396875000  -2.156298e+001  1.518407e+002 
4400000000  -2.105210e+001  1.446527e+002 
4403125000  -2.164298e+001  1.372402e+002 
4406250000  -2.251667e+001  1.357650e+002 
4409375000  -2.248247e+001  1.335320e+002 
4412500000  -2.351489e+001  1.307309e+002 
4415625000  -2.389222e+001  1.356669e+002 
4418750000  -2.268234e+001  1.405121e+002 
