!Agilent Technologies,E8363B,MY43030201,A.06.04.32
!Agilent E8363B: A.06.04.32
!Date: Tuesday, November 11, 2014 20:45:05
!Correction: S21(Response(S21)) 
!S1P File: Measurement: S21:
# Hz S  dB   R 50
3000000000  -2.648035e+001  1.583447e+002 
3003125000  -2.785341e+001  1.541247e+002 
3006250000  -2.795405e+001  1.512745e+002 
3009375000  -2.824779e+001  1.559414e+002 
3012500000  -2.776906e+001  1.559574e+002 
3015625000  -2.683859e+001  1.488439e+002 
3018750000  -2.766772e+001  1.479453e+002 
3021875000  -2.644518e+001  1.493309e+002 
3025000000  -2.512735e+001  1.464084e+002 
3028125000  -2.416247e+001  1.416178e+002 
3031250000  -2.308650e+001  1.303252e+002 
3034375000  -2.273456e+001  1.175303e+002 
3037500000  -2.304265e+001  1.053029e+002 
3040625000  -2.440512e+001  1.001922e+002 
3043750000  -2.511325e+001  9.615334e+001 
3046875000  -2.516806e+001  8.941349e+001 
3050000000  -2.696035e+001  8.233889e+001 
3053125000  -2.716205e+001  8.859277e+001 
3056250000  -2.645556e+001  9.188931e+001 
3059375000  -2.671363e+001  9.187869e+001 
3062500000  -2.526163e+001  8.753641e+001 
3065625000  -2.503684e+001  8.242262e+001 
3068750000  -2.476982e+001  7.522135e+001 
3071875000  -2.466265e+001  7.222565e+001 
3075000000  -2.467178e+001  6.864536e+001 
3078125000  -2.435449e+001  6.418263e+001 
3081250000  -2.498668e+001  5.989178e+001 
3084375000  -2.427810e+001  5.630114e+001 
3087500000  -2.411318e+001  5.284082e+001 
3090625000  -2.386907e+001  4.311504e+001 
3093750000  -2.418260e+001  3.511121e+001 
3096875000  -2.552988e+001  2.886208e+001 
3100000000  -2.568231e+001  2.759882e+001 
3103125000  -2.607293e+001  2.906790e+001 
3106250000  -2.581706e+001  2.554711e+001 
3109375000  -2.605048e+001  2.194836e+001 
3112500000  -2.615331e+001  2.110713e+001 
3115625000  -2.592376e+001  1.688828e+001 
3118750000  -2.648587e+001  1.804149e+001 
3121875000  -2.581642e+001  1.027085e+001 
3125000000  -2.688240e+001  6.449784e+000 
3128125000  -2.819272e+001  1.431678e+001 
3131250000  -2.607929e+001  1.540057e+001 
3134375000  -2.464780e+001  1.866674e+000 
3137500000  -2.523439e+001  -1.221480e+001 
3140625000  -2.694785e+001  -1.419919e+001 
3143750000  -2.796374e+001  -9.921512e+000 
3146875000  -2.753593e+001  -7.903542e+000 
3150000000  -2.651845e+001  -5.453976e+000 
3153125000  -2.650046e+001  -1.300437e+001 
3156250000  -2.740952e+001  -8.180705e+000 
3159375000  -2.600297e+001  -5.080502e+000 
3162500000  -2.388813e+001  -1.755326e+001 
3165625000  -2.478609e+001  -2.861202e+001 
3168750000  -2.525605e+001  -2.803231e+001 
3171875000  -2.426434e+001  -3.196957e+001 
3175000000  -2.490432e+001  -3.960554e+001 
3178125000  -2.471502e+001  -3.813152e+001 
3181250000  -2.350293e+001  -4.182219e+001 
3184375000  -2.268215e+001  -5.400962e+001 
3187500000  -2.375688e+001  -6.949757e+001 
3190625000  -2.656806e+001  -7.745309e+001 
3193750000  -2.725511e+001  -6.784281e+001 
3196875000  -2.675261e+001  -6.203601e+001 
3200000000  -2.597579e+001  -6.378663e+001 
3203125000  -2.507404e+001  -6.947557e+001 
3206250000  -2.534652e+001  -7.549909e+001 
3209375000  -2.491832e+001  -8.058746e+001 
3212500000  -2.496039e+001  -8.733850e+001 
3215625000  -2.512162e+001  -9.226243e+001 
3218750000  -2.594157e+001  -9.811747e+001 
3221875000  -2.689306e+001  -1.032158e+002 
3225000000  -2.649476e+001  -1.034508e+002 
3228125000  -2.680734e+001  -1.082723e+002 
3231250000  -2.757729e+001  -1.111282e+002 
3234375000  -2.750279e+001  -1.100238e+002 
3237500000  -2.745365e+001  -1.115373e+002 
3240625000  -2.713960e+001  -1.132346e+002 
3243750000  -2.675173e+001  -1.198443e+002 
3246875000  -2.723946e+001  -1.264268e+002 
3250000000  -2.768585e+001  -1.282320e+002 
3253125000  -2.789645e+001  -1.298698e+002 
3256250000  -2.770368e+001  -1.357569e+002 
3259375000  -2.804779e+001  -1.434017e+002 
3262500000  -2.931365e+001  -1.463130e+002 
3265625000  -2.995415e+001  -1.431079e+002 
3268750000  -2.994336e+001  -1.407858e+002 
3271875000  -2.977815e+001  -1.390558e+002 
3275000000  -2.862969e+001  -1.437844e+002 
3278125000  -2.903949e+001  -1.503521e+002 
3281250000  -2.933526e+001  -1.488828e+002 
3284375000  -2.897933e+001  -1.546095e+002 
3287500000  -2.909600e+001  -1.571215e+002 
3290625000  -2.949188e+001  -1.615747e+002 
3293750000  -2.919913e+001  -1.670956e+002 
3296875000  -3.025273e+001  -1.671180e+002 
3300000000  -3.023869e+001  -1.660556e+002 
3303125000  -2.902060e+001  -1.697514e+002 
3306250000  -2.877351e+001  -1.766991e+002 
3309375000  -2.855078e+001  1.788129e+002 
3312500000  -2.858078e+001  1.684457e+002 
3315625000  -2.961733e+001  1.607761e+002 
3318750000  -3.089800e+001  1.578052e+002 
3321875000  -3.214016e+001  1.568586e+002 
3325000000  -3.272836e+001  1.620002e+002 
3328125000  -3.256908e+001  1.637765e+002 
3331250000  -3.140509e+001  1.714913e+002 
3334375000  -2.887739e+001  1.621140e+002 
3337500000  -2.893747e+001  1.443504e+002 
3340625000  -3.013185e+001  1.330456e+002 
3343750000  -3.214700e+001  1.314310e+002 
3346875000  -3.282895e+001  1.327355e+002 
3350000000  -3.207750e+001  1.319344e+002 
3353125000  -3.216477e+001  1.271549e+002 
3356250000  -3.188243e+001  1.198160e+002 
3359375000  -3.268243e+001  1.118949e+002 
3362500000  -3.407296e+001  1.056922e+002 
3365625000  -3.457742e+001  1.044158e+002 
3368750000  -3.563853e+001  1.023739e+002 
3371875000  -3.607638e+001  9.906191e+001 
3375000000  -3.755687e+001  9.703439e+001 
3378125000  -3.869608e+001  9.600215e+001 
3381250000  -4.005242e+001  1.030228e+002 
3384375000  -3.962093e+001  1.238839e+002 
3387500000  -3.629963e+001  1.113794e+002 
3390625000  -3.806506e+001  9.297213e+001 
3393750000  -3.975484e+001  9.719669e+001 
3396875000  -3.931723e+001  1.006494e+002 
3400000000  -3.885495e+001  9.324344e+001 
3403125000  -4.006233e+001  9.000122e+001 
3406250000  -4.088905e+001  9.118845e+001 
3409375000  -4.159975e+001  8.771591e+001 
3412500000  -4.256839e+001  8.948627e+001 
3415625000  -4.323981e+001  9.390272e+001 
3418750000  -4.364359e+001  9.673882e+001 
3421875000  -4.451028e+001  1.032519e+002 
3425000000  -4.298949e+001  1.095706e+002 
3428125000  -4.222485e+001  1.070578e+002 
3431250000  -4.216780e+001  1.039037e+002 
3434375000  -4.192421e+001  1.031961e+002 
3437500000  -4.232428e+001  9.873962e+001 
3440625000  -4.249687e+001  1.038936e+002 
3443750000  -4.101913e+001  1.057023e+002 
3446875000  -4.066474e+001  1.016882e+002 
3450000000  -4.057801e+001  9.161428e+001 
3453125000  -4.057117e+001  8.269630e+001 
3456250000  -4.167316e+001  7.784084e+001 
3459375000  -4.280957e+001  8.105817e+001 
3462500000  -4.312246e+001  8.115887e+001 
3465625000  -4.286624e+001  7.754887e+001 
3468750000  -4.322276e+001  7.570271e+001 
3471875000  -4.321984e+001  7.625423e+001 
3475000000  -4.355600e+001  7.063618e+001 
3478125000  -4.419653e+001  6.628645e+001 
3481250000  -4.502380e+001  6.717954e+001 
3484375000  -4.681239e+001  6.775160e+001 
3487500000  -4.642775e+001  7.501755e+001 
3490625000  -4.565374e+001  7.136652e+001 
3493750000  -4.645855e+001  6.784016e+001 
3496875000  -4.701377e+001  6.834840e+001 
3500000000  -4.816823e+001  7.569222e+001 
3503125000  -4.905550e+001  8.173287e+001 
3506250000  -4.711266e+001  8.137914e+001 
3509375000  -4.734088e+001  8.641558e+001 
3512500000  -4.759247e+001  8.229515e+001 
3515625000  -4.850203e+001  8.192719e+001 
3518750000  -4.824711e+001  9.083944e+001 
3521875000  -4.809424e+001  9.519931e+001 
3525000000  -4.769870e+001  9.392284e+001 
3528125000  -4.762052e+001  1.030135e+002 
3531250000  -4.573423e+001  1.036635e+002 
3534375000  -4.531274e+001  9.773425e+001 
3537500000  -4.480749e+001  9.302617e+001 
3540625000  -4.555382e+001  9.242145e+001 
3543750000  -4.597662e+001  9.452715e+001 
3546875000  -4.569570e+001  1.092935e+002 
3550000000  -4.279310e+001  1.084585e+002 
3553125000  -4.141412e+001  9.483847e+001 
3556250000  -4.277401e+001  8.814602e+001 
3559375000  -4.215591e+001  9.075442e+001 
3562500000  -4.077581e+001  8.321564e+001 
3565625000  -4.191677e+001  7.743559e+001 
3568750000  -4.166336e+001  8.068295e+001 
3571875000  -4.150247e+001  7.900127e+001 
3575000000  -4.116977e+001  7.652380e+001 
3578125000  -4.141182e+001  7.110677e+001 
3581250000  -4.191811e+001  7.033181e+001 
3584375000  -4.070813e+001  7.184033e+001 
3587500000  -3.957185e+001  6.555659e+001 
3590625000  -4.021510e+001  5.485202e+001 
3593750000  -4.153719e+001  5.369769e+001 
3596875000  -4.128160e+001  6.249446e+001 
3600000000  -3.975113e+001  5.865034e+001 
3603125000  -3.962617e+001  4.717866e+001 
3606250000  -4.067907e+001  4.411226e+001 
3609375000  -4.089681e+001  4.255346e+001 
3612500000  -4.132740e+001  4.119223e+001 
3615625000  -4.144101e+001  3.828678e+001 
3618750000  -4.204194e+001  4.106778e+001 
3621875000  -4.170124e+001  3.993532e+001 
3625000000  -4.175574e+001  3.932111e+001 
3628125000  -4.210920e+001  3.971392e+001 
3631250000  -4.135581e+001  3.459090e+001 
3634375000  -4.234171e+001  3.554204e+001 
3637500000  -4.206771e+001  4.181310e+001 
3640625000  -4.103222e+001  4.170684e+001 
3643750000  -4.068429e+001  3.793042e+001 
3646875000  -4.106833e+001  3.290895e+001 
3650000000  -4.174210e+001  3.124269e+001 
3653125000  -4.151821e+001  3.118645e+001 
3656250000  -4.181337e+001  3.050044e+001 
3659375000  -4.230302e+001  3.389855e+001 
3662500000  -4.117936e+001  3.328895e+001 
3665625000  -4.150677e+001  3.251266e+001 
3668750000  -4.054079e+001  3.503186e+001 
3671875000  -3.938862e+001  3.157706e+001 
3675000000  -3.968144e+001  2.203331e+001 
3678125000  -4.024691e+001  2.609879e+001 
3681250000  -4.004195e+001  2.597669e+001 
3684375000  -3.969059e+001  2.539142e+001 
3687500000  -3.982854e+001  2.278742e+001 
3690625000  -3.986450e+001  1.926872e+001 
3693750000  -4.056865e+001  2.194317e+001 
3696875000  -4.014054e+001  2.636229e+001 
3700000000  -3.905243e+001  2.380616e+001 
3703125000  -3.864734e+001  2.108792e+001 
3706250000  -3.934033e+001  2.149665e+001 
3709375000  -3.884735e+001  2.524217e+001 
3712500000  -3.743309e+001  2.480217e+001 
3715625000  -3.637542e+001  1.900184e+001 
3718750000  -3.576258e+001  1.669507e+001 
3721875000  -3.526897e+001  1.196905e+001 
3725000000  -3.519272e+001  6.330290e+000 
3728125000  -3.543119e+001  5.444409e+000 
3731250000  -3.474229e+001  5.518744e+000 
3734375000  -3.369966e+001  -2.990800e-001 
3737500000  -3.419569e+001  -7.658266e+000 
3740625000  -3.486758e+001  -1.148737e+001 
3743750000  -3.474220e+001  -1.262389e+001 
3746875000  -3.461815e+001  -1.645270e+001 
3750000000  -3.500264e+001  -1.738238e+001 
3753125000  -3.461168e+001  -1.836196e+001 
3756250000  -3.444229e+001  -1.891846e+001 
3759375000  -3.434632e+001  -1.910846e+001 
3762500000  -3.371509e+001  -2.295383e+001 
3765625000  -3.421490e+001  -2.547901e+001 
3768750000  -3.434241e+001  -2.383645e+001 
3771875000  -3.242165e+001  -2.574710e+001 
3775000000  -3.221018e+001  -3.361696e+001 
3778125000  -3.259939e+001  -3.547124e+001 
3781250000  -3.237855e+001  -3.784872e+001 
3784375000  -3.227280e+001  -4.037747e+001 
3787500000  -3.165138e+001  -4.310027e+001 
3790625000  -3.219612e+001  -4.933524e+001 
3793750000  -3.238902e+001  -4.974786e+001 
3796875000  -3.162745e+001  -5.100879e+001 
3800000000  -3.000336e+001  -5.512178e+001 
3803125000  -3.074915e+001  -6.160029e+001 
3806250000  -3.131515e+001  -6.405371e+001 
3809375000  -3.111406e+001  -6.482726e+001 
3812500000  -3.036662e+001  -7.042009e+001 
3815625000  -3.094167e+001  -7.749796e+001 
3818750000  -3.189486e+001  -7.892093e+001 
3821875000  -3.195802e+001  -7.102591e+001 
3825000000  -3.016978e+001  -6.669596e+001 
3828125000  -2.879005e+001  -8.013284e+001 
3831250000  -2.933159e+001  -9.428601e+001 
3834375000  -3.065865e+001  -9.478973e+001 
3837500000  -3.147607e+001  -9.030859e+001 
3840625000  -3.054036e+001  -9.089523e+001 
3843750000  -2.924329e+001  -1.010580e+002 
3846875000  -2.983196e+001  -1.082520e+002 
3850000000  -3.112314e+001  -1.032819e+002 
3853125000  -3.046535e+001  -1.000993e+002 
3856250000  -3.051615e+001  -1.049722e+002 
3859375000  -2.972033e+001  -1.092160e+002 
3862500000  -2.931853e+001  -1.164832e+002 
3865625000  -2.949400e+001  -1.209376e+002 
3868750000  -2.954899e+001  -1.216533e+002 
3871875000  -2.881513e+001  -1.241161e+002 
3875000000  -2.896310e+001  -1.323522e+002 
3878125000  -2.993901e+001  -1.354205e+002 
3881250000  -3.012635e+001  -1.325530e+002 
3884375000  -2.956648e+001  -1.371713e+002 
3887500000  -2.965417e+001  -1.411406e+002 
3890625000  -3.015806e+001  -1.433379e+002 
3893750000  -3.061028e+001  -1.451447e+002 
3896875000  -3.066420e+001  -1.443944e+002 
3900000000  -3.094826e+001  -1.444907e+002 
3903125000  -3.066528e+001  -1.470655e+002 
3906250000  -3.039330e+001  -1.483406e+002 
3909375000  -2.970230e+001  -1.504766e+002 
3912500000  -2.958789e+001  -1.578209e+002 
3915625000  -3.084799e+001  -1.573349e+002 
3918750000  -3.085478e+001  -1.556903e+002 
3921875000  -3.053319e+001  -1.570741e+002 
3925000000  -2.972404e+001  -1.570704e+002 
3928125000  -2.909579e+001  -1.635245e+002 
3931250000  -2.950681e+001  -1.679056e+002 
3934375000  -2.969382e+001  -1.672520e+002 
3937500000  -2.989328e+001  -1.683041e+002 
3940625000  -3.020291e+001  -1.676174e+002 
3943750000  -2.937107e+001  -1.669565e+002 
3946875000  -2.811101e+001  -1.711557e+002 
3950000000  -2.859085e+001  -1.790223e+002 
3953125000  -2.961273e+001  -1.790555e+002 
3956250000  -2.876742e+001  -1.763858e+002 
3959375000  -2.741220e+001  -1.792482e+002 
3962500000  -2.688231e+001  1.769327e+002 
3965625000  -2.657298e+001  1.679596e+002 
3968750000  -2.743192e+001  1.614108e+002 
3971875000  -2.786246e+001  1.599902e+002 
3975000000  -2.724705e+001  1.577138e+002 
3978125000  -2.700167e+001  1.566741e+002 
3981250000  -2.669298e+001  1.526809e+002 
3984375000  -2.693973e+001  1.461878e+002 
3987500000  -2.745531e+001  1.435141e+002 
3990625000  -2.753548e+001  1.429569e+002 
3993750000  -2.769134e+001  1.394000e+002 
3996875000  -2.765901e+001  1.372921e+002 
4000000000  -2.768855e+001  1.350348e+002 
4003125000  -2.832859e+001  1.372290e+002 
4006250000  -2.698348e+001  1.376967e+002 
4009375000  -2.571481e+001  1.253999e+002 
4012500000  -2.680525e+001  1.183166e+002 
4015625000  -2.797218e+001  1.188347e+002 
4018750000  -2.824131e+001  1.214606e+002 
4021875000  -2.754744e+001  1.195545e+002 
4025000000  -2.719826e+001  1.149319e+002 
4028125000  -2.712849e+001  1.111388e+002 
4031250000  -2.762501e+001  1.079331e+002 
4034375000  -2.792031e+001  1.075098e+002 
4037500000  -2.732083e+001  1.091572e+002 
4040625000  -2.721285e+001  1.057519e+002 
4043750000  -2.754200e+001  1.057589e+002 
4046875000  -2.720417e+001  1.051948e+002 
4050000000  -2.666387e+001  9.958503e+001 
4053125000  -2.717045e+001  9.739555e+001 
4056250000  -2.770318e+001  1.011697e+002 
4059375000  -2.658238e+001  1.035226e+002 
4062500000  -2.518931e+001  9.869810e+001 
4065625000  -2.499018e+001  9.434419e+001 
4068750000  -2.475802e+001  8.989085e+001 
4071875000  -2.411358e+001  8.189137e+001 
4075000000  -2.442051e+001  7.549009e+001 
4078125000  -2.502063e+001  7.451708e+001 
4081250000  -2.453495e+001  7.226532e+001 
4084375000  -2.410432e+001  6.576054e+001 
4087500000  -2.444810e+001  5.925174e+001 
4090625000  -2.498065e+001  5.783838e+001 
4093750000  -2.490247e+001  5.861345e+001 
4096875000  -2.446955e+001  5.316587e+001 
4100000000  -2.505402e+001  4.613185e+001 
4103125000  -2.590935e+001  4.642113e+001 
4106250000  -2.592771e+001  5.116817e+001 
4109375000  -2.497851e+001  5.102694e+001 
4112500000  -2.443498e+001  4.438067e+001 
4115625000  -2.474294e+001  4.027023e+001 
4118750000  -2.487051e+001  3.700868e+001 
4121875000  -2.450080e+001  3.271240e+001 
4125000000  -2.478572e+001  2.785497e+001 
4128125000  -2.579148e+001  2.733594e+001 
4131250000  -2.560751e+001  3.524126e+001 
4134375000  -2.328374e+001  3.133416e+001 
4137500000  -2.298431e+001  1.300662e+001 
4140625000  -2.512127e+001  5.209789e+000 
4143750000  -2.645508e+001  1.010013e+001 
4146875000  -2.607642e+001  1.740579e+001 
4150000000  -2.521441e+001  1.442754e+001 
4153125000  -2.503696e+001  8.548673e+000 
4156250000  -2.586194e+001  5.794497e+000 
4159375000  -2.616340e+001  9.417081e+000 
4162500000  -2.507343e+001  1.410569e+001 
4165625000  -2.393870e+001  1.037465e+001 
4168750000  -2.328752e+001  3.263752e+000 
4171875000  -2.327851e+001  -6.050512e+000 
4175000000  -2.384135e+001  -1.183986e+001 
4178125000  -2.447788e+001  -1.218256e+001 
4181250000  -2.439827e+001  -1.222001e+001 
4184375000  -2.418732e+001  -1.551140e+001 
4187500000  -2.420825e+001  -1.833677e+001 
4190625000  -2.408537e+001  -2.333891e+001 
4193750000  -2.479570e+001  -2.727338e+001 
4196875000  -2.548334e+001  -2.793135e+001 
4200000000  -2.632350e+001  -2.599352e+001 
4203125000  -2.646090e+001  -1.295086e+001 
4206250000  -2.321613e+001  -1.068212e+001 
4209375000  -2.194446e+001  -3.054721e+001 
4212500000  -2.376981e+001  -4.009244e+001 
4215625000  -2.483309e+001  -3.410055e+001 
4218750000  -2.356795e+001  -2.733498e+001 
4221875000  -2.122350e+001  -3.606134e+001 
4225000000  -2.237077e+001  -4.914088e+001 
4228125000  -2.317672e+001  -4.400393e+001 
4231250000  -2.163489e+001  -4.745000e+001 
4234375000  -2.149170e+001  -5.561109e+001 
4237500000  -2.109004e+001  -5.879181e+001 
4240625000  -2.109551e+001  -6.761005e+001 
4243750000  -2.202551e+001  -7.401452e+001 
4246875000  -2.291245e+001  -7.442451e+001 
4250000000  -2.299949e+001  -7.156107e+001 
4253125000  -2.240404e+001  -7.359752e+001 
4256250000  -2.266325e+001  -7.754113e+001 
4259375000  -2.243954e+001  -7.941707e+001 
4262500000  -2.244976e+001  -8.319848e+001 
4265625000  -2.266721e+001  -8.299146e+001 
4268750000  -2.177712e+001  -8.695139e+001 
4271875000  -2.156400e+001  -9.220851e+001 
4275000000  -2.089954e+001  -9.881401e+001 
4278125000  -2.144342e+001  -1.100540e+002 
4281250000  -2.329547e+001  -1.123819e+002 
4284375000  -2.301552e+001  -1.110976e+002 
4287500000  -2.363701e+001  -1.151987e+002 
4290625000  -2.501335e+001  -1.058727e+002 
4293750000  -2.307037e+001  -9.967815e+001 
4296875000  -2.172512e+001  -1.109382e+002 
4300000000  -2.248864e+001  -1.204599e+002 
4303125000  -2.361851e+001  -1.196205e+002 
4306250000  -2.313113e+001  -1.134689e+002 
4309375000  -2.166972e+001  -1.149857e+002 
4312500000  -2.156670e+001  -1.235262e+002 
4315625000  -2.177448e+001  -1.295528e+002 
4318750000  -2.205702e+001  -1.327596e+002 
4321875000  -2.224224e+001  -1.325128e+002 
4325000000  -2.166523e+001  -1.316800e+002 
4328125000  -2.120310e+001  -1.381270e+002 
4331250000  -2.112429e+001  -1.458733e+002 
4334375000  -2.149619e+001  -1.511696e+002 
4337500000  -2.231637e+001  -1.534465e+002 
4340625000  -2.289283e+001  -1.503111e+002 
4343750000  -2.234673e+001  -1.499076e+002 
4346875000  -2.195793e+001  -1.549189e+002 
4350000000  -2.196315e+001  -1.596174e+002 
4353125000  -2.193561e+001  -1.671594e+002 
4356250000  -2.358831e+001  -1.688611e+002 
4359375000  -2.432381e+001  -1.563901e+002 
4362500000  -2.182544e+001  -1.536382e+002 
4365625000  -2.010730e+001  -1.649820e+002 
4368750000  -2.073895e+001  -1.767238e+002 
4371875000  -2.196239e+001  -1.765031e+002 
4375000000  -2.170424e+001  -1.751171e+002 
4378125000  -2.103116e+001  1.791888e+002 
4381250000  -2.118204e+001  1.735760e+002 
4384375000  -2.099498e+001  1.694634e+002 
4387500000  -2.167728e+001  1.636127e+002 
4390625000  -2.271729e+001  1.642083e+002 
4393750000  -2.209220e+001  1.665793e+002 
4396875000  -2.138546e+001  1.643139e+002 
4400000000  -2.091732e+001  1.577182e+002 
4403125000  -2.143180e+001  1.500130e+002 
4406250000  -2.229652e+001  1.484781e+002 
4409375000  -2.226722e+001  1.463533e+002 
4412500000  -2.325752e+001  1.432088e+002 
4415625000  -2.365693e+001  1.481591e+002 
4418750000  -2.254308e+001  1.528447e+002 
