!Agilent Technologies,E8363B,MY43030201,A.06.04.32
!Agilent E8363B: A.06.04.32
!Date: Tuesday, November 11, 2014 20:56:55
!Correction: S21(Response(S21)) 
!S1P File: Measurement: S21:
# Hz S  dB   R 50
3000000000  -2.649354e+001  1.480107e+002 
3003125000  -2.792585e+001  1.429483e+002 
3006250000  -2.796301e+001  1.403306e+002 
3009375000  -2.839338e+001  1.456479e+002 
3012500000  -2.775834e+001  1.452528e+002 
3015625000  -2.684031e+001  1.382204e+002 
3018750000  -2.770011e+001  1.374366e+002 
3021875000  -2.637595e+001  1.388187e+002 
3025000000  -2.506991e+001  1.356145e+002 
3028125000  -2.416000e+001  1.304273e+002 
3031250000  -2.311002e+001  1.191688e+002 
3034375000  -2.275192e+001  1.060322e+002 
3037500000  -2.313146e+001  9.426406e+001 
3040625000  -2.447021e+001  8.942486e+001 
3043750000  -2.517768e+001  8.486863e+001 
3046875000  -2.528329e+001  7.858115e+001 
3050000000  -2.701379e+001  7.175120e+001 
3053125000  -2.709112e+001  7.859374e+001 
3056250000  -2.649203e+001  8.157320e+001 
3059375000  -2.665180e+001  8.102940e+001 
3062500000  -2.518637e+001  7.718989e+001 
3065625000  -2.498240e+001  7.126392e+001 
3068750000  -2.468174e+001  6.452686e+001 
3071875000  -2.465082e+001  6.176601e+001 
3075000000  -2.458566e+001  5.770570e+001 
3078125000  -2.433124e+001  5.301599e+001 
3081250000  -2.497115e+001  4.881376e+001 
3084375000  -2.419322e+001  4.519263e+001 
3087500000  -2.413400e+001  4.158825e+001 
3090625000  -2.381019e+001  3.162875e+001 
3093750000  -2.429854e+001  2.386493e+001 
3096875000  -2.555571e+001  1.803313e+001 
3100000000  -2.567073e+001  1.669652e+001 
3103125000  -2.602786e+001  1.784102e+001 
3106250000  -2.574185e+001  1.423570e+001 
3109375000  -2.601414e+001  1.079237e+001 
3112500000  -2.615031e+001  9.653275e+000 
3115625000  -2.593647e+001  5.501532e+000 
3118750000  -2.638795e+001  6.852784e+000 
3121875000  -2.571845e+001  -1.440377e+000 
3125000000  -2.698466e+001  -4.532948e+000 
3128125000  -2.816001e+001  3.835766e+000 
3131250000  -2.591209e+001  3.884405e+000 
3134375000  -2.463364e+001  -9.820862e+000 
3137500000  -2.529363e+001  -2.299730e+001 
3140625000  -2.684696e+001  -2.485143e+001 
3143750000  -2.787055e+001  -2.109767e+001 
3146875000  -2.750683e+001  -1.915365e+001 
3150000000  -2.647041e+001  -1.689676e+001 
3153125000  -2.648808e+001  -2.457548e+001 
3156250000  -2.743785e+001  -1.873485e+001 
3159375000  -2.583521e+001  -1.620510e+001 
3162500000  -2.379493e+001  -2.925276e+001 
3165625000  -2.480999e+001  -4.033271e+001 
3168750000  -2.514150e+001  -3.880325e+001 
3171875000  -2.420940e+001  -4.340538e+001 
3175000000  -2.488926e+001  -5.119913e+001 
3178125000  -2.462810e+001  -4.942693e+001 
3181250000  -2.346267e+001  -5.366554e+001 
3184375000  -2.271582e+001  -6.576432e+001 
3187500000  -2.387804e+001  -8.093322e+001 
3190625000  -2.662977e+001  -8.818968e+001 
3193750000  -2.712299e+001  -7.867910e+001 
3196875000  -2.676096e+001  -7.314980e+001 
3200000000  -2.585571e+001  -7.501878e+001 
3203125000  -2.500165e+001  -8.091560e+001 
3206250000  -2.530148e+001  -8.697106e+001 
3209375000  -2.481563e+001  -9.236136e+001 
3212500000  -2.498005e+001  -9.896085e+001 
3215625000  -2.509617e+001  -1.028315e+002 
3218750000  -2.588693e+001  -1.094238e+002 
3221875000  -2.681810e+001  -1.144156e+002 
3225000000  -2.640015e+001  -1.149428e+002 
3228125000  -2.675708e+001  -1.196044e+002 
3231250000  -2.746351e+001  -1.221077e+002 
3234375000  -2.729032e+001  -1.210037e+002 
3237500000  -2.736447e+001  -1.228254e+002 
3240625000  -2.702906e+001  -1.244525e+002 
3243750000  -2.669507e+001  -1.311420e+002 
3246875000  -2.715598e+001  -1.376262e+002 
3250000000  -2.760824e+001  -1.396149e+002 
3253125000  -2.779095e+001  -1.413052e+002 
3256250000  -2.767754e+001  -1.468439e+002 
3259375000  -2.792545e+001  -1.547036e+002 
3262500000  -2.925062e+001  -1.575661e+002 
3265625000  -2.986017e+001  -1.540328e+002 
3268750000  -2.984551e+001  -1.515354e+002 
3271875000  -2.962707e+001  -1.506474e+002 
3275000000  -2.850860e+001  -1.558611e+002 
3278125000  -2.903115e+001  -1.618825e+002 
3281250000  -2.932520e+001  -1.598504e+002 
3284375000  -2.879940e+001  -1.659473e+002 
3287500000  -2.902535e+001  -1.687764e+002 
3290625000  -2.936883e+001  -1.732046e+002 
3293750000  -2.910413e+001  -1.782085e+002 
3296875000  -3.014502e+001  -1.778226e+002 
3300000000  -2.996988e+001  -1.771612e+002 
3303125000  -2.887239e+001  1.786728e+002 
3306250000  -2.865273e+001  1.722024e+002 
3309375000  -2.832742e+001  1.670771e+002 
3312500000  -2.846383e+001  1.568930e+002 
3315625000  -2.946818e+001  1.490476e+002 
3318750000  -3.083117e+001  1.461671e+002 
3321875000  -3.201618e+001  1.464512e+002 
3325000000  -3.262255e+001  1.526332e+002 
3328125000  -3.238167e+001  1.534117e+002 
3331250000  -3.109849e+001  1.611697e+002 
3334375000  -2.849072e+001  1.505738e+002 
3337500000  -2.862895e+001  1.322666e+002 
3340625000  -3.001565e+001  1.213958e+002 
3343750000  -3.199836e+001  1.204827e+002 
3346875000  -3.244375e+001  1.222389e+002 
3350000000  -3.177427e+001  1.206565e+002 
3353125000  -3.190663e+001  1.161021e+002 
3356250000  -3.168948e+001  1.087717e+002 
3359375000  -3.248789e+001  1.003581e+002 
3362500000  -3.375877e+001  9.535719e+001 
3365625000  -3.447561e+001  9.359417e+001 
3368750000  -3.542350e+001  9.210153e+001 
3371875000  -3.567970e+001  8.865626e+001 
3375000000  -3.736183e+001  8.620327e+001 
3378125000  -3.850365e+001  8.577153e+001 
3381250000  -4.005859e+001  9.448757e+001 
3384375000  -3.908895e+001  1.165277e+002 
3387500000  -3.576667e+001  1.019534e+002 
3390625000  -3.746987e+001  8.130849e+001 
3393750000  -3.941054e+001  8.667409e+001 
3396875000  -3.848526e+001  8.945943e+001 
3400000000  -3.855182e+001  8.390263e+001 
3403125000  -3.953923e+001  7.771684e+001 
3406250000  -4.034381e+001  8.117216e+001 
3409375000  -4.104073e+001  7.530034e+001 
3412500000  -4.167219e+001  7.832174e+001 
3415625000  -4.261364e+001  8.185702e+001 
3418750000  -4.263129e+001  8.691010e+001 
3421875000  -4.314540e+001  9.059433e+001 
3425000000  -4.241644e+001  9.662709e+001 
3428125000  -4.127428e+001  9.543707e+001 
3431250000  -4.113535e+001  9.197932e+001 
3434375000  -4.092448e+001  8.711276e+001 
3437500000  -4.156826e+001  8.706216e+001 
3440625000  -4.209931e+001  8.956906e+001 
3443750000  -4.057716e+001  9.208790e+001 
3446875000  -3.982595e+001  8.630347e+001 
3450000000  -3.956288e+001  7.702522e+001 
3453125000  -3.973656e+001  6.819805e+001 
3456250000  -4.110897e+001  6.428031e+001 
3459375000  -4.185107e+001  6.667561e+001 
3462500000  -4.185542e+001  6.647578e+001 
3465625000  -4.245654e+001  6.241140e+001 
3468750000  -4.254092e+001  6.086175e+001 
3471875000  -4.280226e+001  5.960770e+001 
3475000000  -4.241105e+001  5.526543e+001 
3478125000  -4.324588e+001  5.121603e+001 
3481250000  -4.425565e+001  4.842360e+001 
3484375000  -4.569994e+001  5.306467e+001 
3487500000  -4.553656e+001  5.831703e+001 
3490625000  -4.484398e+001  5.523746e+001 
3493750000  -4.599429e+001  5.151192e+001 
3496875000  -4.674232e+001  5.353217e+001 
3500000000  -4.798894e+001  6.079742e+001 
3503125000  -4.743358e+001  6.269550e+001 
3506250000  -4.608164e+001  6.321917e+001 
3509375000  -4.645773e+001  6.051654e+001 
3512500000  -4.705292e+001  6.063734e+001 
3515625000  -4.780320e+001  6.336439e+001 
3518750000  -4.861839e+001  7.025216e+001 
3521875000  -4.750150e+001  7.225076e+001 
3525000000  -4.808648e+001  7.426501e+001 
3528125000  -4.794098e+001  8.853338e+001 
3531250000  -4.557193e+001  8.604724e+001 
3534375000  -4.478570e+001  8.201501e+001 
3537500000  -4.533032e+001  7.626881e+001 
3540625000  -4.583622e+001  7.713922e+001 
3543750000  -4.604390e+001  8.135874e+001 
3546875000  -4.571853e+001  9.263092e+001 
3550000000  -4.274288e+001  9.296992e+001 
3553125000  -4.166912e+001  7.966605e+001 
3556250000  -4.264246e+001  7.198724e+001 
3559375000  -4.240150e+001  7.322540e+001 
3562500000  -4.117691e+001  6.925076e+001 
3565625000  -4.205512e+001  6.197887e+001 
3568750000  -4.200889e+001  6.336145e+001 
3571875000  -4.155047e+001  6.556447e+001 
3575000000  -4.106742e+001  5.926684e+001 
3578125000  -4.134497e+001  5.451471e+001 
3581250000  -4.166250e+001  5.676880e+001 
3584375000  -4.082858e+001  5.552768e+001 
3587500000  -4.009232e+001  4.833233e+001 
3590625000  -4.016064e+001  4.075105e+001 
3593750000  -4.144402e+001  3.923542e+001 
3596875000  -4.135290e+001  4.902583e+001 
3600000000  -3.979911e+001  4.319746e+001 
3603125000  -3.994053e+001  2.994645e+001 
3606250000  -4.061137e+001  2.898355e+001 
3609375000  -4.090706e+001  2.645426e+001 
3612500000  -4.135997e+001  2.554041e+001 
3615625000  -4.130684e+001  2.346949e+001 
3618750000  -4.185033e+001  2.626262e+001 
3621875000  -4.154011e+001  2.643092e+001 
3625000000  -4.163465e+001  2.452714e+001 
3628125000  -4.186609e+001  2.647955e+001 
3631250000  -4.144494e+001  2.165157e+001 
3634375000  -4.236858e+001  1.969930e+001 
3637500000  -4.201666e+001  2.664457e+001 
3640625000  -4.081622e+001  2.861810e+001 
3643750000  -4.022833e+001  2.139813e+001 
3646875000  -4.109484e+001  1.383740e+001 
3650000000  -4.140092e+001  1.538391e+001 
3653125000  -4.145104e+001  1.603995e+001 
3656250000  -4.164963e+001  1.433726e+001 
3659375000  -4.170410e+001  1.859981e+001 
3662500000  -4.118011e+001  1.775032e+001 
3665625000  -4.122793e+001  1.680871e+001 
3668750000  -4.030169e+001  1.976097e+001 
3671875000  -3.923597e+001  1.347259e+001 
3675000000  -3.983152e+001  8.219763e+000 
3678125000  -3.997693e+001  1.037266e+001 
3681250000  -3.996365e+001  1.145983e+001 
3684375000  -3.961782e+001  7.907802e+000 
3687500000  -3.961574e+001  7.083484e+000 
3690625000  -3.974339e+001  4.350807e+000 
3693750000  -4.023421e+001  8.148046e+000 
3696875000  -3.994028e+001  1.100179e+001 
3700000000  -3.874531e+001  8.527183e+000 
3703125000  -3.867556e+001  5.372967e+000 
3706250000  -3.926503e+001  6.497599e+000 
3709375000  -3.857061e+001  1.009856e+001 
3712500000  -3.735348e+001  8.194975e+000 
3715625000  -3.625089e+001  3.604663e+000 
3718750000  -3.564780e+001  1.439180e+000 
3721875000  -3.518084e+001  -3.722859e+000 
3725000000  -3.520397e+001  -9.524431e+000 
3728125000  -3.544275e+001  -9.338409e+000 
3731250000  -3.473196e+001  -1.048534e+001 
3734375000  -3.355305e+001  -1.722138e+001 
3737500000  -3.417451e+001  -2.372991e+001 
3740625000  -3.477017e+001  -2.740025e+001 
3743750000  -3.465198e+001  -2.848474e+001 
3746875000  -3.456702e+001  -3.260474e+001 
3750000000  -3.486791e+001  -3.307044e+001 
3753125000  -3.450179e+001  -3.365619e+001 
3756250000  -3.439801e+001  -3.480099e+001 
3759375000  -3.418924e+001  -3.504036e+001 
3762500000  -3.370170e+001  -3.874257e+001 
3765625000  -3.425547e+001  -4.145028e+001 
3768750000  -3.421562e+001  -4.000025e+001 
3771875000  -3.241044e+001  -4.189717e+001 
3775000000  -3.218842e+001  -5.000483e+001 
3778125000  -3.259034e+001  -5.127835e+001 
3781250000  -3.239873e+001  -5.450014e+001 
3784375000  -3.231377e+001  -5.651469e+001 
3787500000  -3.166903e+001  -5.982821e+001 
3790625000  -3.221279e+001  -6.554501e+001 
3793750000  -3.231430e+001  -6.674953e+001 
3796875000  -3.143056e+001  -6.785944e+001 
3800000000  -2.986622e+001  -7.097408e+001 
3803125000  -3.066706e+001  -7.845131e+001 
3806250000  -3.133988e+001  -8.053141e+001 
3809375000  -3.100529e+001  -8.160728e+001 
3812500000  -3.043048e+001  -8.617123e+001 
3815625000  -3.106047e+001  -9.390720e+001 
3818750000  -3.198795e+001  -9.568731e+001 
3821875000  -3.208658e+001  -8.638264e+001 
3825000000  -3.008909e+001  -8.210193e+001 
3828125000  -2.870336e+001  -9.631111e+001 
3831250000  -2.932580e+001  -1.105804e+002 
3834375000  -3.063249e+001  -1.113268e+002 
3837500000  -3.154493e+001  -1.063663e+002 
3840625000  -3.044359e+001  -1.073570e+002 
3843750000  -2.924589e+001  -1.172315e+002 
3846875000  -2.996660e+001  -1.244473e+002 
3850000000  -3.124641e+001  -1.192413e+002 
3853125000  -3.045490e+001  -1.153295e+002 
3856250000  -3.033394e+001  -1.205670e+002 
3859375000  -2.955544e+001  -1.252901e+002 
3862500000  -2.923124e+001  -1.324653e+002 
3865625000  -2.947338e+001  -1.375970e+002 
3868750000  -2.953135e+001  -1.377026e+002 
3871875000  -2.875674e+001  -1.407655e+002 
3875000000  -2.894939e+001  -1.497453e+002 
3878125000  -2.993465e+001  -1.523403e+002 
3881250000  -2.995877e+001  -1.480898e+002 
3884375000  -2.946107e+001  -1.535226e+002 
3887500000  -2.962424e+001  -1.582980e+002 
3890625000  -3.021524e+001  -1.603219e+002 
3893750000  -3.068156e+001  -1.612075e+002 
3896875000  -3.074424e+001  -1.610040e+002 
3900000000  -3.094943e+001  -1.622680e+002 
3903125000  -3.061777e+001  -1.638491e+002 
3906250000  -3.040877e+001  -1.649615e+002 
3909375000  -2.959533e+001  -1.674599e+002 
3912500000  -2.972739e+001  -1.749238e+002 
3915625000  -3.085542e+001  -1.740927e+002 
3918750000  -3.090173e+001  -1.719526e+002 
3921875000  -3.060802e+001  -1.740620e+002 
3925000000  -2.976776e+001  -1.742273e+002 
3928125000  -2.912527e+001  1.793511e+002 
3931250000  -2.957428e+001  1.756001e+002 
3934375000  -2.979941e+001  1.756725e+002 
3937500000  -3.003318e+001  1.752777e+002 
3940625000  -3.048834e+001  1.758139e+002 
3943750000  -2.944105e+001  1.770514e+002 
3946875000  -2.827241e+001  1.714367e+002 
3950000000  -2.877780e+001  1.638395e+002 
3953125000  -2.959327e+001  1.647440e+002 
3956250000  -2.880408e+001  1.674478e+002 
3959375000  -2.740225e+001  1.648478e+002 
3962500000  -2.687519e+001  1.606230e+002 
3965625000  -2.662174e+001  1.514950e+002 
3968750000  -2.753341e+001  1.449775e+002 
3971875000  -2.790243e+001  1.435150e+002 
3975000000  -2.721927e+001  1.418873e+002 
3978125000  -2.700818e+001  1.402937e+002 
3981250000  -2.678889e+001  1.358946e+002 
3984375000  -2.708184e+001  1.293130e+002 
3987500000  -2.749475e+001  1.271072e+002 
3990625000  -2.753268e+001  1.264388e+002 
3993750000  -2.775410e+001  1.232133e+002 
3996875000  -2.766180e+001  1.208021e+002 
4000000000  -2.779290e+001  1.185517e+002 
4003125000  -2.834994e+001  1.209459e+002 
4006250000  -2.692394e+001  1.212735e+002 
4009375000  -2.572013e+001  1.089975e+002 
4012500000  -2.686800e+001  1.014649e+002 
4015625000  -2.815658e+001  1.026232e+002 
4018750000  -2.824220e+001  1.047604e+002 
4021875000  -2.764555e+001  1.030385e+002 
4025000000  -2.723850e+001  9.804629e+001 
4028125000  -2.718435e+001  9.424585e+001 
4031250000  -2.765325e+001  9.082540e+001 
4034375000  -2.793622e+001  9.081682e+001 
4037500000  -2.745949e+001  9.273436e+001 
4040625000  -2.742441e+001  8.941044e+001 
4043750000  -2.778164e+001  8.905913e+001 
4046875000  -2.732700e+001  8.848547e+001 
4050000000  -2.681767e+001  8.330907e+001 
4053125000  -2.732077e+001  8.120046e+001 
4056250000  -2.789174e+001  8.514691e+001 
4059375000  -2.662556e+001  8.753043e+001 
4062500000  -2.529130e+001  8.255640e+001 
4065625000  -2.511570e+001  7.824405e+001 
4068750000  -2.487746e+001  7.383450e+001 
4071875000  -2.418368e+001  6.573071e+001 
4075000000  -2.459642e+001  5.936346e+001 
4078125000  -2.512428e+001  5.844230e+001 
4081250000  -2.459180e+001  5.617041e+001 
4084375000  -2.420559e+001  4.936330e+001 
4087500000  -2.457017e+001  4.302377e+001 
4090625000  -2.512962e+001  4.247463e+001 
4093750000  -2.499109e+001  4.299857e+001 
4096875000  -2.450361e+001  3.683680e+001 
4100000000  -2.523954e+001  3.005382e+001 
4103125000  -2.607633e+001  3.111854e+001 
4106250000  -2.590324e+001  3.555186e+001 
4109375000  -2.502616e+001  3.525251e+001 
4112500000  -2.445542e+001  2.848326e+001 
4115625000  -2.478810e+001  2.436436e+001 
4118750000  -2.484740e+001  2.100921e+001 
4121875000  -2.449275e+001  1.623315e+001 
4125000000  -2.488541e+001  1.115766e+001 
4128125000  -2.590956e+001  1.130857e+001 
4131250000  -2.556117e+001  1.956158e+001 
4134375000  -2.319396e+001  1.499661e+001 
4137500000  -2.303628e+001  -4.154920e+000 
4140625000  -2.516638e+001  -1.095418e+001 
4143750000  -2.650908e+001  -5.675900e+000 
4146875000  -2.613425e+001  1.638344e+000 
4150000000  -2.514667e+001  -2.180038e+000 
4153125000  -2.499863e+001  -8.505086e+000 
4156250000  -2.594098e+001  -1.114797e+001 
4159375000  -2.621551e+001  -6.425349e+000 
4162500000  -2.504193e+001  -2.436213e+000 
4165625000  -2.397352e+001  -6.446148e+000 
4168750000  -2.334856e+001  -1.322913e+001 
4171875000  -2.334479e+001  -2.274755e+001 
4175000000  -2.392278e+001  -2.812368e+001 
4178125000  -2.459044e+001  -2.820628e+001 
4181250000  -2.437409e+001  -2.863840e+001 
4184375000  -2.430221e+001  -3.219035e+001 
4187500000  -2.429519e+001  -3.492107e+001 
4190625000  -2.409813e+001  -4.003636e+001 
4193750000  -2.497517e+001  -4.388876e+001 
4196875000  -2.565318e+001  -4.402708e+001 
4200000000  -2.658698e+001  -4.206696e+001 
4203125000  -2.655544e+001  -2.805047e+001 
4206250000  -2.310554e+001  -2.662799e+001 
4209375000  -2.196039e+001  -4.752596e+001 
4212500000  -2.391843e+001  -5.606105e+001 
4215625000  -2.487790e+001  -4.995119e+001 
4218750000  -2.350171e+001  -4.320955e+001 
4221875000  -2.122192e+001  -5.255085e+001 
4225000000  -2.243962e+001  -6.474157e+001 
4228125000  -2.318971e+001  -5.967391e+001 
4231250000  -2.153872e+001  -6.369927e+001 
4234375000  -2.152887e+001  -7.206461e+001 
4237500000  -2.104122e+001  -7.538689e+001 
4240625000  -2.107648e+001  -8.406591e+001 
4243750000  -2.205935e+001  -9.066705e+001 
4246875000  -2.294106e+001  -9.080550e+001 
4250000000  -2.302294e+001  -8.775532e+001 
4253125000  -2.241091e+001  -9.003260e+001 
4256250000  -2.270319e+001  -9.378532e+001 
4259375000  -2.240299e+001  -9.584860e+001 
4262500000  -2.243560e+001  -9.970372e+001 
4265625000  -2.256415e+001  -9.942159e+001 
4268750000  -2.172943e+001  -1.034566e+002 
4271875000  -2.145576e+001  -1.093803e+002 
4275000000  -2.087266e+001  -1.154809e+002 
4278125000  -2.149231e+001  -1.267145e+002 
4281250000  -2.327407e+001  -1.288868e+002 
4284375000  -2.294074e+001  -1.281017e+002 
4287500000  -2.378919e+001  -1.316065e+002 
4290625000  -2.503548e+001  -1.217280e+002 
4293750000  -2.299905e+001  -1.165162e+002 
4296875000  -2.167364e+001  -1.280646e+002 
4300000000  -2.256283e+001  -1.370114e+002 
4303125000  -2.366592e+001  -1.359053e+002 
4306250000  -2.300140e+001  -1.295559e+002 
4309375000  -2.164442e+001  -1.319003e+002 
4312500000  -2.155524e+001  -1.403584e+002 
4315625000  -2.179521e+001  -1.466197e+002 
4318750000  -2.212399e+001  -1.501460e+002 
4321875000  -2.224635e+001  -1.491531e+002 
4325000000  -2.167769e+001  -1.486402e+002 
4328125000  -2.117915e+001  -1.551021e+002 
4331250000  -2.112553e+001  -1.631448e+002 
4334375000  -2.157881e+001  -1.681843e+002 
4337500000  -2.245506e+001  -1.703330e+002 
4340625000  -2.295319e+001  -1.668866e+002 
4343750000  -2.232794e+001  -1.664363e+002 
4346875000  -2.192609e+001  -1.719769e+002 
4350000000  -2.197255e+001  -1.769386e+002 
4353125000  -2.204340e+001  1.757321e+002 
4356250000  -2.385251e+001  1.750796e+002 
4359375000  -2.433446e+001  -1.718093e+002 
4362500000  -2.156935e+001  -1.698877e+002 
4365625000  -1.999179e+001  1.780194e+002 
4368750000  -2.075740e+001  1.663075e+002 
4371875000  -2.191469e+001  1.670919e+002 
4375000000  -2.158770e+001  1.679801e+002 
4378125000  -2.094028e+001  1.617936e+002 
4381250000  -2.111461e+001  1.567969e+002 
4384375000  -2.093595e+001  1.523235e+002 
4387500000  -2.168760e+001  1.464450e+002 
4390625000  -2.267920e+001  1.473035e+002 
4393750000  -2.202053e+001  1.492870e+002 
4396875000  -2.135518e+001  1.472267e+002 
4400000000  -2.085281e+001  1.401732e+002 
4403125000  -2.143011e+001  1.325190e+002 
4406250000  -2.226995e+001  1.313103e+002 
4409375000  -2.225360e+001  1.290777e+002 
4412500000  -2.326513e+001  1.263538e+002 
4415625000  -2.365751e+001  1.313643e+002 
4418750000  -2.243516e+001  1.358901e+002 
