!Agilent Technologies,E8363B,MY43030201,A.06.04.32
!Agilent E8363B: A.06.04.32
!Date: Tuesday, November 11, 2014 20:48:11
!Correction: S21(Response(S21)) 
!S1P File: Measurement: S21:
# Hz S  dB   R 50
3000000000  -2.650452e+001  1.556846e+002 
3003125000  -2.791957e+001  1.514309e+002 
3006250000  -2.796847e+001  1.484659e+002 
3009375000  -2.831864e+001  1.533258e+002 
3012500000  -2.780633e+001  1.530713e+002 
3015625000  -2.682204e+001  1.462340e+002 
3018750000  -2.769503e+001  1.454661e+002 
3021875000  -2.643775e+001  1.467259e+002 
3025000000  -2.512941e+001  1.433648e+002 
3028125000  -2.416539e+001  1.386895e+002 
3031250000  -2.311127e+001  1.273420e+002 
3034375000  -2.272894e+001  1.145625e+002 
3037500000  -2.308706e+001  1.025778e+002 
3040625000  -2.440047e+001  9.736037e+001 
3043750000  -2.512561e+001  9.311234e+001 
3046875000  -2.524906e+001  8.668905e+001 
3050000000  -2.696603e+001  7.950710e+001 
3053125000  -2.712813e+001  8.617629e+001 
3056250000  -2.645626e+001  8.940375e+001 
3059375000  -2.671127e+001  8.901674e+001 
3062500000  -2.522941e+001  8.522099e+001 
3065625000  -2.501682e+001  7.956576e+001 
3068750000  -2.470645e+001  7.238290e+001 
3071875000  -2.466074e+001  6.954562e+001 
3075000000  -2.460999e+001  6.577668e+001 
3078125000  -2.433040e+001  6.113088e+001 
3081250000  -2.500319e+001  5.712328e+001 
3084375000  -2.425210e+001  5.350097e+001 
3087500000  -2.411715e+001  4.986488e+001 
3090625000  -2.384422e+001  4.012757e+001 
3093750000  -2.425628e+001  3.203684e+001 
3096875000  -2.553975e+001  2.577527e+001 
3100000000  -2.568453e+001  2.477573e+001 
3103125000  -2.605912e+001  2.618443e+001 
3106250000  -2.579948e+001  2.260259e+001 
3109375000  -2.606566e+001  1.931075e+001 
3112500000  -2.615791e+001  1.827069e+001 
3115625000  -2.595166e+001  1.405788e+001 
3118750000  -2.646272e+001  1.514491e+001 
3121875000  -2.576846e+001  7.292575e+000 
3125000000  -2.688995e+001  3.471337e+000 
3128125000  -2.813488e+001  1.130360e+001 
3131250000  -2.598612e+001  1.254047e+001 
3134375000  -2.463428e+001  -1.270441e+000 
3137500000  -2.528944e+001  -1.517950e+001 
3140625000  -2.691565e+001  -1.688209e+001 
3143750000  -2.793010e+001  -1.290546e+001 
3146875000  -2.754149e+001  -1.089173e+001 
3150000000  -2.655052e+001  -8.408113e+000 
3153125000  -2.647378e+001  -1.625854e+001 
3156250000  -2.744764e+001  -1.088490e+001 
3159375000  -2.598270e+001  -7.945785e+000 
3162500000  -2.390433e+001  -2.048426e+001 
3165625000  -2.478060e+001  -3.171533e+001 
3168750000  -2.522052e+001  -3.087235e+001 
3171875000  -2.427516e+001  -3.496654e+001 
3175000000  -2.485476e+001  -4.261081e+001 
3178125000  -2.468652e+001  -4.105420e+001 
3181250000  -2.353187e+001  -4.490018e+001 
3184375000  -2.269076e+001  -5.716291e+001 
3187500000  -2.381370e+001  -7.243282e+001 
3190625000  -2.662921e+001  -8.004753e+001 
3193750000  -2.722897e+001  -7.019946e+001 
3196875000  -2.677554e+001  -6.495657e+001 
3200000000  -2.593710e+001  -6.672349e+001 
3203125000  -2.502772e+001  -7.241851e+001 
3206250000  -2.534489e+001  -7.864961e+001 
3209375000  -2.487503e+001  -8.356635e+001 
3212500000  -2.497312e+001  -9.041078e+001 
3215625000  -2.509951e+001  -9.488242e+001 
3218750000  -2.588427e+001  -1.010094e+002 
3221875000  -2.690496e+001  -1.061172e+002 
3225000000  -2.648678e+001  -1.065732e+002 
3228125000  -2.676849e+001  -1.110648e+002 
3231250000  -2.754905e+001  -1.140761e+002 
3234375000  -2.743602e+001  -1.126799e+002 
3237500000  -2.747891e+001  -1.140935e+002 
3240625000  -2.716633e+001  -1.159841e+002 
3243750000  -2.676479e+001  -1.227685e+002 
3246875000  -2.719728e+001  -1.291425e+002 
3250000000  -2.766371e+001  -1.314141e+002 
3253125000  -2.783631e+001  -1.326356e+002 
3256250000  -2.769655e+001  -1.387139e+002 
3259375000  -2.800486e+001  -1.461986e+002 
3262500000  -2.926562e+001  -1.488256e+002 
3265625000  -2.993775e+001  -1.457926e+002 
3268750000  -2.992990e+001  -1.433069e+002 
3271875000  -2.972382e+001  -1.422639e+002 
3275000000  -2.859857e+001  -1.470185e+002 
3278125000  -2.905308e+001  -1.533980e+002 
3281250000  -2.934057e+001  -1.515601e+002 
3284375000  -2.890151e+001  -1.571256e+002 
3287500000  -2.907135e+001  -1.602139e+002 
3290625000  -2.952245e+001  -1.645206e+002 
3293750000  -2.920911e+001  -1.701228e+002 
3296875000  -3.018262e+001  -1.700225e+002 
3300000000  -3.014398e+001  -1.686742e+002 
3303125000  -2.897721e+001  -1.728792e+002 
3306250000  -2.871938e+001  -1.792894e+002 
3309375000  -2.855349e+001  1.756589e+002 
3312500000  -2.850998e+001  1.655058e+002 
3315625000  -2.948501e+001  1.572531e+002 
3318750000  -3.086803e+001  1.548812e+002 
3321875000  -3.216443e+001  1.545719e+002 
3325000000  -3.264364e+001  1.598806e+002 
3328125000  -3.249334e+001  1.615986e+002 
3331250000  -3.125614e+001  1.691248e+002 
3334375000  -2.885271e+001  1.597525e+002 
3337500000  -2.878083e+001  1.410803e+002 
3340625000  -3.013014e+001  1.303670e+002 
3343750000  -3.205465e+001  1.291585e+002 
3346875000  -3.266637e+001  1.301165e+002 
3350000000  -3.196511e+001  1.293749e+002 
3353125000  -3.211496e+001  1.246513e+002 
3356250000  -3.177344e+001  1.170017e+002 
3359375000  -3.270990e+001  1.084119e+002 
3362500000  -3.397639e+001  1.028984e+002 
3365625000  -3.453685e+001  1.009005e+002 
3368750000  -3.544849e+001  9.944953e+001 
3371875000  -3.598049e+001  9.615987e+001 
3375000000  -3.761938e+001  9.460436e+001 
3378125000  -3.863224e+001  9.425797e+001 
3381250000  -4.013764e+001  1.007435e+002 
3384375000  -3.939973e+001  1.219226e+002 
3387500000  -3.619601e+001  1.077386e+002 
3390625000  -3.800870e+001  8.990286e+001 
3393750000  -3.970657e+001  9.384470e+001 
3396875000  -3.883717e+001  9.845534e+001 
3400000000  -3.902983e+001  9.000488e+001 
3403125000  -3.983020e+001  8.504272e+001 
3406250000  -4.071894e+001  8.831358e+001 
3409375000  -4.142669e+001  8.632285e+001 
3412500000  -4.233472e+001  8.583071e+001 
3415625000  -4.284845e+001  8.958271e+001 
3418750000  -4.359518e+001  9.321487e+001 
3421875000  -4.412505e+001  1.030135e+002 
3425000000  -4.279226e+001  1.057673e+002 
3428125000  -4.193156e+001  1.045358e+002 
3431250000  -4.215556e+001  1.009198e+002 
3434375000  -4.146833e+001  9.915067e+001 
3437500000  -4.208788e+001  9.543154e+001 
3440625000  -4.226112e+001  9.933955e+001 
3443750000  -4.092310e+001  1.009879e+002 
3446875000  -4.027635e+001  9.768844e+001 
3450000000  -3.994150e+001  8.685825e+001 
3453125000  -4.031725e+001  7.885629e+001 
3456250000  -4.155465e+001  7.561438e+001 
3459375000  -4.236102e+001  7.686485e+001 
3462500000  -4.249632e+001  7.556623e+001 
3465625000  -4.255786e+001  7.444375e+001 
3468750000  -4.296906e+001  6.829153e+001 
3471875000  -4.324754e+001  7.107948e+001 
3475000000  -4.309449e+001  6.726339e+001 
3478125000  -4.381050e+001  6.118720e+001 
3481250000  -4.510077e+001  5.963560e+001 
3484375000  -4.634398e+001  6.588371e+001 
3487500000  -4.563629e+001  6.809194e+001 
3490625000  -4.546671e+001  6.665115e+001 
3493750000  -4.611338e+001  6.179033e+001 
3496875000  -4.709932e+001  6.447836e+001 
3500000000  -4.809323e+001  7.368037e+001 
3503125000  -4.842950e+001  8.081550e+001 
3506250000  -4.727079e+001  7.664170e+001 
3509375000  -4.695629e+001  7.847445e+001 
3512500000  -4.768865e+001  8.023495e+001 
3515625000  -4.761880e+001  8.318828e+001 
3518750000  -4.865348e+001  8.800506e+001 
3521875000  -4.763917e+001  8.818213e+001 
3525000000  -4.788358e+001  8.960079e+001 
3528125000  -4.795852e+001  1.023365e+002 
3531250000  -4.595916e+001  1.000081e+002 
3534375000  -4.516282e+001  9.359576e+001 
3537500000  -4.539204e+001  8.856467e+001 
3540625000  -4.538743e+001  8.896623e+001 
3543750000  -4.601675e+001  9.175191e+001 
3546875000  -4.524126e+001  1.032873e+002 
3550000000  -4.293812e+001  1.063263e+002 
3553125000  -4.119560e+001  9.188359e+001 
3556250000  -4.244913e+001  8.355172e+001 
3559375000  -4.214027e+001  8.519997e+001 
3562500000  -4.082843e+001  7.928168e+001 
3565625000  -4.191833e+001  7.142664e+001 
3568750000  -4.165116e+001  7.604337e+001 
3571875000  -4.138013e+001  7.509616e+001 
3575000000  -4.102786e+001  6.918890e+001 
3578125000  -4.148141e+001  6.648085e+001 
3581250000  -4.146297e+001  6.870551e+001 
3584375000  -4.084217e+001  6.664349e+001 
3587500000  -4.000588e+001  6.005318e+001 
3590625000  -4.021350e+001  5.223680e+001 
3593750000  -4.126098e+001  4.850092e+001 
3596875000  -4.112580e+001  5.743381e+001 
3600000000  -3.968445e+001  5.490622e+001 
3603125000  -3.987250e+001  4.218813e+001 
3606250000  -4.034356e+001  3.889659e+001 
3609375000  -4.077248e+001  3.892029e+001 
3612500000  -4.147334e+001  3.770219e+001 
3615625000  -4.143597e+001  3.494743e+001 
3618750000  -4.207703e+001  3.548648e+001 
3621875000  -4.162611e+001  3.462669e+001 
3625000000  -4.186002e+001  3.671626e+001 
3628125000  -4.185993e+001  3.541692e+001 
3631250000  -4.158168e+001  3.078019e+001 
3634375000  -4.266893e+001  3.143061e+001 
3637500000  -4.219099e+001  3.768644e+001 
3640625000  -4.097107e+001  3.936448e+001 
3643750000  -4.072491e+001  3.330698e+001 
3646875000  -4.127647e+001  2.807343e+001 
3650000000  -4.173096e+001  2.758479e+001 
3653125000  -4.145503e+001  2.716298e+001 
3656250000  -4.182263e+001  2.558423e+001 
3659375000  -4.220616e+001  2.987368e+001 
3662500000  -4.128662e+001  2.962443e+001 
3665625000  -4.135886e+001  2.774507e+001 
3668750000  -4.049076e+001  3.158118e+001 
3671875000  -3.950790e+001  2.612584e+001 
3675000000  -4.005098e+001  2.159501e+001 
3678125000  -4.047567e+001  2.183622e+001 
3681250000  -3.991868e+001  2.135913e+001 
3684375000  -3.977475e+001  2.075914e+001 
3687500000  -3.984477e+001  1.897243e+001 
3690625000  -3.984924e+001  1.600530e+001 
3693750000  -4.013054e+001  1.837770e+001 
3696875000  -4.012530e+001  2.083088e+001 
3700000000  -3.904960e+001  1.983702e+001 
3703125000  -3.897579e+001  1.717339e+001 
3706250000  -3.939520e+001  1.850347e+001 
3709375000  -3.876632e+001  2.137487e+001 
3712500000  -3.751261e+001  2.131252e+001 
3715625000  -3.662293e+001  1.625743e+001 
3718750000  -3.581844e+001  1.356109e+001 
3721875000  -3.521556e+001  7.905708e+000 
3725000000  -3.537915e+001  2.337758e+000 
3728125000  -3.551144e+001  2.371221e+000 
3731250000  -3.478570e+001  1.153394e+000 
3734375000  -3.366974e+001  -4.938052e+000 
3737500000  -3.438702e+001  -1.210432e+001 
3740625000  -3.487046e+001  -1.462533e+001 
3743750000  -3.473449e+001  -1.679743e+001 
3746875000  -3.464571e+001  -2.045612e+001 
3750000000  -3.505440e+001  -2.149949e+001 
3753125000  -3.468684e+001  -2.109340e+001 
3756250000  -3.461213e+001  -2.180879e+001 
3759375000  -3.429803e+001  -2.292160e+001 
3762500000  -3.375404e+001  -2.679801e+001 
3765625000  -3.419840e+001  -2.910163e+001 
3768750000  -3.427382e+001  -2.694592e+001 
3771875000  -3.255026e+001  -2.908839e+001 
3775000000  -3.236804e+001  -3.732315e+001 
3778125000  -3.268220e+001  -3.876379e+001 
3781250000  -3.241969e+001  -4.200721e+001 
3784375000  -3.242185e+001  -4.415425e+001 
3787500000  -3.165756e+001  -4.693312e+001 
3790625000  -3.231432e+001  -5.334536e+001 
3793750000  -3.256597e+001  -5.448003e+001 
3796875000  -3.158617e+001  -5.468232e+001 
3800000000  -3.002685e+001  -5.876883e+001 
3803125000  -3.075483e+001  -6.559398e+001 
3806250000  -3.130111e+001  -6.865083e+001 
3809375000  -3.118278e+001  -6.927598e+001 
3812500000  -3.045901e+001  -7.371793e+001 
3815625000  -3.099728e+001  -8.139569e+001 
3818750000  -3.197873e+001  -8.340952e+001 
3821875000  -3.216899e+001  -7.408797e+001 
3825000000  -3.024324e+001  -7.009878e+001 
3828125000  -2.887135e+001  -8.392300e+001 
3831250000  -2.931638e+001  -9.768530e+001 
3834375000  -3.071879e+001  -9.903286e+001 
3837500000  -3.154097e+001  -9.419958e+001 
3840625000  -3.048569e+001  -9.429697e+001 
3843750000  -2.935425e+001  -1.046183e+002 
3846875000  -2.997031e+001  -1.114850e+002 
3850000000  -3.128259e+001  -1.066641e+002 
3853125000  -3.050357e+001  -1.037790e+002 
3856250000  -3.035230e+001  -1.084380e+002 
3859375000  -2.978716e+001  -1.135031e+002 
3862500000  -2.936053e+001  -1.201772e+002 
3865625000  -2.957347e+001  -1.249041e+002 
3868750000  -2.962027e+001  -1.251641e+002 
3871875000  -2.891521e+001  -1.282216e+002 
3875000000  -2.903469e+001  -1.366445e+002 
3878125000  -2.995193e+001  -1.394191e+002 
3881250000  -3.016415e+001  -1.361655e+002 
3884375000  -2.967680e+001  -1.403713e+002 
3887500000  -2.974731e+001  -1.448353e+002 
3890625000  -3.022880e+001  -1.467974e+002 
3893750000  -3.060441e+001  -1.484103e+002 
3896875000  -3.069770e+001  -1.477650e+002 
3900000000  -3.098421e+001  -1.487113e+002 
3903125000  -3.069304e+001  -1.515285e+002 
3906250000  -3.036151e+001  -1.519870e+002 
3909375000  -2.965914e+001  -1.543743e+002 
3912500000  -2.960826e+001  -1.613145e+002 
3915625000  -3.089927e+001  -1.608784e+002 
3918750000  -3.093710e+001  -1.595172e+002 
3921875000  -3.061836e+001  -1.608764e+002 
3925000000  -2.985308e+001  -1.615063e+002 
3928125000  -2.912614e+001  -1.670852e+002 
3931250000  -2.950457e+001  -1.712682e+002 
3934375000  -2.975521e+001  -1.703773e+002 
3937500000  -2.991603e+001  -1.718570e+002 
3940625000  -3.044260e+001  -1.718597e+002 
3943750000  -2.943474e+001  -1.700954e+002 
3946875000  -2.815004e+001  -1.753479e+002 
3950000000  -2.863472e+001  1.771877e+002 
3953125000  -2.956344e+001  1.772969e+002 
3956250000  -2.883353e+001  1.798275e+002 
3959375000  -2.744889e+001  1.769607e+002 
3962500000  -2.692183e+001  1.732244e+002 
3965625000  -2.660148e+001  1.643401e+002 
3968750000  -2.745840e+001  1.576585e+002 
3971875000  -2.793755e+001  1.560628e+002 
3975000000  -2.725343e+001  1.546263e+002 
3978125000  -2.705917e+001  1.532487e+002 
3981250000  -2.676858e+001  1.491548e+002 
3984375000  -2.704460e+001  1.424417e+002 
3987500000  -2.750863e+001  1.405272e+002 
3990625000  -2.751373e+001  1.393940e+002 
3993750000  -2.782787e+001  1.362491e+002 
3996875000  -2.767902e+001  1.336476e+002 
4000000000  -2.777064e+001  1.318504e+002 
4003125000  -2.834023e+001  1.340393e+002 
4006250000  -2.703587e+001  1.346001e+002 
4009375000  -2.576893e+001  1.221355e+002 
4012500000  -2.677234e+001  1.151454e+002 
4015625000  -2.804003e+001  1.152625e+002 
4018750000  -2.820672e+001  1.178417e+002 
4021875000  -2.760571e+001  1.162258e+002 
4025000000  -2.723759e+001  1.120313e+002 
4028125000  -2.714420e+001  1.075619e+002 
4031250000  -2.764307e+001  1.040329e+002 
4034375000  -2.787515e+001  1.044356e+002 
4037500000  -2.740164e+001  1.062886e+002 
4040625000  -2.731507e+001  1.031508e+002 
4043750000  -2.763806e+001  1.021083e+002 
4046875000  -2.718183e+001  1.016623e+002 
4050000000  -2.664704e+001  9.623128e+001 
4053125000  -2.709591e+001  9.363412e+001 
4056250000  -2.775739e+001  9.802879e+001 
4059375000  -2.657001e+001  9.982021e+001 
4062500000  -2.515962e+001  9.578426e+001 
4065625000  -2.499751e+001  9.093509e+001 
4068750000  -2.473664e+001  8.642355e+001 
4071875000  -2.409413e+001  7.860025e+001 
4075000000  -2.446853e+001  7.237067e+001 
4078125000  -2.502540e+001  7.120929e+001 
4081250000  -2.449686e+001  6.889388e+001 
4084375000  -2.413249e+001  6.235248e+001 
4087500000  -2.445720e+001  5.605263e+001 
4090625000  -2.503641e+001  5.445842e+001 
4093750000  -2.486782e+001  5.570167e+001 
4096875000  -2.445801e+001  4.981483e+001 
4100000000  -2.509710e+001  4.310551e+001 
4103125000  -2.598996e+001  4.319903e+001 
4106250000  -2.594345e+001  4.846870e+001 
4109375000  -2.505073e+001  4.766890e+001 
4112500000  -2.449648e+001  4.101741e+001 
4115625000  -2.475406e+001  3.670607e+001 
4118750000  -2.491191e+001  3.393055e+001 
4121875000  -2.450767e+001  2.930869e+001 
4125000000  -2.479801e+001  2.450393e+001 
4128125000  -2.581072e+001  2.428715e+001 
4131250000  -2.558653e+001  3.252614e+001 
4134375000  -2.324554e+001  2.843940e+001 
4137500000  -2.298781e+001  1.006664e+001 
4140625000  -2.514163e+001  2.441477e+000 
4143750000  -2.644939e+001  7.061392e+000 
4146875000  -2.610678e+001  1.448221e+001 
4150000000  -2.512156e+001  1.101879e+001 
4153125000  -2.500835e+001  5.283219e+000 
4156250000  -2.583585e+001  2.322139e+000 
4159375000  -2.609218e+001  6.598958e+000 
4162500000  -2.499465e+001  1.085015e+001 
4165625000  -2.391056e+001  7.003497e+000 
4168750000  -2.325402e+001  -4.436822e-002 
4171875000  -2.325757e+001  -9.278659e+000 
4175000000  -2.378076e+001  -1.498184e+001 
4178125000  -2.444641e+001  -1.507733e+001 
4181250000  -2.422841e+001  -1.558457e+001 
4184375000  -2.414245e+001  -1.884445e+001 
4187500000  -2.420381e+001  -2.153261e+001 
4190625000  -2.396453e+001  -2.696433e+001 
4193750000  -2.472291e+001  -3.099101e+001 
4196875000  -2.543243e+001  -3.132541e+001 
4200000000  -2.625941e+001  -2.935748e+001 
4203125000  -2.642402e+001  -1.657578e+001 
4206250000  -2.315092e+001  -1.412467e+001 
4209375000  -2.182125e+001  -3.424076e+001 
4212500000  -2.375175e+001  -4.340931e+001 
4215625000  -2.474145e+001  -3.761612e+001 
4218750000  -2.345584e+001  -3.035181e+001 
4221875000  -2.110973e+001  -3.939998e+001 
4225000000  -2.230525e+001  -5.240698e+001 
4228125000  -2.312004e+001  -4.734437e+001 
4231250000  -2.155655e+001  -5.072856e+001 
4234375000  -2.146013e+001  -5.920150e+001 
4237500000  -2.103408e+001  -6.249860e+001 
4240625000  -2.105560e+001  -7.064565e+001 
4243750000  -2.197900e+001  -7.770433e+001 
4246875000  -2.282279e+001  -7.778226e+001 
4250000000  -2.295198e+001  -7.471500e+001 
4253125000  -2.229139e+001  -7.647504e+001 
4256250000  -2.257484e+001  -8.088795e+001 
4259375000  -2.237679e+001  -8.285618e+001 
4262500000  -2.234784e+001  -8.623826e+001 
4265625000  -2.255323e+001  -8.614512e+001 
4268750000  -2.170013e+001  -9.008620e+001 
4271875000  -2.145028e+001  -9.573922e+001 
4275000000  -2.077345e+001  -1.018791e+002 
4278125000  -2.135139e+001  -1.130345e+002 
4281250000  -2.314964e+001  -1.156179e+002 
4284375000  -2.288620e+001  -1.148178e+002 
4287500000  -2.356799e+001  -1.182603e+002 
4290625000  -2.491088e+001  -1.089531e+002 
4293750000  -2.294076e+001  -1.030282e+002 
4296875000  -2.153891e+001  -1.145152e+002 
4300000000  -2.235367e+001  -1.240970e+002 
4303125000  -2.347795e+001  -1.229932e+002 
4306250000  -2.295254e+001  -1.167500e+002 
4309375000  -2.152653e+001  -1.185795e+002 
4312500000  -2.142935e+001  -1.272011e+002 
4315625000  -2.161464e+001  -1.333645e+002 
4318750000  -2.193958e+001  -1.365374e+002 
4321875000  -2.210029e+001  -1.362525e+002 
4325000000  -2.152382e+001  -1.355772e+002 
4328125000  -2.109521e+001  -1.421119e+002 
4331250000  -2.098248e+001  -1.499267e+002 
4334375000  -2.138463e+001  -1.549443e+002 
4337500000  -2.218120e+001  -1.574789e+002 
4340625000  -2.275934e+001  -1.543171e+002 
4343750000  -2.222515e+001  -1.537489e+002 
4346875000  -2.184047e+001  -1.590335e+002 
4350000000  -2.180482e+001  -1.635306e+002 
4353125000  -2.183850e+001  -1.711190e+002 
4356250000  -2.354085e+001  -1.728357e+002 
4359375000  -2.419457e+001  -1.596532e+002 
4362500000  -2.168357e+001  -1.576076e+002 
4365625000  -1.997043e+001  -1.686474e+002 
4368750000  -2.060658e+001  1.790999e+002 
4371875000  -2.188984e+001  1.796849e+002 
4375000000  -2.159787e+001  -1.791720e+002 
4378125000  -2.091541e+001  1.749825e+002 
4381250000  -2.106801e+001  1.697732e+002 
4384375000  -2.086409e+001  1.654459e+002 
4387500000  -2.155175e+001  1.596106e+002 
4390625000  -2.261289e+001  1.603982e+002 
4393750000  -2.196213e+001  1.624372e+002 
4396875000  -2.124697e+001  1.603001e+002 
4400000000  -2.080993e+001  1.536694e+002 
4403125000  -2.130000e+001  1.458360e+002 
4406250000  -2.219918e+001  1.445244e+002 
4409375000  -2.212533e+001  1.421885e+002 
4412500000  -2.310961e+001  1.395636e+002 
4415625000  -2.353934e+001  1.440420e+002 
4418750000  -2.240234e+001  1.489715e+002 
4421875000  -2.094275e+001  1.450530e+002 
