!Agilent Technologies,E8363B,MY43030201,A.06.04.32
!Agilent E8363B: A.06.04.32
!Date: Tuesday, November 11, 2014 20:53:38
!Correction: S21(Response(S21)) 
!S1P File: Measurement: S21:
# Hz S  dB   R 50
3000000000  -2.661796e+001  1.497030e+002 
3003125000  -2.799491e+001  1.453187e+002 
3006250000  -2.803568e+001  1.425227e+002 
3009375000  -2.842910e+001  1.474192e+002 
3012500000  -2.785221e+001  1.472208e+002 
3015625000  -2.693239e+001  1.399045e+002 
3018750000  -2.775988e+001  1.393851e+002 
3021875000  -2.647314e+001  1.406331e+002 
3025000000  -2.517443e+001  1.375390e+002 
3028125000  -2.421334e+001  1.320939e+002 
3031250000  -2.319251e+001  1.213847e+002 
3034375000  -2.283495e+001  1.081989e+002 
3037500000  -2.318887e+001  9.618242e+001 
3040625000  -2.450994e+001  9.110641e+001 
3043750000  -2.522438e+001  8.680867e+001 
3046875000  -2.534811e+001  8.059025e+001 
3050000000  -2.707285e+001  7.368744e+001 
3053125000  -2.718744e+001  7.991460e+001 
3056250000  -2.654408e+001  8.297476e+001 
3059375000  -2.677199e+001  8.257469e+001 
3062500000  -2.527230e+001  7.874832e+001 
3065625000  -2.504444e+001  7.299590e+001 
3068750000  -2.479014e+001  6.624276e+001 
3071875000  -2.475835e+001  6.305738e+001 
3075000000  -2.472842e+001  5.917379e+001 
3078125000  -2.447309e+001  5.466593e+001 
3081250000  -2.510018e+001  5.067764e+001 
3084375000  -2.435402e+001  4.693381e+001 
3087500000  -2.424401e+001  4.334310e+001 
3090625000  -2.394430e+001  3.360843e+001 
3093750000  -2.442979e+001  2.579444e+001 
3096875000  -2.569896e+001  1.992707e+001 
3100000000  -2.583159e+001  1.860908e+001 
3103125000  -2.619024e+001  1.986027e+001 
3106250000  -2.592109e+001  1.634857e+001 
3109375000  -2.615994e+001  1.294676e+001 
3112500000  -2.629045e+001  1.176927e+001 
3115625000  -2.607837e+001  7.585743e+000 
3118750000  -2.657574e+001  8.777157e+000 
3121875000  -2.594029e+001  9.299251e-001 
3125000000  -2.710855e+001  -2.532776e+000 
3128125000  -2.827823e+001  5.700387e+000 
3131250000  -2.611135e+001  6.220866e+000 
3134375000  -2.474996e+001  -7.092585e+000 
3137500000  -2.536982e+001  -2.086829e+001 
3140625000  -2.698424e+001  -2.240990e+001 
3143750000  -2.802570e+001  -1.864915e+001 
3146875000  -2.763536e+001  -1.667345e+001 
3150000000  -2.658560e+001  -1.424540e+001 
3153125000  -2.659460e+001  -2.214988e+001 
3156250000  -2.751763e+001  -1.664674e+001 
3159375000  -2.593353e+001  -1.396679e+001 
3162500000  -2.394597e+001  -2.689848e+001 
3165625000  -2.490765e+001  -3.766570e+001 
3168750000  -2.525801e+001  -3.686364e+001 
3171875000  -2.431420e+001  -4.120322e+001 
3175000000  -2.495305e+001  -4.899089e+001 
3178125000  -2.474716e+001  -4.722047e+001 
3181250000  -2.354746e+001  -5.142828e+001 
3184375000  -2.276379e+001  -6.335503e+001 
3187500000  -2.388524e+001  -7.861681e+001 
3190625000  -2.662884e+001  -8.641434e+001 
3193750000  -2.721774e+001  -7.677415e+001 
3196875000  -2.684719e+001  -7.119459e+001 
3200000000  -2.595674e+001  -7.322482e+001 
3203125000  -2.511727e+001  -7.898390e+001 
3206250000  -2.544272e+001  -8.516602e+001 
3209375000  -2.494879e+001  -9.010352e+001 
3212500000  -2.511422e+001  -9.690013e+001 
3215625000  -2.522346e+001  -1.008648e+002 
3218750000  -2.593612e+001  -1.072974e+002 
3221875000  -2.694510e+001  -1.124444e+002 
3225000000  -2.656241e+001  -1.129607e+002 
3228125000  -2.690542e+001  -1.173160e+002 
3231250000  -2.762864e+001  -1.197922e+002 
3234375000  -2.745220e+001  -1.192854e+002 
3237500000  -2.753243e+001  -1.207681e+002 
3240625000  -2.716432e+001  -1.224767e+002 
3243750000  -2.684194e+001  -1.289279e+002 
3246875000  -2.732433e+001  -1.355588e+002 
3250000000  -2.773669e+001  -1.372483e+002 
3253125000  -2.794709e+001  -1.388074e+002 
3256250000  -2.781376e+001  -1.446828e+002 
3259375000  -2.809494e+001  -1.528185e+002 
3262500000  -2.937166e+001  -1.552464e+002 
3265625000  -3.008316e+001  -1.518362e+002 
3268750000  -2.998145e+001  -1.492838e+002 
3271875000  -2.974809e+001  -1.482121e+002 
3275000000  -2.867545e+001  -1.534427e+002 
3278125000  -2.919136e+001  -1.595109e+002 
3281250000  -2.941786e+001  -1.580952e+002 
3284375000  -2.897512e+001  -1.635133e+002 
3287500000  -2.913633e+001  -1.663109e+002 
3290625000  -2.952565e+001  -1.708525e+002 
3293750000  -2.922891e+001  -1.765051e+002 
3296875000  -3.017856e+001  -1.762408e+002 
3300000000  -3.012027e+001  -1.752726e+002 
3303125000  -2.900207e+001  -1.793616e+002 
3306250000  -2.875429e+001  1.740371e+002 
3309375000  -2.856583e+001  1.689940e+002 
3312500000  -2.861951e+001  1.586404e+002 
3315625000  -2.965738e+001  1.508799e+002 
3318750000  -3.091215e+001  1.484973e+002 
3321875000  -3.219113e+001  1.481017e+002 
3325000000  -3.273416e+001  1.529511e+002 
3328125000  -3.250716e+001  1.551161e+002 
3331250000  -3.138484e+001  1.620529e+002 
3334375000  -2.879994e+001  1.525980e+002 
3337500000  -2.890442e+001  1.343557e+002 
3340625000  -3.023996e+001  1.228559e+002 
3343750000  -3.222777e+001  1.218125e+002 
3346875000  -3.272100e+001  1.232929e+002 
3350000000  -3.204116e+001  1.222652e+002 
3353125000  -3.212499e+001  1.178551e+002 
3356250000  -3.186368e+001  1.103369e+002 
3359375000  -3.275159e+001  1.016382e+002 
3362500000  -3.407524e+001  9.582895e+001 
3365625000  -3.477452e+001  9.435352e+001 
3368750000  -3.575257e+001  9.320931e+001 
3371875000  -3.614642e+001  8.919790e+001 
3375000000  -3.764986e+001  8.755465e+001 
3378125000  -3.888213e+001  8.682827e+001 
3381250000  -4.031206e+001  9.510233e+001 
3384375000  -3.931328e+001  1.166222e+002 
3387500000  -3.635404e+001  1.031591e+002 
3390625000  -3.814956e+001  8.444376e+001 
3393750000  -4.014606e+001  8.841656e+001 
3396875000  -3.926321e+001  9.080602e+001 
3400000000  -3.920858e+001  8.342515e+001 
3403125000  -4.014562e+001  7.864719e+001 
3406250000  -4.121298e+001  8.176644e+001 
3409375000  -4.151864e+001  7.917361e+001 
3412500000  -4.223917e+001  7.948134e+001 
3415625000  -4.345544e+001  8.547923e+001 
3418750000  -4.353144e+001  8.833715e+001 
3421875000  -4.395874e+001  9.627288e+001 
3425000000  -4.316518e+001  9.770628e+001 
3428125000  -4.211826e+001  9.922483e+001 
3431250000  -4.197380e+001  9.425290e+001 
3434375000  -4.185796e+001  8.995582e+001 
3437500000  -4.200991e+001  8.928578e+001 
3440625000  -4.260085e+001  9.233575e+001 
3443750000  -4.130407e+001  9.503098e+001 
3446875000  -4.045926e+001  8.943271e+001 
3450000000  -4.035506e+001  8.003500e+001 
3453125000  -4.062096e+001  7.132342e+001 
3456250000  -4.206833e+001  6.739785e+001 
3459375000  -4.286502e+001  6.977679e+001 
3462500000  -4.297790e+001  7.038179e+001 
3465625000  -4.264642e+001  6.698062e+001 
3468750000  -4.343611e+001  6.420872e+001 
3471875000  -4.365921e+001  6.491951e+001 
3475000000  -4.357454e+001  5.772528e+001 
3478125000  -4.373437e+001  5.606301e+001 
3481250000  -4.515597e+001  5.382364e+001 
3484375000  -4.692937e+001  5.745798e+001 
3487500000  -4.664914e+001  6.080479e+001 
3490625000  -4.610485e+001  6.046269e+001 
3493750000  -4.683449e+001  5.712656e+001 
3496875000  -4.740959e+001  6.020081e+001 
3500000000  -4.903186e+001  6.794694e+001 
3503125000  -4.848862e+001  7.475557e+001 
3506250000  -4.720449e+001  7.486558e+001 
3509375000  -4.778225e+001  7.569750e+001 
3512500000  -4.825592e+001  7.254115e+001 
3515625000  -4.799175e+001  7.809647e+001 
3518750000  -4.896521e+001  8.176636e+001 
3521875000  -4.815533e+001  8.589393e+001 
3525000000  -4.824232e+001  8.905048e+001 
3528125000  -4.776119e+001  9.823486e+001 
3531250000  -4.606622e+001  9.874720e+001 
3534375000  -4.522371e+001  8.996811e+001 
3537500000  -4.514690e+001  8.709163e+001 
3540625000  -4.538706e+001  9.119089e+001 
3543750000  -4.589355e+001  8.989207e+001 
3546875000  -4.560147e+001  9.937537e+001 
3550000000  -4.271681e+001  1.051189e+002 
3553125000  -4.117756e+001  8.953722e+001 
3556250000  -4.207395e+001  8.038863e+001 
3559375000  -4.166786e+001  8.310204e+001 
3562500000  -4.064140e+001  7.594077e+001 
3565625000  -4.165828e+001  6.878263e+001 
3568750000  -4.165744e+001  7.401001e+001 
3571875000  -4.130003e+001  7.142644e+001 
3575000000  -4.083226e+001  6.626276e+001 
3578125000  -4.082880e+001  6.310775e+001 
3581250000  -4.113114e+001  6.270282e+001 
3584375000  -4.033959e+001  6.230503e+001 
3587500000  -3.956157e+001  5.506672e+001 
3590625000  -3.985775e+001  4.587259e+001 
3593750000  -4.091734e+001  4.387910e+001 
3596875000  -4.114994e+001  5.387111e+001 
3600000000  -3.954236e+001  5.107936e+001 
3603125000  -3.944860e+001  3.657498e+001 
3606250000  -4.013180e+001  3.335318e+001 
3609375000  -4.056003e+001  3.291500e+001 
3612500000  -4.114628e+001  3.028978e+001 
3615625000  -4.148374e+001  2.810986e+001 
3618750000  -4.176115e+001  2.939773e+001 
3621875000  -4.148242e+001  2.932869e+001 
3625000000  -4.179948e+001  3.006061e+001 
3628125000  -4.185145e+001  2.893645e+001 
3631250000  -4.141523e+001  2.614711e+001 
3634375000  -4.254118e+001  2.636541e+001 
3637500000  -4.193530e+001  3.167834e+001 
3640625000  -4.101110e+001  3.201735e+001 
3643750000  -4.082124e+001  2.811606e+001 
3646875000  -4.124335e+001  2.102749e+001 
3650000000  -4.171003e+001  2.225368e+001 
3653125000  -4.136434e+001  2.204551e+001 
3656250000  -4.150224e+001  2.073740e+001 
3659375000  -4.195294e+001  2.436926e+001 
3662500000  -4.089132e+001  2.333651e+001 
3665625000  -4.113140e+001  2.441569e+001 
3668750000  -4.002311e+001  2.608942e+001 
3671875000  -3.910228e+001  2.240178e+001 
3675000000  -3.955508e+001  1.435543e+001 
3678125000  -4.013717e+001  1.729893e+001 
3681250000  -3.949812e+001  1.789222e+001 
3684375000  -3.926406e+001  1.361163e+001 
3687500000  -3.955684e+001  1.257596e+001 
3690625000  -3.925604e+001  1.061195e+001 
3693750000  -3.993862e+001  1.243818e+001 
3696875000  -3.984644e+001  1.567124e+001 
3700000000  -3.864636e+001  1.256892e+001 
3703125000  -3.845361e+001  9.755003e+000 
3706250000  -3.913784e+001  1.172209e+001 
3709375000  -3.845255e+001  1.514267e+001 
3712500000  -3.736571e+001  1.404969e+001 
3715625000  -3.605442e+001  8.842381e+000 
3718750000  -3.559405e+001  5.366437e+000 
3721875000  -3.524375e+001  1.447371e+000 
3725000000  -3.513625e+001  -4.522778e+000 
3728125000  -3.538130e+001  -5.058120e+000 
3731250000  -3.465742e+001  -6.021260e+000 
3734375000  -3.356529e+001  -1.192621e+001 
3737500000  -3.426488e+001  -1.901288e+001 
3740625000  -3.468948e+001  -2.135573e+001 
3743750000  -3.459211e+001  -2.376373e+001 
3746875000  -3.451590e+001  -2.672073e+001 
3750000000  -3.503685e+001  -2.780818e+001 
3753125000  -3.455559e+001  -2.811221e+001 
3756250000  -3.447068e+001  -2.901127e+001 
3759375000  -3.434181e+001  -2.897107e+001 
3762500000  -3.362052e+001  -3.216226e+001 
3765625000  -3.424362e+001  -3.520321e+001 
3768750000  -3.427131e+001  -3.356492e+001 
3771875000  -3.255840e+001  -3.543466e+001 
3775000000  -3.220372e+001  -4.248183e+001 
3778125000  -3.258286e+001  -4.473318e+001 
3781250000  -3.234497e+001  -4.791918e+001 
3784375000  -3.225171e+001  -4.938204e+001 
3787500000  -3.166644e+001  -5.298410e+001 
3790625000  -3.216726e+001  -6.003257e+001 
3793750000  -3.227744e+001  -5.921369e+001 
3796875000  -3.142869e+001  -6.112529e+001 
3800000000  -2.979775e+001  -6.395213e+001 
3803125000  -3.055189e+001  -7.147903e+001 
3806250000  -3.115670e+001  -7.414445e+001 
3809375000  -3.096400e+001  -7.521842e+001 
3812500000  -3.027013e+001  -7.971842e+001 
3815625000  -3.082956e+001  -8.705611e+001 
3818750000  -3.194117e+001  -8.891523e+001 
3821875000  -3.196209e+001  -8.026123e+001 
3825000000  -3.001635e+001  -7.554272e+001 
3828125000  -2.856878e+001  -8.973502e+001 
3831250000  -2.908928e+001  -1.037358e+002 
3834375000  -3.052397e+001  -1.050548e+002 
3837500000  -3.135287e+001  -1.002968e+002 
3840625000  -3.028528e+001  -1.013704e+002 
3843750000  -2.908684e+001  -1.111433e+002 
3846875000  -2.990021e+001  -1.178916e+002 
3850000000  -3.103287e+001  -1.123184e+002 
3853125000  -3.034235e+001  -1.099965e+002 
3856250000  -3.036663e+001  -1.145770e+002 
3859375000  -2.978474e+001  -1.193267e+002 
3862500000  -2.922833e+001  -1.264099e+002 
3865625000  -2.947656e+001  -1.307173e+002 
3868750000  -2.951011e+001  -1.312803e+002 
3871875000  -2.879559e+001  -1.337412e+002 
3875000000  -2.897404e+001  -1.424142e+002 
3878125000  -2.987912e+001  -1.450071e+002 
3881250000  -2.994893e+001  -1.415682e+002 
3884375000  -2.947560e+001  -1.456384e+002 
3887500000  -2.962324e+001  -1.506921e+002 
3890625000  -3.013820e+001  -1.526800e+002 
3893750000  -3.053707e+001  -1.540393e+002 
3896875000  -3.063263e+001  -1.531835e+002 
3900000000  -3.085816e+001  -1.534341e+002 
3903125000  -3.046880e+001  -1.564308e+002 
3906250000  -3.019030e+001  -1.566182e+002 
3909375000  -2.939552e+001  -1.591990e+002 
3912500000  -2.945453e+001  -1.666878e+002 
3915625000  -3.065438e+001  -1.657349e+002 
3918750000  -3.067299e+001  -1.639349e+002 
3921875000  -3.033600e+001  -1.656510e+002 
3925000000  -2.940185e+001  -1.660440e+002 
3928125000  -2.864916e+001  -1.725470e+002 
3931250000  -2.913273e+001  -1.763466e+002 
3934375000  -2.938974e+001  -1.761770e+002 
3937500000  -2.947582e+001  -1.775789e+002 
3940625000  -2.992372e+001  -1.770125e+002 
3943750000  -2.908389e+001  -1.759818e+002 
3946875000  -2.779388e+001  1.791790e+002 
3950000000  -2.834879e+001  1.711795e+002 
3953125000  -2.915382e+001  1.722022e+002 
3956250000  -2.836996e+001  1.741212e+002 
3959375000  -2.700156e+001  1.707234e+002 
3962500000  -2.656326e+001  1.668914e+002 
3965625000  -2.618381e+001  1.580104e+002 
3968750000  -2.705603e+001  1.516444e+002 
3971875000  -2.749409e+001  1.493929e+002 
3975000000  -2.685604e+001  1.478947e+002 
3978125000  -2.673771e+001  1.467884e+002 
3981250000  -2.640854e+001  1.422945e+002 
3984375000  -2.668742e+001  1.363484e+002 
3987500000  -2.720955e+001  1.340568e+002 
3990625000  -2.717057e+001  1.331355e+002 
3993750000  -2.740170e+001  1.297813e+002 
3996875000  -2.737323e+001  1.277370e+002 
4000000000  -2.747142e+001  1.259938e+002 
4003125000  -2.814462e+001  1.282191e+002 
4006250000  -2.671928e+001  1.289984e+002 
4009375000  -2.545011e+001  1.168873e+002 
4012500000  -2.649591e+001  1.098038e+002 
4015625000  -2.761876e+001  1.102149e+002 
4018750000  -2.787437e+001  1.126891e+002 
4021875000  -2.716692e+001  1.114075e+002 
4025000000  -2.672009e+001  1.062707e+002 
4028125000  -2.663480e+001  1.022517e+002 
4031250000  -2.711084e+001  9.827512e+001 
4034375000  -2.735074e+001  9.857678e+001 
4037500000  -2.683471e+001  1.000920e+002 
4040625000  -2.674289e+001  9.716035e+001 
4043750000  -2.707494e+001  9.665437e+001 
4046875000  -2.656920e+001  9.608031e+001 
4050000000  -2.601978e+001  9.007407e+001 
4053125000  -2.647618e+001  8.797166e+001 
4056250000  -2.713514e+001  9.146703e+001 
4059375000  -2.595719e+001  9.359059e+001 
4062500000  -2.465967e+001  8.890395e+001 
4065625000  -2.442925e+001  8.484352e+001 
4068750000  -2.415950e+001  8.050826e+001 
4071875000  -2.345791e+001  7.238641e+001 
4075000000  -2.378761e+001  6.583406e+001 
4078125000  -2.430306e+001  6.442847e+001 
4081250000  -2.381294e+001  6.192453e+001 
4084375000  -2.344894e+001  5.498615e+001 
4087500000  -2.385336e+001  4.881179e+001 
4090625000  -2.442605e+001  4.742271e+001 
4093750000  -2.431223e+001  4.829786e+001 
4096875000  -2.385729e+001  4.252724e+001 
4100000000  -2.455791e+001  3.545587e+001 
4103125000  -2.540363e+001  3.646723e+001 
4106250000  -2.523571e+001  4.102255e+001 
4109375000  -2.441551e+001  4.045330e+001 
4112500000  -2.384640e+001  3.392392e+001 
4115625000  -2.412700e+001  2.937512e+001 
4118750000  -2.427030e+001  2.647323e+001 
4121875000  -2.393090e+001  2.163863e+001 
4125000000  -2.430526e+001  1.717653e+001 
4128125000  -2.533521e+001  1.761712e+001 
4131250000  -2.491546e+001  2.571428e+001 
4134375000  -2.259428e+001  2.132734e+001 
4137500000  -2.240145e+001  2.603078e+000 
4140625000  -2.450372e+001  -4.709632e+000 
4143750000  -2.586379e+001  1.844893e-001 
4146875000  -2.533799e+001  7.802495e+000 
4150000000  -2.448237e+001  4.501104e+000 
4153125000  -2.434208e+001  -2.174635e+000 
4156250000  -2.516518e+001  -5.221798e+000 
4159375000  -2.547593e+001  -3.419839e-001 
4162500000  -2.434298e+001  3.983923e+000 
4165625000  -2.320721e+001  -5.118917e-002 
4168750000  -2.249376e+001  -7.224390e+000 
4171875000  -2.244558e+001  -1.657281e+001 
4175000000  -2.297377e+001  -2.235904e+001 
4178125000  -2.355636e+001  -2.299006e+001 
4181250000  -2.346781e+001  -2.335205e+001 
4184375000  -2.332444e+001  -2.705633e+001 
4187500000  -2.332993e+001  -3.006375e+001 
4190625000  -2.318224e+001  -3.549596e+001 
4193750000  -2.394115e+001  -3.940321e+001 
4196875000  -2.475141e+001  -3.990884e+001 
4200000000  -2.550371e+001  -3.743697e+001 
4203125000  -2.552502e+001  -2.471996e+001 
4206250000  -2.228193e+001  -2.304507e+001 
4209375000  -2.110816e+001  -4.333422e+001 
4212500000  -2.302147e+001  -5.195614e+001 
4215625000  -2.395888e+001  -4.543277e+001 
4218750000  -2.258766e+001  -3.891162e+001 
4221875000  -2.027785e+001  -4.846774e+001 
4225000000  -2.146629e+001  -6.143470e+001 
4228125000  -2.226102e+001  -5.640126e+001 
4231250000  -2.078769e+001  -6.030463e+001 
4234375000  -2.063402e+001  -6.851435e+001 
4237500000  -2.024197e+001  -7.224360e+001 
4240625000  -2.031766e+001  -8.066752e+001 
4243750000  -2.135803e+001  -8.659853e+001 
4246875000  -2.215660e+001  -8.671925e+001 
4250000000  -2.216623e+001  -8.399751e+001 
4253125000  -2.159487e+001  -8.578324e+001 
4256250000  -2.176984e+001  -9.009544e+001 
4259375000  -2.157710e+001  -9.212196e+001 
4262500000  -2.161948e+001  -9.567280e+001 
4265625000  -2.180767e+001  -9.565313e+001 
4268750000  -2.097170e+001  -9.943503e+001 
4271875000  -2.063071e+001  -1.048153e+002 
4275000000  -1.999399e+001  -1.112833e+002 
4278125000  -2.051714e+001  -1.229001e+002 
4281250000  -2.228518e+001  -1.252217e+002 
4284375000  -2.208769e+001  -1.247984e+002 
4287500000  -2.291566e+001  -1.285176e+002 
4290625000  -2.432428e+001  -1.186808e+002 
4293750000  -2.224637e+001  -1.126974e+002 
4296875000  -2.082607e+001  -1.239497e+002 
4300000000  -2.164685e+001  -1.332198e+002 
4303125000  -2.271263e+001  -1.319030e+002 
4306250000  -2.204640e+001  -1.263419e+002 
4309375000  -2.066915e+001  -1.289308e+002 
4312500000  -2.056941e+001  -1.376404e+002 
4315625000  -2.086915e+001  -1.436792e+002 
4318750000  -2.115245e+001  -1.466342e+002 
4321875000  -2.133154e+001  -1.461718e+002 
4325000000  -2.072370e+001  -1.458331e+002 
4328125000  -2.021573e+001  -1.527590e+002 
4331250000  -2.022534e+001  -1.608780e+002 
4334375000  -2.069076e+001  -1.656108e+002 
4337500000  -2.149553e+001  -1.680202e+002 
4340625000  -2.197187e+001  -1.652330e+002 
4343750000  -2.141761e+001  -1.645472e+002 
4346875000  -2.109709e+001  -1.699676e+002 
4350000000  -2.097886e+001  -1.744827e+002 
4353125000  -2.102016e+001  1.774276e+002 
4356250000  -2.277327e+001  1.759138e+002 
4359375000  -2.343302e+001  -1.710934e+002 
4362500000  -2.084585e+001  -1.689314e+002 
4365625000  -1.931217e+001  1.796493e+002 
4368750000  -1.997922e+001  1.681804e+002 
4371875000  -2.112969e+001  1.683645e+002 
4375000000  -2.084823e+001  1.693268e+002 
4378125000  -2.020561e+001  1.639244e+002 
4381250000  -2.032276e+001  1.585071e+002 
4384375000  -2.021779e+001  1.540778e+002 
4387500000  -2.080604e+001  1.479160e+002 
4390625000  -2.186754e+001  1.485854e+002 
4393750000  -2.129619e+001  1.507769e+002 
4396875000  -2.063983e+001  1.487223e+002 
4400000000  -2.013582e+001  1.420169e+002 
4403125000  -2.067568e+001  1.341713e+002 
4406250000  -2.153781e+001  1.331071e+002 
4409375000  -2.143794e+001  1.303776e+002 
4412500000  -2.236769e+001  1.275544e+002 
4415625000  -2.284792e+001  1.322676e+002 
4418750000  -2.176799e+001  1.373669e+002 
