!Agilent Technologies,E8363B,MY43030201,A.06.04.32
!Agilent E8363B: A.06.04.32
!Date: Tuesday, November 11, 2014 20:57:19
!Correction: S21(Response(S21)) 
!S1P File: Measurement: S21:
# Hz S  dB   R 50
3000000000  -2.649798e+001  1.473976e+002 
3003125000  -2.796006e+001  1.425731e+002 
3006250000  -2.799907e+001  1.400082e+002 
3009375000  -2.837468e+001  1.451733e+002 
3012500000  -2.780689e+001  1.445210e+002 
3015625000  -2.688699e+001  1.376939e+002 
3018750000  -2.774682e+001  1.367820e+002 
3021875000  -2.642672e+001  1.380097e+002 
3025000000  -2.509565e+001  1.350464e+002 
3028125000  -2.414780e+001  1.298101e+002 
3031250000  -2.312050e+001  1.188597e+002 
3034375000  -2.274080e+001  1.055877e+002 
3037500000  -2.313786e+001  9.368948e+001 
3040625000  -2.448104e+001  8.884831e+001 
3043750000  -2.516248e+001  8.421335e+001 
3046875000  -2.530274e+001  7.829135e+001 
3050000000  -2.701271e+001  7.123978e+001 
3053125000  -2.711514e+001  7.781148e+001 
3056250000  -2.645007e+001  8.102365e+001 
3059375000  -2.665705e+001  8.048728e+001 
3062500000  -2.518894e+001  7.673344e+001 
3065625000  -2.496194e+001  7.074895e+001 
3068750000  -2.469160e+001  6.397142e+001 
3071875000  -2.461614e+001  6.100539e+001 
3075000000  -2.461665e+001  5.703417e+001 
3078125000  -2.433636e+001  5.253078e+001 
3081250000  -2.497034e+001  4.818300e+001 
3084375000  -2.420695e+001  4.470038e+001 
3087500000  -2.411083e+001  4.110764e+001 
3090625000  -2.380900e+001  3.120100e+001 
3093750000  -2.430149e+001  2.330647e+001 
3096875000  -2.558030e+001  1.718566e+001 
3100000000  -2.564763e+001  1.612551e+001 
3103125000  -2.604527e+001  1.735038e+001 
3106250000  -2.576332e+001  1.389152e+001 
3109375000  -2.600719e+001  1.049419e+001 
3112500000  -2.614072e+001  9.065166e+000 
3115625000  -2.595187e+001  5.134518e+000 
3118750000  -2.645700e+001  6.522249e+000 
3121875000  -2.574321e+001  -1.581323e+000 
3125000000  -2.695974e+001  -4.972349e+000 
3128125000  -2.815802e+001  3.216273e+000 
3131250000  -2.591454e+001  3.422135e+000 
3134375000  -2.462912e+001  -1.045603e+001 
3137500000  -2.534740e+001  -2.384818e+001 
3140625000  -2.690585e+001  -2.532351e+001 
3143750000  -2.790400e+001  -2.180902e+001 
3146875000  -2.751031e+001  -1.913562e+001 
3150000000  -2.648216e+001  -1.742129e+001 
3153125000  -2.647910e+001  -2.495442e+001 
3156250000  -2.747784e+001  -1.959559e+001 
3159375000  -2.587325e+001  -1.678676e+001 
3162500000  -2.384429e+001  -2.953071e+001 
3165625000  -2.479848e+001  -4.074668e+001 
3168750000  -2.516454e+001  -3.958469e+001 
3171875000  -2.424960e+001  -4.397154e+001 
3175000000  -2.484663e+001  -5.171682e+001 
3178125000  -2.464604e+001  -5.013773e+001 
3181250000  -2.348226e+001  -5.416974e+001 
3184375000  -2.271363e+001  -6.623809e+001 
3187500000  -2.383761e+001  -8.127493e+001 
3190625000  -2.662402e+001  -8.891084e+001 
3193750000  -2.713792e+001  -7.913824e+001 
3196875000  -2.678121e+001  -7.397353e+001 
3200000000  -2.584384e+001  -7.597223e+001 
3203125000  -2.500999e+001  -8.154613e+001 
3206250000  -2.532258e+001  -8.769478e+001 
3209375000  -2.482100e+001  -9.284961e+001 
3212500000  -2.499949e+001  -9.956308e+001 
3215625000  -2.510330e+001  -1.034610e+002 
3218750000  -2.590054e+001  -1.099345e+002 
3221875000  -2.679935e+001  -1.147446e+002 
3225000000  -2.641569e+001  -1.155836e+002 
3228125000  -2.680553e+001  -1.201411e+002 
3231250000  -2.751928e+001  -1.226615e+002 
3234375000  -2.736339e+001  -1.213016e+002 
3237500000  -2.740181e+001  -1.235386e+002 
3240625000  -2.705042e+001  -1.251865e+002 
3243750000  -2.669789e+001  -1.319291e+002 
3246875000  -2.719462e+001  -1.382191e+002 
3250000000  -2.763700e+001  -1.399818e+002 
3253125000  -2.784060e+001  -1.417957e+002 
3256250000  -2.764673e+001  -1.475637e+002 
3259375000  -2.801280e+001  -1.552598e+002 
3262500000  -2.923981e+001  -1.578430e+002 
3265625000  -2.993917e+001  -1.543556e+002 
3268750000  -2.990043e+001  -1.517805e+002 
3271875000  -2.961672e+001  -1.507416e+002 
3275000000  -2.853172e+001  -1.560168e+002 
3278125000  -2.904247e+001  -1.623257e+002 
3281250000  -2.932609e+001  -1.604348e+002 
3284375000  -2.889082e+001  -1.660600e+002 
3287500000  -2.904189e+001  -1.688932e+002 
3290625000  -2.947091e+001  -1.736784e+002 
3293750000  -2.914167e+001  -1.787747e+002 
3296875000  -3.016729e+001  -1.791271e+002 
3300000000  -3.005930e+001  -1.774391e+002 
3303125000  -2.885039e+001  1.782327e+002 
3306250000  -2.861631e+001  1.717299e+002 
3309375000  -2.840954e+001  1.662752e+002 
3312500000  -2.844453e+001  1.560425e+002 
3315625000  -2.952106e+001  1.485026e+002 
3318750000  -3.082290e+001  1.464733e+002 
3321875000  -3.209549e+001  1.459686e+002 
3325000000  -3.268523e+001  1.513611e+002 
3328125000  -3.238932e+001  1.528417e+002 
3331250000  -3.118166e+001  1.600336e+002 
3334375000  -2.857595e+001  1.500845e+002 
3337500000  -2.869736e+001  1.317894e+002 
3340625000  -3.003252e+001  1.205955e+002 
3343750000  -3.211659e+001  1.199916e+002 
3346875000  -3.245811e+001  1.218356e+002 
3350000000  -3.192209e+001  1.201808e+002 
3353125000  -3.201007e+001  1.156532e+002 
3356250000  -3.171942e+001  1.083266e+002 
3359375000  -3.263138e+001  1.000554e+002 
3362500000  -3.392538e+001  9.417525e+001 
3365625000  -3.448994e+001  9.310517e+001 
3368750000  -3.548706e+001  9.116357e+001 
3371875000  -3.590890e+001  8.810073e+001 
3375000000  -3.747681e+001  8.638395e+001 
3378125000  -3.840201e+001  8.521205e+001 
3381250000  -4.017051e+001  9.305283e+001 
3384375000  -3.919738e+001  1.149764e+002 
3387500000  -3.597096e+001  1.016392e+002 
3390625000  -3.775393e+001  8.159824e+001 
3393750000  -3.942861e+001  8.575520e+001 
3396875000  -3.867016e+001  9.011502e+001 
3400000000  -3.842068e+001  8.291006e+001 
3403125000  -3.972639e+001  7.653590e+001 
3406250000  -4.036763e+001  8.187050e+001 
3409375000  -4.110213e+001  7.638914e+001 
3412500000  -4.184233e+001  7.638960e+001 
3415625000  -4.286959e+001  8.130731e+001 
3418750000  -4.305989e+001  8.505578e+001 
3421875000  -4.347952e+001  9.372279e+001 
3425000000  -4.257024e+001  9.567281e+001 
3428125000  -4.128157e+001  9.524626e+001 
3431250000  -4.134052e+001  8.961256e+001 
3434375000  -4.102285e+001  8.811289e+001 
3437500000  -4.169460e+001  8.670969e+001 
3440625000  -4.198567e+001  8.782954e+001 
3443750000  -4.059394e+001  9.299672e+001 
3446875000  -3.987674e+001  8.603925e+001 
3450000000  -3.967698e+001  7.848595e+001 
3453125000  -3.981378e+001  6.904704e+001 
3456250000  -4.105698e+001  6.366973e+001 
3459375000  -4.207504e+001  6.656195e+001 
3462500000  -4.233302e+001  6.718879e+001 
3465625000  -4.219827e+001  6.429892e+001 
3468750000  -4.267764e+001  5.962229e+001 
3471875000  -4.244909e+001  6.040242e+001 
3475000000  -4.248115e+001  5.653067e+001 
3478125000  -4.339999e+001  5.043479e+001 
3481250000  -4.434695e+001  4.884283e+001 
3484375000  -4.601192e+001  5.487492e+001 
3487500000  -4.564515e+001  5.640837e+001 
3490625000  -4.494730e+001  5.521793e+001 
3493750000  -4.521852e+001  5.107725e+001 
3496875000  -4.670607e+001  5.384206e+001 
3500000000  -4.748579e+001  5.522470e+001 
3503125000  -4.737359e+001  6.662772e+001 
3506250000  -4.579552e+001  6.651853e+001 
3509375000  -4.640805e+001  6.464322e+001 
3512500000  -4.719277e+001  6.177322e+001 
3515625000  -4.762747e+001  6.510794e+001 
3518750000  -4.838694e+001  6.457973e+001 
3521875000  -4.785323e+001  7.626463e+001 
3525000000  -4.793071e+001  7.452398e+001 
3528125000  -4.722432e+001  8.730636e+001 
3531250000  -4.569156e+001  8.722133e+001 
3534375000  -4.527921e+001  7.819945e+001 
3537500000  -4.482358e+001  7.694082e+001 
3540625000  -4.581065e+001  7.579023e+001 
3543750000  -4.608425e+001  7.961729e+001 
3546875000  -4.544746e+001  9.281037e+001 
3550000000  -4.286724e+001  9.377584e+001 
3553125000  -4.143946e+001  7.663541e+001 
3556250000  -4.249948e+001  7.240520e+001 
3559375000  -4.203472e+001  7.468218e+001 
3562500000  -4.109560e+001  6.873353e+001 
3565625000  -4.188094e+001  6.197466e+001 
3568750000  -4.160407e+001  6.319021e+001 
3571875000  -4.151056e+001  6.625417e+001 
3575000000  -4.068517e+001  5.978657e+001 
3578125000  -4.153170e+001  5.645491e+001 
3581250000  -4.128362e+001  5.547253e+001 
3584375000  -4.040139e+001  5.548065e+001 
3587500000  -3.972639e+001  4.991308e+001 
3590625000  -4.006715e+001  3.863139e+001 
3593750000  -4.097422e+001  3.939561e+001 
3596875000  -4.139418e+001  4.736022e+001 
3600000000  -3.965052e+001  4.448597e+001 
3603125000  -3.979171e+001  3.145281e+001 
3606250000  -4.050124e+001  2.775573e+001 
3609375000  -4.071458e+001  2.727027e+001 
3612500000  -4.120546e+001  2.481177e+001 
3615625000  -4.112246e+001  2.228438e+001 
3618750000  -4.175410e+001  2.528101e+001 
3621875000  -4.116181e+001  2.312766e+001 
3625000000  -4.183616e+001  2.413877e+001 
3628125000  -4.169287e+001  2.340203e+001 
3631250000  -4.157476e+001  1.898386e+001 
3634375000  -4.251184e+001  1.976651e+001 
3637500000  -4.200510e+001  2.485287e+001 
3640625000  -4.085776e+001  2.666913e+001 
3643750000  -4.075469e+001  2.102155e+001 
3646875000  -4.124442e+001  1.520079e+001 
3650000000  -4.149851e+001  1.358918e+001 
3653125000  -4.116703e+001  1.455305e+001 
3656250000  -4.134388e+001  1.390783e+001 
3659375000  -4.197264e+001  1.761614e+001 
3662500000  -4.119688e+001  1.546758e+001 
3665625000  -4.131544e+001  1.669343e+001 
3668750000  -4.032424e+001  1.820752e+001 
3671875000  -3.913948e+001  1.474703e+001 
3675000000  -3.966677e+001  7.332824e+000 
3678125000  -4.015289e+001  9.186079e+000 
3681250000  -3.971284e+001  9.721374e+000 
3684375000  -3.951361e+001  8.924967e+000 
3687500000  -3.982109e+001  6.695984e+000 
3690625000  -3.975738e+001  5.717269e+000 
3693750000  -4.043694e+001  5.185209e+000 
3696875000  -3.996182e+001  1.002079e+001 
3700000000  -3.877357e+001  8.598829e+000 
3703125000  -3.860935e+001  4.814124e+000 
3706250000  -3.919658e+001  6.110510e+000 
3709375000  -3.848449e+001  9.316235e+000 
3712500000  -3.741797e+001  9.109779e+000 
3715625000  -3.632083e+001  2.953679e+000 
3718750000  -3.554432e+001  1.968799e-001 
3721875000  -3.518562e+001  -5.344654e+000 
3725000000  -3.508778e+001  -9.610440e+000 
3728125000  -3.533583e+001  -1.064138e+001 
3731250000  -3.462699e+001  -1.205936e+001 
3734375000  -3.358532e+001  -1.774331e+001 
3737500000  -3.416607e+001  -2.431473e+001 
3740625000  -3.482057e+001  -2.826583e+001 
3743750000  -3.440086e+001  -2.979615e+001 
3746875000  -3.445926e+001  -3.294560e+001 
3750000000  -3.491315e+001  -3.374267e+001 
3753125000  -3.458817e+001  -3.478705e+001 
3756250000  -3.450968e+001  -3.537095e+001 
3759375000  -3.429901e+001  -3.607932e+001 
3762500000  -3.371060e+001  -4.025878e+001 
3765625000  -3.425603e+001  -4.297110e+001 
3768750000  -3.429346e+001  -3.973140e+001 
3771875000  -3.257189e+001  -4.177709e+001 
3775000000  -3.230146e+001  -5.026473e+001 
3778125000  -3.265359e+001  -5.238217e+001 
3781250000  -3.251637e+001  -5.485707e+001 
3784375000  -3.243555e+001  -5.665036e+001 
3787500000  -3.166326e+001  -6.010762e+001 
3790625000  -3.230217e+001  -6.605526e+001 
3793750000  -3.245220e+001  -6.636826e+001 
3796875000  -3.141962e+001  -6.734382e+001 
3800000000  -2.988303e+001  -7.106810e+001 
3803125000  -3.075561e+001  -7.835896e+001 
3806250000  -3.129416e+001  -8.035442e+001 
3809375000  -3.105469e+001  -8.188363e+001 
3812500000  -3.039539e+001  -8.643143e+001 
3815625000  -3.099630e+001  -9.436433e+001 
3818750000  -3.209150e+001  -9.586651e+001 
3821875000  -3.197884e+001  -8.698741e+001 
3825000000  -3.001675e+001  -8.238299e+001 
3828125000  -2.875707e+001  -9.651936e+001 
3831250000  -2.924735e+001  -1.106176e+002 
3834375000  -3.075181e+001  -1.115104e+002 
3837500000  -3.154990e+001  -1.063673e+002 
3840625000  -3.027738e+001  -1.073513e+002 
3843750000  -2.924644e+001  -1.168895e+002 
3846875000  -2.998949e+001  -1.247378e+002 
3850000000  -3.125480e+001  -1.185922e+002 
3853125000  -3.040888e+001  -1.162992e+002 
3856250000  -3.029059e+001  -1.207852e+002 
3859375000  -2.965995e+001  -1.260170e+002 
3862500000  -2.923151e+001  -1.328138e+002 
3865625000  -2.947749e+001  -1.382441e+002 
3868750000  -2.949740e+001  -1.381503e+002 
3871875000  -2.881002e+001  -1.413937e+002 
3875000000  -2.901957e+001  -1.497313e+002 
3878125000  -3.000561e+001  -1.527167e+002 
3881250000  -3.021297e+001  -1.498573e+002 
3884375000  -2.954790e+001  -1.539995e+002 
3887500000  -2.968291e+001  -1.577355e+002 
3890625000  -3.027857e+001  -1.611632e+002 
3893750000  -3.067111e+001  -1.615136e+002 
3896875000  -3.080186e+001  -1.612583e+002 
3900000000  -3.104274e+001  -1.617567e+002 
3903125000  -3.063660e+001  -1.640109e+002 
3906250000  -3.042356e+001  -1.651164e+002 
3909375000  -2.961325e+001  -1.672846e+002 
3912500000  -2.972391e+001  -1.748775e+002 
3915625000  -3.097801e+001  -1.735054e+002 
3918750000  -3.090702e+001  -1.723134e+002 
3921875000  -3.063962e+001  -1.737626e+002 
3925000000  -2.977683e+001  -1.749876e+002 
3928125000  -2.904355e+001  1.798305e+002 
3931250000  -2.958129e+001  1.759119e+002 
3934375000  -2.979715e+001  1.760975e+002 
3937500000  -2.991357e+001  1.750438e+002 
3940625000  -3.041830e+001  1.758298e+002 
3943750000  -2.948619e+001  1.769008e+002 
3946875000  -2.822331e+001  1.718687e+002 
3950000000  -2.873306e+001  1.640178e+002 
3953125000  -2.967660e+001  1.646992e+002 
3956250000  -2.880022e+001  1.675863e+002 
3959375000  -2.740282e+001  1.644134e+002 
3962500000  -2.690017e+001  1.600311e+002 
3965625000  -2.659353e+001  1.512271e+002 
3968750000  -2.749811e+001  1.448945e+002 
3971875000  -2.775026e+001  1.433096e+002 
3975000000  -2.721080e+001  1.413638e+002 
3978125000  -2.699969e+001  1.400709e+002 
3981250000  -2.674860e+001  1.353585e+002 
3984375000  -2.703605e+001  1.290459e+002 
3987500000  -2.752348e+001  1.270050e+002 
3990625000  -2.758118e+001  1.264006e+002 
3993750000  -2.776925e+001  1.230460e+002 
3996875000  -2.769589e+001  1.203035e+002 
4000000000  -2.783635e+001  1.182336e+002 
4003125000  -2.835313e+001  1.205450e+002 
4006250000  -2.699976e+001  1.208614e+002 
4009375000  -2.576859e+001  1.085337e+002 
4012500000  -2.689446e+001  1.014911e+002 
4015625000  -2.815611e+001  1.019897e+002 
4018750000  -2.828037e+001  1.045932e+002 
4021875000  -2.760507e+001  1.024609e+002 
4025000000  -2.733383e+001  9.799899e+001 
4028125000  -2.725812e+001  9.393752e+001 
4031250000  -2.774479e+001  9.118130e+001 
4034375000  -2.799212e+001  9.109522e+001 
4037500000  -2.744983e+001  9.313515e+001 
4040625000  -2.736277e+001  8.931446e+001 
4043750000  -2.773412e+001  8.946700e+001 
4046875000  -2.729551e+001  8.859288e+001 
4050000000  -2.680548e+001  8.331603e+001 
4053125000  -2.724811e+001  8.101845e+001 
4056250000  -2.782919e+001  8.533720e+001 
4059375000  -2.659782e+001  8.746028e+001 
4062500000  -2.524329e+001  8.222814e+001 
4065625000  -2.506407e+001  7.797031e+001 
4068750000  -2.476791e+001  7.319794e+001 
4071875000  -2.415484e+001  6.568230e+001 
4075000000  -2.454826e+001  5.926597e+001 
4078125000  -2.505683e+001  5.816665e+001 
4081250000  -2.450483e+001  5.579494e+001 
4084375000  -2.416220e+001  4.934431e+001 
4087500000  -2.451369e+001  4.291971e+001 
4090625000  -2.513469e+001  4.225784e+001 
4093750000  -2.493506e+001  4.261775e+001 
4096875000  -2.446688e+001  3.656843e+001 
4100000000  -2.520054e+001  2.984563e+001 
4103125000  -2.605401e+001  3.028022e+001 
4106250000  -2.588151e+001  3.549639e+001 
4109375000  -2.498759e+001  3.448189e+001 
4112500000  -2.445572e+001  2.806300e+001 
4115625000  -2.478315e+001  2.352205e+001 
4118750000  -2.486882e+001  2.074808e+001 
4121875000  -2.450014e+001  1.601274e+001 
4125000000  -2.489275e+001  1.099859e+001 
4128125000  -2.590355e+001  1.132740e+001 
4131250000  -2.557739e+001  1.939683e+001 
4134375000  -2.323333e+001  1.454085e+001 
4137500000  -2.309127e+001  -3.973710e+000 
4140625000  -2.528488e+001  -1.156126e+001 
4143750000  -2.656118e+001  -5.738054e+000 
4146875000  -2.615177e+001  1.047854e+000 
4150000000  -2.518160e+001  -2.021973e+000 
4153125000  -2.504495e+001  -8.727856e+000 
4156250000  -2.599327e+001  -1.155988e+001 
4159375000  -2.621765e+001  -6.738238e+000 
4162500000  -2.503662e+001  -2.126303e+000 
4165625000  -2.392251e+001  -6.583553e+000 
4168750000  -2.337056e+001  -1.380544e+001 
4171875000  -2.330600e+001  -2.286047e+001 
4175000000  -2.391194e+001  -2.827465e+001 
4178125000  -2.451322e+001  -2.836888e+001 
4181250000  -2.430773e+001  -2.878150e+001 
4184375000  -2.423316e+001  -3.228521e+001 
4187500000  -2.429269e+001  -3.483245e+001 
4190625000  -2.408154e+001  -4.042722e+001 
4193750000  -2.490693e+001  -4.420682e+001 
4196875000  -2.559519e+001  -4.441768e+001 
4200000000  -2.648183e+001  -4.205974e+001 
4203125000  -2.644568e+001  -2.866018e+001 
4206250000  -2.304024e+001  -2.735576e+001 
4209375000  -2.188365e+001  -4.777446e+001 
4212500000  -2.386912e+001  -5.667802e+001 
4215625000  -2.490611e+001  -4.999490e+001 
4218750000  -2.350312e+001  -4.329404e+001 
4221875000  -2.123359e+001  -5.262074e+001 
4225000000  -2.242509e+001  -6.496185e+001 
4228125000  -2.310196e+001  -5.995929e+001 
4231250000  -2.149628e+001  -6.385886e+001 
4234375000  -2.148402e+001  -7.206993e+001 
4237500000  -2.108935e+001  -7.548240e+001 
4240625000  -2.107614e+001  -8.410378e+001 
4243750000  -2.203523e+001  -9.126323e+001 
4246875000  -2.292637e+001  -9.121760e+001 
4250000000  -2.292698e+001  -8.818328e+001 
4253125000  -2.242322e+001  -9.027054e+001 
4256250000  -2.268034e+001  -9.394967e+001 
4259375000  -2.241023e+001  -9.598452e+001 
4262500000  -2.243146e+001  -9.969067e+001 
4265625000  -2.257697e+001  -9.948864e+001 
4268750000  -2.167970e+001  -1.035490e+002 
4271875000  -2.146636e+001  -1.093379e+002 
4275000000  -2.082972e+001  -1.161456e+002 
4278125000  -2.149215e+001  -1.272222e+002 
4281250000  -2.325610e+001  -1.289329e+002 
4284375000  -2.294625e+001  -1.282653e+002 
4287500000  -2.373411e+001  -1.317845e+002 
4290625000  -2.497507e+001  -1.221262e+002 
4293750000  -2.296430e+001  -1.169546e+002 
4296875000  -2.165666e+001  -1.284953e+002 
4300000000  -2.252050e+001  -1.374522e+002 
4303125000  -2.368348e+001  -1.362660e+002 
4306250000  -2.302418e+001  -1.300043e+002 
4309375000  -2.163313e+001  -1.323457e+002 
4312500000  -2.153278e+001  -1.406225e+002 
4315625000  -2.174110e+001  -1.469913e+002 
4318750000  -2.209303e+001  -1.503314e+002 
4321875000  -2.224842e+001  -1.493274e+002 
4325000000  -2.166459e+001  -1.490382e+002 
4328125000  -2.118725e+001  -1.555053e+002 
4331250000  -2.105947e+001  -1.634910e+002 
4334375000  -2.153207e+001  -1.686275e+002 
4337500000  -2.239560e+001  -1.705310e+002 
4340625000  -2.295929e+001  -1.672747e+002 
4343750000  -2.233402e+001  -1.666785e+002 
4346875000  -2.197071e+001  -1.724021e+002 
4350000000  -2.197101e+001  -1.771951e+002 
4353125000  -2.199407e+001  1.754583e+002 
4356250000  -2.387312e+001  1.745069e+002 
4359375000  -2.433269e+001  -1.715625e+002 
4362500000  -2.159354e+001  -1.701014e+002 
4365625000  -2.001973e+001  1.775270e+002 
4368750000  -2.076070e+001  1.658800e+002 
4371875000  -2.193388e+001  1.670213e+002 
4375000000  -2.155691e+001  1.678277e+002 
4378125000  -2.095280e+001  1.617795e+002 
4381250000  -2.109867e+001  1.562710e+002 
4384375000  -2.092289e+001  1.515764e+002 
4387500000  -2.172153e+001  1.460226e+002 
4390625000  -2.268616e+001  1.468917e+002 
4393750000  -2.201649e+001  1.491239e+002 
4396875000  -2.132586e+001  1.468481e+002 
4400000000  -2.079363e+001  1.399056e+002 
4403125000  -2.142646e+001  1.321080e+002 
4406250000  -2.226397e+001  1.311147e+002 
4409375000  -2.221879e+001  1.289531e+002 
4412500000  -2.327605e+001  1.258577e+002 
4415625000  -2.360370e+001  1.311884e+002 
4418750000  -2.240366e+001  1.358506e+002 
