!Agilent Technologies,E8363B,MY43030201,A.06.04.32
!Agilent E8363B: A.06.04.32
!Date: Tuesday, November 11, 2014 20:50:14
!Correction: S21(Response(S21)) 
!S1P File: Measurement: S21:
# Hz S  dB   R 50
3000000000  -2.656101e+001  1.530990e+002 
3003125000  -2.793374e+001  1.487552e+002 
3006250000  -2.799320e+001  1.458411e+002 
3009375000  -2.835757e+001  1.506248e+002 
3012500000  -2.783884e+001  1.503333e+002 
3015625000  -2.684693e+001  1.436721e+002 
3018750000  -2.772550e+001  1.427525e+002 
3021875000  -2.643537e+001  1.442149e+002 
3025000000  -2.515775e+001  1.408664e+002 
3028125000  -2.419547e+001  1.358529e+002 
3031250000  -2.313676e+001  1.248075e+002 
3034375000  -2.278161e+001  1.117746e+002 
3037500000  -2.310152e+001  9.978257e+001 
3040625000  -2.445253e+001  9.476202e+001 
3043750000  -2.514569e+001  9.036651e+001 
3046875000  -2.527405e+001  8.380309e+001 
3050000000  -2.705686e+001  7.704641e+001 
3053125000  -2.718044e+001  8.365847e+001 
3056250000  -2.646642e+001  8.669730e+001 
3059375000  -2.670702e+001  8.654147e+001 
3062500000  -2.521589e+001  8.221356e+001 
3065625000  -2.504630e+001  7.690871e+001 
3068750000  -2.474695e+001  6.965762e+001 
3071875000  -2.467681e+001  6.668794e+001 
3075000000  -2.462446e+001  6.308026e+001 
3078125000  -2.437785e+001  5.847055e+001 
3081250000  -2.499903e+001  5.416402e+001 
3084375000  -2.425865e+001  5.066526e+001 
3087500000  -2.413452e+001  4.685034e+001 
3090625000  -2.384549e+001  3.727578e+001 
3093750000  -2.424731e+001  2.938233e+001 
3096875000  -2.556141e+001  2.339711e+001 
3100000000  -2.571869e+001  2.175379e+001 
3103125000  -2.607833e+001  2.344724e+001 
3106250000  -2.580144e+001  1.982622e+001 
3109375000  -2.605879e+001  1.645765e+001 
3112500000  -2.618658e+001  1.528905e+001 
3115625000  -2.594717e+001  1.102500e+001 
3118750000  -2.645857e+001  1.226628e+001 
3121875000  -2.576165e+001  4.230427e+000 
3125000000  -2.694945e+001  7.260880e-001 
3128125000  -2.822686e+001  8.831584e+000 
3131250000  -2.594713e+001  9.427853e+000 
3134375000  -2.463750e+001  -4.212651e+000 
3137500000  -2.528966e+001  -1.795733e+001 
3140625000  -2.695300e+001  -1.947233e+001 
3143750000  -2.793022e+001  -1.536243e+001 
3146875000  -2.752448e+001  -1.367731e+001 
3150000000  -2.647571e+001  -1.154298e+001 
3153125000  -2.646876e+001  -1.914067e+001 
3156250000  -2.749550e+001  -1.378154e+001 
3159375000  -2.593188e+001  -1.074411e+001 
3162500000  -2.384918e+001  -2.351442e+001 
3165625000  -2.479574e+001  -3.449291e+001 
3168750000  -2.522115e+001  -3.355384e+001 
3171875000  -2.424738e+001  -3.782436e+001 
3175000000  -2.488734e+001  -4.570892e+001 
3178125000  -2.468339e+001  -4.368082e+001 
3181250000  -2.349129e+001  -4.798853e+001 
3184375000  -2.268926e+001  -6.012215e+001 
3187500000  -2.377785e+001  -7.536596e+001 
3190625000  -2.660949e+001  -8.274315e+001 
3193750000  -2.716944e+001  -7.342403e+001 
3196875000  -2.675353e+001  -6.770563e+001 
3200000000  -2.590489e+001  -6.982130e+001 
3203125000  -2.502880e+001  -7.543813e+001 
3206250000  -2.528069e+001  -8.166077e+001 
3209375000  -2.485880e+001  -8.653196e+001 
3212500000  -2.495040e+001  -9.351246e+001 
3215625000  -2.509314e+001  -9.770391e+001 
3218750000  -2.585826e+001  -1.036599e+002 
3221875000  -2.684519e+001  -1.087357e+002 
3225000000  -2.648988e+001  -1.097498e+002 
3228125000  -2.676252e+001  -1.140786e+002 
3231250000  -2.754011e+001  -1.167316e+002 
3234375000  -2.738799e+001  -1.159471e+002 
3237500000  -2.742801e+001  -1.171371e+002 
3240625000  -2.708723e+001  -1.189355e+002 
3243750000  -2.676984e+001  -1.256346e+002 
3246875000  -2.718661e+001  -1.320352e+002 
3250000000  -2.768862e+001  -1.341402e+002 
3253125000  -2.782708e+001  -1.359914e+002 
3256250000  -2.768781e+001  -1.418272e+002 
3259375000  -2.799101e+001  -1.493339e+002 
3262500000  -2.923820e+001  -1.523868e+002 
3265625000  -2.994935e+001  -1.488700e+002 
3268750000  -2.991070e+001  -1.459412e+002 
3271875000  -2.971823e+001  -1.451899e+002 
3275000000  -2.857938e+001  -1.501297e+002 
3278125000  -2.910903e+001  -1.562524e+002 
3281250000  -2.934379e+001  -1.544247e+002 
3284375000  -2.893497e+001  -1.605569e+002 
3287500000  -2.907531e+001  -1.628944e+002 
3290625000  -2.945130e+001  -1.675064e+002 
3293750000  -2.913553e+001  -1.730446e+002 
3296875000  -3.015499e+001  -1.728927e+002 
3300000000  -3.005737e+001  -1.718602e+002 
3303125000  -2.891664e+001  -1.758869e+002 
3306250000  -2.870846e+001  1.775253e+002 
3309375000  -2.848047e+001  1.727184e+002 
3312500000  -2.854795e+001  1.624582e+002 
3315625000  -2.948443e+001  1.542005e+002 
3318750000  -3.087021e+001  1.519081e+002 
3321875000  -3.216034e+001  1.513530e+002 
3325000000  -3.260544e+001  1.563361e+002 
3328125000  -3.254882e+001  1.583443e+002 
3331250000  -3.132972e+001  1.655334e+002 
3334375000  -2.863604e+001  1.562271e+002 
3337500000  -2.875079e+001  1.378768e+002 
3340625000  -3.011208e+001  1.267479e+002 
3343750000  -3.204638e+001  1.255013e+002 
3346875000  -3.261705e+001  1.267431e+002 
3350000000  -3.198656e+001  1.257427e+002 
3353125000  -3.206181e+001  1.217278e+002 
3356250000  -3.174859e+001  1.132953e+002 
3359375000  -3.262255e+001  1.054705e+002 
3362500000  -3.387884e+001  9.994427e+001 
3365625000  -3.455560e+001  9.897050e+001 
3368750000  -3.551510e+001  9.657277e+001 
3371875000  -3.590033e+001  9.307691e+001 
3375000000  -3.741899e+001  9.189649e+001 
3378125000  -3.857665e+001  8.967079e+001 
3381250000  -4.033172e+001  9.891721e+001 
3384375000  -3.940909e+001  1.193355e+002 
3387500000  -3.605775e+001  1.063707e+002 
3390625000  -3.776875e+001  8.841843e+001 
3393750000  -3.956863e+001  9.043901e+001 
3396875000  -3.864507e+001  9.430265e+001 
3400000000  -3.872861e+001  8.640210e+001 
3403125000  -3.986753e+001  8.236272e+001 
3406250000  -4.057460e+001  8.640677e+001 
3409375000  -4.124020e+001  8.135593e+001 
3412500000  -4.202160e+001  8.205206e+001 
3415625000  -4.279299e+001  8.763006e+001 
3418750000  -4.312922e+001  8.988473e+001 
3421875000  -4.337687e+001  9.851248e+001 
3425000000  -4.266245e+001  1.023912e+002 
3428125000  -4.164738e+001  1.012914e+002 
3431250000  -4.176989e+001  9.574906e+001 
3434375000  -4.139600e+001  9.370171e+001 
3437500000  -4.178300e+001  9.247309e+001 
3440625000  -4.226822e+001  9.660979e+001 
3443750000  -4.110973e+001  9.761906e+001 
3446875000  -4.005247e+001  9.323271e+001 
3450000000  -4.000373e+001  8.342114e+001 
3453125000  -4.036082e+001  7.571854e+001 
3456250000  -4.132308e+001  7.029271e+001 
3459375000  -4.252208e+001  7.201962e+001 
3462500000  -4.253047e+001  7.364040e+001 
3465625000  -4.237760e+001  6.947370e+001 
3468750000  -4.311608e+001  6.829113e+001 
3471875000  -4.299288e+001  6.755428e+001 
3475000000  -4.288884e+001  6.271142e+001 
3478125000  -4.366174e+001  5.773601e+001 
3481250000  -4.480380e+001  5.640558e+001 
3484375000  -4.647979e+001  6.242566e+001 
3487500000  -4.575515e+001  6.583418e+001 
3490625000  -4.524759e+001  6.223201e+001 
3493750000  -4.601774e+001  5.932043e+001 
3496875000  -4.704669e+001  6.136113e+001 
3500000000  -4.810523e+001  6.993559e+001 
3503125000  -4.793293e+001  7.538425e+001 
3506250000  -4.677304e+001  7.470078e+001 
3509375000  -4.710948e+001  7.240730e+001 
3512500000  -4.749905e+001  6.903433e+001 
3515625000  -4.767096e+001  7.285214e+001 
3518750000  -4.868093e+001  7.689788e+001 
3521875000  -4.782484e+001  8.102324e+001 
3525000000  -4.800356e+001  8.349277e+001 
3528125000  -4.724912e+001  9.608137e+001 
3531250000  -4.589161e+001  9.535809e+001 
3534375000  -4.530370e+001  8.852049e+001 
3537500000  -4.513485e+001  8.266553e+001 
3540625000  -4.541786e+001  8.496072e+001 
3543750000  -4.616277e+001  8.713810e+001 
3546875000  -4.548043e+001  1.013224e+002 
3550000000  -4.268768e+001  1.019487e+002 
3553125000  -4.145988e+001  8.573485e+001 
3556250000  -4.268620e+001  7.923215e+001 
3559375000  -4.231524e+001  8.219244e+001 
3562500000  -4.097337e+001  7.457530e+001 
3565625000  -4.190451e+001  6.831696e+001 
3568750000  -4.216103e+001  7.225615e+001 
3571875000  -4.170645e+001  7.192276e+001 
3575000000  -4.096662e+001  6.723517e+001 
3578125000  -4.156724e+001  6.502163e+001 
3581250000  -4.168010e+001  6.209324e+001 
3584375000  -4.074547e+001  6.235114e+001 
3587500000  -3.984163e+001  5.764374e+001 
3590625000  -4.029254e+001  4.714273e+001 
3593750000  -4.099428e+001  4.533817e+001 
3596875000  -4.130873e+001  5.444636e+001 
3600000000  -3.964779e+001  5.131428e+001 
3603125000  -3.988951e+001  3.826442e+001 
3606250000  -4.057926e+001  3.557936e+001 
3609375000  -4.095221e+001  3.368593e+001 
3612500000  -4.150780e+001  3.263969e+001 
3615625000  -4.132153e+001  3.034193e+001 
3618750000  -4.189757e+001  3.144128e+001 
3621875000  -4.148915e+001  3.111682e+001 
3625000000  -4.180513e+001  2.983187e+001 
3628125000  -4.179443e+001  3.042630e+001 
3631250000  -4.120522e+001  2.610262e+001 
3634375000  -4.229218e+001  2.800343e+001 
3637500000  -4.223326e+001  3.370489e+001 
3640625000  -4.105671e+001  3.454903e+001 
3643750000  -4.080420e+001  2.728786e+001 
3646875000  -4.126694e+001  2.229754e+001 
3650000000  -4.166397e+001  2.280100e+001 
3653125000  -4.149114e+001  2.289457e+001 
3656250000  -4.171636e+001  2.002555e+001 
3659375000  -4.232260e+001  2.467763e+001 
3662500000  -4.111096e+001  2.355538e+001 
3665625000  -4.152432e+001  2.306795e+001 
3668750000  -4.022427e+001  2.578935e+001 
3671875000  -3.933305e+001  2.163075e+001 
3675000000  -4.018946e+001  1.567377e+001 
3678125000  -4.048346e+001  1.630615e+001 
3681250000  -3.970837e+001  1.773009e+001 
3684375000  -3.995694e+001  1.509143e+001 
3687500000  -4.004965e+001  1.527316e+001 
3690625000  -3.998038e+001  1.218187e+001 
3693750000  -4.035773e+001  1.371412e+001 
3696875000  -3.999202e+001  1.813915e+001 
3700000000  -3.912738e+001  1.576516e+001 
3703125000  -3.897948e+001  1.182020e+001 
3706250000  -3.956004e+001  1.504102e+001 
3709375000  -3.897064e+001  1.789750e+001 
3712500000  -3.759022e+001  1.658331e+001 
3715625000  -3.653936e+001  1.094319e+001 
3718750000  -3.574356e+001  8.365282e+000 
3721875000  -3.539848e+001  3.222433e+000 
3725000000  -3.539511e+001  -9.683010e-001 
3728125000  -3.552796e+001  -2.108140e+000 
3731250000  -3.488591e+001  -3.163207e+000 
3734375000  -3.394146e+001  -8.809289e+000 
3737500000  -3.433792e+001  -1.614333e+001 
3740625000  -3.480232e+001  -1.914412e+001 
3743750000  -3.473940e+001  -2.145342e+001 
3746875000  -3.478425e+001  -2.506780e+001 
3750000000  -3.505266e+001  -2.593798e+001 
3753125000  -3.482568e+001  -2.570145e+001 
3756250000  -3.470748e+001  -2.651464e+001 
3759375000  -3.443209e+001  -2.751195e+001 
3762500000  -3.403618e+001  -3.156672e+001 
3765625000  -3.438871e+001  -3.442674e+001 
3768750000  -3.444618e+001  -3.162923e+001 
3771875000  -3.267442e+001  -3.330291e+001 
3775000000  -3.239894e+001  -4.136012e+001 
3778125000  -3.272951e+001  -4.349494e+001 
3781250000  -3.253655e+001  -4.650590e+001 
3784375000  -3.254315e+001  -4.791838e+001 
3787500000  -3.187664e+001  -5.203159e+001 
3790625000  -3.237777e+001  -5.676920e+001 
3793750000  -3.259871e+001  -5.808302e+001 
3796875000  -3.169269e+001  -5.932805e+001 
3800000000  -3.013721e+001  -6.265463e+001 
3803125000  -3.079691e+001  -6.964255e+001 
3806250000  -3.157051e+001  -7.177155e+001 
3809375000  -3.113745e+001  -7.321935e+001 
3812500000  -3.052379e+001  -7.817426e+001 
3815625000  -3.108854e+001  -8.500742e+001 
3818750000  -3.214375e+001  -8.690575e+001 
3821875000  -3.214196e+001  -7.910934e+001 
3825000000  -3.028454e+001  -7.399448e+001 
3828125000  -2.890912e+001  -8.820586e+001 
3831250000  -2.935732e+001  -1.015346e+002 
3834375000  -3.077554e+001  -1.026790e+002 
3837500000  -3.159015e+001  -9.748093e+001 
3840625000  -3.046583e+001  -9.862934e+001 
3843750000  -2.937881e+001  -1.088725e+002 
3846875000  -3.014683e+001  -1.160311e+002 
3850000000  -3.134046e+001  -1.105208e+002 
3853125000  -3.052430e+001  -1.079083e+002 
3856250000  -3.049323e+001  -1.125775e+002 
3859375000  -2.978724e+001  -1.169473e+002 
3862500000  -2.930059e+001  -1.246249e+002 
3865625000  -2.963472e+001  -1.288934e+002 
3868750000  -2.965502e+001  -1.299373e+002 
3871875000  -2.893051e+001  -1.328736e+002 
3875000000  -2.910427e+001  -1.409775e+002 
3878125000  -3.010794e+001  -1.437531e+002 
3881250000  -3.017003e+001  -1.401100e+002 
3884375000  -2.966144e+001  -1.447645e+002 
3887500000  -2.984435e+001  -1.489156e+002 
3890625000  -3.025668e+001  -1.515353e+002 
3893750000  -3.075511e+001  -1.526359e+002 
3896875000  -3.075691e+001  -1.524185e+002 
3900000000  -3.112340e+001  -1.532823e+002 
3903125000  -3.078569e+001  -1.551374e+002 
3906250000  -3.051121e+001  -1.561876e+002 
3909375000  -2.974328e+001  -1.576810e+002 
3912500000  -2.983236e+001  -1.660520e+002 
3915625000  -3.097329e+001  -1.648325e+002 
3918750000  -3.104703e+001  -1.628526e+002 
3921875000  -3.062525e+001  -1.648697e+002 
3925000000  -2.991885e+001  -1.654151e+002 
3928125000  -2.915728e+001  -1.706842e+002 
3931250000  -2.960555e+001  -1.755101e+002 
3934375000  -2.995769e+001  -1.749134e+002 
3937500000  -3.006599e+001  -1.754951e+002 
3940625000  -3.042169e+001  -1.747998e+002 
3943750000  -2.954550e+001  -1.738136e+002 
3946875000  -2.823241e+001  -1.793778e+002 
3950000000  -2.868286e+001  1.730112e+002 
3953125000  -2.961621e+001  1.736970e+002 
3956250000  -2.888126e+001  1.761452e+002 
3959375000  -2.748567e+001  1.736203e+002 
3962500000  -2.694591e+001  1.693183e+002 
3965625000  -2.658288e+001  1.604854e+002 
3968750000  -2.745940e+001  1.540683e+002 
3971875000  -2.789534e+001  1.522945e+002 
3975000000  -2.716718e+001  1.501547e+002 
3978125000  -2.703407e+001  1.484496e+002 
3981250000  -2.678841e+001  1.444779e+002 
3984375000  -2.703721e+001  1.382259e+002 
3987500000  -2.755301e+001  1.361681e+002 
3990625000  -2.750655e+001  1.353618e+002 
3993750000  -2.776530e+001  1.318598e+002 
3996875000  -2.770219e+001  1.294706e+002 
4000000000  -2.781530e+001  1.272681e+002 
4003125000  -2.839024e+001  1.299913e+002 
4006250000  -2.698058e+001  1.306183e+002 
4009375000  -2.581216e+001  1.176949e+002 
4012500000  -2.687677e+001  1.105274e+002 
4015625000  -2.818083e+001  1.111860e+002 
4018750000  -2.826571e+001  1.134959e+002 
4021875000  -2.763505e+001  1.118389e+002 
4025000000  -2.728236e+001  1.076983e+002 
4028125000  -2.721510e+001  1.029997e+002 
4031250000  -2.769594e+001  1.002888e+002 
4034375000  -2.797974e+001  1.002823e+002 
4037500000  -2.744513e+001  1.021516e+002 
4040625000  -2.728785e+001  9.841511e+001 
4043750000  -2.769360e+001  9.787642e+001 
4046875000  -2.723999e+001  9.774057e+001 
4050000000  -2.675524e+001  9.236028e+001 
4053125000  -2.719157e+001  8.988001e+001 
4056250000  -2.778227e+001  9.418263e+001 
4059375000  -2.660445e+001  9.584735e+001 
4062500000  -2.518839e+001  9.171349e+001 
4065625000  -2.508442e+001  8.725194e+001 
4068750000  -2.478281e+001  8.231503e+001 
4071875000  -2.411352e+001  7.458163e+001 
4075000000  -2.446551e+001  6.848008e+001 
4078125000  -2.505327e+001  6.695815e+001 
4081250000  -2.451832e+001  6.481950e+001 
4084375000  -2.417756e+001  5.809925e+001 
4087500000  -2.444674e+001  5.186379e+001 
4090625000  -2.509591e+001  5.074025e+001 
4093750000  -2.486743e+001  5.122346e+001 
4096875000  -2.442262e+001  4.550784e+001 
4100000000  -2.512786e+001  3.869490e+001 
4103125000  -2.598126e+001  3.930573e+001 
4106250000  -2.590984e+001  4.390308e+001 
4109375000  -2.503920e+001  4.378212e+001 
4112500000  -2.442508e+001  3.660322e+001 
4115625000  -2.475757e+001  3.248820e+001 
4118750000  -2.487958e+001  2.961313e+001 
4121875000  -2.448371e+001  2.511517e+001 
4125000000  -2.482653e+001  1.993997e+001 
4128125000  -2.586590e+001  2.005310e+001 
4131250000  -2.561124e+001  2.782143e+001 
4134375000  -2.324062e+001  2.344268e+001 
4137500000  -2.301553e+001  5.001158e+000 
4140625000  -2.517340e+001  -2.315636e+000 
4143750000  -2.644215e+001  2.540521e+000 
4146875000  -2.609565e+001  1.008630e+001 
4150000000  -2.519105e+001  7.071147e+000 
4153125000  -2.502276e+001  5.199848e-001 
4156250000  -2.589182e+001  -2.371990e+000 
4159375000  -2.614331e+001  2.302752e+000 
4162500000  -2.507444e+001  6.620221e+000 
4165625000  -2.388875e+001  2.298040e+000 
4168750000  -2.328168e+001  -4.418395e+000 
4171875000  -2.326319e+001  -1.380578e+001 
4175000000  -2.385815e+001  -1.940846e+001 
4178125000  -2.448837e+001  -1.969015e+001 
4181250000  -2.432752e+001  -1.983663e+001 
4184375000  -2.421995e+001  -2.302952e+001 
4187500000  -2.424628e+001  -2.574035e+001 
4190625000  -2.404204e+001  -3.106899e+001 
4193750000  -2.480688e+001  -3.518903e+001 
4196875000  -2.555607e+001  -3.542057e+001 
4200000000  -2.634137e+001  -3.313028e+001 
4203125000  -2.639379e+001  -2.021938e+001 
4206250000  -2.312435e+001  -1.857946e+001 
4209375000  -2.184973e+001  -3.882012e+001 
4212500000  -2.378948e+001  -4.769421e+001 
4215625000  -2.473500e+001  -4.203293e+001 
4218750000  -2.346540e+001  -3.467632e+001 
4221875000  -2.116144e+001  -4.384084e+001 
4225000000  -2.234149e+001  -5.674746e+001 
4228125000  -2.304075e+001  -5.150000e+001 
4231250000  -2.153818e+001  -5.512136e+001 
4234375000  -2.138718e+001  -6.360584e+001 
4237500000  -2.098762e+001  -6.705409e+001 
4240625000  -2.100069e+001  -7.532097e+001 
4243750000  -2.200530e+001  -8.192913e+001 
4246875000  -2.289602e+001  -8.235651e+001 
4250000000  -2.291846e+001  -7.929494e+001 
4253125000  -2.231926e+001  -8.125856e+001 
4256250000  -2.261812e+001  -8.563914e+001 
4259375000  -2.239809e+001  -8.748122e+001 
4262500000  -2.235686e+001  -9.116846e+001 
4265625000  -2.256549e+001  -9.089306e+001 
4268750000  -2.167361e+001  -9.500638e+001 
4271875000  -2.139583e+001  -1.006104e+002 
4275000000  -2.079836e+001  -1.068839e+002 
4278125000  -2.143510e+001  -1.178783e+002 
4281250000  -2.319547e+001  -1.200489e+002 
4284375000  -2.287562e+001  -1.193154e+002 
4287500000  -2.368221e+001  -1.231702e+002 
4290625000  -2.495730e+001  -1.136891e+002 
4293750000  -2.302816e+001  -1.079408e+002 
4296875000  -2.167538e+001  -1.191595e+002 
4300000000  -2.247044e+001  -1.283602e+002 
4303125000  -2.360868e+001  -1.276464e+002 
4306250000  -2.301258e+001  -1.212578e+002 
4309375000  -2.159674e+001  -1.233042e+002 
4312500000  -2.147399e+001  -1.317638e+002 
4315625000  -2.171184e+001  -1.377505e+002 
4318750000  -2.200636e+001  -1.409989e+002 
4321875000  -2.217229e+001  -1.407023e+002 
4325000000  -2.156066e+001  -1.399298e+002 
4328125000  -2.109063e+001  -1.463396e+002 
4331250000  -2.107764e+001  -1.545109e+002 
4334375000  -2.143872e+001  -1.595093e+002 
4337500000  -2.230311e+001  -1.616061e+002 
4340625000  -2.282648e+001  -1.584993e+002 
4343750000  -2.222433e+001  -1.578378e+002 
4346875000  -2.188079e+001  -1.632933e+002 
4350000000  -2.187276e+001  -1.679821e+002 
4353125000  -2.191036e+001  -1.759131e+002 
4356250000  -2.358804e+001  -1.769248e+002 
4359375000  -2.423705e+001  -1.638453e+002 
4362500000  -2.159364e+001  -1.612329e+002 
4365625000  -1.995036e+001  -1.735256e+002 
4368750000  -2.066462e+001  1.746472e+002 
4371875000  -2.187928e+001  1.754025e+002 
4375000000  -2.156991e+001  1.763325e+002 
4378125000  -2.094014e+001  1.705591e+002 
4381250000  -2.108910e+001  1.650252e+002 
4384375000  -2.092048e+001  1.606538e+002 
4387500000  -2.160052e+001  1.550318e+002 
4390625000  -2.266706e+001  1.556659e+002 
4393750000  -2.195946e+001  1.579832e+002 
4396875000  -2.130651e+001  1.554798e+002 
4400000000  -2.080666e+001  1.487672e+002 
4403125000  -2.138216e+001  1.411667e+002 
4406250000  -2.223987e+001  1.399116e+002 
4409375000  -2.221711e+001  1.375782e+002 
4412500000  -2.318429e+001  1.348293e+002 
4415625000  -2.360649e+001  1.397329e+002 
4418750000  -2.241825e+001  1.443726e+002 
