!Agilent Technologies,E8363B,MY43030201,A.06.04.32
!Agilent E8363B: A.06.04.32
!Date: Tuesday, November 11, 2014 20:48:08
!Correction: S21(Response(S21)) 
!S1P File: Measurement: S21:
# Hz S  dB   R 50
3000000000  -2.643081e+001  1.539837e+002 
3003125000  -2.782937e+001  1.495909e+002 
3006250000  -2.787746e+001  1.466925e+002 
3009375000  -2.824380e+001  1.515478e+002 
3012500000  -2.772379e+001  1.513908e+002 
3015625000  -2.676545e+001  1.441825e+002 
3018750000  -2.760886e+001  1.432698e+002 
3021875000  -2.636829e+001  1.447037e+002 
3025000000  -2.504802e+001  1.415906e+002 
3028125000  -2.408101e+001  1.368051e+002 
3031250000  -2.304500e+001  1.255648e+002 
3034375000  -2.268534e+001  1.127063e+002 
3037500000  -2.301484e+001  1.007201e+002 
3040625000  -2.436143e+001  9.553627e+001 
3043750000  -2.508456e+001  9.119925e+001 
3046875000  -2.517718e+001  8.488669e+001 
3050000000  -2.694227e+001  7.766792e+001 
3053125000  -2.709739e+001  8.438530e+001 
3056250000  -2.640193e+001  8.743618e+001 
3059375000  -2.672466e+001  8.685894e+001 
3062500000  -2.522560e+001  8.307961e+001 
3065625000  -2.499138e+001  7.770984e+001 
3068750000  -2.467836e+001  7.091296e+001 
3071875000  -2.466252e+001  6.760169e+001 
3075000000  -2.465544e+001  6.392602e+001 
3078125000  -2.435687e+001  5.933353e+001 
3081250000  -2.501172e+001  5.516097e+001 
3084375000  -2.426205e+001  5.161455e+001 
3087500000  -2.412976e+001  4.823173e+001 
3090625000  -2.385073e+001  3.848418e+001 
3093750000  -2.427173e+001  3.048055e+001 
3096875000  -2.557936e+001  2.415432e+001 
3100000000  -2.573327e+001  2.279607e+001 
3103125000  -2.611909e+001  2.450396e+001 
3106250000  -2.585419e+001  2.101517e+001 
3109375000  -2.610936e+001  1.735008e+001 
3112500000  -2.621077e+001  1.665950e+001 
3115625000  -2.599718e+001  1.230724e+001 
3118750000  -2.653891e+001  1.349359e+001 
3121875000  -2.584492e+001  5.782376e+000 
3125000000  -2.697511e+001  2.144810e+000 
3128125000  -2.825667e+001  1.012515e+001 
3131250000  -2.606165e+001  1.090655e+001 
3134375000  -2.471103e+001  -2.684173e+000 
3137500000  -2.532136e+001  -1.653071e+001 
3140625000  -2.696702e+001  -1.823346e+001 
3143750000  -2.798460e+001  -1.398864e+001 
3146875000  -2.760601e+001  -1.202322e+001 
3150000000  -2.655846e+001  -9.574909e+000 
3153125000  -2.655187e+001  -1.777971e+001 
3156250000  -2.752562e+001  -1.191716e+001 
3159375000  -2.600415e+001  -9.304336e+000 
3162500000  -2.393863e+001  -2.207842e+001 
3165625000  -2.483321e+001  -3.279593e+001 
3168750000  -2.527435e+001  -3.211370e+001 
3171875000  -2.431351e+001  -3.647595e+001 
3175000000  -2.494246e+001  -4.387170e+001 
3178125000  -2.474759e+001  -4.254312e+001 
3181250000  -2.353580e+001  -4.628383e+001 
3184375000  -2.275054e+001  -5.864656e+001 
3187500000  -2.383414e+001  -7.401139e+001 
3190625000  -2.662685e+001  -8.197138e+001 
3193750000  -2.730340e+001  -7.189375e+001 
3196875000  -2.688120e+001  -6.644374e+001 
3200000000  -2.602239e+001  -6.829777e+001 
3203125000  -2.511655e+001  -7.385629e+001 
3206250000  -2.541497e+001  -8.025671e+001 
3209375000  -2.497005e+001  -8.497760e+001 
3212500000  -2.509036e+001  -9.190847e+001 
3215625000  -2.523825e+001  -9.678094e+001 
3218750000  -2.601105e+001  -1.024278e+002 
3221875000  -2.700313e+001  -1.075094e+002 
3225000000  -2.662898e+001  -1.078826e+002 
3228125000  -2.690585e+001  -1.129321e+002 
3231250000  -2.763745e+001  -1.154145e+002 
3234375000  -2.757175e+001  -1.138823e+002 
3237500000  -2.761170e+001  -1.157115e+002 
3240625000  -2.726077e+001  -1.175246e+002 
3243750000  -2.691392e+001  -1.241156e+002 
3246875000  -2.738581e+001  -1.307832e+002 
3250000000  -2.786054e+001  -1.323997e+002 
3253125000  -2.802209e+001  -1.338414e+002 
3256250000  -2.789123e+001  -1.401742e+002 
3259375000  -2.818104e+001  -1.472715e+002 
3262500000  -2.940756e+001  -1.502895e+002 
3265625000  -3.010423e+001  -1.472220e+002 
3268750000  -3.013446e+001  -1.447008e+002 
3271875000  -2.992607e+001  -1.433940e+002 
3275000000  -2.883736e+001  -1.481866e+002 
3278125000  -2.925335e+001  -1.544871e+002 
3281250000  -2.958514e+001  -1.530300e+002 
3284375000  -2.914601e+001  -1.586765e+002 
3287500000  -2.927178e+001  -1.615715e+002 
3290625000  -2.975524e+001  -1.659367e+002 
3293750000  -2.940651e+001  -1.714540e+002 
3296875000  -3.040166e+001  -1.713209e+002 
3300000000  -3.026661e+001  -1.702389e+002 
3303125000  -2.919188e+001  -1.740597e+002 
3306250000  -2.890668e+001  1.793271e+002 
3309375000  -2.880835e+001  1.743837e+002 
3312500000  -2.876586e+001  1.641131e+002 
3315625000  -2.969286e+001  1.558655e+002 
3318750000  -3.107695e+001  1.536170e+002 
3321875000  -3.231238e+001  1.529973e+002 
3325000000  -3.287439e+001  1.582199e+002 
3328125000  -3.286221e+001  1.602183e+002 
3331250000  -3.162415e+001  1.673353e+002 
3334375000  -2.900630e+001  1.578317e+002 
3337500000  -2.904484e+001  1.396814e+002 
3340625000  -3.041746e+001  1.285587e+002 
3343750000  -3.242446e+001  1.270883e+002 
3346875000  -3.289155e+001  1.287072e+002 
3350000000  -3.224655e+001  1.272623e+002 
3353125000  -3.246169e+001  1.229550e+002 
3356250000  -3.222631e+001  1.153418e+002 
3359375000  -3.302253e+001  1.076190e+002 
3362500000  -3.443248e+001  1.012390e+002 
3365625000  -3.508443e+001  9.989494e+001 
3368750000  -3.603068e+001  9.827905e+001 
3371875000  -3.643348e+001  9.397363e+001 
3375000000  -3.795249e+001  9.313806e+001 
3378125000  -3.919670e+001  9.290289e+001 
3381250000  -4.070665e+001  9.908844e+001 
3384375000  -3.980931e+001  1.227001e+002 
3387500000  -3.687828e+001  1.070073e+002 
3390625000  -3.881363e+001  8.838244e+001 
3393750000  -4.041529e+001  9.244357e+001 
3396875000  -3.965395e+001  9.618983e+001 
3400000000  -3.972625e+001  8.949317e+001 
3403125000  -4.059909e+001  8.675214e+001 
3406250000  -4.145730e+001  8.800132e+001 
3409375000  -4.222931e+001  8.198734e+001 
3412500000  -4.317217e+001  8.589893e+001 
3415625000  -4.420992e+001  9.270636e+001 
3418750000  -4.466806e+001  9.587057e+001 
3421875000  -4.474208e+001  1.023985e+002 
3425000000  -4.377761e+001  1.094752e+002 
3428125000  -4.269503e+001  1.063053e+002 
3431250000  -4.286226e+001  1.052907e+002 
3434375000  -4.216774e+001  1.036941e+002 
3437500000  -4.233420e+001  9.976925e+001 
3440625000  -4.299760e+001  1.030714e+002 
3443750000  -4.166842e+001  1.039115e+002 
3446875000  -4.089807e+001  1.006160e+002 
3450000000  -4.054972e+001  9.216894e+001 
3453125000  -4.123866e+001  8.209594e+001 
3456250000  -4.226925e+001  7.849003e+001 
3459375000  -4.311333e+001  8.034290e+001 
3462500000  -4.314694e+001  8.179544e+001 
3465625000  -4.311101e+001  7.953386e+001 
3468750000  -4.333537e+001  7.458084e+001 
3471875000  -4.361911e+001  7.612381e+001 
3475000000  -4.367624e+001  7.336639e+001 
3478125000  -4.421726e+001  6.695839e+001 
3481250000  -4.521304e+001  6.546298e+001 
3484375000  -4.656831e+001  7.288155e+001 
3487500000  -4.608110e+001  7.480997e+001 
3490625000  -4.549594e+001  7.396833e+001 
3493750000  -4.619719e+001  6.971177e+001 
3496875000  -4.721456e+001  7.283495e+001 
3500000000  -4.804765e+001  7.863177e+001 
3503125000  -4.800569e+001  8.266016e+001 
3506250000  -4.666544e+001  8.834546e+001 
3509375000  -4.703172e+001  8.525281e+001 
3512500000  -4.730684e+001  8.297306e+001 
3515625000  -4.741029e+001  8.640682e+001 
3518750000  -4.780768e+001  9.315530e+001 
3521875000  -4.734389e+001  9.450724e+001 
3525000000  -4.759229e+001  9.347279e+001 
3528125000  -4.728705e+001  1.046411e+002 
3531250000  -4.494844e+001  1.054106e+002 
3534375000  -4.462832e+001  9.690776e+001 
3537500000  -4.439111e+001  9.384873e+001 
3540625000  -4.492891e+001  9.247398e+001 
3543750000  -4.506435e+001  9.606142e+001 
3546875000  -4.486695e+001  1.076739e+002 
3550000000  -4.218818e+001  1.099165e+002 
3553125000  -4.060528e+001  9.328047e+001 
3556250000  -4.171214e+001  8.598724e+001 
3559375000  -4.154604e+001  8.925858e+001 
3562500000  -4.001397e+001  8.199751e+001 
3565625000  -4.111233e+001  7.549048e+001 
3568750000  -4.117620e+001  7.752492e+001 
3571875000  -4.080521e+001  7.643048e+001 
3575000000  -4.050661e+001  7.145321e+001 
3578125000  -4.064689e+001  6.792331e+001 
3581250000  -4.075909e+001  6.749737e+001 
3584375000  -4.005557e+001  6.614458e+001 
3587500000  -3.923838e+001  6.005241e+001 
3590625000  -3.970818e+001  5.121082e+001 
3593750000  -4.076611e+001  4.820686e+001 
3596875000  -4.077033e+001  5.782892e+001 
3600000000  -3.923102e+001  5.244561e+001 
3603125000  -3.920527e+001  3.941166e+001 
3606250000  -4.003503e+001  3.731396e+001 
3609375000  -4.037609e+001  3.630263e+001 
3612500000  -4.088029e+001  3.335691e+001 
3615625000  -4.100774e+001  3.122374e+001 
3618750000  -4.176558e+001  3.370008e+001 
3621875000  -4.151719e+001  3.148303e+001 
3625000000  -4.189655e+001  3.088601e+001 
3628125000  -4.182779e+001  3.358880e+001 
3631250000  -4.131099e+001  2.742475e+001 
3634375000  -4.238413e+001  2.842679e+001 
3637500000  -4.239378e+001  3.662376e+001 
3640625000  -4.112037e+001  3.709620e+001 
3643750000  -4.101231e+001  3.276113e+001 
3646875000  -4.130101e+001  2.668507e+001 
3650000000  -4.207743e+001  2.423263e+001 
3653125000  -4.185388e+001  2.666656e+001 
3656250000  -4.186144e+001  2.408274e+001 
3659375000  -4.218176e+001  3.015711e+001 
3662500000  -4.144525e+001  2.777599e+001 
3665625000  -4.150045e+001  2.813770e+001 
3668750000  -4.020554e+001  2.936591e+001 
3671875000  -3.909178e+001  2.673546e+001 
3675000000  -3.957909e+001  1.915817e+001 
3678125000  -4.034011e+001  2.237193e+001 
3681250000  -3.980086e+001  2.225906e+001 
3684375000  -3.960703e+001  2.028989e+001 
3687500000  -3.984693e+001  1.851931e+001 
3690625000  -3.953988e+001  1.659543e+001 
3693750000  -4.006925e+001  1.815672e+001 
3696875000  -3.997408e+001  2.196640e+001 
3700000000  -3.870866e+001  1.954145e+001 
3703125000  -3.865134e+001  1.492004e+001 
3706250000  -3.918723e+001  1.755072e+001 
3709375000  -3.854631e+001  1.958030e+001 
3712500000  -3.768209e+001  1.893312e+001 
3715625000  -3.649067e+001  1.347315e+001 
3718750000  -3.582872e+001  1.045604e+001 
3721875000  -3.538514e+001  6.244871e+000 
3725000000  -3.543868e+001  5.601780e-001 
3728125000  -3.565423e+001  1.171468e-001 
3731250000  -3.498270e+001  -6.127539e-001 
3734375000  -3.390141e+001  -6.697683e+000 
3737500000  -3.456222e+001  -1.295971e+001 
3740625000  -3.515901e+001  -1.590948e+001 
3743750000  -3.494546e+001  -1.785757e+001 
3746875000  -3.482532e+001  -2.049129e+001 
3750000000  -3.538911e+001  -2.214650e+001 
3753125000  -3.503327e+001  -2.172437e+001 
3756250000  -3.488486e+001  -2.205814e+001 
3759375000  -3.465852e+001  -2.295176e+001 
3762500000  -3.404991e+001  -2.623848e+001 
3765625000  -3.458073e+001  -2.922889e+001 
3768750000  -3.467556e+001  -2.814311e+001 
3771875000  -3.285006e+001  -2.824703e+001 
3775000000  -3.252018e+001  -3.606831e+001 
3778125000  -3.283839e+001  -3.811296e+001 
3781250000  -3.263049e+001  -4.081636e+001 
3784375000  -3.253915e+001  -4.274051e+001 
3787500000  -3.182537e+001  -4.598263e+001 
3790625000  -3.238445e+001  -5.268420e+001 
3793750000  -3.253902e+001  -5.272761e+001 
3796875000  -3.161856e+001  -5.378916e+001 
3800000000  -3.005408e+001  -5.825066e+001 
3803125000  -3.077286e+001  -6.483761e+001 
3806250000  -3.135874e+001  -6.702237e+001 
3809375000  -3.106535e+001  -6.866748e+001 
3812500000  -3.048973e+001  -7.312408e+001 
3815625000  -3.103070e+001  -8.081510e+001 
3818750000  -3.191412e+001  -8.286776e+001 
3821875000  -3.216401e+001  -7.501859e+001 
3825000000  -3.022309e+001  -7.003899e+001 
3828125000  -2.877650e+001  -8.327080e+001 
3831250000  -2.931988e+001  -9.789828e+001 
3834375000  -3.063275e+001  -9.957439e+001 
3837500000  -3.152780e+001  -9.456079e+001 
3840625000  -3.048661e+001  -9.546980e+001 
3843750000  -2.936943e+001  -1.049148e+002 
3846875000  -2.999101e+001  -1.121029e+002 
3850000000  -3.132912e+001  -1.067202e+002 
3853125000  -3.054320e+001  -1.041096e+002 
3856250000  -3.056767e+001  -1.082867e+002 
3859375000  -2.983830e+001  -1.131820e+002 
3862500000  -2.944132e+001  -1.202844e+002 
3865625000  -2.964795e+001  -1.251503e+002 
3868750000  -2.974619e+001  -1.251529e+002 
3871875000  -2.909541e+001  -1.275161e+002 
3875000000  -2.918697e+001  -1.361716e+002 
3878125000  -3.019999e+001  -1.394058e+002 
3881250000  -3.035229e+001  -1.356749e+002 
3884375000  -2.978909e+001  -1.399425e+002 
3887500000  -2.984320e+001  -1.439497e+002 
3890625000  -3.041937e+001  -1.465552e+002 
3893750000  -3.080409e+001  -1.473596e+002 
3896875000  -3.090178e+001  -1.465749e+002 
3900000000  -3.107377e+001  -1.478815e+002 
3903125000  -3.084111e+001  -1.489960e+002 
3906250000  -3.053647e+001  -1.501120e+002 
3909375000  -2.978416e+001  -1.523939e+002 
3912500000  -2.978799e+001  -1.599915e+002 
3915625000  -3.088298e+001  -1.589987e+002 
3918750000  -3.089589e+001  -1.578624e+002 
3921875000  -3.056840e+001  -1.591336e+002 
3925000000  -2.981272e+001  -1.595271e+002 
3928125000  -2.907920e+001  -1.653677e+002 
3931250000  -2.936464e+001  -1.698049e+002 
3934375000  -2.967790e+001  -1.695506e+002 
3937500000  -2.984833e+001  -1.709066e+002 
3940625000  -3.020141e+001  -1.705928e+002 
3943750000  -2.927794e+001  -1.696163e+002 
3946875000  -2.801327e+001  -1.746189e+002 
3950000000  -2.845660e+001  1.774325e+002 
3953125000  -2.943365e+001  1.776695e+002 
3956250000  -2.873575e+001  -1.799725e+002 
3959375000  -2.732819e+001  1.773740e+002 
3962500000  -2.682649e+001  1.730267e+002 
3965625000  -2.655533e+001  1.640120e+002 
3968750000  -2.745971e+001  1.573229e+002 
3971875000  -2.785357e+001  1.555745e+002 
3975000000  -2.720656e+001  1.540571e+002 
3978125000  -2.704494e+001  1.525757e+002 
3981250000  -2.682584e+001  1.482273e+002 
3984375000  -2.703808e+001  1.420940e+002 
3987500000  -2.755236e+001  1.402717e+002 
3990625000  -2.757264e+001  1.397640e+002 
3993750000  -2.782770e+001  1.361241e+002 
3996875000  -2.783484e+001  1.340329e+002 
4000000000  -2.790293e+001  1.318284e+002 
4003125000  -2.849660e+001  1.341014e+002 
4006250000  -2.721612e+001  1.345759e+002 
4009375000  -2.593702e+001  1.228967e+002 
4012500000  -2.694356e+001  1.162043e+002 
4015625000  -2.826824e+001  1.165048e+002 
4018750000  -2.834181e+001  1.189991e+002 
4021875000  -2.762397e+001  1.176393e+002 
4025000000  -2.731189e+001  1.127844e+002 
4028125000  -2.716746e+001  1.094568e+002 
4031250000  -2.755980e+001  1.062674e+002 
4034375000  -2.784288e+001  1.059218e+002 
4037500000  -2.737417e+001  1.076800e+002 
4040625000  -2.723217e+001  1.043547e+002 
4043750000  -2.754192e+001  1.033055e+002 
4046875000  -2.707028e+001  1.034624e+002 
4050000000  -2.660883e+001  9.725941e+001 
4053125000  -2.698695e+001  9.515221e+001 
4056250000  -2.754185e+001  9.880728e+001 
4059375000  -2.640448e+001  1.006529e+002 
4062500000  -2.496247e+001  9.629889e+001 
4065625000  -2.482546e+001  9.115618e+001 
4068750000  -2.453620e+001  8.682882e+001 
4071875000  -2.394078e+001  7.863913e+001 
4075000000  -2.427626e+001  7.230117e+001 
4078125000  -2.485895e+001  7.098434e+001 
4081250000  -2.435200e+001  6.850623e+001 
4084375000  -2.396895e+001  6.194908e+001 
4087500000  -2.432362e+001  5.564068e+001 
4090625000  -2.491338e+001  5.407738e+001 
4093750000  -2.480301e+001  5.499420e+001 
4096875000  -2.432459e+001  4.927772e+001 
4100000000  -2.508750e+001  4.205291e+001 
4103125000  -2.591222e+001  4.223520e+001 
4106250000  -2.592010e+001  4.736265e+001 
4109375000  -2.503868e+001  4.738390e+001 
4112500000  -2.452123e+001  4.065494e+001 
4115625000  -2.483928e+001  3.649065e+001 
4118750000  -2.497644e+001  3.337713e+001 
4121875000  -2.455038e+001  2.936968e+001 
4125000000  -2.489784e+001  2.431546e+001 
4128125000  -2.590231e+001  2.427566e+001 
4131250000  -2.572859e+001  3.256215e+001 
4134375000  -2.335501e+001  2.838580e+001 
4137500000  -2.308161e+001  1.003174e+001 
4140625000  -2.517543e+001  2.874355e+000 
4143750000  -2.657042e+001  7.799454e+000 
4146875000  -2.621902e+001  1.486637e+001 
4150000000  -2.521072e+001  1.227063e+001 
4153125000  -2.501634e+001  5.933261e+000 
4156250000  -2.587957e+001  3.332038e+000 
4159375000  -2.616118e+001  7.722015e+000 
4162500000  -2.495883e+001  1.180374e+001 
4165625000  -2.380243e+001  8.074946e+000 
4168750000  -2.320150e+001  1.008481e+000 
4171875000  -2.315058e+001  -8.445982e+000 
4175000000  -2.368030e+001  -1.386854e+001 
4178125000  -2.429937e+001  -1.449208e+001 
4181250000  -2.415625e+001  -1.497557e+001 
4184375000  -2.401924e+001  -1.816283e+001 
4187500000  -2.402161e+001  -2.094946e+001 
4190625000  -2.381994e+001  -2.665350e+001 
4193750000  -2.457168e+001  -3.054187e+001 
4196875000  -2.525468e+001  -3.109903e+001 
4200000000  -2.606466e+001  -2.949901e+001 
4203125000  -2.618374e+001  -1.662372e+001 
4206250000  -2.295499e+001  -1.415606e+001 
4209375000  -2.166936e+001  -3.469912e+001 
4212500000  -2.362149e+001  -4.396157e+001 
4215625000  -2.459678e+001  -3.810506e+001 
4218750000  -2.338181e+001  -3.114383e+001 
4221875000  -2.104037e+001  -3.997141e+001 
4225000000  -2.229217e+001  -5.319670e+001 
4228125000  -2.304226e+001  -4.798216e+001 
4231250000  -2.153140e+001  -5.153025e+001 
4234375000  -2.145175e+001  -5.958597e+001 
4237500000  -2.102147e+001  -6.290646e+001 
4240625000  -2.102081e+001  -7.156420e+001 
4243750000  -2.197293e+001  -7.818024e+001 
4246875000  -2.288622e+001  -7.804890e+001 
4250000000  -2.296838e+001  -7.544823e+001 
4253125000  -2.238485e+001  -7.692834e+001 
4256250000  -2.264916e+001  -8.097871e+001 
4259375000  -2.242274e+001  -8.293143e+001 
4262500000  -2.239881e+001  -8.665444e+001 
4265625000  -2.266103e+001  -8.642377e+001 
4268750000  -2.177327e+001  -8.991119e+001 
4271875000  -2.148630e+001  -9.525906e+001 
4275000000  -2.085890e+001  -1.020009e+002 
4278125000  -2.138983e+001  -1.126729e+002 
4281250000  -2.317854e+001  -1.150595e+002 
4284375000  -2.292157e+001  -1.139953e+002 
4287500000  -2.363030e+001  -1.177356e+002 
4290625000  -2.488222e+001  -1.084234e+002 
4293750000  -2.293996e+001  -1.026250e+002 
4296875000  -2.153137e+001  -1.135275e+002 
4300000000  -2.231903e+001  -1.229722e+002 
4303125000  -2.344118e+001  -1.222098e+002 
4306250000  -2.285740e+001  -1.162731e+002 
4309375000  -2.147603e+001  -1.181083e+002 
4312500000  -2.135969e+001  -1.265955e+002 
4315625000  -2.154145e+001  -1.328903e+002 
4318750000  -2.179883e+001  -1.363739e+002 
4321875000  -2.196718e+001  -1.361680e+002 
4325000000  -2.138892e+001  -1.355426e+002 
4328125000  -2.092124e+001  -1.419262e+002 
4331250000  -2.084491e+001  -1.499409e+002 
4334375000  -2.127408e+001  -1.550724e+002 
4337500000  -2.210737e+001  -1.576427e+002 
4340625000  -2.262183e+001  -1.546166e+002 
4343750000  -2.211578e+001  -1.539173e+002 
4346875000  -2.173559e+001  -1.594437e+002 
4350000000  -2.175609e+001  -1.643012e+002 
4353125000  -2.173545e+001  -1.719875e+002 
4356250000  -2.343210e+001  -1.734850e+002 
4359375000  -2.418578e+001  -1.603289e+002 
4362500000  -2.158569e+001  -1.585990e+002 
4365625000  -1.994769e+001  -1.696822e+002 
4368750000  -2.065551e+001  1.784550e+002 
4371875000  -2.185250e+001  1.790111e+002 
4375000000  -2.159971e+001  -1.797725e+002 
4378125000  -2.091749e+001  1.745462e+002 
4381250000  -2.112877e+001  1.693317e+002 
4384375000  -2.093895e+001  1.647183e+002 
4387500000  -2.158819e+001  1.590944e+002 
4390625000  -2.268739e+001  1.600272e+002 
4393750000  -2.203133e+001  1.619399e+002 
4396875000  -2.135896e+001  1.599650e+002 
4400000000  -2.086199e+001  1.533477e+002 
4403125000  -2.139803e+001  1.460022e+002 
4406250000  -2.223370e+001  1.445892e+002 
4409375000  -2.217850e+001  1.422828e+002 
4412500000  -2.319983e+001  1.399970e+002 
4415625000  -2.361876e+001  1.443704e+002 
4418750000  -2.238201e+001  1.491907e+002 
4421875000  -2.095642e+001  1.452192e+002 
