!Agilent Technologies,E8363B,MY43030201,A.06.04.32
!Agilent E8363B: A.06.04.32
!Date: Tuesday, November 11, 2014 20:44:44
!Correction: S21(Response(S21)) 
!S1P File: Measurement: S21:
# Hz S  dB   R 50
3000000000  -2.647430e+001  1.584442e+002 
3003125000  -2.783527e+001  1.543121e+002 
3006250000  -2.790072e+001  1.511513e+002 
3009375000  -2.825165e+001  1.560107e+002 
3012500000  -2.777465e+001  1.562446e+002 
3015625000  -2.680022e+001  1.487293e+002 
3018750000  -2.766596e+001  1.477081e+002 
3021875000  -2.646393e+001  1.495958e+002 
3025000000  -2.512640e+001  1.462919e+002 
3028125000  -2.416895e+001  1.417000e+002 
3031250000  -2.309557e+001  1.305413e+002 
3034375000  -2.274251e+001  1.177146e+002 
3037500000  -2.304338e+001  1.055721e+002 
3040625000  -2.440520e+001  1.004286e+002 
3043750000  -2.510916e+001  9.620674e+001 
3046875000  -2.518382e+001  8.969975e+001 
3050000000  -2.695014e+001  8.254955e+001 
3053125000  -2.716718e+001  8.898903e+001 
3056250000  -2.640556e+001  9.205679e+001 
3059375000  -2.672747e+001  9.174572e+001 
3062500000  -2.524367e+001  8.801641e+001 
3065625000  -2.498829e+001  8.228468e+001 
3068750000  -2.472014e+001  7.552972e+001 
3071875000  -2.468827e+001  7.251487e+001 
3075000000  -2.465690e+001  6.879407e+001 
3078125000  -2.438045e+001  6.416460e+001 
3081250000  -2.496560e+001  6.009977e+001 
3084375000  -2.427497e+001  5.663412e+001 
3087500000  -2.412182e+001  5.282615e+001 
3090625000  -2.386442e+001  4.336359e+001 
3093750000  -2.421440e+001  3.512010e+001 
3096875000  -2.553348e+001  2.901282e+001 
3100000000  -2.568178e+001  2.778001e+001 
3103125000  -2.605099e+001  2.907076e+001 
3106250000  -2.580533e+001  2.554793e+001 
3109375000  -2.602079e+001  2.212456e+001 
3112500000  -2.619328e+001  2.136320e+001 
3115625000  -2.595236e+001  1.693265e+001 
3118750000  -2.647323e+001  1.830795e+001 
3121875000  -2.584118e+001  1.030615e+001 
3125000000  -2.686284e+001  6.798988e+000 
3128125000  -2.819533e+001  1.424024e+001 
3131250000  -2.599707e+001  1.529630e+001 
3134375000  -2.463829e+001  2.175524e+000 
3137500000  -2.524120e+001  -1.238076e+001 
3140625000  -2.695552e+001  -1.391481e+001 
3143750000  -2.796622e+001  -9.769444e+000 
3146875000  -2.757235e+001  -8.057382e+000 
3150000000  -2.654874e+001  -5.360806e+000 
3153125000  -2.649910e+001  -1.304360e+001 
3156250000  -2.743717e+001  -7.856742e+000 
3159375000  -2.598735e+001  -4.720536e+000 
3162500000  -2.389233e+001  -1.742872e+001 
3165625000  -2.481080e+001  -2.845152e+001 
3168750000  -2.525254e+001  -2.774074e+001 
3171875000  -2.426873e+001  -3.182370e+001 
3175000000  -2.486448e+001  -3.945250e+001 
3178125000  -2.471184e+001  -3.780899e+001 
3181250000  -2.352225e+001  -4.167778e+001 
3184375000  -2.267907e+001  -5.397618e+001 
3187500000  -2.376838e+001  -6.929146e+001 
3190625000  -2.663531e+001  -7.741557e+001 
3193750000  -2.723788e+001  -6.751505e+001 
3196875000  -2.681707e+001  -6.215126e+001 
3200000000  -2.599566e+001  -6.377829e+001 
3203125000  -2.509655e+001  -6.933637e+001 
3206250000  -2.534361e+001  -7.541270e+001 
3209375000  -2.487687e+001  -8.045576e+001 
3212500000  -2.495162e+001  -8.722596e+001 
3215625000  -2.514288e+001  -9.152256e+001 
3218750000  -2.591549e+001  -9.796876e+001 
3221875000  -2.691995e+001  -1.028599e+002 
3225000000  -2.655357e+001  -1.034931e+002 
3228125000  -2.680425e+001  -1.079088e+002 
3231250000  -2.754448e+001  -1.108809e+002 
3234375000  -2.743940e+001  -1.099452e+002 
3237500000  -2.749173e+001  -1.115650e+002 
3240625000  -2.713615e+001  -1.129843e+002 
3243750000  -2.677445e+001  -1.194641e+002 
3246875000  -2.730251e+001  -1.261710e+002 
3250000000  -2.770338e+001  -1.279792e+002 
3253125000  -2.787919e+001  -1.294738e+002 
3256250000  -2.775711e+001  -1.359126e+002 
3259375000  -2.808284e+001  -1.430234e+002 
3262500000  -2.934205e+001  -1.460975e+002 
3265625000  -2.997638e+001  -1.429627e+002 
3268750000  -2.996869e+001  -1.403062e+002 
3271875000  -2.978706e+001  -1.389800e+002 
3275000000  -2.865017e+001  -1.439701e+002 
3278125000  -2.910693e+001  -1.504396e+002 
3281250000  -2.934217e+001  -1.482376e+002 
3284375000  -2.897577e+001  -1.541741e+002 
3287500000  -2.914331e+001  -1.571332e+002 
3290625000  -2.957611e+001  -1.610977e+002 
3293750000  -2.926513e+001  -1.667030e+002 
3296875000  -3.026872e+001  -1.669467e+002 
3300000000  -3.014840e+001  -1.656099e+002 
3303125000  -2.901550e+001  -1.696688e+002 
3306250000  -2.883590e+001  -1.765655e+002 
3309375000  -2.852369e+001  1.788481e+002 
3312500000  -2.860837e+001  1.686027e+002 
3315625000  -2.955975e+001  1.605695e+002 
3318750000  -3.083241e+001  1.581220e+002 
3321875000  -3.213545e+001  1.575296e+002 
3325000000  -3.270175e+001  1.627320e+002 
3328125000  -3.273503e+001  1.643509e+002 
3331250000  -3.150638e+001  1.713269e+002 
3334375000  -2.886343e+001  1.623490e+002 
3337500000  -2.888638e+001  1.440491e+002 
3340625000  -3.016900e+001  1.329851e+002 
3343750000  -3.206084e+001  1.312448e+002 
3346875000  -3.273717e+001  1.324748e+002 
3350000000  -3.208422e+001  1.320551e+002 
3353125000  -3.219350e+001  1.276314e+002 
3356250000  -3.192387e+001  1.197785e+002 
3359375000  -3.278180e+001  1.116562e+002 
3362500000  -3.412387e+001  1.059737e+002 
3365625000  -3.462645e+001  1.052175e+002 
3368750000  -3.574028e+001  1.028730e+002 
3371875000  -3.590245e+001  9.946032e+001 
3375000000  -3.754433e+001  9.717416e+001 
3378125000  -3.870080e+001  9.668560e+001 
3381250000  -4.014203e+001  1.054303e+002 
3384375000  -3.981772e+001  1.240482e+002 
3387500000  -3.627087e+001  1.116250e+002 
3390625000  -3.822684e+001  9.345634e+001 
3393750000  -3.994698e+001  9.710783e+001 
3396875000  -3.902727e+001  1.009786e+002 
3400000000  -3.929955e+001  9.294564e+001 
3403125000  -4.027974e+001  8.899292e+001 
3406250000  -4.123554e+001  9.179001e+001 
3409375000  -4.147721e+001  8.548683e+001 
3412500000  -4.270764e+001  8.863315e+001 
3415625000  -4.330923e+001  9.286373e+001 
3418750000  -4.385528e+001  9.826176e+001 
3421875000  -4.391966e+001  1.068430e+002 
3425000000  -4.302710e+001  1.097534e+002 
3428125000  -4.214803e+001  1.103414e+002 
3431250000  -4.230677e+001  1.043807e+002 
3434375000  -4.189501e+001  1.030242e+002 
3437500000  -4.235049e+001  9.896252e+001 
3440625000  -4.258960e+001  1.029095e+002 
3443750000  -4.158407e+001  1.050281e+002 
3446875000  -4.057939e+001  1.006328e+002 
3450000000  -4.045417e+001  9.145403e+001 
3453125000  -4.058261e+001  8.360828e+001 
3456250000  -4.175624e+001  7.812366e+001 
3459375000  -4.288429e+001  8.072906e+001 
3462500000  -4.287616e+001  8.159785e+001 
3465625000  -4.308905e+001  7.781794e+001 
3468750000  -4.347773e+001  7.574035e+001 
3471875000  -4.320774e+001  7.552686e+001 
3475000000  -4.328194e+001  7.239824e+001 
3478125000  -4.405112e+001  6.633965e+001 
3481250000  -4.511734e+001  6.616984e+001 
3484375000  -4.663781e+001  7.046484e+001 
3487500000  -4.648246e+001  7.130408e+001 
3490625000  -4.586969e+001  7.195530e+001 
3493750000  -4.643527e+001  6.706963e+001 
3496875000  -4.760978e+001  7.066098e+001 
3500000000  -4.869575e+001  7.957502e+001 
3503125000  -4.890931e+001  8.366704e+001 
3506250000  -4.669089e+001  8.618404e+001 
3509375000  -4.702650e+001  8.444713e+001 
3512500000  -4.790691e+001  8.042940e+001 
3515625000  -4.837304e+001  8.276198e+001 
3518750000  -4.855367e+001  9.337093e+001 
3521875000  -4.808957e+001  9.471904e+001 
3525000000  -4.819542e+001  9.307259e+001 
3528125000  -4.783690e+001  1.073163e+002 
3531250000  -4.524734e+001  1.064784e+002 
3534375000  -4.513779e+001  9.728955e+001 
3537500000  -4.527943e+001  9.306608e+001 
3540625000  -4.530084e+001  9.559370e+001 
3543750000  -4.627375e+001  9.826755e+001 
3546875000  -4.586919e+001  1.077936e+002 
3550000000  -4.285372e+001  1.115159e+002 
3553125000  -4.175571e+001  9.522327e+001 
3556250000  -4.256856e+001  8.960589e+001 
3559375000  -4.238990e+001  9.064360e+001 
3562500000  -4.083390e+001  8.479079e+001 
3565625000  -4.167012e+001  7.656989e+001 
3568750000  -4.170209e+001  8.213293e+001 
3571875000  -4.126529e+001  7.981519e+001 
3575000000  -4.113832e+001  7.592853e+001 
3578125000  -4.131531e+001  7.413219e+001 
3581250000  -4.126105e+001  7.259832e+001 
3584375000  -4.066677e+001  7.108311e+001 
3587500000  -3.972380e+001  6.427975e+001 
3590625000  -4.018860e+001  5.641613e+001 
3593750000  -4.121359e+001  5.396397e+001 
3596875000  -4.142090e+001  6.306994e+001 
3600000000  -3.982335e+001  5.980629e+001 
3603125000  -3.984399e+001  4.625964e+001 
3606250000  -4.073854e+001  4.288578e+001 
3609375000  -4.093641e+001  4.176266e+001 
3612500000  -4.152585e+001  4.225562e+001 
3615625000  -4.147049e+001  3.869791e+001 
3618750000  -4.205272e+001  4.243286e+001 
3621875000  -4.155774e+001  4.012105e+001 
3625000000  -4.194715e+001  4.022386e+001 
3628125000  -4.195157e+001  3.884287e+001 
3631250000  -4.134697e+001  3.485609e+001 
3634375000  -4.283674e+001  3.589517e+001 
3637500000  -4.223358e+001  4.153644e+001 
3640625000  -4.125406e+001  4.430272e+001 
3643750000  -4.088645e+001  3.716771e+001 
3646875000  -4.126372e+001  3.354089e+001 
3650000000  -4.184056e+001  3.104163e+001 
3653125000  -4.154934e+001  3.213896e+001 
3656250000  -4.178799e+001  3.114607e+001 
3659375000  -4.226502e+001  3.293436e+001 
3662500000  -4.133604e+001  3.357126e+001 
3665625000  -4.139319e+001  3.368403e+001 
3668750000  -4.061533e+001  3.579818e+001 
3671875000  -3.948395e+001  2.958960e+001 
3675000000  -3.983944e+001  2.422266e+001 
3678125000  -4.024481e+001  2.644330e+001 
3681250000  -3.979163e+001  2.871483e+001 
3684375000  -3.970630e+001  2.397072e+001 
3687500000  -3.975996e+001  2.268162e+001 
3690625000  -3.982753e+001  2.081970e+001 
3693750000  -4.009810e+001  2.297559e+001 
3696875000  -3.989096e+001  2.589568e+001 
3700000000  -3.901653e+001  2.546691e+001 
3703125000  -3.859827e+001  2.205300e+001 
3706250000  -3.918887e+001  2.320046e+001 
3709375000  -3.874897e+001  2.625494e+001 
3712500000  -3.736921e+001  2.476445e+001 
3715625000  -3.643420e+001  2.007233e+001 
3718750000  -3.573100e+001  1.798411e+001 
3721875000  -3.524891e+001  1.146017e+001 
3725000000  -3.517486e+001  6.852822e+000 
3728125000  -3.526783e+001  6.772666e+000 
3731250000  -3.468374e+001  5.067928e+000 
3734375000  -3.362221e+001  -2.354221e-001 
3737500000  -3.412017e+001  -8.412981e+000 
3740625000  -3.471915e+001  -1.123456e+001 
3743750000  -3.462074e+001  -1.213560e+001 
3746875000  -3.461728e+001  -1.673055e+001 
3750000000  -3.491118e+001  -1.702794e+001 
3753125000  -3.461868e+001  -1.795947e+001 
3756250000  -3.450539e+001  -1.826122e+001 
3759375000  -3.437784e+001  -1.892919e+001 
3762500000  -3.367016e+001  -2.289123e+001 
3765625000  -3.421018e+001  -2.583066e+001 
3768750000  -3.434535e+001  -2.341350e+001 
3771875000  -3.262490e+001  -2.503923e+001 
3775000000  -3.232727e+001  -3.273925e+001 
3778125000  -3.263150e+001  -3.531265e+001 
3781250000  -3.241644e+001  -3.785087e+001 
3784375000  -3.217833e+001  -3.940652e+001 
3787500000  -3.165255e+001  -4.296712e+001 
3790625000  -3.223779e+001  -4.911880e+001 
3793750000  -3.240112e+001  -4.945341e+001 
3796875000  -3.149187e+001  -5.086586e+001 
3800000000  -3.002799e+001  -5.495215e+001 
3803125000  -3.063529e+001  -6.116680e+001 
3806250000  -3.125185e+001  -6.338581e+001 
3809375000  -3.109646e+001  -6.488013e+001 
3812500000  -3.035574e+001  -6.984922e+001 
3815625000  -3.093447e+001  -7.722211e+001 
3818750000  -3.181096e+001  -7.875452e+001 
3821875000  -3.217124e+001  -7.101588e+001 
3825000000  -3.023039e+001  -6.596621e+001 
3828125000  -2.879305e+001  -7.958147e+001 
3831250000  -2.929671e+001  -9.358989e+001 
3834375000  -3.054885e+001  -9.453181e+001 
3837500000  -3.140291e+001  -8.977139e+001 
3840625000  -3.049331e+001  -9.079725e+001 
3843750000  -2.927735e+001  -1.005402e+002 
3846875000  -2.992847e+001  -1.080407e+002 
3850000000  -3.118934e+001  -1.024127e+002 
3853125000  -3.054110e+001  -1.002846e+002 
3856250000  -3.040766e+001  -1.046394e+002 
3859375000  -2.979943e+001  -1.094234e+002 
3862500000  -2.934939e+001  -1.163972e+002 
3865625000  -2.955638e+001  -1.212127e+002 
3868750000  -2.962498e+001  -1.222717e+002 
3871875000  -2.888211e+001  -1.240561e+002 
3875000000  -2.898097e+001  -1.326999e+002 
3878125000  -2.991720e+001  -1.358502e+002 
3881250000  -3.019391e+001  -1.323567e+002 
3884375000  -2.965215e+001  -1.363843e+002 
3887500000  -2.962556e+001  -1.409895e+002 
3890625000  -3.023648e+001  -1.427102e+002 
3893750000  -3.061901e+001  -1.444581e+002 
3896875000  -3.065952e+001  -1.441093e+002 
3900000000  -3.095237e+001  -1.451609e+002 
3903125000  -3.061259e+001  -1.472038e+002 
3906250000  -3.037698e+001  -1.480504e+002 
3909375000  -2.973795e+001  -1.498637e+002 
3912500000  -2.967583e+001  -1.576631e+002 
3915625000  -3.084391e+001  -1.567817e+002 
3918750000  -3.093991e+001  -1.550207e+002 
3921875000  -3.062112e+001  -1.569450e+002 
3925000000  -2.977465e+001  -1.572313e+002 
3928125000  -2.910746e+001  -1.628645e+002 
3931250000  -2.939633e+001  -1.670698e+002 
3934375000  -2.967280e+001  -1.662070e+002 
3937500000  -2.980339e+001  -1.674418e+002 
3940625000  -3.029788e+001  -1.673392e+002 
3943750000  -2.932263e+001  -1.653833e+002 
3946875000  -2.807371e+001  -1.708600e+002 
3950000000  -2.850834e+001  -1.788590e+002 
3953125000  -2.956994e+001  -1.784343e+002 
3956250000  -2.873379e+001  -1.756811e+002 
3959375000  -2.737640e+001  -1.789994e+002 
3962500000  -2.689643e+001  1.770995e+002 
3965625000  -2.644866e+001  1.686714e+002 
3968750000  -2.741943e+001  1.615089e+002 
3971875000  -2.781168e+001  1.600653e+002 
3975000000  -2.718036e+001  1.583603e+002 
3978125000  -2.695512e+001  1.569053e+002 
3981250000  -2.666346e+001  1.524596e+002 
3984375000  -2.701929e+001  1.464125e+002 
3987500000  -2.744067e+001  1.440672e+002 
3990625000  -2.745985e+001  1.427962e+002 
3993750000  -2.771107e+001  1.399449e+002 
3996875000  -2.759609e+001  1.376544e+002 
4000000000  -2.772643e+001  1.355392e+002 
4003125000  -2.828932e+001  1.371833e+002 
4006250000  -2.701501e+001  1.381685e+002 
4009375000  -2.572795e+001  1.259238e+002 
4012500000  -2.673509e+001  1.189051e+002 
4015625000  -2.797221e+001  1.191955e+002 
4018750000  -2.826686e+001  1.215531e+002 
4021875000  -2.763412e+001  1.201563e+002 
4025000000  -2.720528e+001  1.150072e+002 
4028125000  -2.707849e+001  1.117304e+002 
4031250000  -2.757886e+001  1.079559e+002 
4034375000  -2.789768e+001  1.082834e+002 
4037500000  -2.732788e+001  1.099463e+002 
4040625000  -2.723308e+001  1.063047e+002 
4043750000  -2.762659e+001  1.066303e+002 
4046875000  -2.713557e+001  1.058856e+002 
4050000000  -2.663487e+001  1.004859e+002 
4053125000  -2.706546e+001  9.813673e+001 
4056250000  -2.763980e+001  1.014215e+002 
4059375000  -2.663980e+001  1.039726e+002 
4062500000  -2.517487e+001  9.967035e+001 
4065625000  -2.497237e+001  9.461103e+001 
4068750000  -2.468989e+001  9.013406e+001 
4071875000  -2.412148e+001  8.222952e+001 
4075000000  -2.445056e+001  7.608305e+001 
4078125000  -2.500018e+001  7.476608e+001 
4081250000  -2.449025e+001  7.259685e+001 
4084375000  -2.407388e+001  6.589684e+001 
4087500000  -2.438244e+001  6.001959e+001 
4090625000  -2.498272e+001  5.825090e+001 
4093750000  -2.481415e+001  5.940787e+001 
4096875000  -2.444133e+001  5.336829e+001 
4100000000  -2.499786e+001  4.644396e+001 
4103125000  -2.589529e+001  4.662021e+001 
4106250000  -2.590636e+001  5.135479e+001 
4109375000  -2.502421e+001  5.137906e+001 
4112500000  -2.444299e+001  4.478875e+001 
4115625000  -2.471434e+001  4.019254e+001 
4118750000  -2.483318e+001  3.736896e+001 
4121875000  -2.447562e+001  3.301327e+001 
4125000000  -2.477274e+001  2.790599e+001 
4128125000  -2.574804e+001  2.776235e+001 
4131250000  -2.561053e+001  3.570189e+001 
4134375000  -2.330761e+001  3.197303e+001 
4137500000  -2.298242e+001  1.311912e+001 
4140625000  -2.512497e+001  5.845709e+000 
4143750000  -2.647453e+001  1.017203e+001 
4146875000  -2.611483e+001  1.787247e+001 
4150000000  -2.517685e+001  1.500982e+001 
4153125000  -2.502295e+001  8.753196e+000 
4156250000  -2.585839e+001  6.108711e+000 
4159375000  -2.620080e+001  1.009229e+001 
4162500000  -2.507248e+001  1.445877e+001 
4165625000  -2.393503e+001  1.084037e+001 
4168750000  -2.330535e+001  3.518227e+000 
4171875000  -2.330153e+001  -5.439898e+000 
4175000000  -2.380902e+001  -1.118644e+001 
4178125000  -2.445585e+001  -1.144306e+001 
4181250000  -2.437099e+001  -1.183964e+001 
4184375000  -2.415854e+001  -1.476787e+001 
4187500000  -2.423790e+001  -1.754862e+001 
4190625000  -2.400316e+001  -2.304647e+001 
4193750000  -2.475172e+001  -2.676886e+001 
4196875000  -2.545209e+001  -2.755549e+001 
4200000000  -2.626098e+001  -2.548833e+001 
4203125000  -2.643447e+001  -1.273999e+001 
4206250000  -2.315564e+001  -1.049212e+001 
4209375000  -2.184540e+001  -3.016376e+001 
4212500000  -2.376814e+001  -3.969230e+001 
4215625000  -2.480262e+001  -3.387110e+001 
4218750000  -2.350784e+001  -2.712868e+001 
4221875000  -2.112581e+001  -3.589655e+001 
4225000000  -2.232928e+001  -4.828559e+001 
4228125000  -2.314294e+001  -4.366321e+001 
4231250000  -2.158354e+001  -4.720272e+001 
4234375000  -2.147737e+001  -5.545299e+001 
4237500000  -2.107108e+001  -5.882742e+001 
4240625000  -2.104805e+001  -6.709277e+001 
4243750000  -2.200135e+001  -7.363718e+001 
4246875000  -2.288831e+001  -7.435925e+001 
4250000000  -2.293162e+001  -7.131976e+001 
4253125000  -2.236922e+001  -7.306023e+001 
4256250000  -2.265177e+001  -7.729764e+001 
4259375000  -2.243803e+001  -7.921424e+001 
4262500000  -2.245239e+001  -8.328004e+001 
4265625000  -2.258725e+001  -8.257833e+001 
4268750000  -2.176839e+001  -8.661011e+001 
4271875000  -2.153611e+001  -9.220144e+001 
4275000000  -2.087076e+001  -9.819218e+001 
4278125000  -2.144966e+001  -1.094566e+002 
4281250000  -2.320523e+001  -1.116306e+002 
4284375000  -2.295709e+001  -1.109254e+002 
4287500000  -2.362772e+001  -1.148932e+002 
4290625000  -2.503739e+001  -1.053549e+002 
4293750000  -2.307914e+001  -9.939241e+001 
4296875000  -2.168763e+001  -1.104148e+002 
4300000000  -2.248295e+001  -1.196190e+002 
4303125000  -2.363570e+001  -1.192540e+002 
4306250000  -2.309588e+001  -1.129657e+002 
4309375000  -2.169651e+001  -1.148177e+002 
4312500000  -2.153542e+001  -1.228961e+002 
4315625000  -2.173725e+001  -1.290308e+002 
4318750000  -2.202407e+001  -1.324214e+002 
4321875000  -2.222083e+001  -1.321702e+002 
4325000000  -2.167200e+001  -1.313806e+002 
4328125000  -2.117045e+001  -1.376268e+002 
4331250000  -2.111818e+001  -1.456914e+002 
4334375000  -2.149276e+001  -1.505857e+002 
4337500000  -2.224696e+001  -1.533013e+002 
4340625000  -2.287127e+001  -1.503044e+002 
4343750000  -2.232812e+001  -1.495189e+002 
4346875000  -2.190897e+001  -1.547878e+002 
4350000000  -2.190550e+001  -1.592865e+002 
4353125000  -2.190598e+001  -1.668418e+002 
4356250000  -2.357161e+001  -1.684951e+002 
4359375000  -2.430616e+001  -1.558744e+002 
4362500000  -2.180054e+001  -1.536157e+002 
4365625000  -2.008022e+001  -1.648068e+002 
4368750000  -2.068758e+001  -1.765668e+002 
4371875000  -2.198943e+001  -1.765066e+002 
4375000000  -2.169106e+001  -1.751850e+002 
4378125000  -2.103766e+001  1.794005e+002 
4381250000  -2.116216e+001  1.737697e+002 
4384375000  -2.103115e+001  1.692895e+002 
4387500000  -2.167344e+001  1.635269e+002 
4390625000  -2.275225e+001  1.644505e+002 
4393750000  -2.209718e+001  1.666940e+002 
4396875000  -2.143625e+001  1.642279e+002 
4400000000  -2.091228e+001  1.577523e+002 
4403125000  -2.142595e+001  1.500787e+002 
4406250000  -2.232772e+001  1.487342e+002 
4409375000  -2.229156e+001  1.466915e+002 
4412500000  -2.327363e+001  1.436858e+002 
4415625000  -2.372403e+001  1.482285e+002 
4418750000  -2.252802e+001  1.530822e+002 
