!Agilent Technologies,E8363B,MY43030201,A.06.04.32
!Agilent E8363B: A.06.04.32
!Date: Tuesday, November 11, 2014 20:43:53
!Correction: S21(Response(S21)) 
!S1P File: Measurement: S21:
# Hz S  dB   R 50
3000000000  -2.663454e+001  1.597623e+002 
3003125000  -2.797647e+001  1.553394e+002 
3006250000  -2.805784e+001  1.525560e+002 
3009375000  -2.833878e+001  1.572806e+002 
3012500000  -2.793782e+001  1.573108e+002 
3015625000  -2.690532e+001  1.502431e+002 
3018750000  -2.775066e+001  1.492318e+002 
3021875000  -2.655560e+001  1.503604e+002 
3025000000  -2.523629e+001  1.471825e+002 
3028125000  -2.429625e+001  1.427683e+002 
3031250000  -2.324889e+001  1.317675e+002 
3034375000  -2.283594e+001  1.187809e+002 
3037500000  -2.315572e+001  1.067946e+002 
3040625000  -2.448297e+001  1.015678e+002 
3043750000  -2.520996e+001  9.721552e+001 
3046875000  -2.525794e+001  9.075056e+001 
3050000000  -2.705187e+001  8.360370e+001 
3053125000  -2.723187e+001  8.974879e+001 
3056250000  -2.653115e+001  9.301163e+001 
3059375000  -2.685701e+001  9.270219e+001 
3062500000  -2.536530e+001  8.875632e+001 
3065625000  -2.513360e+001  8.349843e+001 
3068750000  -2.482648e+001  7.644980e+001 
3071875000  -2.477495e+001  7.308761e+001 
3075000000  -2.477973e+001  6.976185e+001 
3078125000  -2.447349e+001  6.537107e+001 
3081250000  -2.509115e+001  6.113748e+001 
3084375000  -2.438062e+001  5.744916e+001 
3087500000  -2.421621e+001  5.393903e+001 
3090625000  -2.398325e+001  4.450075e+001 
3093750000  -2.431170e+001  3.638324e+001 
3096875000  -2.565482e+001  3.005854e+001 
3100000000  -2.580269e+001  2.836598e+001 
3103125000  -2.616209e+001  3.006019e+001 
3106250000  -2.590255e+001  2.666649e+001 
3109375000  -2.613714e+001  2.300265e+001 
3112500000  -2.622756e+001  2.235178e+001 
3115625000  -2.604037e+001  1.809659e+001 
3118750000  -2.654480e+001  1.924100e+001 
3121875000  -2.591605e+001  1.133554e+001 
3125000000  -2.697235e+001  7.900254e+000 
3128125000  -2.828326e+001  1.561327e+001 
3131250000  -2.616965e+001  1.658187e+001 
3134375000  -2.472311e+001  3.445360e+000 
3137500000  -2.531703e+001  -1.125952e+001 
3140625000  -2.699684e+001  -1.300313e+001 
3143750000  -2.803434e+001  -8.287995e+000 
3146875000  -2.763781e+001  -6.768514e+000 
3150000000  -2.656235e+001  -4.115125e+000 
3153125000  -2.654840e+001  -1.195834e+001 
3156250000  -2.749891e+001  -6.988630e+000 
3159375000  -2.599225e+001  -3.909530e+000 
3162500000  -2.395299e+001  -1.644314e+001 
3165625000  -2.483956e+001  -2.729258e+001 
3168750000  -2.525119e+001  -2.675395e+001 
3171875000  -2.432754e+001  -3.079186e+001 
3175000000  -2.493267e+001  -3.854235e+001 
3178125000  -2.477439e+001  -3.689265e+001 
3181250000  -2.355571e+001  -4.047751e+001 
3184375000  -2.269274e+001  -5.293408e+001 
3187500000  -2.376026e+001  -6.868060e+001 
3190625000  -2.661812e+001  -7.611314e+001 
3193750000  -2.729243e+001  -6.658518e+001 
3196875000  -2.683456e+001  -6.135962e+001 
3200000000  -2.603841e+001  -6.276936e+001 
3203125000  -2.512856e+001  -6.832843e+001 
3206250000  -2.539925e+001  -7.453039e+001 
3209375000  -2.494915e+001  -7.933353e+001 
3212500000  -2.503403e+001  -8.636539e+001 
3215625000  -2.514892e+001  -9.101086e+001 
3218750000  -2.589782e+001  -9.733171e+001 
3221875000  -2.691598e+001  -1.020438e+002 
3225000000  -2.656578e+001  -1.026750e+002 
3228125000  -2.679382e+001  -1.068049e+002 
3231250000  -2.754812e+001  -1.099108e+002 
3234375000  -2.747896e+001  -1.088592e+002 
3237500000  -2.748273e+001  -1.104506e+002 
3240625000  -2.717519e+001  -1.120144e+002 
3243750000  -2.678764e+001  -1.185151e+002 
3246875000  -2.724777e+001  -1.251964e+002 
3250000000  -2.769073e+001  -1.271974e+002 
3253125000  -2.788649e+001  -1.285142e+002 
3256250000  -2.774731e+001  -1.346239e+002 
3259375000  -2.804611e+001  -1.425136e+002 
3262500000  -2.927229e+001  -1.452474e+002 
3265625000  -3.002967e+001  -1.421688e+002 
3268750000  -2.997406e+001  -1.395642e+002 
3271875000  -2.982905e+001  -1.379624e+002 
3275000000  -2.863881e+001  -1.431106e+002 
3278125000  -2.909983e+001  -1.491090e+002 
3281250000  -2.934270e+001  -1.474410e+002 
3284375000  -2.899466e+001  -1.534494e+002 
3287500000  -2.913368e+001  -1.565041e+002 
3290625000  -2.948154e+001  -1.603934e+002 
3293750000  -2.916450e+001  -1.658047e+002 
3296875000  -3.015116e+001  -1.661577e+002 
3300000000  -3.020013e+001  -1.651141e+002 
3303125000  -2.900595e+001  -1.688496e+002 
3306250000  -2.878249e+001  -1.754174e+002 
3309375000  -2.857944e+001  1.796836e+002 
3312500000  -2.857479e+001  1.696003e+002 
3315625000  -2.953455e+001  1.615093e+002 
3318750000  -3.084494e+001  1.584310e+002 
3321875000  -3.208743e+001  1.582084e+002 
3325000000  -3.268134e+001  1.624491e+002 
3328125000  -3.262579e+001  1.644334e+002 
3331250000  -3.142630e+001  1.729377e+002 
3334375000  -2.890685e+001  1.632042e+002 
3337500000  -2.884328e+001  1.449341e+002 
3340625000  -3.023140e+001  1.335858e+002 
3343750000  -3.196420e+001  1.326846e+002 
3346875000  -3.267112e+001  1.333423e+002 
3350000000  -3.212611e+001  1.324580e+002 
3353125000  -3.209474e+001  1.282573e+002 
3356250000  -3.182603e+001  1.209531e+002 
3359375000  -3.268608e+001  1.126257e+002 
3362500000  -3.394612e+001  1.063633e+002 
3365625000  -3.464687e+001  1.049008e+002 
3368750000  -3.555522e+001  1.034004e+002 
3371875000  -3.579283e+001  9.960462e+001 
3375000000  -3.754301e+001  9.883495e+001 
3378125000  -3.866015e+001  9.702506e+001 
3381250000  -4.021850e+001  1.038552e+002 
3384375000  -3.968990e+001  1.249487e+002 
3387500000  -3.625970e+001  1.137248e+002 
3390625000  -3.784634e+001  9.357672e+001 
3393750000  -3.988999e+001  9.723006e+001 
3396875000  -3.901273e+001  1.013047e+002 
3400000000  -3.880209e+001  9.321641e+001 
3403125000  -4.007092e+001  9.008837e+001 
3406250000  -4.060184e+001  9.112408e+001 
3409375000  -4.145654e+001  8.669034e+001 
3412500000  -4.224100e+001  8.791101e+001 
3415625000  -4.318334e+001  9.338273e+001 
3418750000  -4.352697e+001  9.524281e+001 
3421875000  -4.371414e+001  1.049951e+002 
3425000000  -4.306985e+001  1.087891e+002 
3428125000  -4.205363e+001  1.066761e+002 
3431250000  -4.205423e+001  1.021144e+002 
3434375000  -4.208210e+001  1.007190e+002 
3437500000  -4.239359e+001  9.958145e+001 
3440625000  -4.246129e+001  1.003095e+002 
3443750000  -4.150088e+001  1.027151e+002 
3446875000  -4.058765e+001  9.881792e+001 
3450000000  -4.058536e+001  9.212948e+001 
3453125000  -4.070213e+001  8.137806e+001 
3456250000  -4.183815e+001  7.752422e+001 
3459375000  -4.309661e+001  7.892875e+001 
3462500000  -4.301609e+001  8.211037e+001 
3465625000  -4.329961e+001  7.612386e+001 
3468750000  -4.377914e+001  7.103764e+001 
3471875000  -4.351571e+001  7.359634e+001 
3475000000  -4.360379e+001  7.110088e+001 
3478125000  -4.437933e+001  6.572960e+001 
3481250000  -4.565720e+001  6.354606e+001 
3484375000  -4.705000e+001  6.794405e+001 
3487500000  -4.690015e+001  7.156827e+001 
3490625000  -4.686735e+001  7.088674e+001 
3493750000  -4.733501e+001  6.762411e+001 
3496875000  -4.819621e+001  7.250632e+001 
3500000000  -4.906505e+001  7.601057e+001 
3503125000  -4.936867e+001  8.065951e+001 
3506250000  -4.764796e+001  8.401438e+001 
3509375000  -4.816887e+001  8.146854e+001 
3512500000  -4.897449e+001  8.610712e+001 
3515625000  -4.893468e+001  8.700635e+001 
3518750000  -4.870039e+001  9.369952e+001 
3521875000  -4.880348e+001  9.875431e+001 
3525000000  -4.868760e+001  9.688427e+001 
3528125000  -4.793133e+001  1.084024e+002 
3531250000  -4.664028e+001  1.067564e+002 
3534375000  -4.520395e+001  1.022425e+002 
3537500000  -4.522176e+001  9.969085e+001 
3540625000  -4.603210e+001  9.832116e+001 
3543750000  -4.606662e+001  1.001368e+002 
3546875000  -4.585764e+001  1.129218e+002 
3550000000  -4.334009e+001  1.123748e+002 
3553125000  -4.199742e+001  9.734167e+001 
3556250000  -4.252982e+001  9.359534e+001 
3559375000  -4.244709e+001  9.586448e+001 
3562500000  -4.101000e+001  8.844650e+001 
3565625000  -4.200711e+001  8.016839e+001 
3568750000  -4.192654e+001  8.262553e+001 
3571875000  -4.188031e+001  8.322858e+001 
3575000000  -4.110129e+001  7.746835e+001 
3578125000  -4.156067e+001  7.480723e+001 
3581250000  -4.141331e+001  7.678358e+001 
3584375000  -4.092839e+001  7.518790e+001 
3587500000  -3.999110e+001  6.782678e+001 
3590625000  -4.027350e+001  6.117539e+001 
3593750000  -4.135112e+001  5.687515e+001 
3596875000  -4.136402e+001  6.493677e+001 
3600000000  -3.957538e+001  6.364762e+001 
3603125000  -3.982141e+001  5.038240e+001 
3606250000  -4.058841e+001  4.690039e+001 
3609375000  -4.093269e+001  4.806854e+001 
3612500000  -4.122113e+001  4.427072e+001 
3615625000  -4.117066e+001  4.304713e+001 
3618750000  -4.194001e+001  4.550640e+001 
3621875000  -4.171718e+001  4.292586e+001 
3625000000  -4.164640e+001  4.161169e+001 
3628125000  -4.186756e+001  4.377052e+001 
3631250000  -4.120451e+001  3.876993e+001 
3634375000  -4.225598e+001  3.823659e+001 
3637500000  -4.201331e+001  4.461179e+001 
3640625000  -4.082682e+001  4.516467e+001 
3643750000  -4.071434e+001  3.947169e+001 
3646875000  -4.118132e+001  3.391455e+001 
3650000000  -4.166382e+001  3.276324e+001 
3653125000  -4.145687e+001  3.397164e+001 
3656250000  -4.174857e+001  3.387381e+001 
3659375000  -4.178554e+001  3.655533e+001 
3662500000  -4.094410e+001  3.530779e+001 
3665625000  -4.158987e+001  3.558368e+001 
3668750000  -4.007478e+001  3.682461e+001 
3671875000  -3.919071e+001  3.418330e+001 
3675000000  -3.970074e+001  2.710492e+001 
3678125000  -4.033672e+001  2.945384e+001 
3681250000  -3.965412e+001  2.931688e+001 
3684375000  -3.965522e+001  2.663046e+001 
3687500000  -3.961645e+001  2.614920e+001 
3690625000  -3.957846e+001  2.271952e+001 
3693750000  -3.979364e+001  2.443707e+001 
3696875000  -3.979179e+001  2.685002e+001 
3700000000  -3.872375e+001  2.685932e+001 
3703125000  -3.851827e+001  2.272151e+001 
3706250000  -3.917051e+001  2.457031e+001 
3709375000  -3.857964e+001  2.729303e+001 
3712500000  -3.719968e+001  2.728800e+001 
3715625000  -3.625918e+001  2.159070e+001 
3718750000  -3.562411e+001  1.942635e+001 
3721875000  -3.515665e+001  1.346065e+001 
3725000000  -3.506951e+001  8.509986e+000 
3728125000  -3.525058e+001  7.900554e+000 
3731250000  -3.458490e+001  7.140820e+000 
3734375000  -3.356669e+001  1.115832e+000 
3737500000  -3.414757e+001  -5.107504e+000 
3740625000  -3.479751e+001  -9.076979e+000 
3743750000  -3.452834e+001  -1.103309e+001 
3746875000  -3.440749e+001  -1.478229e+001 
3750000000  -3.476062e+001  -1.593363e+001 
3753125000  -3.448689e+001  -1.555008e+001 
3756250000  -3.437429e+001  -1.626341e+001 
3759375000  -3.422892e+001  -1.632186e+001 
3762500000  -3.356469e+001  -2.090649e+001 
3765625000  -3.409190e+001  -2.377378e+001 
3768750000  -3.413803e+001  -2.079493e+001 
3771875000  -3.250965e+001  -2.408099e+001 
3775000000  -3.219698e+001  -3.063243e+001 
3778125000  -3.252039e+001  -3.333968e+001 
3781250000  -3.230120e+001  -3.575272e+001 
3784375000  -3.231557e+001  -3.760147e+001 
3787500000  -3.166684e+001  -4.133302e+001 
3790625000  -3.216318e+001  -4.749018e+001 
3793750000  -3.242208e+001  -4.753609e+001 
3796875000  -3.147815e+001  -4.930360e+001 
3800000000  -2.996595e+001  -5.267703e+001 
3803125000  -3.061086e+001  -5.951881e+001 
3806250000  -3.124205e+001  -6.159998e+001 
3809375000  -3.107573e+001  -6.294121e+001 
3812500000  -3.033560e+001  -6.746943e+001 
3815625000  -3.088957e+001  -7.467321e+001 
3818750000  -3.187863e+001  -7.635484e+001 
3821875000  -3.201295e+001  -6.917961e+001 
3825000000  -3.013523e+001  -6.290698e+001 
3828125000  -2.861678e+001  -7.674032e+001 
3831250000  -2.912468e+001  -9.132439e+001 
3834375000  -3.047614e+001  -9.259457e+001 
3837500000  -3.126923e+001  -8.801512e+001 
3840625000  -3.031989e+001  -8.795201e+001 
3843750000  -2.914692e+001  -9.802681e+001 
3846875000  -2.985412e+001  -1.053275e+002 
3850000000  -3.102305e+001  -1.006399e+002 
3853125000  -3.037720e+001  -9.797330e+001 
3856250000  -3.040546e+001  -1.027713e+002 
3859375000  -2.973948e+001  -1.067020e+002 
3862500000  -2.924634e+001  -1.131976e+002 
3865625000  -2.942349e+001  -1.184389e+002 
3868750000  -2.947837e+001  -1.189057e+002 
3871875000  -2.883842e+001  -1.210842e+002 
3875000000  -2.886497e+001  -1.295346e+002 
3878125000  -2.984174e+001  -1.324754e+002 
3881250000  -3.002871e+001  -1.293115e+002 
3884375000  -2.940341e+001  -1.333857e+002 
3887500000  -2.950629e+001  -1.380875e+002 
3890625000  -3.000371e+001  -1.405509e+002 
3893750000  -3.045917e+001  -1.417883e+002 
3896875000  -3.048403e+001  -1.414161e+002 
3900000000  -3.076754e+001  -1.425339e+002 
3903125000  -3.044397e+001  -1.443910e+002 
3906250000  -3.015953e+001  -1.450589e+002 
3909375000  -2.939555e+001  -1.470126e+002 
3912500000  -2.938522e+001  -1.546827e+002 
3915625000  -3.069893e+001  -1.542581e+002 
3918750000  -3.070337e+001  -1.518857e+002 
3921875000  -3.033777e+001  -1.531220e+002 
3925000000  -2.947423e+001  -1.541618e+002 
3928125000  -2.881054e+001  -1.594135e+002 
3931250000  -2.915037e+001  -1.637902e+002 
3934375000  -2.947464e+001  -1.633960e+002 
3937500000  -2.944048e+001  -1.646151e+002 
3940625000  -2.996495e+001  -1.644929e+002 
3943750000  -2.917565e+001  -1.624068e+002 
3946875000  -2.786731e+001  -1.681759e+002 
3950000000  -2.829209e+001  -1.758071e+002 
3953125000  -2.913275e+001  -1.755609e+002 
3956250000  -2.845771e+001  -1.722022e+002 
3959375000  -2.702302e+001  -1.757811e+002 
3962500000  -2.649922e+001  -1.794102e+002 
3965625000  -2.610976e+001  1.713893e+002 
3968750000  -2.700211e+001  1.648118e+002 
3971875000  -2.738822e+001  1.633947e+002 
3975000000  -2.678756e+001  1.608001e+002 
3978125000  -2.666226e+001  1.599538e+002 
3981250000  -2.636641e+001  1.555799e+002 
3984375000  -2.656739e+001  1.495269e+002 
3987500000  -2.709489e+001  1.471475e+002 
3990625000  -2.706108e+001  1.463838e+002 
3993750000  -2.728351e+001  1.428583e+002 
3996875000  -2.724813e+001  1.406978e+002 
4000000000  -2.734805e+001  1.382576e+002 
4003125000  -2.800154e+001  1.407217e+002 
4006250000  -2.664153e+001  1.412065e+002 
4009375000  -2.536749e+001  1.296874e+002 
4012500000  -2.629117e+001  1.221737e+002 
4015625000  -2.750336e+001  1.225490e+002 
4018750000  -2.771400e+001  1.246320e+002 
4021875000  -2.705844e+001  1.231638e+002 
4025000000  -2.667693e+001  1.180405e+002 
4028125000  -2.661312e+001  1.143649e+002 
4031250000  -2.699281e+001  1.109855e+002 
4034375000  -2.735897e+001  1.105710e+002 
4037500000  -2.679020e+001  1.122272e+002 
4040625000  -2.673396e+001  1.095678e+002 
4043750000  -2.707837e+001  1.089357e+002 
4046875000  -2.665425e+001  1.083546e+002 
4050000000  -2.602555e+001  1.024091e+002 
4053125000  -2.648898e+001  1.002004e+002 
4056250000  -2.716534e+001  1.036785e+002 
4059375000  -2.607864e+001  1.059895e+002 
4062500000  -2.460330e+001  1.017795e+002 
4065625000  -2.449136e+001  9.742695e+001 
4068750000  -2.424376e+001  9.307481e+001 
4071875000  -2.354382e+001  8.532518e+001 
4075000000  -2.380137e+001  7.871138e+001 
4078125000  -2.432961e+001  7.756870e+001 
4081250000  -2.392758e+001  7.531963e+001 
4084375000  -2.352581e+001  6.856897e+001 
4087500000  -2.378458e+001  6.227636e+001 
4090625000  -2.439017e+001  6.056891e+001 
4093750000  -2.426489e+001  6.135713e+001 
4096875000  -2.384048e+001  5.577628e+001 
4100000000  -2.443199e+001  4.882573e+001 
4103125000  -2.531036e+001  4.887323e+001 
4106250000  -2.520583e+001  5.359114e+001 
4109375000  -2.431953e+001  5.340954e+001 
4112500000  -2.379533e+001  4.678941e+001 
4115625000  -2.402238e+001  4.245880e+001 
4118750000  -2.418486e+001  3.947226e+001 
4121875000  -2.389965e+001  3.492621e+001 
4125000000  -2.414137e+001  2.997209e+001 
4128125000  -2.519285e+001  3.022097e+001 
4131250000  -2.488979e+001  3.806989e+001 
4134375000  -2.258743e+001  3.439592e+001 
4137500000  -2.224215e+001  1.511617e+001 
4140625000  -2.435042e+001  7.737604e+000 
4143750000  -2.572218e+001  1.207414e+001 
4146875000  -2.539305e+001  1.954132e+001 
4150000000  -2.447373e+001  1.673470e+001 
4153125000  -2.429943e+001  1.015214e+001 
4156250000  -2.508142e+001  7.319716e+000 
4159375000  -2.545501e+001  1.144153e+001 
4162500000  -2.437339e+001  1.579719e+001 
4165625000  -2.321403e+001  1.195423e+001 
4168750000  -2.252906e+001  5.414805e+000 
4171875000  -2.246316e+001  -4.090910e+000 
4175000000  -2.299392e+001  -1.007291e+001 
4178125000  -2.360546e+001  -1.057012e+001 
4181250000  -2.356998e+001  -1.079888e+001 
4184375000  -2.336864e+001  -1.404544e+001 
4187500000  -2.340302e+001  -1.681702e+001 
4190625000  -2.326687e+001  -2.229356e+001 
4193750000  -2.398885e+001  -2.616796e+001 
4196875000  -2.471749e+001  -2.664855e+001 
4200000000  -2.547959e+001  -2.446571e+001 
4203125000  -2.562995e+001  -1.269747e+001 
4206250000  -2.240722e+001  -9.433279e+000 
4209375000  -2.118972e+001  -2.965917e+001 
4212500000  -2.301395e+001  -3.860439e+001 
4215625000  -2.402020e+001  -3.233017e+001 
4218750000  -2.265429e+001  -2.539319e+001 
4221875000  -2.031028e+001  -3.487067e+001 
4225000000  -2.139402e+001  -4.793991e+001 
4228125000  -2.224543e+001  -4.325644e+001 
4231250000  -2.079897e+001  -4.669050e+001 
4234375000  -2.070126e+001  -5.487487e+001 
4237500000  -2.024073e+001  -5.854873e+001 
4240625000  -2.031172e+001  -6.707550e+001 
4243750000  -2.127404e+001  -7.309071e+001 
4246875000  -2.208950e+001  -7.343143e+001 
4250000000  -2.215817e+001  -7.072105e+001 
4253125000  -2.153379e+001  -7.277284e+001 
4256250000  -2.175611e+001  -7.730556e+001 
4259375000  -2.160912e+001  -7.941450e+001 
4262500000  -2.157130e+001  -8.305140e+001 
4265625000  -2.173856e+001  -8.289548e+001 
4268750000  -2.098391e+001  -8.660696e+001 
4271875000  -2.071026e+001  -9.179257e+001 
4275000000  -1.998898e+001  -9.814937e+001 
4278125000  -2.047771e+001  -1.097272e+002 
4281250000  -2.222085e+001  -1.122672e+002 
4284375000  -2.210307e+001  -1.116209e+002 
4287500000  -2.287441e+001  -1.158191e+002 
4290625000  -2.426344e+001  -1.064973e+002 
4293750000  -2.234359e+001  -9.968719e+001 
4296875000  -2.093857e+001  -1.107243e+002 
4300000000  -2.168652e+001  -1.201847e+002 
4303125000  -2.272227e+001  -1.196468e+002 
4306250000  -2.221564e+001  -1.136735e+002 
4309375000  -2.080913e+001  -1.158377e+002 
4312500000  -2.069162e+001  -1.241995e+002 
4315625000  -2.099983e+001  -1.298515e+002 
4318750000  -2.128084e+001  -1.334371e+002 
4321875000  -2.144047e+001  -1.328747e+002 
4325000000  -2.083870e+001  -1.326048e+002 
4328125000  -2.035054e+001  -1.391692e+002 
4331250000  -2.037069e+001  -1.469220e+002 
4334375000  -2.074139e+001  -1.517930e+002 
4337500000  -2.145748e+001  -1.540519e+002 
4340625000  -2.199420e+001  -1.516862e+002 
4343750000  -2.158647e+001  -1.507674e+002 
4346875000  -2.117896e+001  -1.555885e+002 
4350000000  -2.105419e+001  -1.603223e+002 
4353125000  -2.104585e+001  -1.682516e+002 
4356250000  -2.261374e+001  -1.705162e+002 
4359375000  -2.338757e+001  -1.584618e+002 
4362500000  -2.109015e+001  -1.552532e+002 
4365625000  -1.941269e+001  -1.660823e+002 
4368750000  -1.999299e+001  -1.779517e+002 
4371875000  -2.112915e+001  -1.780938e+002 
4375000000  -2.093719e+001  -1.767058e+002 
4378125000  -2.028729e+001  1.778186e+002 
4381250000  -2.037462e+001  1.724326e+002 
4384375000  -2.019180e+001  1.677915e+002 
4387500000  -2.077043e+001  1.620154e+002 
4390625000  -2.182276e+001  1.620070e+002 
4393750000  -2.133366e+001  1.644893e+002 
4396875000  -2.063400e+001  1.622911e+002 
4400000000  -2.014919e+001  1.557110e+002 
4403125000  -2.064589e+001  1.477889e+002 
4406250000  -2.148193e+001  1.465497e+002 
4409375000  -2.142327e+001  1.444122e+002 
4412500000  -2.234037e+001  1.411487e+002 
4415625000  -2.285253e+001  1.454410e+002 
4418750000  -2.186725e+001  1.506711e+002 
