!Agilent Technologies,E8363B,MY43030201,A.06.04.32
!Agilent E8363B: A.06.04.32
!Date: Tuesday, November 11, 2014 20:50:06
!Correction: S21(Response(S21)) 
!S1P File: Measurement: S21:
# Hz S  dB   R 50
3000000000  -2.653869e+001  1.530646e+002 
3003125000  -2.795631e+001  1.486072e+002 
3006250000  -2.799672e+001  1.458682e+002 
3009375000  -2.834237e+001  1.507829e+002 
3012500000  -2.783986e+001  1.506204e+002 
3015625000  -2.682869e+001  1.433752e+002 
3018750000  -2.769514e+001  1.428481e+002 
3021875000  -2.645218e+001  1.438848e+002 
3025000000  -2.514938e+001  1.408575e+002 
3028125000  -2.416844e+001  1.359155e+002 
3031250000  -2.311051e+001  1.247647e+002 
3034375000  -2.277102e+001  1.117829e+002 
3037500000  -2.310743e+001  9.984600e+001 
3040625000  -2.443413e+001  9.473495e+001 
3043750000  -2.515529e+001  9.035496e+001 
3046875000  -2.528316e+001  8.394367e+001 
3050000000  -2.702875e+001  7.720714e+001 
3053125000  -2.716771e+001  8.354981e+001 
3056250000  -2.648443e+001  8.670999e+001 
3059375000  -2.672076e+001  8.610204e+001 
3062500000  -2.521979e+001  8.240489e+001 
3065625000  -2.500755e+001  7.687923e+001 
3068750000  -2.471039e+001  6.994745e+001 
3071875000  -2.468916e+001  6.678439e+001 
3075000000  -2.462416e+001  6.299820e+001 
3078125000  -2.437068e+001  5.843144e+001 
3081250000  -2.502475e+001  5.439229e+001 
3084375000  -2.427535e+001  5.068259e+001 
3087500000  -2.413834e+001  4.696632e+001 
3090625000  -2.382464e+001  3.724315e+001 
3093750000  -2.429799e+001  2.933899e+001 
3096875000  -2.555103e+001  2.322741e+001 
3100000000  -2.570309e+001  2.193743e+001 
3103125000  -2.610878e+001  2.330280e+001 
3106250000  -2.581886e+001  1.988484e+001 
3109375000  -2.602323e+001  1.635295e+001 
3112500000  -2.616866e+001  1.545727e+001 
3115625000  -2.595771e+001  1.111395e+001 
3118750000  -2.643988e+001  1.243271e+001 
3121875000  -2.576984e+001  4.158847e+000 
3125000000  -2.693091e+001  7.474613e-001 
3128125000  -2.815000e+001  8.909459e+000 
3131250000  -2.595957e+001  9.378055e+000 
3134375000  -2.465626e+001  -4.226477e+000 
3137500000  -2.529717e+001  -1.810361e+001 
3140625000  -2.692939e+001  -1.960381e+001 
3143750000  -2.789395e+001  -1.537232e+001 
3146875000  -2.753580e+001  -1.351999e+001 
3150000000  -2.648762e+001  -1.121963e+001 
3153125000  -2.648126e+001  -1.881756e+001 
3156250000  -2.747345e+001  -1.356158e+001 
3159375000  -2.589591e+001  -1.084770e+001 
3162500000  -2.388522e+001  -2.352885e+001 
3165625000  -2.481330e+001  -3.453550e+001 
3168750000  -2.521029e+001  -3.387519e+001 
3171875000  -2.423961e+001  -3.757940e+001 
3175000000  -2.486151e+001  -4.558345e+001 
3178125000  -2.471281e+001  -4.371721e+001 
3181250000  -2.349819e+001  -4.793767e+001 
3184375000  -2.271066e+001  -6.015847e+001 
3187500000  -2.381532e+001  -7.516721e+001 
3190625000  -2.661052e+001  -8.283324e+001 
3193750000  -2.719021e+001  -7.344449e+001 
3196875000  -2.677068e+001  -6.797856e+001 
3200000000  -2.591813e+001  -6.949657e+001 
3203125000  -2.502181e+001  -7.534171e+001 
3206250000  -2.534850e+001  -8.130323e+001 
3209375000  -2.485811e+001  -8.663953e+001 
3212500000  -2.498412e+001  -9.335684e+001 
3215625000  -2.510554e+001  -9.755576e+001 
3218750000  -2.585532e+001  -1.037332e+002 
3221875000  -2.689228e+001  -1.091381e+002 
3225000000  -2.646754e+001  -1.095213e+002 
3228125000  -2.680903e+001  -1.139726e+002 
3231250000  -2.751462e+001  -1.167541e+002 
3234375000  -2.740005e+001  -1.157739e+002 
3237500000  -2.742360e+001  -1.173555e+002 
3240625000  -2.713459e+001  -1.189935e+002 
3243750000  -2.675117e+001  -1.255283e+002 
3246875000  -2.722593e+001  -1.321878e+002 
3250000000  -2.764614e+001  -1.339307e+002 
3253125000  -2.785553e+001  -1.358808e+002 
3256250000  -2.770913e+001  -1.412495e+002 
3259375000  -2.802092e+001  -1.492091e+002 
3262500000  -2.927345e+001  -1.517679e+002 
3265625000  -2.993135e+001  -1.488702e+002 
3268750000  -2.989772e+001  -1.458676e+002 
3271875000  -2.967093e+001  -1.451787e+002 
3275000000  -2.857477e+001  -1.501417e+002 
3278125000  -2.910490e+001  -1.563268e+002 
3281250000  -2.932190e+001  -1.543828e+002 
3284375000  -2.892819e+001  -1.603969e+002 
3287500000  -2.907132e+001  -1.633110e+002 
3290625000  -2.945782e+001  -1.673676e+002 
3293750000  -2.920608e+001  -1.729298e+002 
3296875000  -3.022741e+001  -1.727853e+002 
3300000000  -3.010019e+001  -1.714962e+002 
3303125000  -2.890977e+001  -1.757362e+002 
3306250000  -2.868310e+001  1.775130e+002 
3309375000  -2.851251e+001  1.726427e+002 
3312500000  -2.853082e+001  1.621332e+002 
3315625000  -2.952379e+001  1.545541e+002 
3318750000  -3.084610e+001  1.517888e+002 
3321875000  -3.216453e+001  1.519241e+002 
3325000000  -3.267633e+001  1.569055e+002 
3328125000  -3.257792e+001  1.583232e+002 
3331250000  -3.137601e+001  1.660491e+002 
3334375000  -2.871528e+001  1.560436e+002 
3337500000  -2.877980e+001  1.378778e+002 
3340625000  -3.009479e+001  1.272643e+002 
3343750000  -3.203926e+001  1.252769e+002 
3346875000  -3.256422e+001  1.271684e+002 
3350000000  -3.191439e+001  1.257385e+002 
3353125000  -3.202003e+001  1.215901e+002 
3356250000  -3.182804e+001  1.138646e+002 
3359375000  -3.271058e+001  1.049146e+002 
3362500000  -3.390528e+001  9.989712e+001 
3365625000  -3.457384e+001  9.773829e+001 
3368750000  -3.549111e+001  9.637333e+001 
3371875000  -3.591851e+001  9.307283e+001 
3375000000  -3.736811e+001  9.113802e+001 
3378125000  -3.871241e+001  9.065129e+001 
3381250000  -3.998149e+001  9.772878e+001 
3384375000  -3.946413e+001  1.195132e+002 
3387500000  -3.610562e+001  1.066502e+002 
3390625000  -3.794359e+001  8.773058e+001 
3393750000  -3.969148e+001  9.067707e+001 
3396875000  -3.888764e+001  9.468271e+001 
3400000000  -3.876925e+001  8.786761e+001 
3403125000  -3.986091e+001  8.426527e+001 
3406250000  -4.056213e+001  8.594787e+001 
3409375000  -4.123793e+001  8.185933e+001 
3412500000  -4.198186e+001  8.115373e+001 
3415625000  -4.292561e+001  8.734171e+001 
3418750000  -4.345337e+001  9.295703e+001 
3421875000  -4.379940e+001  9.948253e+001 
3425000000  -4.293698e+001  1.016732e+002 
3428125000  -4.184537e+001  1.015067e+002 
3431250000  -4.157061e+001  9.730058e+001 
3434375000  -4.142423e+001  9.360088e+001 
3437500000  -4.198462e+001  9.156126e+001 
3440625000  -4.253514e+001  9.676199e+001 
3443750000  -4.109214e+001  9.919855e+001 
3446875000  -4.000028e+001  9.310986e+001 
3450000000  -3.995746e+001  8.488279e+001 
3453125000  -4.024453e+001  7.529263e+001 
3456250000  -4.157381e+001  7.109372e+001 
3459375000  -4.286354e+001  7.305116e+001 
3462500000  -4.264202e+001  7.203986e+001 
3465625000  -4.273347e+001  7.038604e+001 
3468750000  -4.289214e+001  6.696757e+001 
3471875000  -4.340250e+001  6.653066e+001 
3475000000  -4.293055e+001  6.496561e+001 
3478125000  -4.390340e+001  5.870743e+001 
3481250000  -4.455315e+001  5.740269e+001 
3484375000  -4.624200e+001  6.359238e+001 
3487500000  -4.599569e+001  6.650890e+001 
3490625000  -4.561117e+001  6.290859e+001 
3493750000  -4.609316e+001  6.211709e+001 
3496875000  -4.762861e+001  6.235870e+001 
3500000000  -4.805443e+001  7.265183e+001 
3503125000  -4.769471e+001  7.546141e+001 
3506250000  -4.688012e+001  7.449836e+001 
3509375000  -4.700164e+001  7.426829e+001 
3512500000  -4.728863e+001  7.399753e+001 
3515625000  -4.786981e+001  7.372713e+001 
3518750000  -4.838768e+001  8.030009e+001 
3521875000  -4.794987e+001  8.506580e+001 
3525000000  -4.776640e+001  8.487391e+001 
3528125000  -4.765536e+001  9.624786e+001 
3531250000  -4.530509e+001  9.824524e+001 
3534375000  -4.505622e+001  8.981731e+001 
3537500000  -4.502008e+001  8.525285e+001 
3540625000  -4.529228e+001  8.530288e+001 
3543750000  -4.589353e+001  8.707898e+001 
3546875000  -4.571805e+001  9.839876e+001 
3550000000  -4.287452e+001  1.026556e+002 
3553125000  -4.133306e+001  8.999755e+001 
3556250000  -4.256594e+001  8.096915e+001 
3559375000  -4.216215e+001  8.051290e+001 
3562500000  -4.075231e+001  7.577572e+001 
3565625000  -4.186848e+001  6.883573e+001 
3568750000  -4.151857e+001  7.234622e+001 
3571875000  -4.136759e+001  7.162785e+001 
3575000000  -4.082954e+001  6.791042e+001 
3578125000  -4.127127e+001  6.399745e+001 
3581250000  -4.141566e+001  6.341049e+001 
3584375000  -4.047115e+001  6.223269e+001 
3587500000  -3.983585e+001  5.488060e+001 
3590625000  -3.996377e+001  4.770230e+001 
3593750000  -4.128881e+001  4.722763e+001 
3596875000  -4.136872e+001  5.428585e+001 
3600000000  -3.950470e+001  4.966232e+001 
3603125000  -3.974238e+001  3.868778e+001 
3606250000  -4.042917e+001  3.451741e+001 
3609375000  -4.079618e+001  3.468898e+001 
3612500000  -4.125689e+001  3.286364e+001 
3615625000  -4.140281e+001  2.987892e+001 
3618750000  -4.136702e+001  3.208970e+001 
3621875000  -4.142634e+001  3.046865e+001 
3625000000  -4.144895e+001  2.994513e+001 
3628125000  -4.173857e+001  2.965702e+001 
3631250000  -4.144546e+001  2.400545e+001 
3634375000  -4.244037e+001  2.712244e+001 
3637500000  -4.218317e+001  3.058857e+001 
3640625000  -4.116420e+001  3.245152e+001 
3643750000  -4.079295e+001  2.629091e+001 
3646875000  -4.112425e+001  2.291677e+001 
3650000000  -4.173610e+001  2.277836e+001 
3653125000  -4.143435e+001  2.087153e+001 
3656250000  -4.157357e+001  2.231860e+001 
3659375000  -4.204626e+001  2.421268e+001 
3662500000  -4.148447e+001  2.408015e+001 
3665625000  -4.167131e+001  2.271892e+001 
3668750000  -4.061601e+001  2.432054e+001 
3671875000  -3.957617e+001  2.184087e+001 
3675000000  -4.000425e+001  1.404123e+001 
3678125000  -4.044764e+001  1.848985e+001 
3681250000  -4.002343e+001  1.865582e+001 
3684375000  -3.970802e+001  1.578713e+001 
3687500000  -3.978775e+001  1.439942e+001 
3690625000  -3.989959e+001  1.221453e+001 
3693750000  -4.035328e+001  1.311978e+001 
3696875000  -4.026529e+001  1.807490e+001 
3700000000  -3.912174e+001  1.577328e+001 
3703125000  -3.893444e+001  1.282201e+001 
3706250000  -3.934274e+001  1.348735e+001 
3709375000  -3.865610e+001  1.830152e+001 
3712500000  -3.746740e+001  1.691227e+001 
3715625000  -3.679848e+001  1.132633e+001 
3718750000  -3.578013e+001  9.098288e+000 
3721875000  -3.544355e+001  2.664722e+000 
3725000000  -3.520780e+001  -1.890140e+000 
3728125000  -3.542387e+001  -3.261351e+000 
3731250000  -3.486723e+001  -3.098618e+000 
3734375000  -3.379057e+001  -9.540183e+000 
3737500000  -3.444803e+001  -1.561690e+001 
3740625000  -3.496011e+001  -1.907030e+001 
3743750000  -3.486033e+001  -2.202003e+001 
3746875000  -3.471976e+001  -2.507853e+001 
3750000000  -3.518987e+001  -2.588527e+001 
3753125000  -3.470998e+001  -2.512329e+001 
3756250000  -3.466567e+001  -2.664364e+001 
3759375000  -3.449653e+001  -2.702009e+001 
3762500000  -3.393829e+001  -3.144167e+001 
3765625000  -3.434118e+001  -3.337342e+001 
3768750000  -3.449524e+001  -3.199504e+001 
3771875000  -3.268433e+001  -3.405722e+001 
3775000000  -3.236663e+001  -4.196695e+001 
3778125000  -3.272344e+001  -4.266682e+001 
3781250000  -3.252105e+001  -4.596442e+001 
3784375000  -3.241851e+001  -4.806134e+001 
3787500000  -3.184407e+001  -5.155384e+001 
3790625000  -3.235075e+001  -5.711453e+001 
3793750000  -3.247611e+001  -5.729270e+001 
3796875000  -3.167557e+001  -5.915479e+001 
3800000000  -3.008017e+001  -6.217331e+001 
3803125000  -3.075058e+001  -7.009048e+001 
3806250000  -3.146710e+001  -7.199730e+001 
3809375000  -3.113166e+001  -7.350011e+001 
3812500000  -3.046605e+001  -7.800217e+001 
3815625000  -3.109340e+001  -8.516077e+001 
3818750000  -3.204385e+001  -8.644872e+001 
3821875000  -3.223140e+001  -7.839931e+001 
3825000000  -3.031972e+001  -7.400507e+001 
3828125000  -2.891396e+001  -8.758355e+001 
3831250000  -2.940796e+001  -1.017301e+002 
3834375000  -3.077460e+001  -1.032461e+002 
3837500000  -3.157072e+001  -9.740012e+001 
3840625000  -3.044619e+001  -9.838560e+001 
3843750000  -2.940508e+001  -1.082782e+002 
3846875000  -3.001932e+001  -1.158174e+002 
3850000000  -3.134944e+001  -1.106688e+002 
3853125000  -3.050816e+001  -1.077685e+002 
3856250000  -3.042032e+001  -1.129919e+002 
3859375000  -2.982763e+001  -1.173890e+002 
3862500000  -2.930688e+001  -1.239402e+002 
3865625000  -2.959892e+001  -1.291167e+002 
3868750000  -2.961466e+001  -1.293168e+002 
3871875000  -2.897235e+001  -1.319550e+002 
3875000000  -2.896139e+001  -1.410383e+002 
3878125000  -2.998461e+001  -1.434261e+002 
3881250000  -3.020842e+001  -1.407010e+002 
3884375000  -2.965145e+001  -1.449728e+002 
3887500000  -2.977224e+001  -1.490937e+002 
3890625000  -3.030440e+001  -1.518124e+002 
3893750000  -3.067254e+001  -1.533065e+002 
3896875000  -3.080798e+001  -1.522183e+002 
3900000000  -3.109974e+001  -1.531866e+002 
3903125000  -3.071675e+001  -1.556256e+002 
3906250000  -3.039145e+001  -1.557814e+002 
3909375000  -2.975376e+001  -1.584191e+002 
3912500000  -2.975322e+001  -1.661052e+002 
3915625000  -3.098904e+001  -1.652836e+002 
3918750000  -3.092453e+001  -1.634375e+002 
3921875000  -3.071760e+001  -1.646934e+002 
3925000000  -2.985556e+001  -1.657796e+002 
3928125000  -2.907368e+001  -1.717001e+002 
3931250000  -2.954019e+001  -1.751593e+002 
3934375000  -2.982604e+001  -1.748609e+002 
3937500000  -3.003089e+001  -1.758316e+002 
3940625000  -3.040248e+001  -1.753424e+002 
3943750000  -2.949341e+001  -1.741696e+002 
3946875000  -2.824413e+001  -1.795942e+002 
3950000000  -2.868894e+001  1.729158e+002 
3953125000  -2.958783e+001  1.733466e+002 
3956250000  -2.885462e+001  1.764022e+002 
3959375000  -2.756377e+001  1.731148e+002 
3962500000  -2.695354e+001  1.691548e+002 
3965625000  -2.656226e+001  1.602234e+002 
3968750000  -2.748530e+001  1.531477e+002 
3971875000  -2.791621e+001  1.515962e+002 
3975000000  -2.727385e+001  1.502718e+002 
3978125000  -2.702063e+001  1.489657e+002 
3981250000  -2.684129e+001  1.443129e+002 
3984375000  -2.699867e+001  1.381132e+002 
3987500000  -2.755835e+001  1.357864e+002 
3990625000  -2.750542e+001  1.356400e+002 
3993750000  -2.775443e+001  1.318471e+002 
3996875000  -2.768407e+001  1.291682e+002 
4000000000  -2.780510e+001  1.271003e+002 
4003125000  -2.842585e+001  1.292979e+002 
4006250000  -2.700925e+001  1.295827e+002 
4009375000  -2.577708e+001  1.174923e+002 
4012500000  -2.686739e+001  1.103763e+002 
4015625000  -2.811644e+001  1.109268e+002 
4018750000  -2.831211e+001  1.130876e+002 
4021875000  -2.765352e+001  1.111875e+002 
4025000000  -2.721537e+001  1.069779e+002 
4028125000  -2.715348e+001  1.026032e+002 
4031250000  -2.769648e+001  9.946474e+001 
4034375000  -2.795884e+001  9.940073e+001 
4037500000  -2.741743e+001  1.015932e+002 
4040625000  -2.733487e+001  9.839335e+001 
4043750000  -2.771445e+001  9.736697e+001 
4046875000  -2.730628e+001  9.709927e+001 
4050000000  -2.676416e+001  9.151830e+001 
4053125000  -2.723660e+001  8.965936e+001 
4056250000  -2.786402e+001  9.342065e+001 
4059375000  -2.657734e+001  9.573485e+001 
4062500000  -2.523975e+001  9.132938e+001 
4065625000  -2.510681e+001  8.666306e+001 
4068750000  -2.479229e+001  8.215542e+001 
4071875000  -2.422286e+001  7.423170e+001 
4075000000  -2.451181e+001  6.761082e+001 
4078125000  -2.512922e+001  6.667260e+001 
4081250000  -2.460696e+001  6.451233e+001 
4084375000  -2.414042e+001  5.796148e+001 
4087500000  -2.448881e+001  5.151158e+001 
4090625000  -2.513515e+001  5.016040e+001 
4093750000  -2.495916e+001  5.103495e+001 
4096875000  -2.450125e+001  4.520671e+001 
4100000000  -2.515251e+001  3.814510e+001 
4103125000  -2.603060e+001  3.856716e+001 
4106250000  -2.591941e+001  4.332247e+001 
4109375000  -2.507705e+001  4.282332e+001 
4112500000  -2.448517e+001  3.655991e+001 
4115625000  -2.480296e+001  3.239361e+001 
4118750000  -2.489824e+001  2.889741e+001 
4121875000  -2.452978e+001  2.454885e+001 
4125000000  -2.487608e+001  1.946240e+001 
4128125000  -2.590507e+001  1.948392e+001 
4131250000  -2.564248e+001  2.715653e+001 
4134375000  -2.336123e+001  2.304076e+001 
4137500000  -2.312751e+001  4.426950e+000 
4140625000  -2.521871e+001  -3.086905e+000 
4143750000  -2.662830e+001  1.931582e+000 
4146875000  -2.621211e+001  9.556788e+000 
4150000000  -2.531957e+001  6.292755e+000 
4153125000  -2.509792e+001  -5.413261e-002 
4156250000  -2.602930e+001  -2.538579e+000 
4159375000  -2.627662e+001  1.399274e+000 
4162500000  -2.512968e+001  6.138130e+000 
4165625000  -2.396945e+001  2.120690e+000 
4168750000  -2.338633e+001  -5.232060e+000 
4171875000  -2.334775e+001  -1.438764e+001 
4175000000  -2.390980e+001  -1.992270e+001 
4178125000  -2.454956e+001  -2.015962e+001 
4181250000  -2.442900e+001  -2.039066e+001 
4184375000  -2.430101e+001  -2.400716e+001 
4187500000  -2.436184e+001  -2.618280e+001 
4190625000  -2.412457e+001  -3.158628e+001 
4193750000  -2.492197e+001  -3.554226e+001 
4196875000  -2.561610e+001  -3.587064e+001 
4200000000  -2.648873e+001  -3.405894e+001 
4203125000  -2.653546e+001  -2.026800e+001 
4206250000  -2.321122e+001  -1.890710e+001 
4209375000  -2.198330e+001  -3.918912e+001 
4212500000  -2.381012e+001  -4.839462e+001 
4215625000  -2.490622e+001  -4.238550e+001 
4218750000  -2.362557e+001  -3.517489e+001 
4221875000  -2.127692e+001  -4.456548e+001 
4225000000  -2.252145e+001  -5.684661e+001 
4228125000  -2.317518e+001  -5.174631e+001 
4231250000  -2.162239e+001  -5.534249e+001 
4234375000  -2.154939e+001  -6.385211e+001 
4237500000  -2.114513e+001  -6.740821e+001 
4240625000  -2.111787e+001  -7.558093e+001 
4243750000  -2.207601e+001  -8.214745e+001 
4246875000  -2.296285e+001  -8.268985e+001 
4250000000  -2.305745e+001  -8.001483e+001 
4253125000  -2.248536e+001  -8.155229e+001 
4256250000  -2.273596e+001  -8.574528e+001 
4259375000  -2.249750e+001  -8.780122e+001 
4262500000  -2.253495e+001  -9.143143e+001 
4265625000  -2.265277e+001  -9.126536e+001 
4268750000  -2.183164e+001  -9.529008e+001 
4271875000  -2.157235e+001  -1.008957e+002 
4275000000  -2.097076e+001  -1.071118e+002 
4278125000  -2.154512e+001  -1.184318e+002 
4281250000  -2.339820e+001  -1.205765e+002 
4284375000  -2.307718e+001  -1.199317e+002 
4287500000  -2.381447e+001  -1.234696e+002 
4290625000  -2.512787e+001  -1.138326e+002 
4293750000  -2.312762e+001  -1.080489e+002 
4296875000  -2.175822e+001  -1.194878e+002 
4300000000  -2.260177e+001  -1.284647e+002 
4303125000  -2.371699e+001  -1.275285e+002 
4306250000  -2.316855e+001  -1.217813e+002 
4309375000  -2.176945e+001  -1.231039e+002 
4312500000  -2.165807e+001  -1.316260e+002 
4315625000  -2.187971e+001  -1.379865e+002 
4318750000  -2.216653e+001  -1.414323e+002 
4321875000  -2.235101e+001  -1.406055e+002 
4325000000  -2.175922e+001  -1.399433e+002 
4328125000  -2.126959e+001  -1.463538e+002 
4331250000  -2.120749e+001  -1.541317e+002 
4334375000  -2.159270e+001  -1.592416e+002 
4337500000  -2.243264e+001  -1.615520e+002 
4340625000  -2.294789e+001  -1.582587e+002 
4343750000  -2.237137e+001  -1.577568e+002 
4346875000  -2.204052e+001  -1.633657e+002 
4350000000  -2.203061e+001  -1.679385e+002 
4353125000  -2.204163e+001  -1.756304e+002 
4356250000  -2.383432e+001  -1.767293e+002 
4359375000  -2.439602e+001  -1.636188e+002 
4362500000  -2.178754e+001  -1.615713e+002 
4365625000  -2.016656e+001  -1.733259e+002 
4368750000  -2.080928e+001  1.748086e+002 
4371875000  -2.204432e+001  1.753226e+002 
4375000000  -2.173565e+001  1.767564e+002 
4378125000  -2.105416e+001  1.707049e+002 
4381250000  -2.121710e+001  1.655091e+002 
4384375000  -2.105923e+001  1.608537e+002 
4387500000  -2.177911e+001  1.550977e+002 
4390625000  -2.280444e+001  1.561231e+002 
4393750000  -2.210894e+001  1.580464e+002 
4396875000  -2.146921e+001  1.558726e+002 
4400000000  -2.098738e+001  1.490164e+002 
4403125000  -2.150953e+001  1.414599e+002 
4406250000  -2.242098e+001  1.400309e+002 
4409375000  -2.234695e+001  1.378652e+002 
4412500000  -2.337296e+001  1.349942e+002 
4415625000  -2.379918e+001  1.397040e+002 
4418750000  -2.256504e+001  1.446940e+002 
