!Agilent Technologies,E8363B,MY43030201,A.06.04.32
!Agilent E8363B: A.06.04.32
!Date: Tuesday, November 11, 2014 20:55:19
!Correction: S21(Response(S21)) 
!S1P File: Measurement: S21:
# Hz S  dB   R 50
3000000000  -2.648890e+001  1.467655e+002 
3003125000  -2.792081e+001  1.419556e+002 
3006250000  -2.794453e+001  1.393088e+002 
3009375000  -2.835373e+001  1.445860e+002 
3012500000  -2.771885e+001  1.440311e+002 
3015625000  -2.681261e+001  1.370716e+002 
3018750000  -2.764024e+001  1.362638e+002 
3021875000  -2.637393e+001  1.376750e+002 
3025000000  -2.507300e+001  1.345294e+002 
3028125000  -2.411507e+001  1.292917e+002 
3031250000  -2.307264e+001  1.178875e+002 
3034375000  -2.273051e+001  1.048916e+002 
3037500000  -2.310550e+001  9.318392e+001 
3040625000  -2.444477e+001  8.809582e+001 
3043750000  -2.513832e+001  8.395990e+001 
3046875000  -2.525957e+001  7.763011e+001 
3050000000  -2.700834e+001  7.085965e+001 
3053125000  -2.712671e+001  7.735323e+001 
3056250000  -2.645602e+001  8.001820e+001 
3059375000  -2.670393e+001  7.981139e+001 
3062500000  -2.519650e+001  7.592199e+001 
3065625000  -2.498111e+001  7.008735e+001 
3068750000  -2.469074e+001  6.338834e+001 
3071875000  -2.465366e+001  6.023108e+001 
3075000000  -2.462615e+001  5.655170e+001 
3078125000  -2.437027e+001  5.164505e+001 
3081250000  -2.501465e+001  4.759415e+001 
3084375000  -2.423805e+001  4.396153e+001 
3087500000  -2.416103e+001  4.027236e+001 
3090625000  -2.386872e+001  3.054252e+001 
3093750000  -2.434358e+001  2.276878e+001 
3096875000  -2.562708e+001  1.698902e+001 
3100000000  -2.572462e+001  1.570373e+001 
3103125000  -2.611778e+001  1.678907e+001 
3106250000  -2.586900e+001  1.350213e+001 
3109375000  -2.608711e+001  9.774786e+000 
3112500000  -2.621804e+001  8.804269e+000 
3115625000  -2.602692e+001  4.768528e+000 
3118750000  -2.652026e+001  6.037768e+000 
3121875000  -2.583639e+001  -2.060787e+000 
3125000000  -2.704358e+001  -5.301671e+000 
3128125000  -2.824608e+001  3.051345e+000 
3131250000  -2.604921e+001  3.259516e+000 
3134375000  -2.472154e+001  -1.062039e+001 
3137500000  -2.537856e+001  -2.379291e+001 
3140625000  -2.696253e+001  -2.537330e+001 
3143750000  -2.799419e+001  -2.172583e+001 
3146875000  -2.753430e+001  -1.923727e+001 
3150000000  -2.656175e+001  -1.745433e+001 
3153125000  -2.653170e+001  -2.522498e+001 
3156250000  -2.756320e+001  -1.990807e+001 
3159375000  -2.594308e+001  -1.683975e+001 
3162500000  -2.393845e+001  -2.966993e+001 
3165625000  -2.486774e+001  -4.099837e+001 
3168750000  -2.525057e+001  -3.973127e+001 
3171875000  -2.429573e+001  -4.414437e+001 
3175000000  -2.494688e+001  -5.190111e+001 
3178125000  -2.472344e+001  -5.007811e+001 
3181250000  -2.356253e+001  -5.427772e+001 
3184375000  -2.277143e+001  -6.629023e+001 
3187500000  -2.391276e+001  -8.178137e+001 
3190625000  -2.667615e+001  -8.878182e+001 
3193750000  -2.724765e+001  -7.947016e+001 
3196875000  -2.684152e+001  -7.404207e+001 
3200000000  -2.591159e+001  -7.628812e+001 
3203125000  -2.514182e+001  -8.176186e+001 
3206250000  -2.540523e+001  -8.808041e+001 
3209375000  -2.494124e+001  -9.319941e+001 
3212500000  -2.512074e+001  -9.997715e+001 
3215625000  -2.521814e+001  -1.038726e+002 
3218750000  -2.606461e+001  -1.099982e+002 
3221875000  -2.696976e+001  -1.153400e+002 
3225000000  -2.660194e+001  -1.158090e+002 
3228125000  -2.690853e+001  -1.206484e+002 
3231250000  -2.768547e+001  -1.229318e+002 
3234375000  -2.749247e+001  -1.217201e+002 
3237500000  -2.757650e+001  -1.234598e+002 
3240625000  -2.719925e+001  -1.253662e+002 
3243750000  -2.687700e+001  -1.317469e+002 
3246875000  -2.735019e+001  -1.382206e+002 
3250000000  -2.782962e+001  -1.402437e+002 
3253125000  -2.800302e+001  -1.419182e+002 
3256250000  -2.787156e+001  -1.481942e+002 
3259375000  -2.816789e+001  -1.556371e+002 
3262500000  -2.942448e+001  -1.582346e+002 
3265625000  -3.010193e+001  -1.543159e+002 
3268750000  -3.002393e+001  -1.517806e+002 
3271875000  -2.981658e+001  -1.509098e+002 
3275000000  -2.879642e+001  -1.559971e+002 
3278125000  -2.922170e+001  -1.621032e+002 
3281250000  -2.946597e+001  -1.608037e+002 
3284375000  -2.906392e+001  -1.662769e+002 
3287500000  -2.919669e+001  -1.691773e+002 
3290625000  -2.961283e+001  -1.740820e+002 
3293750000  -2.929994e+001  -1.788255e+002 
3296875000  -3.033241e+001  -1.788636e+002 
3300000000  -3.019500e+001  -1.779047e+002 
3303125000  -2.908714e+001  1.777396e+002 
3306250000  -2.884044e+001  1.711705e+002 
3309375000  -2.866658e+001  1.661102e+002 
3312500000  -2.871345e+001  1.556027e+002 
3315625000  -2.973528e+001  1.481737e+002 
3318750000  -3.111167e+001  1.456786e+002 
3321875000  -3.229179e+001  1.459890e+002 
3325000000  -3.292800e+001  1.509048e+002 
3328125000  -3.268318e+001  1.524934e+002 
3331250000  -3.147444e+001  1.601890e+002 
3334375000  -2.887192e+001  1.500631e+002 
3337500000  -2.901288e+001  1.309894e+002 
3340625000  -3.038072e+001  1.202567e+002 
3343750000  -3.246064e+001  1.191379e+002 
3346875000  -3.275906e+001  1.209802e+002 
3350000000  -3.228272e+001  1.196076e+002 
3353125000  -3.238222e+001  1.148521e+002 
3356250000  -3.208897e+001  1.072825e+002 
3359375000  -3.295084e+001  9.900656e+001 
3362500000  -3.437259e+001  9.335551e+001 
3365625000  -3.496506e+001  9.211980e+001 
3368750000  -3.607826e+001  9.130477e+001 
3371875000  -3.607447e+001  8.768340e+001 
3375000000  -3.765020e+001  8.658395e+001 
3378125000  -3.877150e+001  8.562810e+001 
3381250000  -4.026784e+001  9.331184e+001 
3384375000  -3.928009e+001  1.146611e+002 
3387500000  -3.614663e+001  1.008828e+002 
3390625000  -3.790767e+001  8.101834e+001 
3393750000  -3.978313e+001  8.618293e+001 
3396875000  -3.908689e+001  8.936808e+001 
3400000000  -3.893532e+001  8.243851e+001 
3403125000  -4.009186e+001  7.743264e+001 
3406250000  -4.084676e+001  8.174525e+001 
3409375000  -4.139196e+001  7.680013e+001 
3412500000  -4.239073e+001  7.778828e+001 
3415625000  -4.321751e+001  8.422620e+001 
3418750000  -4.348882e+001  8.784750e+001 
3421875000  -4.362571e+001  9.526002e+001 
3425000000  -4.286723e+001  9.831668e+001 
3428125000  -4.164558e+001  9.964296e+001 
3431250000  -4.160796e+001  9.252480e+001 
3434375000  -4.147765e+001  9.136021e+001 
3437500000  -4.215007e+001  8.913052e+001 
3440625000  -4.256948e+001  9.240191e+001 
3443750000  -4.082895e+001  9.334593e+001 
3446875000  -4.002324e+001  8.865790e+001 
3450000000  -3.986035e+001  7.999787e+001 
3453125000  -4.013902e+001  7.092973e+001 
3456250000  -4.150932e+001  6.634583e+001 
3459375000  -4.226130e+001  6.876917e+001 
3462500000  -4.247206e+001  6.987251e+001 
3465625000  -4.245931e+001  6.637453e+001 
3468750000  -4.302192e+001  6.208936e+001 
3471875000  -4.294609e+001  6.378484e+001 
3475000000  -4.302196e+001  5.723174e+001 
3478125000  -4.357491e+001  5.049286e+001 
3481250000  -4.472066e+001  5.327649e+001 
3484375000  -4.606246e+001  5.855032e+001 
3487500000  -4.542857e+001  6.109815e+001 
3490625000  -4.562474e+001  5.735365e+001 
3493750000  -4.599491e+001  5.345723e+001 
3496875000  -4.734460e+001  5.635501e+001 
3500000000  -4.826339e+001  6.299529e+001 
3503125000  -4.840245e+001  6.418761e+001 
3506250000  -4.677118e+001  7.064446e+001 
3509375000  -4.693583e+001  6.868009e+001 
3512500000  -4.746022e+001  6.688847e+001 
3515625000  -4.779502e+001  7.072600e+001 
3518750000  -4.787608e+001  7.498933e+001 
3521875000  -4.781628e+001  8.278241e+001 
3525000000  -4.819780e+001  8.063616e+001 
3528125000  -4.702345e+001  9.185827e+001 
3531250000  -4.543831e+001  9.097265e+001 
3534375000  -4.475685e+001  8.628851e+001 
3537500000  -4.470092e+001  7.979074e+001 
3540625000  -4.537030e+001  8.106214e+001 
3543750000  -4.593200e+001  8.250141e+001 
3546875000  -4.521961e+001  9.588779e+001 
3550000000  -4.285050e+001  9.653197e+001 
3553125000  -4.101152e+001  8.046790e+001 
3556250000  -4.234970e+001  7.272616e+001 
3559375000  -4.178804e+001  7.859362e+001 
3562500000  -4.075977e+001  6.911097e+001 
3565625000  -4.148172e+001  6.230903e+001 
3568750000  -4.157302e+001  6.730150e+001 
3571875000  -4.131577e+001  6.492747e+001 
3575000000  -4.082035e+001  6.010855e+001 
3578125000  -4.153336e+001  5.638113e+001 
3581250000  -4.136288e+001  5.721221e+001 
3584375000  -4.052422e+001  5.706525e+001 
3587500000  -3.985888e+001  5.079761e+001 
3590625000  -4.031562e+001  4.085431e+001 
3593750000  -4.129555e+001  4.152319e+001 
3596875000  -4.108124e+001  4.942796e+001 
3600000000  -3.960386e+001  4.524602e+001 
3603125000  -3.998110e+001  3.148002e+001 
3606250000  -4.039624e+001  2.793446e+001 
3609375000  -4.081855e+001  2.832366e+001 
3612500000  -4.126915e+001  2.752336e+001 
3615625000  -4.146484e+001  2.535202e+001 
3618750000  -4.221003e+001  2.562403e+001 
3621875000  -4.151964e+001  2.607376e+001 
3625000000  -4.189600e+001  2.536399e+001 
3628125000  -4.184042e+001  2.460140e+001 
3631250000  -4.147720e+001  2.282359e+001 
3634375000  -4.247630e+001  2.358539e+001 
3637500000  -4.225932e+001  2.615821e+001 
3640625000  -4.109728e+001  2.809142e+001 
3643750000  -4.081400e+001  2.416994e+001 
3646875000  -4.141226e+001  1.929840e+001 
3650000000  -4.174369e+001  1.881584e+001 
3653125000  -4.162264e+001  1.749014e+001 
3656250000  -4.180296e+001  1.609870e+001 
3659375000  -4.198590e+001  2.016875e+001 
3662500000  -4.107241e+001  1.882476e+001 
3665625000  -4.122805e+001  2.025339e+001 
3668750000  -4.007819e+001  2.173382e+001 
3671875000  -3.917633e+001  1.739031e+001 
3675000000  -3.958577e+001  9.341535e+000 
3678125000  -4.017570e+001  1.104287e+001 
3681250000  -3.982988e+001  1.175745e+001 
3684375000  -3.954177e+001  1.076305e+001 
3687500000  -3.977557e+001  7.625922e+000 
3690625000  -3.980508e+001  5.489139e+000 
3693750000  -4.012805e+001  9.869007e+000 
3696875000  -4.022240e+001  1.046424e+001 
3700000000  -3.893283e+001  8.648417e+000 
3703125000  -3.863641e+001  6.761189e+000 
3706250000  -3.941276e+001  9.626762e+000 
3709375000  -3.875172e+001  1.078223e+001 
3712500000  -3.735894e+001  1.116415e+001 
3715625000  -3.656558e+001  4.694649e+000 
3718750000  -3.573722e+001  2.798912e+000 
3721875000  -3.528820e+001  -2.581288e+000 
3725000000  -3.532588e+001  -6.750694e+000 
3728125000  -3.549110e+001  -6.998236e+000 
3731250000  -3.468325e+001  -8.655861e+000 
3734375000  -3.381341e+001  -1.511789e+001 
3737500000  -3.439123e+001  -2.157785e+001 
3740625000  -3.500253e+001  -2.425254e+001 
3743750000  -3.472633e+001  -2.673569e+001 
3746875000  -3.463740e+001  -3.038334e+001 
3750000000  -3.515826e+001  -3.068567e+001 
3753125000  -3.479451e+001  -3.081417e+001 
3756250000  -3.461155e+001  -3.225343e+001 
3759375000  -3.437802e+001  -3.318457e+001 
3762500000  -3.376961e+001  -3.687737e+001 
3765625000  -3.434867e+001  -3.937985e+001 
3768750000  -3.432772e+001  -3.696151e+001 
3771875000  -3.254520e+001  -3.926834e+001 
3775000000  -3.231725e+001  -4.735530e+001 
3778125000  -3.273253e+001  -4.845712e+001 
3781250000  -3.242078e+001  -5.121032e+001 
3784375000  -3.238391e+001  -5.366320e+001 
3787500000  -3.171965e+001  -5.768310e+001 
3790625000  -3.228882e+001  -6.285643e+001 
3793750000  -3.245414e+001  -6.401340e+001 
3796875000  -3.144424e+001  -6.463234e+001 
3800000000  -2.993616e+001  -6.861879e+001 
3803125000  -3.070971e+001  -7.540585e+001 
3806250000  -3.130833e+001  -7.812513e+001 
3809375000  -3.113308e+001  -7.907841e+001 
3812500000  -3.040537e+001  -8.402040e+001 
3815625000  -3.099759e+001  -9.205994e+001 
3818750000  -3.201571e+001  -9.272820e+001 
3821875000  -3.213844e+001  -8.432963e+001 
3825000000  -3.014882e+001  -7.985136e+001 
3828125000  -2.881235e+001  -9.404954e+001 
3831250000  -2.934356e+001  -1.081160e+002 
3834375000  -3.077687e+001  -1.089200e+002 
3837500000  -3.163323e+001  -1.031304e+002 
3840625000  -3.047114e+001  -1.050861e+002 
3843750000  -2.924158e+001  -1.144166e+002 
3846875000  -3.012748e+001  -1.224570e+002 
3850000000  -3.129079e+001  -1.166441e+002 
3853125000  -3.049018e+001  -1.137415e+002 
3856250000  -3.044223e+001  -1.183728e+002 
3859375000  -2.981133e+001  -1.230846e+002 
3862500000  -2.928528e+001  -1.303062e+002 
3865625000  -2.968459e+001  -1.346306e+002 
3868750000  -2.971353e+001  -1.356972e+002 
3871875000  -2.888704e+001  -1.383408e+002 
3875000000  -2.901313e+001  -1.469979e+002 
3878125000  -3.011902e+001  -1.496528e+002 
3881250000  -3.016806e+001  -1.457070e+002 
3884375000  -2.965557e+001  -1.505838e+002 
3887500000  -2.979471e+001  -1.550015e+002 
3890625000  -3.028708e+001  -1.568739e+002 
3893750000  -3.069640e+001  -1.589903e+002 
3896875000  -3.079816e+001  -1.579687e+002 
3900000000  -3.108111e+001  -1.583190e+002 
3903125000  -3.066238e+001  -1.610030e+002 
3906250000  -3.039642e+001  -1.618375e+002 
3909375000  -2.965832e+001  -1.644049e+002 
3912500000  -2.973276e+001  -1.715958e+002 
3915625000  -3.099528e+001  -1.711807e+002 
3918750000  -3.091560e+001  -1.691177e+002 
3921875000  -3.052962e+001  -1.708591e+002 
3925000000  -2.978186e+001  -1.713951e+002 
3928125000  -2.911393e+001  -1.773743e+002 
3931250000  -2.950123e+001  1.779661e+002 
3934375000  -2.973050e+001  1.785768e+002 
3937500000  -2.991291e+001  1.778517e+002 
3940625000  -3.039610e+001  1.778435e+002 
3943750000  -2.940727e+001  1.792367e+002 
3946875000  -2.809526e+001  1.739434e+002 
3950000000  -2.872530e+001  1.663875e+002 
3953125000  -2.967775e+001  1.670569e+002 
3956250000  -2.880400e+001  1.695690e+002 
3959375000  -2.745643e+001  1.668874e+002 
3962500000  -2.694644e+001  1.622923e+002 
3965625000  -2.668450e+001  1.532028e+002 
3968750000  -2.756569e+001  1.473079e+002 
3971875000  -2.783823e+001  1.455947e+002 
3975000000  -2.729098e+001  1.434694e+002 
3978125000  -2.710371e+001  1.422057e+002 
3981250000  -2.689185e+001  1.376762e+002 
3984375000  -2.717127e+001  1.317470e+002 
3987500000  -2.767025e+001  1.292862e+002 
3990625000  -2.769192e+001  1.286302e+002 
3993750000  -2.784840e+001  1.255466e+002 
3996875000  -2.778696e+001  1.233996e+002 
4000000000  -2.794261e+001  1.212311e+002 
4003125000  -2.848262e+001  1.232404e+002 
4006250000  -2.706661e+001  1.238401e+002 
4009375000  -2.592655e+001  1.115818e+002 
4012500000  -2.697834e+001  1.048851e+002 
4015625000  -2.823109e+001  1.053099e+002 
4018750000  -2.841833e+001  1.077348e+002 
4021875000  -2.763515e+001  1.060256e+002 
4025000000  -2.730477e+001  1.014622e+002 
4028125000  -2.729637e+001  9.732288e+001 
4031250000  -2.771158e+001  9.432088e+001 
4034375000  -2.794086e+001  9.410210e+001 
4037500000  -2.745414e+001  9.597581e+001 
4040625000  -2.736822e+001  9.253433e+001 
4043750000  -2.766591e+001  9.239095e+001 
4046875000  -2.720191e+001  9.193709e+001 
4050000000  -2.673800e+001  8.601582e+001 
4053125000  -2.725334e+001  8.387218e+001 
4056250000  -2.780473e+001  8.788133e+001 
4059375000  -2.652127e+001  8.997195e+001 
4062500000  -2.519211e+001  8.486494e+001 
4065625000  -2.505523e+001  8.030447e+001 
4068750000  -2.474598e+001  7.609120e+001 
4071875000  -2.413394e+001  6.810719e+001 
4075000000  -2.450075e+001  6.153624e+001 
4078125000  -2.509659e+001  6.047895e+001 
4081250000  -2.453395e+001  5.830331e+001 
4084375000  -2.415996e+001  5.129107e+001 
4087500000  -2.452693e+001  4.528265e+001 
4090625000  -2.513163e+001  4.425502e+001 
4093750000  -2.496603e+001  4.493896e+001 
4096875000  -2.451942e+001  3.862571e+001 
4100000000  -2.519967e+001  3.193993e+001 
4103125000  -2.612255e+001  3.325134e+001 
4106250000  -2.594025e+001  3.767269e+001 
4109375000  -2.505798e+001  3.708764e+001 
4112500000  -2.456044e+001  3.051980e+001 
4115625000  -2.486583e+001  2.645081e+001 
4118750000  -2.489151e+001  2.347105e+001 
4121875000  -2.454038e+001  1.883852e+001 
4125000000  -2.494871e+001  1.386277e+001 
4128125000  -2.601059e+001  1.417091e+001 
4131250000  -2.561123e+001  2.231907e+001 
4134375000  -2.326239e+001  1.767406e+001 
4137500000  -2.314309e+001  -1.108284e+000 
4140625000  -2.525141e+001  -7.782049e+000 
4143750000  -2.652752e+001  -2.696202e+000 
4146875000  -2.618733e+001  4.596327e+000 
4150000000  -2.524524e+001  1.233908e+000 
4153125000  -2.501892e+001  -5.481145e+000 
4156250000  -2.590400e+001  -7.677404e+000 
4159375000  -2.622496e+001  -3.075397e+000 
4162500000  -2.503593e+001  1.002415e+000 
4165625000  -2.383026e+001  -2.982096e+000 
4168750000  -2.329798e+001  -1.057990e+001 
4171875000  -2.322043e+001  -1.965359e+001 
4175000000  -2.382695e+001  -2.529768e+001 
4178125000  -2.445105e+001  -2.503854e+001 
4181250000  -2.425870e+001  -2.621741e+001 
4184375000  -2.413657e+001  -2.923105e+001 
4187500000  -2.421362e+001  -3.201862e+001 
4190625000  -2.397118e+001  -3.758620e+001 
4193750000  -2.479362e+001  -4.132474e+001 
4196875000  -2.554061e+001  -4.187218e+001 
4200000000  -2.637510e+001  -3.936364e+001 
4203125000  -2.645801e+001  -2.606634e+001 
4206250000  -2.295292e+001  -2.468612e+001 
4209375000  -2.182820e+001  -4.517200e+001 
4212500000  -2.382114e+001  -5.409781e+001 
4215625000  -2.478715e+001  -4.756136e+001 
4218750000  -2.353535e+001  -4.126762e+001 
4221875000  -2.113073e+001  -5.029900e+001 
4225000000  -2.245170e+001  -6.316305e+001 
4228125000  -2.306989e+001  -5.769445e+001 
4231250000  -2.152997e+001  -6.149065e+001 
4234375000  -2.147746e+001  -7.014267e+001 
4237500000  -2.102317e+001  -7.336774e+001 
4240625000  -2.105546e+001  -8.166718e+001 
4243750000  -2.205559e+001  -8.837114e+001 
4246875000  -2.293938e+001  -8.839388e+001 
4250000000  -2.293664e+001  -8.553728e+001 
4253125000  -2.238552e+001  -8.742098e+001 
4256250000  -2.270017e+001  -9.136964e+001 
4259375000  -2.238894e+001  -9.346074e+001 
4262500000  -2.240557e+001  -9.696548e+001 
4265625000  -2.258235e+001  -9.648418e+001 
4268750000  -2.169083e+001  -1.006479e+002 
4271875000  -2.143547e+001  -1.066195e+002 
4275000000  -2.081400e+001  -1.128769e+002 
4278125000  -2.143824e+001  -1.240872e+002 
4281250000  -2.316123e+001  -1.258768e+002 
4284375000  -2.288418e+001  -1.250417e+002 
4287500000  -2.369798e+001  -1.287575e+002 
4290625000  -2.491738e+001  -1.190715e+002 
4293750000  -2.292555e+001  -1.140050e+002 
4296875000  -2.156947e+001  -1.251889e+002 
4300000000  -2.240450e+001  -1.341171e+002 
4303125000  -2.354204e+001  -1.329344e+002 
4306250000  -2.282803e+001  -1.271089e+002 
4309375000  -2.145322e+001  -1.293242e+002 
4312500000  -2.134642e+001  -1.379752e+002 
4315625000  -2.159477e+001  -1.439675e+002 
4318750000  -2.189832e+001  -1.473831e+002 
4321875000  -2.206004e+001  -1.468247e+002 
4325000000  -2.146962e+001  -1.462939e+002 
4328125000  -2.097873e+001  -1.526898e+002 
4331250000  -2.091210e+001  -1.612577e+002 
4334375000  -2.134062e+001  -1.661356e+002 
4337500000  -2.216708e+001  -1.681874e+002 
4340625000  -2.277581e+001  -1.648478e+002 
4343750000  -2.213440e+001  -1.646025e+002 
4346875000  -2.179078e+001  -1.702255e+002 
4350000000  -2.178789e+001  -1.747239e+002 
4353125000  -2.185922e+001  1.772692e+002 
4356250000  -2.367190e+001  1.763501e+002 
4359375000  -2.421447e+001  -1.696721e+002 
4362500000  -2.148478e+001  -1.680360e+002 
4365625000  -1.993420e+001  1.795337e+002 
4368750000  -2.063099e+001  1.682343e+002 
4371875000  -2.182726e+001  1.687468e+002 
4375000000  -2.150335e+001  1.698917e+002 
4378125000  -2.089251e+001  1.639195e+002 
4381250000  -2.101857e+001  1.585611e+002 
4384375000  -2.086090e+001  1.542101e+002 
4387500000  -2.160934e+001  1.484775e+002 
4390625000  -2.257544e+001  1.495287e+002 
4393750000  -2.193655e+001  1.515739e+002 
4396875000  -2.126165e+001  1.493412e+002 
4400000000  -2.072225e+001  1.422744e+002 
4403125000  -2.134738e+001  1.349722e+002 
4406250000  -2.216421e+001  1.337857e+002 
4409375000  -2.212065e+001  1.315196e+002 
4412500000  -2.315750e+001  1.287247e+002 
4415625000  -2.352184e+001  1.336866e+002 
4418750000  -2.233212e+001  1.380473e+002 
