!Agilent Technologies,E8363B,MY43030201,A.06.04.32
!Agilent E8363B: A.06.04.32
!Date: Tuesday, November 11, 2014 20:47:30
!Correction: S21(Response(S21)) 
!S1P File: Measurement: S21:
# Hz S  dB   R 50
3000000000  -2.659890e+001  1.581792e+002 
3003125000  -2.797588e+001  1.533882e+002 
3006250000  -2.806503e+001  1.504612e+002 
3009375000  -2.838029e+001  1.556588e+002 
3012500000  -2.785997e+001  1.554882e+002 
3015625000  -2.690226e+001  1.482872e+002 
3018750000  -2.778367e+001  1.472971e+002 
3021875000  -2.654877e+001  1.483597e+002 
3025000000  -2.521930e+001  1.452879e+002 
3028125000  -2.428329e+001  1.407846e+002 
3031250000  -2.323042e+001  1.296526e+002 
3034375000  -2.283605e+001  1.168051e+002 
3037500000  -2.314920e+001  1.045527e+002 
3040625000  -2.447055e+001  9.951505e+001 
3043750000  -2.522922e+001  9.505493e+001 
3046875000  -2.529040e+001  8.868900e+001 
3050000000  -2.703993e+001  8.146027e+001 
3053125000  -2.721012e+001  8.795077e+001 
3056250000  -2.654205e+001  9.089236e+001 
3059375000  -2.678657e+001  9.044842e+001 
3062500000  -2.534172e+001  8.675924e+001 
3065625000  -2.509745e+001  8.135432e+001 
3068750000  -2.483030e+001  7.440266e+001 
3071875000  -2.478373e+001  7.104506e+001 
3075000000  -2.476939e+001  6.769265e+001 
3078125000  -2.446357e+001  6.314398e+001 
3081250000  -2.507046e+001  5.885718e+001 
3084375000  -2.434252e+001  5.526242e+001 
3087500000  -2.422179e+001  5.171282e+001 
3090625000  -2.396141e+001  4.205048e+001 
3093750000  -2.432513e+001  3.384037e+001 
3096875000  -2.562020e+001  2.787921e+001 
3100000000  -2.574209e+001  2.642449e+001 
3103125000  -2.610506e+001  2.812563e+001 
3106250000  -2.587818e+001  2.424004e+001 
3109375000  -2.610904e+001  2.101105e+001 
3112500000  -2.622271e+001  2.009637e+001 
3115625000  -2.602266e+001  1.588264e+001 
3118750000  -2.652053e+001  1.685023e+001 
3121875000  -2.586899e+001  8.991570e+000 
3125000000  -2.694289e+001  5.153642e+000 
3128125000  -2.826765e+001  1.331021e+001 
3131250000  -2.612181e+001  1.455075e+001 
3134375000  -2.466606e+001  1.043504e+000 
3137500000  -2.530610e+001  -1.313445e+001 
3140625000  -2.694278e+001  -1.502846e+001 
3143750000  -2.795062e+001  -1.072184e+001 
3146875000  -2.759610e+001  -8.943339e+000 
3150000000  -2.658079e+001  -6.406152e+000 
3153125000  -2.654100e+001  -1.424556e+001 
3156250000  -2.747980e+001  -9.050661e+000 
3159375000  -2.590469e+001  -5.978382e+000 
3162500000  -2.386798e+001  -1.888753e+001 
3165625000  -2.481795e+001  -2.969419e+001 
3168750000  -2.526102e+001  -2.901822e+001 
3171875000  -2.426413e+001  -3.347057e+001 
3175000000  -2.489691e+001  -4.114275e+001 
3178125000  -2.472156e+001  -3.942043e+001 
3181250000  -2.351400e+001  -4.287545e+001 
3184375000  -2.270101e+001  -5.546973e+001 
3187500000  -2.377190e+001  -7.095880e+001 
3190625000  -2.657362e+001  -7.883806e+001 
3193750000  -2.720557e+001  -6.896891e+001 
3196875000  -2.680000e+001  -6.336038e+001 
3200000000  -2.593962e+001  -6.525182e+001 
3203125000  -2.508192e+001  -7.082731e+001 
3206250000  -2.533085e+001  -7.710700e+001 
3209375000  -2.487484e+001  -8.191277e+001 
3212500000  -2.496252e+001  -8.860273e+001 
3215625000  -2.513798e+001  -9.271596e+001 
3218750000  -2.584597e+001  -9.925612e+001 
3221875000  -2.679476e+001  -1.043540e+002 
3225000000  -2.654476e+001  -1.048585e+002 
3228125000  -2.679791e+001  -1.093045e+002 
3231250000  -2.751382e+001  -1.126334e+002 
3234375000  -2.742680e+001  -1.111436e+002 
3237500000  -2.747967e+001  -1.125252e+002 
3240625000  -2.710328e+001  -1.146310e+002 
3243750000  -2.671897e+001  -1.207815e+002 
3246875000  -2.721803e+001  -1.273995e+002 
3250000000  -2.765831e+001  -1.299401e+002 
3253125000  -2.777877e+001  -1.311785e+002 
3256250000  -2.769555e+001  -1.373086e+002 
3259375000  -2.797264e+001  -1.449459e+002 
3262500000  -2.920958e+001  -1.476754e+002 
3265625000  -2.995090e+001  -1.444946e+002 
3268750000  -2.987314e+001  -1.419243e+002 
3271875000  -2.963715e+001  -1.404934e+002 
3275000000  -2.858821e+001  -1.455014e+002 
3278125000  -2.901812e+001  -1.518765e+002 
3281250000  -2.930148e+001  -1.498253e+002 
3284375000  -2.892387e+001  -1.560168e+002 
3287500000  -2.900965e+001  -1.587871e+002 
3290625000  -2.947325e+001  -1.626662e+002 
3293750000  -2.911966e+001  -1.686199e+002 
3296875000  -3.006325e+001  -1.686202e+002 
3300000000  -3.006752e+001  -1.678610e+002 
3303125000  -2.897539e+001  -1.715233e+002 
3306250000  -2.869963e+001  -1.779345e+002 
3309375000  -2.847065e+001  1.770327e+002 
3312500000  -2.843684e+001  1.669143e+002 
3315625000  -2.943552e+001  1.592767e+002 
3318750000  -3.074421e+001  1.564331e+002 
3321875000  -3.197075e+001  1.558363e+002 
3325000000  -3.260804e+001  1.607804e+002 
3328125000  -3.255044e+001  1.613292e+002 
3331250000  -3.128122e+001  1.695622e+002 
3334375000  -2.873382e+001  1.607407e+002 
3337500000  -2.873476e+001  1.423041e+002 
3340625000  -3.001376e+001  1.312288e+002 
3343750000  -3.202666e+001  1.299178e+002 
3346875000  -3.260951e+001  1.312632e+002 
3350000000  -3.194558e+001  1.299796e+002 
3353125000  -3.195772e+001  1.255940e+002 
3356250000  -3.167904e+001  1.182681e+002 
3359375000  -3.256346e+001  1.096888e+002 
3362500000  -3.390926e+001  1.039146e+002 
3365625000  -3.453544e+001  1.026197e+002 
3368750000  -3.546905e+001  1.005597e+002 
3371875000  -3.590144e+001  9.742641e+001 
3375000000  -3.728009e+001  9.574164e+001 
3378125000  -3.836237e+001  9.514109e+001 
3381250000  -3.995380e+001  1.007414e+002 
3384375000  -3.935385e+001  1.238197e+002 
3387500000  -3.602208e+001  1.091018e+002 
3390625000  -3.778046e+001  9.060279e+001 
3393750000  -3.954865e+001  9.498074e+001 
3396875000  -3.872263e+001  9.787760e+001 
3400000000  -3.867976e+001  9.090905e+001 
3403125000  -3.973658e+001  8.672446e+001 
3406250000  -4.051127e+001  8.948347e+001 
3409375000  -4.113360e+001  8.290495e+001 
3412500000  -4.220684e+001  8.493696e+001 
3415625000  -4.330572e+001  9.040182e+001 
3418750000  -4.350991e+001  9.459913e+001 
3421875000  -4.345355e+001  1.012728e+002 
3425000000  -4.287561e+001  1.044385e+002 
3428125000  -4.213686e+001  1.032601e+002 
3431250000  -4.209456e+001  1.008802e+002 
3434375000  -4.172327e+001  9.601159e+001 
3437500000  -4.237413e+001  9.417734e+001 
3440625000  -4.299529e+001  9.737376e+001 
3443750000  -4.121484e+001  1.007240e+002 
3446875000  -4.045197e+001  9.524065e+001 
3450000000  -4.020785e+001  8.568827e+001 
3453125000  -4.048943e+001  7.789132e+001 
3456250000  -4.177517e+001  7.292739e+001 
3459375000  -4.269734e+001  7.687968e+001 
3462500000  -4.285200e+001  7.508073e+001 
3465625000  -4.291166e+001  7.098518e+001 
3468750000  -4.323445e+001  6.845993e+001 
3471875000  -4.367410e+001  7.078299e+001 
3475000000  -4.335484e+001  6.680587e+001 
3478125000  -4.449553e+001  6.170060e+001 
3481250000  -4.539653e+001  6.060662e+001 
3484375000  -4.658492e+001  6.428236e+001 
3487500000  -4.680648e+001  6.963986e+001 
3490625000  -4.618596e+001  6.658998e+001 
3493750000  -4.662283e+001  6.370621e+001 
3496875000  -4.751495e+001  6.451423e+001 
3500000000  -4.923093e+001  7.686534e+001 
3503125000  -4.894614e+001  8.058536e+001 
3506250000  -4.752487e+001  8.195284e+001 
3509375000  -4.774263e+001  7.958683e+001 
3512500000  -4.832170e+001  8.102308e+001 
3515625000  -4.873513e+001  7.984695e+001 
3518750000  -4.886787e+001  9.102433e+001 
3521875000  -4.861776e+001  9.208660e+001 
3525000000  -4.819951e+001  9.211948e+001 
3528125000  -4.799004e+001  1.063689e+002 
3531250000  -4.612775e+001  1.067719e+002 
3534375000  -4.512603e+001  9.789323e+001 
3537500000  -4.480414e+001  9.333569e+001 
3540625000  -4.558899e+001  9.248834e+001 
3543750000  -4.574646e+001  9.619336e+001 
3546875000  -4.548600e+001  1.077080e+002 
3550000000  -4.306955e+001  1.094929e+002 
3553125000  -4.141780e+001  9.432160e+001 
3556250000  -4.241764e+001  8.875827e+001 
3559375000  -4.216385e+001  9.248928e+001 
3562500000  -4.109966e+001  8.230637e+001 
3565625000  -4.163068e+001  7.539532e+001 
3568750000  -4.187356e+001  7.963648e+001 
3571875000  -4.161320e+001  7.983858e+001 
3575000000  -4.118544e+001  7.589066e+001 
3578125000  -4.127069e+001  6.954334e+001 
3581250000  -4.170282e+001  7.256791e+001 
3584375000  -4.085683e+001  6.941659e+001 
3587500000  -4.004482e+001  6.415844e+001 
3590625000  -4.033275e+001  5.551082e+001 
3593750000  -4.134929e+001  5.426046e+001 
3596875000  -4.123767e+001  6.128395e+001 
3600000000  -3.988926e+001  5.920401e+001 
3603125000  -3.983990e+001  4.687417e+001 
3606250000  -4.048428e+001  4.346939e+001 
3609375000  -4.073117e+001  4.163892e+001 
3612500000  -4.142053e+001  4.159485e+001 
3615625000  -4.133097e+001  3.786251e+001 
3618750000  -4.171132e+001  4.048949e+001 
3621875000  -4.151235e+001  4.082844e+001 
3625000000  -4.144190e+001  3.822450e+001 
3628125000  -4.202602e+001  3.757388e+001 
3631250000  -4.137730e+001  3.361876e+001 
3634375000  -4.233245e+001  3.422847e+001 
3637500000  -4.196454e+001  4.130861e+001 
3640625000  -4.074884e+001  4.269231e+001 
3643750000  -4.069510e+001  3.727594e+001 
3646875000  -4.094555e+001  3.042879e+001 
3650000000  -4.125857e+001  2.989880e+001 
3653125000  -4.120961e+001  2.919731e+001 
3656250000  -4.160412e+001  2.948231e+001 
3659375000  -4.180360e+001  3.284978e+001 
3662500000  -4.114682e+001  3.116278e+001 
3665625000  -4.104912e+001  3.136250e+001 
3668750000  -4.003058e+001  3.332949e+001 
3671875000  -3.917244e+001  2.827931e+001 
3675000000  -3.985810e+001  2.224139e+001 
3678125000  -4.032199e+001  2.425017e+001 
3681250000  -3.954370e+001  2.515887e+001 
3684375000  -3.970289e+001  2.296609e+001 
3687500000  -3.969026e+001  2.162874e+001 
3690625000  -3.963417e+001  2.002787e+001 
3693750000  -3.989544e+001  2.058310e+001 
3696875000  -4.018987e+001  2.365110e+001 
3700000000  -3.886496e+001  2.327553e+001 
3703125000  -3.856320e+001  1.839708e+001 
3706250000  -3.940697e+001  1.941611e+001 
3709375000  -3.866526e+001  2.447902e+001 
3712500000  -3.727362e+001  2.209966e+001 
3715625000  -3.638782e+001  1.903073e+001 
3718750000  -3.572026e+001  1.496421e+001 
3721875000  -3.522571e+001  9.252687e+000 
3725000000  -3.511086e+001  5.299005e+000 
3728125000  -3.531434e+001  4.087046e+000 
3731250000  -3.467539e+001  3.005186e+000 
3734375000  -3.352551e+001  -2.817616e+000 
3737500000  -3.410889e+001  -9.101654e+000 
3740625000  -3.475357e+001  -1.196121e+001 
3743750000  -3.458775e+001  -1.547631e+001 
3746875000  -3.448538e+001  -1.825476e+001 
3750000000  -3.479585e+001  -1.865272e+001 
3753125000  -3.440691e+001  -1.922781e+001 
3756250000  -3.431527e+001  -2.033038e+001 
3759375000  -3.418821e+001  -1.993664e+001 
3762500000  -3.359117e+001  -2.477595e+001 
3765625000  -3.408900e+001  -2.717333e+001 
3768750000  -3.417898e+001  -2.502306e+001 
3771875000  -3.252319e+001  -2.752535e+001 
3775000000  -3.229921e+001  -3.450655e+001 
3778125000  -3.258387e+001  -3.594367e+001 
3781250000  -3.221865e+001  -3.991481e+001 
3784375000  -3.223679e+001  -4.196692e+001 
3787500000  -3.155815e+001  -4.480931e+001 
3790625000  -3.197411e+001  -5.072366e+001 
3793750000  -3.230745e+001  -5.093475e+001 
3796875000  -3.146424e+001  -5.253143e+001 
3800000000  -2.991437e+001  -5.628269e+001 
3803125000  -3.059761e+001  -6.264107e+001 
3806250000  -3.125000e+001  -6.518536e+001 
3809375000  -3.103710e+001  -6.722654e+001 
3812500000  -3.027226e+001  -7.138782e+001 
3815625000  -3.078051e+001  -7.846252e+001 
3818750000  -3.188615e+001  -8.004586e+001 
3821875000  -3.194354e+001  -7.184258e+001 
3825000000  -3.008162e+001  -6.771243e+001 
3828125000  -2.867528e+001  -8.061751e+001 
3831250000  -2.908786e+001  -9.488560e+001 
3834375000  -3.048859e+001  -9.591509e+001 
3837500000  -3.137261e+001  -9.109467e+001 
3840625000  -3.028409e+001  -9.139515e+001 
3843750000  -2.909350e+001  -1.018105e+002 
3846875000  -2.979752e+001  -1.090552e+002 
3850000000  -3.106938e+001  -1.039326e+002 
3853125000  -3.041295e+001  -1.006932e+002 
3856250000  -3.027732e+001  -1.058900e+002 
3859375000  -2.964127e+001  -1.100767e+002 
3862500000  -2.914368e+001  -1.167708e+002 
3865625000  -2.941004e+001  -1.215809e+002 
3868750000  -2.934998e+001  -1.220517e+002 
3871875000  -2.870216e+001  -1.250902e+002 
3875000000  -2.874404e+001  -1.332780e+002 
3878125000  -2.978047e+001  -1.359625e+002 
3881250000  -2.986489e+001  -1.332870e+002 
3884375000  -2.931468e+001  -1.372029e+002 
3887500000  -2.941754e+001  -1.417436e+002 
3890625000  -2.987081e+001  -1.436860e+002 
3893750000  -3.039516e+001  -1.460881e+002 
3896875000  -3.041780e+001  -1.446677e+002 
3900000000  -3.075987e+001  -1.460766e+002 
3903125000  -3.044552e+001  -1.478120e+002 
3906250000  -3.009340e+001  -1.491626e+002 
3909375000  -2.939697e+001  -1.513924e+002 
3912500000  -2.940311e+001  -1.582387e+002 
3915625000  -3.054804e+001  -1.578056e+002 
3918750000  -3.062036e+001  -1.557544e+002 
3921875000  -3.026458e+001  -1.572414e+002 
3925000000  -2.952828e+001  -1.580325e+002 
3928125000  -2.872261e+001  -1.637535e+002 
3931250000  -2.908755e+001  -1.676090e+002 
3934375000  -2.940575e+001  -1.677444e+002 
3937500000  -2.950098e+001  -1.686853e+002 
3940625000  -3.001035e+001  -1.682919e+002 
3943750000  -2.906099e+001  -1.663778e+002 
3946875000  -2.786212e+001  -1.716076e+002 
3950000000  -2.822044e+001  -1.794797e+002 
3953125000  -2.910588e+001  -1.786708e+002 
3956250000  -2.835520e+001  -1.762247e+002 
3959375000  -2.696024e+001  -1.794302e+002 
3962500000  -2.647616e+001  1.761856e+002 
3965625000  -2.611786e+001  1.676050e+002 
3968750000  -2.700434e+001  1.613251e+002 
3971875000  -2.745868e+001  1.591398e+002 
3975000000  -2.679223e+001  1.571778e+002 
3978125000  -2.659666e+001  1.561236e+002 
3981250000  -2.632364e+001  1.521325e+002 
3984375000  -2.656212e+001  1.458833e+002 
3987500000  -2.707796e+001  1.434681e+002 
3990625000  -2.696648e+001  1.424090e+002 
3993750000  -2.721113e+001  1.392127e+002 
3996875000  -2.713255e+001  1.364880e+002 
4000000000  -2.720152e+001  1.347708e+002 
4003125000  -2.790871e+001  1.365954e+002 
4006250000  -2.657141e+001  1.376836e+002 
4009375000  -2.519887e+001  1.256194e+002 
4012500000  -2.619481e+001  1.181890e+002 
4015625000  -2.744424e+001  1.180935e+002 
4018750000  -2.767616e+001  1.205489e+002 
4021875000  -2.703024e+001  1.192217e+002 
4025000000  -2.663538e+001  1.140470e+002 
4028125000  -2.655249e+001  1.102418e+002 
4031250000  -2.688272e+001  1.072529e+002 
4034375000  -2.728891e+001  1.065945e+002 
4037500000  -2.676826e+001  1.084523e+002 
4040625000  -2.665246e+001  1.050472e+002 
4043750000  -2.706030e+001  1.048874e+002 
4046875000  -2.652825e+001  1.043534e+002 
4050000000  -2.597335e+001  9.869315e+001 
4053125000  -2.642064e+001  9.612877e+001 
4056250000  -2.712763e+001  9.976330e+001 
4059375000  -2.605049e+001  1.021754e+002 
4062500000  -2.465379e+001  9.793217e+001 
4065625000  -2.445989e+001  9.379844e+001 
4068750000  -2.413882e+001  8.915997e+001 
4071875000  -2.350955e+001  8.111027e+001 
4075000000  -2.378954e+001  7.477153e+001 
4078125000  -2.431778e+001  7.352196e+001 
4081250000  -2.384756e+001  7.113040e+001 
4084375000  -2.344272e+001  6.430516e+001 
4087500000  -2.376938e+001  5.828592e+001 
4090625000  -2.432575e+001  5.677016e+001 
4093750000  -2.427973e+001  5.746638e+001 
4096875000  -2.378642e+001  5.168867e+001 
4100000000  -2.437494e+001  4.509212e+001 
4103125000  -2.525238e+001  4.537873e+001 
4106250000  -2.511998e+001  4.967869e+001 
4109375000  -2.428449e+001  4.948619e+001 
4112500000  -2.372957e+001  4.253922e+001 
4115625000  -2.395500e+001  3.860699e+001 
4118750000  -2.414226e+001  3.560551e+001 
4121875000  -2.383976e+001  3.082579e+001 
4125000000  -2.413238e+001  2.580945e+001 
4128125000  -2.511403e+001  2.636077e+001 
4131250000  -2.476887e+001  3.421645e+001 
4134375000  -2.249725e+001  3.007769e+001 
4137500000  -2.221502e+001  1.111911e+001 
4140625000  -2.429600e+001  3.909674e+000 
4143750000  -2.566284e+001  8.243327e+000 
4146875000  -2.526822e+001  1.522851e+001 
4150000000  -2.441637e+001  1.283809e+001 
4153125000  -2.418645e+001  5.946542e+000 
4156250000  -2.499201e+001  3.083398e+000 
4159375000  -2.539218e+001  7.371336e+000 
4162500000  -2.424878e+001  1.136787e+001 
4165625000  -2.307441e+001  8.054511e+000 
4168750000  -2.248601e+001  9.485319e-001 
4171875000  -2.237967e+001  -8.521130e+000 
4175000000  -2.296199e+001  -1.422546e+001 
4178125000  -2.356821e+001  -1.432542e+001 
4181250000  -2.349340e+001  -1.501701e+001 
4184375000  -2.332263e+001  -1.842721e+001 
4187500000  -2.336934e+001  -2.128881e+001 
4190625000  -2.322528e+001  -2.644654e+001 
4193750000  -2.391790e+001  -3.047971e+001 
4196875000  -2.467683e+001  -3.085513e+001 
4200000000  -2.544544e+001  -2.913902e+001 
4203125000  -2.555642e+001  -1.655553e+001 
4206250000  -2.240900e+001  -1.387511e+001 
4209375000  -2.106894e+001  -3.379568e+001 
4212500000  -2.298040e+001  -4.281493e+001 
4215625000  -2.398585e+001  -3.662218e+001 
4218750000  -2.260425e+001  -2.983591e+001 
4221875000  -2.019851e+001  -3.916004e+001 
4225000000  -2.135244e+001  -5.236843e+001 
4228125000  -2.220326e+001  -4.774987e+001 
4231250000  -2.075803e+001  -5.101630e+001 
4234375000  -2.054727e+001  -5.919704e+001 
4237500000  -2.018623e+001  -6.303102e+001 
4240625000  -2.025833e+001  -7.147173e+001 
4243750000  -2.124927e+001  -7.739723e+001 
4246875000  -2.204706e+001  -7.780309e+001 
4250000000  -2.208723e+001  -7.517869e+001 
4253125000  -2.144253e+001  -7.671706e+001 
4256250000  -2.167712e+001  -8.130380e+001 
4259375000  -2.151201e+001  -8.354627e+001 
4262500000  -2.152069e+001  -8.744089e+001 
4265625000  -2.167043e+001  -8.717961e+001 
4268750000  -2.094950e+001  -9.056084e+001 
4271875000  -2.059709e+001  -9.609629e+001 
4275000000  -1.992639e+001  -1.028313e+002 
4278125000  -2.043234e+001  -1.142392e+002 
4281250000  -2.219468e+001  -1.167502e+002 
4284375000  -2.206394e+001  -1.160426e+002 
4287500000  -2.283683e+001  -1.203138e+002 
4290625000  -2.423599e+001  -1.104435e+002 
4293750000  -2.227812e+001  -1.040130e+002 
4296875000  -2.083089e+001  -1.153165e+002 
4300000000  -2.166308e+001  -1.243920e+002 
4303125000  -2.266924e+001  -1.236619e+002 
4306250000  -2.212370e+001  -1.179107e+002 
4309375000  -2.072427e+001  -1.202478e+002 
4312500000  -2.066536e+001  -1.287431e+002 
4315625000  -2.097451e+001  -1.343942e+002 
4318750000  -2.121535e+001  -1.379108e+002 
4321875000  -2.142632e+001  -1.374246e+002 
4325000000  -2.077909e+001  -1.371011e+002 
4328125000  -2.032855e+001  -1.436586e+002 
4331250000  -2.035056e+001  -1.515525e+002 
4334375000  -2.071291e+001  -1.561836e+002 
4337500000  -2.147029e+001  -1.584532e+002 
4340625000  -2.197420e+001  -1.559964e+002 
4343750000  -2.147684e+001  -1.553595e+002 
4346875000  -2.110255e+001  -1.600761e+002 
4350000000  -2.097203e+001  -1.647738e+002 
4353125000  -2.100654e+001  -1.729546e+002 
4356250000  -2.266282e+001  -1.747830e+002 
4359375000  -2.339801e+001  -1.625232e+002 
4362500000  -2.098735e+001  -1.595007e+002 
4365625000  -1.930510e+001  -1.706717e+002 
4368750000  -1.993580e+001  1.777110e+002 
4371875000  -2.111007e+001  1.771716e+002 
4375000000  -2.081913e+001  1.789177e+002 
4378125000  -2.021250e+001  1.732587e+002 
4381250000  -2.030049e+001  1.680465e+002 
4384375000  -2.014464e+001  1.630873e+002 
4387500000  -2.073044e+001  1.573732e+002 
4390625000  -2.181943e+001  1.579191e+002 
4393750000  -2.123868e+001  1.601752e+002 
4396875000  -2.058486e+001  1.578318e+002 
4400000000  -2.010412e+001  1.510659e+002 
4403125000  -2.061200e+001  1.434865e+002 
4406250000  -2.145665e+001  1.419651e+002 
4409375000  -2.138583e+001  1.395950e+002 
4412500000  -2.230610e+001  1.362699e+002 
4415625000  -2.284571e+001  1.408257e+002 
4418750000  -2.178271e+001  1.461033e+002 
