!Agilent Technologies,E8363B,MY43030201,A.06.04.32
!Agilent E8363B: A.06.04.32
!Date: Tuesday, November 11, 2014 20:50:28
!Correction: S21(Response(S21)) 
!S1P File: Measurement: S21:
# Hz S  dB   R 50
3000000000  -2.654802e+001  1.529182e+002 
3003125000  -2.794449e+001  1.483384e+002 
3006250000  -2.797663e+001  1.460508e+002 
3009375000  -2.832318e+001  1.508830e+002 
3012500000  -2.782028e+001  1.505154e+002 
3015625000  -2.682843e+001  1.434994e+002 
3018750000  -2.771550e+001  1.427357e+002 
3021875000  -2.644678e+001  1.440382e+002 
3025000000  -2.511462e+001  1.407363e+002 
3028125000  -2.417442e+001  1.358206e+002 
3031250000  -2.312582e+001  1.246590e+002 
3034375000  -2.275520e+001  1.116845e+002 
3037500000  -2.310448e+001  9.976962e+001 
3040625000  -2.446552e+001  9.464249e+001 
3043750000  -2.514187e+001  9.029578e+001 
3046875000  -2.528591e+001  8.400107e+001 
3050000000  -2.697723e+001  7.713272e+001 
3053125000  -2.714288e+001  8.360842e+001 
3056250000  -2.643962e+001  8.683694e+001 
3059375000  -2.668813e+001  8.610817e+001 
3062500000  -2.523858e+001  8.243664e+001 
3065625000  -2.502342e+001  7.669966e+001 
3068750000  -2.470685e+001  6.967342e+001 
3071875000  -2.466433e+001  6.688998e+001 
3075000000  -2.461315e+001  6.320768e+001 
3078125000  -2.436650e+001  5.842104e+001 
3081250000  -2.497285e+001  5.421249e+001 
3084375000  -2.422094e+001  5.063557e+001 
3087500000  -2.412567e+001  4.707059e+001 
3090625000  -2.379202e+001  3.718859e+001 
3093750000  -2.426323e+001  2.938509e+001 
3096875000  -2.553854e+001  2.324541e+001 
3100000000  -2.565453e+001  2.188803e+001 
3103125000  -2.602439e+001  2.329474e+001 
3106250000  -2.578127e+001  1.951093e+001 
3109375000  -2.603169e+001  1.613025e+001 
3112500000  -2.614803e+001  1.519437e+001 
3115625000  -2.594413e+001  1.106067e+001 
3118750000  -2.641287e+001  1.216753e+001 
3121875000  -2.574647e+001  4.178895e+000 
3125000000  -2.693516e+001  8.211842e-001 
3128125000  -2.814548e+001  8.768019e+000 
3131250000  -2.596745e+001  9.066519e+000 
3134375000  -2.462217e+001  -4.247306e+000 
3137500000  -2.530227e+001  -1.830072e+001 
3140625000  -2.692267e+001  -2.007566e+001 
3143750000  -2.792442e+001  -1.576782e+001 
3146875000  -2.752822e+001  -1.372079e+001 
3150000000  -2.649722e+001  -1.134093e+001 
3153125000  -2.646161e+001  -1.914498e+001 
3156250000  -2.746058e+001  -1.379893e+001 
3159375000  -2.588696e+001  -1.086070e+001 
3162500000  -2.384532e+001  -2.364400e+001 
3165625000  -2.476288e+001  -3.465470e+001 
3168750000  -2.517747e+001  -3.378393e+001 
3171875000  -2.423180e+001  -3.817971e+001 
3175000000  -2.490252e+001  -4.564673e+001 
3178125000  -2.466372e+001  -4.397873e+001 
3181250000  -2.346301e+001  -4.810771e+001 
3184375000  -2.268611e+001  -6.037725e+001 
3187500000  -2.379457e+001  -7.534132e+001 
3190625000  -2.655077e+001  -8.307158e+001 
3193750000  -2.716972e+001  -7.328763e+001 
3196875000  -2.674366e+001  -6.790893e+001 
3200000000  -2.589505e+001  -6.966842e+001 
3203125000  -2.502060e+001  -7.565714e+001 
3206250000  -2.531924e+001  -8.177934e+001 
3209375000  -2.478990e+001  -8.695480e+001 
3212500000  -2.496849e+001  -9.344385e+001 
3215625000  -2.504638e+001  -9.770042e+001 
3218750000  -2.578871e+001  -1.039410e+002 
3221875000  -2.684149e+001  -1.088513e+002 
3225000000  -2.639076e+001  -1.095263e+002 
3228125000  -2.674029e+001  -1.143782e+002 
3231250000  -2.745084e+001  -1.169872e+002 
3234375000  -2.732699e+001  -1.159278e+002 
3237500000  -2.740063e+001  -1.176576e+002 
3240625000  -2.704606e+001  -1.194635e+002 
3243750000  -2.670439e+001  -1.257798e+002 
3246875000  -2.716231e+001  -1.323619e+002 
3250000000  -2.765494e+001  -1.338885e+002 
3253125000  -2.781766e+001  -1.358213e+002 
3256250000  -2.761785e+001  -1.416714e+002 
3259375000  -2.792715e+001  -1.494396e+002 
3262500000  -2.920047e+001  -1.521649e+002 
3265625000  -2.989106e+001  -1.487212e+002 
3268750000  -2.988775e+001  -1.465562e+002 
3271875000  -2.962467e+001  -1.452060e+002 
3275000000  -2.855949e+001  -1.502060e+002 
3278125000  -2.896765e+001  -1.564449e+002 
3281250000  -2.927302e+001  -1.544819e+002 
3284375000  -2.884568e+001  -1.603941e+002 
3287500000  -2.899095e+001  -1.633545e+002 
3290625000  -2.939291e+001  -1.676985e+002 
3293750000  -2.912256e+001  -1.730934e+002 
3296875000  -3.010828e+001  -1.729892e+002 
3300000000  -3.003520e+001  -1.718457e+002 
3303125000  -2.889140e+001  -1.757864e+002 
3306250000  -2.864898e+001  1.776168e+002 
3309375000  -2.840643e+001  1.725405e+002 
3312500000  -2.842877e+001  1.622004e+002 
3315625000  -2.943878e+001  1.544885e+002 
3318750000  -3.072239e+001  1.516553e+002 
3321875000  -3.189387e+001  1.514795e+002 
3325000000  -3.245353e+001  1.568020e+002 
3328125000  -3.237395e+001  1.582936e+002 
3331250000  -3.115124e+001  1.655576e+002 
3334375000  -2.862415e+001  1.562679e+002 
3337500000  -2.866961e+001  1.378254e+002 
3340625000  -3.002128e+001  1.268383e+002 
3343750000  -3.196222e+001  1.260060e+002 
3346875000  -3.241116e+001  1.270752e+002 
3350000000  -3.171687e+001  1.257793e+002 
3353125000  -3.191172e+001  1.216889e+002 
3356250000  -3.157376e+001  1.140685e+002 
3359375000  -3.242917e+001  1.058142e+002 
3362500000  -3.371195e+001  1.000083e+002 
3365625000  -3.438993e+001  9.871505e+001 
3368750000  -3.523301e+001  9.660869e+001 
3371875000  -3.569195e+001  9.310403e+001 
3375000000  -3.727540e+001  9.240940e+001 
3378125000  -3.826075e+001  9.137669e+001 
3381250000  -3.983809e+001  9.863171e+001 
3384375000  -3.897781e+001  1.203786e+002 
3387500000  -3.579936e+001  1.059806e+002 
3390625000  -3.765623e+001  8.699151e+001 
3393750000  -3.954305e+001  9.091270e+001 
3396875000  -3.855121e+001  9.406166e+001 
3400000000  -3.867483e+001  8.577650e+001 
3403125000  -3.937601e+001  8.175744e+001 
3406250000  -4.027462e+001  8.464323e+001 
3409375000  -4.091156e+001  8.055811e+001 
3412500000  -4.184286e+001  8.246207e+001 
3415625000  -4.276242e+001  8.544145e+001 
3418750000  -4.298536e+001  9.074989e+001 
3421875000  -4.352970e+001  9.675335e+001 
3425000000  -4.251101e+001  1.006670e+002 
3428125000  -4.150130e+001  1.003721e+002 
3431250000  -4.188260e+001  9.708659e+001 
3434375000  -4.120097e+001  9.326626e+001 
3437500000  -4.177080e+001  9.196661e+001 
3440625000  -4.198115e+001  9.340682e+001 
3443750000  -4.051349e+001  9.667862e+001 
3446875000  -3.995169e+001  9.121371e+001 
3450000000  -3.984973e+001  8.240834e+001 
3453125000  -3.994576e+001  7.288823e+001 
3456250000  -4.117587e+001  6.788093e+001 
3459375000  -4.190609e+001  7.234563e+001 
3462500000  -4.242244e+001  7.008151e+001 
3465625000  -4.227187e+001  6.823988e+001 
3468750000  -4.252974e+001  6.444312e+001 
3471875000  -4.264832e+001  6.463432e+001 
3475000000  -4.262695e+001  6.201581e+001 
3478125000  -4.319201e+001  5.619816e+001 
3481250000  -4.488988e+001  5.411979e+001 
3484375000  -4.586834e+001  6.117666e+001 
3487500000  -4.556795e+001  6.391520e+001 
3490625000  -4.537294e+001  5.756235e+001 
3493750000  -4.589342e+001  5.823682e+001 
3496875000  -4.709356e+001  5.847169e+001 
3500000000  -4.820794e+001  6.401774e+001 
3503125000  -4.814674e+001  7.107721e+001 
3506250000  -4.702852e+001  7.268497e+001 
3509375000  -4.728823e+001  6.744726e+001 
3512500000  -4.781646e+001  6.672169e+001 
3515625000  -4.820077e+001  7.180046e+001 
3518750000  -4.862268e+001  7.759634e+001 
3521875000  -4.826917e+001  8.038622e+001 
3525000000  -4.833249e+001  8.395338e+001 
3528125000  -4.803307e+001  9.660185e+001 
3531250000  -4.636098e+001  9.653796e+001 
3534375000  -4.540453e+001  8.564214e+001 
3537500000  -4.485192e+001  8.220365e+001 
3540625000  -4.556552e+001  8.564597e+001 
3543750000  -4.626419e+001  8.618246e+001 
3546875000  -4.575325e+001  9.939388e+001 
3550000000  -4.317685e+001  1.023025e+002 
3553125000  -4.122710e+001  8.252361e+001 
3556250000  -4.262208e+001  7.824888e+001 
3559375000  -4.231311e+001  8.023566e+001 
3562500000  -4.105230e+001  7.294142e+001 
3565625000  -4.179633e+001  6.537963e+001 
3568750000  -4.200453e+001  6.828446e+001 
3571875000  -4.170604e+001  6.928328e+001 
3575000000  -4.132942e+001  6.546640e+001 
3578125000  -4.179224e+001  6.111912e+001 
3581250000  -4.150437e+001  6.204664e+001 
3584375000  -4.102377e+001  6.131523e+001 
3587500000  -3.996241e+001  5.545047e+001 
3590625000  -4.062180e+001  4.618189e+001 
3593750000  -4.157838e+001  4.450179e+001 
3596875000  -4.162740e+001  5.257794e+001 
3600000000  -4.007618e+001  4.852980e+001 
3603125000  -3.998992e+001  3.794695e+001 
3606250000  -4.062622e+001  3.531279e+001 
3609375000  -4.148305e+001  3.389923e+001 
3612500000  -4.170670e+001  3.359436e+001 
3615625000  -4.175116e+001  3.164179e+001 
3618750000  -4.221156e+001  3.267548e+001 
3621875000  -4.191775e+001  3.216945e+001 
3625000000  -4.189656e+001  3.211015e+001 
3628125000  -4.225727e+001  3.224206e+001 
3631250000  -4.162408e+001  2.683747e+001 
3634375000  -4.247622e+001  2.729359e+001 
3637500000  -4.213725e+001  3.390848e+001 
3640625000  -4.134965e+001  3.252308e+001 
3643750000  -4.070389e+001  2.886938e+001 
3646875000  -4.115406e+001  2.310041e+001 
3650000000  -4.170297e+001  2.295931e+001 
3653125000  -4.138555e+001  2.283906e+001 
3656250000  -4.166620e+001  2.010079e+001 
3659375000  -4.223173e+001  2.437759e+001 
3662500000  -4.123577e+001  2.283994e+001 
3665625000  -4.136237e+001  2.285719e+001 
3668750000  -4.035302e+001  2.595271e+001 
3671875000  -3.939899e+001  1.994480e+001 
3675000000  -3.984009e+001  1.412196e+001 
3678125000  -4.053814e+001  1.580587e+001 
3681250000  -3.995672e+001  1.559312e+001 
3684375000  -4.015450e+001  1.407562e+001 
3687500000  -3.996633e+001  1.300073e+001 
3690625000  -3.991076e+001  1.123244e+001 
3693750000  -4.090648e+001  1.396641e+001 
3696875000  -4.073273e+001  1.824661e+001 
3700000000  -3.923450e+001  1.396692e+001 
3703125000  -3.909466e+001  1.335651e+001 
3706250000  -3.966303e+001  1.356783e+001 
3709375000  -3.909139e+001  1.765068e+001 
3712500000  -3.771582e+001  1.779148e+001 
3715625000  -3.668273e+001  1.214267e+001 
3718750000  -3.591341e+001  8.582561e+000 
3721875000  -3.562084e+001  3.861877e+000 
3725000000  -3.550368e+001  -1.729496e+000 
3728125000  -3.569444e+001  -1.731141e+000 
3731250000  -3.507891e+001  -2.408041e+000 
3734375000  -3.397307e+001  -7.735280e+000 
3737500000  -3.436230e+001  -1.469055e+001 
3740625000  -3.495931e+001  -1.870150e+001 
3743750000  -3.486069e+001  -2.043489e+001 
3746875000  -3.473949e+001  -2.494335e+001 
3750000000  -3.505624e+001  -2.417960e+001 
3753125000  -3.472263e+001  -2.501638e+001 
3756250000  -3.468019e+001  -2.538592e+001 
3759375000  -3.440657e+001  -2.640409e+001 
3762500000  -3.391801e+001  -3.092595e+001 
3765625000  -3.431157e+001  -3.374332e+001 
3768750000  -3.450743e+001  -3.135904e+001 
3771875000  -3.266882e+001  -3.391307e+001 
3775000000  -3.237605e+001  -4.158961e+001 
3778125000  -3.273417e+001  -4.400210e+001 
3781250000  -3.258239e+001  -4.668218e+001 
3784375000  -3.239237e+001  -4.856815e+001 
3787500000  -3.180961e+001  -5.196026e+001 
3790625000  -3.224807e+001  -5.773814e+001 
3793750000  -3.247358e+001  -5.848395e+001 
3796875000  -3.161081e+001  -5.953431e+001 
3800000000  -3.006600e+001  -6.331992e+001 
3803125000  -3.088879e+001  -7.021445e+001 
3806250000  -3.154580e+001  -7.280138e+001 
3809375000  -3.121604e+001  -7.372392e+001 
3812500000  -3.061868e+001  -7.863454e+001 
3815625000  -3.112669e+001  -8.556515e+001 
3818750000  -3.216536e+001  -8.711968e+001 
3821875000  -3.229390e+001  -7.890690e+001 
3825000000  -3.026299e+001  -7.514635e+001 
3828125000  -2.898495e+001  -8.830249e+001 
3831250000  -2.947309e+001  -1.023870e+002 
3834375000  -3.073475e+001  -1.031628e+002 
3837500000  -3.171977e+001  -9.797196e+001 
3840625000  -3.057334e+001  -9.905670e+001 
3843750000  -2.942767e+001  -1.091635e+002 
3846875000  -3.014330e+001  -1.164025e+002 
3850000000  -3.144606e+001  -1.105268e+002 
3853125000  -3.054902e+001  -1.085797e+002 
3856250000  -3.058507e+001  -1.132959e+002 
3859375000  -2.982787e+001  -1.176798e+002 
3862500000  -2.943208e+001  -1.244711e+002 
3865625000  -2.964373e+001  -1.287751e+002 
3868750000  -2.972552e+001  -1.297756e+002 
3871875000  -2.901867e+001  -1.326210e+002 
3875000000  -2.910064e+001  -1.408776e+002 
3878125000  -3.010740e+001  -1.437535e+002 
3881250000  -3.023680e+001  -1.400109e+002 
3884375000  -2.967739e+001  -1.452761e+002 
3887500000  -2.983651e+001  -1.493008e+002 
3890625000  -3.032907e+001  -1.511179e+002 
3893750000  -3.070725e+001  -1.537205e+002 
3896875000  -3.080457e+001  -1.531141e+002 
3900000000  -3.114350e+001  -1.535238e+002 
3903125000  -3.071127e+001  -1.554614e+002 
3906250000  -3.053191e+001  -1.566230e+002 
3909375000  -2.974316e+001  -1.591529e+002 
3912500000  -2.973180e+001  -1.661153e+002 
3915625000  -3.095703e+001  -1.657577e+002 
3918750000  -3.102837e+001  -1.643600e+002 
3921875000  -3.062791e+001  -1.655478e+002 
3925000000  -2.979299e+001  -1.658583e+002 
3928125000  -2.918479e+001  -1.717427e+002 
3931250000  -2.962076e+001  -1.755491e+002 
3934375000  -2.981407e+001  -1.751961e+002 
3937500000  -2.997206e+001  -1.763712e+002 
3940625000  -3.045739e+001  -1.757475e+002 
3943750000  -2.952314e+001  -1.749462e+002 
3946875000  -2.829280e+001  1.798423e+002 
3950000000  -2.875327e+001  1.729596e+002 
3953125000  -2.961306e+001  1.732589e+002 
3956250000  -2.888863e+001  1.755428e+002 
3959375000  -2.750354e+001  1.722343e+002 
3962500000  -2.696684e+001  1.685045e+002 
3965625000  -2.666996e+001  1.600351e+002 
3968750000  -2.754826e+001  1.535094e+002 
3971875000  -2.795921e+001  1.519702e+002 
3975000000  -2.729554e+001  1.503589e+002 
3978125000  -2.707900e+001  1.486382e+002 
3981250000  -2.689712e+001  1.441033e+002 
3984375000  -2.710682e+001  1.382368e+002 
3987500000  -2.758209e+001  1.362554e+002 
3990625000  -2.758234e+001  1.349436e+002 
3993750000  -2.778268e+001  1.319874e+002 
3996875000  -2.774499e+001  1.296723e+002 
4000000000  -2.783816e+001  1.276012e+002 
4003125000  -2.839912e+001  1.293435e+002 
4006250000  -2.705863e+001  1.301262e+002 
4009375000  -2.585413e+001  1.177180e+002 
4012500000  -2.687624e+001  1.104055e+002 
4015625000  -2.811407e+001  1.109051e+002 
4018750000  -2.834448e+001  1.129120e+002 
4021875000  -2.762589e+001  1.115781e+002 
4025000000  -2.724758e+001  1.069566e+002 
4028125000  -2.721185e+001  1.027595e+002 
4031250000  -2.772048e+001  9.953706e+001 
4034375000  -2.795221e+001  9.984641e+001 
4037500000  -2.744985e+001  1.013397e+002 
4040625000  -2.739139e+001  9.788145e+001 
4043750000  -2.768996e+001  9.736854e+001 
4046875000  -2.728784e+001  9.665437e+001 
4050000000  -2.675303e+001  9.130107e+001 
4053125000  -2.721420e+001  8.946973e+001 
4056250000  -2.782461e+001  9.282428e+001 
4059375000  -2.662907e+001  9.564751e+001 
4062500000  -2.523332e+001  9.131618e+001 
4065625000  -2.510546e+001  8.637396e+001 
4068750000  -2.487634e+001  8.174115e+001 
4071875000  -2.420147e+001  7.388973e+001 
4075000000  -2.451500e+001  6.759865e+001 
4078125000  -2.512811e+001  6.666946e+001 
4081250000  -2.457306e+001  6.400935e+001 
4084375000  -2.419327e+001  5.737900e+001 
4087500000  -2.454470e+001  5.142158e+001 
4090625000  -2.509293e+001  5.037137e+001 
4093750000  -2.493133e+001  5.114571e+001 
4096875000  -2.449369e+001  4.500153e+001 
4100000000  -2.518964e+001  3.786608e+001 
4103125000  -2.605245e+001  3.891529e+001 
4106250000  -2.593837e+001  4.389410e+001 
4109375000  -2.503424e+001  4.315636e+001 
4112500000  -2.448302e+001  3.648946e+001 
4115625000  -2.483757e+001  3.220924e+001 
4118750000  -2.485973e+001  2.953825e+001 
4121875000  -2.454917e+001  2.496687e+001 
4125000000  -2.484923e+001  1.972909e+001 
4128125000  -2.588276e+001  1.974892e+001 
4131250000  -2.561274e+001  2.767733e+001 
4134375000  -2.329465e+001  2.350732e+001 
4137500000  -2.302962e+001  4.855236e+000 
4140625000  -2.513200e+001  -3.003989e+000 
4143750000  -2.648643e+001  2.453355e+000 
4146875000  -2.611816e+001  9.859873e+000 
4150000000  -2.517072e+001  6.717949e+000 
4153125000  -2.500513e+001  -5.363686e-003 
4156250000  -2.585876e+001  -2.838241e+000 
4159375000  -2.618589e+001  1.946649e+000 
4162500000  -2.504793e+001  5.866413e+000 
4165625000  -2.389284e+001  2.187222e+000 
4168750000  -2.333788e+001  -5.214718e+000 
4171875000  -2.327267e+001  -1.440234e+001 
4175000000  -2.388728e+001  -2.001803e+001 
4178125000  -2.447569e+001  -2.008783e+001 
4181250000  -2.433679e+001  -2.079526e+001 
4184375000  -2.421640e+001  -2.388694e+001 
4187500000  -2.429131e+001  -2.619009e+001 
4190625000  -2.405196e+001  -3.196535e+001 
4193750000  -2.483088e+001  -3.562052e+001 
4196875000  -2.554820e+001  -3.609005e+001 
4200000000  -2.639781e+001  -3.383674e+001 
4203125000  -2.651101e+001  -2.084713e+001 
4206250000  -2.315472e+001  -1.889810e+001 
4209375000  -2.194596e+001  -3.910936e+001 
4212500000  -2.384247e+001  -4.803609e+001 
4215625000  -2.484842e+001  -4.196114e+001 
4218750000  -2.354958e+001  -3.515086e+001 
4221875000  -2.118232e+001  -4.417704e+001 
4225000000  -2.242638e+001  -5.693603e+001 
4228125000  -2.314048e+001  -5.204840e+001 
4231250000  -2.150786e+001  -5.557747e+001 
4234375000  -2.149734e+001  -6.370145e+001 
4237500000  -2.105255e+001  -6.722034e+001 
4240625000  -2.103907e+001  -7.567715e+001 
4243750000  -2.201599e+001  -8.218489e+001 
4246875000  -2.287387e+001  -8.235847e+001 
4250000000  -2.293513e+001  -7.966489e+001 
4253125000  -2.237151e+001  -8.130329e+001 
4256250000  -2.262967e+001  -8.558073e+001 
4259375000  -2.235745e+001  -8.784176e+001 
4262500000  -2.240174e+001  -9.131420e+001 
4265625000  -2.257371e+001  -9.114420e+001 
4268750000  -2.170771e+001  -9.497678e+001 
4271875000  -2.140761e+001  -1.006565e+002 
4275000000  -2.081678e+001  -1.072295e+002 
4278125000  -2.140586e+001  -1.182062e+002 
4281250000  -2.321644e+001  -1.202233e+002 
4284375000  -2.292837e+001  -1.197636e+002 
4287500000  -2.367196e+001  -1.233594e+002 
4290625000  -2.493897e+001  -1.139322e+002 
4293750000  -2.297141e+001  -1.082869e+002 
4296875000  -2.163720e+001  -1.196083e+002 
4300000000  -2.247155e+001  -1.289508e+002 
4303125000  -2.363947e+001  -1.278441e+002 
4306250000  -2.301984e+001  -1.217539e+002 
4309375000  -2.159455e+001  -1.236503e+002 
4312500000  -2.150396e+001  -1.321218e+002 
4315625000  -2.168684e+001  -1.384427e+002 
4318750000  -2.206582e+001  -1.416443e+002 
4321875000  -2.218650e+001  -1.412530e+002 
4325000000  -2.162996e+001  -1.404781e+002 
4328125000  -2.115088e+001  -1.469172e+002 
4331250000  -2.107901e+001  -1.549838e+002 
4334375000  -2.149990e+001  -1.599704e+002 
4337500000  -2.233247e+001  -1.621187e+002 
4340625000  -2.287992e+001  -1.587734e+002 
4343750000  -2.229890e+001  -1.584877e+002 
4346875000  -2.188284e+001  -1.636622e+002 
4350000000  -2.189391e+001  -1.686651e+002 
4353125000  -2.194751e+001  -1.760128e+002 
4356250000  -2.369034e+001  -1.774489e+002 
4359375000  -2.431671e+001  -1.646632e+002 
4362500000  -2.163515e+001  -1.624279e+002 
4365625000  -2.001420e+001  -1.737583e+002 
4368750000  -2.071653e+001  1.744826e+002 
4371875000  -2.193557e+001  1.746930e+002 
4375000000  -2.160345e+001  1.762358e+002 
4378125000  -2.094221e+001  1.701321e+002 
4381250000  -2.111143e+001  1.649850e+002 
4384375000  -2.089921e+001  1.603356e+002 
4387500000  -2.165744e+001  1.545823e+002 
4390625000  -2.266090e+001  1.552343e+002 
4393750000  -2.201571e+001  1.574841e+002 
4396875000  -2.134620e+001  1.555479e+002 
4400000000  -2.078958e+001  1.483358e+002 
4403125000  -2.137326e+001  1.408549e+002 
4406250000  -2.221445e+001  1.393888e+002 
4409375000  -2.218422e+001  1.373620e+002 
4412500000  -2.315481e+001  1.344274e+002 
4415625000  -2.359863e+001  1.395043e+002 
4418750000  -2.241157e+001  1.438667e+002 
