!Agilent Technologies,E8363B,MY43030201,A.06.04.32
!Agilent E8363B: A.06.04.32
!Date: Tuesday, November 11, 2014 20:51:05
!Correction: S21(Response(S21)) 
!S1P File: Measurement: S21:
# Hz S  dB   R 50
3000000000  -2.648169e+001  1.512204e+002 
3003125000  -2.792340e+001  1.466638e+002 
3006250000  -2.797975e+001  1.441749e+002 
3009375000  -2.829567e+001  1.492480e+002 
3012500000  -2.777999e+001  1.488288e+002 
3015625000  -2.685983e+001  1.416039e+002 
3018750000  -2.772859e+001  1.406790e+002 
3021875000  -2.642069e+001  1.421372e+002 
3025000000  -2.510917e+001  1.391792e+002 
3028125000  -2.416265e+001  1.337927e+002 
3031250000  -2.309076e+001  1.227613e+002 
3034375000  -2.272476e+001  1.099427e+002 
3037500000  -2.310101e+001  9.798846e+001 
3040625000  -2.442154e+001  9.284146e+001 
3043750000  -2.514254e+001  8.855904e+001 
3046875000  -2.527636e+001  8.220318e+001 
3050000000  -2.698234e+001  7.529047e+001 
3053125000  -2.715955e+001  8.188000e+001 
3056250000  -2.647313e+001  8.466548e+001 
3059375000  -2.668558e+001  8.455180e+001 
3062500000  -2.521270e+001  8.063020e+001 
3065625000  -2.502916e+001  7.490579e+001 
3068750000  -2.469483e+001  6.784992e+001 
3071875000  -2.469740e+001  6.512292e+001 
3075000000  -2.464663e+001  6.115664e+001 
3078125000  -2.438043e+001  5.668679e+001 
3081250000  -2.501923e+001  5.245225e+001 
3084375000  -2.426582e+001  4.888781e+001 
3087500000  -2.414792e+001  4.523251e+001 
3090625000  -2.385572e+001  3.555314e+001 
3093750000  -2.431903e+001  2.756516e+001 
3096875000  -2.559558e+001  2.136035e+001 
3100000000  -2.576202e+001  2.023768e+001 
3103125000  -2.610831e+001  2.162612e+001 
3106250000  -2.582268e+001  1.837724e+001 
3109375000  -2.609781e+001  1.485984e+001 
3112500000  -2.620093e+001  1.367521e+001 
3115625000  -2.602631e+001  9.357798e+000 
3118750000  -2.645480e+001  1.078738e+001 
3121875000  -2.583143e+001  2.632936e+000 
3125000000  -2.701793e+001  -7.302265e-001 
3128125000  -2.819872e+001  7.513184e+000 
3131250000  -2.600738e+001  7.931505e+000 
3134375000  -2.468748e+001  -5.747292e+000 
3137500000  -2.533553e+001  -1.934285e+001 
3140625000  -2.695688e+001  -2.076556e+001 
3143750000  -2.795525e+001  -1.714781e+001 
3146875000  -2.755695e+001  -1.517117e+001 
3150000000  -2.654614e+001  -1.268415e+001 
3153125000  -2.652868e+001  -2.055651e+001 
3156250000  -2.749734e+001  -1.519503e+001 
3159375000  -2.596642e+001  -1.207779e+001 
3162500000  -2.393694e+001  -2.514516e+001 
3165625000  -2.484362e+001  -3.610680e+001 
3168750000  -2.523512e+001  -3.518479e+001 
3171875000  -2.431810e+001  -3.937679e+001 
3175000000  -2.489335e+001  -4.692680e+001 
3178125000  -2.470658e+001  -4.557964e+001 
3181250000  -2.355729e+001  -4.958650e+001 
3184375000  -2.276410e+001  -6.166094e+001 
3187500000  -2.386614e+001  -7.678264e+001 
3190625000  -2.666748e+001  -8.421354e+001 
3193750000  -2.724948e+001  -7.487045e+001 
3196875000  -2.677818e+001  -6.938361e+001 
3200000000  -2.592350e+001  -7.123598e+001 
3203125000  -2.508654e+001  -7.692382e+001 
3206250000  -2.536780e+001  -8.314898e+001 
3209375000  -2.489772e+001  -8.826672e+001 
3212500000  -2.504620e+001  -9.481347e+001 
3215625000  -2.515700e+001  -9.910596e+001 
3218750000  -2.596011e+001  -1.054076e+002 
3221875000  -2.691560e+001  -1.102947e+002 
3225000000  -2.657349e+001  -1.109770e+002 
3228125000  -2.684385e+001  -1.155506e+002 
3231250000  -2.762246e+001  -1.181957e+002 
3234375000  -2.744835e+001  -1.169864e+002 
3237500000  -2.751315e+001  -1.188568e+002 
3240625000  -2.715272e+001  -1.205736e+002 
3243750000  -2.677795e+001  -1.271609e+002 
3246875000  -2.730452e+001  -1.336117e+002 
3250000000  -2.776153e+001  -1.354904e+002 
3253125000  -2.795085e+001  -1.371838e+002 
3256250000  -2.772868e+001  -1.431271e+002 
3259375000  -2.806609e+001  -1.505251e+002 
3262500000  -2.931948e+001  -1.534437e+002 
3265625000  -3.000190e+001  -1.501971e+002 
3268750000  -3.003779e+001  -1.473316e+002 
3271875000  -2.977659e+001  -1.466634e+002 
3275000000  -2.863961e+001  -1.515155e+002 
3278125000  -2.913687e+001  -1.573698e+002 
3281250000  -2.941312e+001  -1.556639e+002 
3284375000  -2.902026e+001  -1.617169e+002 
3287500000  -2.913944e+001  -1.645027e+002 
3290625000  -2.954533e+001  -1.688300e+002 
3293750000  -2.927340e+001  -1.746808e+002 
3296875000  -3.028110e+001  -1.742719e+002 
3300000000  -3.022753e+001  -1.734869e+002 
3303125000  -2.901305e+001  -1.770600e+002 
3306250000  -2.880248e+001  1.762080e+002 
3309375000  -2.858925e+001  1.709491e+002 
3312500000  -2.861076e+001  1.608406e+002 
3315625000  -2.968108e+001  1.528784e+002 
3318750000  -3.103272e+001  1.502944e+002 
3321875000  -3.222907e+001  1.508488e+002 
3325000000  -3.270665e+001  1.553849e+002 
3328125000  -3.256000e+001  1.575645e+002 
3331250000  -3.134477e+001  1.642223e+002 
3334375000  -2.877977e+001  1.547075e+002 
3337500000  -2.889872e+001  1.364901e+002 
3340625000  -3.020872e+001  1.258084e+002 
3343750000  -3.225234e+001  1.243144e+002 
3346875000  -3.276081e+001  1.259699e+002 
3350000000  -3.207161e+001  1.240609e+002 
3353125000  -3.220629e+001  1.200213e+002 
3356250000  -3.194906e+001  1.119793e+002 
3359375000  -3.283532e+001  1.045389e+002 
3362500000  -3.409579e+001  9.828016e+001 
3365625000  -3.486520e+001  9.687881e+001 
3368750000  -3.584139e+001  9.476268e+001 
3371875000  -3.611627e+001  9.197121e+001 
3375000000  -3.777622e+001  9.027159e+001 
3378125000  -3.885674e+001  9.020309e+001 
3381250000  -4.042643e+001  9.694113e+001 
3384375000  -3.962725e+001  1.181259e+002 
3387500000  -3.640170e+001  1.051125e+002 
3390625000  -3.839116e+001  8.505542e+001 
3393750000  -4.009190e+001  9.098547e+001 
3396875000  -3.911036e+001  9.446088e+001 
3400000000  -3.903560e+001  8.638094e+001 
3403125000  -4.018941e+001  8.111317e+001 
3406250000  -4.100508e+001  8.578327e+001 
3409375000  -4.152213e+001  8.009846e+001 
3412500000  -4.239366e+001  8.376706e+001 
3415625000  -4.314564e+001  8.717619e+001 
3418750000  -4.384303e+001  9.309039e+001 
3421875000  -4.363472e+001  9.763401e+001 
3425000000  -4.302586e+001  1.034816e+002 
3428125000  -4.197266e+001  1.028313e+002 
3431250000  -4.182729e+001  9.946632e+001 
3434375000  -4.167011e+001  9.551633e+001 
3437500000  -4.205809e+001  9.237131e+001 
3440625000  -4.264100e+001  9.635681e+001 
3443750000  -4.102710e+001  9.819380e+001 
3446875000  -4.051299e+001  9.250645e+001 
3450000000  -4.007030e+001  8.528645e+001 
3453125000  -4.034680e+001  7.518149e+001 
3456250000  -4.161744e+001  7.137709e+001 
3459375000  -4.249747e+001  7.348263e+001 
3462500000  -4.249385e+001  7.465384e+001 
3465625000  -4.271446e+001  7.009540e+001 
3468750000  -4.308713e+001  6.769086e+001 
3471875000  -4.310025e+001  6.907122e+001 
3475000000  -4.335786e+001  6.436700e+001 
3478125000  -4.389518e+001  5.992088e+001 
3481250000  -4.511539e+001  5.737315e+001 
3484375000  -4.638436e+001  6.312815e+001 
3487500000  -4.599848e+001  6.552459e+001 
3490625000  -4.549039e+001  6.384255e+001 
3493750000  -4.599776e+001  6.122438e+001 
3496875000  -4.718124e+001  6.412715e+001 
3500000000  -4.822662e+001  7.150655e+001 
3503125000  -4.806975e+001  7.692161e+001 
3506250000  -4.712292e+001  7.497274e+001 
3509375000  -4.664840e+001  7.451692e+001 
3512500000  -4.705085e+001  7.112461e+001 
3515625000  -4.756205e+001  7.426357e+001 
3518750000  -4.800491e+001  8.068744e+001 
3521875000  -4.752938e+001  8.775747e+001 
3525000000  -4.870479e+001  8.562126e+001 
3528125000  -4.741367e+001  9.734250e+001 
3531250000  -4.552262e+001  9.421537e+001 
3534375000  -4.476031e+001  8.819128e+001 
3537500000  -4.460608e+001  8.449390e+001 
3540625000  -4.495108e+001  8.633596e+001 
3543750000  -4.614339e+001  9.000648e+001 
3546875000  -4.521213e+001  1.013666e+002 
3550000000  -4.285307e+001  1.022163e+002 
3553125000  -4.153063e+001  8.523706e+001 
3556250000  -4.225476e+001  8.238159e+001 
3559375000  -4.191191e+001  8.237638e+001 
3562500000  -4.098536e+001  7.591542e+001 
3565625000  -4.145523e+001  6.909210e+001 
3568750000  -4.158998e+001  7.149582e+001 
3571875000  -4.128788e+001  7.029633e+001 
3575000000  -4.094373e+001  6.646419e+001 
3578125000  -4.123353e+001  6.273369e+001 
3581250000  -4.114056e+001  6.561191e+001 
3584375000  -4.044070e+001  6.225884e+001 
3587500000  -3.971365e+001  5.552256e+001 
3590625000  -3.998132e+001  4.721016e+001 
3593750000  -4.104273e+001  4.656007e+001 
3596875000  -4.100752e+001  5.387222e+001 
3600000000  -3.951561e+001  5.114319e+001 
3603125000  -3.941904e+001  3.751364e+001 
3606250000  -4.026579e+001  3.279526e+001 
3609375000  -4.047800e+001  3.347129e+001 
3612500000  -4.106688e+001  3.043398e+001 
3615625000  -4.103213e+001  2.984648e+001 
3618750000  -4.173073e+001  3.011201e+001 
3621875000  -4.110450e+001  2.989025e+001 
3625000000  -4.174780e+001  2.965402e+001 
3628125000  -4.168774e+001  2.982548e+001 
3631250000  -4.145944e+001  2.494914e+001 
3634375000  -4.237864e+001  2.503103e+001 
3637500000  -4.183246e+001  3.295041e+001 
3640625000  -4.087416e+001  3.312492e+001 
3643750000  -4.047240e+001  2.832717e+001 
3646875000  -4.110310e+001  2.055006e+001 
3650000000  -4.171751e+001  2.105960e+001 
3653125000  -4.135345e+001  2.180232e+001 
3656250000  -4.163931e+001  2.009326e+001 
3659375000  -4.218043e+001  2.418664e+001 
3662500000  -4.121031e+001  2.358304e+001 
3665625000  -4.112436e+001  2.400161e+001 
3668750000  -4.007787e+001  2.680699e+001 
3671875000  -3.910053e+001  2.132192e+001 
3675000000  -3.959877e+001  1.511753e+001 
3678125000  -4.000023e+001  1.645063e+001 
3681250000  -3.964949e+001  1.741378e+001 
3684375000  -3.928242e+001  1.562651e+001 
3687500000  -3.948491e+001  1.331929e+001 
3690625000  -3.951151e+001  1.064071e+001 
3693750000  -4.010131e+001  1.425511e+001 
3696875000  -3.988836e+001  1.712487e+001 
3700000000  -3.862480e+001  1.406401e+001 
3703125000  -3.824039e+001  1.038932e+001 
3706250000  -3.904758e+001  1.242362e+001 
3709375000  -3.840268e+001  1.504858e+001 
3712500000  -3.745460e+001  1.552173e+001 
3715625000  -3.624917e+001  9.229000e+000 
3718750000  -3.555255e+001  6.735901e+000 
3721875000  -3.514531e+001  1.364913e+000 
3725000000  -3.523405e+001  -4.100912e+000 
3728125000  -3.530552e+001  -4.157790e+000 
3731250000  -3.475862e+001  -4.961233e+000 
3734375000  -3.362928e+001  -1.143964e+001 
3737500000  -3.416835e+001  -1.734114e+001 
3740625000  -3.489455e+001  -2.108069e+001 
3743750000  -3.464281e+001  -2.371078e+001 
3746875000  -3.466989e+001  -2.582676e+001 
3750000000  -3.507849e+001  -2.628621e+001 
3753125000  -3.469242e+001  -2.731651e+001 
3756250000  -3.450351e+001  -2.799965e+001 
3759375000  -3.434679e+001  -2.870180e+001 
3762500000  -3.376585e+001  -3.239554e+001 
3765625000  -3.416640e+001  -3.587211e+001 
3768750000  -3.440442e+001  -3.202672e+001 
3771875000  -3.255438e+001  -3.523117e+001 
3775000000  -3.229594e+001  -4.276225e+001 
3778125000  -3.264841e+001  -4.433280e+001 
3781250000  -3.240042e+001  -4.728204e+001 
3784375000  -3.232134e+001  -4.926141e+001 
3787500000  -3.164398e+001  -5.219666e+001 
3790625000  -3.215628e+001  -5.818441e+001 
3793750000  -3.229738e+001  -5.892658e+001 
3796875000  -3.157763e+001  -6.006599e+001 
3800000000  -2.992478e+001  -6.404874e+001 
3803125000  -3.065649e+001  -7.117773e+001 
3806250000  -3.134649e+001  -7.341542e+001 
3809375000  -3.104789e+001  -7.444811e+001 
3812500000  -3.035952e+001  -7.937714e+001 
3815625000  -3.094769e+001  -8.715742e+001 
3818750000  -3.194772e+001  -8.879736e+001 
3821875000  -3.201103e+001  -8.092895e+001 
3825000000  -3.008639e+001  -7.545482e+001 
3828125000  -2.874753e+001  -8.913889e+001 
3831250000  -2.929055e+001  -1.040197e+002 
3834375000  -3.062480e+001  -1.044343e+002 
3837500000  -3.145310e+001  -9.940109e+001 
3840625000  -3.044262e+001  -1.005504e+002 
3843750000  -2.928283e+001  -1.107397e+002 
3846875000  -2.995802e+001  -1.175303e+002 
3850000000  -3.124900e+001  -1.129421e+002 
3853125000  -3.044014e+001  -1.097045e+002 
3856250000  -3.045381e+001  -1.145182e+002 
3859375000  -2.973624e+001  -1.186906e+002 
3862500000  -2.930683e+001  -1.263351e+002 
3865625000  -2.959189e+001  -1.312355e+002 
3868750000  -2.954790e+001  -1.313527e+002 
3871875000  -2.886723e+001  -1.341879e+002 
3875000000  -2.899632e+001  -1.425834e+002 
3878125000  -3.004488e+001  -1.451858e+002 
3881250000  -3.023244e+001  -1.418614e+002 
3884375000  -2.967463e+001  -1.462075e+002 
3887500000  -2.977616e+001  -1.510507e+002 
3890625000  -3.029797e+001  -1.530897e+002 
3893750000  -3.063724e+001  -1.544272e+002 
3896875000  -3.078282e+001  -1.537955e+002 
3900000000  -3.101053e+001  -1.544327e+002 
3903125000  -3.066750e+001  -1.557064e+002 
3906250000  -3.034641e+001  -1.567394e+002 
3909375000  -2.969659e+001  -1.590287e+002 
3912500000  -2.963435e+001  -1.675019e+002 
3915625000  -3.092225e+001  -1.662529e+002 
3918750000  -3.086784e+001  -1.648737e+002 
3921875000  -3.052593e+001  -1.662371e+002 
3925000000  -2.974162e+001  -1.665347e+002 
3928125000  -2.904574e+001  -1.726182e+002 
3931250000  -2.954377e+001  -1.762189e+002 
3934375000  -2.972228e+001  -1.762088e+002 
3937500000  -2.989992e+001  -1.772265e+002 
3940625000  -3.039158e+001  -1.766434e+002 
3943750000  -2.933083e+001  -1.759625e+002 
3946875000  -2.812335e+001  1.790830e+002 
3950000000  -2.863756e+001  1.709906e+002 
3953125000  -2.946957e+001  1.718507e+002 
3956250000  -2.875522e+001  1.746608e+002 
3959375000  -2.737881e+001  1.710699e+002 
3962500000  -2.686954e+001  1.671864e+002 
3965625000  -2.651982e+001  1.579640e+002 
3968750000  -2.750318e+001  1.516699e+002 
3971875000  -2.780873e+001  1.502575e+002 
3975000000  -2.718471e+001  1.485439e+002 
3978125000  -2.700619e+001  1.469501e+002 
3981250000  -2.673152e+001  1.426228e+002 
3984375000  -2.698917e+001  1.362395e+002 
3987500000  -2.755822e+001  1.341590e+002 
3990625000  -2.751722e+001  1.332794e+002 
3993750000  -2.775307e+001  1.300433e+002 
3996875000  -2.770994e+001  1.276281e+002 
4000000000  -2.776927e+001  1.256647e+002 
4003125000  -2.838716e+001  1.280215e+002 
4006250000  -2.698568e+001  1.278618e+002 
4009375000  -2.578794e+001  1.161634e+002 
4012500000  -2.685901e+001  1.090397e+002 
4015625000  -2.815001e+001  1.093251e+002 
4018750000  -2.834113e+001  1.117170e+002 
4021875000  -2.756375e+001  1.106158e+002 
4025000000  -2.727517e+001  1.057287e+002 
4028125000  -2.718200e+001  1.020207e+002 
4031250000  -2.767072e+001  9.882952e+001 
4034375000  -2.792807e+001  9.857655e+001 
4037500000  -2.738750e+001  1.006020e+002 
4040625000  -2.734480e+001  9.714955e+001 
4043750000  -2.760683e+001  9.639510e+001 
4046875000  -2.716791e+001  9.631852e+001 
4050000000  -2.667586e+001  9.072016e+001 
4053125000  -2.712611e+001  8.854255e+001 
4056250000  -2.770674e+001  9.263548e+001 
4059375000  -2.649566e+001  9.445941e+001 
4062500000  -2.512812e+001  9.003521e+001 
4065625000  -2.499975e+001  8.538119e+001 
4068750000  -2.470919e+001  8.051553e+001 
4071875000  -2.411052e+001  7.253136e+001 
4075000000  -2.438673e+001  6.644638e+001 
4078125000  -2.500501e+001  6.525201e+001 
4081250000  -2.446181e+001  6.294218e+001 
4084375000  -2.409862e+001  5.584563e+001 
4087500000  -2.439524e+001  4.982328e+001 
4090625000  -2.505594e+001  4.882071e+001 
4093750000  -2.490020e+001  4.975800e+001 
4096875000  -2.444799e+001  4.361960e+001 
4100000000  -2.514420e+001  3.652485e+001 
4103125000  -2.597925e+001  3.712100e+001 
4106250000  -2.589153e+001  4.195647e+001 
4109375000  -2.501270e+001  4.156937e+001 
4112500000  -2.441580e+001  3.486692e+001 
4115625000  -2.477782e+001  3.062288e+001 
4118750000  -2.486697e+001  2.782284e+001 
4121875000  -2.451122e+001  2.308240e+001 
4125000000  -2.488123e+001  1.791057e+001 
4128125000  -2.588114e+001  1.823779e+001 
4131250000  -2.563104e+001  2.618391e+001 
4134375000  -2.326996e+001  2.197913e+001 
4137500000  -2.304747e+001  3.165962e+000 
4140625000  -2.519461e+001  -3.901394e+000 
4143750000  -2.657042e+001  1.086370e+000 
4146875000  -2.614811e+001  8.413640e+000 
4150000000  -2.515430e+001  5.470959e+000 
4153125000  -2.500008e+001  -9.265022e-001 
4156250000  -2.592265e+001  -3.458180e+000 
4159375000  -2.617116e+001  7.590570e-001 
4162500000  -2.502008e+001  5.130839e+000 
4165625000  -2.386893e+001  1.063321e+000 
4168750000  -2.326426e+001  -6.036680e+000 
4171875000  -2.326480e+001  -1.500460e+001 
4175000000  -2.385609e+001  -2.085490e+001 
4178125000  -2.446055e+001  -2.071117e+001 
4181250000  -2.425546e+001  -2.142896e+001 
4184375000  -2.413864e+001  -2.459055e+001 
4187500000  -2.414612e+001  -2.771992e+001 
4190625000  -2.399541e+001  -3.306833e+001 
4193750000  -2.476672e+001  -3.684571e+001 
4196875000  -2.548229e+001  -3.710557e+001 
4200000000  -2.630258e+001  -3.541623e+001 
4203125000  -2.634775e+001  -2.200739e+001 
4206250000  -2.304079e+001  -2.008444e+001 
4209375000  -2.183685e+001  -4.086440e+001 
4212500000  -2.374153e+001  -4.973381e+001 
4215625000  -2.476468e+001  -4.338029e+001 
4218750000  -2.342455e+001  -3.686879e+001 
4221875000  -2.114217e+001  -4.553318e+001 
4225000000  -2.235509e+001  -5.809235e+001 
4228125000  -2.309618e+001  -5.333821e+001 
4231250000  -2.154574e+001  -5.711082e+001 
4234375000  -2.143848e+001  -6.556116e+001 
4237500000  -2.107123e+001  -6.874121e+001 
4240625000  -2.106392e+001  -7.699976e+001 
4243750000  -2.199675e+001  -8.413717e+001 
4246875000  -2.288893e+001  -8.402924e+001 
4250000000  -2.294829e+001  -8.131445e+001 
4253125000  -2.236104e+001  -8.320332e+001 
4256250000  -2.263406e+001  -8.731593e+001 
4259375000  -2.238043e+001  -8.903161e+001 
4262500000  -2.244178e+001  -9.282011e+001 
4265625000  -2.254832e+001  -9.243492e+001 
4268750000  -2.170004e+001  -9.665148e+001 
4271875000  -2.146503e+001  -1.018557e+002 
4275000000  -2.083879e+001  -1.084866e+002 
4278125000  -2.145908e+001  -1.194850e+002 
4281250000  -2.321209e+001  -1.215897e+002 
4284375000  -2.295838e+001  -1.210920e+002 
4287500000  -2.373122e+001  -1.240305e+002 
4290625000  -2.497809e+001  -1.150863e+002 
4293750000  -2.295221e+001  -1.091215e+002 
4296875000  -2.162598e+001  -1.204223e+002 
4300000000  -2.252303e+001  -1.299680e+002 
4303125000  -2.360534e+001  -1.286388e+002 
4306250000  -2.300410e+001  -1.226844e+002 
4309375000  -2.156824e+001  -1.250348e+002 
4312500000  -2.145410e+001  -1.330746e+002 
4315625000  -2.168183e+001  -1.393859e+002 
4318750000  -2.197515e+001  -1.425625e+002 
4321875000  -2.214538e+001  -1.422232e+002 
4325000000  -2.156386e+001  -1.414416e+002 
4328125000  -2.104260e+001  -1.480915e+002 
4331250000  -2.100857e+001  -1.561913e+002 
4334375000  -2.146403e+001  -1.611190e+002 
4337500000  -2.226176e+001  -1.634315e+002 
4340625000  -2.283918e+001  -1.601755e+002 
4343750000  -2.222817e+001  -1.597242e+002 
4346875000  -2.185812e+001  -1.653661e+002 
4350000000  -2.184492e+001  -1.698063e+002 
4353125000  -2.191544e+001  -1.777411e+002 
4356250000  -2.364016e+001  -1.785174e+002 
4359375000  -2.424716e+001  -1.649387e+002 
4362500000  -2.159699e+001  -1.634321e+002 
4365625000  -1.998820e+001  -1.754880e+002 
4368750000  -2.068267e+001  1.731137e+002 
4371875000  -2.190281e+001  1.734265e+002 
4375000000  -2.158203e+001  1.745170e+002 
4378125000  -2.091663e+001  1.689347e+002 
4381250000  -2.112130e+001  1.633926e+002 
4384375000  -2.092122e+001  1.590010e+002 
4387500000  -2.167475e+001  1.533731e+002 
4390625000  -2.264842e+001  1.538610e+002 
4393750000  -2.200808e+001  1.562623e+002 
4396875000  -2.134839e+001  1.539687e+002 
4400000000  -2.087965e+001  1.471528e+002 
4403125000  -2.142132e+001  1.395340e+002 
4406250000  -2.227882e+001  1.384099e+002 
4409375000  -2.221616e+001  1.361273e+002 
4412500000  -2.327994e+001  1.334677e+002 
4415625000  -2.362621e+001  1.383857e+002 
4418750000  -2.248114e+001  1.428994e+002 
