!Agilent Technologies,E8363B,MY43030201,A.06.04.32
!Agilent E8363B: A.06.04.32
!Date: Tuesday, November 11, 2014 20:54:44
!Correction: S21(Response(S21)) 
!S1P File: Measurement: S21:
# Hz S  dB   R 50
3000000000  -2.664005e+001  1.504404e+002 
3003125000  -2.802830e+001  1.455182e+002 
3006250000  -2.806660e+001  1.430290e+002 
3009375000  -2.844678e+001  1.480012e+002 
3012500000  -2.788298e+001  1.475390e+002 
3015625000  -2.696515e+001  1.400561e+002 
3018750000  -2.776216e+001  1.398443e+002 
3021875000  -2.650794e+001  1.406420e+002 
3025000000  -2.519602e+001  1.376807e+002 
3028125000  -2.428356e+001  1.326379e+002 
3031250000  -2.322360e+001  1.212779e+002 
3034375000  -2.284543e+001  1.084569e+002 
3037500000  -2.323793e+001  9.663013e+001 
3040625000  -2.453817e+001  9.143049e+001 
3043750000  -2.523869e+001  8.706789e+001 
3046875000  -2.537862e+001  8.059363e+001 
3050000000  -2.705632e+001  7.415709e+001 
3053125000  -2.722393e+001  8.024316e+001 
3056250000  -2.658611e+001  8.324166e+001 
3059375000  -2.681804e+001  8.307263e+001 
3062500000  -2.530635e+001  7.885710e+001 
3065625000  -2.508856e+001  7.320188e+001 
3068750000  -2.479414e+001  6.645355e+001 
3071875000  -2.475620e+001  6.348459e+001 
3075000000  -2.471605e+001  5.959225e+001 
3078125000  -2.442928e+001  5.497094e+001 
3081250000  -2.504282e+001  5.080291e+001 
3084375000  -2.433496e+001  4.715012e+001 
3087500000  -2.420769e+001  4.342852e+001 
3090625000  -2.389765e+001  3.365300e+001 
3093750000  -2.438098e+001  2.568175e+001 
3096875000  -2.565515e+001  2.014997e+001 
3100000000  -2.575430e+001  1.853315e+001 
3103125000  -2.612053e+001  2.006791e+001 
3106250000  -2.587424e+001  1.625482e+001 
3109375000  -2.611479e+001  1.281113e+001 
3112500000  -2.627791e+001  1.183851e+001 
3115625000  -2.606397e+001  7.706150e+000 
3118750000  -2.649133e+001  9.049863e+000 
3121875000  -2.587041e+001  7.802222e-001 
3125000000  -2.705810e+001  -2.629752e+000 
3128125000  -2.828156e+001  5.755332e+000 
3131250000  -2.602563e+001  6.337856e+000 
3134375000  -2.469782e+001  -7.338252e+000 
3137500000  -2.532115e+001  -2.113351e+001 
3140625000  -2.696523e+001  -2.251800e+001 
3143750000  -2.799329e+001  -1.886487e+001 
3146875000  -2.758609e+001  -1.720363e+001 
3150000000  -2.653904e+001  -1.468205e+001 
3153125000  -2.653007e+001  -2.239625e+001 
3156250000  -2.750432e+001  -1.665540e+001 
3159375000  -2.592287e+001  -1.396792e+001 
3162500000  -2.386604e+001  -2.697865e+001 
3165625000  -2.483141e+001  -3.788797e+001 
3168750000  -2.520492e+001  -3.679016e+001 
3171875000  -2.425682e+001  -4.113747e+001 
3175000000  -2.494365e+001  -4.888486e+001 
3178125000  -2.471884e+001  -4.739272e+001 
3181250000  -2.353818e+001  -5.147337e+001 
3184375000  -2.274140e+001  -6.362735e+001 
3187500000  -2.384635e+001  -7.865671e+001 
3190625000  -2.661207e+001  -8.636146e+001 
3193750000  -2.718063e+001  -7.671622e+001 
3196875000  -2.677499e+001  -7.141327e+001 
3200000000  -2.590204e+001  -7.319660e+001 
3203125000  -2.507938e+001  -7.920557e+001 
3206250000  -2.539865e+001  -8.540559e+001 
3209375000  -2.489327e+001  -9.019379e+001 
3212500000  -2.503258e+001  -9.694110e+001 
3215625000  -2.510964e+001  -1.006222e+002 
3218750000  -2.587881e+001  -1.072965e+002 
3221875000  -2.683550e+001  -1.124557e+002 
3225000000  -2.646783e+001  -1.131081e+002 
3228125000  -2.681666e+001  -1.175602e+002 
3231250000  -2.755271e+001  -1.202771e+002 
3234375000  -2.737898e+001  -1.191596e+002 
3237500000  -2.743470e+001  -1.206551e+002 
3240625000  -2.707686e+001  -1.228442e+002 
3243750000  -2.677746e+001  -1.292666e+002 
3246875000  -2.723194e+001  -1.355332e+002 
3250000000  -2.768417e+001  -1.376680e+002 
3253125000  -2.780598e+001  -1.393259e+002 
3256250000  -2.765361e+001  -1.449921e+002 
3259375000  -2.796576e+001  -1.526292e+002 
3262500000  -2.926670e+001  -1.558194e+002 
3265625000  -2.991912e+001  -1.519026e+002 
3268750000  -2.988317e+001  -1.497466e+002 
3271875000  -2.956973e+001  -1.484291e+002 
3275000000  -2.856463e+001  -1.535865e+002 
3278125000  -2.905748e+001  -1.599292e+002 
3281250000  -2.930173e+001  -1.576427e+002 
3284375000  -2.886921e+001  -1.640917e+002 
3287500000  -2.904359e+001  -1.666112e+002 
3290625000  -2.942922e+001  -1.708016e+002 
3293750000  -2.917302e+001  -1.766914e+002 
3296875000  -3.013042e+001  -1.769359e+002 
3300000000  -3.006590e+001  -1.757167e+002 
3303125000  -2.886650e+001  -1.793804e+002 
3306250000  -2.863003e+001  1.738851e+002 
3309375000  -2.843266e+001  1.689113e+002 
3312500000  -2.848648e+001  1.584177e+002 
3315625000  -2.950079e+001  1.508232e+002 
3318750000  -3.082509e+001  1.482780e+002 
3321875000  -3.207309e+001  1.486787e+002 
3325000000  -3.257256e+001  1.535792e+002 
3328125000  -3.228025e+001  1.542484e+002 
3331250000  -3.118727e+001  1.627385e+002 
3334375000  -2.860493e+001  1.525969e+002 
3337500000  -2.870350e+001  1.338925e+002 
3340625000  -3.002829e+001  1.233224e+002 
3343750000  -3.213020e+001  1.222035e+002 
3346875000  -3.252964e+001  1.232337e+002 
3350000000  -3.181825e+001  1.224754e+002 
3353125000  -3.197188e+001  1.177306e+002 
3356250000  -3.164565e+001  1.101098e+002 
3359375000  -3.254301e+001  1.013980e+002 
3362500000  -3.382173e+001  9.632860e+001 
3365625000  -3.445162e+001  9.465848e+001 
3368750000  -3.539958e+001  9.302213e+001 
3371875000  -3.588862e+001  8.997935e+001 
3375000000  -3.733529e+001  8.769294e+001 
3378125000  -3.851966e+001  8.670747e+001 
3381250000  -4.016137e+001  9.523087e+001 
3384375000  -3.914856e+001  1.179816e+002 
3387500000  -3.595433e+001  1.029001e+002 
3390625000  -3.770493e+001  8.247789e+001 
3393750000  -3.934494e+001  8.763959e+001 
3396875000  -3.869013e+001  9.087932e+001 
3400000000  -3.863537e+001  8.361752e+001 
3403125000  -3.972574e+001  7.912550e+001 
3406250000  -4.044837e+001  8.117976e+001 
3409375000  -4.131142e+001  7.708447e+001 
3412500000  -4.187729e+001  7.803064e+001 
3415625000  -4.268226e+001  8.315655e+001 
3418750000  -4.308989e+001  8.673178e+001 
3421875000  -4.332287e+001  9.342134e+001 
3425000000  -4.230740e+001  9.588182e+001 
3428125000  -4.146173e+001  9.557166e+001 
3431250000  -4.175420e+001  9.277890e+001 
3434375000  -4.125589e+001  8.944441e+001 
3437500000  -4.194222e+001  8.638758e+001 
3440625000  -4.213729e+001  9.004647e+001 
3443750000  -4.099073e+001  9.229943e+001 
3446875000  -4.027073e+001  8.705514e+001 
3450000000  -4.005826e+001  7.892303e+001 
3453125000  -4.023733e+001  6.922984e+001 
3456250000  -4.161266e+001  6.518998e+001 
3459375000  -4.252284e+001  6.771684e+001 
3462500000  -4.263835e+001  6.631834e+001 
3465625000  -4.255518e+001  6.343038e+001 
3468750000  -4.291367e+001  6.277341e+001 
3471875000  -4.344983e+001  6.283726e+001 
3475000000  -4.296530e+001  5.741182e+001 
3478125000  -4.365686e+001  5.315651e+001 
3481250000  -4.493313e+001  5.082633e+001 
3484375000  -4.654684e+001  5.837048e+001 
3487500000  -4.589059e+001  5.790813e+001 
3490625000  -4.587484e+001  5.585593e+001 
3493750000  -4.626078e+001  5.399457e+001 
3496875000  -4.711427e+001  5.523457e+001 
3500000000  -4.864598e+001  6.321218e+001 
3503125000  -4.889429e+001  6.838305e+001 
3506250000  -4.732845e+001  7.108829e+001 
3509375000  -4.789219e+001  6.774538e+001 
3512500000  -4.861213e+001  6.791244e+001 
3515625000  -4.854277e+001  6.943976e+001 
3518750000  -4.893333e+001  7.884251e+001 
3521875000  -4.802124e+001  8.396961e+001 
3525000000  -4.800428e+001  8.045037e+001 
3528125000  -4.812577e+001  9.554212e+001 
3531250000  -4.612156e+001  9.687595e+001 
3534375000  -4.498015e+001  8.635095e+001 
3537500000  -4.523000e+001  8.194833e+001 
3540625000  -4.581440e+001  8.406663e+001 
3543750000  -4.621068e+001  8.597154e+001 
3546875000  -4.543558e+001  9.877309e+001 
3550000000  -4.301049e+001  9.803333e+001 
3553125000  -4.173949e+001  8.395499e+001 
3556250000  -4.256708e+001  7.733274e+001 
3559375000  -4.218861e+001  8.039065e+001 
3562500000  -4.093284e+001  7.276976e+001 
3565625000  -4.206116e+001  6.677716e+001 
3568750000  -4.177308e+001  6.888370e+001 
3571875000  -4.129599e+001  6.892760e+001 
3575000000  -4.097625e+001  6.512355e+001 
3578125000  -4.153318e+001  5.995758e+001 
3581250000  -4.145502e+001  5.961806e+001 
3584375000  -4.075756e+001  5.978106e+001 
3587500000  -3.989636e+001  5.336213e+001 
3590625000  -4.009276e+001  4.566725e+001 
3593750000  -4.135045e+001  4.463249e+001 
3596875000  -4.128445e+001  5.271989e+001 
3600000000  -3.962091e+001  4.965473e+001 
3603125000  -3.978812e+001  3.625288e+001 
3606250000  -4.057785e+001  3.409786e+001 
3609375000  -4.061468e+001  3.423156e+001 
3612500000  -4.122495e+001  3.346717e+001 
3615625000  -4.130454e+001  2.741702e+001 
3618750000  -4.196944e+001  2.978361e+001 
3621875000  -4.154037e+001  3.062052e+001 
3625000000  -4.140654e+001  2.874775e+001 
3628125000  -4.192360e+001  3.008502e+001 
3631250000  -4.122442e+001  2.391456e+001 
3634375000  -4.225962e+001  2.547981e+001 
3637500000  -4.198550e+001  3.225029e+001 
3640625000  -4.109687e+001  3.384624e+001 
3643750000  -4.049996e+001  2.676826e+001 
3646875000  -4.102944e+001  2.086019e+001 
3650000000  -4.145533e+001  2.050056e+001 
3653125000  -4.108476e+001  2.099578e+001 
3656250000  -4.165795e+001  1.844329e+001 
3659375000  -4.199950e+001  2.228474e+001 
3662500000  -4.092342e+001  2.241690e+001 
3665625000  -4.098183e+001  2.278257e+001 
3668750000  -4.002360e+001  2.430814e+001 
3671875000  -3.883609e+001  1.980731e+001 
3675000000  -3.936171e+001  1.316395e+001 
3678125000  -4.010395e+001  1.442093e+001 
3681250000  -3.948199e+001  1.538393e+001 
3684375000  -3.930495e+001  1.177366e+001 
3687500000  -3.943957e+001  1.146505e+001 
3690625000  -3.953415e+001  7.964438e+000 
3693750000  -3.993256e+001  1.004632e+001 
3696875000  -3.962115e+001  1.549873e+001 
3700000000  -3.853698e+001  1.184569e+001 
3703125000  -3.857153e+001  8.622851e+000 
3706250000  -3.924786e+001  1.026753e+001 
3709375000  -3.873574e+001  1.398936e+001 
3712500000  -3.738374e+001  1.331401e+001 
3715625000  -3.632545e+001  7.551743e+000 
3718750000  -3.561545e+001  5.135214e+000 
3721875000  -3.526213e+001  -5.390316e-001 
3725000000  -3.528895e+001  -5.009612e+000 
3728125000  -3.529230e+001  -6.060658e+000 
3731250000  -3.462904e+001  -6.431956e+000 
3734375000  -3.361776e+001  -1.214707e+001 
3737500000  -3.424556e+001  -1.962634e+001 
3740625000  -3.472993e+001  -2.237217e+001 
3743750000  -3.452561e+001  -2.416030e+001 
3746875000  -3.441504e+001  -2.880191e+001 
3750000000  -3.484992e+001  -2.908514e+001 
3753125000  -3.443514e+001  -2.876220e+001 
3756250000  -3.437827e+001  -3.009169e+001 
3759375000  -3.415866e+001  -3.107465e+001 
3762500000  -3.359571e+001  -3.442508e+001 
3765625000  -3.404092e+001  -3.756851e+001 
3768750000  -3.427732e+001  -3.515878e+001 
3771875000  -3.244921e+001  -3.736567e+001 
3775000000  -3.218975e+001  -4.576855e+001 
3778125000  -3.243107e+001  -4.663308e+001 
3781250000  -3.222594e+001  -4.972134e+001 
3784375000  -3.224710e+001  -5.114855e+001 
3787500000  -3.151700e+001  -5.507215e+001 
3790625000  -3.200618e+001  -6.142916e+001 
3793750000  -3.228638e+001  -6.143400e+001 
3796875000  -3.137619e+001  -6.276606e+001 
3800000000  -2.977069e+001  -6.602826e+001 
3803125000  -3.048805e+001  -7.326279e+001 
3806250000  -3.113545e+001  -7.527229e+001 
3809375000  -3.091375e+001  -7.728383e+001 
3812500000  -3.033815e+001  -8.162063e+001 
3815625000  -3.091870e+001  -8.938979e+001 
3818750000  -3.185726e+001  -9.023821e+001 
3821875000  -3.196549e+001  -8.180319e+001 
3825000000  -2.995873e+001  -7.701501e+001 
3828125000  -2.863372e+001  -9.105595e+001 
3831250000  -2.912797e+001  -1.056123e+002 
3834375000  -3.043952e+001  -1.070056e+002 
3837500000  -3.141847e+001  -1.014970e+002 
3840625000  -3.037430e+001  -1.023921e+002 
3843750000  -2.914702e+001  -1.122220e+002 
3846875000  -2.984960e+001  -1.195392e+002 
3850000000  -3.110791e+001  -1.143057e+002 
3853125000  -3.030268e+001  -1.116674e+002 
3856250000  -3.027329e+001  -1.159048e+002 
3859375000  -2.960640e+001  -1.206841e+002 
3862500000  -2.913378e+001  -1.276749e+002 
3865625000  -2.944606e+001  -1.320749e+002 
3868750000  -2.948664e+001  -1.325230e+002 
3871875000  -2.867529e+001  -1.353500e+002 
3875000000  -2.884036e+001  -1.440189e+002 
3878125000  -2.980947e+001  -1.462644e+002 
3881250000  -2.988002e+001  -1.432531e+002 
3884375000  -2.924872e+001  -1.481181e+002 
3887500000  -2.941083e+001  -1.520451e+002 
3890625000  -2.997000e+001  -1.547168e+002 
3893750000  -3.035611e+001  -1.557363e+002 
3896875000  -3.051137e+001  -1.545357e+002 
3900000000  -3.075777e+001  -1.561877e+002 
3903125000  -3.043317e+001  -1.583190e+002 
3906250000  -3.007409e+001  -1.586472e+002 
3909375000  -2.948118e+001  -1.617538e+002 
3912500000  -2.945129e+001  -1.689754e+002 
3915625000  -3.074586e+001  -1.679854e+002 
3918750000  -3.068123e+001  -1.665146e+002 
3921875000  -3.023747e+001  -1.678055e+002 
3925000000  -2.943861e+001  -1.685536e+002 
3928125000  -2.870356e+001  -1.747650e+002 
3931250000  -2.916900e+001  -1.784164e+002 
3934375000  -2.942465e+001  -1.786028e+002 
3937500000  -2.950351e+001  -1.795393e+002 
3940625000  -3.000213e+001  -1.787499e+002 
3943750000  -2.905529e+001  -1.774829e+002 
3946875000  -2.783791e+001  1.770696e+002 
3950000000  -2.837093e+001  1.697300e+002 
3953125000  -2.919463e+001  1.700801e+002 
3956250000  -2.829976e+001  1.731332e+002 
3959375000  -2.697464e+001  1.698001e+002 
3962500000  -2.654689e+001  1.659223e+002 
3965625000  -2.619779e+001  1.571819e+002 
3968750000  -2.708575e+001  1.497651e+002 
3971875000  -2.743522e+001  1.482500e+002 
3975000000  -2.685114e+001  1.466852e+002 
3978125000  -2.670149e+001  1.451910e+002 
3981250000  -2.639565e+001  1.413281e+002 
3984375000  -2.658056e+001  1.347879e+002 
3987500000  -2.710206e+001  1.329033e+002 
3990625000  -2.718419e+001  1.319340e+002 
3993750000  -2.734794e+001  1.289005e+002 
3996875000  -2.727956e+001  1.264121e+002 
4000000000  -2.738706e+001  1.241479e+002 
4003125000  -2.804018e+001  1.267147e+002 
4006250000  -2.656778e+001  1.273650e+002 
4009375000  -2.532708e+001  1.149830e+002 
4012500000  -2.636501e+001  1.077372e+002 
4015625000  -2.753935e+001  1.080029e+002 
4018750000  -2.780981e+001  1.103013e+002 
4021875000  -2.707930e+001  1.087678e+002 
4025000000  -2.670416e+001  1.041070e+002 
4028125000  -2.663251e+001  9.991928e+001 
4031250000  -2.705939e+001  9.687836e+001 
4034375000  -2.731904e+001  9.613100e+001 
4037500000  -2.683452e+001  9.778117e+001 
4040625000  -2.678444e+001  9.493418e+001 
4043750000  -2.709580e+001  9.432472e+001 
4046875000  -2.660003e+001  9.408404e+001 
4050000000  -2.612665e+001  8.819802e+001 
4053125000  -2.663159e+001  8.562377e+001 
4056250000  -2.723624e+001  8.973335e+001 
4059375000  -2.606116e+001  9.160713e+001 
4062500000  -2.472239e+001  8.714704e+001 
4065625000  -2.455971e+001  8.306487e+001 
4068750000  -2.419978e+001  7.909879e+001 
4071875000  -2.352377e+001  7.123120e+001 
4075000000  -2.383788e+001  6.425464e+001 
4078125000  -2.433055e+001  6.303004e+001 
4081250000  -2.390693e+001  6.029652e+001 
4084375000  -2.352310e+001  5.381363e+001 
4087500000  -2.383963e+001  4.756963e+001 
4090625000  -2.450122e+001  4.672242e+001 
4093750000  -2.431837e+001  4.702767e+001 
4096875000  -2.385740e+001  4.119373e+001 
4100000000  -2.451440e+001  3.435246e+001 
4103125000  -2.535469e+001  3.512506e+001 
4106250000  -2.522190e+001  3.982830e+001 
4109375000  -2.436102e+001  3.914134e+001 
4112500000  -2.381029e+001  3.266877e+001 
4115625000  -2.406248e+001  2.822917e+001 
4118750000  -2.419167e+001  2.489102e+001 
4121875000  -2.386874e+001  2.048831e+001 
4125000000  -2.426738e+001  1.530252e+001 
4128125000  -2.527835e+001  1.612290e+001 
4131250000  -2.483443e+001  2.406706e+001 
4134375000  -2.251257e+001  1.955055e+001 
4137500000  -2.231420e+001  5.818688e-001 
4140625000  -2.446637e+001  -6.825200e+000 
4143750000  -2.577352e+001  -1.748624e+000 
4146875000  -2.529631e+001  5.964128e+000 
4150000000  -2.437287e+001  2.460720e+000 
4153125000  -2.420548e+001  -4.517672e+000 
4156250000  -2.507701e+001  -7.317780e+000 
4159375000  -2.541486e+001  -2.712410e+000 
4162500000  -2.423218e+001  1.475529e+000 
4165625000  -2.318567e+001  -2.180591e+000 
4168750000  -2.249682e+001  -9.303275e+000 
4171875000  -2.243054e+001  -1.866236e+001 
4175000000  -2.296739e+001  -2.463408e+001 
4178125000  -2.358337e+001  -2.468290e+001 
4181250000  -2.347985e+001  -2.546066e+001 
4184375000  -2.332515e+001  -2.914320e+001 
4187500000  -2.332097e+001  -3.177061e+001 
4190625000  -2.321490e+001  -3.728491e+001 
4193750000  -2.404578e+001  -4.115802e+001 
4196875000  -2.481720e+001  -4.153526e+001 
4200000000  -2.555700e+001  -3.898474e+001 
4203125000  -2.551678e+001  -2.578694e+001 
4206250000  -2.226151e+001  -2.461921e+001 
4209375000  -2.109612e+001  -4.502399e+001 
4212500000  -2.306952e+001  -5.356634e+001 
4215625000  -2.399356e+001  -4.654930e+001 
4218750000  -2.256779e+001  -4.014620e+001 
4221875000  -2.024803e+001  -5.010367e+001 
4225000000  -2.147159e+001  -6.263540e+001 
4228125000  -2.219566e+001  -5.807079e+001 
4231250000  -2.073948e+001  -6.160086e+001 
4234375000  -2.061228e+001  -7.014061e+001 
4237500000  -2.020627e+001  -7.335146e+001 
4240625000  -2.027527e+001  -8.200871e+001 
4243750000  -2.129836e+001  -8.834417e+001 
4246875000  -2.214359e+001  -8.814239e+001 
4250000000  -2.209797e+001  -8.547896e+001 
4253125000  -2.150701e+001  -8.745962e+001 
4256250000  -2.172002e+001  -9.170744e+001 
4259375000  -2.154249e+001  -9.388719e+001 
4262500000  -2.156247e+001  -9.770314e+001 
4265625000  -2.167130e+001  -9.721474e+001 
4268750000  -2.088478e+001  -1.011572e+002 
4271875000  -2.061348e+001  -1.065193e+002 
4275000000  -1.993899e+001  -1.134410e+002 
4278125000  -2.049353e+001  -1.248154e+002 
4281250000  -2.221412e+001  -1.270989e+002 
4284375000  -2.204048e+001  -1.267336e+002 
4287500000  -2.290811e+001  -1.305666e+002 
4290625000  -2.421066e+001  -1.204882e+002 
4293750000  -2.225942e+001  -1.146223e+002 
4296875000  -2.085102e+001  -1.258424e+002 
4300000000  -2.167777e+001  -1.353170e+002 
4303125000  -2.271052e+001  -1.338542e+002 
4306250000  -2.203001e+001  -1.283374e+002 
4309375000  -2.069260e+001  -1.311176e+002 
4312500000  -2.064080e+001  -1.394621e+002 
4315625000  -2.092768e+001  -1.456087e+002 
4318750000  -2.123225e+001  -1.485784e+002 
4321875000  -2.140205e+001  -1.481333e+002 
4325000000  -2.078177e+001  -1.479595e+002 
4328125000  -2.028275e+001  -1.545102e+002 
4331250000  -2.025902e+001  -1.626315e+002 
4334375000  -2.073726e+001  -1.673695e+002 
4337500000  -2.149997e+001  -1.696664e+002 
4340625000  -2.200604e+001  -1.663272e+002 
4343750000  -2.142248e+001  -1.660983e+002 
4346875000  -2.109676e+001  -1.713514e+002 
4350000000  -2.098334e+001  -1.762729e+002 
4353125000  -2.106617e+001  1.759002e+002 
4356250000  -2.281264e+001  1.745469e+002 
4359375000  -2.340487e+001  -1.725679e+002 
4362500000  -2.082864e+001  -1.701690e+002 
4365625000  -1.927064e+001  1.783116e+002 
4368750000  -1.997314e+001  1.666013e+002 
4371875000  -2.107756e+001  1.669274e+002 
4375000000  -2.080439e+001  1.679954e+002 
4378125000  -2.020644e+001  1.622085e+002 
4381250000  -2.033111e+001  1.569900e+002 
4384375000  -2.015718e+001  1.522229e+002 
4387500000  -2.078442e+001  1.461326e+002 
4390625000  -2.182833e+001  1.469004e+002 
4393750000  -2.125788e+001  1.491815e+002 
4396875000  -2.056584e+001  1.470120e+002 
4400000000  -2.008537e+001  1.400936e+002 
4403125000  -2.062038e+001  1.322758e+002 
4406250000  -2.146063e+001  1.310155e+002 
4409375000  -2.142753e+001  1.286491e+002 
4412500000  -2.234483e+001  1.255877e+002 
4415625000  -2.278514e+001  1.304117e+002 
4418750000  -2.171306e+001  1.353761e+002 
