!Agilent Technologies,E8363B,MY43030201,A.06.04.32
!Agilent E8363B: A.06.04.32
!Date: Tuesday, November 11, 2014 20:52:22
!Correction: S21(Response(S21)) 
!S1P File: Measurement: S21:
# Hz S  dB   R 50
3000000000  -2.649847e+001  1.514530e+002 
3003125000  -2.797997e+001  1.468639e+002 
3006250000  -2.797218e+001  1.443779e+002 
3009375000  -2.835205e+001  1.490559e+002 
3012500000  -2.779175e+001  1.485283e+002 
3015625000  -2.689704e+001  1.418168e+002 
3018750000  -2.767085e+001  1.410812e+002 
3021875000  -2.643394e+001  1.423342e+002 
3025000000  -2.509319e+001  1.392839e+002 
3028125000  -2.415121e+001  1.342570e+002 
3031250000  -2.312142e+001  1.228784e+002 
3034375000  -2.275181e+001  1.098520e+002 
3037500000  -2.314687e+001  9.794836e+001 
3040625000  -2.448093e+001  9.293316e+001 
3043750000  -2.517444e+001  8.873257e+001 
3046875000  -2.530054e+001  8.244878e+001 
3050000000  -2.700930e+001  7.540637e+001 
3053125000  -2.710440e+001  8.185409e+001 
3056250000  -2.648149e+001  8.499861e+001 
3059375000  -2.673673e+001  8.452006e+001 
3062500000  -2.523260e+001  8.070992e+001 
3065625000  -2.500043e+001  7.501561e+001 
3068750000  -2.471320e+001  6.830846e+001 
3071875000  -2.466104e+001  6.516397e+001 
3075000000  -2.462714e+001  6.129531e+001 
3078125000  -2.434521e+001  5.688829e+001 
3081250000  -2.498388e+001  5.267552e+001 
3084375000  -2.422200e+001  4.881044e+001 
3087500000  -2.413629e+001  4.524575e+001 
3090625000  -2.381640e+001  3.546883e+001 
3093750000  -2.427770e+001  2.762843e+001 
3096875000  -2.557022e+001  2.156432e+001 
3100000000  -2.569110e+001  2.028554e+001 
3103125000  -2.608437e+001  2.160998e+001 
3106250000  -2.578929e+001  1.787872e+001 
3109375000  -2.604338e+001  1.435015e+001 
3112500000  -2.618676e+001  1.350756e+001 
3115625000  -2.595126e+001  9.319846e+000 
3118750000  -2.644104e+001  1.057782e+001 
3121875000  -2.574698e+001  2.578035e+000 
3125000000  -2.692701e+001  -9.435880e-001 
3128125000  -2.816590e+001  7.171857e+000 
3131250000  -2.593629e+001  7.721035e+000 
3134375000  -2.465308e+001  -6.202973e+000 
3137500000  -2.532147e+001  -1.988648e+001 
3140625000  -2.693835e+001  -2.127970e+001 
3143750000  -2.795811e+001  -1.771283e+001 
3146875000  -2.749031e+001  -1.507777e+001 
3150000000  -2.645916e+001  -1.312855e+001 
3153125000  -2.649343e+001  -2.087784e+001 
3156250000  -2.744864e+001  -1.556790e+001 
3159375000  -2.592072e+001  -1.246042e+001 
3162500000  -2.390801e+001  -2.543792e+001 
3165625000  -2.479926e+001  -3.637695e+001 
3168750000  -2.520555e+001  -3.536674e+001 
3171875000  -2.425281e+001  -3.975954e+001 
3175000000  -2.487731e+001  -4.763662e+001 
3178125000  -2.467510e+001  -4.588091e+001 
3181250000  -2.349075e+001  -4.992353e+001 
3184375000  -2.270723e+001  -6.208867e+001 
3187500000  -2.381125e+001  -7.731287e+001 
3190625000  -2.660340e+001  -8.440075e+001 
3193750000  -2.717406e+001  -7.486206e+001 
3196875000  -2.673346e+001  -6.963270e+001 
3200000000  -2.585976e+001  -7.145419e+001 
3203125000  -2.498795e+001  -7.718888e+001 
3206250000  -2.528330e+001  -8.335080e+001 
3209375000  -2.484893e+001  -8.846114e+001 
3212500000  -2.497334e+001  -9.531586e+001 
3215625000  -2.509692e+001  -9.919343e+001 
3218750000  -2.585818e+001  -1.055864e+002 
3221875000  -2.679783e+001  -1.106200e+002 
3225000000  -2.642007e+001  -1.112040e+002 
3228125000  -2.675750e+001  -1.160436e+002 
3231250000  -2.747038e+001  -1.182728e+002 
3234375000  -2.738198e+001  -1.173569e+002 
3237500000  -2.740116e+001  -1.193172e+002 
3240625000  -2.704758e+001  -1.208902e+002 
3243750000  -2.672224e+001  -1.275836e+002 
3246875000  -2.717685e+001  -1.340132e+002 
3250000000  -2.763875e+001  -1.361188e+002 
3253125000  -2.777806e+001  -1.375460e+002 
3256250000  -2.764375e+001  -1.434923e+002 
3259375000  -2.794321e+001  -1.510313e+002 
3262500000  -2.924261e+001  -1.536663e+002 
3265625000  -2.988981e+001  -1.505356e+002 
3268750000  -2.987696e+001  -1.477789e+002 
3271875000  -2.962298e+001  -1.470239e+002 
3275000000  -2.854686e+001  -1.517722e+002 
3278125000  -2.904935e+001  -1.583330e+002 
3281250000  -2.929226e+001  -1.563794e+002 
3284375000  -2.887022e+001  -1.621476e+002 
3287500000  -2.897270e+001  -1.649242e+002 
3290625000  -2.945940e+001  -1.694073e+002 
3293750000  -2.912003e+001  -1.744850e+002 
3296875000  -3.018146e+001  -1.746953e+002 
3300000000  -3.003940e+001  -1.735809e+002 
3303125000  -2.889255e+001  -1.774498e+002 
3306250000  -2.865699e+001  1.760925e+002 
3309375000  -2.842241e+001  1.709090e+002 
3312500000  -2.846823e+001  1.602122e+002 
3315625000  -2.946809e+001  1.529606e+002 
3318750000  -3.078906e+001  1.499995e+002 
3321875000  -3.203898e+001  1.504384e+002 
3325000000  -3.261373e+001  1.551915e+002 
3328125000  -3.243374e+001  1.566692e+002 
3331250000  -3.125152e+001  1.641790e+002 
3334375000  -2.859254e+001  1.543300e+002 
3337500000  -2.867007e+001  1.359776e+002 
3340625000  -3.001633e+001  1.254520e+002 
3343750000  -3.211938e+001  1.241133e+002 
3346875000  -3.254096e+001  1.260166e+002 
3350000000  -3.181646e+001  1.243202e+002 
3353125000  -3.192617e+001  1.199587e+002 
3356250000  -3.166098e+001  1.121923e+002 
3359375000  -3.251396e+001  1.034870e+002 
3362500000  -3.378229e+001  9.828080e+001 
3365625000  -3.447913e+001  9.764082e+001 
3368750000  -3.539821e+001  9.542963e+001 
3371875000  -3.574161e+001  9.258605e+001 
3375000000  -3.724587e+001  9.080421e+001 
3378125000  -3.847026e+001  8.944988e+001 
3381250000  -3.991162e+001  9.657037e+001 
3384375000  -3.904029e+001  1.190245e+002 
3387500000  -3.600775e+001  1.042769e+002 
3390625000  -3.776110e+001  8.568127e+001 
3393750000  -3.932809e+001  9.041348e+001 
3396875000  -3.868568e+001  9.247476e+001 
3400000000  -3.850649e+001  8.674966e+001 
3403125000  -3.954714e+001  8.134547e+001 
3406250000  -4.025389e+001  8.509498e+001 
3409375000  -4.090822e+001  7.889293e+001 
3412500000  -4.193624e+001  8.048836e+001 
3415625000  -4.270005e+001  8.647612e+001 
3418750000  -4.304135e+001  8.944852e+001 
3421875000  -4.313041e+001  9.667840e+001 
3425000000  -4.265155e+001  9.891742e+001 
3428125000  -4.147218e+001  9.887126e+001 
3431250000  -4.134748e+001  9.468397e+001 
3434375000  -4.115619e+001  9.210471e+001 
3437500000  -4.152560e+001  9.007819e+001 
3440625000  -4.196383e+001  9.272408e+001 
3443750000  -4.090656e+001  9.537951e+001 
3446875000  -4.022828e+001  9.031689e+001 
3450000000  -3.969685e+001  8.132663e+001 
3453125000  -4.005935e+001  7.137995e+001 
3456250000  -4.103648e+001  6.651324e+001 
3459375000  -4.221677e+001  6.943784e+001 
3462500000  -4.229724e+001  6.980119e+001 
3465625000  -4.250422e+001  6.554344e+001 
3468750000  -4.265396e+001  6.299147e+001 
3471875000  -4.297548e+001  6.302658e+001 
3475000000  -4.249744e+001  5.891213e+001 
3478125000  -4.343900e+001  5.473087e+001 
3481250000  -4.462333e+001  5.285687e+001 
3484375000  -4.577609e+001  5.762629e+001 
3487500000  -4.541071e+001  6.234670e+001 
3490625000  -4.527170e+001  5.907060e+001 
3493750000  -4.610998e+001  5.753197e+001 
3496875000  -4.693118e+001  5.721385e+001 
3500000000  -4.797778e+001  6.215824e+001 
3503125000  -4.749202e+001  6.642175e+001 
3506250000  -4.669786e+001  7.022505e+001 
3509375000  -4.723354e+001  6.762535e+001 
3512500000  -4.743571e+001  6.483508e+001 
3515625000  -4.749587e+001  6.899664e+001 
3518750000  -4.845681e+001  7.552015e+001 
3521875000  -4.838890e+001  7.823580e+001 
3525000000  -4.831438e+001  7.793403e+001 
3528125000  -4.744458e+001  9.018437e+001 
3531250000  -4.588148e+001  9.208877e+001 
3534375000  -4.552098e+001  8.402778e+001 
3537500000  -4.539388e+001  8.029900e+001 
3540625000  -4.573303e+001  8.090083e+001 
3543750000  -4.611560e+001  8.409311e+001 
3546875000  -4.530610e+001  9.700134e+001 
3550000000  -4.293807e+001  9.734917e+001 
3553125000  -4.170572e+001  8.462727e+001 
3556250000  -4.244645e+001  7.887050e+001 
3559375000  -4.216418e+001  7.972536e+001 
3562500000  -4.117812e+001  7.208596e+001 
3565625000  -4.178867e+001  6.552443e+001 
3568750000  -4.197216e+001  7.012842e+001 
3571875000  -4.180256e+001  6.856865e+001 
3575000000  -4.125044e+001  6.394345e+001 
3578125000  -4.145275e+001  5.962814e+001 
3581250000  -4.161588e+001  6.182998e+001 
3584375000  -4.095153e+001  6.078305e+001 
3587500000  -4.004615e+001  5.423004e+001 
3590625000  -4.051589e+001  4.557081e+001 
3593750000  -4.146436e+001  4.365520e+001 
3596875000  -4.163290e+001  5.374717e+001 
3600000000  -3.988478e+001  4.906445e+001 
3603125000  -4.012868e+001  3.684738e+001 
3606250000  -4.055773e+001  3.342660e+001 
3609375000  -4.061432e+001  3.225479e+001 
3612500000  -4.149975e+001  3.138617e+001 
3615625000  -4.146729e+001  2.807496e+001 
3618750000  -4.196255e+001  3.183699e+001 
3621875000  -4.141566e+001  3.130495e+001 
3625000000  -4.159863e+001  3.034378e+001 
3628125000  -4.169743e+001  3.045220e+001 
3631250000  -4.123122e+001  2.595713e+001 
3634375000  -4.251059e+001  2.602362e+001 
3637500000  -4.196850e+001  3.193295e+001 
3640625000  -4.092410e+001  3.279688e+001 
3643750000  -4.062587e+001  2.593091e+001 
3646875000  -4.113153e+001  2.055380e+001 
3650000000  -4.169765e+001  2.141786e+001 
3653125000  -4.135712e+001  1.835648e+001 
3656250000  -4.141126e+001  2.057183e+001 
3659375000  -4.221199e+001  2.203175e+001 
3662500000  -4.101986e+001  2.144331e+001 
3665625000  -4.103675e+001  2.187439e+001 
3668750000  -4.018510e+001  2.379321e+001 
3671875000  -3.924919e+001  1.921453e+001 
3675000000  -3.994315e+001  1.395737e+001 
3678125000  -4.038779e+001  1.327232e+001 
3681250000  -3.957149e+001  1.485361e+001 
3684375000  -3.967670e+001  1.167296e+001 
3687500000  -3.985688e+001  1.068097e+001 
3690625000  -3.989362e+001  9.502522e+000 
3693750000  -4.037196e+001  1.114860e+001 
3696875000  -4.023011e+001  1.582115e+001 
3700000000  -3.888621e+001  1.321913e+001 
3703125000  -3.890770e+001  9.642462e+000 
3706250000  -3.955725e+001  1.214629e+001 
3709375000  -3.865178e+001  1.439337e+001 
3712500000  -3.745544e+001  1.508826e+001 
3715625000  -3.639554e+001  9.020841e+000 
3718750000  -3.576022e+001  5.825421e+000 
3721875000  -3.513204e+001  2.644038e-001 
3725000000  -3.514711e+001  -3.898168e+000 
3728125000  -3.531586e+001  -4.432459e+000 
3731250000  -3.473590e+001  -5.985473e+000 
3734375000  -3.368375e+001  -1.124598e+001 
3737500000  -3.414618e+001  -1.846131e+001 
3740625000  -3.479049e+001  -2.185861e+001 
3743750000  -3.462175e+001  -2.402067e+001 
3746875000  -3.448378e+001  -2.726239e+001 
3750000000  -3.490482e+001  -2.776282e+001 
3753125000  -3.450842e+001  -2.892292e+001 
3756250000  -3.443031e+001  -2.935127e+001 
3759375000  -3.431645e+001  -3.011575e+001 
3762500000  -3.371584e+001  -3.428956e+001 
3765625000  -3.412932e+001  -3.655861e+001 
3768750000  -3.433094e+001  -3.519644e+001 
3771875000  -3.253415e+001  -3.664169e+001 
3775000000  -3.226088e+001  -4.507818e+001 
3778125000  -3.249353e+001  -4.674507e+001 
3781250000  -3.236818e+001  -4.945284e+001 
3784375000  -3.229797e+001  -5.140791e+001 
3787500000  -3.157287e+001  -5.503989e+001 
3790625000  -3.220943e+001  -6.063456e+001 
3793750000  -3.237843e+001  -6.128742e+001 
3796875000  -3.138611e+001  -6.321904e+001 
3800000000  -2.993737e+001  -6.621239e+001 
3803125000  -3.069838e+001  -7.317340e+001 
3806250000  -3.140905e+001  -7.524948e+001 
3809375000  -3.098165e+001  -7.713959e+001 
3812500000  -3.039814e+001  -8.133530e+001 
3815625000  -3.098474e+001  -8.906664e+001 
3818750000  -3.188425e+001  -9.011946e+001 
3821875000  -3.200870e+001  -8.188329e+001 
3825000000  -3.018202e+001  -7.771204e+001 
3828125000  -2.869463e+001  -9.138238e+001 
3831250000  -2.929428e+001  -1.057465e+002 
3834375000  -3.061885e+001  -1.064962e+002 
3837500000  -3.152411e+001  -1.009619e+002 
3840625000  -3.040549e+001  -1.019216e+002 
3843750000  -2.920627e+001  -1.116081e+002 
3846875000  -2.991469e+001  -1.191296e+002 
3850000000  -3.118664e+001  -1.140754e+002 
3853125000  -3.038825e+001  -1.117077e+002 
3856250000  -3.035436e+001  -1.160799e+002 
3859375000  -2.962568e+001  -1.207710e+002 
3862500000  -2.916060e+001  -1.281111e+002 
3865625000  -2.946522e+001  -1.322537e+002 
3868750000  -2.949022e+001  -1.329104e+002 
3871875000  -2.877868e+001  -1.360235e+002 
3875000000  -2.891784e+001  -1.449352e+002 
3878125000  -2.986845e+001  -1.466608e+002 
3881250000  -3.005332e+001  -1.439995e+002 
3884375000  -2.955714e+001  -1.490593e+002 
3887500000  -2.967138e+001  -1.532883e+002 
3890625000  -3.012192e+001  -1.554212e+002 
3893750000  -3.055829e+001  -1.568244e+002 
3896875000  -3.076242e+001  -1.564579e+002 
3900000000  -3.092803e+001  -1.573347e+002 
3903125000  -3.056748e+001  -1.592279e+002 
3906250000  -3.030576e+001  -1.593125e+002 
3909375000  -2.957162e+001  -1.626379e+002 
3912500000  -2.968761e+001  -1.695187e+002 
3915625000  -3.089145e+001  -1.689796e+002 
3918750000  -3.092558e+001  -1.671919e+002 
3921875000  -3.060283e+001  -1.690710e+002 
3925000000  -2.976425e+001  -1.696289e+002 
3928125000  -2.900992e+001  -1.756223e+002 
3931250000  -2.953919e+001  -1.796659e+002 
3934375000  -2.981623e+001  -1.797308e+002 
3937500000  -2.985534e+001  -1.799794e+002 
3940625000  -3.034336e+001  -1.794796e+002 
3943750000  -2.946376e+001  -1.776543e+002 
3946875000  -2.811500e+001  1.762165e+002 
3950000000  -2.868174e+001  1.687674e+002 
3953125000  -2.972119e+001  1.695001e+002 
3956250000  -2.871055e+001  1.724359e+002 
3959375000  -2.747816e+001  1.690156e+002 
3962500000  -2.692988e+001  1.649667e+002 
3965625000  -2.663858e+001  1.563480e+002 
3968750000  -2.749095e+001  1.501551e+002 
3971875000  -2.785077e+001  1.488225e+002 
3975000000  -2.718835e+001  1.466853e+002 
3978125000  -2.696388e+001  1.450647e+002 
3981250000  -2.677120e+001  1.404610e+002 
3984375000  -2.695548e+001  1.342670e+002 
3987500000  -2.749698e+001  1.317589e+002 
3990625000  -2.744773e+001  1.312563e+002 
3993750000  -2.771790e+001  1.285070e+002 
3996875000  -2.762734e+001  1.250424e+002 
4000000000  -2.768744e+001  1.234784e+002 
4003125000  -2.830987e+001  1.254374e+002 
4006250000  -2.692097e+001  1.254693e+002 
4009375000  -2.572590e+001  1.131855e+002 
4012500000  -2.680830e+001  1.063780e+002 
4015625000  -2.809132e+001  1.066787e+002 
4018750000  -2.834682e+001  1.091845e+002 
4021875000  -2.761633e+001  1.072450e+002 
4025000000  -2.722972e+001  1.024418e+002 
4028125000  -2.718361e+001  9.855450e+001 
4031250000  -2.766397e+001  9.518958e+001 
4034375000  -2.791602e+001  9.512153e+001 
4037500000  -2.748197e+001  9.758017e+001 
4040625000  -2.735646e+001  9.360728e+001 
4043750000  -2.765909e+001  9.350394e+001 
4046875000  -2.722961e+001  9.287785e+001 
4050000000  -2.676000e+001  8.742214e+001 
4053125000  -2.725586e+001  8.541179e+001 
4056250000  -2.787536e+001  8.979683e+001 
4059375000  -2.663503e+001  9.142736e+001 
4062500000  -2.524547e+001  8.670466e+001 
4065625000  -2.514659e+001  8.260139e+001 
4068750000  -2.481703e+001  7.786099e+001 
4071875000  -2.420368e+001  6.998214e+001 
4075000000  -2.456026e+001  6.366800e+001 
4078125000  -2.511736e+001  6.296167e+001 
4081250000  -2.465388e+001  6.067500e+001 
4084375000  -2.418328e+001  5.392491e+001 
4087500000  -2.454732e+001  4.766819e+001 
4090625000  -2.515108e+001  4.658707e+001 
4093750000  -2.494859e+001  4.728088e+001 
4096875000  -2.453414e+001  4.157352e+001 
4100000000  -2.520926e+001  3.451817e+001 
4103125000  -2.605838e+001  3.484906e+001 
4106250000  -2.596598e+001  3.972122e+001 
4109375000  -2.507910e+001  3.907253e+001 
4112500000  -2.451679e+001  3.235035e+001 
4115625000  -2.476762e+001  2.837355e+001 
4118750000  -2.490606e+001  2.515671e+001 
4121875000  -2.450400e+001  2.079119e+001 
4125000000  -2.486696e+001  1.579146e+001 
4128125000  -2.591890e+001  1.530188e+001 
4131250000  -2.559274e+001  2.333344e+001 
4134375000  -2.332965e+001  1.868731e+001 
4137500000  -2.307329e+001  4.142398e-001 
4140625000  -2.523161e+001  -7.038075e+000 
4143750000  -2.656871e+001  -1.981764e+000 
4146875000  -2.613304e+001  5.305143e+000 
4150000000  -2.520844e+001  2.166490e+000 
4153125000  -2.509783e+001  -3.987398e+000 
4156250000  -2.597534e+001  -7.078243e+000 
4159375000  -2.631459e+001  -2.541770e+000 
4162500000  -2.510484e+001  1.812530e+000 
4165625000  -2.398252e+001  -2.509555e+000 
4168750000  -2.343100e+001  -9.405532e+000 
4171875000  -2.341019e+001  -1.881782e+001 
4175000000  -2.398862e+001  -2.411632e+001 
4178125000  -2.464469e+001  -2.407331e+001 
4181250000  -2.447400e+001  -2.463409e+001 
4184375000  -2.435542e+001  -2.801173e+001 
4187500000  -2.439033e+001  -3.039283e+001 
4190625000  -2.422009e+001  -3.597641e+001 
4193750000  -2.502797e+001  -3.984103e+001 
4196875000  -2.574425e+001  -4.035590e+001 
4200000000  -2.665407e+001  -3.813691e+001 
4203125000  -2.663616e+001  -2.455947e+001 
4206250000  -2.328259e+001  -2.257425e+001 
4209375000  -2.206790e+001  -4.317962e+001 
4212500000  -2.399579e+001  -5.234959e+001 
4215625000  -2.497899e+001  -4.619318e+001 
4218750000  -2.365289e+001  -3.949635e+001 
4221875000  -2.133514e+001  -4.829182e+001 
4225000000  -2.257320e+001  -6.061125e+001 
4228125000  -2.329591e+001  -5.557414e+001 
4231250000  -2.166538e+001  -5.937096e+001 
4234375000  -2.160651e+001  -6.798096e+001 
4237500000  -2.120657e+001  -7.108251e+001 
4240625000  -2.122024e+001  -7.958770e+001 
4243750000  -2.212964e+001  -8.631502e+001 
4246875000  -2.303368e+001  -8.661721e+001 
4250000000  -2.310350e+001  -8.386105e+001 
4253125000  -2.251282e+001  -8.582179e+001 
4256250000  -2.280340e+001  -8.997733e+001 
4259375000  -2.253987e+001  -9.172762e+001 
4262500000  -2.259681e+001  -9.594748e+001 
4265625000  -2.274900e+001  -9.510333e+001 
4268750000  -2.183862e+001  -9.946187e+001 
4271875000  -2.158995e+001  -1.049686e+002 
4275000000  -2.100235e+001  -1.115148e+002 
4278125000  -2.168193e+001  -1.227106e+002 
4281250000  -2.343479e+001  -1.249928e+002 
4284375000  -2.316180e+001  -1.239859e+002 
4287500000  -2.396859e+001  -1.274692e+002 
4290625000  -2.518747e+001  -1.180759e+002 
4293750000  -2.319426e+001  -1.124196e+002 
4296875000  -2.186224e+001  -1.239365e+002 
4300000000  -2.264969e+001  -1.328857e+002 
4303125000  -2.382294e+001  -1.321839e+002 
4306250000  -2.330293e+001  -1.259871e+002 
4309375000  -2.189053e+001  -1.276357e+002 
4312500000  -2.176609e+001  -1.360251e+002 
4315625000  -2.192058e+001  -1.421876e+002 
4318750000  -2.229019e+001  -1.452605e+002 
4321875000  -2.247733e+001  -1.446669e+002 
4325000000  -2.191558e+001  -1.442150e+002 
4328125000  -2.140442e+001  -1.504626e+002 
4331250000  -2.132006e+001  -1.581420e+002 
4334375000  -2.175915e+001  -1.633913e+002 
4337500000  -2.258029e+001  -1.654584e+002 
4340625000  -2.319380e+001  -1.623468e+002 
4343750000  -2.256572e+001  -1.617424e+002 
4346875000  -2.212582e+001  -1.676064e+002 
4350000000  -2.212880e+001  -1.720300e+002 
4353125000  -2.221018e+001  -1.796974e+002 
4356250000  -2.401719e+001  1.789831e+002 
4359375000  -2.455536e+001  -1.674105e+002 
4362500000  -2.181723e+001  -1.649857e+002 
4365625000  -2.025364e+001  -1.770542e+002 
4368750000  -2.097826e+001  1.709341e+002 
4371875000  -2.223175e+001  1.716710e+002 
4375000000  -2.182888e+001  1.729019e+002 
4378125000  -2.117433e+001  1.667478e+002 
4381250000  -2.134051e+001  1.615301e+002 
4384375000  -2.113853e+001  1.571562e+002 
4387500000  -2.192117e+001  1.510446e+002 
4390625000  -2.293822e+001  1.517592e+002 
4393750000  -2.223241e+001  1.542712e+002 
4396875000  -2.157661e+001  1.518358e+002 
4400000000  -2.104131e+001  1.450757e+002 
4403125000  -2.169430e+001  1.375087e+002 
4406250000  -2.251500e+001  1.362439e+002 
4409375000  -2.249750e+001  1.338165e+002 
4412500000  -2.361585e+001  1.308734e+002 
4415625000  -2.392949e+001  1.358800e+002 
4418750000  -2.269484e+001  1.408350e+002 
