!Agilent Technologies,E8363B,MY43030201,A.06.04.32
!Agilent E8363B: A.06.04.32
!Date: Tuesday, November 11, 2014 20:54:18
!Correction: S21(Response(S21)) 
!S1P File: Measurement: S21:
# Hz S  dB   R 50
3000000000  -2.664411e+001  1.509277e+002 
3003125000  -2.804947e+001  1.464496e+002 
3006250000  -2.805657e+001  1.436226e+002 
3009375000  -2.844517e+001  1.488786e+002 
3012500000  -2.791864e+001  1.480985e+002 
3015625000  -2.693654e+001  1.410881e+002 
3018750000  -2.778868e+001  1.402179e+002 
3021875000  -2.651605e+001  1.415598e+002 
3025000000  -2.521874e+001  1.386027e+002 
3028125000  -2.427010e+001  1.332585e+002 
3031250000  -2.321295e+001  1.222095e+002 
3034375000  -2.284540e+001  1.091752e+002 
3037500000  -2.320080e+001  9.729745e+001 
3040625000  -2.453720e+001  9.225758e+001 
3043750000  -2.525322e+001  8.773406e+001 
3046875000  -2.535665e+001  8.149385e+001 
3050000000  -2.708693e+001  7.462907e+001 
3053125000  -2.716328e+001  8.099613e+001 
3056250000  -2.657828e+001  8.443941e+001 
3059375000  -2.682056e+001  8.366417e+001 
3062500000  -2.532437e+001  7.986147e+001 
3065625000  -2.506156e+001  7.402481e+001 
3068750000  -2.476856e+001  6.712487e+001 
3071875000  -2.478123e+001  6.432723e+001 
3075000000  -2.472213e+001  6.046140e+001 
3078125000  -2.442684e+001  5.572265e+001 
3081250000  -2.509071e+001  5.150438e+001 
3084375000  -2.432588e+001  4.796821e+001 
3087500000  -2.424092e+001  4.428933e+001 
3090625000  -2.391612e+001  3.458670e+001 
3093750000  -2.435541e+001  2.670367e+001 
3096875000  -2.563100e+001  2.073238e+001 
3100000000  -2.574099e+001  1.934345e+001 
3103125000  -2.612620e+001  2.074937e+001 
3106250000  -2.586620e+001  1.715238e+001 
3109375000  -2.611782e+001  1.356621e+001 
3112500000  -2.623036e+001  1.254082e+001 
3115625000  -2.601907e+001  8.569055e+000 
3118750000  -2.651612e+001  9.878311e+000 
3121875000  -2.583097e+001  1.559735e+000 
3125000000  -2.703523e+001  -1.866178e+000 
3128125000  -2.829202e+001  6.474155e+000 
3131250000  -2.606459e+001  6.870738e+000 
3134375000  -2.471690e+001  -6.474617e+000 
3137500000  -2.535419e+001  -2.035934e+001 
3140625000  -2.694395e+001  -2.197710e+001 
3143750000  -2.796740e+001  -1.833406e+001 
3146875000  -2.757851e+001  -1.594288e+001 
3150000000  -2.656840e+001  -1.385283e+001 
3153125000  -2.654975e+001  -2.165810e+001 
3156250000  -2.752044e+001  -1.587751e+001 
3159375000  -2.594525e+001  -1.341241e+001 
3162500000  -2.389226e+001  -2.611674e+001 
3165625000  -2.486847e+001  -3.724310e+001 
3168750000  -2.520555e+001  -3.619374e+001 
3171875000  -2.425906e+001  -4.072411e+001 
3175000000  -2.489447e+001  -4.842039e+001 
3178125000  -2.467472e+001  -4.678407e+001 
3181250000  -2.352320e+001  -5.060151e+001 
3184375000  -2.273512e+001  -6.274655e+001 
3187500000  -2.387544e+001  -7.830587e+001 
3190625000  -2.659865e+001  -8.568124e+001 
3193750000  -2.717029e+001  -7.581234e+001 
3196875000  -2.681038e+001  -7.035711e+001 
3200000000  -2.588422e+001  -7.263560e+001 
3203125000  -2.507841e+001  -7.822108e+001 
3206250000  -2.535259e+001  -8.435554e+001 
3209375000  -2.489260e+001  -8.967433e+001 
3212500000  -2.506448e+001  -9.622163e+001 
3215625000  -2.516884e+001  -1.000050e+002 
3218750000  -2.589071e+001  -1.064005e+002 
3221875000  -2.686792e+001  -1.117209e+002 
3225000000  -2.648374e+001  -1.120185e+002 
3228125000  -2.679869e+001  -1.167572e+002 
3231250000  -2.756507e+001  -1.193560e+002 
3234375000  -2.740441e+001  -1.182536e+002 
3237500000  -2.742423e+001  -1.200803e+002 
3240625000  -2.708829e+001  -1.218248e+002 
3243750000  -2.672456e+001  -1.285328e+002 
3246875000  -2.723650e+001  -1.347586e+002 
3250000000  -2.763959e+001  -1.365387e+002 
3253125000  -2.785581e+001  -1.384504e+002 
3256250000  -2.766666e+001  -1.443989e+002 
3259375000  -2.796436e+001  -1.520710e+002 
3262500000  -2.926908e+001  -1.547548e+002 
3265625000  -2.992964e+001  -1.513222e+002 
3268750000  -2.988852e+001  -1.486933e+002 
3271875000  -2.963669e+001  -1.475564e+002 
3275000000  -2.854470e+001  -1.528711e+002 
3278125000  -2.904325e+001  -1.590493e+002 
3281250000  -2.928864e+001  -1.570081e+002 
3284375000  -2.885512e+001  -1.631669e+002 
3287500000  -2.899844e+001  -1.655903e+002 
3290625000  -2.943679e+001  -1.699293e+002 
3293750000  -2.908703e+001  -1.752787e+002 
3296875000  -3.010522e+001  -1.756016e+002 
3300000000  -3.002373e+001  -1.744984e+002 
3303125000  -2.885488e+001  -1.785975e+002 
3306250000  -2.863940e+001  1.748754e+002 
3309375000  -2.842177e+001  1.695880e+002 
3312500000  -2.846043e+001  1.595514e+002 
3315625000  -2.946687e+001  1.517224e+002 
3318750000  -3.080320e+001  1.493130e+002 
3321875000  -3.201942e+001  1.486133e+002 
3325000000  -3.257830e+001  1.542753e+002 
3328125000  -3.242422e+001  1.561650e+002 
3331250000  -3.128914e+001  1.634515e+002 
3334375000  -2.862728e+001  1.536081e+002 
3337500000  -2.867064e+001  1.351209e+002 
3340625000  -3.014628e+001  1.242316e+002 
3343750000  -3.202122e+001  1.232679e+002 
3346875000  -3.247170e+001  1.243894e+002 
3350000000  -3.180852e+001  1.231634e+002 
3353125000  -3.202194e+001  1.183100e+002 
3356250000  -3.169659e+001  1.114325e+002 
3359375000  -3.254131e+001  1.025783e+002 
3362500000  -3.381798e+001  9.736465e+001 
3365625000  -3.452494e+001  9.592567e+001 
3368750000  -3.538275e+001  9.410883e+001 
3371875000  -3.579349e+001  9.113358e+001 
3375000000  -3.727692e+001  8.886271e+001 
3378125000  -3.827579e+001  8.789359e+001 
3381250000  -4.011365e+001  9.572696e+001 
3384375000  -3.924371e+001  1.187850e+002 
3387500000  -3.590502e+001  1.039918e+002 
3390625000  -3.768069e+001  8.379058e+001 
3393750000  -3.952940e+001  8.797796e+001 
3396875000  -3.876157e+001  9.160359e+001 
3400000000  -3.845408e+001  8.429291e+001 
3403125000  -3.948479e+001  7.969855e+001 
3406250000  -4.042704e+001  8.235949e+001 
3409375000  -4.103474e+001  7.822020e+001 
3412500000  -4.183056e+001  8.058789e+001 
3415625000  -4.270299e+001  8.310032e+001 
3418750000  -4.325362e+001  8.815986e+001 
3421875000  -4.323034e+001  9.498974e+001 
3425000000  -4.234350e+001  9.639883e+001 
3428125000  -4.147788e+001  9.768925e+001 
3431250000  -4.144949e+001  9.249768e+001 
3434375000  -4.132722e+001  8.883091e+001 
3437500000  -4.170742e+001  8.775977e+001 
3440625000  -4.188826e+001  9.156428e+001 
3443750000  -4.076434e+001  9.282435e+001 
3446875000  -3.992974e+001  8.714283e+001 
3450000000  -3.986674e+001  7.953584e+001 
3453125000  -4.015937e+001  7.108598e+001 
3456250000  -4.156408e+001  6.429338e+001 
3459375000  -4.254487e+001  6.737595e+001 
3462500000  -4.237103e+001  6.830893e+001 
3465625000  -4.254025e+001  6.571236e+001 
3468750000  -4.310865e+001  6.070133e+001 
3471875000  -4.318432e+001  6.224603e+001 
3475000000  -4.276257e+001  5.805069e+001 
3478125000  -4.375654e+001  5.370457e+001 
3481250000  -4.528571e+001  5.278613e+001 
3484375000  -4.660400e+001  5.826294e+001 
3487500000  -4.614316e+001  5.882401e+001 
3490625000  -4.568208e+001  5.737551e+001 
3493750000  -4.627829e+001  5.417462e+001 
3496875000  -4.743153e+001  5.405444e+001 
3500000000  -4.789973e+001  6.542561e+001 
3503125000  -4.838387e+001  6.499162e+001 
3506250000  -4.702759e+001  7.035383e+001 
3509375000  -4.771117e+001  6.736311e+001 
3512500000  -4.788091e+001  6.705257e+001 
3515625000  -4.845574e+001  7.409381e+001 
3518750000  -4.852441e+001  7.755889e+001 
3521875000  -4.847956e+001  8.031545e+001 
3525000000  -4.851279e+001  8.082050e+001 
3528125000  -4.837664e+001  9.303873e+001 
3531250000  -4.631244e+001  9.582742e+001 
3534375000  -4.537521e+001  8.521489e+001 
3537500000  -4.539397e+001  8.261776e+001 
3540625000  -4.581611e+001  8.395492e+001 
3543750000  -4.578468e+001  8.677963e+001 
3546875000  -4.579575e+001  9.872838e+001 
3550000000  -4.290412e+001  1.020321e+002 
3553125000  -4.148159e+001  8.592742e+001 
3556250000  -4.272602e+001  7.857914e+001 
3559375000  -4.229808e+001  8.189658e+001 
3562500000  -4.112376e+001  7.347300e+001 
3565625000  -4.188241e+001  6.807193e+001 
3568750000  -4.185679e+001  7.000835e+001 
3571875000  -4.151323e+001  7.014754e+001 
3575000000  -4.088392e+001  6.397276e+001 
3578125000  -4.155548e+001  6.033192e+001 
3581250000  -4.204539e+001  6.201839e+001 
3584375000  -4.071500e+001  6.094726e+001 
3587500000  -3.994125e+001  5.453508e+001 
3590625000  -4.037690e+001  4.712453e+001 
3593750000  -4.120960e+001  4.465888e+001 
3596875000  -4.143647e+001  5.293998e+001 
3600000000  -3.959283e+001  5.106948e+001 
3603125000  -3.977494e+001  3.686331e+001 
3606250000  -4.062360e+001  3.443368e+001 
3609375000  -4.065257e+001  3.275097e+001 
3612500000  -4.132098e+001  3.163876e+001 
3615625000  -4.133736e+001  2.947389e+001 
3618750000  -4.183207e+001  3.097154e+001 
3621875000  -4.131037e+001  3.025706e+001 
3625000000  -4.169620e+001  3.112468e+001 
3628125000  -4.139862e+001  2.969197e+001 
3631250000  -4.123211e+001  2.592783e+001 
3634375000  -4.210654e+001  2.626561e+001 
3637500000  -4.183174e+001  3.164520e+001 
3640625000  -4.048366e+001  3.427439e+001 
3643750000  -4.040044e+001  2.917528e+001 
3646875000  -4.092268e+001  2.080225e+001 
3650000000  -4.135841e+001  2.160870e+001 
3653125000  -4.111875e+001  1.993409e+001 
3656250000  -4.176450e+001  2.036899e+001 
3659375000  -4.203977e+001  2.295807e+001 
3662500000  -4.115290e+001  2.190680e+001 
3665625000  -4.120891e+001  2.356906e+001 
3668750000  -4.003801e+001  2.471599e+001 
3671875000  -3.912944e+001  1.971807e+001 
3675000000  -3.956401e+001  1.347945e+001 
3678125000  -4.015862e+001  1.463338e+001 
3681250000  -3.953944e+001  1.566262e+001 
3684375000  -3.943291e+001  1.379619e+001 
3687500000  -3.967082e+001  1.238324e+001 
3690625000  -3.951568e+001  9.559030e+000 
3693750000  -4.016914e+001  1.171625e+001 
3696875000  -3.977272e+001  1.570732e+001 
3700000000  -3.859818e+001  1.440862e+001 
3703125000  -3.833934e+001  8.623022e+000 
3706250000  -3.906258e+001  1.261473e+001 
3709375000  -3.852952e+001  1.437686e+001 
3712500000  -3.734039e+001  1.563348e+001 
3715625000  -3.611418e+001  7.807116e+000 
3718750000  -3.527565e+001  6.414683e+000 
3721875000  -3.501001e+001  -2.953918e-001 
3725000000  -3.507259e+001  -4.771605e+000 
3728125000  -3.518963e+001  -5.622577e+000 
3731250000  -3.433292e+001  -6.360197e+000 
3734375000  -3.350439e+001  -1.240063e+001 
3737500000  -3.402034e+001  -1.912506e+001 
3740625000  -3.463310e+001  -2.206761e+001 
3743750000  -3.441657e+001  -2.390082e+001 
3746875000  -3.434429e+001  -2.762029e+001 
3750000000  -3.469106e+001  -2.832874e+001 
3753125000  -3.447760e+001  -2.859785e+001 
3756250000  -3.433124e+001  -2.982375e+001 
3759375000  -3.404781e+001  -3.019830e+001 
3762500000  -3.360984e+001  -3.508059e+001 
3765625000  -3.406190e+001  -3.717793e+001 
3768750000  -3.406750e+001  -3.476999e+001 
3771875000  -3.236024e+001  -3.715326e+001 
3775000000  -3.211151e+001  -4.469399e+001 
3778125000  -3.247976e+001  -4.635853e+001 
3781250000  -3.227079e+001  -4.942414e+001 
3784375000  -3.215058e+001  -5.077521e+001 
3787500000  -3.149337e+001  -5.483297e+001 
3790625000  -3.211665e+001  -6.023740e+001 
3793750000  -3.225000e+001  -6.097344e+001 
3796875000  -3.136120e+001  -6.217939e+001 
3800000000  -2.977283e+001  -6.575054e+001 
3803125000  -3.056885e+001  -7.254870e+001 
3806250000  -3.119800e+001  -7.488387e+001 
3809375000  -3.096223e+001  -7.628152e+001 
3812500000  -3.031653e+001  -8.075591e+001 
3815625000  -3.089805e+001  -8.860012e+001 
3818750000  -3.180067e+001  -8.968481e+001 
3821875000  -3.191934e+001  -8.130090e+001 
3825000000  -2.996001e+001  -7.707822e+001 
3828125000  -2.856362e+001  -9.092844e+001 
3831250000  -2.906766e+001  -1.045138e+002 
3834375000  -3.052559e+001  -1.060636e+002 
3837500000  -3.136837e+001  -1.014723e+002 
3840625000  -3.030536e+001  -1.018884e+002 
3843750000  -2.908642e+001  -1.117923e+002 
3846875000  -2.977459e+001  -1.190765e+002 
3850000000  -3.100018e+001  -1.136007e+002 
3853125000  -3.030760e+001  -1.106967e+002 
3856250000  -3.025813e+001  -1.157482e+002 
3859375000  -2.950545e+001  -1.197964e+002 
3862500000  -2.900839e+001  -1.275824e+002 
3865625000  -2.936895e+001  -1.318921e+002 
3868750000  -2.943339e+001  -1.321593e+002 
3871875000  -2.863651e+001  -1.352341e+002 
3875000000  -2.878311e+001  -1.441403e+002 
3878125000  -2.979627e+001  -1.462078e+002 
3881250000  -2.988636e+001  -1.428839e+002 
3884375000  -2.930960e+001  -1.477459e+002 
3887500000  -2.943008e+001  -1.518568e+002 
3890625000  -2.995653e+001  -1.541785e+002 
3893750000  -3.037360e+001  -1.562993e+002 
3896875000  -3.047768e+001  -1.548849e+002 
3900000000  -3.067334e+001  -1.563011e+002 
3903125000  -3.042774e+001  -1.582138e+002 
3906250000  -3.013703e+001  -1.587028e+002 
3909375000  -2.948145e+001  -1.615015e+002 
3912500000  -2.938000e+001  -1.689651e+002 
3915625000  -3.062334e+001  -1.682359e+002 
3918750000  -3.063015e+001  -1.658334e+002 
3921875000  -3.030432e+001  -1.675139e+002 
3925000000  -2.940025e+001  -1.681685e+002 
3928125000  -2.870464e+001  -1.741119e+002 
3931250000  -2.915122e+001  -1.778813e+002 
3934375000  -2.940804e+001  -1.775439e+002 
3937500000  -2.962605e+001  -1.789971e+002 
3940625000  -3.006746e+001  -1.779200e+002 
3943750000  -2.911898e+001  -1.763497e+002 
3946875000  -2.780725e+001  1.775411e+002 
3950000000  -2.831694e+001  1.707380e+002 
3953125000  -2.915651e+001  1.710585e+002 
3956250000  -2.830610e+001  1.735020e+002 
3959375000  -2.704801e+001  1.703382e+002 
3962500000  -2.652117e+001  1.664091e+002 
3965625000  -2.617909e+001  1.576068e+002 
3968750000  -2.704289e+001  1.507849e+002 
3971875000  -2.740147e+001  1.491825e+002 
3975000000  -2.680380e+001  1.468930e+002 
3978125000  -2.663591e+001  1.457288e+002 
3981250000  -2.636071e+001  1.414019e+002 
3984375000  -2.662549e+001  1.354409e+002 
3987500000  -2.713889e+001  1.335464e+002 
3990625000  -2.702542e+001  1.321726e+002 
3993750000  -2.728252e+001  1.290178e+002 
3996875000  -2.723314e+001  1.264817e+002 
4000000000  -2.737502e+001  1.242894e+002 
4003125000  -2.795414e+001  1.267151e+002 
4006250000  -2.661812e+001  1.277638e+002 
4009375000  -2.529568e+001  1.152330e+002 
4012500000  -2.636397e+001  1.085624e+002 
4015625000  -2.752944e+001  1.082842e+002 
4018750000  -2.779445e+001  1.106027e+002 
4021875000  -2.710490e+001  1.090098e+002 
4025000000  -2.668801e+001  1.043375e+002 
4028125000  -2.668966e+001  1.002669e+002 
4031250000  -2.710819e+001  9.705686e+001 
4034375000  -2.740006e+001  9.676600e+001 
4037500000  -2.685049e+001  9.812808e+001 
4040625000  -2.676205e+001  9.508163e+001 
4043750000  -2.713494e+001  9.490305e+001 
4046875000  -2.666935e+001  9.460371e+001 
4050000000  -2.614160e+001  8.879512e+001 
4053125000  -2.659997e+001  8.655787e+001 
4056250000  -2.727299e+001  9.049958e+001 
4059375000  -2.606343e+001  9.248294e+001 
4062500000  -2.472447e+001  8.780763e+001 
4065625000  -2.458261e+001  8.377561e+001 
4068750000  -2.425250e+001  7.927676e+001 
4071875000  -2.351392e+001  7.117381e+001 
4075000000  -2.395417e+001  6.494907e+001 
4078125000  -2.438957e+001  6.364052e+001 
4081250000  -2.388825e+001  6.119912e+001 
4084375000  -2.354928e+001  5.461428e+001 
4087500000  -2.387987e+001  4.813307e+001 
4090625000  -2.445581e+001  4.719864e+001 
4093750000  -2.429997e+001  4.783699e+001 
4096875000  -2.385859e+001  4.207056e+001 
4100000000  -2.457918e+001  3.497160e+001 
4103125000  -2.541922e+001  3.584708e+001 
4106250000  -2.522159e+001  4.025628e+001 
4109375000  -2.436018e+001  3.947344e+001 
4112500000  -2.376497e+001  3.322424e+001 
4115625000  -2.410587e+001  2.896544e+001 
4118750000  -2.417145e+001  2.572820e+001 
4121875000  -2.389344e+001  2.109087e+001 
4125000000  -2.429815e+001  1.599279e+001 
4128125000  -2.523541e+001  1.698341e+001 
4131250000  -2.485054e+001  2.491695e+001 
4134375000  -2.252434e+001  2.026134e+001 
4137500000  -2.231273e+001  1.046577e+000 
4140625000  -2.442108e+001  -5.992242e+000 
4143750000  -2.583961e+001  -1.023427e+000 
4146875000  -2.531902e+001  6.389366e+000 
4150000000  -2.443321e+001  2.722320e+000 
4153125000  -2.427706e+001  -3.569004e+000 
4156250000  -2.513353e+001  -6.414248e+000 
4159375000  -2.545761e+001  -1.941739e+000 
4162500000  -2.439885e+001  2.165618e+000 
4165625000  -2.323462e+001  -1.655765e+000 
4168750000  -2.255348e+001  -8.926321e+000 
4171875000  -2.246585e+001  -1.787927e+001 
4175000000  -2.309082e+001  -2.373099e+001 
4178125000  -2.364025e+001  -2.415446e+001 
4181250000  -2.355778e+001  -2.454736e+001 
4184375000  -2.338611e+001  -2.834601e+001 
4187500000  -2.345585e+001  -3.098177e+001 
4190625000  -2.329831e+001  -3.637482e+001 
4193750000  -2.408751e+001  -4.053748e+001 
4196875000  -2.480832e+001  -4.067678e+001 
4200000000  -2.558373e+001  -3.811561e+001 
4203125000  -2.559232e+001  -2.488665e+001 
4206250000  -2.234916e+001  -2.325992e+001 
4209375000  -2.118311e+001  -4.422512e+001 
4212500000  -2.312979e+001  -5.259875e+001 
4215625000  -2.405666e+001  -4.569147e+001 
4218750000  -2.258652e+001  -3.938544e+001 
4221875000  -2.029941e+001  -4.886147e+001 
4225000000  -2.146123e+001  -6.197619e+001 
4228125000  -2.221815e+001  -5.694677e+001 
4231250000  -2.074319e+001  -6.059945e+001 
4234375000  -2.062723e+001  -6.915355e+001 
4237500000  -2.020298e+001  -7.267706e+001 
4240625000  -2.030450e+001  -8.100175e+001 
4243750000  -2.133855e+001  -8.732368e+001 
4246875000  -2.210967e+001  -8.725401e+001 
4250000000  -2.212635e+001  -8.464747e+001 
4253125000  -2.154877e+001  -8.687723e+001 
4256250000  -2.177825e+001  -9.097713e+001 
4259375000  -2.156977e+001  -9.334502e+001 
4262500000  -2.153259e+001  -9.699200e+001 
4265625000  -2.172982e+001  -9.658593e+001 
4268750000  -2.093475e+001  -1.005103e+002 
4271875000  -2.065294e+001  -1.061355e+002 
4275000000  -1.999360e+001  -1.124996e+002 
4278125000  -2.053854e+001  -1.241388e+002 
4281250000  -2.228683e+001  -1.263810e+002 
4284375000  -2.210536e+001  -1.262534e+002 
4287500000  -2.298497e+001  -1.297015e+002 
4290625000  -2.425114e+001  -1.194927e+002 
4293750000  -2.227370e+001  -1.139273e+002 
4296875000  -2.087822e+001  -1.250599e+002 
4300000000  -2.171335e+001  -1.341519e+002 
4303125000  -2.275467e+001  -1.329710e+002 
4306250000  -2.207932e+001  -1.273818e+002 
4309375000  -2.073897e+001  -1.302930e+002 
4312500000  -2.068650e+001  -1.385894e+002 
4315625000  -2.094417e+001  -1.445007e+002 
4318750000  -2.128352e+001  -1.476948e+002 
4321875000  -2.147544e+001  -1.472132e+002 
4325000000  -2.083381e+001  -1.469769e+002 
4328125000  -2.031192e+001  -1.537141e+002 
4331250000  -2.033268e+001  -1.614584e+002 
4334375000  -2.080333e+001  -1.663771e+002 
4337500000  -2.153638e+001  -1.685670e+002 
4340625000  -2.204396e+001  -1.656964e+002 
4343750000  -2.148373e+001  -1.653046e+002 
4346875000  -2.111597e+001  -1.703120e+002 
4350000000  -2.102609e+001  -1.751033e+002 
4353125000  -2.106017e+001  1.767464e+002 
4356250000  -2.282537e+001  1.754980e+002 
4359375000  -2.346405e+001  -1.710156e+002 
4362500000  -2.089718e+001  -1.691540e+002 
4365625000  -1.930088e+001  1.790788e+002 
4368750000  -1.995450e+001  1.678771e+002 
4371875000  -2.108336e+001  1.676749e+002 
4375000000  -2.082692e+001  1.688602e+002 
4378125000  -2.019832e+001  1.631350e+002 
4381250000  -2.032281e+001  1.578446e+002 
4384375000  -2.014689e+001  1.531744e+002 
4387500000  -2.077968e+001  1.470011e+002 
4390625000  -2.182150e+001  1.478752e+002 
4393750000  -2.126802e+001  1.501037e+002 
4396875000  -2.061412e+001  1.479696e+002 
4400000000  -2.013410e+001  1.410838e+002 
4403125000  -2.063423e+001  1.331302e+002 
4406250000  -2.147366e+001  1.318693e+002 
4409375000  -2.141431e+001  1.293956e+002 
4412500000  -2.234794e+001  1.265984e+002 
4415625000  -2.283820e+001  1.313439e+002 
4418750000  -2.171510e+001  1.361830e+002 
