!Agilent Technologies,E8363B,MY43030201,A.06.04.32
!Agilent E8363B: A.06.04.32
!Date: Tuesday, November 11, 2014 20:48:27
!Correction: S21(Response(S21)) 
!S1P File: Measurement: S21:
# Hz S  dB   R 50
3000000000  -2.652302e+001  1.558519e+002 
3003125000  -2.789920e+001  1.516346e+002 
3006250000  -2.795723e+001  1.487311e+002 
3009375000  -2.826203e+001  1.535001e+002 
3012500000  -2.780790e+001  1.532186e+002 
3015625000  -2.679934e+001  1.462226e+002 
3018750000  -2.768880e+001  1.451311e+002 
3021875000  -2.645915e+001  1.465695e+002 
3025000000  -2.515154e+001  1.435909e+002 
3028125000  -2.415009e+001  1.387157e+002 
3031250000  -2.311473e+001  1.276472e+002 
3034375000  -2.275386e+001  1.146930e+002 
3037500000  -2.307862e+001  1.027568e+002 
3040625000  -2.441855e+001  9.739928e+001 
3043750000  -2.512365e+001  9.335201e+001 
3046875000  -2.523979e+001  8.680534e+001 
3050000000  -2.697166e+001  7.989635e+001 
3053125000  -2.714659e+001  8.630035e+001 
3056250000  -2.642441e+001  8.946606e+001 
3059375000  -2.666341e+001  8.892222e+001 
3062500000  -2.520726e+001  8.506991e+001 
3065625000  -2.502689e+001  7.954685e+001 
3068750000  -2.471534e+001  7.258797e+001 
3071875000  -2.467587e+001  6.940383e+001 
3075000000  -2.460728e+001  6.600182e+001 
3078125000  -2.433874e+001  6.118383e+001 
3081250000  -2.499160e+001  5.714213e+001 
3084375000  -2.425656e+001  5.348684e+001 
3087500000  -2.410123e+001  5.003207e+001 
3090625000  -2.382888e+001  4.036335e+001 
3093750000  -2.422972e+001  3.208102e+001 
3096875000  -2.552783e+001  2.608328e+001 
3100000000  -2.566997e+001  2.462820e+001 
3103125000  -2.606163e+001  2.635755e+001 
3106250000  -2.576896e+001  2.256333e+001 
3109375000  -2.600686e+001  1.918282e+001 
3112500000  -2.613666e+001  1.829614e+001 
3115625000  -2.593465e+001  1.382567e+001 
3118750000  -2.642181e+001  1.531191e+001 
3121875000  -2.579914e+001  7.388825e+000 
3125000000  -2.688671e+001  3.435378e+000 
3128125000  -2.808542e+001  1.172012e+001 
3131250000  -2.600540e+001  1.244566e+001 
3134375000  -2.459688e+001  -1.312491e+000 
3137500000  -2.527986e+001  -1.507970e+001 
3140625000  -2.692719e+001  -1.687709e+001 
3143750000  -2.792625e+001  -1.224995e+001 
3146875000  -2.754798e+001  -1.089818e+001 
3150000000  -2.649119e+001  -8.257143e+000 
3153125000  -2.649399e+001  -1.607371e+001 
3156250000  -2.740966e+001  -1.086969e+001 
3159375000  -2.591109e+001  -7.843790e+000 
3162500000  -2.386673e+001  -2.078206e+001 
3165625000  -2.473956e+001  -3.172121e+001 
3168750000  -2.518054e+001  -3.076000e+001 
3171875000  -2.426739e+001  -3.481244e+001 
3175000000  -2.484354e+001  -4.263324e+001 
3178125000  -2.468191e+001  -4.115298e+001 
3181250000  -2.349263e+001  -4.484332e+001 
3184375000  -2.268939e+001  -5.712727e+001 
3187500000  -2.378058e+001  -7.229739e+001 
3190625000  -2.657294e+001  -8.010612e+001 
3193750000  -2.723783e+001  -7.060567e+001 
3196875000  -2.680704e+001  -6.492416e+001 
3200000000  -2.594106e+001  -6.654079e+001 
3203125000  -2.502686e+001  -7.229632e+001 
3206250000  -2.531021e+001  -7.881641e+001 
3209375000  -2.483192e+001  -8.356521e+001 
3212500000  -2.493872e+001  -9.052596e+001 
3215625000  -2.510116e+001  -9.485825e+001 
3218750000  -2.584441e+001  -1.007354e+002 
3221875000  -2.685538e+001  -1.057272e+002 
3225000000  -2.647164e+001  -1.065871e+002 
3228125000  -2.674078e+001  -1.111293e+002 
3231250000  -2.752522e+001  -1.137899e+002 
3234375000  -2.738903e+001  -1.127231e+002 
3237500000  -2.740665e+001  -1.144213e+002 
3240625000  -2.705829e+001  -1.160345e+002 
3243750000  -2.673025e+001  -1.225963e+002 
3246875000  -2.718612e+001  -1.295652e+002 
3250000000  -2.765793e+001  -1.309167e+002 
3253125000  -2.780996e+001  -1.330410e+002 
3256250000  -2.769043e+001  -1.386261e+002 
3259375000  -2.799506e+001  -1.462354e+002 
3262500000  -2.924729e+001  -1.493510e+002 
3265625000  -2.992031e+001  -1.460129e+002 
3268750000  -2.984711e+001  -1.432337e+002 
3271875000  -2.969274e+001  -1.420382e+002 
3275000000  -2.854174e+001  -1.471752e+002 
3278125000  -2.904951e+001  -1.536273e+002 
3281250000  -2.933857e+001  -1.515614e+002 
3284375000  -2.889918e+001  -1.573365e+002 
3287500000  -2.908226e+001  -1.601876e+002 
3290625000  -2.949394e+001  -1.643125e+002 
3293750000  -2.917486e+001  -1.699137e+002 
3296875000  -3.018015e+001  -1.702932e+002 
3300000000  -3.008857e+001  -1.688878e+002 
3303125000  -2.893940e+001  -1.726931e+002 
3306250000  -2.875646e+001  -1.794926e+002 
3309375000  -2.846024e+001  1.756702e+002 
3312500000  -2.848734e+001  1.657235e+002 
3315625000  -2.946482e+001  1.575071e+002 
3318750000  -3.084355e+001  1.551236e+002 
3321875000  -3.200704e+001  1.555688e+002 
3325000000  -3.253651e+001  1.598158e+002 
3328125000  -3.250522e+001  1.611651e+002 
3331250000  -3.126997e+001  1.688925e+002 
3334375000  -2.870641e+001  1.591431e+002 
3337500000  -2.868414e+001  1.409973e+002 
3340625000  -3.002149e+001  1.301996e+002 
3343750000  -3.201030e+001  1.289777e+002 
3346875000  -3.260384e+001  1.306190e+002 
3350000000  -3.195558e+001  1.287886e+002 
3353125000  -3.198316e+001  1.244655e+002 
3356250000  -3.164924e+001  1.173076e+002 
3359375000  -3.256942e+001  1.082293e+002 
3362500000  -3.387400e+001  1.033569e+002 
3365625000  -3.457656e+001  1.017104e+002 
3368750000  -3.549247e+001  9.962845e+001 
3371875000  -3.587533e+001  9.711000e+001 
3375000000  -3.731050e+001  9.466729e+001 
3378125000  -3.848868e+001  9.474495e+001 
3381250000  -4.003485e+001  1.006102e+002 
3384375000  -3.923714e+001  1.233423e+002 
3387500000  -3.610655e+001  1.086838e+002 
3390625000  -3.781987e+001  8.970009e+001 
3393750000  -3.980922e+001  9.456574e+001 
3396875000  -3.882324e+001  9.738596e+001 
3400000000  -3.867314e+001  9.104565e+001 
3403125000  -3.972956e+001  8.549429e+001 
3406250000  -4.041606e+001  8.836761e+001 
3409375000  -4.112856e+001  8.348808e+001 
3412500000  -4.218391e+001  8.506026e+001 
3415625000  -4.300568e+001  8.980592e+001 
3418750000  -4.318199e+001  9.438374e+001 
3421875000  -4.345058e+001  1.019041e+002 
3425000000  -4.271461e+001  1.044643e+002 
3428125000  -4.158611e+001  1.029699e+002 
3431250000  -4.169180e+001  1.005663e+002 
3434375000  -4.158603e+001  9.657644e+001 
3437500000  -4.199961e+001  9.558253e+001 
3440625000  -4.214449e+001  9.952229e+001 
3443750000  -4.088823e+001  1.000102e+002 
3446875000  -4.004815e+001  9.604535e+001 
3450000000  -3.991793e+001  8.639370e+001 
3453125000  -4.018372e+001  7.842395e+001 
3456250000  -4.140636e+001  7.326848e+001 
3459375000  -4.237688e+001  7.494601e+001 
3462500000  -4.276225e+001  7.577478e+001 
3465625000  -4.277346e+001  7.203605e+001 
3468750000  -4.277147e+001  6.735658e+001 
3471875000  -4.313130e+001  7.096023e+001 
3475000000  -4.261266e+001  6.673436e+001 
3478125000  -4.340634e+001  6.109219e+001 
3481250000  -4.488819e+001  5.793862e+001 
3484375000  -4.608780e+001  6.257954e+001 
3487500000  -4.612895e+001  6.682900e+001 
3490625000  -4.535889e+001  6.674298e+001 
3493750000  -4.627238e+001  5.925174e+001 
3496875000  -4.679399e+001  6.167946e+001 
3500000000  -4.784159e+001  7.069154e+001 
3503125000  -4.820021e+001  7.315939e+001 
3506250000  -4.699178e+001  7.512133e+001 
3509375000  -4.738728e+001  7.711414e+001 
3512500000  -4.787274e+001  7.331670e+001 
3515625000  -4.804681e+001  7.646986e+001 
3518750000  -4.838646e+001  8.095108e+001 
3521875000  -4.782731e+001  9.082025e+001 
3525000000  -4.803186e+001  8.771527e+001 
3528125000  -4.758413e+001  9.933082e+001 
3531250000  -4.540280e+001  9.915997e+001 
3534375000  -4.530972e+001  8.872272e+001 
3537500000  -4.513182e+001  8.771772e+001 
3540625000  -4.562654e+001  8.822702e+001 
3543750000  -4.585010e+001  9.148516e+001 
3546875000  -4.548515e+001  1.019946e+002 
3550000000  -4.288371e+001  1.047513e+002 
3553125000  -4.141987e+001  8.873618e+001 
3556250000  -4.244322e+001  8.351695e+001 
3559375000  -4.238337e+001  8.470320e+001 
3562500000  -4.092413e+001  7.801907e+001 
3565625000  -4.191627e+001  7.059087e+001 
3568750000  -4.190012e+001  7.293667e+001 
3571875000  -4.180376e+001  7.492544e+001 
3575000000  -4.104765e+001  7.062875e+001 
3578125000  -4.134263e+001  6.574192e+001 
3581250000  -4.170355e+001  6.566254e+001 
3584375000  -4.061544e+001  6.445716e+001 
3587500000  -3.991566e+001  6.055464e+001 
3590625000  -4.046719e+001  5.047992e+001 
3593750000  -4.141935e+001  4.939186e+001 
3596875000  -4.152773e+001  5.728830e+001 
3600000000  -4.000448e+001  5.496141e+001 
3603125000  -3.996166e+001  4.149812e+001 
3606250000  -4.058032e+001  4.035409e+001 
3609375000  -4.092050e+001  3.717860e+001 
3612500000  -4.153424e+001  3.693742e+001 
3615625000  -4.145715e+001  3.635817e+001 
3618750000  -4.196896e+001  3.912430e+001 
3621875000  -4.153769e+001  3.480592e+001 
3625000000  -4.200189e+001  3.444188e+001 
3628125000  -4.183267e+001  3.633154e+001 
3631250000  -4.140575e+001  3.048555e+001 
3634375000  -4.269414e+001  3.271358e+001 
3637500000  -4.220057e+001  3.781543e+001 
3640625000  -4.109470e+001  3.905494e+001 
3643750000  -4.096665e+001  3.306320e+001 
3646875000  -4.140351e+001  2.691734e+001 
3650000000  -4.147395e+001  2.775452e+001 
3653125000  -4.168580e+001  2.765464e+001 
3656250000  -4.186576e+001  2.461093e+001 
3659375000  -4.195689e+001  2.886360e+001 
3662500000  -4.136197e+001  2.891125e+001 
3665625000  -4.149821e+001  2.747476e+001 
3668750000  -4.041103e+001  3.039207e+001 
3671875000  -3.957883e+001  2.463943e+001 
3675000000  -3.990932e+001  1.990529e+001 
3678125000  -4.035950e+001  2.034772e+001 
3681250000  -3.989310e+001  2.205834e+001 
3684375000  -3.979012e+001  2.069225e+001 
3687500000  -3.972918e+001  1.811903e+001 
3690625000  -4.000594e+001  1.650334e+001 
3693750000  -4.052907e+001  1.950650e+001 
3696875000  -4.006781e+001  2.250300e+001 
3700000000  -3.906378e+001  2.053757e+001 
3703125000  -3.885831e+001  1.601050e+001 
3706250000  -3.949212e+001  1.852144e+001 
3709375000  -3.873646e+001  2.084932e+001 
3712500000  -3.758490e+001  2.120351e+001 
3715625000  -3.632871e+001  1.580181e+001 
3718750000  -3.577880e+001  1.233251e+001 
3721875000  -3.549569e+001  7.299075e+000 
3725000000  -3.534634e+001  1.923747e+000 
3728125000  -3.549209e+001  2.332831e+000 
3731250000  -3.476714e+001  1.508783e+000 
3734375000  -3.383192e+001  -5.147294e+000 
3737500000  -3.429030e+001  -1.130352e+001 
3740625000  -3.488396e+001  -1.549959e+001 
3743750000  -3.468191e+001  -1.719897e+001 
3746875000  -3.467253e+001  -2.138872e+001 
3750000000  -3.484988e+001  -2.100884e+001 
3753125000  -3.449627e+001  -2.207640e+001 
3756250000  -3.451670e+001  -2.308241e+001 
3759375000  -3.429142e+001  -2.343817e+001 
3762500000  -3.368441e+001  -2.723779e+001 
3765625000  -3.424725e+001  -3.040436e+001 
3768750000  -3.424023e+001  -2.817329e+001 
3771875000  -3.257125e+001  -3.016759e+001 
3775000000  -3.217398e+001  -3.811343e+001 
3778125000  -3.259652e+001  -3.971337e+001 
3781250000  -3.232419e+001  -4.262732e+001 
3784375000  -3.233733e+001  -4.445171e+001 
3787500000  -3.171454e+001  -4.811991e+001 
3790625000  -3.223610e+001  -5.336162e+001 
3793750000  -3.249761e+001  -5.486375e+001 
3796875000  -3.154982e+001  -5.611409e+001 
3800000000  -3.003983e+001  -5.954397e+001 
3803125000  -3.067403e+001  -6.607488e+001 
3806250000  -3.134103e+001  -6.900228e+001 
3809375000  -3.112335e+001  -6.956612e+001 
3812500000  -3.044434e+001  -7.487266e+001 
3815625000  -3.098271e+001  -8.157297e+001 
3818750000  -3.201390e+001  -8.319073e+001 
3821875000  -3.206610e+001  -7.580892e+001 
3825000000  -3.022401e+001  -7.072768e+001 
3828125000  -2.890775e+001  -8.380369e+001 
3831250000  -2.938749e+001  -9.844303e+001 
3834375000  -3.066636e+001  -9.932146e+001 
3837500000  -3.156361e+001  -9.419442e+001 
3840625000  -3.052783e+001  -9.581374e+001 
3843750000  -2.932020e+001  -1.048375e+002 
3846875000  -2.993532e+001  -1.129258e+002 
3850000000  -3.118801e+001  -1.068448e+002 
3853125000  -3.042933e+001  -1.047978e+002 
3856250000  -3.044108e+001  -1.089319e+002 
3859375000  -2.972555e+001  -1.138136e+002 
3862500000  -2.937632e+001  -1.208180e+002 
3865625000  -2.960629e+001  -1.254264e+002 
3868750000  -2.958896e+001  -1.259098e+002 
3871875000  -2.888972e+001  -1.287063e+002 
3875000000  -2.899430e+001  -1.373996e+002 
3878125000  -3.000161e+001  -1.399412e+002 
3881250000  -3.019715e+001  -1.366152e+002 
3884375000  -2.963744e+001  -1.413986e+002 
3887500000  -2.964468e+001  -1.455015e+002 
3890625000  -3.028167e+001  -1.474089e+002 
3893750000  -3.057910e+001  -1.492408e+002 
3896875000  -3.078036e+001  -1.487964e+002 
3900000000  -3.098236e+001  -1.498052e+002 
3903125000  -3.057703e+001  -1.510287e+002 
3906250000  -3.041060e+001  -1.525646e+002 
3909375000  -2.969887e+001  -1.549821e+002 
3912500000  -2.967985e+001  -1.618389e+002 
3915625000  -3.092503e+001  -1.619765e+002 
3918750000  -3.096836e+001  -1.596127e+002 
3921875000  -3.063603e+001  -1.610820e+002 
3925000000  -2.994029e+001  -1.619509e+002 
3928125000  -2.906551e+001  -1.680937e+002 
3931250000  -2.955914e+001  -1.717010e+002 
3934375000  -2.974340e+001  -1.714989e+002 
3937500000  -2.984530e+001  -1.727809e+002 
3940625000  -3.033618e+001  -1.724768e+002 
3943750000  -2.943754e+001  -1.710234e+002 
3946875000  -2.821217e+001  -1.760843e+002 
3950000000  -2.871591e+001  1.767321e+002 
3953125000  -2.964956e+001  1.768922e+002 
3956250000  -2.883691e+001  1.799163e+002 
3959375000  -2.742393e+001  1.768821e+002 
3962500000  -2.695832e+001  1.725312e+002 
3965625000  -2.658039e+001  1.638184e+002 
3968750000  -2.745640e+001  1.567728e+002 
3971875000  -2.783234e+001  1.559068e+002 
3975000000  -2.716642e+001  1.539357e+002 
3978125000  -2.700129e+001  1.529105e+002 
3981250000  -2.677693e+001  1.484984e+002 
3984375000  -2.697608e+001  1.420283e+002 
3987500000  -2.750836e+001  1.398703e+002 
3990625000  -2.749280e+001  1.391306e+002 
3993750000  -2.764558e+001  1.356559e+002 
3996875000  -2.763891e+001  1.333329e+002 
4000000000  -2.774952e+001  1.310662e+002 
4003125000  -2.835499e+001  1.327878e+002 
4006250000  -2.703494e+001  1.334954e+002 
4009375000  -2.566550e+001  1.214863e+002 
4012500000  -2.681132e+001  1.142476e+002 
4015625000  -2.808123e+001  1.147755e+002 
4018750000  -2.829959e+001  1.168227e+002 
4021875000  -2.758850e+001  1.153341e+002 
4025000000  -2.713801e+001  1.103534e+002 
4028125000  -2.710574e+001  1.066845e+002 
4031250000  -2.761782e+001  1.034132e+002 
4034375000  -2.786243e+001  1.034147e+002 
4037500000  -2.736849e+001  1.053534e+002 
4040625000  -2.722491e+001  1.016302e+002 
4043750000  -2.762769e+001  1.012724e+002 
4046875000  -2.723463e+001  1.010547e+002 
4050000000  -2.670737e+001  9.532103e+001 
4053125000  -2.711954e+001  9.325418e+001 
4056250000  -2.771843e+001  9.715189e+001 
4059375000  -2.660149e+001  9.919206e+001 
4062500000  -2.522954e+001  9.472326e+001 
4065625000  -2.506724e+001  9.013273e+001 
4068750000  -2.480846e+001  8.545108e+001 
4071875000  -2.416256e+001  7.809409e+001 
4075000000  -2.449913e+001  7.151834e+001 
4078125000  -2.506411e+001  7.056091e+001 
4081250000  -2.452712e+001  6.842937e+001 
4084375000  -2.412679e+001  6.187474e+001 
4087500000  -2.447894e+001  5.557549e+001 
4090625000  -2.505635e+001  5.427436e+001 
4093750000  -2.493063e+001  5.506800e+001 
4096875000  -2.443557e+001  4.904966e+001 
4100000000  -2.510134e+001  4.200851e+001 
4103125000  -2.597285e+001  4.267244e+001 
4106250000  -2.587980e+001  4.716230e+001 
4109375000  -2.496950e+001  4.736065e+001 
4112500000  -2.445662e+001  4.066390e+001 
4115625000  -2.473944e+001  3.630843e+001 
4118750000  -2.481102e+001  3.345832e+001 
4121875000  -2.448781e+001  2.891426e+001 
4125000000  -2.479837e+001  2.356748e+001 
4128125000  -2.577298e+001  2.331039e+001 
4131250000  -2.558533e+001  3.127498e+001 
4134375000  -2.323633e+001  2.733017e+001 
4137500000  -2.299181e+001  8.759842e+000 
4140625000  -2.509984e+001  1.553766e+000 
4143750000  -2.645743e+001  5.759481e+000 
4146875000  -2.611558e+001  1.332979e+001 
4150000000  -2.519755e+001  1.058921e+001 
4153125000  -2.500616e+001  4.225449e+000 
4156250000  -2.579793e+001  1.627414e+000 
4159375000  -2.614100e+001  5.844320e+000 
4162500000  -2.504639e+001  1.009449e+001 
4165625000  -2.388968e+001  6.378681e+000 
4168750000  -2.329217e+001  -9.323239e-001 
4171875000  -2.322399e+001  -9.862137e+000 
4175000000  -2.386893e+001  -1.601727e+001 
4178125000  -2.449181e+001  -1.605537e+001 
4181250000  -2.431841e+001  -1.639049e+001 
4184375000  -2.417903e+001  -1.980143e+001 
4187500000  -2.422821e+001  -2.235141e+001 
4190625000  -2.399717e+001  -2.781829e+001 
4193750000  -2.475743e+001  -3.174644e+001 
4196875000  -2.549949e+001  -3.169053e+001 
4200000000  -2.635112e+001  -2.973610e+001 
4203125000  -2.644944e+001  -1.672405e+001 
4206250000  -2.309941e+001  -1.464030e+001 
4209375000  -2.188502e+001  -3.518539e+001 
4212500000  -2.371384e+001  -4.401502e+001 
4215625000  -2.475817e+001  -3.820284e+001 
4218750000  -2.349258e+001  -3.111638e+001 
4221875000  -2.115176e+001  -4.000784e+001 
4225000000  -2.236709e+001  -5.299681e+001 
4228125000  -2.306784e+001  -4.807102e+001 
4231250000  -2.152894e+001  -5.148009e+001 
4234375000  -2.144848e+001  -6.002447e+001 
4237500000  -2.102843e+001  -6.310168e+001 
4240625000  -2.102761e+001  -7.126611e+001 
4243750000  -2.199070e+001  -7.804792e+001 
4246875000  -2.281767e+001  -7.840980e+001 
4250000000  -2.293963e+001  -7.566798e+001 
4253125000  -2.229258e+001  -7.735014e+001 
4256250000  -2.258172e+001  -8.149593e+001 
4259375000  -2.234312e+001  -8.380945e+001 
4262500000  -2.235583e+001  -8.743415e+001 
4265625000  -2.250206e+001  -8.722271e+001 
4268750000  -2.167266e+001  -9.130371e+001 
4271875000  -2.143406e+001  -9.655502e+001 
4275000000  -2.081538e+001  -1.031454e+002 
4278125000  -2.136692e+001  -1.142806e+002 
4281250000  -2.316609e+001  -1.164233e+002 
4284375000  -2.291834e+001  -1.153899e+002 
4287500000  -2.362902e+001  -1.193134e+002 
4290625000  -2.495925e+001  -1.099799e+002 
4293750000  -2.304459e+001  -1.040129e+002 
4296875000  -2.154283e+001  -1.155356e+002 
4300000000  -2.241826e+001  -1.246011e+002 
4303125000  -2.356701e+001  -1.239476e+002 
4306250000  -2.302186e+001  -1.178887e+002 
4309375000  -2.160898e+001  -1.196552e+002 
4312500000  -2.145206e+001  -1.280573e+002 
4315625000  -2.169004e+001  -1.339258e+002 
4318750000  -2.200152e+001  -1.372104e+002 
4321875000  -2.217365e+001  -1.369221e+002 
4325000000  -2.158675e+001  -1.362531e+002 
4328125000  -2.111034e+001  -1.424735e+002 
4331250000  -2.106514e+001  -1.505225e+002 
4334375000  -2.147344e+001  -1.554774e+002 
4337500000  -2.225899e+001  -1.577482e+002 
4340625000  -2.282915e+001  -1.548110e+002 
4343750000  -2.231227e+001  -1.539715e+002 
4346875000  -2.184049e+001  -1.596526e+002 
4350000000  -2.185524e+001  -1.640373e+002 
4353125000  -2.189003e+001  -1.717735e+002 
4356250000  -2.356959e+001  -1.733186e+002 
4359375000  -2.428751e+001  -1.605171e+002 
4362500000  -2.163532e+001  -1.576317e+002 
4365625000  -1.996848e+001  -1.694507e+002 
4368750000  -2.064570e+001  1.786815e+002 
4371875000  -2.191690e+001  1.787885e+002 
4375000000  -2.160089e+001  -1.795927e+002 
4378125000  -2.090594e+001  1.745795e+002 
4381250000  -2.109968e+001  1.692768e+002 
4384375000  -2.088607e+001  1.644877e+002 
4387500000  -2.160423e+001  1.590106e+002 
4390625000  -2.259583e+001  1.596192e+002 
4393750000  -2.197051e+001  1.617425e+002 
4396875000  -2.130104e+001  1.595547e+002 
4400000000  -2.080413e+001  1.526800e+002 
4403125000  -2.130771e+001  1.452251e+002 
4406250000  -2.218354e+001  1.437866e+002 
4409375000  -2.213880e+001  1.416225e+002 
4412500000  -2.316092e+001  1.389165e+002 
4415625000  -2.356494e+001  1.432085e+002 
4418750000  -2.242056e+001  1.483020e+002 
4421875000  -2.099522e+001  1.442166e+002 
