!Agilent Technologies,E8363B,MY43030201,A.06.04.32
!Agilent E8363B: A.06.04.32
!Date: Tuesday, November 11, 2014 20:56:47
!Correction: S21(Response(S21)) 
!S1P File: Measurement: S21:
# Hz S  dB   R 50
3000000000  -2.650250e+001  1.478576e+002 
3003125000  -2.795009e+001  1.431271e+002 
3006250000  -2.800975e+001  1.407841e+002 
3009375000  -2.837391e+001  1.456158e+002 
3012500000  -2.775290e+001  1.453792e+002 
3015625000  -2.685351e+001  1.384505e+002 
3018750000  -2.770709e+001  1.373420e+002 
3021875000  -2.640730e+001  1.388158e+002 
3025000000  -2.509512e+001  1.356204e+002 
3028125000  -2.411689e+001  1.302507e+002 
3031250000  -2.310311e+001  1.190450e+002 
3034375000  -2.275043e+001  1.059303e+002 
3037500000  -2.312754e+001  9.437341e+001 
3040625000  -2.446592e+001  8.936901e+001 
3043750000  -2.512421e+001  8.482994e+001 
3046875000  -2.529503e+001  7.868834e+001 
3050000000  -2.700419e+001  7.175345e+001 
3053125000  -2.708827e+001  7.847843e+001 
3056250000  -2.646237e+001  8.154832e+001 
3059375000  -2.668986e+001  8.112772e+001 
3062500000  -2.519444e+001  7.745941e+001 
3065625000  -2.497248e+001  7.118917e+001 
3068750000  -2.469344e+001  6.445020e+001 
3071875000  -2.461695e+001  6.166783e+001 
3075000000  -2.455216e+001  5.753743e+001 
3078125000  -2.431009e+001  5.297456e+001 
3081250000  -2.495857e+001  4.892826e+001 
3084375000  -2.421037e+001  4.511555e+001 
3087500000  -2.413707e+001  4.141333e+001 
3090625000  -2.380345e+001  3.174498e+001 
3093750000  -2.429082e+001  2.390813e+001 
3096875000  -2.556120e+001  1.785367e+001 
3100000000  -2.564639e+001  1.666507e+001 
3103125000  -2.604091e+001  1.776606e+001 
3106250000  -2.576690e+001  1.431783e+001 
3109375000  -2.602767e+001  1.089599e+001 
3112500000  -2.615495e+001  9.698895e+000 
3115625000  -2.595031e+001  5.500854e+000 
3118750000  -2.641553e+001  7.033797e+000 
3121875000  -2.571916e+001  -1.376265e+000 
3125000000  -2.695772e+001  -4.679361e+000 
3128125000  -2.811001e+001  3.634822e+000 
3131250000  -2.590282e+001  3.584454e+000 
3134375000  -2.460044e+001  -9.789899e+000 
3137500000  -2.531835e+001  -2.307630e+001 
3140625000  -2.686607e+001  -2.469950e+001 
3143750000  -2.793335e+001  -2.144921e+001 
3146875000  -2.749706e+001  -1.880223e+001 
3150000000  -2.649492e+001  -1.672780e+001 
3153125000  -2.645462e+001  -2.473249e+001 
3156250000  -2.751276e+001  -1.875659e+001 
3159375000  -2.586713e+001  -1.624882e+001 
3162500000  -2.385587e+001  -2.920563e+001 
3165625000  -2.481254e+001  -4.001971e+001 
3168750000  -2.516584e+001  -3.918192e+001 
3171875000  -2.420091e+001  -4.325628e+001 
3175000000  -2.487289e+001  -5.128549e+001 
3178125000  -2.462626e+001  -4.938396e+001 
3181250000  -2.347437e+001  -5.377538e+001 
3184375000  -2.269286e+001  -6.552917e+001 
3187500000  -2.381610e+001  -8.077846e+001 
3190625000  -2.658827e+001  -8.768105e+001 
3193750000  -2.712459e+001  -7.870686e+001 
3196875000  -2.675265e+001  -7.318785e+001 
3200000000  -2.585818e+001  -7.506880e+001 
3203125000  -2.500543e+001  -8.097964e+001 
3206250000  -2.529776e+001  -8.728486e+001 
3209375000  -2.485783e+001  -9.227937e+001 
3212500000  -2.495760e+001  -9.881905e+001 
3215625000  -2.514398e+001  -1.027691e+002 
3218750000  -2.584118e+001  -1.092532e+002 
3221875000  -2.679757e+001  -1.144399e+002 
3225000000  -2.643477e+001  -1.147403e+002 
3228125000  -2.673676e+001  -1.193271e+002 
3231250000  -2.749724e+001  -1.222390e+002 
3234375000  -2.733998e+001  -1.210920e+002 
3237500000  -2.738360e+001  -1.227404e+002 
3240625000  -2.700051e+001  -1.247989e+002 
3243750000  -2.668196e+001  -1.311527e+002 
3246875000  -2.721481e+001  -1.377553e+002 
3250000000  -2.761270e+001  -1.396639e+002 
3253125000  -2.780836e+001  -1.414366e+002 
3256250000  -2.766073e+001  -1.471915e+002 
3259375000  -2.797848e+001  -1.547047e+002 
3262500000  -2.929304e+001  -1.579120e+002 
3265625000  -2.988006e+001  -1.537104e+002 
3268750000  -2.986846e+001  -1.513509e+002 
3271875000  -2.957689e+001  -1.507467e+002 
3275000000  -2.856494e+001  -1.555694e+002 
3278125000  -2.905381e+001  -1.614814e+002 
3281250000  -2.932144e+001  -1.597127e+002 
3284375000  -2.884095e+001  -1.657076e+002 
3287500000  -2.899840e+001  -1.683249e+002 
3290625000  -2.944144e+001  -1.732805e+002 
3293750000  -2.911571e+001  -1.781750e+002 
3296875000  -3.017739e+001  -1.778894e+002 
3300000000  -3.003074e+001  -1.773369e+002 
3303125000  -2.882363e+001  1.785517e+002 
3306250000  -2.868856e+001  1.722143e+002 
3309375000  -2.843622e+001  1.668943e+002 
3312500000  -2.849097e+001  1.566661e+002 
3315625000  -2.950339e+001  1.493374e+002 
3318750000  -3.081895e+001  1.466415e+002 
3321875000  -3.210475e+001  1.466192e+002 
3325000000  -3.270988e+001  1.518412e+002 
3328125000  -3.247105e+001  1.527637e+002 
3331250000  -3.110406e+001  1.607815e+002 
3334375000  -2.852509e+001  1.512805e+002 
3337500000  -2.871026e+001  1.325810e+002 
3340625000  -3.009469e+001  1.217261e+002 
3343750000  -3.201445e+001  1.199611e+002 
3346875000  -3.245471e+001  1.220804e+002 
3350000000  -3.184420e+001  1.207538e+002 
3353125000  -3.195219e+001  1.161871e+002 
3356250000  -3.169550e+001  1.086166e+002 
3359375000  -3.251732e+001  9.982301e+001 
3362500000  -3.381959e+001  9.492516e+001 
3365625000  -3.435084e+001  9.296500e+001 
3368750000  -3.544729e+001  9.184466e+001 
3371875000  -3.586919e+001  8.823523e+001 
3375000000  -3.728753e+001  8.668252e+001 
3378125000  -3.845057e+001  8.617451e+001 
3381250000  -4.000212e+001  9.294928e+001 
3384375000  -3.916194e+001  1.157433e+002 
3387500000  -3.580089e+001  1.014273e+002 
3390625000  -3.769368e+001  8.275472e+001 
3393750000  -3.972186e+001  8.830232e+001 
3396875000  -3.863193e+001  9.039132e+001 
3400000000  -3.835773e+001  8.278297e+001 
3403125000  -3.959534e+001  7.869563e+001 
3406250000  -4.027263e+001  8.237089e+001 
3409375000  -4.095818e+001  7.705862e+001 
3412500000  -4.193628e+001  7.766407e+001 
3415625000  -4.257654e+001  8.119670e+001 
3418750000  -4.283752e+001  8.591058e+001 
3421875000  -4.299760e+001  9.371019e+001 
3425000000  -4.239115e+001  9.624479e+001 
3428125000  -4.139803e+001  9.545827e+001 
3431250000  -4.140100e+001  9.088247e+001 
3434375000  -4.104171e+001  8.814283e+001 
3437500000  -4.163230e+001  8.472872e+001 
3440625000  -4.208117e+001  9.045830e+001 
3443750000  -4.047688e+001  9.225710e+001 
3446875000  -3.979446e+001  8.739640e+001 
3450000000  -3.972789e+001  7.780729e+001 
3453125000  -3.985399e+001  6.896523e+001 
3456250000  -4.118748e+001  6.458731e+001 
3459375000  -4.220544e+001  6.727812e+001 
3462500000  -4.218790e+001  6.706467e+001 
3465625000  -4.222663e+001  6.353296e+001 
3468750000  -4.248493e+001  5.932702e+001 
3471875000  -4.286868e+001  6.141454e+001 
3475000000  -4.245601e+001  5.679123e+001 
3478125000  -4.313970e+001  5.033721e+001 
3481250000  -4.443382e+001  4.889589e+001 
3484375000  -4.566719e+001  5.556968e+001 
3487500000  -4.555704e+001  5.727002e+001 
3490625000  -4.491769e+001  5.502131e+001 
3493750000  -4.565068e+001  5.128859e+001 
3496875000  -4.654124e+001  5.153017e+001 
3500000000  -4.801040e+001  6.207178e+001 
3503125000  -4.761562e+001  6.691362e+001 
3506250000  -4.627227e+001  6.718690e+001 
3509375000  -4.642586e+001  6.200969e+001 
3512500000  -4.669870e+001  6.195415e+001 
3515625000  -4.746875e+001  6.520511e+001 
3518750000  -4.804719e+001  6.828557e+001 
3521875000  -4.799025e+001  7.234494e+001 
3525000000  -4.796088e+001  7.656515e+001 
3528125000  -4.716130e+001  8.812138e+001 
3531250000  -4.572608e+001  8.692159e+001 
3534375000  -4.524100e+001  7.851923e+001 
3537500000  -4.527494e+001  7.525747e+001 
3540625000  -4.553839e+001  7.619164e+001 
3543750000  -4.631343e+001  7.979151e+001 
3546875000  -4.559263e+001  9.308782e+001 
3550000000  -4.299815e+001  9.414533e+001 
3553125000  -4.170440e+001  7.841110e+001 
3556250000  -4.248371e+001  7.271677e+001 
3559375000  -4.232543e+001  7.511296e+001 
3562500000  -4.102776e+001  6.796832e+001 
3565625000  -4.207234e+001  6.231171e+001 
3568750000  -4.183012e+001  6.367113e+001 
3571875000  -4.173211e+001  6.413859e+001 
3575000000  -4.094194e+001  5.937050e+001 
3578125000  -4.163853e+001  5.708529e+001 
3581250000  -4.147847e+001  5.703339e+001 
3584375000  -4.065251e+001  5.674875e+001 
3587500000  -3.997031e+001  4.896259e+001 
3590625000  -4.018537e+001  3.967507e+001 
3593750000  -4.129253e+001  3.921508e+001 
3596875000  -4.117942e+001  4.718861e+001 
3600000000  -3.973933e+001  4.376603e+001 
3603125000  -3.991955e+001  3.203249e+001 
3606250000  -4.053875e+001  2.974549e+001 
3609375000  -4.095124e+001  2.822894e+001 
3612500000  -4.124662e+001  2.628709e+001 
3615625000  -4.133442e+001  2.528773e+001 
3618750000  -4.192792e+001  2.566886e+001 
3621875000  -4.149776e+001  2.501977e+001 
3625000000  -4.177412e+001  2.504760e+001 
3628125000  -4.176823e+001  2.386216e+001 
3631250000  -4.149266e+001  1.976247e+001 
3634375000  -4.243731e+001  2.090595e+001 
3637500000  -4.193763e+001  2.814309e+001 
3640625000  -4.069060e+001  2.639697e+001 
3643750000  -4.058255e+001  2.275728e+001 
3646875000  -4.101941e+001  1.512126e+001 
3650000000  -4.148760e+001  1.668046e+001 
3653125000  -4.126997e+001  1.571873e+001 
3656250000  -4.151838e+001  1.421099e+001 
3659375000  -4.218733e+001  1.913350e+001 
3662500000  -4.123737e+001  1.667052e+001 
3665625000  -4.125365e+001  1.817021e+001 
3668750000  -4.028545e+001  1.882896e+001 
3671875000  -3.921662e+001  1.324964e+001 
3675000000  -3.987245e+001  8.190765e+000 
3678125000  -4.019785e+001  1.090780e+001 
3681250000  -3.973283e+001  1.090671e+001 
3684375000  -3.955364e+001  7.814323e+000 
3687500000  -3.958866e+001  7.924339e+000 
3690625000  -3.955578e+001  6.184345e+000 
3693750000  -4.026470e+001  6.599334e+000 
3696875000  -3.999510e+001  1.037761e+001 
3700000000  -3.887428e+001  8.709958e+000 
3703125000  -3.879208e+001  5.255234e+000 
3706250000  -3.937312e+001  6.980659e+000 
3709375000  -3.863379e+001  1.054160e+001 
3712500000  -3.737669e+001  9.145688e+000 
3715625000  -3.624935e+001  3.595539e+000 
3718750000  -3.555091e+001  1.426683e+000 
3721875000  -3.521289e+001  -3.936468e+000 
3725000000  -3.510878e+001  -8.748935e+000 
3728125000  -3.537838e+001  -1.000631e+001 
3731250000  -3.451205e+001  -9.803655e+000 
3734375000  -3.362034e+001  -1.612172e+001 
3737500000  -3.399844e+001  -2.350745e+001 
3740625000  -3.483274e+001  -2.609705e+001 
3743750000  -3.454934e+001  -2.934033e+001 
3746875000  -3.453693e+001  -3.214239e+001 
3750000000  -3.489636e+001  -3.333805e+001 
3753125000  -3.447756e+001  -3.319917e+001 
3756250000  -3.454474e+001  -3.400608e+001 
3759375000  -3.424300e+001  -3.476931e+001 
3762500000  -3.367020e+001  -3.865763e+001 
3765625000  -3.409625e+001  -4.120420e+001 
3768750000  -3.415756e+001  -3.944831e+001 
3771875000  -3.251896e+001  -4.178873e+001 
3775000000  -3.230034e+001  -4.962592e+001 
3778125000  -3.260779e+001  -5.109650e+001 
3781250000  -3.240142e+001  -5.449755e+001 
3784375000  -3.232594e+001  -5.577235e+001 
3787500000  -3.164797e+001  -5.937386e+001 
3790625000  -3.215804e+001  -6.587974e+001 
3793750000  -3.250444e+001  -6.520511e+001 
3796875000  -3.139025e+001  -6.770782e+001 
3800000000  -2.985913e+001  -7.108774e+001 
3803125000  -3.063128e+001  -7.821082e+001 
3806250000  -3.135686e+001  -7.967245e+001 
3809375000  -3.102905e+001  -8.092066e+001 
3812500000  -3.034885e+001  -8.636372e+001 
3815625000  -3.104148e+001  -9.369863e+001 
3818750000  -3.216293e+001  -9.506225e+001 
3821875000  -3.207416e+001  -8.614355e+001 
3825000000  -3.007488e+001  -8.177319e+001 
3828125000  -2.874978e+001  -9.623241e+001 
3831250000  -2.930575e+001  -1.101870e+002 
3834375000  -3.066368e+001  -1.110341e+002 
3837500000  -3.153742e+001  -1.057457e+002 
3840625000  -3.040115e+001  -1.066435e+002 
3843750000  -2.921229e+001  -1.168205e+002 
3846875000  -2.998476e+001  -1.238386e+002 
3850000000  -3.126991e+001  -1.182712e+002 
3853125000  -3.034816e+001  -1.154623e+002 
3856250000  -3.030725e+001  -1.210005e+002 
3859375000  -2.968320e+001  -1.252937e+002 
3862500000  -2.918823e+001  -1.328107e+002 
3865625000  -2.952378e+001  -1.374267e+002 
3868750000  -2.960284e+001  -1.374089e+002 
3871875000  -2.879052e+001  -1.405315e+002 
3875000000  -2.894023e+001  -1.489399e+002 
3878125000  -2.992629e+001  -1.515681e+002 
3881250000  -3.008992e+001  -1.487943e+002 
3884375000  -2.954880e+001  -1.536548e+002 
3887500000  -2.968594e+001  -1.582782e+002 
3890625000  -3.016005e+001  -1.596186e+002 
3893750000  -3.061488e+001  -1.604420e+002 
3896875000  -3.076825e+001  -1.603170e+002 
3900000000  -3.104103e+001  -1.611552e+002 
3903125000  -3.061639e+001  -1.633561e+002 
3906250000  -3.036997e+001  -1.643369e+002 
3909375000  -2.956334e+001  -1.666734e+002 
3912500000  -2.970771e+001  -1.747798e+002 
3915625000  -3.095709e+001  -1.739165e+002 
3918750000  -3.088997e+001  -1.719729e+002 
3921875000  -3.059356e+001  -1.739029e+002 
3925000000  -2.977461e+001  -1.745524e+002 
3928125000  -2.910778e+001  -1.797660e+002 
3931250000  -2.958221e+001  1.761348e+002 
3934375000  -2.980623e+001  1.767133e+002 
3937500000  -2.993016e+001  1.754781e+002 
3940625000  -3.046790e+001  1.758461e+002 
3943750000  -2.939606e+001  1.779354e+002 
3946875000  -2.823226e+001  1.717433e+002 
3950000000  -2.874356e+001  1.639830e+002 
3953125000  -2.965101e+001  1.652736e+002 
3956250000  -2.883891e+001  1.682595e+002 
3959375000  -2.742559e+001  1.648743e+002 
3962500000  -2.698095e+001  1.606271e+002 
3965625000  -2.662205e+001  1.521782e+002 
3968750000  -2.752963e+001  1.451267e+002 
3971875000  -2.786801e+001  1.435413e+002 
3975000000  -2.724244e+001  1.416610e+002 
3978125000  -2.705333e+001  1.404213e+002 
3981250000  -2.679346e+001  1.360684e+002 
3984375000  -2.702802e+001  1.300031e+002 
3987500000  -2.753390e+001  1.277113e+002 
3990625000  -2.751197e+001  1.266358e+002 
3993750000  -2.772025e+001  1.235997e+002 
3996875000  -2.767818e+001  1.212243e+002 
4000000000  -2.779132e+001  1.190733e+002 
4003125000  -2.835831e+001  1.213457e+002 
4006250000  -2.695935e+001  1.213005e+002 
4009375000  -2.569609e+001  1.090217e+002 
4012500000  -2.687464e+001  1.019650e+002 
4015625000  -2.810620e+001  1.024151e+002 
4018750000  -2.830733e+001  1.053230e+002 
4021875000  -2.762901e+001  1.030992e+002 
4025000000  -2.724370e+001  9.852472e+001 
4028125000  -2.717406e+001  9.438001e+001 
4031250000  -2.772494e+001  9.110522e+001 
4034375000  -2.794211e+001  9.156496e+001 
4037500000  -2.745995e+001  9.352979e+001 
4040625000  -2.741784e+001  8.988863e+001 
4043750000  -2.767261e+001  8.952418e+001 
4046875000  -2.732720e+001  8.886955e+001 
4050000000  -2.679136e+001  8.352318e+001 
4053125000  -2.725312e+001  8.168147e+001 
4056250000  -2.784932e+001  8.528286e+001 
4059375000  -2.661356e+001  8.761353e+001 
4062500000  -2.522114e+001  8.309389e+001 
4065625000  -2.515686e+001  7.841017e+001 
4068750000  -2.484427e+001  7.379154e+001 
4071875000  -2.415843e+001  6.627350e+001 
4075000000  -2.455418e+001  5.950660e+001 
4078125000  -2.513021e+001  5.866916e+001 
4081250000  -2.454288e+001  5.648053e+001 
4084375000  -2.416091e+001  4.988125e+001 
4087500000  -2.452143e+001  4.365510e+001 
4090625000  -2.514899e+001  4.232572e+001 
4093750000  -2.491310e+001  4.348369e+001 
4096875000  -2.445571e+001  3.702998e+001 
4100000000  -2.520877e+001  3.035555e+001 
4103125000  -2.606924e+001  3.124157e+001 
4106250000  -2.591142e+001  3.591230e+001 
4109375000  -2.500530e+001  3.549165e+001 
4112500000  -2.445851e+001  2.857906e+001 
4115625000  -2.476053e+001  2.433858e+001 
4118750000  -2.487631e+001  2.139672e+001 
4121875000  -2.447540e+001  1.654401e+001 
4125000000  -2.484021e+001  1.150886e+001 
4128125000  -2.587174e+001  1.188277e+001 
4131250000  -2.557318e+001  1.961094e+001 
4134375000  -2.318250e+001  1.517616e+001 
4137500000  -2.301705e+001  -4.064872e+000 
4140625000  -2.523965e+001  -1.068188e+001 
4143750000  -2.655026e+001  -5.892197e+000 
4146875000  -2.610407e+001  1.955727e+000 
4150000000  -2.519116e+001  -1.607368e+000 
4153125000  -2.505498e+001  -8.221440e+000 
4156250000  -2.592119e+001  -1.075972e+001 
4159375000  -2.620193e+001  -6.343655e+000 
4162500000  -2.505960e+001  -2.042254e+000 
4165625000  -2.388466e+001  -6.313017e+000 
4168750000  -2.333374e+001  -1.335208e+001 
4171875000  -2.331483e+001  -2.227697e+001 
4175000000  -2.387870e+001  -2.791755e+001 
4178125000  -2.452220e+001  -2.794905e+001 
4181250000  -2.435666e+001  -2.820692e+001 
4184375000  -2.423669e+001  -3.166601e+001 
4187500000  -2.430088e+001  -3.453013e+001 
4190625000  -2.411615e+001  -4.014469e+001 
4193750000  -2.492074e+001  -4.364526e+001 
4196875000  -2.563834e+001  -4.396248e+001 
4200000000  -2.649567e+001  -4.101630e+001 
4203125000  -2.644532e+001  -2.759465e+001 
4206250000  -2.305213e+001  -2.664739e+001 
4209375000  -2.194378e+001  -4.725497e+001 
4212500000  -2.386605e+001  -5.600130e+001 
4215625000  -2.490013e+001  -4.959024e+001 
4218750000  -2.352979e+001  -4.307937e+001 
4221875000  -2.120799e+001  -5.192524e+001 
4225000000  -2.247354e+001  -6.458466e+001 
4228125000  -2.311026e+001  -5.916033e+001 
4231250000  -2.153234e+001  -6.346672e+001 
4234375000  -2.145632e+001  -7.170264e+001 
4237500000  -2.103120e+001  -7.489211e+001 
4240625000  -2.103552e+001  -8.368341e+001 
4243750000  -2.199583e+001  -9.043258e+001 
4246875000  -2.294910e+001  -9.027927e+001 
4250000000  -2.296721e+001  -8.754700e+001 
4253125000  -2.237155e+001  -8.968047e+001 
4256250000  -2.268717e+001  -9.356353e+001 
4259375000  -2.236360e+001  -9.566220e+001 
4262500000  -2.238586e+001  -9.930676e+001 
4265625000  -2.252848e+001  -9.911314e+001 
4268750000  -2.170813e+001  -1.034573e+002 
4271875000  -2.143741e+001  -1.090933e+002 
4275000000  -2.080978e+001  -1.154629e+002 
4278125000  -2.143321e+001  -1.265378e+002 
4281250000  -2.326059e+001  -1.284586e+002 
4284375000  -2.295797e+001  -1.278951e+002 
4287500000  -2.378163e+001  -1.313711e+002 
4290625000  -2.497708e+001  -1.216432e+002 
4293750000  -2.299170e+001  -1.164161e+002 
4296875000  -2.169622e+001  -1.276331e+002 
4300000000  -2.250985e+001  -1.369843e+002 
4303125000  -2.365606e+001  -1.354823e+002 
4306250000  -2.298693e+001  -1.293323e+002 
4309375000  -2.161465e+001  -1.317328e+002 
4312500000  -2.145517e+001  -1.400834e+002 
4315625000  -2.175356e+001  -1.464875e+002 
4318750000  -2.206784e+001  -1.493316e+002 
4321875000  -2.221591e+001  -1.488037e+002 
4325000000  -2.165530e+001  -1.481198e+002 
4328125000  -2.115270e+001  -1.551283e+002 
4331250000  -2.107324e+001  -1.629345e+002 
4334375000  -2.148648e+001  -1.678519e+002 
4337500000  -2.237400e+001  -1.700290e+002 
4340625000  -2.294982e+001  -1.664935e+002 
4343750000  -2.225057e+001  -1.661355e+002 
4346875000  -2.190222e+001  -1.718026e+002 
4350000000  -2.189845e+001  -1.765408e+002 
4353125000  -2.199495e+001  1.756660e+002 
4356250000  -2.380359e+001  1.747829e+002 
4359375000  -2.430178e+001  -1.713119e+002 
4362500000  -2.157822e+001  -1.700712e+002 
4365625000  -1.999995e+001  1.781348e+002 
4368750000  -2.075472e+001  1.663565e+002 
4371875000  -2.192826e+001  1.672558e+002 
4375000000  -2.159520e+001  1.681117e+002 
4378125000  -2.094151e+001  1.623799e+002 
4381250000  -2.109059e+001  1.569685e+002 
4384375000  -2.091983e+001  1.524263e+002 
4387500000  -2.167699e+001  1.465627e+002 
4390625000  -2.266928e+001  1.477407e+002 
4393750000  -2.199050e+001  1.496667e+002 
4396875000  -2.132020e+001  1.473291e+002 
4400000000  -2.082794e+001  1.401837e+002 
4403125000  -2.141998e+001  1.326543e+002 
4406250000  -2.227511e+001  1.313479e+002 
4409375000  -2.223374e+001  1.292381e+002 
4412500000  -2.326080e+001  1.264224e+002 
4415625000  -2.364036e+001  1.316091e+002 
4418750000  -2.240764e+001  1.359982e+002 
