!Agilent Technologies,E8363B,MY43030201,A.06.04.32
!Agilent E8363B: A.06.04.32
!Date: Tuesday, November 11, 2014 20:46:52
!Correction: S21(Response(S21)) 
!S1P File: Measurement: S21:
# Hz S  dB   R 50
3000000000  -2.649135e+001  1.557767e+002 
3003125000  -2.779482e+001  1.514654e+002 
3006250000  -2.792191e+001  1.484226e+002 
3009375000  -2.822217e+001  1.533516e+002 
3012500000  -2.778003e+001  1.532164e+002 
3015625000  -2.676543e+001  1.462107e+002 
3018750000  -2.766244e+001  1.453395e+002 
3021875000  -2.642223e+001  1.465913e+002 
3025000000  -2.508615e+001  1.432793e+002 
3028125000  -2.408524e+001  1.387641e+002 
3031250000  -2.305809e+001  1.276815e+002 
3034375000  -2.269249e+001  1.147030e+002 
3037500000  -2.302113e+001  1.026467e+002 
3040625000  -2.434302e+001  9.766444e+001 
3043750000  -2.509673e+001  9.345347e+001 
3046875000  -2.516297e+001  8.687300e+001 
3050000000  -2.690071e+001  7.982313e+001 
3053125000  -2.707126e+001  8.631736e+001 
3056250000  -2.637751e+001  8.918116e+001 
3059375000  -2.672210e+001  8.892487e+001 
3062500000  -2.520947e+001  8.513119e+001 
3065625000  -2.499706e+001  7.953637e+001 
3068750000  -2.471086e+001  7.272453e+001 
3071875000  -2.465563e+001  6.963603e+001 
3075000000  -2.467000e+001  6.602060e+001 
3078125000  -2.437883e+001  6.145113e+001 
3081250000  -2.498577e+001  5.719032e+001 
3084375000  -2.427147e+001  5.355325e+001 
3087500000  -2.412207e+001  5.024946e+001 
3090625000  -2.385604e+001  4.058773e+001 
3093750000  -2.425554e+001  3.242771e+001 
3096875000  -2.557998e+001  2.631621e+001 
3100000000  -2.571964e+001  2.488532e+001 
3103125000  -2.608657e+001  2.632790e+001 
3106250000  -2.580023e+001  2.290569e+001 
3109375000  -2.604163e+001  1.927917e+001 
3112500000  -2.618876e+001  1.855039e+001 
3115625000  -2.597065e+001  1.406148e+001 
3118750000  -2.650063e+001  1.546831e+001 
3121875000  -2.581265e+001  7.826779e+000 
3125000000  -2.692406e+001  3.655089e+000 
3128125000  -2.817232e+001  1.170932e+001 
3131250000  -2.604154e+001  1.268661e+001 
3134375000  -2.468229e+001  -7.472981e-001 
3137500000  -2.527257e+001  -1.484247e+001 
3140625000  -2.700037e+001  -1.639934e+001 
3143750000  -2.797642e+001  -1.178194e+001 
3146875000  -2.758506e+001  -1.013726e+001 
3150000000  -2.650478e+001  -7.841910e+000 
3153125000  -2.652489e+001  -1.557692e+001 
3156250000  -2.746215e+001  -1.042889e+001 
3159375000  -2.601353e+001  -7.285558e+000 
3162500000  -2.391039e+001  -2.003267e+001 
3165625000  -2.478636e+001  -3.106123e+001 
3168750000  -2.524612e+001  -3.033422e+001 
3171875000  -2.430941e+001  -3.435180e+001 
3175000000  -2.490939e+001  -4.214535e+001 
3178125000  -2.473888e+001  -4.064381e+001 
3181250000  -2.355347e+001  -4.433166e+001 
3184375000  -2.272122e+001  -5.673143e+001 
3187500000  -2.380947e+001  -7.196391e+001 
3190625000  -2.662704e+001  -7.962941e+001 
3193750000  -2.727698e+001  -6.994516e+001 
3196875000  -2.680196e+001  -6.475175e+001 
3200000000  -2.601587e+001  -6.639764e+001 
3203125000  -2.507283e+001  -7.196107e+001 
3206250000  -2.537419e+001  -7.793351e+001 
3209375000  -2.490554e+001  -8.330787e+001 
3212500000  -2.502657e+001  -8.999747e+001 
3215625000  -2.518461e+001  -9.459644e+001 
3218750000  -2.593673e+001  -1.003878e+002 
3221875000  -2.696443e+001  -1.056171e+002 
3225000000  -2.656715e+001  -1.058966e+002 
3228125000  -2.686026e+001  -1.104946e+002 
3231250000  -2.760183e+001  -1.134350e+002 
3234375000  -2.750891e+001  -1.123687e+002 
3237500000  -2.754908e+001  -1.140072e+002 
3240625000  -2.720836e+001  -1.154556e+002 
3243750000  -2.684040e+001  -1.219531e+002 
3246875000  -2.731101e+001  -1.289137e+002 
3250000000  -2.778772e+001  -1.305167e+002 
3253125000  -2.794202e+001  -1.321841e+002 
3256250000  -2.783194e+001  -1.380531e+002 
3259375000  -2.815639e+001  -1.456712e+002 
3262500000  -2.936838e+001  -1.490317e+002 
3265625000  -3.006146e+001  -1.452852e+002 
3268750000  -3.006244e+001  -1.428437e+002 
3271875000  -2.983661e+001  -1.414779e+002 
3275000000  -2.876630e+001  -1.463087e+002 
3278125000  -2.913242e+001  -1.526294e+002 
3281250000  -2.948466e+001  -1.508509e+002 
3284375000  -2.905566e+001  -1.566268e+002 
3287500000  -2.923666e+001  -1.595491e+002 
3290625000  -2.962133e+001  -1.640871e+002 
3293750000  -2.933408e+001  -1.696971e+002 
3296875000  -3.030863e+001  -1.694630e+002 
3300000000  -3.029005e+001  -1.681631e+002 
3303125000  -2.909156e+001  -1.723881e+002 
3306250000  -2.885993e+001  -1.789679e+002 
3309375000  -2.868367e+001  1.761944e+002 
3312500000  -2.867620e+001  1.659157e+002 
3315625000  -2.967068e+001  1.576711e+002 
3318750000  -3.103542e+001  1.551871e+002 
3321875000  -3.227377e+001  1.551934e+002 
3325000000  -3.292678e+001  1.594019e+002 
3328125000  -3.280481e+001  1.622490e+002 
3331250000  -3.159130e+001  1.690906e+002 
3334375000  -2.899512e+001  1.595446e+002 
3337500000  -2.901773e+001  1.408704e+002 
3340625000  -3.033714e+001  1.304526e+002 
3343750000  -3.234504e+001  1.283361e+002 
3346875000  -3.286535e+001  1.298464e+002 
3350000000  -3.225830e+001  1.292281e+002 
3353125000  -3.234896e+001  1.247685e+002 
3356250000  -3.214902e+001  1.173872e+002 
3359375000  -3.293290e+001  1.091014e+002 
3362500000  -3.426870e+001  1.029960e+002 
3365625000  -3.489675e+001  1.017857e+002 
3368750000  -3.577977e+001  9.943505e+001 
3371875000  -3.615252e+001  9.605937e+001 
3375000000  -3.781417e+001  9.486384e+001 
3378125000  -3.897955e+001  9.442912e+001 
3381250000  -4.039397e+001  1.004300e+002 
3384375000  -3.996580e+001  1.233979e+002 
3387500000  -3.671284e+001  1.092321e+002 
3390625000  -3.845552e+001  8.944662e+001 
3393750000  -4.033790e+001  9.458539e+001 
3396875000  -3.947572e+001  9.929063e+001 
3400000000  -3.938438e+001  9.101853e+001 
3403125000  -4.045368e+001  8.638940e+001 
3406250000  -4.136573e+001  8.896761e+001 
3409375000  -4.192881e+001  8.724025e+001 
3412500000  -4.290192e+001  8.727897e+001 
3415625000  -4.392683e+001  9.409103e+001 
3418750000  -4.419631e+001  9.831213e+001 
3421875000  -4.427870e+001  1.035889e+002 
3425000000  -4.374520e+001  1.096324e+002 
3428125000  -4.263692e+001  1.078513e+002 
3431250000  -4.264158e+001  1.040120e+002 
3434375000  -4.216574e+001  1.005457e+002 
3437500000  -4.246020e+001  1.018373e+002 
3440625000  -4.292104e+001  1.023059e+002 
3443750000  -4.157046e+001  1.047490e+002 
3446875000  -4.073867e+001  9.972131e+001 
3450000000  -4.060846e+001  9.159544e+001 
3453125000  -4.082792e+001  8.390137e+001 
3456250000  -4.205413e+001  7.748769e+001 
3459375000  -4.277617e+001  8.079199e+001 
3462500000  -4.297667e+001  8.166056e+001 
3465625000  -4.315499e+001  7.896221e+001 
3468750000  -4.371495e+001  7.443774e+001 
3471875000  -4.364033e+001  7.617884e+001 
3475000000  -4.363823e+001  7.335726e+001 
3478125000  -4.400987e+001  6.895385e+001 
3481250000  -4.558455e+001  6.542936e+001 
3484375000  -4.693653e+001  7.230401e+001 
3487500000  -4.615887e+001  7.620396e+001 
3490625000  -4.635789e+001  7.234780e+001 
3493750000  -4.624425e+001  6.978937e+001 
3496875000  -4.731772e+001  7.346105e+001 
3500000000  -4.858966e+001  8.244796e+001 
3503125000  -4.852052e+001  8.509300e+001 
3506250000  -4.661452e+001  8.741328e+001 
3509375000  -4.672387e+001  8.135734e+001 
3512500000  -4.729337e+001  8.424838e+001 
3515625000  -4.774203e+001  8.628564e+001 
3518750000  -4.828939e+001  8.830286e+001 
3521875000  -4.772980e+001  9.472012e+001 
3525000000  -4.762903e+001  9.475874e+001 
3528125000  -4.719138e+001  1.047543e+002 
3531250000  -4.546453e+001  1.051662e+002 
3534375000  -4.462165e+001  9.673253e+001 
3537500000  -4.453197e+001  9.463747e+001 
3540625000  -4.509874e+001  9.464614e+001 
3543750000  -4.522206e+001  9.520000e+001 
3546875000  -4.478695e+001  1.069288e+002 
3550000000  -4.246619e+001  1.107215e+002 
3553125000  -4.087498e+001  9.201913e+001 
3556250000  -4.191887e+001  8.608836e+001 
3559375000  -4.158200e+001  8.981939e+001 
3562500000  -4.047990e+001  8.371513e+001 
3565625000  -4.112382e+001  7.646822e+001 
3568750000  -4.124773e+001  7.904550e+001 
3571875000  -4.103157e+001  7.867680e+001 
3575000000  -4.055390e+001  7.355155e+001 
3578125000  -4.082780e+001  6.738697e+001 
3581250000  -4.098909e+001  7.045626e+001 
3584375000  -4.022488e+001  6.816677e+001 
3587500000  -3.935104e+001  6.222914e+001 
3590625000  -3.984265e+001  5.190205e+001 
3593750000  -4.067430e+001  5.107875e+001 
3596875000  -4.087735e+001  5.838568e+001 
3600000000  -3.940063e+001  5.602722e+001 
3603125000  -3.937632e+001  4.314142e+001 
3606250000  -4.026914e+001  3.978181e+001 
3609375000  -4.074606e+001  3.705492e+001 
3612500000  -4.128085e+001  3.627043e+001 
3615625000  -4.130662e+001  3.448106e+001 
3618750000  -4.174863e+001  3.697455e+001 
3621875000  -4.165131e+001  3.595752e+001 
3625000000  -4.163519e+001  3.419263e+001 
3628125000  -4.172806e+001  3.462993e+001 
3631250000  -4.134813e+001  3.114326e+001 
3634375000  -4.241633e+001  3.247060e+001 
3637500000  -4.212826e+001  3.809675e+001 
3640625000  -4.127486e+001  3.876884e+001 
3643750000  -4.095313e+001  3.301903e+001 
3646875000  -4.141806e+001  2.610910e+001 
3650000000  -4.194123e+001  2.884026e+001 
3653125000  -4.144192e+001  2.840514e+001 
3656250000  -4.174718e+001  2.738802e+001 
3659375000  -4.248920e+001  3.135770e+001 
3662500000  -4.156239e+001  3.044014e+001 
3665625000  -4.152199e+001  2.976561e+001 
3668750000  -4.028188e+001  3.325210e+001 
3671875000  -3.939426e+001  2.967216e+001 
3675000000  -3.990136e+001  2.177057e+001 
3678125000  -4.063018e+001  2.287756e+001 
3681250000  -3.993303e+001  2.503717e+001 
3684375000  -3.955420e+001  2.208308e+001 
3687500000  -3.974077e+001  2.107292e+001 
3690625000  -3.986451e+001  1.612068e+001 
3693750000  -4.028627e+001  1.926368e+001 
3696875000  -4.015819e+001  2.241276e+001 
3700000000  -3.883702e+001  2.026483e+001 
3703125000  -3.852554e+001  1.724326e+001 
3706250000  -3.928397e+001  1.797596e+001 
3709375000  -3.863237e+001  2.208055e+001 
3712500000  -3.735849e+001  2.234411e+001 
3715625000  -3.632707e+001  1.568325e+001 
3718750000  -3.572744e+001  1.344490e+001 
3721875000  -3.520838e+001  7.436781e+000 
3725000000  -3.524738e+001  3.013453e+000 
3728125000  -3.544202e+001  3.063347e+000 
3731250000  -3.494760e+001  2.201171e+000 
3734375000  -3.376264e+001  -4.437113e+000 
3737500000  -3.436766e+001  -1.130707e+001 
3740625000  -3.500786e+001  -1.438232e+001 
3743750000  -3.484984e+001  -1.630417e+001 
3746875000  -3.484905e+001  -1.908007e+001 
3750000000  -3.518126e+001  -2.040818e+001 
3753125000  -3.464768e+001  -1.984292e+001 
3756250000  -3.464413e+001  -2.037816e+001 
3759375000  -3.459367e+001  -2.100523e+001 
3762500000  -3.395056e+001  -2.548061e+001 
3765625000  -3.446010e+001  -2.847107e+001 
3768750000  -3.443594e+001  -2.555241e+001 
3771875000  -3.274488e+001  -2.721670e+001 
3775000000  -3.237325e+001  -3.494879e+001 
3778125000  -3.277752e+001  -3.707635e+001 
3781250000  -3.251348e+001  -3.936874e+001 
3784375000  -3.240590e+001  -4.159325e+001 
3787500000  -3.179552e+001  -4.471797e+001 
3790625000  -3.227505e+001  -5.064628e+001 
3793750000  -3.242654e+001  -5.121849e+001 
3796875000  -3.145621e+001  -5.269433e+001 
3800000000  -3.001521e+001  -5.636310e+001 
3803125000  -3.074476e+001  -6.290171e+001 
3806250000  -3.131173e+001  -6.585710e+001 
3809375000  -3.116782e+001  -6.730813e+001 
3812500000  -3.040407e+001  -7.227670e+001 
3815625000  -3.093380e+001  -7.903637e+001 
3818750000  -3.193945e+001  -8.089004e+001 
3821875000  -3.205994e+001  -7.300036e+001 
3825000000  -3.007529e+001  -6.841273e+001 
3828125000  -2.880889e+001  -8.185839e+001 
3831250000  -2.922042e+001  -9.629477e+001 
3834375000  -3.064567e+001  -9.716824e+001 
3837500000  -3.149372e+001  -9.288202e+001 
3840625000  -3.049912e+001  -9.320192e+001 
3843750000  -2.927703e+001  -1.029583e+002 
3846875000  -2.996329e+001  -1.106920e+002 
3850000000  -3.123391e+001  -1.055744e+002 
3853125000  -3.051452e+001  -1.034208e+002 
3856250000  -3.047851e+001  -1.071248e+002 
3859375000  -2.992260e+001  -1.119088e+002 
3862500000  -2.937267e+001  -1.190958e+002 
3865625000  -2.964285e+001  -1.232351e+002 
3868750000  -2.958953e+001  -1.246438e+002 
3871875000  -2.904198e+001  -1.264056e+002 
3875000000  -2.914768e+001  -1.350821e+002 
3878125000  -3.005455e+001  -1.381944e+002 
3881250000  -3.028926e+001  -1.349441e+002 
3884375000  -2.965092e+001  -1.389686e+002 
3887500000  -2.983376e+001  -1.428690e+002 
3890625000  -3.037679e+001  -1.452293e+002 
3893750000  -3.072456e+001  -1.463915e+002 
3896875000  -3.083484e+001  -1.461738e+002 
3900000000  -3.101868e+001  -1.462623e+002 
3903125000  -3.068741e+001  -1.487466e+002 
3906250000  -3.045383e+001  -1.493455e+002 
3909375000  -2.975684e+001  -1.515253e+002 
3912500000  -2.962139e+001  -1.589984e+002 
3915625000  -3.078911e+001  -1.583246e+002 
3918750000  -3.081471e+001  -1.563220e+002 
3921875000  -3.056170e+001  -1.583658e+002 
3925000000  -2.967031e+001  -1.588616e+002 
3928125000  -2.897305e+001  -1.647241e+002 
3931250000  -2.931771e+001  -1.686970e+002 
3934375000  -2.965387e+001  -1.683802e+002 
3937500000  -2.971319e+001  -1.694383e+002 
3940625000  -3.014661e+001  -1.697195e+002 
3943750000  -2.925163e+001  -1.683178e+002 
3946875000  -2.797607e+001  -1.741292e+002 
3950000000  -2.842758e+001  1.779912e+002 
3953125000  -2.941103e+001  1.786085e+002 
3956250000  -2.877305e+001  -1.785957e+002 
3959375000  -2.732681e+001  1.782350e+002 
3962500000  -2.676065e+001  1.746113e+002 
3965625000  -2.650428e+001  1.656640e+002 
3968750000  -2.739166e+001  1.586645e+002 
3971875000  -2.780340e+001  1.573784e+002 
3975000000  -2.722236e+001  1.553051e+002 
3978125000  -2.699838e+001  1.539876e+002 
3981250000  -2.673527e+001  1.495375e+002 
3984375000  -2.702639e+001  1.431943e+002 
3987500000  -2.757529e+001  1.411311e+002 
3990625000  -2.754714e+001  1.407532e+002 
3993750000  -2.777321e+001  1.369904e+002 
3996875000  -2.782234e+001  1.348167e+002 
4000000000  -2.784298e+001  1.328196e+002 
4003125000  -2.838003e+001  1.351886e+002 
4006250000  -2.705570e+001  1.358091e+002 
4009375000  -2.584626e+001  1.236283e+002 
4012500000  -2.688737e+001  1.165313e+002 
4015625000  -2.817339e+001  1.173052e+002 
4018750000  -2.830490e+001  1.195844e+002 
4021875000  -2.765451e+001  1.179431e+002 
4025000000  -2.722613e+001  1.133831e+002 
4028125000  -2.712643e+001  1.094107e+002 
4031250000  -2.760493e+001  1.068712e+002 
4034375000  -2.789357e+001  1.066779e+002 
4037500000  -2.729499e+001  1.083175e+002 
4040625000  -2.718537e+001  1.050137e+002 
4043750000  -2.756061e+001  1.042423e+002 
4046875000  -2.712628e+001  1.037383e+002 
4050000000  -2.660211e+001  9.838811e+001 
4053125000  -2.700676e+001  9.615940e+001 
4056250000  -2.757121e+001  9.945518e+001 
4059375000  -2.642115e+001  1.016244e+002 
4062500000  -2.500198e+001  9.730131e+001 
4065625000  -2.486469e+001  9.236848e+001 
4068750000  -2.459297e+001  8.787779e+001 
4071875000  -2.400363e+001  7.979932e+001 
4075000000  -2.432633e+001  7.309547e+001 
4078125000  -2.489705e+001  7.210295e+001 
4081250000  -2.447153e+001  6.968531e+001 
4084375000  -2.400562e+001  6.280764e+001 
4087500000  -2.433720e+001  5.656390e+001 
4090625000  -2.496078e+001  5.501971e+001 
4093750000  -2.486681e+001  5.601889e+001 
4096875000  -2.442959e+001  5.019044e+001 
4100000000  -2.510736e+001  4.304716e+001 
4103125000  -2.605051e+001  4.325301e+001 
4106250000  -2.594032e+001  4.827419e+001 
4109375000  -2.508531e+001  4.814857e+001 
4112500000  -2.452521e+001  4.140010e+001 
4115625000  -2.485379e+001  3.728452e+001 
4118750000  -2.492693e+001  3.465663e+001 
4121875000  -2.457382e+001  3.001371e+001 
4125000000  -2.488082e+001  2.515326e+001 
4128125000  -2.591785e+001  2.517720e+001 
4131250000  -2.569709e+001  3.279168e+001 
4134375000  -2.340521e+001  2.949343e+001 
4137500000  -2.312959e+001  1.071969e+001 
4140625000  -2.526987e+001  3.352844e+000 
4143750000  -2.664142e+001  8.309916e+000 
4146875000  -2.623892e+001  1.556934e+001 
4150000000  -2.530467e+001  1.271482e+001 
4153125000  -2.505928e+001  6.624163e+000 
4156250000  -2.594825e+001  3.604741e+000 
4159375000  -2.626946e+001  8.260399e+000 
4162500000  -2.507372e+001  1.238967e+001 
4165625000  -2.398098e+001  8.823331e+000 
4168750000  -2.330423e+001  1.364103e+000 
4171875000  -2.328072e+001  -7.637047e+000 
4175000000  -2.383398e+001  -1.304719e+001 
4178125000  -2.441275e+001  -1.365637e+001 
4181250000  -2.429115e+001  -1.416671e+001 
4184375000  -2.412593e+001  -1.744448e+001 
4187500000  -2.414467e+001  -1.992173e+001 
4190625000  -2.395267e+001  -2.558723e+001 
4193750000  -2.472074e+001  -2.954352e+001 
4196875000  -2.542815e+001  -3.019017e+001 
4200000000  -2.622268e+001  -2.861881e+001 
4203125000  -2.642871e+001  -1.572772e+001 
4206250000  -2.310888e+001  -1.337395e+001 
4209375000  -2.181077e+001  -3.323678e+001 
4212500000  -2.374869e+001  -4.233055e+001 
4215625000  -2.473828e+001  -3.727755e+001 
4218750000  -2.350810e+001  -3.015931e+001 
4221875000  -2.116461e+001  -3.894054e+001 
4225000000  -2.237795e+001  -5.177541e+001 
4228125000  -2.313016e+001  -4.700470e+001 
4231250000  -2.160278e+001  -5.012588e+001 
4234375000  -2.152759e+001  -5.853907e+001 
4237500000  -2.115304e+001  -6.187912e+001 
4240625000  -2.114475e+001  -6.986533e+001 
4243750000  -2.209642e+001  -7.684747e+001 
4246875000  -2.300780e+001  -7.729972e+001 
4250000000  -2.307252e+001  -7.399780e+001 
4253125000  -2.250843e+001  -7.613589e+001 
4256250000  -2.278256e+001  -8.014640e+001 
4259375000  -2.259646e+001  -8.205997e+001 
4262500000  -2.255242e+001  -8.534274e+001 
4265625000  -2.276631e+001  -8.544063e+001 
4268750000  -2.185858e+001  -8.916715e+001 
4271875000  -2.160655e+001  -9.452782e+001 
4275000000  -2.101998e+001  -1.007172e+002 
4278125000  -2.156360e+001  -1.120261e+002 
4281250000  -2.337341e+001  -1.139316e+002 
4284375000  -2.302713e+001  -1.130882e+002 
4287500000  -2.377838e+001  -1.165446e+002 
4290625000  -2.508497e+001  -1.073771e+002 
4293750000  -2.314382e+001  -1.015458e+002 
4296875000  -2.169909e+001  -1.127034e+002 
4300000000  -2.254486e+001  -1.222013e+002 
4303125000  -2.363993e+001  -1.213797e+002 
4306250000  -2.310134e+001  -1.155106e+002 
4309375000  -2.166133e+001  -1.170655e+002 
4312500000  -2.150027e+001  -1.253349e+002 
4315625000  -2.171936e+001  -1.316642e+002 
4318750000  -2.202176e+001  -1.349060e+002 
4321875000  -2.223009e+001  -1.346985e+002 
4325000000  -2.164158e+001  -1.342392e+002 
4328125000  -2.114065e+001  -1.403053e+002 
4331250000  -2.107016e+001  -1.483521e+002 
4334375000  -2.146853e+001  -1.536422e+002 
4337500000  -2.226089e+001  -1.561368e+002 
4340625000  -2.288716e+001  -1.533871e+002 
4343750000  -2.232721e+001  -1.529759e+002 
4346875000  -2.193644e+001  -1.581337e+002 
4350000000  -2.191479e+001  -1.626242e+002 
4353125000  -2.194063e+001  -1.704885e+002 
4356250000  -2.367618e+001  -1.720414e+002 
4359375000  -2.440977e+001  -1.589589e+002 
4362500000  -2.181456e+001  -1.564614e+002 
4365625000  -2.015157e+001  -1.680251e+002 
4368750000  -2.082641e+001  1.799272e+002 
4371875000  -2.210402e+001  -1.796900e+002 
4375000000  -2.177608e+001  -1.782956e+002 
4378125000  -2.113814e+001  1.761071e+002 
4381250000  -2.130732e+001  1.707934e+002 
4384375000  -2.112162e+001  1.664554e+002 
4387500000  -2.182179e+001  1.606887e+002 
4390625000  -2.290839e+001  1.614298e+002 
4393750000  -2.221694e+001  1.637595e+002 
4396875000  -2.153043e+001  1.616492e+002 
4400000000  -2.102530e+001  1.549082e+002 
4403125000  -2.160785e+001  1.472940e+002 
4406250000  -2.247346e+001  1.461951e+002 
4409375000  -2.242501e+001  1.438104e+002 
4412500000  -2.344993e+001  1.411126e+002 
4415625000  -2.389909e+001  1.460660e+002 
4418750000  -2.264593e+001  1.508269e+002 
