!Agilent Technologies,E8363B,MY43030201,A.06.04.32
!Agilent E8363B: A.06.04.32
!Date: Tuesday, November 11, 2014 20:49:29
!Correction: S21(Response(S21)) 
!S1P File: Measurement: S21:
# Hz S  dB   R 50
3000000000  -2.654143e+001  1.546025e+002 
3003125000  -2.788448e+001  1.499619e+002 
3006250000  -2.799209e+001  1.472835e+002 
3009375000  -2.835188e+001  1.522274e+002 
3012500000  -2.784138e+001  1.521644e+002 
3015625000  -2.683425e+001  1.447035e+002 
3018750000  -2.768353e+001  1.442262e+002 
3021875000  -2.647433e+001  1.455523e+002 
3025000000  -2.514697e+001  1.422886e+002 
3028125000  -2.418479e+001  1.373442e+002 
3031250000  -2.310178e+001  1.262744e+002 
3034375000  -2.276988e+001  1.133205e+002 
3037500000  -2.310184e+001  1.015091e+002 
3040625000  -2.442864e+001  9.622990e+001 
3043750000  -2.515337e+001  9.203517e+001 
3046875000  -2.525245e+001  8.566309e+001 
3050000000  -2.695972e+001  7.837991e+001 
3053125000  -2.709447e+001  8.501601e+001 
3056250000  -2.646573e+001  8.809469e+001 
3059375000  -2.668060e+001  8.784884e+001 
3062500000  -2.522350e+001  8.395851e+001 
3065625000  -2.499127e+001  7.831765e+001 
3068750000  -2.469217e+001  7.134563e+001 
3071875000  -2.468632e+001  6.831210e+001 
3075000000  -2.461385e+001  6.470603e+001 
3078125000  -2.433515e+001  6.010533e+001 
3081250000  -2.496129e+001  5.605930e+001 
3084375000  -2.421663e+001  5.220111e+001 
3087500000  -2.408873e+001  4.853096e+001 
3090625000  -2.383928e+001  3.892881e+001 
3093750000  -2.419854e+001  3.077940e+001 
3096875000  -2.554589e+001  2.485929e+001 
3100000000  -2.565984e+001  2.336153e+001 
3103125000  -2.608265e+001  2.484533e+001 
3106250000  -2.577935e+001  2.138210e+001 
3109375000  -2.597122e+001  1.791523e+001 
3112500000  -2.614778e+001  1.696368e+001 
3115625000  -2.590874e+001  1.268530e+001 
3118750000  -2.639722e+001  1.395267e+001 
3121875000  -2.575772e+001  5.857606e+000 
3125000000  -2.693180e+001  2.407271e+000 
3128125000  -2.810638e+001  1.029343e+001 
3131250000  -2.598173e+001  1.085777e+001 
3134375000  -2.463466e+001  -2.510188e+000 
3137500000  -2.522385e+001  -1.669468e+001 
3140625000  -2.687665e+001  -1.841406e+001 
3143750000  -2.790335e+001  -1.416876e+001 
3146875000  -2.751236e+001  -1.210958e+001 
3150000000  -2.647391e+001  -9.787377e+000 
3153125000  -2.644565e+001  -1.749741e+001 
3156250000  -2.745078e+001  -1.219822e+001 
3159375000  -2.585393e+001  -9.414326e+000 
3162500000  -2.384498e+001  -2.223396e+001 
3165625000  -2.475800e+001  -3.322535e+001 
3168750000  -2.517483e+001  -3.220313e+001 
3171875000  -2.423422e+001  -3.639552e+001 
3175000000  -2.487489e+001  -4.406534e+001 
3178125000  -2.465203e+001  -4.252761e+001 
3181250000  -2.347180e+001  -4.639078e+001 
3184375000  -2.268887e+001  -5.878588e+001 
3187500000  -2.378274e+001  -7.379927e+001 
3190625000  -2.660021e+001  -8.160188e+001 
3193750000  -2.717515e+001  -7.192368e+001 
3196875000  -2.670087e+001  -6.628091e+001 
3200000000  -2.587436e+001  -6.810124e+001 
3203125000  -2.499162e+001  -7.365692e+001 
3206250000  -2.528672e+001  -8.018584e+001 
3209375000  -2.481165e+001  -8.509997e+001 
3212500000  -2.494652e+001  -9.191970e+001 
3215625000  -2.507352e+001  -9.608205e+001 
3218750000  -2.582621e+001  -1.024536e+002 
3221875000  -2.681535e+001  -1.074777e+002 
3225000000  -2.644401e+001  -1.080559e+002 
3228125000  -2.673783e+001  -1.123495e+002 
3231250000  -2.747047e+001  -1.156341e+002 
3234375000  -2.733357e+001  -1.140782e+002 
3237500000  -2.734321e+001  -1.159758e+002 
3240625000  -2.704370e+001  -1.171355e+002 
3243750000  -2.663051e+001  -1.242918e+002 
3246875000  -2.719441e+001  -1.311745e+002 
3250000000  -2.762249e+001  -1.326573e+002 
3253125000  -2.778676e+001  -1.344327e+002 
3256250000  -2.766822e+001  -1.402575e+002 
3259375000  -2.794889e+001  -1.478599e+002 
3262500000  -2.918228e+001  -1.509119e+002 
3265625000  -2.988646e+001  -1.476280e+002 
3268750000  -2.984359e+001  -1.446379e+002 
3271875000  -2.960291e+001  -1.436229e+002 
3275000000  -2.852405e+001  -1.487368e+002 
3278125000  -2.894494e+001  -1.549230e+002 
3281250000  -2.930009e+001  -1.529012e+002 
3284375000  -2.886260e+001  -1.586883e+002 
3287500000  -2.900314e+001  -1.617799e+002 
3290625000  -2.943884e+001  -1.660905e+002 
3293750000  -2.906647e+001  -1.715350e+002 
3296875000  -3.014155e+001  -1.716802e+002 
3300000000  -3.006277e+001  -1.704694e+002 
3303125000  -2.889271e+001  -1.741186e+002 
3306250000  -2.867236e+001  1.793326e+002 
3309375000  -2.842454e+001  1.739742e+002 
3312500000  -2.844650e+001  1.635891e+002 
3315625000  -2.945877e+001  1.559641e+002 
3318750000  -3.080811e+001  1.534315e+002 
3321875000  -3.205185e+001  1.535449e+002 
3325000000  -3.260402e+001  1.580264e+002 
3328125000  -3.235241e+001  1.590547e+002 
3331250000  -3.126999e+001  1.671459e+002 
3334375000  -2.866379e+001  1.577584e+002 
3337500000  -2.873643e+001  1.393592e+002 
3340625000  -3.002898e+001  1.282630e+002 
3343750000  -3.197789e+001  1.270409e+002 
3346875000  -3.255886e+001  1.284232e+002 
3350000000  -3.187759e+001  1.274010e+002 
3353125000  -3.193639e+001  1.227714e+002 
3356250000  -3.168505e+001  1.153710e+002 
3359375000  -3.247726e+001  1.072077e+002 
3362500000  -3.379222e+001  1.016218e+002 
3365625000  -3.444077e+001  1.003505e+002 
3368750000  -3.535830e+001  9.836911e+001 
3371875000  -3.585500e+001  9.438775e+001 
3375000000  -3.738299e+001  9.359399e+001 
3378125000  -3.845866e+001  9.278162e+001 
3381250000  -3.971836e+001  9.885289e+001 
3384375000  -3.919426e+001  1.208898e+002 
3387500000  -3.595303e+001  1.066135e+002 
3390625000  -3.775305e+001  8.893898e+001 
3393750000  -3.961522e+001  9.330995e+001 
3396875000  -3.865663e+001  9.529373e+001 
3400000000  -3.862729e+001  8.938194e+001 
3403125000  -3.981275e+001  8.448262e+001 
3406250000  -4.059951e+001  8.759107e+001 
3409375000  -4.115542e+001  8.149205e+001 
3412500000  -4.198879e+001  8.502648e+001 
3415625000  -4.261562e+001  9.001676e+001 
3418750000  -4.329433e+001  9.267271e+001 
3421875000  -4.361444e+001  9.836197e+001 
3425000000  -4.260961e+001  1.031528e+002 
3428125000  -4.170776e+001  1.008761e+002 
3431250000  -4.169063e+001  9.905499e+001 
3434375000  -4.136716e+001  9.552847e+001 
3437500000  -4.189201e+001  9.323689e+001 
3440625000  -4.208921e+001  9.617126e+001 
3443750000  -4.090421e+001  9.820570e+001 
3446875000  -4.026682e+001  9.346382e+001 
3450000000  -3.983553e+001  8.537322e+001 
3453125000  -4.013816e+001  7.615778e+001 
3456250000  -4.151712e+001  7.039093e+001 
3459375000  -4.253643e+001  7.237530e+001 
3462500000  -4.245003e+001  7.326768e+001 
3465625000  -4.246799e+001  7.163845e+001 
3468750000  -4.275894e+001  6.821315e+001 
3471875000  -4.298783e+001  6.726604e+001 
3475000000  -4.271782e+001  6.384312e+001 
3478125000  -4.364600e+001  6.001303e+001 
3481250000  -4.472282e+001  5.777289e+001 
3484375000  -4.618946e+001  6.224880e+001 
3487500000  -4.579786e+001  6.534341e+001 
3490625000  -4.552195e+001  6.204402e+001 
3493750000  -4.604876e+001  6.287465e+001 
3496875000  -4.662159e+001  6.153251e+001 
3500000000  -4.814187e+001  7.311880e+001 
3503125000  -4.833105e+001  7.513440e+001 
3506250000  -4.685748e+001  7.626320e+001 
3509375000  -4.697365e+001  7.241390e+001 
3512500000  -4.770658e+001  6.945844e+001 
3515625000  -4.800774e+001  7.348907e+001 
3518750000  -4.827191e+001  7.961724e+001 
3521875000  -4.781128e+001  8.289548e+001 
3525000000  -4.812236e+001  8.512292e+001 
3528125000  -4.730371e+001  9.601384e+001 
3531250000  -4.548134e+001  9.608780e+001 
3534375000  -4.539030e+001  8.825502e+001 
3537500000  -4.508316e+001  8.619786e+001 
3540625000  -4.571126e+001  8.552588e+001 
3543750000  -4.637030e+001  8.843862e+001 
3546875000  -4.553914e+001  1.007896e+002 
3550000000  -4.310323e+001  1.048806e+002 
3553125000  -4.153048e+001  8.742389e+001 
3556250000  -4.271146e+001  8.039019e+001 
3559375000  -4.236399e+001  8.353509e+001 
3562500000  -4.100191e+001  7.561259e+001 
3565625000  -4.185345e+001  7.010748e+001 
3568750000  -4.197922e+001  7.421258e+001 
3571875000  -4.154855e+001  7.257571e+001 
3575000000  -4.099616e+001  6.717082e+001 
3578125000  -4.140144e+001  6.488822e+001 
3581250000  -4.152211e+001  6.496346e+001 
3584375000  -4.075941e+001  6.221506e+001 
3587500000  -3.969172e+001  5.791731e+001 
3590625000  -4.030456e+001  4.828360e+001 
3593750000  -4.135382e+001  4.666882e+001 
3596875000  -4.171069e+001  5.458855e+001 
3600000000  -3.956316e+001  5.270976e+001 
3603125000  -3.998318e+001  3.884633e+001 
3606250000  -4.066431e+001  3.728534e+001 
3609375000  -4.078345e+001  3.566168e+001 
3612500000  -4.142628e+001  3.338255e+001 
3615625000  -4.150515e+001  3.197509e+001 
3618750000  -4.204101e+001  3.362415e+001 
3621875000  -4.145531e+001  3.210200e+001 
3625000000  -4.168663e+001  3.416435e+001 
3628125000  -4.180762e+001  3.288922e+001 
3631250000  -4.130512e+001  2.799348e+001 
3634375000  -4.264294e+001  2.807850e+001 
3637500000  -4.212543e+001  3.466367e+001 
3640625000  -4.084815e+001  3.627928e+001 
3643750000  -4.064291e+001  2.954014e+001 
3646875000  -4.112268e+001  2.419395e+001 
3650000000  -4.169689e+001  2.478794e+001 
3653125000  -4.145432e+001  2.477732e+001 
3656250000  -4.163661e+001  2.307865e+001 
3659375000  -4.193703e+001  2.457497e+001 
3662500000  -4.146365e+001  2.473246e+001 
3665625000  -4.152530e+001  2.664224e+001 
3668750000  -4.055495e+001  2.703202e+001 
3671875000  -3.937513e+001  2.280267e+001 
3675000000  -3.996725e+001  1.687829e+001 
3678125000  -4.047790e+001  1.735298e+001 
3681250000  -4.007690e+001  1.940948e+001 
3684375000  -3.984457e+001  1.680633e+001 
3687500000  -3.995959e+001  1.501177e+001 
3690625000  -3.975516e+001  1.372946e+001 
3693750000  -4.056405e+001  1.453895e+001 
3696875000  -4.049470e+001  2.038351e+001 
3700000000  -3.908359e+001  1.829798e+001 
3703125000  -3.887883e+001  1.418535e+001 
3706250000  -3.960173e+001  1.671304e+001 
3709375000  -3.883609e+001  1.887875e+001 
3712500000  -3.766677e+001  1.912121e+001 
3715625000  -3.664024e+001  1.425700e+001 
3718750000  -3.586182e+001  1.013688e+001 
3721875000  -3.543552e+001  5.480968e+000 
3725000000  -3.527404e+001  1.194315e-001 
3728125000  -3.549184e+001  -9.729441e-001 
3731250000  -3.490933e+001  -1.266468e+000 
3734375000  -3.373456e+001  -6.991172e+000 
3737500000  -3.434998e+001  -1.388948e+001 
3740625000  -3.499491e+001  -1.731275e+001 
3743750000  -3.487141e+001  -1.923758e+001 
3746875000  -3.457721e+001  -2.314650e+001 
3750000000  -3.511520e+001  -2.310252e+001 
3753125000  -3.462492e+001  -2.440203e+001 
3756250000  -3.458777e+001  -2.481520e+001 
3759375000  -3.439136e+001  -2.626666e+001 
3762500000  -3.369266e+001  -2.919703e+001 
3765625000  -3.420793e+001  -3.266058e+001 
3768750000  -3.440011e+001  -3.096582e+001 
3771875000  -3.261943e+001  -3.265573e+001 
3775000000  -3.233158e+001  -4.018813e+001 
3778125000  -3.268851e+001  -4.200149e+001 
3781250000  -3.245131e+001  -4.469797e+001 
3784375000  -3.236491e+001  -4.656701e+001 
3787500000  -3.175123e+001  -5.034872e+001 
3790625000  -3.226618e+001  -5.599348e+001 
3793750000  -3.242169e+001  -5.660540e+001 
3796875000  -3.151834e+001  -5.737590e+001 
3800000000  -3.003659e+001  -6.164927e+001 
3803125000  -3.085378e+001  -6.898959e+001 
3806250000  -3.131443e+001  -7.105119e+001 
3809375000  -3.113575e+001  -7.224980e+001 
3812500000  -3.051588e+001  -7.660640e+001 
3815625000  -3.107478e+001  -8.451841e+001 
3818750000  -3.213788e+001  -8.575705e+001 
3821875000  -3.211023e+001  -7.807368e+001 
3825000000  -3.017986e+001  -7.310010e+001 
3828125000  -2.887991e+001  -8.686493e+001 
3831250000  -2.931620e+001  -1.012094e+002 
3834375000  -3.071196e+001  -1.021732e+002 
3837500000  -3.162918e+001  -9.664136e+001 
3840625000  -3.049353e+001  -9.737956e+001 
3843750000  -2.936231e+001  -1.074227e+002 
3846875000  -2.997707e+001  -1.148606e+002 
3850000000  -3.128438e+001  -1.088949e+002 
3853125000  -3.045412e+001  -1.059524e+002 
3856250000  -3.040742e+001  -1.111374e+002 
3859375000  -2.971218e+001  -1.156808e+002 
3862500000  -2.929211e+001  -1.231436e+002 
3865625000  -2.949364e+001  -1.281698e+002 
3868750000  -2.949167e+001  -1.282396e+002 
3871875000  -2.893439e+001  -1.311183e+002 
3875000000  -2.900434e+001  -1.394116e+002 
3878125000  -3.000939e+001  -1.426307e+002 
3881250000  -3.012458e+001  -1.393339e+002 
3884375000  -2.958653e+001  -1.440508e+002 
3887500000  -2.967917e+001  -1.483118e+002 
3890625000  -3.026591e+001  -1.503328e+002 
3893750000  -3.063871e+001  -1.518107e+002 
3896875000  -3.070406e+001  -1.513030e+002 
3900000000  -3.096658e+001  -1.522112e+002 
3903125000  -3.072988e+001  -1.539002e+002 
3906250000  -3.036591e+001  -1.556411e+002 
3909375000  -2.972099e+001  -1.580346e+002 
3912500000  -2.978156e+001  -1.648896e+002 
3915625000  -3.091153e+001  -1.642104e+002 
3918750000  -3.093369e+001  -1.630396e+002 
3921875000  -3.063688e+001  -1.637369e+002 
3925000000  -2.986630e+001  -1.646882e+002 
3928125000  -2.911571e+001  -1.704288e+002 
3931250000  -2.959918e+001  -1.744582e+002 
3934375000  -2.981986e+001  -1.744975e+002 
3937500000  -2.997210e+001  -1.750445e+002 
3940625000  -3.028638e+001  -1.747462e+002 
3943750000  -2.944570e+001  -1.734053e+002 
3946875000  -2.827001e+001  -1.788747e+002 
3950000000  -2.871973e+001  1.740807e+002 
3953125000  -2.968735e+001  1.742558e+002 
3956250000  -2.877480e+001  1.775113e+002 
3959375000  -2.756375e+001  1.737156e+002 
3962500000  -2.693153e+001  1.699076e+002 
3965625000  -2.659944e+001  1.612094e+002 
3968750000  -2.751312e+001  1.540910e+002 
3971875000  -2.783629e+001  1.533637e+002 
3975000000  -2.718470e+001  1.512143e+002 
3978125000  -2.701540e+001  1.501680e+002 
3981250000  -2.671947e+001  1.449686e+002 
3984375000  -2.699752e+001  1.388798e+002 
3987500000  -2.745354e+001  1.367149e+002 
3990625000  -2.752483e+001  1.362157e+002 
3993750000  -2.777506e+001  1.324411e+002 
3996875000  -2.766678e+001  1.302789e+002 
4000000000  -2.777657e+001  1.284179e+002 
4003125000  -2.840041e+001  1.299459e+002 
4006250000  -2.702304e+001  1.311024e+002 
4009375000  -2.574681e+001  1.184011e+002 
4012500000  -2.676776e+001  1.112869e+002 
4015625000  -2.807964e+001  1.111758e+002 
4018750000  -2.823069e+001  1.138500e+002 
4021875000  -2.759575e+001  1.122193e+002 
4025000000  -2.726438e+001  1.078813e+002 
4028125000  -2.717255e+001  1.034368e+002 
4031250000  -2.766516e+001  1.000791e+002 
4034375000  -2.796816e+001  1.001930e+002 
4037500000  -2.742911e+001  1.022520e+002 
4040625000  -2.731737e+001  9.874337e+001 
4043750000  -2.765881e+001  9.813890e+001 
4046875000  -2.732850e+001  9.760960e+001 
4050000000  -2.678390e+001  9.253519e+001 
4053125000  -2.729474e+001  9.045451e+001 
4056250000  -2.778748e+001  9.413564e+001 
4059375000  -2.667432e+001  9.637522e+001 
4062500000  -2.522944e+001  9.194011e+001 
4065625000  -2.505767e+001  8.725510e+001 
4068750000  -2.480817e+001  8.256748e+001 
4071875000  -2.418765e+001  7.488366e+001 
4075000000  -2.452848e+001  6.854099e+001 
4078125000  -2.509920e+001  6.737589e+001 
4081250000  -2.461602e+001  6.530830e+001 
4084375000  -2.415305e+001  5.895143e+001 
4087500000  -2.451499e+001  5.245428e+001 
4090625000  -2.515077e+001  5.130898e+001 
4093750000  -2.497546e+001  5.200063e+001 
4096875000  -2.448317e+001  4.594241e+001 
4100000000  -2.516957e+001  3.903205e+001 
4103125000  -2.606516e+001  3.961481e+001 
4106250000  -2.592399e+001  4.429502e+001 
4109375000  -2.505291e+001  4.392416e+001 
4112500000  -2.450979e+001  3.744222e+001 
4115625000  -2.480454e+001  3.288273e+001 
4118750000  -2.490413e+001  3.036611e+001 
4121875000  -2.454838e+001  2.571821e+001 
4125000000  -2.485801e+001  2.057594e+001 
4128125000  -2.589584e+001  2.027041e+001 
4131250000  -2.567825e+001  2.792179e+001 
4134375000  -2.337085e+001  2.395443e+001 
4137500000  -2.304421e+001  5.101441e+000 
4140625000  -2.522052e+001  -2.187197e+000 
4143750000  -2.657054e+001  2.411060e+000 
4146875000  -2.620691e+001  1.011831e+001 
4150000000  -2.529069e+001  6.932737e+000 
4153125000  -2.514231e+001  3.320210e-001 
4156250000  -2.598576e+001  -2.087628e+000 
4159375000  -2.625594e+001  2.183277e+000 
4162500000  -2.511625e+001  6.557637e+000 
4165625000  -2.401619e+001  2.656477e+000 
4168750000  -2.340543e+001  -4.440836e+000 
4171875000  -2.343041e+001  -1.366988e+001 
4175000000  -2.399165e+001  -1.913714e+001 
4178125000  -2.461992e+001  -1.963649e+001 
4181250000  -2.450409e+001  -1.995752e+001 
4184375000  -2.430780e+001  -2.298891e+001 
4187500000  -2.441908e+001  -2.546183e+001 
4190625000  -2.417892e+001  -3.092933e+001 
4193750000  -2.496377e+001  -3.482775e+001 
4196875000  -2.570468e+001  -3.519472e+001 
4200000000  -2.652273e+001  -3.279172e+001 
4203125000  -2.654194e+001  -2.017347e+001 
4206250000  -2.328229e+001  -1.781406e+001 
4209375000  -2.206221e+001  -3.816556e+001 
4212500000  -2.388413e+001  -4.738711e+001 
4215625000  -2.490964e+001  -4.158439e+001 
4218750000  -2.368894e+001  -3.439867e+001 
4221875000  -2.134414e+001  -4.375810e+001 
4225000000  -2.253711e+001  -5.611102e+001 
4228125000  -2.332267e+001  -5.112883e+001 
4231250000  -2.172798e+001  -5.451849e+001 
4234375000  -2.162069e+001  -6.321061e+001 
4237500000  -2.122950e+001  -6.651982e+001 
4240625000  -2.116383e+001  -7.473248e+001 
4243750000  -2.213511e+001  -8.162411e+001 
4246875000  -2.304416e+001  -8.191090e+001 
4250000000  -2.309070e+001  -7.897319e+001 
4253125000  -2.249496e+001  -8.071154e+001 
4256250000  -2.283088e+001  -8.530280e+001 
4259375000  -2.257866e+001  -8.712456e+001 
4262500000  -2.254602e+001  -9.073719e+001 
4265625000  -2.273450e+001  -9.069759e+001 
4268750000  -2.195579e+001  -9.451421e+001 
4271875000  -2.162483e+001  -9.990357e+001 
4275000000  -2.099892e+001  -1.063789e+002 
4278125000  -2.167035e+001  -1.177879e+002 
4281250000  -2.345327e+001  -1.198840e+002 
4284375000  -2.315443e+001  -1.187062e+002 
4287500000  -2.390713e+001  -1.224163e+002 
4290625000  -2.516684e+001  -1.127081e+002 
4293750000  -2.320692e+001  -1.071523e+002 
4296875000  -2.182855e+001  -1.188250e+002 
4300000000  -2.267351e+001  -1.276998e+002 
4303125000  -2.385805e+001  -1.267062e+002 
4306250000  -2.328317e+001  -1.207504e+002 
4309375000  -2.187933e+001  -1.223936e+002 
4312500000  -2.180784e+001  -1.306514e+002 
4315625000  -2.196452e+001  -1.367921e+002 
4318750000  -2.224458e+001  -1.401425e+002 
4321875000  -2.242574e+001  -1.398240e+002 
4325000000  -2.185699e+001  -1.391690e+002 
4328125000  -2.143502e+001  -1.455024e+002 
4331250000  -2.129922e+001  -1.533457e+002 
4334375000  -2.172904e+001  -1.583950e+002 
4337500000  -2.255524e+001  -1.606951e+002 
4340625000  -2.313801e+001  -1.578098e+002 
4343750000  -2.254935e+001  -1.568901e+002 
4346875000  -2.214769e+001  -1.624645e+002 
4350000000  -2.215377e+001  -1.671570e+002 
4353125000  -2.218573e+001  -1.745802e+002 
4356250000  -2.389285e+001  -1.761652e+002 
4359375000  -2.459171e+001  -1.630034e+002 
4362500000  -2.194799e+001  -1.602604e+002 
4365625000  -2.026682e+001  -1.719459e+002 
4368750000  -2.094109e+001  1.757631e+002 
4371875000  -2.215640e+001  1.762740e+002 
4375000000  -2.185666e+001  1.775224e+002 
4378125000  -2.121224e+001  1.718474e+002 
4381250000  -2.133669e+001  1.661912e+002 
4384375000  -2.119041e+001  1.615960e+002 
4387500000  -2.194486e+001  1.558931e+002 
4390625000  -2.296669e+001  1.567365e+002 
4393750000  -2.223892e+001  1.588530e+002 
4396875000  -2.161479e+001  1.570183e+002 
4400000000  -2.110204e+001  1.501170e+002 
4403125000  -2.169224e+001  1.424261e+002 
4406250000  -2.254357e+001  1.407467e+002 
4409375000  -2.246777e+001  1.389554e+002 
4412500000  -2.355823e+001  1.357701e+002 
4415625000  -2.395535e+001  1.408973e+002 
4418750000  -2.273500e+001  1.458264e+002 
