!Agilent Technologies,E8363B,MY43030201,A.06.04.32
!Agilent E8363B: A.06.04.32
!Date: Tuesday, November 11, 2014 20:52:06
!Correction: S21(Response(S21)) 
!S1P File: Measurement: S21:
# Hz S  dB   R 50
3000000000  -2.653541e+001  1.510520e+002 
3003125000  -2.790514e+001  1.464690e+002 
3006250000  -2.798281e+001  1.437080e+002 
3009375000  -2.832434e+001  1.490284e+002 
3012500000  -2.777439e+001  1.485762e+002 
3015625000  -2.686778e+001  1.415775e+002 
3018750000  -2.771049e+001  1.406350e+002 
3021875000  -2.646493e+001  1.418938e+002 
3025000000  -2.510668e+001  1.391591e+002 
3028125000  -2.413561e+001  1.339503e+002 
3031250000  -2.310755e+001  1.227619e+002 
3034375000  -2.275707e+001  1.096129e+002 
3037500000  -2.312820e+001  9.771476e+001 
3040625000  -2.446249e+001  9.279831e+001 
3043750000  -2.513590e+001  8.836087e+001 
3046875000  -2.531180e+001  8.233084e+001 
3050000000  -2.701781e+001  7.540174e+001 
3053125000  -2.714580e+001  8.179339e+001 
3056250000  -2.648255e+001  8.501234e+001 
3059375000  -2.667332e+001  8.413382e+001 
3062500000  -2.522503e+001  8.045129e+001 
3065625000  -2.499184e+001  7.481843e+001 
3068750000  -2.473445e+001  6.772192e+001 
3071875000  -2.463509e+001  6.494605e+001 
3075000000  -2.465321e+001  6.098093e+001 
3078125000  -2.434148e+001  5.634697e+001 
3081250000  -2.501692e+001  5.225506e+001 
3084375000  -2.424762e+001  4.876796e+001 
3087500000  -2.413057e+001  4.496715e+001 
3090625000  -2.382573e+001  3.537036e+001 
3093750000  -2.427324e+001  2.721663e+001 
3096875000  -2.557106e+001  2.134401e+001 
3100000000  -2.567715e+001  2.014735e+001 
3103125000  -2.606037e+001  2.138445e+001 
3106250000  -2.578966e+001  1.796347e+001 
3109375000  -2.605684e+001  1.426718e+001 
3112500000  -2.617002e+001  1.322642e+001 
3115625000  -2.597124e+001  9.204826e+000 
3118750000  -2.648163e+001  1.050317e+001 
3121875000  -2.580583e+001  2.359262e+000 
3125000000  -2.695368e+001  -1.311161e+000 
3128125000  -2.822567e+001  6.816942e+000 
3131250000  -2.599664e+001  7.305436e+000 
3134375000  -2.464537e+001  -6.101071e+000 
3137500000  -2.529279e+001  -2.001302e+001 
3140625000  -2.689928e+001  -2.159809e+001 
3143750000  -2.799173e+001  -1.722208e+001 
3146875000  -2.753367e+001  -1.526402e+001 
3150000000  -2.654668e+001  -1.312882e+001 
3153125000  -2.647124e+001  -2.094489e+001 
3156250000  -2.749752e+001  -1.541444e+001 
3159375000  -2.593485e+001  -1.246442e+001 
3162500000  -2.392259e+001  -2.537214e+001 
3165625000  -2.485132e+001  -3.631920e+001 
3168750000  -2.519553e+001  -3.544760e+001 
3171875000  -2.423844e+001  -3.979367e+001 
3175000000  -2.491102e+001  -4.769098e+001 
3178125000  -2.471161e+001  -4.581911e+001 
3181250000  -2.351908e+001  -4.997283e+001 
3184375000  -2.270631e+001  -6.227810e+001 
3187500000  -2.384492e+001  -7.733095e+001 
3190625000  -2.663790e+001  -8.478246e+001 
3193750000  -2.721686e+001  -7.524259e+001 
3196875000  -2.677036e+001  -6.957255e+001 
3200000000  -2.590072e+001  -7.144571e+001 
3203125000  -2.504225e+001  -7.724534e+001 
3206250000  -2.533061e+001  -8.360669e+001 
3209375000  -2.489017e+001  -8.851281e+001 
3212500000  -2.501158e+001  -9.521204e+001 
3215625000  -2.512792e+001  -9.940312e+001 
3218750000  -2.588371e+001  -1.053922e+002 
3221875000  -2.684608e+001  -1.107124e+002 
3225000000  -2.648895e+001  -1.110654e+002 
3228125000  -2.675171e+001  -1.160180e+002 
3231250000  -2.756602e+001  -1.185576e+002 
3234375000  -2.739767e+001  -1.169469e+002 
3237500000  -2.744429e+001  -1.188077e+002 
3240625000  -2.711155e+001  -1.210809e+002 
3243750000  -2.674756e+001  -1.275345e+002 
3246875000  -2.726770e+001  -1.339951e+002 
3250000000  -2.770131e+001  -1.358373e+002 
3253125000  -2.787759e+001  -1.374738e+002 
3256250000  -2.771237e+001  -1.432809e+002 
3259375000  -2.800622e+001  -1.511736e+002 
3262500000  -2.927050e+001  -1.540603e+002 
3265625000  -2.996431e+001  -1.504251e+002 
3268750000  -2.986594e+001  -1.479315e+002 
3271875000  -2.970780e+001  -1.469501e+002 
3275000000  -2.862433e+001  -1.518206e+002 
3278125000  -2.909289e+001  -1.582510e+002 
3281250000  -2.935923e+001  -1.561791e+002 
3284375000  -2.891919e+001  -1.624061e+002 
3287500000  -2.910093e+001  -1.647421e+002 
3290625000  -2.951439e+001  -1.690791e+002 
3293750000  -2.920291e+001  -1.748338e+002 
3296875000  -3.022079e+001  -1.745748e+002 
3300000000  -3.010492e+001  -1.732980e+002 
3303125000  -2.894103e+001  -1.778437e+002 
3306250000  -2.872270e+001  1.758867e+002 
3309375000  -2.848595e+001  1.707393e+002 
3312500000  -2.851965e+001  1.603047e+002 
3315625000  -2.955856e+001  1.526426e+002 
3318750000  -3.087326e+001  1.500138e+002 
3321875000  -3.211980e+001  1.500222e+002 
3325000000  -3.275858e+001  1.550203e+002 
3328125000  -3.251728e+001  1.565798e+002 
3331250000  -3.132771e+001  1.643575e+002 
3334375000  -2.868690e+001  1.545938e+002 
3337500000  -2.878756e+001  1.355577e+002 
3340625000  -3.012314e+001  1.250141e+002 
3343750000  -3.210296e+001  1.238107e+002 
3346875000  -3.256826e+001  1.257601e+002 
3350000000  -3.189699e+001  1.243786e+002 
3353125000  -3.206926e+001  1.200277e+002 
3356250000  -3.176554e+001  1.121487e+002 
3359375000  -3.262787e+001  1.038499e+002 
3362500000  -3.393418e+001  9.858501e+001 
3365625000  -3.460006e+001  9.759901e+001 
3368750000  -3.554312e+001  9.470332e+001 
3371875000  -3.595287e+001  9.259956e+001 
3375000000  -3.759725e+001  8.981912e+001 
3378125000  -3.852702e+001  8.910862e+001 
3381250000  -4.008512e+001  9.684065e+001 
3384375000  -3.915296e+001  1.180220e+002 
3387500000  -3.614482e+001  1.051518e+002 
3390625000  -3.782382e+001  8.571429e+001 
3393750000  -3.970715e+001  9.075382e+001 
3396875000  -3.890976e+001  9.333448e+001 
3400000000  -3.875480e+001  8.537281e+001 
3403125000  -3.973156e+001  8.250742e+001 
3406250000  -4.066737e+001  8.597656e+001 
3409375000  -4.128682e+001  8.047473e+001 
3412500000  -4.228185e+001  8.010321e+001 
3415625000  -4.293745e+001  8.519518e+001 
3418750000  -4.316314e+001  8.929955e+001 
3421875000  -4.336851e+001  9.737230e+001 
3425000000  -4.253799e+001  1.001305e+002 
3428125000  -4.171669e+001  9.944791e+001 
3431250000  -4.164092e+001  9.554181e+001 
3434375000  -4.138843e+001  9.306647e+001 
3437500000  -4.188335e+001  9.057754e+001 
3440625000  -4.220813e+001  9.389614e+001 
3443750000  -4.094474e+001  9.714230e+001 
3446875000  -4.006110e+001  9.248116e+001 
3450000000  -3.995332e+001  8.339348e+001 
3453125000  -4.026305e+001  7.446925e+001 
3456250000  -4.136339e+001  6.839246e+001 
3459375000  -4.247499e+001  6.978751e+001 
3462500000  -4.224599e+001  7.114503e+001 
3465625000  -4.241232e+001  6.737560e+001 
3468750000  -4.285520e+001  6.636630e+001 
3471875000  -4.289400e+001  6.459174e+001 
3475000000  -4.287044e+001  6.141679e+001 
3478125000  -4.356887e+001  5.590617e+001 
3481250000  -4.464828e+001  5.444383e+001 
3484375000  -4.638547e+001  6.317972e+001 
3487500000  -4.539287e+001  6.494660e+001 
3490625000  -4.532679e+001  6.036489e+001 
3493750000  -4.592984e+001  5.864287e+001 
3496875000  -4.701963e+001  5.950875e+001 
3500000000  -4.776187e+001  6.550271e+001 
3503125000  -4.800690e+001  7.126002e+001 
3506250000  -4.709239e+001  7.159959e+001 
3509375000  -4.629656e+001  7.012318e+001 
3512500000  -4.713952e+001  6.680106e+001 
3515625000  -4.745937e+001  7.146693e+001 
3518750000  -4.851460e+001  7.479311e+001 
3521875000  -4.785434e+001  8.314793e+001 
3525000000  -4.827944e+001  8.302507e+001 
3528125000  -4.816821e+001  9.239603e+001 
3531250000  -4.563065e+001  9.208397e+001 
3534375000  -4.528930e+001  8.571919e+001 
3537500000  -4.495628e+001  8.236003e+001 
3540625000  -4.536665e+001  7.991414e+001 
3543750000  -4.597140e+001  8.545786e+001 
3546875000  -4.572808e+001  9.868545e+001 
3550000000  -4.315121e+001  9.903976e+001 
3553125000  -4.162453e+001  8.368996e+001 
3556250000  -4.276234e+001  7.639126e+001 
3559375000  -4.215772e+001  7.916834e+001 
3562500000  -4.101466e+001  7.255555e+001 
3565625000  -4.170512e+001  6.847469e+001 
3568750000  -4.188524e+001  6.980096e+001 
3571875000  -4.152624e+001  6.931476e+001 
3575000000  -4.085286e+001  6.521647e+001 
3578125000  -4.130971e+001  6.141191e+001 
3581250000  -4.155920e+001  6.210601e+001 
3584375000  -4.061748e+001  6.154069e+001 
3587500000  -3.999231e+001  5.554218e+001 
3590625000  -4.038687e+001  4.651226e+001 
3593750000  -4.148653e+001  4.382695e+001 
3596875000  -4.132195e+001  5.358853e+001 
3600000000  -3.985889e+001  4.955772e+001 
3603125000  -3.962644e+001  3.734811e+001 
3606250000  -4.016756e+001  3.319888e+001 
3609375000  -4.066720e+001  3.399812e+001 
3612500000  -4.122784e+001  3.305922e+001 
3615625000  -4.143274e+001  2.983403e+001 
3618750000  -4.190347e+001  3.115533e+001 
3621875000  -4.177473e+001  3.030984e+001 
3625000000  -4.146422e+001  2.944488e+001 
3628125000  -4.168668e+001  3.071968e+001 
3631250000  -4.125722e+001  2.501433e+001 
3634375000  -4.243438e+001  2.456000e+001 
3637500000  -4.201958e+001  3.136726e+001 
3640625000  -4.102568e+001  3.342834e+001 
3643750000  -4.058794e+001  2.626575e+001 
3646875000  -4.112709e+001  2.111748e+001 
3650000000  -4.185914e+001  2.185740e+001 
3653125000  -4.116054e+001  2.123187e+001 
3656250000  -4.161253e+001  1.952810e+001 
3659375000  -4.162391e+001  2.434968e+001 
3662500000  -4.126558e+001  2.237405e+001 
3665625000  -4.124889e+001  2.323881e+001 
3668750000  -4.025713e+001  2.405588e+001 
3671875000  -3.908962e+001  1.980769e+001 
3675000000  -3.969022e+001  1.575222e+001 
3678125000  -4.009529e+001  1.653725e+001 
3681250000  -3.964644e+001  1.649526e+001 
3684375000  -3.950814e+001  1.308916e+001 
3687500000  -3.968509e+001  1.226835e+001 
3690625000  -3.987319e+001  1.060818e+001 
3693750000  -4.030958e+001  1.237070e+001 
3696875000  -3.994134e+001  1.688607e+001 
3700000000  -3.875431e+001  1.480776e+001 
3703125000  -3.867856e+001  1.001835e+001 
3706250000  -3.931256e+001  1.285984e+001 
3709375000  -3.869836e+001  1.516964e+001 
3712500000  -3.733480e+001  1.496262e+001 
3715625000  -3.631501e+001  9.024950e+000 
3718750000  -3.563797e+001  5.215817e+000 
3721875000  -3.507108e+001  5.821470e-001 
3725000000  -3.516342e+001  -4.216398e+000 
3728125000  -3.527319e+001  -4.673270e+000 
3731250000  -3.473170e+001  -5.466536e+000 
3734375000  -3.352671e+001  -1.158230e+001 
3737500000  -3.416157e+001  -1.900686e+001 
3740625000  -3.475639e+001  -2.218528e+001 
3743750000  -3.474105e+001  -2.385676e+001 
3746875000  -3.450789e+001  -2.839057e+001 
3750000000  -3.504966e+001  -2.805993e+001 
3753125000  -3.447310e+001  -2.820810e+001 
3756250000  -3.444782e+001  -2.971272e+001 
3759375000  -3.421160e+001  -3.010396e+001 
3762500000  -3.365685e+001  -3.478219e+001 
3765625000  -3.425431e+001  -3.628983e+001 
3768750000  -3.423632e+001  -3.480537e+001 
3771875000  -3.246764e+001  -3.690032e+001 
3775000000  -3.219946e+001  -4.433072e+001 
3778125000  -3.257611e+001  -4.614048e+001 
3781250000  -3.237834e+001  -4.938785e+001 
3784375000  -3.232885e+001  -5.077207e+001 
3787500000  -3.170393e+001  -5.449517e+001 
3790625000  -3.214626e+001  -6.062705e+001 
3793750000  -3.234593e+001  -6.065054e+001 
3796875000  -3.143248e+001  -6.244158e+001 
3800000000  -2.998175e+001  -6.570872e+001 
3803125000  -3.065317e+001  -7.272472e+001 
3806250000  -3.133313e+001  -7.520280e+001 
3809375000  -3.106220e+001  -7.612179e+001 
3812500000  -3.048330e+001  -8.120732e+001 
3815625000  -3.101718e+001  -8.888354e+001 
3818750000  -3.199424e+001  -9.013017e+001 
3821875000  -3.199686e+001  -8.145767e+001 
3825000000  -3.009676e+001  -7.699191e+001 
3828125000  -2.869346e+001  -9.103156e+001 
3831250000  -2.926217e+001  -1.051978e+002 
3834375000  -3.062125e+001  -1.057065e+002 
3837500000  -3.154016e+001  -1.011050e+002 
3840625000  -3.045046e+001  -1.017419e+002 
3843750000  -2.911249e+001  -1.113567e+002 
3846875000  -2.994177e+001  -1.189641e+002 
3850000000  -3.118853e+001  -1.134650e+002 
3853125000  -3.040371e+001  -1.104881e+002 
3856250000  -3.037491e+001  -1.157093e+002 
3859375000  -2.975132e+001  -1.202336e+002 
3862500000  -2.916875e+001  -1.274552e+002 
3865625000  -2.949488e+001  -1.324594e+002 
3868750000  -2.941956e+001  -1.323990e+002 
3871875000  -2.883568e+001  -1.356891e+002 
3875000000  -2.894695e+001  -1.440735e+002 
3878125000  -2.993065e+001  -1.468580e+002 
3881250000  -3.005807e+001  -1.440202e+002 
3884375000  -2.953611e+001  -1.480812e+002 
3887500000  -2.974621e+001  -1.520190e+002 
3890625000  -3.018074e+001  -1.554314e+002 
3893750000  -3.066808e+001  -1.564124e+002 
3896875000  -3.080394e+001  -1.549656e+002 
3900000000  -3.101297e+001  -1.563005e+002 
3903125000  -3.053903e+001  -1.584800e+002 
3906250000  -3.039697e+001  -1.592694e+002 
3909375000  -2.967474e+001  -1.615433e+002 
3912500000  -2.970081e+001  -1.694074e+002 
3915625000  -3.086432e+001  -1.682718e+002 
3918750000  -3.091665e+001  -1.667210e+002 
3921875000  -3.062782e+001  -1.679913e+002 
3925000000  -2.972976e+001  -1.686624e+002 
3928125000  -2.906261e+001  -1.746791e+002 
3931250000  -2.954202e+001  -1.791260e+002 
3934375000  -2.975660e+001  -1.783366e+002 
3937500000  -2.985278e+001  -1.792472e+002 
3940625000  -3.033191e+001  -1.788788e+002 
3943750000  -2.952856e+001  -1.775012e+002 
3946875000  -2.821272e+001  1.771118e+002 
3950000000  -2.870174e+001  1.696566e+002 
3953125000  -2.964398e+001  1.703930e+002 
3956250000  -2.881791e+001  1.728458e+002 
3959375000  -2.746418e+001  1.695630e+002 
3962500000  -2.692290e+001  1.653275e+002 
3965625000  -2.654670e+001  1.561974e+002 
3968750000  -2.747175e+001  1.506167e+002 
3971875000  -2.786389e+001  1.489391e+002 
3975000000  -2.719621e+001  1.468438e+002 
3978125000  -2.702365e+001  1.454451e+002 
3981250000  -2.669576e+001  1.407998e+002 
3984375000  -2.697354e+001  1.344885e+002 
3987500000  -2.746473e+001  1.322165e+002 
3990625000  -2.748013e+001  1.315560e+002 
3993750000  -2.770588e+001  1.280157e+002 
3996875000  -2.769094e+001  1.263426e+002 
4000000000  -2.776922e+001  1.237469e+002 
4003125000  -2.835924e+001  1.259970e+002 
4006250000  -2.697399e+001  1.263893e+002 
4009375000  -2.578643e+001  1.140350e+002 
4012500000  -2.679493e+001  1.067885e+002 
4015625000  -2.809956e+001  1.078000e+002 
4018750000  -2.827027e+001  1.095160e+002 
4021875000  -2.757612e+001  1.080116e+002 
4025000000  -2.725010e+001  1.033816e+002 
4028125000  -2.719839e+001  9.985959e+001 
4031250000  -2.763309e+001  9.615671e+001 
4034375000  -2.792230e+001  9.644127e+001 
4037500000  -2.741373e+001  9.799088e+001 
4040625000  -2.736234e+001  9.504491e+001 
4043750000  -2.765040e+001  9.431826e+001 
4046875000  -2.726478e+001  9.355960e+001 
4050000000  -2.676384e+001  8.816377e+001 
4053125000  -2.726214e+001  8.619841e+001 
4056250000  -2.789956e+001  9.046152e+001 
4059375000  -2.658796e+001  9.248055e+001 
4062500000  -2.520765e+001  8.791499e+001 
4065625000  -2.504829e+001  8.327100e+001 
4068750000  -2.479190e+001  7.833601e+001 
4071875000  -2.415092e+001  7.073804e+001 
4075000000  -2.451721e+001  6.456946e+001 
4078125000  -2.506706e+001  6.314661e+001 
4081250000  -2.456931e+001  6.093310e+001 
4084375000  -2.415055e+001  5.457690e+001 
4087500000  -2.448212e+001  4.828581e+001 
4090625000  -2.515778e+001  4.698167e+001 
4093750000  -2.493897e+001  4.794542e+001 
4096875000  -2.446855e+001  4.199955e+001 
4100000000  -2.513980e+001  3.478439e+001 
4103125000  -2.609427e+001  3.513358e+001 
4106250000  -2.593832e+001  4.008023e+001 
4109375000  -2.507267e+001  3.992308e+001 
4112500000  -2.452784e+001  3.324291e+001 
4115625000  -2.482390e+001  2.881379e+001 
4118750000  -2.491787e+001  2.589758e+001 
4121875000  -2.452658e+001  2.160957e+001 
4125000000  -2.490255e+001  1.629244e+001 
4128125000  -2.583045e+001  1.642575e+001 
4131250000  -2.557745e+001  2.429623e+001 
4134375000  -2.332976e+001  2.022736e+001 
4137500000  -2.307335e+001  9.869805e-001 
4140625000  -2.524948e+001  -5.941339e+000 
4143750000  -2.662923e+001  -1.220518e+000 
4146875000  -2.617251e+001  6.453120e+000 
4150000000  -2.522544e+001  2.795883e+000 
4153125000  -2.508781e+001  -3.291930e+000 
4156250000  -2.598440e+001  -5.976670e+000 
4159375000  -2.624496e+001  -1.243214e+000 
4162500000  -2.508410e+001  2.782473e+000 
4165625000  -2.399142e+001  -1.369291e+000 
4168750000  -2.338401e+001  -8.487215e+000 
4171875000  -2.334477e+001  -1.764888e+001 
4175000000  -2.399119e+001  -2.308703e+001 
4178125000  -2.456128e+001  -2.323212e+001 
4181250000  -2.438911e+001  -2.397271e+001 
4184375000  -2.431813e+001  -2.707881e+001 
4187500000  -2.434675e+001  -2.942205e+001 
4190625000  -2.414160e+001  -3.522676e+001 
4193750000  -2.490405e+001  -3.918958e+001 
4196875000  -2.564733e+001  -3.913769e+001 
4200000000  -2.649353e+001  -3.711263e+001 
4203125000  -2.652744e+001  -2.369268e+001 
4206250000  -2.316875e+001  -2.224188e+001 
4209375000  -2.195423e+001  -4.268007e+001 
4212500000  -2.388174e+001  -5.122375e+001 
4215625000  -2.487780e+001  -4.522910e+001 
4218750000  -2.361228e+001  -3.873758e+001 
4221875000  -2.127600e+001  -4.754484e+001 
4225000000  -2.252297e+001  -6.017179e+001 
4228125000  -2.325391e+001  -5.510871e+001 
4231250000  -2.164529e+001  -5.890039e+001 
4234375000  -2.157751e+001  -6.721053e+001 
4237500000  -2.114934e+001  -7.046140e+001 
4240625000  -2.114975e+001  -7.885258e+001 
4243750000  -2.207425e+001  -8.589163e+001 
4246875000  -2.297573e+001  -8.585176e+001 
4250000000  -2.304866e+001  -8.315864e+001 
4253125000  -2.251678e+001  -8.497530e+001 
4256250000  -2.280671e+001  -8.883324e+001 
4259375000  -2.249351e+001  -9.100126e+001 
4262500000  -2.253821e+001  -9.491014e+001 
4265625000  -2.273245e+001  -9.458939e+001 
4268750000  -2.179270e+001  -9.824145e+001 
4271875000  -2.156687e+001  -1.042158e+002 
4275000000  -2.093693e+001  -1.108337e+002 
4278125000  -2.158756e+001  -1.216608e+002 
4281250000  -2.337556e+001  -1.237557e+002 
4284375000  -2.308970e+001  -1.229622e+002 
4287500000  -2.389556e+001  -1.263275e+002 
4290625000  -2.510727e+001  -1.169815e+002 
4293750000  -2.308606e+001  -1.112436e+002 
4296875000  -2.181618e+001  -1.226876e+002 
4300000000  -2.264508e+001  -1.320579e+002 
4303125000  -2.378404e+001  -1.307019e+002 
4306250000  -2.315698e+001  -1.247505e+002 
4309375000  -2.175169e+001  -1.268204e+002 
4312500000  -2.164200e+001  -1.350424e+002 
4315625000  -2.186670e+001  -1.411479e+002 
4318750000  -2.221797e+001  -1.444773e+002 
4321875000  -2.237977e+001  -1.439185e+002 
4325000000  -2.180124e+001  -1.432556e+002 
4328125000  -2.131651e+001  -1.496108e+002 
4331250000  -2.125107e+001  -1.577590e+002 
4334375000  -2.165262e+001  -1.629916e+002 
4337500000  -2.252453e+001  -1.651205e+002 
4340625000  -2.303891e+001  -1.618443e+002 
4343750000  -2.241996e+001  -1.611919e+002 
4346875000  -2.210465e+001  -1.668114e+002 
4350000000  -2.201458e+001  -1.713842e+002 
4353125000  -2.209340e+001  -1.791489e+002 
4356250000  -2.391406e+001  1.798619e+002 
4359375000  -2.450702e+001  -1.668169e+002 
4362500000  -2.177207e+001  -1.649120e+002 
4365625000  -2.018992e+001  -1.765373e+002 
4368750000  -2.088450e+001  1.713706e+002 
4371875000  -2.211977e+001  1.720372e+002 
4375000000  -2.178172e+001  1.735105e+002 
4378125000  -2.113051e+001  1.674616e+002 
4381250000  -2.131166e+001  1.620046e+002 
4384375000  -2.109490e+001  1.575932e+002 
4387500000  -2.187052e+001  1.518727e+002 
4390625000  -2.287998e+001  1.524890e+002 
4393750000  -2.219729e+001  1.548251e+002 
4396875000  -2.153067e+001  1.527512e+002 
4400000000  -2.099946e+001  1.456666e+002 
4403125000  -2.160053e+001  1.381290e+002 
4406250000  -2.248023e+001  1.367904e+002 
4409375000  -2.241796e+001  1.345401e+002 
4412500000  -2.349944e+001  1.317904e+002 
4415625000  -2.387059e+001  1.368154e+002 
4418750000  -2.260367e+001  1.416357e+002 
