!Agilent Technologies,E8363B,MY43030201,A.06.04.32
!Agilent E8363B: A.06.04.32
!Date: Tuesday, November 11, 2014 20:53:27
!Correction: S21(Response(S21)) 
!S1P File: Measurement: S21:
# Hz S  dB   R 50
3000000000  -2.657886e+001  1.491102e+002 
3003125000  -2.799864e+001  1.445487e+002 
3006250000  -2.794703e+001  1.417301e+002 
3009375000  -2.832188e+001  1.469289e+002 
3012500000  -2.783079e+001  1.461873e+002 
3015625000  -2.685967e+001  1.392986e+002 
3018750000  -2.774856e+001  1.385453e+002 
3021875000  -2.646269e+001  1.401506e+002 
3025000000  -2.514655e+001  1.366707e+002 
3028125000  -2.417872e+001  1.315564e+002 
3031250000  -2.312577e+001  1.203124e+002 
3034375000  -2.279554e+001  1.074314e+002 
3037500000  -2.314843e+001  9.542059e+001 
3040625000  -2.447812e+001  9.043300e+001 
3043750000  -2.521309e+001  8.581532e+001 
3046875000  -2.529896e+001  7.975130e+001 
3050000000  -2.702959e+001  7.275703e+001 
3053125000  -2.717601e+001  7.928788e+001 
3056250000  -2.649835e+001  8.218764e+001 
3059375000  -2.673940e+001  8.165168e+001 
3062500000  -2.525012e+001  7.809358e+001 
3065625000  -2.505468e+001  7.233525e+001 
3068750000  -2.479395e+001  6.518631e+001 
3071875000  -2.472933e+001  6.240181e+001 
3075000000  -2.470806e+001  5.855956e+001 
3078125000  -2.446029e+001  5.416767e+001 
3081250000  -2.510409e+001  4.995373e+001 
3084375000  -2.435854e+001  4.613925e+001 
3087500000  -2.422399e+001  4.274059e+001 
3090625000  -2.391721e+001  3.295177e+001 
3093750000  -2.439543e+001  2.488151e+001 
3096875000  -2.569378e+001  1.915510e+001 
3100000000  -2.581007e+001  1.751409e+001 
3103125000  -2.619015e+001  1.897639e+001 
3106250000  -2.590985e+001  1.566376e+001 
3109375000  -2.613529e+001  1.211035e+001 
3112500000  -2.630237e+001  1.130333e+001 
3115625000  -2.608845e+001  6.858150e+000 
3118750000  -2.656962e+001  8.218582e+000 
3121875000  -2.588149e+001  4.782783e-001 
3125000000  -2.707660e+001  -3.099852e+000 
3128125000  -2.830440e+001  4.929186e+000 
3131250000  -2.611024e+001  5.588713e+000 
3134375000  -2.475928e+001  -7.893353e+000 
3137500000  -2.540117e+001  -2.154255e+001 
3140625000  -2.698825e+001  -2.332178e+001 
3143750000  -2.801803e+001  -1.926865e+001 
3146875000  -2.759102e+001  -1.735930e+001 
3150000000  -2.657025e+001  -1.486884e+001 
3153125000  -2.660269e+001  -2.282641e+001 
3156250000  -2.754495e+001  -1.721491e+001 
3159375000  -2.592595e+001  -1.441631e+001 
3162500000  -2.393914e+001  -2.725702e+001 
3165625000  -2.489316e+001  -3.844302e+001 
3168750000  -2.524317e+001  -3.743731e+001 
3171875000  -2.434776e+001  -4.196807e+001 
3175000000  -2.493933e+001  -4.972417e+001 
3178125000  -2.475507e+001  -4.813328e+001 
3181250000  -2.357145e+001  -5.210530e+001 
3184375000  -2.278458e+001  -6.414352e+001 
3187500000  -2.390150e+001  -7.939346e+001 
3190625000  -2.666300e+001  -8.676496e+001 
3193750000  -2.730994e+001  -7.723751e+001 
3196875000  -2.682898e+001  -7.233191e+001 
3200000000  -2.594572e+001  -7.387769e+001 
3203125000  -2.512962e+001  -7.965671e+001 
3206250000  -2.544781e+001  -8.588074e+001 
3209375000  -2.496329e+001  -9.114369e+001 
3212500000  -2.512123e+001  -9.767930e+001 
3215625000  -2.522024e+001  -1.016143e+002 
3218750000  -2.598689e+001  -1.078473e+002 
3221875000  -2.697614e+001  -1.130189e+002 
3225000000  -2.659296e+001  -1.136661e+002 
3228125000  -2.692912e+001  -1.180474e+002 
3231250000  -2.764216e+001  -1.208986e+002 
3234375000  -2.752201e+001  -1.198316e+002 
3237500000  -2.759047e+001  -1.213609e+002 
3240625000  -2.720754e+001  -1.233608e+002 
3243750000  -2.686216e+001  -1.297265e+002 
3246875000  -2.736829e+001  -1.361622e+002 
3250000000  -2.783979e+001  -1.380626e+002 
3253125000  -2.795328e+001  -1.397605e+002 
3256250000  -2.780273e+001  -1.456752e+002 
3259375000  -2.813227e+001  -1.534722e+002 
3262500000  -2.941952e+001  -1.561819e+002 
3265625000  -3.007274e+001  -1.526229e+002 
3268750000  -3.003173e+001  -1.500292e+002 
3271875000  -2.980934e+001  -1.489620e+002 
3275000000  -2.874929e+001  -1.541401e+002 
3278125000  -2.921778e+001  -1.602323e+002 
3281250000  -2.947988e+001  -1.586275e+002 
3284375000  -2.899054e+001  -1.642138e+002 
3287500000  -2.918220e+001  -1.671323e+002 
3290625000  -2.961753e+001  -1.714703e+002 
3293750000  -2.923918e+001  -1.772990e+002 
3296875000  -3.031773e+001  -1.773953e+002 
3300000000  -3.020798e+001  -1.761153e+002 
3303125000  -2.907973e+001  -1.799559e+002 
3306250000  -2.884296e+001  1.735655e+002 
3309375000  -2.860325e+001  1.683582e+002 
3312500000  -2.865695e+001  1.578735e+002 
3315625000  -2.969811e+001  1.502983e+002 
3318750000  -3.103044e+001  1.475997e+002 
3321875000  -3.227232e+001  1.475629e+002 
3325000000  -3.280066e+001  1.515789e+002 
3328125000  -3.270849e+001  1.540903e+002 
3331250000  -3.147484e+001  1.611923e+002 
3334375000  -2.886450e+001  1.517231e+002 
3337500000  -2.899903e+001  1.330874e+002 
3340625000  -3.033523e+001  1.220672e+002 
3343750000  -3.235010e+001  1.214501e+002 
3346875000  -3.276204e+001  1.227938e+002 
3350000000  -3.215513e+001  1.212913e+002 
3353125000  -3.231928e+001  1.169603e+002 
3356250000  -3.207796e+001  1.092065e+002 
3359375000  -3.296049e+001  1.009067e+002 
3362500000  -3.435780e+001  9.506679e+001 
3365625000  -3.494232e+001  9.382282e+001 
3368750000  -3.588849e+001  9.194376e+001 
3371875000  -3.618605e+001  8.894065e+001 
3375000000  -3.792353e+001  8.641106e+001 
3378125000  -3.911420e+001  8.660201e+001 
3381250000  -4.040389e+001  9.450106e+001 
3384375000  -3.975119e+001  1.163069e+002 
3387500000  -3.660741e+001  1.001260e+002 
3390625000  -3.835954e+001  8.231227e+001 
3393750000  -4.006710e+001  8.646138e+001 
3396875000  -3.948926e+001  9.078960e+001 
3400000000  -3.944925e+001  8.311703e+001 
3403125000  -4.053212e+001  7.780495e+001 
3406250000  -4.112648e+001  8.106568e+001 
3409375000  -4.195555e+001  7.775656e+001 
3412500000  -4.270883e+001  8.063885e+001 
3415625000  -4.388766e+001  8.464814e+001 
3418750000  -4.419260e+001  8.879198e+001 
3421875000  -4.427637e+001  9.575285e+001 
3425000000  -4.311342e+001  9.983678e+001 
3428125000  -4.221868e+001  9.968851e+001 
3431250000  -4.242185e+001  9.475214e+001 
3434375000  -4.237178e+001  9.428593e+001 
3437500000  -4.255607e+001  9.100704e+001 
3440625000  -4.308360e+001  9.356709e+001 
3443750000  -4.163125e+001  9.685601e+001 
3446875000  -4.075693e+001  9.135673e+001 
3450000000  -4.069373e+001  8.365308e+001 
3453125000  -4.092447e+001  7.405988e+001 
3456250000  -4.210978e+001  6.991475e+001 
3459375000  -4.299788e+001  7.231081e+001 
3462500000  -4.302101e+001  7.148092e+001 
3465625000  -4.324486e+001  6.863931e+001 
3468750000  -4.361943e+001  6.619775e+001 
3471875000  -4.382943e+001  6.622815e+001 
3475000000  -4.353728e+001  6.218752e+001 
3478125000  -4.416237e+001  5.902131e+001 
3481250000  -4.563911e+001  5.601190e+001 
3484375000  -4.657206e+001  6.395945e+001 
3487500000  -4.666664e+001  6.570530e+001 
3490625000  -4.609390e+001  6.303022e+001 
3493750000  -4.673020e+001  5.992822e+001 
3496875000  -4.743676e+001  6.065036e+001 
3500000000  -4.877056e+001  7.176795e+001 
3503125000  -4.953803e+001  7.577032e+001 
3506250000  -4.738918e+001  7.731590e+001 
3509375000  -4.751757e+001  7.790645e+001 
3512500000  -4.832050e+001  7.715123e+001 
3515625000  -4.799749e+001  8.050385e+001 
3518750000  -4.843127e+001  8.457978e+001 
3521875000  -4.769470e+001  9.175598e+001 
3525000000  -4.840330e+001  9.195619e+001 
3528125000  -4.752845e+001  1.028121e+002 
3531250000  -4.513319e+001  1.018558e+002 
3534375000  -4.472308e+001  9.200325e+001 
3537500000  -4.480093e+001  9.175185e+001 
3540625000  -4.485234e+001  8.929187e+001 
3543750000  -4.523518e+001  9.060580e+001 
3546875000  -4.485895e+001  1.022074e+002 
3550000000  -4.235283e+001  1.036408e+002 
3553125000  -4.077825e+001  8.920731e+001 
3556250000  -4.175335e+001  8.192422e+001 
3559375000  -4.145195e+001  8.384558e+001 
3562500000  -4.000976e+001  7.604679e+001 
3565625000  -4.135207e+001  7.044029e+001 
3568750000  -4.098135e+001  7.263045e+001 
3571875000  -4.065769e+001  7.116669e+001 
3575000000  -4.033427e+001  6.539991e+001 
3578125000  -4.064398e+001  6.185691e+001 
3581250000  -4.075292e+001  6.111649e+001 
3584375000  -3.989840e+001  6.111483e+001 
3587500000  -3.927636e+001  5.396167e+001 
3590625000  -3.951791e+001  4.430190e+001 
3593750000  -4.074520e+001  4.354390e+001 
3596875000  -4.068190e+001  5.152401e+001 
3600000000  -3.924729e+001  4.752151e+001 
3603125000  -3.931984e+001  3.310957e+001 
3606250000  -4.009618e+001  3.045367e+001 
3609375000  -4.060046e+001  3.166928e+001 
3612500000  -4.106807e+001  2.894538e+001 
3615625000  -4.113111e+001  2.569898e+001 
3618750000  -4.157827e+001  2.716277e+001 
3621875000  -4.152575e+001  2.769898e+001 
3625000000  -4.175212e+001  2.610953e+001 
3628125000  -4.216123e+001  2.855418e+001 
3631250000  -4.134723e+001  2.256867e+001 
3634375000  -4.258198e+001  2.573161e+001 
3637500000  -4.240879e+001  3.050064e+001 
3640625000  -4.093421e+001  3.245482e+001 
3643750000  -4.113292e+001  2.855326e+001 
3646875000  -4.140578e+001  2.167590e+001 
3650000000  -4.180034e+001  2.236331e+001 
3653125000  -4.160908e+001  2.126623e+001 
3656250000  -4.156328e+001  2.073978e+001 
3659375000  -4.219387e+001  2.375588e+001 
3662500000  -4.115922e+001  2.448543e+001 
3665625000  -4.090488e+001  2.422165e+001 
3668750000  -4.027874e+001  2.778274e+001 
3671875000  -3.907256e+001  2.103961e+001 
3675000000  -3.954161e+001  1.486690e+001 
3678125000  -3.988391e+001  1.608624e+001 
3681250000  -3.929685e+001  1.723272e+001 
3684375000  -3.922571e+001  1.246448e+001 
3687500000  -3.940417e+001  1.230825e+001 
3690625000  -3.942900e+001  9.699843e+000 
3693750000  -3.981862e+001  1.041884e+001 
3696875000  -3.984539e+001  1.497751e+001 
3700000000  -3.861814e+001  1.177256e+001 
3703125000  -3.855991e+001  8.586761e+000 
3706250000  -3.924678e+001  9.483810e+000 
3709375000  -3.856824e+001  1.308432e+001 
3712500000  -3.735664e+001  1.359269e+001 
3715625000  -3.618491e+001  7.466750e+000 
3718750000  -3.572105e+001  4.395593e+000 
3721875000  -3.524389e+001  -1.134717e+000 
3725000000  -3.543375e+001  -6.623937e+000 
3728125000  -3.543493e+001  -6.310523e+000 
3731250000  -3.487291e+001  -6.689331e+000 
3734375000  -3.404388e+001  -1.239632e+001 
3737500000  -3.453125e+001  -2.042730e+001 
3740625000  -3.520282e+001  -2.211674e+001 
3743750000  -3.480264e+001  -2.387309e+001 
3746875000  -3.493676e+001  -2.776000e+001 
3750000000  -3.524556e+001  -2.836018e+001 
3753125000  -3.482767e+001  -2.734767e+001 
3756250000  -3.483070e+001  -2.864182e+001 
3759375000  -3.445634e+001  -2.917984e+001 
3762500000  -3.397610e+001  -3.265501e+001 
3765625000  -3.439926e+001  -3.562376e+001 
3768750000  -3.447371e+001  -3.270818e+001 
3771875000  -3.262369e+001  -3.434824e+001 
3775000000  -3.230994e+001  -4.227436e+001 
3778125000  -3.264889e+001  -4.409544e+001 
3781250000  -3.248425e+001  -4.703749e+001 
3784375000  -3.246893e+001  -4.832141e+001 
3787500000  -3.169417e+001  -5.228639e+001 
3790625000  -3.227830e+001  -5.831068e+001 
3793750000  -3.235200e+001  -5.875069e+001 
3796875000  -3.147612e+001  -5.949149e+001 
3800000000  -2.984053e+001  -6.314531e+001 
3803125000  -3.055751e+001  -7.088245e+001 
3806250000  -3.124580e+001  -7.279384e+001 
3809375000  -3.090771e+001  -7.481863e+001 
3812500000  -3.029064e+001  -7.948388e+001 
3815625000  -3.081278e+001  -8.712428e+001 
3818750000  -3.183367e+001  -8.828197e+001 
3821875000  -3.198757e+001  -7.970348e+001 
3825000000  -3.006629e+001  -7.557088e+001 
3828125000  -2.852541e+001  -8.970042e+001 
3831250000  -2.913150e+001  -1.039522e+002 
3834375000  -3.053209e+001  -1.056339e+002 
3837500000  -3.139399e+001  -1.002382e+002 
3840625000  -3.026132e+001  -1.013417e+002 
3843750000  -2.928225e+001  -1.118864e+002 
3846875000  -2.991641e+001  -1.184304e+002 
3850000000  -3.128997e+001  -1.127525e+002 
3853125000  -3.041233e+001  -1.099569e+002 
3856250000  -3.053212e+001  -1.145907e+002 
3859375000  -2.979375e+001  -1.189585e+002 
3862500000  -2.939839e+001  -1.259966e+002 
3865625000  -2.964712e+001  -1.309068e+002 
3868750000  -2.961971e+001  -1.308648e+002 
3871875000  -2.894903e+001  -1.335114e+002 
3875000000  -2.907580e+001  -1.419011e+002 
3878125000  -3.007413e+001  -1.437353e+002 
3881250000  -3.010385e+001  -1.406863e+002 
3884375000  -2.954632e+001  -1.453602e+002 
3887500000  -2.969128e+001  -1.491321e+002 
3890625000  -3.017239e+001  -1.511135e+002 
3893750000  -3.057686e+001  -1.525085e+002 
3896875000  -3.054169e+001  -1.515991e+002 
3900000000  -3.091302e+001  -1.525728e+002 
3903125000  -3.051631e+001  -1.545139e+002 
3906250000  -3.016668e+001  -1.552002e+002 
3909375000  -2.936023e+001  -1.578471e+002 
3912500000  -2.946538e+001  -1.654862e+002 
3915625000  -3.062781e+001  -1.649627e+002 
3918750000  -3.063365e+001  -1.621191e+002 
3921875000  -3.018444e+001  -1.645522e+002 
3925000000  -2.936068e+001  -1.656200e+002 
3928125000  -2.859383e+001  -1.716625e+002 
3931250000  -2.903699e+001  -1.758324e+002 
3934375000  -2.919452e+001  -1.761850e+002 
3937500000  -2.932522e+001  -1.769541e+002 
3940625000  -2.987786e+001  -1.767749e+002 
3943750000  -2.893688e+001  -1.754899e+002 
3946875000  -2.762181e+001  1.792581e+002 
3950000000  -2.821830e+001  1.713111e+002 
3953125000  -2.900863e+001  1.720636e+002 
3956250000  -2.831799e+001  1.740509e+002 
3959375000  -2.695983e+001  1.707820e+002 
3962500000  -2.650388e+001  1.664146e+002 
3965625000  -2.616434e+001  1.580136e+002 
3968750000  -2.709828e+001  1.507568e+002 
3971875000  -2.749309e+001  1.496008e+002 
3975000000  -2.686510e+001  1.475891e+002 
3978125000  -2.672727e+001  1.463230e+002 
3981250000  -2.652835e+001  1.421285e+002 
3984375000  -2.672234e+001  1.361462e+002 
3987500000  -2.730888e+001  1.341486e+002 
3990625000  -2.731999e+001  1.328744e+002 
3993750000  -2.748256e+001  1.298638e+002 
3996875000  -2.752772e+001  1.279980e+002 
4000000000  -2.757584e+001  1.262824e+002 
4003125000  -2.821428e+001  1.289214e+002 
4006250000  -2.680187e+001  1.300154e+002 
4009375000  -2.553024e+001  1.179838e+002 
4012500000  -2.655012e+001  1.106366e+002 
4015625000  -2.772024e+001  1.110588e+002 
4018750000  -2.796020e+001  1.136667e+002 
4021875000  -2.716644e+001  1.125621e+002 
4025000000  -2.674618e+001  1.073386e+002 
4028125000  -2.666574e+001  1.034527e+002 
4031250000  -2.701340e+001  1.002643e+002 
4034375000  -2.729659e+001  9.991861e+001 
4037500000  -2.673281e+001  1.015803e+002 
4040625000  -2.663581e+001  9.827020e+001 
4043750000  -2.695579e+001  9.740208e+001 
4046875000  -2.646484e+001  9.723748e+001 
4050000000  -2.589443e+001  9.118133e+001 
4053125000  -2.638230e+001  8.845914e+001 
4056250000  -2.696996e+001  9.190813e+001 
4059375000  -2.572926e+001  9.386510e+001 
4062500000  -2.445067e+001  8.939988e+001 
4065625000  -2.429699e+001  8.453033e+001 
4068750000  -2.400863e+001  8.056246e+001 
4071875000  -2.330788e+001  7.199113e+001 
4075000000  -2.363897e+001  6.522956e+001 
4078125000  -2.423811e+001  6.396373e+001 
4081250000  -2.373236e+001  6.149888e+001 
4084375000  -2.336881e+001  5.459320e+001 
4087500000  -2.376889e+001  4.811218e+001 
4090625000  -2.438509e+001  4.680011e+001 
4093750000  -2.426147e+001  4.771965e+001 
4096875000  -2.385398e+001  4.189287e+001 
4100000000  -2.453552e+001  3.496893e+001 
4103125000  -2.544017e+001  3.568222e+001 
4106250000  -2.535300e+001  4.077597e+001 
4109375000  -2.447086e+001  3.981159e+001 
4112500000  -2.388316e+001  3.334804e+001 
4115625000  -2.421986e+001  2.947637e+001 
4118750000  -2.437064e+001  2.611457e+001 
4121875000  -2.405078e+001  2.184423e+001 
4125000000  -2.440458e+001  1.741707e+001 
4128125000  -2.538980e+001  1.793274e+001 
4131250000  -2.502688e+001  2.591859e+001 
4134375000  -2.266869e+001  2.155048e+001 
4137500000  -2.244085e+001  2.961514e+000 
4140625000  -2.458392e+001  -4.301367e+000 
4143750000  -2.594644e+001  1.214922e+000 
4146875000  -2.547178e+001  8.328035e+000 
4150000000  -2.446918e+001  5.347567e+000 
4153125000  -2.432818e+001  -1.249861e+000 
4156250000  -2.515005e+001  -3.977383e+000 
4159375000  -2.541391e+001  3.521001e-001 
4162500000  -2.422841e+001  4.628610e+000 
4165625000  -2.305378e+001  1.072022e+000 
4168750000  -2.239675e+001  -6.541862e+000 
4171875000  -2.231999e+001  -1.583689e+001 
4175000000  -2.283937e+001  -2.196566e+001 
4178125000  -2.341153e+001  -2.227084e+001 
4181250000  -2.333636e+001  -2.311996e+001 
4184375000  -2.316908e+001  -2.685077e+001 
4187500000  -2.317652e+001  -2.964944e+001 
4190625000  -2.305247e+001  -3.557710e+001 
4193750000  -2.383874e+001  -3.973851e+001 
4196875000  -2.458084e+001  -3.980809e+001 
4200000000  -2.537119e+001  -3.732231e+001 
4203125000  -2.537411e+001  -2.447751e+001 
4206250000  -2.212159e+001  -2.302485e+001 
4209375000  -2.101830e+001  -4.408789e+001 
4212500000  -2.294325e+001  -5.269584e+001 
4215625000  -2.392242e+001  -4.581061e+001 
4218750000  -2.249966e+001  -3.931178e+001 
4221875000  -2.019331e+001  -4.902965e+001 
4225000000  -2.146542e+001  -6.220089e+001 
4228125000  -2.225772e+001  -5.705899e+001 
4231250000  -2.076026e+001  -6.068426e+001 
4234375000  -2.066025e+001  -6.878775e+001 
4237500000  -2.030710e+001  -7.233714e+001 
4240625000  -2.040693e+001  -8.090550e+001 
4243750000  -2.139198e+001  -8.689096e+001 
4246875000  -2.221645e+001  -8.688902e+001 
4250000000  -2.225150e+001  -8.381406e+001 
4253125000  -2.165338e+001  -8.576482e+001 
4256250000  -2.187340e+001  -8.988477e+001 
4259375000  -2.168499e+001  -9.209184e+001 
4262500000  -2.170340e+001  -9.566773e+001 
4265625000  -2.181148e+001  -9.530109e+001 
4268750000  -2.103239e+001  -9.896880e+001 
4271875000  -2.070232e+001  -1.042953e+002 
4275000000  -2.002923e+001  -1.105168e+002 
4278125000  -2.056036e+001  -1.223309e+002 
4281250000  -2.235661e+001  -1.246877e+002 
4284375000  -2.210670e+001  -1.242072e+002 
4287500000  -2.291910e+001  -1.277816e+002 
4290625000  -2.420319e+001  -1.178612e+002 
4293750000  -2.217756e+001  -1.119087e+002 
4296875000  -2.080258e+001  -1.232258e+002 
4300000000  -2.157198e+001  -1.324382e+002 
4303125000  -2.260817e+001  -1.312253e+002 
4306250000  -2.190489e+001  -1.258639e+002 
4309375000  -2.054835e+001  -1.287449e+002 
4312500000  -2.049670e+001  -1.372429e+002 
4315625000  -2.076780e+001  -1.433569e+002 
4318750000  -2.105192e+001  -1.468572e+002 
4321875000  -2.118954e+001  -1.463662e+002 
4325000000  -2.058234e+001  -1.465483e+002 
4328125000  -2.010067e+001  -1.532598e+002 
4331250000  -2.013623e+001  -1.611424e+002 
4334375000  -2.057258e+001  -1.660434e+002 
4337500000  -2.136540e+001  -1.684251e+002 
4340625000  -2.187737e+001  -1.657347e+002 
4343750000  -2.137363e+001  -1.652726e+002 
4346875000  -2.098743e+001  -1.706027e+002 
4350000000  -2.088354e+001  -1.753562e+002 
4353125000  -2.094907e+001  1.765746e+002 
4356250000  -2.277159e+001  1.751257e+002 
4359375000  -2.339721e+001  -1.718811e+002 
4362500000  -2.079503e+001  -1.695614e+002 
4365625000  -1.931053e+001  1.790087e+002 
4368750000  -2.000361e+001  1.672506e+002 
4371875000  -2.115624e+001  1.677556e+002 
4375000000  -2.089721e+001  1.688174e+002 
4378125000  -2.028968e+001  1.634702e+002 
4381250000  -2.041945e+001  1.579746e+002 
4384375000  -2.026299e+001  1.534349e+002 
4387500000  -2.090362e+001  1.475004e+002 
4390625000  -2.195712e+001  1.482206e+002 
4393750000  -2.137094e+001  1.506090e+002 
4396875000  -2.067334e+001  1.487852e+002 
4400000000  -2.022234e+001  1.420358e+002 
4403125000  -2.071147e+001  1.343096e+002 
4406250000  -2.152819e+001  1.331743e+002 
4409375000  -2.148556e+001  1.306543e+002 
4412500000  -2.239885e+001  1.278821e+002 
4415625000  -2.283165e+001  1.328470e+002 
4418750000  -2.174450e+001  1.379953e+002 
