!Agilent Technologies,E8363B,MY43030201,A.06.04.32
!Agilent E8363B: A.06.04.32
!Date: Tuesday, November 11, 2014 20:51:37
!Correction: S21(Response(S21)) 
!S1P File: Measurement: S21:
# Hz S  dB   R 50
3000000000  -2.651897e+001  1.516930e+002 
3003125000  -2.792451e+001  1.472613e+002 
3006250000  -2.796167e+001  1.447237e+002 
3009375000  -2.832783e+001  1.496212e+002 
3012500000  -2.778008e+001  1.494235e+002 
3015625000  -2.684717e+001  1.421444e+002 
3018750000  -2.768759e+001  1.413042e+002 
3021875000  -2.642885e+001  1.427572e+002 
3025000000  -2.512332e+001  1.397183e+002 
3028125000  -2.415230e+001  1.346323e+002 
3031250000  -2.310040e+001  1.234048e+002 
3034375000  -2.275958e+001  1.104251e+002 
3037500000  -2.313412e+001  9.846042e+001 
3040625000  -2.444332e+001  9.365806e+001 
3043750000  -2.514685e+001  8.932312e+001 
3046875000  -2.527105e+001  8.268552e+001 
3050000000  -2.703480e+001  7.597936e+001 
3053125000  -2.716528e+001  8.255182e+001 
3056250000  -2.647698e+001  8.523483e+001 
3059375000  -2.670222e+001  8.507335e+001 
3062500000  -2.522561e+001  8.107811e+001 
3065625000  -2.496322e+001  7.556306e+001 
3068750000  -2.469400e+001  6.848503e+001 
3071875000  -2.462132e+001  6.558167e+001 
3075000000  -2.460709e+001  6.172932e+001 
3078125000  -2.433865e+001  5.738205e+001 
3081250000  -2.498645e+001  5.308926e+001 
3084375000  -2.423505e+001  4.943719e+001 
3087500000  -2.409876e+001  4.578702e+001 
3090625000  -2.381833e+001  3.610214e+001 
3093750000  -2.426042e+001  2.802388e+001 
3096875000  -2.557076e+001  2.193329e+001 
3100000000  -2.566212e+001  2.058556e+001 
3103125000  -2.603628e+001  2.221861e+001 
3106250000  -2.578358e+001  1.868048e+001 
3109375000  -2.602859e+001  1.511332e+001 
3112500000  -2.616045e+001  1.419000e+001 
3115625000  -2.595494e+001  9.952460e+000 
3118750000  -2.642511e+001  1.113624e+001 
3121875000  -2.575911e+001  2.833463e+000 
3125000000  -2.696849e+001  -3.587964e-001 
3128125000  -2.816418e+001  8.014170e+000 
3131250000  -2.597716e+001  7.902268e+000 
3134375000  -2.465249e+001  -5.313348e+000 
3137500000  -2.533970e+001  -1.914739e+001 
3140625000  -2.688676e+001  -2.096715e+001 
3143750000  -2.792211e+001  -1.681450e+001 
3146875000  -2.750909e+001  -1.462540e+001 
3150000000  -2.650461e+001  -1.263766e+001 
3153125000  -2.649236e+001  -2.033471e+001 
3156250000  -2.747527e+001  -1.469160e+001 
3159375000  -2.590939e+001  -1.189266e+001 
3162500000  -2.386683e+001  -2.479054e+001 
3165625000  -2.483601e+001  -3.570443e+001 
3168750000  -2.520570e+001  -3.463286e+001 
3171875000  -2.425167e+001  -3.905312e+001 
3175000000  -2.489963e+001  -4.672663e+001 
3178125000  -2.467592e+001  -4.516690e+001 
3181250000  -2.350778e+001  -4.921455e+001 
3184375000  -2.271352e+001  -6.146502e+001 
3187500000  -2.384754e+001  -7.632340e+001 
3190625000  -2.661848e+001  -8.386320e+001 
3193750000  -2.717216e+001  -7.423790e+001 
3196875000  -2.679257e+001  -6.873399e+001 
3200000000  -2.589487e+001  -7.091905e+001 
3203125000  -2.503929e+001  -7.669456e+001 
3206250000  -2.531418e+001  -8.281602e+001 
3209375000  -2.487041e+001  -8.770785e+001 
3212500000  -2.495862e+001  -9.446227e+001 
3215625000  -2.514402e+001  -9.865701e+001 
3218750000  -2.585541e+001  -1.050067e+002 
3221875000  -2.686901e+001  -1.100069e+002 
3225000000  -2.647445e+001  -1.107736e+002 
3228125000  -2.677504e+001  -1.155273e+002 
3231250000  -2.750842e+001  -1.178203e+002 
3234375000  -2.737791e+001  -1.168905e+002 
3237500000  -2.741903e+001  -1.186129e+002 
3240625000  -2.707643e+001  -1.201718e+002 
3243750000  -2.672553e+001  -1.268410e+002 
3246875000  -2.718423e+001  -1.331688e+002 
3250000000  -2.767237e+001  -1.352473e+002 
3253125000  -2.778123e+001  -1.368975e+002 
3256250000  -2.767204e+001  -1.427791e+002 
3259375000  -2.798426e+001  -1.506918e+002 
3262500000  -2.925518e+001  -1.533435e+002 
3265625000  -2.988920e+001  -1.498748e+002 
3268750000  -2.991577e+001  -1.470653e+002 
3271875000  -2.964314e+001  -1.462927e+002 
3275000000  -2.858652e+001  -1.513962e+002 
3278125000  -2.904212e+001  -1.574760e+002 
3281250000  -2.930083e+001  -1.554485e+002 
3284375000  -2.890679e+001  -1.613567e+002 
3287500000  -2.906113e+001  -1.639984e+002 
3290625000  -2.944243e+001  -1.688524e+002 
3293750000  -2.917984e+001  -1.739936e+002 
3296875000  -3.013288e+001  -1.735654e+002 
3300000000  -3.009119e+001  -1.727066e+002 
3303125000  -2.884193e+001  -1.769164e+002 
3306250000  -2.867585e+001  1.768034e+002 
3309375000  -2.847192e+001  1.714665e+002 
3312500000  -2.846630e+001  1.611747e+002 
3315625000  -2.950375e+001  1.532370e+002 
3318750000  -3.088251e+001  1.508111e+002 
3321875000  -3.209326e+001  1.507239e+002 
3325000000  -3.254152e+001  1.565053e+002 
3328125000  -3.245438e+001  1.579737e+002 
3331250000  -3.124358e+001  1.653429e+002 
3334375000  -2.864090e+001  1.557128e+002 
3337500000  -2.871671e+001  1.368301e+002 
3340625000  -3.008452e+001  1.262011e+002 
3343750000  -3.209072e+001  1.244389e+002 
3346875000  -3.251651e+001  1.263176e+002 
3350000000  -3.190587e+001  1.252399e+002 
3353125000  -3.199772e+001  1.203798e+002 
3356250000  -3.176963e+001  1.132725e+002 
3359375000  -3.255353e+001  1.046408e+002 
3362500000  -3.393666e+001  9.894573e+001 
3365625000  -3.444094e+001  9.779652e+001 
3368750000  -3.550602e+001  9.558805e+001 
3371875000  -3.584574e+001  9.293633e+001 
3375000000  -3.749133e+001  9.042062e+001 
3378125000  -3.842027e+001  9.097688e+001 
3381250000  -4.002156e+001  9.847186e+001 
3384375000  -3.899946e+001  1.210676e+002 
3387500000  -3.590602e+001  1.054464e+002 
3390625000  -3.774759e+001  8.569491e+001 
3393750000  -3.965651e+001  9.136633e+001 
3396875000  -3.868189e+001  9.347453e+001 
3400000000  -3.873275e+001  8.744400e+001 
3403125000  -3.957904e+001  8.171767e+001 
3406250000  -4.065654e+001  8.522164e+001 
3409375000  -4.108815e+001  7.964873e+001 
3412500000  -4.209150e+001  8.229781e+001 
3415625000  -4.282216e+001  8.743829e+001 
3418750000  -4.324577e+001  8.983380e+001 
3421875000  -4.326938e+001  9.837717e+001 
3425000000  -4.254130e+001  1.002715e+002 
3428125000  -4.152420e+001  1.002086e+002 
3431250000  -4.162811e+001  9.743798e+001 
3434375000  -4.111942e+001  9.324044e+001 
3437500000  -4.161625e+001  8.982089e+001 
3440625000  -4.195928e+001  9.500005e+001 
3443750000  -4.086754e+001  9.580376e+001 
3446875000  -3.983634e+001  9.134071e+001 
3450000000  -3.966268e+001  8.320763e+001 
3453125000  -4.018756e+001  7.443201e+001 
3456250000  -4.139413e+001  6.836436e+001 
3459375000  -4.206784e+001  7.003267e+001 
3462500000  -4.226258e+001  7.257940e+001 
3465625000  -4.241299e+001  6.839581e+001 
3468750000  -4.277330e+001  6.575953e+001 
3471875000  -4.283934e+001  6.690811e+001 
3475000000  -4.259922e+001  6.114586e+001 
3478125000  -4.339035e+001  5.467811e+001 
3481250000  -4.463418e+001  5.497222e+001 
3484375000  -4.600060e+001  5.938073e+001 
3487500000  -4.561278e+001  6.311434e+001 
3490625000  -4.505350e+001  5.945110e+001 
3493750000  -4.586729e+001  5.694910e+001 
3496875000  -4.679996e+001  5.736820e+001 
3500000000  -4.825489e+001  6.473750e+001 
3503125000  -4.797731e+001  6.944834e+001 
3506250000  -4.624755e+001  7.125963e+001 
3509375000  -4.657166e+001  6.844721e+001 
3512500000  -4.759144e+001  6.778071e+001 
3515625000  -4.758625e+001  7.237562e+001 
3518750000  -4.810941e+001  7.501212e+001 
3521875000  -4.798895e+001  8.164950e+001 
3525000000  -4.832049e+001  8.157143e+001 
3528125000  -4.782603e+001  9.158023e+001 
3531250000  -4.568205e+001  9.680316e+001 
3534375000  -4.505147e+001  8.487785e+001 
3537500000  -4.509488e+001  8.367704e+001 
3540625000  -4.546844e+001  8.187531e+001 
3543750000  -4.593071e+001  8.495264e+001 
3546875000  -4.581451e+001  1.004078e+002 
3550000000  -4.280249e+001  1.001360e+002 
3553125000  -4.185763e+001  8.483508e+001 
3556250000  -4.249622e+001  7.932334e+001 
3559375000  -4.219898e+001  8.034564e+001 
3562500000  -4.087803e+001  7.210040e+001 
3565625000  -4.181058e+001  6.823739e+001 
3568750000  -4.192431e+001  7.036876e+001 
3571875000  -4.174004e+001  7.168226e+001 
3575000000  -4.117041e+001  6.471019e+001 
3578125000  -4.156538e+001  6.149402e+001 
3581250000  -4.178375e+001  6.176558e+001 
3584375000  -4.088482e+001  6.183093e+001 
3587500000  -3.997688e+001  5.545728e+001 
3590625000  -4.030955e+001  4.593567e+001 
3593750000  -4.138432e+001  4.508536e+001 
3596875000  -4.164429e+001  5.376906e+001 
3600000000  -3.989719e+001  5.152584e+001 
3603125000  -4.004858e+001  3.715857e+001 
3606250000  -4.077220e+001  3.493446e+001 
3609375000  -4.119787e+001  3.279415e+001 
3612500000  -4.146423e+001  3.375664e+001 
3615625000  -4.168956e+001  3.059144e+001 
3618750000  -4.189870e+001  3.159875e+001 
3621875000  -4.157321e+001  3.259291e+001 
3625000000  -4.169855e+001  3.098492e+001 
3628125000  -4.161848e+001  3.093521e+001 
3631250000  -4.143708e+001  2.986394e+001 
3634375000  -4.275612e+001  2.847864e+001 
3637500000  -4.192201e+001  3.425911e+001 
3640625000  -4.082660e+001  3.347810e+001 
3643750000  -4.072917e+001  2.880743e+001 
3646875000  -4.129181e+001  2.281196e+001 
3650000000  -4.174145e+001  2.292098e+001 
3653125000  -4.126771e+001  2.367533e+001 
3656250000  -4.151205e+001  2.063011e+001 
3659375000  -4.201877e+001  2.549334e+001 
3662500000  -4.116731e+001  2.205415e+001 
3665625000  -4.109080e+001  2.333850e+001 
3668750000  -3.995773e+001  2.489157e+001 
3671875000  -3.930884e+001  2.069898e+001 
3675000000  -3.969670e+001  1.536005e+001 
3678125000  -4.044076e+001  1.573633e+001 
3681250000  -3.991389e+001  1.646958e+001 
3684375000  -3.968656e+001  1.376618e+001 
3687500000  -3.977945e+001  1.306896e+001 
3690625000  -3.974455e+001  1.043014e+001 
3693750000  -4.007851e+001  1.218955e+001 
3696875000  -4.019237e+001  1.718020e+001 
3700000000  -3.891419e+001  1.337198e+001 
3703125000  -3.875934e+001  1.163045e+001 
3706250000  -3.925306e+001  1.260412e+001 
3709375000  -3.873032e+001  1.693469e+001 
3712500000  -3.733661e+001  1.613298e+001 
3715625000  -3.633581e+001  1.026258e+001 
3718750000  -3.563750e+001  7.847990e+000 
3721875000  -3.509906e+001  1.659291e+000 
3725000000  -3.521959e+001  -1.795299e+000 
3728125000  -3.520958e+001  -2.486322e+000 
3731250000  -3.475458e+001  -4.540309e+000 
3734375000  -3.363488e+001  -1.027368e+001 
3737500000  -3.422883e+001  -1.762744e+001 
3740625000  -3.469296e+001  -2.043126e+001 
3743750000  -3.452071e+001  -2.236749e+001 
3746875000  -3.455445e+001  -2.590090e+001 
3750000000  -3.491381e+001  -2.665643e+001 
3753125000  -3.456976e+001  -2.679300e+001 
3756250000  -3.430894e+001  -2.860703e+001 
3759375000  -3.429444e+001  -2.890585e+001 
3762500000  -3.360279e+001  -3.312146e+001 
3765625000  -3.412329e+001  -3.605168e+001 
3768750000  -3.418520e+001  -3.316472e+001 
3771875000  -3.239060e+001  -3.614273e+001 
3775000000  -3.220172e+001  -4.416873e+001 
3778125000  -3.243014e+001  -4.563196e+001 
3781250000  -3.229178e+001  -4.831616e+001 
3784375000  -3.227976e+001  -5.051953e+001 
3787500000  -3.160133e+001  -5.363125e+001 
3790625000  -3.216966e+001  -5.969014e+001 
3793750000  -3.232317e+001  -6.008705e+001 
3796875000  -3.147127e+001  -6.178060e+001 
3800000000  -2.987789e+001  -6.510474e+001 
3803125000  -3.075489e+001  -7.183834e+001 
3806250000  -3.136524e+001  -7.453830e+001 
3809375000  -3.104724e+001  -7.591807e+001 
3812500000  -3.033475e+001  -8.124654e+001 
3815625000  -3.102228e+001  -8.767083e+001 
3818750000  -3.198125e+001  -8.876448e+001 
3821875000  -3.201142e+001  -8.123504e+001 
3825000000  -3.012119e+001  -7.659223e+001 
3828125000  -2.883288e+001  -8.966473e+001 
3831250000  -2.932703e+001  -1.046068e+002 
3834375000  -3.062934e+001  -1.053922e+002 
3837500000  -3.159292e+001  -1.002477e+002 
3840625000  -3.041444e+001  -1.013655e+002 
3843750000  -2.925708e+001  -1.117772e+002 
3846875000  -2.997674e+001  -1.181491e+002 
3850000000  -3.118598e+001  -1.129239e+002 
3853125000  -3.035935e+001  -1.111822e+002 
3856250000  -3.040564e+001  -1.152869e+002 
3859375000  -2.970217e+001  -1.194896e+002 
3862500000  -2.919133e+001  -1.261158e+002 
3865625000  -2.948357e+001  -1.315862e+002 
3868750000  -2.956086e+001  -1.317674e+002 
3871875000  -2.879894e+001  -1.345711e+002 
3875000000  -2.896490e+001  -1.432978e+002 
3878125000  -2.991562e+001  -1.461885e+002 
3881250000  -3.002276e+001  -1.430011e+002 
3884375000  -2.944869e+001  -1.470386e+002 
3887500000  -2.963086e+001  -1.515139e+002 
3890625000  -3.010756e+001  -1.539448e+002 
3893750000  -3.054949e+001  -1.558028e+002 
3896875000  -3.082961e+001  -1.550480e+002 
3900000000  -3.093830e+001  -1.556006e+002 
3903125000  -3.066015e+001  -1.575892e+002 
3906250000  -3.033803e+001  -1.588699e+002 
3909375000  -2.959228e+001  -1.616472e+002 
3912500000  -2.964240e+001  -1.689066e+002 
3915625000  -3.094956e+001  -1.677190e+002 
3918750000  -3.087161e+001  -1.660763e+002 
3921875000  -3.053797e+001  -1.677963e+002 
3925000000  -2.972954e+001  -1.685646e+002 
3928125000  -2.910877e+001  -1.745722e+002 
3931250000  -2.949562e+001  -1.783640e+002 
3934375000  -2.980784e+001  -1.783566e+002 
3937500000  -3.001746e+001  -1.783558e+002 
3940625000  -3.032022e+001  -1.789336e+002 
3943750000  -2.946905e+001  -1.771722e+002 
3946875000  -2.823827e+001  1.777532e+002 
3950000000  -2.870825e+001  1.695247e+002 
3953125000  -2.964013e+001  1.704367e+002 
3956250000  -2.876281e+001  1.736385e+002 
3959375000  -2.751460e+001  1.704967e+002 
3962500000  -2.695540e+001  1.662977e+002 
3965625000  -2.663555e+001  1.578036e+002 
3968750000  -2.753816e+001  1.510431e+002 
3971875000  -2.788640e+001  1.491422e+002 
3975000000  -2.717494e+001  1.476734e+002 
3978125000  -2.701959e+001  1.464364e+002 
3981250000  -2.675532e+001  1.416972e+002 
3984375000  -2.700314e+001  1.354828e+002 
3987500000  -2.749449e+001  1.333966e+002 
3990625000  -2.753378e+001  1.324052e+002 
3993750000  -2.769137e+001  1.294529e+002 
3996875000  -2.766309e+001  1.267747e+002 
4000000000  -2.780480e+001  1.247479e+002 
4003125000  -2.833955e+001  1.271443e+002 
4006250000  -2.698858e+001  1.273616e+002 
4009375000  -2.571172e+001  1.151451e+002 
4012500000  -2.688165e+001  1.079918e+002 
4015625000  -2.802802e+001  1.082421e+002 
4018750000  -2.824304e+001  1.103572e+002 
4021875000  -2.755758e+001  1.087948e+002 
4025000000  -2.719176e+001  1.041071e+002 
4028125000  -2.716361e+001  1.001599e+002 
4031250000  -2.764993e+001  9.661425e+001 
4034375000  -2.799225e+001  9.673984e+001 
4037500000  -2.740908e+001  9.854765e+001 
4040625000  -2.735694e+001  9.474238e+001 
4043750000  -2.767905e+001  9.453625e+001 
4046875000  -2.727687e+001  9.424576e+001 
4050000000  -2.672392e+001  8.894952e+001 
4053125000  -2.725296e+001  8.662999e+001 
4056250000  -2.793278e+001  9.086484e+001 
4059375000  -2.660588e+001  9.321018e+001 
4062500000  -2.527375e+001  8.842493e+001 
4065625000  -2.508106e+001  8.390125e+001 
4068750000  -2.481867e+001  7.920347e+001 
4071875000  -2.419696e+001  7.141996e+001 
4075000000  -2.456442e+001  6.495210e+001 
4078125000  -2.516931e+001  6.405160e+001 
4081250000  -2.461781e+001  6.215114e+001 
4084375000  -2.422394e+001  5.539176e+001 
4087500000  -2.454155e+001  4.909044e+001 
4090625000  -2.513903e+001  4.826563e+001 
4093750000  -2.495998e+001  4.892471e+001 
4096875000  -2.453039e+001  4.298650e+001 
4100000000  -2.523894e+001  3.605816e+001 
4103125000  -2.609820e+001  3.653394e+001 
4106250000  -2.594339e+001  4.164315e+001 
4109375000  -2.504029e+001  4.110760e+001 
4112500000  -2.452874e+001  3.440238e+001 
4115625000  -2.481666e+001  3.013226e+001 
4118750000  -2.489499e+001  2.688743e+001 
4121875000  -2.450060e+001  2.231507e+001 
4125000000  -2.483798e+001  1.693205e+001 
4128125000  -2.590365e+001  1.730331e+001 
4131250000  -2.560776e+001  2.525101e+001 
4134375000  -2.328878e+001  2.114937e+001 
4137500000  -2.304285e+001  2.217900e+000 
4140625000  -2.523576e+001  -4.843091e+000 
4143750000  -2.653077e+001  1.022713e-001 
4146875000  -2.613898e+001  7.078761e+000 
4150000000  -2.521735e+001  4.120405e+000 
4153125000  -2.501111e+001  -2.446897e+000 
4156250000  -2.594999e+001  -5.101090e+000 
4159375000  -2.624786e+001  -5.009112e-001 
4162500000  -2.505513e+001  3.472234e+000 
4165625000  -2.395362e+001  -7.155489e-001 
4168750000  -2.340495e+001  -7.768763e+000 
4171875000  -2.333394e+001  -1.714844e+001 
4175000000  -2.395034e+001  -2.250327e+001 
4178125000  -2.457082e+001  -2.260298e+001 
4181250000  -2.444349e+001  -2.312014e+001 
4184375000  -2.430808e+001  -2.629427e+001 
4187500000  -2.435232e+001  -2.905246e+001 
4190625000  -2.415232e+001  -3.434781e+001 
4193750000  -2.491154e+001  -3.807528e+001 
4196875000  -2.566573e+001  -3.835257e+001 
4200000000  -2.656165e+001  -3.593828e+001 
4203125000  -2.649702e+001  -2.297462e+001 
4206250000  -2.318508e+001  -2.148622e+001 
4209375000  -2.201542e+001  -4.169940e+001 
4212500000  -2.391677e+001  -5.056695e+001 
4215625000  -2.492412e+001  -4.429042e+001 
4218750000  -2.360462e+001  -3.773519e+001 
4221875000  -2.129631e+001  -4.667191e+001 
4225000000  -2.257156e+001  -5.912853e+001 
4228125000  -2.323849e+001  -5.387009e+001 
4231250000  -2.162882e+001  -5.754129e+001 
4234375000  -2.158011e+001  -6.591695e+001 
4237500000  -2.114413e+001  -6.908759e+001 
4240625000  -2.114550e+001  -7.777048e+001 
4243750000  -2.207847e+001  -8.456016e+001 
4246875000  -2.297024e+001  -8.463344e+001 
4250000000  -2.305470e+001  -8.191354e+001 
4253125000  -2.245234e+001  -8.390291e+001 
4256250000  -2.274109e+001  -8.811840e+001 
4259375000  -2.245513e+001  -9.009143e+001 
4262500000  -2.251542e+001  -9.379565e+001 
4265625000  -2.264466e+001  -9.337307e+001 
4268750000  -2.175728e+001  -9.722529e+001 
4271875000  -2.154247e+001  -1.032092e+002 
4275000000  -2.090921e+001  -1.093654e+002 
4278125000  -2.154115e+001  -1.207893e+002 
4281250000  -2.330347e+001  -1.227700e+002 
4284375000  -2.303975e+001  -1.222438e+002 
4287500000  -2.381398e+001  -1.255979e+002 
4290625000  -2.505498e+001  -1.161160e+002 
4293750000  -2.306091e+001  -1.105768e+002 
4296875000  -2.170657e+001  -1.219061e+002 
4300000000  -2.257678e+001  -1.313108e+002 
4303125000  -2.371803e+001  -1.299896e+002 
4306250000  -2.312429e+001  -1.238328e+002 
4309375000  -2.171789e+001  -1.258900e+002 
4312500000  -2.164507e+001  -1.344131e+002 
4315625000  -2.185658e+001  -1.405077e+002 
4318750000  -2.218440e+001  -1.438286e+002 
4321875000  -2.237089e+001  -1.431487e+002 
4325000000  -2.180394e+001  -1.425948e+002 
4328125000  -2.130740e+001  -1.488219e+002 
4331250000  -2.124237e+001  -1.568978e+002 
4334375000  -2.165128e+001  -1.618406e+002 
4337500000  -2.247961e+001  -1.640275e+002 
4340625000  -2.307685e+001  -1.608707e+002 
4343750000  -2.245768e+001  -1.604307e+002 
4346875000  -2.207086e+001  -1.659530e+002 
4350000000  -2.209606e+001  -1.706536e+002 
4353125000  -2.210811e+001  -1.779792e+002 
4356250000  -2.384689e+001  -1.793570e+002 
4359375000  -2.450300e+001  -1.659197e+002 
4362500000  -2.179706e+001  -1.635237e+002 
4365625000  -2.013668e+001  -1.754065e+002 
4368750000  -2.085781e+001  1.726767e+002 
4371875000  -2.207809e+001  1.730309e+002 
4375000000  -2.176031e+001  1.743096e+002 
4378125000  -2.106754e+001  1.684128e+002 
4381250000  -2.124926e+001  1.630278e+002 
4384375000  -2.109351e+001  1.587019e+002 
4387500000  -2.179096e+001  1.527304e+002 
4390625000  -2.279912e+001  1.536904e+002 
4393750000  -2.209700e+001  1.558581e+002 
4396875000  -2.147874e+001  1.535952e+002 
4400000000  -2.098618e+001  1.465404e+002 
4403125000  -2.153391e+001  1.390216e+002 
4406250000  -2.238590e+001  1.377513e+002 
4409375000  -2.232825e+001  1.354547e+002 
4412500000  -2.337156e+001  1.326222e+002 
4415625000  -2.378468e+001  1.377441e+002 
4418750000  -2.257487e+001  1.423643e+002 
