!Agilent Technologies,E8363B,MY43030201,A.06.04.32
!Agilent E8363B: A.06.04.32
!Date: Tuesday, November 11, 2014 20:50:18
!Correction: S21(Response(S21)) 
!S1P File: Measurement: S21:
# Hz S  dB   R 50
3000000000  -2.654984e+001  1.525879e+002 
3003125000  -2.797225e+001  1.480685e+002 
3006250000  -2.797280e+001  1.453913e+002 
3009375000  -2.835121e+001  1.505064e+002 
3012500000  -2.782756e+001  1.500089e+002 
3015625000  -2.689454e+001  1.429408e+002 
3018750000  -2.775099e+001  1.420453e+002 
3021875000  -2.642222e+001  1.433565e+002 
3025000000  -2.514325e+001  1.403171e+002 
3028125000  -2.415590e+001  1.352083e+002 
3031250000  -2.312380e+001  1.241233e+002 
3034375000  -2.276517e+001  1.112096e+002 
3037500000  -2.312472e+001  9.923178e+001 
3040625000  -2.445583e+001  9.422099e+001 
3043750000  -2.515445e+001  8.971699e+001 
3046875000  -2.527308e+001  8.334171e+001 
3050000000  -2.702041e+001  7.640639e+001 
3053125000  -2.719358e+001  8.282418e+001 
3056250000  -2.644049e+001  8.616599e+001 
3059375000  -2.673431e+001  8.595522e+001 
3062500000  -2.523249e+001  8.165125e+001 
3065625000  -2.504346e+001  7.601640e+001 
3068750000  -2.474680e+001  6.918436e+001 
3071875000  -2.469338e+001  6.628401e+001 
3075000000  -2.466448e+001  6.240734e+001 
3078125000  -2.439494e+001  5.791421e+001 
3081250000  -2.502944e+001  5.366822e+001 
3084375000  -2.425554e+001  5.007718e+001 
3087500000  -2.415329e+001  4.639621e+001 
3090625000  -2.386094e+001  3.657748e+001 
3093750000  -2.431252e+001  2.874257e+001 
3096875000  -2.557492e+001  2.270851e+001 
3100000000  -2.573172e+001  2.142957e+001 
3103125000  -2.611321e+001  2.267575e+001 
3106250000  -2.581898e+001  1.916431e+001 
3109375000  -2.607014e+001  1.578927e+001 
3112500000  -2.618782e+001  1.484875e+001 
3115625000  -2.598219e+001  1.034614e+001 
3118750000  -2.646760e+001  1.178454e+001 
3121875000  -2.578059e+001  3.885448e+000 
3125000000  -2.695918e+001  2.636980e-001 
3128125000  -2.817574e+001  8.387013e+000 
3131250000  -2.600215e+001  8.915617e+000 
3134375000  -2.466501e+001  -4.484795e+000 
3137500000  -2.528189e+001  -1.834458e+001 
3140625000  -2.691874e+001  -1.978660e+001 
3143750000  -2.796536e+001  -1.577066e+001 
3146875000  -2.751632e+001  -1.392085e+001 
3150000000  -2.653089e+001  -1.175451e+001 
3153125000  -2.652590e+001  -1.943716e+001 
3156250000  -2.747558e+001  -1.410108e+001 
3159375000  -2.591235e+001  -1.119084e+001 
3162500000  -2.395452e+001  -2.400321e+001 
3165625000  -2.481869e+001  -3.488768e+001 
3168750000  -2.522568e+001  -3.412347e+001 
3171875000  -2.427199e+001  -3.855241e+001 
3175000000  -2.493896e+001  -4.609208e+001 
3178125000  -2.470540e+001  -4.440231e+001 
3181250000  -2.349799e+001  -4.835356e+001 
3184375000  -2.271732e+001  -6.077188e+001 
3187500000  -2.385237e+001  -7.587416e+001 
3190625000  -2.661608e+001  -8.340067e+001 
3193750000  -2.724291e+001  -7.373125e+001 
3196875000  -2.678120e+001  -6.835368e+001 
3200000000  -2.593068e+001  -7.011557e+001 
3203125000  -2.506766e+001  -7.587433e+001 
3206250000  -2.535120e+001  -8.206139e+001 
3209375000  -2.489870e+001  -8.705766e+001 
3212500000  -2.501794e+001  -9.425937e+001 
3215625000  -2.517403e+001  -9.817706e+001 
3218750000  -2.591135e+001  -1.042363e+002 
3221875000  -2.687597e+001  -1.092356e+002 
3225000000  -2.651586e+001  -1.097095e+002 
3228125000  -2.681890e+001  -1.144948e+002 
3231250000  -2.758251e+001  -1.171920e+002 
3234375000  -2.740495e+001  -1.160551e+002 
3237500000  -2.743497e+001  -1.178251e+002 
3240625000  -2.712879e+001  -1.195680e+002 
3243750000  -2.677874e+001  -1.260022e+002 
3246875000  -2.723282e+001  -1.327181e+002 
3250000000  -2.767584e+001  -1.346496e+002 
3253125000  -2.785733e+001  -1.362634e+002 
3256250000  -2.774332e+001  -1.419881e+002 
3259375000  -2.805990e+001  -1.497442e+002 
3262500000  -2.927006e+001  -1.522478e+002 
3265625000  -3.004849e+001  -1.493492e+002 
3268750000  -3.002205e+001  -1.468998e+002 
3271875000  -2.970667e+001  -1.454973e+002 
3275000000  -2.867288e+001  -1.504526e+002 
3278125000  -2.911197e+001  -1.567511e+002 
3281250000  -2.937266e+001  -1.552215e+002 
3284375000  -2.889401e+001  -1.608353e+002 
3287500000  -2.911647e+001  -1.639064e+002 
3290625000  -2.958245e+001  -1.682958e+002 
3293750000  -2.920524e+001  -1.733479e+002 
3296875000  -3.019980e+001  -1.733653e+002 
3300000000  -3.005283e+001  -1.719320e+002 
3303125000  -2.887951e+001  -1.756734e+002 
3306250000  -2.862687e+001  1.778085e+002 
3309375000  -2.838875e+001  1.727561e+002 
3312500000  -2.849949e+001  1.621654e+002 
3315625000  -2.950284e+001  1.546653e+002 
3318750000  -3.078266e+001  1.521656e+002 
3321875000  -3.205762e+001  1.520654e+002 
3325000000  -3.266747e+001  1.566067e+002 
3328125000  -3.246306e+001  1.586637e+002 
3331250000  -3.115439e+001  1.658872e+002 
3334375000  -2.861346e+001  1.560493e+002 
3337500000  -2.859663e+001  1.381317e+002 
3340625000  -2.999491e+001  1.272868e+002 
3343750000  -3.192639e+001  1.258814e+002 
3346875000  -3.252924e+001  1.269942e+002 
3350000000  -3.178779e+001  1.262828e+002 
3353125000  -3.195280e+001  1.220301e+002 
3356250000  -3.160641e+001  1.140795e+002 
3359375000  -3.258953e+001  1.056365e+002 
3362500000  -3.377950e+001  1.000491e+002 
3365625000  -3.439030e+001  9.875546e+001 
3368750000  -3.538516e+001  9.786703e+001 
3371875000  -3.567147e+001  9.329116e+001 
3375000000  -3.731021e+001  9.138113e+001 
3378125000  -3.836877e+001  9.022204e+001 
3381250000  -3.999584e+001  9.892812e+001 
3384375000  -3.885102e+001  1.195168e+002 
3387500000  -3.598544e+001  1.057763e+002 
3390625000  -3.785801e+001  8.568925e+001 
3393750000  -3.964425e+001  9.076419e+001 
3396875000  -3.866408e+001  9.439915e+001 
3400000000  -3.842336e+001  8.764277e+001 
3403125000  -3.975444e+001  8.321265e+001 
3406250000  -4.031475e+001  8.513481e+001 
3409375000  -4.092265e+001  8.041831e+001 
3412500000  -4.189349e+001  8.257567e+001 
3415625000  -4.276014e+001  8.613263e+001 
3418750000  -4.334465e+001  9.208945e+001 
3421875000  -4.365926e+001  9.627483e+001 
3425000000  -4.264578e+001  1.017426e+002 
3428125000  -4.180513e+001  1.005352e+002 
3431250000  -4.163763e+001  9.749986e+001 
3434375000  -4.108149e+001  9.359082e+001 
3437500000  -4.164503e+001  9.198211e+001 
3440625000  -4.223034e+001  9.455252e+001 
3443750000  -4.096008e+001  9.639691e+001 
3446875000  -3.984078e+001  9.201357e+001 
3450000000  -3.986111e+001  8.415367e+001 
3453125000  -4.009337e+001  7.283054e+001 
3456250000  -4.112499e+001  6.926605e+001 
3459375000  -4.229736e+001  7.212491e+001 
3462500000  -4.201949e+001  7.190855e+001 
3465625000  -4.216777e+001  6.690187e+001 
3468750000  -4.287989e+001  6.286829e+001 
3471875000  -4.264175e+001  6.528054e+001 
3475000000  -4.276157e+001  6.175571e+001 
3478125000  -4.353456e+001  5.625577e+001 
3481250000  -4.453901e+001  5.517560e+001 
3484375000  -4.612983e+001  6.157696e+001 
3487500000  -4.565933e+001  6.075873e+001 
3490625000  -4.520197e+001  5.891403e+001 
3493750000  -4.601849e+001  5.794118e+001 
3496875000  -4.687849e+001  6.011641e+001 
3500000000  -4.826160e+001  6.674181e+001 
3503125000  -4.810694e+001  7.127129e+001 
3506250000  -4.646080e+001  7.269859e+001 
3509375000  -4.714347e+001  6.904070e+001 
3512500000  -4.773787e+001  6.838754e+001 
3515625000  -4.779570e+001  7.210178e+001 
3518750000  -4.914447e+001  7.496681e+001 
3521875000  -4.762720e+001  8.225050e+001 
3525000000  -4.820952e+001  8.322253e+001 
3528125000  -4.795642e+001  9.234825e+001 
3531250000  -4.591265e+001  9.408279e+001 
3534375000  -4.544817e+001  8.560862e+001 
3537500000  -4.526456e+001  8.217636e+001 
3540625000  -4.546369e+001  8.428637e+001 
3543750000  -4.623489e+001  8.814596e+001 
3546875000  -4.581017e+001  9.839818e+001 
3550000000  -4.301659e+001  1.007743e+002 
3553125000  -4.165603e+001  8.536199e+001 
3556250000  -4.260390e+001  7.755401e+001 
3559375000  -4.234438e+001  8.092339e+001 
3562500000  -4.133847e+001  7.413376e+001 
3565625000  -4.192068e+001  6.646746e+001 
3568750000  -4.176960e+001  6.925546e+001 
3571875000  -4.161114e+001  7.139021e+001 
3575000000  -4.110585e+001  6.557508e+001 
3578125000  -4.158191e+001  6.031253e+001 
3581250000  -4.169957e+001  6.274207e+001 
3584375000  -4.095062e+001  6.206980e+001 
3587500000  -4.020436e+001  5.603610e+001 
3590625000  -4.063758e+001  4.745343e+001 
3593750000  -4.126142e+001  4.564281e+001 
3596875000  -4.164764e+001  5.253395e+001 
3600000000  -3.980644e+001  5.001560e+001 
3603125000  -4.010735e+001  3.826979e+001 
3606250000  -4.064685e+001  3.552074e+001 
3609375000  -4.119849e+001  3.566323e+001 
3612500000  -4.162894e+001  3.320316e+001 
3615625000  -4.148341e+001  3.154116e+001 
3618750000  -4.205489e+001  3.233339e+001 
3621875000  -4.186371e+001  3.180869e+001 
3625000000  -4.191785e+001  3.159049e+001 
3628125000  -4.211379e+001  3.181480e+001 
3631250000  -4.148359e+001  2.827085e+001 
3634375000  -4.233425e+001  2.752600e+001 
3637500000  -4.212662e+001  3.632233e+001 
3640625000  -4.129887e+001  3.416840e+001 
3643750000  -4.098318e+001  2.917936e+001 
3646875000  -4.132655e+001  2.271432e+001 
3650000000  -4.174656e+001  2.276692e+001 
3653125000  -4.151704e+001  2.394530e+001 
3656250000  -4.158871e+001  2.177071e+001 
3659375000  -4.213225e+001  2.434929e+001 
3662500000  -4.135694e+001  2.292028e+001 
3665625000  -4.167196e+001  2.260184e+001 
3668750000  -4.041911e+001  2.465087e+001 
3671875000  -3.919180e+001  2.034638e+001 
3675000000  -3.989838e+001  1.565633e+001 
3678125000  -4.042095e+001  1.589962e+001 
3681250000  -4.015185e+001  1.744961e+001 
3684375000  -3.983448e+001  1.427271e+001 
3687500000  -4.016129e+001  1.365668e+001 
3690625000  -3.996130e+001  1.202123e+001 
3693750000  -4.059014e+001  1.481015e+001 
3696875000  -4.052463e+001  1.822174e+001 
3700000000  -3.902436e+001  1.475973e+001 
3703125000  -3.901342e+001  1.215517e+001 
3706250000  -3.976794e+001  1.312398e+001 
3709375000  -3.920963e+001  1.925051e+001 
3712500000  -3.755385e+001  1.731912e+001 
3715625000  -3.664451e+001  1.171627e+001 
3718750000  -3.606546e+001  9.547242e+000 
3721875000  -3.538806e+001  3.574145e+000 
3725000000  -3.551912e+001  -7.405456e-001 
3728125000  -3.558585e+001  -1.767060e+000 
3731250000  -3.493603e+001  -1.630870e+000 
3734375000  -3.395765e+001  -8.067004e+000 
3737500000  -3.443502e+001  -1.454315e+001 
3740625000  -3.502653e+001  -1.856981e+001 
3743750000  -3.484220e+001  -2.051819e+001 
3746875000  -3.477891e+001  -2.410859e+001 
3750000000  -3.513688e+001  -2.493673e+001 
3753125000  -3.467338e+001  -2.512008e+001 
3756250000  -3.468967e+001  -2.583783e+001 
3759375000  -3.436775e+001  -2.684922e+001 
3762500000  -3.389375e+001  -3.100656e+001 
3765625000  -3.421315e+001  -3.304125e+001 
3768750000  -3.441498e+001  -3.088380e+001 
3771875000  -3.262347e+001  -3.396811e+001 
3775000000  -3.238549e+001  -4.096231e+001 
3778125000  -3.264972e+001  -4.320366e+001 
3781250000  -3.252680e+001  -4.563228e+001 
3784375000  -3.247109e+001  -4.784048e+001 
3787500000  -3.171411e+001  -5.129658e+001 
3790625000  -3.238961e+001  -5.762957e+001 
3793750000  -3.251323e+001  -5.803927e+001 
3796875000  -3.153103e+001  -5.878262e+001 
3800000000  -3.010547e+001  -6.325156e+001 
3803125000  -3.086765e+001  -6.951900e+001 
3806250000  -3.144642e+001  -7.241436e+001 
3809375000  -3.117546e+001  -7.343755e+001 
3812500000  -3.059211e+001  -7.796702e+001 
3815625000  -3.118634e+001  -8.566528e+001 
3818750000  -3.211769e+001  -8.714875e+001 
3821875000  -3.230855e+001  -7.770750e+001 
3825000000  -3.022829e+001  -7.417507e+001 
3828125000  -2.902234e+001  -8.791171e+001 
3831250000  -2.944377e+001  -1.017391e+002 
3834375000  -3.074965e+001  -1.028496e+002 
3837500000  -3.166913e+001  -9.787102e+001 
3840625000  -3.059089e+001  -9.901847e+001 
3843750000  -2.946362e+001  -1.091574e+002 
3846875000  -3.010691e+001  -1.155813e+002 
3850000000  -3.133872e+001  -1.101327e+002 
3853125000  -3.055403e+001  -1.079958e+002 
3856250000  -3.054088e+001  -1.127916e+002 
3859375000  -2.980052e+001  -1.167881e+002 
3862500000  -2.940199e+001  -1.243639e+002 
3865625000  -2.963344e+001  -1.288441e+002 
3868750000  -2.968688e+001  -1.298600e+002 
3871875000  -2.899732e+001  -1.318828e+002 
3875000000  -2.909162e+001  -1.403624e+002 
3878125000  -3.007497e+001  -1.429765e+002 
3881250000  -3.015959e+001  -1.406104e+002 
3884375000  -2.967885e+001  -1.445267e+002 
3887500000  -2.974887e+001  -1.493750e+002 
3890625000  -3.026321e+001  -1.509264e+002 
3893750000  -3.070723e+001  -1.529372e+002 
3896875000  -3.080701e+001  -1.519446e+002 
3900000000  -3.102020e+001  -1.530444e+002 
3903125000  -3.063542e+001  -1.555973e+002 
3906250000  -3.041961e+001  -1.558436e+002 
3909375000  -2.982567e+001  -1.585356e+002 
3912500000  -2.982850e+001  -1.654297e+002 
3915625000  -3.099785e+001  -1.649057e+002 
3918750000  -3.097766e+001  -1.635430e+002 
3921875000  -3.068291e+001  -1.652215e+002 
3925000000  -2.991069e+001  -1.660345e+002 
3928125000  -2.912168e+001  -1.713737e+002 
3931250000  -2.962273e+001  -1.749462e+002 
3934375000  -2.992984e+001  -1.751364e+002 
3937500000  -2.994293e+001  -1.761528e+002 
3940625000  -3.048497e+001  -1.757886e+002 
3943750000  -2.948943e+001  -1.742746e+002 
3946875000  -2.825677e+001  1.797368e+002 
3950000000  -2.876688e+001  1.726712e+002 
3953125000  -2.975747e+001  1.738360e+002 
3956250000  -2.896889e+001  1.767794e+002 
3959375000  -2.753656e+001  1.732262e+002 
3962500000  -2.705952e+001  1.690691e+002 
3965625000  -2.665343e+001  1.606308e+002 
3968750000  -2.758932e+001  1.537662e+002 
3971875000  -2.800100e+001  1.519983e+002 
3975000000  -2.727053e+001  1.506143e+002 
3978125000  -2.703522e+001  1.493920e+002 
3981250000  -2.681417e+001  1.449723e+002 
3984375000  -2.708039e+001  1.385748e+002 
3987500000  -2.755560e+001  1.363117e+002 
3990625000  -2.756642e+001  1.354192e+002 
3993750000  -2.770570e+001  1.322476e+002 
3996875000  -2.771020e+001  1.296741e+002 
4000000000  -2.781979e+001  1.274311e+002 
4003125000  -2.844917e+001  1.300204e+002 
4006250000  -2.704040e+001  1.305864e+002 
4009375000  -2.580177e+001  1.179754e+002 
4012500000  -2.682317e+001  1.109748e+002 
4015625000  -2.817741e+001  1.110918e+002 
4018750000  -2.830585e+001  1.135082e+002 
4021875000  -2.759161e+001  1.118153e+002 
4025000000  -2.725493e+001  1.072016e+002 
4028125000  -2.721863e+001  1.032050e+002 
4031250000  -2.764931e+001  9.959924e+001 
4034375000  -2.790520e+001  1.000016e+002 
4037500000  -2.743050e+001  1.020166e+002 
4040625000  -2.735805e+001  9.815726e+001 
4043750000  -2.767005e+001  9.769434e+001 
4046875000  -2.721562e+001  9.779710e+001 
4050000000  -2.676094e+001  9.247662e+001 
4053125000  -2.718465e+001  8.977760e+001 
4056250000  -2.782101e+001  9.367449e+001 
4059375000  -2.658483e+001  9.547205e+001 
4062500000  -2.522531e+001  9.124720e+001 
4065625000  -2.511820e+001  8.698750e+001 
4068750000  -2.482549e+001  8.231409e+001 
4071875000  -2.420293e+001  7.448529e+001 
4075000000  -2.454008e+001  6.810438e+001 
4078125000  -2.510262e+001  6.724190e+001 
4081250000  -2.454956e+001  6.489497e+001 
4084375000  -2.420296e+001  5.838657e+001 
4087500000  -2.448315e+001  5.185685e+001 
4090625000  -2.510356e+001  5.105689e+001 
4093750000  -2.490308e+001  5.173570e+001 
4096875000  -2.449665e+001  4.572585e+001 
4100000000  -2.516152e+001  3.894347e+001 
4103125000  -2.603227e+001  3.951402e+001 
4106250000  -2.587473e+001  4.439490e+001 
4109375000  -2.501008e+001  4.361021e+001 
4112500000  -2.447164e+001  3.693278e+001 
4115625000  -2.474674e+001  3.279132e+001 
4118750000  -2.485113e+001  2.998515e+001 
4121875000  -2.450526e+001  2.520664e+001 
4125000000  -2.483667e+001  2.037169e+001 
4128125000  -2.584028e+001  2.028634e+001 
4131250000  -2.557194e+001  2.826155e+001 
4134375000  -2.319674e+001  2.416042e+001 
4137500000  -2.303244e+001  5.139983e+000 
4140625000  -2.514941e+001  -1.914420e+000 
4143750000  -2.644890e+001  3.030997e+000 
4146875000  -2.600997e+001  1.012805e+001 
4150000000  -2.513943e+001  7.326928e+000 
4153125000  -2.497791e+001  5.436807e-001 
4156250000  -2.583549e+001  -2.163688e+000 
4159375000  -2.617223e+001  1.965756e+000 
4162500000  -2.494871e+001  6.373743e+000 
4165625000  -2.392143e+001  2.343003e+000 
4168750000  -2.329784e+001  -4.813139e+000 
4171875000  -2.326845e+001  -1.372965e+001 
4175000000  -2.387576e+001  -1.948757e+001 
4178125000  -2.447957e+001  -1.954700e+001 
4181250000  -2.430198e+001  -2.027603e+001 
4184375000  -2.414912e+001  -2.345479e+001 
4187500000  -2.419931e+001  -2.598180e+001 
4190625000  -2.402873e+001  -3.133888e+001 
4193750000  -2.480393e+001  -3.499364e+001 
4196875000  -2.553356e+001  -3.569830e+001 
4200000000  -2.633825e+001  -3.306932e+001 
4203125000  -2.634778e+001  -2.030400e+001 
4206250000  -2.307177e+001  -1.826355e+001 
4209375000  -2.189027e+001  -3.877068e+001 
4212500000  -2.375567e+001  -4.769451e+001 
4215625000  -2.480419e+001  -4.151929e+001 
4218750000  -2.349252e+001  -3.462674e+001 
4221875000  -2.116150e+001  -4.364411e+001 
4225000000  -2.237370e+001  -5.642261e+001 
4228125000  -2.306459e+001  -5.106654e+001 
4231250000  -2.150887e+001  -5.499510e+001 
4234375000  -2.144720e+001  -6.314613e+001 
4237500000  -2.101180e+001  -6.666064e+001 
4240625000  -2.100701e+001  -7.504933e+001 
4243750000  -2.197310e+001  -8.196718e+001 
4246875000  -2.285667e+001  -8.199820e+001 
4250000000  -2.288923e+001  -7.938459e+001 
4253125000  -2.231942e+001  -8.113363e+001 
4256250000  -2.257910e+001  -8.499470e+001 
4259375000  -2.237190e+001  -8.739304e+001 
4262500000  -2.237299e+001  -9.085432e+001 
4265625000  -2.251384e+001  -9.050552e+001 
4268750000  -2.166567e+001  -9.469954e+001 
4271875000  -2.141973e+001  -1.004747e+002 
4275000000  -2.077638e+001  -1.065139e+002 
4278125000  -2.136117e+001  -1.179870e+002 
4281250000  -2.314876e+001  -1.198522e+002 
4284375000  -2.282747e+001  -1.193749e+002 
4287500000  -2.359605e+001  -1.229289e+002 
4290625000  -2.487534e+001  -1.137813e+002 
4293750000  -2.294031e+001  -1.080314e+002 
4296875000  -2.156403e+001  -1.192574e+002 
4300000000  -2.242410e+001  -1.285115e+002 
4303125000  -2.353635e+001  -1.273248e+002 
4306250000  -2.297841e+001  -1.214011e+002 
4309375000  -2.157057e+001  -1.232011e+002 
4312500000  -2.145443e+001  -1.318232e+002 
4315625000  -2.168017e+001  -1.379323e+002 
4318750000  -2.201243e+001  -1.413413e+002 
4321875000  -2.218719e+001  -1.407237e+002 
4325000000  -2.156842e+001  -1.403448e+002 
4328125000  -2.110372e+001  -1.465515e+002 
4331250000  -2.101300e+001  -1.545917e+002 
4334375000  -2.145556e+001  -1.595630e+002 
4337500000  -2.225552e+001  -1.616702e+002 
4340625000  -2.281613e+001  -1.584591e+002 
4343750000  -2.225538e+001  -1.578404e+002 
4346875000  -2.185647e+001  -1.634998e+002 
4350000000  -2.183684e+001  -1.682082e+002 
4353125000  -2.189210e+001  -1.756910e+002 
4356250000  -2.363010e+001  -1.768535e+002 
4359375000  -2.426373e+001  -1.638575e+002 
4362500000  -2.159476e+001  -1.615114e+002 
4365625000  -1.998057e+001  -1.733886e+002 
4368750000  -2.063946e+001  1.748486e+002 
4371875000  -2.188720e+001  1.754580e+002 
4375000000  -2.148806e+001  1.764281e+002 
4378125000  -2.092350e+001  1.707046e+002 
4381250000  -2.104182e+001  1.652443e+002 
4384375000  -2.085865e+001  1.607895e+002 
4387500000  -2.157871e+001  1.550546e+002 
4390625000  -2.258482e+001  1.557103e+002 
4393750000  -2.195426e+001  1.580827e+002 
4396875000  -2.125167e+001  1.556312e+002 
4400000000  -2.076246e+001  1.488358e+002 
4403125000  -2.132313e+001  1.412173e+002 
4406250000  -2.219442e+001  1.398040e+002 
4409375000  -2.210677e+001  1.376240e+002 
4412500000  -2.310534e+001  1.350940e+002 
4415625000  -2.353527e+001  1.399298e+002 
4418750000  -2.235788e+001  1.441373e+002 
