!Agilent Technologies,E8363B,MY43030201,A.06.04.32
!Agilent E8363B: A.06.04.32
!Date: Tuesday, November 11, 2014 20:45:46
!Correction: S21(Response(S21)) 
!S1P File: Measurement: S21:
# Hz S  dB   R 50
3000000000  -2.651068e+001  1.587280e+002 
3003125000  -2.791687e+001  1.541035e+002 
3006250000  -2.796354e+001  1.512182e+002 
3009375000  -2.827824e+001  1.563877e+002 
3012500000  -2.786455e+001  1.560000e+002 
3015625000  -2.680927e+001  1.489490e+002 
3018750000  -2.771567e+001  1.482672e+002 
3021875000  -2.644499e+001  1.494870e+002 
3025000000  -2.516764e+001  1.464849e+002 
3028125000  -2.415720e+001  1.417720e+002 
3031250000  -2.312618e+001  1.305844e+002 
3034375000  -2.277522e+001  1.177115e+002 
3037500000  -2.308697e+001  1.054609e+002 
3040625000  -2.442479e+001  1.005066e+002 
3043750000  -2.515352e+001  9.619936e+001 
3046875000  -2.519045e+001  8.969032e+001 
3050000000  -2.699354e+001  8.293028e+001 
3053125000  -2.712751e+001  8.915268e+001 
3056250000  -2.641735e+001  9.225532e+001 
3059375000  -2.671412e+001  9.183117e+001 
3062500000  -2.523450e+001  8.823104e+001 
3065625000  -2.502682e+001  8.258230e+001 
3068750000  -2.474473e+001  7.563303e+001 
3071875000  -2.467497e+001  7.238319e+001 
3075000000  -2.465519e+001  6.893203e+001 
3078125000  -2.433552e+001  6.432613e+001 
3081250000  -2.498895e+001  6.037661e+001 
3084375000  -2.427374e+001  5.644137e+001 
3087500000  -2.409594e+001  5.315447e+001 
3090625000  -2.383701e+001  4.359242e+001 
3093750000  -2.422044e+001  3.524015e+001 
3096875000  -2.554152e+001  2.909433e+001 
3100000000  -2.570057e+001  2.771465e+001 
3103125000  -2.605133e+001  2.917729e+001 
3106250000  -2.580005e+001  2.568297e+001 
3109375000  -2.599770e+001  2.216011e+001 
3112500000  -2.614073e+001  2.129534e+001 
3115625000  -2.592520e+001  1.686381e+001 
3118750000  -2.644252e+001  1.824387e+001 
3121875000  -2.577599e+001  1.021379e+001 
3125000000  -2.682034e+001  6.366269e+000 
3128125000  -2.815604e+001  1.448988e+001 
3131250000  -2.598995e+001  1.542260e+001 
3134375000  -2.459207e+001  1.688340e+000 
3137500000  -2.524530e+001  -1.210636e+001 
3140625000  -2.689219e+001  -1.409958e+001 
3143750000  -2.787445e+001  -9.405008e+000 
3146875000  -2.755391e+001  -7.617758e+000 
3150000000  -2.649955e+001  -5.453757e+000 
3153125000  -2.645148e+001  -1.343745e+001 
3156250000  -2.743155e+001  -8.043365e+000 
3159375000  -2.593300e+001  -5.117558e+000 
3162500000  -2.387373e+001  -1.759422e+001 
3165625000  -2.475921e+001  -2.857263e+001 
3168750000  -2.523180e+001  -2.786348e+001 
3171875000  -2.423288e+001  -3.171278e+001 
3175000000  -2.485056e+001  -3.959681e+001 
3178125000  -2.469823e+001  -3.821616e+001 
3181250000  -2.350305e+001  -4.184967e+001 
3184375000  -2.263826e+001  -5.414790e+001 
3187500000  -2.373458e+001  -6.964774e+001 
3190625000  -2.663589e+001  -7.730466e+001 
3193750000  -2.724715e+001  -6.745734e+001 
3196875000  -2.675905e+001  -6.187123e+001 
3200000000  -2.594703e+001  -6.360849e+001 
3203125000  -2.504088e+001  -6.923325e+001 
3206250000  -2.531878e+001  -7.553508e+001 
3209375000  -2.483748e+001  -8.057914e+001 
3212500000  -2.493397e+001  -8.728760e+001 
3215625000  -2.509509e+001  -9.198647e+001 
3218750000  -2.587340e+001  -9.789834e+001 
3221875000  -2.682526e+001  -1.026958e+002 
3225000000  -2.648073e+001  -1.034981e+002 
3228125000  -2.674212e+001  -1.082118e+002 
3231250000  -2.754855e+001  -1.107356e+002 
3234375000  -2.741578e+001  -1.095909e+002 
3237500000  -2.739197e+001  -1.113094e+002 
3240625000  -2.710172e+001  -1.129707e+002 
3243750000  -2.668323e+001  -1.196154e+002 
3246875000  -2.718938e+001  -1.259489e+002 
3250000000  -2.760422e+001  -1.282717e+002 
3253125000  -2.778608e+001  -1.298622e+002 
3256250000  -2.768352e+001  -1.357053e+002 
3259375000  -2.797763e+001  -1.429409e+002 
3262500000  -2.925756e+001  -1.461619e+002 
3265625000  -2.988271e+001  -1.432311e+002 
3268750000  -2.983098e+001  -1.403884e+002 
3271875000  -2.970104e+001  -1.392156e+002 
3275000000  -2.857084e+001  -1.436169e+002 
3278125000  -2.902232e+001  -1.503564e+002 
3281250000  -2.932397e+001  -1.486395e+002 
3284375000  -2.891506e+001  -1.545490e+002 
3287500000  -2.903183e+001  -1.570857e+002 
3290625000  -2.947598e+001  -1.614116e+002 
3293750000  -2.918183e+001  -1.669278e+002 
3296875000  -3.015435e+001  -1.671619e+002 
3300000000  -3.013187e+001  -1.658037e+002 
3303125000  -2.889950e+001  -1.693400e+002 
3306250000  -2.871930e+001  -1.763663e+002 
3309375000  -2.848966e+001  1.789165e+002 
3312500000  -2.847381e+001  1.685644e+002 
3315625000  -2.947807e+001  1.604139e+002 
3318750000  -3.075767e+001  1.578213e+002 
3321875000  -3.203109e+001  1.568253e+002 
3325000000  -3.267194e+001  1.622414e+002 
3328125000  -3.247244e+001  1.635708e+002 
3331250000  -3.126633e+001  1.721172e+002 
3334375000  -2.874358e+001  1.623575e+002 
3337500000  -2.872787e+001  1.443199e+002 
3340625000  -3.004055e+001  1.331871e+002 
3343750000  -3.193423e+001  1.319825e+002 
3346875000  -3.253330e+001  1.333635e+002 
3350000000  -3.187655e+001  1.319680e+002 
3353125000  -3.196611e+001  1.282321e+002 
3356250000  -3.179905e+001  1.201087e+002 
3359375000  -3.256790e+001  1.120199e+002 
3362500000  -3.392788e+001  1.065043e+002 
3365625000  -3.439675e+001  1.047242e+002 
3368750000  -3.545601e+001  1.030158e+002 
3371875000  -3.585889e+001  9.983900e+001 
3375000000  -3.738516e+001  9.777298e+001 
3378125000  -3.831973e+001  9.829421e+001 
3381250000  -3.994336e+001  1.048435e+002 
3384375000  -3.928887e+001  1.251083e+002 
3387500000  -3.601350e+001  1.123300e+002 
3390625000  -3.777348e+001  9.295329e+001 
3393750000  -3.954121e+001  9.648026e+001 
3396875000  -3.888541e+001  1.006059e+002 
3400000000  -3.857050e+001  9.382257e+001 
3403125000  -3.982584e+001  8.859807e+001 
3406250000  -4.046334e+001  9.224735e+001 
3409375000  -4.124338e+001  8.621278e+001 
3412500000  -4.210788e+001  8.785073e+001 
3415625000  -4.286509e+001  9.368407e+001 
3418750000  -4.324573e+001  9.612185e+001 
3421875000  -4.353991e+001  1.039479e+002 
3425000000  -4.281094e+001  1.087762e+002 
3428125000  -4.183841e+001  1.038113e+002 
3431250000  -4.180897e+001  1.020012e+002 
3434375000  -4.147448e+001  9.903465e+001 
3437500000  -4.188246e+001  9.934895e+001 
3440625000  -4.221865e+001  1.003753e+002 
3443750000  -4.135182e+001  1.023667e+002 
3446875000  -4.005766e+001  9.946933e+001 
3450000000  -3.994710e+001  8.940992e+001 
3453125000  -4.036239e+001  8.090146e+001 
3456250000  -4.137916e+001  7.641881e+001 
3459375000  -4.237521e+001  7.799135e+001 
3462500000  -4.225985e+001  7.966652e+001 
3465625000  -4.290035e+001  7.454299e+001 
3468750000  -4.313831e+001  7.235297e+001 
3471875000  -4.283818e+001  7.268638e+001 
3475000000  -4.307395e+001  6.839458e+001 
3478125000  -4.386106e+001  6.363449e+001 
3481250000  -4.484445e+001  6.413455e+001 
3484375000  -4.597871e+001  6.864224e+001 
3487500000  -4.604292e+001  7.095681e+001 
3490625000  -4.547040e+001  6.911459e+001 
3493750000  -4.602985e+001  6.441401e+001 
3496875000  -4.743879e+001  6.549706e+001 
3500000000  -4.804350e+001  7.793809e+001 
3503125000  -4.797042e+001  7.926385e+001 
3506250000  -4.689598e+001  7.990076e+001 
3509375000  -4.722442e+001  7.817224e+001 
3512500000  -4.716090e+001  7.677367e+001 
3515625000  -4.791153e+001  8.120251e+001 
3518750000  -4.838028e+001  8.112147e+001 
3521875000  -4.777179e+001  8.919616e+001 
3525000000  -4.830487e+001  9.012447e+001 
3528125000  -4.801146e+001  1.001661e+002 
3531250000  -4.601325e+001  1.015310e+002 
3534375000  -4.562697e+001  9.619901e+001 
3537500000  -4.508466e+001  9.021501e+001 
3540625000  -4.589516e+001  9.096890e+001 
3543750000  -4.619902e+001  9.239009e+001 
3546875000  -4.580202e+001  1.060427e+002 
3550000000  -4.315107e+001  1.075199e+002 
3553125000  -4.126168e+001  9.295672e+001 
3556250000  -4.226603e+001  8.663848e+001 
3559375000  -4.221902e+001  8.872795e+001 
3562500000  -4.108253e+001  8.234418e+001 
3565625000  -4.186355e+001  7.588151e+001 
3568750000  -4.196426e+001  7.983784e+001 
3571875000  -4.173881e+001  7.866798e+001 
3575000000  -4.118085e+001  7.391646e+001 
3578125000  -4.148397e+001  6.877155e+001 
3581250000  -4.195984e+001  7.164000e+001 
3584375000  -4.068010e+001  6.870667e+001 
3587500000  -4.017874e+001  6.292983e+001 
3590625000  -4.043303e+001  5.475663e+001 
3593750000  -4.155721e+001  5.384250e+001 
3596875000  -4.157101e+001  6.141609e+001 
3600000000  -4.005395e+001  5.900547e+001 
3603125000  -3.979768e+001  4.594367e+001 
3606250000  -4.067630e+001  4.343984e+001 
3609375000  -4.088993e+001  4.381563e+001 
3612500000  -4.163456e+001  4.042876e+001 
3615625000  -4.155017e+001  3.787354e+001 
3618750000  -4.184028e+001  3.889613e+001 
3621875000  -4.194757e+001  4.103232e+001 
3625000000  -4.165595e+001  4.082180e+001 
3628125000  -4.187360e+001  3.831757e+001 
3631250000  -4.139342e+001  3.569385e+001 
3634375000  -4.245915e+001  3.587642e+001 
3637500000  -4.193672e+001  4.147762e+001 
3640625000  -4.084472e+001  4.484146e+001 
3643750000  -4.059455e+001  3.805975e+001 
3646875000  -4.140144e+001  3.048307e+001 
3650000000  -4.173778e+001  3.038171e+001 
3653125000  -4.161341e+001  3.032411e+001 
3656250000  -4.174923e+001  2.800798e+001 
3659375000  -4.179396e+001  3.271638e+001 
3662500000  -4.130010e+001  3.231805e+001 
3665625000  -4.137085e+001  3.173339e+001 
3668750000  -4.031741e+001  3.372937e+001 
3671875000  -3.943618e+001  2.861097e+001 
3675000000  -3.984008e+001  2.323931e+001 
3678125000  -4.043794e+001  2.464368e+001 
3681250000  -4.001363e+001  2.560364e+001 
3684375000  -3.967994e+001  2.354964e+001 
3687500000  -4.005089e+001  2.158916e+001 
3690625000  -3.998856e+001  1.923948e+001 
3693750000  -4.013007e+001  2.190489e+001 
3696875000  -4.039645e+001  2.595700e+001 
3700000000  -3.897105e+001  2.347908e+001 
3703125000  -3.865834e+001  2.096083e+001 
3706250000  -3.939633e+001  2.181942e+001 
3709375000  -3.859431e+001  2.491162e+001 
3712500000  -3.749284e+001  2.491692e+001 
3715625000  -3.640297e+001  1.916763e+001 
3718750000  -3.568225e+001  1.664682e+001 
3721875000  -3.520095e+001  1.155698e+001 
3725000000  -3.518483e+001  7.559164e+000 
3728125000  -3.523447e+001  5.720306e+000 
3731250000  -3.470555e+001  4.796736e+000 
3734375000  -3.358691e+001  -3.819213e-001 
3737500000  -3.420735e+001  -9.610022e+000 
3740625000  -3.490121e+001  -1.159820e+001 
3743750000  -3.456785e+001  -1.402989e+001 
3746875000  -3.457141e+001  -1.730621e+001 
3750000000  -3.488895e+001  -1.808505e+001 
3753125000  -3.448918e+001  -1.790825e+001 
3756250000  -3.445586e+001  -1.881801e+001 
3759375000  -3.423153e+001  -1.939989e+001 
3762500000  -3.371683e+001  -2.381552e+001 
3765625000  -3.407271e+001  -2.622124e+001 
3768750000  -3.416373e+001  -2.455858e+001 
3771875000  -3.243976e+001  -2.595986e+001 
3775000000  -3.221033e+001  -3.430144e+001 
3778125000  -3.257090e+001  -3.661420e+001 
3781250000  -3.233467e+001  -3.852087e+001 
3784375000  -3.220119e+001  -4.138953e+001 
3787500000  -3.156445e+001  -4.457043e+001 
3790625000  -3.216827e+001  -5.094225e+001 
3793750000  -3.238374e+001  -5.137889e+001 
3796875000  -3.153342e+001  -5.346437e+001 
3800000000  -2.992686e+001  -5.632173e+001 
3803125000  -3.066253e+001  -6.303888e+001 
3806250000  -3.132335e+001  -6.565268e+001 
3809375000  -3.105295e+001  -6.624088e+001 
3812500000  -3.043584e+001  -7.069657e+001 
3815625000  -3.102179e+001  -7.842332e+001 
3818750000  -3.187168e+001  -8.011009e+001 
3821875000  -3.205154e+001  -7.215244e+001 
3825000000  -3.020420e+001  -6.675734e+001 
3828125000  -2.890640e+001  -8.079911e+001 
3831250000  -2.932882e+001  -9.511389e+001 
3834375000  -3.066536e+001  -9.648059e+001 
3837500000  -3.149300e+001  -9.122076e+001 
3840625000  -3.053070e+001  -9.176183e+001 
3843750000  -2.926231e+001  -1.013083e+002 
3846875000  -2.982368e+001  -1.087691e+002 
3850000000  -3.122798e+001  -1.035004e+002 
3853125000  -3.034423e+001  -1.007720e+002 
3856250000  -3.030622e+001  -1.054559e+002 
3859375000  -2.982458e+001  -1.103338e+002 
3862500000  -2.931851e+001  -1.169770e+002 
3865625000  -2.952260e+001  -1.214922e+002 
3868750000  -2.956120e+001  -1.226872e+002 
3871875000  -2.884849e+001  -1.257126e+002 
3875000000  -2.890990e+001  -1.334843e+002 
3878125000  -2.988568e+001  -1.369072e+002 
3881250000  -3.005421e+001  -1.341508e+002 
3884375000  -2.953486e+001  -1.380577e+002 
3887500000  -2.964829e+001  -1.420965e+002 
3890625000  -3.010427e+001  -1.441789e+002 
3893750000  -3.055083e+001  -1.460147e+002 
3896875000  -3.070171e+001  -1.460054e+002 
3900000000  -3.096249e+001  -1.464883e+002 
3903125000  -3.059926e+001  -1.485344e+002 
3906250000  -3.035925e+001  -1.496905e+002 
3909375000  -2.974696e+001  -1.516851e+002 
3912500000  -2.961312e+001  -1.590723e+002 
3915625000  -3.081170e+001  -1.591771e+002 
3918750000  -3.090626e+001  -1.570141e+002 
3921875000  -3.060160e+001  -1.581778e+002 
3925000000  -2.978611e+001  -1.591050e+002 
3928125000  -2.916087e+001  -1.650658e+002 
3931250000  -2.945784e+001  -1.687522e+002 
3934375000  -2.974702e+001  -1.687451e+002 
3937500000  -2.983316e+001  -1.693959e+002 
3940625000  -3.032772e+001  -1.690540e+002 
3943750000  -2.946169e+001  -1.674983e+002 
3946875000  -2.821048e+001  -1.723688e+002 
3950000000  -2.864704e+001  1.797383e+002 
3953125000  -2.955632e+001  -1.797942e+002 
3956250000  -2.884645e+001  -1.767007e+002 
3959375000  -2.743151e+001  1.795737e+002 
3962500000  -2.689549e+001  1.762743e+002 
3965625000  -2.653797e+001  1.672833e+002 
3968750000  -2.746847e+001  1.603402e+002 
3971875000  -2.790713e+001  1.594537e+002 
3975000000  -2.717571e+001  1.574139e+002 
3978125000  -2.694406e+001  1.557278e+002 
3981250000  -2.668500e+001  1.514452e+002 
3984375000  -2.696576e+001  1.452568e+002 
3987500000  -2.746725e+001  1.428507e+002 
3990625000  -2.737247e+001  1.419892e+002 
3993750000  -2.760728e+001  1.384712e+002 
3996875000  -2.762484e+001  1.364172e+002 
4000000000  -2.760376e+001  1.342860e+002 
4003125000  -2.820593e+001  1.363685e+002 
4006250000  -2.698080e+001  1.366937e+002 
4009375000  -2.575916e+001  1.247657e+002 
4012500000  -2.667482e+001  1.174063e+002 
4015625000  -2.797005e+001  1.177364e+002 
4018750000  -2.817242e+001  1.198738e+002 
4021875000  -2.751141e+001  1.183867e+002 
4025000000  -2.719075e+001  1.134455e+002 
4028125000  -2.709963e+001  1.096737e+002 
4031250000  -2.759456e+001  1.059310e+002 
4034375000  -2.788053e+001  1.062446e+002 
4037500000  -2.739795e+001  1.078456e+002 
4040625000  -2.729432e+001  1.048425e+002 
4043750000  -2.762746e+001  1.039772e+002 
4046875000  -2.723106e+001  1.039383e+002 
4050000000  -2.673348e+001  9.846543e+001 
4053125000  -2.713840e+001  9.596421e+001 
4056250000  -2.774480e+001  1.000185e+002 
4059375000  -2.663390e+001  1.022350e+002 
4062500000  -2.527978e+001  9.797981e+001 
4065625000  -2.505728e+001  9.329185e+001 
4068750000  -2.486021e+001  8.843769e+001 
4071875000  -2.418851e+001  8.106155e+001 
4075000000  -2.450064e+001  7.449210e+001 
4078125000  -2.507961e+001  7.376477e+001 
4081250000  -2.458670e+001  7.140864e+001 
4084375000  -2.417729e+001  6.517231e+001 
4087500000  -2.446461e+001  5.864532e+001 
4090625000  -2.504804e+001  5.737225e+001 
4093750000  -2.493052e+001  5.844346e+001 
4096875000  -2.447049e+001  5.261900e+001 
4100000000  -2.511003e+001  4.572413e+001 
4103125000  -2.597294e+001  4.583770e+001 
4106250000  -2.588329e+001  5.059031e+001 
4109375000  -2.503407e+001  5.021423e+001 
4112500000  -2.442933e+001  4.365534e+001 
4115625000  -2.469333e+001  3.924421e+001 
4118750000  -2.490717e+001  3.626795e+001 
4121875000  -2.450104e+001  3.218804e+001 
4125000000  -2.473680e+001  2.691370e+001 
4128125000  -2.573818e+001  2.622168e+001 
4131250000  -2.551058e+001  3.450571e+001 
4134375000  -2.326708e+001  3.057920e+001 
4137500000  -2.298832e+001  1.164313e+001 
4140625000  -2.511078e+001  4.141172e+000 
4143750000  -2.641939e+001  8.813213e+000 
4146875000  -2.617109e+001  1.627490e+001 
4150000000  -2.515561e+001  1.339996e+001 
4153125000  -2.499660e+001  6.897822e+000 
4156250000  -2.587040e+001  4.417304e+000 
4159375000  -2.616924e+001  8.612863e+000 
4162500000  -2.507037e+001  1.277149e+001 
4165625000  -2.398376e+001  8.941170e+000 
4168750000  -2.335314e+001  2.010781e+000 
4171875000  -2.330820e+001  -7.345309e+000 
4175000000  -2.387959e+001  -1.299888e+001 
4178125000  -2.452066e+001  -1.297210e+001 
4181250000  -2.444361e+001  -1.361310e+001 
4184375000  -2.427363e+001  -1.649911e+001 
4187500000  -2.430947e+001  -1.925960e+001 
4190625000  -2.407527e+001  -2.437572e+001 
4193750000  -2.484296e+001  -2.822865e+001 
4196875000  -2.560005e+001  -2.895118e+001 
4200000000  -2.638548e+001  -2.692849e+001 
4203125000  -2.659216e+001  -1.406999e+001 
4206250000  -2.328223e+001  -1.169094e+001 
4209375000  -2.194922e+001  -3.168262e+001 
4212500000  -2.379060e+001  -4.085540e+001 
4215625000  -2.482985e+001  -3.516011e+001 
4218750000  -2.363050e+001  -2.763373e+001 
4221875000  -2.124165e+001  -3.691199e+001 
4225000000  -2.242778e+001  -4.941442e+001 
4228125000  -2.321195e+001  -4.463509e+001 
4231250000  -2.161662e+001  -4.814946e+001 
4234375000  -2.156583e+001  -5.629772e+001 
4237500000  -2.108908e+001  -5.944978e+001 
4240625000  -2.112122e+001  -6.800706e+001 
4243750000  -2.203180e+001  -7.483947e+001 
4246875000  -2.287638e+001  -7.521416e+001 
4250000000  -2.293611e+001  -7.247160e+001 
4253125000  -2.236229e+001  -7.429652e+001 
4256250000  -2.264655e+001  -7.839535e+001 
4259375000  -2.245608e+001  -8.032823e+001 
4262500000  -2.248563e+001  -8.414970e+001 
4265625000  -2.259659e+001  -8.391127e+001 
4268750000  -2.180875e+001  -8.802270e+001 
4271875000  -2.150274e+001  -9.347755e+001 
4275000000  -2.087699e+001  -9.950440e+001 
4278125000  -2.140680e+001  -1.108273e+002 
4281250000  -2.324921e+001  -1.135507e+002 
4284375000  -2.301791e+001  -1.123541e+002 
4287500000  -2.373347e+001  -1.158824e+002 
4290625000  -2.499167e+001  -1.071101e+002 
4293750000  -2.308228e+001  -1.005356e+002 
4296875000  -2.168653e+001  -1.122923e+002 
4300000000  -2.256962e+001  -1.216275e+002 
4303125000  -2.369571e+001  -1.206007e+002 
4306250000  -2.313227e+001  -1.147694e+002 
4309375000  -2.175113e+001  -1.158858e+002 
4312500000  -2.161389e+001  -1.247377e+002 
4315625000  -2.181848e+001  -1.302297e+002 
4318750000  -2.214182e+001  -1.338393e+002 
4321875000  -2.232859e+001  -1.334391e+002 
4325000000  -2.174049e+001  -1.329251e+002 
4328125000  -2.125145e+001  -1.391425e+002 
4331250000  -2.122037e+001  -1.469873e+002 
4334375000  -2.159749e+001  -1.518677e+002 
4337500000  -2.240936e+001  -1.540651e+002 
4340625000  -2.295255e+001  -1.511846e+002 
4343750000  -2.244837e+001  -1.503833e+002 
4346875000  -2.202090e+001  -1.557394e+002 
4350000000  -2.199057e+001  -1.602781e+002 
4353125000  -2.197818e+001  -1.681532e+002 
4356250000  -2.366235e+001  -1.694574e+002 
4359375000  -2.439894e+001  -1.573849e+002 
4362500000  -2.185638e+001  -1.542481e+002 
4365625000  -2.012707e+001  -1.654152e+002 
4368750000  -2.072423e+001  -1.775083e+002 
4371875000  -2.198639e+001  -1.775064e+002 
4375000000  -2.177397e+001  -1.759827e+002 
4378125000  -2.107091e+001  1.784438e+002 
4381250000  -2.118848e+001  1.730712e+002 
4384375000  -2.100956e+001  1.684236e+002 
4387500000  -2.169493e+001  1.627426e+002 
4390625000  -2.274268e+001  1.630047e+002 
4393750000  -2.209811e+001  1.655643e+002 
4396875000  -2.144177e+001  1.632089e+002 
4400000000  -2.092920e+001  1.562789e+002 
4403125000  -2.148175e+001  1.486439e+002 
4406250000  -2.231919e+001  1.474341e+002 
4409375000  -2.224840e+001  1.450933e+002 
4412500000  -2.328895e+001  1.425010e+002 
4415625000  -2.369979e+001  1.471646e+002 
4418750000  -2.259424e+001  1.515504e+002 
