!Agilent Technologies,E8363B,MY43030201,A.06.04.32
!Agilent E8363B: A.06.04.32
!Date: Tuesday, November 11, 2014 20:48:19
!Correction: S21(Response(S21)) 
!S1P File: Measurement: S21:
# Hz S  dB   R 50
3000000000  -2.651979e+001  1.552550e+002 
3003125000  -2.787110e+001  1.508970e+002 
3006250000  -2.796037e+001  1.477603e+002 
3009375000  -2.826113e+001  1.528971e+002 
3012500000  -2.782686e+001  1.528000e+002 
3015625000  -2.682020e+001  1.455663e+002 
3018750000  -2.767840e+001  1.445638e+002 
3021875000  -2.644245e+001  1.461286e+002 
3025000000  -2.511443e+001  1.430562e+002 
3028125000  -2.414174e+001  1.382639e+002 
3031250000  -2.312276e+001  1.270154e+002 
3034375000  -2.274132e+001  1.140802e+002 
3037500000  -2.309486e+001  1.019653e+002 
3040625000  -2.444030e+001  9.696937e+001 
3043750000  -2.511941e+001  9.269936e+001 
3046875000  -2.524802e+001  8.628248e+001 
3050000000  -2.696437e+001  7.930774e+001 
3053125000  -2.714189e+001  8.573812e+001 
3056250000  -2.640531e+001  8.847686e+001 
3059375000  -2.668096e+001  8.843018e+001 
3062500000  -2.523308e+001  8.439111e+001 
3065625000  -2.499792e+001  7.916647e+001 
3068750000  -2.474037e+001  7.211343e+001 
3071875000  -2.465565e+001  6.894323e+001 
3075000000  -2.462299e+001  6.531946e+001 
3078125000  -2.435229e+001  6.085202e+001 
3081250000  -2.497490e+001  5.650413e+001 
3084375000  -2.426024e+001  5.282346e+001 
3087500000  -2.414725e+001  4.944584e+001 
3090625000  -2.383876e+001  3.981987e+001 
3093750000  -2.424480e+001  3.174059e+001 
3096875000  -2.555019e+001  2.539987e+001 
3100000000  -2.571544e+001  2.401387e+001 
3103125000  -2.611448e+001  2.571267e+001 
3106250000  -2.578936e+001  2.228219e+001 
3109375000  -2.605673e+001  1.881374e+001 
3112500000  -2.619462e+001  1.766804e+001 
3115625000  -2.598517e+001  1.334258e+001 
3118750000  -2.647952e+001  1.489338e+001 
3121875000  -2.579447e+001  6.711645e+000 
3125000000  -2.692136e+001  3.090213e+000 
3128125000  -2.819716e+001  1.109525e+001 
3131250000  -2.599076e+001  1.210541e+001 
3134375000  -2.463911e+001  -1.504479e+000 
3137500000  -2.524949e+001  -1.579074e+001 
3140625000  -2.693916e+001  -1.728308e+001 
3143750000  -2.794583e+001  -1.317283e+001 
3146875000  -2.756170e+001  -1.109871e+001 
3150000000  -2.651488e+001  -8.696278e+000 
3153125000  -2.650126e+001  -1.664348e+001 
3156250000  -2.746912e+001  -1.128504e+001 
3159375000  -2.596073e+001  -8.282089e+000 
3162500000  -2.388258e+001  -2.112640e+001 
3165625000  -2.480980e+001  -3.190627e+001 
3168750000  -2.519355e+001  -3.106366e+001 
3171875000  -2.428568e+001  -3.525843e+001 
3175000000  -2.488870e+001  -4.302531e+001 
3178125000  -2.471907e+001  -4.157874e+001 
3181250000  -2.352927e+001  -4.532605e+001 
3184375000  -2.267536e+001  -5.739262e+001 
3187500000  -2.379140e+001  -7.321310e+001 
3190625000  -2.659487e+001  -8.059160e+001 
3193750000  -2.723305e+001  -7.071896e+001 
3196875000  -2.680627e+001  -6.535437e+001 
3200000000  -2.592783e+001  -6.719213e+001 
3203125000  -2.505229e+001  -7.281794e+001 
3206250000  -2.535218e+001  -7.914085e+001 
3209375000  -2.487741e+001  -8.431328e+001 
3212500000  -2.500944e+001  -9.074158e+001 
3215625000  -2.518847e+001  -9.516549e+001 
3218750000  -2.586052e+001  -1.017251e+002 
3221875000  -2.693187e+001  -1.064736e+002 
3225000000  -2.652362e+001  -1.068144e+002 
3228125000  -2.681001e+001  -1.113709e+002 
3231250000  -2.756112e+001  -1.142304e+002 
3234375000  -2.745222e+001  -1.131561e+002 
3237500000  -2.747823e+001  -1.149143e+002 
3240625000  -2.714657e+001  -1.165465e+002 
3243750000  -2.676204e+001  -1.232518e+002 
3246875000  -2.726872e+001  -1.295831e+002 
3250000000  -2.770649e+001  -1.316538e+002 
3253125000  -2.789202e+001  -1.330655e+002 
3256250000  -2.775494e+001  -1.390479e+002 
3259375000  -2.804805e+001  -1.469536e+002 
3262500000  -2.931123e+001  -1.495712e+002 
3265625000  -2.999954e+001  -1.464448e+002 
3268750000  -2.996449e+001  -1.435777e+002 
3271875000  -2.974895e+001  -1.428458e+002 
3275000000  -2.864923e+001  -1.472787e+002 
3278125000  -2.909535e+001  -1.536843e+002 
3281250000  -2.944507e+001  -1.517744e+002 
3284375000  -2.897980e+001  -1.579285e+002 
3287500000  -2.913629e+001  -1.607636e+002 
3290625000  -2.955794e+001  -1.644512e+002 
3293750000  -2.922136e+001  -1.706893e+002 
3296875000  -3.026762e+001  -1.701309e+002 
3300000000  -3.016980e+001  -1.694003e+002 
3303125000  -2.901200e+001  -1.732577e+002 
3306250000  -2.876187e+001  1.798774e+002 
3309375000  -2.853125e+001  1.754049e+002 
3312500000  -2.857520e+001  1.648065e+002 
3315625000  -2.951694e+001  1.570318e+002 
3318750000  -3.094699e+001  1.543339e+002 
3321875000  -3.211350e+001  1.540881e+002 
3325000000  -3.272974e+001  1.593883e+002 
3328125000  -3.263133e+001  1.606807e+002 
3331250000  -3.143893e+001  1.681827e+002 
3334375000  -2.876187e+001  1.592743e+002 
3337500000  -2.888756e+001  1.405194e+002 
3340625000  -3.018712e+001  1.293134e+002 
3343750000  -3.211900e+001  1.276535e+002 
3346875000  -3.267237e+001  1.296330e+002 
3350000000  -3.214439e+001  1.280591e+002 
3353125000  -3.215644e+001  1.246163e+002 
3356250000  -3.187182e+001  1.163749e+002 
3359375000  -3.269883e+001  1.074476e+002 
3362500000  -3.404140e+001  1.020638e+002 
3365625000  -3.457483e+001  1.013807e+002 
3368750000  -3.572835e+001  9.895805e+001 
3371875000  -3.608871e+001  9.558195e+001 
3375000000  -3.762632e+001  9.360218e+001 
3378125000  -3.875262e+001  9.399139e+001 
3381250000  -4.020481e+001  1.019368e+002 
3384375000  -3.950749e+001  1.215535e+002 
3387500000  -3.620049e+001  1.085959e+002 
3390625000  -3.790018e+001  8.837995e+001 
3393750000  -3.999416e+001  9.467839e+001 
3396875000  -3.907424e+001  9.773108e+001 
3400000000  -3.915786e+001  8.972679e+001 
3403125000  -4.015862e+001  8.544377e+001 
3406250000  -4.094847e+001  8.915083e+001 
3409375000  -4.153195e+001  8.512309e+001 
3412500000  -4.252687e+001  8.728189e+001 
3415625000  -4.333118e+001  9.076438e+001 
3418750000  -4.346050e+001  9.608038e+001 
3421875000  -4.388800e+001  1.012616e+002 
3425000000  -4.346446e+001  1.054907e+002 
3428125000  -4.206009e+001  1.033873e+002 
3431250000  -4.199574e+001  1.000461e+002 
3434375000  -4.172839e+001  9.780614e+001 
3437500000  -4.224092e+001  9.547170e+001 
3440625000  -4.227948e+001  9.820363e+001 
3443750000  -4.117404e+001  1.012823e+002 
3446875000  -4.032741e+001  9.661328e+001 
3450000000  -4.031902e+001  8.873367e+001 
3453125000  -4.034805e+001  7.899220e+001 
3456250000  -4.162901e+001  7.394367e+001 
3459375000  -4.261077e+001  7.577020e+001 
3462500000  -4.285054e+001  7.770146e+001 
3465625000  -4.298338e+001  7.480484e+001 
3468750000  -4.333896e+001  7.001217e+001 
3471875000  -4.316194e+001  7.218163e+001 
3475000000  -4.298901e+001  6.834812e+001 
3478125000  -4.396316e+001  6.257580e+001 
3481250000  -4.509311e+001  6.149875e+001 
3484375000  -4.637017e+001  6.769756e+001 
3487500000  -4.634107e+001  7.075159e+001 
3490625000  -4.569591e+001  6.701669e+001 
3493750000  -4.629759e+001  6.541624e+001 
3496875000  -4.737514e+001  6.637107e+001 
3500000000  -4.878455e+001  7.416122e+001 
3503125000  -4.884299e+001  7.484151e+001 
3506250000  -4.729962e+001  8.084821e+001 
3509375000  -4.727019e+001  7.922977e+001 
3512500000  -4.775832e+001  7.634408e+001 
3515625000  -4.774110e+001  8.036459e+001 
3518750000  -4.776238e+001  8.722083e+001 
3521875000  -4.779118e+001  9.107012e+001 
3525000000  -4.838852e+001  8.889758e+001 
3528125000  -4.693882e+001  1.003383e+002 
3531250000  -4.557727e+001  1.017811e+002 
3534375000  -4.502023e+001  9.538985e+001 
3537500000  -4.520062e+001  8.967286e+001 
3540625000  -4.557457e+001  8.995938e+001 
3543750000  -4.588107e+001  9.247930e+001 
3546875000  -4.543552e+001  1.045697e+002 
3550000000  -4.285828e+001  1.091040e+002 
3553125000  -4.146571e+001  8.981625e+001 
3556250000  -4.204308e+001  8.447964e+001 
3559375000  -4.202069e+001  8.659436e+001 
3562500000  -4.066015e+001  8.114501e+001 
3565625000  -4.159710e+001  7.442226e+001 
3568750000  -4.168894e+001  7.551710e+001 
3571875000  -4.149050e+001  7.717350e+001 
3575000000  -4.108097e+001  7.212981e+001 
3578125000  -4.137088e+001  6.634274e+001 
3581250000  -4.110957e+001  6.799823e+001 
3584375000  -4.052629e+001  6.687589e+001 
3587500000  -3.972578e+001  6.055043e+001 
3590625000  -3.978357e+001  5.160966e+001 
3593750000  -4.105870e+001  4.861433e+001 
3596875000  -4.120937e+001  5.759778e+001 
3600000000  -3.952434e+001  5.502154e+001 
3603125000  -3.968676e+001  4.000588e+001 
3606250000  -4.034506e+001  3.804580e+001 
3609375000  -4.078504e+001  3.727575e+001 
3612500000  -4.134735e+001  3.610717e+001 
3615625000  -4.162686e+001  3.333883e+001 
3618750000  -4.187899e+001  3.569970e+001 
3621875000  -4.147029e+001  3.460236e+001 
3625000000  -4.173160e+001  3.294099e+001 
3628125000  -4.181294e+001  3.381511e+001 
3631250000  -4.131190e+001  2.988671e+001 
3634375000  -4.269257e+001  3.122389e+001 
3637500000  -4.238705e+001  3.587046e+001 
3640625000  -4.115168e+001  3.676977e+001 
3643750000  -4.077248e+001  3.142463e+001 
3646875000  -4.150768e+001  2.557867e+001 
3650000000  -4.203329e+001  2.469850e+001 
3653125000  -4.166413e+001  2.578370e+001 
3656250000  -4.189883e+001  2.655380e+001 
3659375000  -4.219129e+001  2.899116e+001 
3662500000  -4.128098e+001  2.758661e+001 
3665625000  -4.139035e+001  2.761128e+001 
3668750000  -4.046673e+001  3.069851e+001 
3671875000  -3.935654e+001  2.648394e+001 
3675000000  -3.993847e+001  1.863105e+001 
3678125000  -4.043145e+001  2.242142e+001 
3681250000  -3.998257e+001  2.176734e+001 
3684375000  -3.960810e+001  1.976042e+001 
3687500000  -3.996418e+001  1.905558e+001 
3690625000  -3.989659e+001  1.686792e+001 
3693750000  -4.065213e+001  1.771005e+001 
3696875000  -4.005777e+001  2.080855e+001 
3700000000  -3.899352e+001  2.006031e+001 
3703125000  -3.861292e+001  1.638937e+001 
3706250000  -3.939870e+001  1.795313e+001 
3709375000  -3.869903e+001  2.040454e+001 
3712500000  -3.757876e+001  2.043181e+001 
3715625000  -3.650389e+001  1.561654e+001 
3718750000  -3.579334e+001  1.200817e+001 
3721875000  -3.532552e+001  6.697428e+000 
3725000000  -3.533318e+001  1.625034e+000 
3728125000  -3.542769e+001  1.404096e+000 
3731250000  -3.480236e+001  1.293157e-001 
3734375000  -3.379657e+001  -5.802699e+000 
3737500000  -3.428243e+001  -1.314239e+001 
3740625000  -3.518412e+001  -1.519049e+001 
3743750000  -3.472456e+001  -1.760892e+001 
3746875000  -3.469331e+001  -2.098707e+001 
3750000000  -3.514645e+001  -2.313484e+001 
3753125000  -3.470606e+001  -2.275773e+001 
3756250000  -3.461840e+001  -2.276694e+001 
3759375000  -3.452489e+001  -2.244635e+001 
3762500000  -3.387545e+001  -2.721003e+001 
3765625000  -3.435316e+001  -3.012042e+001 
3768750000  -3.442705e+001  -2.815835e+001 
3771875000  -3.276888e+001  -2.957662e+001 
3775000000  -3.242819e+001  -3.736578e+001 
3778125000  -3.274184e+001  -3.930893e+001 
3781250000  -3.246607e+001  -4.192249e+001 
3784375000  -3.245494e+001  -4.392001e+001 
3787500000  -3.179283e+001  -4.744325e+001 
3790625000  -3.228611e+001  -5.325912e+001 
3793750000  -3.245649e+001  -5.409204e+001 
3796875000  -3.162360e+001  -5.502386e+001 
3800000000  -3.003414e+001  -5.880814e+001 
3803125000  -3.070765e+001  -6.566897e+001 
3806250000  -3.135539e+001  -6.792857e+001 
3809375000  -3.113601e+001  -6.908275e+001 
3812500000  -3.046708e+001  -7.419602e+001 
3815625000  -3.109289e+001  -8.179432e+001 
3818750000  -3.199305e+001  -8.254620e+001 
3821875000  -3.203747e+001  -7.523074e+001 
3825000000  -3.024055e+001  -7.003026e+001 
3828125000  -2.888296e+001  -8.403464e+001 
3831250000  -2.936689e+001  -9.778014e+001 
3834375000  -3.069352e+001  -9.863815e+001 
3837500000  -3.151167e+001  -9.403679e+001 
3840625000  -3.046872e+001  -9.492860e+001 
3843750000  -2.938357e+001  -1.044778e+002 
3846875000  -2.994868e+001  -1.127038e+002 
3850000000  -3.129710e+001  -1.070350e+002 
3853125000  -3.043029e+001  -1.044293e+002 
3856250000  -3.054318e+001  -1.085465e+002 
3859375000  -2.979530e+001  -1.133201e+002 
3862500000  -2.928355e+001  -1.204060e+002 
3865625000  -2.966457e+001  -1.253068e+002 
3868750000  -2.965558e+001  -1.258096e+002 
3871875000  -2.896893e+001  -1.282724e+002 
3875000000  -2.912381e+001  -1.368096e+002 
3878125000  -3.010744e+001  -1.398373e+002 
3881250000  -3.023544e+001  -1.365762e+002 
3884375000  -2.968557e+001  -1.406767e+002 
3887500000  -2.977657e+001  -1.450011e+002 
3890625000  -3.031593e+001  -1.477160e+002 
3893750000  -3.076501e+001  -1.489343e+002 
3896875000  -3.092202e+001  -1.480608e+002 
3900000000  -3.109945e+001  -1.492653e+002 
3903125000  -3.075118e+001  -1.507639e+002 
3906250000  -3.050484e+001  -1.519900e+002 
3909375000  -2.979038e+001  -1.537312e+002 
3912500000  -2.973140e+001  -1.613523e+002 
3915625000  -3.086878e+001  -1.605039e+002 
3918750000  -3.097087e+001  -1.591729e+002 
3921875000  -3.060343e+001  -1.605474e+002 
3925000000  -2.988110e+001  -1.608535e+002 
3928125000  -2.907316e+001  -1.665454e+002 
3931250000  -2.947258e+001  -1.704344e+002 
3934375000  -2.974779e+001  -1.703319e+002 
3937500000  -2.982683e+001  -1.715901e+002 
3940625000  -3.038268e+001  -1.712909e+002 
3943750000  -2.945534e+001  -1.700827e+002 
3946875000  -2.810922e+001  -1.753498e+002 
3950000000  -2.856465e+001  1.774961e+002 
3953125000  -2.961964e+001  1.778465e+002 
3956250000  -2.874508e+001  1.798744e+002 
3959375000  -2.740606e+001  1.766980e+002 
3962500000  -2.686935e+001  1.731336e+002 
3965625000  -2.648200e+001  1.641793e+002 
3968750000  -2.742863e+001  1.572300e+002 
3971875000  -2.789823e+001  1.557144e+002 
3975000000  -2.716328e+001  1.540884e+002 
3978125000  -2.701522e+001  1.524204e+002 
3981250000  -2.678717e+001  1.481770e+002 
3984375000  -2.701194e+001  1.419057e+002 
3987500000  -2.752351e+001  1.398128e+002 
3990625000  -2.754007e+001  1.388650e+002 
3993750000  -2.779576e+001  1.353650e+002 
3996875000  -2.772406e+001  1.332946e+002 
4000000000  -2.780472e+001  1.313826e+002 
4003125000  -2.837632e+001  1.337706e+002 
4006250000  -2.704016e+001  1.341189e+002 
4009375000  -2.585378e+001  1.218144e+002 
4012500000  -2.690262e+001  1.148961e+002 
4015625000  -2.805180e+001  1.155021e+002 
4018750000  -2.831881e+001  1.179273e+002 
4021875000  -2.757543e+001  1.161061e+002 
4025000000  -2.725294e+001  1.114457e+002 
4028125000  -2.716987e+001  1.076152e+002 
4031250000  -2.766553e+001  1.044876e+002 
4034375000  -2.786542e+001  1.044756e+002 
4037500000  -2.738325e+001  1.059212e+002 
4040625000  -2.726109e+001  1.030413e+002 
4043750000  -2.766730e+001  1.022091e+002 
4046875000  -2.715483e+001  1.020172e+002 
4050000000  -2.659083e+001  9.647776e+001 
4053125000  -2.706775e+001  9.442092e+001 
4056250000  -2.767940e+001  9.799568e+001 
4059375000  -2.655039e+001  9.962885e+001 
4062500000  -2.513309e+001  9.523264e+001 
4065625000  -2.494638e+001  9.076385e+001 
4068750000  -2.469983e+001  8.654893e+001 
4071875000  -2.410162e+001  7.854004e+001 
4075000000  -2.438765e+001  7.181671e+001 
4078125000  -2.492656e+001  7.078231e+001 
4081250000  -2.445808e+001  6.863545e+001 
4084375000  -2.404044e+001  6.193874e+001 
4087500000  -2.440207e+001  5.564842e+001 
4090625000  -2.502603e+001  5.426839e+001 
4093750000  -2.486558e+001  5.517094e+001 
4096875000  -2.439692e+001  4.927699e+001 
4100000000  -2.504125e+001  4.239369e+001 
4103125000  -2.597243e+001  4.272528e+001 
4106250000  -2.584436e+001  4.754166e+001 
4109375000  -2.503620e+001  4.723254e+001 
4112500000  -2.445819e+001  4.078574e+001 
4115625000  -2.472067e+001  3.600016e+001 
4118750000  -2.488501e+001  3.330909e+001 
4121875000  -2.449573e+001  2.884080e+001 
4125000000  -2.480340e+001  2.366836e+001 
4128125000  -2.588683e+001  2.395448e+001 
4131250000  -2.560776e+001  3.180288e+001 
4134375000  -2.332952e+001  2.777402e+001 
4137500000  -2.304344e+001  9.186833e+000 
4140625000  -2.510105e+001  2.035285e+000 
4143750000  -2.648950e+001  6.507422e+000 
4146875000  -2.609513e+001  1.432493e+001 
4150000000  -2.522009e+001  1.119879e+001 
4153125000  -2.497902e+001  4.761106e+000 
4156250000  -2.588273e+001  2.208985e+000 
4159375000  -2.611692e+001  6.101665e+000 
4162500000  -2.505071e+001  1.065824e+001 
4165625000  -2.385250e+001  6.804648e+000 
4168750000  -2.327501e+001  -1.959962e-001 
4171875000  -2.324299e+001  -9.483939e+000 
4175000000  -2.372980e+001  -1.490675e+001 
4178125000  -2.439083e+001  -1.523996e+001 
4181250000  -2.426652e+001  -1.570210e+001 
4184375000  -2.411332e+001  -1.899670e+001 
4187500000  -2.417344e+001  -2.159891e+001 
4190625000  -2.392757e+001  -2.732931e+001 
4193750000  -2.471253e+001  -3.091724e+001 
4196875000  -2.542680e+001  -3.137638e+001 
4200000000  -2.623156e+001  -2.915955e+001 
4203125000  -2.631727e+001  -1.626109e+001 
4206250000  -2.305409e+001  -1.441815e+001 
4209375000  -2.175518e+001  -3.468816e+001 
4212500000  -2.367138e+001  -4.391666e+001 
4215625000  -2.474583e+001  -3.775944e+001 
4218750000  -2.341518e+001  -3.087665e+001 
4221875000  -2.110275e+001  -4.009538e+001 
4225000000  -2.230836e+001  -5.262110e+001 
4228125000  -2.302272e+001  -4.806727e+001 
4231250000  -2.151376e+001  -5.115429e+001 
4234375000  -2.141373e+001  -5.969281e+001 
4237500000  -2.099180e+001  -6.301407e+001 
4240625000  -2.102462e+001  -7.159795e+001 
4243750000  -2.196607e+001  -7.806894e+001 
4246875000  -2.288731e+001  -7.837241e+001 
4250000000  -2.293955e+001  -7.538854e+001 
4253125000  -2.230245e+001  -7.710504e+001 
4256250000  -2.262302e+001  -8.139468e+001 
4259375000  -2.237370e+001  -8.344965e+001 
4262500000  -2.237273e+001  -8.697310e+001 
4265625000  -2.256988e+001  -8.681994e+001 
4268750000  -2.170671e+001  -9.074976e+001 
4271875000  -2.144519e+001  -9.627004e+001 
4275000000  -2.082467e+001  -1.024205e+002 
4278125000  -2.139002e+001  -1.135250e+002 
4281250000  -2.317854e+001  -1.157127e+002 
4284375000  -2.285131e+001  -1.149761e+002 
4287500000  -2.361594e+001  -1.186001e+002 
4290625000  -2.494209e+001  -1.093779e+002 
4293750000  -2.297251e+001  -1.035228e+002 
4296875000  -2.159023e+001  -1.149152e+002 
4300000000  -2.234531e+001  -1.241124e+002 
4303125000  -2.355028e+001  -1.234300e+002 
4306250000  -2.295613e+001  -1.172248e+002 
4309375000  -2.151768e+001  -1.188486e+002 
4312500000  -2.139950e+001  -1.272406e+002 
4315625000  -2.165042e+001  -1.333070e+002 
4318750000  -2.191000e+001  -1.370826e+002 
4321875000  -2.208845e+001  -1.363071e+002 
4325000000  -2.149820e+001  -1.356640e+002 
4328125000  -2.101056e+001  -1.421801e+002 
4331250000  -2.096208e+001  -1.502433e+002 
4334375000  -2.136136e+001  -1.554162e+002 
4337500000  -2.213222e+001  -1.577800e+002 
4340625000  -2.273055e+001  -1.544040e+002 
4343750000  -2.216501e+001  -1.538900e+002 
4346875000  -2.179108e+001  -1.593898e+002 
4350000000  -2.176880e+001  -1.639889e+002 
4353125000  -2.179061e+001  -1.718112e+002 
4356250000  -2.354628e+001  -1.730432e+002 
4359375000  -2.425389e+001  -1.603755e+002 
4362500000  -2.165939e+001  -1.579274e+002 
4365625000  -1.996983e+001  -1.695586e+002 
4368750000  -2.064757e+001  1.784753e+002 
4371875000  -2.183823e+001  1.789929e+002 
4375000000  -2.157685e+001  -1.795048e+002 
4378125000  -2.093165e+001  1.745299e+002 
4381250000  -2.106740e+001  1.690483e+002 
4384375000  -2.089517e+001  1.648402e+002 
4387500000  -2.156894e+001  1.591806e+002 
4390625000  -2.262424e+001  1.594605e+002 
4393750000  -2.200771e+001  1.619373e+002 
4396875000  -2.130236e+001  1.597535e+002 
4400000000  -2.079585e+001  1.529659e+002 
4403125000  -2.137326e+001  1.451655e+002 
4406250000  -2.223494e+001  1.438774e+002 
4409375000  -2.217001e+001  1.417431e+002 
4412500000  -2.320386e+001  1.391477e+002 
4415625000  -2.359145e+001  1.439208e+002 
4418750000  -2.243232e+001  1.482490e+002 
4421875000  -2.098613e+001  1.448526e+002 
