!Agilent Technologies,E8363B,MY43030201,A.06.04.32
!Agilent E8363B: A.06.04.32
!Date: Tuesday, November 11, 2014 20:51:55
!Correction: S21(Response(S21)) 
!S1P File: Measurement: S21:
# Hz S  dB   R 50
3000000000  -2.652912e+001  1.513063e+002 
3003125000  -2.791638e+001  1.467910e+002 
3006250000  -2.800143e+001  1.442431e+002 
3009375000  -2.834231e+001  1.491526e+002 
3012500000  -2.780693e+001  1.489519e+002 
3015625000  -2.685364e+001  1.418891e+002 
3018750000  -2.772809e+001  1.411437e+002 
3021875000  -2.645169e+001  1.426649e+002 
3025000000  -2.514461e+001  1.394221e+002 
3028125000  -2.415162e+001  1.342340e+002 
3031250000  -2.309949e+001  1.230621e+002 
3034375000  -2.278027e+001  1.100149e+002 
3037500000  -2.312866e+001  9.811028e+001 
3040625000  -2.446026e+001  9.311769e+001 
3043750000  -2.515789e+001  8.876825e+001 
3046875000  -2.527472e+001  8.245635e+001 
3050000000  -2.702223e+001  7.574498e+001 
3053125000  -2.714191e+001  8.229891e+001 
3056250000  -2.646749e+001  8.488111e+001 
3059375000  -2.670844e+001  8.479864e+001 
3062500000  -2.521044e+001  8.091758e+001 
3065625000  -2.498562e+001  7.518874e+001 
3068750000  -2.473283e+001  6.855112e+001 
3071875000  -2.468202e+001  6.531612e+001 
3075000000  -2.460349e+001  6.152604e+001 
3078125000  -2.437176e+001  5.681868e+001 
3081250000  -2.500644e+001  5.284486e+001 
3084375000  -2.423804e+001  4.894227e+001 
3087500000  -2.414981e+001  4.552434e+001 
3090625000  -2.383452e+001  3.564399e+001 
3093750000  -2.427826e+001  2.776257e+001 
3096875000  -2.554215e+001  2.163863e+001 
3100000000  -2.569213e+001  2.037483e+001 
3103125000  -2.606626e+001  2.173894e+001 
3106250000  -2.578485e+001  1.813724e+001 
3109375000  -2.601559e+001  1.494566e+001 
3112500000  -2.618081e+001  1.377471e+001 
3115625000  -2.597192e+001  9.391735e+000 
3118750000  -2.646539e+001  1.062265e+001 
3121875000  -2.578478e+001  2.897120e+000 
3125000000  -2.695502e+001  -6.570815e-001 
3128125000  -2.817492e+001  7.503717e+000 
3131250000  -2.599819e+001  7.833188e+000 
3134375000  -2.463506e+001  -5.812934e+000 
3137500000  -2.528780e+001  -1.943555e+001 
3140625000  -2.690441e+001  -2.097584e+001 
3143750000  -2.793185e+001  -1.714949e+001 
3146875000  -2.752840e+001  -1.514845e+001 
3150000000  -2.648981e+001  -1.260872e+001 
3153125000  -2.648537e+001  -2.080477e+001 
3156250000  -2.748252e+001  -1.524800e+001 
3159375000  -2.595077e+001  -1.241628e+001 
3162500000  -2.387867e+001  -2.514924e+001 
3165625000  -2.478326e+001  -3.613039e+001 
3168750000  -2.520443e+001  -3.522561e+001 
3171875000  -2.426157e+001  -3.941172e+001 
3175000000  -2.489856e+001  -4.722023e+001 
3178125000  -2.468225e+001  -4.542758e+001 
3181250000  -2.349599e+001  -4.952641e+001 
3184375000  -2.271725e+001  -6.182694e+001 
3187500000  -2.383897e+001  -7.693466e+001 
3190625000  -2.660357e+001  -8.424605e+001 
3193750000  -2.722627e+001  -7.456763e+001 
3196875000  -2.677929e+001  -6.939395e+001 
3200000000  -2.590648e+001  -7.144968e+001 
3203125000  -2.500083e+001  -7.687643e+001 
3206250000  -2.534443e+001  -8.292939e+001 
3209375000  -2.486867e+001  -8.822153e+001 
3212500000  -2.499045e+001  -9.488078e+001 
3215625000  -2.513596e+001  -9.918552e+001 
3218750000  -2.587474e+001  -1.052505e+002 
3221875000  -2.686386e+001  -1.103608e+002 
3225000000  -2.645918e+001  -1.109781e+002 
3228125000  -2.679231e+001  -1.155781e+002 
3231250000  -2.752457e+001  -1.182630e+002 
3234375000  -2.744651e+001  -1.171424e+002 
3237500000  -2.741182e+001  -1.187957e+002 
3240625000  -2.709422e+001  -1.203455e+002 
3243750000  -2.673027e+001  -1.271521e+002 
3246875000  -2.721774e+001  -1.338029e+002 
3250000000  -2.763533e+001  -1.355750e+002 
3253125000  -2.783962e+001  -1.372390e+002 
3256250000  -2.769762e+001  -1.432972e+002 
3259375000  -2.798720e+001  -1.513239e+002 
3262500000  -2.931890e+001  -1.535687e+002 
3265625000  -2.995756e+001  -1.498534e+002 
3268750000  -2.992344e+001  -1.473645e+002 
3271875000  -2.965271e+001  -1.463468e+002 
3275000000  -2.855375e+001  -1.517145e+002 
3278125000  -2.904899e+001  -1.579718e+002 
3281250000  -2.934562e+001  -1.559657e+002 
3284375000  -2.889012e+001  -1.617481e+002 
3287500000  -2.904866e+001  -1.645256e+002 
3290625000  -2.944027e+001  -1.689941e+002 
3293750000  -2.919086e+001  -1.742829e+002 
3296875000  -3.010077e+001  -1.743590e+002 
3300000000  -3.008314e+001  -1.731736e+002 
3303125000  -2.896017e+001  -1.774266e+002 
3306250000  -2.869746e+001  1.761573e+002 
3309375000  -2.848121e+001  1.709181e+002 
3312500000  -2.844595e+001  1.608657e+002 
3315625000  -2.956724e+001  1.525885e+002 
3318750000  -3.083963e+001  1.500919e+002 
3321875000  -3.211407e+001  1.499996e+002 
3325000000  -3.265484e+001  1.559547e+002 
3328125000  -3.240744e+001  1.573495e+002 
3331250000  -3.125960e+001  1.644501e+002 
3334375000  -2.859168e+001  1.550503e+002 
3337500000  -2.872237e+001  1.365267e+002 
3340625000  -3.012501e+001  1.253784e+002 
3343750000  -3.210066e+001  1.238923e+002 
3346875000  -3.256508e+001  1.258866e+002 
3350000000  -3.192139e+001  1.248066e+002 
3353125000  -3.199655e+001  1.206048e+002 
3356250000  -3.175004e+001  1.122740e+002 
3359375000  -3.262743e+001  1.039733e+002 
3362500000  -3.385028e+001  9.897100e+001 
3365625000  -3.448671e+001  9.716635e+001 
3368750000  -3.547126e+001  9.522659e+001 
3371875000  -3.592193e+001  9.205647e+001 
3375000000  -3.750445e+001  9.014345e+001 
3378125000  -3.841543e+001  8.983915e+001 
3381250000  -4.009331e+001  9.793481e+001 
3384375000  -3.923823e+001  1.183674e+002 
3387500000  -3.607953e+001  1.045882e+002 
3390625000  -3.778460e+001  8.587631e+001 
3393750000  -3.958447e+001  9.022487e+001 
3396875000  -3.863334e+001  9.371988e+001 
3400000000  -3.864997e+001  8.577197e+001 
3403125000  -3.981216e+001  8.366118e+001 
3406250000  -4.054406e+001  8.432279e+001 
3409375000  -4.108678e+001  8.000426e+001 
3412500000  -4.194263e+001  8.150732e+001 
3415625000  -4.280477e+001  8.637003e+001 
3418750000  -4.317275e+001  9.072725e+001 
3421875000  -4.334742e+001  9.609900e+001 
3425000000  -4.256213e+001  1.014592e+002 
3428125000  -4.153817e+001  1.002663e+002 
3431250000  -4.150304e+001  9.477172e+001 
3434375000  -4.148661e+001  9.220811e+001 
3437500000  -4.179546e+001  9.124538e+001 
3440625000  -4.204690e+001  9.416054e+001 
3443750000  -4.099831e+001  9.521846e+001 
3446875000  -4.001167e+001  9.194749e+001 
3450000000  -3.981943e+001  8.291650e+001 
3453125000  -3.986535e+001  7.408387e+001 
3456250000  -4.131371e+001  6.864762e+001 
3459375000  -4.244530e+001  7.056106e+001 
3462500000  -4.237667e+001  7.280048e+001 
3465625000  -4.235088e+001  6.643988e+001 
3468750000  -4.256813e+001  6.465157e+001 
3471875000  -4.291747e+001  6.528948e+001 
3475000000  -4.269213e+001  6.089720e+001 
3478125000  -4.362037e+001  5.580410e+001 
3481250000  -4.458411e+001  5.686367e+001 
3484375000  -4.587609e+001  5.887823e+001 
3487500000  -4.586743e+001  6.313921e+001 
3490625000  -4.505981e+001  5.963681e+001 
3493750000  -4.608789e+001  5.588459e+001 
3496875000  -4.710353e+001  5.794655e+001 
3500000000  -4.823188e+001  6.435239e+001 
3503125000  -4.748065e+001  6.922529e+001 
3506250000  -4.714686e+001  7.054131e+001 
3509375000  -4.695865e+001  6.742564e+001 
3512500000  -4.758060e+001  6.662350e+001 
3515625000  -4.820668e+001  7.050581e+001 
3518750000  -4.857701e+001  7.833246e+001 
3521875000  -4.784753e+001  8.202554e+001 
3525000000  -4.832848e+001  8.093718e+001 
3528125000  -4.796567e+001  9.547506e+001 
3531250000  -4.587674e+001  9.292151e+001 
3534375000  -4.531190e+001  8.575352e+001 
3537500000  -4.509816e+001  8.194727e+001 
3540625000  -4.559625e+001  8.263505e+001 
3543750000  -4.578469e+001  8.634430e+001 
3546875000  -4.563546e+001  9.665433e+001 
3550000000  -4.311757e+001  9.843344e+001 
3553125000  -4.170815e+001  8.371633e+001 
3556250000  -4.274390e+001  7.680018e+001 
3559375000  -4.195898e+001  8.141615e+001 
3562500000  -4.109046e+001  7.479630e+001 
3565625000  -4.176356e+001  6.682060e+001 
3568750000  -4.197043e+001  7.121408e+001 
3571875000  -4.156333e+001  6.887330e+001 
3575000000  -4.127392e+001  6.535645e+001 
3578125000  -4.118470e+001  6.165788e+001 
3581250000  -4.186299e+001  6.318441e+001 
3584375000  -4.067054e+001  6.080927e+001 
3587500000  -3.994962e+001  5.446478e+001 
3590625000  -4.030148e+001  4.580160e+001 
3593750000  -4.133622e+001  4.508920e+001 
3596875000  -4.140620e+001  5.210915e+001 
3600000000  -3.979276e+001  5.103110e+001 
3603125000  -3.982791e+001  3.738421e+001 
3606250000  -4.078067e+001  3.514009e+001 
3609375000  -4.074567e+001  3.279669e+001 
3612500000  -4.124478e+001  3.160514e+001 
3615625000  -4.100171e+001  2.907625e+001 
3618750000  -4.185909e+001  3.092867e+001 
3621875000  -4.144898e+001  3.057286e+001 
3625000000  -4.176821e+001  2.952015e+001 
3628125000  -4.167341e+001  3.040627e+001 
3631250000  -4.140902e+001  2.557812e+001 
3634375000  -4.229010e+001  2.613519e+001 
3637500000  -4.207414e+001  3.287623e+001 
3640625000  -4.091977e+001  3.370738e+001 
3643750000  -4.053580e+001  2.832469e+001 
3646875000  -4.101400e+001  2.250029e+001 
3650000000  -4.143427e+001  2.198853e+001 
3653125000  -4.117758e+001  1.948823e+001 
3656250000  -4.165478e+001  2.035283e+001 
3659375000  -4.209606e+001  2.479756e+001 
3662500000  -4.113461e+001  2.281036e+001 
3665625000  -4.133074e+001  2.218765e+001 
3668750000  -4.018357e+001  2.383264e+001 
3671875000  -3.927714e+001  1.918944e+001 
3675000000  -3.960167e+001  1.387912e+001 
3678125000  -4.015222e+001  1.447931e+001 
3681250000  -3.966598e+001  1.673532e+001 
3684375000  -3.975454e+001  1.347834e+001 
3687500000  -3.983805e+001  1.305255e+001 
3690625000  -3.969529e+001  9.732082e+000 
3693750000  -4.036939e+001  1.402259e+001 
3696875000  -4.008734e+001  1.590875e+001 
3700000000  -3.872837e+001  1.330774e+001 
3703125000  -3.868479e+001  1.079579e+001 
3706250000  -3.931364e+001  1.323802e+001 
3709375000  -3.857341e+001  1.611092e+001 
3712500000  -3.734896e+001  1.434265e+001 
3715625000  -3.634002e+001  8.634197e+000 
3718750000  -3.566081e+001  6.720351e+000 
3721875000  -3.525761e+001  1.126674e+000 
3725000000  -3.521949e+001  -3.575127e+000 
3728125000  -3.533853e+001  -4.376260e+000 
3731250000  -3.458188e+001  -5.050240e+000 
3734375000  -3.362307e+001  -1.126023e+001 
3737500000  -3.415914e+001  -1.818046e+001 
3740625000  -3.465894e+001  -2.158260e+001 
3743750000  -3.458224e+001  -2.331798e+001 
3746875000  -3.452653e+001  -2.753101e+001 
3750000000  -3.486576e+001  -2.812523e+001 
3753125000  -3.450580e+001  -2.820874e+001 
3756250000  -3.447065e+001  -2.889931e+001 
3759375000  -3.425746e+001  -2.964644e+001 
3762500000  -3.365187e+001  -3.260017e+001 
3765625000  -3.423551e+001  -3.639354e+001 
3768750000  -3.431629e+001  -3.371040e+001 
3771875000  -3.239882e+001  -3.600374e+001 
3775000000  -3.216404e+001  -4.410047e+001 
3778125000  -3.255650e+001  -4.624183e+001 
3781250000  -3.240058e+001  -4.880898e+001 
3784375000  -3.234920e+001  -5.099934e+001 
3787500000  -3.167246e+001  -5.393818e+001 
3790625000  -3.215464e+001  -5.966679e+001 
3793750000  -3.236673e+001  -6.018890e+001 
3796875000  -3.139185e+001  -6.209320e+001 
3800000000  -2.988933e+001  -6.546996e+001 
3803125000  -3.076472e+001  -7.292219e+001 
3806250000  -3.132574e+001  -7.502586e+001 
3809375000  -3.107601e+001  -7.595663e+001 
3812500000  -3.034633e+001  -8.015502e+001 
3815625000  -3.105199e+001  -8.802212e+001 
3818750000  -3.192358e+001  -9.010799e+001 
3821875000  -3.194336e+001  -8.178730e+001 
3825000000  -3.008035e+001  -7.728215e+001 
3828125000  -2.877948e+001  -9.029566e+001 
3831250000  -2.923139e+001  -1.045771e+002 
3834375000  -3.057969e+001  -1.055406e+002 
3837500000  -3.151284e+001  -1.008271e+002 
3840625000  -3.048073e+001  -1.017530e+002 
3843750000  -2.918111e+001  -1.116579e+002 
3846875000  -2.998242e+001  -1.187811e+002 
3850000000  -3.121514e+001  -1.132851e+002 
3853125000  -3.057696e+001  -1.105502e+002 
3856250000  -3.038828e+001  -1.155976e+002 
3859375000  -2.976135e+001  -1.200477e+002 
3862500000  -2.934139e+001  -1.271444e+002 
3865625000  -2.943059e+001  -1.318372e+002 
3868750000  -2.956034e+001  -1.322366e+002 
3871875000  -2.881921e+001  -1.350650e+002 
3875000000  -2.889434e+001  -1.433281e+002 
3878125000  -2.997056e+001  -1.464975e+002 
3881250000  -3.008865e+001  -1.433913e+002 
3884375000  -2.953039e+001  -1.473548e+002 
3887500000  -2.970844e+001  -1.517673e+002 
3890625000  -3.025153e+001  -1.548486e+002 
3893750000  -3.059892e+001  -1.551496e+002 
3896875000  -3.076600e+001  -1.551128e+002 
3900000000  -3.107676e+001  -1.565815e+002 
3903125000  -3.062057e+001  -1.584074e+002 
3906250000  -3.031796e+001  -1.590130e+002 
3909375000  -2.975238e+001  -1.614520e+002 
3912500000  -2.965904e+001  -1.690971e+002 
3915625000  -3.087592e+001  -1.677615e+002 
3918750000  -3.089762e+001  -1.661067e+002 
3921875000  -3.066506e+001  -1.676954e+002 
3925000000  -2.968076e+001  -1.687910e+002 
3928125000  -2.904301e+001  -1.742717e+002 
3931250000  -2.956643e+001  -1.783699e+002 
3934375000  -2.969848e+001  -1.775727e+002 
3937500000  -2.992140e+001  -1.787970e+002 
3940625000  -3.044761e+001  -1.786554e+002 
3943750000  -2.948815e+001  -1.775194e+002 
3946875000  -2.817897e+001  1.775506e+002 
3950000000  -2.868601e+001  1.699155e+002 
3953125000  -2.963811e+001  1.706145e+002 
3956250000  -2.875980e+001  1.730238e+002 
3959375000  -2.746403e+001  1.702606e+002 
3962500000  -2.694222e+001  1.657308e+002 
3965625000  -2.653390e+001  1.574230e+002 
3968750000  -2.750286e+001  1.508458e+002 
3971875000  -2.785596e+001  1.496597e+002 
3975000000  -2.716311e+001  1.473629e+002 
3978125000  -2.704928e+001  1.458375e+002 
3981250000  -2.667774e+001  1.414548e+002 
3984375000  -2.700668e+001  1.351318e+002 
3987500000  -2.755918e+001  1.333300e+002 
3990625000  -2.753715e+001  1.323442e+002 
3993750000  -2.769703e+001  1.288324e+002 
3996875000  -2.771561e+001  1.264898e+002 
4000000000  -2.783060e+001  1.244679e+002 
4003125000  -2.839418e+001  1.270417e+002 
4006250000  -2.700595e+001  1.267348e+002 
4009375000  -2.569447e+001  1.147745e+002 
4012500000  -2.685330e+001  1.075032e+002 
4015625000  -2.813381e+001  1.080117e+002 
4018750000  -2.826773e+001  1.104543e+002 
4021875000  -2.755769e+001  1.088109e+002 
4025000000  -2.723363e+001  1.040342e+002 
4028125000  -2.718459e+001  1.001484e+002 
4031250000  -2.766791e+001  9.683958e+001 
4034375000  -2.788831e+001  9.680799e+001 
4037500000  -2.737734e+001  9.855598e+001 
4040625000  -2.732645e+001  9.542061e+001 
4043750000  -2.769481e+001  9.499307e+001 
4046875000  -2.724896e+001  9.421138e+001 
4050000000  -2.676761e+001  8.894326e+001 
4053125000  -2.723694e+001  8.691983e+001 
4056250000  -2.783410e+001  9.059506e+001 
4059375000  -2.658881e+001  9.311555e+001 
4062500000  -2.520996e+001  8.829750e+001 
4065625000  -2.508036e+001  8.359253e+001 
4068750000  -2.479652e+001  7.933404e+001 
4071875000  -2.414032e+001  7.128241e+001 
4075000000  -2.452270e+001  6.479704e+001 
4078125000  -2.506079e+001  6.402803e+001 
4081250000  -2.454507e+001  6.167203e+001 
4084375000  -2.417282e+001  5.484189e+001 
4087500000  -2.449882e+001  4.875323e+001 
4090625000  -2.509596e+001  4.787864e+001 
4093750000  -2.492910e+001  4.856702e+001 
4096875000  -2.445153e+001  4.243041e+001 
4100000000  -2.516182e+001  3.512104e+001 
4103125000  -2.608289e+001  3.602927e+001 
4106250000  -2.592557e+001  4.090854e+001 
4109375000  -2.505519e+001  4.047672e+001 
4112500000  -2.446617e+001  3.386200e+001 
4115625000  -2.481008e+001  2.953291e+001 
4118750000  -2.489233e+001  2.653540e+001 
4121875000  -2.452917e+001  2.216786e+001 
4125000000  -2.485807e+001  1.682025e+001 
4128125000  -2.589367e+001  1.704508e+001 
4131250000  -2.560188e+001  2.486605e+001 
4134375000  -2.327809e+001  2.049775e+001 
4137500000  -2.310514e+001  1.812105e+000 
4140625000  -2.522600e+001  -5.198311e+000 
4143750000  -2.648583e+001  -6.129724e-001 
4146875000  -2.613834e+001  7.150436e+000 
4150000000  -2.522446e+001  3.777721e+000 
4153125000  -2.503723e+001  -2.749440e+000 
4156250000  -2.594867e+001  -5.264306e+000 
4159375000  -2.619411e+001  -1.145389e+000 
4162500000  -2.508990e+001  3.328807e+000 
4165625000  -2.392462e+001  -6.970943e-001 
4168750000  -2.337748e+001  -7.894797e+000 
4171875000  -2.333593e+001  -1.687760e+001 
4175000000  -2.391808e+001  -2.255683e+001 
4178125000  -2.452934e+001  -2.273506e+001 
4181250000  -2.443205e+001  -2.312526e+001 
4184375000  -2.427644e+001  -2.637360e+001 
4187500000  -2.428808e+001  -2.901383e+001 
4190625000  -2.412501e+001  -3.461166e+001 
4193750000  -2.489742e+001  -3.835701e+001 
4196875000  -2.562189e+001  -3.898140e+001 
4200000000  -2.643189e+001  -3.646836e+001 
4203125000  -2.653257e+001  -2.276446e+001 
4206250000  -2.311580e+001  -2.141851e+001 
4209375000  -2.194588e+001  -4.205822e+001 
4212500000  -2.386520e+001  -5.066717e+001 
4215625000  -2.485975e+001  -4.467154e+001 
4218750000  -2.357224e+001  -3.816560e+001 
4221875000  -2.124404e+001  -4.693964e+001 
4225000000  -2.250890e+001  -5.975751e+001 
4228125000  -2.316856e+001  -5.437358e+001 
4231250000  -2.158566e+001  -5.780256e+001 
4234375000  -2.155322e+001  -6.643681e+001 
4237500000  -2.113781e+001  -6.972602e+001 
4240625000  -2.111922e+001  -7.843304e+001 
4243750000  -2.208240e+001  -8.518896e+001 
4246875000  -2.299213e+001  -8.531594e+001 
4250000000  -2.303081e+001  -8.246583e+001 
4253125000  -2.244837e+001  -8.440969e+001 
4256250000  -2.270024e+001  -8.852728e+001 
4259375000  -2.249076e+001  -9.050082e+001 
4262500000  -2.249348e+001  -9.394580e+001 
4265625000  -2.266859e+001  -9.411321e+001 
4268750000  -2.176508e+001  -9.821154e+001 
4271875000  -2.152607e+001  -1.035696e+002 
4275000000  -2.091971e+001  -1.100808e+002 
4278125000  -2.153546e+001  -1.211945e+002 
4281250000  -2.333180e+001  -1.231902e+002 
4284375000  -2.302860e+001  -1.226950e+002 
4287500000  -2.380134e+001  -1.256510e+002 
4290625000  -2.507291e+001  -1.162192e+002 
4293750000  -2.309233e+001  -1.109270e+002 
4296875000  -2.171951e+001  -1.225657e+002 
4300000000  -2.256079e+001  -1.313985e+002 
4303125000  -2.372025e+001  -1.302189e+002 
4306250000  -2.310905e+001  -1.243639e+002 
4309375000  -2.170965e+001  -1.264529e+002 
4312500000  -2.159796e+001  -1.343827e+002 
4315625000  -2.181138e+001  -1.407491e+002 
4318750000  -2.212872e+001  -1.440184e+002 
4321875000  -2.232027e+001  -1.437675e+002 
4325000000  -2.173070e+001  -1.427913e+002 
4328125000  -2.125631e+001  -1.493763e+002 
4331250000  -2.115934e+001  -1.571664e+002 
4334375000  -2.158728e+001  -1.619807e+002 
4337500000  -2.246877e+001  -1.645819e+002 
4340625000  -2.300042e+001  -1.612742e+002 
4343750000  -2.241423e+001  -1.607204e+002 
4346875000  -2.200844e+001  -1.660172e+002 
4350000000  -2.196753e+001  -1.713237e+002 
4353125000  -2.207422e+001  -1.789461e+002 
4356250000  -2.385224e+001  -1.797795e+002 
4359375000  -2.445194e+001  -1.658685e+002 
4362500000  -2.174247e+001  -1.643626e+002 
4365625000  -2.009262e+001  -1.761934e+002 
4368750000  -2.080512e+001  1.718530e+002 
4371875000  -2.201748e+001  1.727902e+002 
4375000000  -2.165780e+001  1.735411e+002 
4378125000  -2.105011e+001  1.679718e+002 
4381250000  -2.119823e+001  1.622835e+002 
4384375000  -2.103667e+001  1.579770e+002 
4387500000  -2.179241e+001  1.523264e+002 
4390625000  -2.276692e+001  1.528197e+002 
4393750000  -2.212227e+001  1.552285e+002 
4396875000  -2.145465e+001  1.527789e+002 
4400000000  -2.093221e+001  1.458652e+002 
4403125000  -2.154426e+001  1.384977e+002 
4406250000  -2.239582e+001  1.373431e+002 
4409375000  -2.232213e+001  1.348606e+002 
4412500000  -2.342350e+001  1.320627e+002 
4415625000  -2.372837e+001  1.370371e+002 
4418750000  -2.252810e+001  1.417767e+002 
