!Agilent Technologies,E8363B,MY43030201,A.06.04.32
!Agilent E8363B: A.06.04.32
!Date: Tuesday, November 11, 2014 20:47:26
!Correction: S21(Response(S21)) 
!S1P File: Measurement: S21:
# Hz S  dB   R 50
3000000000  -2.662076e+001  1.581870e+002 
3003125000  -2.800319e+001  1.535004e+002 
3006250000  -2.806475e+001  1.503413e+002 
3009375000  -2.838474e+001  1.556815e+002 
3012500000  -2.792037e+001  1.553448e+002 
3015625000  -2.690538e+001  1.483306e+002 
3018750000  -2.773689e+001  1.473446e+002 
3021875000  -2.653453e+001  1.484202e+002 
3025000000  -2.525410e+001  1.453631e+002 
3028125000  -2.427659e+001  1.408141e+002 
3031250000  -2.323952e+001  1.296939e+002 
3034375000  -2.284881e+001  1.167669e+002 
3037500000  -2.316875e+001  1.047294e+002 
3040625000  -2.447942e+001  9.960690e+001 
3043750000  -2.523765e+001  9.543772e+001 
3046875000  -2.529487e+001  8.901277e+001 
3050000000  -2.703945e+001  8.209837e+001 
3053125000  -2.719252e+001  8.794363e+001 
3056250000  -2.650318e+001  9.098587e+001 
3059375000  -2.683263e+001  9.072746e+001 
3062500000  -2.534850e+001  8.688192e+001 
3065625000  -2.511513e+001  8.165369e+001 
3068750000  -2.482180e+001  7.450918e+001 
3071875000  -2.476056e+001  7.133271e+001 
3075000000  -2.475476e+001  6.773738e+001 
3078125000  -2.443404e+001  6.312300e+001 
3081250000  -2.507994e+001  5.914771e+001 
3084375000  -2.437264e+001  5.531302e+001 
3087500000  -2.420148e+001  5.175789e+001 
3090625000  -2.392563e+001  4.223282e+001 
3093750000  -2.430889e+001  3.415958e+001 
3096875000  -2.561997e+001  2.816747e+001 
3100000000  -2.579296e+001  2.672046e+001 
3103125000  -2.610473e+001  2.812503e+001 
3106250000  -2.588328e+001  2.464819e+001 
3109375000  -2.609690e+001  2.087728e+001 
3112500000  -2.621534e+001  2.029558e+001 
3115625000  -2.602399e+001  1.588227e+001 
3118750000  -2.650287e+001  1.686534e+001 
3121875000  -2.584001e+001  9.151414e+000 
3125000000  -2.695014e+001  5.676922e+000 
3128125000  -2.825590e+001  1.335128e+001 
3131250000  -2.607691e+001  1.451385e+001 
3134375000  -2.467190e+001  1.223126e+000 
3137500000  -2.527507e+001  -1.312945e+001 
3140625000  -2.693856e+001  -1.518481e+001 
3143750000  -2.796530e+001  -1.039375e+001 
3146875000  -2.758969e+001  -8.813535e+000 
3150000000  -2.654904e+001  -6.228937e+000 
3153125000  -2.653039e+001  -1.413987e+001 
3156250000  -2.746319e+001  -8.773343e+000 
3159375000  -2.599721e+001  -5.615401e+000 
3162500000  -2.390219e+001  -1.879381e+001 
3165625000  -2.480565e+001  -2.956422e+001 
3168750000  -2.516705e+001  -2.915631e+001 
3171875000  -2.425850e+001  -3.284061e+001 
3175000000  -2.488131e+001  -4.070930e+001 
3178125000  -2.473073e+001  -3.910918e+001 
3181250000  -2.350814e+001  -4.296770e+001 
3184375000  -2.268577e+001  -5.515324e+001 
3187500000  -2.373765e+001  -7.065578e+001 
3190625000  -2.658898e+001  -7.837015e+001 
3193750000  -2.721198e+001  -6.877776e+001 
3196875000  -2.681602e+001  -6.304103e+001 
3200000000  -2.593327e+001  -6.532727e+001 
3203125000  -2.508457e+001  -7.086691e+001 
3206250000  -2.533934e+001  -7.679273e+001 
3209375000  -2.489827e+001  -8.168632e+001 
3212500000  -2.498101e+001  -8.841760e+001 
3215625000  -2.510322e+001  -9.279986e+001 
3218750000  -2.584162e+001  -9.903677e+001 
3221875000  -2.684535e+001  -1.042141e+002 
3225000000  -2.647978e+001  -1.047635e+002 
3228125000  -2.677265e+001  -1.094359e+002 
3231250000  -2.754354e+001  -1.121105e+002 
3234375000  -2.740112e+001  -1.115471e+002 
3237500000  -2.742019e+001  -1.128430e+002 
3240625000  -2.706905e+001  -1.139497e+002 
3243750000  -2.670351e+001  -1.208591e+002 
3246875000  -2.718480e+001  -1.276174e+002 
3250000000  -2.763568e+001  -1.288534e+002 
3253125000  -2.776799e+001  -1.311816e+002 
3256250000  -2.763761e+001  -1.367746e+002 
3259375000  -2.796349e+001  -1.447392e+002 
3262500000  -2.921512e+001  -1.476958e+002 
3265625000  -2.985311e+001  -1.442528e+002 
3268750000  -2.979350e+001  -1.418744e+002 
3271875000  -2.969874e+001  -1.403333e+002 
3275000000  -2.861262e+001  -1.452712e+002 
3278125000  -2.905957e+001  -1.520585e+002 
3281250000  -2.932399e+001  -1.494496e+002 
3284375000  -2.887651e+001  -1.556414e+002 
3287500000  -2.897604e+001  -1.583483e+002 
3290625000  -2.946719e+001  -1.628492e+002 
3293750000  -2.915214e+001  -1.683237e+002 
3296875000  -3.004994e+001  -1.682914e+002 
3300000000  -3.005464e+001  -1.672467e+002 
3303125000  -2.891505e+001  -1.711001e+002 
3306250000  -2.868825e+001  -1.778704e+002 
3309375000  -2.846458e+001  1.774665e+002 
3312500000  -2.848535e+001  1.671137e+002 
3315625000  -2.950657e+001  1.594347e+002 
3318750000  -3.076581e+001  1.566499e+002 
3321875000  -3.194518e+001  1.561716e+002 
3325000000  -3.246833e+001  1.608692e+002 
3328125000  -3.243636e+001  1.626937e+002 
3331250000  -3.126237e+001  1.696800e+002 
3334375000  -2.874066e+001  1.608786e+002 
3337500000  -2.869962e+001  1.427750e+002 
3340625000  -3.005465e+001  1.317762e+002 
3343750000  -3.191758e+001  1.300543e+002 
3346875000  -3.246697e+001  1.314975e+002 
3350000000  -3.184718e+001  1.302530e+002 
3353125000  -3.203662e+001  1.256052e+002 
3356250000  -3.172807e+001  1.183693e+002 
3359375000  -3.248473e+001  1.100996e+002 
3362500000  -3.388858e+001  1.046536e+002 
3365625000  -3.452526e+001  1.023664e+002 
3368750000  -3.525015e+001  1.008783e+002 
3371875000  -3.577063e+001  9.745389e+001 
3375000000  -3.739278e+001  9.656974e+001 
3378125000  -3.834705e+001  9.478168e+001 
3381250000  -3.991882e+001  1.021253e+002 
3384375000  -3.926192e+001  1.237404e+002 
3387500000  -3.604132e+001  1.110120e+002 
3390625000  -3.770681e+001  9.140557e+001 
3393750000  -3.954691e+001  9.506011e+001 
3396875000  -3.886472e+001  9.776669e+001 
3400000000  -3.868606e+001  9.081696e+001 
3403125000  -3.958831e+001  8.655072e+001 
3406250000  -4.030141e+001  8.964240e+001 
3409375000  -4.093743e+001  8.392480e+001 
3412500000  -4.214558e+001  8.521296e+001 
3415625000  -4.304739e+001  9.094983e+001 
3418750000  -4.347293e+001  9.486971e+001 
3421875000  -4.363590e+001  1.009415e+002 
3425000000  -4.273485e+001  1.047676e+002 
3428125000  -4.169580e+001  1.037414e+002 
3431250000  -4.204596e+001  1.005974e+002 
3434375000  -4.163712e+001  9.628590e+001 
3437500000  -4.217850e+001  9.506908e+001 
3440625000  -4.239943e+001  9.762896e+001 
3443750000  -4.120024e+001  9.928814e+001 
3446875000  -4.017589e+001  9.501102e+001 
3450000000  -4.023590e+001  8.623683e+001 
3453125000  -4.040538e+001  7.659311e+001 
3456250000  -4.163864e+001  7.226771e+001 
3459375000  -4.266424e+001  7.314935e+001 
3462500000  -4.273038e+001  7.669975e+001 
3465625000  -4.262040e+001  7.162727e+001 
3468750000  -4.330292e+001  6.956109e+001 
3471875000  -4.333677e+001  7.063152e+001 
3475000000  -4.312121e+001  6.504299e+001 
3478125000  -4.402254e+001  5.950357e+001 
3481250000  -4.519040e+001  6.146553e+001 
3484375000  -4.704780e+001  6.018270e+001 
3487500000  -4.704791e+001  6.806317e+001 
3490625000  -4.618538e+001  6.632819e+001 
3493750000  -4.698674e+001  6.323124e+001 
3496875000  -4.742207e+001  6.381261e+001 
3500000000  -4.899624e+001  7.199407e+001 
3503125000  -4.899697e+001  7.941482e+001 
3506250000  -4.753716e+001  7.805260e+001 
3509375000  -4.808063e+001  7.524248e+001 
3512500000  -4.870456e+001  7.717120e+001 
3515625000  -4.902986e+001  8.206205e+001 
3518750000  -4.910953e+001  8.627576e+001 
3521875000  -4.874355e+001  9.392500e+001 
3525000000  -4.825550e+001  9.432359e+001 
3528125000  -4.821483e+001  1.061035e+002 
3531250000  -4.614372e+001  1.032376e+002 
3534375000  -4.542493e+001  9.537927e+001 
3537500000  -4.549442e+001  9.454647e+001 
3540625000  -4.557270e+001  9.355349e+001 
3543750000  -4.623169e+001  9.506222e+001 
3546875000  -4.569654e+001  1.084176e+002 
3550000000  -4.313878e+001  1.107159e+002 
3553125000  -4.174672e+001  9.362509e+001 
3556250000  -4.263003e+001  8.638173e+001 
3559375000  -4.253485e+001  8.746761e+001 
3562500000  -4.090255e+001  8.249617e+001 
3565625000  -4.181797e+001  7.618582e+001 
3568750000  -4.201663e+001  7.956792e+001 
3571875000  -4.179615e+001  7.962039e+001 
3575000000  -4.128297e+001  7.598132e+001 
3578125000  -4.150935e+001  7.041102e+001 
3581250000  -4.178201e+001  6.949198e+001 
3584375000  -4.099719e+001  7.081213e+001 
3587500000  -4.008343e+001  6.376707e+001 
3590625000  -4.049709e+001  5.452192e+001 
3593750000  -4.152066e+001  5.367842e+001 
3596875000  -4.157660e+001  6.285933e+001 
3600000000  -3.976005e+001  5.881177e+001 
3603125000  -3.994595e+001  4.612634e+001 
3606250000  -4.050410e+001  4.430882e+001 
3609375000  -4.086914e+001  4.319490e+001 
3612500000  -4.151981e+001  4.266696e+001 
3615625000  -4.153730e+001  3.790530e+001 
3618750000  -4.191219e+001  4.137692e+001 
3621875000  -4.152417e+001  3.837119e+001 
3625000000  -4.167976e+001  4.105944e+001 
3628125000  -4.180951e+001  4.157928e+001 
3631250000  -4.141119e+001  3.388894e+001 
3634375000  -4.235167e+001  3.716393e+001 
3637500000  -4.199147e+001  4.055082e+001 
3640625000  -4.099216e+001  4.210842e+001 
3643750000  -4.059291e+001  3.677914e+001 
3646875000  -4.127923e+001  3.066768e+001 
3650000000  -4.151278e+001  3.054569e+001 
3653125000  -4.138860e+001  3.140425e+001 
3656250000  -4.133292e+001  2.870931e+001 
3659375000  -4.210597e+001  3.200089e+001 
3662500000  -4.132339e+001  3.195239e+001 
3665625000  -4.116886e+001  3.266982e+001 
3668750000  -4.002365e+001  3.249549e+001 
3671875000  -3.909642e+001  2.904175e+001 
3675000000  -3.967792e+001  2.275062e+001 
3678125000  -4.035940e+001  2.479228e+001 
3681250000  -3.964875e+001  2.487781e+001 
3684375000  -3.951611e+001  2.285439e+001 
3687500000  -3.951510e+001  2.192144e+001 
3690625000  -3.966595e+001  1.886308e+001 
3693750000  -4.013195e+001  2.193779e+001 
3696875000  -3.988668e+001  2.369666e+001 
3700000000  -3.881118e+001  2.287610e+001 
3703125000  -3.861739e+001  1.825469e+001 
3706250000  -3.929783e+001  2.091263e+001 
3709375000  -3.863549e+001  2.436082e+001 
3712500000  -3.755560e+001  2.418971e+001 
3715625000  -3.626870e+001  1.794239e+001 
3718750000  -3.570776e+001  1.570427e+001 
3721875000  -3.520382e+001  1.018874e+001 
3725000000  -3.521544e+001  5.851351e+000 
3728125000  -3.542178e+001  4.814450e+000 
3731250000  -3.463108e+001  4.578032e+000 
3734375000  -3.356206e+001  -1.786991e+000 
3737500000  -3.430463e+001  -8.774453e+000 
3740625000  -3.479041e+001  -1.082056e+001 
3743750000  -3.459119e+001  -1.395627e+001 
3746875000  -3.453794e+001  -1.742152e+001 
3750000000  -3.471164e+001  -1.889424e+001 
3753125000  -3.450464e+001  -1.832892e+001 
3756250000  -3.431873e+001  -1.858147e+001 
3759375000  -3.407246e+001  -1.970723e+001 
3762500000  -3.369244e+001  -2.412590e+001 
3765625000  -3.404972e+001  -2.702429e+001 
3768750000  -3.428319e+001  -2.516175e+001 
3771875000  -3.253676e+001  -2.711600e+001 
3775000000  -3.227300e+001  -3.464082e+001 
3778125000  -3.253434e+001  -3.605622e+001 
3781250000  -3.229725e+001  -4.034523e+001 
3784375000  -3.227287e+001  -4.181669e+001 
3787500000  -3.161767e+001  -4.528551e+001 
3790625000  -3.211835e+001  -5.054120e+001 
3793750000  -3.233834e+001  -5.169493e+001 
3796875000  -3.141971e+001  -5.257455e+001 
3800000000  -2.987204e+001  -5.578904e+001 
3803125000  -3.062986e+001  -6.294501e+001 
3806250000  -3.126503e+001  -6.506764e+001 
3809375000  -3.103685e+001  -6.654530e+001 
3812500000  -3.032689e+001  -7.154371e+001 
3815625000  -3.087702e+001  -7.851279e+001 
3818750000  -3.183259e+001  -8.018200e+001 
3821875000  -3.196736e+001  -7.160326e+001 
3825000000  -3.010045e+001  -6.691442e+001 
3828125000  -2.877230e+001  -8.027507e+001 
3831250000  -2.927761e+001  -9.454695e+001 
3834375000  -3.052233e+001  -9.623421e+001 
3837500000  -3.138506e+001  -9.069323e+001 
3840625000  -3.041076e+001  -9.167693e+001 
3843750000  -2.919156e+001  -1.012036e+002 
3846875000  -2.980455e+001  -1.083534e+002 
3850000000  -3.118092e+001  -1.038818e+002 
3853125000  -3.036733e+001  -1.009280e+002 
3856250000  -3.033662e+001  -1.054005e+002 
3859375000  -2.957553e+001  -1.087908e+002 
3862500000  -2.917473e+001  -1.169362e+002 
3865625000  -2.940456e+001  -1.207989e+002 
3868750000  -2.941124e+001  -1.220333e+002 
3871875000  -2.871608e+001  -1.242478e+002 
3875000000  -2.879524e+001  -1.328573e+002 
3878125000  -2.970552e+001  -1.357479e+002 
3881250000  -2.990615e+001  -1.322665e+002 
3884375000  -2.935596e+001  -1.364821e+002 
3887500000  -2.940791e+001  -1.411839e+002 
3890625000  -2.994502e+001  -1.444724e+002 
3893750000  -3.035806e+001  -1.447781e+002 
3896875000  -3.037524e+001  -1.444441e+002 
3900000000  -3.072505e+001  -1.455832e+002 
3903125000  -3.036943e+001  -1.479654e+002 
3906250000  -3.016735e+001  -1.480989e+002 
3909375000  -2.939816e+001  -1.503407e+002 
3912500000  -2.935059e+001  -1.587742e+002 
3915625000  -3.064247e+001  -1.575487e+002 
3918750000  -3.064836e+001  -1.560242e+002 
3921875000  -3.023618e+001  -1.570107e+002 
3925000000  -2.954014e+001  -1.580123e+002 
3928125000  -2.883057e+001  -1.636688e+002 
3931250000  -2.918135e+001  -1.676070e+002 
3934375000  -2.941133e+001  -1.676336e+002 
3937500000  -2.956680e+001  -1.684164e+002 
3940625000  -3.007214e+001  -1.681927e+002 
3943750000  -2.917197e+001  -1.664763e+002 
3946875000  -2.781059e+001  -1.716955e+002 
3950000000  -2.833443e+001  -1.788581e+002 
3953125000  -2.920786e+001  -1.792918e+002 
3956250000  -2.838026e+001  -1.762292e+002 
3959375000  -2.715459e+001  -1.798044e+002 
3962500000  -2.652605e+001  1.767753e+002 
3965625000  -2.613537e+001  1.679445e+002 
3968750000  -2.703629e+001  1.605696e+002 
3971875000  -2.747043e+001  1.592495e+002 
3975000000  -2.679882e+001  1.575010e+002 
3978125000  -2.666572e+001  1.561672e+002 
3981250000  -2.636842e+001  1.522999e+002 
3984375000  -2.653882e+001  1.459372e+002 
3987500000  -2.706507e+001  1.435278e+002 
3990625000  -2.702680e+001  1.426207e+002 
3993750000  -2.724072e+001  1.393813e+002 
3996875000  -2.723886e+001  1.370875e+002 
4000000000  -2.726049e+001  1.349557e+002 
4003125000  -2.787465e+001  1.370609e+002 
4006250000  -2.654735e+001  1.380787e+002 
4009375000  -2.529798e+001  1.254289e+002 
4012500000  -2.619684e+001  1.183763e+002 
4015625000  -2.749639e+001  1.186526e+002 
4018750000  -2.772453e+001  1.207236e+002 
4021875000  -2.700663e+001  1.195422e+002 
4025000000  -2.661435e+001  1.145016e+002 
4028125000  -2.661436e+001  1.107396e+002 
4031250000  -2.696739e+001  1.071965e+002 
4034375000  -2.729699e+001  1.068966e+002 
4037500000  -2.673943e+001  1.084275e+002 
4040625000  -2.671987e+001  1.051513e+002 
4043750000  -2.713478e+001  1.047582e+002 
4046875000  -2.657548e+001  1.045890e+002 
4050000000  -2.607932e+001  9.901396e+001 
4053125000  -2.651058e+001  9.599712e+001 
4056250000  -2.716472e+001  9.921534e+001 
4059375000  -2.612860e+001  1.017490e+002 
4062500000  -2.468641e+001  9.830014e+001 
4065625000  -2.449923e+001  9.389275e+001 
4068750000  -2.420739e+001  8.940672e+001 
4071875000  -2.353728e+001  8.154372e+001 
4075000000  -2.383029e+001  7.461475e+001 
4078125000  -2.436192e+001  7.375290e+001 
4081250000  -2.391316e+001  7.133671e+001 
4084375000  -2.349684e+001  6.505766e+001 
4087500000  -2.383558e+001  5.846361e+001 
4090625000  -2.439048e+001  5.689408e+001 
4093750000  -2.428929e+001  5.775230e+001 
4096875000  -2.381810e+001  5.224636e+001 
4100000000  -2.448730e+001  4.533996e+001 
4103125000  -2.532974e+001  4.545270e+001 
4106250000  -2.520052e+001  5.030064e+001 
4109375000  -2.436641e+001  4.992289e+001 
4112500000  -2.379713e+001  4.340294e+001 
4115625000  -2.399765e+001  3.885078e+001 
4118750000  -2.414586e+001  3.583602e+001 
4121875000  -2.388493e+001  3.118726e+001 
4125000000  -2.412236e+001  2.659340e+001 
4128125000  -2.518613e+001  2.675983e+001 
4131250000  -2.480625e+001  3.456486e+001 
4134375000  -2.251857e+001  3.031252e+001 
4137500000  -2.226204e+001  1.157789e+001 
4140625000  -2.435550e+001  3.737597e+000 
4143750000  -2.573277e+001  8.524278e+000 
4146875000  -2.527636e+001  1.617754e+001 
4150000000  -2.444432e+001  1.297858e+001 
4153125000  -2.420575e+001  6.543913e+000 
4156250000  -2.501572e+001  3.506275e+000 
4159375000  -2.540595e+001  7.773493e+000 
4162500000  -2.427080e+001  1.223901e+001 
4165625000  -2.319833e+001  8.516107e+000 
4168750000  -2.250738e+001  9.405967e-001 
4171875000  -2.242916e+001  -7.875047e+000 
4175000000  -2.299203e+001  -1.396363e+001 
4178125000  -2.361731e+001  -1.458396e+001 
4181250000  -2.353222e+001  -1.473197e+001 
4184375000  -2.333334e+001  -1.813740e+001 
4187500000  -2.340101e+001  -2.086603e+001 
4190625000  -2.326341e+001  -2.651537e+001 
4193750000  -2.395857e+001  -3.042558e+001 
4196875000  -2.472146e+001  -3.026398e+001 
4200000000  -2.547325e+001  -2.840847e+001 
4203125000  -2.562923e+001  -1.599817e+001 
4206250000  -2.244869e+001  -1.347530e+001 
4209375000  -2.114536e+001  -3.383073e+001 
4212500000  -2.303625e+001  -4.229271e+001 
4215625000  -2.396602e+001  -3.601423e+001 
4218750000  -2.258439e+001  -2.936021e+001 
4221875000  -2.031382e+001  -3.873837e+001 
4225000000  -2.137875e+001  -5.228066e+001 
4228125000  -2.223220e+001  -4.702516e+001 
4231250000  -2.081002e+001  -5.082439e+001 
4234375000  -2.065085e+001  -5.884636e+001 
4237500000  -2.022837e+001  -6.259060e+001 
4240625000  -2.025370e+001  -7.084648e+001 
4243750000  -2.130154e+001  -7.712276e+001 
4246875000  -2.209141e+001  -7.708739e+001 
4250000000  -2.210752e+001  -7.434895e+001 
4253125000  -2.152634e+001  -7.632809e+001 
4256250000  -2.170627e+001  -8.097863e+001 
4259375000  -2.155553e+001  -8.317865e+001 
4262500000  -2.154924e+001  -8.691985e+001 
4265625000  -2.170140e+001  -8.682391e+001 
4268750000  -2.094353e+001  -9.009364e+001 
4271875000  -2.064270e+001  -9.574227e+001 
4275000000  -1.992382e+001  -1.020539e+002 
4278125000  -2.046292e+001  -1.140157e+002 
4281250000  -2.224694e+001  -1.165732e+002 
4284375000  -2.205954e+001  -1.158560e+002 
4287500000  -2.283260e+001  -1.195607e+002 
4290625000  -2.427781e+001  -1.102969e+002 
4293750000  -2.227883e+001  -1.036304e+002 
4296875000  -2.085387e+001  -1.148474e+002 
4300000000  -2.166489e+001  -1.241344e+002 
4303125000  -2.271905e+001  -1.232227e+002 
4306250000  -2.215931e+001  -1.178020e+002 
4309375000  -2.075225e+001  -1.200542e+002 
4312500000  -2.068999e+001  -1.284565e+002 
4315625000  -2.095493e+001  -1.339181e+002 
4318750000  -2.127514e+001  -1.375244e+002 
4321875000  -2.141657e+001  -1.368418e+002 
4325000000  -2.079585e+001  -1.366123e+002 
4328125000  -2.035931e+001  -1.430954e+002 
4331250000  -2.035126e+001  -1.509727e+002 
4334375000  -2.076278e+001  -1.556066e+002 
4337500000  -2.147121e+001  -1.580787e+002 
4340625000  -2.199973e+001  -1.555333e+002 
4343750000  -2.153716e+001  -1.548832e+002 
4346875000  -2.116532e+001  -1.599347e+002 
4350000000  -2.101598e+001  -1.644416e+002 
4353125000  -2.105061e+001  -1.724035e+002 
4356250000  -2.265260e+001  -1.742801e+002 
4359375000  -2.340973e+001  -1.620256e+002 
4362500000  -2.101194e+001  -1.594165e+002 
4365625000  -1.934184e+001  -1.699181e+002 
4368750000  -1.998920e+001  1.780576e+002 
4371875000  -2.111226e+001  1.780884e+002 
4375000000  -2.088490e+001  1.794789e+002 
4378125000  -2.026812e+001  1.741939e+002 
4381250000  -2.035827e+001  1.684899e+002 
4384375000  -2.013548e+001  1.637273e+002 
4387500000  -2.076600e+001  1.575758e+002 
4390625000  -2.182053e+001  1.582520e+002 
4393750000  -2.127227e+001  1.605477e+002 
4396875000  -2.060055e+001  1.582322e+002 
4400000000  -2.014311e+001  1.517023e+002 
4403125000  -2.057401e+001  1.438048e+002 
4406250000  -2.145968e+001  1.427348e+002 
4409375000  -2.135700e+001  1.401977e+002 
4412500000  -2.230074e+001  1.372882e+002 
4415625000  -2.279565e+001  1.412169e+002 
4418750000  -2.180807e+001  1.465984e+002 
