!Agilent Technologies,E8363B,MY43030201,A.06.04.32
!Agilent E8363B: A.06.04.32
!Date: Tuesday, November 11, 2014 20:47:41
!Correction: S21(Response(S21)) 
!S1P File: Measurement: S21:
# Hz S  dB   R 50
3000000000  -2.651189e+001  1.565477e+002 
3003125000  -2.784147e+001  1.520531e+002 
3006250000  -2.794134e+001  1.493505e+002 
3009375000  -2.832887e+001  1.540967e+002 
3012500000  -2.782290e+001  1.537393e+002 
3015625000  -2.679657e+001  1.468873e+002 
3018750000  -2.766635e+001  1.460842e+002 
3021875000  -2.641715e+001  1.472577e+002 
3025000000  -2.515308e+001  1.442549e+002 
3028125000  -2.416795e+001  1.396361e+002 
3031250000  -2.310472e+001  1.282850e+002 
3034375000  -2.273928e+001  1.153642e+002 
3037500000  -2.310252e+001  1.034430e+002 
3040625000  -2.441711e+001  9.844077e+001 
3043750000  -2.514393e+001  9.424834e+001 
3046875000  -2.523398e+001  8.777655e+001 
3050000000  -2.698661e+001  8.064506e+001 
3053125000  -2.715677e+001  8.696207e+001 
3056250000  -2.643890e+001  8.998617e+001 
3059375000  -2.670027e+001  8.976977e+001 
3062500000  -2.521608e+001  8.585176e+001 
3065625000  -2.498584e+001  8.044731e+001 
3068750000  -2.468663e+001  7.353352e+001 
3071875000  -2.469260e+001  7.017809e+001 
3075000000  -2.460771e+001  6.671283e+001 
3078125000  -2.435099e+001  6.209949e+001 
3081250000  -2.499647e+001  5.803074e+001 
3084375000  -2.426907e+001  5.444721e+001 
3087500000  -2.408971e+001  5.072673e+001 
3090625000  -2.384245e+001  4.115541e+001 
3093750000  -2.422343e+001  3.309263e+001 
3096875000  -2.553355e+001  2.705002e+001 
3100000000  -2.565036e+001  2.548345e+001 
3103125000  -2.605839e+001  2.674421e+001 
3106250000  -2.578654e+001  2.362554e+001 
3109375000  -2.600262e+001  2.000461e+001 
3112500000  -2.614920e+001  1.910886e+001 
3115625000  -2.593703e+001  1.489532e+001 
3118750000  -2.646345e+001  1.611315e+001 
3121875000  -2.578918e+001  8.155751e+000 
3125000000  -2.688674e+001  4.651841e+000 
3128125000  -2.813569e+001  1.225656e+001 
3131250000  -2.594874e+001  1.322558e+001 
3134375000  -2.459462e+001  -2.884173e-001 
3137500000  -2.530444e+001  -1.427754e+001 
3140625000  -2.687039e+001  -1.621910e+001 
3143750000  -2.791424e+001  -1.181949e+001 
3146875000  -2.748968e+001  -9.783030e+000 
3150000000  -2.651478e+001  -7.260459e+000 
3153125000  -2.645836e+001  -1.513628e+001 
3156250000  -2.745533e+001  -1.002801e+001 
3159375000  -2.594013e+001  -6.732203e+000 
3162500000  -2.390825e+001  -1.983357e+001 
3165625000  -2.477206e+001  -3.071700e+001 
3168750000  -2.521336e+001  -2.983191e+001 
3171875000  -2.425083e+001  -3.408099e+001 
3175000000  -2.486253e+001  -4.186130e+001 
3178125000  -2.468972e+001  -3.997860e+001 
3181250000  -2.350742e+001  -4.400582e+001 
3184375000  -2.266559e+001  -5.631548e+001 
3187500000  -2.376482e+001  -7.175745e+001 
3190625000  -2.655282e+001  -7.965110e+001 
3193750000  -2.719455e+001  -6.958603e+001 
3196875000  -2.676819e+001  -6.431464e+001 
3200000000  -2.593763e+001  -6.609740e+001 
3203125000  -2.504212e+001  -7.170671e+001 
3206250000  -2.530753e+001  -7.782523e+001 
3209375000  -2.484515e+001  -8.282585e+001 
3212500000  -2.494004e+001  -8.951501e+001 
3215625000  -2.510369e+001  -9.401009e+001 
3218750000  -2.585687e+001  -1.002466e+002 
3221875000  -2.685479e+001  -1.051401e+002 
3225000000  -2.645597e+001  -1.058765e+002 
3228125000  -2.678013e+001  -1.102670e+002 
3231250000  -2.750467e+001  -1.130674e+002 
3234375000  -2.739057e+001  -1.120111e+002 
3237500000  -2.739997e+001  -1.136711e+002 
3240625000  -2.707347e+001  -1.151538e+002 
3243750000  -2.667037e+001  -1.219390e+002 
3246875000  -2.721585e+001  -1.282498e+002 
3250000000  -2.762417e+001  -1.302231e+002 
3253125000  -2.784300e+001  -1.322571e+002 
3256250000  -2.767163e+001  -1.378783e+002 
3259375000  -2.798381e+001  -1.452502e+002 
3262500000  -2.927848e+001  -1.485527e+002 
3265625000  -2.991529e+001  -1.452002e+002 
3268750000  -2.991744e+001  -1.424165e+002 
3271875000  -2.967697e+001  -1.409559e+002 
3275000000  -2.860469e+001  -1.463696e+002 
3278125000  -2.907485e+001  -1.526638e+002 
3281250000  -2.936355e+001  -1.507735e+002 
3284375000  -2.890641e+001  -1.564935e+002 
3287500000  -2.906001e+001  -1.595544e+002 
3290625000  -2.954763e+001  -1.637853e+002 
3293750000  -2.915447e+001  -1.692623e+002 
3296875000  -3.012445e+001  -1.695044e+002 
3300000000  -3.009882e+001  -1.682473e+002 
3303125000  -2.893729e+001  -1.719418e+002 
3306250000  -2.873243e+001  -1.786117e+002 
3309375000  -2.848423e+001  1.761729e+002 
3312500000  -2.852430e+001  1.663198e+002 
3315625000  -2.953201e+001  1.580429e+002 
3318750000  -3.084268e+001  1.555349e+002 
3321875000  -3.207571e+001  1.554618e+002 
3325000000  -3.260546e+001  1.602530e+002 
3328125000  -3.247927e+001  1.617086e+002 
3331250000  -3.125499e+001  1.691961e+002 
3334375000  -2.882035e+001  1.602956e+002 
3337500000  -2.876306e+001  1.417420e+002 
3340625000  -3.021029e+001  1.300948e+002 
3343750000  -3.213061e+001  1.290912e+002 
3346875000  -3.274457e+001  1.299350e+002 
3350000000  -3.204703e+001  1.291757e+002 
3353125000  -3.223640e+001  1.248443e+002 
3356250000  -3.187395e+001  1.172683e+002 
3359375000  -3.279882e+001  1.093764e+002 
3362500000  -3.407098e+001  1.031509e+002 
3365625000  -3.467023e+001  1.016457e+002 
3368750000  -3.559293e+001  9.950144e+001 
3371875000  -3.606092e+001  9.711704e+001 
3375000000  -3.740914e+001  9.435139e+001 
3378125000  -3.879586e+001  9.458456e+001 
3381250000  -4.031025e+001  1.024259e+002 
3384375000  -3.968760e+001  1.231268e+002 
3387500000  -3.663596e+001  1.085657e+002 
3390625000  -3.813083e+001  8.986829e+001 
3393750000  -4.002650e+001  9.449995e+001 
3396875000  -3.899532e+001  9.821188e+001 
3400000000  -3.897787e+001  9.223582e+001 
3403125000  -4.008804e+001  8.791222e+001 
3406250000  -4.081050e+001  8.987621e+001 
3409375000  -4.147339e+001  8.560657e+001 
3412500000  -4.248540e+001  8.657465e+001 
3415625000  -4.323655e+001  9.138567e+001 
3418750000  -4.341986e+001  9.482290e+001 
3421875000  -4.394926e+001  1.034863e+002 
3425000000  -4.330290e+001  1.060826e+002 
3428125000  -4.221193e+001  1.065913e+002 
3431250000  -4.202026e+001  1.014831e+002 
3434375000  -4.181443e+001  9.800668e+001 
3437500000  -4.217074e+001  9.687582e+001 
3440625000  -4.289995e+001  9.886761e+001 
3443750000  -4.131327e+001  1.049085e+002 
3446875000  -4.050491e+001  9.771859e+001 
3450000000  -4.012524e+001  8.906889e+001 
3453125000  -4.045036e+001  8.277337e+001 
3456250000  -4.175487e+001  7.496375e+001 
3459375000  -4.252613e+001  7.784918e+001 
3462500000  -4.292961e+001  7.866916e+001 
3465625000  -4.289556e+001  7.348465e+001 
3468750000  -4.337922e+001  7.149493e+001 
3471875000  -4.346185e+001  7.367918e+001 
3475000000  -4.320584e+001  6.897812e+001 
3478125000  -4.409456e+001  6.450682e+001 
3481250000  -4.517428e+001  6.235321e+001 
3484375000  -4.643166e+001  6.888036e+001 
3487500000  -4.579218e+001  7.280943e+001 
3490625000  -4.576339e+001  7.176237e+001 
3493750000  -4.575701e+001  6.594166e+001 
3496875000  -4.744564e+001  6.848653e+001 
3500000000  -4.867254e+001  7.618037e+001 
3503125000  -4.804145e+001  7.797051e+001 
3506250000  -4.694382e+001  8.264606e+001 
3509375000  -4.689416e+001  7.988044e+001 
3512500000  -4.726657e+001  8.164610e+001 
3515625000  -4.813029e+001  7.977034e+001 
3518750000  -4.806063e+001  9.017344e+001 
3521875000  -4.754039e+001  9.279401e+001 
3525000000  -4.772337e+001  9.066243e+001 
3528125000  -4.737613e+001  1.016921e+002 
3531250000  -4.580100e+001  1.004253e+002 
3534375000  -4.520225e+001  9.535602e+001 
3537500000  -4.515253e+001  9.070940e+001 
3540625000  -4.544916e+001  9.201231e+001 
3543750000  -4.603533e+001  9.449345e+001 
3546875000  -4.549679e+001  1.066711e+002 
3550000000  -4.317854e+001  1.064742e+002 
3553125000  -4.130616e+001  9.038615e+001 
3556250000  -4.208352e+001  8.446339e+001 
3559375000  -4.202345e+001  8.795250e+001 
3562500000  -4.074002e+001  8.006100e+001 
3565625000  -4.152483e+001  7.506813e+001 
3568750000  -4.163031e+001  7.688371e+001 
3571875000  -4.129803e+001  7.775015e+001 
3575000000  -4.081508e+001  7.254765e+001 
3578125000  -4.108186e+001  6.820446e+001 
3581250000  -4.137947e+001  6.744175e+001 
3584375000  -4.026823e+001  6.728911e+001 
3587500000  -3.982415e+001  6.227765e+001 
3590625000  -4.013386e+001  5.361094e+001 
3593750000  -4.095612e+001  5.162086e+001 
3596875000  -4.105524e+001  5.782525e+001 
3600000000  -3.961296e+001  5.528660e+001 
3603125000  -3.962436e+001  4.233767e+001 
3606250000  -4.018442e+001  3.994861e+001 
3609375000  -4.054497e+001  3.876091e+001 
3612500000  -4.140187e+001  3.711045e+001 
3615625000  -4.116145e+001  3.415335e+001 
3618750000  -4.163342e+001  3.620537e+001 
3621875000  -4.150187e+001  3.579477e+001 
3625000000  -4.143012e+001  3.495491e+001 
3628125000  -4.176155e+001  3.585421e+001 
3631250000  -4.137774e+001  3.054739e+001 
3634375000  -4.228803e+001  2.974626e+001 
3637500000  -4.217231e+001  3.682164e+001 
3640625000  -4.100034e+001  3.766878e+001 
3643750000  -4.061519e+001  3.294014e+001 
3646875000  -4.134163e+001  2.713474e+001 
3650000000  -4.158839e+001  2.671027e+001 
3653125000  -4.169016e+001  2.680855e+001 
3656250000  -4.164038e+001  2.592213e+001 
3659375000  -4.191571e+001  3.096878e+001 
3662500000  -4.145639e+001  2.821259e+001 
3665625000  -4.146407e+001  2.956339e+001 
3668750000  -4.052388e+001  3.102220e+001 
3671875000  -3.946063e+001  2.655468e+001 
3675000000  -3.993626e+001  2.118928e+001 
3678125000  -4.039154e+001  2.240892e+001 
3681250000  -3.989365e+001  2.287622e+001 
3684375000  -3.993667e+001  2.012718e+001 
3687500000  -3.977598e+001  1.882101e+001 
3690625000  -3.969486e+001  1.675696e+001 
3693750000  -4.018286e+001  1.868057e+001 
3696875000  -3.986146e+001  2.046346e+001 
3700000000  -3.880785e+001  2.163342e+001 
3703125000  -3.857552e+001  1.653045e+001 
3706250000  -3.931196e+001  1.835465e+001 
3709375000  -3.866129e+001  2.228355e+001 
3712500000  -3.745094e+001  2.154117e+001 
3715625000  -3.629036e+001  1.490167e+001 
3718750000  -3.577332e+001  1.304606e+001 
3721875000  -3.524216e+001  7.358159e+000 
3725000000  -3.525032e+001  1.517907e+000 
3728125000  -3.529889e+001  1.587748e+000 
3731250000  -3.458608e+001  1.474746e+000 
3734375000  -3.375245e+001  -5.419416e+000 
3737500000  -3.429955e+001  -1.222348e+001 
3740625000  -3.496041e+001  -1.509704e+001 
3743750000  -3.463113e+001  -1.775970e+001 
3746875000  -3.469285e+001  -2.013613e+001 
3750000000  -3.512947e+001  -2.229745e+001 
3753125000  -3.466729e+001  -2.154040e+001 
3756250000  -3.459653e+001  -2.242287e+001 
3759375000  -3.442756e+001  -2.221460e+001 
3762500000  -3.389505e+001  -2.653619e+001 
3765625000  -3.415102e+001  -2.959879e+001 
3768750000  -3.451240e+001  -2.724932e+001 
3771875000  -3.258314e+001  -2.950939e+001 
3775000000  -3.242903e+001  -3.721870e+001 
3778125000  -3.264102e+001  -3.818520e+001 
3781250000  -3.247078e+001  -4.198084e+001 
3784375000  -3.231839e+001  -4.344409e+001 
3787500000  -3.171299e+001  -4.705780e+001 
3790625000  -3.226898e+001  -5.314547e+001 
3793750000  -3.249033e+001  -5.269086e+001 
3796875000  -3.153755e+001  -5.466921e+001 
3800000000  -3.005506e+001  -5.804488e+001 
3803125000  -3.078847e+001  -6.465942e+001 
3806250000  -3.132836e+001  -6.680701e+001 
3809375000  -3.105975e+001  -6.837277e+001 
3812500000  -3.048584e+001  -7.345884e+001 
3815625000  -3.094847e+001  -8.022009e+001 
3818750000  -3.202587e+001  -8.222299e+001 
3821875000  -3.203984e+001  -7.452994e+001 
3825000000  -3.014246e+001  -6.957509e+001 
3828125000  -2.886072e+001  -8.323382e+001 
3831250000  -2.930417e+001  -9.776318e+001 
3834375000  -3.063519e+001  -9.831763e+001 
3837500000  -3.164866e+001  -9.391090e+001 
3840625000  -3.047272e+001  -9.448313e+001 
3843750000  -2.929303e+001  -1.045121e+002 
3846875000  -2.995302e+001  -1.115881e+002 
3850000000  -3.135466e+001  -1.067719e+002 
3853125000  -3.039952e+001  -1.032506e+002 
3856250000  -3.045704e+001  -1.078968e+002 
3859375000  -2.975584e+001  -1.128927e+002 
3862500000  -2.931033e+001  -1.203275e+002 
3865625000  -2.959896e+001  -1.248142e+002 
3868750000  -2.969104e+001  -1.250522e+002 
3871875000  -2.887829e+001  -1.278629e+002 
3875000000  -2.900552e+001  -1.364497e+002 
3878125000  -3.002949e+001  -1.394282e+002 
3881250000  -3.009804e+001  -1.358178e+002 
3884375000  -2.961376e+001  -1.402928e+002 
3887500000  -2.976780e+001  -1.446781e+002 
3890625000  -3.024965e+001  -1.468930e+002 
3893750000  -3.067439e+001  -1.483912e+002 
3896875000  -3.074017e+001  -1.473286e+002 
3900000000  -3.103847e+001  -1.480403e+002 
3903125000  -3.075045e+001  -1.503870e+002 
3906250000  -3.037201e+001  -1.514419e+002 
3909375000  -2.978185e+001  -1.536900e+002 
3912500000  -2.975794e+001  -1.611452e+002 
3915625000  -3.094009e+001  -1.601761e+002 
3918750000  -3.097250e+001  -1.581464e+002 
3921875000  -3.062070e+001  -1.600251e+002 
3925000000  -2.974807e+001  -1.613634e+002 
3928125000  -2.904689e+001  -1.663716e+002 
3931250000  -2.945290e+001  -1.703043e+002 
3934375000  -2.976158e+001  -1.701543e+002 
3937500000  -2.986226e+001  -1.705765e+002 
3940625000  -3.028507e+001  -1.708146e+002 
3943750000  -2.945912e+001  -1.692866e+002 
3946875000  -2.814729e+001  -1.742962e+002 
3950000000  -2.853334e+001  1.773038e+002 
3953125000  -2.953083e+001  1.776125e+002 
3956250000  -2.880844e+001  -1.789120e+002 
3959375000  -2.743272e+001  1.778101e+002 
3962500000  -2.688627e+001  1.735770e+002 
3965625000  -2.645119e+001  1.652957e+002 
3968750000  -2.744701e+001  1.578487e+002 
3971875000  -2.792637e+001  1.560859e+002 
3975000000  -2.711801e+001  1.549500e+002 
3978125000  -2.693556e+001  1.531371e+002 
3981250000  -2.670965e+001  1.489525e+002 
3984375000  -2.696487e+001  1.426155e+002 
3987500000  -2.748920e+001  1.404163e+002 
3990625000  -2.744316e+001  1.396108e+002 
3993750000  -2.768734e+001  1.366105e+002 
3996875000  -2.767076e+001  1.336644e+002 
4000000000  -2.770769e+001  1.320769e+002 
4003125000  -2.841151e+001  1.340907e+002 
4006250000  -2.709174e+001  1.348207e+002 
4009375000  -2.576670e+001  1.223972e+002 
4012500000  -2.677243e+001  1.152925e+002 
4015625000  -2.805859e+001  1.156970e+002 
4018750000  -2.827741e+001  1.182227e+002 
4021875000  -2.768662e+001  1.166973e+002 
4025000000  -2.723826e+001  1.118649e+002 
4028125000  -2.713522e+001  1.074719e+002 
4031250000  -2.771340e+001  1.042814e+002 
4034375000  -2.795181e+001  1.046948e+002 
4037500000  -2.739116e+001  1.064540e+002 
4040625000  -2.728394e+001  1.029298e+002 
4043750000  -2.759989e+001  1.027476e+002 
4046875000  -2.721286e+001  1.027061e+002 
4050000000  -2.669394e+001  9.673260e+001 
4053125000  -2.710661e+001  9.438025e+001 
4056250000  -2.765376e+001  9.818585e+001 
4059375000  -2.655541e+001  1.004927e+002 
4062500000  -2.515568e+001  9.605632e+001 
4065625000  -2.495807e+001  9.116425e+001 
4068750000  -2.472641e+001  8.671392e+001 
4071875000  -2.406820e+001  7.906400e+001 
4075000000  -2.442073e+001  7.245808e+001 
4078125000  -2.495971e+001  7.148286e+001 
4081250000  -2.443872e+001  6.915968e+001 
4084375000  -2.407139e+001  6.255705e+001 
4087500000  -2.442349e+001  5.631247e+001 
4090625000  -2.501894e+001  5.506718e+001 
4093750000  -2.483442e+001  5.584518e+001 
4096875000  -2.440888e+001  5.001835e+001 
4100000000  -2.504083e+001  4.278088e+001 
4103125000  -2.591205e+001  4.312663e+001 
4106250000  -2.589818e+001  4.810926e+001 
4109375000  -2.500375e+001  4.776313e+001 
4112500000  -2.445185e+001  4.117781e+001 
4115625000  -2.474521e+001  3.691461e+001 
4118750000  -2.487520e+001  3.384346e+001 
4121875000  -2.446103e+001  2.956282e+001 
4125000000  -2.476695e+001  2.424875e+001 
4128125000  -2.582961e+001  2.411258e+001 
4131250000  -2.555702e+001  3.228445e+001 
4134375000  -2.322639e+001  2.807269e+001 
4137500000  -2.302334e+001  9.355645e+000 
4140625000  -2.513921e+001  2.205703e+000 
4143750000  -2.651942e+001  6.429534e+000 
4146875000  -2.613400e+001  1.436149e+001 
4150000000  -2.518627e+001  1.165179e+001 
4153125000  -2.498339e+001  4.869140e+000 
4156250000  -2.586693e+001  2.547887e+000 
4159375000  -2.618512e+001  6.683160e+000 
4162500000  -2.499582e+001  1.100340e+001 
4165625000  -2.387657e+001  7.149765e+000 
4168750000  -2.330938e+001  4.096017e-001 
4171875000  -2.329979e+001  -8.968431e+000 
4175000000  -2.381396e+001  -1.464631e+001 
4178125000  -2.443355e+001  -1.496391e+001 
4181250000  -2.436140e+001  -1.526251e+001 
4184375000  -2.417854e+001  -1.836462e+001 
4187500000  -2.421138e+001  -2.111271e+001 
4190625000  -2.403695e+001  -2.659122e+001 
4193750000  -2.477547e+001  -3.033082e+001 
4196875000  -2.547609e+001  -3.076172e+001 
4200000000  -2.621060e+001  -2.907500e+001 
4203125000  -2.644806e+001  -1.615097e+001 
4206250000  -2.312102e+001  -1.373217e+001 
4209375000  -2.188243e+001  -3.414441e+001 
4212500000  -2.370057e+001  -4.285073e+001 
4215625000  -2.474856e+001  -3.735498e+001 
4218750000  -2.346207e+001  -3.050842e+001 
4221875000  -2.116757e+001  -3.895010e+001 
4225000000  -2.237028e+001  -5.239540e+001 
4228125000  -2.308146e+001  -4.687981e+001 
4231250000  -2.159070e+001  -5.056441e+001 
4234375000  -2.147024e+001  -5.899614e+001 
4237500000  -2.101657e+001  -6.235550e+001 
4240625000  -2.105441e+001  -7.057519e+001 
4243750000  -2.198501e+001  -7.735056e+001 
4246875000  -2.286712e+001  -7.765038e+001 
4250000000  -2.293976e+001  -7.475115e+001 
4253125000  -2.235949e+001  -7.640431e+001 
4256250000  -2.263338e+001  -8.093555e+001 
4259375000  -2.239780e+001  -8.264056e+001 
4262500000  -2.236978e+001  -8.655016e+001 
4265625000  -2.259281e+001  -8.630853e+001 
4268750000  -2.175133e+001  -9.012690e+001 
4271875000  -2.150797e+001  -9.585300e+001 
4275000000  -2.084627e+001  -1.019555e+002 
4278125000  -2.140347e+001  -1.130945e+002 
4281250000  -2.326239e+001  -1.153681e+002 
4284375000  -2.295411e+001  -1.142289e+002 
4287500000  -2.369502e+001  -1.181894e+002 
4290625000  -2.500399e+001  -1.087677e+002 
4293750000  -2.306413e+001  -1.032044e+002 
4296875000  -2.166217e+001  -1.137673e+002 
4300000000  -2.245863e+001  -1.236330e+002 
4303125000  -2.357215e+001  -1.224444e+002 
4306250000  -2.301838e+001  -1.163979e+002 
4309375000  -2.164269e+001  -1.182022e+002 
4312500000  -2.146506e+001  -1.264415e+002 
4315625000  -2.169532e+001  -1.326788e+002 
4318750000  -2.196951e+001  -1.361668e+002 
4321875000  -2.219116e+001  -1.357078e+002 
4325000000  -2.157088e+001  -1.350594e+002 
4328125000  -2.111177e+001  -1.413015e+002 
4331250000  -2.104087e+001  -1.493548e+002 
4334375000  -2.141981e+001  -1.545929e+002 
4337500000  -2.221919e+001  -1.566600e+002 
4340625000  -2.279696e+001  -1.535607e+002 
4343750000  -2.225917e+001  -1.529862e+002 
4346875000  -2.183041e+001  -1.582904e+002 
4350000000  -2.182968e+001  -1.628997e+002 
4353125000  -2.181896e+001  -1.707723e+002 
4356250000  -2.355714e+001  -1.719676e+002 
4359375000  -2.427839e+001  -1.596183e+002 
4362500000  -2.164563e+001  -1.572149e+002 
4365625000  -1.999832e+001  -1.681055e+002 
4368750000  -2.061034e+001  1.794143e+002 
4371875000  -2.189810e+001  1.798688e+002 
4375000000  -2.158812e+001  -1.788189e+002 
4378125000  -2.091089e+001  1.756636e+002 
4381250000  -2.107273e+001  1.702542e+002 
4384375000  -2.089373e+001  1.657197e+002 
4387500000  -2.158127e+001  1.597152e+002 
4390625000  -2.264300e+001  1.607491e+002 
4393750000  -2.201220e+001  1.627504e+002 
4396875000  -2.129302e+001  1.606741e+002 
4400000000  -2.084137e+001  1.537441e+002 
4403125000  -2.138569e+001  1.462873e+002 
4406250000  -2.223437e+001  1.450798e+002 
4409375000  -2.217002e+001  1.427662e+002 
4412500000  -2.320331e+001  1.399346e+002 
4415625000  -2.367506e+001  1.447373e+002 
4418750000  -2.247498e+001  1.492698e+002 
4421875000  -2.096255e+001  1.455878e+002 
