!Agilent Technologies,E8363B,MY43030201,A.06.04.32
!Agilent E8363B: A.06.04.32
!Date: Tuesday, November 11, 2014 20:57:43
!Correction: S21(Response(S21)) 
!S1P File: Measurement: S21:
# Hz S  dB   R 50
3000000000  -2.652092e+001  1.468446e+002 
3003125000  -2.792330e+001  1.425717e+002 
3006250000  -2.797431e+001  1.401106e+002 
3009375000  -2.835755e+001  1.449196e+002 
3012500000  -2.776708e+001  1.444690e+002 
3015625000  -2.686166e+001  1.377356e+002 
3018750000  -2.768403e+001  1.365511e+002 
3021875000  -2.642546e+001  1.378794e+002 
3025000000  -2.511245e+001  1.347684e+002 
3028125000  -2.412822e+001  1.297229e+002 
3031250000  -2.307484e+001  1.183857e+002 
3034375000  -2.275273e+001  1.053421e+002 
3037500000  -2.315016e+001  9.364339e+001 
3040625000  -2.444545e+001  8.852396e+001 
3043750000  -2.516843e+001  8.423911e+001 
3046875000  -2.531673e+001  7.782534e+001 
3050000000  -2.698906e+001  7.101745e+001 
3053125000  -2.712227e+001  7.777448e+001 
3056250000  -2.646172e+001  8.065288e+001 
3059375000  -2.667154e+001  8.025155e+001 
3062500000  -2.519265e+001  7.624607e+001 
3065625000  -2.495889e+001  7.029168e+001 
3068750000  -2.468389e+001  6.353199e+001 
3071875000  -2.465244e+001  6.093721e+001 
3075000000  -2.455656e+001  5.678955e+001 
3078125000  -2.433790e+001  5.216724e+001 
3081250000  -2.495397e+001  4.806477e+001 
3084375000  -2.417470e+001  4.448394e+001 
3087500000  -2.409523e+001  4.060617e+001 
3090625000  -2.381850e+001  3.077453e+001 
3093750000  -2.429805e+001  2.327374e+001 
3096875000  -2.555129e+001  1.733348e+001 
3100000000  -2.568389e+001  1.592566e+001 
3103125000  -2.605236e+001  1.708392e+001 
3106250000  -2.575660e+001  1.348186e+001 
3109375000  -2.600069e+001  1.015514e+001 
3112500000  -2.611724e+001  8.954862e+000 
3115625000  -2.593500e+001  4.913062e+000 
3118750000  -2.641121e+001  6.148198e+000 
3121875000  -2.574248e+001  -2.262643e+000 
3125000000  -2.700043e+001  -5.304558e+000 
3128125000  -2.808898e+001  2.898907e+000 
3131250000  -2.586221e+001  2.913710e+000 
3134375000  -2.465037e+001  -1.069248e+001 
3137500000  -2.531399e+001  -2.392461e+001 
3140625000  -2.683964e+001  -2.553382e+001 
3143750000  -2.792123e+001  -2.199662e+001 
3146875000  -2.746284e+001  -1.969808e+001 
3150000000  -2.642431e+001  -1.747110e+001 
3153125000  -2.647336e+001  -2.522041e+001 
3156250000  -2.746933e+001  -1.962438e+001 
3159375000  -2.584908e+001  -1.696452e+001 
3162500000  -2.383287e+001  -3.005149e+001 
3165625000  -2.479351e+001  -4.082468e+001 
3168750000  -2.517374e+001  -3.987498e+001 
3171875000  -2.422535e+001  -4.411414e+001 
3175000000  -2.487199e+001  -5.201003e+001 
3178125000  -2.464669e+001  -5.025933e+001 
3181250000  -2.348265e+001  -5.460916e+001 
3184375000  -2.269759e+001  -6.668064e+001 
3187500000  -2.385492e+001  -8.161285e+001 
3190625000  -2.662583e+001  -8.900767e+001 
3193750000  -2.715995e+001  -7.945328e+001 
3196875000  -2.671374e+001  -7.406900e+001 
3200000000  -2.584152e+001  -7.590664e+001 
3203125000  -2.501850e+001  -8.168776e+001 
3206250000  -2.531166e+001  -8.807204e+001 
3209375000  -2.478419e+001  -9.309927e+001 
3212500000  -2.496254e+001  -9.945021e+001 
3215625000  -2.513873e+001  -1.036547e+002 
3218750000  -2.586238e+001  -1.101833e+002 
3221875000  -2.681777e+001  -1.150725e+002 
3225000000  -2.641788e+001  -1.159144e+002 
3228125000  -2.671673e+001  -1.203446e+002 
3231250000  -2.750011e+001  -1.229078e+002 
3234375000  -2.732693e+001  -1.217204e+002 
3237500000  -2.736471e+001  -1.236173e+002 
3240625000  -2.703753e+001  -1.254098e+002 
3243750000  -2.670455e+001  -1.321033e+002 
3246875000  -2.719782e+001  -1.386657e+002 
3250000000  -2.761204e+001  -1.406683e+002 
3253125000  -2.778898e+001  -1.419367e+002 
3256250000  -2.758710e+001  -1.481145e+002 
3259375000  -2.799716e+001  -1.555876e+002 
3262500000  -2.924729e+001  -1.585527e+002 
3265625000  -2.984369e+001  -1.549655e+002 
3268750000  -2.984178e+001  -1.521371e+002 
3271875000  -2.959588e+001  -1.512533e+002 
3275000000  -2.855774e+001  -1.563009e+002 
3278125000  -2.902215e+001  -1.628603e+002 
3281250000  -2.933247e+001  -1.607530e+002 
3284375000  -2.885345e+001  -1.665743e+002 
3287500000  -2.904076e+001  -1.692130e+002 
3290625000  -2.942061e+001  -1.736447e+002 
3293750000  -2.910355e+001  -1.793930e+002 
3296875000  -3.015667e+001  -1.791631e+002 
3300000000  -3.001805e+001  -1.776796e+002 
3303125000  -2.884879e+001  1.781023e+002 
3306250000  -2.859820e+001  1.716143e+002 
3309375000  -2.841547e+001  1.664011e+002 
3312500000  -2.844471e+001  1.554291e+002 
3315625000  -2.946486e+001  1.481516e+002 
3318750000  -3.082063e+001  1.455383e+002 
3321875000  -3.200658e+001  1.456523e+002 
3325000000  -3.260756e+001  1.504198e+002 
3328125000  -3.239361e+001  1.527920e+002 
3331250000  -3.113499e+001  1.601640e+002 
3334375000  -2.851107e+001  1.500112e+002 
3337500000  -2.867002e+001  1.314221e+002 
3340625000  -3.005142e+001  1.207390e+002 
3343750000  -3.205737e+001  1.196941e+002 
3346875000  -3.248847e+001  1.211473e+002 
3350000000  -3.181302e+001  1.204315e+002 
3353125000  -3.193305e+001  1.159471e+002 
3356250000  -3.166057e+001  1.081738e+002 
3359375000  -3.261528e+001  9.930585e+001 
3362500000  -3.375902e+001  9.451546e+001 
3365625000  -3.445066e+001  9.238896e+001 
3368750000  -3.535746e+001  9.079036e+001 
3371875000  -3.578104e+001  8.737746e+001 
3375000000  -3.737962e+001  8.561367e+001 
3378125000  -3.855644e+001  8.562098e+001 
3381250000  -4.000562e+001  9.342818e+001 
3384375000  -3.898792e+001  1.148091e+002 
3387500000  -3.579157e+001  9.973330e+001 
3390625000  -3.771278e+001  8.119896e+001 
3393750000  -3.935419e+001  8.628790e+001 
3396875000  -3.870101e+001  8.853596e+001 
3400000000  -3.851818e+001  8.161958e+001 
3403125000  -3.979581e+001  7.737599e+001 
3406250000  -4.041851e+001  8.096896e+001 
3409375000  -4.110777e+001  7.697472e+001 
3412500000  -4.177721e+001  7.680857e+001 
3415625000  -4.252668e+001  8.200937e+001 
3418750000  -4.307508e+001  8.600230e+001 
3421875000  -4.309284e+001  9.188926e+001 
3425000000  -4.236789e+001  9.666325e+001 
3428125000  -4.135355e+001  9.458001e+001 
3431250000  -4.134639e+001  9.157314e+001 
3434375000  -4.109523e+001  8.708491e+001 
3437500000  -4.134904e+001  8.697830e+001 
3440625000  -4.191729e+001  8.974609e+001 
3443750000  -4.060323e+001  9.139339e+001 
3446875000  -3.979882e+001  8.542885e+001 
3450000000  -3.948489e+001  7.669350e+001 
3453125000  -3.985664e+001  6.840845e+001 
3456250000  -4.107619e+001  6.328282e+001 
3459375000  -4.222619e+001  6.512064e+001 
3462500000  -4.208169e+001  6.856363e+001 
3465625000  -4.222605e+001  6.313816e+001 
3468750000  -4.280135e+001  5.722718e+001 
3471875000  -4.291029e+001  5.921834e+001 
3475000000  -4.238807e+001  5.709969e+001 
3478125000  -4.318369e+001  4.931052e+001 
3481250000  -4.433625e+001  4.785993e+001 
3484375000  -4.588230e+001  5.412190e+001 
3487500000  -4.547401e+001  5.911085e+001 
3490625000  -4.473145e+001  5.321053e+001 
3493750000  -4.521599e+001  5.199909e+001 
3496875000  -4.690752e+001  5.385748e+001 
3500000000  -4.767198e+001  5.903516e+001 
3503125000  -4.712896e+001  6.626215e+001 
3506250000  -4.644656e+001  6.531789e+001 
3509375000  -4.667083e+001  5.959373e+001 
3512500000  -4.686012e+001  5.872094e+001 
3515625000  -4.716794e+001  6.449854e+001 
3518750000  -4.789772e+001  7.109260e+001 
3521875000  -4.763628e+001  7.052793e+001 
3525000000  -4.798950e+001  7.350207e+001 
3528125000  -4.755329e+001  8.644020e+001 
3531250000  -4.608708e+001  8.687152e+001 
3534375000  -4.492344e+001  7.812687e+001 
3537500000  -4.499545e+001  7.687309e+001 
3540625000  -4.565755e+001  7.570819e+001 
3543750000  -4.603671e+001  7.982378e+001 
3546875000  -4.530542e+001  9.294437e+001 
3550000000  -4.302391e+001  9.387614e+001 
3553125000  -4.149771e+001  7.641917e+001 
3556250000  -4.256456e+001  7.181776e+001 
3559375000  -4.209970e+001  7.340295e+001 
3562500000  -4.077958e+001  6.730123e+001 
3565625000  -4.189434e+001  5.936004e+001 
3568750000  -4.195221e+001  6.202136e+001 
3571875000  -4.166063e+001  6.378598e+001 
3575000000  -4.104540e+001  5.938485e+001 
3578125000  -4.155199e+001  5.454082e+001 
3581250000  -4.144827e+001  5.615261e+001 
3584375000  -4.086052e+001  5.418873e+001 
3587500000  -3.998425e+001  4.826227e+001 
3590625000  -4.046116e+001  3.929256e+001 
3593750000  -4.155083e+001  3.799906e+001 
3596875000  -4.136570e+001  4.703683e+001 
3600000000  -3.972397e+001  4.288677e+001 
3603125000  -3.972272e+001  2.976072e+001 
3606250000  -4.039826e+001  2.928758e+001 
3609375000  -4.073278e+001  2.699609e+001 
3612500000  -4.146595e+001  2.477286e+001 
3615625000  -4.121613e+001  2.332549e+001 
3618750000  -4.176622e+001  2.553080e+001 
3621875000  -4.141925e+001  2.419362e+001 
3625000000  -4.151128e+001  2.444730e+001 
3628125000  -4.189609e+001  2.526126e+001 
3631250000  -4.142250e+001  1.864411e+001 
3634375000  -4.257508e+001  2.016775e+001 
3637500000  -4.188837e+001  2.537645e+001 
3640625000  -4.112008e+001  2.753735e+001 
3643750000  -4.050862e+001  2.301344e+001 
3646875000  -4.091932e+001  1.592475e+001 
3650000000  -4.148781e+001  1.468432e+001 
3653125000  -4.125034e+001  1.400817e+001 
3656250000  -4.162705e+001  1.207042e+001 
3659375000  -4.194148e+001  1.766679e+001 
3662500000  -4.117231e+001  1.568909e+001 
3665625000  -4.122263e+001  1.544256e+001 
3668750000  -4.007231e+001  1.826013e+001 
3671875000  -3.926262e+001  1.221706e+001 
3675000000  -3.986678e+001  7.991501e+000 
3678125000  -4.030173e+001  8.478420e+000 
3681250000  -3.964851e+001  9.831100e+000 
3684375000  -3.978593e+001  8.312853e+000 
3687500000  -3.975706e+001  6.295768e+000 
3690625000  -3.974969e+001  3.174333e+000 
3693750000  -4.030370e+001  6.512194e+000 
3696875000  -4.003345e+001  9.395418e+000 
3700000000  -3.895725e+001  6.117074e+000 
3703125000  -3.878612e+001  4.346509e+000 
3706250000  -3.946732e+001  5.376209e+000 
3709375000  -3.857124e+001  9.236654e+000 
3712500000  -3.749030e+001  8.857539e+000 
3715625000  -3.637138e+001  3.211244e+000 
3718750000  -3.569968e+001  -6.785413e-002 
3721875000  -3.524114e+001  -5.557987e+000 
3725000000  -3.528740e+001  -1.017199e+001 
3728125000  -3.533816e+001  -9.909913e+000 
3731250000  -3.465567e+001  -1.168119e+001 
3734375000  -3.364928e+001  -1.753475e+001 
3737500000  -3.423680e+001  -2.465008e+001 
3740625000  -3.486188e+001  -2.856375e+001 
3743750000  -3.446922e+001  -2.947291e+001 
3746875000  -3.456244e+001  -3.295928e+001 
3750000000  -3.495985e+001  -3.423549e+001 
3753125000  -3.460810e+001  -3.463430e+001 
3756250000  -3.447199e+001  -3.527802e+001 
3759375000  -3.437105e+001  -3.559752e+001 
3762500000  -3.369685e+001  -3.988224e+001 
3765625000  -3.419103e+001  -4.221941e+001 
3768750000  -3.421965e+001  -3.988453e+001 
3771875000  -3.256385e+001  -4.276562e+001 
3775000000  -3.214182e+001  -5.030770e+001 
3778125000  -3.250386e+001  -5.225170e+001 
3781250000  -3.243963e+001  -5.504025e+001 
3784375000  -3.228549e+001  -5.699102e+001 
3787500000  -3.168928e+001  -6.033579e+001 
3790625000  -3.221596e+001  -6.616843e+001 
3793750000  -3.228515e+001  -6.621418e+001 
3796875000  -3.143461e+001  -6.834639e+001 
3800000000  -2.985305e+001  -7.205018e+001 
3803125000  -3.073266e+001  -7.912682e+001 
3806250000  -3.130178e+001  -8.144575e+001 
3809375000  -3.110255e+001  -8.220588e+001 
3812500000  -3.043400e+001  -8.695692e+001 
3815625000  -3.108862e+001  -9.408020e+001 
3818750000  -3.202691e+001  -9.621814e+001 
3821875000  -3.206313e+001  -8.693237e+001 
3825000000  -3.006327e+001  -8.246984e+001 
3828125000  -2.876357e+001  -9.698505e+001 
3831250000  -2.931267e+001  -1.115048e+002 
3834375000  -3.078507e+001  -1.120483e+002 
3837500000  -3.158617e+001  -1.063341e+002 
3840625000  -3.053790e+001  -1.072511e+002 
3843750000  -2.923711e+001  -1.179476e+002 
3846875000  -3.006462e+001  -1.246756e+002 
3850000000  -3.132125e+001  -1.191563e+002 
3853125000  -3.044465e+001  -1.169415e+002 
3856250000  -3.050997e+001  -1.212944e+002 
3859375000  -2.973925e+001  -1.262061e+002 
3862500000  -2.929636e+001  -1.334190e+002 
3865625000  -2.959303e+001  -1.377727e+002 
3868750000  -2.954303e+001  -1.383083e+002 
3871875000  -2.886776e+001  -1.410626e+002 
3875000000  -2.897788e+001  -1.505131e+002 
3878125000  -3.000944e+001  -1.522429e+002 
3881250000  -3.010134e+001  -1.498507e+002 
3884375000  -2.945616e+001  -1.546490e+002 
3887500000  -2.978366e+001  -1.590027e+002 
3890625000  -3.023489e+001  -1.606043e+002 
3893750000  -3.068386e+001  -1.619022e+002 
3896875000  -3.075661e+001  -1.613390e+002 
3900000000  -3.098827e+001  -1.626934e+002 
3903125000  -3.061251e+001  -1.647358e+002 
3906250000  -3.038770e+001  -1.652615e+002 
3909375000  -2.969428e+001  -1.676067e+002 
3912500000  -2.972312e+001  -1.756099e+002 
3915625000  -3.091327e+001  -1.736723e+002 
3918750000  -3.096259e+001  -1.729997e+002 
3921875000  -3.052880e+001  -1.739638e+002 
3925000000  -2.980641e+001  -1.753032e+002 
3928125000  -2.918227e+001  1.788458e+002 
3931250000  -2.955412e+001  1.748397e+002 
3934375000  -2.980958e+001  1.757813e+002 
3937500000  -3.006124e+001  1.748631e+002 
3940625000  -3.035878e+001  1.751350e+002 
3943750000  -2.948177e+001  1.759409e+002 
3946875000  -2.823908e+001  1.707190e+002 
3950000000  -2.874501e+001  1.634493e+002 
3953125000  -2.967393e+001  1.643212e+002 
3956250000  -2.887419e+001  1.672426e+002 
3959375000  -2.740866e+001  1.639346e+002 
3962500000  -2.695932e+001  1.598578e+002 
3965625000  -2.662689e+001  1.506699e+002 
3968750000  -2.760665e+001  1.444360e+002 
3971875000  -2.782218e+001  1.429091e+002 
3975000000  -2.724807e+001  1.410908e+002 
3978125000  -2.704268e+001  1.395936e+002 
3981250000  -2.684607e+001  1.350500e+002 
3984375000  -2.706803e+001  1.288274e+002 
3987500000  -2.756347e+001  1.263150e+002 
3990625000  -2.760174e+001  1.261534e+002 
3993750000  -2.777627e+001  1.226632e+002 
3996875000  -2.773469e+001  1.200327e+002 
4000000000  -2.782330e+001  1.180957e+002 
4003125000  -2.838730e+001  1.206266e+002 
4006250000  -2.700449e+001  1.204922e+002 
4009375000  -2.576718e+001  1.082439e+002 
4012500000  -2.691109e+001  1.011255e+002 
4015625000  -2.815353e+001  1.015982e+002 
4018750000  -2.830480e+001  1.041336e+002 
4021875000  -2.762393e+001  1.023132e+002 
4025000000  -2.723320e+001  9.756884e+001 
4028125000  -2.719877e+001  9.382015e+001 
4031250000  -2.771526e+001  9.070556e+001 
4034375000  -2.799280e+001  9.015864e+001 
4037500000  -2.748731e+001  9.223298e+001 
4040625000  -2.743261e+001  8.891296e+001 
4043750000  -2.775229e+001  8.841940e+001 
4046875000  -2.736623e+001  8.821297e+001 
4050000000  -2.678153e+001  8.264664e+001 
4053125000  -2.727603e+001  8.100694e+001 
4056250000  -2.787805e+001  8.494427e+001 
4059375000  -2.657031e+001  8.666955e+001 
4062500000  -2.524689e+001  8.196571e+001 
4065625000  -2.509680e+001  7.774949e+001 
4068750000  -2.484345e+001  7.297343e+001 
4071875000  -2.418776e+001  6.510154e+001 
4075000000  -2.459098e+001  5.866180e+001 
4078125000  -2.513960e+001  5.778873e+001 
4081250000  -2.456983e+001  5.552196e+001 
4084375000  -2.420020e+001  4.872727e+001 
4087500000  -2.454828e+001  4.261501e+001 
4090625000  -2.516028e+001  4.134862e+001 
4093750000  -2.495160e+001  4.228005e+001 
4096875000  -2.450727e+001  3.613006e+001 
4100000000  -2.525414e+001  2.950566e+001 
4103125000  -2.610190e+001  2.972757e+001 
4106250000  -2.595434e+001  3.478700e+001 
4109375000  -2.502288e+001  3.430642e+001 
4112500000  -2.448293e+001  2.730156e+001 
4115625000  -2.485030e+001  2.328860e+001 
4118750000  -2.493770e+001  1.998941e+001 
4121875000  -2.448103e+001  1.590252e+001 
4125000000  -2.491933e+001  1.041623e+001 
4128125000  -2.596526e+001  1.092680e+001 
4131250000  -2.560419e+001  1.895254e+001 
4134375000  -2.328374e+001  1.410115e+001 
4137500000  -2.308313e+001  -4.830348e+000 
4140625000  -2.530803e+001  -1.152619e+001 
4143750000  -2.658539e+001  -6.099538e+000 
4146875000  -2.618043e+001  5.960858e-001 
4150000000  -2.520964e+001  -2.601474e+000 
4153125000  -2.507815e+001  -9.252577e+000 
4156250000  -2.598086e+001  -1.140902e+001 
4159375000  -2.621539e+001  -7.113212e+000 
4162500000  -2.506538e+001  -3.005545e+000 
4165625000  -2.393081e+001  -7.130559e+000 
4168750000  -2.336297e+001  -1.423055e+001 
4171875000  -2.331689e+001  -2.336008e+001 
4175000000  -2.392555e+001  -2.884064e+001 
4178125000  -2.454774e+001  -2.869006e+001 
4181250000  -2.442465e+001  -2.951894e+001 
4184375000  -2.423798e+001  -3.309731e+001 
4187500000  -2.432723e+001  -3.533716e+001 
4190625000  -2.412171e+001  -4.111720e+001 
4193750000  -2.496868e+001  -4.475774e+001 
4196875000  -2.561794e+001  -4.498699e+001 
4200000000  -2.654219e+001  -4.252306e+001 
4203125000  -2.643833e+001  -2.872279e+001 
4206250000  -2.305596e+001  -2.776459e+001 
4209375000  -2.194969e+001  -4.850174e+001 
4212500000  -2.390189e+001  -5.746297e+001 
4215625000  -2.486479e+001  -5.063899e+001 
4218750000  -2.350982e+001  -4.388194e+001 
4221875000  -2.123291e+001  -5.345877e+001 
4225000000  -2.248730e+001  -6.564503e+001 
4228125000  -2.318286e+001  -6.075037e+001 
4231250000  -2.157967e+001  -6.467826e+001 
4234375000  -2.146560e+001  -7.315731e+001 
4237500000  -2.108104e+001  -7.616827e+001 
4240625000  -2.110058e+001  -8.472639e+001 
4243750000  -2.206434e+001  -9.158075e+001 
4246875000  -2.296026e+001  -9.168491e+001 
4250000000  -2.301538e+001  -8.880283e+001 
4253125000  -2.240372e+001  -9.062713e+001 
4256250000  -2.266848e+001  -9.469804e+001 
4259375000  -2.239931e+001  -9.674081e+001 
4262500000  -2.245000e+001  -1.001712e+002 
4265625000  -2.260329e+001  -1.002494e+002 
4268750000  -2.176025e+001  -1.041801e+002 
4271875000  -2.147265e+001  -1.100073e+002 
4275000000  -2.087858e+001  -1.165788e+002 
4278125000  -2.153672e+001  -1.272973e+002 
4281250000  -2.332418e+001  -1.294887e+002 
4284375000  -2.297684e+001  -1.289637e+002 
4287500000  -2.381049e+001  -1.323509e+002 
4290625000  -2.505819e+001  -1.228779e+002 
4293750000  -2.298863e+001  -1.172947e+002 
4296875000  -2.168797e+001  -1.288620e+002 
4300000000  -2.253120e+001  -1.381123e+002 
4303125000  -2.370607e+001  -1.363976e+002 
4306250000  -2.303858e+001  -1.308658e+002 
4309375000  -2.166237e+001  -1.327556e+002 
4312500000  -2.154333e+001  -1.407368e+002 
4315625000  -2.176272e+001  -1.474103e+002 
4318750000  -2.212397e+001  -1.506880e+002 
4321875000  -2.229914e+001  -1.500540e+002 
4325000000  -2.169042e+001  -1.492117e+002 
4328125000  -2.116775e+001  -1.559238e+002 
4331250000  -2.112437e+001  -1.640482e+002 
4334375000  -2.155720e+001  -1.689997e+002 
4337500000  -2.242295e+001  -1.710358e+002 
4340625000  -2.295549e+001  -1.678421e+002 
4343750000  -2.235379e+001  -1.674304e+002 
4346875000  -2.195723e+001  -1.730843e+002 
4350000000  -2.200713e+001  -1.778352e+002 
4353125000  -2.203112e+001  1.747764e+002 
4356250000  -2.389229e+001  1.738208e+002 
4359375000  -2.441697e+001  -1.718648e+002 
4362500000  -2.162390e+001  -1.705497e+002 
4365625000  -2.000444e+001  1.770712e+002 
4368750000  -2.080400e+001  1.651649e+002 
4371875000  -2.202049e+001  1.659681e+002 
4375000000  -2.161582e+001  1.671126e+002 
4378125000  -2.098836e+001  1.614430e+002 
4381250000  -2.116401e+001  1.558130e+002 
4384375000  -2.101107e+001  1.512572e+002 
4387500000  -2.173593e+001  1.455959e+002 
4390625000  -2.274766e+001  1.465463e+002 
4393750000  -2.204456e+001  1.486965e+002 
4396875000  -2.137659e+001  1.462407e+002 
4400000000  -2.086763e+001  1.392043e+002 
4403125000  -2.147518e+001  1.317269e+002 
4406250000  -2.231882e+001  1.304860e+002 
4409375000  -2.227930e+001  1.280917e+002 
4412500000  -2.330070e+001  1.256793e+002 
4415625000  -2.369389e+001  1.302470e+002 
4418750000  -2.245518e+001  1.350898e+002 
