!Agilent Technologies,E8363B,MY43030201,A.06.04.32
!Agilent E8363B: A.06.04.32
!Date: Tuesday, November 11, 2014 20:51:44
!Correction: S21(Response(S21)) 
!S1P File: Measurement: S21:
# Hz S  dB   R 50
3000000000  -2.654713e+001  1.511165e+002 
3003125000  -2.792148e+001  1.466765e+002 
3006250000  -2.797216e+001  1.438470e+002 
3009375000  -2.833382e+001  1.487125e+002 
3012500000  -2.779564e+001  1.482430e+002 
3015625000  -2.682990e+001  1.413018e+002 
3018750000  -2.767125e+001  1.407020e+002 
3021875000  -2.642185e+001  1.421035e+002 
3025000000  -2.513046e+001  1.387477e+002 
3028125000  -2.412890e+001  1.337017e+002 
3031250000  -2.308204e+001  1.226854e+002 
3034375000  -2.273658e+001  1.094268e+002 
3037500000  -2.312623e+001  9.757921e+001 
3040625000  -2.444990e+001  9.278903e+001 
3043750000  -2.514477e+001  8.811348e+001 
3046875000  -2.528556e+001  8.205434e+001 
3050000000  -2.700991e+001  7.517638e+001 
3053125000  -2.718262e+001  8.132726e+001 
3056250000  -2.647378e+001  8.452253e+001 
3059375000  -2.675640e+001  8.431421e+001 
3062500000  -2.523352e+001  8.046207e+001 
3065625000  -2.503937e+001  7.468922e+001 
3068750000  -2.473835e+001  6.767142e+001 
3071875000  -2.465848e+001  6.459366e+001 
3075000000  -2.464820e+001  6.095564e+001 
3078125000  -2.436839e+001  5.647395e+001 
3081250000  -2.502041e+001  5.214043e+001 
3084375000  -2.423627e+001  4.871886e+001 
3087500000  -2.415355e+001  4.488070e+001 
3090625000  -2.383798e+001  3.533511e+001 
3093750000  -2.430425e+001  2.726743e+001 
3096875000  -2.562072e+001  2.137383e+001 
3100000000  -2.575067e+001  1.983762e+001 
3103125000  -2.611124e+001  2.139226e+001 
3106250000  -2.582322e+001  1.756445e+001 
3109375000  -2.605485e+001  1.416311e+001 
3112500000  -2.618898e+001  1.349185e+001 
3115625000  -2.599012e+001  9.200569e+000 
3118750000  -2.650570e+001  1.030842e+001 
3121875000  -2.580594e+001  2.242767e+000 
3125000000  -2.697746e+001  -1.136617e+000 
3128125000  -2.820768e+001  6.750431e+000 
3131250000  -2.600100e+001  7.454598e+000 
3134375000  -2.470784e+001  -6.181566e+000 
3137500000  -2.534636e+001  -1.982634e+001 
3140625000  -2.692911e+001  -2.141901e+001 
3143750000  -2.799483e+001  -1.766033e+001 
3146875000  -2.757465e+001  -1.532078e+001 
3150000000  -2.654033e+001  -1.319544e+001 
3153125000  -2.651762e+001  -2.073163e+001 
3156250000  -2.750614e+001  -1.526950e+001 
3159375000  -2.593606e+001  -1.261556e+001 
3162500000  -2.388564e+001  -2.552333e+001 
3165625000  -2.483746e+001  -3.662763e+001 
3168750000  -2.523054e+001  -3.525204e+001 
3171875000  -2.425173e+001  -3.969978e+001 
3175000000  -2.493095e+001  -4.758590e+001 
3178125000  -2.471749e+001  -4.592662e+001 
3181250000  -2.350978e+001  -5.003661e+001 
3184375000  -2.273815e+001  -6.212174e+001 
3187500000  -2.385893e+001  -7.712048e+001 
3190625000  -2.661714e+001  -8.481236e+001 
3193750000  -2.719858e+001  -7.513376e+001 
3196875000  -2.680283e+001  -6.968642e+001 
3200000000  -2.592628e+001  -7.158784e+001 
3203125000  -2.506492e+001  -7.722522e+001 
3206250000  -2.534336e+001  -8.373146e+001 
3209375000  -2.491554e+001  -8.844920e+001 
3212500000  -2.502106e+001  -9.512134e+001 
3215625000  -2.520144e+001  -9.934122e+001 
3218750000  -2.594699e+001  -1.058552e+002 
3221875000  -2.686331e+001  -1.107922e+002 
3225000000  -2.653673e+001  -1.114997e+002 
3228125000  -2.682789e+001  -1.160135e+002 
3231250000  -2.759916e+001  -1.184021e+002 
3234375000  -2.740198e+001  -1.173873e+002 
3237500000  -2.747900e+001  -1.191127e+002 
3240625000  -2.712744e+001  -1.210442e+002 
3243750000  -2.675985e+001  -1.273750e+002 
3246875000  -2.729713e+001  -1.342576e+002 
3250000000  -2.769551e+001  -1.359174e+002 
3253125000  -2.784986e+001  -1.376186e+002 
3256250000  -2.775126e+001  -1.435365e+002 
3259375000  -2.805724e+001  -1.512454e+002 
3262500000  -2.933840e+001  -1.538846e+002 
3265625000  -2.993020e+001  -1.507047e+002 
3268750000  -3.001334e+001  -1.477124e+002 
3271875000  -2.978904e+001  -1.472600e+002 
3275000000  -2.865579e+001  -1.519437e+002 
3278125000  -2.913166e+001  -1.582048e+002 
3281250000  -2.940118e+001  -1.562827e+002 
3284375000  -2.895204e+001  -1.620874e+002 
3287500000  -2.916206e+001  -1.650262e+002 
3290625000  -2.954662e+001  -1.694364e+002 
3293750000  -2.920899e+001  -1.749259e+002 
3296875000  -3.027610e+001  -1.749861e+002 
3300000000  -3.020592e+001  -1.737790e+002 
3303125000  -2.893793e+001  -1.774823e+002 
3306250000  -2.876145e+001  1.760531e+002 
3309375000  -2.854338e+001  1.706043e+002 
3312500000  -2.854618e+001  1.602457e+002 
3315625000  -2.962697e+001  1.524746e+002 
3318750000  -3.104790e+001  1.499868e+002 
3321875000  -3.213797e+001  1.493684e+002 
3325000000  -3.284080e+001  1.553095e+002 
3328125000  -3.261588e+001  1.561737e+002 
3331250000  -3.132564e+001  1.642135e+002 
3334375000  -2.881818e+001  1.542614e+002 
3337500000  -2.884725e+001  1.358736e+002 
3340625000  -3.021085e+001  1.250353e+002 
3343750000  -3.218412e+001  1.237603e+002 
3346875000  -3.271575e+001  1.249719e+002 
3350000000  -3.207725e+001  1.238860e+002 
3353125000  -3.224244e+001  1.195474e+002 
3356250000  -3.191862e+001  1.122356e+002 
3359375000  -3.278737e+001  1.039001e+002 
3362500000  -3.403086e+001  9.800567e+001 
3365625000  -3.464772e+001  9.691904e+001 
3368750000  -3.571535e+001  9.482748e+001 
3371875000  -3.607190e+001  9.200485e+001 
3375000000  -3.750462e+001  8.925883e+001 
3378125000  -3.873120e+001  8.960120e+001 
3381250000  -4.017730e+001  9.628690e+001 
3384375000  -3.956186e+001  1.188345e+002 
3387500000  -3.611983e+001  1.060279e+002 
3390625000  -3.822919e+001  8.514372e+001 
3393750000  -3.989751e+001  9.051743e+001 
3396875000  -3.887860e+001  9.271288e+001 
3400000000  -3.877959e+001  8.677013e+001 
3403125000  -4.003354e+001  8.224364e+001 
3406250000  -4.074906e+001  8.408456e+001 
3409375000  -4.150638e+001  8.241271e+001 
3412500000  -4.223814e+001  8.369982e+001 
3415625000  -4.323577e+001  8.775116e+001 
3418750000  -4.356192e+001  9.020132e+001 
3421875000  -4.350169e+001  9.960834e+001 
3425000000  -4.311557e+001  1.013665e+002 
3428125000  -4.190511e+001  9.995390e+001 
3431250000  -4.186222e+001  9.827034e+001 
3434375000  -4.164317e+001  9.382402e+001 
3437500000  -4.201602e+001  9.242933e+001 
3440625000  -4.241585e+001  9.474261e+001 
3443750000  -4.109863e+001  9.942841e+001 
3446875000  -4.026078e+001  9.138829e+001 
3450000000  -3.995627e+001  8.449478e+001 
3453125000  -4.042401e+001  7.486819e+001 
3456250000  -4.148769e+001  6.872080e+001 
3459375000  -4.251411e+001  7.207817e+001 
3462500000  -4.251233e+001  7.227422e+001 
3465625000  -4.274940e+001  6.982578e+001 
3468750000  -4.288852e+001  6.599817e+001 
3471875000  -4.311400e+001  6.757975e+001 
3475000000  -4.309174e+001  6.282275e+001 
3478125000  -4.388205e+001  5.800244e+001 
3481250000  -4.486064e+001  5.639493e+001 
3484375000  -4.597242e+001  6.386212e+001 
3487500000  -4.588110e+001  6.422331e+001 
3490625000  -4.510927e+001  6.242225e+001 
3493750000  -4.609550e+001  5.855460e+001 
3496875000  -4.722020e+001  6.313179e+001 
3500000000  -4.830976e+001  6.941759e+001 
3503125000  -4.822128e+001  7.174878e+001 
3506250000  -4.666015e+001  7.762922e+001 
3509375000  -4.720349e+001  7.422163e+001 
3512500000  -4.763721e+001  7.007219e+001 
3515625000  -4.792971e+001  7.276535e+001 
3518750000  -4.806044e+001  7.820936e+001 
3521875000  -4.793513e+001  8.325690e+001 
3525000000  -4.811748e+001  8.460303e+001 
3528125000  -4.720633e+001  9.578400e+001 
3531250000  -4.582301e+001  9.482615e+001 
3534375000  -4.506793e+001  8.791882e+001 
3537500000  -4.493892e+001  8.410196e+001 
3540625000  -4.523186e+001  8.238760e+001 
3543750000  -4.629612e+001  8.843689e+001 
3546875000  -4.527814e+001  1.013673e+002 
3550000000  -4.304143e+001  1.012559e+002 
3553125000  -4.144935e+001  8.784520e+001 
3556250000  -4.215102e+001  8.042802e+001 
3559375000  -4.194880e+001  8.049250e+001 
3562500000  -4.048095e+001  7.467356e+001 
3565625000  -4.157142e+001  6.688714e+001 
3568750000  -4.163300e+001  6.895647e+001 
3571875000  -4.148661e+001  7.045799e+001 
3575000000  -4.081427e+001  6.560407e+001 
3578125000  -4.135473e+001  6.208189e+001 
3581250000  -4.089291e+001  6.318342e+001 
3584375000  -4.038898e+001  6.244090e+001 
3587500000  -3.962638e+001  5.490122e+001 
3590625000  -4.008941e+001  4.642875e+001 
3593750000  -4.100554e+001  4.356639e+001 
3596875000  -4.115733e+001  5.352041e+001 
3600000000  -3.939928e+001  4.977428e+001 
3603125000  -3.962054e+001  3.819564e+001 
3606250000  -4.019139e+001  3.335066e+001 
3609375000  -4.055536e+001  3.359104e+001 
3612500000  -4.094019e+001  3.082384e+001 
3615625000  -4.116983e+001  2.798981e+001 
3618750000  -4.183950e+001  3.100679e+001 
3621875000  -4.114849e+001  2.885238e+001 
3625000000  -4.163674e+001  2.987592e+001 
3628125000  -4.163331e+001  2.910655e+001 
3631250000  -4.119553e+001  2.607616e+001 
3634375000  -4.264887e+001  2.476359e+001 
3637500000  -4.203356e+001  3.155639e+001 
3640625000  -4.097490e+001  3.144199e+001 
3643750000  -4.060228e+001  2.577274e+001 
3646875000  -4.115748e+001  2.108651e+001 
3650000000  -4.171830e+001  2.200672e+001 
3653125000  -4.163379e+001  2.211457e+001 
3656250000  -4.175298e+001  2.118087e+001 
3659375000  -4.206652e+001  2.551658e+001 
3662500000  -4.120309e+001  2.202309e+001 
3665625000  -4.138957e+001  2.362939e+001 
3668750000  -4.020120e+001  2.495859e+001 
3671875000  -3.921493e+001  1.984659e+001 
3675000000  -3.985485e+001  1.582746e+001 
3678125000  -4.022175e+001  1.620458e+001 
3681250000  -3.982846e+001  1.608396e+001 
3684375000  -3.959256e+001  1.557294e+001 
3687500000  -3.951559e+001  1.322070e+001 
3690625000  -3.941174e+001  1.106328e+001 
3693750000  -4.013971e+001  1.389352e+001 
3696875000  -3.997796e+001  1.450536e+001 
3700000000  -3.887810e+001  1.346174e+001 
3703125000  -3.839098e+001  9.549241e+000 
3706250000  -3.923063e+001  1.230364e+001 
3709375000  -3.867299e+001  1.454199e+001 
3712500000  -3.738640e+001  1.503955e+001 
3715625000  -3.623290e+001  8.028435e+000 
3718750000  -3.554295e+001  6.368013e+000 
3721875000  -3.524796e+001  3.498631e-001 
3725000000  -3.503257e+001  -4.470963e+000 
3728125000  -3.536426e+001  -4.346397e+000 
3731250000  -3.466041e+001  -5.926574e+000 
3734375000  -3.368370e+001  -1.118269e+001 
3737500000  -3.417840e+001  -1.799425e+001 
3740625000  -3.478357e+001  -2.301583e+001 
3743750000  -3.457828e+001  -2.426808e+001 
3746875000  -3.460484e+001  -2.749615e+001 
3750000000  -3.495200e+001  -2.773726e+001 
3753125000  -3.470856e+001  -2.877899e+001 
3756250000  -3.456131e+001  -2.917848e+001 
3759375000  -3.438924e+001  -3.005497e+001 
3762500000  -3.377081e+001  -3.296862e+001 
3765625000  -3.438811e+001  -3.612239e+001 
3768750000  -3.438794e+001  -3.404073e+001 
3771875000  -3.261615e+001  -3.589545e+001 
3775000000  -3.226582e+001  -4.381836e+001 
3778125000  -3.272661e+001  -4.592731e+001 
3781250000  -3.239585e+001  -4.878715e+001 
3784375000  -3.244252e+001  -5.046048e+001 
3787500000  -3.174809e+001  -5.410821e+001 
3790625000  -3.236840e+001  -5.892195e+001 
3793750000  -3.245817e+001  -5.946178e+001 
3796875000  -3.153025e+001  -6.103307e+001 
3800000000  -2.991979e+001  -6.506114e+001 
3803125000  -3.078267e+001  -7.200720e+001 
3806250000  -3.126098e+001  -7.408831e+001 
3809375000  -3.112512e+001  -7.527765e+001 
3812500000  -3.037840e+001  -8.012346e+001 
3815625000  -3.102109e+001  -8.792591e+001 
3818750000  -3.201714e+001  -8.931063e+001 
3821875000  -3.207317e+001  -8.119360e+001 
3825000000  -3.016051e+001  -7.620160e+001 
3828125000  -2.876882e+001  -9.078107e+001 
3831250000  -2.926085e+001  -1.045600e+002 
3834375000  -3.063805e+001  -1.056276e+002 
3837500000  -3.155735e+001  -1.005609e+002 
3840625000  -3.034584e+001  -1.013705e+002 
3843750000  -2.930183e+001  -1.116135e+002 
3846875000  -2.996591e+001  -1.184488e+002 
3850000000  -3.135465e+001  -1.127819e+002 
3853125000  -3.052502e+001  -1.105030e+002 
3856250000  -3.043860e+001  -1.156859e+002 
3859375000  -2.973955e+001  -1.197335e+002 
3862500000  -2.926994e+001  -1.272170e+002 
3865625000  -2.955343e+001  -1.316307e+002 
3868750000  -2.957216e+001  -1.316697e+002 
3871875000  -2.886771e+001  -1.351510e+002 
3875000000  -2.905472e+001  -1.435306e+002 
3878125000  -2.998000e+001  -1.459214e+002 
3881250000  -3.022459e+001  -1.428644e+002 
3884375000  -2.965741e+001  -1.475920e+002 
3887500000  -2.976512e+001  -1.517769e+002 
3890625000  -3.029966e+001  -1.538169e+002 
3893750000  -3.067249e+001  -1.549623e+002 
3896875000  -3.086856e+001  -1.545930e+002 
3900000000  -3.112630e+001  -1.558841e+002 
3903125000  -3.078742e+001  -1.574833e+002 
3906250000  -3.043538e+001  -1.580645e+002 
3909375000  -2.974033e+001  -1.603203e+002 
3912500000  -2.968014e+001  -1.678102e+002 
3915625000  -3.090915e+001  -1.676277e+002 
3918750000  -3.089645e+001  -1.656620e+002 
3921875000  -3.056526e+001  -1.671119e+002 
3925000000  -2.974124e+001  -1.684061e+002 
3928125000  -2.910471e+001  -1.733580e+002 
3931250000  -2.950716e+001  -1.775281e+002 
3934375000  -2.978428e+001  -1.775510e+002 
3937500000  -2.995005e+001  -1.781888e+002 
3940625000  -3.028674e+001  -1.777679e+002 
3943750000  -2.932344e+001  -1.765553e+002 
3946875000  -2.816680e+001  1.780322e+002 
3950000000  -2.864217e+001  1.702920e+002 
3953125000  -2.949930e+001  1.704389e+002 
3956250000  -2.874021e+001  1.738185e+002 
3959375000  -2.740880e+001  1.704911e+002 
3962500000  -2.686739e+001  1.666181e+002 
3965625000  -2.649693e+001  1.577843e+002 
3968750000  -2.748897e+001  1.511010e+002 
3971875000  -2.789400e+001  1.497224e+002 
3975000000  -2.722252e+001  1.473248e+002 
3978125000  -2.703944e+001  1.459714e+002 
3981250000  -2.679149e+001  1.413148e+002 
3984375000  -2.700509e+001  1.351230e+002 
3987500000  -2.755001e+001  1.335036e+002 
3990625000  -2.757752e+001  1.320776e+002 
3993750000  -2.777166e+001  1.292040e+002 
3996875000  -2.768179e+001  1.262698e+002 
4000000000  -2.780084e+001  1.244338e+002 
4003125000  -2.838281e+001  1.270738e+002 
4006250000  -2.704504e+001  1.273733e+002 
4009375000  -2.583561e+001  1.146915e+002 
4012500000  -2.688807e+001  1.077632e+002 
4015625000  -2.815227e+001  1.082485e+002 
4018750000  -2.835616e+001  1.108356e+002 
4021875000  -2.761689e+001  1.094148e+002 
4025000000  -2.722054e+001  1.045646e+002 
4028125000  -2.723584e+001  1.007633e+002 
4031250000  -2.767666e+001  9.757218e+001 
4034375000  -2.794378e+001  9.746552e+001 
4037500000  -2.745717e+001  9.950929e+001 
4040625000  -2.729280e+001  9.611108e+001 
4043750000  -2.767678e+001  9.551025e+001 
4046875000  -2.719541e+001  9.532335e+001 
4050000000  -2.669678e+001  8.945457e+001 
4053125000  -2.720449e+001  8.797433e+001 
4056250000  -2.783931e+001  9.200540e+001 
4059375000  -2.655801e+001  9.356651e+001 
4062500000  -2.508863e+001  8.873864e+001 
4065625000  -2.499789e+001  8.439786e+001 
4068750000  -2.474529e+001  7.955123e+001 
4071875000  -2.410343e+001  7.150284e+001 
4075000000  -2.446488e+001  6.522938e+001 
4078125000  -2.502596e+001  6.444849e+001 
4081250000  -2.446519e+001  6.190812e+001 
4084375000  -2.409982e+001  5.497466e+001 
4087500000  -2.443758e+001  4.893452e+001 
4090625000  -2.502887e+001  4.794789e+001 
4093750000  -2.491518e+001  4.837033e+001 
4096875000  -2.444337e+001  4.258228e+001 
4100000000  -2.514282e+001  3.552482e+001 
4103125000  -2.600609e+001  3.619017e+001 
4106250000  -2.589895e+001  4.105952e+001 
4109375000  -2.500496e+001  4.037608e+001 
4112500000  -2.446671e+001  3.373462e+001 
4115625000  -2.478426e+001  2.961646e+001 
4118750000  -2.490530e+001  2.671222e+001 
4121875000  -2.453244e+001  2.202573e+001 
4125000000  -2.486756e+001  1.701955e+001 
4128125000  -2.587718e+001  1.715789e+001 
4131250000  -2.564818e+001  2.511371e+001 
4134375000  -2.322247e+001  2.068041e+001 
4137500000  -2.308376e+001  2.189194e+000 
4140625000  -2.524588e+001  -5.096760e+000 
4143750000  -2.659531e+001  -3.219309e-002 
4146875000  -2.623041e+001  7.461012e+000 
4150000000  -2.521680e+001  4.195468e+000 
4153125000  -2.504654e+001  -2.193888e+000 
4156250000  -2.596839e+001  -5.023253e+000 
4159375000  -2.624306e+001  -1.447048e-001 
4162500000  -2.510187e+001  3.884583e+000 
4165625000  -2.391344e+001  -8.903570e-002 
4168750000  -2.332143e+001  -7.016610e+000 
4171875000  -2.329720e+001  -1.680537e+001 
4175000000  -2.390523e+001  -2.204881e+001 
4178125000  -2.450867e+001  -2.198683e+001 
4181250000  -2.433808e+001  -2.277620e+001 
4184375000  -2.421920e+001  -2.590065e+001 
4187500000  -2.423518e+001  -2.876284e+001 
4190625000  -2.408590e+001  -3.407626e+001 
4193750000  -2.487144e+001  -3.783768e+001 
4196875000  -2.560485e+001  -3.841775e+001 
4200000000  -2.640024e+001  -3.611167e+001 
4203125000  -2.643489e+001  -2.314746e+001 
4206250000  -2.309104e+001  -2.106429e+001 
4209375000  -2.189901e+001  -4.161589e+001 
4212500000  -2.382850e+001  -5.082571e+001 
4215625000  -2.483085e+001  -4.452513e+001 
4218750000  -2.355447e+001  -3.750414e+001 
4221875000  -2.116214e+001  -4.691010e+001 
4225000000  -2.242719e+001  -5.962661e+001 
4228125000  -2.308495e+001  -5.430515e+001 
4231250000  -2.161597e+001  -5.816549e+001 
4234375000  -2.152096e+001  -6.651009e+001 
4237500000  -2.109301e+001  -6.979439e+001 
4240625000  -2.109887e+001  -7.819307e+001 
4243750000  -2.206041e+001  -8.508150e+001 
4246875000  -2.294773e+001  -8.527325e+001 
4250000000  -2.301214e+001  -8.251971e+001 
4253125000  -2.240960e+001  -8.392117e+001 
4256250000  -2.274274e+001  -8.834900e+001 
4259375000  -2.251401e+001  -9.029977e+001 
4262500000  -2.247671e+001  -9.400374e+001 
4265625000  -2.266719e+001  -9.359068e+001 
4268750000  -2.178005e+001  -9.767313e+001 
4271875000  -2.154092e+001  -1.030604e+002 
4275000000  -2.092400e+001  -1.095836e+002 
4278125000  -2.157204e+001  -1.206509e+002 
4281250000  -2.334893e+001  -1.229299e+002 
4284375000  -2.304144e+001  -1.217365e+002 
4287500000  -2.382612e+001  -1.252408e+002 
4290625000  -2.504230e+001  -1.158015e+002 
4293750000  -2.306872e+001  -1.101280e+002 
4296875000  -2.169160e+001  -1.217201e+002 
4300000000  -2.258539e+001  -1.307996e+002 
4303125000  -2.371300e+001  -1.300838e+002 
4306250000  -2.309154e+001  -1.239853e+002 
4309375000  -2.167690e+001  -1.259632e+002 
4312500000  -2.156591e+001  -1.341458e+002 
4315625000  -2.177141e+001  -1.403132e+002 
4318750000  -2.211938e+001  -1.438711e+002 
4321875000  -2.228310e+001  -1.430496e+002 
4325000000  -2.165752e+001  -1.425038e+002 
4328125000  -2.119847e+001  -1.489183e+002 
4331250000  -2.113423e+001  -1.569419e+002 
4334375000  -2.157028e+001  -1.621175e+002 
4337500000  -2.241466e+001  -1.643975e+002 
4340625000  -2.295967e+001  -1.612826e+002 
4343750000  -2.237580e+001  -1.607263e+002 
4346875000  -2.196023e+001  -1.660452e+002 
4350000000  -2.199327e+001  -1.707939e+002 
4353125000  -2.200961e+001  -1.785339e+002 
4356250000  -2.379427e+001  -1.794063e+002 
4359375000  -2.442130e+001  -1.661826e+002 
4362500000  -2.166122e+001  -1.643163e+002 
4365625000  -2.012129e+001  -1.760012e+002 
4368750000  -2.079859e+001  1.720860e+002 
4371875000  -2.201251e+001  1.727487e+002 
4375000000  -2.165233e+001  1.736889e+002 
4378125000  -2.103089e+001  1.678850e+002 
4381250000  -2.126054e+001  1.626771e+002 
4384375000  -2.103320e+001  1.580085e+002 
4387500000  -2.178092e+001  1.522617e+002 
4390625000  -2.283008e+001  1.528951e+002 
4393750000  -2.217099e+001  1.553275e+002 
4396875000  -2.146610e+001  1.532530e+002 
4400000000  -2.097120e+001  1.462616e+002 
4403125000  -2.150299e+001  1.386410e+002 
4406250000  -2.241444e+001  1.373548e+002 
4409375000  -2.233481e+001  1.353441e+002 
4412500000  -2.336540e+001  1.323017e+002 
4415625000  -2.377196e+001  1.374520e+002 
4418750000  -2.255692e+001  1.420326e+002 
