!Agilent Technologies,E8363B,MY43030201,A.06.04.32
!Agilent E8363B: A.06.04.32
!Date: Tuesday, November 11, 2014 20:52:45
!Correction: S21(Response(S21)) 
!S1P File: Measurement: S21:
# Hz S  dB   R 50
3000000000  -2.647167e+001  1.495660e+002 
3003125000  -2.787272e+001  1.451909e+002 
3006250000  -2.794352e+001  1.424135e+002 
3009375000  -2.828858e+001  1.474537e+002 
3012500000  -2.772469e+001  1.467820e+002 
3015625000  -2.682953e+001  1.400543e+002 
3018750000  -2.765666e+001  1.392840e+002 
3021875000  -2.641478e+001  1.405523e+002 
3025000000  -2.508813e+001  1.374602e+002 
3028125000  -2.409963e+001  1.323456e+002 
3031250000  -2.305512e+001  1.211661e+002 
3034375000  -2.269995e+001  1.080469e+002 
3037500000  -2.309077e+001  9.631384e+001 
3040625000  -2.440977e+001  9.123587e+001 
3043750000  -2.513470e+001  8.671246e+001 
3046875000  -2.524235e+001  8.056379e+001 
3050000000  -2.698822e+001  7.385753e+001 
3053125000  -2.710010e+001  8.029398e+001 
3056250000  -2.646761e+001  8.328007e+001 
3059375000  -2.666195e+001  8.284221e+001 
3062500000  -2.515825e+001  7.906734e+001 
3065625000  -2.494864e+001  7.323221e+001 
3068750000  -2.467252e+001  6.634406e+001 
3071875000  -2.463250e+001  6.333202e+001 
3075000000  -2.461012e+001  5.965955e+001 
3078125000  -2.433180e+001  5.491969e+001 
3081250000  -2.500290e+001  5.088538e+001 
3084375000  -2.424055e+001  4.723734e+001 
3087500000  -2.412534e+001  4.356776e+001 
3090625000  -2.383458e+001  3.383374e+001 
3093750000  -2.432049e+001  2.600095e+001 
3096875000  -2.559185e+001  1.993954e+001 
3100000000  -2.570811e+001  1.854670e+001 
3103125000  -2.608035e+001  2.002474e+001 
3106250000  -2.583025e+001  1.622277e+001 
3109375000  -2.603068e+001  1.284262e+001 
3112500000  -2.619755e+001  1.204938e+001 
3115625000  -2.596954e+001  7.587798e+000 
3118750000  -2.649075e+001  9.052979e+000 
3121875000  -2.580241e+001  8.350929e-001 
3125000000  -2.702229e+001  -2.387072e+000 
3128125000  -2.816577e+001  5.457088e+000 
3131250000  -2.598799e+001  6.258187e+000 
3134375000  -2.465733e+001  -7.265482e+000 
3137500000  -2.532597e+001  -2.112503e+001 
3140625000  -2.696330e+001  -2.263383e+001 
3143750000  -2.794499e+001  -1.865571e+001 
3146875000  -2.757929e+001  -1.655355e+001 
3150000000  -2.649862e+001  -1.463038e+001 
3153125000  -2.650504e+001  -2.214289e+001 
3156250000  -2.746749e+001  -1.695594e+001 
3159375000  -2.594286e+001  -1.348999e+001 
3162500000  -2.388242e+001  -2.686374e+001 
3165625000  -2.483147e+001  -3.772115e+001 
3168750000  -2.523808e+001  -3.676939e+001 
3171875000  -2.429897e+001  -4.110317e+001 
3175000000  -2.490884e+001  -4.886974e+001 
3178125000  -2.472968e+001  -4.707663e+001 
3181250000  -2.354880e+001  -5.109625e+001 
3184375000  -2.274199e+001  -6.350227e+001 
3187500000  -2.388434e+001  -7.841127e+001 
3190625000  -2.664049e+001  -8.593321e+001 
3193750000  -2.722120e+001  -7.628483e+001 
3196875000  -2.682294e+001  -7.089664e+001 
3200000000  -2.595474e+001  -7.307025e+001 
3203125000  -2.505650e+001  -7.869062e+001 
3206250000  -2.533386e+001  -8.475522e+001 
3209375000  -2.487515e+001  -8.997404e+001 
3212500000  -2.507343e+001  -9.686105e+001 
3215625000  -2.518310e+001  -1.006488e+002 
3218750000  -2.592296e+001  -1.070464e+002 
3221875000  -2.695480e+001  -1.117670e+002 
3225000000  -2.653097e+001  -1.127364e+002 
3228125000  -2.684029e+001  -1.173611e+002 
3231250000  -2.758419e+001  -1.197817e+002 
3234375000  -2.743880e+001  -1.189206e+002 
3237500000  -2.749424e+001  -1.205331e+002 
3240625000  -2.715614e+001  -1.221001e+002 
3243750000  -2.681019e+001  -1.291560e+002 
3246875000  -2.727657e+001  -1.354033e+002 
3250000000  -2.773003e+001  -1.374051e+002 
3253125000  -2.789903e+001  -1.386377e+002 
3256250000  -2.776567e+001  -1.449385e+002 
3259375000  -2.807133e+001  -1.524671e+002 
3262500000  -2.933868e+001  -1.551164e+002 
3265625000  -3.003966e+001  -1.516319e+002 
3268750000  -2.999244e+001  -1.491274e+002 
3271875000  -2.975651e+001  -1.483009e+002 
3275000000  -2.862976e+001  -1.530425e+002 
3278125000  -2.914409e+001  -1.593401e+002 
3281250000  -2.940379e+001  -1.576421e+002 
3284375000  -2.901362e+001  -1.632397e+002 
3287500000  -2.917781e+001  -1.659902e+002 
3290625000  -2.954171e+001  -1.705617e+002 
3293750000  -2.929761e+001  -1.760260e+002 
3296875000  -3.022600e+001  -1.756810e+002 
3300000000  -3.013371e+001  -1.749629e+002 
3303125000  -2.897872e+001  -1.791207e+002 
3306250000  -2.880796e+001  1.748120e+002 
3309375000  -2.856121e+001  1.697686e+002 
3312500000  -2.861106e+001  1.587914e+002 
3315625000  -2.955155e+001  1.510489e+002 
3318750000  -3.103735e+001  1.485249e+002 
3321875000  -3.222581e+001  1.484155e+002 
3325000000  -3.266792e+001  1.540555e+002 
3328125000  -3.265751e+001  1.550988e+002 
3331250000  -3.143622e+001  1.629853e+002 
3334375000  -2.876583e+001  1.528225e+002 
3337500000  -2.884917e+001  1.343631e+002 
3340625000  -3.020978e+001  1.236695e+002 
3343750000  -3.232944e+001  1.225482e+002 
3346875000  -3.266872e+001  1.238910e+002 
3350000000  -3.210918e+001  1.228178e+002 
3353125000  -3.214652e+001  1.183237e+002 
3356250000  -3.187883e+001  1.102781e+002 
3359375000  -3.278933e+001  1.021275e+002 
3362500000  -3.408192e+001  9.704194e+001 
3365625000  -3.461077e+001  9.534940e+001 
3368750000  -3.571382e+001  9.371415e+001 
3371875000  -3.613249e+001  9.017584e+001 
3375000000  -3.775524e+001  8.872524e+001 
3378125000  -3.877308e+001  8.807135e+001 
3381250000  -4.026434e+001  9.561702e+001 
3384375000  -3.952121e+001  1.171994e+002 
3387500000  -3.623185e+001  1.027426e+002 
3390625000  -3.812860e+001  8.485451e+001 
3393750000  -4.004759e+001  8.872964e+001 
3396875000  -3.897701e+001  9.209861e+001 
3400000000  -3.920630e+001  8.608233e+001 
3403125000  -4.021498e+001  8.069949e+001 
3406250000  -4.104725e+001  8.278104e+001 
3409375000  -4.143047e+001  7.960477e+001 
3412500000  -4.268374e+001  8.038284e+001 
3415625000  -4.311819e+001  8.595341e+001 
3418750000  -4.361987e+001  9.066563e+001 
3421875000  -4.358430e+001  9.709787e+001 
3425000000  -4.288722e+001  9.932391e+001 
3428125000  -4.173923e+001  9.828681e+001 
3431250000  -4.172319e+001  9.613184e+001 
3434375000  -4.160557e+001  9.158030e+001 
3437500000  -4.215254e+001  9.193005e+001 
3440625000  -4.257514e+001  9.564646e+001 
3443750000  -4.129499e+001  9.578999e+001 
3446875000  -4.029500e+001  9.150642e+001 
3450000000  -4.016880e+001  8.273527e+001 
3453125000  -4.041739e+001  7.339626e+001 
3456250000  -4.164122e+001  6.903275e+001 
3459375000  -4.246978e+001  7.126286e+001 
3462500000  -4.260830e+001  7.240378e+001 
3465625000  -4.270276e+001  6.918090e+001 
3468750000  -4.291190e+001  6.535752e+001 
3471875000  -4.315197e+001  6.662646e+001 
3475000000  -4.325504e+001  6.150603e+001 
3478125000  -4.392545e+001  5.767540e+001 
3481250000  -4.483352e+001  5.652695e+001 
3484375000  -4.622987e+001  6.064816e+001 
3487500000  -4.591637e+001  6.441121e+001 
3490625000  -4.560060e+001  6.202628e+001 
3493750000  -4.591222e+001  5.878027e+001 
3496875000  -4.739462e+001  5.910222e+001 
3500000000  -4.867548e+001  6.862000e+001 
3503125000  -4.792655e+001  7.199162e+001 
3506250000  -4.674422e+001  7.403999e+001 
3509375000  -4.686554e+001  7.489289e+001 
3512500000  -4.721719e+001  7.214037e+001 
3515625000  -4.768469e+001  7.406929e+001 
3518750000  -4.860571e+001  8.049373e+001 
3521875000  -4.780801e+001  8.036739e+001 
3525000000  -4.789616e+001  8.411659e+001 
3528125000  -4.731238e+001  9.412711e+001 
3531250000  -4.573867e+001  9.521150e+001 
3534375000  -4.480468e+001  8.711969e+001 
3537500000  -4.483013e+001  8.360609e+001 
3540625000  -4.545192e+001  8.323470e+001 
3543750000  -4.583335e+001  8.555634e+001 
3546875000  -4.507760e+001  9.996028e+001 
3550000000  -4.310014e+001  9.886052e+001 
3553125000  -4.132610e+001  8.503820e+001 
3556250000  -4.236134e+001  7.808154e+001 
3559375000  -4.165843e+001  7.989745e+001 
3562500000  -4.064538e+001  7.271576e+001 
3565625000  -4.122179e+001  6.720179e+001 
3568750000  -4.156922e+001  6.900677e+001 
3571875000  -4.142323e+001  6.911725e+001 
3575000000  -4.082117e+001  6.468779e+001 
3578125000  -4.116631e+001  5.902954e+001 
3581250000  -4.123541e+001  6.049835e+001 
3584375000  -4.022950e+001  5.962868e+001 
3587500000  -3.961113e+001  5.346059e+001 
3590625000  -4.001559e+001  4.451245e+001 
3593750000  -4.110729e+001  4.424437e+001 
3596875000  -4.108799e+001  4.941561e+001 
3600000000  -3.943998e+001  4.776912e+001 
3603125000  -3.973359e+001  3.578846e+001 
3606250000  -4.041164e+001  3.202409e+001 
3609375000  -4.069668e+001  3.031665e+001 
3612500000  -4.112961e+001  2.885976e+001 
3615625000  -4.095637e+001  2.693250e+001 
3618750000  -4.168987e+001  2.897283e+001 
3621875000  -4.146191e+001  2.573301e+001 
3625000000  -4.177652e+001  2.802214e+001 
3628125000  -4.179966e+001  2.883759e+001 
3631250000  -4.147749e+001  2.322849e+001 
3634375000  -4.252671e+001  2.312684e+001 
3637500000  -4.203134e+001  3.060649e+001 
3640625000  -4.072271e+001  3.164136e+001 
3643750000  -4.056322e+001  2.420599e+001 
3646875000  -4.122181e+001  1.813149e+001 
3650000000  -4.178399e+001  1.824988e+001 
3653125000  -4.159495e+001  1.919037e+001 
3656250000  -4.168039e+001  1.909485e+001 
3659375000  -4.209809e+001  2.320671e+001 
3662500000  -4.149921e+001  2.048605e+001 
3665625000  -4.144925e+001  2.027138e+001 
3668750000  -4.022425e+001  2.370051e+001 
3671875000  -3.920569e+001  1.895891e+001 
3675000000  -3.978758e+001  1.159200e+001 
3678125000  -4.021688e+001  1.220518e+001 
3681250000  -3.979958e+001  1.440102e+001 
3684375000  -3.971326e+001  1.344685e+001 
3687500000  -3.961097e+001  9.772024e+000 
3690625000  -3.969225e+001  8.661898e+000 
3693750000  -4.029729e+001  1.209507e+001 
3696875000  -3.994651e+001  1.391204e+001 
3700000000  -3.867871e+001  1.135182e+001 
3703125000  -3.860695e+001  8.239395e+000 
3706250000  -3.931802e+001  1.023635e+001 
3709375000  -3.862445e+001  1.391549e+001 
3712500000  -3.745625e+001  1.401310e+001 
3715625000  -3.638311e+001  7.301215e+000 
3718750000  -3.574964e+001  4.262430e+000 
3721875000  -3.523988e+001  -8.667330e-001 
3725000000  -3.529971e+001  -5.830582e+000 
3728125000  -3.546866e+001  -7.155130e+000 
3731250000  -3.480183e+001  -7.531628e+000 
3734375000  -3.358313e+001  -1.318619e+001 
3737500000  -3.432192e+001  -2.101908e+001 
3740625000  -3.486832e+001  -2.342743e+001 
3743750000  -3.465427e+001  -2.551640e+001 
3746875000  -3.475367e+001  -2.859593e+001 
3750000000  -3.512215e+001  -2.957909e+001 
3753125000  -3.477041e+001  -3.076649e+001 
3756250000  -3.465312e+001  -3.110912e+001 
3759375000  -3.454493e+001  -3.109761e+001 
3762500000  -3.377746e+001  -3.527482e+001 
3765625000  -3.437915e+001  -3.750498e+001 
3768750000  -3.444720e+001  -3.601950e+001 
3771875000  -3.261337e+001  -3.683326e+001 
3775000000  -3.228685e+001  -4.528753e+001 
3778125000  -3.277576e+001  -4.701157e+001 
3781250000  -3.256506e+001  -5.019998e+001 
3784375000  -3.246401e+001  -5.118085e+001 
3787500000  -3.172073e+001  -5.465510e+001 
3790625000  -3.238549e+001  -6.121605e+001 
3793750000  -3.241614e+001  -6.135997e+001 
3796875000  -3.160873e+001  -6.254659e+001 
3800000000  -2.999650e+001  -6.596656e+001 
3803125000  -3.071847e+001  -7.341095e+001 
3806250000  -3.141889e+001  -7.565697e+001 
3809375000  -3.111880e+001  -7.689472e+001 
3812500000  -3.042725e+001  -8.152555e+001 
3815625000  -3.104106e+001  -8.941784e+001 
3818750000  -3.198704e+001  -9.001610e+001 
3821875000  -3.204480e+001  -8.196418e+001 
3825000000  -3.010899e+001  -7.758892e+001 
3828125000  -2.880834e+001  -9.154465e+001 
3831250000  -2.930706e+001  -1.059213e+002 
3834375000  -3.066920e+001  -1.066035e+002 
3837500000  -3.165170e+001  -1.020488e+002 
3840625000  -3.042325e+001  -1.023668e+002 
3843750000  -2.937794e+001  -1.126973e+002 
3846875000  -3.004138e+001  -1.198431e+002 
3850000000  -3.136247e+001  -1.140999e+002 
3853125000  -3.050426e+001  -1.117594e+002 
3856250000  -3.044165e+001  -1.158814e+002 
3859375000  -2.971846e+001  -1.215051e+002 
3862500000  -2.931259e+001  -1.279689e+002 
3865625000  -2.965047e+001  -1.330826e+002 
3868750000  -2.965040e+001  -1.331421e+002 
3871875000  -2.893956e+001  -1.366882e+002 
3875000000  -2.908829e+001  -1.450121e+002 
3878125000  -3.005867e+001  -1.474927e+002 
3881250000  -3.016852e+001  -1.439779e+002 
3884375000  -2.965001e+001  -1.492685e+002 
3887500000  -2.980943e+001  -1.530170e+002 
3890625000  -3.033022e+001  -1.560450e+002 
3893750000  -3.073140e+001  -1.561443e+002 
3896875000  -3.085070e+001  -1.555376e+002 
3900000000  -3.106390e+001  -1.570966e+002 
3903125000  -3.077593e+001  -1.584524e+002 
3906250000  -3.044012e+001  -1.596975e+002 
3909375000  -2.962332e+001  -1.621332e+002 
3912500000  -2.977381e+001  -1.695514e+002 
3915625000  -3.099244e+001  -1.685640e+002 
3918750000  -3.090163e+001  -1.670825e+002 
3921875000  -3.060828e+001  -1.687371e+002 
3925000000  -2.978460e+001  -1.694001e+002 
3928125000  -2.901409e+001  -1.745824e+002 
3931250000  -2.946614e+001  -1.790385e+002 
3934375000  -2.978826e+001  -1.789175e+002 
3937500000  -2.988007e+001  -1.788586e+002 
3940625000  -3.031933e+001  -1.792222e+002 
3943750000  -2.939873e+001  -1.776848e+002 
3946875000  -2.813017e+001  1.767926e+002 
3950000000  -2.862648e+001  1.685588e+002 
3953125000  -2.955640e+001  1.691010e+002 
3956250000  -2.874562e+001  1.717367e+002 
3959375000  -2.741261e+001  1.690315e+002 
3962500000  -2.688770e+001  1.649139e+002 
3965625000  -2.656048e+001  1.559800e+002 
3968750000  -2.750777e+001  1.493461e+002 
3971875000  -2.792847e+001  1.475092e+002 
3975000000  -2.721159e+001  1.460697e+002 
3978125000  -2.705588e+001  1.441682e+002 
3981250000  -2.680720e+001  1.402402e+002 
3984375000  -2.710393e+001  1.336666e+002 
3987500000  -2.752093e+001  1.318576e+002 
3990625000  -2.753503e+001  1.308525e+002 
3993750000  -2.784308e+001  1.274731e+002 
3996875000  -2.776118e+001  1.251963e+002 
4000000000  -2.788135e+001  1.236042e+002 
4003125000  -2.847697e+001  1.259032e+002 
4006250000  -2.708525e+001  1.260456e+002 
4009375000  -2.583389e+001  1.135595e+002 
4012500000  -2.694267e+001  1.066181e+002 
4015625000  -2.818924e+001  1.073130e+002 
4018750000  -2.841608e+001  1.093143e+002 
4021875000  -2.772476e+001  1.079890e+002 
4025000000  -2.729112e+001  1.032341e+002 
4028125000  -2.725104e+001  9.930449e+001 
4031250000  -2.770696e+001  9.608246e+001 
4034375000  -2.794067e+001  9.619674e+001 
4037500000  -2.743709e+001  9.828510e+001 
4040625000  -2.736319e+001  9.472068e+001 
4043750000  -2.768298e+001  9.428800e+001 
4046875000  -2.721497e+001  9.362991e+001 
4050000000  -2.676210e+001  8.800947e+001 
4053125000  -2.727196e+001  8.607539e+001 
4056250000  -2.779018e+001  9.028374e+001 
4059375000  -2.658449e+001  9.213682e+001 
4062500000  -2.517759e+001  8.749654e+001 
4065625000  -2.500535e+001  8.286520e+001 
4068750000  -2.467876e+001  7.799889e+001 
4071875000  -2.410179e+001  6.966051e+001 
4075000000  -2.448201e+001  6.372886e+001 
4078125000  -2.502590e+001  6.304388e+001 
4081250000  -2.451741e+001  6.004266e+001 
4084375000  -2.409025e+001  5.311072e+001 
4087500000  -2.440989e+001  4.704010e+001 
4090625000  -2.509481e+001  4.601348e+001 
4093750000  -2.487386e+001  4.673615e+001 
4096875000  -2.445721e+001  4.070470e+001 
4100000000  -2.520249e+001  3.357449e+001 
4103125000  -2.605013e+001  3.450739e+001 
4106250000  -2.594345e+001  3.919014e+001 
4109375000  -2.505304e+001  3.895579e+001 
4112500000  -2.452144e+001  3.214009e+001 
4115625000  -2.487514e+001  2.777905e+001 
4118750000  -2.492375e+001  2.497141e+001 
4121875000  -2.457184e+001  2.072740e+001 
4125000000  -2.495091e+001  1.517197e+001 
4128125000  -2.596054e+001  1.537580e+001 
4131250000  -2.563877e+001  2.353715e+001 
4134375000  -2.334564e+001  1.925707e+001 
4137500000  -2.321191e+001  6.440072e-001 
4140625000  -2.533683e+001  -6.747443e+000 
4143750000  -2.669592e+001  -1.481820e+000 
4146875000  -2.617029e+001  5.777750e+000 
4150000000  -2.528636e+001  2.664270e+000 
4153125000  -2.513667e+001  -3.997425e+000 
4156250000  -2.600887e+001  -5.940935e+000 
4159375000  -2.626430e+001  -1.689409e+000 
4162500000  -2.511999e+001  2.868690e+000 
4165625000  -2.395174e+001  -1.571913e+000 
4168750000  -2.342221e+001  -8.950780e+000 
4171875000  -2.334786e+001  -1.818496e+001 
4175000000  -2.390257e+001  -2.374522e+001 
4178125000  -2.454059e+001  -2.379815e+001 
4181250000  -2.436979e+001  -2.454819e+001 
4184375000  -2.427889e+001  -2.774069e+001 
4187500000  -2.431059e+001  -3.018706e+001 
4190625000  -2.411794e+001  -3.575293e+001 
4193750000  -2.490878e+001  -3.974747e+001 
4196875000  -2.556534e+001  -4.025800e+001 
4200000000  -2.648038e+001  -3.800523e+001 
4203125000  -2.653371e+001  -2.416294e+001 
4206250000  -2.313894e+001  -2.308664e+001 
4209375000  -2.191601e+001  -4.364565e+001 
4212500000  -2.384412e+001  -5.221231e+001 
4215625000  -2.485282e+001  -4.615793e+001 
4218750000  -2.351255e+001  -3.969630e+001 
4221875000  -2.126634e+001  -4.922470e+001 
4225000000  -2.251279e+001  -6.150765e+001 
4228125000  -2.318284e+001  -5.627706e+001 
4231250000  -2.160801e+001  -5.991425e+001 
4234375000  -2.158051e+001  -6.834312e+001 
4237500000  -2.116360e+001  -7.180502e+001 
4240625000  -2.116979e+001  -8.003362e+001 
4243750000  -2.211626e+001  -8.682687e+001 
4246875000  -2.305471e+001  -8.686460e+001 
4250000000  -2.311074e+001  -8.404011e+001 
4253125000  -2.255897e+001  -8.613246e+001 
4256250000  -2.283170e+001  -8.993591e+001 
4259375000  -2.257472e+001  -9.177386e+001 
4262500000  -2.260239e+001  -9.580551e+001 
4265625000  -2.273324e+001  -9.516588e+001 
4268750000  -2.180778e+001  -9.937358e+001 
4271875000  -2.162196e+001  -1.052267e+002 
4275000000  -2.097843e+001  -1.114949e+002 
4278125000  -2.163982e+001  -1.224248e+002 
4281250000  -2.345973e+001  -1.245791e+002 
4284375000  -2.310760e+001  -1.236737e+002 
4287500000  -2.394188e+001  -1.271639e+002 
4290625000  -2.509221e+001  -1.171612e+002 
4293750000  -2.313641e+001  -1.120359e+002 
4296875000  -2.181430e+001  -1.234954e+002 
4300000000  -2.262270e+001  -1.326177e+002 
4303125000  -2.377511e+001  -1.316008e+002 
4306250000  -2.312910e+001  -1.258543e+002 
4309375000  -2.172726e+001  -1.273939e+002 
4312500000  -2.167045e+001  -1.358800e+002 
4315625000  -2.183044e+001  -1.421377e+002 
4318750000  -2.217764e+001  -1.454641e+002 
4321875000  -2.233107e+001  -1.448011e+002 
4325000000  -2.175833e+001  -1.443199e+002 
4328125000  -2.125740e+001  -1.509002e+002 
4331250000  -2.117292e+001  -1.586770e+002 
4334375000  -2.161497e+001  -1.638036e+002 
4337500000  -2.247007e+001  -1.661705e+002 
4340625000  -2.304526e+001  -1.627428e+002 
4343750000  -2.242813e+001  -1.624567e+002 
4346875000  -2.201890e+001  -1.680321e+002 
4350000000  -2.202376e+001  -1.729990e+002 
4353125000  -2.209870e+001  1.795668e+002 
4356250000  -2.393646e+001  1.785221e+002 
4359375000  -2.449522e+001  -1.680536e+002 
4362500000  -2.171081e+001  -1.657223e+002 
4365625000  -2.020402e+001  -1.778627e+002 
4368750000  -2.090862e+001  1.700809e+002 
4371875000  -2.213015e+001  1.708305e+002 
4375000000  -2.183069e+001  1.722059e+002 
4378125000  -2.115301e+001  1.661859e+002 
4381250000  -2.136678e+001  1.608701e+002 
4384375000  -2.116604e+001  1.564148e+002 
4387500000  -2.194975e+001  1.504160e+002 
4390625000  -2.295038e+001  1.512350e+002 
4393750000  -2.223698e+001  1.535727e+002 
4396875000  -2.160505e+001  1.516614e+002 
4400000000  -2.108981e+001  1.445809e+002 
4403125000  -2.168919e+001  1.369858e+002 
4406250000  -2.248568e+001  1.355599e+002 
4409375000  -2.249533e+001  1.337986e+002 
4412500000  -2.352936e+001  1.309482e+002 
4415625000  -2.390339e+001  1.358977e+002 
4418750000  -2.268216e+001  1.408389e+002 
