!Agilent Technologies,E8363B,MY43030201,A.06.04.32
!Agilent E8363B: A.06.04.32
!Date: Tuesday, November 11, 2014 20:55:13
!Correction: S21(Response(S21)) 
!S1P File: Measurement: S21:
# Hz S  dB   R 50
3000000000  -2.644034e+001  1.488247e+002 
3003125000  -2.787144e+001  1.438204e+002 
3006250000  -2.795269e+001  1.415429e+002 
3009375000  -2.829952e+001  1.465911e+002 
3012500000  -2.775385e+001  1.460586e+002 
3015625000  -2.679712e+001  1.391637e+002 
3018750000  -2.766847e+001  1.383335e+002 
3021875000  -2.638229e+001  1.397900e+002 
3025000000  -2.506081e+001  1.365565e+002 
3028125000  -2.410004e+001  1.314010e+002 
3031250000  -2.305155e+001  1.202079e+002 
3034375000  -2.274657e+001  1.071517e+002 
3037500000  -2.309619e+001  9.526541e+001 
3040625000  -2.441353e+001  9.033182e+001 
3043750000  -2.511338e+001  8.565382e+001 
3046875000  -2.526023e+001  7.959601e+001 
3050000000  -2.696379e+001  7.299074e+001 
3053125000  -2.703906e+001  7.947774e+001 
3056250000  -2.641605e+001  8.268877e+001 
3059375000  -2.666282e+001  8.188032e+001 
3062500000  -2.516173e+001  7.817239e+001 
3065625000  -2.497311e+001  7.222573e+001 
3068750000  -2.465554e+001  6.522572e+001 
3071875000  -2.462911e+001  6.260317e+001 
3075000000  -2.461186e+001  5.860422e+001 
3078125000  -2.431183e+001  5.398073e+001 
3081250000  -2.497042e+001  4.979684e+001 
3084375000  -2.418596e+001  4.618044e+001 
3087500000  -2.409530e+001  4.249799e+001 
3090625000  -2.380784e+001  3.258318e+001 
3093750000  -2.427728e+001  2.491339e+001 
3096875000  -2.555620e+001  1.884748e+001 
3100000000  -2.565590e+001  1.745514e+001 
3103125000  -2.605377e+001  1.868657e+001 
3106250000  -2.576294e+001  1.541097e+001 
3109375000  -2.600939e+001  1.193542e+001 
3112500000  -2.611628e+001  1.064459e+001 
3115625000  -2.595655e+001  6.487113e+000 
3118750000  -2.644473e+001  7.818317e+000 
3121875000  -2.574269e+001  -4.026011e-001 
3125000000  -2.701079e+001  -3.783507e+000 
3128125000  -2.816026e+001  4.437499e+000 
3131250000  -2.593685e+001  4.991830e+000 
3134375000  -2.464926e+001  -8.662192e+000 
3137500000  -2.529217e+001  -2.236620e+001 
3140625000  -2.692018e+001  -2.364952e+001 
3143750000  -2.795360e+001  -1.993662e+001 
3146875000  -2.749385e+001  -1.802016e+001 
3150000000  -2.648471e+001  -1.586252e+001 
3153125000  -2.651224e+001  -2.369380e+001 
3156250000  -2.746251e+001  -1.796719e+001 
3159375000  -2.585699e+001  -1.524162e+001 
3162500000  -2.383460e+001  -2.817476e+001 
3165625000  -2.480097e+001  -3.894066e+001 
3168750000  -2.518888e+001  -3.788422e+001 
3171875000  -2.422755e+001  -4.216430e+001 
3175000000  -2.485770e+001  -5.002946e+001 
3178125000  -2.464639e+001  -4.856161e+001 
3181250000  -2.348679e+001  -5.248780e+001 
3184375000  -2.270763e+001  -6.463307e+001 
3187500000  -2.383689e+001  -7.968562e+001 
3190625000  -2.655358e+001  -8.700378e+001 
3193750000  -2.716210e+001  -7.777979e+001 
3196875000  -2.677957e+001  -7.220940e+001 
3200000000  -2.584390e+001  -7.421310e+001 
3203125000  -2.498479e+001  -8.010356e+001 
3206250000  -2.529832e+001  -8.621902e+001 
3209375000  -2.479265e+001  -9.131572e+001 
3212500000  -2.496994e+001  -9.793687e+001 
3215625000  -2.510617e+001  -1.018878e+002 
3218750000  -2.587797e+001  -1.083353e+002 
3221875000  -2.682904e+001  -1.132493e+002 
3225000000  -2.643407e+001  -1.141108e+002 
3228125000  -2.677246e+001  -1.185919e+002 
3231250000  -2.752192e+001  -1.209686e+002 
3234375000  -2.738095e+001  -1.201212e+002 
3237500000  -2.743382e+001  -1.215819e+002 
3240625000  -2.704498e+001  -1.235960e+002 
3243750000  -2.671868e+001  -1.301989e+002 
3246875000  -2.721056e+001  -1.368802e+002 
3250000000  -2.765454e+001  -1.384347e+002 
3253125000  -2.782431e+001  -1.404154e+002 
3256250000  -2.771815e+001  -1.462020e+002 
3259375000  -2.800085e+001  -1.539690e+002 
3262500000  -2.921243e+001  -1.566407e+002 
3265625000  -2.995209e+001  -1.531749e+002 
3268750000  -2.987048e+001  -1.500313e+002 
3271875000  -2.962386e+001  -1.496496e+002 
3275000000  -2.854133e+001  -1.545581e+002 
3278125000  -2.906672e+001  -1.607926e+002 
3281250000  -2.935728e+001  -1.587733e+002 
3284375000  -2.887704e+001  -1.648875e+002 
3287500000  -2.907644e+001  -1.674816e+002 
3290625000  -2.944457e+001  -1.715466e+002 
3293750000  -2.910777e+001  -1.773497e+002 
3296875000  -3.022313e+001  -1.768329e+002 
3300000000  -3.000630e+001  -1.761121e+002 
3303125000  -2.890889e+001  -1.798274e+002 
3306250000  -2.880596e+001  1.728436e+002 
3309375000  -2.853100e+001  1.678472e+002 
3312500000  -2.858237e+001  1.569182e+002 
3315625000  -2.963037e+001  1.491922e+002 
3318750000  -3.094919e+001  1.465185e+002 
3321875000  -3.224400e+001  1.466592e+002 
3325000000  -3.273019e+001  1.518521e+002 
3328125000  -3.257719e+001  1.534267e+002 
3331250000  -3.134105e+001  1.613456e+002 
3334375000  -2.868728e+001  1.510191e+002 
3337500000  -2.886687e+001  1.325305e+002 
3340625000  -3.025252e+001  1.213309e+002 
3343750000  -3.217370e+001  1.206740e+002 
3346875000  -3.257878e+001  1.220208e+002 
3350000000  -3.197707e+001  1.207897e+002 
3353125000  -3.211637e+001  1.165141e+002 
3356250000  -3.188610e+001  1.087686e+002 
3359375000  -3.264751e+001  1.005952e+002 
3362500000  -3.397132e+001  9.491969e+001 
3365625000  -3.466277e+001  9.357895e+001 
3368750000  -3.568757e+001  9.182917e+001 
3371875000  -3.607684e+001  8.866496e+001 
3375000000  -3.768814e+001  8.733840e+001 
3378125000  -3.881289e+001  8.529149e+001 
3381250000  -4.023656e+001  9.483935e+001 
3384375000  -3.933831e+001  1.159856e+002 
3387500000  -3.616407e+001  1.004110e+002 
3390625000  -3.818727e+001  8.143740e+001 
3393750000  -3.988396e+001  8.715041e+001 
3396875000  -3.903601e+001  9.012828e+001 
3400000000  -3.904997e+001  8.262611e+001 
3403125000  -4.011635e+001  7.735661e+001 
3406250000  -4.100744e+001  8.150251e+001 
3409375000  -4.123900e+001  7.735719e+001 
3412500000  -4.231489e+001  8.060190e+001 
3415625000  -4.317657e+001  8.476444e+001 
3418750000  -4.356946e+001  8.726328e+001 
3421875000  -4.357939e+001  9.540038e+001 
3425000000  -4.292933e+001  9.818694e+001 
3428125000  -4.165393e+001  9.799124e+001 
3431250000  -4.171685e+001  9.346154e+001 
3434375000  -4.154012e+001  9.271948e+001 
3437500000  -4.188298e+001  8.965975e+001 
3440625000  -4.246896e+001  9.265009e+001 
3443750000  -4.100409e+001  9.444902e+001 
3446875000  -4.005111e+001  8.928958e+001 
3450000000  -3.984644e+001  8.001415e+001 
3453125000  -4.014428e+001  7.139511e+001 
3456250000  -4.138480e+001  6.843374e+001 
3459375000  -4.250392e+001  7.011853e+001 
3462500000  -4.239094e+001  6.955885e+001 
3465625000  -4.246067e+001  6.644998e+001 
3468750000  -4.290614e+001  6.374049e+001 
3471875000  -4.288819e+001  6.369281e+001 
3475000000  -4.286211e+001  6.005214e+001 
3478125000  -4.358435e+001  5.459001e+001 
3481250000  -4.489267e+001  5.249963e+001 
3484375000  -4.623090e+001  5.902930e+001 
3487500000  -4.617147e+001  6.474915e+001 
3490625000  -4.541185e+001  5.832215e+001 
3493750000  -4.618710e+001  5.507920e+001 
3496875000  -4.690520e+001  5.709422e+001 
3500000000  -4.848010e+001  6.444666e+001 
3503125000  -4.833336e+001  6.636891e+001 
3506250000  -4.682220e+001  6.908658e+001 
3509375000  -4.718176e+001  6.823895e+001 
3512500000  -4.758956e+001  6.739582e+001 
3515625000  -4.781027e+001  6.633901e+001 
3518750000  -4.809805e+001  7.554082e+001 
3521875000  -4.773378e+001  7.706341e+001 
3525000000  -4.826214e+001  7.920808e+001 
3528125000  -4.742841e+001  9.032288e+001 
3531250000  -4.578658e+001  9.271021e+001 
3534375000  -4.500333e+001  8.469878e+001 
3537500000  -4.492129e+001  7.963554e+001 
3540625000  -4.526741e+001  7.881802e+001 
3543750000  -4.609375e+001  8.254298e+001 
3546875000  -4.525660e+001  9.456940e+001 
3550000000  -4.260328e+001  9.727735e+001 
3553125000  -4.122508e+001  8.064680e+001 
3556250000  -4.244080e+001  7.434064e+001 
3559375000  -4.198611e+001  7.963071e+001 
3562500000  -4.065662e+001  6.960223e+001 
3565625000  -4.155379e+001  6.382438e+001 
3568750000  -4.174450e+001  6.640628e+001 
3571875000  -4.144410e+001  6.669360e+001 
3575000000  -4.088722e+001  6.203132e+001 
3578125000  -4.125447e+001  5.663572e+001 
3581250000  -4.109851e+001  5.702479e+001 
3584375000  -4.036285e+001  5.694276e+001 
3587500000  -3.977940e+001  5.024894e+001 
3590625000  -4.016392e+001  4.165446e+001 
3593750000  -4.116921e+001  4.104980e+001 
3596875000  -4.142657e+001  4.984702e+001 
3600000000  -3.986309e+001  4.505069e+001 
3603125000  -3.994170e+001  3.147737e+001 
3606250000  -4.039485e+001  2.969024e+001 
3609375000  -4.082248e+001  2.919845e+001 
3612500000  -4.120580e+001  2.674619e+001 
3615625000  -4.140273e+001  2.451608e+001 
3618750000  -4.215282e+001  2.569064e+001 
3621875000  -4.151183e+001  2.631479e+001 
3625000000  -4.181292e+001  2.458340e+001 
3628125000  -4.180279e+001  2.555610e+001 
3631250000  -4.125960e+001  2.235144e+001 
3634375000  -4.288920e+001  2.309109e+001 
3637500000  -4.221460e+001  2.772529e+001 
3640625000  -4.085396e+001  2.946387e+001 
3643750000  -4.074688e+001  2.311593e+001 
3646875000  -4.118115e+001  1.822036e+001 
3650000000  -4.162410e+001  1.956618e+001 
3653125000  -4.156980e+001  1.781962e+001 
3656250000  -4.131425e+001  1.611068e+001 
3659375000  -4.209720e+001  2.088433e+001 
3662500000  -4.101757e+001  1.816810e+001 
3665625000  -4.113888e+001  2.003605e+001 
3668750000  -4.009931e+001  2.083850e+001 
3671875000  -3.946049e+001  1.844421e+001 
3675000000  -3.966787e+001  9.224236e+000 
3678125000  -4.020169e+001  1.088318e+001 
3681250000  -3.959483e+001  1.183232e+001 
3684375000  -3.956206e+001  1.058021e+001 
3687500000  -4.007862e+001  8.574467e+000 
3690625000  -3.960004e+001  6.972211e+000 
3693750000  -4.034938e+001  9.079707e+000 
3696875000  -3.996850e+001  1.073411e+001 
3700000000  -3.889390e+001  9.235718e+000 
3703125000  -3.852930e+001  6.467856e+000 
3706250000  -3.946017e+001  7.894323e+000 
3709375000  -3.895742e+001  1.159509e+001 
3712500000  -3.752378e+001  1.218456e+001 
3715625000  -3.636198e+001  6.159687e+000 
3718750000  -3.582705e+001  2.627711e+000 
3721875000  -3.529435e+001  -3.046335e+000 
3725000000  -3.533646e+001  -7.922192e+000 
3728125000  -3.545164e+001  -8.515843e+000 
3731250000  -3.461047e+001  -8.240944e+000 
3734375000  -3.377607e+001  -1.471294e+001 
3737500000  -3.424565e+001  -2.165916e+001 
3740625000  -3.504653e+001  -2.383597e+001 
3743750000  -3.460799e+001  -2.661393e+001 
3746875000  -3.470331e+001  -2.951577e+001 
3750000000  -3.508157e+001  -3.112942e+001 
3753125000  -3.466912e+001  -3.168705e+001 
3756250000  -3.454201e+001  -3.165855e+001 
3759375000  -3.448249e+001  -3.223747e+001 
3762500000  -3.387514e+001  -3.651662e+001 
3765625000  -3.425810e+001  -3.952018e+001 
3768750000  -3.436452e+001  -3.747272e+001 
3771875000  -3.253918e+001  -3.874443e+001 
3775000000  -3.234800e+001  -4.750677e+001 
3778125000  -3.260059e+001  -4.822293e+001 
3781250000  -3.254205e+001  -5.169360e+001 
3784375000  -3.239862e+001  -5.309104e+001 
3787500000  -3.172306e+001  -5.750534e+001 
3790625000  -3.229716e+001  -6.217620e+001 
3793750000  -3.242376e+001  -6.375968e+001 
3796875000  -3.146457e+001  -6.531747e+001 
3800000000  -2.993698e+001  -6.913895e+001 
3803125000  -3.073986e+001  -7.594044e+001 
3806250000  -3.136506e+001  -7.797311e+001 
3809375000  -3.111170e+001  -7.931431e+001 
3812500000  -3.041590e+001  -8.425423e+001 
3815625000  -3.114082e+001  -9.140121e+001 
3818750000  -3.216799e+001  -9.257555e+001 
3821875000  -3.213298e+001  -8.423051e+001 
3825000000  -3.014309e+001  -8.028065e+001 
3828125000  -2.877557e+001  -9.449742e+001 
3831250000  -2.933352e+001  -1.081465e+002 
3834375000  -3.072101e+001  -1.093529e+002 
3837500000  -3.162183e+001  -1.040188e+002 
3840625000  -3.050489e+001  -1.047154e+002 
3843750000  -2.923691e+001  -1.151770e+002 
3846875000  -2.999150e+001  -1.220127e+002 
3850000000  -3.130045e+001  -1.155371e+002 
3853125000  -3.044698e+001  -1.136075e+002 
3856250000  -3.045782e+001  -1.186085e+002 
3859375000  -2.981306e+001  -1.230186e+002 
3862500000  -2.925096e+001  -1.304949e+002 
3865625000  -2.961692e+001  -1.351351e+002 
3868750000  -2.961872e+001  -1.354765e+002 
3871875000  -2.894176e+001  -1.380570e+002 
3875000000  -2.898823e+001  -1.468122e+002 
3878125000  -3.007064e+001  -1.493424e+002 
3881250000  -3.019805e+001  -1.460797e+002 
3884375000  -2.970234e+001  -1.509718e+002 
3887500000  -2.970098e+001  -1.557266e+002 
3890625000  -3.025628e+001  -1.573275e+002 
3893750000  -3.065958e+001  -1.578742e+002 
3896875000  -3.079525e+001  -1.583033e+002 
3900000000  -3.104494e+001  -1.589282e+002 
3903125000  -3.070596e+001  -1.609350e+002 
3906250000  -3.026569e+001  -1.610311e+002 
3909375000  -2.966175e+001  -1.643314e+002 
3912500000  -2.975253e+001  -1.718439e+002 
3915625000  -3.098050e+001  -1.715782e+002 
3918750000  -3.102168e+001  -1.688505e+002 
3921875000  -3.051493e+001  -1.711993e+002 
3925000000  -2.980822e+001  -1.715605e+002 
3928125000  -2.909813e+001  -1.776271e+002 
3931250000  -2.959572e+001  1.783109e+002 
3934375000  -2.977513e+001  1.787513e+002 
3937500000  -2.990165e+001  1.783140e+002 
3940625000  -3.038070e+001  1.784248e+002 
3943750000  -2.939965e+001  1.791717e+002 
3946875000  -2.808434e+001  1.738289e+002 
3950000000  -2.869091e+001  1.664997e+002 
3953125000  -2.976559e+001  1.674980e+002 
3956250000  -2.883876e+001  1.701938e+002 
3959375000  -2.753179e+001  1.672215e+002 
3962500000  -2.698409e+001  1.626686e+002 
3965625000  -2.662371e+001  1.538427e+002 
3968750000  -2.749874e+001  1.471918e+002 
3971875000  -2.788540e+001  1.457268e+002 
3975000000  -2.724725e+001  1.436746e+002 
3978125000  -2.704215e+001  1.423488e+002 
3981250000  -2.685331e+001  1.378655e+002 
3984375000  -2.708484e+001  1.316897e+002 
3987500000  -2.760229e+001  1.298021e+002 
3990625000  -2.763378e+001  1.286502e+002 
3993750000  -2.782673e+001  1.261032e+002 
3996875000  -2.772657e+001  1.233288e+002 
4000000000  -2.786098e+001  1.214782e+002 
4003125000  -2.852001e+001  1.239616e+002 
4006250000  -2.705035e+001  1.241131e+002 
4009375000  -2.586345e+001  1.118907e+002 
4012500000  -2.695823e+001  1.050464e+002 
4015625000  -2.815324e+001  1.048122e+002 
4018750000  -2.836958e+001  1.076085e+002 
4021875000  -2.760846e+001  1.061006e+002 
4025000000  -2.725390e+001  1.016826e+002 
4028125000  -2.719003e+001  9.735296e+001 
4031250000  -2.772034e+001  9.408396e+001 
4034375000  -2.794418e+001  9.386801e+001 
4037500000  -2.739422e+001  9.584808e+001 
4040625000  -2.735420e+001  9.243995e+001 
4043750000  -2.768957e+001  9.190508e+001 
4046875000  -2.722866e+001  9.184927e+001 
4050000000  -2.676314e+001  8.605696e+001 
4053125000  -2.716398e+001  8.410533e+001 
4056250000  -2.780436e+001  8.812334e+001 
4059375000  -2.658143e+001  8.990472e+001 
4062500000  -2.523181e+001  8.522897e+001 
4065625000  -2.502569e+001  8.078394e+001 
4068750000  -2.479038e+001  7.631982e+001 
4071875000  -2.413133e+001  6.808006e+001 
4075000000  -2.456056e+001  6.160997e+001 
4078125000  -2.508004e+001  6.097139e+001 
4081250000  -2.450156e+001  5.858121e+001 
4084375000  -2.414648e+001  5.166811e+001 
4087500000  -2.452339e+001  4.529983e+001 
4090625000  -2.511726e+001  4.448246e+001 
4093750000  -2.494461e+001  4.540262e+001 
4096875000  -2.448187e+001  3.901688e+001 
4100000000  -2.519869e+001  3.214822e+001 
4103125000  -2.608592e+001  3.330337e+001 
4106250000  -2.597129e+001  3.796003e+001 
4109375000  -2.503640e+001  3.714023e+001 
4112500000  -2.448163e+001  3.083067e+001 
4115625000  -2.483668e+001  2.675975e+001 
4118750000  -2.489623e+001  2.358942e+001 
4121875000  -2.453923e+001  1.901201e+001 
4125000000  -2.486697e+001  1.389870e+001 
4128125000  -2.594340e+001  1.408705e+001 
4131250000  -2.560805e+001  2.241025e+001 
4134375000  -2.323874e+001  1.789246e+001 
4137500000  -2.305683e+001  -8.600027e-001 
4140625000  -2.520616e+001  -7.712676e+000 
4143750000  -2.657358e+001  -2.907975e+000 
4146875000  -2.611802e+001  4.488664e+000 
4150000000  -2.517395e+001  1.350313e+000 
4153125000  -2.496431e+001  -5.295775e+000 
4156250000  -2.591131e+001  -8.084851e+000 
4159375000  -2.619470e+001  -3.552905e+000 
4162500000  -2.499383e+001  9.308394e-001 
4165625000  -2.386465e+001  -3.147688e+000 
4168750000  -2.325637e+001  -1.024451e+001 
4171875000  -2.324573e+001  -1.971107e+001 
4175000000  -2.387853e+001  -2.541397e+001 
4178125000  -2.444543e+001  -2.519777e+001 
4181250000  -2.428691e+001  -2.599760e+001 
4184375000  -2.411699e+001  -2.951110e+001 
4187500000  -2.418738e+001  -3.209941e+001 
4190625000  -2.401137e+001  -3.747334e+001 
4193750000  -2.482866e+001  -4.162061e+001 
4196875000  -2.553217e+001  -4.153687e+001 
4200000000  -2.638726e+001  -3.913124e+001 
4203125000  -2.638867e+001  -2.567284e+001 
4206250000  -2.303511e+001  -2.465389e+001 
4209375000  -2.185179e+001  -4.520213e+001 
4212500000  -2.376089e+001  -5.454037e+001 
4215625000  -2.477014e+001  -4.770000e+001 
4218750000  -2.344253e+001  -4.078079e+001 
4221875000  -2.117636e+001  -4.995256e+001 
4225000000  -2.239105e+001  -6.269621e+001 
4228125000  -2.306026e+001  -5.768452e+001 
4231250000  -2.153674e+001  -6.121430e+001 
4234375000  -2.142673e+001  -6.957289e+001 
4237500000  -2.102270e+001  -7.313701e+001 
4240625000  -2.101425e+001  -8.154375e+001 
4243750000  -2.199430e+001  -8.821017e+001 
4246875000  -2.296065e+001  -8.836593e+001 
4250000000  -2.295373e+001  -8.524515e+001 
4253125000  -2.235629e+001  -8.715903e+001 
4256250000  -2.263368e+001  -9.119194e+001 
4259375000  -2.233782e+001  -9.351724e+001 
4262500000  -2.241768e+001  -9.708259e+001 
4265625000  -2.253879e+001  -9.656096e+001 
4268750000  -2.167207e+001  -1.007293e+002 
4271875000  -2.140260e+001  -1.061801e+002 
4275000000  -2.078693e+001  -1.129959e+002 
4278125000  -2.137802e+001  -1.243087e+002 
4281250000  -2.318912e+001  -1.257491e+002 
4284375000  -2.291708e+001  -1.253233e+002 
4287500000  -2.369562e+001  -1.291116e+002 
4290625000  -2.491952e+001  -1.190550e+002 
4293750000  -2.294185e+001  -1.138668e+002 
4296875000  -2.157367e+001  -1.252513e+002 
4300000000  -2.240992e+001  -1.344970e+002 
4303125000  -2.353926e+001  -1.331017e+002 
4306250000  -2.286376e+001  -1.270274e+002 
4309375000  -2.148326e+001  -1.295440e+002 
4312500000  -2.138920e+001  -1.377875e+002 
4315625000  -2.161542e+001  -1.441614e+002 
4318750000  -2.191432e+001  -1.475509e+002 
4321875000  -2.206985e+001  -1.467632e+002 
4325000000  -2.148434e+001  -1.462689e+002 
4328125000  -2.098157e+001  -1.528143e+002 
4331250000  -2.090547e+001  -1.610900e+002 
4334375000  -2.137616e+001  -1.661546e+002 
4337500000  -2.218864e+001  -1.682735e+002 
4340625000  -2.276169e+001  -1.646037e+002 
4343750000  -2.211903e+001  -1.644095e+002 
4346875000  -2.178534e+001  -1.698040e+002 
4350000000  -2.176935e+001  -1.745238e+002 
4353125000  -2.183835e+001  1.779453e+002 
4356250000  -2.356487e+001  1.769292e+002 
4359375000  -2.417664e+001  -1.696746e+002 
4362500000  -2.151637e+001  -1.677924e+002 
4365625000  -1.988608e+001  1.799342e+002 
4368750000  -2.063538e+001  1.684142e+002 
4371875000  -2.179189e+001  1.692745e+002 
4375000000  -2.144988e+001  1.702109e+002 
4378125000  -2.083682e+001  1.643965e+002 
4381250000  -2.097636e+001  1.586406e+002 
4384375000  -2.081096e+001  1.543559e+002 
4387500000  -2.154661e+001  1.488533e+002 
4390625000  -2.251662e+001  1.498658e+002 
4393750000  -2.186614e+001  1.516481e+002 
4396875000  -2.122990e+001  1.493858e+002 
4400000000  -2.068662e+001  1.425994e+002 
4403125000  -2.128480e+001  1.347684e+002 
4406250000  -2.214805e+001  1.337334e+002 
4409375000  -2.209618e+001  1.315337e+002 
4412500000  -2.309655e+001  1.288684e+002 
4415625000  -2.351527e+001  1.335155e+002 
4418750000  -2.226583e+001  1.382221e+002 
