!Agilent Technologies,E8363B,MY43030201,A.06.04.32
!Agilent E8363B: A.06.04.32
!Date: Tuesday, November 11, 2014 20:43:46
!Correction: S21(Response(S21)) 
!S1P File: Measurement: S21:
# Hz S  dB   R 50
3000000000  -2.661229e+001  1.591336e+002 
3003125000  -2.797147e+001  1.550467e+002 
3006250000  -2.798870e+001  1.519488e+002 
3009375000  -2.833784e+001  1.566811e+002 
3012500000  -2.793767e+001  1.569669e+002 
3015625000  -2.686712e+001  1.496208e+002 
3018750000  -2.773460e+001  1.484570e+002 
3021875000  -2.655737e+001  1.500044e+002 
3025000000  -2.525194e+001  1.469922e+002 
3028125000  -2.427550e+001  1.423244e+002 
3031250000  -2.323194e+001  1.309376e+002 
3034375000  -2.281028e+001  1.183206e+002 
3037500000  -2.314243e+001  1.061806e+002 
3040625000  -2.445659e+001  1.009384e+002 
3043750000  -2.518445e+001  9.679673e+001 
3046875000  -2.525187e+001  9.028004e+001 
3050000000  -2.702115e+001  8.306669e+001 
3053125000  -2.719218e+001  8.930439e+001 
3056250000  -2.650590e+001  9.229732e+001 
3059375000  -2.682061e+001  9.211263e+001 
3062500000  -2.533953e+001  8.832710e+001 
3065625000  -2.513122e+001  8.307011e+001 
3068750000  -2.483449e+001  7.584913e+001 
3071875000  -2.476876e+001  7.264568e+001 
3075000000  -2.481388e+001  6.908894e+001 
3078125000  -2.447863e+001  6.468627e+001 
3081250000  -2.509132e+001  6.056013e+001 
3084375000  -2.438507e+001  5.688533e+001 
3087500000  -2.423881e+001  5.348502e+001 
3090625000  -2.396007e+001  4.402405e+001 
3093750000  -2.432690e+001  3.577172e+001 
3096875000  -2.562564e+001  2.945037e+001 
3100000000  -2.581136e+001  2.814524e+001 
3103125000  -2.617737e+001  2.979575e+001 
3106250000  -2.590081e+001  2.634942e+001 
3109375000  -2.614153e+001  2.249064e+001 
3112500000  -2.630238e+001  2.178859e+001 
3115625000  -2.605297e+001  1.763198e+001 
3118750000  -2.655957e+001  1.861819e+001 
3121875000  -2.593972e+001  1.092087e+001 
3125000000  -2.701999e+001  7.320151e+000 
3128125000  -2.827145e+001  1.498527e+001 
3131250000  -2.617103e+001  1.650422e+001 
3134375000  -2.475648e+001  2.694278e+000 
3137500000  -2.538420e+001  -1.139045e+001 
3140625000  -2.695957e+001  -1.329696e+001 
3143750000  -2.799443e+001  -8.797739e+000 
3146875000  -2.760669e+001  -7.276386e+000 
3150000000  -2.664165e+001  -4.623908e+000 
3153125000  -2.658154e+001  -1.225385e+001 
3156250000  -2.752781e+001  -6.987984e+000 
3159375000  -2.607302e+001  -4.009746e+000 
3162500000  -2.398415e+001  -1.671802e+001 
3165625000  -2.483083e+001  -2.772974e+001 
3168750000  -2.528378e+001  -2.708153e+001 
3171875000  -2.434038e+001  -3.123355e+001 
3175000000  -2.496382e+001  -3.904353e+001 
3178125000  -2.481988e+001  -3.748726e+001 
3181250000  -2.358703e+001  -4.092680e+001 
3184375000  -2.273581e+001  -5.336393e+001 
3187500000  -2.378707e+001  -6.881040e+001 
3190625000  -2.666433e+001  -7.646387e+001 
3193750000  -2.726431e+001  -6.695587e+001 
3196875000  -2.686315e+001  -6.150643e+001 
3200000000  -2.605576e+001  -6.317695e+001 
3203125000  -2.517792e+001  -6.883249e+001 
3206250000  -2.543358e+001  -7.484051e+001 
3209375000  -2.494556e+001  -7.995564e+001 
3212500000  -2.501132e+001  -8.662591e+001 
3215625000  -2.520397e+001  -9.128683e+001 
3218750000  -2.594636e+001  -9.732994e+001 
3221875000  -2.697758e+001  -1.025239e+002 
3225000000  -2.659290e+001  -1.030755e+002 
3228125000  -2.683453e+001  -1.073632e+002 
3231250000  -2.759353e+001  -1.101724e+002 
3234375000  -2.753361e+001  -1.092399e+002 
3237500000  -2.753747e+001  -1.108361e+002 
3240625000  -2.722412e+001  -1.125157e+002 
3243750000  -2.680706e+001  -1.188652e+002 
3246875000  -2.731666e+001  -1.256140e+002 
3250000000  -2.775998e+001  -1.274693e+002 
3253125000  -2.788676e+001  -1.289867e+002 
3256250000  -2.779780e+001  -1.347677e+002 
3259375000  -2.808364e+001  -1.426131e+002 
3262500000  -2.928545e+001  -1.456903e+002 
3265625000  -3.001607e+001  -1.423794e+002 
3268750000  -3.001227e+001  -1.399911e+002 
3271875000  -2.973471e+001  -1.382847e+002 
3275000000  -2.872031e+001  -1.433268e+002 
3278125000  -2.913399e+001  -1.494564e+002 
3281250000  -2.943597e+001  -1.477656e+002 
3284375000  -2.903849e+001  -1.537254e+002 
3287500000  -2.912825e+001  -1.566244e+002 
3290625000  -2.953997e+001  -1.605224e+002 
3293750000  -2.925692e+001  -1.665950e+002 
3296875000  -3.019624e+001  -1.666802e+002 
3300000000  -3.017669e+001  -1.653802e+002 
3303125000  -2.910162e+001  -1.693752e+002 
3306250000  -2.886205e+001  -1.758264e+002 
3309375000  -2.864164e+001  1.790276e+002 
3312500000  -2.860434e+001  1.692764e+002 
3315625000  -2.952939e+001  1.613351e+002 
3318750000  -3.091218e+001  1.584175e+002 
3321875000  -3.206592e+001  1.578043e+002 
3325000000  -3.273380e+001  1.619912e+002 
3328125000  -3.265450e+001  1.639017e+002 
3331250000  -3.149700e+001  1.722215e+002 
3334375000  -2.894698e+001  1.630172e+002 
3337500000  -2.896338e+001  1.446193e+002 
3340625000  -3.022367e+001  1.334299e+002 
3343750000  -3.208906e+001  1.318448e+002 
3346875000  -3.271885e+001  1.332939e+002 
3350000000  -3.215049e+001  1.320016e+002 
3353125000  -3.212656e+001  1.276841e+002 
3356250000  -3.195972e+001  1.201388e+002 
3359375000  -3.270466e+001  1.119643e+002 
3362500000  -3.412569e+001  1.054057e+002 
3365625000  -3.478679e+001  1.046354e+002 
3368750000  -3.567146e+001  1.031124e+002 
3371875000  -3.616858e+001  9.969093e+001 
3375000000  -3.752520e+001  9.774227e+001 
3378125000  -3.872186e+001  9.707182e+001 
3381250000  -4.030478e+001  1.036853e+002 
3384375000  -3.955622e+001  1.243295e+002 
3387500000  -3.640323e+001  1.108356e+002 
3390625000  -3.815706e+001  9.406709e+001 
3393750000  -4.012606e+001  9.687225e+001 
3396875000  -3.903701e+001  9.995873e+001 
3400000000  -3.905294e+001  9.379974e+001 
3403125000  -4.031644e+001  8.909888e+001 
3406250000  -4.068863e+001  8.957881e+001 
3409375000  -4.167650e+001  8.656406e+001 
3412500000  -4.277937e+001  8.898767e+001 
3415625000  -4.370805e+001  9.376650e+001 
3418750000  -4.371648e+001  9.720182e+001 
3421875000  -4.394889e+001  1.021135e+002 
3425000000  -4.321103e+001  1.062719e+002 
3428125000  -4.218607e+001  1.069646e+002 
3431250000  -4.222190e+001  1.027486e+002 
3434375000  -4.207949e+001  1.000948e+002 
3437500000  -4.237580e+001  1.000975e+002 
3440625000  -4.279713e+001  1.016840e+002 
3443750000  -4.178939e+001  1.050205e+002 
3446875000  -4.055563e+001  9.952628e+001 
3450000000  -4.062374e+001  9.186343e+001 
3453125000  -4.081923e+001  8.373716e+001 
3456250000  -4.220720e+001  7.809773e+001 
3459375000  -4.301205e+001  8.051994e+001 
3462500000  -4.293597e+001  8.066606e+001 
3465625000  -4.319524e+001  7.545154e+001 
3468750000  -4.371611e+001  7.360502e+001 
3471875000  -4.370207e+001  7.492506e+001 
3475000000  -4.371897e+001  7.108134e+001 
3478125000  -4.437811e+001  6.697559e+001 
3481250000  -4.580035e+001  6.809557e+001 
3484375000  -4.728549e+001  6.903970e+001 
3487500000  -4.694342e+001  7.296171e+001 
3490625000  -4.619542e+001  7.163121e+001 
3493750000  -4.718721e+001  6.765801e+001 
3496875000  -4.839611e+001  6.746540e+001 
3500000000  -4.935442e+001  8.128575e+001 
3503125000  -4.945982e+001  8.031506e+001 
3506250000  -4.757889e+001  8.818654e+001 
3509375000  -4.846106e+001  8.827377e+001 
3512500000  -4.838541e+001  8.442004e+001 
3515625000  -4.846189e+001  8.637218e+001 
3518750000  -4.897533e+001  9.594085e+001 
3521875000  -4.868410e+001  1.016458e+002 
3525000000  -4.798936e+001  1.005109e+002 
3528125000  -4.763116e+001  1.099225e+002 
3531250000  -4.583648e+001  1.099990e+002 
3534375000  -4.538905e+001  1.054598e+002 
3537500000  -4.520025e+001  9.760012e+001 
3540625000  -4.533735e+001  1.004184e+002 
3543750000  -4.609811e+001  1.002025e+002 
3546875000  -4.542301e+001  1.148018e+002 
3550000000  -4.272204e+001  1.156517e+002 
3553125000  -4.163688e+001  1.001891e+002 
3556250000  -4.230369e+001  9.292393e+001 
3559375000  -4.236785e+001  9.380306e+001 
3562500000  -4.121403e+001  8.841787e+001 
3565625000  -4.179336e+001  8.086006e+001 
3568750000  -4.167282e+001  8.365221e+001 
3571875000  -4.145354e+001  8.516735e+001 
3575000000  -4.091427e+001  7.964043e+001 
3578125000  -4.124741e+001  7.440084e+001 
3581250000  -4.137773e+001  7.474353e+001 
3584375000  -4.065174e+001  7.330529e+001 
3587500000  -3.988096e+001  6.710490e+001 
3590625000  -4.009388e+001  5.753858e+001 
3593750000  -4.135757e+001  5.648212e+001 
3596875000  -4.112489e+001  6.597155e+001 
3600000000  -3.961530e+001  6.275346e+001 
3603125000  -3.985039e+001  4.954537e+001 
3606250000  -4.049087e+001  4.656706e+001 
3609375000  -4.089506e+001  4.469161e+001 
3612500000  -4.124486e+001  4.378444e+001 
3615625000  -4.111797e+001  4.219032e+001 
3618750000  -4.202751e+001  4.374704e+001 
3621875000  -4.152929e+001  4.255292e+001 
3625000000  -4.184805e+001  4.209430e+001 
3628125000  -4.213161e+001  4.323466e+001 
3631250000  -4.156262e+001  3.822646e+001 
3634375000  -4.223436e+001  3.922966e+001 
3637500000  -4.205855e+001  4.432695e+001 
3640625000  -4.110033e+001  4.484013e+001 
3643750000  -4.066165e+001  4.021651e+001 
3646875000  -4.140389e+001  3.374686e+001 
3650000000  -4.156756e+001  3.376017e+001 
3653125000  -4.158876e+001  3.407696e+001 
3656250000  -4.175559e+001  3.219958e+001 
3659375000  -4.203510e+001  3.517432e+001 
3662500000  -4.124545e+001  3.511955e+001 
3665625000  -4.130633e+001  3.525190e+001 
3668750000  -4.038208e+001  3.660701e+001 
3671875000  -3.923927e+001  3.293554e+001 
3675000000  -3.955000e+001  2.727323e+001 
3678125000  -4.023352e+001  2.876326e+001 
3681250000  -3.973818e+001  2.848215e+001 
3684375000  -3.950496e+001  2.711519e+001 
3687500000  -3.965574e+001  2.502591e+001 
3690625000  -3.952413e+001  2.384014e+001 
3693750000  -4.007622e+001  2.645996e+001 
3696875000  -3.976824e+001  2.742292e+001 
3700000000  -3.850370e+001  2.559534e+001 
3703125000  -3.865627e+001  2.184305e+001 
3706250000  -3.911088e+001  2.498122e+001 
3709375000  -3.857542e+001  2.767299e+001 
3712500000  -3.731541e+001  2.805329e+001 
3715625000  -3.637306e+001  2.187002e+001 
3718750000  -3.572458e+001  1.899203e+001 
3721875000  -3.518451e+001  1.303954e+001 
3725000000  -3.514292e+001  7.941578e+000 
3728125000  -3.536283e+001  7.875927e+000 
3731250000  -3.469069e+001  7.830574e+000 
3734375000  -3.369021e+001  2.444379e+000 
3737500000  -3.416181e+001  -5.556887e+000 
3740625000  -3.493957e+001  -8.700767e+000 
3743750000  -3.460146e+001  -1.133346e+001 
3746875000  -3.459573e+001  -1.365443e+001 
3750000000  -3.496867e+001  -1.455890e+001 
3753125000  -3.453498e+001  -1.506375e+001 
3756250000  -3.441531e+001  -1.589547e+001 
3759375000  -3.428883e+001  -1.632675e+001 
3762500000  -3.380447e+001  -2.052421e+001 
3765625000  -3.408321e+001  -2.267272e+001 
3768750000  -3.440881e+001  -2.122425e+001 
3771875000  -3.251410e+001  -2.337045e+001 
3775000000  -3.231019e+001  -3.082372e+001 
3778125000  -3.262363e+001  -3.228924e+001 
3781250000  -3.226064e+001  -3.562355e+001 
3784375000  -3.228043e+001  -3.735214e+001 
3787500000  -3.160614e+001  -4.025406e+001 
3790625000  -3.210153e+001  -4.656678e+001 
3793750000  -3.233098e+001  -4.683869e+001 
3796875000  -3.144911e+001  -4.870376e+001 
3800000000  -2.999090e+001  -5.207631e+001 
3803125000  -3.062820e+001  -5.821167e+001 
3806250000  -3.122403e+001  -6.114183e+001 
3809375000  -3.094178e+001  -6.254289e+001 
3812500000  -3.032242e+001  -6.723582e+001 
3815625000  -3.088124e+001  -7.445480e+001 
3818750000  -3.190357e+001  -7.680996e+001 
3821875000  -3.201914e+001  -6.864165e+001 
3825000000  -3.007355e+001  -6.322421e+001 
3828125000  -2.868353e+001  -7.635889e+001 
3831250000  -2.913543e+001  -9.060810e+001 
3834375000  -3.044548e+001  -9.202618e+001 
3837500000  -3.132434e+001  -8.751242e+001 
3840625000  -3.038954e+001  -8.850397e+001 
3843750000  -2.918977e+001  -9.782450e+001 
3846875000  -2.984563e+001  -1.052132e+002 
3850000000  -3.111139e+001  -1.001217e+002 
3853125000  -3.037263e+001  -9.712224e+001 
3856250000  -3.037304e+001  -1.020364e+002 
3859375000  -2.972824e+001  -1.061080e+002 
3862500000  -2.926915e+001  -1.130256e+002 
3865625000  -2.948871e+001  -1.176100e+002 
3868750000  -2.950366e+001  -1.183055e+002 
3871875000  -2.887448e+001  -1.206183e+002 
3875000000  -2.889838e+001  -1.295645e+002 
3878125000  -2.991368e+001  -1.320842e+002 
3881250000  -2.998616e+001  -1.289977e+002 
3884375000  -2.940618e+001  -1.330185e+002 
3887500000  -2.943778e+001  -1.371695e+002 
3890625000  -3.010212e+001  -1.399105e+002 
3893750000  -3.041290e+001  -1.410127e+002 
3896875000  -3.050011e+001  -1.399371e+002 
3900000000  -3.081112e+001  -1.416152e+002 
3903125000  -3.042128e+001  -1.437360e+002 
3906250000  -3.024237e+001  -1.440645e+002 
3909375000  -2.946609e+001  -1.465799e+002 
3912500000  -2.937309e+001  -1.537802e+002 
3915625000  -3.062725e+001  -1.535144e+002 
3918750000  -3.071369e+001  -1.515108e+002 
3921875000  -3.034131e+001  -1.529227e+002 
3925000000  -2.944774e+001  -1.533057e+002 
3928125000  -2.883998e+001  -1.594818e+002 
3931250000  -2.920113e+001  -1.634305e+002 
3934375000  -2.938868e+001  -1.630547e+002 
3937500000  -2.950034e+001  -1.642683e+002 
3940625000  -3.008204e+001  -1.639353e+002 
3943750000  -2.919878e+001  -1.628040e+002 
3946875000  -2.786083e+001  -1.675165e+002 
3950000000  -2.827943e+001  -1.752027e+002 
3953125000  -2.919264e+001  -1.753143e+002 
3956250000  -2.847061e+001  -1.720029e+002 
3959375000  -2.708629e+001  -1.752485e+002 
3962500000  -2.654537e+001  -1.798729e+002 
3965625000  -2.617159e+001  1.714978e+002 
3968750000  -2.703525e+001  1.647511e+002 
3971875000  -2.748728e+001  1.631945e+002 
3975000000  -2.688288e+001  1.613590e+002 
3978125000  -2.670629e+001  1.601508e+002 
3981250000  -2.640509e+001  1.559793e+002 
3984375000  -2.660682e+001  1.496232e+002 
3987500000  -2.715621e+001  1.473113e+002 
3990625000  -2.709845e+001  1.462507e+002 
3993750000  -2.728337e+001  1.433710e+002 
3996875000  -2.732192e+001  1.409447e+002 
4000000000  -2.738544e+001  1.389377e+002 
4003125000  -2.793701e+001  1.411622e+002 
4006250000  -2.674589e+001  1.421740e+002 
4009375000  -2.539730e+001  1.302024e+002 
4012500000  -2.634085e+001  1.230146e+002 
4015625000  -2.752575e+001  1.233052e+002 
4018750000  -2.779311e+001  1.251505e+002 
4021875000  -2.712653e+001  1.240194e+002 
4025000000  -2.671654e+001  1.189085e+002 
4028125000  -2.664153e+001  1.148861e+002 
4031250000  -2.702684e+001  1.116228e+002 
4034375000  -2.731197e+001  1.109853e+002 
4037500000  -2.685143e+001  1.129016e+002 
4040625000  -2.671616e+001  1.096984e+002 
4043750000  -2.704264e+001  1.095299e+002 
4046875000  -2.663127e+001  1.089368e+002 
4050000000  -2.604280e+001  1.033056e+002 
4053125000  -2.646774e+001  1.005766e+002 
4056250000  -2.713669e+001  1.037752e+002 
4059375000  -2.610599e+001  1.065245e+002 
4062500000  -2.469859e+001  1.019853e+002 
4065625000  -2.447804e+001  9.772178e+001 
4068750000  -2.420655e+001  9.357456e+001 
4071875000  -2.356046e+001  8.564746e+001 
4075000000  -2.385245e+001  7.916016e+001 
4078125000  -2.437741e+001  7.762292e+001 
4081250000  -2.390790e+001  7.551128e+001 
4084375000  -2.353479e+001  6.865025e+001 
4087500000  -2.382098e+001  6.235864e+001 
4090625000  -2.440778e+001  6.076190e+001 
4093750000  -2.428013e+001  6.167281e+001 
4096875000  -2.383909e+001  5.624991e+001 
4100000000  -2.446683e+001  4.887842e+001 
4103125000  -2.535348e+001  4.934830e+001 
4106250000  -2.523710e+001  5.425299e+001 
4109375000  -2.438922e+001  5.362108e+001 
4112500000  -2.386349e+001  4.725036e+001 
4115625000  -2.411398e+001  4.301606e+001 
4118750000  -2.425261e+001  3.999738e+001 
4121875000  -2.394662e+001  3.556919e+001 
4125000000  -2.423913e+001  3.065520e+001 
4128125000  -2.523751e+001  3.048446e+001 
4131250000  -2.493447e+001  3.853817e+001 
4134375000  -2.261254e+001  3.494136e+001 
4137500000  -2.227271e+001  1.598623e+001 
4140625000  -2.437315e+001  8.164448e+000 
4143750000  -2.584667e+001  1.241517e+001 
4146875000  -2.540770e+001  2.048629e+001 
4150000000  -2.450826e+001  1.750190e+001 
4153125000  -2.429648e+001  1.096623e+001 
4156250000  -2.507307e+001  8.197403e+000 
4159375000  -2.547359e+001  1.232011e+001 
4162500000  -2.433734e+001  1.626048e+001 
4165625000  -2.326049e+001  1.302889e+001 
4168750000  -2.252017e+001  6.049133e+000 
4171875000  -2.245987e+001  -3.103773e+000 
4175000000  -2.303214e+001  -9.339375e+000 
4178125000  -2.363675e+001  -9.974599e+000 
4181250000  -2.356363e+001  -1.027947e+001 
4184375000  -2.335196e+001  -1.359095e+001 
4187500000  -2.341512e+001  -1.634953e+001 
4190625000  -2.320897e+001  -2.181831e+001 
4193750000  -2.394575e+001  -2.585051e+001 
4196875000  -2.472657e+001  -2.608496e+001 
4200000000  -2.541407e+001  -2.431533e+001 
4203125000  -2.557493e+001  -1.191181e+001 
4206250000  -2.247600e+001  -9.160485e+000 
4209375000  -2.112588e+001  -2.944786e+001 
4212500000  -2.297556e+001  -3.840976e+001 
4215625000  -2.405337e+001  -3.209901e+001 
4218750000  -2.269425e+001  -2.502728e+001 
4221875000  -2.027231e+001  -3.459609e+001 
4225000000  -2.143893e+001  -4.766711e+001 
4228125000  -2.226354e+001  -4.312572e+001 
4231250000  -2.079168e+001  -4.661743e+001 
4234375000  -2.071939e+001  -5.449511e+001 
4237500000  -2.029055e+001  -5.831258e+001 
4240625000  -2.037274e+001  -6.641550e+001 
4243750000  -2.134026e+001  -7.285040e+001 
4246875000  -2.218100e+001  -7.310764e+001 
4250000000  -2.217455e+001  -7.010332e+001 
4253125000  -2.155057e+001  -7.229974e+001 
4256250000  -2.177993e+001  -7.634954e+001 
4259375000  -2.158113e+001  -7.843783e+001 
4262500000  -2.162564e+001  -8.236797e+001 
4265625000  -2.173325e+001  -8.233446e+001 
4268750000  -2.104356e+001  -8.586585e+001 
4271875000  -2.068339e+001  -9.109669e+001 
4275000000  -2.005185e+001  -9.753812e+001 
4278125000  -2.049926e+001  -1.089534e+002 
4281250000  -2.225084e+001  -1.117596e+002 
4284375000  -2.207797e+001  -1.110051e+002 
4287500000  -2.282880e+001  -1.148591e+002 
4290625000  -2.426621e+001  -1.056864e+002 
4293750000  -2.234721e+001  -9.925492e+001 
4296875000  -2.090163e+001  -1.102164e+002 
4300000000  -2.173660e+001  -1.196168e+002 
4303125000  -2.274199e+001  -1.188278e+002 
4306250000  -2.218068e+001  -1.132641e+002 
4309375000  -2.078959e+001  -1.151916e+002 
4312500000  -2.071103e+001  -1.235520e+002 
4315625000  -2.097828e+001  -1.294237e+002 
4318750000  -2.125670e+001  -1.327973e+002 
4321875000  -2.139831e+001  -1.326291e+002 
4325000000  -2.080566e+001  -1.322700e+002 
4328125000  -2.035607e+001  -1.387765e+002 
4331250000  -2.037014e+001  -1.465531e+002 
4334375000  -2.076160e+001  -1.514396e+002 
4337500000  -2.150108e+001  -1.536815e+002 
4340625000  -2.200519e+001  -1.514524e+002 
4343750000  -2.154201e+001  -1.505981e+002 
4346875000  -2.117077e+001  -1.553595e+002 
4350000000  -2.103677e+001  -1.600884e+002 
4353125000  -2.102792e+001  -1.682873e+002 
4356250000  -2.259925e+001  -1.704306e+002 
4359375000  -2.341851e+001  -1.581072e+002 
4362500000  -2.103776e+001  -1.550044e+002 
4365625000  -1.942710e+001  -1.657847e+002 
4368750000  -1.999824e+001  -1.778332e+002 
4371875000  -2.114614e+001  -1.775974e+002 
4375000000  -2.093126e+001  -1.764791e+002 
4378125000  -2.033958e+001  1.781998e+002 
4381250000  -2.042166e+001  1.727989e+002 
4384375000  -2.021220e+001  1.683205e+002 
4387500000  -2.081809e+001  1.620874e+002 
4390625000  -2.185232e+001  1.625957e+002 
4393750000  -2.134312e+001  1.650421e+002 
4396875000  -2.066034e+001  1.629877e+002 
4400000000  -2.019754e+001  1.563086e+002 
4403125000  -2.065200e+001  1.484879e+002 
4406250000  -2.150982e+001  1.470707e+002 
4409375000  -2.144041e+001  1.445217e+002 
4412500000  -2.235473e+001  1.415818e+002 
4415625000  -2.284666e+001  1.459852e+002 
4418750000  -2.182111e+001  1.512065e+002 
