!Agilent Technologies,E8363B,MY43030201,A.06.04.32
!Agilent E8363B: A.06.04.32
!Date: Tuesday, November 11, 2014 20:52:48
!Correction: S21(Response(S21)) 
!S1P File: Measurement: S21:
# Hz S  dB   R 50
3000000000  -2.652028e+001  1.495621e+002 
3003125000  -2.791583e+001  1.452212e+002 
3006250000  -2.796294e+001  1.421908e+002 
3009375000  -2.831578e+001  1.475625e+002 
3012500000  -2.774854e+001  1.471250e+002 
3015625000  -2.681685e+001  1.402481e+002 
3018750000  -2.771154e+001  1.396156e+002 
3021875000  -2.641099e+001  1.408058e+002 
3025000000  -2.508817e+001  1.374907e+002 
3028125000  -2.414780e+001  1.325431e+002 
3031250000  -2.310237e+001  1.212354e+002 
3034375000  -2.272278e+001  1.081720e+002 
3037500000  -2.311540e+001  9.628927e+001 
3040625000  -2.447052e+001  9.134184e+001 
3043750000  -2.513677e+001  8.695827e+001 
3046875000  -2.527062e+001  8.046267e+001 
3050000000  -2.699295e+001  7.354835e+001 
3053125000  -2.715984e+001  8.036444e+001 
3056250000  -2.647314e+001  8.323502e+001 
3059375000  -2.665119e+001  8.287480e+001 
3062500000  -2.520341e+001  7.912740e+001 
3065625000  -2.497863e+001  7.326090e+001 
3068750000  -2.467246e+001  6.631541e+001 
3071875000  -2.466856e+001  6.344162e+001 
3075000000  -2.461636e+001  5.957447e+001 
3078125000  -2.437671e+001  5.502350e+001 
3081250000  -2.501396e+001  5.093293e+001 
3084375000  -2.425297e+001  4.739597e+001 
3087500000  -2.414755e+001  4.348505e+001 
3090625000  -2.383528e+001  3.378336e+001 
3093750000  -2.430046e+001  2.581727e+001 
3096875000  -2.557635e+001  1.997000e+001 
3100000000  -2.570462e+001  1.866903e+001 
3103125000  -2.611484e+001  2.008182e+001 
3106250000  -2.579330e+001  1.644529e+001 
3109375000  -2.607855e+001  1.311495e+001 
3112500000  -2.619535e+001  1.185905e+001 
3115625000  -2.600581e+001  7.649010e+000 
3118750000  -2.647858e+001  8.959633e+000 
3121875000  -2.577162e+001  1.105928e+000 
3125000000  -2.702920e+001  -2.243053e+000 
3128125000  -2.823828e+001  5.713593e+000 
3131250000  -2.599816e+001  6.059084e+000 
3134375000  -2.465862e+001  -7.298342e+000 
3137500000  -2.533615e+001  -2.110416e+001 
3140625000  -2.692329e+001  -2.272850e+001 
3143750000  -2.797612e+001  -1.870681e+001 
3146875000  -2.754287e+001  -1.650938e+001 
3150000000  -2.655856e+001  -1.437434e+001 
3153125000  -2.653574e+001  -2.212979e+001 
3156250000  -2.749218e+001  -1.688936e+001 
3159375000  -2.591786e+001  -1.379776e+001 
3162500000  -2.390390e+001  -2.684093e+001 
3165625000  -2.484170e+001  -3.770954e+001 
3168750000  -2.522931e+001  -3.687112e+001 
3171875000  -2.425913e+001  -4.112001e+001 
3175000000  -2.492879e+001  -4.885986e+001 
3178125000  -2.471713e+001  -4.712743e+001 
3181250000  -2.354579e+001  -5.122109e+001 
3184375000  -2.273373e+001  -6.338433e+001 
3187500000  -2.387445e+001  -7.869785e+001 
3190625000  -2.665690e+001  -8.582018e+001 
3193750000  -2.725821e+001  -7.634153e+001 
3196875000  -2.681472e+001  -7.100220e+001 
3200000000  -2.595056e+001  -7.279408e+001 
3203125000  -2.506233e+001  -7.887587e+001 
3206250000  -2.538540e+001  -8.496786e+001 
3209375000  -2.489291e+001  -8.999918e+001 
3212500000  -2.502283e+001  -9.664560e+001 
3215625000  -2.514898e+001  -1.008019e+002 
3218750000  -2.593040e+001  -1.069644e+002 
3221875000  -2.689377e+001  -1.121106e+002 
3225000000  -2.653097e+001  -1.125775e+002 
3228125000  -2.685482e+001  -1.171715e+002 
3231250000  -2.759513e+001  -1.198043e+002 
3234375000  -2.747960e+001  -1.186010e+002 
3237500000  -2.752027e+001  -1.205899e+002 
3240625000  -2.716074e+001  -1.223564e+002 
3243750000  -2.679854e+001  -1.289638e+002 
3246875000  -2.727483e+001  -1.355137e+002 
3250000000  -2.777705e+001  -1.374311e+002 
3253125000  -2.792217e+001  -1.390112e+002 
3256250000  -2.770737e+001  -1.446166e+002 
3259375000  -2.809023e+001  -1.526166e+002 
3262500000  -2.932837e+001  -1.554269e+002 
3265625000  -3.000154e+001  -1.518861e+002 
3268750000  -2.999642e+001  -1.486842e+002 
3271875000  -2.974171e+001  -1.481145e+002 
3275000000  -2.867430e+001  -1.530214e+002 
3278125000  -2.914650e+001  -1.596374e+002 
3281250000  -2.938329e+001  -1.576320e+002 
3284375000  -2.897345e+001  -1.635194e+002 
3287500000  -2.909182e+001  -1.660369e+002 
3290625000  -2.953380e+001  -1.708472e+002 
3293750000  -2.923288e+001  -1.758742e+002 
3296875000  -3.028175e+001  -1.760468e+002 
3300000000  -3.009174e+001  -1.742235e+002 
3303125000  -2.890856e+001  -1.786127e+002 
3306250000  -2.869935e+001  1.748383e+002 
3309375000  -2.841902e+001  1.704046e+002 
3312500000  -2.849977e+001  1.596532e+002 
3315625000  -2.953758e+001  1.519483e+002 
3318750000  -3.090902e+001  1.489889e+002 
3321875000  -3.209833e+001  1.492879e+002 
3325000000  -3.264520e+001  1.544152e+002 
3328125000  -3.258960e+001  1.563109e+002 
3331250000  -3.124648e+001  1.634730e+002 
3334375000  -2.865894e+001  1.539501e+002 
3337500000  -2.873848e+001  1.353738e+002 
3340625000  -3.010393e+001  1.243979e+002 
3343750000  -3.204168e+001  1.230886e+002 
3346875000  -3.242541e+001  1.250216e+002 
3350000000  -3.190115e+001  1.235123e+002 
3353125000  -3.199844e+001  1.191402e+002 
3356250000  -3.169640e+001  1.117460e+002 
3359375000  -3.255790e+001  1.032786e+002 
3362500000  -3.386740e+001  9.754247e+001 
3365625000  -3.450590e+001  9.576223e+001 
3368750000  -3.550126e+001  9.431561e+001 
3371875000  -3.576749e+001  9.086272e+001 
3375000000  -3.741964e+001  8.990715e+001 
3378125000  -3.849748e+001  8.851508e+001 
3381250000  -4.025759e+001  9.534364e+001 
3384375000  -3.918356e+001  1.164267e+002 
3387500000  -3.599428e+001  1.031280e+002 
3390625000  -3.771021e+001  8.510349e+001 
3393750000  -3.965191e+001  8.887930e+001 
3396875000  -3.900667e+001  9.188486e+001 
3400000000  -3.862605e+001  8.416225e+001 
3403125000  -3.978185e+001  7.968447e+001 
3406250000  -4.039469e+001  8.434828e+001 
3409375000  -4.130499e+001  7.792638e+001 
3412500000  -4.202909e+001  7.993395e+001 
3415625000  -4.283200e+001  8.630441e+001 
3418750000  -4.331059e+001  9.079275e+001 
3421875000  -4.344897e+001  9.487024e+001 
3425000000  -4.242478e+001  9.951421e+001 
3428125000  -4.158165e+001  9.847204e+001 
3431250000  -4.161429e+001  9.464597e+001 
3434375000  -4.153629e+001  9.126631e+001 
3437500000  -4.177374e+001  8.990487e+001 
3440625000  -4.216731e+001  9.327216e+001 
3443750000  -4.104817e+001  9.594727e+001 
3446875000  -3.993473e+001  8.960390e+001 
3450000000  -3.973580e+001  8.078399e+001 
3453125000  -4.013132e+001  7.243905e+001 
3456250000  -4.124337e+001  6.778420e+001 
3459375000  -4.224141e+001  6.967278e+001 
3462500000  -4.243780e+001  7.014491e+001 
3465625000  -4.245816e+001  6.690044e+001 
3468750000  -4.259740e+001  6.352957e+001 
3471875000  -4.286394e+001  6.261557e+001 
3475000000  -4.310765e+001  6.112984e+001 
3478125000  -4.331008e+001  5.344754e+001 
3481250000  -4.464061e+001  5.330490e+001 
3484375000  -4.590232e+001  5.899672e+001 
3487500000  -4.561862e+001  6.111761e+001 
3490625000  -4.530531e+001  5.791313e+001 
3493750000  -4.609324e+001  5.507917e+001 
3496875000  -4.697765e+001  5.837777e+001 
3500000000  -4.778292e+001  6.450019e+001 
3503125000  -4.766975e+001  6.973631e+001 
3506250000  -4.720099e+001  6.994511e+001 
3509375000  -4.682705e+001  6.685108e+001 
3512500000  -4.727978e+001  6.452042e+001 
3515625000  -4.762701e+001  7.266167e+001 
3518750000  -4.856113e+001  7.864859e+001 
3521875000  -4.763551e+001  7.938364e+001 
3525000000  -4.747176e+001  8.008228e+001 
3528125000  -4.729297e+001  9.077005e+001 
3531250000  -4.569438e+001  9.090585e+001 
3534375000  -4.513287e+001  8.317728e+001 
3537500000  -4.548969e+001  8.308636e+001 
3540625000  -4.572392e+001  8.191013e+001 
3543750000  -4.610855e+001  8.432074e+001 
3546875000  -4.521299e+001  9.758754e+001 
3550000000  -4.298711e+001  1.007737e+002 
3553125000  -4.152185e+001  8.202374e+001 
3556250000  -4.226556e+001  7.712031e+001 
3559375000  -4.199419e+001  8.003843e+001 
3562500000  -4.100290e+001  7.134121e+001 
3565625000  -4.177771e+001  6.372025e+001 
3568750000  -4.166959e+001  6.736918e+001 
3571875000  -4.150406e+001  6.727695e+001 
3575000000  -4.095724e+001  6.414462e+001 
3578125000  -4.144016e+001  6.153437e+001 
3581250000  -4.158048e+001  6.142889e+001 
3584375000  -4.066270e+001  5.899572e+001 
3587500000  -4.003220e+001  5.264051e+001 
3590625000  -4.067852e+001  4.467037e+001 
3593750000  -4.173168e+001  4.233656e+001 
3596875000  -4.141209e+001  5.190816e+001 
3600000000  -3.982733e+001  5.038618e+001 
3603125000  -3.990953e+001  3.593481e+001 
3606250000  -4.066664e+001  3.380443e+001 
3609375000  -4.115088e+001  3.156065e+001 
3612500000  -4.151393e+001  3.272745e+001 
3615625000  -4.156088e+001  2.842354e+001 
3618750000  -4.191972e+001  3.177204e+001 
3621875000  -4.145012e+001  3.052914e+001 
3625000000  -4.164798e+001  2.984483e+001 
3628125000  -4.188123e+001  2.961147e+001 
3631250000  -4.132948e+001  2.373500e+001 
3634375000  -4.265764e+001  2.740264e+001 
3637500000  -4.202236e+001  3.244017e+001 
3640625000  -4.112693e+001  3.191162e+001 
3643750000  -4.056179e+001  2.627885e+001 
3646875000  -4.109793e+001  2.154816e+001 
3650000000  -4.176922e+001  1.952270e+001 
3653125000  -4.137625e+001  2.155686e+001 
3656250000  -4.185508e+001  1.898449e+001 
3659375000  -4.197075e+001  2.138099e+001 
3662500000  -4.110867e+001  2.151702e+001 
3665625000  -4.142874e+001  2.286011e+001 
3668750000  -4.017057e+001  2.366396e+001 
3671875000  -3.924520e+001  1.853056e+001 
3675000000  -3.977531e+001  1.224236e+001 
3678125000  -4.043669e+001  1.448668e+001 
3681250000  -3.980388e+001  1.569751e+001 
3684375000  -3.993940e+001  1.286553e+001 
3687500000  -3.984457e+001  1.070676e+001 
3690625000  -3.967452e+001  7.997122e+000 
3693750000  -4.027794e+001  1.227281e+001 
3696875000  -4.016088e+001  1.563623e+001 
3700000000  -3.898663e+001  1.312418e+001 
3703125000  -3.892458e+001  8.984163e+000 
3706250000  -3.944988e+001  1.110785e+001 
3709375000  -3.869525e+001  1.436708e+001 
3712500000  -3.747306e+001  1.476225e+001 
3715625000  -3.647063e+001  8.671591e+000 
3718750000  -3.575824e+001  5.531911e+000 
3721875000  -3.521665e+001  6.264589e-001 
3725000000  -3.526302e+001  -4.298669e+000 
3728125000  -3.545853e+001  -5.499367e+000 
3731250000  -3.463145e+001  -5.249315e+000 
3734375000  -3.377870e+001  -1.153670e+001 
3737500000  -3.420654e+001  -1.897750e+001 
3740625000  -3.499012e+001  -2.193193e+001 
3743750000  -3.455887e+001  -2.383472e+001 
3746875000  -3.451178e+001  -2.697196e+001 
3750000000  -3.496564e+001  -2.939787e+001 
3753125000  -3.464598e+001  -2.872888e+001 
3756250000  -3.451817e+001  -2.928417e+001 
3759375000  -3.429864e+001  -3.039584e+001 
3762500000  -3.376899e+001  -3.393840e+001 
3765625000  -3.409781e+001  -3.656633e+001 
3768750000  -3.426727e+001  -3.496116e+001 
3771875000  -3.243941e+001  -3.684843e+001 
3775000000  -3.216277e+001  -4.486526e+001 
3778125000  -3.260257e+001  -4.677492e+001 
3781250000  -3.234158e+001  -5.004815e+001 
3784375000  -3.231710e+001  -5.176551e+001 
3787500000  -3.162711e+001  -5.593695e+001 
3790625000  -3.216483e+001  -6.168491e+001 
3793750000  -3.234262e+001  -6.061820e+001 
3796875000  -3.155210e+001  -6.297826e+001 
3800000000  -2.989336e+001  -6.666189e+001 
3803125000  -3.066447e+001  -7.344444e+001 
3806250000  -3.140289e+001  -7.644510e+001 
3809375000  -3.096086e+001  -7.673190e+001 
3812500000  -3.040860e+001  -8.171751e+001 
3815625000  -3.104021e+001  -8.925492e+001 
3818750000  -3.201851e+001  -9.079901e+001 
3821875000  -3.210345e+001  -8.322800e+001 
3825000000  -3.011997e+001  -7.868793e+001 
3828125000  -2.881781e+001  -9.199657e+001 
3831250000  -2.937255e+001  -1.062086e+002 
3834375000  -3.063562e+001  -1.066119e+002 
3837500000  -3.167257e+001  -1.015038e+002 
3840625000  -3.051287e+001  -1.028841e+002 
3843750000  -2.929976e+001  -1.131169e+002 
3846875000  -3.003330e+001  -1.201451e+002 
3850000000  -3.135819e+001  -1.138495e+002 
3853125000  -3.054518e+001  -1.116799e+002 
3856250000  -3.037502e+001  -1.162169e+002 
3859375000  -2.965265e+001  -1.213638e+002 
3862500000  -2.928279e+001  -1.284163e+002 
3865625000  -2.951669e+001  -1.333401e+002 
3868750000  -2.954076e+001  -1.331550e+002 
3871875000  -2.880066e+001  -1.361586e+002 
3875000000  -2.897178e+001  -1.444697e+002 
3878125000  -3.000897e+001  -1.474131e+002 
3881250000  -3.005275e+001  -1.442020e+002 
3884375000  -2.953784e+001  -1.496549e+002 
3887500000  -2.972096e+001  -1.524843e+002 
3890625000  -3.014163e+001  -1.552993e+002 
3893750000  -3.064031e+001  -1.570685e+002 
3896875000  -3.076800e+001  -1.561630e+002 
3900000000  -3.105763e+001  -1.569538e+002 
3903125000  -3.062005e+001  -1.591930e+002 
3906250000  -3.027996e+001  -1.599847e+002 
3909375000  -2.958323e+001  -1.627488e+002 
3912500000  -2.970167e+001  -1.700894e+002 
3915625000  -3.095146e+001  -1.696406e+002 
3918750000  -3.088026e+001  -1.675011e+002 
3921875000  -3.053899e+001  -1.698598e+002 
3925000000  -2.979405e+001  -1.695092e+002 
3928125000  -2.907165e+001  -1.759362e+002 
3931250000  -2.951285e+001  -1.798364e+002 
3934375000  -2.976474e+001  -1.798418e+002 
3937500000  -2.988905e+001  1.797650e+002 
3940625000  -3.031392e+001  1.799934e+002 
3943750000  -2.948829e+001  -1.785514e+002 
3946875000  -2.814700e+001  1.757696e+002 
3950000000  -2.867626e+001  1.682652e+002 
3953125000  -2.973832e+001  1.687287e+002 
3956250000  -2.883939e+001  1.718743e+002 
3959375000  -2.743950e+001  1.687681e+002 
3962500000  -2.699159e+001  1.650500e+002 
3965625000  -2.659307e+001  1.560667e+002 
3968750000  -2.760024e+001  1.492294e+002 
3971875000  -2.790835e+001  1.477826e+002 
3975000000  -2.726024e+001  1.462325e+002 
3978125000  -2.706667e+001  1.447596e+002 
3981250000  -2.680479e+001  1.406920e+002 
3984375000  -2.704828e+001  1.341351e+002 
3987500000  -2.757083e+001  1.320002e+002 
3990625000  -2.751306e+001  1.306000e+002 
3993750000  -2.777190e+001  1.278924e+002 
3996875000  -2.768547e+001  1.252482e+002 
4000000000  -2.784733e+001  1.236100e+002 
4003125000  -2.834912e+001  1.255454e+002 
4006250000  -2.700103e+001  1.257377e+002 
4009375000  -2.579148e+001  1.132300e+002 
4012500000  -2.683121e+001  1.064330e+002 
4015625000  -2.808769e+001  1.069503e+002 
4018750000  -2.833231e+001  1.090146e+002 
4021875000  -2.759826e+001  1.072901e+002 
4025000000  -2.719730e+001  1.025583e+002 
4028125000  -2.723027e+001  9.829412e+001 
4031250000  -2.766614e+001  9.539438e+001 
4034375000  -2.792981e+001  9.553986e+001 
4037500000  -2.744365e+001  9.714393e+001 
4040625000  -2.735398e+001  9.388614e+001 
4043750000  -2.770405e+001  9.321794e+001 
4046875000  -2.725593e+001  9.289776e+001 
4050000000  -2.677950e+001  8.729063e+001 
4053125000  -2.727422e+001  8.524334e+001 
4056250000  -2.786145e+001  8.929364e+001 
4059375000  -2.662828e+001  9.139702e+001 
4062500000  -2.518580e+001  8.673152e+001 
4065625000  -2.510720e+001  8.211759e+001 
4068750000  -2.486927e+001  7.753174e+001 
4071875000  -2.418038e+001  6.951157e+001 
4075000000  -2.454520e+001  6.315690e+001 
4078125000  -2.514675e+001  6.219279e+001 
4081250000  -2.460673e+001  6.026255e+001 
4084375000  -2.418835e+001  5.322474e+001 
4087500000  -2.459843e+001  4.688558e+001 
4090625000  -2.523989e+001  4.621273e+001 
4093750000  -2.498366e+001  4.688469e+001 
4096875000  -2.455904e+001  4.075362e+001 
4100000000  -2.523454e+001  3.399847e+001 
4103125000  -2.613369e+001  3.473478e+001 
4106250000  -2.597337e+001  3.979222e+001 
4109375000  -2.514640e+001  3.909631e+001 
4112500000  -2.456369e+001  3.222552e+001 
4115625000  -2.481927e+001  2.800324e+001 
4118750000  -2.496618e+001  2.496589e+001 
4121875000  -2.456214e+001  2.075810e+001 
4125000000  -2.496805e+001  1.531749e+001 
4128125000  -2.595182e+001  1.532395e+001 
4131250000  -2.561053e+001  2.376436e+001 
4134375000  -2.330874e+001  1.884791e+001 
4137500000  -2.311571e+001  4.652919e-001 
4140625000  -2.527140e+001  -6.949594e+000 
4143750000  -2.659033e+001  -1.860844e+000 
4146875000  -2.618962e+001  5.354504e+000 
4150000000  -2.523758e+001  2.207990e+000 
4153125000  -2.509310e+001  -4.424284e+000 
4156250000  -2.599869e+001  -7.020340e+000 
4159375000  -2.626062e+001  -2.356914e+000 
4162500000  -2.510666e+001  1.887081e+000 
4165625000  -2.396202e+001  -2.494973e+000 
4168750000  -2.340228e+001  -9.688084e+000 
4171875000  -2.341720e+001  -1.883151e+001 
4175000000  -2.401669e+001  -2.449098e+001 
4178125000  -2.463205e+001  -2.454034e+001 
4181250000  -2.447059e+001  -2.490462e+001 
4184375000  -2.433347e+001  -2.826846e+001 
4187500000  -2.437042e+001  -3.078858e+001 
4190625000  -2.418460e+001  -3.623025e+001 
4193750000  -2.501752e+001  -4.001134e+001 
4196875000  -2.571455e+001  -4.029825e+001 
4200000000  -2.654542e+001  -3.801417e+001 
4203125000  -2.661421e+001  -2.455311e+001 
4206250000  -2.320338e+001  -2.266392e+001 
4209375000  -2.202570e+001  -4.350779e+001 
4212500000  -2.392472e+001  -5.250305e+001 
4215625000  -2.494455e+001  -4.660810e+001 
4218750000  -2.364217e+001  -3.957838e+001 
4221875000  -2.137128e+001  -4.872035e+001 
4225000000  -2.261640e+001  -6.111487e+001 
4228125000  -2.327730e+001  -5.637441e+001 
4231250000  -2.170932e+001  -5.975056e+001 
4234375000  -2.161128e+001  -6.800763e+001 
4237500000  -2.121828e+001  -7.143268e+001 
4240625000  -2.122654e+001  -7.980487e+001 
4243750000  -2.218599e+001  -8.656879e+001 
4246875000  -2.303998e+001  -8.674930e+001 
4250000000  -2.310046e+001  -8.393017e+001 
4253125000  -2.252841e+001  -8.601240e+001 
4256250000  -2.281812e+001  -9.002784e+001 
4259375000  -2.257636e+001  -9.202173e+001 
4262500000  -2.259337e+001  -9.542494e+001 
4265625000  -2.273981e+001  -9.530658e+001 
4268750000  -2.185643e+001  -9.929513e+001 
4271875000  -2.160466e+001  -1.050847e+002 
4275000000  -2.101011e+001  -1.113349e+002 
4278125000  -2.165001e+001  -1.225688e+002 
4281250000  -2.346184e+001  -1.248030e+002 
4284375000  -2.313017e+001  -1.238163e+002 
4287500000  -2.391836e+001  -1.269985e+002 
4290625000  -2.512404e+001  -1.177885e+002 
4293750000  -2.315102e+001  -1.123712e+002 
4296875000  -2.179878e+001  -1.238579e+002 
4300000000  -2.267377e+001  -1.330806e+002 
4303125000  -2.380244e+001  -1.317386e+002 
4306250000  -2.318452e+001  -1.257409e+002 
4309375000  -2.184479e+001  -1.279186e+002 
4312500000  -2.169314e+001  -1.362723e+002 
4315625000  -2.195738e+001  -1.421886e+002 
4318750000  -2.224690e+001  -1.457406e+002 
4321875000  -2.246418e+001  -1.451593e+002 
4325000000  -2.184320e+001  -1.445265e+002 
4328125000  -2.138146e+001  -1.507667e+002 
4331250000  -2.130033e+001  -1.587336e+002 
4334375000  -2.172195e+001  -1.637538e+002 
4337500000  -2.257416e+001  -1.662205e+002 
4340625000  -2.315462e+001  -1.627104e+002 
4343750000  -2.253078e+001  -1.621911e+002 
4346875000  -2.214028e+001  -1.680606e+002 
4350000000  -2.216943e+001  -1.727046e+002 
4353125000  -2.221909e+001  1.794548e+002 
4356250000  -2.397258e+001  1.787461e+002 
4359375000  -2.455712e+001  -1.676890e+002 
4362500000  -2.187865e+001  -1.656311e+002 
4365625000  -2.025415e+001  -1.772067e+002 
4368750000  -2.096201e+001  1.706635e+002 
4371875000  -2.219762e+001  1.710837e+002 
4375000000  -2.180764e+001  1.722466e+002 
4378125000  -2.116502e+001  1.664810e+002 
4381250000  -2.135061e+001  1.609035e+002 
4384375000  -2.119629e+001  1.567073e+002 
4387500000  -2.193706e+001  1.508729e+002 
4390625000  -2.293045e+001  1.517531e+002 
4393750000  -2.225505e+001  1.538684e+002 
4396875000  -2.161502e+001  1.519241e+002 
4400000000  -2.108420e+001  1.448576e+002 
4403125000  -2.168914e+001  1.371917e+002 
4406250000  -2.252431e+001  1.357838e+002 
4409375000  -2.245554e+001  1.335683e+002 
4412500000  -2.355602e+001  1.305618e+002 
4415625000  -2.390764e+001  1.354786e+002 
4418750000  -2.263660e+001  1.406240e+002 
