!Agilent Technologies,E8363B,MY43030201,A.06.04.32
!Agilent E8363B: A.06.04.32
!Date: Tuesday, November 11, 2014 20:48:48
!Correction: S21(Response(S21)) 
!S1P File: Measurement: S21:
# Hz S  dB   R 50
3000000000  -2.653574e+001  1.550588e+002 
3003125000  -2.790795e+001  1.509400e+002 
3006250000  -2.794755e+001  1.481358e+002 
3009375000  -2.832284e+001  1.526507e+002 
3012500000  -2.780381e+001  1.526504e+002 
3015625000  -2.684196e+001  1.454802e+002 
3018750000  -2.770888e+001  1.447602e+002 
3021875000  -2.647765e+001  1.462121e+002 
3025000000  -2.513523e+001  1.430033e+002 
3028125000  -2.417091e+001  1.382137e+002 
3031250000  -2.312130e+001  1.270342e+002 
3034375000  -2.277465e+001  1.140575e+002 
3037500000  -2.308581e+001  1.020556e+002 
3040625000  -2.440792e+001  9.674818e+001 
3043750000  -2.515849e+001  9.275479e+001 
3046875000  -2.523455e+001  8.630266e+001 
3050000000  -2.698089e+001  7.944650e+001 
3053125000  -2.710231e+001  8.551105e+001 
3056250000  -2.646190e+001  8.885223e+001 
3059375000  -2.674722e+001  8.834932e+001 
3062500000  -2.524510e+001  8.436381e+001 
3065625000  -2.502290e+001  7.909631e+001 
3068750000  -2.473790e+001  7.205170e+001 
3071875000  -2.469101e+001  6.899448e+001 
3075000000  -2.466315e+001  6.518497e+001 
3078125000  -2.435962e+001  6.086678e+001 
3081250000  -2.499548e+001  5.647391e+001 
3084375000  -2.426080e+001  5.290819e+001 
3087500000  -2.412214e+001  4.924098e+001 
3090625000  -2.383559e+001  3.969100e+001 
3093750000  -2.423161e+001  3.163341e+001 
3096875000  -2.556034e+001  2.548615e+001 
3100000000  -2.565948e+001  2.414616e+001 
3103125000  -2.605435e+001  2.549240e+001 
3106250000  -2.576790e+001  2.191982e+001 
3109375000  -2.602183e+001  1.855957e+001 
3112500000  -2.613100e+001  1.757083e+001 
3115625000  -2.595469e+001  1.339081e+001 
3118750000  -2.644802e+001  1.470410e+001 
3121875000  -2.577764e+001  6.582635e+000 
3125000000  -2.688380e+001  3.165587e+000 
3128125000  -2.816549e+001  1.086683e+001 
3131250000  -2.598502e+001  1.168577e+001 
3134375000  -2.464065e+001  -2.016265e+000 
3137500000  -2.522625e+001  -1.577894e+001 
3140625000  -2.690403e+001  -1.735710e+001 
3143750000  -2.789712e+001  -1.299495e+001 
3146875000  -2.749966e+001  -1.135525e+001 
3150000000  -2.647812e+001  -9.119931e+000 
3153125000  -2.650804e+001  -1.667844e+001 
3156250000  -2.745095e+001  -1.144329e+001 
3159375000  -2.593528e+001  -8.458781e+000 
3162500000  -2.390235e+001  -2.125933e+001 
3165625000  -2.481145e+001  -3.219119e+001 
3168750000  -2.519937e+001  -3.145529e+001 
3171875000  -2.425161e+001  -3.548202e+001 
3175000000  -2.485989e+001  -4.330936e+001 
3178125000  -2.468216e+001  -4.178150e+001 
3181250000  -2.347442e+001  -4.552148e+001 
3184375000  -2.264381e+001  -5.789764e+001 
3187500000  -2.376474e+001  -7.299202e+001 
3190625000  -2.659235e+001  -8.116985e+001 
3193750000  -2.720667e+001  -7.104612e+001 
3196875000  -2.675219e+001  -6.562640e+001 
3200000000  -2.591074e+001  -6.732209e+001 
3203125000  -2.502928e+001  -7.299557e+001 
3206250000  -2.531875e+001  -7.911970e+001 
3209375000  -2.482235e+001  -8.432226e+001 
3212500000  -2.493672e+001  -9.106632e+001 
3215625000  -2.513144e+001  -9.544214e+001 
3218750000  -2.585167e+001  -1.013902e+002 
3221875000  -2.684151e+001  -1.065852e+002 
3225000000  -2.646629e+001  -1.072836e+002 
3228125000  -2.674403e+001  -1.116080e+002 
3231250000  -2.749343e+001  -1.144405e+002 
3234375000  -2.732703e+001  -1.130869e+002 
3237500000  -2.739633e+001  -1.151443e+002 
3240625000  -2.703690e+001  -1.166089e+002 
3243750000  -2.669582e+001  -1.232102e+002 
3246875000  -2.714734e+001  -1.300163e+002 
3250000000  -2.765880e+001  -1.317753e+002 
3253125000  -2.782551e+001  -1.334951e+002 
3256250000  -2.766155e+001  -1.392428e+002 
3259375000  -2.800348e+001  -1.466926e+002 
3262500000  -2.924773e+001  -1.499730e+002 
3265625000  -2.988416e+001  -1.467505e+002 
3268750000  -2.991880e+001  -1.441445e+002 
3271875000  -2.961926e+001  -1.423095e+002 
3275000000  -2.854969e+001  -1.476901e+002 
3278125000  -2.904805e+001  -1.538788e+002 
3281250000  -2.931539e+001  -1.522445e+002 
3284375000  -2.885246e+001  -1.579223e+002 
3287500000  -2.904323e+001  -1.605576e+002 
3290625000  -2.947262e+001  -1.648024e+002 
3293750000  -2.916828e+001  -1.704131e+002 
3296875000  -3.014328e+001  -1.707125e+002 
3300000000  -3.008635e+001  -1.695504e+002 
3303125000  -2.895789e+001  -1.733442e+002 
3306250000  -2.869073e+001  -1.798933e+002 
3309375000  -2.843732e+001  1.748685e+002 
3312500000  -2.850231e+001  1.649579e+002 
3315625000  -2.951354e+001  1.569575e+002 
3318750000  -3.084649e+001  1.544668e+002 
3321875000  -3.202690e+001  1.543121e+002 
3325000000  -3.259171e+001  1.585777e+002 
3328125000  -3.250360e+001  1.603589e+002 
3331250000  -3.132067e+001  1.678417e+002 
3334375000  -2.877270e+001  1.586930e+002 
3337500000  -2.874565e+001  1.405008e+002 
3340625000  -3.005468e+001  1.290858e+002 
3343750000  -3.196397e+001  1.279063e+002 
3346875000  -3.250162e+001  1.298383e+002 
3350000000  -3.192474e+001  1.280943e+002 
3353125000  -3.196336e+001  1.239029e+002 
3356250000  -3.175864e+001  1.165077e+002 
3359375000  -3.253756e+001  1.081306e+002 
3362500000  -3.383617e+001  1.024138e+002 
3365625000  -3.437035e+001  1.004086e+002 
3368750000  -3.543349e+001  9.928348e+001 
3371875000  -3.570496e+001  9.593620e+001 
3375000000  -3.727463e+001  9.362353e+001 
3378125000  -3.842026e+001  9.390275e+001 
3381250000  -3.991726e+001  1.014863e+002 
3384375000  -3.915159e+001  1.227504e+002 
3387500000  -3.594663e+001  1.079340e+002 
3390625000  -3.794415e+001  8.812269e+001 
3393750000  -3.958614e+001  9.317497e+001 
3396875000  -3.869765e+001  9.648357e+001 
3400000000  -3.853391e+001  8.944332e+001 
3403125000  -3.981485e+001  8.517538e+001 
3406250000  -4.065294e+001  8.683585e+001 
3409375000  -4.120119e+001  8.362718e+001 
3412500000  -4.211869e+001  8.509944e+001 
3415625000  -4.282363e+001  8.941886e+001 
3418750000  -4.299825e+001  9.541126e+001 
3421875000  -4.369999e+001  1.003307e+002 
3425000000  -4.268022e+001  1.025118e+002 
3428125000  -4.190979e+001  1.027911e+002 
3431250000  -4.161787e+001  9.919460e+001 
3434375000  -4.148975e+001  9.642574e+001 
3437500000  -4.195927e+001  9.417714e+001 
3440625000  -4.239894e+001  9.927993e+001 
3443750000  -4.089304e+001  9.992891e+001 
3446875000  -4.015164e+001  9.534045e+001 
3450000000  -4.001387e+001  8.614268e+001 
3453125000  -4.016609e+001  7.879163e+001 
3456250000  -4.132256e+001  7.228312e+001 
3459375000  -4.226791e+001  7.347141e+001 
3462500000  -4.240207e+001  7.602840e+001 
3465625000  -4.251618e+001  7.196387e+001 
3468750000  -4.313011e+001  6.643634e+001 
3471875000  -4.308154e+001  6.670541e+001 
3475000000  -4.301563e+001  6.644890e+001 
3478125000  -4.381677e+001  5.883136e+001 
3481250000  -4.469697e+001  5.777891e+001 
3484375000  -4.613960e+001  6.498655e+001 
3487500000  -4.603582e+001  6.640740e+001 
3490625000  -4.536817e+001  6.233852e+001 
3493750000  -4.619877e+001  6.150003e+001 
3496875000  -4.697021e+001  6.275693e+001 
3500000000  -4.847077e+001  7.168319e+001 
3503125000  -4.824478e+001  7.649195e+001 
3506250000  -4.702549e+001  7.273467e+001 
3509375000  -4.725738e+001  7.348193e+001 
3512500000  -4.777603e+001  7.171810e+001 
3515625000  -4.811617e+001  7.662595e+001 
3518750000  -4.827259e+001  8.055872e+001 
3521875000  -4.784176e+001  8.621509e+001 
3525000000  -4.828672e+001  8.629382e+001 
3528125000  -4.785806e+001  9.599943e+001 
3531250000  -4.628122e+001  1.006360e+002 
3534375000  -4.497682e+001  8.970932e+001 
3537500000  -4.511091e+001  8.614311e+001 
3540625000  -4.568652e+001  8.636939e+001 
3543750000  -4.619217e+001  9.130965e+001 
3546875000  -4.558521e+001  1.019858e+002 
3550000000  -4.285246e+001  1.045200e+002 
3553125000  -4.158165e+001  8.762484e+001 
3556250000  -4.221373e+001  8.144310e+001 
3559375000  -4.239001e+001  8.573283e+001 
3562500000  -4.112621e+001  7.657304e+001 
3565625000  -4.163507e+001  6.865218e+001 
3568750000  -4.201971e+001  7.402485e+001 
3571875000  -4.168751e+001  7.411715e+001 
3575000000  -4.127042e+001  6.851922e+001 
3578125000  -4.155828e+001  6.461985e+001 
3581250000  -4.153163e+001  6.662368e+001 
3584375000  -4.090368e+001  6.352538e+001 
3587500000  -4.023812e+001  5.747789e+001 
3590625000  -4.048822e+001  4.967783e+001 
3593750000  -4.175947e+001  4.807203e+001 
3596875000  -4.151354e+001  5.607367e+001 
3600000000  -3.993921e+001  5.330137e+001 
3603125000  -4.007552e+001  4.111473e+001 
3606250000  -4.088180e+001  3.845356e+001 
3609375000  -4.090928e+001  3.781123e+001 
3612500000  -4.144359e+001  3.469376e+001 
3615625000  -4.146485e+001  3.387616e+001 
3618750000  -4.233662e+001  3.635513e+001 
3621875000  -4.166922e+001  3.695646e+001 
3625000000  -4.184408e+001  3.428742e+001 
3628125000  -4.210257e+001  3.568175e+001 
3631250000  -4.153079e+001  2.899468e+001 
3634375000  -4.265872e+001  3.162048e+001 
3637500000  -4.203427e+001  3.867117e+001 
3640625000  -4.098038e+001  3.668557e+001 
3643750000  -4.071871e+001  3.173511e+001 
3646875000  -4.135067e+001  2.524146e+001 
3650000000  -4.152792e+001  2.569135e+001 
3653125000  -4.162856e+001  2.482339e+001 
3656250000  -4.194772e+001  2.433847e+001 
3659375000  -4.207478e+001  2.832677e+001 
3662500000  -4.133101e+001  2.741122e+001 
3665625000  -4.136025e+001  2.638753e+001 
3668750000  -4.025993e+001  2.914691e+001 
3671875000  -3.917705e+001  2.402878e+001 
3675000000  -3.981541e+001  1.813138e+001 
3678125000  -4.070253e+001  1.921395e+001 
3681250000  -4.005872e+001  2.043904e+001 
3684375000  -3.962328e+001  1.808505e+001 
3687500000  -3.992703e+001  1.567916e+001 
3690625000  -3.978682e+001  1.524426e+001 
3693750000  -4.061446e+001  1.830008e+001 
3696875000  -4.054254e+001  2.058193e+001 
3700000000  -3.937066e+001  1.831232e+001 
3703125000  -3.897705e+001  1.560902e+001 
3706250000  -3.960297e+001  1.869051e+001 
3709375000  -3.886902e+001  2.158388e+001 
3712500000  -3.769678e+001  2.066181e+001 
3715625000  -3.669064e+001  1.468344e+001 
3718750000  -3.593450e+001  1.202065e+001 
3721875000  -3.539331e+001  7.201858e+000 
3725000000  -3.529390e+001  2.648227e+000 
3728125000  -3.560157e+001  1.508817e+000 
3731250000  -3.484849e+001  1.206957e+000 
3734375000  -3.378431e+001  -5.714776e+000 
3737500000  -3.435654e+001  -1.313221e+001 
3740625000  -3.484758e+001  -1.615118e+001 
3743750000  -3.474667e+001  -1.767670e+001 
3746875000  -3.468749e+001  -2.131823e+001 
3750000000  -3.504568e+001  -2.162654e+001 
3753125000  -3.463036e+001  -2.248054e+001 
3756250000  -3.458034e+001  -2.295117e+001 
3759375000  -3.440191e+001  -2.370045e+001 
3762500000  -3.375067e+001  -2.812848e+001 
3765625000  -3.422207e+001  -3.090585e+001 
3768750000  -3.437597e+001  -2.826327e+001 
3771875000  -3.266159e+001  -3.124003e+001 
3775000000  -3.226488e+001  -3.837866e+001 
3778125000  -3.258113e+001  -3.992946e+001 
3781250000  -3.238145e+001  -4.351256e+001 
3784375000  -3.236471e+001  -4.528334e+001 
3787500000  -3.164119e+001  -4.878883e+001 
3790625000  -3.228561e+001  -5.464027e+001 
3793750000  -3.241038e+001  -5.458659e+001 
3796875000  -3.158714e+001  -5.646611e+001 
3800000000  -3.005907e+001  -6.007061e+001 
3803125000  -3.078112e+001  -6.642884e+001 
3806250000  -3.141865e+001  -6.914757e+001 
3809375000  -3.118763e+001  -7.110030e+001 
3812500000  -3.048056e+001  -7.537859e+001 
3815625000  -3.106242e+001  -8.319148e+001 
3818750000  -3.201616e+001  -8.496986e+001 
3821875000  -3.209968e+001  -7.588695e+001 
3825000000  -3.026869e+001  -7.146507e+001 
3828125000  -2.887703e+001  -8.532733e+001 
3831250000  -2.940915e+001  -9.949933e+001 
3834375000  -3.069274e+001  -1.005515e+002 
3837500000  -3.152540e+001  -9.512528e+001 
3840625000  -3.060457e+001  -9.634735e+001 
3843750000  -2.941511e+001  -1.061525e+002 
3846875000  -3.004371e+001  -1.130502e+002 
3850000000  -3.141410e+001  -1.072373e+002 
3853125000  -3.048200e+001  -1.049684e+002 
3856250000  -3.050292e+001  -1.102470e+002 
3859375000  -2.978489e+001  -1.142575e+002 
3862500000  -2.936925e+001  -1.212519e+002 
3865625000  -2.962486e+001  -1.262765e+002 
3868750000  -2.964094e+001  -1.258499e+002 
3871875000  -2.893337e+001  -1.291411e+002 
3875000000  -2.900680e+001  -1.380122e+002 
3878125000  -2.997608e+001  -1.401363e+002 
3881250000  -3.016978e+001  -1.374804e+002 
3884375000  -2.958887e+001  -1.422437e+002 
3887500000  -2.972383e+001  -1.461237e+002 
3890625000  -3.028765e+001  -1.485620e+002 
3893750000  -3.067660e+001  -1.497917e+002 
3896875000  -3.081726e+001  -1.492727e+002 
3900000000  -3.101608e+001  -1.502207e+002 
3903125000  -3.063262e+001  -1.525906e+002 
3906250000  -3.041050e+001  -1.537596e+002 
3909375000  -2.967473e+001  -1.554843e+002 
3912500000  -2.971497e+001  -1.628569e+002 
3915625000  -3.102219e+001  -1.630420e+002 
3918750000  -3.096774e+001  -1.607886e+002 
3921875000  -3.058883e+001  -1.623687e+002 
3925000000  -2.978264e+001  -1.630266e+002 
3928125000  -2.918316e+001  -1.687607e+002 
3931250000  -2.954445e+001  -1.728420e+002 
3934375000  -2.984092e+001  -1.728128e+002 
3937500000  -2.985852e+001  -1.732589e+002 
3940625000  -3.035573e+001  -1.727593e+002 
3943750000  -2.947799e+001  -1.716243e+002 
3946875000  -2.823546e+001  -1.772639e+002 
3950000000  -2.868340e+001  1.755126e+002 
3953125000  -2.971132e+001  1.761795e+002 
3956250000  -2.879086e+001  1.792912e+002 
3959375000  -2.747502e+001  1.757713e+002 
3962500000  -2.702595e+001  1.722827e+002 
3965625000  -2.666924e+001  1.629379e+002 
3968750000  -2.751189e+001  1.559926e+002 
3971875000  -2.793637e+001  1.550416e+002 
3975000000  -2.730107e+001  1.528875e+002 
3978125000  -2.708240e+001  1.516397e+002 
3981250000  -2.680519e+001  1.472275e+002 
3984375000  -2.699487e+001  1.412258e+002 
3987500000  -2.756024e+001  1.388130e+002 
3990625000  -2.755603e+001  1.381541e+002 
3993750000  -2.772537e+001  1.348073e+002 
3996875000  -2.770098e+001  1.322587e+002 
4000000000  -2.778291e+001  1.309328e+002 
4003125000  -2.836778e+001  1.326655e+002 
4006250000  -2.710069e+001  1.329945e+002 
4009375000  -2.579300e+001  1.204923e+002 
4012500000  -2.671284e+001  1.132619e+002 
4015625000  -2.806164e+001  1.137424e+002 
4018750000  -2.831214e+001  1.163460e+002 
4021875000  -2.760406e+001  1.145144e+002 
4025000000  -2.722248e+001  1.098432e+002 
4028125000  -2.718419e+001  1.057831e+002 
4031250000  -2.764664e+001  1.024979e+002 
4034375000  -2.794268e+001  1.023250e+002 
4037500000  -2.740788e+001  1.041629e+002 
4040625000  -2.736800e+001  1.005854e+002 
4043750000  -2.766629e+001  1.001166e+002 
4046875000  -2.722287e+001  1.000563e+002 
4050000000  -2.673107e+001  9.429908e+001 
4053125000  -2.718978e+001  9.239958e+001 
4056250000  -2.787982e+001  9.603777e+001 
4059375000  -2.666449e+001  9.797594e+001 
4062500000  -2.524486e+001  9.393159e+001 
4065625000  -2.513105e+001  8.933136e+001 
4068750000  -2.486167e+001  8.472198e+001 
4071875000  -2.419635e+001  7.687395e+001 
4075000000  -2.453097e+001  7.073773e+001 
4078125000  -2.510197e+001  6.946441e+001 
4081250000  -2.458043e+001  6.724698e+001 
4084375000  -2.421558e+001  6.087688e+001 
4087500000  -2.455522e+001  5.468245e+001 
4090625000  -2.511606e+001  5.315498e+001 
4093750000  -2.499514e+001  5.419986e+001 
4096875000  -2.452020e+001  4.819821e+001 
4100000000  -2.521694e+001  4.097718e+001 
4103125000  -2.607030e+001  4.166903e+001 
4106250000  -2.594755e+001  4.652967e+001 
4109375000  -2.509566e+001  4.614573e+001 
4112500000  -2.452020e+001  3.971167e+001 
4115625000  -2.480801e+001  3.523355e+001 
4118750000  -2.492297e+001  3.281218e+001 
4121875000  -2.453750e+001  2.786096e+001 
4125000000  -2.492277e+001  2.312224e+001 
4128125000  -2.587623e+001  2.241248e+001 
4131250000  -2.562701e+001  3.075381e+001 
4134375000  -2.328805e+001  2.649506e+001 
4137500000  -2.306759e+001  7.945394e+000 
4140625000  -2.512359e+001  5.110041e-001 
4143750000  -2.653394e+001  5.363131e+000 
4146875000  -2.612233e+001  1.243695e+001 
4150000000  -2.519543e+001  9.473609e+000 
4153125000  -2.505939e+001  3.251858e+000 
4156250000  -2.591116e+001  2.202093e-001 
4159375000  -2.621420e+001  4.523262e+000 
4162500000  -2.506129e+001  8.843217e+000 
4165625000  -2.398320e+001  4.854057e+000 
4168750000  -2.334670e+001  -2.322666e+000 
4171875000  -2.333619e+001  -1.111930e+001 
4175000000  -2.390159e+001  -1.703981e+001 
4178125000  -2.451365e+001  -1.733467e+001 
4181250000  -2.440098e+001  -1.762119e+001 
4184375000  -2.426934e+001  -2.048009e+001 
4187500000  -2.431993e+001  -2.340238e+001 
4190625000  -2.410558e+001  -2.900864e+001 
4193750000  -2.491186e+001  -3.286672e+001 
4196875000  -2.556915e+001  -3.274578e+001 
4200000000  -2.648261e+001  -3.088897e+001 
4203125000  -2.649290e+001  -1.781481e+001 
4206250000  -2.322966e+001  -1.548371e+001 
4209375000  -2.200128e+001  -3.603048e+001 
4212500000  -2.386675e+001  -4.496384e+001 
4215625000  -2.488390e+001  -3.913370e+001 
4218750000  -2.362107e+001  -3.171388e+001 
4221875000  -2.124708e+001  -4.106232e+001 
4225000000  -2.247959e+001  -5.345828e+001 
4228125000  -2.318143e+001  -4.864184e+001 
4231250000  -2.166760e+001  -5.242740e+001 
4234375000  -2.157791e+001  -6.064180e+001 
4237500000  -2.112461e+001  -6.402833e+001 
4240625000  -2.112028e+001  -7.249362e+001 
4243750000  -2.205286e+001  -7.876741e+001 
4246875000  -2.298334e+001  -7.938868e+001 
4250000000  -2.301359e+001  -7.653597e+001 
4253125000  -2.243529e+001  -7.843644e+001 
4256250000  -2.271687e+001  -8.231740e+001 
4259375000  -2.245331e+001  -8.442287e+001 
4262500000  -2.243982e+001  -8.820979e+001 
4265625000  -2.262735e+001  -8.791442e+001 
4268750000  -2.181713e+001  -9.183940e+001 
4271875000  -2.146952e+001  -9.747723e+001 
4275000000  -2.089595e+001  -1.037251e+002 
4278125000  -2.147212e+001  -1.148532e+002 
4281250000  -2.324923e+001  -1.172113e+002 
4284375000  -2.301636e+001  -1.165866e+002 
4287500000  -2.378068e+001  -1.201104e+002 
4290625000  -2.506621e+001  -1.107439e+002 
4293750000  -2.305592e+001  -1.047740e+002 
4296875000  -2.174100e+001  -1.160966e+002 
4300000000  -2.253205e+001  -1.255230e+002 
4303125000  -2.364861e+001  -1.248076e+002 
4306250000  -2.309694e+001  -1.188282e+002 
4309375000  -2.169564e+001  -1.202938e+002 
4312500000  -2.159130e+001  -1.286847e+002 
4315625000  -2.179701e+001  -1.349816e+002 
4318750000  -2.211353e+001  -1.381737e+002 
4321875000  -2.234299e+001  -1.378089e+002 
4325000000  -2.173352e+001  -1.371794e+002 
4328125000  -2.124314e+001  -1.434396e+002 
4331250000  -2.115643e+001  -1.513065e+002 
4334375000  -2.160814e+001  -1.563867e+002 
4337500000  -2.237612e+001  -1.587456e+002 
4340625000  -2.295011e+001  -1.556199e+002 
4343750000  -2.235560e+001  -1.549150e+002 
4346875000  -2.203683e+001  -1.602321e+002 
4350000000  -2.199281e+001  -1.649363e+002 
4353125000  -2.206131e+001  -1.724447e+002 
4356250000  -2.372425e+001  -1.738224e+002 
4359375000  -2.443430e+001  -1.609359e+002 
4362500000  -2.177910e+001  -1.585441e+002 
4365625000  -2.013877e+001  -1.699431e+002 
4368750000  -2.082876e+001  1.780267e+002 
4371875000  -2.202225e+001  1.784767e+002 
4375000000  -2.171549e+001  1.798532e+002 
4378125000  -2.103682e+001  1.741258e+002 
4381250000  -2.123606e+001  1.684357e+002 
4384375000  -2.102614e+001  1.638046e+002 
4387500000  -2.173385e+001  1.582478e+002 
4390625000  -2.275467e+001  1.589677e+002 
4393750000  -2.209448e+001  1.612289e+002 
4396875000  -2.145163e+001  1.591926e+002 
4400000000  -2.091060e+001  1.523529e+002 
4403125000  -2.149870e+001  1.446681e+002 
4406250000  -2.233645e+001  1.432461e+002 
4409375000  -2.229900e+001  1.408805e+002 
4412500000  -2.328402e+001  1.381987e+002 
4415625000  -2.367359e+001  1.428757e+002 
4418750000  -2.246521e+001  1.476560e+002 
4421875000  -2.109350e+001  1.439219e+002 
