!Agilent Technologies,E8363B,MY43030201,A.06.04.32
!Agilent E8363B: A.06.04.32
!Date: Tuesday, November 11, 2014 20:53:42
!Correction: S21(Response(S21)) 
!S1P File: Measurement: S21:
# Hz S  dB   R 50
3000000000  -2.663180e+001  1.499516e+002 
3003125000  -2.799201e+001  1.454846e+002 
3006250000  -2.806684e+001  1.428568e+002 
3009375000  -2.838624e+001  1.478245e+002 
3012500000  -2.784567e+001  1.474131e+002 
3015625000  -2.692517e+001  1.403950e+002 
3018750000  -2.778931e+001  1.394539e+002 
3021875000  -2.653629e+001  1.410614e+002 
3025000000  -2.521679e+001  1.375016e+002 
3028125000  -2.422200e+001  1.325559e+002 
3031250000  -2.321976e+001  1.214588e+002 
3034375000  -2.283003e+001  1.085984e+002 
3037500000  -2.316854e+001  9.666676e+001 
3040625000  -2.450329e+001  9.153634e+001 
3043750000  -2.521284e+001  8.724621e+001 
3046875000  -2.535740e+001  8.083851e+001 
3050000000  -2.708023e+001  7.395904e+001 
3053125000  -2.719085e+001  8.035678e+001 
3056250000  -2.655527e+001  8.321510e+001 
3059375000  -2.675752e+001  8.303003e+001 
3062500000  -2.527498e+001  7.898409e+001 
3065625000  -2.508670e+001  7.352484e+001 
3068750000  -2.478782e+001  6.653271e+001 
3071875000  -2.473180e+001  6.338221e+001 
3075000000  -2.469633e+001  5.952922e+001 
3078125000  -2.446992e+001  5.519544e+001 
3081250000  -2.508772e+001  5.090602e+001 
3084375000  -2.435401e+001  4.724808e+001 
3087500000  -2.426359e+001  4.368456e+001 
3090625000  -2.393978e+001  3.386334e+001 
3093750000  -2.440543e+001  2.615800e+001 
3096875000  -2.568400e+001  2.012624e+001 
3100000000  -2.581272e+001  1.881364e+001 
3103125000  -2.618952e+001  2.023402e+001 
3106250000  -2.588618e+001  1.658986e+001 
3109375000  -2.611475e+001  1.298162e+001 
3112500000  -2.626383e+001  1.197360e+001 
3115625000  -2.605974e+001  7.825471e+000 
3118750000  -2.656819e+001  9.454273e+000 
3121875000  -2.587881e+001  8.869531e-001 
3125000000  -2.709933e+001  -2.331545e+000 
3128125000  -2.834817e+001  6.117714e+000 
3131250000  -2.609578e+001  6.522055e+000 
3134375000  -2.474007e+001  -6.818910e+000 
3137500000  -2.536268e+001  -2.066452e+001 
3140625000  -2.694160e+001  -2.235295e+001 
3143750000  -2.800739e+001  -1.861481e+001 
3146875000  -2.759578e+001  -1.648427e+001 
3150000000  -2.660493e+001  -1.419798e+001 
3153125000  -2.658264e+001  -2.182530e+001 
3156250000  -2.750546e+001  -1.651401e+001 
3159375000  -2.593672e+001  -1.364678e+001 
3162500000  -2.392223e+001  -2.650061e+001 
3165625000  -2.488432e+001  -3.744529e+001 
3168750000  -2.524873e+001  -3.669202e+001 
3171875000  -2.431294e+001  -4.090339e+001 
3175000000  -2.493799e+001  -4.871338e+001 
3178125000  -2.470122e+001  -4.719780e+001 
3181250000  -2.355238e+001  -5.108765e+001 
3184375000  -2.276494e+001  -6.318955e+001 
3187500000  -2.389178e+001  -7.850333e+001 
3190625000  -2.665430e+001  -8.610607e+001 
3193750000  -2.723287e+001  -7.649573e+001 
3196875000  -2.682871e+001  -7.095101e+001 
3200000000  -2.594735e+001  -7.313378e+001 
3203125000  -2.511984e+001  -7.860127e+001 
3206250000  -2.540802e+001  -8.489303e+001 
3209375000  -2.494243e+001  -9.015591e+001 
3212500000  -2.510413e+001  -9.637969e+001 
3215625000  -2.517510e+001  -1.005350e+002 
3218750000  -2.592311e+001  -1.069082e+002 
3221875000  -2.689520e+001  -1.120967e+002 
3225000000  -2.652801e+001  -1.125695e+002 
3228125000  -2.682899e+001  -1.173372e+002 
3231250000  -2.758871e+001  -1.198007e+002 
3234375000  -2.742243e+001  -1.187777e+002 
3237500000  -2.746663e+001  -1.204894e+002 
3240625000  -2.718005e+001  -1.221515e+002 
3243750000  -2.681246e+001  -1.289935e+002 
3246875000  -2.728360e+001  -1.354380e+002 
3250000000  -2.772234e+001  -1.370802e+002 
3253125000  -2.783883e+001  -1.387894e+002 
3256250000  -2.774408e+001  -1.446039e+002 
3259375000  -2.807133e+001  -1.522982e+002 
3262500000  -2.931817e+001  -1.553863e+002 
3265625000  -3.001618e+001  -1.515215e+002 
3268750000  -2.994296e+001  -1.487492e+002 
3271875000  -2.971872e+001  -1.480868e+002 
3275000000  -2.860568e+001  -1.532154e+002 
3278125000  -2.913819e+001  -1.590330e+002 
3281250000  -2.939714e+001  -1.575827e+002 
3284375000  -2.895429e+001  -1.635587e+002 
3287500000  -2.911506e+001  -1.661282e+002 
3290625000  -2.950249e+001  -1.704799e+002 
3293750000  -2.922563e+001  -1.761051e+002 
3296875000  -3.023915e+001  -1.764125e+002 
3300000000  -3.013513e+001  -1.750082e+002 
3303125000  -2.893727e+001  -1.792893e+002 
3306250000  -2.877260e+001  1.743326e+002 
3309375000  -2.850342e+001  1.693440e+002 
3312500000  -2.856498e+001  1.589427e+002 
3315625000  -2.955755e+001  1.514959e+002 
3318750000  -3.093502e+001  1.481268e+002 
3321875000  -3.208007e+001  1.487717e+002 
3325000000  -3.264719e+001  1.538979e+002 
3328125000  -3.251313e+001  1.543475e+002 
3331250000  -3.126320e+001  1.627117e+002 
3334375000  -2.864331e+001  1.527102e+002 
3337500000  -2.878075e+001  1.345773e+002 
3340625000  -3.021204e+001  1.236096e+002 
3343750000  -3.208504e+001  1.225426e+002 
3346875000  -3.265807e+001  1.237233e+002 
3350000000  -3.191829e+001  1.224363e+002 
3353125000  -3.211853e+001  1.179675e+002 
3356250000  -3.183743e+001  1.097619e+002 
3359375000  -3.269010e+001  1.017478e+002 
3362500000  -3.396817e+001  9.665925e+001 
3365625000  -3.468983e+001  9.479308e+001 
3368750000  -3.556938e+001  9.289963e+001 
3371875000  -3.593681e+001  9.026772e+001 
3375000000  -3.759943e+001  8.757857e+001 
3378125000  -3.879244e+001  8.761182e+001 
3381250000  -4.010670e+001  9.561332e+001 
3384375000  -3.948361e+001  1.163730e+002 
3387500000  -3.618584e+001  1.018342e+002 
3390625000  -3.805031e+001  8.413493e+001 
3393750000  -3.957466e+001  8.685416e+001 
3396875000  -3.887226e+001  9.179961e+001 
3400000000  -3.874177e+001  8.404187e+001 
3403125000  -3.983948e+001  7.943729e+001 
3406250000  -4.081637e+001  8.199685e+001 
3409375000  -4.126493e+001  7.811266e+001 
3412500000  -4.228557e+001  7.998024e+001 
3415625000  -4.309060e+001  8.394948e+001 
3418750000  -4.368376e+001  8.805628e+001 
3421875000  -4.376567e+001  9.441075e+001 
3425000000  -4.296909e+001  9.980467e+001 
3428125000  -4.180048e+001  9.743156e+001 
3431250000  -4.172992e+001  9.323323e+001 
3434375000  -4.142023e+001  9.004969e+001 
3437500000  -4.205793e+001  8.888183e+001 
3440625000  -4.228783e+001  9.243876e+001 
3443750000  -4.115025e+001  9.466120e+001 
3446875000  -4.037782e+001  8.941113e+001 
3450000000  -4.028539e+001  7.990742e+001 
3453125000  -4.038191e+001  7.067036e+001 
3456250000  -4.173173e+001  6.659857e+001 
3459375000  -4.251512e+001  6.875745e+001 
3462500000  -4.288999e+001  6.940617e+001 
3465625000  -4.288773e+001  6.745143e+001 
3468750000  -4.327687e+001  6.472583e+001 
3471875000  -4.330859e+001  6.300947e+001 
3475000000  -4.322031e+001  5.885790e+001 
3478125000  -4.388763e+001  5.403144e+001 
3481250000  -4.520637e+001  5.248035e+001 
3484375000  -4.618060e+001  6.003878e+001 
3487500000  -4.626252e+001  6.152421e+001 
3490625000  -4.603638e+001  5.993302e+001 
3493750000  -4.647855e+001  5.782388e+001 
3496875000  -4.739994e+001  6.055400e+001 
3500000000  -4.938531e+001  6.535546e+001 
3503125000  -4.939395e+001  7.014944e+001 
3506250000  -4.786259e+001  6.971331e+001 
3509375000  -4.783477e+001  7.054184e+001 
3512500000  -4.811617e+001  7.078883e+001 
3515625000  -4.854756e+001  7.151527e+001 
3518750000  -4.918741e+001  8.041846e+001 
3521875000  -4.779292e+001  8.604846e+001 
3525000000  -4.824332e+001  8.495602e+001 
3528125000  -4.758113e+001  9.464725e+001 
3531250000  -4.596517e+001  9.854607e+001 
3534375000  -4.512193e+001  8.994830e+001 
3537500000  -4.507544e+001  8.560577e+001 
3540625000  -4.591548e+001  8.380975e+001 
3543750000  -4.580776e+001  8.971689e+001 
3546875000  -4.548280e+001  1.018887e+002 
3550000000  -4.317948e+001  1.008229e+002 
3553125000  -4.133778e+001  8.761967e+001 
3556250000  -4.229387e+001  8.042147e+001 
3559375000  -4.196585e+001  8.166988e+001 
3562500000  -4.089581e+001  7.459613e+001 
3565625000  -4.175110e+001  6.740520e+001 
3568750000  -4.168755e+001  7.105492e+001 
3571875000  -4.166832e+001  7.114330e+001 
3575000000  -4.093937e+001  6.698847e+001 
3578125000  -4.127444e+001  6.338966e+001 
3581250000  -4.134339e+001  6.266892e+001 
3584375000  -4.048713e+001  6.136303e+001 
3587500000  -3.995759e+001  5.448108e+001 
3590625000  -4.018878e+001  4.510033e+001 
3593750000  -4.127375e+001  4.424454e+001 
3596875000  -4.140246e+001  5.247364e+001 
3600000000  -3.943306e+001  4.883438e+001 
3603125000  -3.986419e+001  3.665443e+001 
3606250000  -4.051363e+001  3.346711e+001 
3609375000  -4.075638e+001  3.250465e+001 
3612500000  -4.150963e+001  3.140916e+001 
3615625000  -4.136180e+001  2.881592e+001 
3618750000  -4.204713e+001  3.009426e+001 
3621875000  -4.156218e+001  3.129090e+001 
3625000000  -4.175911e+001  3.036876e+001 
3628125000  -4.184137e+001  3.108253e+001 
3631250000  -4.117866e+001  2.603277e+001 
3634375000  -4.256953e+001  2.769261e+001 
3637500000  -4.212833e+001  3.393054e+001 
3640625000  -4.112746e+001  3.284481e+001 
3643750000  -4.070419e+001  2.971549e+001 
3646875000  -4.097836e+001  2.235993e+001 
3650000000  -4.148439e+001  2.178149e+001 
3653125000  -4.135036e+001  2.304701e+001 
3656250000  -4.142904e+001  2.220483e+001 
3659375000  -4.183850e+001  2.531277e+001 
3662500000  -4.141320e+001  2.457547e+001 
3665625000  -4.128824e+001  2.325307e+001 
3668750000  -4.017088e+001  2.601807e+001 
3671875000  -3.897739e+001  2.073647e+001 
3675000000  -3.986430e+001  1.513146e+001 
3678125000  -3.991826e+001  1.628712e+001 
3681250000  -3.958148e+001  1.602889e+001 
3684375000  -3.927449e+001  1.470143e+001 
3687500000  -3.949955e+001  1.187928e+001 
3690625000  -3.937129e+001  9.595350e+000 
3693750000  -4.011109e+001  1.358903e+001 
3696875000  -3.988704e+001  1.548938e+001 
3700000000  -3.861203e+001  1.256468e+001 
3703125000  -3.867840e+001  1.031717e+001 
3706250000  -3.901813e+001  1.239974e+001 
3709375000  -3.832611e+001  1.485737e+001 
3712500000  -3.725254e+001  1.468914e+001 
3715625000  -3.619810e+001  8.535626e+000 
3718750000  -3.560702e+001  6.292176e+000 
3721875000  -3.508640e+001  7.319212e-001 
3725000000  -3.513711e+001  -3.835990e+000 
3728125000  -3.519097e+001  -4.502859e+000 
3731250000  -3.479699e+001  -5.353532e+000 
3734375000  -3.366681e+001  -1.120252e+001 
3737500000  -3.426706e+001  -1.831351e+001 
3740625000  -3.475900e+001  -2.138444e+001 
3743750000  -3.448317e+001  -2.387847e+001 
3746875000  -3.457282e+001  -2.662981e+001 
3750000000  -3.489040e+001  -2.721730e+001 
3753125000  -3.448449e+001  -2.770391e+001 
3756250000  -3.447639e+001  -2.865748e+001 
3759375000  -3.416412e+001  -2.893979e+001 
3762500000  -3.371896e+001  -3.312170e+001 
3765625000  -3.406938e+001  -3.466789e+001 
3768750000  -3.409829e+001  -3.392876e+001 
3771875000  -3.249337e+001  -3.522580e+001 
3775000000  -3.212665e+001  -4.284103e+001 
3778125000  -3.253259e+001  -4.515475e+001 
3781250000  -3.229925e+001  -4.792879e+001 
3784375000  -3.227206e+001  -5.033617e+001 
3787500000  -3.147458e+001  -5.307314e+001 
3790625000  -3.212833e+001  -5.812871e+001 
3793750000  -3.229246e+001  -5.968003e+001 
3796875000  -3.135553e+001  -6.106615e+001 
3800000000  -2.979009e+001  -6.447407e+001 
3803125000  -3.063905e+001  -7.130576e+001 
3806250000  -3.122566e+001  -7.370045e+001 
3809375000  -3.092759e+001  -7.430808e+001 
3812500000  -3.035123e+001  -7.975221e+001 
3815625000  -3.091605e+001  -8.739253e+001 
3818750000  -3.196749e+001  -8.952502e+001 
3821875000  -3.198008e+001  -8.071487e+001 
3825000000  -3.009927e+001  -7.610421e+001 
3828125000  -2.859322e+001  -8.960867e+001 
3831250000  -2.912714e+001  -1.039038e+002 
3834375000  -3.051770e+001  -1.052081e+002 
3837500000  -3.132660e+001  -9.973617e+001 
3840625000  -3.028153e+001  -1.012850e+002 
3843750000  -2.912103e+001  -1.108767e+002 
3846875000  -2.986830e+001  -1.177579e+002 
3850000000  -3.110113e+001  -1.114670e+002 
3853125000  -3.038510e+001  -1.107059e+002 
3856250000  -3.034959e+001  -1.149248e+002 
3859375000  -2.965684e+001  -1.194996e+002 
3862500000  -2.911264e+001  -1.263655e+002 
3865625000  -2.947007e+001  -1.306536e+002 
3868750000  -2.947066e+001  -1.304512e+002 
3871875000  -2.874063e+001  -1.338890e+002 
3875000000  -2.883362e+001  -1.427360e+002 
3878125000  -2.990012e+001  -1.450423e+002 
3881250000  -2.994290e+001  -1.416876e+002 
3884375000  -2.935870e+001  -1.463123e+002 
3887500000  -2.953013e+001  -1.503277e+002 
3890625000  -3.001258e+001  -1.524231e+002 
3893750000  -3.048645e+001  -1.539860e+002 
3896875000  -3.059229e+001  -1.534507e+002 
3900000000  -3.078420e+001  -1.544348e+002 
3903125000  -3.042156e+001  -1.560151e+002 
3906250000  -3.013427e+001  -1.572831e+002 
3909375000  -2.936825e+001  -1.600077e+002 
3912500000  -2.942902e+001  -1.672980e+002 
3915625000  -3.068326e+001  -1.660373e+002 
3918750000  -3.069124e+001  -1.643358e+002 
3921875000  -3.028323e+001  -1.659353e+002 
3925000000  -2.941133e+001  -1.665659e+002 
3928125000  -2.876522e+001  -1.727624e+002 
3931250000  -2.920824e+001  -1.768939e+002 
3934375000  -2.937415e+001  -1.765006e+002 
3937500000  -2.950733e+001  -1.772662e+002 
3940625000  -3.003134e+001  -1.774675e+002 
3943750000  -2.903020e+001  -1.753252e+002 
3946875000  -2.776589e+001  1.788984e+002 
3950000000  -2.838270e+001  1.711079e+002 
3953125000  -2.922176e+001  1.719074e+002 
3956250000  -2.837840e+001  1.743864e+002 
3959375000  -2.699835e+001  1.708824e+002 
3962500000  -2.649161e+001  1.669717e+002 
3965625000  -2.623965e+001  1.579713e+002 
3968750000  -2.714257e+001  1.515769e+002 
3971875000  -2.746054e+001  1.500945e+002 
3975000000  -2.687790e+001  1.478181e+002 
3978125000  -2.668502e+001  1.466271e+002 
3981250000  -2.647347e+001  1.421637e+002 
3984375000  -2.667688e+001  1.360844e+002 
3987500000  -2.719101e+001  1.346032e+002 
3990625000  -2.713086e+001  1.331402e+002 
3993750000  -2.736002e+001  1.299126e+002 
3996875000  -2.735089e+001  1.275321e+002 
4000000000  -2.744928e+001  1.259987e+002 
4003125000  -2.802784e+001  1.282413e+002 
4006250000  -2.669270e+001  1.290436e+002 
4009375000  -2.540465e+001  1.166793e+002 
4012500000  -2.638797e+001  1.091399e+002 
4015625000  -2.761304e+001  1.099473e+002 
4018750000  -2.780237e+001  1.121255e+002 
4021875000  -2.715509e+001  1.107762e+002 
4025000000  -2.669334e+001  1.060757e+002 
4028125000  -2.668177e+001  1.020834e+002 
4031250000  -2.712553e+001  9.856989e+001 
4034375000  -2.729790e+001  9.817786e+001 
4037500000  -2.687134e+001  9.994292e+001 
4040625000  -2.674789e+001  9.673191e+001 
4043750000  -2.707817e+001  9.631475e+001 
4046875000  -2.652978e+001  9.573930e+001 
4050000000  -2.608162e+001  9.035310e+001 
4053125000  -2.655810e+001  8.732155e+001 
4056250000  -2.722538e+001  9.146870e+001 
4059375000  -2.598256e+001  9.344306e+001 
4062500000  -2.465212e+001  8.841476e+001 
4065625000  -2.454567e+001  8.477508e+001 
4068750000  -2.423415e+001  8.016859e+001 
4071875000  -2.351626e+001  7.239642e+001 
4075000000  -2.384202e+001  6.572849e+001 
4078125000  -2.436705e+001  6.452505e+001 
4081250000  -2.388074e+001  6.191100e+001 
4084375000  -2.352425e+001  5.529201e+001 
4087500000  -2.388209e+001  4.900027e+001 
4090625000  -2.447424e+001  4.771597e+001 
4093750000  -2.430325e+001  4.875101e+001 
4096875000  -2.388626e+001  4.248289e+001 
4100000000  -2.458707e+001  3.562484e+001 
4103125000  -2.538770e+001  3.614494e+001 
4106250000  -2.525308e+001  4.112679e+001 
4109375000  -2.437354e+001  4.048911e+001 
4112500000  -2.387167e+001  3.389380e+001 
4115625000  -2.414227e+001  2.963735e+001 
4118750000  -2.424306e+001  2.669736e+001 
4121875000  -2.388891e+001  2.203600e+001 
4125000000  -2.432041e+001  1.737370e+001 
4128125000  -2.531753e+001  1.790875e+001 
4131250000  -2.487652e+001  2.593618e+001 
4134375000  -2.255821e+001  2.147570e+001 
4137500000  -2.236988e+001  2.255677e+000 
4140625000  -2.451177e+001  -5.223385e+000 
4143750000  -2.588304e+001  -2.731220e-002 
4146875000  -2.539528e+001  7.398855e+000 
4150000000  -2.440014e+001  4.138427e+000 
4153125000  -2.431893e+001  -2.325737e+000 
4156250000  -2.515815e+001  -5.159610e+000 
4159375000  -2.543168e+001  -5.083988e-001 
4162500000  -2.427648e+001  3.710848e+000 
4165625000  -2.317872e+001  -2.166577e-001 
4168750000  -2.250445e+001  -7.530494e+000 
4171875000  -2.237946e+001  -1.672265e+001 
4175000000  -2.296967e+001  -2.276248e+001 
4178125000  -2.363428e+001  -2.302217e+001 
4181250000  -2.350315e+001  -2.355551e+001 
4184375000  -2.332016e+001  -2.717538e+001 
4187500000  -2.334707e+001  -2.994188e+001 
4190625000  -2.322598e+001  -3.548901e+001 
4193750000  -2.399092e+001  -3.936633e+001 
4196875000  -2.474493e+001  -3.969978e+001 
4200000000  -2.551286e+001  -3.712513e+001 
4203125000  -2.554521e+001  -2.411364e+001 
4206250000  -2.230000e+001  -2.283456e+001 
4209375000  -2.106861e+001  -4.336151e+001 
4212500000  -2.304094e+001  -5.188836e+001 
4215625000  -2.400950e+001  -4.532228e+001 
4218750000  -2.262381e+001  -3.856674e+001 
4221875000  -2.026225e+001  -4.816615e+001 
4225000000  -2.150415e+001  -6.146202e+001 
4228125000  -2.221084e+001  -5.630948e+001 
4231250000  -2.079894e+001  -5.984718e+001 
4234375000  -2.062497e+001  -6.822372e+001 
4237500000  -2.024091e+001  -7.193999e+001 
4240625000  -2.030622e+001  -8.040434e+001 
4243750000  -2.134631e+001  -8.658833e+001 
4246875000  -2.216307e+001  -8.649255e+001 
4250000000  -2.216461e+001  -8.370981e+001 
4253125000  -2.159070e+001  -8.588723e+001 
4256250000  -2.178668e+001  -9.003353e+001 
4259375000  -2.158077e+001  -9.199227e+001 
4262500000  -2.159974e+001  -9.583932e+001 
4265625000  -2.177384e+001  -9.556691e+001 
4268750000  -2.096537e+001  -9.937019e+001 
4271875000  -2.065518e+001  -1.047625e+002 
4275000000  -1.998025e+001  -1.113621e+002 
4278125000  -2.052039e+001  -1.232800e+002 
4281250000  -2.226364e+001  -1.253960e+002 
4284375000  -2.208972e+001  -1.250134e+002 
4287500000  -2.296177e+001  -1.285578e+002 
4290625000  -2.421955e+001  -1.187513e+002 
4293750000  -2.224301e+001  -1.126510e+002 
4296875000  -2.077439e+001  -1.236679e+002 
4300000000  -2.166857e+001  -1.331927e+002 
4303125000  -2.269909e+001  -1.320784e+002 
4306250000  -2.206193e+001  -1.265478e+002 
4309375000  -2.068366e+001  -1.290556e+002 
4312500000  -2.067055e+001  -1.374932e+002 
4315625000  -2.089177e+001  -1.435211e+002 
4318750000  -2.119795e+001  -1.467932e+002 
4321875000  -2.136991e+001  -1.463607e+002 
4325000000  -2.080154e+001  -1.459109e+002 
4328125000  -2.026573e+001  -1.527727e+002 
4331250000  -2.025792e+001  -1.610856e+002 
4334375000  -2.075035e+001  -1.654207e+002 
4337500000  -2.152108e+001  -1.678779e+002 
4340625000  -2.199613e+001  -1.651480e+002 
4343750000  -2.147496e+001  -1.644922e+002 
4346875000  -2.108405e+001  -1.694622e+002 
4350000000  -2.101486e+001  -1.748023e+002 
4353125000  -2.106610e+001  1.774803e+002 
4356250000  -2.282929e+001  1.756034e+002 
4359375000  -2.340052e+001  -1.706473e+002 
4362500000  -2.082413e+001  -1.683191e+002 
4365625000  -1.932268e+001  1.797428e+002 
4368750000  -1.999494e+001  1.679602e+002 
4371875000  -2.113706e+001  1.685131e+002 
4375000000  -2.083866e+001  1.694115e+002 
4378125000  -2.024139e+001  1.639039e+002 
4381250000  -2.037355e+001  1.584669e+002 
4384375000  -2.017239e+001  1.541134e+002 
4387500000  -2.084058e+001  1.477914e+002 
4390625000  -2.183428e+001  1.485227e+002 
4393750000  -2.130336e+001  1.508073e+002 
4396875000  -2.060016e+001  1.488813e+002 
4400000000  -2.013029e+001  1.420401e+002 
4403125000  -2.063066e+001  1.342429e+002 
4406250000  -2.147906e+001  1.330997e+002 
4409375000  -2.142817e+001  1.307924e+002 
4412500000  -2.238178e+001  1.273988e+002 
4415625000  -2.281875e+001  1.322501e+002 
4418750000  -2.176166e+001  1.372997e+002 
