!Agilent Technologies,E8363B,MY43030201,A.06.04.32
!Agilent E8363B: A.06.04.32
!Date: Tuesday, November 11, 2014 20:48:07
!Correction: S21(Response(S21)) 
!S1P File: Measurement: S21:
# Hz S  dB   R 50
3000000000  -2.649844e+001  1.551490e+002 
3003125000  -2.792403e+001  1.507513e+002 
3006250000  -2.796928e+001  1.479539e+002 
3009375000  -2.828497e+001  1.526315e+002 
3012500000  -2.780749e+001  1.527344e+002 
3015625000  -2.683094e+001  1.453681e+002 
3018750000  -2.768344e+001  1.445440e+002 
3021875000  -2.644680e+001  1.459700e+002 
3025000000  -2.510415e+001  1.429035e+002 
3028125000  -2.413565e+001  1.379500e+002 
3031250000  -2.310804e+001  1.268525e+002 
3034375000  -2.273393e+001  1.139497e+002 
3037500000  -2.307024e+001  1.020347e+002 
3040625000  -2.442275e+001  9.682204e+001 
3043750000  -2.510555e+001  9.246162e+001 
3046875000  -2.521061e+001  8.620792e+001 
3050000000  -2.694718e+001  7.915759e+001 
3053125000  -2.715515e+001  8.551737e+001 
3056250000  -2.645348e+001  8.851965e+001 
3059375000  -2.672979e+001  8.824321e+001 
3062500000  -2.526300e+001  8.432602e+001 
3065625000  -2.500960e+001  7.878163e+001 
3068750000  -2.474210e+001  7.174009e+001 
3071875000  -2.464634e+001  6.865305e+001 
3075000000  -2.465843e+001  6.509973e+001 
3078125000  -2.436392e+001  6.055299e+001 
3081250000  -2.501213e+001  5.626101e+001 
3084375000  -2.426881e+001  5.271684e+001 
3087500000  -2.416946e+001  4.929102e+001 
3090625000  -2.387012e+001  3.952813e+001 
3093750000  -2.427298e+001  3.143618e+001 
3096875000  -2.559562e+001  2.528087e+001 
3100000000  -2.573724e+001  2.391556e+001 
3103125000  -2.606906e+001  2.565962e+001 
3106250000  -2.581544e+001  2.188542e+001 
3109375000  -2.606910e+001  1.854068e+001 
3112500000  -2.618488e+001  1.754539e+001 
3115625000  -2.600099e+001  1.328907e+001 
3118750000  -2.649016e+001  1.446763e+001 
3121875000  -2.581827e+001  6.632175e+000 
3125000000  -2.692374e+001  3.183801e+000 
3128125000  -2.823082e+001  1.098210e+001 
3131250000  -2.599900e+001  1.180129e+001 
3134375000  -2.469502e+001  -1.540659e+000 
3137500000  -2.532137e+001  -1.563842e+001 
3140625000  -2.695711e+001  -1.750564e+001 
3143750000  -2.797486e+001  -1.307443e+001 
3146875000  -2.755543e+001  -1.116273e+001 
3150000000  -2.651571e+001  -8.571071e+000 
3153125000  -2.649950e+001  -1.666029e+001 
3156250000  -2.750006e+001  -1.122883e+001 
3159375000  -2.598622e+001  -8.491395e+000 
3162500000  -2.391086e+001  -2.099898e+001 
3165625000  -2.485991e+001  -3.202237e+001 
3168750000  -2.526621e+001  -3.127696e+001 
3171875000  -2.432382e+001  -3.526614e+001 
3175000000  -2.492615e+001  -4.316626e+001 
3178125000  -2.471077e+001  -4.138160e+001 
3181250000  -2.354663e+001  -4.525257e+001 
3184375000  -2.270746e+001  -5.777720e+001 
3187500000  -2.384163e+001  -7.299281e+001 
3190625000  -2.663636e+001  -8.081805e+001 
3193750000  -2.725646e+001  -7.083401e+001 
3196875000  -2.683073e+001  -6.562717e+001 
3200000000  -2.597341e+001  -6.747533e+001 
3203125000  -2.507773e+001  -7.291609e+001 
3206250000  -2.540701e+001  -7.918597e+001 
3209375000  -2.489157e+001  -8.417514e+001 
3212500000  -2.500807e+001  -9.108855e+001 
3215625000  -2.518078e+001  -9.540594e+001 
3218750000  -2.590261e+001  -1.016550e+002 
3221875000  -2.692361e+001  -1.068979e+002 
3225000000  -2.657107e+001  -1.072155e+002 
3228125000  -2.682547e+001  -1.115863e+002 
3231250000  -2.761489e+001  -1.143538e+002 
3234375000  -2.748310e+001  -1.134401e+002 
3237500000  -2.747276e+001  -1.146735e+002 
3240625000  -2.714804e+001  -1.166159e+002 
3243750000  -2.682503e+001  -1.231512e+002 
3246875000  -2.731469e+001  -1.297783e+002 
3250000000  -2.773410e+001  -1.316828e+002 
3253125000  -2.785711e+001  -1.333753e+002 
3256250000  -2.774848e+001  -1.392132e+002 
3259375000  -2.813806e+001  -1.469468e+002 
3262500000  -2.934309e+001  -1.495056e+002 
3265625000  -3.005152e+001  -1.461087e+002 
3268750000  -2.999958e+001  -1.438254e+002 
3271875000  -2.980031e+001  -1.425093e+002 
3275000000  -2.867023e+001  -1.472594e+002 
3278125000  -2.911045e+001  -1.537664e+002 
3281250000  -2.943042e+001  -1.516782e+002 
3284375000  -2.894794e+001  -1.578992e+002 
3287500000  -2.913019e+001  -1.610935e+002 
3290625000  -2.958405e+001  -1.651802e+002 
3293750000  -2.923892e+001  -1.709735e+002 
3296875000  -3.021555e+001  -1.705477e+002 
3300000000  -3.024562e+001  -1.693511e+002 
3303125000  -2.908542e+001  -1.733892e+002 
3306250000  -2.884139e+001  -1.798773e+002 
3309375000  -2.857159e+001  1.748008e+002 
3312500000  -2.862959e+001  1.646277e+002 
3315625000  -2.965184e+001  1.565472e+002 
3318750000  -3.102081e+001  1.539815e+002 
3321875000  -3.219058e+001  1.539252e+002 
3325000000  -3.268852e+001  1.588270e+002 
3328125000  -3.265065e+001  1.597417e+002 
3331250000  -3.144399e+001  1.675263e+002 
3334375000  -2.889071e+001  1.589584e+002 
3337500000  -2.895586e+001  1.401371e+002 
3340625000  -3.030016e+001  1.291964e+002 
3343750000  -3.221217e+001  1.273998e+002 
3346875000  -3.273725e+001  1.292625e+002 
3350000000  -3.214095e+001  1.277559e+002 
3353125000  -3.216194e+001  1.230565e+002 
3356250000  -3.194538e+001  1.163475e+002 
3359375000  -3.284596e+001  1.070404e+002 
3362500000  -3.413861e+001  1.020162e+002 
3365625000  -3.482247e+001  1.007889e+002 
3368750000  -3.586550e+001  9.936697e+001 
3371875000  -3.620011e+001  9.542432e+001 
3375000000  -3.771175e+001  9.383161e+001 
3378125000  -3.888160e+001  9.296491e+001 
3381250000  -4.030247e+001  9.990010e+001 
3384375000  -3.960828e+001  1.206365e+002 
3387500000  -3.642213e+001  1.089804e+002 
3390625000  -3.822319e+001  8.921808e+001 
3393750000  -4.033563e+001  9.462860e+001 
3396875000  -3.954645e+001  9.659267e+001 
3400000000  -3.921169e+001  8.920112e+001 
3403125000  -4.017228e+001  8.649178e+001 
3406250000  -4.103339e+001  8.959763e+001 
3409375000  -4.181452e+001  8.407816e+001 
3412500000  -4.272204e+001  8.501475e+001 
3415625000  -4.325827e+001  9.221951e+001 
3418750000  -4.390331e+001  9.539551e+001 
3421875000  -4.416012e+001  1.039041e+002 
3425000000  -4.343464e+001  1.068810e+002 
3428125000  -4.218586e+001  1.041092e+002 
3431250000  -4.223347e+001  1.008470e+002 
3434375000  -4.194681e+001  9.838361e+001 
3437500000  -4.260232e+001  9.849902e+001 
3440625000  -4.274257e+001  1.000588e+002 
3443750000  -4.138028e+001  1.038518e+002 
3446875000  -4.064991e+001  9.793868e+001 
3450000000  -4.049684e+001  8.909240e+001 
3453125000  -4.057339e+001  8.133138e+001 
3456250000  -4.191758e+001  7.693130e+001 
3459375000  -4.281914e+001  7.733920e+001 
3462500000  -4.288335e+001  7.816821e+001 
3465625000  -4.291419e+001  7.468146e+001 
3468750000  -4.318081e+001  7.190970e+001 
3471875000  -4.349210e+001  7.342380e+001 
3475000000  -4.347208e+001  6.917163e+001 
3478125000  -4.414866e+001  6.447964e+001 
3481250000  -4.507954e+001  6.397782e+001 
3484375000  -4.658925e+001  7.219173e+001 
3487500000  -4.624766e+001  7.324150e+001 
3490625000  -4.565464e+001  7.098877e+001 
3493750000  -4.642645e+001  6.423669e+001 
3496875000  -4.793347e+001  6.873682e+001 
3500000000  -4.873507e+001  7.616589e+001 
3503125000  -4.835968e+001  8.008263e+001 
3506250000  -4.665800e+001  8.249619e+001 
3509375000  -4.765804e+001  8.045990e+001 
3512500000  -4.764319e+001  7.743639e+001 
3515625000  -4.779041e+001  8.443401e+001 
3518750000  -4.805163e+001  8.676448e+001 
3521875000  -4.747463e+001  9.036366e+001 
3525000000  -4.759015e+001  8.785154e+001 
3528125000  -4.740429e+001  9.983128e+001 
3531250000  -4.547704e+001  1.048151e+002 
3534375000  -4.453325e+001  9.657745e+001 
3537500000  -4.445868e+001  9.091934e+001 
3540625000  -4.491886e+001  8.965446e+001 
3543750000  -4.536238e+001  9.365612e+001 
3546875000  -4.511103e+001  1.051919e+002 
3550000000  -4.265467e+001  1.073081e+002 
3553125000  -4.125125e+001  9.229204e+001 
3556250000  -4.234299e+001  8.442122e+001 
3559375000  -4.174102e+001  8.895363e+001 
3562500000  -4.051691e+001  8.005439e+001 
3565625000  -4.157608e+001  7.520000e+001 
3568750000  -4.139819e+001  7.982826e+001 
3571875000  -4.137039e+001  7.686063e+001 
3575000000  -4.041948e+001  7.184162e+001 
3578125000  -4.101291e+001  6.848808e+001 
3581250000  -4.118848e+001  6.950428e+001 
3584375000  -4.029320e+001  6.590112e+001 
3587500000  -3.949551e+001  6.059041e+001 
3590625000  -3.981641e+001  5.043968e+001 
3593750000  -4.092672e+001  4.977103e+001 
3596875000  -4.113604e+001  5.875560e+001 
3600000000  -3.955276e+001  5.478454e+001 
3603125000  -3.950206e+001  4.104584e+001 
3606250000  -4.027967e+001  3.801537e+001 
3609375000  -4.073001e+001  3.858764e+001 
3612500000  -4.112269e+001  3.544455e+001 
3615625000  -4.110822e+001  3.390221e+001 
3618750000  -4.176178e+001  3.587564e+001 
3621875000  -4.152504e+001  3.375697e+001 
3625000000  -4.156331e+001  3.236774e+001 
3628125000  -4.153758e+001  3.547444e+001 
3631250000  -4.141804e+001  2.817644e+001 
3634375000  -4.227461e+001  2.858329e+001 
3637500000  -4.220694e+001  3.531512e+001 
3640625000  -4.096865e+001  3.777603e+001 
3643750000  -4.078299e+001  3.093929e+001 
3646875000  -4.132039e+001  2.682016e+001 
3650000000  -4.192371e+001  2.547002e+001 
3653125000  -4.167013e+001  2.744861e+001 
3656250000  -4.193312e+001  2.563883e+001 
3659375000  -4.201078e+001  2.937831e+001 
3662500000  -4.137668e+001  2.803157e+001 
3665625000  -4.139724e+001  2.694494e+001 
3668750000  -4.035362e+001  3.136865e+001 
3671875000  -3.941675e+001  2.533826e+001 
3675000000  -3.988614e+001  1.987538e+001 
3678125000  -4.043590e+001  2.320473e+001 
3681250000  -3.969422e+001  2.345350e+001 
3684375000  -3.965623e+001  1.988003e+001 
3687500000  -3.977659e+001  1.885344e+001 
3690625000  -3.959370e+001  1.634827e+001 
3693750000  -3.997306e+001  1.756458e+001 
3696875000  -4.026103e+001  2.128417e+001 
3700000000  -3.897782e+001  1.859644e+001 
3703125000  -3.878212e+001  1.687987e+001 
3706250000  -3.935823e+001  1.805045e+001 
3709375000  -3.864099e+001  2.081174e+001 
3712500000  -3.731903e+001  2.101121e+001 
3715625000  -3.643357e+001  1.433756e+001 
3718750000  -3.562043e+001  1.206399e+001 
3721875000  -3.534475e+001  6.124699e+000 
3725000000  -3.531403e+001  2.029088e+000 
3728125000  -3.559214e+001  8.016335e-001 
3731250000  -3.484388e+001  2.859831e-001 
3734375000  -3.387768e+001  -6.092055e+000 
3737500000  -3.420241e+001  -1.312855e+001 
3740625000  -3.500338e+001  -1.584000e+001 
3743750000  -3.494650e+001  -1.866216e+001 
3746875000  -3.476550e+001  -2.136958e+001 
3750000000  -3.512635e+001  -2.186155e+001 
3753125000  -3.484238e+001  -2.225906e+001 
3756250000  -3.479834e+001  -2.306085e+001 
3759375000  -3.461154e+001  -2.356195e+001 
3762500000  -3.391590e+001  -2.688104e+001 
3765625000  -3.443692e+001  -3.010323e+001 
3768750000  -3.450453e+001  -2.751670e+001 
3771875000  -3.271435e+001  -2.966830e+001 
3775000000  -3.237433e+001  -3.686948e+001 
3778125000  -3.271422e+001  -3.882372e+001 
3781250000  -3.257777e+001  -4.216035e+001 
3784375000  -3.247162e+001  -4.312478e+001 
3787500000  -3.187429e+001  -4.675023e+001 
3790625000  -3.239619e+001  -5.261431e+001 
3793750000  -3.252925e+001  -5.320471e+001 
3796875000  -3.161707e+001  -5.507980e+001 
3800000000  -3.006922e+001  -5.786301e+001 
3803125000  -3.073304e+001  -6.512663e+001 
3806250000  -3.139604e+001  -6.759736e+001 
3809375000  -3.117817e+001  -6.899438e+001 
3812500000  -3.044537e+001  -7.372301e+001 
3815625000  -3.098553e+001  -8.125431e+001 
3818750000  -3.204976e+001  -8.292871e+001 
3821875000  -3.217737e+001  -7.466208e+001 
3825000000  -3.019887e+001  -6.984557e+001 
3828125000  -2.885008e+001  -8.362772e+001 
3831250000  -2.935894e+001  -9.737747e+001 
3834375000  -3.072500e+001  -9.959090e+001 
3837500000  -3.156065e+001  -9.367159e+001 
3840625000  -3.048200e+001  -9.518020e+001 
3843750000  -2.934972e+001  -1.051854e+002 
3846875000  -2.998391e+001  -1.119337e+002 
3850000000  -3.141449e+001  -1.072018e+002 
3853125000  -3.046348e+001  -1.040906e+002 
3856250000  -3.045010e+001  -1.097713e+002 
3859375000  -2.992583e+001  -1.136687e+002 
3862500000  -2.937860e+001  -1.203296e+002 
3865625000  -2.967302e+001  -1.252376e+002 
3868750000  -2.969953e+001  -1.260705e+002 
3871875000  -2.902232e+001  -1.283792e+002 
3875000000  -2.913440e+001  -1.366042e+002 
3878125000  -3.011585e+001  -1.394478e+002 
3881250000  -3.024065e+001  -1.364063e+002 
3884375000  -2.979887e+001  -1.406651e+002 
3887500000  -2.982869e+001  -1.443141e+002 
3890625000  -3.044246e+001  -1.470983e+002 
3893750000  -3.082514e+001  -1.483950e+002 
3896875000  -3.096911e+001  -1.478514e+002 
3900000000  -3.119019e+001  -1.478397e+002 
3903125000  -3.078572e+001  -1.497318e+002 
3906250000  -3.052960e+001  -1.517298e+002 
3909375000  -2.983149e+001  -1.538484e+002 
3912500000  -2.976192e+001  -1.603748e+002 
3915625000  -3.102603e+001  -1.599303e+002 
3918750000  -3.088079e+001  -1.589183e+002 
3921875000  -3.060763e+001  -1.598439e+002 
3925000000  -2.988175e+001  -1.603646e+002 
3928125000  -2.906129e+001  -1.664335e+002 
3931250000  -2.952895e+001  -1.699636e+002 
3934375000  -2.976648e+001  -1.697962e+002 
3937500000  -2.982508e+001  -1.708570e+002 
3940625000  -3.033153e+001  -1.710140e+002 
3943750000  -2.946786e+001  -1.697830e+002 
3946875000  -2.815210e+001  -1.747668e+002 
3950000000  -2.858526e+001  1.774801e+002 
3953125000  -2.958138e+001  1.774878e+002 
3956250000  -2.870140e+001  -1.799375e+002 
3959375000  -2.741689e+001  1.770100e+002 
3962500000  -2.693392e+001  1.730268e+002 
3965625000  -2.648697e+001  1.647178e+002 
3968750000  -2.738970e+001  1.567903e+002 
3971875000  -2.785589e+001  1.561641e+002 
3975000000  -2.719966e+001  1.543338e+002 
3978125000  -2.697885e+001  1.525636e+002 
3981250000  -2.670957e+001  1.484257e+002 
3984375000  -2.700107e+001  1.419750e+002 
3987500000  -2.748649e+001  1.399394e+002 
3990625000  -2.755308e+001  1.390820e+002 
3993750000  -2.780296e+001  1.357351e+002 
3996875000  -2.777635e+001  1.335897e+002 
4000000000  -2.788802e+001  1.316041e+002 
4003125000  -2.853392e+001  1.338324e+002 
4006250000  -2.709010e+001  1.348198e+002 
4009375000  -2.586101e+001  1.222577e+002 
4012500000  -2.690251e+001  1.149367e+002 
4015625000  -2.814852e+001  1.155924e+002 
4018750000  -2.837820e+001  1.179838e+002 
4021875000  -2.771130e+001  1.165697e+002 
4025000000  -2.731565e+001  1.117493e+002 
4028125000  -2.716628e+001  1.085754e+002 
4031250000  -2.761085e+001  1.050040e+002 
4034375000  -2.789728e+001  1.051566e+002 
4037500000  -2.734985e+001  1.067917e+002 
4040625000  -2.729832e+001  1.032891e+002 
4043750000  -2.755725e+001  1.032943e+002 
4046875000  -2.714330e+001  1.027620e+002 
4050000000  -2.661027e+001  9.686477e+001 
4053125000  -2.699358e+001  9.441793e+001 
4056250000  -2.763686e+001  9.843698e+001 
4059375000  -2.647803e+001  1.004551e+002 
4062500000  -2.509964e+001  9.596841e+001 
4065625000  -2.495196e+001  9.130758e+001 
4068750000  -2.468372e+001  8.659455e+001 
4071875000  -2.399833e+001  7.875807e+001 
4075000000  -2.434610e+001  7.243810e+001 
4078125000  -2.494446e+001  7.103294e+001 
4081250000  -2.443876e+001  6.889265e+001 
4084375000  -2.398888e+001  6.219508e+001 
4087500000  -2.434129e+001  5.577258e+001 
4090625000  -2.495002e+001  5.439479e+001 
4093750000  -2.486068e+001  5.521121e+001 
4096875000  -2.437466e+001  4.952675e+001 
4100000000  -2.503007e+001  4.231152e+001 
4103125000  -2.592972e+001  4.248250e+001 
4106250000  -2.583367e+001  4.729397e+001 
4109375000  -2.496127e+001  4.719830e+001 
4112500000  -2.442273e+001  4.065622e+001 
4115625000  -2.481634e+001  3.626923e+001 
4118750000  -2.486630e+001  3.372731e+001 
4121875000  -2.451640e+001  2.904364e+001 
4125000000  -2.482173e+001  2.412916e+001 
4128125000  -2.586613e+001  2.380638e+001 
4131250000  -2.568025e+001  3.223867e+001 
4134375000  -2.328722e+001  2.777996e+001 
4137500000  -2.306852e+001  9.215532e+000 
4140625000  -2.520724e+001  1.919834e+000 
4143750000  -2.653555e+001  7.096973e+000 
4146875000  -2.614696e+001  1.427701e+001 
4150000000  -2.524342e+001  1.197654e+001 
4153125000  -2.496391e+001  5.147758e+000 
4156250000  -2.586218e+001  2.656001e+000 
4159375000  -2.613150e+001  6.576863e+000 
4162500000  -2.500314e+001  1.086225e+001 
4165625000  -2.385383e+001  7.301935e+000 
4168750000  -2.325340e+001  2.806450e-001 
4171875000  -2.321617e+001  -8.872374e+000 
4175000000  -2.377259e+001  -1.458707e+001 
4178125000  -2.436024e+001  -1.481072e+001 
4181250000  -2.427388e+001  -1.560501e+001 
4184375000  -2.403761e+001  -1.865941e+001 
4187500000  -2.415078e+001  -2.146639e+001 
4190625000  -2.390119e+001  -2.662423e+001 
4193750000  -2.467572e+001  -3.063570e+001 
4196875000  -2.541329e+001  -3.096970e+001 
4200000000  -2.620368e+001  -2.925669e+001 
4203125000  -2.633593e+001  -1.631746e+001 
4206250000  -2.301761e+001  -1.415809e+001 
4209375000  -2.176986e+001  -3.467300e+001 
4212500000  -2.364750e+001  -4.376761e+001 
4215625000  -2.470139e+001  -3.785840e+001 
4218750000  -2.344111e+001  -3.062426e+001 
4221875000  -2.106133e+001  -4.004345e+001 
4225000000  -2.228470e+001  -5.238139e+001 
4228125000  -2.307215e+001  -4.780604e+001 
4231250000  -2.151435e+001  -5.142506e+001 
4234375000  -2.137732e+001  -6.001852e+001 
4237500000  -2.103236e+001  -6.302758e+001 
4240625000  -2.099151e+001  -7.157768e+001 
4243750000  -2.198890e+001  -7.830794e+001 
4246875000  -2.289208e+001  -7.828643e+001 
4250000000  -2.293513e+001  -7.552464e+001 
4253125000  -2.235585e+001  -7.730722e+001 
4256250000  -2.260149e+001  -8.164275e+001 
4259375000  -2.237191e+001  -8.308873e+001 
4262500000  -2.242203e+001  -8.701332e+001 
4265625000  -2.260184e+001  -8.689480e+001 
4268750000  -2.174099e+001  -9.061565e+001 
4271875000  -2.149666e+001  -9.627100e+001 
4275000000  -2.083535e+001  -1.023890e+002 
4278125000  -2.137726e+001  -1.137363e+002 
4281250000  -2.323086e+001  -1.157525e+002 
4284375000  -2.292792e+001  -1.146901e+002 
4287500000  -2.363345e+001  -1.184499e+002 
4290625000  -2.491065e+001  -1.094082e+002 
4293750000  -2.296090e+001  -1.030516e+002 
4296875000  -2.159552e+001  -1.145158e+002 
4300000000  -2.238551e+001  -1.236081e+002 
4303125000  -2.353150e+001  -1.229509e+002 
4306250000  -2.297961e+001  -1.168002e+002 
4309375000  -2.151720e+001  -1.184524e+002 
4312500000  -2.139210e+001  -1.269695e+002 
4315625000  -2.160903e+001  -1.331561e+002 
4318750000  -2.190112e+001  -1.366153e+002 
4321875000  -2.206168e+001  -1.362231e+002 
4325000000  -2.148320e+001  -1.354690e+002 
4328125000  -2.099997e+001  -1.420008e+002 
4331250000  -2.093715e+001  -1.499729e+002 
4334375000  -2.135419e+001  -1.552621e+002 
4337500000  -2.211158e+001  -1.571467e+002 
4340625000  -2.271977e+001  -1.543957e+002 
4343750000  -2.216226e+001  -1.539356e+002 
4346875000  -2.180176e+001  -1.594413e+002 
4350000000  -2.179413e+001  -1.640179e+002 
4353125000  -2.176078e+001  -1.717955e+002 
4356250000  -2.345563e+001  -1.732771e+002 
4359375000  -2.418568e+001  -1.603264e+002 
4362500000  -2.160080e+001  -1.579413e+002 
4365625000  -1.994586e+001  -1.695268e+002 
4368750000  -2.059800e+001  1.786597e+002 
4371875000  -2.183534e+001  1.790776e+002 
4375000000  -2.155296e+001  -1.798425e+002 
4378125000  -2.090397e+001  1.745969e+002 
4381250000  -2.105856e+001  1.691221e+002 
4384375000  -2.088153e+001  1.648818e+002 
4387500000  -2.157188e+001  1.590992e+002 
4390625000  -2.264063e+001  1.597547e+002 
4393750000  -2.202510e+001  1.619161e+002 
4396875000  -2.132629e+001  1.596894e+002 
4400000000  -2.082909e+001  1.530148e+002 
4403125000  -2.133804e+001  1.456570e+002 
4406250000  -2.225169e+001  1.441134e+002 
4409375000  -2.219197e+001  1.419503e+002 
4412500000  -2.320778e+001  1.392649e+002 
4415625000  -2.361138e+001  1.440707e+002 
4418750000  -2.241101e+001  1.486167e+002 
4421875000  -2.096297e+001  1.452832e+002 
