!Agilent Technologies,E8363B,MY43030201,A.06.04.32
!Agilent E8363B: A.06.04.32
!Date: Tuesday, November 11, 2014 20:48:49
!Correction: S21(Response(S21)) 
!S1P File: Measurement: S21:
# Hz S  dB   R 50
3000000000  -2.650570e+001  1.554731e+002 
3003125000  -2.795222e+001  1.508178e+002 
3006250000  -2.797292e+001  1.484677e+002 
3009375000  -2.827686e+001  1.533584e+002 
3012500000  -2.786579e+001  1.531792e+002 
3015625000  -2.683144e+001  1.457982e+002 
3018750000  -2.769131e+001  1.450488e+002 
3021875000  -2.645369e+001  1.463199e+002 
3025000000  -2.515237e+001  1.430973e+002 
3028125000  -2.416246e+001  1.381556e+002 
3031250000  -2.313293e+001  1.272760e+002 
3034375000  -2.276240e+001  1.141877e+002 
3037500000  -2.310581e+001  1.023084e+002 
3040625000  -2.439647e+001  9.747271e+001 
3043750000  -2.513287e+001  9.296554e+001 
3046875000  -2.525539e+001  8.651401e+001 
3050000000  -2.695523e+001  7.928501e+001 
3053125000  -2.714989e+001  8.592931e+001 
3056250000  -2.645371e+001  8.884567e+001 
3059375000  -2.667103e+001  8.870525e+001 
3062500000  -2.523209e+001  8.464335e+001 
3065625000  -2.502141e+001  7.928387e+001 
3068750000  -2.471028e+001  7.218279e+001 
3071875000  -2.466968e+001  6.937502e+001 
3075000000  -2.465876e+001  6.572905e+001 
3078125000  -2.432820e+001  6.097311e+001 
3081250000  -2.499052e+001  5.676203e+001 
3084375000  -2.421644e+001  5.307370e+001 
3087500000  -2.411408e+001  4.954881e+001 
3090625000  -2.382044e+001  3.979730e+001 
3093750000  -2.423112e+001  3.191685e+001 
3096875000  -2.554161e+001  2.578833e+001 
3100000000  -2.566569e+001  2.429890e+001 
3103125000  -2.604711e+001  2.577752e+001 
3106250000  -2.576640e+001  2.231505e+001 
3109375000  -2.598676e+001  1.880031e+001 
3112500000  -2.613102e+001  1.793518e+001 
3115625000  -2.592204e+001  1.368929e+001 
3118750000  -2.639675e+001  1.499329e+001 
3121875000  -2.576167e+001  6.842607e+000 
3125000000  -2.685999e+001  3.150207e+000 
3128125000  -2.812505e+001  1.114225e+001 
3131250000  -2.599087e+001  1.183771e+001 
3134375000  -2.461632e+001  -1.505342e+000 
3137500000  -2.523711e+001  -1.575891e+001 
3140625000  -2.690431e+001  -1.715848e+001 
3143750000  -2.792669e+001  -1.318129e+001 
3146875000  -2.754894e+001  -1.091885e+001 
3150000000  -2.648315e+001  -8.736933e+000 
3153125000  -2.646295e+001  -1.652380e+001 
3156250000  -2.743038e+001  -1.138014e+001 
3159375000  -2.593516e+001  -8.514104e+000 
3162500000  -2.385944e+001  -2.105743e+001 
3165625000  -2.479157e+001  -3.208799e+001 
3168750000  -2.520782e+001  -3.118019e+001 
3171875000  -2.422738e+001  -3.522958e+001 
3175000000  -2.483761e+001  -4.313550e+001 
3178125000  -2.468569e+001  -4.155624e+001 
3181250000  -2.348787e+001  -4.542162e+001 
3184375000  -2.264394e+001  -5.772414e+001 
3187500000  -2.376960e+001  -7.293314e+001 
3190625000  -2.659179e+001  -8.064996e+001 
3193750000  -2.714526e+001  -7.077442e+001 
3196875000  -2.677286e+001  -6.533179e+001 
3200000000  -2.591485e+001  -6.717765e+001 
3203125000  -2.502127e+001  -7.296482e+001 
3206250000  -2.532652e+001  -7.900485e+001 
3209375000  -2.482193e+001  -8.403370e+001 
3212500000  -2.492572e+001  -9.093578e+001 
3215625000  -2.512662e+001  -9.517419e+001 
3218750000  -2.582003e+001  -1.018449e+002 
3221875000  -2.684172e+001  -1.066042e+002 
3225000000  -2.643453e+001  -1.069794e+002 
3228125000  -2.676086e+001  -1.115902e+002 
3231250000  -2.748387e+001  -1.144649e+002 
3234375000  -2.734346e+001  -1.131688e+002 
3237500000  -2.737088e+001  -1.146667e+002 
3240625000  -2.706305e+001  -1.163168e+002 
3243750000  -2.670555e+001  -1.229336e+002 
3246875000  -2.717951e+001  -1.295647e+002 
3250000000  -2.761954e+001  -1.315606e+002 
3253125000  -2.780343e+001  -1.331468e+002 
3256250000  -2.766550e+001  -1.392044e+002 
3259375000  -2.798019e+001  -1.465815e+002 
3262500000  -2.921954e+001  -1.493884e+002 
3265625000  -2.989890e+001  -1.464756e+002 
3268750000  -2.988111e+001  -1.435421e+002 
3271875000  -2.968979e+001  -1.421543e+002 
3275000000  -2.854117e+001  -1.474113e+002 
3278125000  -2.895961e+001  -1.537565e+002 
3281250000  -2.930361e+001  -1.520912e+002 
3284375000  -2.892262e+001  -1.579103e+002 
3287500000  -2.904352e+001  -1.609814e+002 
3290625000  -2.945208e+001  -1.647985e+002 
3293750000  -2.910679e+001  -1.702724e+002 
3296875000  -3.013212e+001  -1.705235e+002 
3300000000  -3.007986e+001  -1.691538e+002 
3303125000  -2.893485e+001  -1.733407e+002 
3306250000  -2.865460e+001  -1.798769e+002 
3309375000  -2.842582e+001  1.752049e+002 
3312500000  -2.846177e+001  1.649363e+002 
3315625000  -2.946110e+001  1.570239e+002 
3318750000  -3.083840e+001  1.549881e+002 
3321875000  -3.198703e+001  1.541964e+002 
3325000000  -3.257600e+001  1.590298e+002 
3328125000  -3.246288e+001  1.606749e+002 
3331250000  -3.126016e+001  1.684173e+002 
3334375000  -2.873977e+001  1.588094e+002 
3337500000  -2.876661e+001  1.405923e+002 
3340625000  -3.005848e+001  1.291991e+002 
3343750000  -3.197976e+001  1.276217e+002 
3346875000  -3.257765e+001  1.296030e+002 
3350000000  -3.178486e+001  1.288055e+002 
3353125000  -3.198090e+001  1.243377e+002 
3356250000  -3.170042e+001  1.166643e+002 
3359375000  -3.255512e+001  1.084253e+002 
3362500000  -3.385037e+001  1.029520e+002 
3365625000  -3.447888e+001  1.010596e+002 
3368750000  -3.540997e+001  9.894772e+001 
3371875000  -3.589936e+001  9.624977e+001 
3375000000  -3.739000e+001  9.435811e+001 
3378125000  -3.842132e+001  9.366467e+001 
3381250000  -4.012315e+001  1.016121e+002 
3384375000  -3.938558e+001  1.227497e+002 
3387500000  -3.585085e+001  1.092372e+002 
3390625000  -3.763925e+001  8.886656e+001 
3393750000  -3.948716e+001  9.294115e+001 
3396875000  -3.874323e+001  9.759050e+001 
3400000000  -3.868457e+001  8.948808e+001 
3403125000  -3.966901e+001  8.577381e+001 
3406250000  -4.042340e+001  8.833610e+001 
3409375000  -4.097001e+001  8.471268e+001 
3412500000  -4.205348e+001  8.316206e+001 
3415625000  -4.280434e+001  9.034887e+001 
3418750000  -4.306025e+001  9.346840e+001 
3421875000  -4.329194e+001  1.009548e+002 
3425000000  -4.271394e+001  1.045934e+002 
3428125000  -4.162359e+001  1.032746e+002 
3431250000  -4.160839e+001  9.818298e+001 
3434375000  -4.129984e+001  9.605206e+001 
3437500000  -4.179383e+001  9.446592e+001 
3440625000  -4.237127e+001  9.785506e+001 
3443750000  -4.065768e+001  9.836740e+001 
3446875000  -3.993600e+001  9.382751e+001 
3450000000  -3.994814e+001  8.463579e+001 
3453125000  -4.028041e+001  7.779078e+001 
3456250000  -4.117784e+001  7.184738e+001 
3459375000  -4.222480e+001  7.460888e+001 
3462500000  -4.242285e+001  7.346922e+001 
3465625000  -4.251875e+001  7.221341e+001 
3468750000  -4.290726e+001  6.816022e+001 
3471875000  -4.313968e+001  7.098428e+001 
3475000000  -4.282084e+001  6.544170e+001 
3478125000  -4.377625e+001  5.895808e+001 
3481250000  -4.456803e+001  5.689793e+001 
3484375000  -4.625360e+001  6.308245e+001 
3487500000  -4.571128e+001  6.994246e+001 
3490625000  -4.502982e+001  6.248094e+001 
3493750000  -4.600238e+001  6.074293e+001 
3496875000  -4.723191e+001  6.176921e+001 
3500000000  -4.828843e+001  7.234156e+001 
3503125000  -4.807550e+001  7.273804e+001 
3506250000  -4.698925e+001  7.449096e+001 
3509375000  -4.698491e+001  7.177193e+001 
3512500000  -4.766175e+001  7.681671e+001 
3515625000  -4.741909e+001  7.551749e+001 
3518750000  -4.823434e+001  7.702142e+001 
3521875000  -4.806631e+001  8.334398e+001 
3525000000  -4.832648e+001  8.499034e+001 
3528125000  -4.779429e+001  9.715228e+001 
3531250000  -4.577297e+001  9.627522e+001 
3534375000  -4.505782e+001  9.084975e+001 
3537500000  -4.493433e+001  8.891001e+001 
3540625000  -4.576260e+001  8.663366e+001 
3543750000  -4.590896e+001  8.893603e+001 
3546875000  -4.608890e+001  1.007467e+002 
3550000000  -4.332816e+001  1.035757e+002 
3553125000  -4.148557e+001  8.862427e+001 
3556250000  -4.242244e+001  8.221939e+001 
3559375000  -4.233307e+001  8.256367e+001 
3562500000  -4.110353e+001  7.776417e+001 
3565625000  -4.184720e+001  7.201952e+001 
3568750000  -4.174334e+001  7.370779e+001 
3571875000  -4.165123e+001  7.476029e+001 
3575000000  -4.134452e+001  6.982742e+001 
3578125000  -4.152618e+001  6.528932e+001 
3581250000  -4.148254e+001  6.630442e+001 
3584375000  -4.082429e+001  6.445300e+001 
3587500000  -4.004951e+001  6.094743e+001 
3590625000  -4.049157e+001  4.916319e+001 
3593750000  -4.139960e+001  4.986068e+001 
3596875000  -4.131854e+001  5.848460e+001 
3600000000  -3.979766e+001  5.526604e+001 
3603125000  -3.991211e+001  4.173133e+001 
3606250000  -4.067052e+001  3.794400e+001 
3609375000  -4.080486e+001  3.800535e+001 
3612500000  -4.147458e+001  3.486275e+001 
3615625000  -4.120346e+001  3.369670e+001 
3618750000  -4.215214e+001  3.587965e+001 
3621875000  -4.151268e+001  3.522776e+001 
3625000000  -4.176127e+001  3.477474e+001 
3628125000  -4.173790e+001  3.435918e+001 
3631250000  -4.153651e+001  3.013147e+001 
3634375000  -4.251726e+001  3.060218e+001 
3637500000  -4.212271e+001  3.584309e+001 
3640625000  -4.100891e+001  3.631056e+001 
3643750000  -4.053745e+001  3.243591e+001 
3646875000  -4.095808e+001  2.655162e+001 
3650000000  -4.173962e+001  2.513990e+001 
3653125000  -4.137090e+001  2.506238e+001 
3656250000  -4.171021e+001  2.428382e+001 
3659375000  -4.227999e+001  2.623844e+001 
3662500000  -4.105607e+001  2.684395e+001 
3665625000  -4.159342e+001  2.690172e+001 
3668750000  -4.037780e+001  2.954854e+001 
3671875000  -3.946388e+001  2.316345e+001 
3675000000  -3.990729e+001  1.761565e+001 
3678125000  -4.027018e+001  1.960397e+001 
3681250000  -3.980025e+001  2.142886e+001 
3684375000  -3.983438e+001  1.923531e+001 
3687500000  -3.995956e+001  1.859447e+001 
3690625000  -3.996353e+001  1.392774e+001 
3693750000  -4.024470e+001  1.747997e+001 
3696875000  -4.027077e+001  1.977427e+001 
3700000000  -3.910169e+001  1.922595e+001 
3703125000  -3.884716e+001  1.590812e+001 
3706250000  -3.931120e+001  1.647135e+001 
3709375000  -3.892780e+001  2.034509e+001 
3712500000  -3.745682e+001  2.121838e+001 
3715625000  -3.657403e+001  1.501665e+001 
3718750000  -3.575742e+001  1.219088e+001 
3721875000  -3.530434e+001  6.566700e+000 
3725000000  -3.527703e+001  2.001806e+000 
3728125000  -3.543726e+001  1.025049e+000 
3731250000  -3.487830e+001  6.978123e-001 
3734375000  -3.357274e+001  -5.702135e+000 
3737500000  -3.438496e+001  -1.323985e+001 
3740625000  -3.488588e+001  -1.569673e+001 
3743750000  -3.459941e+001  -1.839068e+001 
3746875000  -3.467141e+001  -2.164217e+001 
3750000000  -3.501825e+001  -2.306133e+001 
3753125000  -3.461588e+001  -2.267438e+001 
3756250000  -3.459548e+001  -2.467907e+001 
3759375000  -3.436404e+001  -2.408846e+001 
3762500000  -3.379950e+001  -2.883943e+001 
3765625000  -3.426930e+001  -3.124111e+001 
3768750000  -3.430423e+001  -2.842592e+001 
3771875000  -3.263495e+001  -3.105668e+001 
3775000000  -3.223687e+001  -3.843944e+001 
3778125000  -3.253526e+001  -4.046136e+001 
3781250000  -3.236421e+001  -4.380042e+001 
3784375000  -3.242746e+001  -4.532436e+001 
3787500000  -3.163422e+001  -4.887940e+001 
3790625000  -3.224602e+001  -5.512047e+001 
3793750000  -3.241225e+001  -5.558366e+001 
3796875000  -3.161828e+001  -5.691756e+001 
3800000000  -3.004698e+001  -6.008225e+001 
3803125000  -3.075512e+001  -6.665018e+001 
3806250000  -3.137504e+001  -6.933190e+001 
3809375000  -3.110525e+001  -7.099634e+001 
3812500000  -3.048328e+001  -7.572903e+001 
3815625000  -3.105958e+001  -8.323064e+001 
3818750000  -3.206629e+001  -8.459660e+001 
3821875000  -3.211909e+001  -7.615711e+001 
3825000000  -3.030822e+001  -7.175634e+001 
3828125000  -2.885802e+001  -8.475015e+001 
3831250000  -2.938090e+001  -9.883728e+001 
3834375000  -3.068392e+001  -1.003519e+002 
3837500000  -3.156779e+001  -9.578299e+001 
3840625000  -3.048125e+001  -9.610703e+001 
3843750000  -2.935037e+001  -1.061138e+002 
3846875000  -2.997222e+001  -1.134868e+002 
3850000000  -3.119959e+001  -1.083354e+002 
3853125000  -3.052330e+001  -1.059567e+002 
3856250000  -3.049184e+001  -1.101662e+002 
3859375000  -2.975548e+001  -1.154725e+002 
3862500000  -2.933773e+001  -1.219659e+002 
3865625000  -2.955339e+001  -1.268185e+002 
3868750000  -2.957361e+001  -1.266966e+002 
3871875000  -2.885707e+001  -1.295230e+002 
3875000000  -2.899273e+001  -1.381945e+002 
3878125000  -2.998339e+001  -1.412587e+002 
3881250000  -3.016862e+001  -1.379887e+002 
3884375000  -2.956557e+001  -1.421052e+002 
3887500000  -2.966255e+001  -1.464883e+002 
3890625000  -3.024113e+001  -1.484133e+002 
3893750000  -3.061242e+001  -1.498015e+002 
3896875000  -3.072130e+001  -1.502215e+002 
3900000000  -3.104885e+001  -1.507657e+002 
3903125000  -3.059209e+001  -1.528957e+002 
3906250000  -3.034933e+001  -1.530576e+002 
3909375000  -2.971690e+001  -1.560123e+002 
3912500000  -2.973240e+001  -1.634199e+002 
3915625000  -3.089485e+001  -1.623459e+002 
3918750000  -3.092480e+001  -1.616125e+002 
3921875000  -3.061791e+001  -1.622130e+002 
3925000000  -2.988317e+001  -1.634933e+002 
3928125000  -2.913910e+001  -1.690296e+002 
3931250000  -2.955473e+001  -1.729178e+002 
3934375000  -2.983868e+001  -1.722436e+002 
3937500000  -2.992114e+001  -1.730943e+002 
3940625000  -3.045839e+001  -1.733791e+002 
3943750000  -2.944504e+001  -1.719342e+002 
3946875000  -2.821376e+001  -1.764212e+002 
3950000000  -2.868790e+001  1.753408e+002 
3953125000  -2.954749e+001  1.758799e+002 
3956250000  -2.883801e+001  1.785149e+002 
3959375000  -2.749596e+001  1.753331e+002 
3962500000  -2.696317e+001  1.719035e+002 
3965625000  -2.658602e+001  1.625040e+002 
3968750000  -2.749980e+001  1.559526e+002 
3971875000  -2.788883e+001  1.546213e+002 
3975000000  -2.724420e+001  1.528511e+002 
3978125000  -2.701154e+001  1.514512e+002 
3981250000  -2.674830e+001  1.468592e+002 
3984375000  -2.696488e+001  1.405880e+002 
3987500000  -2.751486e+001  1.384090e+002 
3990625000  -2.746492e+001  1.376821e+002 
3993750000  -2.765139e+001  1.342935e+002 
3996875000  -2.763758e+001  1.318930e+002 
4000000000  -2.771141e+001  1.299620e+002 
4003125000  -2.829788e+001  1.322018e+002 
4006250000  -2.697830e+001  1.322917e+002 
4009375000  -2.577052e+001  1.202612e+002 
4012500000  -2.678922e+001  1.127845e+002 
4015625000  -2.799266e+001  1.130264e+002 
4018750000  -2.826301e+001  1.156232e+002 
4021875000  -2.758176e+001  1.136347e+002 
4025000000  -2.728036e+001  1.095269e+002 
4028125000  -2.714470e+001  1.053460e+002 
4031250000  -2.761596e+001  1.021556e+002 
4034375000  -2.789849e+001  1.021311e+002 
4037500000  -2.744440e+001  1.034169e+002 
4040625000  -2.725550e+001  1.005530e+002 
4043750000  -2.769512e+001  9.999653e+001 
4046875000  -2.721983e+001  9.967225e+001 
4050000000  -2.673590e+001  9.415163e+001 
4053125000  -2.722865e+001  9.182357e+001 
4056250000  -2.784984e+001  9.593511e+001 
4059375000  -2.666958e+001  9.815050e+001 
4062500000  -2.524527e+001  9.378780e+001 
4065625000  -2.513906e+001  8.921217e+001 
4068750000  -2.485554e+001  8.434857e+001 
4071875000  -2.423117e+001  7.660556e+001 
4075000000  -2.451384e+001  7.060343e+001 
4078125000  -2.505488e+001  6.941707e+001 
4081250000  -2.455836e+001  6.722289e+001 
4084375000  -2.418479e+001  6.068730e+001 
4087500000  -2.448164e+001  5.442432e+001 
4090625000  -2.513385e+001  5.300179e+001 
4093750000  -2.494109e+001  5.386768e+001 
4096875000  -2.446278e+001  4.799822e+001 
4100000000  -2.513013e+001  4.096724e+001 
4103125000  -2.599181e+001  4.150747e+001 
4106250000  -2.587226e+001  4.624090e+001 
4109375000  -2.501328e+001  4.600946e+001 
4112500000  -2.447650e+001  3.932621e+001 
4115625000  -2.475359e+001  3.492775e+001 
4118750000  -2.485118e+001  3.213179e+001 
4121875000  -2.448999e+001  2.754905e+001 
4125000000  -2.478155e+001  2.242937e+001 
4128125000  -2.584300e+001  2.242329e+001 
4131250000  -2.562296e+001  2.985125e+001 
4134375000  -2.331173e+001  2.610887e+001 
4137500000  -2.300713e+001  7.201133e+000 
4140625000  -2.517873e+001  -3.489319e-001 
4143750000  -2.651245e+001  5.011825e+000 
4146875000  -2.613380e+001  1.214881e+001 
4150000000  -2.520688e+001  9.031892e+000 
4153125000  -2.504607e+001  2.882612e+000 
4156250000  -2.588563e+001  6.032574e-002 
4159375000  -2.621140e+001  4.404751e+000 
4162500000  -2.508525e+001  8.338273e+000 
4165625000  -2.394691e+001  4.397644e+000 
4168750000  -2.335709e+001  -2.429868e+000 
4171875000  -2.331404e+001  -1.146870e+001 
4175000000  -2.389767e+001  -1.727489e+001 
4178125000  -2.456430e+001  -1.749250e+001 
4181250000  -2.441329e+001  -1.746692e+001 
4184375000  -2.430056e+001  -2.063327e+001 
4187500000  -2.434364e+001  -2.356111e+001 
4190625000  -2.413006e+001  -2.877650e+001 
4193750000  -2.487698e+001  -3.270885e+001 
4196875000  -2.559789e+001  -3.313026e+001 
4200000000  -2.647024e+001  -3.090972e+001 
4203125000  -2.646887e+001  -1.767056e+001 
4206250000  -2.325923e+001  -1.591974e+001 
4209375000  -2.196545e+001  -3.636363e+001 
4212500000  -2.386536e+001  -4.534204e+001 
4215625000  -2.485884e+001  -3.915497e+001 
4218750000  -2.358173e+001  -3.216656e+001 
4221875000  -2.122868e+001  -4.151793e+001 
4225000000  -2.239917e+001  -5.415409e+001 
4228125000  -2.317326e+001  -4.897974e+001 
4231250000  -2.160768e+001  -5.226586e+001 
4234375000  -2.149289e+001  -6.079414e+001 
4237500000  -2.112483e+001  -6.413283e+001 
4240625000  -2.110404e+001  -7.258534e+001 
4243750000  -2.202501e+001  -7.922438e+001 
4246875000  -2.292008e+001  -7.973080e+001 
4250000000  -2.298748e+001  -7.695509e+001 
4253125000  -2.239272e+001  -7.859384e+001 
4256250000  -2.268289e+001  -8.298467e+001 
4259375000  -2.242406e+001  -8.499027e+001 
4262500000  -2.243697e+001  -8.833467e+001 
4265625000  -2.261225e+001  -8.849629e+001 
4268750000  -2.176038e+001  -9.212665e+001 
4271875000  -2.151308e+001  -9.790667e+001 
4275000000  -2.091176e+001  -1.042758e+002 
4278125000  -2.146936e+001  -1.155289e+002 
4281250000  -2.332839e+001  -1.177601e+002 
4284375000  -2.299790e+001  -1.167040e+002 
4287500000  -2.375387e+001  -1.204659e+002 
4290625000  -2.502600e+001  -1.112423e+002 
4293750000  -2.304324e+001  -1.051806e+002 
4296875000  -2.168514e+001  -1.165935e+002 
4300000000  -2.252043e+001  -1.258262e+002 
4303125000  -2.366393e+001  -1.249766e+002 
4306250000  -2.309432e+001  -1.186950e+002 
4309375000  -2.174724e+001  -1.208351e+002 
4312500000  -2.161449e+001  -1.288286e+002 
4315625000  -2.179849e+001  -1.349250e+002 
4318750000  -2.214404e+001  -1.383703e+002 
4321875000  -2.229286e+001  -1.379711e+002 
4325000000  -2.175062e+001  -1.373426e+002 
4328125000  -2.126125e+001  -1.436288e+002 
4331250000  -2.120966e+001  -1.514492e+002 
4334375000  -2.160414e+001  -1.565032e+002 
4337500000  -2.239848e+001  -1.584987e+002 
4340625000  -2.297845e+001  -1.557800e+002 
4343750000  -2.238976e+001  -1.549359e+002 
4346875000  -2.199592e+001  -1.605044e+002 
4350000000  -2.201479e+001  -1.649746e+002 
4353125000  -2.200123e+001  -1.728988e+002 
4356250000  -2.369427e+001  -1.745243e+002 
4359375000  -2.437525e+001  -1.611450e+002 
4362500000  -2.177936e+001  -1.588085e+002 
4365625000  -2.014889e+001  -1.701235e+002 
4368750000  -2.074943e+001  1.776096e+002 
4371875000  -2.203621e+001  1.782511e+002 
4375000000  -2.170612e+001  1.796396e+002 
4378125000  -2.104762e+001  1.737319e+002 
4381250000  -2.122027e+001  1.685034e+002 
4384375000  -2.103123e+001  1.641066e+002 
4387500000  -2.170775e+001  1.580324e+002 
4390625000  -2.278566e+001  1.589452e+002 
4393750000  -2.209992e+001  1.609554e+002 
4396875000  -2.143521e+001  1.589198e+002 
4400000000  -2.091831e+001  1.516721e+002 
4403125000  -2.149800e+001  1.444364e+002 
4406250000  -2.234003e+001  1.431016e+002 
4409375000  -2.228997e+001  1.407244e+002 
4412500000  -2.331707e+001  1.379337e+002 
4415625000  -2.372110e+001  1.425694e+002 
4418750000  -2.255835e+001  1.469921e+002 
4421875000  -2.112698e+001  1.433843e+002 
