!Agilent Technologies,E8363B,MY43030201,A.06.04.32
!Agilent E8363B: A.06.04.32
!Date: Tuesday, November 11, 2014 20:45:58
!Correction: S21(Response(S21)) 
!S1P File: Measurement: S21:
# Hz S  dB   R 50
3000000000  -2.654203e+001  1.583976e+002 
3003125000  -2.788446e+001  1.539072e+002 
3006250000  -2.796424e+001  1.510440e+002 
3009375000  -2.826895e+001  1.562223e+002 
3012500000  -2.785208e+001  1.560410e+002 
3015625000  -2.684232e+001  1.489806e+002 
3018750000  -2.769781e+001  1.478551e+002 
3021875000  -2.644536e+001  1.491901e+002 
3025000000  -2.515104e+001  1.464301e+002 
3028125000  -2.419127e+001  1.415423e+002 
3031250000  -2.313317e+001  1.303381e+002 
3034375000  -2.276488e+001  1.174287e+002 
3037500000  -2.304063e+001  1.055093e+002 
3040625000  -2.442703e+001  1.002852e+002 
3043750000  -2.512309e+001  9.602702e+001 
3046875000  -2.518570e+001  8.966767e+001 
3050000000  -2.696137e+001  8.261499e+001 
3053125000  -2.713597e+001  8.897518e+001 
3056250000  -2.645839e+001  9.207038e+001 
3059375000  -2.673258e+001  9.189717e+001 
3062500000  -2.522815e+001  8.767606e+001 
3065625000  -2.502117e+001  8.246927e+001 
3068750000  -2.469080e+001  7.548802e+001 
3071875000  -2.466796e+001  7.240214e+001 
3075000000  -2.466018e+001  6.857026e+001 
3078125000  -2.436999e+001  6.410297e+001 
3081250000  -2.496959e+001  6.008522e+001 
3084375000  -2.424203e+001  5.651507e+001 
3087500000  -2.413032e+001  5.273530e+001 
3090625000  -2.384092e+001  4.317186e+001 
3093750000  -2.421379e+001  3.515129e+001 
3096875000  -2.553473e+001  2.895622e+001 
3100000000  -2.566059e+001  2.741047e+001 
3103125000  -2.604903e+001  2.911276e+001 
3106250000  -2.580202e+001  2.543745e+001 
3109375000  -2.602533e+001  2.198604e+001 
3112500000  -2.616089e+001  2.107434e+001 
3115625000  -2.594843e+001  1.664858e+001 
3118750000  -2.644867e+001  1.805493e+001 
3121875000  -2.576869e+001  1.018030e+001 
3125000000  -2.688252e+001  6.386205e+000 
3128125000  -2.811184e+001  1.432817e+001 
3131250000  -2.599909e+001  1.496842e+001 
3134375000  -2.459242e+001  1.520204e+000 
3137500000  -2.525218e+001  -1.226101e+001 
3140625000  -2.692760e+001  -1.415239e+001 
3143750000  -2.792924e+001  -9.694771e+000 
3146875000  -2.750593e+001  -8.113314e+000 
3150000000  -2.651591e+001  -5.936478e+000 
3153125000  -2.644940e+001  -1.317956e+001 
3156250000  -2.740915e+001  -8.385987e+000 
3159375000  -2.592722e+001  -5.288722e+000 
3162500000  -2.387886e+001  -1.792057e+001 
3165625000  -2.476087e+001  -2.901260e+001 
3168750000  -2.524494e+001  -2.819615e+001 
3171875000  -2.427964e+001  -3.230386e+001 
3175000000  -2.488609e+001  -4.008852e+001 
3178125000  -2.467547e+001  -3.844711e+001 
3181250000  -2.348964e+001  -4.196498e+001 
3184375000  -2.265839e+001  -5.427882e+001 
3187500000  -2.375904e+001  -6.968605e+001 
3190625000  -2.659705e+001  -7.740097e+001 
3193750000  -2.721696e+001  -6.766615e+001 
3196875000  -2.677933e+001  -6.211786e+001 
3200000000  -2.596684e+001  -6.397247e+001 
3203125000  -2.501733e+001  -6.962149e+001 
3206250000  -2.529565e+001  -7.567476e+001 
3209375000  -2.483139e+001  -8.088849e+001 
3212500000  -2.490720e+001  -8.769900e+001 
3215625000  -2.505894e+001  -9.230479e+001 
3218750000  -2.587707e+001  -9.813219e+001 
3221875000  -2.688400e+001  -1.032335e+002 
3225000000  -2.651206e+001  -1.035630e+002 
3228125000  -2.674193e+001  -1.083004e+002 
3231250000  -2.746132e+001  -1.110416e+002 
3234375000  -2.738421e+001  -1.102843e+002 
3237500000  -2.741882e+001  -1.118206e+002 
3240625000  -2.709000e+001  -1.129345e+002 
3243750000  -2.667646e+001  -1.200125e+002 
3246875000  -2.718750e+001  -1.265389e+002 
3250000000  -2.759713e+001  -1.282907e+002 
3253125000  -2.776172e+001  -1.301557e+002 
3256250000  -2.768335e+001  -1.360441e+002 
3259375000  -2.795726e+001  -1.433648e+002 
3262500000  -2.920971e+001  -1.462968e+002 
3265625000  -2.990832e+001  -1.433358e+002 
3268750000  -2.986947e+001  -1.404793e+002 
3271875000  -2.965089e+001  -1.392040e+002 
3275000000  -2.859555e+001  -1.443275e+002 
3278125000  -2.904783e+001  -1.510220e+002 
3281250000  -2.932280e+001  -1.487269e+002 
3284375000  -2.885269e+001  -1.545670e+002 
3287500000  -2.907454e+001  -1.575343e+002 
3290625000  -2.948832e+001  -1.617542e+002 
3293750000  -2.916806e+001  -1.670860e+002 
3296875000  -3.011116e+001  -1.672546e+002 
3300000000  -3.003774e+001  -1.661138e+002 
3303125000  -2.888239e+001  -1.697855e+002 
3306250000  -2.866226e+001  -1.762723e+002 
3309375000  -2.844422e+001  1.784289e+002 
3312500000  -2.848399e+001  1.685661e+002 
3315625000  -2.946646e+001  1.605266e+002 
3318750000  -3.074445e+001  1.574995e+002 
3321875000  -3.200183e+001  1.574825e+002 
3325000000  -3.256285e+001  1.621680e+002 
3328125000  -3.260826e+001  1.638013e+002 
3331250000  -3.136350e+001  1.720002e+002 
3334375000  -2.870834e+001  1.622324e+002 
3337500000  -2.876447e+001  1.438296e+002 
3340625000  -3.001994e+001  1.330319e+002 
3343750000  -3.194675e+001  1.317323e+002 
3346875000  -3.250435e+001  1.327695e+002 
3350000000  -3.192205e+001  1.319149e+002 
3353125000  -3.197232e+001  1.272199e+002 
3356250000  -3.170812e+001  1.198231e+002 
3359375000  -3.255495e+001  1.114981e+002 
3362500000  -3.386997e+001  1.057070e+002 
3365625000  -3.446444e+001  1.047267e+002 
3368750000  -3.545847e+001  1.023025e+002 
3371875000  -3.580213e+001  9.908232e+001 
3375000000  -3.743938e+001  9.642257e+001 
3378125000  -3.848927e+001  9.668035e+001 
3381250000  -3.993861e+001  1.040846e+002 
3384375000  -3.940114e+001  1.258960e+002 
3387500000  -3.602483e+001  1.116964e+002 
3390625000  -3.779098e+001  9.230343e+001 
3393750000  -3.955344e+001  9.773452e+001 
3396875000  -3.859214e+001  1.005773e+002 
3400000000  -3.854457e+001  9.205334e+001 
3403125000  -3.983409e+001  8.797497e+001 
3406250000  -4.055228e+001  9.097103e+001 
3409375000  -4.105500e+001  8.691942e+001 
3412500000  -4.205502e+001  8.837189e+001 
3415625000  -4.308227e+001  9.347604e+001 
3418750000  -4.335972e+001  9.686933e+001 
3421875000  -4.364664e+001  1.022920e+002 
3425000000  -4.290860e+001  1.062441e+002 
3428125000  -4.171967e+001  1.070633e+002 
3431250000  -4.179911e+001  1.033540e+002 
3434375000  -4.152690e+001  1.003912e+002 
3437500000  -4.187845e+001  9.790152e+001 
3440625000  -4.234629e+001  1.016165e+002 
3443750000  -4.107154e+001  1.020740e+002 
3446875000  -4.020799e+001  9.902509e+001 
3450000000  -4.019625e+001  8.840083e+001 
3453125000  -4.029902e+001  8.004201e+001 
3456250000  -4.143526e+001  7.619143e+001 
3459375000  -4.244489e+001  7.788103e+001 
3462500000  -4.248973e+001  7.765531e+001 
3465625000  -4.278598e+001  7.413075e+001 
3468750000  -4.302354e+001  7.229621e+001 
3471875000  -4.318601e+001  7.311216e+001 
3475000000  -4.282286e+001  6.866647e+001 
3478125000  -4.356824e+001  6.383856e+001 
3481250000  -4.496460e+001  6.142287e+001 
3484375000  -4.669195e+001  6.662511e+001 
3487500000  -4.581123e+001  7.057528e+001 
3490625000  -4.534024e+001  6.968718e+001 
3493750000  -4.583097e+001  6.299758e+001 
3496875000  -4.705792e+001  6.732389e+001 
3500000000  -4.831635e+001  7.659423e+001 
3503125000  -4.869018e+001  7.860989e+001 
3506250000  -4.730886e+001  7.780121e+001 
3509375000  -4.739453e+001  7.460393e+001 
3512500000  -4.753707e+001  7.598882e+001 
3515625000  -4.777471e+001  8.240952e+001 
3518750000  -4.827116e+001  8.331696e+001 
3521875000  -4.834296e+001  9.398399e+001 
3525000000  -4.793222e+001  8.590654e+001 
3528125000  -4.841673e+001  1.020873e+002 
3531250000  -4.626688e+001  1.014715e+002 
3534375000  -4.536054e+001  9.310324e+001 
3537500000  -4.523723e+001  9.307388e+001 
3540625000  -4.579545e+001  9.153629e+001 
3543750000  -4.629981e+001  9.422768e+001 
3546875000  -4.567916e+001  1.072499e+002 
3550000000  -4.312364e+001  1.096772e+002 
3553125000  -4.166230e+001  9.128118e+001 
3556250000  -4.265544e+001  8.658366e+001 
3559375000  -4.249559e+001  8.990292e+001 
3562500000  -4.113235e+001  8.083537e+001 
3565625000  -4.180144e+001  7.463818e+001 
3568750000  -4.215435e+001  7.839620e+001 
3571875000  -4.170336e+001  7.837749e+001 
3575000000  -4.107283e+001  7.251788e+001 
3578125000  -4.186407e+001  6.953629e+001 
3581250000  -4.154019e+001  7.003471e+001 
3584375000  -4.102386e+001  6.894289e+001 
3587500000  -4.016669e+001  6.226653e+001 
3590625000  -4.074390e+001  5.409119e+001 
3593750000  -4.130234e+001  5.363836e+001 
3596875000  -4.151901e+001  6.071460e+001 
3600000000  -4.004008e+001  5.929906e+001 
3603125000  -4.017392e+001  4.539709e+001 
3606250000  -4.052981e+001  4.272171e+001 
3609375000  -4.113004e+001  4.177934e+001 
3612500000  -4.139811e+001  3.913781e+001 
3615625000  -4.147751e+001  3.776641e+001 
3618750000  -4.214334e+001  4.103251e+001 
3621875000  -4.165818e+001  4.111632e+001 
3625000000  -4.230923e+001  3.940853e+001 
3628125000  -4.191236e+001  3.904878e+001 
3631250000  -4.143439e+001  3.339809e+001 
3634375000  -4.246272e+001  3.350147e+001 
3637500000  -4.227898e+001  4.085784e+001 
3640625000  -4.113617e+001  4.086953e+001 
3643750000  -4.068093e+001  3.585042e+001 
3646875000  -4.140797e+001  3.003085e+001 
3650000000  -4.170154e+001  2.981472e+001 
3653125000  -4.153383e+001  3.007497e+001 
3656250000  -4.194019e+001  2.777748e+001 
3659375000  -4.208913e+001  3.203252e+001 
3662500000  -4.152165e+001  3.184700e+001 
3665625000  -4.132409e+001  3.116934e+001 
3668750000  -4.055760e+001  3.345022e+001 
3671875000  -3.960689e+001  2.814473e+001 
3675000000  -3.984865e+001  2.149543e+001 
3678125000  -4.046659e+001  2.386169e+001 
3681250000  -4.008232e+001  2.575301e+001 
3684375000  -3.971184e+001  2.292653e+001 
3687500000  -4.005559e+001  2.224296e+001 
3690625000  -3.973434e+001  1.850146e+001 
3693750000  -4.055428e+001  2.131794e+001 
3696875000  -3.998283e+001  2.350395e+001 
3700000000  -3.911480e+001  2.238188e+001 
3703125000  -3.887585e+001  1.937659e+001 
3706250000  -3.949745e+001  2.255473e+001 
3709375000  -3.891385e+001  2.382759e+001 
3712500000  -3.724558e+001  2.397838e+001 
3715625000  -3.651390e+001  1.882749e+001 
3718750000  -3.566631e+001  1.614556e+001 
3721875000  -3.530531e+001  1.086724e+001 
3725000000  -3.521087e+001  5.701875e+000 
3728125000  -3.545790e+001  5.218291e+000 
3731250000  -3.468497e+001  4.488701e+000 
3734375000  -3.348622e+001  -1.867731e+000 
3737500000  -3.404579e+001  -9.352597e+000 
3740625000  -3.495259e+001  -1.093842e+001 
3743750000  -3.457093e+001  -1.351077e+001 
3746875000  -3.455438e+001  -1.719848e+001 
3750000000  -3.486463e+001  -1.770337e+001 
3753125000  -3.452876e+001  -1.871791e+001 
3756250000  -3.449732e+001  -1.927971e+001 
3759375000  -3.423747e+001  -1.987628e+001 
3762500000  -3.360898e+001  -2.439820e+001 
3765625000  -3.417802e+001  -2.729209e+001 
3768750000  -3.434407e+001  -2.540876e+001 
3771875000  -3.245088e+001  -2.744687e+001 
3775000000  -3.230587e+001  -3.491273e+001 
3778125000  -3.260426e+001  -3.711670e+001 
3781250000  -3.240148e+001  -4.012056e+001 
3784375000  -3.217353e+001  -4.153148e+001 
3787500000  -3.162666e+001  -4.548013e+001 
3790625000  -3.215299e+001  -5.122353e+001 
3793750000  -3.243252e+001  -5.221883e+001 
3796875000  -3.153920e+001  -5.326147e+001 
3800000000  -2.997022e+001  -5.644517e+001 
3803125000  -3.071570e+001  -6.360704e+001 
3806250000  -3.133812e+001  -6.618224e+001 
3809375000  -3.125291e+001  -6.720158e+001 
3812500000  -3.040001e+001  -7.190168e+001 
3815625000  -3.094639e+001  -7.889635e+001 
3818750000  -3.191952e+001  -8.066736e+001 
3821875000  -3.202362e+001  -7.267593e+001 
3825000000  -3.024958e+001  -6.786156e+001 
3828125000  -2.879624e+001  -8.153690e+001 
3831250000  -2.933490e+001  -9.546358e+001 
3834375000  -3.071548e+001  -9.642018e+001 
3837500000  -3.156548e+001  -9.111543e+001 
3840625000  -3.041888e+001  -9.181796e+001 
3843750000  -2.934110e+001  -1.026082e+002 
3846875000  -2.992701e+001  -1.090090e+002 
3850000000  -3.117087e+001  -1.041289e+002 
3853125000  -3.041577e+001  -1.016270e+002 
3856250000  -3.038991e+001  -1.061593e+002 
3859375000  -2.974895e+001  -1.110297e+002 
3862500000  -2.923956e+001  -1.177806e+002 
3865625000  -2.951565e+001  -1.227051e+002 
3868750000  -2.947053e+001  -1.226799e+002 
3871875000  -2.879021e+001  -1.257563e+002 
3875000000  -2.900227e+001  -1.344344e+002 
3878125000  -2.992076e+001  -1.370541e+002 
3881250000  -3.001101e+001  -1.340126e+002 
3884375000  -2.954413e+001  -1.388967e+002 
3887500000  -2.956857e+001  -1.428254e+002 
3890625000  -3.016567e+001  -1.453875e+002 
3893750000  -3.057092e+001  -1.465619e+002 
3896875000  -3.067038e+001  -1.458222e+002 
3900000000  -3.087876e+001  -1.470588e+002 
3903125000  -3.058583e+001  -1.489869e+002 
3906250000  -3.039857e+001  -1.509507e+002 
3909375000  -2.968290e+001  -1.520949e+002 
3912500000  -2.967932e+001  -1.601612e+002 
3915625000  -3.083049e+001  -1.589166e+002 
3918750000  -3.087860e+001  -1.575022e+002 
3921875000  -3.057263e+001  -1.594079e+002 
3925000000  -2.977830e+001  -1.589053e+002 
3928125000  -2.913813e+001  -1.651403e+002 
3931250000  -2.949363e+001  -1.689077e+002 
3934375000  -2.975920e+001  -1.687797e+002 
3937500000  -2.988964e+001  -1.695986e+002 
3940625000  -3.030474e+001  -1.696717e+002 
3943750000  -2.943745e+001  -1.674454e+002 
3946875000  -2.818113e+001  -1.734644e+002 
3950000000  -2.865334e+001  1.793811e+002 
3953125000  -2.957450e+001  1.798916e+002 
3956250000  -2.880554e+001  -1.771342e+002 
3959375000  -2.746796e+001  1.793476e+002 
3962500000  -2.691155e+001  1.760010e+002 
3965625000  -2.653743e+001  1.670050e+002 
3968750000  -2.749616e+001  1.599919e+002 
3971875000  -2.794087e+001  1.584945e+002 
3975000000  -2.721726e+001  1.568453e+002 
3978125000  -2.692538e+001  1.558120e+002 
3981250000  -2.675358e+001  1.510645e+002 
3984375000  -2.697088e+001  1.450435e+002 
3987500000  -2.750930e+001  1.424094e+002 
3990625000  -2.742191e+001  1.416081e+002 
3993750000  -2.763117e+001  1.386076e+002 
3996875000  -2.759914e+001  1.359421e+002 
4000000000  -2.768419e+001  1.341179e+002 
4003125000  -2.831762e+001  1.357385e+002 
4006250000  -2.692518e+001  1.360875e+002 
4009375000  -2.569342e+001  1.241081e+002 
4012500000  -2.670306e+001  1.168430e+002 
4015625000  -2.797825e+001  1.170475e+002 
4018750000  -2.822183e+001  1.189818e+002 
4021875000  -2.756665e+001  1.174842e+002 
4025000000  -2.724774e+001  1.128600e+002 
4028125000  -2.713037e+001  1.089022e+002 
4031250000  -2.756964e+001  1.057919e+002 
4034375000  -2.791313e+001  1.056397e+002 
4037500000  -2.737476e+001  1.072361e+002 
4040625000  -2.732426e+001  1.040213e+002 
4043750000  -2.761009e+001  1.037208e+002 
4046875000  -2.722179e+001  1.035551e+002 
4050000000  -2.667505e+001  9.758685e+001 
4053125000  -2.714076e+001  9.584740e+001 
4056250000  -2.775870e+001  9.954315e+001 
4059375000  -2.666290e+001  1.019215e+002 
4062500000  -2.521726e+001  9.725082e+001 
4065625000  -2.506974e+001  9.252596e+001 
4068750000  -2.485763e+001  8.835331e+001 
4071875000  -2.420199e+001  8.089068e+001 
4075000000  -2.450660e+001  7.434681e+001 
4078125000  -2.506327e+001  7.310825e+001 
4081250000  -2.461147e+001  7.105152e+001 
4084375000  -2.416079e+001  6.460368e+001 
4087500000  -2.450188e+001  5.794341e+001 
4090625000  -2.506536e+001  5.684554e+001 
4093750000  -2.498950e+001  5.775498e+001 
4096875000  -2.449212e+001  5.180777e+001 
4100000000  -2.512938e+001  4.460651e+001 
4103125000  -2.592919e+001  4.497150e+001 
4106250000  -2.589070e+001  4.994508e+001 
4109375000  -2.501281e+001  4.964500e+001 
4112500000  -2.444035e+001  4.314013e+001 
4115625000  -2.475173e+001  3.865538e+001 
4118750000  -2.487313e+001  3.596030e+001 
4121875000  -2.448159e+001  3.173265e+001 
4125000000  -2.475912e+001  2.633887e+001 
4128125000  -2.581436e+001  2.574818e+001 
4131250000  -2.559184e+001  3.357157e+001 
4134375000  -2.331592e+001  2.992065e+001 
4137500000  -2.296122e+001  1.118241e+001 
4140625000  -2.509735e+001  3.673215e+000 
4143750000  -2.643116e+001  8.058928e+000 
4146875000  -2.607497e+001  1.567944e+001 
4150000000  -2.522378e+001  1.294906e+001 
4153125000  -2.506258e+001  6.539767e+000 
4156250000  -2.588844e+001  3.586603e+000 
4159375000  -2.622582e+001  7.844884e+000 
4162500000  -2.512379e+001  1.226195e+001 
4165625000  -2.396594e+001  8.440950e+000 
4168750000  -2.332916e+001  1.214848e+000 
4171875000  -2.334582e+001  -7.731194e+000 
4175000000  -2.391123e+001  -1.395058e+001 
4178125000  -2.453969e+001  -1.404208e+001 
4181250000  -2.443144e+001  -1.407603e+001 
4184375000  -2.428630e+001  -1.731141e+001 
4187500000  -2.437524e+001  -1.983918e+001 
4190625000  -2.417658e+001  -2.525089e+001 
4193750000  -2.490341e+001  -2.896040e+001 
4196875000  -2.556280e+001  -2.924122e+001 
4200000000  -2.641889e+001  -2.760558e+001 
4203125000  -2.657565e+001  -1.482000e+001 
4206250000  -2.324437e+001  -1.211811e+001 
4209375000  -2.198952e+001  -3.199898e+001 
4212500000  -2.382961e+001  -4.119931e+001 
4215625000  -2.486830e+001  -3.551240e+001 
4218750000  -2.363478e+001  -2.839754e+001 
4221875000  -2.123221e+001  -3.726210e+001 
4225000000  -2.245811e+001  -5.042941e+001 
4228125000  -2.324414e+001  -4.523566e+001 
4231250000  -2.169627e+001  -4.881857e+001 
4234375000  -2.153043e+001  -5.689155e+001 
4237500000  -2.113286e+001  -6.043847e+001 
4240625000  -2.111026e+001  -6.865388e+001 
4243750000  -2.206545e+001  -7.538682e+001 
4246875000  -2.296067e+001  -7.560029e+001 
4250000000  -2.302779e+001  -7.293333e+001 
4253125000  -2.241777e+001  -7.513914e+001 
4256250000  -2.268295e+001  -7.922436e+001 
4259375000  -2.248583e+001  -8.065328e+001 
4262500000  -2.246278e+001  -8.465039e+001 
4265625000  -2.270235e+001  -8.456763e+001 
4268750000  -2.183438e+001  -8.838354e+001 
4271875000  -2.154148e+001  -9.401129e+001 
4275000000  -2.095720e+001  -1.004852e+002 
4278125000  -2.151437e+001  -1.116326e+002 
4281250000  -2.334174e+001  -1.139158e+002 
4284375000  -2.303812e+001  -1.127635e+002 
4287500000  -2.378492e+001  -1.163321e+002 
4290625000  -2.510108e+001  -1.074553e+002 
4293750000  -2.314906e+001  -1.016548e+002 
4296875000  -2.176075e+001  -1.125557e+002 
4300000000  -2.257034e+001  -1.219705e+002 
4303125000  -2.371529e+001  -1.213490e+002 
4306250000  -2.321531e+001  -1.154797e+002 
4309375000  -2.181628e+001  -1.167276e+002 
4312500000  -2.167693e+001  -1.250432e+002 
4315625000  -2.187300e+001  -1.306662e+002 
4318750000  -2.218779e+001  -1.344005e+002 
4321875000  -2.238864e+001  -1.339127e+002 
4325000000  -2.178570e+001  -1.334317e+002 
4328125000  -2.133139e+001  -1.394389e+002 
4331250000  -2.126619e+001  -1.474982e+002 
4334375000  -2.164480e+001  -1.524225e+002 
4337500000  -2.241819e+001  -1.548227e+002 
4340625000  -2.305422e+001  -1.515459e+002 
4343750000  -2.246092e+001  -1.511183e+002 
4346875000  -2.208294e+001  -1.564472e+002 
4350000000  -2.206574e+001  -1.607804e+002 
4353125000  -2.202278e+001  -1.687102e+002 
4356250000  -2.370020e+001  -1.701169e+002 
4359375000  -2.440931e+001  -1.575027e+002 
4362500000  -2.184333e+001  -1.546527e+002 
4365625000  -2.015458e+001  -1.656693e+002 
4368750000  -2.082700e+001  -1.781261e+002 
4371875000  -2.206547e+001  -1.777613e+002 
4375000000  -2.179057e+001  -1.762344e+002 
4378125000  -2.110719e+001  1.779411e+002 
4381250000  -2.128716e+001  1.724729e+002 
4384375000  -2.106722e+001  1.682848e+002 
4387500000  -2.176740e+001  1.620573e+002 
4390625000  -2.282605e+001  1.627851e+002 
4393750000  -2.216256e+001  1.650474e+002 
4396875000  -2.148351e+001  1.628455e+002 
4400000000  -2.097043e+001  1.562360e+002 
4403125000  -2.148516e+001  1.482792e+002 
4406250000  -2.241391e+001  1.472320e+002 
4409375000  -2.234329e+001  1.445677e+002 
4412500000  -2.337937e+001  1.420025e+002 
4415625000  -2.380908e+001  1.464300e+002 
4418750000  -2.266571e+001  1.513094e+002 
