!Agilent Technologies,E8363B,MY43030201,A.06.04.32
!Agilent E8363B: A.06.04.32
!Date: Tuesday, November 11, 2014 20:46:58
!Correction: S21(Response(S21)) 
!S1P File: Measurement: S21:
# Hz S  dB   R 50
3000000000  -2.647065e+001  1.561971e+002 
3003125000  -2.784773e+001  1.519063e+002 
3006250000  -2.793878e+001  1.489098e+002 
3009375000  -2.824083e+001  1.537475e+002 
3012500000  -2.771951e+001  1.536836e+002 
3015625000  -2.677978e+001  1.466757e+002 
3018750000  -2.762555e+001  1.456579e+002 
3021875000  -2.638247e+001  1.470152e+002 
3025000000  -2.508410e+001  1.441415e+002 
3028125000  -2.411250e+001  1.393721e+002 
3031250000  -2.308564e+001  1.281162e+002 
3034375000  -2.269668e+001  1.152698e+002 
3037500000  -2.301925e+001  1.032356e+002 
3040625000  -2.435908e+001  9.812805e+001 
3043750000  -2.506774e+001  9.381460e+001 
3046875000  -2.518692e+001  8.731358e+001 
3050000000  -2.694101e+001  8.013998e+001 
3053125000  -2.712007e+001  8.686543e+001 
3056250000  -2.638382e+001  8.960948e+001 
3059375000  -2.668418e+001  8.942499e+001 
3062500000  -2.523560e+001  8.564518e+001 
3065625000  -2.496908e+001  8.025395e+001 
3068750000  -2.470141e+001  7.327005e+001 
3071875000  -2.464320e+001  7.010901e+001 
3075000000  -2.464621e+001  6.650196e+001 
3078125000  -2.434260e+001  6.174947e+001 
3081250000  -2.498949e+001  5.770125e+001 
3084375000  -2.425159e+001  5.416590e+001 
3087500000  -2.412021e+001  5.041740e+001 
3090625000  -2.385496e+001  4.101120e+001 
3093750000  -2.423217e+001  3.280514e+001 
3096875000  -2.559452e+001  2.664497e+001 
3100000000  -2.569218e+001  2.531345e+001 
3103125000  -2.606591e+001  2.681089e+001 
3106250000  -2.579093e+001  2.334865e+001 
3109375000  -2.602558e+001  1.973513e+001 
3112500000  -2.620068e+001  1.900744e+001 
3115625000  -2.596407e+001  1.459189e+001 
3118750000  -2.643943e+001  1.570000e+001 
3121875000  -2.582049e+001  8.181897e+000 
3125000000  -2.695667e+001  4.427977e+000 
3128125000  -2.816734e+001  1.252728e+001 
3131250000  -2.602518e+001  1.300592e+001 
3134375000  -2.462906e+001  -2.906635e-001 
3137500000  -2.528873e+001  -1.446431e+001 
3140625000  -2.695192e+001  -1.630190e+001 
3143750000  -2.797447e+001  -1.173188e+001 
3146875000  -2.757813e+001  -9.693805e+000 
3150000000  -2.653290e+001  -7.516880e+000 
3153125000  -2.648352e+001  -1.519882e+001 
3156250000  -2.749511e+001  -1.016907e+001 
3159375000  -2.595977e+001  -7.143161e+000 
3162500000  -2.390197e+001  -1.962934e+001 
3165625000  -2.481540e+001  -3.090587e+001 
3168750000  -2.525958e+001  -3.008703e+001 
3171875000  -2.426454e+001  -3.408342e+001 
3175000000  -2.488485e+001  -4.180965e+001 
3178125000  -2.473855e+001  -4.020759e+001 
3181250000  -2.353394e+001  -4.390248e+001 
3184375000  -2.267482e+001  -5.617570e+001 
3187500000  -2.380455e+001  -7.165879e+001 
3190625000  -2.660533e+001  -7.951680e+001 
3193750000  -2.728116e+001  -6.984041e+001 
3196875000  -2.680031e+001  -6.440553e+001 
3200000000  -2.595719e+001  -6.605903e+001 
3203125000  -2.510901e+001  -7.153320e+001 
3206250000  -2.534298e+001  -7.771675e+001 
3209375000  -2.487519e+001  -8.291722e+001 
3212500000  -2.499392e+001  -8.958010e+001 
3215625000  -2.517467e+001  -9.421535e+001 
3218750000  -2.592286e+001  -1.001127e+002 
3221875000  -2.686784e+001  -1.051521e+002 
3225000000  -2.658674e+001  -1.060929e+002 
3228125000  -2.685329e+001  -1.101572e+002 
3231250000  -2.760137e+001  -1.131965e+002 
3234375000  -2.751381e+001  -1.120659e+002 
3237500000  -2.752468e+001  -1.136240e+002 
3240625000  -2.719057e+001  -1.152577e+002 
3243750000  -2.678343e+001  -1.217208e+002 
3246875000  -2.727222e+001  -1.286062e+002 
3250000000  -2.772453e+001  -1.302120e+002 
3253125000  -2.790020e+001  -1.322985e+002 
3256250000  -2.775494e+001  -1.379620e+002 
3259375000  -2.810138e+001  -1.455891e+002 
3262500000  -2.926655e+001  -1.482670e+002 
3265625000  -3.005407e+001  -1.453498e+002 
3268750000  -3.001100e+001  -1.424100e+002 
3271875000  -2.973538e+001  -1.412240e+002 
3275000000  -2.866654e+001  -1.459173e+002 
3278125000  -2.911586e+001  -1.528003e+002 
3281250000  -2.943779e+001  -1.505656e+002 
3284375000  -2.900341e+001  -1.565806e+002 
3287500000  -2.913148e+001  -1.596320e+002 
3290625000  -2.957018e+001  -1.633933e+002 
3293750000  -2.921654e+001  -1.690630e+002 
3296875000  -3.024725e+001  -1.692663e+002 
3300000000  -3.023330e+001  -1.683320e+002 
3303125000  -2.906063e+001  -1.717914e+002 
3306250000  -2.880910e+001  -1.784685e+002 
3309375000  -2.861722e+001  1.765550e+002 
3312500000  -2.865286e+001  1.662657e+002 
3315625000  -2.960658e+001  1.581070e+002 
3318750000  -3.091406e+001  1.558462e+002 
3321875000  -3.222525e+001  1.545367e+002 
3325000000  -3.271830e+001  1.597506e+002 
3328125000  -3.268810e+001  1.613964e+002 
3331250000  -3.150884e+001  1.689350e+002 
3334375000  -2.888113e+001  1.602234e+002 
3337500000  -2.893919e+001  1.419434e+002 
3340625000  -3.025903e+001  1.307841e+002 
3343750000  -3.218603e+001  1.290470e+002 
3346875000  -3.279030e+001  1.304758e+002 
3350000000  -3.214314e+001  1.292215e+002 
3353125000  -3.226196e+001  1.246525e+002 
3356250000  -3.196677e+001  1.175825e+002 
3359375000  -3.289458e+001  1.093218e+002 
3362500000  -3.412189e+001  1.034156e+002 
3365625000  -3.480451e+001  1.023839e+002 
3368750000  -3.576366e+001  1.008556e+002 
3371875000  -3.610238e+001  9.697078e+001 
3375000000  -3.766459e+001  9.462922e+001 
3378125000  -3.872302e+001  9.506480e+001 
3381250000  -4.040243e+001  1.021578e+002 
3384375000  -3.943407e+001  1.242095e+002 
3387500000  -3.633916e+001  1.100281e+002 
3390625000  -3.815889e+001  9.224673e+001 
3393750000  -4.007991e+001  9.597927e+001 
3396875000  -3.914207e+001  9.911192e+001 
3400000000  -3.920004e+001  9.110049e+001 
3403125000  -4.022381e+001  8.792793e+001 
3406250000  -4.098598e+001  9.079654e+001 
3409375000  -4.175747e+001  8.664117e+001 
3412500000  -4.272600e+001  8.691125e+001 
3415625000  -4.356727e+001  9.298446e+001 
3418750000  -4.378001e+001  9.505974e+001 
3421875000  -4.392575e+001  1.041377e+002 
3425000000  -4.307977e+001  1.074416e+002 
3428125000  -4.228459e+001  1.074317e+002 
3431250000  -4.229835e+001  1.041729e+002 
3434375000  -4.194115e+001  9.946476e+001 
3437500000  -4.223389e+001  9.839754e+001 
3440625000  -4.274150e+001  1.011263e+002 
3443750000  -4.149678e+001  1.043597e+002 
3446875000  -4.069147e+001  1.000776e+002 
3450000000  -4.054615e+001  9.029218e+001 
3453125000  -4.071749e+001  8.293487e+001 
3456250000  -4.194981e+001  7.906695e+001 
3459375000  -4.254586e+001  7.847699e+001 
3462500000  -4.292480e+001  7.933604e+001 
3465625000  -4.324514e+001  7.630596e+001 
3468750000  -4.318314e+001  7.418636e+001 
3471875000  -4.340451e+001  7.479760e+001 
3475000000  -4.336632e+001  7.204733e+001 
3478125000  -4.403313e+001  6.671403e+001 
3481250000  -4.525933e+001  6.445139e+001 
3484375000  -4.636645e+001  7.295988e+001 
3487500000  -4.612679e+001  7.719990e+001 
3490625000  -4.571366e+001  7.072305e+001 
3493750000  -4.615141e+001  6.960065e+001 
3496875000  -4.751519e+001  7.020599e+001 
3500000000  -4.782995e+001  7.727396e+001 
3503125000  -4.823243e+001  8.419724e+001 
3506250000  -4.726979e+001  8.259084e+001 
3509375000  -4.717879e+001  8.476741e+001 
3512500000  -4.799972e+001  8.059176e+001 
3515625000  -4.754910e+001  8.341313e+001 
3518750000  -4.803146e+001  8.629552e+001 
3521875000  -4.742061e+001  9.208230e+001 
3525000000  -4.778223e+001  9.130600e+001 
3528125000  -4.715289e+001  1.044119e+002 
3531250000  -4.617263e+001  1.054606e+002 
3534375000  -4.531456e+001  9.534865e+001 
3537500000  -4.509172e+001  9.275156e+001 
3540625000  -4.521547e+001  9.316125e+001 
3543750000  -4.567397e+001  9.434216e+001 
3546875000  -4.533626e+001  1.062204e+002 
3550000000  -4.269004e+001  1.091604e+002 
3553125000  -4.127930e+001  9.224963e+001 
3556250000  -4.200281e+001  8.762109e+001 
3559375000  -4.181769e+001  8.907761e+001 
3562500000  -4.050925e+001  8.142092e+001 
3565625000  -4.165345e+001  7.507902e+001 
3568750000  -4.121942e+001  7.919218e+001 
3571875000  -4.139570e+001  7.802849e+001 
3575000000  -4.074531e+001  7.274810e+001 
3578125000  -4.111987e+001  6.806203e+001 
3581250000  -4.113510e+001  6.829532e+001 
3584375000  -4.031016e+001  6.890270e+001 
3587500000  -3.971608e+001  6.206183e+001 
3590625000  -4.015938e+001  5.304836e+001 
3593750000  -4.098538e+001  5.312541e+001 
3596875000  -4.080091e+001  6.025085e+001 
3600000000  -3.921059e+001  5.500376e+001 
3603125000  -3.940569e+001  4.390619e+001 
3606250000  -4.016319e+001  3.935082e+001 
3609375000  -4.053576e+001  3.897057e+001 
3612500000  -4.102822e+001  3.564153e+001 
3615625000  -4.132170e+001  3.450200e+001 
3618750000  -4.170507e+001  3.628131e+001 
3621875000  -4.128667e+001  3.452440e+001 
3625000000  -4.155670e+001  3.612470e+001 
3628125000  -4.176350e+001  3.399003e+001 
3631250000  -4.123408e+001  3.128991e+001 
3634375000  -4.217900e+001  3.200458e+001 
3637500000  -4.213853e+001  3.651530e+001 
3640625000  -4.096674e+001  3.703177e+001 
3643750000  -4.091722e+001  3.322062e+001 
3646875000  -4.144455e+001  2.777256e+001 
3650000000  -4.180402e+001  2.800904e+001 
3653125000  -4.170622e+001  2.778840e+001 
3656250000  -4.174274e+001  2.676723e+001 
3659375000  -4.236026e+001  3.099816e+001 
3662500000  -4.165376e+001  3.130648e+001 
3665625000  -4.158837e+001  3.062282e+001 
3668750000  -4.041383e+001  3.307312e+001 
3671875000  -3.919300e+001  2.934909e+001 
3675000000  -3.983599e+001  2.181002e+001 
3678125000  -4.040860e+001  2.374284e+001 
3681250000  -3.988284e+001  2.520430e+001 
3684375000  -3.979509e+001  2.192378e+001 
3687500000  -3.960097e+001  2.039804e+001 
3690625000  -3.951354e+001  1.827056e+001 
3693750000  -4.002068e+001  1.981829e+001 
3696875000  -3.987645e+001  2.312686e+001 
3700000000  -3.886938e+001  2.207005e+001 
3703125000  -3.858593e+001  1.701613e+001 
3706250000  -3.930157e+001  2.066992e+001 
3709375000  -3.855862e+001  2.208539e+001 
3712500000  -3.719991e+001  2.224079e+001 
3715625000  -3.633691e+001  1.609947e+001 
3718750000  -3.558756e+001  1.474921e+001 
3721875000  -3.526399e+001  8.050712e+000 
3725000000  -3.518209e+001  4.048527e+000 
3728125000  -3.520512e+001  2.003861e+000 
3731250000  -3.467426e+001  2.556706e+000 
3734375000  -3.365892e+001  -4.482745e+000 
3737500000  -3.429677e+001  -1.105636e+001 
3740625000  -3.492639e+001  -1.501562e+001 
3743750000  -3.476320e+001  -1.616460e+001 
3746875000  -3.465750e+001  -2.028667e+001 
3750000000  -3.509275e+001  -2.107880e+001 
3753125000  -3.471832e+001  -2.040358e+001 
3756250000  -3.451649e+001  -2.189649e+001 
3759375000  -3.450135e+001  -2.234548e+001 
3762500000  -3.373499e+001  -2.548190e+001 
3765625000  -3.433750e+001  -2.781450e+001 
3768750000  -3.441046e+001  -2.604539e+001 
3771875000  -3.260236e+001  -2.841770e+001 
3775000000  -3.240192e+001  -3.616529e+001 
3778125000  -3.282785e+001  -3.763170e+001 
3781250000  -3.255108e+001  -4.057911e+001 
3784375000  -3.233240e+001  -4.200529e+001 
3787500000  -3.166329e+001  -4.592619e+001 
3790625000  -3.224888e+001  -5.143205e+001 
3793750000  -3.236793e+001  -5.142878e+001 
3796875000  -3.154389e+001  -5.379315e+001 
3800000000  -3.004780e+001  -5.702688e+001 
3803125000  -3.072330e+001  -6.385864e+001 
3806250000  -3.124876e+001  -6.617026e+001 
3809375000  -3.103708e+001  -6.733389e+001 
3812500000  -3.036600e+001  -7.279702e+001 
3815625000  -3.089080e+001  -7.906267e+001 
3818750000  -3.184596e+001  -8.101095e+001 
3821875000  -3.206915e+001  -7.380041e+001 
3825000000  -3.012333e+001  -6.969754e+001 
3828125000  -2.871142e+001  -8.226319e+001 
3831250000  -2.930029e+001  -9.637685e+001 
3834375000  -3.051512e+001  -9.763904e+001 
3837500000  -3.149493e+001  -9.322445e+001 
3840625000  -3.037643e+001  -9.356792e+001 
3843750000  -2.927884e+001  -1.036180e+002 
3846875000  -2.986985e+001  -1.109990e+002 
3850000000  -3.112894e+001  -1.054722e+002 
3853125000  -3.041613e+001  -1.029634e+002 
3856250000  -3.033075e+001  -1.080434e+002 
3859375000  -2.973722e+001  -1.124372e+002 
3862500000  -2.933395e+001  -1.192888e+002 
3865625000  -2.957505e+001  -1.239664e+002 
3868750000  -2.955796e+001  -1.247191e+002 
3871875000  -2.893207e+001  -1.273781e+002 
3875000000  -2.900606e+001  -1.357752e+002 
3878125000  -2.998514e+001  -1.386230e+002 
3881250000  -3.010296e+001  -1.357780e+002 
3884375000  -2.964141e+001  -1.400499e+002 
3887500000  -2.971659e+001  -1.444491e+002 
3890625000  -3.027559e+001  -1.457903e+002 
3893750000  -3.074762e+001  -1.477310e+002 
3896875000  -3.073440e+001  -1.469250e+002 
3900000000  -3.106632e+001  -1.476536e+002 
3903125000  -3.079088e+001  -1.498313e+002 
3906250000  -3.043649e+001  -1.502752e+002 
3909375000  -2.974456e+001  -1.526144e+002 
3912500000  -2.964466e+001  -1.601372e+002 
3915625000  -3.085488e+001  -1.587714e+002 
3918750000  -3.093721e+001  -1.572431e+002 
3921875000  -3.050791e+001  -1.598521e+002 
3925000000  -2.980025e+001  -1.599494e+002 
3928125000  -2.903301e+001  -1.655547e+002 
3931250000  -2.932232e+001  -1.694605e+002 
3934375000  -2.965633e+001  -1.695450e+002 
3937500000  -2.972272e+001  -1.705018e+002 
3940625000  -3.023372e+001  -1.701932e+002 
3943750000  -2.930302e+001  -1.685392e+002 
3946875000  -2.804769e+001  -1.744690e+002 
3950000000  -2.846388e+001  1.778834e+002 
3953125000  -2.949832e+001  1.781535e+002 
3956250000  -2.866316e+001  -1.792412e+002 
3959375000  -2.736469e+001  1.780446e+002 
3962500000  -2.678502e+001  1.735447e+002 
3965625000  -2.647000e+001  1.652103e+002 
3968750000  -2.737605e+001  1.581030e+002 
3971875000  -2.777519e+001  1.567050e+002 
3975000000  -2.713974e+001  1.546324e+002 
3978125000  -2.690995e+001  1.534888e+002 
3981250000  -2.669170e+001  1.489075e+002 
3984375000  -2.690833e+001  1.428250e+002 
3987500000  -2.749296e+001  1.404737e+002 
3990625000  -2.747270e+001  1.392455e+002 
3993750000  -2.769011e+001  1.361638e+002 
3996875000  -2.762272e+001  1.341058e+002 
4000000000  -2.772065e+001  1.319286e+002 
4003125000  -2.839009e+001  1.341232e+002 
4006250000  -2.704417e+001  1.349820e+002 
4009375000  -2.580396e+001  1.229399e+002 
4012500000  -2.679584e+001  1.152682e+002 
4015625000  -2.812046e+001  1.156914e+002 
4018750000  -2.831077e+001  1.179443e+002 
4021875000  -2.759724e+001  1.166454e+002 
4025000000  -2.723005e+001  1.122767e+002 
4028125000  -2.720762e+001  1.082955e+002 
4031250000  -2.760991e+001  1.057088e+002 
4034375000  -2.792519e+001  1.052502e+002 
4037500000  -2.737881e+001  1.073675e+002 
4040625000  -2.727000e+001  1.038220e+002 
4043750000  -2.761093e+001  1.028503e+002 
4046875000  -2.719299e+001  1.027349e+002 
4050000000  -2.668632e+001  9.732576e+001 
4053125000  -2.710356e+001  9.502424e+001 
4056250000  -2.772569e+001  9.886662e+001 
4059375000  -2.657319e+001  1.008699e+002 
4062500000  -2.511312e+001  9.670853e+001 
4065625000  -2.492321e+001  9.186786e+001 
4068750000  -2.464138e+001  8.705909e+001 
4071875000  -2.398010e+001  7.888906e+001 
4075000000  -2.435258e+001  7.252650e+001 
4078125000  -2.495427e+001  7.128871e+001 
4081250000  -2.445327e+001  6.920208e+001 
4084375000  -2.403919e+001  6.259800e+001 
4087500000  -2.438953e+001  5.604655e+001 
4090625000  -2.495780e+001  5.490467e+001 
4093750000  -2.487875e+001  5.556924e+001 
4096875000  -2.437417e+001  4.975725e+001 
4100000000  -2.506187e+001  4.262123e+001 
4103125000  -2.598782e+001  4.290577e+001 
4106250000  -2.584966e+001  4.773635e+001 
4109375000  -2.503763e+001  4.768427e+001 
4112500000  -2.448294e+001  4.077935e+001 
4115625000  -2.474245e+001  3.658012e+001 
4118750000  -2.489821e+001  3.356643e+001 
4121875000  -2.457062e+001  2.901611e+001 
4125000000  -2.488961e+001  2.432097e+001 
4128125000  -2.585889e+001  2.388626e+001 
4131250000  -2.563993e+001  3.221177e+001 
4134375000  -2.339330e+001  2.816976e+001 
4137500000  -2.312218e+001  9.341346e+000 
4140625000  -2.523639e+001  1.903343e+000 
4143750000  -2.655449e+001  6.838456e+000 
4146875000  -2.624751e+001  1.440164e+001 
4150000000  -2.533337e+001  1.139053e+001 
4153125000  -2.510725e+001  5.117313e+000 
4156250000  -2.598509e+001  2.402642e+000 
4159375000  -2.629317e+001  7.061553e+000 
4162500000  -2.512633e+001  1.146067e+001 
4165625000  -2.397988e+001  7.422605e+000 
4168750000  -2.336010e+001  1.271302e-001 
4171875000  -2.335423e+001  -8.852027e+000 
4175000000  -2.395473e+001  -1.483545e+001 
4178125000  -2.454020e+001  -1.478592e+001 
4181250000  -2.442413e+001  -1.493058e+001 
4184375000  -2.420440e+001  -1.828836e+001 
4187500000  -2.427724e+001  -2.078982e+001 
4190625000  -2.405521e+001  -2.632827e+001 
4193750000  -2.481407e+001  -3.052063e+001 
4196875000  -2.551676e+001  -3.092039e+001 
4200000000  -2.630277e+001  -2.933701e+001 
4203125000  -2.643814e+001  -1.626719e+001 
4206250000  -2.319682e+001  -1.364421e+001 
4209375000  -2.189284e+001  -3.418854e+001 
4212500000  -2.376023e+001  -4.313084e+001 
4215625000  -2.479388e+001  -3.759491e+001 
4218750000  -2.352459e+001  -3.091592e+001 
4221875000  -2.121396e+001  -3.986811e+001 
4225000000  -2.240208e+001  -5.210257e+001 
4228125000  -2.318779e+001  -4.740615e+001 
4231250000  -2.163893e+001  -5.112886e+001 
4234375000  -2.157735e+001  -5.931408e+001 
4237500000  -2.115375e+001  -6.264387e+001 
4240625000  -2.116839e+001  -7.068826e+001 
4243750000  -2.213829e+001  -7.753413e+001 
4246875000  -2.298354e+001  -7.804754e+001 
4250000000  -2.307622e+001  -7.503965e+001 
4253125000  -2.247882e+001  -7.675306e+001 
4256250000  -2.279685e+001  -8.110514e+001 
4259375000  -2.259485e+001  -8.304485e+001 
4262500000  -2.260622e+001  -8.672618e+001 
4265625000  -2.273586e+001  -8.625672e+001 
4268750000  -2.190597e+001  -9.007883e+001 
4271875000  -2.165439e+001  -9.570644e+001 
4275000000  -2.103336e+001  -1.020411e+002 
4278125000  -2.162857e+001  -1.132996e+002 
4281250000  -2.343446e+001  -1.154299e+002 
4284375000  -2.314404e+001  -1.144944e+002 
4287500000  -2.389759e+001  -1.177628e+002 
4290625000  -2.517357e+001  -1.086946e+002 
4293750000  -2.323856e+001  -1.026870e+002 
4296875000  -2.183969e+001  -1.139779e+002 
4300000000  -2.265571e+001  -1.229217e+002 
4303125000  -2.375000e+001  -1.225313e+002 
4306250000  -2.330443e+001  -1.163711e+002 
4309375000  -2.185892e+001  -1.177099e+002 
4312500000  -2.165821e+001  -1.260235e+002 
4315625000  -2.188213e+001  -1.319442e+002 
4318750000  -2.219580e+001  -1.358178e+002 
4321875000  -2.235874e+001  -1.355537e+002 
4325000000  -2.178228e+001  -1.347554e+002 
4328125000  -2.128171e+001  -1.409134e+002 
4331250000  -2.120231e+001  -1.490703e+002 
4334375000  -2.162010e+001  -1.538039e+002 
4337500000  -2.239661e+001  -1.564240e+002 
4340625000  -2.299490e+001  -1.537462e+002 
4343750000  -2.245155e+001  -1.526895e+002 
4346875000  -2.199169e+001  -1.582610e+002 
4350000000  -2.204921e+001  -1.629690e+002 
4353125000  -2.206131e+001  -1.706587e+002 
4356250000  -2.373138e+001  -1.721897e+002 
4359375000  -2.449013e+001  -1.593810e+002 
4362500000  -2.185429e+001  -1.566324e+002 
4365625000  -2.023366e+001  -1.684971e+002 
4368750000  -2.088286e+001  1.798042e+002 
4371875000  -2.210526e+001  1.799429e+002 
4375000000  -2.184917e+001  -1.787628e+002 
4378125000  -2.118872e+001  1.756789e+002 
4381250000  -2.135003e+001  1.702963e+002 
4384375000  -2.116639e+001  1.658809e+002 
4387500000  -2.187675e+001  1.600425e+002 
4390625000  -2.291935e+001  1.609885e+002 
4393750000  -2.229753e+001  1.632573e+002 
4396875000  -2.161595e+001  1.610943e+002 
4400000000  -2.115795e+001  1.542472e+002 
4403125000  -2.166431e+001  1.466400e+002 
4406250000  -2.257173e+001  1.453973e+002 
4409375000  -2.251667e+001  1.430898e+002 
4412500000  -2.352977e+001  1.402393e+002 
4415625000  -2.397053e+001  1.451935e+002 
4418750000  -2.274566e+001  1.502007e+002 
4421875000  -2.127774e+001  1.466320e+002 
