!Agilent Technologies,E8363B,MY43030201,A.06.04.32
!Agilent E8363B: A.06.04.32
!Date: Tuesday, November 11, 2014 20:54:29
!Correction: S21(Response(S21)) 
!S1P File: Measurement: S21:
# Hz S  dB   R 50
3000000000  -2.663390e+001  1.511541e+002 
3003125000  -2.800923e+001  1.466411e+002 
3006250000  -2.808362e+001  1.435963e+002 
3009375000  -2.842838e+001  1.488621e+002 
3012500000  -2.792128e+001  1.485095e+002 
3015625000  -2.696845e+001  1.411620e+002 
3018750000  -2.780564e+001  1.404402e+002 
3021875000  -2.650054e+001  1.419849e+002 
3025000000  -2.522437e+001  1.385022e+002 
3028125000  -2.427277e+001  1.333149e+002 
3031250000  -2.323064e+001  1.223345e+002 
3034375000  -2.283103e+001  1.093607e+002 
3037500000  -2.323719e+001  9.730700e+001 
3040625000  -2.453950e+001  9.244797e+001 
3043750000  -2.525075e+001  8.781895e+001 
3046875000  -2.537682e+001  8.172919e+001 
3050000000  -2.708067e+001  7.479431e+001 
3053125000  -2.719038e+001  8.141384e+001 
3056250000  -2.652514e+001  8.423548e+001 
3059375000  -2.680227e+001  8.385376e+001 
3062500000  -2.530242e+001  7.985343e+001 
3065625000  -2.507397e+001  7.429945e+001 
3068750000  -2.477687e+001  6.717332e+001 
3071875000  -2.477631e+001  6.426656e+001 
3075000000  -2.472352e+001  6.036901e+001 
3078125000  -2.443678e+001  5.607476e+001 
3081250000  -2.505725e+001  5.182384e+001 
3084375000  -2.430895e+001  4.809397e+001 
3087500000  -2.422126e+001  4.458361e+001 
3090625000  -2.390733e+001  3.481957e+001 
3093750000  -2.439904e+001  2.698068e+001 
3096875000  -2.563575e+001  2.086444e+001 
3100000000  -2.575057e+001  1.960510e+001 
3103125000  -2.612485e+001  2.083425e+001 
3106250000  -2.583515e+001  1.704045e+001 
3109375000  -2.608644e+001  1.353035e+001 
3112500000  -2.623444e+001  1.283993e+001 
3115625000  -2.602932e+001  8.756362e+000 
3118750000  -2.651048e+001  9.862000e+000 
3121875000  -2.585310e+001  1.668745e+000 
3125000000  -2.704538e+001  -1.835339e+000 
3128125000  -2.826236e+001  6.643559e+000 
3131250000  -2.601582e+001  6.976478e+000 
3134375000  -2.469364e+001  -6.319214e+000 
3137500000  -2.533385e+001  -2.027199e+001 
3140625000  -2.692095e+001  -2.205991e+001 
3143750000  -2.796140e+001  -1.802643e+001 
3146875000  -2.755031e+001  -1.564876e+001 
3150000000  -2.655679e+001  -1.374740e+001 
3153125000  -2.655182e+001  -2.137170e+001 
3156250000  -2.747963e+001  -1.584923e+001 
3159375000  -2.587041e+001  -1.312816e+001 
3162500000  -2.387074e+001  -2.617744e+001 
3165625000  -2.479369e+001  -3.693048e+001 
3168750000  -2.520930e+001  -3.614567e+001 
3171875000  -2.426241e+001  -4.050689e+001 
3175000000  -2.492507e+001  -4.847704e+001 
3178125000  -2.469217e+001  -4.645015e+001 
3181250000  -2.349282e+001  -5.058154e+001 
3184375000  -2.270433e+001  -6.263565e+001 
3187500000  -2.386391e+001  -7.800426e+001 
3190625000  -2.656198e+001  -8.546505e+001 
3193750000  -2.719272e+001  -7.587365e+001 
3196875000  -2.672233e+001  -7.024699e+001 
3200000000  -2.588616e+001  -7.235242e+001 
3203125000  -2.502851e+001  -7.817558e+001 
3206250000  -2.535428e+001  -8.429758e+001 
3209375000  -2.487874e+001  -8.951277e+001 
3212500000  -2.501303e+001  -9.584885e+001 
3215625000  -2.511092e+001  -9.976976e+001 
3218750000  -2.589145e+001  -1.061963e+002 
3221875000  -2.681371e+001  -1.114916e+002 
3225000000  -2.640906e+001  -1.122233e+002 
3228125000  -2.674031e+001  -1.165841e+002 
3231250000  -2.750527e+001  -1.192086e+002 
3234375000  -2.739721e+001  -1.184927e+002 
3237500000  -2.739395e+001  -1.200400e+002 
3240625000  -2.702866e+001  -1.217049e+002 
3243750000  -2.669672e+001  -1.281966e+002 
3246875000  -2.717100e+001  -1.346700e+002 
3250000000  -2.765176e+001  -1.364324e+002 
3253125000  -2.775885e+001  -1.383683e+002 
3256250000  -2.759589e+001  -1.443121e+002 
3259375000  -2.800422e+001  -1.519932e+002 
3262500000  -2.920369e+001  -1.547245e+002 
3265625000  -2.993544e+001  -1.511355e+002 
3268750000  -2.983543e+001  -1.488093e+002 
3271875000  -2.961543e+001  -1.472813e+002 
3275000000  -2.854838e+001  -1.526433e+002 
3278125000  -2.903932e+001  -1.586779e+002 
3281250000  -2.927429e+001  -1.572521e+002 
3284375000  -2.881670e+001  -1.629440e+002 
3287500000  -2.900524e+001  -1.658328e+002 
3290625000  -2.935197e+001  -1.701684e+002 
3293750000  -2.909620e+001  -1.755573e+002 
3296875000  -3.012007e+001  -1.756776e+002 
3300000000  -2.998193e+001  -1.748559e+002 
3303125000  -2.887809e+001  -1.782287e+002 
3306250000  -2.860557e+001  1.748618e+002 
3309375000  -2.838775e+001  1.700894e+002 
3312500000  -2.840318e+001  1.596107e+002 
3315625000  -2.943869e+001  1.514407e+002 
3318750000  -3.073091e+001  1.493375e+002 
3321875000  -3.192808e+001  1.495519e+002 
3325000000  -3.253337e+001  1.544513e+002 
3328125000  -3.240804e+001  1.558830e+002 
3331250000  -3.120744e+001  1.632059e+002 
3334375000  -2.858487e+001  1.536564e+002 
3337500000  -2.866118e+001  1.352415e+002 
3340625000  -2.999081e+001  1.245459e+002 
3343750000  -3.206278e+001  1.231110e+002 
3346875000  -3.240506e+001  1.247175e+002 
3350000000  -3.181771e+001  1.236405e+002 
3353125000  -3.191067e+001  1.187346e+002 
3356250000  -3.162370e+001  1.110454e+002 
3359375000  -3.247707e+001  1.028231e+002 
3362500000  -3.369827e+001  9.746456e+001 
3365625000  -3.446099e+001  9.614824e+001 
3368750000  -3.528179e+001  9.418891e+001 
3371875000  -3.567828e+001  9.118019e+001 
3375000000  -3.738591e+001  8.928961e+001 
3378125000  -3.839475e+001  8.895727e+001 
3381250000  -3.985041e+001  9.672914e+001 
3384375000  -3.883409e+001  1.188969e+002 
3387500000  -3.585184e+001  1.034156e+002 
3390625000  -3.754625e+001  8.410813e+001 
3393750000  -3.928488e+001  8.842550e+001 
3396875000  -3.855364e+001  9.159048e+001 
3400000000  -3.859486e+001  8.333505e+001 
3403125000  -3.931250e+001  7.991061e+001 
3406250000  -4.027702e+001  8.275468e+001 
3409375000  -4.080768e+001  7.739561e+001 
3412500000  -4.174409e+001  7.855001e+001 
3415625000  -4.246413e+001  8.323837e+001 
3418750000  -4.284929e+001  8.633338e+001 
3421875000  -4.318600e+001  9.367152e+001 
3425000000  -4.230143e+001  9.626539e+001 
3428125000  -4.133020e+001  9.597370e+001 
3431250000  -4.095972e+001  9.167910e+001 
3434375000  -4.113116e+001  8.970546e+001 
3437500000  -4.177408e+001  8.744165e+001 
3440625000  -4.188519e+001  9.209530e+001 
3443750000  -4.082872e+001  9.278188e+001 
3446875000  -3.982450e+001  8.510092e+001 
3450000000  -3.957341e+001  7.786412e+001 
3453125000  -3.991650e+001  6.994255e+001 
3456250000  -4.137466e+001  6.478266e+001 
3459375000  -4.226975e+001  6.741399e+001 
3462500000  -4.241058e+001  6.889406e+001 
3465625000  -4.208852e+001  6.295172e+001 
3468750000  -4.264066e+001  6.124364e+001 
3471875000  -4.294453e+001  6.192989e+001 
3475000000  -4.302561e+001  5.715958e+001 
3478125000  -4.364943e+001  5.360578e+001 
3481250000  -4.515023e+001  4.980925e+001 
3484375000  -4.600817e+001  5.698473e+001 
3487500000  -4.516536e+001  5.895618e+001 
3490625000  -4.554820e+001  5.563234e+001 
3493750000  -4.574519e+001  5.218335e+001 
3496875000  -4.725329e+001  5.256630e+001 
3500000000  -4.858711e+001  6.150642e+001 
3503125000  -4.814063e+001  6.515719e+001 
3506250000  -4.749200e+001  6.899185e+001 
3509375000  -4.744737e+001  6.383061e+001 
3512500000  -4.799262e+001  6.588038e+001 
3515625000  -4.800711e+001  6.967178e+001 
3518750000  -4.885437e+001  7.075198e+001 
3521875000  -4.798213e+001  7.907043e+001 
3525000000  -4.830545e+001  7.889590e+001 
3528125000  -4.781466e+001  9.483197e+001 
3531250000  -4.634976e+001  8.909814e+001 
3534375000  -4.570590e+001  8.579221e+001 
3537500000  -4.530355e+001  8.197437e+001 
3540625000  -4.603035e+001  8.282407e+001 
3543750000  -4.626567e+001  8.780100e+001 
3546875000  -4.567622e+001  9.890395e+001 
3550000000  -4.323503e+001  1.001219e+002 
3553125000  -4.200404e+001  8.401874e+001 
3556250000  -4.297053e+001  7.832874e+001 
3559375000  -4.210896e+001  8.074155e+001 
3562500000  -4.109015e+001  7.190141e+001 
3565625000  -4.181647e+001  6.757072e+001 
3568750000  -4.217348e+001  6.937756e+001 
3571875000  -4.183730e+001  6.972667e+001 
3575000000  -4.117752e+001  6.558928e+001 
3578125000  -4.155607e+001  6.003452e+001 
3581250000  -4.168948e+001  6.182287e+001 
3584375000  -4.061259e+001  6.132884e+001 
3587500000  -3.997464e+001  5.515669e+001 
3590625000  -4.041578e+001  4.711344e+001 
3593750000  -4.145341e+001  4.730631e+001 
3596875000  -4.143995e+001  5.241792e+001 
3600000000  -3.970597e+001  4.932967e+001 
3603125000  -4.000200e+001  3.708182e+001 
3606250000  -4.062547e+001  3.419561e+001 
3609375000  -4.088830e+001  3.368144e+001 
3612500000  -4.139383e+001  3.282816e+001 
3615625000  -4.138671e+001  2.988401e+001 
3618750000  -4.183175e+001  3.158829e+001 
3621875000  -4.148108e+001  3.152946e+001 
3625000000  -4.166063e+001  2.996510e+001 
3628125000  -4.175426e+001  3.111748e+001 
3631250000  -4.114378e+001  2.626456e+001 
3634375000  -4.250000e+001  2.641120e+001 
3637500000  -4.199177e+001  3.036039e+001 
3640625000  -4.074701e+001  3.278302e+001 
3643750000  -4.043783e+001  2.773863e+001 
3646875000  -4.068082e+001  2.139092e+001 
3650000000  -4.136073e+001  2.038751e+001 
3653125000  -4.134795e+001  2.022012e+001 
3656250000  -4.134380e+001  2.012489e+001 
3659375000  -4.167690e+001  2.384451e+001 
3662500000  -4.079619e+001  2.233291e+001 
3665625000  -4.114699e+001  2.337783e+001 
3668750000  -3.992204e+001  2.429899e+001 
3671875000  -3.914988e+001  1.807630e+001 
3675000000  -3.954882e+001  1.343576e+001 
3678125000  -4.011712e+001  1.491934e+001 
3681250000  -3.966661e+001  1.595780e+001 
3684375000  -3.939170e+001  1.310593e+001 
3687500000  -3.940768e+001  1.156141e+001 
3690625000  -3.963711e+001  1.009182e+001 
3693750000  -4.023292e+001  1.229414e+001 
3696875000  -3.976753e+001  1.560546e+001 
3700000000  -3.876461e+001  1.168566e+001 
3703125000  -3.856307e+001  9.934501e+000 
3706250000  -3.917956e+001  1.137194e+001 
3709375000  -3.849142e+001  1.398676e+001 
3712500000  -3.739615e+001  1.422311e+001 
3715625000  -3.621583e+001  9.197579e+000 
3718750000  -3.545408e+001  6.032191e+000 
3721875000  -3.505769e+001  2.735021e-001 
3725000000  -3.503752e+001  -4.000294e+000 
3728125000  -3.515954e+001  -5.008213e+000 
3731250000  -3.427568e+001  -5.094218e+000 
3734375000  -3.360191e+001  -1.198097e+001 
3737500000  -3.402359e+001  -1.942610e+001 
3740625000  -3.460327e+001  -2.257611e+001 
3743750000  -3.431756e+001  -2.422158e+001 
3746875000  -3.437566e+001  -2.744976e+001 
3750000000  -3.468693e+001  -2.846501e+001 
3753125000  -3.428262e+001  -2.929875e+001 
3756250000  -3.428287e+001  -3.057177e+001 
3759375000  -3.406024e+001  -3.058251e+001 
3762500000  -3.351307e+001  -3.483154e+001 
3765625000  -3.396699e+001  -3.702104e+001 
3768750000  -3.396705e+001  -3.535120e+001 
3771875000  -3.233551e+001  -3.777989e+001 
3775000000  -3.212440e+001  -4.487665e+001 
3778125000  -3.238665e+001  -4.691088e+001 
3781250000  -3.225956e+001  -4.980073e+001 
3784375000  -3.217007e+001  -5.162350e+001 
3787500000  -3.149463e+001  -5.491179e+001 
3790625000  -3.209681e+001  -6.125746e+001 
3793750000  -3.220123e+001  -6.142051e+001 
3796875000  -3.131474e+001  -6.239391e+001 
3800000000  -2.973644e+001  -6.647533e+001 
3803125000  -3.050130e+001  -7.368327e+001 
3806250000  -3.114599e+001  -7.497859e+001 
3809375000  -3.100751e+001  -7.667273e+001 
3812500000  -3.023707e+001  -8.225851e+001 
3815625000  -3.092791e+001  -8.921799e+001 
3818750000  -3.189976e+001  -9.019518e+001 
3821875000  -3.191010e+001  -8.137926e+001 
3825000000  -2.993594e+001  -7.724348e+001 
3828125000  -2.859575e+001  -9.105205e+001 
3831250000  -2.908479e+001  -1.054016e+002 
3834375000  -3.041756e+001  -1.063151e+002 
3837500000  -3.132293e+001  -1.006738e+002 
3840625000  -3.030461e+001  -1.022370e+002 
3843750000  -2.915592e+001  -1.128586e+002 
3846875000  -2.982042e+001  -1.192782e+002 
3850000000  -3.113822e+001  -1.137985e+002 
3853125000  -3.030877e+001  -1.108349e+002 
3856250000  -3.017431e+001  -1.152840e+002 
3859375000  -2.944427e+001  -1.205010e+002 
3862500000  -2.910401e+001  -1.271866e+002 
3865625000  -2.928780e+001  -1.319944e+002 
3868750000  -2.930956e+001  -1.324640e+002 
3871875000  -2.859770e+001  -1.354008e+002 
3875000000  -2.874220e+001  -1.441909e+002 
3878125000  -2.970195e+001  -1.461737e+002 
3881250000  -2.971771e+001  -1.434048e+002 
3884375000  -2.920131e+001  -1.476913e+002 
3887500000  -2.934216e+001  -1.524610e+002 
3890625000  -2.993816e+001  -1.545947e+002 
3893750000  -3.028226e+001  -1.563345e+002 
3896875000  -3.049803e+001  -1.558289e+002 
3900000000  -3.067886e+001  -1.563100e+002 
3903125000  -3.032607e+001  -1.587879e+002 
3906250000  -3.010024e+001  -1.591000e+002 
3909375000  -2.935826e+001  -1.617570e+002 
3912500000  -2.945330e+001  -1.689574e+002 
3915625000  -3.068398e+001  -1.687600e+002 
3918750000  -3.063486e+001  -1.662821e+002 
3921875000  -3.034289e+001  -1.684938e+002 
3925000000  -2.938364e+001  -1.686127e+002 
3928125000  -2.874954e+001  -1.746882e+002 
3931250000  -2.914214e+001  -1.787771e+002 
3934375000  -2.947049e+001  -1.780595e+002 
3937500000  -2.953043e+001  -1.789372e+002 
3940625000  -3.002035e+001  -1.789586e+002 
3943750000  -2.914157e+001  -1.771386e+002 
3946875000  -2.790153e+001  1.774487e+002 
3950000000  -2.828027e+001  1.699732e+002 
3953125000  -2.926080e+001  1.705811e+002 
3956250000  -2.834207e+001  1.732569e+002 
3959375000  -2.699296e+001  1.698504e+002 
3962500000  -2.654974e+001  1.660017e+002 
3965625000  -2.624289e+001  1.571593e+002 
3968750000  -2.701679e+001  1.506493e+002 
3971875000  -2.737466e+001  1.488713e+002 
3975000000  -2.678030e+001  1.469717e+002 
3978125000  -2.663713e+001  1.452596e+002 
3981250000  -2.638634e+001  1.411653e+002 
3984375000  -2.655256e+001  1.351911e+002 
3987500000  -2.703048e+001  1.332497e+002 
3990625000  -2.701456e+001  1.320592e+002 
3993750000  -2.719133e+001  1.287752e+002 
3996875000  -2.720726e+001  1.263187e+002 
4000000000  -2.728514e+001  1.238872e+002 
4003125000  -2.796234e+001  1.265114e+002 
4006250000  -2.651436e+001  1.269167e+002 
4009375000  -2.526487e+001  1.148082e+002 
4012500000  -2.629550e+001  1.074926e+002 
4015625000  -2.747789e+001  1.075431e+002 
4018750000  -2.777327e+001  1.097968e+002 
4021875000  -2.706418e+001  1.086816e+002 
4025000000  -2.664331e+001  1.033944e+002 
4028125000  -2.663394e+001  9.934946e+001 
4031250000  -2.706598e+001  9.622461e+001 
4034375000  -2.733383e+001  9.620599e+001 
4037500000  -2.681403e+001  9.780970e+001 
4040625000  -2.679592e+001  9.437899e+001 
4043750000  -2.712068e+001  9.419171e+001 
4046875000  -2.670028e+001  9.376337e+001 
4050000000  -2.615456e+001  8.777013e+001 
4053125000  -2.658410e+001  8.565456e+001 
4056250000  -2.718109e+001  8.968818e+001 
4059375000  -2.607383e+001  9.192863e+001 
4062500000  -2.476266e+001  8.742430e+001 
4065625000  -2.462046e+001  8.316708e+001 
4068750000  -2.425679e+001  7.892558e+001 
4071875000  -2.356836e+001  7.099530e+001 
4075000000  -2.387346e+001  6.456195e+001 
4078125000  -2.441762e+001  6.343587e+001 
4081250000  -2.392733e+001  6.085909e+001 
4084375000  -2.350313e+001  5.446789e+001 
4087500000  -2.383032e+001  4.778226e+001 
4090625000  -2.447629e+001  4.669752e+001 
4093750000  -2.431546e+001  4.738920e+001 
4096875000  -2.385655e+001  4.155551e+001 
4100000000  -2.454882e+001  3.454030e+001 
4103125000  -2.537196e+001  3.499224e+001 
4106250000  -2.521073e+001  4.006697e+001 
4109375000  -2.429314e+001  3.916721e+001 
4112500000  -2.377705e+001  3.293366e+001 
4115625000  -2.401065e+001  2.818925e+001 
4118750000  -2.414192e+001  2.515738e+001 
4121875000  -2.385163e+001  2.041083e+001 
4125000000  -2.419540e+001  1.566923e+001 
4128125000  -2.517535e+001  1.648391e+001 
4131250000  -2.480673e+001  2.432244e+001 
4134375000  -2.246104e+001  1.961794e+001 
4137500000  -2.226386e+001  8.968694e-001 
4140625000  -2.443637e+001  -7.091047e+000 
4143750000  -2.579463e+001  -1.897315e+000 
4146875000  -2.532134e+001  5.598480e+000 
4150000000  -2.441151e+001  1.770856e+000 
4153125000  -2.423954e+001  -4.424858e+000 
4156250000  -2.514196e+001  -7.312332e+000 
4159375000  -2.542470e+001  -2.793242e+000 
4162500000  -2.428560e+001  1.253303e+000 
4165625000  -2.317167e+001  -2.624912e+000 
4168750000  -2.249809e+001  -9.628870e+000 
4171875000  -2.244225e+001  -1.887189e+001 
4175000000  -2.300826e+001  -2.500281e+001 
4178125000  -2.365402e+001  -2.486798e+001 
4181250000  -2.360341e+001  -2.559280e+001 
4184375000  -2.340739e+001  -2.890536e+001 
4187500000  -2.344746e+001  -3.178885e+001 
4190625000  -2.326085e+001  -3.717136e+001 
4193750000  -2.407509e+001  -4.094432e+001 
4196875000  -2.482249e+001  -4.106846e+001 
4200000000  -2.569232e+001  -3.889099e+001 
4203125000  -2.564769e+001  -2.564166e+001 
4206250000  -2.235909e+001  -2.411533e+001 
4209375000  -2.115525e+001  -4.456523e+001 
4212500000  -2.306976e+001  -5.322546e+001 
4215625000  -2.404478e+001  -4.621424e+001 
4218750000  -2.255618e+001  -3.955367e+001 
4221875000  -2.026812e+001  -4.922032e+001 
4225000000  -2.145781e+001  -6.232242e+001 
4228125000  -2.224624e+001  -5.744883e+001 
4231250000  -2.075596e+001  -6.104800e+001 
4234375000  -2.064216e+001  -6.950311e+001 
4237500000  -2.020604e+001  -7.322288e+001 
4240625000  -2.027804e+001  -8.173196e+001 
4243750000  -2.128638e+001  -8.784617e+001 
4246875000  -2.209135e+001  -8.786460e+001 
4250000000  -2.210327e+001  -8.518672e+001 
4253125000  -2.146395e+001  -8.723632e+001 
4256250000  -2.166595e+001  -9.155260e+001 
4259375000  -2.151657e+001  -9.358043e+001 
4262500000  -2.155044e+001  -9.776881e+001 
4265625000  -2.168339e+001  -9.754023e+001 
4268750000  -2.090529e+001  -1.012751e+002 
4271875000  -2.058128e+001  -1.066784e+002 
4275000000  -1.991679e+001  -1.133812e+002 
4278125000  -2.051641e+001  -1.250229e+002 
4281250000  -2.223088e+001  -1.274366e+002 
4284375000  -2.201122e+001  -1.271532e+002 
4287500000  -2.290191e+001  -1.306890e+002 
4290625000  -2.425254e+001  -1.208495e+002 
4293750000  -2.225361e+001  -1.145392e+002 
4296875000  -2.087733e+001  -1.261161e+002 
4300000000  -2.169493e+001  -1.352088e+002 
4303125000  -2.278182e+001  -1.341492e+002 
4306250000  -2.208282e+001  -1.284951e+002 
4309375000  -2.074014e+001  -1.308374e+002 
4312500000  -2.066873e+001  -1.392047e+002 
4315625000  -2.099858e+001  -1.454969e+002 
4318750000  -2.130169e+001  -1.487226e+002 
4321875000  -2.144188e+001  -1.479771e+002 
4325000000  -2.083980e+001  -1.476852e+002 
4328125000  -2.033611e+001  -1.542556e+002 
4331250000  -2.036470e+001  -1.621857e+002 
4334375000  -2.080299e+001  -1.671893e+002 
4337500000  -2.158006e+001  -1.691820e+002 
4340625000  -2.203115e+001  -1.660975e+002 
4343750000  -2.149263e+001  -1.656201e+002 
4346875000  -2.114356e+001  -1.706404e+002 
4350000000  -2.106961e+001  -1.757017e+002 
4353125000  -2.108941e+001  1.763411e+002 
4356250000  -2.279235e+001  1.751464e+002 
4359375000  -2.344465e+001  -1.718017e+002 
4362500000  -2.085080e+001  -1.697024e+002 
4365625000  -1.928441e+001  1.787854e+002 
4368750000  -1.999990e+001  1.670894e+002 
4371875000  -2.105647e+001  1.674680e+002 
4375000000  -2.080778e+001  1.684176e+002 
4378125000  -2.019615e+001  1.626400e+002 
4381250000  -2.032553e+001  1.573952e+002 
4384375000  -2.012911e+001  1.525923e+002 
4387500000  -2.081433e+001  1.465086e+002 
4390625000  -2.179713e+001  1.471788e+002 
4393750000  -2.126235e+001  1.496043e+002 
4396875000  -2.059085e+001  1.473136e+002 
4400000000  -2.009401e+001  1.403689e+002 
4403125000  -2.059121e+001  1.325758e+002 
4406250000  -2.145336e+001  1.312375e+002 
4409375000  -2.143252e+001  1.289372e+002 
4412500000  -2.232297e+001  1.257582e+002 
4415625000  -2.282222e+001  1.306274e+002 
4418750000  -2.170912e+001  1.357695e+002 
