!Agilent Technologies,E8363B,MY43030201,A.06.04.32
!Agilent E8363B: A.06.04.32
!Date: Tuesday, November 11, 2014 20:51:29
!Correction: S21(Response(S21)) 
!S1P File: Measurement: S21:
# Hz S  dB   R 50
3000000000  -2.650476e+001  1.518509e+002 
3003125000  -2.790590e+001  1.472805e+002 
3006250000  -2.795869e+001  1.446434e+002 
3009375000  -2.832205e+001  1.497816e+002 
3012500000  -2.777559e+001  1.489987e+002 
3015625000  -2.685268e+001  1.420699e+002 
3018750000  -2.768549e+001  1.412722e+002 
3021875000  -2.641252e+001  1.427889e+002 
3025000000  -2.514011e+001  1.395272e+002 
3028125000  -2.413448e+001  1.345353e+002 
3031250000  -2.309342e+001  1.234056e+002 
3034375000  -2.274904e+001  1.103080e+002 
3037500000  -2.311314e+001  9.841409e+001 
3040625000  -2.443416e+001  9.355778e+001 
3043750000  -2.516734e+001  8.916451e+001 
3046875000  -2.527010e+001  8.285622e+001 
3050000000  -2.702052e+001  7.579223e+001 
3053125000  -2.713162e+001  8.242659e+001 
3056250000  -2.647020e+001  8.547394e+001 
3059375000  -2.666990e+001  8.490012e+001 
3062500000  -2.523083e+001  8.112560e+001 
3065625000  -2.505364e+001  7.528786e+001 
3068750000  -2.470778e+001  6.863111e+001 
3071875000  -2.464450e+001  6.565023e+001 
3075000000  -2.462469e+001  6.180459e+001 
3078125000  -2.435440e+001  5.718497e+001 
3081250000  -2.498035e+001  5.308523e+001 
3084375000  -2.425465e+001  4.934708e+001 
3087500000  -2.413304e+001  4.581630e+001 
3090625000  -2.382003e+001  3.609340e+001 
3093750000  -2.426851e+001  2.817521e+001 
3096875000  -2.558561e+001  2.207176e+001 
3100000000  -2.568566e+001  2.085784e+001 
3103125000  -2.609895e+001  2.207897e+001 
3106250000  -2.578683e+001  1.860668e+001 
3109375000  -2.602377e+001  1.507546e+001 
3112500000  -2.618619e+001  1.417451e+001 
3115625000  -2.598494e+001  9.922827e+000 
3118750000  -2.645078e+001  1.112340e+001 
3121875000  -2.580695e+001  3.189601e+000 
3125000000  -2.694298e+001  -4.846168e-001 
3128125000  -2.816210e+001  8.004127e+000 
3131250000  -2.596408e+001  8.292645e+000 
3134375000  -2.461078e+001  -5.318702e+000 
3137500000  -2.529521e+001  -1.916599e+001 
3140625000  -2.692283e+001  -2.064838e+001 
3143750000  -2.794379e+001  -1.647080e+001 
3146875000  -2.751257e+001  -1.467819e+001 
3150000000  -2.652652e+001  -1.254214e+001 
3153125000  -2.650548e+001  -2.043875e+001 
3156250000  -2.748655e+001  -1.475026e+001 
3159375000  -2.593764e+001  -1.183625e+001 
3162500000  -2.387944e+001  -2.481655e+001 
3165625000  -2.482554e+001  -3.572011e+001 
3168750000  -2.520564e+001  -3.508310e+001 
3171875000  -2.427336e+001  -3.911744e+001 
3175000000  -2.491196e+001  -4.671661e+001 
3178125000  -2.468549e+001  -4.508656e+001 
3181250000  -2.351590e+001  -4.896765e+001 
3184375000  -2.271793e+001  -6.144798e+001 
3187500000  -2.384904e+001  -7.651943e+001 
3190625000  -2.657517e+001  -8.393120e+001 
3193750000  -2.717976e+001  -7.416791e+001 
3196875000  -2.674330e+001  -6.894648e+001 
3200000000  -2.588583e+001  -7.078891e+001 
3203125000  -2.503386e+001  -7.661036e+001 
3206250000  -2.532382e+001  -8.279480e+001 
3209375000  -2.484822e+001  -8.795095e+001 
3212500000  -2.500616e+001  -9.464712e+001 
3215625000  -2.514985e+001  -9.873196e+001 
3218750000  -2.589451e+001  -1.049102e+002 
3221875000  -2.684235e+001  -1.100350e+002 
3225000000  -2.643435e+001  -1.107205e+002 
3228125000  -2.679478e+001  -1.153474e+002 
3231250000  -2.754163e+001  -1.178923e+002 
3234375000  -2.735058e+001  -1.169226e+002 
3237500000  -2.740686e+001  -1.184705e+002 
3240625000  -2.709234e+001  -1.202953e+002 
3243750000  -2.671565e+001  -1.267564e+002 
3246875000  -2.719236e+001  -1.336015e+002 
3250000000  -2.763319e+001  -1.354485e+002 
3253125000  -2.784346e+001  -1.369349e+002 
3256250000  -2.768649e+001  -1.431247e+002 
3259375000  -2.797798e+001  -1.505361e+002 
3262500000  -2.924095e+001  -1.534151e+002 
3265625000  -3.002675e+001  -1.495543e+002 
3268750000  -2.990799e+001  -1.469292e+002 
3271875000  -2.968637e+001  -1.461681e+002 
3275000000  -2.861213e+001  -1.511429e+002 
3278125000  -2.906156e+001  -1.573156e+002 
3281250000  -2.934354e+001  -1.557163e+002 
3284375000  -2.890021e+001  -1.616148e+002 
3287500000  -2.904748e+001  -1.641996e+002 
3290625000  -2.951133e+001  -1.684508e+002 
3293750000  -2.913257e+001  -1.741363e+002 
3296875000  -3.022408e+001  -1.739851e+002 
3300000000  -3.010884e+001  -1.730177e+002 
3303125000  -2.891868e+001  -1.765257e+002 
3306250000  -2.872211e+001  1.764887e+002 
3309375000  -2.851329e+001  1.715911e+002 
3312500000  -2.855408e+001  1.610405e+002 
3315625000  -2.952512e+001  1.535335e+002 
3318750000  -3.086032e+001  1.509596e+002 
3321875000  -3.209195e+001  1.506325e+002 
3325000000  -3.267650e+001  1.565258e+002 
3328125000  -3.256790e+001  1.574191e+002 
3331250000  -3.133071e+001  1.646134e+002 
3334375000  -2.868034e+001  1.550100e+002 
3337500000  -2.877978e+001  1.368439e+002 
3340625000  -3.010835e+001  1.259447e+002 
3343750000  -3.213560e+001  1.244732e+002 
3346875000  -3.250864e+001  1.261805e+002 
3350000000  -3.199546e+001  1.251865e+002 
3353125000  -3.204265e+001  1.207418e+002 
3356250000  -3.177282e+001  1.126031e+002 
3359375000  -3.269379e+001  1.041117e+002 
3362500000  -3.402346e+001  9.913311e+001 
3365625000  -3.456486e+001  9.792566e+001 
3368750000  -3.551284e+001  9.594154e+001 
3371875000  -3.592170e+001  9.264220e+001 
3375000000  -3.739857e+001  9.049202e+001 
3378125000  -3.861477e+001  8.990471e+001 
3381250000  -4.032539e+001  9.754195e+001 
3384375000  -3.916523e+001  1.195814e+002 
3387500000  -3.603833e+001  1.047979e+002 
3390625000  -3.783047e+001  8.744225e+001 
3393750000  -3.969404e+001  8.982451e+001 
3396875000  -3.887373e+001  9.363006e+001 
3400000000  -3.867376e+001  8.712613e+001 
3403125000  -3.974458e+001  8.225294e+001 
3406250000  -4.051548e+001  8.426440e+001 
3409375000  -4.124447e+001  8.079803e+001 
3412500000  -4.216476e+001  8.219853e+001 
3415625000  -4.292271e+001  8.787020e+001 
3418750000  -4.328084e+001  9.048151e+001 
3421875000  -4.367185e+001  9.806845e+001 
3425000000  -4.255879e+001  9.882203e+001 
3428125000  -4.155546e+001  1.019144e+002 
3431250000  -4.153274e+001  9.681797e+001 
3434375000  -4.147385e+001  9.356674e+001 
3437500000  -4.181184e+001  9.231221e+001 
3440625000  -4.208414e+001  9.623631e+001 
3443750000  -4.097039e+001  9.706141e+001 
3446875000  -3.986803e+001  9.272222e+001 
3450000000  -3.973036e+001  8.105307e+001 
3453125000  -4.003787e+001  7.408679e+001 
3456250000  -4.127255e+001  6.937395e+001 
3459375000  -4.221773e+001  7.140597e+001 
3462500000  -4.224718e+001  7.356717e+001 
3465625000  -4.218211e+001  6.889009e+001 
3468750000  -4.273309e+001  6.445134e+001 
3471875000  -4.325454e+001  6.726994e+001 
3475000000  -4.260407e+001  6.266081e+001 
3478125000  -4.365541e+001  5.613652e+001 
3481250000  -4.472659e+001  5.362539e+001 
3484375000  -4.630990e+001  6.151358e+001 
3487500000  -4.560798e+001  6.450557e+001 
3490625000  -4.528036e+001  6.092217e+001 
3493750000  -4.589909e+001  5.630574e+001 
3496875000  -4.688610e+001  6.142189e+001 
3500000000  -4.817068e+001  6.646609e+001 
3503125000  -4.757874e+001  7.247507e+001 
3506250000  -4.657548e+001  6.990628e+001 
3509375000  -4.692827e+001  7.219545e+001 
3512500000  -4.719408e+001  6.723000e+001 
3515625000  -4.797307e+001  7.101471e+001 
3518750000  -4.820726e+001  7.652087e+001 
3521875000  -4.787360e+001  8.552430e+001 
3525000000  -4.833640e+001  8.160793e+001 
3528125000  -4.770468e+001  9.413024e+001 
3531250000  -4.614003e+001  9.507555e+001 
3534375000  -4.497665e+001  8.671407e+001 
3537500000  -4.489177e+001  8.485478e+001 
3540625000  -4.565899e+001  8.254327e+001 
3543750000  -4.627672e+001  8.701697e+001 
3546875000  -4.574618e+001  1.003021e+002 
3550000000  -4.296183e+001  1.018655e+002 
3553125000  -4.163058e+001  8.359035e+001 
3556250000  -4.230514e+001  7.812381e+001 
3559375000  -4.225720e+001  8.035532e+001 
3562500000  -4.111441e+001  7.396272e+001 
3565625000  -4.179647e+001  6.676826e+001 
3568750000  -4.165329e+001  7.160870e+001 
3571875000  -4.172954e+001  6.972224e+001 
3575000000  -4.097142e+001  6.651453e+001 
3578125000  -4.123415e+001  6.242606e+001 
3581250000  -4.147664e+001  6.276020e+001 
3584375000  -4.072120e+001  6.089793e+001 
3587500000  -3.979484e+001  5.593548e+001 
3590625000  -4.043124e+001  4.612427e+001 
3593750000  -4.143087e+001  4.503357e+001 
3596875000  -4.146636e+001  5.259228e+001 
3600000000  -3.948051e+001  4.987793e+001 
3603125000  -3.970805e+001  3.695433e+001 
3606250000  -4.027566e+001  3.447195e+001 
3609375000  -4.094706e+001  3.406446e+001 
3612500000  -4.108484e+001  3.152228e+001 
3615625000  -4.168859e+001  3.066259e+001 
3618750000  -4.179642e+001  3.135012e+001 
3621875000  -4.152406e+001  2.921034e+001 
3625000000  -4.185292e+001  3.034674e+001 
3628125000  -4.178608e+001  3.167734e+001 
3631250000  -4.134428e+001  2.496193e+001 
3634375000  -4.239262e+001  2.751862e+001 
3637500000  -4.195445e+001  3.291032e+001 
3640625000  -4.084258e+001  3.537926e+001 
3643750000  -4.042526e+001  2.790885e+001 
3646875000  -4.092029e+001  2.070546e+001 
3650000000  -4.151981e+001  2.285007e+001 
3653125000  -4.137907e+001  2.118719e+001 
3656250000  -4.173253e+001  1.979586e+001 
3659375000  -4.210353e+001  2.294672e+001 
3662500000  -4.125970e+001  2.298734e+001 
3665625000  -4.132326e+001  2.410336e+001 
3668750000  -4.023085e+001  2.347110e+001 
3671875000  -3.929333e+001  2.042777e+001 
3675000000  -3.966462e+001  1.332771e+001 
3678125000  -4.036836e+001  1.607286e+001 
3681250000  -3.973592e+001  1.543916e+001 
3684375000  -3.952595e+001  1.461088e+001 
3687500000  -3.959335e+001  1.319661e+001 
3690625000  -3.964814e+001  1.120119e+001 
3693750000  -4.018604e+001  1.404136e+001 
3696875000  -4.006268e+001  1.669758e+001 
3700000000  -3.872560e+001  1.546905e+001 
3703125000  -3.861979e+001  1.033941e+001 
3706250000  -3.938561e+001  1.276548e+001 
3709375000  -3.856718e+001  1.590633e+001 
3712500000  -3.734486e+001  1.722535e+001 
3715625000  -3.631689e+001  1.003442e+001 
3718750000  -3.567653e+001  7.430732e+000 
3721875000  -3.509971e+001  1.463028e+000 
3725000000  -3.511961e+001  -2.828614e+000 
3728125000  -3.534484e+001  -3.584000e+000 
3731250000  -3.460214e+001  -3.855922e+000 
3734375000  -3.369485e+001  -1.047950e+001 
3737500000  -3.406685e+001  -1.725312e+001 
3740625000  -3.476219e+001  -2.105498e+001 
3743750000  -3.458543e+001  -2.347561e+001 
3746875000  -3.450627e+001  -2.644059e+001 
3750000000  -3.485178e+001  -2.751950e+001 
3753125000  -3.447697e+001  -2.731885e+001 
3756250000  -3.444180e+001  -2.818100e+001 
3759375000  -3.426424e+001  -2.888379e+001 
3762500000  -3.370776e+001  -3.269849e+001 
3765625000  -3.419623e+001  -3.522330e+001 
3768750000  -3.416555e+001  -3.296176e+001 
3771875000  -3.247876e+001  -3.663431e+001 
3775000000  -3.219165e+001  -4.402579e+001 
3778125000  -3.257233e+001  -4.491900e+001 
3781250000  -3.238995e+001  -4.887061e+001 
3784375000  -3.229229e+001  -5.045025e+001 
3787500000  -3.166895e+001  -5.381198e+001 
3790625000  -3.218625e+001  -5.937593e+001 
3793750000  -3.235168e+001  -6.038940e+001 
3796875000  -3.142260e+001  -6.094744e+001 
3800000000  -2.994003e+001  -6.467029e+001 
3803125000  -3.071325e+001  -7.175334e+001 
3806250000  -3.135676e+001  -7.426207e+001 
3809375000  -3.107101e+001  -7.541344e+001 
3812500000  -3.035267e+001  -8.063053e+001 
3815625000  -3.102260e+001  -8.781082e+001 
3818750000  -3.196238e+001  -8.910042e+001 
3821875000  -3.208533e+001  -8.122443e+001 
3825000000  -3.009100e+001  -7.653311e+001 
3828125000  -2.880022e+001  -8.984663e+001 
3831250000  -2.927899e+001  -1.045758e+002 
3834375000  -3.056769e+001  -1.049086e+002 
3837500000  -3.161775e+001  -9.982785e+001 
3840625000  -3.047174e+001  -1.015896e+002 
3843750000  -2.920656e+001  -1.111193e+002 
3846875000  -2.995482e+001  -1.182268e+002 
3850000000  -3.120289e+001  -1.126457e+002 
3853125000  -3.036749e+001  -1.097830e+002 
3856250000  -3.028880e+001  -1.153704e+002 
3859375000  -2.969712e+001  -1.194565e+002 
3862500000  -2.915561e+001  -1.262381e+002 
3865625000  -2.949848e+001  -1.311291e+002 
3868750000  -2.948401e+001  -1.320979e+002 
3871875000  -2.879255e+001  -1.346433e+002 
3875000000  -2.889745e+001  -1.433417e+002 
3878125000  -2.995210e+001  -1.458221e+002 
3881250000  -3.010682e+001  -1.427626e+002 
3884375000  -2.956215e+001  -1.474126e+002 
3887500000  -2.964488e+001  -1.521857e+002 
3890625000  -3.024279e+001  -1.544048e+002 
3893750000  -3.066312e+001  -1.553476e+002 
3896875000  -3.070820e+001  -1.545203e+002 
3900000000  -3.095312e+001  -1.558026e+002 
3903125000  -3.073394e+001  -1.578371e+002 
3906250000  -3.036445e+001  -1.584653e+002 
3909375000  -2.970174e+001  -1.611758e+002 
3912500000  -2.970485e+001  -1.681575e+002 
3915625000  -3.086983e+001  -1.680864e+002 
3918750000  -3.093821e+001  -1.656347e+002 
3921875000  -3.060099e+001  -1.678433e+002 
3925000000  -2.978955e+001  -1.679914e+002 
3928125000  -2.910582e+001  -1.741318e+002 
3931250000  -2.951097e+001  -1.775872e+002 
3934375000  -2.974618e+001  -1.774398e+002 
3937500000  -2.981410e+001  -1.778101e+002 
3940625000  -3.037371e+001  -1.778204e+002 
3943750000  -2.940503e+001  -1.766995e+002 
3946875000  -2.818831e+001  1.783207e+002 
3950000000  -2.867237e+001  1.707371e+002 
3953125000  -2.960657e+001  1.706091e+002 
3956250000  -2.874557e+001  1.736435e+002 
3959375000  -2.742908e+001  1.708626e+002 
3962500000  -2.690887e+001  1.665082e+002 
3965625000  -2.655857e+001  1.577341e+002 
3968750000  -2.749188e+001  1.510736e+002 
3971875000  -2.788239e+001  1.502273e+002 
3975000000  -2.720155e+001  1.477190e+002 
3978125000  -2.698293e+001  1.463815e+002 
3981250000  -2.672439e+001  1.417787e+002 
3984375000  -2.697989e+001  1.357439e+002 
3987500000  -2.750953e+001  1.336034e+002 
3990625000  -2.751834e+001  1.325058e+002 
3993750000  -2.773144e+001  1.290670e+002 
3996875000  -2.763300e+001  1.265258e+002 
4000000000  -2.775937e+001  1.248749e+002 
4003125000  -2.835866e+001  1.274518e+002 
4006250000  -2.700695e+001  1.277170e+002 
4009375000  -2.572996e+001  1.148365e+002 
4012500000  -2.680767e+001  1.077572e+002 
4015625000  -2.806268e+001  1.083459e+002 
4018750000  -2.824740e+001  1.105161e+002 
4021875000  -2.763341e+001  1.094611e+002 
4025000000  -2.726750e+001  1.041662e+002 
4028125000  -2.715498e+001  1.003740e+002 
4031250000  -2.762946e+001  9.730478e+001 
4034375000  -2.790415e+001  9.702061e+001 
4037500000  -2.742499e+001  9.938226e+001 
4040625000  -2.733573e+001  9.552270e+001 
4043750000  -2.766680e+001  9.509944e+001 
4046875000  -2.723323e+001  9.458518e+001 
4050000000  -2.673326e+001  8.941498e+001 
4053125000  -2.719908e+001  8.711585e+001 
4056250000  -2.776913e+001  9.111293e+001 
4059375000  -2.661483e+001  9.310429e+001 
4062500000  -2.518759e+001  8.875344e+001 
4065625000  -2.507916e+001  8.433501e+001 
4068750000  -2.477161e+001  7.946835e+001 
4071875000  -2.409904e+001  7.150348e+001 
4075000000  -2.448708e+001  6.541974e+001 
4078125000  -2.512074e+001  6.417106e+001 
4081250000  -2.453762e+001  6.217374e+001 
4084375000  -2.417171e+001  5.553956e+001 
4087500000  -2.448120e+001  4.906884e+001 
4090625000  -2.514103e+001  4.811039e+001 
4093750000  -2.487830e+001  4.852964e+001 
4096875000  -2.450008e+001  4.264468e+001 
4100000000  -2.516548e+001  3.586809e+001 
4103125000  -2.605294e+001  3.643489e+001 
4106250000  -2.592204e+001  4.115186e+001 
4109375000  -2.503161e+001  4.101979e+001 
4112500000  -2.446712e+001  3.419522e+001 
4115625000  -2.481420e+001  2.995116e+001 
4118750000  -2.488573e+001  2.669200e+001 
4121875000  -2.446543e+001  2.224141e+001 
4125000000  -2.487296e+001  1.713144e+001 
4128125000  -2.595164e+001  1.697240e+001 
4131250000  -2.556175e+001  2.535917e+001 
4134375000  -2.329811e+001  2.084207e+001 
4137500000  -2.307046e+001  2.201590e+000 
4140625000  -2.522750e+001  -4.883158e+000 
4143750000  -2.656985e+001  -1.726380e-001 
4146875000  -2.621991e+001  7.075889e+000 
4150000000  -2.523648e+001  3.814235e+000 
4153125000  -2.511411e+001  -2.557215e+000 
4156250000  -2.595500e+001  -4.973821e+000 
4159375000  -2.631734e+001  -4.651309e-001 
4162500000  -2.506728e+001  3.587956e+000 
4165625000  -2.397442e+001  -4.242278e-001 
4168750000  -2.336816e+001  -7.502621e+000 
4171875000  -2.334387e+001  -1.663125e+001 
4175000000  -2.394936e+001  -2.228683e+001 
4178125000  -2.456412e+001  -2.238626e+001 
4181250000  -2.442945e+001  -2.287675e+001 
4184375000  -2.430117e+001  -2.605956e+001 
4187500000  -2.432039e+001  -2.867617e+001 
4190625000  -2.410249e+001  -3.408825e+001 
4193750000  -2.495553e+001  -3.775338e+001 
4196875000  -2.555535e+001  -3.815641e+001 
4200000000  -2.648543e+001  -3.612440e+001 
4203125000  -2.654251e+001  -2.303013e+001 
4206250000  -2.318847e+001  -2.088609e+001 
4209375000  -2.196171e+001  -4.188523e+001 
4212500000  -2.383287e+001  -5.022747e+001 
4215625000  -2.484994e+001  -4.434771e+001 
4218750000  -2.356851e+001  -3.759414e+001 
4221875000  -2.128128e+001  -4.686773e+001 
4225000000  -2.253836e+001  -5.954786e+001 
4228125000  -2.318154e+001  -5.428966e+001 
4231250000  -2.159720e+001  -5.762875e+001 
4234375000  -2.157976e+001  -6.609869e+001 
4237500000  -2.111391e+001  -6.964020e+001 
4240625000  -2.110147e+001  -7.796516e+001 
4243750000  -2.209111e+001  -8.479966e+001 
4246875000  -2.299547e+001  -8.491759e+001 
4250000000  -2.302059e+001  -8.220068e+001 
4253125000  -2.250131e+001  -8.411151e+001 
4256250000  -2.278057e+001  -8.807281e+001 
4259375000  -2.252809e+001  -9.044497e+001 
4262500000  -2.250415e+001  -9.350058e+001 
4265625000  -2.264181e+001  -9.362888e+001 
4268750000  -2.179207e+001  -9.742693e+001 
4271875000  -2.157230e+001  -1.032337e+002 
4275000000  -2.094420e+001  -1.098372e+002 
4278125000  -2.157870e+001  -1.207783e+002 
4281250000  -2.341759e+001  -1.227570e+002 
4284375000  -2.306869e+001  -1.218907e+002 
4287500000  -2.384949e+001  -1.252280e+002 
4290625000  -2.510702e+001  -1.160087e+002 
4293750000  -2.311210e+001  -1.104963e+002 
4296875000  -2.176039e+001  -1.218068e+002 
4300000000  -2.264775e+001  -1.307109e+002 
4303125000  -2.371637e+001  -1.299872e+002 
4306250000  -2.312967e+001  -1.237748e+002 
4309375000  -2.176855e+001  -1.259674e+002 
4312500000  -2.166773e+001  -1.342197e+002 
4315625000  -2.184089e+001  -1.403822e+002 
4318750000  -2.214644e+001  -1.437895e+002 
4321875000  -2.235944e+001  -1.431828e+002 
4325000000  -2.178163e+001  -1.422454e+002 
4328125000  -2.125771e+001  -1.487261e+002 
4331250000  -2.119602e+001  -1.567688e+002 
4334375000  -2.165257e+001  -1.619661e+002 
4337500000  -2.242547e+001  -1.641642e+002 
4340625000  -2.302241e+001  -1.607585e+002 
4343750000  -2.237207e+001  -1.603410e+002 
4346875000  -2.202302e+001  -1.656821e+002 
4350000000  -2.204083e+001  -1.706576e+002 
4353125000  -2.207676e+001  -1.782836e+002 
4356250000  -2.384475e+001  -1.792359e+002 
4359375000  -2.448448e+001  -1.659330e+002 
4362500000  -2.175894e+001  -1.639755e+002 
4365625000  -2.011056e+001  -1.756909e+002 
4368750000  -2.080725e+001  1.725170e+002 
4371875000  -2.209551e+001  1.731411e+002 
4375000000  -2.173109e+001  1.744378e+002 
4378125000  -2.108486e+001  1.683829e+002 
4381250000  -2.125601e+001  1.630316e+002 
4384375000  -2.108388e+001  1.585385e+002 
4387500000  -2.182916e+001  1.525094e+002 
4390625000  -2.283648e+001  1.536692e+002 
4393750000  -2.213480e+001  1.557007e+002 
4396875000  -2.146156e+001  1.535211e+002 
4400000000  -2.094115e+001  1.464694e+002 
4403125000  -2.154097e+001  1.391344e+002 
4406250000  -2.242327e+001  1.377992e+002 
4409375000  -2.237522e+001  1.353519e+002 
4412500000  -2.342089e+001  1.327096e+002 
4415625000  -2.380484e+001  1.375721e+002 
4418750000  -2.262427e+001  1.422060e+002 
