!Agilent Technologies,E8363B,MY43030201,A.06.04.32
!Agilent E8363B: A.06.04.32
!Date: Tuesday, November 11, 2014 20:53:06
!Correction: S21(Response(S21)) 
!S1P File: Measurement: S21:
# Hz S  dB   R 50
3000000000  -2.651400e+001  1.507340e+002 
3003125000  -2.793405e+001  1.459107e+002 
3006250000  -2.797801e+001  1.431946e+002 
3009375000  -2.834153e+001  1.481173e+002 
3012500000  -2.781859e+001  1.477421e+002 
3015625000  -2.688217e+001  1.406552e+002 
3018750000  -2.769037e+001  1.398608e+002 
3021875000  -2.643395e+001  1.412286e+002 
3025000000  -2.512000e+001  1.382664e+002 
3028125000  -2.420864e+001  1.330348e+002 
3031250000  -2.315702e+001  1.219657e+002 
3034375000  -2.278719e+001  1.089636e+002 
3037500000  -2.312711e+001  9.694311e+001 
3040625000  -2.447074e+001  9.183705e+001 
3043750000  -2.519491e+001  8.745552e+001 
3046875000  -2.529420e+001  8.098832e+001 
3050000000  -2.701925e+001  7.447436e+001 
3053125000  -2.716933e+001  8.069315e+001 
3056250000  -2.649808e+001  8.383129e+001 
3059375000  -2.668552e+001  8.346970e+001 
3062500000  -2.525923e+001  7.940868e+001 
3065625000  -2.502675e+001  7.372409e+001 
3068750000  -2.473553e+001  6.681396e+001 
3071875000  -2.472497e+001  6.404431e+001 
3075000000  -2.467480e+001  6.005180e+001 
3078125000  -2.441901e+001  5.556321e+001 
3081250000  -2.505403e+001  5.149694e+001 
3084375000  -2.429496e+001  4.765001e+001 
3087500000  -2.423519e+001  4.419421e+001 
3090625000  -2.389018e+001  3.437046e+001 
3093750000  -2.435059e+001  2.637616e+001 
3096875000  -2.566096e+001  2.035751e+001 
3100000000  -2.578470e+001  1.909359e+001 
3103125000  -2.616051e+001  2.062534e+001 
3106250000  -2.586883e+001  1.708028e+001 
3109375000  -2.611064e+001  1.340691e+001 
3112500000  -2.622486e+001  1.240774e+001 
3115625000  -2.603869e+001  8.222014e+000 
3118750000  -2.652048e+001  9.706860e+000 
3121875000  -2.586662e+001  1.609897e+000 
3125000000  -2.704857e+001  -1.811389e+000 
3128125000  -2.827014e+001  6.178294e+000 
3131250000  -2.606226e+001  6.970457e+000 
3134375000  -2.472482e+001  -6.582201e+000 
3137500000  -2.538769e+001  -2.025797e+001 
3140625000  -2.695904e+001  -2.193152e+001 
3143750000  -2.804222e+001  -1.809959e+001 
3146875000  -2.762108e+001  -1.603618e+001 
3150000000  -2.654794e+001  -1.411528e+001 
3153125000  -2.655980e+001  -2.162073e+001 
3156250000  -2.754588e+001  -1.591819e+001 
3159375000  -2.595340e+001  -1.330818e+001 
3162500000  -2.391409e+001  -2.600820e+001 
3165625000  -2.484730e+001  -3.714103e+001 
3168750000  -2.523060e+001  -3.605669e+001 
3171875000  -2.426497e+001  -4.044572e+001 
3175000000  -2.494421e+001  -4.835875e+001 
3178125000  -2.474764e+001  -4.638914e+001 
3181250000  -2.355495e+001  -5.049155e+001 
3184375000  -2.274177e+001  -6.263179e+001 
3187500000  -2.389209e+001  -7.806086e+001 
3190625000  -2.662677e+001  -8.570878e+001 
3193750000  -2.718110e+001  -7.598562e+001 
3196875000  -2.678937e+001  -7.041498e+001 
3200000000  -2.591865e+001  -7.253371e+001 
3203125000  -2.507176e+001  -7.838346e+001 
3206250000  -2.537585e+001  -8.426642e+001 
3209375000  -2.490932e+001  -8.953711e+001 
3212500000  -2.507604e+001  -9.598458e+001 
3215625000  -2.519063e+001  -1.001199e+002 
3218750000  -2.590273e+001  -1.066769e+002 
3221875000  -2.692642e+001  -1.115139e+002 
3225000000  -2.653727e+001  -1.122439e+002 
3228125000  -2.683646e+001  -1.167984e+002 
3231250000  -2.760426e+001  -1.192103e+002 
3234375000  -2.745558e+001  -1.183117e+002 
3237500000  -2.746427e+001  -1.197647e+002 
3240625000  -2.713644e+001  -1.217162e+002 
3243750000  -2.682560e+001  -1.284787e+002 
3246875000  -2.729442e+001  -1.346778e+002 
3250000000  -2.776096e+001  -1.363469e+002 
3253125000  -2.786709e+001  -1.382951e+002 
3256250000  -2.777198e+001  -1.441439e+002 
3259375000  -2.805890e+001  -1.522207e+002 
3262500000  -2.934247e+001  -1.546109e+002 
3265625000  -2.999530e+001  -1.514914e+002 
3268750000  -2.998844e+001  -1.485385e+002 
3271875000  -2.975845e+001  -1.473573e+002 
3275000000  -2.868203e+001  -1.528004e+002 
3278125000  -2.915734e+001  -1.590361e+002 
3281250000  -2.940435e+001  -1.570163e+002 
3284375000  -2.893486e+001  -1.629870e+002 
3287500000  -2.916642e+001  -1.656567e+002 
3290625000  -2.950310e+001  -1.699458e+002 
3293750000  -2.917580e+001  -1.755866e+002 
3296875000  -3.023148e+001  -1.753955e+002 
3300000000  -3.013077e+001  -1.743833e+002 
3303125000  -2.901530e+001  -1.785623e+002 
3306250000  -2.869147e+001  1.750125e+002 
3309375000  -2.848861e+001  1.696738e+002 
3312500000  -2.853905e+001  1.597198e+002 
3315625000  -2.959085e+001  1.522142e+002 
3318750000  -3.093079e+001  1.493483e+002 
3321875000  -3.209498e+001  1.493753e+002 
3325000000  -3.268584e+001  1.543467e+002 
3328125000  -3.256445e+001  1.552820e+002 
3331250000  -3.126611e+001  1.636898e+002 
3334375000  -2.871338e+001  1.533554e+002 
3337500000  -2.882171e+001  1.350534e+002 
3340625000  -3.013619e+001  1.243209e+002 
3343750000  -3.206596e+001  1.227975e+002 
3346875000  -3.260659e+001  1.242225e+002 
3350000000  -3.192951e+001  1.226168e+002 
3353125000  -3.206947e+001  1.184923e+002 
3356250000  -3.178664e+001  1.103775e+002 
3359375000  -3.263015e+001  1.019552e+002 
3362500000  -3.397115e+001  9.707581e+001 
3365625000  -3.465117e+001  9.563140e+001 
3368750000  -3.550643e+001  9.378899e+001 
3371875000  -3.600241e+001  9.030207e+001 
3375000000  -3.760478e+001  8.819724e+001 
3378125000  -3.861276e+001  8.869289e+001 
3381250000  -4.029633e+001  9.695064e+001 
3384375000  -3.933650e+001  1.155993e+002 
3387500000  -3.607528e+001  1.024473e+002 
3390625000  -3.809943e+001  8.377714e+001 
3393750000  -3.977474e+001  8.692640e+001 
3396875000  -3.906903e+001  9.175046e+001 
3400000000  -3.883224e+001  8.516830e+001 
3403125000  -4.005962e+001  7.918970e+001 
3406250000  -4.129068e+001  8.193108e+001 
3409375000  -4.159114e+001  7.849483e+001 
3412500000  -4.246110e+001  8.005179e+001 
3415625000  -4.337911e+001  8.467906e+001 
3418750000  -4.357648e+001  8.876486e+001 
3421875000  -4.393946e+001  9.530629e+001 
3425000000  -4.323757e+001  9.970646e+001 
3428125000  -4.199458e+001  9.912990e+001 
3431250000  -4.203582e+001  9.595956e+001 
3434375000  -4.163232e+001  9.272144e+001 
3437500000  -4.192591e+001  8.918782e+001 
3440625000  -4.240094e+001  9.448730e+001 
3443750000  -4.103423e+001  9.689543e+001 
3446875000  -4.037350e+001  9.125838e+001 
3450000000  -4.000694e+001  8.191875e+001 
3453125000  -4.029398e+001  7.211572e+001 
3456250000  -4.162683e+001  6.824153e+001 
3459375000  -4.267181e+001  7.035751e+001 
3462500000  -4.257895e+001  7.150534e+001 
3465625000  -4.280280e+001  6.636891e+001 
3468750000  -4.290093e+001  6.542577e+001 
3471875000  -4.320546e+001  6.454887e+001 
3475000000  -4.313666e+001  5.825793e+001 
3478125000  -4.415609e+001  5.225316e+001 
3481250000  -4.535676e+001  5.196078e+001 
3484375000  -4.640102e+001  5.569802e+001 
3487500000  -4.665383e+001  5.876507e+001 
3490625000  -4.606139e+001  5.748009e+001 
3493750000  -4.669450e+001  5.295269e+001 
3496875000  -4.774845e+001  5.815923e+001 
3500000000  -4.976497e+001  5.840940e+001 
3503125000  -4.900653e+001  6.734341e+001 
3506250000  -4.787435e+001  7.169870e+001 
3509375000  -4.823870e+001  7.510025e+001 
3512500000  -4.904966e+001  7.050984e+001 
3515625000  -4.881061e+001  7.959377e+001 
3518750000  -4.894738e+001  8.706171e+001 
3521875000  -4.880750e+001  8.802612e+001 
3525000000  -4.805723e+001  8.900273e+001 
3528125000  -4.742884e+001  1.027294e+002 
3531250000  -4.571364e+001  1.017078e+002 
3534375000  -4.498563e+001  9.160642e+001 
3537500000  -4.510248e+001  8.767028e+001 
3540625000  -4.557901e+001  8.510618e+001 
3543750000  -4.549226e+001  8.752004e+001 
3546875000  -4.515770e+001  9.926649e+001 
3550000000  -4.254467e+001  1.023692e+002 
3553125000  -4.129587e+001  8.675691e+001 
3556250000  -4.220783e+001  8.038484e+001 
3559375000  -4.170309e+001  8.165485e+001 
3562500000  -4.058743e+001  7.245850e+001 
3565625000  -4.163336e+001  6.709332e+001 
3568750000  -4.167703e+001  7.033178e+001 
3571875000  -4.123554e+001  7.019002e+001 
3575000000  -4.083286e+001  6.387548e+001 
3578125000  -4.131224e+001  5.922074e+001 
3581250000  -4.155967e+001  6.036665e+001 
3584375000  -4.044601e+001  6.155654e+001 
3587500000  -4.003061e+001  5.403912e+001 
3590625000  -4.031792e+001  4.588403e+001 
3593750000  -4.178170e+001  4.337000e+001 
3596875000  -4.168151e+001  5.469800e+001 
3600000000  -3.993764e+001  5.059527e+001 
3603125000  -3.994860e+001  3.779533e+001 
3606250000  -4.100677e+001  3.497636e+001 
3609375000  -4.129963e+001  3.471632e+001 
3612500000  -4.181373e+001  3.359224e+001 
3615625000  -4.171843e+001  3.102619e+001 
3618750000  -4.246586e+001  3.353603e+001 
3621875000  -4.154429e+001  3.272091e+001 
3625000000  -4.183555e+001  3.344436e+001 
3628125000  -4.177503e+001  3.207987e+001 
3631250000  -4.162890e+001  3.046110e+001 
3634375000  -4.246305e+001  2.874815e+001 
3637500000  -4.188469e+001  3.610458e+001 
3640625000  -4.075785e+001  3.800416e+001 
3643750000  -4.047532e+001  2.922454e+001 
3646875000  -4.090486e+001  2.553658e+001 
3650000000  -4.136552e+001  2.409982e+001 
3653125000  -4.099695e+001  2.567870e+001 
3656250000  -4.121212e+001  2.401433e+001 
3659375000  -4.174929e+001  2.430587e+001 
3662500000  -4.111981e+001  2.523914e+001 
3665625000  -4.093416e+001  2.375137e+001 
3668750000  -3.985815e+001  2.790513e+001 
3671875000  -3.892690e+001  2.035432e+001 
3675000000  -3.933696e+001  1.437761e+001 
3678125000  -4.009205e+001  1.695546e+001 
3681250000  -3.949888e+001  1.632350e+001 
3684375000  -3.945999e+001  1.439787e+001 
3687500000  -3.966751e+001  1.350702e+001 
3690625000  -3.962498e+001  1.028421e+001 
3693750000  -4.010299e+001  1.209115e+001 
3696875000  -3.998191e+001  1.619601e+001 
3700000000  -3.891845e+001  1.361695e+001 
3703125000  -3.858363e+001  1.096913e+001 
3706250000  -3.936298e+001  1.304854e+001 
3709375000  -3.870635e+001  1.587385e+001 
3712500000  -3.747980e+001  1.567984e+001 
3715625000  -3.636939e+001  9.405409e+000 
3718750000  -3.574356e+001  7.265082e+000 
3721875000  -3.522835e+001  2.756464e+000 
3725000000  -3.521432e+001  -2.273083e+000 
3728125000  -3.541526e+001  -3.148896e+000 
3731250000  -3.481079e+001  -3.031819e+000 
3734375000  -3.371317e+001  -9.067060e+000 
3737500000  -3.433443e+001  -1.593043e+001 
3740625000  -3.471678e+001  -1.852525e+001 
3743750000  -3.446939e+001  -2.122125e+001 
3746875000  -3.441241e+001  -2.416747e+001 
3750000000  -3.478852e+001  -2.468376e+001 
3753125000  -3.442118e+001  -2.578155e+001 
3756250000  -3.448746e+001  -2.660087e+001 
3759375000  -3.415294e+001  -2.723735e+001 
3762500000  -3.356202e+001  -3.128001e+001 
3765625000  -3.400019e+001  -3.426563e+001 
3768750000  -3.397968e+001  -3.211695e+001 
3771875000  -3.215971e+001  -3.480050e+001 
3775000000  -3.195568e+001  -4.193509e+001 
3778125000  -3.233845e+001  -4.380860e+001 
3781250000  -3.216445e+001  -4.725911e+001 
3784375000  -3.218604e+001  -4.872819e+001 
3787500000  -3.139377e+001  -5.378606e+001 
3790625000  -3.199718e+001  -5.947027e+001 
3793750000  -3.219818e+001  -5.944551e+001 
3796875000  -3.134055e+001  -6.113309e+001 
3800000000  -2.970969e+001  -6.391907e+001 
3803125000  -3.045881e+001  -7.121917e+001 
3806250000  -3.105056e+001  -7.370961e+001 
3809375000  -3.087978e+001  -7.569815e+001 
3812500000  -3.024616e+001  -8.000774e+001 
3815625000  -3.084200e+001  -8.714515e+001 
3818750000  -3.191818e+001  -8.911475e+001 
3821875000  -3.185058e+001  -7.998125e+001 
3825000000  -2.998040e+001  -7.556410e+001 
3828125000  -2.863991e+001  -8.969300e+001 
3831250000  -2.921112e+001  -1.035306e+002 
3834375000  -3.047023e+001  -1.051770e+002 
3837500000  -3.139772e+001  -9.928665e+001 
3840625000  -3.031301e+001  -1.007282e+002 
3843750000  -2.923647e+001  -1.105165e+002 
3846875000  -2.990312e+001  -1.175376e+002 
3850000000  -3.126413e+001  -1.122107e+002 
3853125000  -3.040344e+001  -1.092792e+002 
3856250000  -3.035299e+001  -1.129672e+002 
3859375000  -2.961907e+001  -1.178864e+002 
3862500000  -2.927284e+001  -1.253059e+002 
3865625000  -2.948337e+001  -1.299147e+002 
3868750000  -2.943180e+001  -1.299416e+002 
3871875000  -2.869550e+001  -1.328133e+002 
3875000000  -2.876322e+001  -1.415051e+002 
3878125000  -2.980576e+001  -1.437816e+002 
3881250000  -2.991118e+001  -1.401606e+002 
3884375000  -2.930359e+001  -1.448921e+002 
3887500000  -2.940720e+001  -1.493425e+002 
3890625000  -2.988301e+001  -1.518404e+002 
3893750000  -3.034495e+001  -1.527561e+002 
3896875000  -3.042570e+001  -1.527398e+002 
3900000000  -3.067237e+001  -1.538567e+002 
3903125000  -3.031497e+001  -1.558945e+002 
3906250000  -2.997004e+001  -1.567064e+002 
3909375000  -2.929715e+001  -1.587594e+002 
3912500000  -2.935369e+001  -1.665312e+002 
3915625000  -3.043484e+001  -1.663574e+002 
3918750000  -3.053208e+001  -1.642679e+002 
3921875000  -3.014913e+001  -1.658839e+002 
3925000000  -2.937811e+001  -1.667135e+002 
3928125000  -2.866792e+001  -1.728278e+002 
3931250000  -2.904356e+001  -1.773258e+002 
3934375000  -2.937569e+001  -1.766776e+002 
3937500000  -2.947610e+001  -1.771336e+002 
3940625000  -3.007293e+001  -1.772787e+002 
3943750000  -2.911446e+001  -1.758674e+002 
3946875000  -2.786001e+001  1.789437e+002 
3950000000  -2.839206e+001  1.711962e+002 
3953125000  -2.928635e+001  1.718850e+002 
3956250000  -2.846130e+001  1.746356e+002 
3959375000  -2.706376e+001  1.714334e+002 
3962500000  -2.660503e+001  1.672472e+002 
3965625000  -2.632608e+001  1.589446e+002 
3968750000  -2.713300e+001  1.519976e+002 
3971875000  -2.756085e+001  1.503454e+002 
3975000000  -2.689830e+001  1.490068e+002 
3978125000  -2.676417e+001  1.476732e+002 
3981250000  -2.651159e+001  1.435718e+002 
3984375000  -2.671550e+001  1.374363e+002 
3987500000  -2.723930e+001  1.350677e+002 
3990625000  -2.721081e+001  1.344877e+002 
3993750000  -2.737842e+001  1.310359e+002 
3996875000  -2.735369e+001  1.288427e+002 
4000000000  -2.742246e+001  1.271867e+002 
4003125000  -2.799632e+001  1.294406e+002 
4006250000  -2.661489e+001  1.299764e+002 
4009375000  -2.533427e+001  1.175060e+002 
4012500000  -2.632183e+001  1.104764e+002 
4015625000  -2.759252e+001  1.106718e+002 
4018750000  -2.777735e+001  1.129006e+002 
4021875000  -2.706019e+001  1.111193e+002 
4025000000  -2.662521e+001  1.063781e+002 
4028125000  -2.658390e+001  1.022861e+002 
4031250000  -2.696612e+001  9.902608e+001 
4034375000  -2.723832e+001  9.869207e+001 
4037500000  -2.675178e+001  1.001892e+002 
4040625000  -2.671687e+001  9.677675e+001 
4043750000  -2.708046e+001  9.619629e+001 
4046875000  -2.651651e+001  9.592646e+001 
4050000000  -2.602804e+001  9.001919e+001 
4053125000  -2.659394e+001  8.772430e+001 
4056250000  -2.718260e+001  9.121282e+001 
4059375000  -2.603770e+001  9.328201e+001 
4062500000  -2.466004e+001  8.883576e+001 
4065625000  -2.455574e+001  8.495757e+001 
4068750000  -2.425702e+001  8.039474e+001 
4071875000  -2.353633e+001  7.224205e+001 
4075000000  -2.394443e+001  6.595412e+001 
4078125000  -2.444456e+001  6.495199e+001 
4081250000  -2.400342e+001  6.246062e+001 
4084375000  -2.361287e+001  5.594950e+001 
4087500000  -2.392510e+001  4.945741e+001 
4090625000  -2.454494e+001  4.834557e+001 
4093750000  -2.436565e+001  4.934247e+001 
4096875000  -2.397152e+001  4.326470e+001 
4100000000  -2.459310e+001  3.648615e+001 
4103125000  -2.544695e+001  3.751152e+001 
4106250000  -2.530570e+001  4.200527e+001 
4109375000  -2.445987e+001  4.174547e+001 
4112500000  -2.389889e+001  3.520274e+001 
4115625000  -2.415341e+001  3.089662e+001 
4118750000  -2.426488e+001  2.765198e+001 
4121875000  -2.392469e+001  2.318816e+001 
4125000000  -2.431471e+001  1.842082e+001 
4128125000  -2.527694e+001  1.891574e+001 
4131250000  -2.488506e+001  2.718612e+001 
4134375000  -2.251136e+001  2.247020e+001 
4137500000  -2.227700e+001  3.362782e+000 
4140625000  -2.444855e+001  -3.911541e+000 
4143750000  -2.578288e+001  1.059513e+000 
4146875000  -2.527964e+001  8.312226e+000 
4150000000  -2.434400e+001  4.887980e+000 
4153125000  -2.419637e+001  -1.715042e+000 
4156250000  -2.507388e+001  -4.377197e+000 
4159375000  -2.539448e+001  1.145485e-001 
4162500000  -2.428047e+001  4.066452e+000 
4165625000  -2.309048e+001  3.409510e-001 
4168750000  -2.246625e+001  -7.059026e+000 
4171875000  -2.241487e+001  -1.648619e+001 
4175000000  -2.293791e+001  -2.218582e+001 
4178125000  -2.359436e+001  -2.260325e+001 
4181250000  -2.348610e+001  -2.335703e+001 
4184375000  -2.332373e+001  -2.690927e+001 
4187500000  -2.337450e+001  -2.962396e+001 
4190625000  -2.324485e+001  -3.514951e+001 
4193750000  -2.399892e+001  -3.929765e+001 
4196875000  -2.476402e+001  -3.961666e+001 
4200000000  -2.559572e+001  -3.694604e+001 
4203125000  -2.562499e+001  -2.407318e+001 
4206250000  -2.237326e+001  -2.245382e+001 
4209375000  -2.116582e+001  -4.285036e+001 
4212500000  -2.312388e+001  -5.134485e+001 
4215625000  -2.405318e+001  -4.454177e+001 
4218750000  -2.262763e+001  -3.782528e+001 
4221875000  -2.033349e+001  -4.753999e+001 
4225000000  -2.152852e+001  -6.049294e+001 
4228125000  -2.227209e+001  -5.541504e+001 
4231250000  -2.081477e+001  -5.886619e+001 
4234375000  -2.069548e+001  -6.722195e+001 
4237500000  -2.030452e+001  -7.099706e+001 
4240625000  -2.036197e+001  -7.946593e+001 
4243750000  -2.133230e+001  -8.556616e+001 
4246875000  -2.216526e+001  -8.533751e+001 
4250000000  -2.213714e+001  -8.272021e+001 
4253125000  -2.155029e+001  -8.477454e+001 
4256250000  -2.179097e+001  -8.876041e+001 
4259375000  -2.155616e+001  -9.099559e+001 
4262500000  -2.156068e+001  -9.469881e+001 
4265625000  -2.171557e+001  -9.470080e+001 
4268750000  -2.089668e+001  -9.823853e+001 
4271875000  -2.059003e+001  -1.036727e+002 
4275000000  -1.993148e+001  -1.103834e+002 
4278125000  -2.048266e+001  -1.222269e+002 
4281250000  -2.222505e+001  -1.245722e+002 
4284375000  -2.203419e+001  -1.240620e+002 
4287500000  -2.287953e+001  -1.277480e+002 
4290625000  -2.415476e+001  -1.178120e+002 
4293750000  -2.215619e+001  -1.122505e+002 
4296875000  -2.079222e+001  -1.231116e+002 
4300000000  -2.162662e+001  -1.326154e+002 
4303125000  -2.263293e+001  -1.316696e+002 
4306250000  -2.196492e+001  -1.261219e+002 
4309375000  -2.066682e+001  -1.288997e+002 
4312500000  -2.060241e+001  -1.371732e+002 
4315625000  -2.088463e+001  -1.432621e+002 
4318750000  -2.117485e+001  -1.466743e+002 
4321875000  -2.136850e+001  -1.459476e+002 
4325000000  -2.073115e+001  -1.457084e+002 
4328125000  -2.026245e+001  -1.525629e+002 
4331250000  -2.028989e+001  -1.601892e+002 
4334375000  -2.076951e+001  -1.651796e+002 
4337500000  -2.152236e+001  -1.676255e+002 
4340625000  -2.204913e+001  -1.644712e+002 
4343750000  -2.151312e+001  -1.639888e+002 
4346875000  -2.111540e+001  -1.691700e+002 
4350000000  -2.104259e+001  -1.737459e+002 
4353125000  -2.111781e+001  1.779923e+002 
4356250000  -2.278178e+001  1.768875e+002 
4359375000  -2.350640e+001  -1.701668e+002 
4362500000  -2.092592e+001  -1.676489e+002 
4365625000  -1.935861e+001  -1.794578e+002 
4368750000  -2.004061e+001  1.688124e+002 
4371875000  -2.112853e+001  1.693344e+002 
4375000000  -2.090239e+001  1.704970e+002 
4378125000  -2.026546e+001  1.650126e+002 
4381250000  -2.035107e+001  1.597052e+002 
4384375000  -2.016728e+001  1.549937e+002 
4387500000  -2.081871e+001  1.489770e+002 
4390625000  -2.185979e+001  1.495578e+002 
4393750000  -2.125401e+001  1.519796e+002 
4396875000  -2.060324e+001  1.498995e+002 
4400000000  -2.009105e+001  1.431548e+002 
4403125000  -2.057606e+001  1.352163e+002 
4406250000  -2.145872e+001  1.340025e+002 
4409375000  -2.138947e+001  1.317400e+002 
4412500000  -2.232958e+001  1.284300e+002 
4415625000  -2.279570e+001  1.332220e+002 
4418750000  -2.167537e+001  1.378819e+002 
