!Agilent Technologies,E8363B,MY43030201,A.06.04.32
!Agilent E8363B: A.06.04.32
!Date: Tuesday, November 11, 2014 20:54:33
!Correction: S21(Response(S21)) 
!S1P File: Measurement: S21:
# Hz S  dB   R 50
3000000000  -2.667435e+001  1.508254e+002 
3003125000  -2.803575e+001  1.460977e+002 
3006250000  -2.810069e+001  1.434992e+002 
3009375000  -2.848402e+001  1.485697e+002 
3012500000  -2.788334e+001  1.477627e+002 
3015625000  -2.699130e+001  1.410210e+002 
3018750000  -2.780573e+001  1.402274e+002 
3021875000  -2.653381e+001  1.416209e+002 
3025000000  -2.523297e+001  1.383076e+002 
3028125000  -2.427409e+001  1.331072e+002 
3031250000  -2.324292e+001  1.220050e+002 
3034375000  -2.284511e+001  1.089951e+002 
3037500000  -2.320943e+001  9.719152e+001 
3040625000  -2.455687e+001  9.217216e+001 
3043750000  -2.524844e+001  8.777034e+001 
3046875000  -2.538361e+001  8.131168e+001 
3050000000  -2.705317e+001  7.450642e+001 
3053125000  -2.717517e+001  8.105975e+001 
3056250000  -2.653805e+001  8.415103e+001 
3059375000  -2.682982e+001  8.356509e+001 
3062500000  -2.533836e+001  7.983076e+001 
3065625000  -2.508520e+001  7.381666e+001 
3068750000  -2.477926e+001  6.687426e+001 
3071875000  -2.476876e+001  6.388396e+001 
3075000000  -2.472801e+001  6.035386e+001 
3078125000  -2.445021e+001  5.586729e+001 
3081250000  -2.505820e+001  5.154085e+001 
3084375000  -2.431706e+001  4.790008e+001 
3087500000  -2.422284e+001  4.426376e+001 
3090625000  -2.393051e+001  3.439257e+001 
3093750000  -2.437283e+001  2.679248e+001 
3096875000  -2.563803e+001  2.058360e+001 
3100000000  -2.578223e+001  1.931495e+001 
3103125000  -2.617389e+001  2.074529e+001 
3106250000  -2.585980e+001  1.718524e+001 
3109375000  -2.612602e+001  1.351746e+001 
3112500000  -2.621534e+001  1.242691e+001 
3115625000  -2.603783e+001  8.340150e+000 
3118750000  -2.649828e+001  9.845472e+000 
3121875000  -2.586073e+001  1.512227e+000 
3125000000  -2.704616e+001  -1.757960e+000 
3128125000  -2.823555e+001  6.209491e+000 
3131250000  -2.602427e+001  7.059569e+000 
3134375000  -2.468888e+001  -6.674095e+000 
3137500000  -2.530341e+001  -2.045861e+001 
3140625000  -2.696004e+001  -2.214579e+001 
3143750000  -2.798232e+001  -1.827976e+001 
3146875000  -2.756128e+001  -1.624311e+001 
3150000000  -2.653613e+001  -1.412994e+001 
3153125000  -2.654982e+001  -2.164541e+001 
3156250000  -2.752838e+001  -1.595559e+001 
3159375000  -2.591029e+001  -1.348193e+001 
3162500000  -2.385902e+001  -2.648750e+001 
3165625000  -2.480527e+001  -3.738881e+001 
3168750000  -2.518509e+001  -3.630239e+001 
3171875000  -2.426222e+001  -4.090686e+001 
3175000000  -2.486749e+001  -4.840558e+001 
3178125000  -2.467389e+001  -4.695411e+001 
3181250000  -2.351410e+001  -5.076366e+001 
3184375000  -2.271688e+001  -6.293332e+001 
3187500000  -2.383861e+001  -7.813393e+001 
3190625000  -2.663218e+001  -8.538588e+001 
3193750000  -2.719460e+001  -7.602485e+001 
3196875000  -2.675826e+001  -7.074190e+001 
3200000000  -2.588397e+001  -7.271095e+001 
3203125000  -2.505371e+001  -7.842387e+001 
3206250000  -2.535225e+001  -8.457919e+001 
3209375000  -2.487224e+001  -8.960942e+001 
3212500000  -2.500745e+001  -9.617507e+001 
3215625000  -2.512892e+001  -9.989367e+001 
3218750000  -2.584653e+001  -1.067893e+002 
3221875000  -2.683192e+001  -1.116325e+002 
3225000000  -2.641707e+001  -1.123012e+002 
3228125000  -2.677639e+001  -1.172134e+002 
3231250000  -2.752019e+001  -1.198228e+002 
3234375000  -2.738346e+001  -1.186245e+002 
3237500000  -2.739916e+001  -1.200506e+002 
3240625000  -2.707580e+001  -1.219978e+002 
3243750000  -2.669003e+001  -1.287256e+002 
3246875000  -2.719572e+001  -1.351322e+002 
3250000000  -2.760855e+001  -1.368008e+002 
3253125000  -2.777559e+001  -1.387714e+002 
3256250000  -2.764129e+001  -1.448916e+002 
3259375000  -2.799565e+001  -1.522369e+002 
3262500000  -2.917714e+001  -1.551266e+002 
3265625000  -2.995110e+001  -1.514080e+002 
3268750000  -2.991314e+001  -1.490789e+002 
3271875000  -2.958425e+001  -1.479275e+002 
3275000000  -2.853650e+001  -1.533394e+002 
3278125000  -2.902528e+001  -1.591843e+002 
3281250000  -2.928745e+001  -1.572995e+002 
3284375000  -2.882737e+001  -1.632432e+002 
3287500000  -2.896187e+001  -1.659516e+002 
3290625000  -2.938661e+001  -1.702793e+002 
3293750000  -2.909344e+001  -1.759565e+002 
3296875000  -3.015651e+001  -1.758712e+002 
3300000000  -3.000288e+001  -1.749882e+002 
3303125000  -2.887330e+001  -1.788430e+002 
3306250000  -2.866279e+001  1.748042e+002 
3309375000  -2.838825e+001  1.694825e+002 
3312500000  -2.847309e+001  1.593584e+002 
3315625000  -2.945149e+001  1.514234e+002 
3318750000  -3.088306e+001  1.491169e+002 
3321875000  -3.202773e+001  1.489802e+002 
3325000000  -3.248542e+001  1.533730e+002 
3328125000  -3.240044e+001  1.559729e+002 
3331250000  -3.118972e+001  1.634783e+002 
3334375000  -2.860866e+001  1.534884e+002 
3337500000  -2.864744e+001  1.347619e+002 
3340625000  -3.003398e+001  1.244783e+002 
3343750000  -3.197286e+001  1.230117e+002 
3346875000  -3.240658e+001  1.243027e+002 
3350000000  -3.178151e+001  1.234175e+002 
3353125000  -3.189679e+001  1.183508e+002 
3356250000  -3.163499e+001  1.104110e+002 
3359375000  -3.246256e+001  1.025843e+002 
3362500000  -3.378582e+001  9.763548e+001 
3365625000  -3.439041e+001  9.545655e+001 
3368750000  -3.539729e+001  9.309458e+001 
3371875000  -3.566969e+001  9.079606e+001 
3375000000  -3.744571e+001  8.938844e+001 
3378125000  -3.845511e+001  8.864384e+001 
3381250000  -3.996965e+001  9.650912e+001 
3384375000  -3.898185e+001  1.172781e+002 
3387500000  -3.579519e+001  1.033803e+002 
3390625000  -3.773069e+001  8.456903e+001 
3393750000  -3.946702e+001  8.931655e+001 
3396875000  -3.863038e+001  9.126755e+001 
3400000000  -3.841077e+001  8.530125e+001 
3403125000  -3.961322e+001  8.041673e+001 
3406250000  -4.020816e+001  8.329157e+001 
3409375000  -4.081256e+001  7.791238e+001 
3412500000  -4.171363e+001  7.964223e+001 
3415625000  -4.266862e+001  8.435508e+001 
3418750000  -4.289968e+001  8.753336e+001 
3421875000  -4.315981e+001  9.550634e+001 
3425000000  -4.211827e+001  9.708968e+001 
3428125000  -4.158490e+001  9.572074e+001 
3431250000  -4.136413e+001  9.223701e+001 
3434375000  -4.128047e+001  8.809933e+001 
3437500000  -4.164688e+001  8.713741e+001 
3440625000  -4.200929e+001  9.031061e+001 
3443750000  -4.091211e+001  9.150693e+001 
3446875000  -4.007277e+001  8.802790e+001 
3450000000  -3.973917e+001  7.832668e+001 
3453125000  -4.018229e+001  6.927218e+001 
3456250000  -4.127838e+001  6.423721e+001 
3459375000  -4.234192e+001  6.642107e+001 
3462500000  -4.231392e+001  6.942009e+001 
3465625000  -4.240974e+001  6.422105e+001 
3468750000  -4.284689e+001  6.099027e+001 
3471875000  -4.298363e+001  6.252491e+001 
3475000000  -4.294529e+001  5.785388e+001 
3478125000  -4.350245e+001  5.257481e+001 
3481250000  -4.480496e+001  5.009530e+001 
3484375000  -4.630670e+001  5.642625e+001 
3487500000  -4.600999e+001  5.964458e+001 
3490625000  -4.541822e+001  5.550257e+001 
3493750000  -4.604271e+001  5.398631e+001 
3496875000  -4.728147e+001  5.509275e+001 
3500000000  -4.860195e+001  6.129277e+001 
3503125000  -4.863210e+001  6.785645e+001 
3506250000  -4.766431e+001  6.646575e+001 
3509375000  -4.737529e+001  6.521185e+001 
3512500000  -4.757908e+001  6.212386e+001 
3515625000  -4.841524e+001  6.825664e+001 
3518750000  -4.871467e+001  7.254090e+001 
3521875000  -4.881115e+001  7.647572e+001 
3525000000  -4.833105e+001  7.884007e+001 
3528125000  -4.748218e+001  9.185531e+001 
3531250000  -4.633414e+001  9.165633e+001 
3534375000  -4.544590e+001  8.434837e+001 
3537500000  -4.547066e+001  8.269646e+001 
3540625000  -4.598260e+001  8.457246e+001 
3543750000  -4.610325e+001  8.416737e+001 
3546875000  -4.562839e+001  9.885381e+001 
3550000000  -4.337626e+001  1.009591e+002 
3553125000  -4.168052e+001  8.469297e+001 
3556250000  -4.285806e+001  7.821526e+001 
3559375000  -4.249444e+001  8.038226e+001 
3562500000  -4.094862e+001  7.326507e+001 
3565625000  -4.207211e+001  6.819478e+001 
3568750000  -4.219201e+001  6.810838e+001 
3571875000  -4.150267e+001  6.941169e+001 
3575000000  -4.102728e+001  6.599478e+001 
3578125000  -4.122997e+001  6.251235e+001 
3581250000  -4.166801e+001  6.248888e+001 
3584375000  -4.086824e+001  5.905590e+001 
3587500000  -4.016388e+001  5.381653e+001 
3590625000  -4.021249e+001  4.586079e+001 
3593750000  -4.148247e+001  4.688207e+001 
3596875000  -4.134939e+001  5.140129e+001 
3600000000  -3.986495e+001  4.876091e+001 
3603125000  -3.975625e+001  3.693729e+001 
3606250000  -4.064754e+001  3.437568e+001 
3609375000  -4.054831e+001  3.117504e+001 
3612500000  -4.124133e+001  3.249194e+001 
3615625000  -4.127647e+001  2.942500e+001 
3618750000  -4.185470e+001  3.329450e+001 
3621875000  -4.164464e+001  2.967299e+001 
3625000000  -4.173338e+001  2.988945e+001 
3628125000  -4.178099e+001  2.887511e+001 
3631250000  -4.119050e+001  2.561108e+001 
3634375000  -4.251551e+001  2.583930e+001 
3637500000  -4.162965e+001  3.136165e+001 
3640625000  -4.097519e+001  3.183104e+001 
3643750000  -4.037378e+001  2.572595e+001 
3646875000  -4.092699e+001  2.178554e+001 
3650000000  -4.131287e+001  1.971490e+001 
3653125000  -4.140804e+001  2.074385e+001 
3656250000  -4.121181e+001  1.926936e+001 
3659375000  -4.186874e+001  2.315666e+001 
3662500000  -4.102967e+001  2.149433e+001 
3665625000  -4.117395e+001  2.245439e+001 
3668750000  -4.012838e+001  2.398655e+001 
3671875000  -3.902677e+001  1.843250e+001 
3675000000  -3.949035e+001  1.281833e+001 
3678125000  -3.996117e+001  1.503790e+001 
3681250000  -3.944730e+001  1.476557e+001 
3684375000  -3.933613e+001  1.302445e+001 
3687500000  -3.952312e+001  1.117709e+001 
3690625000  -3.960227e+001  1.051078e+001 
3693750000  -3.994976e+001  1.282163e+001 
3696875000  -3.988974e+001  1.400310e+001 
3700000000  -3.864318e+001  1.460580e+001 
3703125000  -3.818947e+001  9.097741e+000 
3706250000  -3.921814e+001  1.115044e+001 
3709375000  -3.841692e+001  1.524406e+001 
3712500000  -3.732101e+001  1.430298e+001 
3715625000  -3.619459e+001  7.976744e+000 
3718750000  -3.539130e+001  4.575002e+000 
3721875000  -3.500066e+001  -1.926667e-001 
3725000000  -3.497824e+001  -5.847704e+000 
3728125000  -3.509006e+001  -5.455267e+000 
3731250000  -3.452713e+001  -6.131680e+000 
3734375000  -3.359620e+001  -1.276527e+001 
3737500000  -3.410317e+001  -1.968786e+001 
3740625000  -3.458984e+001  -2.291836e+001 
3743750000  -3.433021e+001  -2.420702e+001 
3746875000  -3.432558e+001  -2.791761e+001 
3750000000  -3.478460e+001  -2.946849e+001 
3753125000  -3.427456e+001  -2.961435e+001 
3756250000  -3.425040e+001  -3.008105e+001 
3759375000  -3.410509e+001  -3.086067e+001 
3762500000  -3.355369e+001  -3.490363e+001 
3765625000  -3.393493e+001  -3.783041e+001 
3768750000  -3.415263e+001  -3.573428e+001 
3771875000  -3.235605e+001  -3.826492e+001 
3775000000  -3.218949e+001  -4.569532e+001 
3778125000  -3.249540e+001  -4.698856e+001 
3781250000  -3.223176e+001  -4.992420e+001 
3784375000  -3.213624e+001  -5.170420e+001 
3787500000  -3.159980e+001  -5.544183e+001 
3790625000  -3.214981e+001  -6.178227e+001 
3793750000  -3.229291e+001  -6.141805e+001 
3796875000  -3.126576e+001  -6.280204e+001 
3800000000  -2.975886e+001  -6.629572e+001 
3803125000  -3.054097e+001  -7.344756e+001 
3806250000  -3.119175e+001  -7.571422e+001 
3809375000  -3.096807e+001  -7.669467e+001 
3812500000  -3.033417e+001  -8.179902e+001 
3815625000  -3.083890e+001  -8.881106e+001 
3818750000  -3.185378e+001  -9.050728e+001 
3821875000  -3.205147e+001  -8.080458e+001 
3825000000  -3.004935e+001  -7.759958e+001 
3828125000  -2.865554e+001  -9.131635e+001 
3831250000  -2.908925e+001  -1.053836e+002 
3834375000  -3.047410e+001  -1.067031e+002 
3837500000  -3.135453e+001  -1.013649e+002 
3840625000  -3.028814e+001  -1.020924e+002 
3843750000  -2.914489e+001  -1.120610e+002 
3846875000  -2.972201e+001  -1.188119e+002 
3850000000  -3.109132e+001  -1.140336e+002 
3853125000  -3.030073e+001  -1.111696e+002 
3856250000  -3.018954e+001  -1.155641e+002 
3859375000  -2.953382e+001  -1.206199e+002 
3862500000  -2.907230e+001  -1.275172e+002 
3865625000  -2.932327e+001  -1.322402e+002 
3868750000  -2.930881e+001  -1.325957e+002 
3871875000  -2.861932e+001  -1.351119e+002 
3875000000  -2.878189e+001  -1.442323e+002 
3878125000  -2.974651e+001  -1.464442e+002 
3881250000  -2.984442e+001  -1.430504e+002 
3884375000  -2.926055e+001  -1.485050e+002 
3887500000  -2.937818e+001  -1.525799e+002 
3890625000  -2.996635e+001  -1.548759e+002 
3893750000  -3.040956e+001  -1.564126e+002 
3896875000  -3.049027e+001  -1.558531e+002 
3900000000  -3.080873e+001  -1.564151e+002 
3903125000  -3.032853e+001  -1.579276e+002 
3906250000  -3.008934e+001  -1.593284e+002 
3909375000  -2.929410e+001  -1.617128e+002 
3912500000  -2.941748e+001  -1.696606e+002 
3915625000  -3.062091e+001  -1.685530e+002 
3918750000  -3.068540e+001  -1.661568e+002 
3921875000  -3.033914e+001  -1.680945e+002 
3925000000  -2.943889e+001  -1.688986e+002 
3928125000  -2.873644e+001  -1.746526e+002 
3931250000  -2.917471e+001  -1.786402e+002 
3934375000  -2.943833e+001  -1.779715e+002 
3937500000  -2.956396e+001  -1.792027e+002 
3940625000  -3.005454e+001  -1.791448e+002 
3943750000  -2.904927e+001  -1.773132e+002 
3946875000  -2.789717e+001  1.771750e+002 
3950000000  -2.834022e+001  1.699672e+002 
3953125000  -2.925292e+001  1.705624e+002 
3956250000  -2.840400e+001  1.734464e+002 
3959375000  -2.694899e+001  1.695825e+002 
3962500000  -2.652156e+001  1.659950e+002 
3965625000  -2.619840e+001  1.570515e+002 
3968750000  -2.697953e+001  1.504743e+002 
3971875000  -2.745221e+001  1.489207e+002 
3975000000  -2.681955e+001  1.466529e+002 
3978125000  -2.657065e+001  1.450088e+002 
3981250000  -2.635274e+001  1.412820e+002 
3984375000  -2.658848e+001  1.347742e+002 
3987500000  -2.709450e+001  1.326425e+002 
3990625000  -2.703251e+001  1.319380e+002 
3993750000  -2.727379e+001  1.285254e+002 
3996875000  -2.724111e+001  1.263409e+002 
4000000000  -2.732424e+001  1.241447e+002 
4003125000  -2.800160e+001  1.260921e+002 
4006250000  -2.655391e+001  1.268383e+002 
4009375000  -2.526242e+001  1.147156e+002 
4012500000  -2.630594e+001  1.075326e+002 
4015625000  -2.754827e+001  1.078926e+002 
4018750000  -2.776846e+001  1.098956e+002 
4021875000  -2.709739e+001  1.083306e+002 
4025000000  -2.671783e+001  1.033883e+002 
4028125000  -2.661171e+001  9.967171e+001 
4031250000  -2.706355e+001  9.633294e+001 
4034375000  -2.737510e+001  9.593776e+001 
4037500000  -2.686655e+001  9.757930e+001 
4040625000  -2.677126e+001  9.405334e+001 
4043750000  -2.717640e+001  9.417403e+001 
4046875000  -2.666472e+001  9.358475e+001 
4050000000  -2.620140e+001  8.791924e+001 
4053125000  -2.660574e+001  8.583334e+001 
4056250000  -2.729505e+001  8.984435e+001 
4059375000  -2.607737e+001  9.134038e+001 
4062500000  -2.474252e+001  8.680918e+001 
4065625000  -2.458520e+001  8.315971e+001 
4068750000  -2.422627e+001  7.876719e+001 
4071875000  -2.352339e+001  7.091069e+001 
4075000000  -2.388314e+001  6.452557e+001 
4078125000  -2.441205e+001  6.338916e+001 
4081250000  -2.391830e+001  6.083239e+001 
4084375000  -2.351806e+001  5.428272e+001 
4087500000  -2.388088e+001  4.781765e+001 
4090625000  -2.448477e+001  4.660643e+001 
4093750000  -2.431629e+001  4.711755e+001 
4096875000  -2.389412e+001  4.128258e+001 
4100000000  -2.456641e+001  3.434354e+001 
4103125000  -2.539716e+001  3.509033e+001 
4106250000  -2.521885e+001  3.995427e+001 
4109375000  -2.429740e+001  3.903082e+001 
4112500000  -2.376524e+001  3.253599e+001 
4115625000  -2.405920e+001  2.794174e+001 
4118750000  -2.418190e+001  2.505035e+001 
4121875000  -2.388015e+001  2.054720e+001 
4125000000  -2.424463e+001  1.563700e+001 
4128125000  -2.524111e+001  1.596820e+001 
4131250000  -2.483495e+001  2.435032e+001 
4134375000  -2.245611e+001  1.926241e+001 
4137500000  -2.226856e+001  4.620275e-001 
4140625000  -2.442009e+001  -6.912586e+000 
4143750000  -2.579268e+001  -1.785807e+000 
4146875000  -2.532862e+001  5.420273e+000 
4150000000  -2.434610e+001  2.143196e+000 
4153125000  -2.423943e+001  -4.753705e+000 
4156250000  -2.514028e+001  -7.303111e+000 
4159375000  -2.543761e+001  -3.004972e+000 
4162500000  -2.428230e+001  1.246138e+000 
4165625000  -2.320242e+001  -2.670425e+000 
4168750000  -2.252724e+001  -9.558094e+000 
4171875000  -2.246485e+001  -1.884856e+001 
4175000000  -2.305201e+001  -2.489894e+001 
4178125000  -2.362439e+001  -2.512180e+001 
4181250000  -2.354446e+001  -2.548312e+001 
4184375000  -2.342662e+001  -2.885094e+001 
4187500000  -2.345178e+001  -3.163563e+001 
4190625000  -2.331591e+001  -3.744622e+001 
4193750000  -2.408017e+001  -4.123476e+001 
4196875000  -2.481290e+001  -4.117005e+001 
4200000000  -2.563597e+001  -3.894538e+001 
4203125000  -2.559636e+001  -2.580562e+001 
4206250000  -2.230247e+001  -2.451699e+001 
4209375000  -2.115709e+001  -4.477225e+001 
4212500000  -2.310135e+001  -5.291001e+001 
4215625000  -2.405680e+001  -4.620273e+001 
4218750000  -2.259375e+001  -3.989212e+001 
4221875000  -2.025866e+001  -4.960551e+001 
4225000000  -2.147281e+001  -6.230043e+001 
4228125000  -2.219756e+001  -5.766122e+001 
4231250000  -2.073331e+001  -6.139080e+001 
4234375000  -2.058365e+001  -6.962659e+001 
4237500000  -2.020603e+001  -7.336308e+001 
4240625000  -2.029463e+001  -8.165599e+001 
4243750000  -2.127950e+001  -8.803860e+001 
4246875000  -2.207453e+001  -8.828948e+001 
4250000000  -2.209826e+001  -8.546929e+001 
4253125000  -2.153133e+001  -8.762086e+001 
4256250000  -2.170360e+001  -9.171088e+001 
4259375000  -2.152390e+001  -9.388333e+001 
4262500000  -2.155833e+001  -9.748178e+001 
4265625000  -2.170530e+001  -9.728181e+001 
4268750000  -2.090151e+001  -1.011887e+002 
4271875000  -2.058006e+001  -1.067495e+002 
4275000000  -1.994203e+001  -1.135442e+002 
4278125000  -2.052137e+001  -1.250265e+002 
4281250000  -2.226206e+001  -1.275335e+002 
4284375000  -2.207412e+001  -1.269537e+002 
4287500000  -2.290858e+001  -1.306413e+002 
4290625000  -2.426413e+001  -1.206321e+002 
4293750000  -2.225579e+001  -1.148562e+002 
4296875000  -2.086175e+001  -1.261293e+002 
4300000000  -2.173665e+001  -1.352887e+002 
4303125000  -2.276799e+001  -1.340372e+002 
4306250000  -2.209211e+001  -1.287789e+002 
4309375000  -2.072813e+001  -1.312730e+002 
4312500000  -2.071982e+001  -1.394071e+002 
4315625000  -2.096053e+001  -1.455588e+002 
4318750000  -2.130225e+001  -1.486599e+002 
4321875000  -2.144027e+001  -1.479796e+002 
4325000000  -2.083798e+001  -1.478074e+002 
4328125000  -2.032713e+001  -1.543016e+002 
4331250000  -2.036343e+001  -1.622387e+002 
4334375000  -2.081379e+001  -1.670699e+002 
4337500000  -2.154316e+001  -1.692222e+002 
4340625000  -2.205164e+001  -1.662586e+002 
4343750000  -2.152448e+001  -1.658282e+002 
4346875000  -2.113518e+001  -1.707584e+002 
4350000000  -2.100858e+001  -1.755697e+002 
4353125000  -2.110126e+001  1.762988e+002 
4356250000  -2.284105e+001  1.748575e+002 
4359375000  -2.346937e+001  -1.719225e+002 
4362500000  -2.081078e+001  -1.698842e+002 
4365625000  -1.928776e+001  1.786796e+002 
4368750000  -1.996427e+001  1.668477e+002 
4371875000  -2.110951e+001  1.671606e+002 
4375000000  -2.081439e+001  1.682203e+002 
4378125000  -2.020937e+001  1.624998e+002 
4381250000  -2.026525e+001  1.571249e+002 
4384375000  -2.015600e+001  1.526481e+002 
4387500000  -2.078981e+001  1.463531e+002 
4390625000  -2.179940e+001  1.471113e+002 
4393750000  -2.123965e+001  1.493812e+002 
4396875000  -2.054906e+001  1.470562e+002 
4400000000  -2.006867e+001  1.402585e+002 
4403125000  -2.061524e+001  1.324877e+002 
4406250000  -2.144544e+001  1.311659e+002 
4409375000  -2.143394e+001  1.288032e+002 
4412500000  -2.233127e+001  1.258948e+002 
4415625000  -2.281620e+001  1.303026e+002 
4418750000  -2.173249e+001  1.353259e+002 
