!Agilent Technologies,E8363B,MY43030201,A.06.04.32
!Agilent E8363B: A.06.04.32
!Date: Tuesday, November 11, 2014 20:52:41
!Correction: S21(Response(S21)) 
!S1P File: Measurement: S21:
# Hz S  dB   R 50
3000000000  -2.654756e+001  1.507953e+002 
3003125000  -2.795327e+001  1.464938e+002 
3006250000  -2.804204e+001  1.438624e+002 
3009375000  -2.839347e+001  1.489128e+002 
3012500000  -2.778103e+001  1.482295e+002 
3015625000  -2.690404e+001  1.414562e+002 
3018750000  -2.771001e+001  1.403373e+002 
3021875000  -2.647101e+001  1.419347e+002 
3025000000  -2.513323e+001  1.388170e+002 
3028125000  -2.414724e+001  1.336024e+002 
3031250000  -2.312968e+001  1.224079e+002 
3034375000  -2.278008e+001  1.093773e+002 
3037500000  -2.314564e+001  9.741982e+001 
3040625000  -2.447493e+001  9.245491e+001 
3043750000  -2.514627e+001  8.806521e+001 
3046875000  -2.528242e+001  8.175592e+001 
3050000000  -2.702121e+001  7.491865e+001 
3053125000  -2.712196e+001  8.173589e+001 
3056250000  -2.641747e+001  8.457024e+001 
3059375000  -2.667761e+001  8.404201e+001 
3062500000  -2.521961e+001  8.023946e+001 
3065625000  -2.501372e+001  7.444415e+001 
3068750000  -2.468729e+001  6.753896e+001 
3071875000  -2.466330e+001  6.483051e+001 
3075000000  -2.464237e+001  6.088503e+001 
3078125000  -2.438291e+001  5.622715e+001 
3081250000  -2.499788e+001  5.199166e+001 
3084375000  -2.426357e+001  4.853836e+001 
3087500000  -2.411363e+001  4.479049e+001 
3090625000  -2.382951e+001  3.514415e+001 
3093750000  -2.426807e+001  2.712414e+001 
3096875000  -2.558440e+001  2.088877e+001 
3100000000  -2.568341e+001  1.962733e+001 
3103125000  -2.604067e+001  2.100207e+001 
3106250000  -2.579643e+001  1.757460e+001 
3109375000  -2.603368e+001  1.408729e+001 
3112500000  -2.614433e+001  1.298641e+001 
3115625000  -2.594650e+001  8.681470e+000 
3118750000  -2.644686e+001  1.003918e+001 
3121875000  -2.577552e+001  1.915505e+000 
3125000000  -2.696166e+001  -1.518968e+000 
3128125000  -2.813373e+001  6.870446e+000 
3131250000  -2.595772e+001  7.226423e+000 
3134375000  -2.468099e+001  -6.263328e+000 
3137500000  -2.532807e+001  -2.006017e+001 
3140625000  -2.687893e+001  -2.173897e+001 
3143750000  -2.791811e+001  -1.789529e+001 
3146875000  -2.752905e+001  -1.549890e+001 
3150000000  -2.651014e+001  -1.338858e+001 
3153125000  -2.647976e+001  -2.174430e+001 
3156250000  -2.748127e+001  -1.621048e+001 
3159375000  -2.587424e+001  -1.283555e+001 
3162500000  -2.385122e+001  -2.583519e+001 
3165625000  -2.483785e+001  -3.686483e+001 
3168750000  -2.518617e+001  -3.581828e+001 
3171875000  -2.423986e+001  -4.001679e+001 
3175000000  -2.488537e+001  -4.769325e+001 
3178125000  -2.468624e+001  -4.614783e+001 
3181250000  -2.348435e+001  -5.026854e+001 
3184375000  -2.275219e+001  -6.248921e+001 
3187500000  -2.383458e+001  -7.765299e+001 
3190625000  -2.662474e+001  -8.474513e+001 
3193750000  -2.716838e+001  -7.551056e+001 
3196875000  -2.679739e+001  -7.000452e+001 
3200000000  -2.586964e+001  -7.196839e+001 
3203125000  -2.502242e+001  -7.771910e+001 
3206250000  -2.529297e+001  -8.391476e+001 
3209375000  -2.483136e+001  -8.907072e+001 
3212500000  -2.498158e+001  -9.558205e+001 
3215625000  -2.511928e+001  -9.975108e+001 
3218750000  -2.587201e+001  -1.061055e+002 
3221875000  -2.684132e+001  -1.110100e+002 
3225000000  -2.642707e+001  -1.117421e+002 
3228125000  -2.677210e+001  -1.164927e+002 
3231250000  -2.753056e+001  -1.189556e+002 
3234375000  -2.737197e+001  -1.179892e+002 
3237500000  -2.740340e+001  -1.193641e+002 
3240625000  -2.705083e+001  -1.214359e+002 
3243750000  -2.672750e+001  -1.279806e+002 
3246875000  -2.720955e+001  -1.344925e+002 
3250000000  -2.763076e+001  -1.364182e+002 
3253125000  -2.782339e+001  -1.381214e+002 
3256250000  -2.769382e+001  -1.435872e+002 
3259375000  -2.796165e+001  -1.514050e+002 
3262500000  -2.923771e+001  -1.542800e+002 
3265625000  -2.992342e+001  -1.513430e+002 
3268750000  -2.988441e+001  -1.483934e+002 
3271875000  -2.965903e+001  -1.472299e+002 
3275000000  -2.859631e+001  -1.524541e+002 
3278125000  -2.910835e+001  -1.583351e+002 
3281250000  -2.931467e+001  -1.566998e+002 
3284375000  -2.892295e+001  -1.628418e+002 
3287500000  -2.908624e+001  -1.653719e+002 
3290625000  -2.948218e+001  -1.695666e+002 
3293750000  -2.915320e+001  -1.753105e+002 
3296875000  -3.018433e+001  -1.755271e+002 
3300000000  -3.003583e+001  -1.740339e+002 
3303125000  -2.888185e+001  -1.779015e+002 
3306250000  -2.866365e+001  1.754780e+002 
3309375000  -2.848039e+001  1.704095e+002 
3312500000  -2.849774e+001  1.600009e+002 
3315625000  -2.952749e+001  1.522949e+002 
3318750000  -3.089092e+001  1.496350e+002 
3321875000  -3.204406e+001  1.497613e+002 
3325000000  -3.258200e+001  1.551224e+002 
3328125000  -3.255081e+001  1.563426e+002 
3331250000  -3.129944e+001  1.643378e+002 
3334375000  -2.860717e+001  1.539799e+002 
3337500000  -2.866897e+001  1.357236e+002 
3340625000  -3.008016e+001  1.248499e+002 
3343750000  -3.199818e+001  1.238361e+002 
3346875000  -3.256131e+001  1.252046e+002 
3350000000  -3.185546e+001  1.239711e+002 
3353125000  -3.197005e+001  1.194634e+002 
3356250000  -3.165129e+001  1.115671e+002 
3359375000  -3.250764e+001  1.035129e+002 
3362500000  -3.374457e+001  9.825612e+001 
3365625000  -3.445452e+001  9.646761e+001 
3368750000  -3.544324e+001  9.451808e+001 
3371875000  -3.587314e+001  9.112282e+001 
3375000000  -3.742327e+001  9.069532e+001 
3378125000  -3.856601e+001  8.919448e+001 
3381250000  -3.992737e+001  9.768504e+001 
3384375000  -3.946215e+001  1.169576e+002 
3387500000  -3.598715e+001  1.043786e+002 
3390625000  -3.781969e+001  8.350598e+001 
3393750000  -3.944328e+001  8.966106e+001 
3396875000  -3.903176e+001  9.344675e+001 
3400000000  -3.850861e+001  8.621114e+001 
3403125000  -3.959789e+001  8.100753e+001 
3406250000  -4.031100e+001  8.386950e+001 
3409375000  -4.110223e+001  7.922508e+001 
3412500000  -4.231000e+001  8.156406e+001 
3415625000  -4.265668e+001  8.327304e+001 
3418750000  -4.320591e+001  8.764619e+001 
3421875000  -4.294635e+001  9.510567e+001 
3425000000  -4.246228e+001  9.994908e+001 
3428125000  -4.145372e+001  9.997444e+001 
3431250000  -4.168268e+001  9.514307e+001 
3434375000  -4.150684e+001  9.127384e+001 
3437500000  -4.181764e+001  8.933792e+001 
3440625000  -4.193232e+001  9.343066e+001 
3443750000  -4.097102e+001  9.422519e+001 
3446875000  -4.002697e+001  8.987292e+001 
3450000000  -3.960669e+001  8.208959e+001 
3453125000  -4.009472e+001  7.249107e+001 
3456250000  -4.124516e+001  6.806448e+001 
3459375000  -4.218341e+001  6.929620e+001 
3462500000  -4.230003e+001  7.086597e+001 
3465625000  -4.224841e+001  6.714361e+001 
3468750000  -4.285374e+001  6.479880e+001 
3471875000  -4.294658e+001  6.435129e+001 
3475000000  -4.279557e+001  5.989616e+001 
3478125000  -4.371741e+001  5.448309e+001 
3481250000  -4.468898e+001  5.011586e+001 
3484375000  -4.595383e+001  5.985886e+001 
3487500000  -4.582656e+001  6.151407e+001 
3490625000  -4.529011e+001  5.737405e+001 
3493750000  -4.605784e+001  5.449336e+001 
3496875000  -4.714272e+001  5.691868e+001 
3500000000  -4.812139e+001  6.339142e+001 
3503125000  -4.781047e+001  6.823083e+001 
3506250000  -4.691039e+001  7.022491e+001 
3509375000  -4.674963e+001  6.867680e+001 
3512500000  -4.747786e+001  6.509251e+001 
3515625000  -4.783022e+001  6.985906e+001 
3518750000  -4.843771e+001  7.353360e+001 
3521875000  -4.696940e+001  8.036877e+001 
3525000000  -4.827273e+001  8.102636e+001 
3528125000  -4.757688e+001  9.390636e+001 
3531250000  -4.593103e+001  9.173118e+001 
3534375000  -4.520139e+001  8.431243e+001 
3537500000  -4.531161e+001  8.043085e+001 
3540625000  -4.601783e+001  8.132416e+001 
3543750000  -4.536209e+001  8.394633e+001 
3546875000  -4.555853e+001  9.717489e+001 
3550000000  -4.321501e+001  9.941158e+001 
3553125000  -4.164745e+001  8.165687e+001 
3556250000  -4.258415e+001  7.864806e+001 
3559375000  -4.242444e+001  7.965174e+001 
3562500000  -4.119496e+001  7.215475e+001 
3565625000  -4.182693e+001  6.615664e+001 
3568750000  -4.192492e+001  6.931748e+001 
3571875000  -4.184449e+001  6.876349e+001 
3575000000  -4.137035e+001  6.396793e+001 
3578125000  -4.149145e+001  6.021188e+001 
3581250000  -4.159136e+001  6.014248e+001 
3584375000  -4.065302e+001  5.920838e+001 
3587500000  -3.988841e+001  5.560833e+001 
3590625000  -4.032677e+001  4.598453e+001 
3593750000  -4.126220e+001  4.252680e+001 
3596875000  -4.145787e+001  5.187651e+001 
3600000000  -3.978087e+001  4.777171e+001 
3603125000  -3.980024e+001  3.784724e+001 
3606250000  -4.041105e+001  3.205511e+001 
3609375000  -4.080317e+001  3.249047e+001 
3612500000  -4.128964e+001  2.950842e+001 
3615625000  -4.127806e+001  2.760664e+001 
3618750000  -4.176298e+001  3.125162e+001 
3621875000  -4.142915e+001  2.821989e+001 
3625000000  -4.165648e+001  3.012978e+001 
3628125000  -4.185916e+001  3.067184e+001 
3631250000  -4.134994e+001  2.220548e+001 
3634375000  -4.262285e+001  2.537798e+001 
3637500000  -4.204916e+001  3.096297e+001 
3640625000  -4.103016e+001  3.277493e+001 
3643750000  -4.055704e+001  2.610469e+001 
3646875000  -4.118938e+001  2.025257e+001 
3650000000  -4.142879e+001  1.946604e+001 
3653125000  -4.135745e+001  1.951458e+001 
3656250000  -4.172935e+001  2.036839e+001 
3659375000  -4.217212e+001  2.189790e+001 
3662500000  -4.114339e+001  2.083953e+001 
3665625000  -4.132458e+001  1.976473e+001 
3668750000  -4.020149e+001  2.394253e+001 
3671875000  -3.925406e+001  1.945793e+001 
3675000000  -3.961476e+001  1.179217e+001 
3678125000  -4.047278e+001  1.479912e+001 
3681250000  -3.990062e+001  1.460574e+001 
3684375000  -3.952806e+001  1.284925e+001 
3687500000  -3.976042e+001  1.194621e+001 
3690625000  -3.973989e+001  9.030858e+000 
3693750000  -4.025195e+001  1.177751e+001 
3696875000  -4.001702e+001  1.325130e+001 
3700000000  -3.889944e+001  1.329740e+001 
3703125000  -3.861960e+001  8.795140e+000 
3706250000  -3.951865e+001  1.143530e+001 
3709375000  -3.876249e+001  1.381931e+001 
3712500000  -3.740940e+001  1.458974e+001 
3715625000  -3.636692e+001  8.072413e+000 
3718750000  -3.564453e+001  4.711560e+000 
3721875000  -3.517653e+001  7.521659e-003 
3725000000  -3.513288e+001  -4.297705e+000 
3728125000  -3.539599e+001  -5.212856e+000 
3731250000  -3.475687e+001  -6.232322e+000 
3734375000  -3.356260e+001  -1.217253e+001 
3737500000  -3.422020e+001  -2.024887e+001 
3740625000  -3.480700e+001  -2.262406e+001 
3743750000  -3.456137e+001  -2.426956e+001 
3746875000  -3.452398e+001  -2.830968e+001 
3750000000  -3.500097e+001  -2.905031e+001 
3753125000  -3.443179e+001  -2.927205e+001 
3756250000  -3.448701e+001  -2.954787e+001 
3759375000  -3.429784e+001  -3.024916e+001 
3762500000  -3.371492e+001  -3.500865e+001 
3765625000  -3.420363e+001  -3.717469e+001 
3768750000  -3.427771e+001  -3.480962e+001 
3771875000  -3.251249e+001  -3.758926e+001 
3775000000  -3.221267e+001  -4.534110e+001 
3778125000  -3.258210e+001  -4.706252e+001 
3781250000  -3.236004e+001  -5.045602e+001 
3784375000  -3.233988e+001  -5.233483e+001 
3787500000  -3.172375e+001  -5.570093e+001 
3790625000  -3.228651e+001  -6.111570e+001 
3793750000  -3.243866e+001  -6.216852e+001 
3796875000  -3.143154e+001  -6.287775e+001 
3800000000  -2.991113e+001  -6.668073e+001 
3803125000  -3.074998e+001  -7.328625e+001 
3806250000  -3.138302e+001  -7.578593e+001 
3809375000  -3.109309e+001  -7.736032e+001 
3812500000  -3.042810e+001  -8.142670e+001 
3815625000  -3.104600e+001  -8.939786e+001 
3818750000  -3.194144e+001  -9.078517e+001 
3821875000  -3.213813e+001  -8.239608e+001 
3825000000  -3.014889e+001  -7.753053e+001 
3828125000  -2.877060e+001  -9.140503e+001 
3831250000  -2.937442e+001  -1.060164e+002 
3834375000  -3.067866e+001  -1.067018e+002 
3837500000  -3.160579e+001  -1.024359e+002 
3840625000  -3.037150e+001  -1.027359e+002 
3843750000  -2.923713e+001  -1.126033e+002 
3846875000  -2.991249e+001  -1.198188e+002 
3850000000  -3.118950e+001  -1.144460e+002 
3853125000  -3.035939e+001  -1.115326e+002 
3856250000  -3.040216e+001  -1.167178e+002 
3859375000  -2.974502e+001  -1.212185e+002 
3862500000  -2.922159e+001  -1.279823e+002 
3865625000  -2.958224e+001  -1.327538e+002 
3868750000  -2.954409e+001  -1.337982e+002 
3871875000  -2.881926e+001  -1.367521e+002 
3875000000  -2.896997e+001  -1.451045e+002 
3878125000  -2.997885e+001  -1.476799e+002 
3881250000  -3.014181e+001  -1.446317e+002 
3884375000  -2.960123e+001  -1.494230e+002 
3887500000  -2.968159e+001  -1.532401e+002 
3890625000  -3.030250e+001  -1.557707e+002 
3893750000  -3.077430e+001  -1.571848e+002 
3896875000  -3.072384e+001  -1.566757e+002 
3900000000  -3.106220e+001  -1.570861e+002 
3903125000  -3.062127e+001  -1.595615e+002 
3906250000  -3.033608e+001  -1.606185e+002 
3909375000  -2.965754e+001  -1.625577e+002 
3912500000  -2.972107e+001  -1.702656e+002 
3915625000  -3.102286e+001  -1.693599e+002 
3918750000  -3.091538e+001  -1.673967e+002 
3921875000  -3.061788e+001  -1.694145e+002 
3925000000  -2.981323e+001  -1.697596e+002 
3928125000  -2.909164e+001  -1.758689e+002 
3931250000  -2.952667e+001  -1.794704e+002 
3934375000  -2.977539e+001  -1.795746e+002 
3937500000  -2.998647e+001  -1.795890e+002 
3940625000  -3.038530e+001  -1.799669e+002 
3943750000  -2.940630e+001  -1.785325e+002 
3946875000  -2.822453e+001  1.763272e+002 
3950000000  -2.865978e+001  1.685983e+002 
3953125000  -2.961909e+001  1.693504e+002 
3956250000  -2.883321e+001  1.719877e+002 
3959375000  -2.746823e+001  1.690141e+002 
3962500000  -2.695647e+001  1.648226e+002 
3965625000  -2.656921e+001  1.559022e+002 
3968750000  -2.747440e+001  1.497216e+002 
3971875000  -2.793918e+001  1.480715e+002 
3975000000  -2.718764e+001  1.459491e+002 
3978125000  -2.695829e+001  1.449751e+002 
3981250000  -2.675275e+001  1.404809e+002 
3984375000  -2.696497e+001  1.341534e+002 
3987500000  -2.753990e+001  1.316096e+002 
3990625000  -2.751290e+001  1.309356e+002 
3993750000  -2.766563e+001  1.275007e+002 
3996875000  -2.764058e+001  1.247958e+002 
4000000000  -2.775001e+001  1.230134e+002 
4003125000  -2.830628e+001  1.251788e+002 
4006250000  -2.694373e+001  1.256052e+002 
4009375000  -2.574927e+001  1.132031e+002 
4012500000  -2.681887e+001  1.059996e+002 
4015625000  -2.818069e+001  1.062438e+002 
4018750000  -2.828731e+001  1.089754e+002 
4021875000  -2.764763e+001  1.066001e+002 
4025000000  -2.729620e+001  1.023025e+002 
4028125000  -2.713812e+001  9.851732e+001 
4031250000  -2.760569e+001  9.500893e+001 
4034375000  -2.793544e+001  9.495302e+001 
4037500000  -2.748365e+001  9.726209e+001 
4040625000  -2.737733e+001  9.399136e+001 
4043750000  -2.772359e+001  9.279463e+001 
4046875000  -2.732197e+001  9.258183e+001 
4050000000  -2.681522e+001  8.702853e+001 
4053125000  -2.726363e+001  8.578216e+001 
4056250000  -2.793970e+001  8.939979e+001 
4059375000  -2.661674e+001  9.158834e+001 
4062500000  -2.523612e+001  8.735969e+001 
4065625000  -2.513835e+001  8.239293e+001 
4068750000  -2.481986e+001  7.797564e+001 
4071875000  -2.420217e+001  6.943800e+001 
4075000000  -2.454617e+001  6.337225e+001 
4078125000  -2.512631e+001  6.265542e+001 
4081250000  -2.457231e+001  6.003032e+001 
4084375000  -2.414837e+001  5.336103e+001 
4087500000  -2.451740e+001  4.730310e+001 
4090625000  -2.514809e+001  4.593546e+001 
4093750000  -2.492748e+001  4.685826e+001 
4096875000  -2.447300e+001  4.100517e+001 
4100000000  -2.516881e+001  3.410076e+001 
4103125000  -2.602283e+001  3.429512e+001 
4106250000  -2.590107e+001  3.945925e+001 
4109375000  -2.505025e+001  3.850441e+001 
4112500000  -2.447921e+001  3.203544e+001 
4115625000  -2.481245e+001  2.781647e+001 
4118750000  -2.486732e+001  2.495080e+001 
4121875000  -2.453996e+001  2.042078e+001 
4125000000  -2.485131e+001  1.498358e+001 
4128125000  -2.583136e+001  1.493572e+001 
4131250000  -2.560807e+001  2.339520e+001 
4134375000  -2.325489e+001  1.881240e+001 
4137500000  -2.309578e+001  5.472342e-003 
4140625000  -2.515328e+001  -7.131008e+000 
4143750000  -2.657457e+001  -2.222765e+000 
4146875000  -2.613551e+001  5.088603e+000 
4150000000  -2.521649e+001  2.103466e+000 
4153125000  -2.506309e+001  -4.474428e+000 
4156250000  -2.599541e+001  -7.078825e+000 
4159375000  -2.623385e+001  -2.870237e+000 
4162500000  -2.518492e+001  1.622642e+000 
4165625000  -2.400757e+001  -2.422810e+000 
4168750000  -2.341800e+001  -9.573400e+000 
4171875000  -2.336269e+001  -1.872502e+001 
4175000000  -2.398311e+001  -2.450302e+001 
4178125000  -2.461489e+001  -2.432968e+001 
4181250000  -2.448501e+001  -2.507554e+001 
4184375000  -2.432741e+001  -2.804204e+001 
4187500000  -2.439551e+001  -3.084958e+001 
4190625000  -2.422625e+001  -3.629806e+001 
4193750000  -2.497647e+001  -3.983376e+001 
4196875000  -2.567924e+001  -4.024239e+001 
4200000000  -2.660346e+001  -3.797246e+001 
4203125000  -2.662509e+001  -2.462679e+001 
4206250000  -2.317246e+001  -2.277794e+001 
4209375000  -2.198928e+001  -4.365403e+001 
4212500000  -2.390909e+001  -5.261223e+001 
4215625000  -2.489100e+001  -4.611372e+001 
4218750000  -2.361648e+001  -3.944442e+001 
4221875000  -2.130920e+001  -4.874020e+001 
4225000000  -2.253774e+001  -6.148000e+001 
4228125000  -2.322019e+001  -5.596262e+001 
4231250000  -2.167061e+001  -5.979921e+001 
4234375000  -2.161631e+001  -6.802612e+001 
4237500000  -2.113836e+001  -7.158907e+001 
4240625000  -2.116914e+001  -7.997189e+001 
4243750000  -2.211634e+001  -8.665643e+001 
4246875000  -2.307598e+001  -8.705992e+001 
4250000000  -2.304069e+001  -8.426608e+001 
4253125000  -2.249990e+001  -8.591810e+001 
4256250000  -2.279421e+001  -9.011858e+001 
4259375000  -2.254227e+001  -9.239384e+001 
4262500000  -2.256808e+001  -9.574898e+001 
4265625000  -2.268503e+001  -9.566786e+001 
4268750000  -2.181793e+001  -9.965756e+001 
4271875000  -2.160777e+001  -1.055203e+002 
4275000000  -2.101224e+001  -1.119271e+002 
4278125000  -2.162649e+001  -1.228320e+002 
4281250000  -2.343158e+001  -1.250929e+002 
4284375000  -2.312184e+001  -1.244430e+002 
4287500000  -2.389720e+001  -1.276197e+002 
4290625000  -2.513697e+001  -1.183015e+002 
4293750000  -2.316806e+001  -1.126430e+002 
4296875000  -2.186635e+001  -1.239743e+002 
4300000000  -2.265431e+001  -1.333386e+002 
4303125000  -2.381842e+001  -1.317494e+002 
4306250000  -2.320840e+001  -1.258050e+002 
4309375000  -2.185161e+001  -1.278880e+002 
4312500000  -2.172067e+001  -1.362386e+002 
4315625000  -2.190608e+001  -1.423795e+002 
4318750000  -2.225921e+001  -1.456147e+002 
4321875000  -2.247348e+001  -1.451298e+002 
4325000000  -2.190170e+001  -1.442711e+002 
4328125000  -2.135619e+001  -1.507407e+002 
4331250000  -2.126647e+001  -1.587674e+002 
4334375000  -2.170894e+001  -1.638068e+002 
4337500000  -2.258156e+001  -1.661442e+002 
4340625000  -2.312053e+001  -1.626119e+002 
4343750000  -2.250641e+001  -1.622693e+002 
4346875000  -2.207579e+001  -1.677593e+002 
4350000000  -2.217225e+001  -1.722680e+002 
4353125000  -2.215213e+001  1.799363e+002 
4356250000  -2.393558e+001  1.788849e+002 
4359375000  -2.455325e+001  -1.682516e+002 
4362500000  -2.178449e+001  -1.658055e+002 
4365625000  -2.022669e+001  -1.775715e+002 
4368750000  -2.088614e+001  1.704250e+002 
4371875000  -2.215289e+001  1.712792e+002 
4375000000  -2.176995e+001  1.721703e+002 
4378125000  -2.111362e+001  1.663586e+002 
4381250000  -2.131294e+001  1.612454e+002 
4384375000  -2.115532e+001  1.565215e+002 
4387500000  -2.189239e+001  1.508166e+002 
4390625000  -2.289466e+001  1.515099e+002 
4393750000  -2.220515e+001  1.537835e+002 
4396875000  -2.159100e+001  1.513645e+002 
4400000000  -2.101849e+001  1.446892e+002 
4403125000  -2.167166e+001  1.367367e+002 
4406250000  -2.246631e+001  1.355245e+002 
4409375000  -2.247620e+001  1.331714e+002 
4412500000  -2.351971e+001  1.306366e+002 
4415625000  -2.388892e+001  1.355129e+002 
4418750000  -2.264402e+001  1.404680e+002 
