!Agilent Technologies,E8363B,MY43030201,A.06.04.32
!Agilent E8363B: A.06.04.32
!Date: Tuesday, November 11, 2014 20:46:18
!Correction: S21(Response(S21)) 
!S1P File: Measurement: S21:
# Hz S  dB   R 50
3000000000  -2.648197e+001  1.553754e+002 
3003125000  -2.785826e+001  1.508988e+002 
3006250000  -2.790145e+001  1.479568e+002 
3009375000  -2.825647e+001  1.528773e+002 
3012500000  -2.774959e+001  1.525080e+002 
3015625000  -2.679332e+001  1.455643e+002 
3018750000  -2.764639e+001  1.446857e+002 
3021875000  -2.639235e+001  1.459010e+002 
3025000000  -2.510760e+001  1.429937e+002 
3028125000  -2.411411e+001  1.382400e+002 
3031250000  -2.306781e+001  1.270881e+002 
3034375000  -2.270825e+001  1.140554e+002 
3037500000  -2.301225e+001  1.019800e+002 
3040625000  -2.437846e+001  9.705083e+001 
3043750000  -2.510674e+001  9.244243e+001 
3046875000  -2.520134e+001  8.602546e+001 
3050000000  -2.698017e+001  7.889268e+001 
3053125000  -2.714636e+001  8.548746e+001 
3056250000  -2.642593e+001  8.846162e+001 
3059375000  -2.666748e+001  8.814182e+001 
3062500000  -2.526418e+001  8.426552e+001 
3065625000  -2.499726e+001  7.891230e+001 
3068750000  -2.475529e+001  7.189256e+001 
3071875000  -2.468096e+001  6.873244e+001 
3075000000  -2.467193e+001  6.521919e+001 
3078125000  -2.441585e+001  6.047557e+001 
3081250000  -2.502368e+001  5.654151e+001 
3084375000  -2.430706e+001  5.288053e+001 
3087500000  -2.415895e+001  4.947442e+001 
3090625000  -2.389913e+001  3.986108e+001 
3093750000  -2.426953e+001  3.166965e+001 
3096875000  -2.558965e+001  2.550218e+001 
3100000000  -2.576385e+001  2.437468e+001 
3103125000  -2.617414e+001  2.563149e+001 
3106250000  -2.588752e+001  2.212082e+001 
3109375000  -2.612762e+001  1.882518e+001 
3112500000  -2.623966e+001  1.787282e+001 
3115625000  -2.604259e+001  1.388990e+001 
3118750000  -2.652532e+001  1.499395e+001 
3121875000  -2.590610e+001  6.970220e+000 
3125000000  -2.697874e+001  3.583882e+000 
3128125000  -2.825921e+001  1.163554e+001 
3131250000  -2.610019e+001  1.217372e+001 
3134375000  -2.472233e+001  -1.033685e+000 
3137500000  -2.530531e+001  -1.556922e+001 
3140625000  -2.698632e+001  -1.692579e+001 
3143750000  -2.799389e+001  -1.255850e+001 
3146875000  -2.760858e+001  -1.083119e+001 
3150000000  -2.659198e+001  -8.387762e+000 
3153125000  -2.658633e+001  -1.620545e+001 
3156250000  -2.750520e+001  -1.089867e+001 
3159375000  -2.602717e+001  -7.918605e+000 
3162500000  -2.395707e+001  -2.049585e+001 
3165625000  -2.483159e+001  -3.149877e+001 
3168750000  -2.532894e+001  -3.082232e+001 
3171875000  -2.433113e+001  -3.494841e+001 
3175000000  -2.496427e+001  -4.265427e+001 
3178125000  -2.477768e+001  -4.127916e+001 
3181250000  -2.358619e+001  -4.505302e+001 
3184375000  -2.273730e+001  -5.720422e+001 
3187500000  -2.388324e+001  -7.274976e+001 
3190625000  -2.671265e+001  -8.049549e+001 
3193750000  -2.732151e+001  -7.100592e+001 
3196875000  -2.689639e+001  -6.529346e+001 
3200000000  -2.606182e+001  -6.703606e+001 
3203125000  -2.514588e+001  -7.236027e+001 
3206250000  -2.546887e+001  -7.877074e+001 
3209375000  -2.496666e+001  -8.383210e+001 
3212500000  -2.507356e+001  -9.062516e+001 
3215625000  -2.523891e+001  -9.500808e+001 
3218750000  -2.595231e+001  -1.009380e+002 
3221875000  -2.701867e+001  -1.061954e+002 
3225000000  -2.660794e+001  -1.067964e+002 
3228125000  -2.693720e+001  -1.112625e+002 
3231250000  -2.769986e+001  -1.142321e+002 
3234375000  -2.757673e+001  -1.130826e+002 
3237500000  -2.765130e+001  -1.147515e+002 
3240625000  -2.733387e+001  -1.161413e+002 
3243750000  -2.692915e+001  -1.228515e+002 
3246875000  -2.740308e+001  -1.292061e+002 
3250000000  -2.787336e+001  -1.312896e+002 
3253125000  -2.803196e+001  -1.330206e+002 
3256250000  -2.789355e+001  -1.388963e+002 
3259375000  -2.819785e+001  -1.463396e+002 
3262500000  -2.945925e+001  -1.494465e+002 
3265625000  -3.019573e+001  -1.459554e+002 
3268750000  -3.008552e+001  -1.436313e+002 
3271875000  -2.994728e+001  -1.422793e+002 
3275000000  -2.879952e+001  -1.473358e+002 
3278125000  -2.927683e+001  -1.533119e+002 
3281250000  -2.952452e+001  -1.517046e+002 
3284375000  -2.915646e+001  -1.575775e+002 
3287500000  -2.931556e+001  -1.608729e+002 
3290625000  -2.975022e+001  -1.647093e+002 
3293750000  -2.937793e+001  -1.701411e+002 
3296875000  -3.037054e+001  -1.702865e+002 
3300000000  -3.042776e+001  -1.694244e+002 
3303125000  -2.924687e+001  -1.733425e+002 
3306250000  -2.896732e+001  -1.799797e+002 
3309375000  -2.874574e+001  1.751961e+002 
3312500000  -2.880598e+001  1.650390e+002 
3315625000  -2.958896e+001  1.588529e+002 
3318750000  -3.098255e+001  1.564042e+002 
3321875000  -3.204134e+001  1.560287e+002 
3325000000  -3.271049e+001  1.606243e+002 
3328125000  -3.271498e+001  1.617896e+002 
3331250000  -3.137824e+001  1.703510e+002 
3334375000  -2.891708e+001  1.600755e+002 
3337500000  -2.890962e+001  1.422570e+002 
3340625000  -3.020991e+001  1.314949e+002 
3343750000  -3.216754e+001  1.293487e+002 
3346875000  -3.269901e+001  1.313656e+002 
3350000000  -3.209414e+001  1.299406e+002 
3353125000  -3.217151e+001  1.257842e+002 
3356250000  -3.187413e+001  1.183979e+002 
3359375000  -3.271610e+001  1.096883e+002 
3362500000  -3.416086e+001  1.042444e+002 
3365625000  -3.475621e+001  1.023081e+002 
3368750000  -3.574102e+001  1.008881e+002 
3371875000  -3.610123e+001  9.691574e+001 
3375000000  -3.756377e+001  9.508807e+001 
3378125000  -3.879227e+001  9.570443e+001 
3381250000  -4.007396e+001  1.011042e+002 
3384375000  -3.948732e+001  1.223183e+002 
3387500000  -3.650153e+001  1.115745e+002 
3390625000  -3.817405e+001  9.018513e+001 
3393750000  -4.001964e+001  9.603231e+001 
3396875000  -3.919397e+001  9.910299e+001 
3400000000  -3.921675e+001  9.130033e+001 
3403125000  -4.018456e+001  8.658307e+001 
3406250000  -4.088132e+001  8.966789e+001 
3409375000  -4.171680e+001  8.455965e+001 
3412500000  -4.256385e+001  8.913260e+001 
3415625000  -4.349671e+001  9.147017e+001 
3418750000  -4.379447e+001  9.561843e+001 
3421875000  -4.398578e+001  1.011064e+002 
3425000000  -4.357107e+001  1.068859e+002 
3428125000  -4.211493e+001  1.077475e+002 
3431250000  -4.228426e+001  1.033645e+002 
3434375000  -4.198645e+001  1.002741e+002 
3437500000  -4.244173e+001  9.802728e+001 
3440625000  -4.260240e+001  1.015151e+002 
3443750000  -4.134720e+001  1.040961e+002 
3446875000  -4.041783e+001  1.002901e+002 
3450000000  -4.075071e+001  9.043924e+001 
3453125000  -4.064146e+001  8.199800e+001 
3456250000  -4.168937e+001  7.729576e+001 
3459375000  -4.272615e+001  7.951958e+001 
3462500000  -4.287519e+001  7.993312e+001 
3465625000  -4.289017e+001  7.665832e+001 
3468750000  -4.329135e+001  7.287994e+001 
3471875000  -4.319115e+001  7.415324e+001 
3475000000  -4.337428e+001  7.080341e+001 
3478125000  -4.421541e+001  6.420606e+001 
3481250000  -4.526214e+001  6.274025e+001 
3484375000  -4.673929e+001  7.319699e+001 
3487500000  -4.667933e+001  7.321190e+001 
3490625000  -4.605610e+001  7.096745e+001 
3493750000  -4.640770e+001  6.673833e+001 
3496875000  -4.738556e+001  6.654218e+001 
3500000000  -4.868235e+001  7.605040e+001 
3503125000  -4.846976e+001  7.974675e+001 
3506250000  -4.705836e+001  8.261295e+001 
3509375000  -4.711631e+001  8.283156e+001 
3512500000  -4.774967e+001  8.063651e+001 
3515625000  -4.875012e+001  8.262466e+001 
3518750000  -4.862484e+001  8.541321e+001 
3521875000  -4.801621e+001  9.117278e+001 
3525000000  -4.819378e+001  9.457416e+001 
3528125000  -4.759425e+001  1.050470e+002 
3531250000  -4.570327e+001  1.054115e+002 
3534375000  -4.499294e+001  9.608867e+001 
3537500000  -4.495595e+001  9.248584e+001 
3540625000  -4.547441e+001  9.310177e+001 
3543750000  -4.575981e+001  9.573750e+001 
3546875000  -4.505144e+001  1.082148e+002 
3550000000  -4.268721e+001  1.089651e+002 
3553125000  -4.138775e+001  9.382841e+001 
3556250000  -4.227466e+001  8.722599e+001 
3559375000  -4.208700e+001  8.900846e+001 
3562500000  -4.104898e+001  8.065742e+001 
3565625000  -4.167909e+001  7.435668e+001 
3568750000  -4.143969e+001  7.840934e+001 
3571875000  -4.137155e+001  7.893409e+001 
3575000000  -4.088083e+001  7.280785e+001 
3578125000  -4.143493e+001  6.786263e+001 
3581250000  -4.137526e+001  6.864697e+001 
3584375000  -4.051336e+001  6.878385e+001 
3587500000  -4.007317e+001  6.179681e+001 
3590625000  -4.022807e+001  5.327864e+001 
3593750000  -4.116600e+001  5.216925e+001 
3596875000  -4.131417e+001  5.814624e+001 
3600000000  -3.971659e+001  5.643020e+001 
3603125000  -3.977364e+001  4.419322e+001 
3606250000  -4.056100e+001  4.001875e+001 
3609375000  -4.092033e+001  4.164165e+001 
3612500000  -4.145046e+001  3.849416e+001 
3615625000  -4.154334e+001  3.494909e+001 
3618750000  -4.207254e+001  3.839190e+001 
3621875000  -4.142628e+001  3.635743e+001 
3625000000  -4.200349e+001  3.666723e+001 
3628125000  -4.176120e+001  3.816684e+001 
3631250000  -4.151517e+001  3.190290e+001 
3634375000  -4.250230e+001  3.305503e+001 
3637500000  -4.215603e+001  4.057730e+001 
3640625000  -4.102850e+001  4.074213e+001 
3643750000  -4.073650e+001  3.314963e+001 
3646875000  -4.135439e+001  3.038791e+001 
3650000000  -4.175066e+001  2.776319e+001 
3653125000  -4.147017e+001  2.912020e+001 
3656250000  -4.193358e+001  2.782365e+001 
3659375000  -4.228906e+001  3.095590e+001 
3662500000  -4.129338e+001  2.982831e+001 
3665625000  -4.145548e+001  2.946127e+001 
3668750000  -4.055061e+001  3.214155e+001 
3671875000  -3.931625e+001  2.803974e+001 
3675000000  -3.991344e+001  2.223767e+001 
3678125000  -4.042301e+001  2.308654e+001 
3681250000  -3.988397e+001  2.312242e+001 
3684375000  -3.957531e+001  2.193662e+001 
3687500000  -3.995919e+001  1.993073e+001 
3690625000  -3.986115e+001  1.835509e+001 
3693750000  -4.018023e+001  1.989365e+001 
3696875000  -4.024620e+001  2.483501e+001 
3700000000  -3.902675e+001  2.242147e+001 
3703125000  -3.867236e+001  1.931243e+001 
3706250000  -3.966870e+001  2.063861e+001 
3709375000  -3.885110e+001  2.353310e+001 
3712500000  -3.764989e+001  2.283731e+001 
3715625000  -3.660952e+001  1.793733e+001 
3718750000  -3.588890e+001  1.504934e+001 
3721875000  -3.546312e+001  8.825354e+000 
3725000000  -3.534540e+001  4.843861e+000 
3728125000  -3.550241e+001  4.224643e+000 
3731250000  -3.483035e+001  3.445046e+000 
3734375000  -3.388546e+001  -2.628605e+000 
3737500000  -3.433159e+001  -9.774182e+000 
3740625000  -3.496527e+001  -1.309532e+001 
3743750000  -3.470440e+001  -1.492728e+001 
3746875000  -3.476941e+001  -1.756255e+001 
3750000000  -3.512155e+001  -1.927200e+001 
3753125000  -3.482629e+001  -1.921317e+001 
3756250000  -3.481737e+001  -2.008129e+001 
3759375000  -3.445082e+001  -2.053719e+001 
3762500000  -3.382738e+001  -2.493756e+001 
3765625000  -3.433223e+001  -2.702607e+001 
3768750000  -3.450812e+001  -2.448445e+001 
3771875000  -3.265927e+001  -2.728410e+001 
3775000000  -3.239816e+001  -3.495164e+001 
3778125000  -3.274977e+001  -3.632383e+001 
3781250000  -3.248420e+001  -3.978741e+001 
3784375000  -3.249783e+001  -4.137411e+001 
3787500000  -3.175163e+001  -4.474743e+001 
3790625000  -3.228556e+001  -5.093344e+001 
3793750000  -3.245397e+001  -5.116385e+001 
3796875000  -3.156478e+001  -5.255368e+001 
3800000000  -3.006765e+001  -5.670950e+001 
3803125000  -3.087541e+001  -6.279910e+001 
3806250000  -3.145153e+001  -6.529449e+001 
3809375000  -3.111754e+001  -6.681712e+001 
3812500000  -3.053586e+001  -7.165598e+001 
3815625000  -3.108238e+001  -7.873025e+001 
3818750000  -3.201621e+001  -8.068638e+001 
3821875000  -3.213042e+001  -7.162623e+001 
3825000000  -3.032700e+001  -6.795009e+001 
3828125000  -2.891087e+001  -8.147015e+001 
3831250000  -2.935247e+001  -9.590968e+001 
3834375000  -3.073447e+001  -9.700472e+001 
3837500000  -3.164087e+001  -9.107575e+001 
3840625000  -3.057257e+001  -9.238570e+001 
3843750000  -2.946604e+001  -1.023097e+002 
3846875000  -3.000686e+001  -1.097882e+002 
3850000000  -3.136301e+001  -1.046088e+002 
3853125000  -3.057661e+001  -1.014387e+002 
3856250000  -3.055506e+001  -1.061523e+002 
3859375000  -2.992195e+001  -1.113061e+002 
3862500000  -2.942718e+001  -1.177691e+002 
3865625000  -2.960056e+001  -1.227829e+002 
3868750000  -2.973202e+001  -1.231161e+002 
3871875000  -2.900953e+001  -1.255535e+002 
3875000000  -2.898832e+001  -1.339882e+002 
3878125000  -3.010003e+001  -1.371066e+002 
3881250000  -3.021647e+001  -1.336872e+002 
3884375000  -2.970265e+001  -1.381430e+002 
3887500000  -2.972502e+001  -1.426151e+002 
3890625000  -3.025137e+001  -1.441380e+002 
3893750000  -3.075709e+001  -1.459622e+002 
3896875000  -3.071987e+001  -1.459952e+002 
3900000000  -3.106419e+001  -1.465276e+002 
3903125000  -3.067013e+001  -1.488879e+002 
3906250000  -3.043125e+001  -1.500042e+002 
3909375000  -2.974006e+001  -1.517238e+002 
3912500000  -2.970728e+001  -1.590295e+002 
3915625000  -3.087393e+001  -1.583970e+002 
3918750000  -3.093534e+001  -1.569302e+002 
3921875000  -3.059572e+001  -1.577031e+002 
3925000000  -2.983201e+001  -1.586787e+002 
3928125000  -2.911534e+001  -1.644482e+002 
3931250000  -2.950184e+001  -1.686610e+002 
3934375000  -2.974607e+001  -1.685313e+002 
3937500000  -2.986283e+001  -1.696888e+002 
3940625000  -3.032576e+001  -1.695078e+002 
3943750000  -2.941228e+001  -1.678686e+002 
3946875000  -2.821210e+001  -1.729874e+002 
3950000000  -2.864169e+001  1.790163e+002 
3953125000  -2.954334e+001  1.794758e+002 
3956250000  -2.881500e+001  -1.775703e+002 
3959375000  -2.752034e+001  1.795028e+002 
3962500000  -2.698631e+001  1.753299e+002 
3965625000  -2.655787e+001  1.663524e+002 
3968750000  -2.752582e+001  1.595432e+002 
3971875000  -2.793379e+001  1.587014e+002 
3975000000  -2.722294e+001  1.562126e+002 
3978125000  -2.704567e+001  1.552314e+002 
3981250000  -2.681299e+001  1.506831e+002 
3984375000  -2.710193e+001  1.448788e+002 
3987500000  -2.760708e+001  1.423835e+002 
3990625000  -2.748982e+001  1.411866e+002 
3993750000  -2.775491e+001  1.383906e+002 
3996875000  -2.777671e+001  1.362825e+002 
4000000000  -2.783035e+001  1.338888e+002 
4003125000  -2.841787e+001  1.359558e+002 
4006250000  -2.711862e+001  1.364347e+002 
4009375000  -2.583382e+001  1.240483e+002 
4012500000  -2.680142e+001  1.175319e+002 
4015625000  -2.806092e+001  1.176670e+002 
4018750000  -2.837300e+001  1.198949e+002 
4021875000  -2.765095e+001  1.183515e+002 
4025000000  -2.722186e+001  1.136366e+002 
4028125000  -2.719103e+001  1.096185e+002 
4031250000  -2.767482e+001  1.064553e+002 
4034375000  -2.793570e+001  1.063010e+002 
4037500000  -2.740603e+001  1.081323e+002 
4040625000  -2.731184e+001  1.044816e+002 
4043750000  -2.765247e+001  1.045462e+002 
4046875000  -2.720510e+001  1.036670e+002 
4050000000  -2.673602e+001  9.804549e+001 
4053125000  -2.712378e+001  9.569499e+001 
4056250000  -2.776102e+001  9.991601e+001 
4059375000  -2.664783e+001  1.021366e+002 
4062500000  -2.516687e+001  9.755812e+001 
4065625000  -2.501025e+001  9.281480e+001 
4068750000  -2.476204e+001  8.810077e+001 
4071875000  -2.415666e+001  8.006071e+001 
4075000000  -2.449443e+001  7.402537e+001 
4078125000  -2.505466e+001  7.271883e+001 
4081250000  -2.454617e+001  7.036890e+001 
4084375000  -2.417014e+001  6.417945e+001 
4087500000  -2.448874e+001  5.771910e+001 
4090625000  -2.511611e+001  5.619553e+001 
4093750000  -2.491828e+001  5.729715e+001 
4096875000  -2.450739e+001  5.149538e+001 
4100000000  -2.516963e+001  4.442387e+001 
4103125000  -2.603716e+001  4.494576e+001 
4106250000  -2.597093e+001  4.997775e+001 
4109375000  -2.508595e+001  4.971192e+001 
4112500000  -2.454353e+001  4.319166e+001 
4115625000  -2.480723e+001  3.873812e+001 
4118750000  -2.493212e+001  3.594376e+001 
4121875000  -2.455591e+001  3.132278e+001 
4125000000  -2.489195e+001  2.654787e+001 
4128125000  -2.584825e+001  2.641701e+001 
4131250000  -2.568438e+001  3.372133e+001 
4134375000  -2.335322e+001  3.002160e+001 
4137500000  -2.306843e+001  1.154226e+001 
4140625000  -2.518375e+001  4.204761e+000 
4143750000  -2.652343e+001  8.636552e+000 
4146875000  -2.618809e+001  1.639221e+001 
4150000000  -2.526343e+001  1.355168e+001 
4153125000  -2.506845e+001  7.213496e+000 
4156250000  -2.595267e+001  4.395895e+000 
4159375000  -2.624236e+001  8.604065e+000 
4162500000  -2.510524e+001  1.308793e+001 
4165625000  -2.397086e+001  8.618483e+000 
4168750000  -2.335462e+001  1.797357e+000 
4171875000  -2.332756e+001  -7.373853e+000 
4175000000  -2.394136e+001  -1.320842e+001 
4178125000  -2.450815e+001  -1.355638e+001 
4181250000  -2.442420e+001  -1.382042e+001 
4184375000  -2.423937e+001  -1.690980e+001 
4187500000  -2.422364e+001  -1.942108e+001 
4190625000  -2.408505e+001  -2.514044e+001 
4193750000  -2.486584e+001  -2.897251e+001 
4196875000  -2.557019e+001  -2.947075e+001 
4200000000  -2.640686e+001  -2.771416e+001 
4203125000  -2.650013e+001  -1.441079e+001 
4206250000  -2.324422e+001  -1.223127e+001 
4209375000  -2.195876e+001  -3.233326e+001 
4212500000  -2.380282e+001  -4.142421e+001 
4215625000  -2.485389e+001  -3.565049e+001 
4218750000  -2.360168e+001  -2.908345e+001 
4221875000  -2.129628e+001  -3.780937e+001 
4225000000  -2.249150e+001  -5.061348e+001 
4228125000  -2.319243e+001  -4.549733e+001 
4231250000  -2.168168e+001  -4.935661e+001 
4234375000  -2.160828e+001  -5.747836e+001 
4237500000  -2.118307e+001  -6.051332e+001 
4240625000  -2.116239e+001  -6.871334e+001 
4243750000  -2.212682e+001  -7.545353e+001 
4246875000  -2.301049e+001  -7.599316e+001 
4250000000  -2.311622e+001  -7.291874e+001 
4253125000  -2.250543e+001  -7.492374e+001 
4256250000  -2.277459e+001  -7.894761e+001 
4259375000  -2.257922e+001  -8.104230e+001 
4262500000  -2.250304e+001  -8.452679e+001 
4265625000  -2.272357e+001  -8.428426e+001 
4268750000  -2.187090e+001  -8.815189e+001 
4271875000  -2.162094e+001  -9.374607e+001 
4275000000  -2.098475e+001  -1.000201e+002 
4278125000  -2.151526e+001  -1.116076e+002 
4281250000  -2.336179e+001  -1.137785e+002 
4284375000  -2.308203e+001  -1.129069e+002 
4287500000  -2.376628e+001  -1.162968e+002 
4290625000  -2.505136e+001  -1.071155e+002 
4293750000  -2.311821e+001  -1.009634e+002 
4296875000  -2.173102e+001  -1.123852e+002 
4300000000  -2.255622e+001  -1.212989e+002 
4303125000  -2.363779e+001  -1.210453e+002 
4306250000  -2.317453e+001  -1.149980e+002 
4309375000  -2.179415e+001  -1.166021e+002 
4312500000  -2.161314e+001  -1.244811e+002 
4315625000  -2.179888e+001  -1.309600e+002 
4318750000  -2.209908e+001  -1.346768e+002 
4321875000  -2.227913e+001  -1.339300e+002 
4325000000  -2.172705e+001  -1.332288e+002 
4328125000  -2.125323e+001  -1.395604e+002 
4331250000  -2.116476e+001  -1.476351e+002 
4334375000  -2.155618e+001  -1.526354e+002 
4337500000  -2.234909e+001  -1.551888e+002 
4340625000  -2.298432e+001  -1.521681e+002 
4343750000  -2.242148e+001  -1.513917e+002 
4346875000  -2.203029e+001  -1.565958e+002 
4350000000  -2.203171e+001  -1.613249e+002 
4353125000  -2.205071e+001  -1.693845e+002 
4356250000  -2.373722e+001  -1.704492e+002 
4359375000  -2.448842e+001  -1.578282e+002 
4362500000  -2.187667e+001  -1.556794e+002 
4365625000  -2.020615e+001  -1.665288e+002 
4368750000  -2.086107e+001  -1.784221e+002 
4371875000  -2.205629e+001  -1.782088e+002 
4375000000  -2.180766e+001  -1.768147e+002 
4378125000  -2.114130e+001  1.774393e+002 
4381250000  -2.129397e+001  1.722536e+002 
4384375000  -2.107909e+001  1.678807e+002 
4387500000  -2.180797e+001  1.622202e+002 
4390625000  -2.286600e+001  1.626490e+002 
4393750000  -2.218271e+001  1.649343e+002 
4396875000  -2.151275e+001  1.628121e+002 
4400000000  -2.101530e+001  1.559616e+002 
4403125000  -2.151293e+001  1.484431e+002 
4406250000  -2.240014e+001  1.469361e+002 
4409375000  -2.232705e+001  1.447427e+002 
4412500000  -2.336395e+001  1.420496e+002 
4415625000  -2.381352e+001  1.467663e+002 
4418750000  -2.260586e+001  1.515081e+002 
