!Agilent Technologies,E8363B,MY43030201,A.06.04.32
!Agilent E8363B: A.06.04.32
!Date: Tuesday, November 11, 2014 20:55:31
!Correction: S21(Response(S21)) 
!S1P File: Measurement: S21:
# Hz S  dB   R 50
3000000000  -2.634658e+001  1.407267e+002 
3003125000  -2.774026e+001  1.365201e+002 
3006250000  -2.780451e+001  1.343206e+002 
3009375000  -2.816665e+001  1.396176e+002 
3012500000  -2.763417e+001  1.389111e+002 
3015625000  -2.672099e+001  1.325998e+002 
3018750000  -2.753389e+001  1.318524e+002 
3021875000  -2.624137e+001  1.329522e+002 
3025000000  -2.494130e+001  1.303429e+002 
3028125000  -2.398424e+001  1.252101e+002 
3031250000  -2.297728e+001  1.143237e+002 
3034375000  -2.261411e+001  1.013323e+002 
3037500000  -2.299980e+001  8.971447e+001 
3040625000  -2.434352e+001  8.460584e+001 
3043750000  -2.502102e+001  8.033208e+001 
3046875000  -2.521139e+001  7.439085e+001 
3050000000  -2.689413e+001  6.765643e+001 
3053125000  -2.699239e+001  7.405741e+001 
3056250000  -2.634991e+001  7.733967e+001 
3059375000  -2.658288e+001  7.678780e+001 
3062500000  -2.509578e+001  7.312676e+001 
3065625000  -2.489062e+001  6.740406e+001 
3068750000  -2.458239e+001  6.032965e+001 
3071875000  -2.459647e+001  5.791352e+001 
3075000000  -2.455758e+001  5.363614e+001 
3078125000  -2.432889e+001  4.935954e+001 
3081250000  -2.495361e+001  4.506381e+001 
3084375000  -2.419640e+001  4.173360e+001 
3087500000  -2.412460e+001  3.811297e+001 
3090625000  -2.380395e+001  2.823899e+001 
3093750000  -2.430213e+001  2.049204e+001 
3096875000  -2.556368e+001  1.490325e+001 
3100000000  -2.570373e+001  1.348609e+001 
3103125000  -2.607022e+001  1.487629e+001 
3106250000  -2.580814e+001  1.150890e+001 
3109375000  -2.606351e+001  7.963353e+000 
3112500000  -2.619469e+001  7.003154e+000 
3115625000  -2.599119e+001  3.174238e+000 
3118750000  -2.647174e+001  4.342086e+000 
3121875000  -2.579281e+001  -3.713962e+000 
3125000000  -2.702391e+001  -7.252924e+000 
3128125000  -2.819246e+001  7.499758e-001 
3131250000  -2.596924e+001  1.455978e+000 
3134375000  -2.471687e+001  -1.186907e+001 
3137500000  -2.535477e+001  -2.531316e+001 
3140625000  -2.690726e+001  -2.680341e+001 
3143750000  -2.790541e+001  -2.334124e+001 
3146875000  -2.754194e+001  -2.099511e+001 
3150000000  -2.653121e+001  -1.890432e+001 
3153125000  -2.649583e+001  -2.679465e+001 
3156250000  -2.749917e+001  -2.092422e+001 
3159375000  -2.586735e+001  -1.833349e+001 
3162500000  -2.386780e+001  -3.103056e+001 
3165625000  -2.482883e+001  -4.219878e+001 
3168750000  -2.517336e+001  -4.108688e+001 
3171875000  -2.423400e+001  -4.557661e+001 
3175000000  -2.492900e+001  -5.312276e+001 
3178125000  -2.468055e+001  -5.168426e+001 
3181250000  -2.354995e+001  -5.557809e+001 
3184375000  -2.277708e+001  -6.775116e+001 
3187500000  -2.388758e+001  -8.301794e+001 
3190625000  -2.665786e+001  -9.019646e+001 
3193750000  -2.718377e+001  -8.098167e+001 
3196875000  -2.679461e+001  -7.542227e+001 
3200000000  -2.595910e+001  -7.734106e+001 
3203125000  -2.511831e+001  -8.309428e+001 
3206250000  -2.536881e+001  -8.915789e+001 
3209375000  -2.494316e+001  -9.421281e+001 
3212500000  -2.514001e+001  -1.009084e+002 
3215625000  -2.527057e+001  -1.048763e+002 
3218750000  -2.601918e+001  -1.113305e+002 
3221875000  -2.693253e+001  -1.159435e+002 
3225000000  -2.659496e+001  -1.167356e+002 
3228125000  -2.692773e+001  -1.213949e+002 
3231250000  -2.770357e+001  -1.238652e+002 
3234375000  -2.750905e+001  -1.229967e+002 
3237500000  -2.757843e+001  -1.241607e+002 
3240625000  -2.722607e+001  -1.262835e+002 
3243750000  -2.688534e+001  -1.327189e+002 
3246875000  -2.736070e+001  -1.390048e+002 
3250000000  -2.788387e+001  -1.412614e+002 
3253125000  -2.799483e+001  -1.428998e+002 
3256250000  -2.781318e+001  -1.486792e+002 
3259375000  -2.816383e+001  -1.561254e+002 
3262500000  -2.948661e+001  -1.592442e+002 
3265625000  -3.012371e+001  -1.555777e+002 
3268750000  -3.008492e+001  -1.527398e+002 
3271875000  -2.987970e+001  -1.519267e+002 
3275000000  -2.873773e+001  -1.567789e+002 
3278125000  -2.925927e+001  -1.633201e+002 
3281250000  -2.956044e+001  -1.616175e+002 
3284375000  -2.902943e+001  -1.673067e+002 
3287500000  -2.928887e+001  -1.698612e+002 
3290625000  -2.964006e+001  -1.745400e+002 
3293750000  -2.935343e+001  -1.799703e+002 
3296875000  -3.038921e+001  -1.795811e+002 
3300000000  -3.022739e+001  -1.785431e+002 
3303125000  -2.914113e+001  1.770469e+002 
3306250000  -2.889413e+001  1.704305e+002 
3309375000  -2.867671e+001  1.652250e+002 
3312500000  -2.873734e+001  1.548733e+002 
3315625000  -2.975381e+001  1.471814e+002 
3318750000  -3.118955e+001  1.448401e+002 
3321875000  -3.247752e+001  1.446225e+002 
3325000000  -3.300390e+001  1.488084e+002 
3328125000  -3.285136e+001  1.510690e+002 
3331250000  -3.172361e+001  1.579425e+002 
3334375000  -2.896598e+001  1.486182e+002 
3337500000  -2.920974e+001  1.297942e+002 
3340625000  -3.066742e+001  1.187699e+002 
3343750000  -3.259039e+001  1.177030e+002 
3346875000  -3.302950e+001  1.201386e+002 
3350000000  -3.247486e+001  1.183102e+002 
3353125000  -3.255296e+001  1.137265e+002 
3356250000  -3.231056e+001  1.054541e+002 
3359375000  -3.324558e+001  9.738262e+001 
3362500000  -3.457487e+001  9.215736e+001 
3365625000  -3.527427e+001  9.075616e+001 
3368750000  -3.617732e+001  8.933279e+001 
3371875000  -3.664470e+001  8.534971e+001 
3375000000  -3.837488e+001  8.329716e+001 
3378125000  -3.948069e+001  8.350558e+001 
3381250000  -4.096330e+001  9.175198e+001 
3384375000  -3.983620e+001  1.110697e+002 
3387500000  -3.709410e+001  9.761610e+001 
3390625000  -3.880122e+001  8.043159e+001 
3393750000  -4.071397e+001  8.505333e+001 
3396875000  -3.983516e+001  8.838559e+001 
3400000000  -4.005634e+001  8.186242e+001 
3403125000  -4.105656e+001  7.643353e+001 
3406250000  -4.188874e+001  7.970471e+001 
3409375000  -4.242636e+001  7.718775e+001 
3412500000  -4.323663e+001  8.113950e+001 
3415625000  -4.391758e+001  8.562479e+001 
3418750000  -4.451941e+001  8.990255e+001 
3421875000  -4.491113e+001  9.689684e+001 
3425000000  -4.416191e+001  1.014949e+002 
3428125000  -4.280113e+001  1.007896e+002 
3431250000  -4.268418e+001  9.734146e+001 
3434375000  -4.221615e+001  9.358325e+001 
3437500000  -4.255353e+001  9.358208e+001 
3440625000  -4.334458e+001  9.683179e+001 
3443750000  -4.179116e+001  9.783836e+001 
3446875000  -4.067771e+001  9.280392e+001 
3450000000  -4.064753e+001  8.588089e+001 
3453125000  -4.081482e+001  7.665544e+001 
3456250000  -4.197543e+001  7.141856e+001 
3459375000  -4.303529e+001  7.449676e+001 
3462500000  -4.312080e+001  7.230688e+001 
3465625000  -4.286598e+001  7.318308e+001 
3468750000  -4.332224e+001  6.952549e+001 
3471875000  -4.355711e+001  7.043395e+001 
3475000000  -4.332512e+001  6.636954e+001 
3478125000  -4.396507e+001  6.092788e+001 
3481250000  -4.493306e+001  5.921614e+001 
3484375000  -4.653239e+001  6.741354e+001 
3487500000  -4.572199e+001  6.653213e+001 
3490625000  -4.574483e+001  6.614958e+001 
3493750000  -4.590673e+001  5.936692e+001 
3496875000  -4.699715e+001  6.510170e+001 
3500000000  -4.849998e+001  7.311040e+001 
3503125000  -4.772431e+001  7.610432e+001 
3506250000  -4.670439e+001  8.079354e+001 
3509375000  -4.669940e+001  7.310220e+001 
3512500000  -4.661748e+001  7.291468e+001 
3515625000  -4.720675e+001  7.845837e+001 
3518750000  -4.718104e+001  8.400305e+001 
3521875000  -4.720670e+001  8.501356e+001 
3525000000  -4.731580e+001  8.688548e+001 
3528125000  -4.657615e+001  9.399874e+001 
3531250000  -4.485612e+001  9.920875e+001 
3534375000  -4.427656e+001  8.798344e+001 
3537500000  -4.407915e+001  8.679655e+001 
3540625000  -4.457612e+001  8.493195e+001 
3543750000  -4.496855e+001  8.746480e+001 
3546875000  -4.419167e+001  9.804812e+001 
3550000000  -4.162891e+001  1.006298e+002 
3553125000  -4.038260e+001  8.379910e+001 
3556250000  -4.109316e+001  7.753776e+001 
3559375000  -4.110686e+001  7.687885e+001 
3562500000  -3.971975e+001  7.163231e+001 
3565625000  -4.043604e+001  6.563649e+001 
3568750000  -4.055243e+001  6.722077e+001 
3571875000  -4.021001e+001  6.609884e+001 
3575000000  -3.984724e+001  6.112616e+001 
3578125000  -4.030924e+001  5.622396e+001 
3581250000  -4.030471e+001  5.594421e+001 
3584375000  -3.927847e+001  5.431603e+001 
3587500000  -3.871548e+001  4.693898e+001 
3590625000  -3.908068e+001  3.707555e+001 
3593750000  -4.011267e+001  3.663091e+001 
3596875000  -4.020140e+001  4.354208e+001 
3600000000  -3.899537e+001  4.052547e+001 
3603125000  -3.883987e+001  2.662239e+001 
3606250000  -3.979370e+001  2.348636e+001 
3609375000  -4.018845e+001  2.265249e+001 
3612500000  -4.077147e+001  2.144713e+001 
3615625000  -4.103712e+001  1.943330e+001 
3618750000  -4.169501e+001  1.958325e+001 
3621875000  -4.147107e+001  2.088858e+001 
3625000000  -4.173912e+001  1.998589e+001 
3628125000  -4.185239e+001  2.065779e+001 
3631250000  -4.165526e+001  1.562891e+001 
3634375000  -4.283297e+001  1.621454e+001 
3637500000  -4.247176e+001  2.302862e+001 
3640625000  -4.118939e+001  2.379429e+001 
3643750000  -4.103685e+001  2.033624e+001 
3646875000  -4.167912e+001  1.640983e+001 
3650000000  -4.206968e+001  1.632429e+001 
3653125000  -4.171909e+001  1.563931e+001 
3656250000  -4.205550e+001  1.596300e+001 
3659375000  -4.216002e+001  1.961985e+001 
3662500000  -4.133251e+001  1.889263e+001 
3665625000  -4.146214e+001  2.100258e+001 
3668750000  -4.007351e+001  2.097460e+001 
3671875000  -3.915218e+001  1.699151e+001 
3675000000  -3.966451e+001  1.108057e+001 
3678125000  -4.002507e+001  1.220119e+001 
3681250000  -3.950277e+001  1.181718e+001 
3684375000  -3.926236e+001  8.946486e+000 
3687500000  -3.962540e+001  8.099999e+000 
3690625000  -3.930224e+001  5.758215e+000 
3693750000  -4.017749e+001  6.375577e+000 
3696875000  -3.979086e+001  9.888015e+000 
3700000000  -3.860897e+001  6.546117e+000 
3703125000  -3.850224e+001  2.031679e+000 
3706250000  -3.926393e+001  4.386336e+000 
3709375000  -3.850804e+001  7.956900e+000 
3712500000  -3.769147e+001  7.094643e+000 
3715625000  -3.650626e+001  1.121918e+000 
3718750000  -3.597920e+001  -1.290811e+000 
3721875000  -3.558323e+001  -7.700094e+000 
3725000000  -3.562561e+001  -1.144308e+001 
3728125000  -3.585542e+001  -1.172244e+001 
3731250000  -3.519577e+001  -1.254488e+001 
3734375000  -3.419427e+001  -1.788446e+001 
3737500000  -3.481859e+001  -2.424542e+001 
3740625000  -3.552782e+001  -2.761751e+001 
3743750000  -3.530740e+001  -2.920604e+001 
3746875000  -3.529646e+001  -3.197325e+001 
3750000000  -3.565920e+001  -3.208314e+001 
3753125000  -3.530054e+001  -3.298402e+001 
3756250000  -3.507268e+001  -3.292473e+001 
3759375000  -3.495133e+001  -3.353073e+001 
3762500000  -3.435563e+001  -3.560086e+001 
3765625000  -3.494766e+001  -3.901794e+001 
3768750000  -3.478619e+001  -3.585127e+001 
3771875000  -3.305384e+001  -3.805143e+001 
3775000000  -3.268597e+001  -4.636861e+001 
3778125000  -3.293120e+001  -4.742823e+001 
3781250000  -3.284887e+001  -5.060232e+001 
3784375000  -3.265135e+001  -5.171338e+001 
3787500000  -3.187571e+001  -5.582362e+001 
3790625000  -3.241057e+001  -6.150753e+001 
3793750000  -3.258895e+001  -6.238656e+001 
3796875000  -3.158787e+001  -6.327329e+001 
3800000000  -2.997128e+001  -6.719431e+001 
3803125000  -3.072417e+001  -7.418369e+001 
3806250000  -3.143653e+001  -7.784164e+001 
3809375000  -3.108616e+001  -7.871664e+001 
3812500000  -3.039710e+001  -8.347063e+001 
3815625000  -3.102253e+001  -9.130943e+001 
3818750000  -3.208926e+001  -9.259412e+001 
3821875000  -3.204192e+001  -8.512702e+001 
3825000000  -3.011175e+001  -8.058437e+001 
3828125000  -2.875293e+001  -9.491527e+001 
3831250000  -2.929787e+001  -1.089303e+002 
3834375000  -3.077306e+001  -1.102779e+002 
3837500000  -3.164804e+001  -1.049967e+002 
3840625000  -3.049224e+001  -1.055097e+002 
3843750000  -2.940704e+001  -1.156202e+002 
3846875000  -3.025275e+001  -1.234012e+002 
3850000000  -3.155654e+001  -1.172292e+002 
3853125000  -3.075512e+001  -1.146469e+002 
3856250000  -3.058000e+001  -1.192449e+002 
3859375000  -3.000367e+001  -1.245053e+002 
3862500000  -2.959793e+001  -1.313614e+002 
3865625000  -2.991729e+001  -1.360975e+002 
3868750000  -3.000917e+001  -1.356582e+002 
3871875000  -2.926444e+001  -1.384128e+002 
3875000000  -2.943600e+001  -1.469689e+002 
3878125000  -3.040238e+001  -1.487773e+002 
3881250000  -3.044922e+001  -1.455720e+002 
3884375000  -2.997219e+001  -1.504300e+002 
3887500000  -3.008949e+001  -1.536425e+002 
3890625000  -3.055430e+001  -1.561600e+002 
3893750000  -3.104928e+001  -1.569442e+002 
3896875000  -3.108601e+001  -1.557074e+002 
3900000000  -3.127192e+001  -1.567771e+002 
3903125000  -3.082842e+001  -1.585255e+002 
3906250000  -3.057936e+001  -1.593095e+002 
3909375000  -2.973174e+001  -1.615294e+002 
3912500000  -2.979353e+001  -1.690833e+002 
3915625000  -3.087260e+001  -1.691642e+002 
3918750000  -3.085462e+001  -1.669750e+002 
3921875000  -3.045724e+001  -1.692332e+002 
3925000000  -2.959506e+001  -1.700903e+002 
3928125000  -2.883592e+001  -1.758679e+002 
3931250000  -2.932707e+001  1.794529e+002 
3934375000  -2.954868e+001  1.794149e+002 
3937500000  -2.965650e+001  1.787279e+002 
3940625000  -3.009722e+001  1.786115e+002 
3943750000  -2.914190e+001  1.792199e+002 
3946875000  -2.798325e+001  1.732279e+002 
3950000000  -2.850939e+001  1.665933e+002 
3953125000  -2.949836e+001  1.663915e+002 
3956250000  -2.864270e+001  1.688934e+002 
3959375000  -2.731405e+001  1.654262e+002 
3962500000  -2.687602e+001  1.614787e+002 
3965625000  -2.657424e+001  1.521102e+002 
3968750000  -2.752206e+001  1.458797e+002 
3971875000  -2.789424e+001  1.445437e+002 
3975000000  -2.735420e+001  1.421663e+002 
3978125000  -2.721754e+001  1.409591e+002 
3981250000  -2.699024e+001  1.364431e+002 
3984375000  -2.726614e+001  1.304919e+002 
3987500000  -2.780641e+001  1.291461e+002 
3990625000  -2.790187e+001  1.285383e+002 
3993750000  -2.811668e+001  1.252526e+002 
3996875000  -2.801724e+001  1.233275e+002 
4000000000  -2.811860e+001  1.214011e+002 
4003125000  -2.873314e+001  1.242496e+002 
4006250000  -2.734744e+001  1.251742e+002 
4009375000  -2.614001e+001  1.128243e+002 
4012500000  -2.715788e+001  1.060055e+002 
4015625000  -2.835629e+001  1.067193e+002 
4018750000  -2.852136e+001  1.097850e+002 
4021875000  -2.772184e+001  1.084486e+002 
4025000000  -2.733708e+001  1.036343e+002 
4028125000  -2.718330e+001  9.955834e+001 
4031250000  -2.764366e+001  9.603966e+001 
4034375000  -2.778574e+001  9.671408e+001 
4037500000  -2.729232e+001  9.836285e+001 
4040625000  -2.714512e+001  9.428648e+001 
4043750000  -2.745115e+001  9.405244e+001 
4046875000  -2.693826e+001  9.269716e+001 
4050000000  -2.641999e+001  8.730973e+001 
4053125000  -2.687794e+001  8.503629e+001 
4056250000  -2.745086e+001  8.897012e+001 
4059375000  -2.624008e+001  9.023388e+001 
4062500000  -2.488597e+001  8.488535e+001 
4065625000  -2.470546e+001  8.019389e+001 
4068750000  -2.445262e+001  7.530987e+001 
4071875000  -2.379113e+001  6.704225e+001 
4075000000  -2.421723e+001  6.057379e+001 
4078125000  -2.486225e+001  5.916696e+001 
4081250000  -2.434204e+001  5.702142e+001 
4084375000  -2.397691e+001  4.997351e+001 
4087500000  -2.439058e+001  4.338245e+001 
4090625000  -2.501401e+001  4.240491e+001 
4093750000  -2.487809e+001  4.305321e+001 
4096875000  -2.448808e+001  3.734211e+001 
4100000000  -2.523960e+001  3.017656e+001 
4103125000  -2.617297e+001  3.104991e+001 
4106250000  -2.604978e+001  3.597791e+001 
4109375000  -2.511886e+001  3.594847e+001 
4112500000  -2.467654e+001  2.944507e+001 
4115625000  -2.497065e+001  2.527061e+001 
4118750000  -2.507312e+001  2.240053e+001 
4121875000  -2.472646e+001  1.820113e+001 
4125000000  -2.512280e+001  1.327462e+001 
4128125000  -2.619809e+001  1.362932e+001 
4131250000  -2.586057e+001  2.212477e+001 
4134375000  -2.345224e+001  1.804803e+001 
4137500000  -2.330364e+001  -4.059257e-001 
4140625000  -2.537169e+001  -7.777021e+000 
4143750000  -2.674665e+001  -2.026016e+000 
4146875000  -2.622460e+001  5.506739e+000 
4150000000  -2.525291e+001  2.445128e+000 
4153125000  -2.504494e+001  -3.940790e+000 
4156250000  -2.595084e+001  -6.714086e+000 
4159375000  -2.614562e+001  -2.215831e+000 
4162500000  -2.494533e+001  2.041742e+000 
4165625000  -2.371708e+001  -2.348698e+000 
4168750000  -2.308716e+001  -9.627824e+000 
4171875000  -2.302596e+001  -1.873814e+001 
4175000000  -2.359486e+001  -2.453773e+001 
4178125000  -2.413815e+001  -2.473841e+001 
4181250000  -2.400035e+001  -2.582651e+001 
4184375000  -2.386411e+001  -2.951946e+001 
4187500000  -2.390696e+001  -3.247224e+001 
4190625000  -2.374669e+001  -3.817792e+001 
4193750000  -2.453400e+001  -4.223037e+001 
4196875000  -2.529613e+001  -4.267527e+001 
4200000000  -2.617474e+001  -4.067150e+001 
4203125000  -2.616908e+001  -2.717196e+001 
4206250000  -2.279862e+001  -2.627684e+001 
4209375000  -2.168039e+001  -4.663781e+001 
4212500000  -2.367391e+001  -5.607375e+001 
4215625000  -2.469467e+001  -4.960034e+001 
4218750000  -2.335385e+001  -4.270896e+001 
4221875000  -2.111456e+001  -5.203709e+001 
4225000000  -2.240222e+001  -6.425858e+001 
4228125000  -2.308534e+001  -5.961874e+001 
4231250000  -2.154992e+001  -6.323380e+001 
4234375000  -2.149539e+001  -7.127584e+001 
4237500000  -2.111331e+001  -7.474950e+001 
4240625000  -2.117282e+001  -8.304517e+001 
4243750000  -2.215365e+001  -8.959447e+001 
4246875000  -2.305228e+001  -8.938390e+001 
4250000000  -2.311423e+001  -8.667384e+001 
4253125000  -2.254032e+001  -8.805573e+001 
4256250000  -2.282266e+001  -9.168397e+001 
4259375000  -2.252134e+001  -9.382642e+001 
4262500000  -2.254111e+001  -9.709093e+001 
4265625000  -2.270581e+001  -9.670959e+001 
4268750000  -2.182552e+001  -1.007320e+002 
4271875000  -2.157032e+001  -1.060261e+002 
4275000000  -2.089061e+001  -1.124620e+002 
4278125000  -2.151407e+001  -1.231313e+002 
4281250000  -2.324627e+001  -1.254110e+002 
4284375000  -2.290052e+001  -1.244768e+002 
4287500000  -2.372699e+001  -1.280975e+002 
4290625000  -2.489605e+001  -1.184391e+002 
4293750000  -2.283276e+001  -1.132709e+002 
4296875000  -2.147140e+001  -1.246640e+002 
4300000000  -2.226492e+001  -1.337435e+002 
4303125000  -2.338247e+001  -1.326898e+002 
4306250000  -2.271852e+001  -1.266341e+002 
4309375000  -2.130985e+001  -1.292267e+002 
4312500000  -2.118201e+001  -1.378858e+002 
4315625000  -2.140298e+001  -1.444090e+002 
4318750000  -2.169979e+001  -1.480050e+002 
4321875000  -2.184955e+001  -1.472834e+002 
4325000000  -2.125679e+001  -1.469256e+002 
4328125000  -2.073931e+001  -1.538344e+002 
4331250000  -2.070284e+001  -1.622702e+002 
4334375000  -2.116320e+001  -1.675387e+002 
4337500000  -2.203987e+001  -1.698344e+002 
4340625000  -2.262757e+001  -1.662935e+002 
4343750000  -2.198724e+001  -1.661888e+002 
4346875000  -2.167432e+001  -1.720852e+002 
4350000000  -2.171953e+001  -1.766703e+002 
4353125000  -2.178712e+001  1.755040e+002 
4356250000  -2.357287e+001  1.750342e+002 
4359375000  -2.421657e+001  -1.715299e+002 
4362500000  -2.149392e+001  -1.698267e+002 
4365625000  -1.997856e+001  1.781094e+002 
4368750000  -2.072894e+001  1.665309e+002 
4371875000  -2.194523e+001  1.670840e+002 
4375000000  -2.159084e+001  1.684987e+002 
4378125000  -2.100372e+001  1.624037e+002 
4381250000  -2.114506e+001  1.572536e+002 
4384375000  -2.100507e+001  1.527782e+002 
4387500000  -2.172682e+001  1.474840e+002 
4390625000  -2.274331e+001  1.487594e+002 
4393750000  -2.207966e+001  1.508563e+002 
4396875000  -2.143432e+001  1.488165e+002 
4400000000  -2.088579e+001  1.422045e+002 
4403125000  -2.146775e+001  1.345952e+002 
4406250000  -2.228446e+001  1.337041e+002 
4409375000  -2.222285e+001  1.312399e+002 
4412500000  -2.324724e+001  1.289203e+002 
4415625000  -2.356873e+001  1.338538e+002 
4418750000  -2.232495e+001  1.385873e+002 
