!Agilent Technologies,E8363B,MY43030201,A.06.04.32
!Agilent E8363B: A.06.04.32
!Date: Tuesday, November 11, 2014 20:58:14
!Correction: S21(Response(S21)) 
!S1P File: Measurement: S21:
# Hz S  dB   R 50
3000000000  -2.649618e+001  1.468029e+002 
3003125000  -2.794347e+001  1.422243e+002 
3006250000  -2.797029e+001  1.396600e+002 
3009375000  -2.835106e+001  1.447331e+002 
3012500000  -2.779931e+001  1.440212e+002 
3015625000  -2.686735e+001  1.370346e+002 
3018750000  -2.771627e+001  1.365769e+002 
3021875000  -2.638052e+001  1.379120e+002 
3025000000  -2.506215e+001  1.346493e+002 
3028125000  -2.413188e+001  1.293852e+002 
3031250000  -2.307276e+001  1.181155e+002 
3034375000  -2.274001e+001  1.050261e+002 
3037500000  -2.313675e+001  9.324123e+001 
3040625000  -2.446510e+001  8.833554e+001 
3043750000  -2.516483e+001  8.390809e+001 
3046875000  -2.530654e+001  7.749478e+001 
3050000000  -2.702210e+001  7.086591e+001 
3053125000  -2.706550e+001  7.739715e+001 
3056250000  -2.645850e+001  8.070071e+001 
3059375000  -2.663966e+001  8.040018e+001 
3062500000  -2.517510e+001  7.608080e+001 
3065625000  -2.496998e+001  7.021543e+001 
3068750000  -2.464917e+001  6.328657e+001 
3071875000  -2.463651e+001  6.057597e+001 
3075000000  -2.454809e+001  5.676937e+001 
3078125000  -2.433671e+001  5.209231e+001 
3081250000  -2.496499e+001  4.770652e+001 
3084375000  -2.419831e+001  4.415800e+001 
3087500000  -2.410310e+001  4.029926e+001 
3090625000  -2.379922e+001  3.045765e+001 
3093750000  -2.426830e+001  2.275462e+001 
3096875000  -2.554106e+001  1.692931e+001 
3100000000  -2.566946e+001  1.556482e+001 
3103125000  -2.601989e+001  1.665444e+001 
3106250000  -2.575751e+001  1.345178e+001 
3109375000  -2.602811e+001  9.584034e+000 
3112500000  -2.612092e+001  8.749075e+000 
3115625000  -2.594668e+001  4.596273e+000 
3118750000  -2.642414e+001  5.789658e+000 
3121875000  -2.572867e+001  -2.360556e+000 
3125000000  -2.697526e+001  -5.655938e+000 
3128125000  -2.811526e+001  2.914121e+000 
3131250000  -2.587572e+001  2.977869e+000 
3134375000  -2.464264e+001  -1.091820e+001 
3137500000  -2.529737e+001  -2.432364e+001 
3140625000  -2.691801e+001  -2.588267e+001 
3143750000  -2.790961e+001  -2.233705e+001 
3146875000  -2.749307e+001  -1.982274e+001 
3150000000  -2.651156e+001  -1.783102e+001 
3153125000  -2.646586e+001  -2.590264e+001 
3156250000  -2.749469e+001  -2.001722e+001 
3159375000  -2.583824e+001  -1.725927e+001 
3162500000  -2.382958e+001  -3.011932e+001 
3165625000  -2.481361e+001  -4.125880e+001 
3168750000  -2.516409e+001  -4.005333e+001 
3171875000  -2.422353e+001  -4.439180e+001 
3175000000  -2.487141e+001  -5.223256e+001 
3178125000  -2.461832e+001  -5.063284e+001 
3181250000  -2.346980e+001  -5.481340e+001 
3184375000  -2.271605e+001  -6.690592e+001 
3187500000  -2.388095e+001  -8.179613e+001 
3190625000  -2.656880e+001  -8.900906e+001 
3193750000  -2.717067e+001  -7.941532e+001 
3196875000  -2.672197e+001  -7.411617e+001 
3200000000  -2.581709e+001  -7.618854e+001 
3203125000  -2.498087e+001  -8.211208e+001 
3206250000  -2.531318e+001  -8.811874e+001 
3209375000  -2.479650e+001  -9.330268e+001 
3212500000  -2.497433e+001  -1.000710e+002 
3215625000  -2.513410e+001  -1.037255e+002 
3218750000  -2.586910e+001  -1.100374e+002 
3221875000  -2.683697e+001  -1.154516e+002 
3225000000  -2.643100e+001  -1.159484e+002 
3228125000  -2.676377e+001  -1.207911e+002 
3231250000  -2.751964e+001  -1.231751e+002 
3234375000  -2.734841e+001  -1.220783e+002 
3237500000  -2.738285e+001  -1.236307e+002 
3240625000  -2.701523e+001  -1.256652e+002 
3243750000  -2.667459e+001  -1.323216e+002 
3246875000  -2.713613e+001  -1.387700e+002 
3250000000  -2.763965e+001  -1.408150e+002 
3253125000  -2.779478e+001  -1.423324e+002 
3256250000  -2.767553e+001  -1.481469e+002 
3259375000  -2.795444e+001  -1.560335e+002 
3262500000  -2.922355e+001  -1.587607e+002 
3265625000  -2.989074e+001  -1.549517e+002 
3268750000  -2.988155e+001  -1.524862e+002 
3271875000  -2.961820e+001  -1.514701e+002 
3275000000  -2.850577e+001  -1.571925e+002 
3278125000  -2.897173e+001  -1.626851e+002 
3281250000  -2.928486e+001  -1.611516e+002 
3284375000  -2.883250e+001  -1.667949e+002 
3287500000  -2.901958e+001  -1.695917e+002 
3290625000  -2.938942e+001  -1.741039e+002 
3293750000  -2.912927e+001  -1.796594e+002 
3296875000  -3.018749e+001  -1.792030e+002 
3300000000  -2.999065e+001  -1.781697e+002 
3303125000  -2.889874e+001  1.777720e+002 
3306250000  -2.866159e+001  1.712524e+002 
3309375000  -2.838913e+001  1.658701e+002 
3312500000  -2.844274e+001  1.555424e+002 
3315625000  -2.946761e+001  1.479524e+002 
3318750000  -3.083548e+001  1.458441e+002 
3321875000  -3.210738e+001  1.453813e+002 
3325000000  -3.246119e+001  1.505291e+002 
3328125000  -3.244441e+001  1.522406e+002 
3331250000  -3.123014e+001  1.597428e+002 
3334375000  -2.852239e+001  1.494564e+002 
3337500000  -2.867012e+001  1.312912e+002 
3340625000  -3.004401e+001  1.203206e+002 
3343750000  -3.212323e+001  1.191788e+002 
3346875000  -3.243090e+001  1.208083e+002 
3350000000  -3.177899e+001  1.195372e+002 
3353125000  -3.196496e+001  1.150215e+002 
3356250000  -3.161595e+001  1.077492e+002 
3359375000  -3.257137e+001  9.886418e+001 
3362500000  -3.372434e+001  9.374531e+001 
3365625000  -3.434193e+001  9.231245e+001 
3368750000  -3.538015e+001  9.058005e+001 
3371875000  -3.574112e+001  8.750027e+001 
3375000000  -3.744039e+001  8.513372e+001 
3378125000  -3.838911e+001  8.499567e+001 
3381250000  -4.017543e+001  9.263345e+001 
3384375000  -3.909230e+001  1.153325e+002 
3387500000  -3.588608e+001  9.928281e+001 
3390625000  -3.775248e+001  7.989265e+001 
3393750000  -3.940742e+001  8.492995e+001 
3396875000  -3.861493e+001  8.901401e+001 
3400000000  -3.853661e+001  8.214017e+001 
3403125000  -3.966183e+001  7.637624e+001 
3406250000  -4.050022e+001  7.898119e+001 
3409375000  -4.093966e+001  7.431635e+001 
3412500000  -4.162354e+001  7.542101e+001 
3415625000  -4.264454e+001  8.297788e+001 
3418750000  -4.302827e+001  8.452705e+001 
3421875000  -4.361035e+001  9.225069e+001 
3425000000  -4.211506e+001  9.517259e+001 
3428125000  -4.130808e+001  9.622072e+001 
3431250000  -4.123855e+001  9.108994e+001 
3434375000  -4.104248e+001  8.756599e+001 
3437500000  -4.144979e+001  8.430714e+001 
3440625000  -4.186180e+001  8.869812e+001 
3443750000  -4.061846e+001  9.203121e+001 
3446875000  -3.983845e+001  8.591682e+001 
3450000000  -3.950721e+001  7.761871e+001 
3453125000  -3.991724e+001  6.878016e+001 
3456250000  -4.106812e+001  6.235020e+001 
3459375000  -4.216352e+001  6.651798e+001 
3462500000  -4.204217e+001  6.602823e+001 
3465625000  -4.222115e+001  6.158421e+001 
3468750000  -4.263917e+001  5.977139e+001 
3471875000  -4.272958e+001  6.014051e+001 
3475000000  -4.252217e+001  5.735460e+001 
3478125000  -4.350977e+001  4.981966e+001 
3481250000  -4.460816e+001  4.767421e+001 
3484375000  -4.552334e+001  5.330551e+001 
3487500000  -4.502465e+001  5.878344e+001 
3490625000  -4.488216e+001  5.447999e+001 
3493750000  -4.571730e+001  5.066525e+001 
3496875000  -4.665214e+001  5.330986e+001 
3500000000  -4.787215e+001  6.379388e+001 
3503125000  -4.770063e+001  6.359652e+001 
3506250000  -4.600430e+001  6.541478e+001 
3509375000  -4.634876e+001  6.285241e+001 
3512500000  -4.744543e+001  6.142315e+001 
3515625000  -4.743334e+001  6.439491e+001 
3518750000  -4.821174e+001  6.929839e+001 
3521875000  -4.762910e+001  7.144846e+001 
3525000000  -4.799821e+001  7.532710e+001 
3528125000  -4.783575e+001  8.666000e+001 
3531250000  -4.606357e+001  8.650468e+001 
3534375000  -4.513733e+001  7.890399e+001 
3537500000  -4.501063e+001  7.500732e+001 
3540625000  -4.540775e+001  7.405874e+001 
3543750000  -4.553943e+001  7.979708e+001 
3546875000  -4.548904e+001  9.119704e+001 
3550000000  -4.302465e+001  9.273221e+001 
3553125000  -4.138379e+001  7.588291e+001 
3556250000  -4.258484e+001  6.977103e+001 
3559375000  -4.227050e+001  7.261060e+001 
3562500000  -4.064763e+001  6.560349e+001 
3565625000  -4.181531e+001  6.131052e+001 
3568750000  -4.177660e+001  6.279410e+001 
3571875000  -4.168703e+001  6.236611e+001 
3575000000  -4.089310e+001  5.929581e+001 
3578125000  -4.164085e+001  5.419227e+001 
3581250000  -4.156646e+001  5.605001e+001 
3584375000  -4.062375e+001  5.433229e+001 
3587500000  -3.985099e+001  4.649873e+001 
3590625000  -4.035450e+001  3.800161e+001 
3593750000  -4.138217e+001  3.750113e+001 
3596875000  -4.124866e+001  4.620536e+001 
3600000000  -3.969347e+001  4.183351e+001 
3603125000  -4.000285e+001  3.056927e+001 
3606250000  -4.061911e+001  2.760604e+001 
3609375000  -4.094133e+001  2.621976e+001 
3612500000  -4.134212e+001  2.583593e+001 
3615625000  -4.142801e+001  2.331975e+001 
3618750000  -4.196331e+001  2.572269e+001 
3621875000  -4.173615e+001  2.250107e+001 
3625000000  -4.189558e+001  2.361221e+001 
3628125000  -4.175866e+001  2.444377e+001 
3631250000  -4.129330e+001  1.924054e+001 
3634375000  -4.248752e+001  2.098692e+001 
3637500000  -4.189438e+001  2.498431e+001 
3640625000  -4.076067e+001  2.824599e+001 
3643750000  -4.053131e+001  2.064377e+001 
3646875000  -4.119934e+001  1.555716e+001 
3650000000  -4.130191e+001  1.594409e+001 
3653125000  -4.137067e+001  1.409951e+001 
3656250000  -4.154279e+001  1.241105e+001 
3659375000  -4.182335e+001  1.712691e+001 
3662500000  -4.102991e+001  1.513809e+001 
3665625000  -4.120074e+001  1.688651e+001 
3668750000  -4.000203e+001  1.780182e+001 
3671875000  -3.921299e+001  1.083855e+001 
3675000000  -3.970780e+001  6.703049e+000 
3678125000  -4.024833e+001  9.874208e+000 
3681250000  -3.979215e+001  8.147382e+000 
3684375000  -3.967922e+001  6.558171e+000 
3687500000  -3.971004e+001  2.919048e+000 
3690625000  -3.974746e+001  2.736574e+000 
3693750000  -4.032288e+001  6.862281e+000 
3696875000  -3.996635e+001  1.014344e+001 
3700000000  -3.878617e+001  7.930032e+000 
3703125000  -3.873908e+001  4.051247e+000 
3706250000  -3.947629e+001  5.631447e+000 
3709375000  -3.877568e+001  7.386103e+000 
3712500000  -3.735737e+001  9.074970e+000 
3715625000  -3.619640e+001  2.444532e+000 
3718750000  -3.566351e+001  4.126485e-001 
3721875000  -3.539079e+001  -5.905441e+000 
3725000000  -3.520926e+001  -9.437305e+000 
3728125000  -3.532559e+001  -1.110920e+001 
3731250000  -3.478161e+001  -1.134883e+001 
3734375000  -3.375232e+001  -1.822865e+001 
3737500000  -3.426077e+001  -2.485510e+001 
3740625000  -3.487194e+001  -2.794140e+001 
3743750000  -3.454462e+001  -2.964311e+001 
3746875000  -3.449203e+001  -3.312748e+001 
3750000000  -3.494827e+001  -3.392390e+001 
3753125000  -3.452785e+001  -3.481934e+001 
3756250000  -3.441946e+001  -3.564681e+001 
3759375000  -3.419043e+001  -3.622506e+001 
3762500000  -3.373914e+001  -3.991844e+001 
3765625000  -3.424913e+001  -4.225207e+001 
3768750000  -3.421083e+001  -4.080658e+001 
3771875000  -3.250695e+001  -4.302748e+001 
3775000000  -3.224856e+001  -5.032368e+001 
3778125000  -3.260621e+001  -5.240621e+001 
3781250000  -3.237473e+001  -5.551131e+001 
3784375000  -3.227348e+001  -5.695002e+001 
3787500000  -3.168834e+001  -6.072902e+001 
3790625000  -3.223386e+001  -6.640909e+001 
3793750000  -3.238877e+001  -6.721452e+001 
3796875000  -3.147296e+001  -6.813734e+001 
3800000000  -2.985308e+001  -7.163467e+001 
3803125000  -3.072894e+001  -7.960319e+001 
3806250000  -3.142360e+001  -8.140544e+001 
3809375000  -3.101308e+001  -8.259460e+001 
3812500000  -3.036192e+001  -8.768768e+001 
3815625000  -3.102926e+001  -9.524234e+001 
3818750000  -3.203199e+001  -9.615162e+001 
3821875000  -3.212726e+001  -8.729386e+001 
3825000000  -3.007689e+001  -8.325414e+001 
3828125000  -2.883388e+001  -9.784861e+001 
3831250000  -2.937710e+001  -1.114584e+002 
3834375000  -3.077148e+001  -1.124498e+002 
3837500000  -3.162507e+001  -1.075775e+002 
3840625000  -3.046184e+001  -1.080711e+002 
3843750000  -2.930314e+001  -1.181280e+002 
3846875000  -3.006479e+001  -1.256349e+002 
3850000000  -3.130372e+001  -1.193231e+002 
3853125000  -3.046003e+001  -1.168528e+002 
3856250000  -3.040062e+001  -1.212002e+002 
3859375000  -2.970948e+001  -1.263586e+002 
3862500000  -2.917472e+001  -1.342276e+002 
3865625000  -2.958096e+001  -1.389659e+002 
3868750000  -2.958000e+001  -1.387675e+002 
3871875000  -2.887784e+001  -1.418687e+002 
3875000000  -2.893612e+001  -1.504692e+002 
3878125000  -3.004651e+001  -1.524163e+002 
3881250000  -3.007826e+001  -1.497879e+002 
3884375000  -2.957519e+001  -1.542378e+002 
3887500000  -2.972042e+001  -1.586626e+002 
3890625000  -3.025303e+001  -1.612577e+002 
3893750000  -3.070278e+001  -1.627101e+002 
3896875000  -3.078660e+001  -1.612939e+002 
3900000000  -3.105456e+001  -1.626797e+002 
3903125000  -3.068235e+001  -1.640393e+002 
3906250000  -3.041438e+001  -1.658302e+002 
3909375000  -2.965609e+001  -1.683591e+002 
3912500000  -2.973728e+001  -1.752161e+002 
3915625000  -3.100561e+001  -1.749413e+002 
3918750000  -3.098471e+001  -1.732970e+002 
3921875000  -3.064069e+001  -1.744174e+002 
3925000000  -2.976649e+001  -1.758089e+002 
3928125000  -2.907449e+001  1.783625e+002 
3931250000  -2.958174e+001  1.750342e+002 
3934375000  -2.989816e+001  1.752135e+002 
3937500000  -3.004242e+001  1.743523e+002 
3940625000  -3.041694e+001  1.747070e+002 
3943750000  -2.941958e+001  1.756162e+002 
3946875000  -2.820757e+001  1.707165e+002 
3950000000  -2.877620e+001  1.629622e+002 
3953125000  -2.968612e+001  1.639924e+002 
3956250000  -2.876436e+001  1.667125e+002 
3959375000  -2.751545e+001  1.633977e+002 
3962500000  -2.698745e+001  1.594075e+002 
3965625000  -2.659703e+001  1.506928e+002 
3968750000  -2.753989e+001  1.439340e+002 
3971875000  -2.786809e+001  1.422684e+002 
3975000000  -2.728452e+001  1.405974e+002 
3978125000  -2.707413e+001  1.391455e+002 
3981250000  -2.681041e+001  1.351339e+002 
3984375000  -2.704629e+001  1.282758e+002 
3987500000  -2.762307e+001  1.262837e+002 
3990625000  -2.755798e+001  1.253835e+002 
3993750000  -2.781438e+001  1.222436e+002 
3996875000  -2.774912e+001  1.199402e+002 
4000000000  -2.789355e+001  1.176464e+002 
4003125000  -2.838894e+001  1.201315e+002 
4006250000  -2.698880e+001  1.200194e+002 
4009375000  -2.579790e+001  1.079719e+002 
4012500000  -2.692682e+001  1.008826e+002 
4015625000  -2.818465e+001  1.015267e+002 
4018750000  -2.833384e+001  1.039180e+002 
4021875000  -2.762841e+001  1.022223e+002 
4025000000  -2.729476e+001  9.704852e+001 
4028125000  -2.720410e+001  9.326537e+001 
4031250000  -2.766589e+001  8.997160e+001 
4034375000  -2.796879e+001  9.000012e+001 
4037500000  -2.747385e+001  9.174731e+001 
4040625000  -2.741894e+001  8.881811e+001 
4043750000  -2.776942e+001  8.825146e+001 
4046875000  -2.730905e+001  8.748605e+001 
4050000000  -2.682860e+001  8.212591e+001 
4053125000  -2.729603e+001  8.023534e+001 
4056250000  -2.781129e+001  8.430781e+001 
4059375000  -2.660566e+001  8.691254e+001 
4062500000  -2.527918e+001  8.214042e+001 
4065625000  -2.514557e+001  7.722622e+001 
4068750000  -2.482073e+001  7.248109e+001 
4071875000  -2.420636e+001  6.446352e+001 
4075000000  -2.462493e+001  5.826639e+001 
4078125000  -2.517270e+001  5.742871e+001 
4081250000  -2.459399e+001  5.516956e+001 
4084375000  -2.420894e+001  4.838034e+001 
4087500000  -2.456872e+001  4.207162e+001 
4090625000  -2.519677e+001  4.109814e+001 
4093750000  -2.496505e+001  4.209946e+001 
4096875000  -2.452215e+001  3.572322e+001 
4100000000  -2.525530e+001  2.899285e+001 
4103125000  -2.615400e+001  2.965937e+001 
4106250000  -2.594714e+001  3.483241e+001 
4109375000  -2.505321e+001  3.395967e+001 
4112500000  -2.452163e+001  2.746594e+001 
4115625000  -2.484317e+001  2.337132e+001 
4118750000  -2.485037e+001  2.005304e+001 
4121875000  -2.452713e+001  1.559136e+001 
4125000000  -2.489278e+001  1.018289e+001 
4128125000  -2.591166e+001  1.061925e+001 
4131250000  -2.562230e+001  1.877431e+001 
4134375000  -2.324150e+001  1.415478e+001 
4137500000  -2.309408e+001  -4.523307e+000 
4140625000  -2.526579e+001  -1.170903e+001 
4143750000  -2.657986e+001  -6.825221e+000 
4146875000  -2.607695e+001  6.393732e-001 
4150000000  -2.516212e+001  -2.759375e+000 
4153125000  -2.506693e+001  -9.488592e+000 
4156250000  -2.596446e+001  -1.201175e+001 
4159375000  -2.619098e+001  -7.276987e+000 
4162500000  -2.505418e+001  -3.199741e+000 
4165625000  -2.394007e+001  -7.254476e+000 
4168750000  -2.334565e+001  -1.480234e+001 
4171875000  -2.333300e+001  -2.399560e+001 
4175000000  -2.393435e+001  -2.947972e+001 
4178125000  -2.452903e+001  -2.928714e+001 
4181250000  -2.436288e+001  -2.975431e+001 
4184375000  -2.425802e+001  -3.313452e+001 
4187500000  -2.430864e+001  -3.586591e+001 
4190625000  -2.410136e+001  -4.145675e+001 
4193750000  -2.494099e+001  -4.491763e+001 
4196875000  -2.568264e+001  -4.533008e+001 
4200000000  -2.658430e+001  -4.267207e+001 
4203125000  -2.642352e+001  -2.936474e+001 
4206250000  -2.307131e+001  -2.809954e+001 
4209375000  -2.193258e+001  -4.884127e+001 
4212500000  -2.390963e+001  -5.746539e+001 
4215625000  -2.486914e+001  -5.079489e+001 
4218750000  -2.354114e+001  -4.427246e+001 
4221875000  -2.122064e+001  -5.363471e+001 
4225000000  -2.252129e+001  -6.582203e+001 
4228125000  -2.308344e+001  -6.080853e+001 
4231250000  -2.156365e+001  -6.466589e+001 
4234375000  -2.147332e+001  -7.289444e+001 
4237500000  -2.105960e+001  -7.641749e+001 
4240625000  -2.106790e+001  -8.511823e+001 
4243750000  -2.206404e+001  -9.161592e+001 
4246875000  -2.297587e+001  -9.186102e+001 
4250000000  -2.299354e+001  -8.879826e+001 
4253125000  -2.241176e+001  -9.071523e+001 
4256250000  -2.267122e+001  -9.473029e+001 
4259375000  -2.240891e+001  -9.693491e+001 
4262500000  -2.244857e+001  -1.006280e+002 
4265625000  -2.258785e+001  -1.003742e+002 
4268750000  -2.170654e+001  -1.046787e+002 
4271875000  -2.144764e+001  -1.103814e+002 
4275000000  -2.082075e+001  -1.168284e+002 
4278125000  -2.153647e+001  -1.278710e+002 
4281250000  -2.328381e+001  -1.298600e+002 
4284375000  -2.293671e+001  -1.294381e+002 
4287500000  -2.378440e+001  -1.325683e+002 
4290625000  -2.498558e+001  -1.227751e+002 
4293750000  -2.301941e+001  -1.177920e+002 
4296875000  -2.165141e+001  -1.290429e+002 
4300000000  -2.252036e+001  -1.383539e+002 
4303125000  -2.368098e+001  -1.368745e+002 
4306250000  -2.298075e+001  -1.310846e+002 
4309375000  -2.161831e+001  -1.332147e+002 
4312500000  -2.155987e+001  -1.418011e+002 
4315625000  -2.175637e+001  -1.480106e+002 
4318750000  -2.211035e+001  -1.510829e+002 
4321875000  -2.226773e+001  -1.503441e+002 
4325000000  -2.169622e+001  -1.499869e+002 
4328125000  -2.118082e+001  -1.562505e+002 
4331250000  -2.111187e+001  -1.643959e+002 
4334375000  -2.158646e+001  -1.696283e+002 
4337500000  -2.241903e+001  -1.712968e+002 
4340625000  -2.296570e+001  -1.680217e+002 
4343750000  -2.236093e+001  -1.676175e+002 
4346875000  -2.197874e+001  -1.731172e+002 
4350000000  -2.203274e+001  -1.782078e+002 
4353125000  -2.208934e+001  1.745560e+002 
4356250000  -2.388346e+001  1.737131e+002 
4359375000  -2.436155e+001  -1.719527e+002 
4362500000  -2.164489e+001  -1.708484e+002 
4365625000  -2.000467e+001  1.768070e+002 
4368750000  -2.075193e+001  1.651658e+002 
4371875000  -2.199519e+001  1.659198e+002 
4375000000  -2.163719e+001  1.670447e+002 
4378125000  -2.096051e+001  1.611237e+002 
4381250000  -2.115059e+001  1.556190e+002 
4384375000  -2.096650e+001  1.510274e+002 
4387500000  -2.176264e+001  1.453057e+002 
4390625000  -2.270757e+001  1.461728e+002 
4393750000  -2.204347e+001  1.481488e+002 
4396875000  -2.140472e+001  1.461848e+002 
4400000000  -2.084163e+001  1.390643e+002 
4403125000  -2.144939e+001  1.314497e+002 
4406250000  -2.228947e+001  1.300999e+002 
4409375000  -2.226332e+001  1.277524e+002 
4412500000  -2.332947e+001  1.252820e+002 
4415625000  -2.363699e+001  1.301755e+002 
4418750000  -2.246533e+001  1.346167e+002 
