!Agilent Technologies,E8363B,MY43030201,A.06.04.32
!Agilent E8363B: A.06.04.32
!Date: Tuesday, November 11, 2014 20:46:00
!Correction: S21(Response(S21)) 
!S1P File: Measurement: S21:
# Hz S  dB   R 50
3000000000  -2.652450e+001  1.583129e+002 
3003125000  -2.787852e+001  1.538846e+002 
3006250000  -2.799454e+001  1.510938e+002 
3009375000  -2.829249e+001  1.560319e+002 
3012500000  -2.780469e+001  1.560230e+002 
3015625000  -2.685657e+001  1.487663e+002 
3018750000  -2.772622e+001  1.478744e+002 
3021875000  -2.649283e+001  1.492610e+002 
3025000000  -2.511450e+001  1.458110e+002 
3028125000  -2.416025e+001  1.414714e+002 
3031250000  -2.313783e+001  1.302798e+002 
3034375000  -2.274711e+001  1.173700e+002 
3037500000  -2.309799e+001  1.051944e+002 
3040625000  -2.440569e+001  1.001349e+002 
3043750000  -2.512996e+001  9.592918e+001 
3046875000  -2.517874e+001  8.923821e+001 
3050000000  -2.697326e+001  8.217415e+001 
3053125000  -2.715514e+001  8.878714e+001 
3056250000  -2.644863e+001  9.192688e+001 
3059375000  -2.670138e+001  9.151347e+001 
3062500000  -2.525627e+001  8.782687e+001 
3065625000  -2.502060e+001  8.238200e+001 
3068750000  -2.472177e+001  7.550720e+001 
3071875000  -2.463725e+001  7.208556e+001 
3075000000  -2.466447e+001  6.874140e+001 
3078125000  -2.434953e+001  6.400872e+001 
3081250000  -2.499869e+001  6.022779e+001 
3084375000  -2.425904e+001  5.640471e+001 
3087500000  -2.410129e+001  5.268978e+001 
3090625000  -2.385063e+001  4.315247e+001 
3093750000  -2.421373e+001  3.506258e+001 
3096875000  -2.552575e+001  2.859657e+001 
3100000000  -2.569994e+001  2.739322e+001 
3103125000  -2.601879e+001  2.899689e+001 
3106250000  -2.577088e+001  2.535542e+001 
3109375000  -2.600102e+001  2.186151e+001 
3112500000  -2.617195e+001  2.104086e+001 
3115625000  -2.593078e+001  1.659807e+001 
3118750000  -2.644820e+001  1.774056e+001 
3121875000  -2.580967e+001  9.894626e+000 
3125000000  -2.688679e+001  6.146726e+000 
3128125000  -2.814704e+001  1.437035e+001 
3131250000  -2.600010e+001  1.470102e+001 
3134375000  -2.460818e+001  1.622459e+000 
3137500000  -2.525861e+001  -1.268847e+001 
3140625000  -2.690391e+001  -1.429552e+001 
3143750000  -2.790987e+001  -9.808022e+000 
3146875000  -2.750720e+001  -7.958510e+000 
3150000000  -2.650940e+001  -5.619713e+000 
3153125000  -2.647801e+001  -1.372908e+001 
3156250000  -2.741923e+001  -8.403842e+000 
3159375000  -2.594089e+001  -5.197859e+000 
3162500000  -2.387879e+001  -1.810646e+001 
3165625000  -2.474586e+001  -2.903214e+001 
3168750000  -2.522848e+001  -2.818257e+001 
3171875000  -2.424084e+001  -3.218686e+001 
3175000000  -2.489390e+001  -4.005235e+001 
3178125000  -2.469790e+001  -3.829913e+001 
3181250000  -2.350136e+001  -4.207542e+001 
3184375000  -2.265707e+001  -5.431435e+001 
3187500000  -2.374241e+001  -6.966862e+001 
3190625000  -2.657339e+001  -7.758497e+001 
3193750000  -2.724545e+001  -6.757375e+001 
3196875000  -2.678782e+001  -6.228269e+001 
3200000000  -2.594338e+001  -6.424752e+001 
3203125000  -2.503737e+001  -6.989510e+001 
3206250000  -2.529214e+001  -7.559421e+001 
3209375000  -2.480408e+001  -8.090697e+001 
3212500000  -2.494401e+001  -8.744564e+001 
3215625000  -2.507292e+001  -9.211120e+001 
3218750000  -2.583845e+001  -9.838263e+001 
3221875000  -2.687344e+001  -1.032092e+002 
3225000000  -2.647903e+001  -1.039021e+002 
3228125000  -2.672130e+001  -1.081140e+002 
3231250000  -2.747974e+001  -1.112563e+002 
3234375000  -2.739938e+001  -1.100892e+002 
3237500000  -2.740627e+001  -1.114170e+002 
3240625000  -2.711581e+001  -1.135739e+002 
3243750000  -2.668183e+001  -1.199481e+002 
3246875000  -2.721967e+001  -1.264303e+002 
3250000000  -2.763640e+001  -1.284577e+002 
3253125000  -2.778432e+001  -1.301309e+002 
3256250000  -2.764327e+001  -1.359649e+002 
3259375000  -2.797795e+001  -1.437274e+002 
3262500000  -2.917889e+001  -1.464776e+002 
3265625000  -2.990092e+001  -1.433864e+002 
3268750000  -2.991879e+001  -1.408066e+002 
3271875000  -2.964327e+001  -1.397226e+002 
3275000000  -2.859648e+001  -1.441108e+002 
3278125000  -2.903720e+001  -1.510991e+002 
3281250000  -2.931008e+001  -1.490126e+002 
3284375000  -2.884907e+001  -1.548741e+002 
3287500000  -2.900778e+001  -1.575065e+002 
3290625000  -2.950083e+001  -1.618558e+002 
3293750000  -2.918064e+001  -1.676154e+002 
3296875000  -3.016843e+001  -1.672104e+002 
3300000000  -3.015903e+001  -1.662458e+002 
3303125000  -2.896307e+001  -1.700381e+002 
3306250000  -2.873785e+001  -1.766409e+002 
3309375000  -2.845277e+001  1.789188e+002 
3312500000  -2.848159e+001  1.681901e+002 
3315625000  -2.947508e+001  1.601609e+002 
3318750000  -3.084442e+001  1.577534e+002 
3321875000  -3.203821e+001  1.568192e+002 
3325000000  -3.271754e+001  1.621701e+002 
3328125000  -3.264639e+001  1.639702e+002 
3331250000  -3.133587e+001  1.711798e+002 
3334375000  -2.871225e+001  1.622495e+002 
3337500000  -2.876618e+001  1.436124e+002 
3340625000  -3.004533e+001  1.329408e+002 
3343750000  -3.192015e+001  1.310312e+002 
3346875000  -3.261063e+001  1.326288e+002 
3350000000  -3.180094e+001  1.315098e+002 
3353125000  -3.195770e+001  1.267719e+002 
3356250000  -3.177666e+001  1.193998e+002 
3359375000  -3.250568e+001  1.113116e+002 
3362500000  -3.386002e+001  1.059646e+002 
3365625000  -3.455881e+001  1.039244e+002 
3368750000  -3.540668e+001  1.026496e+002 
3371875000  -3.579018e+001  9.922214e+001 
3375000000  -3.728010e+001  9.754143e+001 
3378125000  -3.846788e+001  9.741730e+001 
3381250000  -3.990019e+001  1.042427e+002 
3384375000  -3.919904e+001  1.239049e+002 
3387500000  -3.589472e+001  1.114363e+002 
3390625000  -3.768813e+001  9.292086e+001 
3393750000  -3.982494e+001  9.655480e+001 
3396875000  -3.894561e+001  9.909170e+001 
3400000000  -3.908393e+001  9.405407e+001 
3403125000  -3.979881e+001  8.836407e+001 
3406250000  -4.052749e+001  9.132903e+001 
3409375000  -4.124995e+001  8.717573e+001 
3412500000  -4.195146e+001  8.624934e+001 
3415625000  -4.300015e+001  9.440894e+001 
3418750000  -4.312882e+001  9.733340e+001 
3421875000  -4.350581e+001  1.048475e+002 
3425000000  -4.280666e+001  1.056927e+002 
3428125000  -4.174270e+001  1.066982e+002 
3431250000  -4.164005e+001  1.005060e+002 
3434375000  -4.163239e+001  9.872574e+001 
3437500000  -4.182602e+001  9.785013e+001 
3440625000  -4.227462e+001  1.003106e+002 
3443750000  -4.106812e+001  1.025959e+002 
3446875000  -4.010230e+001  1.007605e+002 
3450000000  -4.011445e+001  8.868636e+001 
3453125000  -4.024878e+001  8.003754e+001 
3456250000  -4.145746e+001  7.403529e+001 
3459375000  -4.216122e+001  7.734503e+001 
3462500000  -4.235193e+001  7.702176e+001 
3465625000  -4.240801e+001  7.422676e+001 
3468750000  -4.306345e+001  7.178698e+001 
3471875000  -4.309865e+001  7.220586e+001 
3475000000  -4.305122e+001  6.853886e+001 
3478125000  -4.381759e+001  6.287412e+001 
3481250000  -4.456292e+001  5.975686e+001 
3484375000  -4.664919e+001  6.501837e+001 
3487500000  -4.603615e+001  7.230512e+001 
3490625000  -4.538984e+001  7.194212e+001 
3493750000  -4.593218e+001  6.406355e+001 
3496875000  -4.687619e+001  6.627809e+001 
3500000000  -4.857207e+001  7.689008e+001 
3503125000  -4.786352e+001  8.126425e+001 
3506250000  -4.678022e+001  8.021097e+001 
3509375000  -4.761858e+001  7.661907e+001 
3512500000  -4.727301e+001  7.566790e+001 
3515625000  -4.833527e+001  7.789932e+001 
3518750000  -4.870903e+001  8.244371e+001 
3521875000  -4.774194e+001  8.988179e+001 
3525000000  -4.817729e+001  9.354846e+001 
3528125000  -4.831244e+001  1.003322e+002 
3531250000  -4.578099e+001  1.043870e+002 
3534375000  -4.561422e+001  9.454947e+001 
3537500000  -4.532334e+001  9.180870e+001 
3540625000  -4.581954e+001  8.787078e+001 
3543750000  -4.620945e+001  9.345611e+001 
3546875000  -4.575031e+001  1.058136e+002 
3550000000  -4.280843e+001  1.066205e+002 
3553125000  -4.162984e+001  9.105802e+001 
3556250000  -4.273022e+001  8.622797e+001 
3559375000  -4.229369e+001  8.858587e+001 
3562500000  -4.094489e+001  8.063501e+001 
3565625000  -4.206368e+001  7.458463e+001 
3568750000  -4.193753e+001  7.692509e+001 
3571875000  -4.175132e+001  7.861316e+001 
3575000000  -4.126625e+001  7.379893e+001 
3578125000  -4.176987e+001  6.898740e+001 
3581250000  -4.199234e+001  7.175054e+001 
3584375000  -4.108229e+001  6.688223e+001 
3587500000  -4.027871e+001  6.277215e+001 
3590625000  -4.048098e+001  5.357999e+001 
3593750000  -4.155274e+001  5.186583e+001 
3596875000  -4.163396e+001  6.129162e+001 
3600000000  -3.991616e+001  5.805801e+001 
3603125000  -4.016763e+001  4.467620e+001 
3606250000  -4.080231e+001  4.265427e+001 
3609375000  -4.110094e+001  4.161011e+001 
3612500000  -4.155800e+001  4.186451e+001 
3615625000  -4.163959e+001  3.810757e+001 
3618750000  -4.206826e+001  4.157924e+001 
3621875000  -4.179767e+001  3.978630e+001 
3625000000  -4.195314e+001  3.861067e+001 
3628125000  -4.195891e+001  3.752177e+001 
3631250000  -4.115754e+001  3.515875e+001 
3634375000  -4.247166e+001  3.375397e+001 
3637500000  -4.179305e+001  3.962150e+001 
3640625000  -4.118491e+001  4.123120e+001 
3643750000  -4.079131e+001  3.689422e+001 
3646875000  -4.121112e+001  3.028228e+001 
3650000000  -4.187049e+001  3.051708e+001 
3653125000  -4.137573e+001  2.861819e+001 
3656250000  -4.178426e+001  2.846147e+001 
3659375000  -4.197512e+001  3.204374e+001 
3662500000  -4.109636e+001  3.197523e+001 
3665625000  -4.145781e+001  3.065324e+001 
3668750000  -4.047562e+001  3.333646e+001 
3671875000  -3.949022e+001  2.803158e+001 
3675000000  -4.000122e+001  2.276906e+001 
3678125000  -4.060469e+001  2.460560e+001 
3681250000  -4.006157e+001  2.473387e+001 
3684375000  -3.963875e+001  2.173527e+001 
3687500000  -4.013467e+001  2.157990e+001 
3690625000  -3.993307e+001  1.953806e+001 
3693750000  -4.030314e+001  2.187754e+001 
3696875000  -4.017901e+001  2.378927e+001 
3700000000  -3.912500e+001  2.401283e+001 
3703125000  -3.883335e+001  2.007234e+001 
3706250000  -3.950086e+001  2.122282e+001 
3709375000  -3.891036e+001  2.512968e+001 
3712500000  -3.780172e+001  2.427206e+001 
3715625000  -3.666455e+001  1.846771e+001 
3718750000  -3.572141e+001  1.622169e+001 
3721875000  -3.528490e+001  1.008585e+001 
3725000000  -3.524919e+001  6.109388e+000 
3728125000  -3.539038e+001  4.323674e+000 
3731250000  -3.463482e+001  4.699017e+000 
3734375000  -3.355069e+001  -1.524339e+000 
3737500000  -3.420399e+001  -9.178068e+000 
3740625000  -3.477382e+001  -1.262141e+001 
3743750000  -3.452801e+001  -1.407556e+001 
3746875000  -3.454055e+001  -1.810714e+001 
3750000000  -3.488840e+001  -1.890234e+001 
3753125000  -3.459314e+001  -1.836529e+001 
3756250000  -3.442638e+001  -2.005005e+001 
3759375000  -3.419269e+001  -2.046275e+001 
3762500000  -3.359915e+001  -2.446753e+001 
3765625000  -3.415946e+001  -2.747734e+001 
3768750000  -3.427394e+001  -2.460675e+001 
3771875000  -3.268067e+001  -2.765523e+001 
3775000000  -3.227114e+001  -3.403740e+001 
3778125000  -3.259105e+001  -3.680377e+001 
3781250000  -3.226196e+001  -3.946325e+001 
3784375000  -3.230235e+001  -4.152951e+001 
3787500000  -3.159007e+001  -4.509202e+001 
3790625000  -3.219968e+001  -5.058548e+001 
3793750000  -3.231626e+001  -5.147385e+001 
3796875000  -3.148006e+001  -5.316784e+001 
3800000000  -3.000900e+001  -5.648445e+001 
3803125000  -3.067712e+001  -6.333885e+001 
3806250000  -3.137152e+001  -6.554859e+001 
3809375000  -3.111319e+001  -6.668084e+001 
3812500000  -3.041245e+001  -7.177454e+001 
3815625000  -3.103045e+001  -7.876492e+001 
3818750000  -3.192687e+001  -8.127374e+001 
3821875000  -3.213044e+001  -7.307258e+001 
3825000000  -3.025195e+001  -6.751474e+001 
3828125000  -2.884979e+001  -8.126853e+001 
3831250000  -2.931222e+001  -9.529378e+001 
3834375000  -3.054936e+001  -9.716402e+001 
3837500000  -3.154091e+001  -9.145076e+001 
3840625000  -3.044732e+001  -9.223593e+001 
3843750000  -2.929226e+001  -1.018946e+002 
3846875000  -3.005282e+001  -1.096651e+002 
3850000000  -3.127076e+001  -1.042007e+002 
3853125000  -3.048701e+001  -1.009199e+002 
3856250000  -3.033135e+001  -1.057710e+002 
3859375000  -2.977570e+001  -1.105126e+002 
3862500000  -2.931250e+001  -1.175954e+002 
3865625000  -2.950583e+001  -1.223364e+002 
3868750000  -2.957547e+001  -1.231271e+002 
3871875000  -2.878558e+001  -1.254665e+002 
3875000000  -2.885236e+001  -1.339536e+002 
3878125000  -2.996558e+001  -1.369525e+002 
3881250000  -3.008230e+001  -1.339426e+002 
3884375000  -2.961086e+001  -1.382664e+002 
3887500000  -2.966189e+001  -1.430537e+002 
3890625000  -3.022692e+001  -1.452022e+002 
3893750000  -3.049043e+001  -1.459292e+002 
3896875000  -3.074484e+001  -1.461425e+002 
3900000000  -3.091367e+001  -1.471596e+002 
3903125000  -3.064240e+001  -1.486939e+002 
3906250000  -3.036547e+001  -1.497165e+002 
3909375000  -2.964220e+001  -1.521021e+002 
3912500000  -2.957408e+001  -1.591917e+002 
3915625000  -3.090924e+001  -1.594692e+002 
3918750000  -3.094704e+001  -1.573386e+002 
3921875000  -3.053138e+001  -1.590530e+002 
3925000000  -2.983579e+001  -1.591393e+002 
3928125000  -2.909905e+001  -1.650005e+002 
3931250000  -2.953125e+001  -1.692619e+002 
3934375000  -2.971285e+001  -1.688224e+002 
3937500000  -2.991459e+001  -1.701049e+002 
3940625000  -3.036865e+001  -1.693310e+002 
3943750000  -2.941958e+001  -1.680900e+002 
3946875000  -2.822491e+001  -1.728386e+002 
3950000000  -2.869987e+001  1.791813e+002 
3953125000  -2.956687e+001  -1.798948e+002 
3956250000  -2.879501e+001  -1.776808e+002 
3959375000  -2.750697e+001  1.796332e+002 
3962500000  -2.690965e+001  1.753379e+002 
3965625000  -2.650399e+001  1.666595e+002 
3968750000  -2.743520e+001  1.602375e+002 
3971875000  -2.790232e+001  1.584478e+002 
3975000000  -2.718050e+001  1.568982e+002 
3978125000  -2.700435e+001  1.552541e+002 
3981250000  -2.668586e+001  1.513443e+002 
3984375000  -2.695594e+001  1.448703e+002 
3987500000  -2.745019e+001  1.424890e+002 
3990625000  -2.745320e+001  1.414316e+002 
3993750000  -2.760295e+001  1.383260e+002 
3996875000  -2.761971e+001  1.359501e+002 
4000000000  -2.777641e+001  1.337387e+002 
4003125000  -2.827633e+001  1.359743e+002 
4006250000  -2.699405e+001  1.360863e+002 
4009375000  -2.570754e+001  1.239669e+002 
4012500000  -2.667666e+001  1.168937e+002 
4015625000  -2.799674e+001  1.173996e+002 
4018750000  -2.824110e+001  1.189984e+002 
4021875000  -2.754961e+001  1.174564e+002 
4025000000  -2.711981e+001  1.127623e+002 
4028125000  -2.711016e+001  1.090602e+002 
4031250000  -2.759816e+001  1.059556e+002 
4034375000  -2.788716e+001  1.056107e+002 
4037500000  -2.738787e+001  1.074766e+002 
4040625000  -2.725205e+001  1.041152e+002 
4043750000  -2.763309e+001  1.033544e+002 
4046875000  -2.725538e+001  1.034425e+002 
4050000000  -2.671165e+001  9.796328e+001 
4053125000  -2.711289e+001  9.564798e+001 
4056250000  -2.776071e+001  9.936498e+001 
4059375000  -2.673297e+001  1.017628e+002 
4062500000  -2.526931e+001  9.744131e+001 
4065625000  -2.504057e+001  9.291433e+001 
4068750000  -2.478010e+001  8.799425e+001 
4071875000  -2.416381e+001  8.047628e+001 
4075000000  -2.453865e+001  7.425712e+001 
4078125000  -2.507912e+001  7.280811e+001 
4081250000  -2.458329e+001  7.088355e+001 
4084375000  -2.416166e+001  6.431153e+001 
4087500000  -2.450733e+001  5.826390e+001 
4090625000  -2.506153e+001  5.687352e+001 
4093750000  -2.494510e+001  5.761877e+001 
4096875000  -2.444599e+001  5.212342e+001 
4100000000  -2.511285e+001  4.489434e+001 
4103125000  -2.599071e+001  4.513641e+001 
4106250000  -2.586151e+001  4.994007e+001 
4109375000  -2.506437e+001  4.950687e+001 
4112500000  -2.446396e+001  4.316204e+001 
4115625000  -2.474327e+001  3.860479e+001 
4118750000  -2.488301e+001  3.595062e+001 
4121875000  -2.447694e+001  3.167693e+001 
4125000000  -2.477146e+001  2.621453e+001 
4128125000  -2.578665e+001  2.592800e+001 
4131250000  -2.554967e+001  3.396945e+001 
4134375000  -2.330114e+001  2.996087e+001 
4137500000  -2.296748e+001  1.104477e+001 
4140625000  -2.510932e+001  3.574352e+000 
4143750000  -2.645706e+001  8.521179e+000 
4146875000  -2.611022e+001  1.580725e+001 
4150000000  -2.524740e+001  1.294958e+001 
4153125000  -2.506639e+001  6.093749e+000 
4156250000  -2.587623e+001  4.011117e+000 
4159375000  -2.622379e+001  7.805429e+000 
4162500000  -2.512948e+001  1.195885e+001 
4165625000  -2.395765e+001  8.525015e+000 
4168750000  -2.337474e+001  1.460219e+000 
4171875000  -2.337288e+001  -7.967628e+000 
4175000000  -2.392203e+001  -1.334537e+001 
4178125000  -2.453079e+001  -1.356970e+001 
4181250000  -2.444873e+001  -1.399742e+001 
4184375000  -2.428784e+001  -1.719560e+001 
4187500000  -2.435018e+001  -1.991560e+001 
4190625000  -2.413170e+001  -2.542756e+001 
4193750000  -2.488349e+001  -2.919407e+001 
4196875000  -2.557829e+001  -2.941013e+001 
4200000000  -2.643509e+001  -2.728211e+001 
4203125000  -2.655840e+001  -1.438317e+001 
4206250000  -2.327626e+001  -1.199149e+001 
4209375000  -2.196959e+001  -3.223184e+001 
4212500000  -2.381816e+001  -4.147281e+001 
4215625000  -2.483439e+001  -3.566576e+001 
4218750000  -2.361460e+001  -2.864853e+001 
4221875000  -2.127723e+001  -3.753869e+001 
4225000000  -2.243669e+001  -5.010234e+001 
4228125000  -2.324450e+001  -4.510533e+001 
4231250000  -2.162075e+001  -4.845963e+001 
4234375000  -2.157076e+001  -5.686693e+001 
4237500000  -2.112743e+001  -6.034726e+001 
4240625000  -2.111941e+001  -6.846166e+001 
4243750000  -2.202221e+001  -7.539880e+001 
4246875000  -2.294452e+001  -7.581812e+001 
4250000000  -2.304465e+001  -7.343027e+001 
4253125000  -2.243114e+001  -7.491168e+001 
4256250000  -2.269176e+001  -7.887043e+001 
4259375000  -2.249482e+001  -8.087672e+001 
4262500000  -2.248665e+001  -8.479449e+001 
4265625000  -2.261552e+001  -8.428638e+001 
4268750000  -2.180500e+001  -8.844612e+001 
4271875000  -2.151559e+001  -9.393034e+001 
4275000000  -2.090605e+001  -1.003356e+002 
4278125000  -2.148258e+001  -1.117547e+002 
4281250000  -2.329356e+001  -1.139109e+002 
4284375000  -2.304560e+001  -1.129524e+002 
4287500000  -2.376066e+001  -1.165874e+002 
4290625000  -2.509877e+001  -1.075362e+002 
4293750000  -2.317571e+001  -1.013371e+002 
4296875000  -2.172704e+001  -1.127138e+002 
4300000000  -2.256211e+001  -1.219774e+002 
4303125000  -2.376127e+001  -1.212335e+002 
4306250000  -2.321860e+001  -1.152550e+002 
4309375000  -2.182496e+001  -1.166180e+002 
4312500000  -2.163899e+001  -1.249281e+002 
4315625000  -2.188595e+001  -1.308436e+002 
4318750000  -2.219567e+001  -1.342309e+002 
4321875000  -2.238204e+001  -1.340657e+002 
4325000000  -2.179538e+001  -1.332807e+002 
4328125000  -2.134243e+001  -1.394048e+002 
4331250000  -2.125311e+001  -1.472565e+002 
4334375000  -2.165707e+001  -1.522781e+002 
4337500000  -2.244283e+001  -1.545580e+002 
4340625000  -2.303149e+001  -1.519639e+002 
4343750000  -2.244916e+001  -1.511172e+002 
4346875000  -2.204841e+001  -1.565954e+002 
4350000000  -2.200805e+001  -1.606768e+002 
4353125000  -2.204761e+001  -1.685510e+002 
4356250000  -2.374314e+001  -1.701327e+002 
4359375000  -2.452666e+001  -1.580058e+002 
4362500000  -2.191501e+001  -1.545194e+002 
4365625000  -2.016208e+001  -1.657900e+002 
4368750000  -2.081733e+001  -1.778374e+002 
4371875000  -2.208039e+001  -1.776554e+002 
4375000000  -2.177895e+001  -1.764051e+002 
4378125000  -2.112234e+001  1.778314e+002 
4381250000  -2.124810e+001  1.723262e+002 
4384375000  -2.105114e+001  1.679578e+002 
4387500000  -2.172994e+001  1.620610e+002 
4390625000  -2.281607e+001  1.626921e+002 
4393750000  -2.214325e+001  1.652012e+002 
4396875000  -2.145749e+001  1.630189e+002 
4400000000  -2.099501e+001  1.558022e+002 
4403125000  -2.150279e+001  1.484421e+002 
4406250000  -2.238826e+001  1.471541e+002 
4409375000  -2.231848e+001  1.448006e+002 
4412500000  -2.333088e+001  1.418394e+002 
4415625000  -2.381708e+001  1.466016e+002 
4418750000  -2.262055e+001  1.515320e+002 
