!Agilent Technologies,E8363B,MY43030201,A.06.04.32
!Agilent E8363B: A.06.04.32
!Date: Tuesday, November 11, 2014 20:58:39
!Correction: S21(Response(S21)) 
!S1P File: Measurement: S21:
# Hz S  dB   R 50
3000000000  -2.651449e+001  1.463724e+002 
3003125000  -2.794229e+001  1.415783e+002 
3006250000  -2.796828e+001  1.391716e+002 
3009375000  -2.835354e+001  1.441517e+002 
3012500000  -2.778491e+001  1.435074e+002 
3015625000  -2.684533e+001  1.365780e+002 
3018750000  -2.764894e+001  1.358197e+002 
3021875000  -2.640980e+001  1.370532e+002 
3025000000  -2.505607e+001  1.341596e+002 
3028125000  -2.412495e+001  1.288052e+002 
3031250000  -2.309385e+001  1.175531e+002 
3034375000  -2.272061e+001  1.045418e+002 
3037500000  -2.315651e+001  9.280872e+001 
3040625000  -2.445104e+001  8.772558e+001 
3043750000  -2.515218e+001  8.316311e+001 
3046875000  -2.531295e+001  7.702959e+001 
3050000000  -2.700404e+001  7.037894e+001 
3053125000  -2.711827e+001  7.712624e+001 
3056250000  -2.648054e+001  7.990061e+001 
3059375000  -2.669319e+001  7.953072e+001 
3062500000  -2.518606e+001  7.561851e+001 
3065625000  -2.498499e+001  6.984853e+001 
3068750000  -2.463394e+001  6.284887e+001 
3071875000  -2.462760e+001  5.994376e+001 
3075000000  -2.458038e+001  5.625166e+001 
3078125000  -2.431521e+001  5.153364e+001 
3081250000  -2.495447e+001  4.734186e+001 
3084375000  -2.419104e+001  4.350931e+001 
3087500000  -2.410133e+001  3.977236e+001 
3090625000  -2.381248e+001  3.006799e+001 
3093750000  -2.431218e+001  2.224615e+001 
3096875000  -2.558129e+001  1.632694e+001 
3100000000  -2.567272e+001  1.499499e+001 
3103125000  -2.606647e+001  1.616836e+001 
3106250000  -2.578127e+001  1.269847e+001 
3109375000  -2.599251e+001  9.284380e+000 
3112500000  -2.616555e+001  8.165034e+000 
3115625000  -2.592894e+001  4.099806e+000 
3118750000  -2.648216e+001  5.033578e+000 
3121875000  -2.574469e+001  -2.731590e+000 
3125000000  -2.698326e+001  -6.315601e+000 
3128125000  -2.814783e+001  2.123337e+000 
3131250000  -2.588887e+001  2.113490e+000 
3134375000  -2.461464e+001  -1.172180e+001 
3137500000  -2.528477e+001  -2.467472e+001 
3140625000  -2.688509e+001  -2.636670e+001 
3143750000  -2.792355e+001  -2.296332e+001 
3146875000  -2.749055e+001  -2.029305e+001 
3150000000  -2.645855e+001  -1.844106e+001 
3153125000  -2.647206e+001  -2.631623e+001 
3156250000  -2.746498e+001  -2.061227e+001 
3159375000  -2.583366e+001  -1.796674e+001 
3162500000  -2.387748e+001  -3.091009e+001 
3165625000  -2.477424e+001  -4.151574e+001 
3168750000  -2.515400e+001  -4.051642e+001 
3171875000  -2.417053e+001  -4.494234e+001 
3175000000  -2.490100e+001  -5.278374e+001 
3178125000  -2.462256e+001  -5.105889e+001 
3181250000  -2.349762e+001  -5.545881e+001 
3184375000  -2.273723e+001  -6.744842e+001 
3187500000  -2.388644e+001  -8.229489e+001 
3190625000  -2.662383e+001  -8.972007e+001 
3193750000  -2.713794e+001  -7.998463e+001 
3196875000  -2.674754e+001  -7.469427e+001 
3200000000  -2.585422e+001  -7.696089e+001 
3203125000  -2.500665e+001  -8.270364e+001 
3206250000  -2.533541e+001  -8.879806e+001 
3209375000  -2.483755e+001  -9.386638e+001 
3212500000  -2.499282e+001  -1.004081e+002 
3215625000  -2.509741e+001  -1.042671e+002 
3218750000  -2.586890e+001  -1.109882e+002 
3221875000  -2.679855e+001  -1.162251e+002 
3225000000  -2.641722e+001  -1.164880e+002 
3228125000  -2.676890e+001  -1.214131e+002 
3231250000  -2.755416e+001  -1.235991e+002 
3234375000  -2.735426e+001  -1.227112e+002 
3237500000  -2.736245e+001  -1.243119e+002 
3240625000  -2.705320e+001  -1.264728e+002 
3243750000  -2.670512e+001  -1.329747e+002 
3246875000  -2.716958e+001  -1.391740e+002 
3250000000  -2.765321e+001  -1.413906e+002 
3253125000  -2.787631e+001  -1.431101e+002 
3256250000  -2.764980e+001  -1.487674e+002 
3259375000  -2.796535e+001  -1.568440e+002 
3262500000  -2.922881e+001  -1.592145e+002 
3265625000  -2.993595e+001  -1.552363e+002 
3268750000  -2.990361e+001  -1.527230e+002 
3271875000  -2.957529e+001  -1.519675e+002 
3275000000  -2.857640e+001  -1.575136e+002 
3278125000  -2.908888e+001  -1.632227e+002 
3281250000  -2.929949e+001  -1.615242e+002 
3284375000  -2.888088e+001  -1.672241e+002 
3287500000  -2.901759e+001  -1.701026e+002 
3290625000  -2.947360e+001  -1.745400e+002 
3293750000  -2.917995e+001  -1.796090e+002 
3296875000  -3.017012e+001  -1.796043e+002 
3300000000  -3.003928e+001  -1.785303e+002 
3303125000  -2.884011e+001  1.773390e+002 
3306250000  -2.865283e+001  1.707873e+002 
3309375000  -2.839365e+001  1.651135e+002 
3312500000  -2.850042e+001  1.547643e+002 
3315625000  -2.953221e+001  1.473013e+002 
3318750000  -3.093980e+001  1.446049e+002 
3321875000  -3.211199e+001  1.445916e+002 
3325000000  -3.262078e+001  1.501670e+002 
3328125000  -3.244922e+001  1.518974e+002 
3331250000  -3.119586e+001  1.599341e+002 
3334375000  -2.851772e+001  1.492102e+002 
3337500000  -2.869192e+001  1.308232e+002 
3340625000  -3.006664e+001  1.197055e+002 
3343750000  -3.209591e+001  1.188093e+002 
3346875000  -3.252129e+001  1.206379e+002 
3350000000  -3.180815e+001  1.195885e+002 
3353125000  -3.194681e+001  1.145860e+002 
3356250000  -3.172920e+001  1.066998e+002 
3359375000  -3.256366e+001  9.900024e+001 
3362500000  -3.379631e+001  9.320316e+001 
3365625000  -3.447977e+001  9.131713e+001 
3368750000  -3.542029e+001  9.010072e+001 
3371875000  -3.593129e+001  8.691259e+001 
3375000000  -3.749959e+001  8.518449e+001 
3378125000  -3.860701e+001  8.481551e+001 
3381250000  -4.019763e+001  9.271481e+001 
3384375000  -3.909230e+001  1.143775e+002 
3387500000  -3.584038e+001  9.987664e+001 
3390625000  -3.773129e+001  8.093171e+001 
3393750000  -3.954671e+001  8.481290e+001 
3396875000  -3.868811e+001  8.699080e+001 
3400000000  -3.859737e+001  8.082293e+001 
3403125000  -3.970819e+001  7.573682e+001 
3406250000  -4.029638e+001  7.948358e+001 
3409375000  -4.113354e+001  7.585071e+001 
3412500000  -4.212432e+001  7.672916e+001 
3415625000  -4.262743e+001  8.111329e+001 
3418750000  -4.300581e+001  8.554595e+001 
3421875000  -4.349734e+001  9.211168e+001 
3425000000  -4.226186e+001  9.561005e+001 
3428125000  -4.133184e+001  9.389710e+001 
3431250000  -4.116079e+001  9.002689e+001 
3434375000  -4.101618e+001  8.632726e+001 
3437500000  -4.173096e+001  8.366603e+001 
3440625000  -4.173556e+001  8.883206e+001 
3443750000  -4.078662e+001  9.105035e+001 
3446875000  -3.985928e+001  8.602193e+001 
3450000000  -3.961657e+001  7.550716e+001 
3453125000  -3.978445e+001  6.608265e+001 
3456250000  -4.104269e+001  6.309698e+001 
3459375000  -4.217858e+001  6.508533e+001 
3462500000  -4.203576e+001  6.575494e+001 
3465625000  -4.237329e+001  6.043571e+001 
3468750000  -4.259339e+001  5.852787e+001 
3471875000  -4.284769e+001  5.804945e+001 
3475000000  -4.263034e+001  5.580391e+001 
3478125000  -4.342795e+001  4.978656e+001 
3481250000  -4.452025e+001  5.049569e+001 
3484375000  -4.582015e+001  5.521941e+001 
3487500000  -4.535897e+001  5.771291e+001 
3490625000  -4.473514e+001  5.508594e+001 
3493750000  -4.552595e+001  5.017074e+001 
3496875000  -4.651944e+001  5.455520e+001 
3500000000  -4.766850e+001  5.806858e+001 
3503125000  -4.741507e+001  6.737823e+001 
3506250000  -4.645882e+001  6.540305e+001 
3509375000  -4.685762e+001  5.955371e+001 
3512500000  -4.676607e+001  5.863103e+001 
3515625000  -4.768278e+001  6.257446e+001 
3518750000  -4.816432e+001  6.627489e+001 
3521875000  -4.738467e+001  7.322448e+001 
3525000000  -4.796614e+001  7.164208e+001 
3528125000  -4.705774e+001  8.641243e+001 
3531250000  -4.528991e+001  8.565833e+001 
3534375000  -4.492665e+001  7.673831e+001 
3537500000  -4.512153e+001  7.440564e+001 
3540625000  -4.572237e+001  7.736298e+001 
3543750000  -4.617694e+001  7.730571e+001 
3546875000  -4.556916e+001  8.920089e+001 
3550000000  -4.293278e+001  9.147987e+001 
3553125000  -4.136520e+001  7.708886e+001 
3556250000  -4.249175e+001  7.117015e+001 
3559375000  -4.192387e+001  7.369272e+001 
3562500000  -4.101436e+001  6.524585e+001 
3565625000  -4.173583e+001  5.931352e+001 
3568750000  -4.165491e+001  6.423044e+001 
3571875000  -4.150277e+001  6.170079e+001 
3575000000  -4.090387e+001  5.737498e+001 
3578125000  -4.158932e+001  5.378088e+001 
3581250000  -4.168100e+001  5.474385e+001 
3584375000  -4.041988e+001  5.377857e+001 
3587500000  -3.966819e+001  4.596997e+001 
3590625000  -3.997811e+001  3.868546e+001 
3593750000  -4.114698e+001  3.723457e+001 
3596875000  -4.106315e+001  4.616521e+001 
3600000000  -3.964716e+001  4.295806e+001 
3603125000  -3.965100e+001  2.925581e+001 
3606250000  -4.030577e+001  2.743735e+001 
3609375000  -4.070870e+001  2.557082e+001 
3612500000  -4.102644e+001  2.439951e+001 
3615625000  -4.126826e+001  2.199608e+001 
3618750000  -4.175709e+001  2.281614e+001 
3621875000  -4.130349e+001  2.302152e+001 
3625000000  -4.161592e+001  2.247390e+001 
3628125000  -4.167645e+001  2.313735e+001 
3631250000  -4.127021e+001  1.786546e+001 
3634375000  -4.240074e+001  1.752753e+001 
3637500000  -4.182108e+001  2.460607e+001 
3640625000  -4.085230e+001  2.376485e+001 
3643750000  -4.052739e+001  1.913710e+001 
3646875000  -4.082264e+001  1.379110e+001 
3650000000  -4.161810e+001  1.278012e+001 
3653125000  -4.113276e+001  1.408303e+001 
3656250000  -4.172874e+001  1.252434e+001 
3659375000  -4.197142e+001  1.560420e+001 
3662500000  -4.123101e+001  1.419766e+001 
3665625000  -4.152509e+001  1.492094e+001 
3668750000  -4.010423e+001  1.699991e+001 
3671875000  -3.921534e+001  1.236697e+001 
3675000000  -3.970595e+001  7.318982e+000 
3678125000  -4.055611e+001  8.089251e+000 
3681250000  -3.980174e+001  8.561090e+000 
3684375000  -3.951983e+001  6.977172e+000 
3687500000  -3.976419e+001  4.216854e+000 
3690625000  -3.967604e+001  1.401525e+000 
3693750000  -4.029884e+001  4.200454e+000 
3696875000  -4.030135e+001  7.545311e+000 
3700000000  -3.880410e+001  6.746716e+000 
3703125000  -3.891401e+001  3.510510e+000 
3706250000  -3.926010e+001  4.320947e+000 
3709375000  -3.862717e+001  8.712152e+000 
3712500000  -3.757506e+001  6.403596e+000 
3715625000  -3.630470e+001  9.435315e-001 
3718750000  -3.558883e+001  -8.499467e-002 
3721875000  -3.529666e+001  -6.458719e+000 
3725000000  -3.523906e+001  -1.185263e+001 
3728125000  -3.527737e+001  -1.195209e+001 
3731250000  -3.465275e+001  -1.298176e+001 
3734375000  -3.370505e+001  -1.905832e+001 
3737500000  -3.419753e+001  -2.625537e+001 
3740625000  -3.483388e+001  -2.957271e+001 
3743750000  -3.469312e+001  -3.086285e+001 
3746875000  -3.454015e+001  -3.395203e+001 
3750000000  -3.494262e+001  -3.528905e+001 
3753125000  -3.456554e+001  -3.543737e+001 
3756250000  -3.453406e+001  -3.646203e+001 
3759375000  -3.422755e+001  -3.707520e+001 
3762500000  -3.372868e+001  -4.128932e+001 
3765625000  -3.425583e+001  -4.339410e+001 
3768750000  -3.428652e+001  -4.131690e+001 
3771875000  -3.248278e+001  -4.339661e+001 
3775000000  -3.223894e+001  -5.159116e+001 
3778125000  -3.250576e+001  -5.366946e+001 
3781250000  -3.250679e+001  -5.579773e+001 
3784375000  -3.231872e+001  -5.760036e+001 
3787500000  -3.167234e+001  -6.174341e+001 
3790625000  -3.222039e+001  -6.718477e+001 
3793750000  -3.240749e+001  -6.803339e+001 
3796875000  -3.155827e+001  -6.898696e+001 
3800000000  -2.988283e+001  -7.259419e+001 
3803125000  -3.077883e+001  -7.965662e+001 
3806250000  -3.135941e+001  -8.175984e+001 
3809375000  -3.110843e+001  -8.333891e+001 
3812500000  -3.048804e+001  -8.791762e+001 
3815625000  -3.113645e+001  -9.542095e+001 
3818750000  -3.201710e+001  -9.703336e+001 
3821875000  -3.208904e+001  -8.756712e+001 
3825000000  -3.006629e+001  -8.357152e+001 
3828125000  -2.876042e+001  -9.782571e+001 
3831250000  -2.932595e+001  -1.115782e+002 
3834375000  -3.076440e+001  -1.131632e+002 
3837500000  -3.160218e+001  -1.072196e+002 
3840625000  -3.046503e+001  -1.088214e+002 
3843750000  -2.921276e+001  -1.185471e+002 
3846875000  -2.998887e+001  -1.256326e+002 
3850000000  -3.140397e+001  -1.202879e+002 
3853125000  -3.040386e+001  -1.178526e+002 
3856250000  -3.037883e+001  -1.224579e+002 
3859375000  -2.967558e+001  -1.271357e+002 
3862500000  -2.925978e+001  -1.343465e+002 
3865625000  -2.954282e+001  -1.393740e+002 
3868750000  -2.953774e+001  -1.394785e+002 
3871875000  -2.874548e+001  -1.427382e+002 
3875000000  -2.893540e+001  -1.510972e+002 
3878125000  -2.992182e+001  -1.537334e+002 
3881250000  -3.006320e+001  -1.509588e+002 
3884375000  -2.955040e+001  -1.554968e+002 
3887500000  -2.962536e+001  -1.595287e+002 
3890625000  -3.027704e+001  -1.618961e+002 
3893750000  -3.060948e+001  -1.635150e+002 
3896875000  -3.085772e+001  -1.634113e+002 
3900000000  -3.103944e+001  -1.635489e+002 
3903125000  -3.067656e+001  -1.659006e+002 
3906250000  -3.036328e+001  -1.663316e+002 
3909375000  -2.971032e+001  -1.689656e+002 
3912500000  -2.975194e+001  -1.766587e+002 
3915625000  -3.096609e+001  -1.755577e+002 
3918750000  -3.095953e+001  -1.739370e+002 
3921875000  -3.066007e+001  -1.751318e+002 
3925000000  -2.975496e+001  -1.754806e+002 
3928125000  -2.908331e+001  1.782160e+002 
3931250000  -2.959450e+001  1.738100e+002 
3934375000  -2.986692e+001  1.742178e+002 
3937500000  -2.999187e+001  1.741115e+002 
3940625000  -3.042902e+001  1.739509e+002 
3943750000  -2.946301e+001  1.764840e+002 
3946875000  -2.822550e+001  1.701567e+002 
3950000000  -2.877468e+001  1.622514e+002 
3953125000  -2.972069e+001  1.635712e+002 
3956250000  -2.880876e+001  1.658813e+002 
3959375000  -2.742214e+001  1.630478e+002 
3962500000  -2.697211e+001  1.586365e+002 
3965625000  -2.655724e+001  1.498470e+002 
3968750000  -2.760839e+001  1.435088e+002 
3971875000  -2.789172e+001  1.416851e+002 
3975000000  -2.718986e+001  1.398505e+002 
3978125000  -2.702469e+001  1.381347e+002 
3981250000  -2.680806e+001  1.336347e+002 
3984375000  -2.708442e+001  1.276766e+002 
3987500000  -2.753944e+001  1.255008e+002 
3990625000  -2.754541e+001  1.246612e+002 
3993750000  -2.771371e+001  1.214231e+002 
3996875000  -2.767760e+001  1.191301e+002 
4000000000  -2.786384e+001  1.169861e+002 
4003125000  -2.833581e+001  1.195943e+002 
4006250000  -2.706419e+001  1.195828e+002 
4009375000  -2.579947e+001  1.071440e+002 
4012500000  -2.689786e+001  9.993762e+001 
4015625000  -2.816184e+001  1.007137e+002 
4018750000  -2.830092e+001  1.027945e+002 
4021875000  -2.761231e+001  1.009994e+002 
4025000000  -2.726903e+001  9.629061e+001 
4028125000  -2.726732e+001  9.244016e+001 
4031250000  -2.776875e+001  8.946193e+001 
4034375000  -2.794917e+001  8.911976e+001 
4037500000  -2.752098e+001  9.130916e+001 
4040625000  -2.740014e+001  8.739584e+001 
4043750000  -2.776297e+001  8.743594e+001 
4046875000  -2.729435e+001  8.655989e+001 
4050000000  -2.689476e+001  8.120711e+001 
4053125000  -2.736581e+001  7.939281e+001 
4056250000  -2.783996e+001  8.360873e+001 
4059375000  -2.660337e+001  8.537490e+001 
4062500000  -2.527673e+001  8.130244e+001 
4065625000  -2.511191e+001  7.628401e+001 
4068750000  -2.483713e+001  7.198468e+001 
4071875000  -2.425169e+001  6.378927e+001 
4075000000  -2.461513e+001  5.779359e+001 
4078125000  -2.513617e+001  5.640941e+001 
4081250000  -2.458803e+001  5.435090e+001 
4084375000  -2.416555e+001  4.753292e+001 
4087500000  -2.453530e+001  4.151987e+001 
4090625000  -2.517252e+001  4.020411e+001 
4093750000  -2.491065e+001  4.102513e+001 
4096875000  -2.452974e+001  3.463710e+001 
4100000000  -2.519216e+001  2.783735e+001 
4103125000  -2.607140e+001  2.897063e+001 
4106250000  -2.598259e+001  3.356080e+001 
4109375000  -2.504613e+001  3.298449e+001 
4112500000  -2.446466e+001  2.656665e+001 
4115625000  -2.482867e+001  2.214874e+001 
4118750000  -2.490814e+001  1.905145e+001 
4121875000  -2.449763e+001  1.447263e+001 
4125000000  -2.489822e+001  9.116161e+000 
4128125000  -2.589784e+001  9.430149e+000 
4131250000  -2.556964e+001  1.743407e+001 
4134375000  -2.323753e+001  1.295399e+001 
4137500000  -2.312387e+001  -5.809013e+000 
4140625000  -2.529574e+001  -1.280963e+001 
4143750000  -2.662030e+001  -7.937477e+000 
4146875000  -2.616119e+001  5.291636e-002 
4150000000  -2.516933e+001  -3.577317e+000 
4153125000  -2.505001e+001  -1.037702e+001 
4156250000  -2.600049e+001  -1.271518e+001 
4159375000  -2.624668e+001  -8.191583e+000 
4162500000  -2.505203e+001  -4.119781e+000 
4165625000  -2.394214e+001  -8.343868e+000 
4168750000  -2.340813e+001  -1.537055e+001 
4171875000  -2.335519e+001  -2.419444e+001 
4175000000  -2.400016e+001  -2.987509e+001 
4178125000  -2.457384e+001  -2.987857e+001 
4181250000  -2.444808e+001  -3.054606e+001 
4184375000  -2.429530e+001  -3.391190e+001 
4187500000  -2.430910e+001  -3.674764e+001 
4190625000  -2.417271e+001  -4.208579e+001 
4193750000  -2.493910e+001  -4.564247e+001 
4196875000  -2.566935e+001  -4.612093e+001 
4200000000  -2.656433e+001  -4.360663e+001 
4203125000  -2.653084e+001  -2.957429e+001 
4206250000  -2.315759e+001  -2.873364e+001 
4209375000  -2.199543e+001  -4.926629e+001 
4212500000  -2.389898e+001  -5.835117e+001 
4215625000  -2.490063e+001  -5.198864e+001 
4218750000  -2.352511e+001  -4.515120e+001 
4221875000  -2.124306e+001  -5.445260e+001 
4225000000  -2.247487e+001  -6.692817e+001 
4228125000  -2.311146e+001  -6.189888e+001 
4231250000  -2.160846e+001  -6.574281e+001 
4234375000  -2.152426e+001  -7.397932e+001 
4237500000  -2.109981e+001  -7.747133e+001 
4240625000  -2.113873e+001  -8.626176e+001 
4243750000  -2.205227e+001  -9.309994e+001 
4246875000  -2.298582e+001  -9.268764e+001 
4250000000  -2.296657e+001  -9.001891e+001 
4253125000  -2.245814e+001  -9.186134e+001 
4256250000  -2.269240e+001  -9.599903e+001 
4259375000  -2.241924e+001  -9.805006e+001 
4262500000  -2.246474e+001  -1.017587e+002 
4265625000  -2.262899e+001  -1.011797e+002 
4268750000  -2.173711e+001  -1.053312e+002 
4271875000  -2.152237e+001  -1.115358e+002 
4275000000  -2.088528e+001  -1.179373e+002 
4278125000  -2.154106e+001  -1.286644e+002 
4281250000  -2.333868e+001  -1.305923e+002 
4284375000  -2.297622e+001  -1.299722e+002 
4287500000  -2.387028e+001  -1.334742e+002 
4290625000  -2.506585e+001  -1.237805e+002 
4293750000  -2.300392e+001  -1.184951e+002 
4296875000  -2.166244e+001  -1.300207e+002 
4300000000  -2.254827e+001  -1.389936e+002 
4303125000  -2.370354e+001  -1.372017e+002 
4306250000  -2.299639e+001  -1.314437e+002 
4309375000  -2.167919e+001  -1.338499e+002 
4312500000  -2.158998e+001  -1.423124e+002 
4315625000  -2.175854e+001  -1.485742e+002 
4318750000  -2.214954e+001  -1.518454e+002 
4321875000  -2.229568e+001  -1.510274e+002 
4325000000  -2.169518e+001  -1.504506e+002 
4328125000  -2.117445e+001  -1.571052e+002 
4331250000  -2.110091e+001  -1.649462e+002 
4334375000  -2.158129e+001  -1.699508e+002 
4337500000  -2.238214e+001  -1.724762e+002 
4340625000  -2.297274e+001  -1.689122e+002 
4343750000  -2.235028e+001  -1.681761e+002 
4346875000  -2.193560e+001  -1.737542e+002 
4350000000  -2.197824e+001  -1.788638e+002 
4353125000  -2.206154e+001  1.734561e+002 
4356250000  -2.387684e+001  1.728978e+002 
4359375000  -2.439442e+001  -1.733113e+002 
4362500000  -2.159818e+001  -1.716260e+002 
4365625000  -2.007129e+001  1.760976e+002 
4368750000  -2.080988e+001  1.642598e+002 
4371875000  -2.198790e+001  1.650904e+002 
4375000000  -2.159252e+001  1.658478e+002 
4378125000  -2.099404e+001  1.599863e+002 
4381250000  -2.119597e+001  1.545296e+002 
4384375000  -2.099131e+001  1.500342e+002 
4387500000  -2.175047e+001  1.444137e+002 
4390625000  -2.271769e+001  1.451288e+002 
4393750000  -2.202877e+001  1.475223e+002 
4396875000  -2.139622e+001  1.452519e+002 
4400000000  -2.085999e+001  1.380135e+002 
4403125000  -2.149574e+001  1.305130e+002 
4406250000  -2.231619e+001  1.292578e+002 
4409375000  -2.231642e+001  1.272802e+002 
4412500000  -2.335505e+001  1.243439e+002 
4415625000  -2.367735e+001  1.293675e+002 
4418750000  -2.244769e+001  1.339224e+002 
