!Agilent Technologies,E8363B,MY43030201,A.06.04.32
!Agilent E8363B: A.06.04.32
!Date: Tuesday, November 11, 2014 20:47:35
!Correction: S21(Response(S21)) 
!S1P File: Measurement: S21:
# Hz S  dB   R 50
3000000000  -2.654745e+001  1.562821e+002 
3003125000  -2.786906e+001  1.520473e+002 
3006250000  -2.796077e+001  1.488776e+002 
3009375000  -2.832273e+001  1.539527e+002 
3012500000  -2.785483e+001  1.539620e+002 
3015625000  -2.682458e+001  1.469296e+002 
3018750000  -2.770727e+001  1.460495e+002 
3021875000  -2.646761e+001  1.470310e+002 
3025000000  -2.515225e+001  1.441032e+002 
3028125000  -2.416868e+001  1.392993e+002 
3031250000  -2.310432e+001  1.283501e+002 
3034375000  -2.277098e+001  1.152003e+002 
3037500000  -2.311242e+001  1.031954e+002 
3040625000  -2.443002e+001  9.818157e+001 
3043750000  -2.514464e+001  9.391181e+001 
3046875000  -2.523372e+001  8.771137e+001 
3050000000  -2.699661e+001  8.007077e+001 
3053125000  -2.718025e+001  8.679282e+001 
3056250000  -2.644546e+001  8.983807e+001 
3059375000  -2.667716e+001  8.967084e+001 
3062500000  -2.523057e+001  8.579027e+001 
3065625000  -2.502950e+001  8.017938e+001 
3068750000  -2.474574e+001  7.316994e+001 
3071875000  -2.465691e+001  7.000491e+001 
3075000000  -2.466126e+001  6.642583e+001 
3078125000  -2.436884e+001  6.191396e+001 
3081250000  -2.501958e+001  5.790676e+001 
3084375000  -2.427854e+001  5.425604e+001 
3087500000  -2.413796e+001  5.073987e+001 
3090625000  -2.384271e+001  4.101922e+001 
3093750000  -2.423933e+001  3.284718e+001 
3096875000  -2.557543e+001  2.679577e+001 
3100000000  -2.570714e+001  2.538388e+001 
3103125000  -2.607344e+001  2.701117e+001 
3106250000  -2.579655e+001  2.305274e+001 
3109375000  -2.605352e+001  1.978794e+001 
3112500000  -2.616254e+001  1.898824e+001 
3115625000  -2.595819e+001  1.470905e+001 
3118750000  -2.646232e+001  1.583961e+001 
3121875000  -2.578130e+001  7.786062e+000 
3125000000  -2.692859e+001  4.318005e+000 
3128125000  -2.816345e+001  1.217991e+001 
3131250000  -2.603422e+001  1.294041e+001 
3134375000  -2.467197e+001  -4.019650e-001 
3137500000  -2.531493e+001  -1.448581e+001 
3140625000  -2.692109e+001  -1.637782e+001 
3143750000  -2.793754e+001  -1.178906e+001 
3146875000  -2.754297e+001  -9.915945e+000 
3150000000  -2.652188e+001  -7.372481e+000 
3153125000  -2.649507e+001  -1.547514e+001 
3156250000  -2.747796e+001  -1.051483e+001 
3159375000  -2.593111e+001  -7.290882e+000 
3162500000  -2.391754e+001  -1.988269e+001 
3165625000  -2.480230e+001  -3.075236e+001 
3168750000  -2.521527e+001  -3.015729e+001 
3171875000  -2.426714e+001  -3.436405e+001 
3175000000  -2.489451e+001  -4.174575e+001 
3178125000  -2.471060e+001  -4.026998e+001 
3181250000  -2.350137e+001  -4.405457e+001 
3184375000  -2.269813e+001  -5.656524e+001 
3187500000  -2.376494e+001  -7.180762e+001 
3190625000  -2.663043e+001  -7.924526e+001 
3193750000  -2.727013e+001  -6.976024e+001 
3196875000  -2.680591e+001  -6.430586e+001 
3200000000  -2.592586e+001  -6.594264e+001 
3203125000  -2.504284e+001  -7.178709e+001 
3206250000  -2.533901e+001  -7.786807e+001 
3209375000  -2.486008e+001  -8.293655e+001 
3212500000  -2.498092e+001  -8.970224e+001 
3215625000  -2.514281e+001  -9.417312e+001 
3218750000  -2.587916e+001  -9.996082e+001 
3221875000  -2.684656e+001  -1.051359e+002 
3225000000  -2.648410e+001  -1.057137e+002 
3228125000  -2.675300e+001  -1.104494e+002 
3231250000  -2.751976e+001  -1.130088e+002 
3234375000  -2.741504e+001  -1.122594e+002 
3237500000  -2.743426e+001  -1.137462e+002 
3240625000  -2.713173e+001  -1.152161e+002 
3243750000  -2.670560e+001  -1.219426e+002 
3246875000  -2.721425e+001  -1.283936e+002 
3250000000  -2.767626e+001  -1.303279e+002 
3253125000  -2.782817e+001  -1.322103e+002 
3256250000  -2.772751e+001  -1.380300e+002 
3259375000  -2.804568e+001  -1.454704e+002 
3262500000  -2.926706e+001  -1.482274e+002 
3265625000  -2.993127e+001  -1.454685e+002 
3268750000  -2.993750e+001  -1.427574e+002 
3271875000  -2.977563e+001  -1.412132e+002 
3275000000  -2.860038e+001  -1.463816e+002 
3278125000  -2.904304e+001  -1.527538e+002 
3281250000  -2.937651e+001  -1.508062e+002 
3284375000  -2.896768e+001  -1.563099e+002 
3287500000  -2.906767e+001  -1.595635e+002 
3290625000  -2.948694e+001  -1.636601e+002 
3293750000  -2.918843e+001  -1.692984e+002 
3296875000  -3.010966e+001  -1.684496e+002 
3300000000  -3.011212e+001  -1.675804e+002 
3303125000  -2.885159e+001  -1.709496e+002 
3306250000  -2.872056e+001  -1.777610e+002 
3309375000  -2.843775e+001  1.770473e+002 
3312500000  -2.848236e+001  1.671469e+002 
3315625000  -2.942054e+001  1.592115e+002 
3318750000  -3.069440e+001  1.560236e+002 
3321875000  -3.195087e+001  1.557883e+002 
3325000000  -3.253071e+001  1.610352e+002 
3328125000  -3.246865e+001  1.625971e+002 
3331250000  -3.130532e+001  1.699520e+002 
3334375000  -2.866050e+001  1.610002e+002 
3337500000  -2.871404e+001  1.427716e+002 
3340625000  -2.999804e+001  1.313433e+002 
3343750000  -3.198279e+001  1.301624e+002 
3346875000  -3.255055e+001  1.313029e+002 
3350000000  -3.185903e+001  1.306337e+002 
3353125000  -3.194114e+001  1.263624e+002 
3356250000  -3.160911e+001  1.182263e+002 
3359375000  -3.253190e+001  1.099146e+002 
3362500000  -3.381724e+001  1.043351e+002 
3365625000  -3.448119e+001  1.025434e+002 
3368750000  -3.536584e+001  1.012931e+002 
3371875000  -3.576911e+001  9.829758e+001 
3375000000  -3.723537e+001  9.541537e+001 
3378125000  -3.836931e+001  9.562331e+001 
3381250000  -3.978780e+001  1.015645e+002 
3384375000  -3.919691e+001  1.230386e+002 
3387500000  -3.594910e+001  1.097570e+002 
3390625000  -3.764216e+001  9.168800e+001 
3393750000  -3.945335e+001  9.470920e+001 
3396875000  -3.873497e+001  9.760991e+001 
3400000000  -3.866364e+001  9.060874e+001 
3403125000  -3.947356e+001  8.725739e+001 
3406250000  -4.030554e+001  8.997972e+001 
3409375000  -4.112366e+001  8.535587e+001 
3412500000  -4.184431e+001  8.591796e+001 
3415625000  -4.289518e+001  9.134981e+001 
3418750000  -4.330994e+001  9.648113e+001 
3421875000  -4.339936e+001  1.012480e+002 
3425000000  -4.251685e+001  1.042253e+002 
3428125000  -4.183279e+001  1.041441e+002 
3431250000  -4.177250e+001  9.987256e+001 
3434375000  -4.144684e+001  9.700915e+001 
3437500000  -4.203732e+001  9.492832e+001 
3440625000  -4.220125e+001  9.774001e+001 
3443750000  -4.115554e+001  9.977217e+001 
3446875000  -4.015803e+001  9.553785e+001 
3450000000  -4.024408e+001  8.585945e+001 
3453125000  -4.029782e+001  7.653863e+001 
3456250000  -4.167424e+001  7.359149e+001 
3459375000  -4.262243e+001  7.440358e+001 
3462500000  -4.263635e+001  7.664532e+001 
3465625000  -4.286943e+001  7.120270e+001 
3468750000  -4.329291e+001  6.699136e+001 
3471875000  -4.345654e+001  7.030145e+001 
3475000000  -4.322972e+001  6.626756e+001 
3478125000  -4.400257e+001  6.041600e+001 
3481250000  -4.505094e+001  5.887510e+001 
3484375000  -4.697143e+001  6.575211e+001 
3487500000  -4.665974e+001  6.915142e+001 
3490625000  -4.574131e+001  6.597697e+001 
3493750000  -4.682628e+001  6.173670e+001 
3496875000  -4.745348e+001  6.279270e+001 
3500000000  -4.893811e+001  7.018476e+001 
3503125000  -4.885033e+001  8.016009e+001 
3506250000  -4.775839e+001  7.747995e+001 
3509375000  -4.769231e+001  7.942480e+001 
3512500000  -4.828728e+001  7.666907e+001 
3515625000  -4.902326e+001  7.922334e+001 
3518750000  -4.943623e+001  8.643612e+001 
3521875000  -4.859827e+001  9.016082e+001 
3525000000  -4.857645e+001  9.304732e+001 
3528125000  -4.837746e+001  1.032100e+002 
3531250000  -4.634929e+001  1.029788e+002 
3534375000  -4.563957e+001  9.658968e+001 
3537500000  -4.524590e+001  9.147311e+001 
3540625000  -4.560469e+001  9.069922e+001 
3543750000  -4.594866e+001  9.605582e+001 
3546875000  -4.570481e+001  1.048780e+002 
3550000000  -4.329739e+001  1.069833e+002 
3553125000  -4.144565e+001  9.286339e+001 
3556250000  -4.278209e+001  8.722147e+001 
3559375000  -4.258613e+001  8.893887e+001 
3562500000  -4.136073e+001  8.061330e+001 
3565625000  -4.202156e+001  7.670521e+001 
3568750000  -4.217513e+001  7.836035e+001 
3571875000  -4.168861e+001  7.819260e+001 
3575000000  -4.144612e+001  7.238917e+001 
3578125000  -4.171093e+001  6.933375e+001 
3581250000  -4.169647e+001  7.053159e+001 
3584375000  -4.105645e+001  6.949454e+001 
3587500000  -4.037603e+001  6.302362e+001 
3590625000  -4.051244e+001  5.394199e+001 
3593750000  -4.122859e+001  5.384978e+001 
3596875000  -4.145930e+001  6.066715e+001 
3600000000  -3.964988e+001  5.807381e+001 
3603125000  -3.993082e+001  4.604740e+001 
3606250000  -4.095472e+001  4.295806e+001 
3609375000  -4.096216e+001  4.148994e+001 
3612500000  -4.128849e+001  4.053688e+001 
3615625000  -4.134458e+001  3.901947e+001 
3618750000  -4.202158e+001  4.115069e+001 
3621875000  -4.145269e+001  3.786033e+001 
3625000000  -4.170272e+001  3.995906e+001 
3628125000  -4.161788e+001  3.828250e+001 
3631250000  -4.130237e+001  3.434221e+001 
3634375000  -4.246891e+001  3.428594e+001 
3637500000  -4.207799e+001  4.065336e+001 
3640625000  -4.087295e+001  4.167448e+001 
3643750000  -4.076672e+001  3.624662e+001 
3646875000  -4.101943e+001  3.097349e+001 
3650000000  -4.156588e+001  2.992857e+001 
3653125000  -4.130941e+001  3.090376e+001 
3656250000  -4.166642e+001  2.870614e+001 
3659375000  -4.218044e+001  3.216978e+001 
3662500000  -4.129745e+001  3.019784e+001 
3665625000  -4.150531e+001  3.011504e+001 
3668750000  -4.059335e+001  3.369389e+001 
3671875000  -3.924532e+001  2.886356e+001 
3675000000  -3.957083e+001  2.162391e+001 
3678125000  -4.022252e+001  2.454043e+001 
3681250000  -3.971122e+001  2.396160e+001 
3684375000  -3.956274e+001  2.181820e+001 
3687500000  -3.987135e+001  2.066588e+001 
3690625000  -3.962719e+001  1.779825e+001 
3693750000  -4.034082e+001  2.136892e+001 
3696875000  -4.009227e+001  2.344652e+001 
3700000000  -3.877600e+001  2.131483e+001 
3703125000  -3.881572e+001  1.918600e+001 
3706250000  -3.928374e+001  2.134846e+001 
3709375000  -3.873388e+001  2.318732e+001 
3712500000  -3.742340e+001  2.295771e+001 
3715625000  -3.621933e+001  1.787830e+001 
3718750000  -3.572136e+001  1.622797e+001 
3721875000  -3.514061e+001  9.783614e+000 
3725000000  -3.517941e+001  4.746342e+000 
3728125000  -3.529763e+001  4.699166e+000 
3731250000  -3.468386e+001  3.220784e+000 
3734375000  -3.373843e+001  -1.593113e+000 
3737500000  -3.416742e+001  -9.065609e+000 
3740625000  -3.474552e+001  -1.268494e+001 
3743750000  -3.455160e+001  -1.421418e+001 
3746875000  -3.440627e+001  -1.777060e+001 
3750000000  -3.481423e+001  -1.944652e+001 
3753125000  -3.454771e+001  -1.922872e+001 
3756250000  -3.440834e+001  -1.998784e+001 
3759375000  -3.413183e+001  -2.067898e+001 
3762500000  -3.368846e+001  -2.463161e+001 
3765625000  -3.412004e+001  -2.726573e+001 
3768750000  -3.426250e+001  -2.491301e+001 
3771875000  -3.252715e+001  -2.743724e+001 
3775000000  -3.219240e+001  -3.559050e+001 
3778125000  -3.251402e+001  -3.674810e+001 
3781250000  -3.229505e+001  -4.003358e+001 
3784375000  -3.232792e+001  -4.144462e+001 
3787500000  -3.159078e+001  -4.564260e+001 
3790625000  -3.214713e+001  -5.133297e+001 
3793750000  -3.242179e+001  -5.232411e+001 
3796875000  -3.152805e+001  -5.348989e+001 
3800000000  -2.987897e+001  -5.644823e+001 
3803125000  -3.058813e+001  -6.297195e+001 
3806250000  -3.126134e+001  -6.627408e+001 
3809375000  -3.105636e+001  -6.655830e+001 
3812500000  -3.043754e+001  -7.127663e+001 
3815625000  -3.097084e+001  -7.861250e+001 
3818750000  -3.184543e+001  -8.016328e+001 
3821875000  -3.205941e+001  -7.243600e+001 
3825000000  -3.006626e+001  -6.760491e+001 
3828125000  -2.871905e+001  -8.074099e+001 
3831250000  -2.921764e+001  -9.484901e+001 
3834375000  -3.049244e+001  -9.609233e+001 
3837500000  -3.145283e+001  -9.195384e+001 
3840625000  -3.040890e+001  -9.289610e+001 
3843750000  -2.922726e+001  -1.019477e+002 
3846875000  -2.986785e+001  -1.093319e+002 
3850000000  -3.116791e+001  -1.039927e+002 
3853125000  -3.039924e+001  -1.010878e+002 
3856250000  -3.037641e+001  -1.064165e+002 
3859375000  -2.972380e+001  -1.103813e+002 
3862500000  -2.921330e+001  -1.167456e+002 
3865625000  -2.946287e+001  -1.221468e+002 
3868750000  -2.944164e+001  -1.221965e+002 
3871875000  -2.880428e+001  -1.253957e+002 
3875000000  -2.885268e+001  -1.338547e+002 
3878125000  -2.986970e+001  -1.366066e+002 
3881250000  -2.988886e+001  -1.332799e+002 
3884375000  -2.936217e+001  -1.377038e+002 
3887500000  -2.945403e+001  -1.418300e+002 
3890625000  -3.005853e+001  -1.449283e+002 
3893750000  -3.043341e+001  -1.457586e+002 
3896875000  -3.047948e+001  -1.448678e+002 
3900000000  -3.077548e+001  -1.462072e+002 
3903125000  -3.052992e+001  -1.486509e+002 
3906250000  -3.021637e+001  -1.489600e+002 
3909375000  -2.945049e+001  -1.515241e+002 
3912500000  -2.949069e+001  -1.592723e+002 
3915625000  -3.067228e+001  -1.585419e+002 
3918750000  -3.066615e+001  -1.563016e+002 
3921875000  -3.039016e+001  -1.580558e+002 
3925000000  -2.954898e+001  -1.583924e+002 
3928125000  -2.891426e+001  -1.641814e+002 
3931250000  -2.936786e+001  -1.685419e+002 
3934375000  -2.954209e+001  -1.680495e+002 
3937500000  -2.958087e+001  -1.689958e+002 
3940625000  -3.009523e+001  -1.686863e+002 
3943750000  -2.926374e+001  -1.668620e+002 
3946875000  -2.803108e+001  -1.723480e+002 
3950000000  -2.838085e+001  -1.796075e+002 
3953125000  -2.928998e+001  -1.792745e+002 
3956250000  -2.853328e+001  -1.762567e+002 
3959375000  -2.727505e+001  1.794865e+002 
3962500000  -2.667203e+001  1.765038e+002 
3965625000  -2.622737e+001  1.676190e+002 
3968750000  -2.710530e+001  1.606437e+002 
3971875000  -2.755708e+001  1.592574e+002 
3975000000  -2.690561e+001  1.577631e+002 
3978125000  -2.675624e+001  1.557489e+002 
3981250000  -2.646571e+001  1.520714e+002 
3984375000  -2.667902e+001  1.459513e+002 
3987500000  -2.717387e+001  1.436296e+002 
3990625000  -2.710601e+001  1.423334e+002 
3993750000  -2.728461e+001  1.392375e+002 
3996875000  -2.734550e+001  1.365370e+002 
4000000000  -2.738319e+001  1.344508e+002 
4003125000  -2.802376e+001  1.364254e+002 
4006250000  -2.659794e+001  1.374056e+002 
4009375000  -2.538244e+001  1.250928e+002 
4012500000  -2.636846e+001  1.182195e+002 
4015625000  -2.746425e+001  1.183432e+002 
4018750000  -2.773976e+001  1.207357e+002 
4021875000  -2.711824e+001  1.190949e+002 
4025000000  -2.676031e+001  1.138450e+002 
4028125000  -2.676100e+001  1.102624e+002 
4031250000  -2.723595e+001  1.069725e+002 
4034375000  -2.743566e+001  1.065951e+002 
4037500000  -2.690725e+001  1.078636e+002 
4040625000  -2.680328e+001  1.042871e+002 
4043750000  -2.718752e+001  1.046943e+002 
4046875000  -2.670241e+001  1.040425e+002 
4050000000  -2.613557e+001  9.876257e+001 
4053125000  -2.661334e+001  9.566956e+001 
4056250000  -2.715976e+001  1.001040e+002 
4059375000  -2.610006e+001  1.018438e+002 
4062500000  -2.474051e+001  9.740640e+001 
4065625000  -2.456398e+001  9.343082e+001 
4068750000  -2.424341e+001  8.929836e+001 
4071875000  -2.359581e+001  8.169796e+001 
4075000000  -2.392124e+001  7.490525e+001 
4078125000  -2.450305e+001  7.362329e+001 
4081250000  -2.400474e+001  7.127183e+001 
4084375000  -2.361229e+001  6.502065e+001 
4087500000  -2.392206e+001  5.863411e+001 
4090625000  -2.450373e+001  5.713250e+001 
4093750000  -2.440389e+001  5.777984e+001 
4096875000  -2.397345e+001  5.243223e+001 
4100000000  -2.457152e+001  4.511423e+001 
4103125000  -2.541123e+001  4.560334e+001 
4106250000  -2.528836e+001  5.063100e+001 
4109375000  -2.440354e+001  4.974635e+001 
4112500000  -2.386152e+001  4.339527e+001 
4115625000  -2.411291e+001  3.869818e+001 
4118750000  -2.420575e+001  3.566260e+001 
4121875000  -2.392150e+001  3.135457e+001 
4125000000  -2.425975e+001  2.649830e+001 
4128125000  -2.526127e+001  2.649217e+001 
4131250000  -2.483790e+001  3.463947e+001 
4134375000  -2.260468e+001  3.057133e+001 
4137500000  -2.235159e+001  1.131772e+001 
4140625000  -2.445146e+001  4.024378e+000 
4143750000  -2.581762e+001  8.721039e+000 
4146875000  -2.540288e+001  1.590014e+001 
4150000000  -2.451367e+001  1.269176e+001 
4153125000  -2.432800e+001  6.445924e+000 
4156250000  -2.513854e+001  3.531793e+000 
4159375000  -2.550438e+001  7.684927e+000 
4162500000  -2.437532e+001  1.215104e+001 
4165625000  -2.329420e+001  7.991771e+000 
4168750000  -2.263809e+001  1.191299e+000 
4171875000  -2.259164e+001  -8.012094e+000 
4175000000  -2.312935e+001  -1.383765e+001 
4178125000  -2.370679e+001  -1.440405e+001 
4181250000  -2.365087e+001  -1.472210e+001 
4184375000  -2.350593e+001  -1.790584e+001 
4187500000  -2.348022e+001  -2.108610e+001 
4190625000  -2.337131e+001  -2.625466e+001 
4193750000  -2.403421e+001  -3.043743e+001 
4196875000  -2.473895e+001  -3.046243e+001 
4200000000  -2.553201e+001  -2.846831e+001 
4203125000  -2.562032e+001  -1.577184e+001 
4206250000  -2.247273e+001  -1.330624e+001 
4209375000  -2.120575e+001  -3.392727e+001 
4212500000  -2.305671e+001  -4.275531e+001 
4215625000  -2.403088e+001  -3.629387e+001 
4218750000  -2.266474e+001  -2.922445e+001 
4221875000  -2.031544e+001  -3.844944e+001 
4225000000  -2.145693e+001  -5.206543e+001 
4228125000  -2.228186e+001  -4.732433e+001 
4231250000  -2.077474e+001  -5.049435e+001 
4234375000  -2.071928e+001  -5.897047e+001 
4237500000  -2.028144e+001  -6.252362e+001 
4240625000  -2.031462e+001  -7.081348e+001 
4243750000  -2.129192e+001  -7.717139e+001 
4246875000  -2.216154e+001  -7.690681e+001 
4250000000  -2.217703e+001  -7.443995e+001 
4253125000  -2.156789e+001  -7.640625e+001 
4256250000  -2.176332e+001  -8.100153e+001 
4259375000  -2.156907e+001  -8.307520e+001 
4262500000  -2.156861e+001  -8.703622e+001 
4265625000  -2.171287e+001  -8.679288e+001 
4268750000  -2.098274e+001  -9.039827e+001 
4271875000  -2.066133e+001  -9.565943e+001 
4275000000  -2.002976e+001  -1.021224e+002 
4278125000  -2.059676e+001  -1.138384e+002 
4281250000  -2.225471e+001  -1.165187e+002 
4284375000  -2.210150e+001  -1.158210e+002 
4287500000  -2.287494e+001  -1.198326e+002 
4290625000  -2.426821e+001  -1.102034e+002 
4293750000  -2.231566e+001  -1.035429e+002 
4296875000  -2.097993e+001  -1.148849e+002 
4300000000  -2.177447e+001  -1.239110e+002 
4303125000  -2.288725e+001  -1.231714e+002 
4306250000  -2.229673e+001  -1.173761e+002 
4309375000  -2.087664e+001  -1.196993e+002 
4312500000  -2.078414e+001  -1.278139e+002 
4315625000  -2.107954e+001  -1.337363e+002 
4318750000  -2.136668e+001  -1.368103e+002 
4321875000  -2.158563e+001  -1.363544e+002 
4325000000  -2.097736e+001  -1.362894e+002 
4328125000  -2.047693e+001  -1.426553e+002 
4331250000  -2.047617e+001  -1.504562e+002 
4334375000  -2.088408e+001  -1.553060e+002 
4337500000  -2.164540e+001  -1.574711e+002 
4340625000  -2.210607e+001  -1.552714e+002 
4343750000  -2.155891e+001  -1.545181e+002 
4346875000  -2.119627e+001  -1.598981e+002 
4350000000  -2.108943e+001  -1.641475e+002 
4353125000  -2.111101e+001  -1.719423e+002 
4356250000  -2.271726e+001  -1.739156e+002 
4359375000  -2.343487e+001  -1.615284e+002 
4362500000  -2.100809e+001  -1.588311e+002 
4365625000  -1.942088e+001  -1.700350e+002 
4368750000  -2.005983e+001  1.782422e+002 
4371875000  -2.118370e+001  1.783795e+002 
4375000000  -2.088510e+001  1.793444e+002 
4378125000  -2.030231e+001  1.742397e+002 
4381250000  -2.039079e+001  1.691104e+002 
4384375000  -2.021102e+001  1.644110e+002 
4387500000  -2.083531e+001  1.579500e+002 
4390625000  -2.181728e+001  1.581332e+002 
4393750000  -2.127755e+001  1.607908e+002 
4396875000  -2.067714e+001  1.588223e+002 
4400000000  -2.017013e+001  1.519929e+002 
4403125000  -2.065648e+001  1.439208e+002 
4406250000  -2.146095e+001  1.424858e+002 
4409375000  -2.143610e+001  1.401266e+002 
4412500000  -2.233877e+001  1.367681e+002 
4415625000  -2.285090e+001  1.414421e+002 
4418750000  -2.180786e+001  1.465144e+002 
