!Agilent Technologies,E8363B,MY43030201,A.06.04.32
!Agilent E8363B: A.06.04.32
!Date: Tuesday, November 11, 2014 20:46:07
!Correction: S21(Response(S21)) 
!S1P File: Measurement: S21:
# Hz S  dB   R 50
3000000000  -2.652861e+001  1.569989e+002 
3003125000  -2.788473e+001  1.527159e+002 
3006250000  -2.796728e+001  1.499095e+002 
3009375000  -2.826416e+001  1.545858e+002 
3012500000  -2.777713e+001  1.547069e+002 
3015625000  -2.682099e+001  1.476351e+002 
3018750000  -2.769001e+001  1.463120e+002 
3021875000  -2.644084e+001  1.478369e+002 
3025000000  -2.515188e+001  1.449009e+002 
3028125000  -2.413935e+001  1.402884e+002 
3031250000  -2.312108e+001  1.289303e+002 
3034375000  -2.272398e+001  1.161212e+002 
3037500000  -2.307042e+001  1.042233e+002 
3040625000  -2.441541e+001  9.882741e+001 
3043750000  -2.513642e+001  9.476614e+001 
3046875000  -2.519191e+001  8.818241e+001 
3050000000  -2.697941e+001  8.103844e+001 
3053125000  -2.714985e+001  8.768118e+001 
3056250000  -2.642714e+001  9.060205e+001 
3059375000  -2.672876e+001  9.023674e+001 
3062500000  -2.523317e+001  8.640240e+001 
3065625000  -2.501160e+001  8.107039e+001 
3068750000  -2.472839e+001  7.410172e+001 
3071875000  -2.464719e+001  7.092657e+001 
3075000000  -2.467840e+001  6.716431e+001 
3078125000  -2.434354e+001  6.281640e+001 
3081250000  -2.501654e+001  5.856155e+001 
3084375000  -2.429980e+001  5.499861e+001 
3087500000  -2.414322e+001  5.147157e+001 
3090625000  -2.385904e+001  4.178812e+001 
3093750000  -2.423582e+001  3.376808e+001 
3096875000  -2.558781e+001  2.762543e+001 
3100000000  -2.569578e+001  2.625499e+001 
3103125000  -2.611393e+001  2.786765e+001 
3106250000  -2.580527e+001  2.427430e+001 
3109375000  -2.606035e+001  2.074945e+001 
3112500000  -2.618760e+001  1.986394e+001 
3115625000  -2.597249e+001  1.555741e+001 
3118750000  -2.651122e+001  1.666465e+001 
3121875000  -2.585726e+001  8.839172e+000 
3125000000  -2.690929e+001  4.870199e+000 
3128125000  -2.820627e+001  1.306613e+001 
3131250000  -2.602690e+001  1.423432e+001 
3134375000  -2.468481e+001  5.644383e-001 
3137500000  -2.527399e+001  -1.377939e+001 
3140625000  -2.695669e+001  -1.528775e+001 
3143750000  -2.794854e+001  -1.122244e+001 
3146875000  -2.757335e+001  -9.127462e+000 
3150000000  -2.653829e+001  -6.617835e+000 
3153125000  -2.650898e+001  -1.455248e+001 
3156250000  -2.748016e+001  -9.236627e+000 
3159375000  -2.597537e+001  -6.302126e+000 
3162500000  -2.390439e+001  -1.898129e+001 
3165625000  -2.479734e+001  -2.988071e+001 
3168750000  -2.524942e+001  -2.897559e+001 
3171875000  -2.429409e+001  -3.327293e+001 
3175000000  -2.491257e+001  -4.111676e+001 
3178125000  -2.473087e+001  -3.941330e+001 
3181250000  -2.356239e+001  -4.311013e+001 
3184375000  -2.269976e+001  -5.569524e+001 
3187500000  -2.376987e+001  -7.091088e+001 
3190625000  -2.658508e+001  -7.872374e+001 
3193750000  -2.728596e+001  -6.878804e+001 
3196875000  -2.680901e+001  -6.339116e+001 
3200000000  -2.599696e+001  -6.521996e+001 
3203125000  -2.507708e+001  -7.082133e+001 
3206250000  -2.538024e+001  -7.698795e+001 
3209375000  -2.490300e+001  -8.190656e+001 
3212500000  -2.497191e+001  -8.884174e+001 
3215625000  -2.511471e+001  -9.337075e+001 
3218750000  -2.590281e+001  -9.923109e+001 
3221875000  -2.691847e+001  -1.043553e+002 
3225000000  -2.656383e+001  -1.049401e+002 
3228125000  -2.681275e+001  -1.090401e+002 
3231250000  -2.755556e+001  -1.123730e+002 
3234375000  -2.743562e+001  -1.112071e+002 
3237500000  -2.747444e+001  -1.129423e+002 
3240625000  -2.714030e+001  -1.144861e+002 
3243750000  -2.677168e+001  -1.210140e+002 
3246875000  -2.724206e+001  -1.275745e+002 
3250000000  -2.778066e+001  -1.295934e+002 
3253125000  -2.789943e+001  -1.313896e+002 
3256250000  -2.775671e+001  -1.370653e+002 
3259375000  -2.804783e+001  -1.448035e+002 
3262500000  -2.932763e+001  -1.476561e+002 
3265625000  -3.002427e+001  -1.443621e+002 
3268750000  -3.001303e+001  -1.418732e+002 
3271875000  -2.977567e+001  -1.401354e+002 
3275000000  -2.870567e+001  -1.452104e+002 
3278125000  -2.911516e+001  -1.518463e+002 
3281250000  -2.942951e+001  -1.498903e+002 
3284375000  -2.897449e+001  -1.557255e+002 
3287500000  -2.912664e+001  -1.586053e+002 
3290625000  -2.952850e+001  -1.627832e+002 
3293750000  -2.923131e+001  -1.682585e+002 
3296875000  -3.019951e+001  -1.682999e+002 
3300000000  -3.019229e+001  -1.670739e+002 
3303125000  -2.901151e+001  -1.711988e+002 
3306250000  -2.878812e+001  -1.780121e+002 
3309375000  -2.855474e+001  1.775361e+002 
3312500000  -2.858181e+001  1.670597e+002 
3315625000  -2.952394e+001  1.591566e+002 
3318750000  -3.090983e+001  1.566300e+002 
3321875000  -3.206034e+001  1.561130e+002 
3325000000  -3.275663e+001  1.604998e+002 
3328125000  -3.264854e+001  1.620308e+002 
3331250000  -3.136899e+001  1.697413e+002 
3334375000  -2.888797e+001  1.608935e+002 
3337500000  -2.887792e+001  1.424837e+002 
3340625000  -3.015509e+001  1.315909e+002 
3343750000  -3.218333e+001  1.297255e+002 
3346875000  -3.272691e+001  1.316749e+002 
3350000000  -3.208893e+001  1.303914e+002 
3353125000  -3.213429e+001  1.264113e+002 
3356250000  -3.189907e+001  1.178875e+002 
3359375000  -3.273939e+001  1.098794e+002 
3362500000  -3.406258e+001  1.044484e+002 
3365625000  -3.468981e+001  1.023029e+002 
3368750000  -3.568335e+001  1.014710e+002 
3371875000  -3.608885e+001  9.776777e+001 
3375000000  -3.758784e+001  9.623449e+001 
3378125000  -3.857583e+001  9.597706e+001 
3381250000  -4.025179e+001  1.032862e+002 
3384375000  -3.944615e+001  1.223349e+002 
3387500000  -3.631557e+001  1.103146e+002 
3390625000  -3.798083e+001  9.195741e+001 
3393750000  -3.985756e+001  9.599104e+001 
3396875000  -3.925758e+001  9.948658e+001 
3400000000  -3.904203e+001  9.104485e+001 
3403125000  -4.015058e+001  8.758545e+001 
3406250000  -4.096090e+001  9.104941e+001 
3409375000  -4.162485e+001  8.588190e+001 
3412500000  -4.258166e+001  8.646208e+001 
3415625000  -4.320001e+001  9.264899e+001 
3418750000  -4.370786e+001  9.709176e+001 
3421875000  -4.390275e+001  1.026769e+002 
3425000000  -4.342047e+001  1.083087e+002 
3428125000  -4.217832e+001  1.065590e+002 
3431250000  -4.215953e+001  1.035258e+002 
3434375000  -4.190916e+001  9.937180e+001 
3437500000  -4.222387e+001  9.871145e+001 
3440625000  -4.251027e+001  1.019566e+002 
3443750000  -4.155204e+001  1.040582e+002 
3446875000  -4.042701e+001  9.934544e+001 
3450000000  -4.046498e+001  9.073067e+001 
3453125000  -4.060603e+001  8.312836e+001 
3456250000  -4.147137e+001  7.662917e+001 
3459375000  -4.279436e+001  7.992719e+001 
3462500000  -4.282918e+001  7.792545e+001 
3465625000  -4.272495e+001  7.409466e+001 
3468750000  -4.359215e+001  7.155923e+001 
3471875000  -4.323431e+001  7.315339e+001 
3475000000  -4.336158e+001  7.094254e+001 
3478125000  -4.414658e+001  6.406776e+001 
3481250000  -4.530066e+001  6.200580e+001 
3484375000  -4.690243e+001  7.119824e+001 
3487500000  -4.629001e+001  7.233305e+001 
3490625000  -4.636811e+001  7.065404e+001 
3493750000  -4.589223e+001  6.823081e+001 
3496875000  -4.727544e+001  7.008760e+001 
3500000000  -4.911637e+001  7.870322e+001 
3503125000  -4.837512e+001  8.187186e+001 
3506250000  -4.747178e+001  8.071274e+001 
3509375000  -4.726767e+001  7.982539e+001 
3512500000  -4.759472e+001  7.970273e+001 
3515625000  -4.788831e+001  7.967789e+001 
3518750000  -4.862828e+001  8.881993e+001 
3521875000  -4.759681e+001  9.425271e+001 
3525000000  -4.804432e+001  9.567714e+001 
3528125000  -4.753379e+001  1.044599e+002 
3531250000  -4.543773e+001  1.033726e+002 
3534375000  -4.528412e+001  9.674071e+001 
3537500000  -4.478068e+001  9.335136e+001 
3540625000  -4.518104e+001  9.275652e+001 
3543750000  -4.545337e+001  9.500591e+001 
3546875000  -4.544893e+001  1.042814e+002 
3550000000  -4.285381e+001  1.098269e+002 
3553125000  -4.158522e+001  9.343873e+001 
3556250000  -4.228896e+001  8.516197e+001 
3559375000  -4.192146e+001  8.960289e+001 
3562500000  -4.067715e+001  8.037357e+001 
3565625000  -4.167726e+001  7.631762e+001 
3568750000  -4.170399e+001  7.696289e+001 
3571875000  -4.160608e+001  7.965382e+001 
3575000000  -4.090950e+001  7.336479e+001 
3578125000  -4.105910e+001  6.906621e+001 
3581250000  -4.171100e+001  7.003812e+001 
3584375000  -4.048909e+001  6.927964e+001 
3587500000  -3.972924e+001  6.275430e+001 
3590625000  -4.046924e+001  5.364708e+001 
3593750000  -4.129496e+001  5.104670e+001 
3596875000  -4.131022e+001  5.993616e+001 
3600000000  -3.985714e+001  5.706759e+001 
3603125000  -3.989127e+001  4.343703e+001 
3606250000  -4.061988e+001  4.167321e+001 
3609375000  -4.093462e+001  4.115758e+001 
3612500000  -4.139915e+001  3.900270e+001 
3615625000  -4.160869e+001  3.683983e+001 
3618750000  -4.200011e+001  3.936351e+001 
3621875000  -4.204281e+001  3.606091e+001 
3625000000  -4.181746e+001  3.650537e+001 
3628125000  -4.174973e+001  3.841154e+001 
3631250000  -4.173473e+001  3.274313e+001 
3634375000  -4.239011e+001  3.539078e+001 
3637500000  -4.210815e+001  3.883098e+001 
3640625000  -4.099532e+001  4.131003e+001 
3643750000  -4.058077e+001  3.632793e+001 
3646875000  -4.112592e+001  2.939966e+001 
3650000000  -4.154891e+001  3.119645e+001 
3653125000  -4.149247e+001  2.995503e+001 
3656250000  -4.168714e+001  2.826478e+001 
3659375000  -4.209838e+001  3.124632e+001 
3662500000  -4.140424e+001  3.125906e+001 
3665625000  -4.122917e+001  3.127036e+001 
3668750000  -4.046381e+001  3.268108e+001 
3671875000  -3.922763e+001  2.813795e+001 
3675000000  -4.012785e+001  2.008636e+001 
3678125000  -4.052093e+001  2.403057e+001 
3681250000  -3.997924e+001  2.430384e+001 
3684375000  -3.986970e+001  2.343890e+001 
3687500000  -3.992354e+001  2.168830e+001 
3690625000  -3.982301e+001  1.896675e+001 
3693750000  -4.043073e+001  1.991361e+001 
3696875000  -4.034364e+001  2.415192e+001 
3700000000  -3.910904e+001  2.257416e+001 
3703125000  -3.874860e+001  1.759613e+001 
3706250000  -3.957293e+001  2.099076e+001 
3709375000  -3.879078e+001  2.350984e+001 
3712500000  -3.755118e+001  2.338547e+001 
3715625000  -3.648096e+001  1.818424e+001 
3718750000  -3.588392e+001  1.451022e+001 
3721875000  -3.536772e+001  9.859054e+000 
3725000000  -3.529797e+001  5.013161e+000 
3728125000  -3.546939e+001  4.200075e+000 
3731250000  -3.484245e+001  4.244400e+000 
3734375000  -3.385682e+001  -1.743713e+000 
3737500000  -3.440300e+001  -9.090053e+000 
3740625000  -3.511512e+001  -1.254133e+001 
3743750000  -3.492335e+001  -1.417826e+001 
3746875000  -3.480323e+001  -1.818325e+001 
3750000000  -3.522318e+001  -1.890090e+001 
3753125000  -3.476311e+001  -1.825136e+001 
3756250000  -3.464080e+001  -1.937616e+001 
3759375000  -3.447184e+001  -1.982438e+001 
3762500000  -3.379042e+001  -2.417047e+001 
3765625000  -3.426226e+001  -2.606942e+001 
3768750000  -3.453657e+001  -2.435503e+001 
3771875000  -3.269993e+001  -2.708259e+001 
3775000000  -3.228268e+001  -3.512769e+001 
3778125000  -3.257956e+001  -3.653659e+001 
3781250000  -3.233931e+001  -3.926732e+001 
3784375000  -3.248268e+001  -4.077490e+001 
3787500000  -3.171106e+001  -4.514473e+001 
3790625000  -3.225854e+001  -5.038998e+001 
3793750000  -3.251543e+001  -5.115559e+001 
3796875000  -3.159395e+001  -5.259288e+001 
3800000000  -3.008064e+001  -5.636135e+001 
3803125000  -3.068634e+001  -6.313415e+001 
3806250000  -3.147453e+001  -6.494984e+001 
3809375000  -3.123301e+001  -6.722225e+001 
3812500000  -3.042457e+001  -7.150957e+001 
3815625000  -3.110739e+001  -7.883965e+001 
3818750000  -3.201970e+001  -8.034293e+001 
3821875000  -3.212868e+001  -7.334890e+001 
3825000000  -3.027108e+001  -6.801180e+001 
3828125000  -2.892494e+001  -8.090003e+001 
3831250000  -2.940310e+001  -9.498570e+001 
3834375000  -3.067647e+001  -9.652840e+001 
3837500000  -3.162193e+001  -9.111705e+001 
3840625000  -3.058259e+001  -9.215348e+001 
3843750000  -2.936942e+001  -1.014241e+002 
3846875000  -3.003294e+001  -1.097152e+002 
3850000000  -3.129545e+001  -1.047629e+002 
3853125000  -3.058788e+001  -1.015492e+002 
3856250000  -3.051902e+001  -1.051772e+002 
3859375000  -2.989427e+001  -1.101254e+002 
3862500000  -2.938990e+001  -1.175000e+002 
3865625000  -2.962720e+001  -1.224947e+002 
3868750000  -2.965096e+001  -1.227468e+002 
3871875000  -2.890975e+001  -1.254502e+002 
3875000000  -2.907966e+001  -1.339318e+002 
3878125000  -3.007700e+001  -1.369531e+002 
3881250000  -3.019663e+001  -1.334257e+002 
3884375000  -2.960057e+001  -1.377022e+002 
3887500000  -2.975474e+001  -1.424044e+002 
3890625000  -3.026566e+001  -1.446201e+002 
3893750000  -3.061824e+001  -1.455550e+002 
3896875000  -3.076729e+001  -1.449229e+002 
3900000000  -3.109509e+001  -1.458253e+002 
3903125000  -3.070724e+001  -1.487824e+002 
3906250000  -3.033767e+001  -1.496117e+002 
3909375000  -2.973347e+001  -1.513666e+002 
3912500000  -2.962992e+001  -1.588843e+002 
3915625000  -3.086786e+001  -1.581681e+002 
3918750000  -3.099244e+001  -1.565763e+002 
3921875000  -3.062081e+001  -1.585707e+002 
3925000000  -2.983659e+001  -1.586717e+002 
3928125000  -2.910072e+001  -1.647815e+002 
3931250000  -2.945848e+001  -1.686623e+002 
3934375000  -2.970583e+001  -1.684987e+002 
3937500000  -2.987229e+001  -1.689270e+002 
3940625000  -3.039823e+001  -1.696879e+002 
3943750000  -2.941452e+001  -1.680270e+002 
3946875000  -2.815936e+001  -1.734270e+002 
3950000000  -2.864566e+001  1.793909e+002 
3953125000  -2.957261e+001  -1.799969e+002 
3956250000  -2.882730e+001  -1.777451e+002 
3959375000  -2.753833e+001  1.794807e+002 
3962500000  -2.702303e+001  1.753159e+002 
3965625000  -2.664933e+001  1.667993e+002 
3968750000  -2.749923e+001  1.600419e+002 
3971875000  -2.794257e+001  1.588956e+002 
3975000000  -2.727912e+001  1.568781e+002 
3978125000  -2.700992e+001  1.554767e+002 
3981250000  -2.682514e+001  1.511504e+002 
3984375000  -2.704216e+001  1.448471e+002 
3987500000  -2.754159e+001  1.423449e+002 
3990625000  -2.759468e+001  1.415001e+002 
3993750000  -2.773911e+001  1.386069e+002 
3996875000  -2.776927e+001  1.362765e+002 
4000000000  -2.785627e+001  1.341947e+002 
4003125000  -2.838775e+001  1.363673e+002 
4006250000  -2.707056e+001  1.373935e+002 
4009375000  -2.583135e+001  1.246620e+002 
4012500000  -2.679904e+001  1.173712e+002 
4015625000  -2.805808e+001  1.177378e+002 
4018750000  -2.828269e+001  1.203320e+002 
4021875000  -2.759493e+001  1.184810e+002 
4025000000  -2.731506e+001  1.140901e+002 
4028125000  -2.712376e+001  1.099755e+002 
4031250000  -2.759927e+001  1.064080e+002 
4034375000  -2.786201e+001  1.063698e+002 
4037500000  -2.744464e+001  1.083029e+002 
4040625000  -2.725900e+001  1.047624e+002 
4043750000  -2.763010e+001  1.045862e+002 
4046875000  -2.716191e+001  1.046743e+002 
4050000000  -2.664556e+001  9.846844e+001 
4053125000  -2.716982e+001  9.610291e+001 
4056250000  -2.775079e+001  1.004764e+002 
4059375000  -2.665372e+001  1.025326e+002 
4062500000  -2.515097e+001  9.760303e+001 
4065625000  -2.500111e+001  9.309210e+001 
4068750000  -2.473755e+001  8.856709e+001 
4071875000  -2.417370e+001  8.055652e+001 
4075000000  -2.449049e+001  7.382271e+001 
4078125000  -2.507983e+001  7.310500e+001 
4081250000  -2.460711e+001  7.108723e+001 
4084375000  -2.415831e+001  6.422108e+001 
4087500000  -2.453696e+001  5.827723e+001 
4090625000  -2.510921e+001  5.666261e+001 
4093750000  -2.499678e+001  5.774998e+001 
4096875000  -2.452889e+001  5.200618e+001 
4100000000  -2.518958e+001  4.490608e+001 
4103125000  -2.604222e+001  4.531825e+001 
4106250000  -2.595204e+001  5.003085e+001 
4109375000  -2.515383e+001  4.995593e+001 
4112500000  -2.455471e+001  4.329885e+001 
4115625000  -2.481510e+001  3.907279e+001 
4118750000  -2.498153e+001  3.630619e+001 
4121875000  -2.454107e+001  3.183620e+001 
4125000000  -2.487968e+001  2.663661e+001 
4128125000  -2.586274e+001  2.648614e+001 
4131250000  -2.562253e+001  3.449903e+001 
4134375000  -2.336133e+001  3.062507e+001 
4137500000  -2.305919e+001  1.208966e+001 
4140625000  -2.518696e+001  4.124285e+000 
4143750000  -2.647664e+001  8.864731e+000 
4146875000  -2.618898e+001  1.652378e+001 
4150000000  -2.523776e+001  1.374681e+001 
4153125000  -2.508799e+001  7.205563e+000 
4156250000  -2.593501e+001  4.311110e+000 
4159375000  -2.617098e+001  8.824780e+000 
4162500000  -2.503498e+001  1.295061e+001 
4165625000  -2.396065e+001  9.022284e+000 
4168750000  -2.328902e+001  2.074237e+000 
4171875000  -2.330480e+001  -6.969009e+000 
4175000000  -2.384434e+001  -1.285939e+001 
4178125000  -2.452781e+001  -1.305925e+001 
4181250000  -2.442767e+001  -1.369279e+001 
4184375000  -2.421424e+001  -1.659303e+001 
4187500000  -2.426965e+001  -1.955839e+001 
4190625000  -2.406188e+001  -2.494014e+001 
4193750000  -2.484249e+001  -2.845046e+001 
4196875000  -2.554109e+001  -2.933568e+001 
4200000000  -2.636773e+001  -2.712221e+001 
4203125000  -2.656868e+001  -1.463695e+001 
4206250000  -2.324585e+001  -1.184645e+001 
4209375000  -2.197807e+001  -3.193956e+001 
4212500000  -2.383823e+001  -4.155500e+001 
4215625000  -2.488284e+001  -3.586843e+001 
4218750000  -2.362321e+001  -2.874673e+001 
4221875000  -2.129604e+001  -3.757979e+001 
4225000000  -2.247591e+001  -5.052906e+001 
4228125000  -2.326638e+001  -4.512775e+001 
4231250000  -2.168795e+001  -4.846255e+001 
4234375000  -2.162605e+001  -5.707756e+001 
4237500000  -2.122881e+001  -6.034476e+001 
4240625000  -2.118691e+001  -6.834068e+001 
4243750000  -2.212464e+001  -7.519028e+001 
4246875000  -2.301988e+001  -7.559117e+001 
4250000000  -2.309281e+001  -7.277190e+001 
4253125000  -2.246332e+001  -7.452717e+001 
4256250000  -2.275207e+001  -7.883199e+001 
4259375000  -2.253011e+001  -8.046307e+001 
4262500000  -2.252982e+001  -8.410943e+001 
4265625000  -2.273141e+001  -8.410254e+001 
4268750000  -2.188383e+001  -8.794743e+001 
4271875000  -2.158971e+001  -9.340611e+001 
4275000000  -2.095518e+001  -9.986915e+001 
4278125000  -2.153927e+001  -1.105932e+002 
4281250000  -2.335490e+001  -1.131771e+002 
4284375000  -2.305194e+001  -1.125039e+002 
4287500000  -2.373343e+001  -1.157673e+002 
4290625000  -2.502850e+001  -1.070088e+002 
4293750000  -2.311301e+001  -1.009316e+002 
4296875000  -2.171186e+001  -1.123054e+002 
4300000000  -2.251709e+001  -1.215869e+002 
4303125000  -2.369166e+001  -1.210227e+002 
4306250000  -2.320042e+001  -1.145062e+002 
4309375000  -2.181454e+001  -1.162150e+002 
4312500000  -2.162833e+001  -1.246733e+002 
4315625000  -2.183168e+001  -1.306047e+002 
4318750000  -2.212568e+001  -1.341738e+002 
4321875000  -2.234950e+001  -1.341219e+002 
4325000000  -2.176999e+001  -1.332261e+002 
4328125000  -2.129338e+001  -1.393693e+002 
4331250000  -2.122352e+001  -1.474539e+002 
4334375000  -2.159664e+001  -1.523119e+002 
4337500000  -2.239988e+001  -1.547693e+002 
4340625000  -2.299185e+001  -1.518486e+002 
4343750000  -2.239228e+001  -1.513515e+002 
4346875000  -2.204361e+001  -1.566340e+002 
4350000000  -2.208446e+001  -1.609756e+002 
4353125000  -2.206490e+001  -1.690544e+002 
4356250000  -2.375254e+001  -1.703031e+002 
4359375000  -2.450300e+001  -1.576483e+002 
4362500000  -2.190970e+001  -1.548943e+002 
4365625000  -2.023378e+001  -1.661060e+002 
4368750000  -2.089601e+001  -1.784882e+002 
4371875000  -2.212599e+001  -1.778006e+002 
4375000000  -2.180292e+001  -1.764290e+002 
4378125000  -2.118051e+001  1.778540e+002 
4381250000  -2.128753e+001  1.724431e+002 
4384375000  -2.115413e+001  1.681549e+002 
4387500000  -2.183769e+001  1.622129e+002 
4390625000  -2.285472e+001  1.631716e+002 
4393750000  -2.220558e+001  1.653837e+002 
4396875000  -2.150791e+001  1.631707e+002 
4400000000  -2.103795e+001  1.562135e+002 
4403125000  -2.156845e+001  1.488259e+002 
4406250000  -2.246317e+001  1.472887e+002 
4409375000  -2.239540e+001  1.451248e+002 
4412500000  -2.338243e+001  1.423947e+002 
4415625000  -2.383318e+001  1.470670e+002 
4418750000  -2.267243e+001  1.520335e+002 
