!Agilent Technologies,E8363B,MY43030201,A.06.04.32
!Agilent E8363B: A.06.04.32
!Date: Tuesday, November 11, 2014 20:52:00
!Correction: S21(Response(S21)) 
!S1P File: Measurement: S21:
# Hz S  dB   R 50
3000000000  -2.649360e+001  1.518296e+002 
3003125000  -2.792316e+001  1.472153e+002 
3006250000  -2.800230e+001  1.445301e+002 
3009375000  -2.832698e+001  1.495959e+002 
3012500000  -2.779354e+001  1.491550e+002 
3015625000  -2.684827e+001  1.419824e+002 
3018750000  -2.764256e+001  1.410630e+002 
3021875000  -2.644081e+001  1.429035e+002 
3025000000  -2.513846e+001  1.395448e+002 
3028125000  -2.412644e+001  1.343688e+002 
3031250000  -2.311825e+001  1.231759e+002 
3034375000  -2.274373e+001  1.102679e+002 
3037500000  -2.311367e+001  9.831728e+001 
3040625000  -2.447097e+001  9.319199e+001 
3043750000  -2.513341e+001  8.894219e+001 
3046875000  -2.528735e+001  8.265191e+001 
3050000000  -2.699299e+001  7.595293e+001 
3053125000  -2.714184e+001  8.240153e+001 
3056250000  -2.648040e+001  8.544815e+001 
3059375000  -2.668100e+001  8.475992e+001 
3062500000  -2.520260e+001  8.143333e+001 
3065625000  -2.499665e+001  7.530891e+001 
3068750000  -2.470850e+001  6.832669e+001 
3071875000  -2.464548e+001  6.542422e+001 
3075000000  -2.461604e+001  6.171437e+001 
3078125000  -2.432171e+001  5.710146e+001 
3081250000  -2.499257e+001  5.296553e+001 
3084375000  -2.422941e+001  4.913808e+001 
3087500000  -2.412027e+001  4.565393e+001 
3090625000  -2.381180e+001  3.583399e+001 
3093750000  -2.424591e+001  2.781223e+001 
3096875000  -2.557797e+001  2.173667e+001 
3100000000  -2.569028e+001  2.083091e+001 
3103125000  -2.606111e+001  2.185101e+001 
3106250000  -2.579617e+001  1.846923e+001 
3109375000  -2.602480e+001  1.515879e+001 
3112500000  -2.612222e+001  1.395780e+001 
3115625000  -2.596093e+001  9.732901e+000 
3118750000  -2.640809e+001  1.111029e+001 
3121875000  -2.573419e+001  2.828812e+000 
3125000000  -2.696209e+001  -6.781292e-001 
3128125000  -2.812089e+001  7.612313e+000 
3131250000  -2.596422e+001  7.807864e+000 
3134375000  -2.464066e+001  -5.614382e+000 
3137500000  -2.526778e+001  -1.950828e+001 
3140625000  -2.690391e+001  -2.087017e+001 
3143750000  -2.791559e+001  -1.702914e+001 
3146875000  -2.751298e+001  -1.515923e+001 
3150000000  -2.651631e+001  -1.282409e+001 
3153125000  -2.647717e+001  -2.047568e+001 
3156250000  -2.744221e+001  -1.490696e+001 
3159375000  -2.589272e+001  -1.190833e+001 
3162500000  -2.385141e+001  -2.500070e+001 
3165625000  -2.480667e+001  -3.614468e+001 
3168750000  -2.516459e+001  -3.508493e+001 
3171875000  -2.422618e+001  -3.907450e+001 
3175000000  -2.486132e+001  -4.720605e+001 
3178125000  -2.471494e+001  -4.540576e+001 
3181250000  -2.351918e+001  -4.949336e+001 
3184375000  -2.270067e+001  -6.167408e+001 
3187500000  -2.384994e+001  -7.661522e+001 
3190625000  -2.660477e+001  -8.447771e+001 
3193750000  -2.720922e+001  -7.451822e+001 
3196875000  -2.676095e+001  -6.917266e+001 
3200000000  -2.585201e+001  -7.130709e+001 
3203125000  -2.498724e+001  -7.672186e+001 
3206250000  -2.532682e+001  -8.308462e+001 
3209375000  -2.485444e+001  -8.774303e+001 
3212500000  -2.498964e+001  -9.472324e+001 
3215625000  -2.510452e+001  -9.890721e+001 
3218750000  -2.584730e+001  -1.053866e+002 
3221875000  -2.682446e+001  -1.101977e+002 
3225000000  -2.642592e+001  -1.108147e+002 
3228125000  -2.675829e+001  -1.156065e+002 
3231250000  -2.751250e+001  -1.179794e+002 
3234375000  -2.738326e+001  -1.170772e+002 
3237500000  -2.738210e+001  -1.189199e+002 
3240625000  -2.706661e+001  -1.205877e+002 
3243750000  -2.670351e+001  -1.272943e+002 
3246875000  -2.719832e+001  -1.336827e+002 
3250000000  -2.765085e+001  -1.356633e+002 
3253125000  -2.776004e+001  -1.370631e+002 
3256250000  -2.762080e+001  -1.432159e+002 
3259375000  -2.796579e+001  -1.506406e+002 
3262500000  -2.926018e+001  -1.537737e+002 
3265625000  -2.987248e+001  -1.502746e+002 
3268750000  -2.989745e+001  -1.473944e+002 
3271875000  -2.963006e+001  -1.463440e+002 
3275000000  -2.856043e+001  -1.518585e+002 
3278125000  -2.900897e+001  -1.577622e+002 
3281250000  -2.931233e+001  -1.560095e+002 
3284375000  -2.885371e+001  -1.621212e+002 
3287500000  -2.904998e+001  -1.647544e+002 
3290625000  -2.941461e+001  -1.684105e+002 
3293750000  -2.909710e+001  -1.743124e+002 
3296875000  -3.015590e+001  -1.743324e+002 
3300000000  -3.006358e+001  -1.729481e+002 
3303125000  -2.886267e+001  -1.771066e+002 
3306250000  -2.866396e+001  1.761707e+002 
3309375000  -2.841637e+001  1.712071e+002 
3312500000  -2.845956e+001  1.610846e+002 
3315625000  -2.945329e+001  1.534571e+002 
3318750000  -3.086777e+001  1.502942e+002 
3321875000  -3.199942e+001  1.503213e+002 
3325000000  -3.261516e+001  1.559425e+002 
3328125000  -3.245069e+001  1.572932e+002 
3331250000  -3.117539e+001  1.651691e+002 
3334375000  -2.861676e+001  1.551488e+002 
3337500000  -2.874597e+001  1.364373e+002 
3340625000  -3.005086e+001  1.259697e+002 
3343750000  -3.202554e+001  1.247434e+002 
3346875000  -3.255145e+001  1.261260e+002 
3350000000  -3.184464e+001  1.247912e+002 
3353125000  -3.191989e+001  1.202213e+002 
3356250000  -3.159296e+001  1.129033e+002 
3359375000  -3.254386e+001  1.044139e+002 
3362500000  -3.386261e+001  9.904073e+001 
3365625000  -3.451525e+001  9.770022e+001 
3368750000  -3.535036e+001  9.610537e+001 
3371875000  -3.579166e+001  9.210521e+001 
3375000000  -3.740385e+001  8.945285e+001 
3378125000  -3.842221e+001  8.979488e+001 
3381250000  -4.001267e+001  9.788182e+001 
3384375000  -3.930238e+001  1.188491e+002 
3387500000  -3.588259e+001  1.062291e+002 
3390625000  -3.763237e+001  8.643459e+001 
3393750000  -3.957663e+001  9.053741e+001 
3396875000  -3.872655e+001  9.363055e+001 
3400000000  -3.853349e+001  8.478495e+001 
3403125000  -3.953357e+001  8.111022e+001 
3406250000  -4.066860e+001  8.445186e+001 
3409375000  -4.110387e+001  8.008346e+001 
3412500000  -4.204786e+001  8.119277e+001 
3415625000  -4.271823e+001  8.530213e+001 
3418750000  -4.320558e+001  8.990817e+001 
3421875000  -4.321775e+001  9.705653e+001 
3425000000  -4.255414e+001  1.016363e+002 
3428125000  -4.144981e+001  1.000892e+002 
3431250000  -4.160625e+001  9.582037e+001 
3434375000  -4.121989e+001  9.315351e+001 
3437500000  -4.171124e+001  9.099770e+001 
3440625000  -4.192097e+001  9.360265e+001 
3443750000  -4.073419e+001  9.541399e+001 
3446875000  -3.981022e+001  9.010413e+001 
3450000000  -3.960637e+001  8.117308e+001 
3453125000  -4.005549e+001  7.256615e+001 
3456250000  -4.111919e+001  6.729220e+001 
3459375000  -4.207322e+001  7.061259e+001 
3462500000  -4.235321e+001  7.149331e+001 
3465625000  -4.210748e+001  6.612127e+001 
3468750000  -4.222261e+001  6.356127e+001 
3471875000  -4.292846e+001  6.559109e+001 
3475000000  -4.259503e+001  5.960406e+001 
3478125000  -4.310298e+001  5.396425e+001 
3481250000  -4.462138e+001  5.475094e+001 
3484375000  -4.551411e+001  5.975915e+001 
3487500000  -4.567045e+001  6.287460e+001 
3490625000  -4.545146e+001  5.914463e+001 
3493750000  -4.622565e+001  5.578486e+001 
3496875000  -4.685024e+001  5.685333e+001 
3500000000  -4.817550e+001  6.416698e+001 
3503125000  -4.842127e+001  6.620309e+001 
3506250000  -4.665147e+001  7.199202e+001 
3509375000  -4.710130e+001  6.683863e+001 
3512500000  -4.772976e+001  6.890546e+001 
3515625000  -4.790316e+001  6.774999e+001 
3518750000  -4.833638e+001  7.332977e+001 
3521875000  -4.838367e+001  7.786957e+001 
3525000000  -4.844848e+001  7.962998e+001 
3528125000  -4.788461e+001  9.656379e+001 
3531250000  -4.602428e+001  9.513274e+001 
3534375000  -4.528753e+001  8.580350e+001 
3537500000  -4.505051e+001  8.259647e+001 
3540625000  -4.553607e+001  8.360291e+001 
3543750000  -4.602830e+001  8.373161e+001 
3546875000  -4.535174e+001  9.766752e+001 
3550000000  -4.278622e+001  1.004054e+002 
3553125000  -4.145745e+001  8.333933e+001 
3556250000  -4.260826e+001  7.613154e+001 
3559375000  -4.232133e+001  7.852870e+001 
3562500000  -4.104500e+001  7.294528e+001 
3565625000  -4.193620e+001  6.712273e+001 
3568750000  -4.198959e+001  6.821169e+001 
3571875000  -4.186579e+001  6.925259e+001 
3575000000  -4.108125e+001  6.435287e+001 
3578125000  -4.140149e+001  6.103172e+001 
3581250000  -4.183380e+001  6.067659e+001 
3584375000  -4.105062e+001  6.008738e+001 
3587500000  -4.032029e+001  5.354364e+001 
3590625000  -4.055939e+001  4.531777e+001 
3593750000  -4.148230e+001  4.318608e+001 
3596875000  -4.158303e+001  5.183555e+001 
3600000000  -3.976392e+001  5.020012e+001 
3603125000  -4.021293e+001  3.738917e+001 
3606250000  -4.069569e+001  3.511187e+001 
3609375000  -4.100667e+001  3.344267e+001 
3612500000  -4.132522e+001  3.337400e+001 
3615625000  -4.158688e+001  2.984120e+001 
3618750000  -4.219352e+001  3.196705e+001 
3621875000  -4.159237e+001  3.052537e+001 
3625000000  -4.202313e+001  3.008683e+001 
3628125000  -4.180483e+001  3.021247e+001 
3631250000  -4.134449e+001  2.798393e+001 
3634375000  -4.241237e+001  2.648877e+001 
3637500000  -4.209680e+001  3.365430e+001 
3640625000  -4.094849e+001  3.342470e+001 
3643750000  -4.057946e+001  2.887381e+001 
3646875000  -4.107717e+001  2.383712e+001 
3650000000  -4.158279e+001  2.243602e+001 
3653125000  -4.134764e+001  2.213355e+001 
3656250000  -4.150986e+001  2.118355e+001 
3659375000  -4.170828e+001  2.171608e+001 
3662500000  -4.110013e+001  2.290071e+001 
3665625000  -4.128870e+001  2.162465e+001 
3668750000  -4.025296e+001  2.502388e+001 
3671875000  -3.921207e+001  2.055675e+001 
3675000000  -3.975023e+001  1.435896e+001 
3678125000  -4.025303e+001  1.552219e+001 
3681250000  -3.967844e+001  1.543242e+001 
3684375000  -3.959942e+001  1.347732e+001 
3687500000  -3.975873e+001  1.085141e+001 
3690625000  -3.980933e+001  9.819523e+000 
3693750000  -4.018299e+001  1.118355e+001 
3696875000  -4.008453e+001  1.578614e+001 
3700000000  -3.883946e+001  1.441267e+001 
3703125000  -3.889178e+001  9.919053e+000 
3706250000  -3.956653e+001  1.141086e+001 
3709375000  -3.892905e+001  1.615944e+001 
3712500000  -3.754226e+001  1.543674e+001 
3715625000  -3.634025e+001  9.457924e+000 
3718750000  -3.568793e+001  6.848709e+000 
3721875000  -3.526740e+001  2.261383e+000 
3725000000  -3.511889e+001  -2.905856e+000 
3728125000  -3.532236e+001  -3.632288e+000 
3731250000  -3.471193e+001  -4.559868e+000 
3734375000  -3.360119e+001  -1.065863e+001 
3737500000  -3.424065e+001  -1.713548e+001 
3740625000  -3.497614e+001  -2.017134e+001 
3743750000  -3.457307e+001  -2.311313e+001 
3746875000  -3.434633e+001  -2.579414e+001 
3750000000  -3.478291e+001  -2.732895e+001 
3753125000  -3.454329e+001  -2.820205e+001 
3756250000  -3.447536e+001  -2.805996e+001 
3759375000  -3.418176e+001  -2.956057e+001 
3762500000  -3.364921e+001  -3.285553e+001 
3765625000  -3.417693e+001  -3.590112e+001 
3768750000  -3.419603e+001  -3.327029e+001 
3771875000  -3.240099e+001  -3.590591e+001 
3775000000  -3.220733e+001  -4.401755e+001 
3778125000  -3.239012e+001  -4.540498e+001 
3781250000  -3.233772e+001  -4.847951e+001 
3784375000  -3.230508e+001  -5.095700e+001 
3787500000  -3.166306e+001  -5.465736e+001 
3790625000  -3.224537e+001  -6.018676e+001 
3793750000  -3.227124e+001  -6.125118e+001 
3796875000  -3.138743e+001  -6.186946e+001 
3800000000  -2.989429e+001  -6.550919e+001 
3803125000  -3.068978e+001  -7.292296e+001 
3806250000  -3.127852e+001  -7.517432e+001 
3809375000  -3.108138e+001  -7.603777e+001 
3812500000  -3.039960e+001  -8.133921e+001 
3815625000  -3.102271e+001  -8.874088e+001 
3818750000  -3.203960e+001  -8.999800e+001 
3821875000  -3.202466e+001  -8.190600e+001 
3825000000  -3.014303e+001  -7.621775e+001 
3828125000  -2.877289e+001  -9.044509e+001 
3831250000  -2.929369e+001  -1.051665e+002 
3834375000  -3.068699e+001  -1.057347e+002 
3837500000  -3.154486e+001  -1.012287e+002 
3840625000  -3.045051e+001  -1.017268e+002 
3843750000  -2.924774e+001  -1.113617e+002 
3846875000  -2.995244e+001  -1.192134e+002 
3850000000  -3.125706e+001  -1.131626e+002 
3853125000  -3.041334e+001  -1.108535e+002 
3856250000  -3.033633e+001  -1.147842e+002 
3859375000  -2.969485e+001  -1.201377e+002 
3862500000  -2.920436e+001  -1.272689e+002 
3865625000  -2.954797e+001  -1.315707e+002 
3868750000  -2.956951e+001  -1.322980e+002 
3871875000  -2.883966e+001  -1.350384e+002 
3875000000  -2.892281e+001  -1.437979e+002 
3878125000  -3.000129e+001  -1.461847e+002 
3881250000  -3.010681e+001  -1.429753e+002 
3884375000  -2.961840e+001  -1.474051e+002 
3887500000  -2.968530e+001  -1.523350e+002 
3890625000  -3.019908e+001  -1.540815e+002 
3893750000  -3.058377e+001  -1.560402e+002 
3896875000  -3.079086e+001  -1.550112e+002 
3900000000  -3.098036e+001  -1.559200e+002 
3903125000  -3.062272e+001  -1.584373e+002 
3906250000  -3.036261e+001  -1.592334e+002 
3909375000  -2.957502e+001  -1.618609e+002 
3912500000  -2.970164e+001  -1.685912e+002 
3915625000  -3.086633e+001  -1.685521e+002 
3918750000  -3.085401e+001  -1.668503e+002 
3921875000  -3.061296e+001  -1.685773e+002 
3925000000  -2.979605e+001  -1.694558e+002 
3928125000  -2.910609e+001  -1.750172e+002 
3931250000  -2.952095e+001  -1.789270e+002 
3934375000  -2.975182e+001  -1.785995e+002 
3937500000  -2.990639e+001  -1.785814e+002 
3940625000  -3.037923e+001  -1.790680e+002 
3943750000  -2.947206e+001  -1.773973e+002 
3946875000  -2.826894e+001  1.771299e+002 
3950000000  -2.872462e+001  1.695284e+002 
3953125000  -2.967763e+001  1.704670e+002 
3956250000  -2.884136e+001  1.729510e+002 
3959375000  -2.747183e+001  1.697217e+002 
3962500000  -2.704724e+001  1.658175e+002 
3965625000  -2.661061e+001  1.573340e+002 
3968750000  -2.756795e+001  1.501726e+002 
3971875000  -2.787339e+001  1.487640e+002 
3975000000  -2.723516e+001  1.474256e+002 
3978125000  -2.701905e+001  1.460638e+002 
3981250000  -2.682680e+001  1.413231e+002 
3984375000  -2.698797e+001  1.353481e+002 
3987500000  -2.752699e+001  1.332241e+002 
3990625000  -2.754271e+001  1.320774e+002 
3993750000  -2.778621e+001  1.289331e+002 
3996875000  -2.768971e+001  1.266095e+002 
4000000000  -2.780389e+001  1.242686e+002 
4003125000  -2.833606e+001  1.268595e+002 
4006250000  -2.693881e+001  1.269624e+002 
4009375000  -2.570539e+001  1.144094e+002 
4012500000  -2.686600e+001  1.071465e+002 
4015625000  -2.805108e+001  1.079003e+002 
4018750000  -2.825855e+001  1.102240e+002 
4021875000  -2.758574e+001  1.083902e+002 
4025000000  -2.725307e+001  1.038103e+002 
4028125000  -2.717456e+001  9.945995e+001 
4031250000  -2.765859e+001  9.672482e+001 
4034375000  -2.788692e+001  9.623230e+001 
4037500000  -2.745060e+001  9.831559e+001 
4040625000  -2.736569e+001  9.486475e+001 
4043750000  -2.772185e+001  9.449949e+001 
4046875000  -2.724650e+001  9.429877e+001 
4050000000  -2.678479e+001  8.874043e+001 
4053125000  -2.722462e+001  8.626909e+001 
4056250000  -2.787842e+001  9.044214e+001 
4059375000  -2.663007e+001  9.284086e+001 
4062500000  -2.522273e+001  8.788792e+001 
4065625000  -2.508995e+001  8.349460e+001 
4068750000  -2.484433e+001  7.898733e+001 
4071875000  -2.422676e+001  7.053462e+001 
4075000000  -2.455037e+001  6.459103e+001 
4078125000  -2.514964e+001  6.370912e+001 
4081250000  -2.461623e+001  6.159853e+001 
4084375000  -2.420769e+001  5.495664e+001 
4087500000  -2.456080e+001  4.858407e+001 
4090625000  -2.521293e+001  4.761831e+001 
4093750000  -2.499920e+001  4.817740e+001 
4096875000  -2.451706e+001  4.224667e+001 
4100000000  -2.520902e+001  3.557160e+001 
4103125000  -2.609432e+001  3.612133e+001 
4106250000  -2.590985e+001  4.074699e+001 
4109375000  -2.508929e+001  4.032360e+001 
4112500000  -2.452382e+001  3.375563e+001 
4115625000  -2.483906e+001  2.954158e+001 
4118750000  -2.494726e+001  2.657646e+001 
4121875000  -2.453808e+001  2.202022e+001 
4125000000  -2.488502e+001  1.676452e+001 
4128125000  -2.588103e+001  1.710651e+001 
4131250000  -2.561851e+001  2.495791e+001 
4134375000  -2.332758e+001  2.026866e+001 
4137500000  -2.307675e+001  1.539254e+000 
4140625000  -2.524461e+001  -5.602808e+000 
4143750000  -2.656197e+001  -6.563812e-001 
4146875000  -2.616029e+001  6.894642e+000 
4150000000  -2.525117e+001  3.880882e+000 
4153125000  -2.506519e+001  -2.797385e+000 
4156250000  -2.591500e+001  -5.532494e+000 
4159375000  -2.623439e+001  -1.388997e+000 
4162500000  -2.505579e+001  2.808984e+000 
4165625000  -2.393793e+001  -1.037695e+000 
4168750000  -2.337320e+001  -8.235524e+000 
4171875000  -2.335337e+001  -1.729275e+001 
4175000000  -2.395251e+001  -2.292294e+001 
4178125000  -2.453604e+001  -2.310520e+001 
4181250000  -2.441768e+001  -2.340731e+001 
4184375000  -2.430112e+001  -2.670765e+001 
4187500000  -2.433271e+001  -2.924279e+001 
4190625000  -2.416073e+001  -3.490286e+001 
4193750000  -2.494416e+001  -3.859902e+001 
4196875000  -2.566644e+001  -3.872856e+001 
4200000000  -2.649694e+001  -3.670173e+001 
4203125000  -2.652594e+001  -2.357761e+001 
4206250000  -2.315747e+001  -2.182100e+001 
4209375000  -2.197447e+001  -4.194520e+001 
4212500000  -2.387442e+001  -5.101714e+001 
4215625000  -2.490655e+001  -4.479078e+001 
4218750000  -2.359020e+001  -3.795105e+001 
4221875000  -2.131180e+001  -4.724997e+001 
4225000000  -2.251203e+001  -5.963310e+001 
4228125000  -2.319180e+001  -5.452397e+001 
4231250000  -2.160402e+001  -5.792105e+001 
4234375000  -2.156480e+001  -6.676569e+001 
4237500000  -2.114026e+001  -6.968498e+001 
4240625000  -2.110218e+001  -7.838380e+001 
4243750000  -2.211771e+001  -8.511552e+001 
4246875000  -2.296972e+001  -8.527251e+001 
4250000000  -2.300848e+001  -8.252030e+001 
4253125000  -2.243497e+001  -8.449795e+001 
4256250000  -2.277212e+001  -8.839420e+001 
4259375000  -2.243763e+001  -9.059377e+001 
4262500000  -2.250267e+001  -9.427662e+001 
4265625000  -2.267549e+001  -9.390900e+001 
4268750000  -2.181268e+001  -9.789707e+001 
4271875000  -2.156550e+001  -1.035674e+002 
4275000000  -2.093763e+001  -1.102136e+002 
4278125000  -2.150478e+001  -1.212319e+002 
4281250000  -2.333154e+001  -1.233701e+002 
4284375000  -2.304176e+001  -1.225038e+002 
4287500000  -2.382902e+001  -1.261926e+002 
4290625000  -2.505747e+001  -1.161031e+002 
4293750000  -2.311104e+001  -1.109773e+002 
4296875000  -2.178296e+001  -1.223644e+002 
4300000000  -2.254360e+001  -1.315384e+002 
4303125000  -2.369781e+001  -1.303254e+002 
4306250000  -2.309899e+001  -1.245699e+002 
4309375000  -2.175740e+001  -1.263527e+002 
4312500000  -2.159878e+001  -1.347850e+002 
4315625000  -2.187605e+001  -1.409928e+002 
4318750000  -2.219282e+001  -1.441525e+002 
4321875000  -2.232178e+001  -1.437497e+002 
4325000000  -2.182281e+001  -1.431107e+002 
4328125000  -2.129695e+001  -1.493875e+002 
4331250000  -2.121436e+001  -1.575638e+002 
4334375000  -2.165283e+001  -1.624370e+002 
4337500000  -2.247771e+001  -1.648060e+002 
4340625000  -2.300355e+001  -1.610108e+002 
4343750000  -2.242588e+001  -1.609256e+002 
4346875000  -2.207965e+001  -1.661803e+002 
4350000000  -2.205803e+001  -1.711459e+002 
4353125000  -2.211502e+001  -1.788876e+002 
4356250000  -2.388710e+001  -1.795045e+002 
4359375000  -2.445851e+001  -1.664647e+002 
4362500000  -2.177075e+001  -1.639859e+002 
4365625000  -2.019104e+001  -1.763627e+002 
4368750000  -2.087796e+001  1.720928e+002 
4371875000  -2.207034e+001  1.726544e+002 
4375000000  -2.168124e+001  1.740778e+002 
4378125000  -2.105406e+001  1.679064e+002 
4381250000  -2.127326e+001  1.625468e+002 
4384375000  -2.104184e+001  1.580247e+002 
4387500000  -2.180923e+001  1.522807e+002 
4390625000  -2.284677e+001  1.533656e+002 
4393750000  -2.211966e+001  1.550721e+002 
4396875000  -2.147066e+001  1.528738e+002 
4400000000  -2.096038e+001  1.462084e+002 
4403125000  -2.153744e+001  1.385365e+002 
4406250000  -2.238332e+001  1.372653e+002 
4409375000  -2.237320e+001  1.347021e+002 
4412500000  -2.340511e+001  1.325108e+002 
4415625000  -2.381851e+001  1.370478e+002 
4418750000  -2.254701e+001  1.419235e+002 
