!Agilent Technologies,E8363B,MY43030201,A.06.04.32
!Agilent E8363B: A.06.04.32
!Date: Tuesday, November 11, 2014 20:44:56
!Correction: S21(Response(S21)) 
!S1P File: Measurement: S21:
# Hz S  dB   R 50
3000000000  -2.648808e+001  1.586460e+002 
3003125000  -2.787340e+001  1.545596e+002 
3006250000  -2.796167e+001  1.514022e+002 
3009375000  -2.823635e+001  1.562348e+002 
3012500000  -2.781219e+001  1.561115e+002 
3015625000  -2.680161e+001  1.493457e+002 
3018750000  -2.771523e+001  1.482223e+002 
3021875000  -2.644613e+001  1.495660e+002 
3025000000  -2.510700e+001  1.466077e+002 
3028125000  -2.415186e+001  1.418362e+002 
3031250000  -2.310448e+001  1.305080e+002 
3034375000  -2.273612e+001  1.177287e+002 
3037500000  -2.303206e+001  1.057820e+002 
3040625000  -2.438991e+001  1.006755e+002 
3043750000  -2.510905e+001  9.639552e+001 
3046875000  -2.519332e+001  8.966953e+001 
3050000000  -2.693513e+001  8.276229e+001 
3053125000  -2.716303e+001  8.930294e+001 
3056250000  -2.645325e+001  9.245372e+001 
3059375000  -2.673038e+001  9.194700e+001 
3062500000  -2.521981e+001  8.780486e+001 
3065625000  -2.500118e+001  8.236941e+001 
3068750000  -2.475680e+001  7.576968e+001 
3071875000  -2.463430e+001  7.269245e+001 
3075000000  -2.468875e+001  6.900243e+001 
3078125000  -2.435724e+001  6.440888e+001 
3081250000  -2.501099e+001  6.023850e+001 
3084375000  -2.426056e+001  5.664140e+001 
3087500000  -2.412552e+001  5.321177e+001 
3090625000  -2.385213e+001  4.368728e+001 
3093750000  -2.420366e+001  3.551976e+001 
3096875000  -2.552423e+001  2.925268e+001 
3100000000  -2.568846e+001  2.793987e+001 
3103125000  -2.605288e+001  2.944111e+001 
3106250000  -2.580303e+001  2.582735e+001 
3109375000  -2.604467e+001  2.231297e+001 
3112500000  -2.615495e+001  2.147283e+001 
3115625000  -2.589839e+001  1.706595e+001 
3118750000  -2.644662e+001  1.829727e+001 
3121875000  -2.581297e+001  1.074602e+001 
3125000000  -2.688415e+001  6.807349e+000 
3128125000  -2.814102e+001  1.446147e+001 
3131250000  -2.597559e+001  1.567019e+001 
3134375000  -2.462064e+001  2.203868e+000 
3137500000  -2.519971e+001  -1.221451e+001 
3140625000  -2.694763e+001  -1.386201e+001 
3143750000  -2.796212e+001  -9.226213e+000 
3146875000  -2.751639e+001  -7.549243e+000 
3150000000  -2.653189e+001  -5.143723e+000 
3153125000  -2.644993e+001  -1.310991e+001 
3156250000  -2.745576e+001  -7.770357e+000 
3159375000  -2.594249e+001  -4.750700e+000 
3162500000  -2.386028e+001  -1.742320e+001 
3165625000  -2.477556e+001  -2.853632e+001 
3168750000  -2.524690e+001  -2.756907e+001 
3171875000  -2.426546e+001  -3.162586e+001 
3175000000  -2.490199e+001  -3.958712e+001 
3178125000  -2.473638e+001  -3.778894e+001 
3181250000  -2.352559e+001  -4.169249e+001 
3184375000  -2.262003e+001  -5.382687e+001 
3187500000  -2.368866e+001  -6.919296e+001 
3190625000  -2.657967e+001  -7.689845e+001 
3193750000  -2.723223e+001  -6.744221e+001 
3196875000  -2.681682e+001  -6.192573e+001 
3200000000  -2.597065e+001  -6.348935e+001 
3203125000  -2.508858e+001  -6.915115e+001 
3206250000  -2.534296e+001  -7.535201e+001 
3209375000  -2.488002e+001  -8.044307e+001 
3212500000  -2.494424e+001  -8.703287e+001 
3215625000  -2.511963e+001  -9.175742e+001 
3218750000  -2.590671e+001  -9.801216e+001 
3221875000  -2.689120e+001  -1.029129e+002 
3225000000  -2.651897e+001  -1.033651e+002 
3228125000  -2.679815e+001  -1.077104e+002 
3231250000  -2.756588e+001  -1.105346e+002 
3234375000  -2.745880e+001  -1.097190e+002 
3237500000  -2.744837e+001  -1.114580e+002 
3240625000  -2.717168e+001  -1.130372e+002 
3243750000  -2.676228e+001  -1.194865e+002 
3246875000  -2.720970e+001  -1.260382e+002 
3250000000  -2.769722e+001  -1.283678e+002 
3253125000  -2.782364e+001  -1.296728e+002 
3256250000  -2.771079e+001  -1.356001e+002 
3259375000  -2.800578e+001  -1.432849e+002 
3262500000  -2.926030e+001  -1.459733e+002 
3265625000  -2.996768e+001  -1.428901e+002 
3268750000  -2.996554e+001  -1.404013e+002 
3271875000  -2.979963e+001  -1.388785e+002 
3275000000  -2.864545e+001  -1.435142e+002 
3278125000  -2.912455e+001  -1.498919e+002 
3281250000  -2.935834e+001  -1.483427e+002 
3284375000  -2.895535e+001  -1.541679e+002 
3287500000  -2.906160e+001  -1.570035e+002 
3290625000  -2.952524e+001  -1.612128e+002 
3293750000  -2.926452e+001  -1.667606e+002 
3296875000  -3.018269e+001  -1.666474e+002 
3300000000  -3.009446e+001  -1.660201e+002 
3303125000  -2.897950e+001  -1.697255e+002 
3306250000  -2.876879e+001  -1.760957e+002 
3309375000  -2.853689e+001  1.791609e+002 
3312500000  -2.851130e+001  1.686548e+002 
3315625000  -2.949195e+001  1.608618e+002 
3318750000  -3.085399e+001  1.580973e+002 
3321875000  -3.209550e+001  1.579312e+002 
3325000000  -3.260494e+001  1.623547e+002 
3328125000  -3.267273e+001  1.633068e+002 
3331250000  -3.141020e+001  1.718136e+002 
3334375000  -2.882951e+001  1.625479e+002 
3337500000  -2.875147e+001  1.445542e+002 
3340625000  -3.011902e+001  1.335315e+002 
3343750000  -3.211102e+001  1.317214e+002 
3346875000  -3.273145e+001  1.329349e+002 
3350000000  -3.198557e+001  1.323379e+002 
3353125000  -3.209562e+001  1.279104e+002 
3356250000  -3.195249e+001  1.200007e+002 
3359375000  -3.272531e+001  1.113713e+002 
3362500000  -3.404690e+001  1.064316e+002 
3365625000  -3.462539e+001  1.048243e+002 
3368750000  -3.559573e+001  1.035039e+002 
3371875000  -3.599400e+001  1.005103e+002 
3375000000  -3.748884e+001  9.847896e+001 
3378125000  -3.861579e+001  9.688738e+001 
3381250000  -4.009402e+001  1.038767e+002 
3384375000  -3.950694e+001  1.239855e+002 
3387500000  -3.642555e+001  1.135723e+002 
3390625000  -3.800719e+001  9.267123e+001 
3393750000  -4.005163e+001  9.823995e+001 
3396875000  -3.886071e+001  1.004169e+002 
3400000000  -3.901713e+001  9.380270e+001 
3403125000  -3.993369e+001  8.867585e+001 
3406250000  -4.089820e+001  9.186505e+001 
3409375000  -4.140908e+001  8.883262e+001 
3412500000  -4.213465e+001  8.963030e+001 
3415625000  -4.320987e+001  9.578494e+001 
3418750000  -4.338164e+001  9.804469e+001 
3421875000  -4.370361e+001  1.062363e+002 
3425000000  -4.285723e+001  1.079926e+002 
3428125000  -4.199203e+001  1.071280e+002 
3431250000  -4.198983e+001  1.042379e+002 
3434375000  -4.167064e+001  1.019356e+002 
3437500000  -4.208130e+001  1.007194e+002 
3440625000  -4.265659e+001  1.008873e+002 
3443750000  -4.131646e+001  1.048054e+002 
3446875000  -4.036255e+001  9.964900e+001 
3450000000  -4.042941e+001  9.112099e+001 
3453125000  -4.042973e+001  8.250171e+001 
3456250000  -4.174592e+001  7.658523e+001 
3459375000  -4.265649e+001  8.043447e+001 
3462500000  -4.261678e+001  8.013949e+001 
3465625000  -4.278265e+001  7.374349e+001 
3468750000  -4.327831e+001  7.491955e+001 
3471875000  -4.340699e+001  7.564698e+001 
3475000000  -4.297116e+001  7.054839e+001 
3478125000  -4.401125e+001  6.527473e+001 
3481250000  -4.551236e+001  6.556203e+001 
3484375000  -4.659132e+001  7.047369e+001 
3487500000  -4.598481e+001  7.069055e+001 
3490625000  -4.608802e+001  7.002836e+001 
3493750000  -4.637317e+001  6.623534e+001 
3496875000  -4.743702e+001  7.259921e+001 
3500000000  -4.857021e+001  7.585312e+001 
3503125000  -4.808758e+001  7.841118e+001 
3506250000  -4.687249e+001  8.377471e+001 
3509375000  -4.733912e+001  8.260860e+001 
3512500000  -4.827003e+001  8.248559e+001 
3515625000  -4.804184e+001  8.044592e+001 
3518750000  -4.835351e+001  8.889417e+001 
3521875000  -4.805887e+001  9.257624e+001 
3525000000  -4.733812e+001  9.562587e+001 
3528125000  -4.841905e+001  1.022370e+002 
3531250000  -4.584182e+001  1.078322e+002 
3534375000  -4.501823e+001  9.760387e+001 
3537500000  -4.531612e+001  9.224731e+001 
3540625000  -4.516255e+001  9.489359e+001 
3543750000  -4.593501e+001  9.503786e+001 
3546875000  -4.604043e+001  1.071772e+002 
3550000000  -4.276237e+001  1.099320e+002 
3553125000  -4.159443e+001  9.639523e+001 
3556250000  -4.228262e+001  8.861688e+001 
3559375000  -4.242333e+001  9.179255e+001 
3562500000  -4.099200e+001  8.417297e+001 
3565625000  -4.189768e+001  7.735379e+001 
3568750000  -4.165601e+001  8.161125e+001 
3571875000  -4.134285e+001  7.914915e+001 
3575000000  -4.105677e+001  7.581069e+001 
3578125000  -4.159438e+001  7.187447e+001 
3581250000  -4.110134e+001  7.158227e+001 
3584375000  -4.049958e+001  7.078448e+001 
3587500000  -3.996693e+001  6.616801e+001 
3590625000  -4.024700e+001  5.512578e+001 
3593750000  -4.128873e+001  5.370021e+001 
3596875000  -4.141787e+001  6.337553e+001 
3600000000  -3.960019e+001  5.946393e+001 
3603125000  -3.983068e+001  4.730191e+001 
3606250000  -4.047725e+001  4.406717e+001 
3609375000  -4.083089e+001  4.207788e+001 
3612500000  -4.158935e+001  4.163201e+001 
3615625000  -4.147633e+001  4.032940e+001 
3618750000  -4.196031e+001  4.139122e+001 
3621875000  -4.160355e+001  3.914504e+001 
3625000000  -4.180201e+001  3.882078e+001 
3628125000  -4.195631e+001  3.843369e+001 
3631250000  -4.124088e+001  3.594674e+001 
3634375000  -4.234879e+001  3.683672e+001 
3637500000  -4.225333e+001  4.163359e+001 
3640625000  -4.111169e+001  4.445385e+001 
3643750000  -4.060840e+001  3.715717e+001 
3646875000  -4.125979e+001  3.100216e+001 
3650000000  -4.160003e+001  3.069573e+001 
3653125000  -4.181668e+001  3.110831e+001 
3656250000  -4.160449e+001  3.022833e+001 
3659375000  -4.197950e+001  3.539889e+001 
3662500000  -4.142889e+001  3.253244e+001 
3665625000  -4.160382e+001  3.355400e+001 
3668750000  -4.039846e+001  3.493634e+001 
3671875000  -3.932256e+001  3.155281e+001 
3675000000  -3.978041e+001  2.434748e+001 
3678125000  -4.011864e+001  2.770427e+001 
3681250000  -3.987794e+001  2.746623e+001 
3684375000  -3.968283e+001  2.524847e+001 
3687500000  -3.987672e+001  2.356251e+001 
3690625000  -3.982191e+001  2.194217e+001 
3693750000  -4.021400e+001  2.481020e+001 
3696875000  -3.986240e+001  2.672476e+001 
3700000000  -3.899805e+001  2.368252e+001 
3703125000  -3.876861e+001  2.084123e+001 
3706250000  -3.946537e+001  2.366861e+001 
3709375000  -3.852063e+001  2.563308e+001 
3712500000  -3.741047e+001  2.436377e+001 
3715625000  -3.631563e+001  1.987127e+001 
3718750000  -3.560205e+001  1.672809e+001 
3721875000  -3.517260e+001  1.164204e+001 
3725000000  -3.504637e+001  6.281458e+000 
3728125000  -3.521780e+001  5.299931e+000 
3731250000  -3.453606e+001  5.468019e+000 
3734375000  -3.361823e+001  -1.213331e+000 
3737500000  -3.412593e+001  -7.818849e+000 
3740625000  -3.480733e+001  -1.103865e+001 
3743750000  -3.455674e+001  -1.395717e+001 
3746875000  -3.453136e+001  -1.603064e+001 
3750000000  -3.483474e+001  -1.648418e+001 
3753125000  -3.449347e+001  -1.786158e+001 
3756250000  -3.452771e+001  -1.840166e+001 
3759375000  -3.426785e+001  -1.924049e+001 
3762500000  -3.366325e+001  -2.335558e+001 
3765625000  -3.420666e+001  -2.594475e+001 
3768750000  -3.425455e+001  -2.370389e+001 
3771875000  -3.259819e+001  -2.587870e+001 
3775000000  -3.216119e+001  -3.401497e+001 
3778125000  -3.255378e+001  -3.532731e+001 
3781250000  -3.238995e+001  -3.797170e+001 
3784375000  -3.232842e+001  -3.965066e+001 
3787500000  -3.174457e+001  -4.392964e+001 
3790625000  -3.224946e+001  -4.894855e+001 
3793750000  -3.242333e+001  -5.076726e+001 
3796875000  -3.154146e+001  -5.141499e+001 
3800000000  -2.999868e+001  -5.510268e+001 
3803125000  -3.067273e+001  -6.140261e+001 
3806250000  -3.140132e+001  -6.379983e+001 
3809375000  -3.108993e+001  -6.507457e+001 
3812500000  -3.043964e+001  -7.046467e+001 
3815625000  -3.094555e+001  -7.703725e+001 
3818750000  -3.186413e+001  -7.931177e+001 
3821875000  -3.206572e+001  -7.195582e+001 
3825000000  -3.020536e+001  -6.691974e+001 
3828125000  -2.878524e+001  -8.003579e+001 
3831250000  -2.929514e+001  -9.374666e+001 
3834375000  -3.046701e+001  -9.526347e+001 
3837500000  -3.150770e+001  -9.016050e+001 
3840625000  -3.035401e+001  -9.127668e+001 
3843750000  -2.918615e+001  -1.005267e+002 
3846875000  -2.980381e+001  -1.091378e+002 
3850000000  -3.113339e+001  -1.036187e+002 
3853125000  -3.040234e+001  -9.964263e+001 
3856250000  -3.042349e+001  -1.045775e+002 
3859375000  -2.967452e+001  -1.091278e+002 
3862500000  -2.927977e+001  -1.164632e+002 
3865625000  -2.947821e+001  -1.209496e+002 
3868750000  -2.954859e+001  -1.217343e+002 
3871875000  -2.890603e+001  -1.246054e+002 
3875000000  -2.893587e+001  -1.329539e+002 
3878125000  -2.994704e+001  -1.360521e+002 
3881250000  -3.012155e+001  -1.329072e+002 
3884375000  -2.962386e+001  -1.378565e+002 
3887500000  -2.970519e+001  -1.414431e+002 
3890625000  -3.024442e+001  -1.436631e+002 
3893750000  -3.057227e+001  -1.455009e+002 
3896875000  -3.062736e+001  -1.448663e+002 
3900000000  -3.108576e+001  -1.459463e+002 
3903125000  -3.066002e+001  -1.472401e+002 
3906250000  -3.035897e+001  -1.485119e+002 
3909375000  -2.968045e+001  -1.505660e+002 
3912500000  -2.955282e+001  -1.575026e+002 
3915625000  -3.078975e+001  -1.575493e+002 
3918750000  -3.094204e+001  -1.554870e+002 
3921875000  -3.061087e+001  -1.569348e+002 
3925000000  -2.980066e+001  -1.576961e+002 
3928125000  -2.899722e+001  -1.630629e+002 
3931250000  -2.942869e+001  -1.673563e+002 
3934375000  -2.968640e+001  -1.671522e+002 
3937500000  -2.986752e+001  -1.673693e+002 
3940625000  -3.020677e+001  -1.677379e+002 
3943750000  -2.945145e+001  -1.665570e+002 
3946875000  -2.806737e+001  -1.715233e+002 
3950000000  -2.860548e+001  -1.788346e+002 
3953125000  -2.950076e+001  -1.790644e+002 
3956250000  -2.873405e+001  -1.755293e+002 
3959375000  -2.739557e+001  -1.794098e+002 
3962500000  -2.682258e+001  1.769671e+002 
3965625000  -2.645863e+001  1.679876e+002 
3968750000  -2.732483e+001  1.612052e+002 
3971875000  -2.783534e+001  1.600485e+002 
3975000000  -2.717116e+001  1.576904e+002 
3978125000  -2.696485e+001  1.567749e+002 
3981250000  -2.665832e+001  1.523759e+002 
3984375000  -2.692293e+001  1.458710e+002 
3987500000  -2.740978e+001  1.436954e+002 
3990625000  -2.740600e+001  1.427826e+002 
3993750000  -2.767589e+001  1.395041e+002 
3996875000  -2.755540e+001  1.370812e+002 
4000000000  -2.772315e+001  1.353051e+002 
4003125000  -2.829941e+001  1.373414e+002 
4006250000  -2.696953e+001  1.374104e+002 
4009375000  -2.574225e+001  1.252812e+002 
4012500000  -2.679202e+001  1.180135e+002 
4015625000  -2.799670e+001  1.185933e+002 
4018750000  -2.824449e+001  1.210344e+002 
4021875000  -2.759103e+001  1.193461e+002 
4025000000  -2.717781e+001  1.148503e+002 
4028125000  -2.712749e+001  1.108876e+002 
4031250000  -2.759932e+001  1.078187e+002 
4034375000  -2.791502e+001  1.075317e+002 
4037500000  -2.742430e+001  1.092759e+002 
4040625000  -2.728901e+001  1.060798e+002 
4043750000  -2.759377e+001  1.056627e+002 
4046875000  -2.721869e+001  1.053326e+002 
4050000000  -2.663175e+001  9.985197e+001 
4053125000  -2.715869e+001  9.729858e+001 
4056250000  -2.770654e+001  1.017188e+002 
4059375000  -2.661309e+001  1.034557e+002 
4062500000  -2.517913e+001  9.940969e+001 
4065625000  -2.495322e+001  9.421042e+001 
4068750000  -2.470382e+001  9.002726e+001 
4071875000  -2.411620e+001  8.227406e+001 
4075000000  -2.439608e+001  7.571576e+001 
4078125000  -2.497160e+001  7.455259e+001 
4081250000  -2.444552e+001  7.207846e+001 
4084375000  -2.405124e+001  6.565449e+001 
4087500000  -2.438607e+001  5.953608e+001 
4090625000  -2.496307e+001  5.800695e+001 
4093750000  -2.482459e+001  5.919663e+001 
4096875000  -2.436440e+001  5.320356e+001 
4100000000  -2.503786e+001  4.609997e+001 
4103125000  -2.588616e+001  4.647433e+001 
4106250000  -2.584148e+001  5.093516e+001 
4109375000  -2.496454e+001  5.097288e+001 
4112500000  -2.439417e+001  4.419594e+001 
4115625000  -2.472107e+001  3.974505e+001 
4118750000  -2.484411e+001  3.711927e+001 
4121875000  -2.447094e+001  3.283283e+001 
4125000000  -2.475747e+001  2.739185e+001 
4128125000  -2.571130e+001  2.719315e+001 
4131250000  -2.561423e+001  3.520757e+001 
4134375000  -2.327964e+001  3.101585e+001 
4137500000  -2.301118e+001  1.281099e+001 
4140625000  -2.508066e+001  5.352262e+000 
4143750000  -2.646654e+001  9.627871e+000 
4146875000  -2.609896e+001  1.759372e+001 
4150000000  -2.519467e+001  1.455716e+001 
4153125000  -2.501300e+001  8.178333e+000 
4156250000  -2.583366e+001  5.447915e+000 
4159375000  -2.615608e+001  9.426733e+000 
4162500000  -2.506054e+001  1.439780e+001 
4165625000  -2.387562e+001  9.853256e+000 
4168750000  -2.329013e+001  3.331983e+000 
4171875000  -2.325753e+001  -5.839575e+000 
4175000000  -2.388945e+001  -1.186342e+001 
4178125000  -2.446844e+001  -1.157420e+001 
4181250000  -2.439557e+001  -1.195712e+001 
4184375000  -2.419225e+001  -1.505414e+001 
4187500000  -2.425124e+001  -1.804760e+001 
4190625000  -2.402193e+001  -2.325042e+001 
4193750000  -2.475845e+001  -2.728369e+001 
4196875000  -2.543771e+001  -2.780085e+001 
4200000000  -2.628445e+001  -2.586996e+001 
4203125000  -2.647197e+001  -1.331815e+001 
4206250000  -2.317899e+001  -1.067822e+001 
4209375000  -2.186438e+001  -3.060127e+001 
4212500000  -2.374599e+001  -3.967463e+001 
4215625000  -2.474646e+001  -3.438006e+001 
4218750000  -2.353595e+001  -2.714104e+001 
4221875000  -2.113524e+001  -3.613181e+001 
4225000000  -2.237803e+001  -4.886036e+001 
4228125000  -2.313533e+001  -4.430936e+001 
4231250000  -2.153722e+001  -4.732056e+001 
4234375000  -2.149514e+001  -5.595847e+001 
4237500000  -2.109411e+001  -5.915329e+001 
4240625000  -2.107172e+001  -6.737022e+001 
4243750000  -2.199243e+001  -7.418011e+001 
4246875000  -2.288327e+001  -7.457721e+001 
4250000000  -2.296510e+001  -7.166296e+001 
4253125000  -2.236111e+001  -7.365471e+001 
4256250000  -2.262859e+001  -7.782903e+001 
4259375000  -2.246393e+001  -7.997108e+001 
4262500000  -2.247656e+001  -8.328962e+001 
4265625000  -2.265362e+001  -8.315014e+001 
4268750000  -2.174151e+001  -8.709038e+001 
4271875000  -2.149173e+001  -9.254730e+001 
4275000000  -2.090474e+001  -9.895396e+001 
4278125000  -2.146611e+001  -1.099099e+002 
4281250000  -2.324105e+001  -1.125383e+002 
4284375000  -2.300602e+001  -1.112868e+002 
4287500000  -2.369115e+001  -1.149985e+002 
4290625000  -2.507576e+001  -1.059173e+002 
4293750000  -2.308138e+001  -1.000466e+002 
4296875000  -2.167426e+001  -1.111671e+002 
4300000000  -2.251389e+001  -1.202537e+002 
4303125000  -2.362293e+001  -1.198828e+002 
4306250000  -2.316797e+001  -1.134374e+002 
4309375000  -2.172388e+001  -1.151730e+002 
4312500000  -2.159171e+001  -1.232710e+002 
4315625000  -2.178614e+001  -1.296334e+002 
4318750000  -2.203357e+001  -1.327408e+002 
4321875000  -2.223831e+001  -1.324949e+002 
4325000000  -2.171630e+001  -1.317822e+002 
4328125000  -2.119351e+001  -1.378820e+002 
4331250000  -2.112504e+001  -1.458779e+002 
4334375000  -2.149937e+001  -1.507905e+002 
4337500000  -2.226860e+001  -1.531607e+002 
4340625000  -2.289899e+001  -1.502973e+002 
4343750000  -2.231663e+001  -1.498644e+002 
4346875000  -2.194039e+001  -1.552295e+002 
4350000000  -2.192548e+001  -1.594976e+002 
4353125000  -2.193610e+001  -1.671589e+002 
4356250000  -2.358692e+001  -1.684787e+002 
4359375000  -2.428916e+001  -1.559292e+002 
4362500000  -2.183597e+001  -1.538849e+002 
4365625000  -2.010322e+001  -1.648544e+002 
4368750000  -2.071326e+001  -1.769132e+002 
4371875000  -2.196847e+001  -1.765010e+002 
4375000000  -2.166294e+001  -1.751666e+002 
4378125000  -2.103037e+001  1.789543e+002 
4381250000  -2.116082e+001  1.734919e+002 
4384375000  -2.100123e+001  1.689484e+002 
4387500000  -2.167354e+001  1.634926e+002 
4390625000  -2.272545e+001  1.640736e+002 
4393750000  -2.209950e+001  1.661980e+002 
4396875000  -2.139894e+001  1.640793e+002 
4400000000  -2.094015e+001  1.573049e+002 
4403125000  -2.145070e+001  1.498403e+002 
4406250000  -2.232921e+001  1.483472e+002 
4409375000  -2.226789e+001  1.459820e+002 
4412500000  -2.329060e+001  1.434102e+002 
4415625000  -2.374559e+001  1.476301e+002 
4418750000  -2.255950e+001  1.526995e+002 
