!Agilent Technologies,E8363B,MY43030201,A.06.04.32
!Agilent E8363B: A.06.04.32
!Date: Tuesday, November 11, 2014 20:52:04
!Correction: S21(Response(S21)) 
!S1P File: Measurement: S21:
# Hz S  dB   R 50
3000000000  -2.648817e+001  1.508368e+002 
3003125000  -2.789958e+001  1.461688e+002 
3006250000  -2.797819e+001  1.437737e+002 
3009375000  -2.831251e+001  1.486073e+002 
3012500000  -2.778561e+001  1.481601e+002 
3015625000  -2.685120e+001  1.411701e+002 
3018750000  -2.769787e+001  1.402084e+002 
3021875000  -2.641021e+001  1.419225e+002 
3025000000  -2.508829e+001  1.384814e+002 
3028125000  -2.414020e+001  1.335902e+002 
3031250000  -2.308822e+001  1.223120e+002 
3034375000  -2.275718e+001  1.095132e+002 
3037500000  -2.311319e+001  9.751129e+001 
3040625000  -2.442673e+001  9.256500e+001 
3043750000  -2.512492e+001  8.793112e+001 
3046875000  -2.525879e+001  8.182774e+001 
3050000000  -2.700016e+001  7.503048e+001 
3053125000  -2.711721e+001  8.134532e+001 
3056250000  -2.645604e+001  8.465510e+001 
3059375000  -2.668480e+001  8.428233e+001 
3062500000  -2.525313e+001  8.040697e+001 
3065625000  -2.498673e+001  7.466969e+001 
3068750000  -2.470695e+001  6.736362e+001 
3071875000  -2.464543e+001  6.456600e+001 
3075000000  -2.460189e+001  6.079322e+001 
3078125000  -2.432414e+001  5.621960e+001 
3081250000  -2.500740e+001  5.209560e+001 
3084375000  -2.424408e+001  4.837061e+001 
3087500000  -2.410900e+001  4.486799e+001 
3090625000  -2.384719e+001  3.515312e+001 
3093750000  -2.429779e+001  2.710270e+001 
3096875000  -2.557662e+001  2.103453e+001 
3100000000  -2.567869e+001  1.977187e+001 
3103125000  -2.605284e+001  2.093820e+001 
3106250000  -2.579375e+001  1.768928e+001 
3109375000  -2.604259e+001  1.392627e+001 
3112500000  -2.619615e+001  1.307612e+001 
3115625000  -2.597637e+001  9.014587e+000 
3118750000  -2.645622e+001  1.012201e+001 
3121875000  -2.579123e+001  2.328608e+000 
3125000000  -2.698079e+001  -1.482742e+000 
3128125000  -2.820224e+001  6.806092e+000 
3131250000  -2.594476e+001  7.222393e+000 
3134375000  -2.462854e+001  -6.481633e+000 
3137500000  -2.534177e+001  -2.014920e+001 
3140625000  -2.691870e+001  -2.153770e+001 
3143750000  -2.796641e+001  -1.764359e+001 
3146875000  -2.750516e+001  -1.551453e+001 
3150000000  -2.651478e+001  -1.329095e+001 
3153125000  -2.649879e+001  -2.117895e+001 
3156250000  -2.749793e+001  -1.565756e+001 
3159375000  -2.592812e+001  -1.279049e+001 
3162500000  -2.390080e+001  -2.574546e+001 
3165625000  -2.486686e+001  -3.670630e+001 
3168750000  -2.521765e+001  -3.576017e+001 
3171875000  -2.425168e+001  -3.984323e+001 
3175000000  -2.492534e+001  -4.772435e+001 
3178125000  -2.467347e+001  -4.595019e+001 
3181250000  -2.351557e+001  -5.006601e+001 
3184375000  -2.274331e+001  -6.220406e+001 
3187500000  -2.384790e+001  -7.732610e+001 
3190625000  -2.662408e+001  -8.483215e+001 
3193750000  -2.721365e+001  -7.503837e+001 
3196875000  -2.678866e+001  -7.005657e+001 
3200000000  -2.589890e+001  -7.169003e+001 
3203125000  -2.504757e+001  -7.753841e+001 
3206250000  -2.533455e+001  -8.367385e+001 
3209375000  -2.486676e+001  -8.885381e+001 
3212500000  -2.503068e+001  -9.549860e+001 
3215625000  -2.512370e+001  -9.964513e+001 
3218750000  -2.590017e+001  -1.058427e+002 
3221875000  -2.690633e+001  -1.107865e+002 
3225000000  -2.646692e+001  -1.115546e+002 
3228125000  -2.681902e+001  -1.160401e+002 
3231250000  -2.756212e+001  -1.185209e+002 
3234375000  -2.740952e+001  -1.179108e+002 
3237500000  -2.743835e+001  -1.193939e+002 
3240625000  -2.707989e+001  -1.209659e+002 
3243750000  -2.675055e+001  -1.277091e+002 
3246875000  -2.725052e+001  -1.343775e+002 
3250000000  -2.768075e+001  -1.362276e+002 
3253125000  -2.782343e+001  -1.378625e+002 
3256250000  -2.778969e+001  -1.440658e+002 
3259375000  -2.803491e+001  -1.512477e+002 
3262500000  -2.931280e+001  -1.541336e+002 
3265625000  -2.999930e+001  -1.507184e+002 
3268750000  -2.989061e+001  -1.480973e+002 
3271875000  -2.975246e+001  -1.472521e+002 
3275000000  -2.861128e+001  -1.523602e+002 
3278125000  -2.907488e+001  -1.583533e+002 
3281250000  -2.939468e+001  -1.564173e+002 
3284375000  -2.893617e+001  -1.624452e+002 
3287500000  -2.909730e+001  -1.647986e+002 
3290625000  -2.947331e+001  -1.691137e+002 
3293750000  -2.915652e+001  -1.747596e+002 
3296875000  -3.021860e+001  -1.749844e+002 
3300000000  -3.008969e+001  -1.734912e+002 
3303125000  -2.899483e+001  -1.774712e+002 
3306250000  -2.871975e+001  1.757908e+002 
3309375000  -2.850111e+001  1.705090e+002 
3312500000  -2.850087e+001  1.601635e+002 
3315625000  -2.953196e+001  1.525917e+002 
3318750000  -3.083441e+001  1.501431e+002 
3321875000  -3.218226e+001  1.494167e+002 
3325000000  -3.262627e+001  1.546590e+002 
3328125000  -3.244448e+001  1.565322e+002 
3331250000  -3.126680e+001  1.643112e+002 
3334375000  -2.870146e+001  1.542454e+002 
3337500000  -2.875379e+001  1.359672e+002 
3340625000  -3.015358e+001  1.249856e+002 
3343750000  -3.207002e+001  1.238105e+002 
3346875000  -3.253489e+001  1.253100e+002 
3350000000  -3.195770e+001  1.237417e+002 
3353125000  -3.201199e+001  1.196071e+002 
3356250000  -3.177643e+001  1.114157e+002 
3359375000  -3.271247e+001  1.034647e+002 
3362500000  -3.390532e+001  9.782849e+001 
3365625000  -3.451173e+001  9.687055e+001 
3368750000  -3.552068e+001  9.507233e+001 
3371875000  -3.598031e+001  9.120583e+001 
3375000000  -3.748111e+001  8.909590e+001 
3378125000  -3.855125e+001  8.904632e+001 
3381250000  -4.004227e+001  9.657465e+001 
3384375000  -3.940928e+001  1.178310e+002 
3387500000  -3.606392e+001  1.041495e+002 
3390625000  -3.779084e+001  8.422742e+001 
3393750000  -3.960221e+001  8.836883e+001 
3396875000  -3.874598e+001  9.249364e+001 
3400000000  -3.892471e+001  8.608772e+001 
3403125000  -3.977954e+001  8.049986e+001 
3406250000  -4.061615e+001  8.431258e+001 
3409375000  -4.140116e+001  7.955772e+001 
3412500000  -4.223220e+001  8.236549e+001 
3415625000  -4.314933e+001  8.560135e+001 
3418750000  -4.339961e+001  9.034314e+001 
3421875000  -4.318237e+001  9.795005e+001 
3425000000  -4.272923e+001  1.009235e+002 
3428125000  -4.152679e+001  1.005245e+002 
3431250000  -4.181273e+001  9.523296e+001 
3434375000  -4.154157e+001  9.259778e+001 
3437500000  -4.199696e+001  9.124895e+001 
3440625000  -4.218599e+001  9.492164e+001 
3443750000  -4.088839e+001  9.549007e+001 
3446875000  -4.001332e+001  9.226242e+001 
3450000000  -3.975891e+001  8.277317e+001 
3453125000  -4.018607e+001  7.331409e+001 
3456250000  -4.140331e+001  6.760352e+001 
3459375000  -4.233282e+001  7.050600e+001 
3462500000  -4.251448e+001  7.064550e+001 
3465625000  -4.251695e+001  6.733192e+001 
3468750000  -4.284581e+001  6.454124e+001 
3471875000  -4.313539e+001  6.766002e+001 
3475000000  -4.275252e+001  6.160814e+001 
3478125000  -4.340925e+001  5.513729e+001 
3481250000  -4.468525e+001  5.540177e+001 
3484375000  -4.645499e+001  5.863110e+001 
3487500000  -4.560515e+001  6.126572e+001 
3490625000  -4.539053e+001  5.815751e+001 
3493750000  -4.613910e+001  5.831837e+001 
3496875000  -4.682974e+001  5.952758e+001 
3500000000  -4.797041e+001  6.557023e+001 
3503125000  -4.802320e+001  7.140932e+001 
3506250000  -4.710110e+001  7.095992e+001 
3509375000  -4.674386e+001  6.754465e+001 
3512500000  -4.766280e+001  6.739788e+001 
3515625000  -4.781134e+001  7.220390e+001 
3518750000  -4.796485e+001  7.899594e+001 
3521875000  -4.810422e+001  8.249257e+001 
3525000000  -4.832328e+001  8.458605e+001 
3528125000  -4.763445e+001  9.108366e+001 
3531250000  -4.551649e+001  9.391636e+001 
3534375000  -4.515531e+001  8.552676e+001 
3537500000  -4.474867e+001  8.403325e+001 
3540625000  -4.534749e+001  8.283791e+001 
3543750000  -4.583059e+001  8.589680e+001 
3546875000  -4.523914e+001  9.774915e+001 
3550000000  -4.308872e+001  1.003846e+002 
3553125000  -4.139971e+001  8.216845e+001 
3556250000  -4.235113e+001  7.766544e+001 
3559375000  -4.199553e+001  8.020689e+001 
3562500000  -4.069308e+001  7.346500e+001 
3565625000  -4.163781e+001  6.607571e+001 
3568750000  -4.198987e+001  6.936503e+001 
3571875000  -4.167461e+001  7.047791e+001 
3575000000  -4.113064e+001  6.506074e+001 
3578125000  -4.157764e+001  6.083845e+001 
3581250000  -4.146894e+001  6.041604e+001 
3584375000  -4.061925e+001  5.981500e+001 
3587500000  -3.988773e+001  5.393001e+001 
3590625000  -4.015120e+001  4.517243e+001 
3593750000  -4.135453e+001  4.307549e+001 
3596875000  -4.145533e+001  5.192134e+001 
3600000000  -3.992431e+001  4.933742e+001 
3603125000  -4.006503e+001  3.599576e+001 
3606250000  -4.069740e+001  3.419640e+001 
3609375000  -4.098117e+001  3.296104e+001 
3612500000  -4.166278e+001  3.324748e+001 
3615625000  -4.153754e+001  2.837092e+001 
3618750000  -4.229911e+001  3.276916e+001 
3621875000  -4.175481e+001  3.017939e+001 
3625000000  -4.165681e+001  2.951902e+001 
3628125000  -4.155048e+001  2.898058e+001 
3631250000  -4.155426e+001  2.551451e+001 
3634375000  -4.221719e+001  2.737680e+001 
3637500000  -4.194239e+001  3.331484e+001 
3640625000  -4.073927e+001  3.380638e+001 
3643750000  -4.054749e+001  2.740243e+001 
3646875000  -4.136544e+001  2.150040e+001 
3650000000  -4.151809e+001  2.236398e+001 
3653125000  -4.132096e+001  2.060976e+001 
3656250000  -4.166266e+001  2.095981e+001 
3659375000  -4.201661e+001  2.249522e+001 
3662500000  -4.101970e+001  2.172292e+001 
3665625000  -4.134652e+001  2.148507e+001 
3668750000  -4.031006e+001  2.486986e+001 
3671875000  -3.932260e+001  1.796955e+001 
3675000000  -3.956142e+001  1.345748e+001 
3678125000  -4.034956e+001  1.482943e+001 
3681250000  -3.959261e+001  1.591674e+001 
3684375000  -3.974561e+001  1.297087e+001 
3687500000  -3.970098e+001  1.354752e+001 
3690625000  -3.972894e+001  9.899354e+000 
3693750000  -4.011783e+001  1.206995e+001 
3696875000  -4.013810e+001  1.429947e+001 
3700000000  -3.877786e+001  1.329661e+001 
3703125000  -3.866193e+001  1.077859e+001 
3706250000  -3.946342e+001  1.180077e+001 
3709375000  -3.865880e+001  1.487154e+001 
3712500000  -3.757835e+001  1.545237e+001 
3715625000  -3.653197e+001  9.818746e+000 
3718750000  -3.582295e+001  6.732176e+000 
3721875000  -3.540291e+001  1.708824e+000 
3725000000  -3.531133e+001  -3.643120e+000 
3728125000  -3.556710e+001  -3.954806e+000 
3731250000  -3.468741e+001  -5.257897e+000 
3734375000  -3.371320e+001  -1.098252e+001 
3737500000  -3.426983e+001  -1.791885e+001 
3740625000  -3.468747e+001  -2.154731e+001 
3743750000  -3.467453e+001  -2.319090e+001 
3746875000  -3.453468e+001  -2.709767e+001 
3750000000  -3.500198e+001  -2.751708e+001 
3753125000  -3.465511e+001  -2.793374e+001 
3756250000  -3.443232e+001  -2.872087e+001 
3759375000  -3.423504e+001  -2.962885e+001 
3762500000  -3.370998e+001  -3.335627e+001 
3765625000  -3.412705e+001  -3.601181e+001 
3768750000  -3.435677e+001  -3.396943e+001 
3771875000  -3.241397e+001  -3.561016e+001 
3775000000  -3.214003e+001  -4.389667e+001 
3778125000  -3.250898e+001  -4.584509e+001 
3781250000  -3.241449e+001  -4.855667e+001 
3784375000  -3.222217e+001  -5.057402e+001 
3787500000  -3.159099e+001  -5.438466e+001 
3790625000  -3.221726e+001  -5.977358e+001 
3793750000  -3.237192e+001  -6.087747e+001 
3796875000  -3.141909e+001  -6.233681e+001 
3800000000  -2.988069e+001  -6.521549e+001 
3803125000  -3.073289e+001  -7.240630e+001 
3806250000  -3.139530e+001  -7.456539e+001 
3809375000  -3.111125e+001  -7.605882e+001 
3812500000  -3.043747e+001  -8.174863e+001 
3815625000  -3.104362e+001  -8.838806e+001 
3818750000  -3.206590e+001  -9.006882e+001 
3821875000  -3.209621e+001  -8.130103e+001 
3825000000  -3.011702e+001  -7.741389e+001 
3828125000  -2.878734e+001  -9.119046e+001 
3831250000  -2.936053e+001  -1.052310e+002 
3834375000  -3.081395e+001  -1.055751e+002 
3837500000  -3.157156e+001  -1.003991e+002 
3840625000  -3.058337e+001  -1.018290e+002 
3843750000  -2.921379e+001  -1.119978e+002 
3846875000  -3.005420e+001  -1.186150e+002 
3850000000  -3.129964e+001  -1.136892e+002 
3853125000  -3.053493e+001  -1.107334e+002 
3856250000  -3.042939e+001  -1.157498e+002 
3859375000  -2.971715e+001  -1.202447e+002 
3862500000  -2.929638e+001  -1.268258e+002 
3865625000  -2.957179e+001  -1.317375e+002 
3868750000  -2.957233e+001  -1.327241e+002 
3871875000  -2.888898e+001  -1.349384e+002 
3875000000  -2.897385e+001  -1.436986e+002 
3878125000  -3.002316e+001  -1.464848e+002 
3881250000  -3.013934e+001  -1.429831e+002 
3884375000  -2.962972e+001  -1.480402e+002 
3887500000  -2.973057e+001  -1.525024e+002 
3890625000  -3.020036e+001  -1.538118e+002 
3893750000  -3.068636e+001  -1.552757e+002 
3896875000  -3.076524e+001  -1.550864e+002 
3900000000  -3.100770e+001  -1.557874e+002 
3903125000  -3.058012e+001  -1.576528e+002 
3906250000  -3.033329e+001  -1.587005e+002 
3909375000  -2.972085e+001  -1.616961e+002 
3912500000  -2.971855e+001  -1.689486e+002 
3915625000  -3.082467e+001  -1.679240e+002 
3918750000  -3.092810e+001  -1.668220e+002 
3921875000  -3.053243e+001  -1.682991e+002 
3925000000  -2.977835e+001  -1.686729e+002 
3928125000  -2.912846e+001  -1.747121e+002 
3931250000  -2.949820e+001  -1.786848e+002 
3934375000  -2.979064e+001  -1.785597e+002 
3937500000  -2.994222e+001  -1.785716e+002 
3940625000  -3.041583e+001  -1.786940e+002 
3943750000  -2.944753e+001  -1.773833e+002 
3946875000  -2.819325e+001  1.771981e+002 
3950000000  -2.869641e+001  1.697323e+002 
3953125000  -2.964740e+001  1.701028e+002 
3956250000  -2.875298e+001  1.729365e+002 
3959375000  -2.741800e+001  1.700865e+002 
3962500000  -2.702029e+001  1.656928e+002 
3965625000  -2.657689e+001  1.568911e+002 
3968750000  -2.752072e+001  1.504405e+002 
3971875000  -2.787245e+001  1.490513e+002 
3975000000  -2.723980e+001  1.472325e+002 
3978125000  -2.704426e+001  1.454965e+002 
3981250000  -2.680749e+001  1.411536e+002 
3984375000  -2.702282e+001  1.349226e+002 
3987500000  -2.756652e+001  1.326859e+002 
3990625000  -2.762015e+001  1.320729e+002 
3993750000  -2.778799e+001  1.288356e+002 
3996875000  -2.765251e+001  1.261732e+002 
4000000000  -2.785806e+001  1.247194e+002 
4003125000  -2.833716e+001  1.263119e+002 
4006250000  -2.697561e+001  1.269201e+002 
4009375000  -2.578353e+001  1.147768e+002 
4012500000  -2.685083e+001  1.075296e+002 
4015625000  -2.812569e+001  1.078872e+002 
4018750000  -2.823139e+001  1.104736e+002 
4021875000  -2.769247e+001  1.086417e+002 
4025000000  -2.721932e+001  1.038903e+002 
4028125000  -2.714200e+001  9.955769e+001 
4031250000  -2.769468e+001  9.686768e+001 
4034375000  -2.802247e+001  9.681925e+001 
4037500000  -2.746067e+001  9.835888e+001 
4040625000  -2.730632e+001  9.550011e+001 
4043750000  -2.770083e+001  9.487399e+001 
4046875000  -2.727865e+001  9.427990e+001 
4050000000  -2.675703e+001  8.882701e+001 
4053125000  -2.722884e+001  8.630389e+001 
4056250000  -2.786179e+001  9.091253e+001 
4059375000  -2.659305e+001  9.289145e+001 
4062500000  -2.520428e+001  8.816162e+001 
4065625000  -2.501541e+001  8.364444e+001 
4068750000  -2.479267e+001  7.895660e+001 
4071875000  -2.420022e+001  7.101781e+001 
4075000000  -2.454532e+001  6.443734e+001 
4078125000  -2.513922e+001  6.384146e+001 
4081250000  -2.455243e+001  6.118507e+001 
4084375000  -2.417673e+001  5.459788e+001 
4087500000  -2.455196e+001  4.840472e+001 
4090625000  -2.516692e+001  4.739282e+001 
4093750000  -2.492415e+001  4.823627e+001 
4096875000  -2.450910e+001  4.213938e+001 
4100000000  -2.519924e+001  3.519703e+001 
4103125000  -2.609342e+001  3.560003e+001 
4106250000  -2.598247e+001  4.062100e+001 
4109375000  -2.504567e+001  4.028926e+001 
4112500000  -2.455408e+001  3.348992e+001 
4115625000  -2.481944e+001  2.924266e+001 
4118750000  -2.495894e+001  2.660067e+001 
4121875000  -2.457416e+001  2.175016e+001 
4125000000  -2.493814e+001  1.678722e+001 
4128125000  -2.594902e+001  1.670325e+001 
4131250000  -2.561655e+001  2.463378e+001 
4134375000  -2.336388e+001  2.046862e+001 
4137500000  -2.308952e+001  1.560342e+000 
4140625000  -2.522317e+001  -5.500802e+000 
4143750000  -2.656058e+001  -1.995021e-001 
4146875000  -2.615830e+001  6.574165e+000 
4150000000  -2.526547e+001  3.618418e+000 
4153125000  -2.507294e+001  -2.707907e+000 
4156250000  -2.600570e+001  -5.446996e+000 
4159375000  -2.627198e+001  -1.050700e+000 
4162500000  -2.509265e+001  3.143359e+000 
4165625000  -2.397494e+001  -1.156896e+000 
4168750000  -2.336635e+001  -8.299472e+000 
4171875000  -2.337981e+001  -1.732174e+001 
4175000000  -2.394940e+001  -2.299239e+001 
4178125000  -2.457640e+001  -2.300620e+001 
4181250000  -2.443047e+001  -2.347989e+001 
4184375000  -2.426520e+001  -2.669916e+001 
4187500000  -2.434303e+001  -2.933636e+001 
4190625000  -2.415596e+001  -3.488817e+001 
4193750000  -2.493110e+001  -3.876815e+001 
4196875000  -2.561043e+001  -3.906078e+001 
4200000000  -2.650347e+001  -3.685573e+001 
4203125000  -2.653492e+001  -2.327426e+001 
4206250000  -2.314310e+001  -2.189809e+001 
4209375000  -2.196003e+001  -4.247777e+001 
4212500000  -2.386979e+001  -5.113631e+001 
4215625000  -2.493761e+001  -4.515757e+001 
4218750000  -2.360407e+001  -3.852656e+001 
4221875000  -2.128856e+001  -4.730621e+001 
4225000000  -2.252327e+001  -5.983915e+001 
4228125000  -2.320662e+001  -5.500197e+001 
4231250000  -2.167597e+001  -5.853391e+001 
4234375000  -2.159544e+001  -6.689457e+001 
4237500000  -2.114802e+001  -7.033544e+001 
4240625000  -2.116192e+001  -7.863139e+001 
4243750000  -2.211144e+001  -8.540968e+001 
4246875000  -2.300588e+001  -8.557011e+001 
4250000000  -2.308355e+001  -8.282885e+001 
4253125000  -2.249265e+001  -8.427064e+001 
4256250000  -2.279903e+001  -8.863374e+001 
4259375000  -2.249137e+001  -9.079844e+001 
4262500000  -2.254246e+001  -9.437238e+001 
4265625000  -2.270819e+001  -9.372022e+001 
4268750000  -2.180370e+001  -9.801210e+001 
4271875000  -2.153812e+001  -1.036218e+002 
4275000000  -2.096315e+001  -1.100221e+002 
4278125000  -2.161181e+001  -1.211094e+002 
4281250000  -2.339310e+001  -1.232195e+002 
4284375000  -2.309806e+001  -1.223545e+002 
4287500000  -2.387971e+001  -1.260349e+002 
4290625000  -2.510418e+001  -1.163132e+002 
4293750000  -2.312053e+001  -1.110910e+002 
4296875000  -2.173628e+001  -1.224552e+002 
4300000000  -2.257688e+001  -1.318124e+002 
4303125000  -2.374288e+001  -1.302229e+002 
4306250000  -2.316899e+001  -1.244002e+002 
4309375000  -2.174236e+001  -1.263394e+002 
4312500000  -2.163737e+001  -1.349169e+002 
4315625000  -2.181654e+001  -1.407506e+002 
4318750000  -2.213225e+001  -1.442280e+002 
4321875000  -2.234689e+001  -1.436334e+002 
4325000000  -2.175059e+001  -1.432028e+002 
4328125000  -2.125604e+001  -1.493240e+002 
4331250000  -2.119504e+001  -1.575050e+002 
4334375000  -2.165850e+001  -1.625582e+002 
4337500000  -2.245320e+001  -1.647672e+002 
4340625000  -2.304685e+001  -1.619694e+002 
4343750000  -2.243265e+001  -1.611270e+002 
4346875000  -2.203082e+001  -1.666349e+002 
4350000000  -2.204959e+001  -1.717947e+002 
4353125000  -2.216937e+001  -1.790894e+002 
4356250000  -2.388523e+001  -1.799265e+002 
4359375000  -2.453009e+001  -1.663982e+002 
4362500000  -2.179847e+001  -1.649001e+002 
4365625000  -2.016113e+001  -1.764808e+002 
4368750000  -2.088108e+001  1.718000e+002 
4371875000  -2.209079e+001  1.721594e+002 
4375000000  -2.177654e+001  1.732604e+002 
4378125000  -2.111305e+001  1.676668e+002 
4381250000  -2.129975e+001  1.621472e+002 
4384375000  -2.112378e+001  1.575439e+002 
4387500000  -2.187931e+001  1.520130e+002 
4390625000  -2.287409e+001  1.525847e+002 
4393750000  -2.220003e+001  1.551246e+002 
4396875000  -2.155260e+001  1.528833e+002 
4400000000  -2.102128e+001  1.458487e+002 
4403125000  -2.161236e+001  1.383650e+002 
4406250000  -2.248075e+001  1.368657e+002 
4409375000  -2.241138e+001  1.348030e+002 
4412500000  -2.346613e+001  1.321622e+002 
4415625000  -2.381029e+001  1.370469e+002 
4418750000  -2.256339e+001  1.418468e+002 
