!Agilent Technologies,E8363B,MY43030201,A.06.04.32
!Agilent E8363B: A.06.04.32
!Date: Tuesday, November 11, 2014 20:48:16
!Correction: S21(Response(S21)) 
!S1P File: Measurement: S21:
# Hz S  dB   R 50
3000000000  -2.651194e+001  1.550148e+002 
3003125000  -2.787146e+001  1.502393e+002 
3006250000  -2.796690e+001  1.476474e+002 
3009375000  -2.829243e+001  1.527588e+002 
3012500000  -2.776639e+001  1.525480e+002 
3015625000  -2.682306e+001  1.454399e+002 
3018750000  -2.767169e+001  1.444884e+002 
3021875000  -2.645864e+001  1.457802e+002 
3025000000  -2.510531e+001  1.427365e+002 
3028125000  -2.414105e+001  1.378872e+002 
3031250000  -2.312013e+001  1.266149e+002 
3034375000  -2.274561e+001  1.138366e+002 
3037500000  -2.307183e+001  1.016861e+002 
3040625000  -2.442485e+001  9.660593e+001 
3043750000  -2.512419e+001  9.234429e+001 
3046875000  -2.521994e+001  8.568697e+001 
3050000000  -2.695808e+001  7.897636e+001 
3053125000  -2.713460e+001  8.541711e+001 
3056250000  -2.645993e+001  8.824995e+001 
3059375000  -2.669656e+001  8.791137e+001 
3062500000  -2.523910e+001  8.430143e+001 
3065625000  -2.501801e+001  7.871004e+001 
3068750000  -2.469424e+001  7.169651e+001 
3071875000  -2.466088e+001  6.864277e+001 
3075000000  -2.467305e+001  6.501816e+001 
3078125000  -2.435098e+001  6.049087e+001 
3081250000  -2.501110e+001  5.610772e+001 
3084375000  -2.429281e+001  5.274464e+001 
3087500000  -2.414165e+001  4.905399e+001 
3090625000  -2.385411e+001  3.929647e+001 
3093750000  -2.425102e+001  3.128366e+001 
3096875000  -2.558984e+001  2.518743e+001 
3100000000  -2.574867e+001  2.409703e+001 
3103125000  -2.608130e+001  2.533553e+001 
3106250000  -2.583928e+001  2.193399e+001 
3109375000  -2.608298e+001  1.834027e+001 
3112500000  -2.618772e+001  1.743741e+001 
3115625000  -2.599734e+001  1.327549e+001 
3118750000  -2.649224e+001  1.437159e+001 
3121875000  -2.580632e+001  6.547020e+000 
3125000000  -2.693064e+001  3.159962e+000 
3128125000  -2.819682e+001  1.082028e+001 
3131250000  -2.607724e+001  1.156386e+001 
3134375000  -2.467790e+001  -1.911219e+000 
3137500000  -2.526821e+001  -1.594778e+001 
3140625000  -2.696210e+001  -1.751483e+001 
3143750000  -2.799379e+001  -1.333247e+001 
3146875000  -2.753378e+001  -1.129992e+001 
3150000000  -2.651557e+001  -8.858408e+000 
3153125000  -2.650287e+001  -1.659773e+001 
3156250000  -2.746115e+001  -1.136593e+001 
3159375000  -2.594855e+001  -8.513785e+000 
3162500000  -2.390582e+001  -2.126597e+001 
3165625000  -2.482671e+001  -3.239304e+001 
3168750000  -2.523606e+001  -3.139057e+001 
3171875000  -2.429748e+001  -3.573392e+001 
3175000000  -2.490353e+001  -4.320647e+001 
3178125000  -2.469848e+001  -4.179758e+001 
3181250000  -2.352332e+001  -4.562223e+001 
3184375000  -2.274935e+001  -5.774895e+001 
3187500000  -2.381060e+001  -7.323324e+001 
3190625000  -2.661626e+001  -8.059126e+001 
3193750000  -2.725674e+001  -7.101392e+001 
3196875000  -2.677387e+001  -6.567704e+001 
3200000000  -2.595878e+001  -6.744030e+001 
3203125000  -2.507572e+001  -7.321233e+001 
3206250000  -2.535241e+001  -7.950936e+001 
3209375000  -2.486853e+001  -8.446566e+001 
3212500000  -2.500964e+001  -9.118425e+001 
3215625000  -2.514375e+001  -9.546072e+001 
3218750000  -2.591081e+001  -1.016408e+002 
3221875000  -2.692561e+001  -1.069896e+002 
3225000000  -2.655340e+001  -1.070305e+002 
3228125000  -2.683739e+001  -1.117091e+002 
3231250000  -2.760734e+001  -1.144856e+002 
3234375000  -2.745186e+001  -1.136146e+002 
3237500000  -2.750696e+001  -1.152627e+002 
3240625000  -2.720062e+001  -1.167946e+002 
3243750000  -2.676174e+001  -1.230985e+002 
3246875000  -2.728469e+001  -1.298167e+002 
3250000000  -2.773657e+001  -1.316654e+002 
3253125000  -2.789343e+001  -1.333536e+002 
3256250000  -2.778208e+001  -1.394283e+002 
3259375000  -2.808633e+001  -1.470091e+002 
3262500000  -2.934269e+001  -1.498712e+002 
3265625000  -3.001356e+001  -1.464110e+002 
3268750000  -2.999226e+001  -1.437445e+002 
3271875000  -2.976481e+001  -1.425214e+002 
3275000000  -2.870233e+001  -1.476666e+002 
3278125000  -2.914277e+001  -1.541196e+002 
3281250000  -2.939912e+001  -1.519317e+002 
3284375000  -2.895401e+001  -1.583851e+002 
3287500000  -2.914025e+001  -1.608659e+002 
3290625000  -2.957378e+001  -1.647649e+002 
3293750000  -2.926349e+001  -1.706445e+002 
3296875000  -3.023062e+001  -1.706713e+002 
3300000000  -3.020614e+001  -1.697824e+002 
3303125000  -2.909431e+001  -1.735916e+002 
3306250000  -2.878842e+001  -1.798960e+002 
3309375000  -2.858899e+001  1.748025e+002 
3312500000  -2.862690e+001  1.645324e+002 
3315625000  -2.955829e+001  1.563488e+002 
3318750000  -3.103359e+001  1.541790e+002 
3321875000  -3.217890e+001  1.533120e+002 
3325000000  -3.283857e+001  1.586025e+002 
3328125000  -3.274372e+001  1.595799e+002 
3331250000  -3.153102e+001  1.678564e+002 
3334375000  -2.887142e+001  1.580912e+002 
3337500000  -2.898989e+001  1.401195e+002 
3340625000  -3.029508e+001  1.288665e+002 
3343750000  -3.227750e+001  1.270148e+002 
3346875000  -3.290641e+001  1.290408e+002 
3350000000  -3.215576e+001  1.278174e+002 
3353125000  -3.227986e+001  1.233513e+002 
3356250000  -3.205203e+001  1.154274e+002 
3359375000  -3.287351e+001  1.073072e+002 
3362500000  -3.419361e+001  1.014681e+002 
3365625000  -3.487523e+001  1.002416e+002 
3368750000  -3.584089e+001  9.888082e+001 
3371875000  -3.629956e+001  9.598951e+001 
3375000000  -3.790171e+001  9.333829e+001 
3378125000  -3.892719e+001  9.256893e+001 
3381250000  -4.054852e+001  9.905714e+001 
3384375000  -3.989559e+001  1.221277e+002 
3387500000  -3.655677e+001  1.082647e+002 
3390625000  -3.824824e+001  8.893622e+001 
3393750000  -4.014177e+001  9.301208e+001 
3396875000  -3.930782e+001  9.683030e+001 
3400000000  -3.948534e+001  9.075146e+001 
3403125000  -4.044026e+001  8.644878e+001 
3406250000  -4.090954e+001  8.961595e+001 
3409375000  -4.174538e+001  8.545921e+001 
3412500000  -4.285551e+001  8.621587e+001 
3415625000  -4.329722e+001  9.116190e+001 
3418750000  -4.422969e+001  9.673158e+001 
3421875000  -4.430038e+001  1.030310e+002 
3425000000  -4.347207e+001  1.051385e+002 
3428125000  -4.237131e+001  1.050927e+002 
3431250000  -4.234286e+001  1.016934e+002 
3434375000  -4.188501e+001  9.907998e+001 
3437500000  -4.257210e+001  9.720691e+001 
3440625000  -4.297577e+001  1.006871e+002 
3443750000  -4.139594e+001  1.019790e+002 
3446875000  -4.057668e+001  9.792955e+001 
3450000000  -4.041704e+001  9.025884e+001 
3453125000  -4.070492e+001  8.102478e+001 
3456250000  -4.181424e+001  7.683868e+001 
3459375000  -4.284737e+001  8.058456e+001 
3462500000  -4.291689e+001  8.002023e+001 
3465625000  -4.279259e+001  7.497791e+001 
3468750000  -4.318096e+001  7.377079e+001 
3471875000  -4.361776e+001  7.422608e+001 
3475000000  -4.345708e+001  6.834989e+001 
3478125000  -4.387312e+001  6.490532e+001 
3481250000  -4.505010e+001  6.289798e+001 
3484375000  -4.666195e+001  7.121678e+001 
3487500000  -4.631911e+001  7.152467e+001 
3490625000  -4.580171e+001  7.210711e+001 
3493750000  -4.622323e+001  6.748655e+001 
3496875000  -4.746956e+001  6.941876e+001 
3500000000  -4.830949e+001  7.899895e+001 
3503125000  -4.847189e+001  8.025872e+001 
3506250000  -4.694331e+001  8.376075e+001 
3509375000  -4.700359e+001  7.930201e+001 
3512500000  -4.726566e+001  7.916927e+001 
3515625000  -4.732407e+001  8.129285e+001 
3518750000  -4.833415e+001  8.733245e+001 
3521875000  -4.779338e+001  8.976890e+001 
3525000000  -4.777590e+001  9.384927e+001 
3528125000  -4.776077e+001  1.041092e+002 
3531250000  -4.552952e+001  1.029544e+002 
3534375000  -4.506229e+001  9.676122e+001 
3537500000  -4.468645e+001  9.168481e+001 
3540625000  -4.529176e+001  9.061257e+001 
3543750000  -4.585491e+001  9.477414e+001 
3546875000  -4.486369e+001  1.055581e+002 
3550000000  -4.264748e+001  1.080709e+002 
3553125000  -4.101000e+001  9.186118e+001 
3556250000  -4.210371e+001  8.746437e+001 
3559375000  -4.148532e+001  8.721303e+001 
3562500000  -4.032567e+001  8.227493e+001 
3565625000  -4.112812e+001  7.422217e+001 
3568750000  -4.133458e+001  7.809721e+001 
3571875000  -4.127364e+001  7.688475e+001 
3575000000  -4.044994e+001  7.285851e+001 
3578125000  -4.091842e+001  6.706942e+001 
3581250000  -4.098742e+001  6.762547e+001 
3584375000  -4.006324e+001  6.641766e+001 
3587500000  -3.938381e+001  6.034598e+001 
3590625000  -3.983745e+001  5.125888e+001 
3593750000  -4.082690e+001  4.964019e+001 
3596875000  -4.077604e+001  5.704069e+001 
3600000000  -3.926109e+001  5.556063e+001 
3603125000  -3.921993e+001  4.029838e+001 
3606250000  -3.997369e+001  3.767277e+001 
3609375000  -4.037030e+001  3.835649e+001 
3612500000  -4.095594e+001  3.617426e+001 
3615625000  -4.101033e+001  3.134857e+001 
3618750000  -4.196006e+001  3.294403e+001 
3621875000  -4.145097e+001  3.395786e+001 
3625000000  -4.158904e+001  3.176678e+001 
3628125000  -4.180076e+001  3.171133e+001 
3631250000  -4.140730e+001  2.833728e+001 
3634375000  -4.236235e+001  2.931970e+001 
3637500000  -4.215979e+001  3.476188e+001 
3640625000  -4.090562e+001  3.676411e+001 
3643750000  -4.109729e+001  3.092512e+001 
3646875000  -4.148598e+001  2.642555e+001 
3650000000  -4.198169e+001  2.641789e+001 
3653125000  -4.161283e+001  2.709591e+001 
3656250000  -4.197022e+001  2.405383e+001 
3659375000  -4.220417e+001  2.959918e+001 
3662500000  -4.141172e+001  2.825285e+001 
3665625000  -4.146598e+001  2.958699e+001 
3668750000  -4.049720e+001  2.896208e+001 
3671875000  -3.923785e+001  2.514686e+001 
3675000000  -4.000397e+001  2.032691e+001 
3678125000  -4.021255e+001  2.259379e+001 
3681250000  -3.999641e+001  2.231823e+001 
3684375000  -3.956128e+001  2.113967e+001 
3687500000  -3.967443e+001  1.861580e+001 
3690625000  -3.950430e+001  1.615749e+001 
3693750000  -3.995328e+001  1.766190e+001 
3696875000  -3.990799e+001  2.232083e+001 
3700000000  -3.882901e+001  1.942764e+001 
3703125000  -3.842928e+001  1.543745e+001 
3706250000  -3.931109e+001  1.681088e+001 
3709375000  -3.849729e+001  2.025861e+001 
3712500000  -3.746028e+001  1.862644e+001 
3715625000  -3.642294e+001  1.457640e+001 
3718750000  -3.573970e+001  1.102732e+001 
3721875000  -3.539403e+001  5.371628e+000 
3725000000  -3.523072e+001  1.077170e+000 
3728125000  -3.547339e+001  -1.247908e-001 
3731250000  -3.477689e+001  -5.157055e-001 
3734375000  -3.385728e+001  -6.453020e+000 
3737500000  -3.432428e+001  -1.336661e+001 
3740625000  -3.517406e+001  -1.685138e+001 
3743750000  -3.480530e+001  -1.921534e+001 
3746875000  -3.483171e+001  -2.207961e+001 
3750000000  -3.521526e+001  -2.242728e+001 
3753125000  -3.488862e+001  -2.249734e+001 
3756250000  -3.476916e+001  -2.297303e+001 
3759375000  -3.462040e+001  -2.309592e+001 
3762500000  -3.405439e+001  -2.721291e+001 
3765625000  -3.454865e+001  -3.008380e+001 
3768750000  -3.460403e+001  -2.764278e+001 
3771875000  -3.280242e+001  -2.969541e+001 
3775000000  -3.258060e+001  -3.698259e+001 
3778125000  -3.283451e+001  -3.906197e+001 
3781250000  -3.257912e+001  -4.140591e+001 
3784375000  -3.248013e+001  -4.335865e+001 
3787500000  -3.197168e+001  -4.757120e+001 
3790625000  -3.241555e+001  -5.266415e+001 
3793750000  -3.257266e+001  -5.297169e+001 
3796875000  -3.165105e+001  -5.446704e+001 
3800000000  -3.005576e+001  -5.809548e+001 
3803125000  -3.074598e+001  -6.507311e+001 
3806250000  -3.148629e+001  -6.733049e+001 
3809375000  -3.105790e+001  -6.919219e+001 
3812500000  -3.044217e+001  -7.373048e+001 
3815625000  -3.102447e+001  -8.109719e+001 
3818750000  -3.196009e+001  -8.299386e+001 
3821875000  -3.208379e+001  -7.534421e+001 
3825000000  -3.027927e+001  -7.062076e+001 
3828125000  -2.883745e+001  -8.355444e+001 
3831250000  -2.937645e+001  -9.798253e+001 
3834375000  -3.060747e+001  -9.895493e+001 
3837500000  -3.152665e+001  -9.469405e+001 
3840625000  -3.045949e+001  -9.522462e+001 
3843750000  -2.929843e+001  -1.049503e+002 
3846875000  -3.000314e+001  -1.120826e+002 
3850000000  -3.123715e+001  -1.070572e+002 
3853125000  -3.052126e+001  -1.040579e+002 
3856250000  -3.053231e+001  -1.093802e+002 
3859375000  -2.993452e+001  -1.136419e+002 
3862500000  -2.937947e+001  -1.213814e+002 
3865625000  -2.962873e+001  -1.252591e+002 
3868750000  -2.970023e+001  -1.266099e+002 
3871875000  -2.899644e+001  -1.287475e+002 
3875000000  -2.912692e+001  -1.369512e+002 
3878125000  -3.018239e+001  -1.399409e+002 
3881250000  -3.031265e+001  -1.362809e+002 
3884375000  -2.977644e+001  -1.408531e+002 
3887500000  -2.985691e+001  -1.447319e+002 
3890625000  -3.041551e+001  -1.468661e+002 
3893750000  -3.080594e+001  -1.488363e+002 
3896875000  -3.089422e+001  -1.480937e+002 
3900000000  -3.119946e+001  -1.486086e+002 
3903125000  -3.078565e+001  -1.505032e+002 
3906250000  -3.059797e+001  -1.509105e+002 
3909375000  -2.981481e+001  -1.532019e+002 
3912500000  -2.973864e+001  -1.614147e+002 
3915625000  -3.086860e+001  -1.595059e+002 
3918750000  -3.097732e+001  -1.583422e+002 
3921875000  -3.056587e+001  -1.603411e+002 
3925000000  -2.980762e+001  -1.610252e+002 
3928125000  -2.907170e+001  -1.663029e+002 
3931250000  -2.943495e+001  -1.705283e+002 
3934375000  -2.966692e+001  -1.698791e+002 
3937500000  -2.980076e+001  -1.713052e+002 
3940625000  -3.028164e+001  -1.710643e+002 
3943750000  -2.931350e+001  -1.695822e+002 
3946875000  -2.801664e+001  -1.744560e+002 
3950000000  -2.854748e+001  1.768606e+002 
3953125000  -2.938714e+001  1.774147e+002 
3956250000  -2.871434e+001  -1.796545e+002 
3959375000  -2.729618e+001  1.766296e+002 
3962500000  -2.680411e+001  1.731544e+002 
3965625000  -2.647368e+001  1.639414e+002 
3968750000  -2.741871e+001  1.567569e+002 
3971875000  -2.780919e+001  1.557537e+002 
3975000000  -2.714929e+001  1.535537e+002 
3978125000  -2.701906e+001  1.523373e+002 
3981250000  -2.679807e+001  1.477216e+002 
3984375000  -2.702590e+001  1.418143e+002 
3987500000  -2.748752e+001  1.395786e+002 
3990625000  -2.752356e+001  1.388884e+002 
3993750000  -2.779659e+001  1.354698e+002 
3996875000  -2.777614e+001  1.331878e+002 
4000000000  -2.789180e+001  1.311432e+002 
4003125000  -2.846343e+001  1.334146e+002 
4006250000  -2.711425e+001  1.344366e+002 
4009375000  -2.592471e+001  1.221872e+002 
4012500000  -2.692352e+001  1.149503e+002 
4015625000  -2.818143e+001  1.158286e+002 
4018750000  -2.840321e+001  1.177414e+002 
4021875000  -2.769994e+001  1.165538e+002 
4025000000  -2.732258e+001  1.118676e+002 
4028125000  -2.719229e+001  1.085600e+002 
4031250000  -2.762669e+001  1.052821e+002 
4034375000  -2.791541e+001  1.050919e+002 
4037500000  -2.736489e+001  1.070993e+002 
4040625000  -2.725253e+001  1.036443e+002 
4043750000  -2.759508e+001  1.031903e+002 
4046875000  -2.713100e+001  1.027662e+002 
4050000000  -2.655296e+001  9.704507e+001 
4053125000  -2.699571e+001  9.491060e+001 
4056250000  -2.764066e+001  9.855251e+001 
4059375000  -2.645902e+001  1.005149e+002 
4062500000  -2.503289e+001  9.588942e+001 
4065625000  -2.486327e+001  9.122679e+001 
4068750000  -2.462575e+001  8.598182e+001 
4071875000  -2.397915e+001  7.869577e+001 
4075000000  -2.431624e+001  7.188964e+001 
4078125000  -2.486061e+001  7.046284e+001 
4081250000  -2.436378e+001  6.826974e+001 
4084375000  -2.397610e+001  6.198742e+001 
4087500000  -2.433240e+001  5.571565e+001 
4090625000  -2.496134e+001  5.415181e+001 
4093750000  -2.481639e+001  5.487144e+001 
4096875000  -2.437201e+001  4.890736e+001 
4100000000  -2.501893e+001  4.160461e+001 
4103125000  -2.590805e+001  4.254963e+001 
4106250000  -2.585240e+001  4.738285e+001 
4109375000  -2.502622e+001  4.700656e+001 
4112500000  -2.447002e+001  4.036628e+001 
4115625000  -2.474628e+001  3.596566e+001 
4118750000  -2.490092e+001  3.307587e+001 
4121875000  -2.451305e+001  2.867651e+001 
4125000000  -2.484988e+001  2.377991e+001 
4128125000  -2.586980e+001  2.346630e+001 
4131250000  -2.564785e+001  3.192677e+001 
4134375000  -2.328715e+001  2.768975e+001 
4137500000  -2.306748e+001  9.252281e+000 
4140625000  -2.518506e+001  1.790682e+000 
4143750000  -2.652872e+001  6.389101e+000 
4146875000  -2.620176e+001  1.433459e+001 
4150000000  -2.522173e+001  1.132434e+001 
4153125000  -2.497923e+001  5.051841e+000 
4156250000  -2.582802e+001  2.205517e+000 
4159375000  -2.620157e+001  6.243004e+000 
4162500000  -2.502960e+001  1.112334e+001 
4165625000  -2.384485e+001  7.129748e+000 
4168750000  -2.323123e+001  4.191141e-001 
4171875000  -2.319190e+001  -9.016722e+000 
4175000000  -2.371015e+001  -1.473246e+001 
4178125000  -2.433681e+001  -1.490951e+001 
4181250000  -2.420141e+001  -1.507291e+001 
4184375000  -2.407745e+001  -1.848347e+001 
4187500000  -2.407850e+001  -2.143538e+001 
4190625000  -2.386301e+001  -2.703804e+001 
4193750000  -2.464301e+001  -3.104356e+001 
4196875000  -2.528175e+001  -3.172177e+001 
4200000000  -2.616978e+001  -2.949194e+001 
4203125000  -2.624748e+001  -1.651011e+001 
4206250000  -2.299131e+001  -1.472712e+001 
4209375000  -2.173231e+001  -3.504400e+001 
4212500000  -2.361202e+001  -4.388543e+001 
4215625000  -2.467026e+001  -3.819405e+001 
4218750000  -2.338230e+001  -3.128774e+001 
4221875000  -2.105794e+001  -4.026042e+001 
4225000000  -2.229604e+001  -5.285270e+001 
4228125000  -2.298790e+001  -4.808334e+001 
4231250000  -2.147616e+001  -5.158052e+001 
4234375000  -2.138052e+001  -6.006981e+001 
4237500000  -2.098371e+001  -6.332354e+001 
4240625000  -2.099819e+001  -7.182202e+001 
4243750000  -2.196514e+001  -7.857729e+001 
4246875000  -2.287030e+001  -7.857456e+001 
4250000000  -2.291867e+001  -7.567756e+001 
4253125000  -2.233915e+001  -7.773266e+001 
4256250000  -2.262246e+001  -8.165798e+001 
4259375000  -2.240981e+001  -8.347630e+001 
4262500000  -2.238986e+001  -8.716043e+001 
4265625000  -2.252289e+001  -8.674238e+001 
4268750000  -2.177926e+001  -9.065323e+001 
4271875000  -2.149712e+001  -9.638861e+001 
4275000000  -2.081126e+001  -1.027146e+002 
4278125000  -2.138019e+001  -1.133560e+002 
4281250000  -2.320002e+001  -1.157448e+002 
4284375000  -2.292711e+001  -1.151404e+002 
4287500000  -2.365997e+001  -1.185034e+002 
4290625000  -2.488504e+001  -1.091626e+002 
4293750000  -2.298550e+001  -1.031903e+002 
4296875000  -2.159556e+001  -1.144646e+002 
4300000000  -2.239055e+001  -1.240016e+002 
4303125000  -2.348642e+001  -1.227833e+002 
4306250000  -2.290207e+001  -1.170571e+002 
4309375000  -2.151309e+001  -1.184654e+002 
4312500000  -2.139319e+001  -1.272097e+002 
4315625000  -2.158465e+001  -1.333122e+002 
4318750000  -2.188861e+001  -1.368962e+002 
4321875000  -2.203016e+001  -1.362858e+002 
4325000000  -2.145757e+001  -1.358503e+002 
4328125000  -2.094981e+001  -1.421585e+002 
4331250000  -2.091176e+001  -1.502590e+002 
4334375000  -2.131570e+001  -1.552739e+002 
4337500000  -2.211228e+001  -1.578933e+002 
4340625000  -2.265240e+001  -1.546732e+002 
4343750000  -2.214575e+001  -1.540944e+002 
4346875000  -2.174246e+001  -1.594633e+002 
4350000000  -2.174388e+001  -1.643351e+002 
4353125000  -2.171237e+001  -1.721189e+002 
4356250000  -2.342389e+001  -1.733748e+002 
4359375000  -2.422013e+001  -1.607110e+002 
4362500000  -2.159421e+001  -1.581674e+002 
4365625000  -1.990883e+001  -1.699293e+002 
4368750000  -2.057137e+001  1.782174e+002 
4371875000  -2.183748e+001  1.788054e+002 
4375000000  -2.150878e+001  1.798776e+002 
4378125000  -2.091774e+001  1.741523e+002 
4381250000  -2.108023e+001  1.689035e+002 
4384375000  -2.088796e+001  1.643101e+002 
4387500000  -2.162063e+001  1.588457e+002 
4390625000  -2.263294e+001  1.594923e+002 
4393750000  -2.199105e+001  1.618379e+002 
4396875000  -2.133450e+001  1.595364e+002 
4400000000  -2.083997e+001  1.529395e+002 
4403125000  -2.135229e+001  1.452363e+002 
4406250000  -2.222312e+001  1.439169e+002 
4409375000  -2.216417e+001  1.417500e+002 
4412500000  -2.319438e+001  1.390322e+002 
4415625000  -2.361292e+001  1.437439e+002 
4418750000  -2.245578e+001  1.484358e+002 
