!Agilent Technologies,E8363B,MY43030201,A.06.04.32
!Agilent E8363B: A.06.04.32
!Date: Tuesday, November 11, 2014 20:51:47
!Correction: S21(Response(S21)) 
!S1P File: Measurement: S21:
# Hz S  dB   R 50
3000000000  -2.650397e+001  1.512600e+002 
3003125000  -2.795339e+001  1.468537e+002 
3006250000  -2.794689e+001  1.441031e+002 
3009375000  -2.830642e+001  1.491272e+002 
3012500000  -2.781925e+001  1.486801e+002 
3015625000  -2.684125e+001  1.415956e+002 
3018750000  -2.769400e+001  1.408506e+002 
3021875000  -2.641978e+001  1.423090e+002 
3025000000  -2.510088e+001  1.391394e+002 
3028125000  -2.416115e+001  1.340721e+002 
3031250000  -2.311592e+001  1.228845e+002 
3034375000  -2.275384e+001  1.099143e+002 
3037500000  -2.310386e+001  9.787447e+001 
3040625000  -2.444817e+001  9.288904e+001 
3043750000  -2.513182e+001  8.843546e+001 
3046875000  -2.522669e+001  8.233583e+001 
3050000000  -2.699760e+001  7.552491e+001 
3053125000  -2.714443e+001  8.183670e+001 
3056250000  -2.646222e+001  8.510856e+001 
3059375000  -2.671957e+001  8.441611e+001 
3062500000  -2.522114e+001  8.077441e+001 
3065625000  -2.499100e+001  7.491240e+001 
3068750000  -2.472098e+001  6.807298e+001 
3071875000  -2.465795e+001  6.514258e+001 
3075000000  -2.463496e+001  6.116031e+001 
3078125000  -2.433970e+001  5.682967e+001 
3081250000  -2.496802e+001  5.240537e+001 
3084375000  -2.422497e+001  4.871663e+001 
3087500000  -2.413997e+001  4.516032e+001 
3090625000  -2.383528e+001  3.542855e+001 
3093750000  -2.428300e+001  2.763616e+001 
3096875000  -2.555801e+001  2.146498e+001 
3100000000  -2.571428e+001  2.030579e+001 
3103125000  -2.607271e+001  2.184360e+001 
3106250000  -2.580691e+001  1.819373e+001 
3109375000  -2.601222e+001  1.433275e+001 
3112500000  -2.618060e+001  1.344068e+001 
3115625000  -2.595145e+001  9.372437e+000 
3118750000  -2.647063e+001  1.061134e+001 
3121875000  -2.579711e+001  2.795829e+000 
3125000000  -2.698301e+001  -8.493798e-001 
3128125000  -2.815579e+001  7.236768e+000 
3131250000  -2.597250e+001  7.622232e+000 
3134375000  -2.469280e+001  -5.612792e+000 
3137500000  -2.533553e+001  -1.965943e+001 
3140625000  -2.694477e+001  -2.103752e+001 
3143750000  -2.795985e+001  -1.698267e+001 
3146875000  -2.755350e+001  -1.502050e+001 
3150000000  -2.651679e+001  -1.296654e+001 
3153125000  -2.653980e+001  -2.095405e+001 
3156250000  -2.748070e+001  -1.518954e+001 
3159375000  -2.590537e+001  -1.243985e+001 
3162500000  -2.389100e+001  -2.530299e+001 
3165625000  -2.480679e+001  -3.614015e+001 
3168750000  -2.520354e+001  -3.525362e+001 
3171875000  -2.426404e+001  -3.941636e+001 
3175000000  -2.490609e+001  -4.732458e+001 
3178125000  -2.469034e+001  -4.555505e+001 
3181250000  -2.352135e+001  -4.970758e+001 
3184375000  -2.275087e+001  -6.198951e+001 
3187500000  -2.385876e+001  -7.699990e+001 
3190625000  -2.663988e+001  -8.399472e+001 
3193750000  -2.720858e+001  -7.476339e+001 
3196875000  -2.679526e+001  -6.962473e+001 
3200000000  -2.592899e+001  -7.124908e+001 
3203125000  -2.503300e+001  -7.704890e+001 
3206250000  -2.534339e+001  -8.336799e+001 
3209375000  -2.488833e+001  -8.830228e+001 
3212500000  -2.500076e+001  -9.514240e+001 
3215625000  -2.512943e+001  -9.923537e+001 
3218750000  -2.592282e+001  -1.055986e+002 
3221875000  -2.689652e+001  -1.101501e+002 
3225000000  -2.650754e+001  -1.111955e+002 
3228125000  -2.682032e+001  -1.157089e+002 
3231250000  -2.756708e+001  -1.186807e+002 
3234375000  -2.743676e+001  -1.171858e+002 
3237500000  -2.745551e+001  -1.189598e+002 
3240625000  -2.711379e+001  -1.210363e+002 
3243750000  -2.675673e+001  -1.275525e+002 
3246875000  -2.723141e+001  -1.337440e+002 
3250000000  -2.769137e+001  -1.357820e+002 
3253125000  -2.784399e+001  -1.372836e+002 
3256250000  -2.772869e+001  -1.432469e+002 
3259375000  -2.802574e+001  -1.508444e+002 
3262500000  -2.930594e+001  -1.537447e+002 
3265625000  -2.995903e+001  -1.502549e+002 
3268750000  -2.991771e+001  -1.475989e+002 
3271875000  -2.969203e+001  -1.465838e+002 
3275000000  -2.860278e+001  -1.515511e+002 
3278125000  -2.912091e+001  -1.579490e+002 
3281250000  -2.938404e+001  -1.561027e+002 
3284375000  -2.892804e+001  -1.619171e+002 
3287500000  -2.909692e+001  -1.647240e+002 
3290625000  -2.945051e+001  -1.689976e+002 
3293750000  -2.916401e+001  -1.743814e+002 
3296875000  -3.019668e+001  -1.745146e+002 
3300000000  -3.007699e+001  -1.730871e+002 
3303125000  -2.897478e+001  -1.772463e+002 
3306250000  -2.874992e+001  1.760386e+002 
3309375000  -2.853307e+001  1.710735e+002 
3312500000  -2.855767e+001  1.602189e+002 
3315625000  -2.955540e+001  1.530110e+002 
3318750000  -3.091403e+001  1.500420e+002 
3321875000  -3.217352e+001  1.503211e+002 
3325000000  -3.266750e+001  1.560576e+002 
3328125000  -3.256199e+001  1.563999e+002 
3331250000  -3.125909e+001  1.643424e+002 
3334375000  -2.866623e+001  1.545676e+002 
3337500000  -2.880180e+001  1.359699e+002 
3340625000  -3.012598e+001  1.255571e+002 
3343750000  -3.211232e+001  1.243284e+002 
3346875000  -3.269118e+001  1.256920e+002 
3350000000  -3.193549e+001  1.247740e+002 
3353125000  -3.200373e+001  1.202787e+002 
3356250000  -3.180713e+001  1.122978e+002 
3359375000  -3.270574e+001  1.039708e+002 
3362500000  -3.393796e+001  9.913886e+001 
3365625000  -3.452566e+001  9.704576e+001 
3368750000  -3.544696e+001  9.574535e+001 
3371875000  -3.587154e+001  9.303338e+001 
3375000000  -3.749421e+001  9.005818e+001 
3378125000  -3.857942e+001  9.020500e+001 
3381250000  -4.011525e+001  9.793403e+001 
3384375000  -3.925524e+001  1.193560e+002 
3387500000  -3.618419e+001  1.052792e+002 
3390625000  -3.807520e+001  8.635432e+001 
3393750000  -3.983621e+001  9.016718e+001 
3396875000  -3.894659e+001  9.315382e+001 
3400000000  -3.889857e+001  8.819913e+001 
3403125000  -3.989622e+001  8.172755e+001 
3406250000  -4.070306e+001  8.457523e+001 
3409375000  -4.133025e+001  7.922569e+001 
3412500000  -4.212607e+001  8.177223e+001 
3415625000  -4.273060e+001  8.620113e+001 
3418750000  -4.316382e+001  9.127152e+001 
3421875000  -4.357021e+001  9.715997e+001 
3425000000  -4.271284e+001  9.968583e+001 
3428125000  -4.161276e+001  9.981979e+001 
3431250000  -4.168990e+001  9.663076e+001 
3434375000  -4.124054e+001  9.328490e+001 
3437500000  -4.157060e+001  9.032529e+001 
3440625000  -4.216902e+001  9.339521e+001 
3443750000  -4.097748e+001  9.631384e+001 
3446875000  -3.992357e+001  9.222309e+001 
3450000000  -3.989037e+001  8.347806e+001 
3453125000  -4.008760e+001  7.488416e+001 
3456250000  -4.148603e+001  6.865606e+001 
3459375000  -4.214513e+001  7.079382e+001 
3462500000  -4.248783e+001  7.169307e+001 
3465625000  -4.244482e+001  6.854318e+001 
3468750000  -4.269725e+001  6.401947e+001 
3471875000  -4.276874e+001  6.598769e+001 
3475000000  -4.290088e+001  6.389344e+001 
3478125000  -4.357129e+001  5.511251e+001 
3481250000  -4.496904e+001  5.338003e+001 
3484375000  -4.595070e+001  6.008092e+001 
3487500000  -4.551573e+001  6.380203e+001 
3490625000  -4.547463e+001  6.164298e+001 
3493750000  -4.601590e+001  5.833533e+001 
3496875000  -4.696857e+001  5.964904e+001 
3500000000  -4.841034e+001  6.374280e+001 
3503125000  -4.782350e+001  7.142830e+001 
3506250000  -4.612534e+001  7.123711e+001 
3509375000  -4.689785e+001  7.127346e+001 
3512500000  -4.749582e+001  6.666711e+001 
3515625000  -4.776760e+001  7.363123e+001 
3518750000  -4.803781e+001  7.439420e+001 
3521875000  -4.780278e+001  8.185169e+001 
3525000000  -4.820104e+001  8.326781e+001 
3528125000  -4.771566e+001  9.068007e+001 
3531250000  -4.582804e+001  9.087258e+001 
3534375000  -4.515292e+001  8.685504e+001 
3537500000  -4.539156e+001  8.147182e+001 
3540625000  -4.587800e+001  8.405611e+001 
3543750000  -4.638384e+001  8.601328e+001 
3546875000  -4.535991e+001  9.845615e+001 
3550000000  -4.259178e+001  1.004606e+002 
3553125000  -4.146775e+001  8.295833e+001 
3556250000  -4.254049e+001  7.874739e+001 
3559375000  -4.236332e+001  8.083272e+001 
3562500000  -4.096435e+001  7.359067e+001 
3565625000  -4.195335e+001  6.740836e+001 
3568750000  -4.174955e+001  7.146178e+001 
3571875000  -4.154510e+001  7.211932e+001 
3575000000  -4.091676e+001  6.557565e+001 
3578125000  -4.135863e+001  6.101385e+001 
3581250000  -4.136367e+001  6.100021e+001 
3584375000  -4.053977e+001  6.041330e+001 
3587500000  -3.979269e+001  5.537291e+001 
3590625000  -4.018571e+001  4.609768e+001 
3593750000  -4.138359e+001  4.417595e+001 
3596875000  -4.124876e+001  5.169354e+001 
3600000000  -3.975405e+001  4.978933e+001 
3603125000  -3.976828e+001  3.715512e+001 
3606250000  -4.056884e+001  3.569259e+001 
3609375000  -4.074912e+001  3.406394e+001 
3612500000  -4.144704e+001  3.216092e+001 
3615625000  -4.132180e+001  2.938063e+001 
3618750000  -4.187241e+001  3.128397e+001 
3621875000  -4.153297e+001  2.877655e+001 
3625000000  -4.170222e+001  2.908681e+001 
3628125000  -4.170416e+001  3.139216e+001 
3631250000  -4.130972e+001  2.377390e+001 
3634375000  -4.236586e+001  2.745277e+001 
3637500000  -4.212136e+001  3.222224e+001 
3640625000  -4.105942e+001  3.314129e+001 
3643750000  -4.054367e+001  2.828594e+001 
3646875000  -4.122157e+001  2.102780e+001 
3650000000  -4.171924e+001  2.192068e+001 
3653125000  -4.135242e+001  2.179200e+001 
3656250000  -4.160767e+001  2.014554e+001 
3659375000  -4.189018e+001  2.355798e+001 
3662500000  -4.135996e+001  2.202407e+001 
3665625000  -4.132436e+001  2.336887e+001 
3668750000  -4.001387e+001  2.532226e+001 
3671875000  -3.923304e+001  2.111157e+001 
3675000000  -3.945691e+001  1.467091e+001 
3678125000  -4.024015e+001  1.503304e+001 
3681250000  -3.984158e+001  1.727147e+001 
3684375000  -3.965395e+001  1.514832e+001 
3687500000  -3.978149e+001  1.384498e+001 
3690625000  -3.975463e+001  1.046971e+001 
3693750000  -4.015506e+001  1.245296e+001 
3696875000  -4.016862e+001  1.605091e+001 
3700000000  -3.894186e+001  1.388590e+001 
3703125000  -3.869670e+001  1.030998e+001 
3706250000  -3.916858e+001  1.255100e+001 
3709375000  -3.874044e+001  1.535704e+001 
3712500000  -3.744554e+001  1.578106e+001 
3715625000  -3.618840e+001  9.263736e+000 
3718750000  -3.558664e+001  7.927791e+000 
3721875000  -3.511859e+001  9.285837e-001 
3725000000  -3.516706e+001  -4.178898e+000 
3728125000  -3.541204e+001  -4.246402e+000 
3731250000  -3.462963e+001  -5.790283e+000 
3734375000  -3.370135e+001  -1.092721e+001 
3737500000  -3.409065e+001  -1.814013e+001 
3740625000  -3.492375e+001  -2.168779e+001 
3743750000  -3.456433e+001  -2.346326e+001 
3746875000  -3.461691e+001  -2.730000e+001 
3750000000  -3.501365e+001  -2.766461e+001 
3753125000  -3.457048e+001  -2.848137e+001 
3756250000  -3.448637e+001  -2.895392e+001 
3759375000  -3.419992e+001  -2.944844e+001 
3762500000  -3.368822e+001  -3.363774e+001 
3765625000  -3.417117e+001  -3.632006e+001 
3768750000  -3.423637e+001  -3.399488e+001 
3771875000  -3.255186e+001  -3.696355e+001 
3775000000  -3.224565e+001  -4.380218e+001 
3778125000  -3.258876e+001  -4.581158e+001 
3781250000  -3.234747e+001  -4.853232e+001 
3784375000  -3.225994e+001  -5.060712e+001 
3787500000  -3.164134e+001  -5.384135e+001 
3790625000  -3.235883e+001  -5.972462e+001 
3793750000  -3.230733e+001  -6.027803e+001 
3796875000  -3.152357e+001  -6.187912e+001 
3800000000  -2.995230e+001  -6.525394e+001 
3803125000  -3.071393e+001  -7.254160e+001 
3806250000  -3.137862e+001  -7.489835e+001 
3809375000  -3.101742e+001  -7.566933e+001 
3812500000  -3.043191e+001  -8.038819e+001 
3815625000  -3.101456e+001  -8.826756e+001 
3818750000  -3.183380e+001  -8.929156e+001 
3821875000  -3.209389e+001  -8.134104e+001 
3825000000  -3.015626e+001  -7.686332e+001 
3828125000  -2.867081e+001  -9.042530e+001 
3831250000  -2.925663e+001  -1.048823e+002 
3834375000  -3.064659e+001  -1.054105e+002 
3837500000  -3.152902e+001  -1.003717e+002 
3840625000  -3.039755e+001  -1.013066e+002 
3843750000  -2.916319e+001  -1.113635e+002 
3846875000  -2.991702e+001  -1.190093e+002 
3850000000  -3.114597e+001  -1.129873e+002 
3853125000  -3.035775e+001  -1.098516e+002 
3856250000  -3.033312e+001  -1.151589e+002 
3859375000  -2.967666e+001  -1.199958e+002 
3862500000  -2.920691e+001  -1.271682e+002 
3865625000  -2.946773e+001  -1.314959e+002 
3868750000  -2.957578e+001  -1.321868e+002 
3871875000  -2.888445e+001  -1.350761e+002 
3875000000  -2.902885e+001  -1.434346e+002 
3878125000  -2.990074e+001  -1.465285e+002 
3881250000  -3.010510e+001  -1.437973e+002 
3884375000  -2.963424e+001  -1.481693e+002 
3887500000  -2.964976e+001  -1.520865e+002 
3890625000  -3.020843e+001  -1.544333e+002 
3893750000  -3.066780e+001  -1.556514e+002 
3896875000  -3.072936e+001  -1.551333e+002 
3900000000  -3.097182e+001  -1.559988e+002 
3903125000  -3.067514e+001  -1.585034e+002 
3906250000  -3.040300e+001  -1.586911e+002 
3909375000  -2.967500e+001  -1.611041e+002 
3912500000  -2.968533e+001  -1.687623e+002 
3915625000  -3.095175e+001  -1.672358e+002 
3918750000  -3.091882e+001  -1.663266e+002 
3921875000  -3.062947e+001  -1.674798e+002 
3925000000  -2.976555e+001  -1.682097e+002 
3928125000  -2.901056e+001  -1.741204e+002 
3931250000  -2.950293e+001  -1.784971e+002 
3934375000  -2.977141e+001  -1.779084e+002 
3937500000  -2.998222e+001  -1.780553e+002 
3940625000  -3.038616e+001  -1.783503e+002 
3943750000  -2.947318e+001  -1.770161e+002 
3946875000  -2.820850e+001  1.779628e+002 
3950000000  -2.869885e+001  1.700099e+002 
3953125000  -2.973243e+001  1.708333e+002 
3956250000  -2.876789e+001  1.732635e+002 
3959375000  -2.745387e+001  1.703408e+002 
3962500000  -2.692048e+001  1.666545e+002 
3965625000  -2.660497e+001  1.572856e+002 
3968750000  -2.749689e+001  1.510521e+002 
3971875000  -2.787316e+001  1.488430e+002 
3975000000  -2.714979e+001  1.476471e+002 
3978125000  -2.697382e+001  1.460110e+002 
3981250000  -2.675237e+001  1.415649e+002 
3984375000  -2.699891e+001  1.354295e+002 
3987500000  -2.749887e+001  1.333360e+002 
3990625000  -2.748741e+001  1.324809e+002 
3993750000  -2.769713e+001  1.286948e+002 
3996875000  -2.769562e+001  1.266459e+002 
4000000000  -2.781985e+001  1.244331e+002 
4003125000  -2.835917e+001  1.263547e+002 
4006250000  -2.698579e+001  1.269214e+002 
4009375000  -2.576228e+001  1.147284e+002 
4012500000  -2.682871e+001  1.078706e+002 
4015625000  -2.807296e+001  1.080060e+002 
4018750000  -2.828297e+001  1.102768e+002 
4021875000  -2.762612e+001  1.091012e+002 
4025000000  -2.722494e+001  1.040660e+002 
4028125000  -2.722779e+001  1.000728e+002 
4031250000  -2.765618e+001  9.676978e+001 
4034375000  -2.793840e+001  9.688144e+001 
4037500000  -2.746849e+001  9.852060e+001 
4040625000  -2.735275e+001  9.526975e+001 
4043750000  -2.763740e+001  9.461650e+001 
4046875000  -2.722837e+001  9.472308e+001 
4050000000  -2.674225e+001  8.919925e+001 
4053125000  -2.723174e+001  8.716649e+001 
4056250000  -2.777807e+001  9.084380e+001 
4059375000  -2.662224e+001  9.307175e+001 
4062500000  -2.519780e+001  8.869938e+001 
4065625000  -2.506007e+001  8.376276e+001 
4068750000  -2.474548e+001  7.961918e+001 
4071875000  -2.413872e+001  7.135856e+001 
4075000000  -2.453126e+001  6.513532e+001 
4078125000  -2.506744e+001  6.393240e+001 
4081250000  -2.452719e+001  6.180499e+001 
4084375000  -2.418421e+001  5.503508e+001 
4087500000  -2.448984e+001  4.879034e+001 
4090625000  -2.511130e+001  4.806646e+001 
4093750000  -2.493019e+001  4.843599e+001 
4096875000  -2.443580e+001  4.241592e+001 
4100000000  -2.517695e+001  3.512661e+001 
4103125000  -2.600664e+001  3.638366e+001 
4106250000  -2.588578e+001  4.068167e+001 
4109375000  -2.505586e+001  4.054066e+001 
4112500000  -2.446604e+001  3.391420e+001 
4115625000  -2.479214e+001  2.945886e+001 
4118750000  -2.486086e+001  2.649557e+001 
4121875000  -2.450691e+001  2.202962e+001 
4125000000  -2.483397e+001  1.705366e+001 
4128125000  -2.587528e+001  1.666664e+001 
4131250000  -2.565887e+001  2.468799e+001 
4134375000  -2.324895e+001  2.053904e+001 
4137500000  -2.304832e+001  1.972071e+000 
4140625000  -2.521071e+001  -5.301133e+000 
4143750000  -2.657231e+001  -1.771351e-001 
4146875000  -2.613975e+001  7.049874e+000 
4150000000  -2.520440e+001  3.860510e+000 
4153125000  -2.509905e+001  -2.557966e+000 
4156250000  -2.597866e+001  -5.137903e+000 
4159375000  -2.621553e+001  -8.587598e-001 
4162500000  -2.510347e+001  3.329192e+000 
4165625000  -2.393781e+001  -5.396176e-001 
4168750000  -2.333565e+001  -8.035686e+000 
4171875000  -2.335266e+001  -1.669426e+001 
4175000000  -2.394588e+001  -2.268840e+001 
4178125000  -2.454222e+001  -2.262670e+001 
4181250000  -2.443515e+001  -2.304389e+001 
4184375000  -2.427133e+001  -2.625628e+001 
4187500000  -2.427511e+001  -2.889192e+001 
4190625000  -2.413999e+001  -3.431247e+001 
4193750000  -2.493174e+001  -3.830106e+001 
4196875000  -2.561732e+001  -3.862683e+001 
4200000000  -2.644406e+001  -3.620176e+001 
4203125000  -2.649391e+001  -2.276170e+001 
4206250000  -2.314314e+001  -2.143061e+001 
4209375000  -2.191735e+001  -4.188709e+001 
4212500000  -2.386957e+001  -5.077951e+001 
4215625000  -2.484709e+001  -4.474093e+001 
4218750000  -2.353505e+001  -3.751984e+001 
4221875000  -2.122854e+001  -4.711213e+001 
4225000000  -2.249322e+001  -5.920992e+001 
4228125000  -2.317357e+001  -5.437137e+001 
4231250000  -2.163011e+001  -5.795818e+001 
4234375000  -2.151780e+001  -6.646815e+001 
4237500000  -2.110728e+001  -6.975125e+001 
4240625000  -2.114569e+001  -7.808156e+001 
4243750000  -2.207858e+001  -8.523404e+001 
4246875000  -2.296070e+001  -8.495451e+001 
4250000000  -2.305149e+001  -8.252761e+001 
4253125000  -2.243519e+001  -8.419584e+001 
4256250000  -2.268837e+001  -8.842008e+001 
4259375000  -2.247523e+001  -9.010130e+001 
4262500000  -2.251358e+001  -9.393523e+001 
4265625000  -2.267154e+001  -9.355168e+001 
4268750000  -2.173660e+001  -9.774652e+001 
4271875000  -2.147882e+001  -1.031750e+002 
4275000000  -2.091972e+001  -1.098229e+002 
4278125000  -2.156132e+001  -1.209841e+002 
4281250000  -2.337764e+001  -1.230624e+002 
4284375000  -2.303876e+001  -1.220364e+002 
4287500000  -2.381998e+001  -1.255930e+002 
4290625000  -2.504165e+001  -1.159490e+002 
4293750000  -2.304129e+001  -1.104543e+002 
4296875000  -2.175884e+001  -1.219076e+002 
4300000000  -2.254533e+001  -1.311187e+002 
4303125000  -2.366452e+001  -1.301944e+002 
4306250000  -2.314082e+001  -1.242387e+002 
4309375000  -2.174782e+001  -1.260071e+002 
4312500000  -2.159341e+001  -1.344266e+002 
4315625000  -2.182598e+001  -1.405408e+002 
4318750000  -2.212277e+001  -1.441000e+002 
4321875000  -2.230453e+001  -1.433982e+002 
4325000000  -2.174222e+001  -1.425423e+002 
4328125000  -2.122872e+001  -1.489393e+002 
4331250000  -2.116225e+001  -1.573427e+002 
4334375000  -2.159744e+001  -1.621815e+002 
4337500000  -2.244763e+001  -1.644291e+002 
4340625000  -2.301198e+001  -1.612811e+002 
4343750000  -2.238863e+001  -1.605230e+002 
4346875000  -2.200037e+001  -1.661815e+002 
4350000000  -2.200121e+001  -1.709037e+002 
4353125000  -2.203439e+001  -1.786437e+002 
4356250000  -2.383434e+001  -1.793346e+002 
4359375000  -2.441608e+001  -1.662104e+002 
4362500000  -2.179387e+001  -1.643996e+002 
4365625000  -2.010601e+001  -1.758608e+002 
4368750000  -2.082740e+001  1.722802e+002 
4371875000  -2.201398e+001  1.728863e+002 
4375000000  -2.169066e+001  1.741013e+002 
4378125000  -2.101638e+001  1.679308e+002 
4381250000  -2.122897e+001  1.626632e+002 
4384375000  -2.102494e+001  1.580853e+002 
4387500000  -2.176968e+001  1.524625e+002 
4390625000  -2.279963e+001  1.530692e+002 
4393750000  -2.210923e+001  1.555338e+002 
4396875000  -2.147682e+001  1.534249e+002 
4400000000  -2.092491e+001  1.462241e+002 
4403125000  -2.154570e+001  1.387725e+002 
4406250000  -2.241694e+001  1.373221e+002 
4409375000  -2.232247e+001  1.351159e+002 
4412500000  -2.338693e+001  1.323140e+002 
4415625000  -2.371933e+001  1.374162e+002 
4418750000  -2.254161e+001  1.418795e+002 
