!Agilent Technologies,E8363B,MY43030201,A.06.04.32
!Agilent E8363B: A.06.04.32
!Date: Tuesday, November 11, 2014 20:54:49
!Correction: S21(Response(S21)) 
!S1P File: Measurement: S21:
# Hz S  dB   R 50
3000000000  -2.656982e+001  1.494723e+002 
3003125000  -2.794555e+001  1.451208e+002 
3006250000  -2.802186e+001  1.422981e+002 
3009375000  -2.843278e+001  1.473228e+002 
3012500000  -2.783554e+001  1.466568e+002 
3015625000  -2.690410e+001  1.399477e+002 
3018750000  -2.772460e+001  1.389133e+002 
3021875000  -2.649489e+001  1.402198e+002 
3025000000  -2.519415e+001  1.373272e+002 
3028125000  -2.420373e+001  1.318159e+002 
3031250000  -2.318760e+001  1.208881e+002 
3034375000  -2.280833e+001  1.078103e+002 
3037500000  -2.316979e+001  9.583586e+001 
3040625000  -2.450705e+001  9.092943e+001 
3043750000  -2.522878e+001  8.662904e+001 
3046875000  -2.530685e+001  8.017913e+001 
3050000000  -2.704540e+001  7.327291e+001 
3053125000  -2.719475e+001  7.961427e+001 
3056250000  -2.656759e+001  8.277852e+001 
3059375000  -2.677844e+001  8.229357e+001 
3062500000  -2.527284e+001  7.850704e+001 
3065625000  -2.503458e+001  7.265430e+001 
3068750000  -2.478909e+001  6.579053e+001 
3071875000  -2.472755e+001  6.302791e+001 
3075000000  -2.471948e+001  5.903566e+001 
3078125000  -2.442486e+001  5.431856e+001 
3081250000  -2.505778e+001  5.034047e+001 
3084375000  -2.430639e+001  4.662860e+001 
3087500000  -2.422522e+001  4.301588e+001 
3090625000  -2.393588e+001  3.305471e+001 
3093750000  -2.437547e+001  2.539156e+001 
3096875000  -2.564787e+001  1.920831e+001 
3100000000  -2.578223e+001  1.809966e+001 
3103125000  -2.616003e+001  1.957889e+001 
3106250000  -2.586016e+001  1.581192e+001 
3109375000  -2.610583e+001  1.229230e+001 
3112500000  -2.626084e+001  1.117875e+001 
3115625000  -2.606613e+001  7.302648e+000 
3118750000  -2.655838e+001  8.388916e+000 
3121875000  -2.589195e+001  3.851123e-001 
3125000000  -2.708780e+001  -3.032310e+000 
3128125000  -2.826566e+001  5.240713e+000 
3131250000  -2.607303e+001  5.693807e+000 
3134375000  -2.470532e+001  -7.825064e+000 
3137500000  -2.540457e+001  -2.129246e+001 
3140625000  -2.698779e+001  -2.353498e+001 
3143750000  -2.800670e+001  -1.959422e+001 
3146875000  -2.760774e+001  -1.738488e+001 
3150000000  -2.659451e+001  -1.473851e+001 
3153125000  -2.657968e+001  -2.293254e+001 
3156250000  -2.753909e+001  -1.735047e+001 
3159375000  -2.589766e+001  -1.434892e+001 
3162500000  -2.389616e+001  -2.732584e+001 
3165625000  -2.482051e+001  -3.798516e+001 
3168750000  -2.525029e+001  -3.707099e+001 
3171875000  -2.428652e+001  -4.203711e+001 
3175000000  -2.494119e+001  -4.947472e+001 
3178125000  -2.470927e+001  -4.777124e+001 
3181250000  -2.353822e+001  -5.184289e+001 
3184375000  -2.274998e+001  -6.412021e+001 
3187500000  -2.386485e+001  -7.932872e+001 
3190625000  -2.658724e+001  -8.643614e+001 
3193750000  -2.720382e+001  -7.689418e+001 
3196875000  -2.683170e+001  -7.195588e+001 
3200000000  -2.593283e+001  -7.357359e+001 
3203125000  -2.508032e+001  -7.948325e+001 
3206250000  -2.535027e+001  -8.562439e+001 
3209375000  -2.487065e+001  -9.066357e+001 
3212500000  -2.506549e+001  -9.711957e+001 
3215625000  -2.517562e+001  -1.013952e+002 
3218750000  -2.593578e+001  -1.078917e+002 
3221875000  -2.687076e+001  -1.128367e+002 
3225000000  -2.648135e+001  -1.135341e+002 
3228125000  -2.680736e+001  -1.179691e+002 
3231250000  -2.760947e+001  -1.205701e+002 
3234375000  -2.742564e+001  -1.196794e+002 
3237500000  -2.742792e+001  -1.214910e+002 
3240625000  -2.714522e+001  -1.230445e+002 
3243750000  -2.679969e+001  -1.297758e+002 
3246875000  -2.730974e+001  -1.361861e+002 
3250000000  -2.774148e+001  -1.376954e+002 
3253125000  -2.789756e+001  -1.395036e+002 
3256250000  -2.770850e+001  -1.457773e+002 
3259375000  -2.801781e+001  -1.531770e+002 
3262500000  -2.931027e+001  -1.563097e+002 
3265625000  -3.000891e+001  -1.529457e+002 
3268750000  -2.992163e+001  -1.501384e+002 
3271875000  -2.965764e+001  -1.484940e+002 
3275000000  -2.860150e+001  -1.541510e+002 
3278125000  -2.913670e+001  -1.600432e+002 
3281250000  -2.934735e+001  -1.586488e+002 
3284375000  -2.894163e+001  -1.644787e+002 
3287500000  -2.905325e+001  -1.668965e+002 
3290625000  -2.947532e+001  -1.715219e+002 
3293750000  -2.919871e+001  -1.767017e+002 
3296875000  -3.019743e+001  -1.768187e+002 
3300000000  -3.007627e+001  -1.756928e+002 
3303125000  -2.893006e+001  -1.797150e+002 
3306250000  -2.873346e+001  1.736986e+002 
3309375000  -2.848321e+001  1.686070e+002 
3312500000  -2.856675e+001  1.582036e+002 
3315625000  -2.960445e+001  1.503344e+002 
3318750000  -3.088764e+001  1.476105e+002 
3321875000  -3.210858e+001  1.477308e+002 
3325000000  -3.264719e+001  1.526138e+002 
3328125000  -3.246708e+001  1.540358e+002 
3331250000  -3.130922e+001  1.612213e+002 
3334375000  -2.865648e+001  1.516813e+002 
3337500000  -2.876390e+001  1.336013e+002 
3340625000  -3.015237e+001  1.225055e+002 
3343750000  -3.202207e+001  1.214391e+002 
3346875000  -3.260063e+001  1.229967e+002 
3350000000  -3.185932e+001  1.218168e+002 
3353125000  -3.205080e+001  1.170424e+002 
3356250000  -3.178726e+001  1.096837e+002 
3359375000  -3.258115e+001  1.007530e+002 
3362500000  -3.387920e+001  9.606277e+001 
3365625000  -3.456973e+001  9.446317e+001 
3368750000  -3.554622e+001  9.248700e+001 
3371875000  -3.593593e+001  8.870297e+001 
3375000000  -3.755671e+001  8.671038e+001 
3378125000  -3.872896e+001  8.719657e+001 
3381250000  -4.005133e+001  9.361052e+001 
3384375000  -3.916271e+001  1.144884e+002 
3387500000  -3.614532e+001  1.009855e+002 
3390625000  -3.789669e+001  8.241315e+001 
3393750000  -3.986300e+001  8.799467e+001 
3396875000  -3.888517e+001  8.950945e+001 
3400000000  -3.881849e+001  8.331622e+001 
3403125000  -3.994712e+001  7.788338e+001 
3406250000  -4.065656e+001  8.279897e+001 
3409375000  -4.115358e+001  7.856081e+001 
3412500000  -4.221580e+001  7.762327e+001 
3415625000  -4.302721e+001  8.478156e+001 
3418750000  -4.333167e+001  8.635056e+001 
3421875000  -4.346047e+001  9.339156e+001 
3425000000  -4.269732e+001  9.762853e+001 
3428125000  -4.160973e+001  9.620885e+001 
3431250000  -4.188153e+001  9.320040e+001 
3434375000  -4.139218e+001  9.000874e+001 
3437500000  -4.195906e+001  8.873155e+001 
3440625000  -4.212796e+001  8.889668e+001 
3443750000  -4.073766e+001  9.379412e+001 
3446875000  -4.014394e+001  8.762845e+001 
3450000000  -3.988351e+001  7.962074e+001 
3453125000  -4.019659e+001  6.952455e+001 
3456250000  -4.143221e+001  6.618125e+001 
3459375000  -4.247461e+001  6.740771e+001 
3462500000  -4.264870e+001  6.975194e+001 
3465625000  -4.226910e+001  6.296178e+001 
3468750000  -4.279750e+001  5.997839e+001 
3471875000  -4.300972e+001  6.167805e+001 
3475000000  -4.290725e+001  5.936753e+001 
3478125000  -4.358058e+001  5.136823e+001 
3481250000  -4.471369e+001  5.071538e+001 
3484375000  -4.615767e+001  5.657386e+001 
3487500000  -4.624203e+001  5.912529e+001 
3490625000  -4.585302e+001  5.714632e+001 
3493750000  -4.658818e+001  5.329311e+001 
3496875000  -4.728320e+001  5.392182e+001 
3500000000  -4.891456e+001  6.284381e+001 
3503125000  -4.820224e+001  6.957903e+001 
3506250000  -4.732202e+001  7.142992e+001 
3509375000  -4.770475e+001  6.820403e+001 
3512500000  -4.822478e+001  6.666083e+001 
3515625000  -4.925850e+001  7.152349e+001 
3518750000  -4.917667e+001  7.908350e+001 
3521875000  -4.849894e+001  8.446381e+001 
3525000000  -4.876694e+001  8.192119e+001 
3528125000  -4.770354e+001  9.598462e+001 
3531250000  -4.599012e+001  9.442628e+001 
3534375000  -4.478152e+001  8.470064e+001 
3537500000  -4.502586e+001  8.056644e+001 
3540625000  -4.511808e+001  8.267294e+001 
3543750000  -4.607029e+001  8.588213e+001 
3546875000  -4.532536e+001  9.894198e+001 
3550000000  -4.292775e+001  1.003242e+002 
3553125000  -4.126562e+001  8.167059e+001 
3556250000  -4.220391e+001  7.743141e+001 
3559375000  -4.187662e+001  7.989109e+001 
3562500000  -4.093598e+001  7.159481e+001 
3565625000  -4.148293e+001  6.483971e+001 
3568750000  -4.182189e+001  6.758853e+001 
3571875000  -4.184753e+001  6.925533e+001 
3575000000  -4.087823e+001  6.459873e+001 
3578125000  -4.139551e+001  5.988948e+001 
3581250000  -4.162316e+001  5.883424e+001 
3584375000  -4.078271e+001  5.718971e+001 
3587500000  -3.982417e+001  5.449750e+001 
3590625000  -4.029873e+001  4.291789e+001 
3593750000  -4.135441e+001  4.233053e+001 
3596875000  -4.131870e+001  5.110463e+001 
3600000000  -3.974398e+001  4.818306e+001 
3603125000  -3.977956e+001  3.407196e+001 
3606250000  -4.039742e+001  3.117291e+001 
3609375000  -4.092432e+001  2.950664e+001 
3612500000  -4.144749e+001  2.962857e+001 
3615625000  -4.151640e+001  2.739450e+001 
3618750000  -4.212758e+001  2.968167e+001 
3621875000  -4.181594e+001  2.927528e+001 
3625000000  -4.195814e+001  2.922294e+001 
3628125000  -4.208171e+001  2.969811e+001 
3631250000  -4.150648e+001  2.504128e+001 
3634375000  -4.280086e+001  2.552452e+001 
3637500000  -4.210693e+001  3.173228e+001 
3640625000  -4.107928e+001  3.190258e+001 
3643750000  -4.069270e+001  2.804935e+001 
3646875000  -4.104640e+001  2.093752e+001 
3650000000  -4.179971e+001  2.028012e+001 
3653125000  -4.132339e+001  2.032996e+001 
3656250000  -4.179155e+001  1.924458e+001 
3659375000  -4.171127e+001  2.394815e+001 
3662500000  -4.112280e+001  2.236038e+001 
3665625000  -4.112337e+001  2.364184e+001 
3668750000  -3.985846e+001  2.416837e+001 
3671875000  -3.906857e+001  1.805801e+001 
3675000000  -3.966368e+001  1.241312e+001 
3678125000  -4.017332e+001  1.306115e+001 
3681250000  -3.967590e+001  1.373391e+001 
3684375000  -3.945739e+001  1.285662e+001 
3687500000  -3.967367e+001  1.059360e+001 
3690625000  -3.963319e+001  8.640887e+000 
3693750000  -4.025565e+001  1.115572e+001 
3696875000  -3.994065e+001  1.443154e+001 
3700000000  -3.883412e+001  1.094963e+001 
3703125000  -3.876912e+001  7.490735e+000 
3706250000  -3.935794e+001  9.853376e+000 
3709375000  -3.873964e+001  1.326727e+001 
3712500000  -3.746927e+001  1.342733e+001 
3715625000  -3.629419e+001  8.131000e+000 
3718750000  -3.571400e+001  4.782261e+000 
3721875000  -3.530863e+001  -2.236249e-001 
3725000000  -3.527388e+001  -4.589353e+000 
3728125000  -3.531240e+001  -5.666938e+000 
3731250000  -3.473725e+001  -6.352151e+000 
3734375000  -3.380616e+001  -1.217911e+001 
3737500000  -3.440254e+001  -1.973062e+001 
3740625000  -3.497190e+001  -2.206654e+001 
3743750000  -3.466741e+001  -2.511228e+001 
3746875000  -3.453439e+001  -2.828997e+001 
3750000000  -3.499172e+001  -2.861835e+001 
3753125000  -3.450250e+001  -2.876631e+001 
3756250000  -3.441139e+001  -2.917832e+001 
3759375000  -3.422972e+001  -3.050841e+001 
3762500000  -3.375769e+001  -3.455699e+001 
3765625000  -3.408904e+001  -3.677985e+001 
3768750000  -3.423777e+001  -3.503167e+001 
3771875000  -3.252398e+001  -3.674893e+001 
3775000000  -3.227164e+001  -4.563947e+001 
3778125000  -3.264331e+001  -4.686757e+001 
3781250000  -3.241842e+001  -4.966352e+001 
3784375000  -3.227705e+001  -5.120499e+001 
3787500000  -3.162915e+001  -5.531020e+001 
3790625000  -3.220224e+001  -6.123678e+001 
3793750000  -3.235853e+001  -6.155337e+001 
3796875000  -3.145240e+001  -6.223273e+001 
3800000000  -2.991317e+001  -6.612094e+001 
3803125000  -3.058287e+001  -7.314190e+001 
3806250000  -3.131661e+001  -7.599013e+001 
3809375000  -3.105190e+001  -7.694410e+001 
3812500000  -3.038012e+001  -8.228870e+001 
3815625000  -3.101211e+001  -8.952374e+001 
3818750000  -3.203497e+001  -9.116553e+001 
3821875000  -3.199063e+001  -8.186292e+001 
3825000000  -3.003978e+001  -7.758086e+001 
3828125000  -2.874632e+001  -9.158083e+001 
3831250000  -2.923059e+001  -1.059685e+002 
3834375000  -3.056065e+001  -1.071149e+002 
3837500000  -3.143102e+001  -1.008302e+002 
3840625000  -3.043440e+001  -1.026987e+002 
3843750000  -2.921456e+001  -1.125397e+002 
3846875000  -2.996088e+001  -1.194164e+002 
3850000000  -3.124994e+001  -1.140659e+002 
3853125000  -3.045901e+001  -1.116504e+002 
3856250000  -3.038560e+001  -1.165325e+002 
3859375000  -2.965894e+001  -1.206939e+002 
3862500000  -2.928773e+001  -1.275012e+002 
3865625000  -2.963555e+001  -1.320320e+002 
3868750000  -2.953548e+001  -1.323255e+002 
3871875000  -2.884771e+001  -1.351012e+002 
3875000000  -2.898171e+001  -1.439050e+002 
3878125000  -2.996806e+001  -1.463503e+002 
3881250000  -3.009951e+001  -1.434403e+002 
3884375000  -2.941788e+001  -1.480646e+002 
3887500000  -2.961832e+001  -1.514028e+002 
3890625000  -3.003503e+001  -1.539462e+002 
3893750000  -3.050934e+001  -1.552915e+002 
3896875000  -3.059106e+001  -1.552041e+002 
3900000000  -3.089209e+001  -1.559839e+002 
3903125000  -3.048206e+001  -1.582947e+002 
3906250000  -3.016243e+001  -1.585632e+002 
3909375000  -2.941161e+001  -1.612629e+002 
3912500000  -2.951217e+001  -1.688428e+002 
3915625000  -3.072806e+001  -1.681362e+002 
3918750000  -3.084311e+001  -1.667462e+002 
3921875000  -3.032145e+001  -1.676956e+002 
3925000000  -2.947599e+001  -1.686298e+002 
3928125000  -2.888468e+001  -1.743223e+002 
3931250000  -2.941061e+001  -1.783073e+002 
3934375000  -2.950290e+001  -1.780311e+002 
3937500000  -2.966460e+001  -1.789463e+002 
3940625000  -3.006315e+001  -1.792961e+002 
3943750000  -2.923999e+001  -1.774268e+002 
3946875000  -2.797510e+001  1.768718e+002 
3950000000  -2.853124e+001  1.697217e+002 
3953125000  -2.938876e+001  1.697500e+002 
3956250000  -2.853280e+001  1.724691e+002 
3959375000  -2.718432e+001  1.694159e+002 
3962500000  -2.669779e+001  1.652086e+002 
3965625000  -2.645612e+001  1.565408e+002 
3968750000  -2.725074e+001  1.505270e+002 
3971875000  -2.758488e+001  1.486564e+002 
3975000000  -2.706848e+001  1.467054e+002 
3978125000  -2.688333e+001  1.454026e+002 
3981250000  -2.668637e+001  1.413139e+002 
3984375000  -2.683771e+001  1.353161e+002 
3987500000  -2.734014e+001  1.328387e+002 
3990625000  -2.730635e+001  1.320274e+002 
3993750000  -2.748083e+001  1.291068e+002 
3996875000  -2.747338e+001  1.266864e+002 
4000000000  -2.763850e+001  1.243187e+002 
4003125000  -2.818098e+001  1.269761e+002 
4006250000  -2.680839e+001  1.272394e+002 
4009375000  -2.552513e+001  1.151534e+002 
4012500000  -2.657549e+001  1.084145e+002 
4015625000  -2.774636e+001  1.086491e+002 
4018750000  -2.792416e+001  1.109420e+002 
4021875000  -2.730616e+001  1.090687e+002 
4025000000  -2.690471e+001  1.044320e+002 
4028125000  -2.682434e+001  1.006624e+002 
4031250000  -2.725952e+001  9.722261e+001 
4034375000  -2.749851e+001  9.706482e+001 
4037500000  -2.701097e+001  9.779856e+001 
4040625000  -2.691557e+001  9.471078e+001 
4043750000  -2.730869e+001  9.504234e+001 
4046875000  -2.678028e+001  9.439172e+001 
4050000000  -2.626245e+001  8.868793e+001 
4053125000  -2.669372e+001  8.601568e+001 
4056250000  -2.736486e+001  9.019191e+001 
4059375000  -2.624586e+001  9.207059e+001 
4062500000  -2.483625e+001  8.754292e+001 
4065625000  -2.478602e+001  8.318137e+001 
4068750000  -2.441498e+001  7.899883e+001 
4071875000  -2.374195e+001  7.092429e+001 
4075000000  -2.411501e+001  6.469643e+001 
4078125000  -2.469976e+001  6.324011e+001 
4081250000  -2.417744e+001  6.068439e+001 
4084375000  -2.369220e+001  5.411314e+001 
4087500000  -2.400877e+001  4.774315e+001 
4090625000  -2.459461e+001  4.687745e+001 
4093750000  -2.449394e+001  4.742422e+001 
4096875000  -2.403268e+001  4.163284e+001 
4100000000  -2.467470e+001  3.461778e+001 
4103125000  -2.554755e+001  3.546751e+001 
4106250000  -2.534732e+001  4.028269e+001 
4109375000  -2.445221e+001  3.933904e+001 
4112500000  -2.393800e+001  3.274514e+001 
4115625000  -2.421166e+001  2.843595e+001 
4118750000  -2.432997e+001  2.557607e+001 
4121875000  -2.401235e+001  2.127771e+001 
4125000000  -2.439026e+001  1.603322e+001 
4128125000  -2.532430e+001  1.684190e+001 
4131250000  -2.493015e+001  2.483692e+001 
4134375000  -2.261759e+001  2.055274e+001 
4137500000  -2.243885e+001  1.324715e+000 
4140625000  -2.458225e+001  -6.072448e+000 
4143750000  -2.595119e+001  -7.658076e-001 
4146875000  -2.542238e+001  6.582516e+000 
4150000000  -2.441105e+001  3.051333e+000 
4153125000  -2.434568e+001  -3.543525e+000 
4156250000  -2.520859e+001  -6.187508e+000 
4159375000  -2.554546e+001  -1.915087e+000 
4162500000  -2.434382e+001  2.590383e+000 
4165625000  -2.321753e+001  -1.785309e+000 
4168750000  -2.258424e+001  -8.732116e+000 
4171875000  -2.252857e+001  -1.813686e+001 
4175000000  -2.307885e+001  -2.396721e+001 
4178125000  -2.365456e+001  -2.458540e+001 
4181250000  -2.352767e+001  -2.494050e+001 
4184375000  -2.343751e+001  -2.839727e+001 
4187500000  -2.342601e+001  -3.134747e+001 
4190625000  -2.329974e+001  -3.667613e+001 
4193750000  -2.409847e+001  -4.054885e+001 
4196875000  -2.481754e+001  -4.102177e+001 
4200000000  -2.564638e+001  -3.856258e+001 
4203125000  -2.558110e+001  -2.529613e+001 
4206250000  -2.235284e+001  -2.393515e+001 
4209375000  -2.119127e+001  -4.444257e+001 
4212500000  -2.313511e+001  -5.311135e+001 
4215625000  -2.407545e+001  -4.641973e+001 
4218750000  -2.264323e+001  -3.964716e+001 
4221875000  -2.032878e+001  -4.914274e+001 
4225000000  -2.153676e+001  -6.237625e+001 
4228125000  -2.231939e+001  -5.742730e+001 
4231250000  -2.082723e+001  -6.126079e+001 
4234375000  -2.074983e+001  -6.915336e+001 
4237500000  -2.031607e+001  -7.283363e+001 
4240625000  -2.035314e+001  -8.153793e+001 
4243750000  -2.136757e+001  -8.739339e+001 
4246875000  -2.221536e+001  -8.736481e+001 
4250000000  -2.225347e+001  -8.449972e+001 
4253125000  -2.164745e+001  -8.636807e+001 
4256250000  -2.178275e+001  -9.081334e+001 
4259375000  -2.155270e+001  -9.308227e+001 
4262500000  -2.162073e+001  -9.670222e+001 
4265625000  -2.175409e+001  -9.686477e+001 
4268750000  -2.094937e+001  -1.004775e+002 
4271875000  -2.068182e+001  -1.056786e+002 
4275000000  -2.004336e+001  -1.123888e+002 
4278125000  -2.061511e+001  -1.241877e+002 
4281250000  -2.229482e+001  -1.262687e+002 
4284375000  -2.206889e+001  -1.257298e+002 
4287500000  -2.296030e+001  -1.295250e+002 
4290625000  -2.428393e+001  -1.198582e+002 
4293750000  -2.226030e+001  -1.136863e+002 
4296875000  -2.090587e+001  -1.251984e+002 
4300000000  -2.176255e+001  -1.342782e+002 
4303125000  -2.274328e+001  -1.330840e+002 
4306250000  -2.212057e+001  -1.274510e+002 
4309375000  -2.078256e+001  -1.301340e+002 
4312500000  -2.070033e+001  -1.385554e+002 
4315625000  -2.098386e+001  -1.445563e+002 
4318750000  -2.131559e+001  -1.478815e+002 
4321875000  -2.144566e+001  -1.473277e+002 
4325000000  -2.082845e+001  -1.470897e+002 
4328125000  -2.035041e+001  -1.535554e+002 
4331250000  -2.036313e+001  -1.615579e+002 
4334375000  -2.081873e+001  -1.665318e+002 
4337500000  -2.161065e+001  -1.687213e+002 
4340625000  -2.208859e+001  -1.656076e+002 
4343750000  -2.159658e+001  -1.651989e+002 
4346875000  -2.121542e+001  -1.703433e+002 
4350000000  -2.112263e+001  -1.749617e+002 
4353125000  -2.118611e+001  1.767448e+002 
4356250000  -2.294260e+001  1.754786e+002 
4359375000  -2.354867e+001  -1.709856e+002 
4362500000  -2.095491e+001  -1.689778e+002 
4365625000  -1.937329e+001  1.794382e+002 
4368750000  -2.010400e+001  1.678391e+002 
4371875000  -2.127851e+001  1.687709e+002 
4375000000  -2.096386e+001  1.697402e+002 
4378125000  -2.038215e+001  1.637522e+002 
4381250000  -2.050368e+001  1.585062e+002 
4384375000  -2.028182e+001  1.540965e+002 
4387500000  -2.097322e+001  1.479733e+002 
4390625000  -2.203641e+001  1.490304e+002 
4393750000  -2.144446e+001  1.512399e+002 
4396875000  -2.073875e+001  1.490170e+002 
4400000000  -2.028865e+001  1.423835e+002 
4403125000  -2.082876e+001  1.344664e+002 
4406250000  -2.164857e+001  1.331524e+002 
4409375000  -2.157151e+001  1.308289e+002 
4412500000  -2.256214e+001  1.279458e+002 
4415625000  -2.294378e+001  1.327522e+002 
4418750000  -2.181732e+001  1.376750e+002 
