!Agilent Technologies,E8363B,MY43030201,A.06.04.32
!Agilent E8363B: A.06.04.32
!Date: Tuesday, November 11, 2014 20:48:21
!Correction: S21(Response(S21)) 
!S1P File: Measurement: S21:
# Hz S  dB   R 50
3000000000  -2.650528e+001  1.550338e+002 
3003125000  -2.787790e+001  1.507092e+002 
3006250000  -2.793279e+001  1.474328e+002 
3009375000  -2.832092e+001  1.526437e+002 
3012500000  -2.779412e+001  1.524443e+002 
3015625000  -2.682532e+001  1.453963e+002 
3018750000  -2.765484e+001  1.443266e+002 
3021875000  -2.643959e+001  1.457741e+002 
3025000000  -2.510084e+001  1.427274e+002 
3028125000  -2.414983e+001  1.377999e+002 
3031250000  -2.309883e+001  1.266416e+002 
3034375000  -2.275595e+001  1.136769e+002 
3037500000  -2.308150e+001  1.017047e+002 
3040625000  -2.440525e+001  9.672836e+001 
3043750000  -2.510218e+001  9.246020e+001 
3046875000  -2.518958e+001  8.588755e+001 
3050000000  -2.695134e+001  7.889507e+001 
3053125000  -2.712571e+001  8.535358e+001 
3056250000  -2.644454e+001  8.845261e+001 
3059375000  -2.673655e+001  8.803146e+001 
3062500000  -2.522648e+001  8.432990e+001 
3065625000  -2.497764e+001  7.874442e+001 
3068750000  -2.473879e+001  7.163935e+001 
3071875000  -2.467045e+001  6.856891e+001 
3075000000  -2.467439e+001  6.497178e+001 
3078125000  -2.434129e+001  6.029508e+001 
3081250000  -2.498693e+001  5.634904e+001 
3084375000  -2.425872e+001  5.255894e+001 
3087500000  -2.414635e+001  4.892986e+001 
3090625000  -2.387396e+001  3.943975e+001 
3093750000  -2.424995e+001  3.154838e+001 
3096875000  -2.558039e+001  2.499464e+001 
3100000000  -2.574390e+001  2.379858e+001 
3103125000  -2.606424e+001  2.530124e+001 
3106250000  -2.582202e+001  2.190778e+001 
3109375000  -2.610148e+001  1.840770e+001 
3112500000  -2.620237e+001  1.735790e+001 
3115625000  -2.599933e+001  1.329774e+001 
3118750000  -2.642521e+001  1.453879e+001 
3121875000  -2.582564e+001  6.610873e+000 
3125000000  -2.692316e+001  2.842323e+000 
3128125000  -2.823298e+001  1.089762e+001 
3131250000  -2.599517e+001  1.165033e+001 
3134375000  -2.463590e+001  -1.813249e+000 
3137500000  -2.527647e+001  -1.561197e+001 
3140625000  -2.697068e+001  -1.787402e+001 
3143750000  -2.799046e+001  -1.311974e+001 
3146875000  -2.755567e+001  -1.141204e+001 
3150000000  -2.654125e+001  -9.022594e+000 
3153125000  -2.653475e+001  -1.676211e+001 
3156250000  -2.749297e+001  -1.184625e+001 
3159375000  -2.598492e+001  -8.500809e+000 
3162500000  -2.393456e+001  -2.112392e+001 
3165625000  -2.483105e+001  -3.228364e+001 
3168750000  -2.523522e+001  -3.157084e+001 
3171875000  -2.427466e+001  -3.558215e+001 
3175000000  -2.488288e+001  -4.330180e+001 
3178125000  -2.469259e+001  -4.182979e+001 
3181250000  -2.353852e+001  -4.553247e+001 
3184375000  -2.271702e+001  -5.767542e+001 
3187500000  -2.379926e+001  -7.327103e+001 
3190625000  -2.664611e+001  -8.104482e+001 
3193750000  -2.723918e+001  -7.135289e+001 
3196875000  -2.683237e+001  -6.551580e+001 
3200000000  -2.597585e+001  -6.736916e+001 
3203125000  -2.509809e+001  -7.292545e+001 
3206250000  -2.537177e+001  -7.942818e+001 
3209375000  -2.486506e+001  -8.436727e+001 
3212500000  -2.499912e+001  -9.097634e+001 
3215625000  -2.520154e+001  -9.573423e+001 
3218750000  -2.591970e+001  -1.017714e+002 
3221875000  -2.695645e+001  -1.068728e+002 
3225000000  -2.654975e+001  -1.074264e+002 
3228125000  -2.687170e+001  -1.118861e+002 
3231250000  -2.759560e+001  -1.144063e+002 
3234375000  -2.748089e+001  -1.136462e+002 
3237500000  -2.747981e+001  -1.152153e+002 
3240625000  -2.718792e+001  -1.168950e+002 
3243750000  -2.680019e+001  -1.233155e+002 
3246875000  -2.729462e+001  -1.300713e+002 
3250000000  -2.774147e+001  -1.320795e+002 
3253125000  -2.794163e+001  -1.336891e+002 
3256250000  -2.782140e+001  -1.399851e+002 
3259375000  -2.806941e+001  -1.471028e+002 
3262500000  -2.933201e+001  -1.497688e+002 
3265625000  -3.004055e+001  -1.466280e+002 
3268750000  -2.998767e+001  -1.437059e+002 
3271875000  -2.976612e+001  -1.424082e+002 
3275000000  -2.871089e+001  -1.473787e+002 
3278125000  -2.912107e+001  -1.542447e+002 
3281250000  -2.944703e+001  -1.523280e+002 
3284375000  -2.899888e+001  -1.577533e+002 
3287500000  -2.911298e+001  -1.610847e+002 
3290625000  -2.956038e+001  -1.651351e+002 
3293750000  -2.927781e+001  -1.705238e+002 
3296875000  -3.026438e+001  -1.706188e+002 
3300000000  -3.013384e+001  -1.693691e+002 
3303125000  -2.907458e+001  -1.735544e+002 
3306250000  -2.877204e+001  1.798739e+002 
3309375000  -2.856896e+001  1.747163e+002 
3312500000  -2.863095e+001  1.646334e+002 
3315625000  -2.966306e+001  1.564299e+002 
3318750000  -3.093458e+001  1.541286e+002 
3321875000  -3.221790e+001  1.536262e+002 
3325000000  -3.277662e+001  1.585423e+002 
3328125000  -3.269022e+001  1.600227e+002 
3331250000  -3.148270e+001  1.675472e+002 
3334375000  -2.891460e+001  1.581571e+002 
3337500000  -2.886660e+001  1.402636e+002 
3340625000  -3.026435e+001  1.288099e+002 
3343750000  -3.219114e+001  1.278833e+002 
3346875000  -3.280339e+001  1.289525e+002 
3350000000  -3.212967e+001  1.282739e+002 
3353125000  -3.218877e+001  1.236963e+002 
3356250000  -3.187849e+001  1.157189e+002 
3359375000  -3.281369e+001  1.078717e+002 
3362500000  -3.416863e+001  1.018038e+002 
3365625000  -3.473244e+001  1.002895e+002 
3368750000  -3.575417e+001  9.834036e+001 
3371875000  -3.608150e+001  9.523719e+001 
3375000000  -3.780880e+001  9.335526e+001 
3378125000  -3.866977e+001  9.272311e+001 
3381250000  -4.026381e+001  9.979584e+001 
3384375000  -3.966267e+001  1.221555e+002 
3387500000  -3.646701e+001  1.064592e+002 
3390625000  -3.825499e+001  9.058382e+001 
3393750000  -3.993256e+001  9.462476e+001 
3396875000  -3.927854e+001  9.651490e+001 
3400000000  -3.913797e+001  9.006759e+001 
3403125000  -4.038243e+001  8.628994e+001 
3406250000  -4.087202e+001  8.840378e+001 
3409375000  -4.172073e+001  8.342015e+001 
3412500000  -4.248576e+001  8.627979e+001 
3415625000  -4.345166e+001  9.343755e+001 
3418750000  -4.404256e+001  9.559260e+001 
3421875000  -4.416698e+001  1.032635e+002 
3425000000  -4.304617e+001  1.049255e+002 
3428125000  -4.223097e+001  1.072741e+002 
3431250000  -4.235172e+001  1.011373e+002 
3434375000  -4.179147e+001  9.900050e+001 
3437500000  -4.238481e+001  9.885309e+001 
3440625000  -4.276908e+001  1.008972e+002 
3443750000  -4.167768e+001  1.028856e+002 
3446875000  -4.066713e+001  9.827031e+001 
3450000000  -4.049602e+001  8.781537e+001 
3453125000  -4.056253e+001  7.981689e+001 
3456250000  -4.177278e+001  7.637138e+001 
3459375000  -4.300493e+001  7.890955e+001 
3462500000  -4.290024e+001  7.893170e+001 
3465625000  -4.301447e+001  7.391682e+001 
3468750000  -4.347369e+001  7.176946e+001 
3471875000  -4.341483e+001  7.419168e+001 
3475000000  -4.328890e+001  7.053934e+001 
3478125000  -4.415593e+001  6.314210e+001 
3481250000  -4.522994e+001  6.197675e+001 
3484375000  -4.674933e+001  6.744656e+001 
3487500000  -4.645927e+001  7.102534e+001 
3490625000  -4.593596e+001  7.055166e+001 
3493750000  -4.629130e+001  6.654530e+001 
3496875000  -4.740805e+001  6.869825e+001 
3500000000  -4.842811e+001  7.870301e+001 
3503125000  -4.782972e+001  7.910256e+001 
3506250000  -4.667752e+001  8.001428e+001 
3509375000  -4.699983e+001  7.980829e+001 
3512500000  -4.746457e+001  7.741375e+001 
3515625000  -4.803664e+001  8.044958e+001 
3518750000  -4.854516e+001  8.618194e+001 
3521875000  -4.721247e+001  8.906301e+001 
3525000000  -4.779687e+001  8.851736e+001 
3528125000  -4.717261e+001  1.017127e+002 
3531250000  -4.579580e+001  1.021603e+002 
3534375000  -4.462994e+001  9.344579e+001 
3537500000  -4.534474e+001  8.970668e+001 
3540625000  -4.545778e+001  8.934913e+001 
3543750000  -4.576518e+001  9.498961e+001 
3546875000  -4.505552e+001  1.048659e+002 
3550000000  -4.271201e+001  1.084699e+002 
3553125000  -4.135019e+001  9.151134e+001 
3556250000  -4.213564e+001  8.475742e+001 
3559375000  -4.208442e+001  8.817304e+001 
3562500000  -4.064081e+001  8.049605e+001 
3565625000  -4.134115e+001  7.313377e+001 
3568750000  -4.145825e+001  7.679675e+001 
3571875000  -4.127634e+001  7.558566e+001 
3575000000  -4.056227e+001  7.101691e+001 
3578125000  -4.096874e+001  6.762708e+001 
3581250000  -4.106187e+001  6.749194e+001 
3584375000  -4.015560e+001  6.675172e+001 
3587500000  -3.943930e+001  6.021823e+001 
3590625000  -3.977924e+001  5.047320e+001 
3593750000  -4.080349e+001  4.994625e+001 
3596875000  -4.082109e+001  5.776801e+001 
3600000000  -3.938347e+001  5.430555e+001 
3603125000  -3.946740e+001  4.093819e+001 
3606250000  -4.016988e+001  3.665268e+001 
3609375000  -4.061082e+001  3.603217e+001 
3612500000  -4.104559e+001  3.622226e+001 
3615625000  -4.096690e+001  3.234658e+001 
3618750000  -4.156324e+001  3.400868e+001 
3621875000  -4.135424e+001  3.379761e+001 
3625000000  -4.156038e+001  3.254876e+001 
3628125000  -4.178318e+001  3.275850e+001 
3631250000  -4.151270e+001  2.768675e+001 
3634375000  -4.229258e+001  3.037458e+001 
3637500000  -4.205840e+001  3.647185e+001 
3640625000  -4.118592e+001  3.475595e+001 
3643750000  -4.104575e+001  3.028525e+001 
3646875000  -4.119767e+001  2.717292e+001 
3650000000  -4.175532e+001  2.547434e+001 
3653125000  -4.182734e+001  2.642427e+001 
3656250000  -4.176482e+001  2.584687e+001 
3659375000  -4.223002e+001  2.810970e+001 
3662500000  -4.144931e+001  2.761609e+001 
3665625000  -4.147175e+001  2.705326e+001 
3668750000  -4.044588e+001  2.981753e+001 
3671875000  -3.938377e+001  2.629798e+001 
3675000000  -3.989893e+001  2.085294e+001 
3678125000  -4.035027e+001  2.170931e+001 
3681250000  -3.987352e+001  2.239629e+001 
3684375000  -3.960481e+001  2.091374e+001 
3687500000  -3.976633e+001  1.756207e+001 
3690625000  -3.967044e+001  1.548649e+001 
3693750000  -4.040169e+001  1.891612e+001 
3696875000  -3.995829e+001  2.011174e+001 
3700000000  -3.883296e+001  1.929143e+001 
3703125000  -3.862503e+001  1.593192e+001 
3706250000  -3.941450e+001  1.694662e+001 
3709375000  -3.861941e+001  2.032346e+001 
3712500000  -3.742446e+001  2.001462e+001 
3715625000  -3.646320e+001  1.434243e+001 
3718750000  -3.570842e+001  1.131479e+001 
3721875000  -3.535563e+001  5.972750e+000 
3725000000  -3.516335e+001  4.005717e-001 
3728125000  -3.545932e+001  -1.839922e-001 
3731250000  -3.484481e+001  -1.007697e+000 
3734375000  -3.379077e+001  -6.031741e+000 
3737500000  -3.438329e+001  -1.433865e+001 
3740625000  -3.501006e+001  -1.574914e+001 
3743750000  -3.492088e+001  -1.808818e+001 
3746875000  -3.488813e+001  -2.180404e+001 
3750000000  -3.526308e+001  -2.323438e+001 
3753125000  -3.491633e+001  -2.262951e+001 
3756250000  -3.467493e+001  -2.230728e+001 
3759375000  -3.460349e+001  -2.435120e+001 
3762500000  -3.399953e+001  -2.727457e+001 
3765625000  -3.436702e+001  -2.990963e+001 
3768750000  -3.453273e+001  -2.813878e+001 
3771875000  -3.280974e+001  -2.938155e+001 
3775000000  -3.248820e+001  -3.680401e+001 
3778125000  -3.277402e+001  -3.878789e+001 
3781250000  -3.261341e+001  -4.205303e+001 
3784375000  -3.263741e+001  -4.411193e+001 
3787500000  -3.172853e+001  -4.706486e+001 
3790625000  -3.230306e+001  -5.286760e+001 
3793750000  -3.247156e+001  -5.314856e+001 
3796875000  -3.162488e+001  -5.462834e+001 
3800000000  -3.007111e+001  -5.842836e+001 
3803125000  -3.081648e+001  -6.462486e+001 
3806250000  -3.139966e+001  -6.796940e+001 
3809375000  -3.115013e+001  -6.886595e+001 
3812500000  -3.045772e+001  -7.437111e+001 
3815625000  -3.097315e+001  -8.093719e+001 
3818750000  -3.196362e+001  -8.323051e+001 
3821875000  -3.212600e+001  -7.520690e+001 
3825000000  -3.024305e+001  -7.048064e+001 
3828125000  -2.881180e+001  -8.378953e+001 
3831250000  -2.935133e+001  -9.806538e+001 
3834375000  -3.069075e+001  -9.948360e+001 
3837500000  -3.173121e+001  -9.488831e+001 
3840625000  -3.052259e+001  -9.516010e+001 
3843750000  -2.935130e+001  -1.052450e+002 
3846875000  -2.998321e+001  -1.126578e+002 
3850000000  -3.135522e+001  -1.074416e+002 
3853125000  -3.057152e+001  -1.049276e+002 
3856250000  -3.039125e+001  -1.098912e+002 
3859375000  -2.986955e+001  -1.138079e+002 
3862500000  -2.939818e+001  -1.210139e+002 
3865625000  -2.967145e+001  -1.254897e+002 
3868750000  -2.967490e+001  -1.259401e+002 
3871875000  -2.899772e+001  -1.290023e+002 
3875000000  -2.916790e+001  -1.369812e+002 
3878125000  -3.012473e+001  -1.396869e+002 
3881250000  -3.028800e+001  -1.362697e+002 
3884375000  -2.973377e+001  -1.409226e+002 
3887500000  -2.991639e+001  -1.449260e+002 
3890625000  -3.038766e+001  -1.474003e+002 
3893750000  -3.075562e+001  -1.489208e+002 
3896875000  -3.091467e+001  -1.480765e+002 
3900000000  -3.112753e+001  -1.481205e+002 
3903125000  -3.074328e+001  -1.504847e+002 
3906250000  -3.045667e+001  -1.516578e+002 
3909375000  -2.979315e+001  -1.535720e+002 
3912500000  -2.978189e+001  -1.606210e+002 
3915625000  -3.088038e+001  -1.601911e+002 
3918750000  -3.091138e+001  -1.585437e+002 
3921875000  -3.064530e+001  -1.597441e+002 
3925000000  -2.981695e+001  -1.610295e+002 
3928125000  -2.906071e+001  -1.668813e+002 
3931250000  -2.942340e+001  -1.701432e+002 
3934375000  -2.976731e+001  -1.702649e+002 
3937500000  -2.976244e+001  -1.711018e+002 
3940625000  -3.019431e+001  -1.710797e+002 
3943750000  -2.942155e+001  -1.702241e+002 
3946875000  -2.808562e+001  -1.754177e+002 
3950000000  -2.845723e+001  1.769128e+002 
3953125000  -2.949905e+001  1.774323e+002 
3956250000  -2.880111e+001  -1.794725e+002 
3959375000  -2.737307e+001  1.769316e+002 
3962500000  -2.685044e+001  1.728604e+002 
3965625000  -2.645383e+001  1.636519e+002 
3968750000  -2.747094e+001  1.567777e+002 
3971875000  -2.781567e+001  1.558816e+002 
3975000000  -2.719995e+001  1.536547e+002 
3978125000  -2.705040e+001  1.525348e+002 
3981250000  -2.673752e+001  1.478218e+002 
3984375000  -2.699101e+001  1.416872e+002 
3987500000  -2.751479e+001  1.393542e+002 
3990625000  -2.753786e+001  1.386845e+002 
3993750000  -2.777204e+001  1.351978e+002 
3996875000  -2.776589e+001  1.334102e+002 
4000000000  -2.779614e+001  1.314663e+002 
4003125000  -2.849453e+001  1.334709e+002 
4006250000  -2.711372e+001  1.337882e+002 
4009375000  -2.591809e+001  1.220736e+002 
4012500000  -2.692133e+001  1.151583e+002 
4015625000  -2.813611e+001  1.154385e+002 
4018750000  -2.837535e+001  1.178416e+002 
4021875000  -2.769728e+001  1.166442e+002 
4025000000  -2.736317e+001  1.123652e+002 
4028125000  -2.716669e+001  1.079779e+002 
4031250000  -2.767493e+001  1.050160e+002 
4034375000  -2.793814e+001  1.051443e+002 
4037500000  -2.735475e+001  1.067291e+002 
4040625000  -2.728754e+001  1.031113e+002 
4043750000  -2.757810e+001  1.027860e+002 
4046875000  -2.717136e+001  1.026256e+002 
4050000000  -2.660751e+001  9.664709e+001 
4053125000  -2.708822e+001  9.412216e+001 
4056250000  -2.764515e+001  9.778232e+001 
4059375000  -2.647613e+001  1.006448e+002 
4062500000  -2.507770e+001  9.566058e+001 
4065625000  -2.488803e+001  9.119586e+001 
4068750000  -2.466608e+001  8.621168e+001 
4071875000  -2.401376e+001  7.818727e+001 
4075000000  -2.434676e+001  7.189095e+001 
4078125000  -2.490274e+001  7.094484e+001 
4081250000  -2.438405e+001  6.867290e+001 
4084375000  -2.399019e+001  6.187412e+001 
4087500000  -2.432933e+001  5.559032e+001 
4090625000  -2.498725e+001  5.397467e+001 
4093750000  -2.481957e+001  5.468657e+001 
4096875000  -2.436560e+001  4.919171e+001 
4100000000  -2.499397e+001  4.186294e+001 
4103125000  -2.593511e+001  4.214137e+001 
4106250000  -2.583708e+001  4.715446e+001 
4109375000  -2.498108e+001  4.657153e+001 
4112500000  -2.447136e+001  4.034486e+001 
4115625000  -2.476508e+001  3.625191e+001 
4118750000  -2.490121e+001  3.286098e+001 
4121875000  -2.452080e+001  2.879003e+001 
4125000000  -2.482245e+001  2.386512e+001 
4128125000  -2.587398e+001  2.346834e+001 
4131250000  -2.557791e+001  3.196754e+001 
4134375000  -2.327421e+001  2.785104e+001 
4137500000  -2.303618e+001  9.158523e+000 
4140625000  -2.517047e+001  1.892093e+000 
4143750000  -2.647821e+001  6.538217e+000 
4146875000  -2.615326e+001  1.420333e+001 
4150000000  -2.520983e+001  1.135253e+001 
4153125000  -2.496646e+001  5.113262e+000 
4156250000  -2.584471e+001  2.505678e+000 
4159375000  -2.612254e+001  6.834841e+000 
4162500000  -2.497740e+001  1.115051e+001 
4165625000  -2.382671e+001  6.953084e+000 
4168750000  -2.322649e+001  2.748901e-001 
4171875000  -2.319520e+001  -8.961809e+000 
4175000000  -2.372558e+001  -1.481843e+001 
4178125000  -2.441124e+001  -1.497106e+001 
4181250000  -2.423074e+001  -1.549407e+001 
4184375000  -2.403246e+001  -1.857964e+001 
4187500000  -2.405777e+001  -2.173833e+001 
4190625000  -2.386923e+001  -2.710452e+001 
4193750000  -2.459157e+001  -3.109954e+001 
4196875000  -2.535321e+001  -3.172062e+001 
4200000000  -2.617782e+001  -2.955318e+001 
4203125000  -2.627809e+001  -1.711144e+001 
4206250000  -2.298870e+001  -1.431149e+001 
4209375000  -2.174332e+001  -3.490152e+001 
4212500000  -2.361347e+001  -4.385490e+001 
4215625000  -2.468735e+001  -3.830042e+001 
4218750000  -2.342791e+001  -3.151027e+001 
4221875000  -2.103412e+001  -4.024594e+001 
4225000000  -2.226211e+001  -5.311918e+001 
4228125000  -2.306670e+001  -4.791804e+001 
4231250000  -2.146462e+001  -5.144241e+001 
4234375000  -2.143226e+001  -5.989330e+001 
4237500000  -2.097989e+001  -6.331544e+001 
4240625000  -2.098405e+001  -7.171870e+001 
4243750000  -2.198449e+001  -7.834891e+001 
4246875000  -2.285274e+001  -7.849766e+001 
4250000000  -2.291154e+001  -7.572816e+001 
4253125000  -2.234797e+001  -7.747092e+001 
4256250000  -2.262733e+001  -8.164122e+001 
4259375000  -2.239550e+001  -8.341119e+001 
4262500000  -2.240329e+001  -8.729279e+001 
4265625000  -2.255613e+001  -8.693153e+001 
4268750000  -2.173606e+001  -9.029298e+001 
4271875000  -2.146992e+001  -9.626653e+001 
4275000000  -2.083251e+001  -1.025877e+002 
4278125000  -2.137464e+001  -1.135958e+002 
4281250000  -2.320236e+001  -1.157545e+002 
4284375000  -2.292251e+001  -1.146519e+002 
4287500000  -2.360846e+001  -1.186689e+002 
4290625000  -2.493195e+001  -1.092063e+002 
4293750000  -2.295253e+001  -1.034599e+002 
4296875000  -2.157082e+001  -1.145503e+002 
4300000000  -2.235696e+001  -1.238712e+002 
4303125000  -2.345609e+001  -1.232237e+002 
4306250000  -2.290682e+001  -1.169204e+002 
4309375000  -2.148470e+001  -1.187397e+002 
4312500000  -2.136964e+001  -1.271322e+002 
4315625000  -2.157989e+001  -1.335199e+002 
4318750000  -2.185037e+001  -1.368134e+002 
4321875000  -2.204352e+001  -1.363633e+002 
4325000000  -2.144661e+001  -1.358795e+002 
4328125000  -2.093761e+001  -1.424029e+002 
4331250000  -2.091444e+001  -1.502328e+002 
4334375000  -2.130970e+001  -1.554188e+002 
4337500000  -2.208898e+001  -1.580121e+002 
4340625000  -2.264082e+001  -1.549757e+002 
4343750000  -2.213766e+001  -1.543811e+002 
4346875000  -2.173158e+001  -1.596296e+002 
4350000000  -2.177048e+001  -1.642751e+002 
4353125000  -2.173894e+001  -1.722309e+002 
4356250000  -2.344988e+001  -1.736261e+002 
4359375000  -2.413192e+001  -1.607859e+002 
4362500000  -2.159008e+001  -1.584380e+002 
4365625000  -1.995780e+001  -1.700455e+002 
4368750000  -2.059189e+001  1.782032e+002 
4371875000  -2.184642e+001  1.783538e+002 
4375000000  -2.157768e+001  -1.797527e+002 
4378125000  -2.092808e+001  1.744033e+002 
4381250000  -2.107121e+001  1.687904e+002 
4384375000  -2.091560e+001  1.642905e+002 
4387500000  -2.156297e+001  1.587456e+002 
4390625000  -2.261415e+001  1.594633e+002 
4393750000  -2.203650e+001  1.615012e+002 
4396875000  -2.132615e+001  1.595821e+002 
4400000000  -2.083743e+001  1.526280e+002 
4403125000  -2.139328e+001  1.451666e+002 
4406250000  -2.224369e+001  1.437585e+002 
4409375000  -2.217125e+001  1.415241e+002 
4412500000  -2.317767e+001  1.388654e+002 
4415625000  -2.357644e+001  1.436759e+002 
4418750000  -2.245772e+001  1.483919e+002 
