!Agilent Technologies,E8363B,MY43030201,A.06.04.32
!Agilent E8363B: A.06.04.32
!Date: Tuesday, November 11, 2014 20:51:08
!Correction: S21(Response(S21)) 
!S1P File: Measurement: S21:
# Hz S  dB   R 50
3000000000  -2.649913e+001  1.517774e+002 
3003125000  -2.792179e+001  1.471426e+002 
3006250000  -2.796961e+001  1.447324e+002 
3009375000  -2.834104e+001  1.496049e+002 
3012500000  -2.783504e+001  1.493750e+002 
3015625000  -2.684910e+001  1.422899e+002 
3018750000  -2.769442e+001  1.414322e+002 
3021875000  -2.642381e+001  1.428596e+002 
3025000000  -2.510182e+001  1.397115e+002 
3028125000  -2.416144e+001  1.347262e+002 
3031250000  -2.311430e+001  1.235081e+002 
3034375000  -2.277086e+001  1.105378e+002 
3037500000  -2.312329e+001  9.859822e+001 
3040625000  -2.443290e+001  9.356705e+001 
3043750000  -2.514478e+001  8.921697e+001 
3046875000  -2.527849e+001  8.295254e+001 
3050000000  -2.702068e+001  7.592026e+001 
3053125000  -2.710279e+001  8.255245e+001 
3056250000  -2.646744e+001  8.538835e+001 
3059375000  -2.667268e+001  8.520290e+001 
3062500000  -2.523209e+001  8.126678e+001 
3065625000  -2.499524e+001  7.536102e+001 
3068750000  -2.471072e+001  6.863478e+001 
3071875000  -2.466084e+001  6.577399e+001 
3075000000  -2.460966e+001  6.187712e+001 
3078125000  -2.436044e+001  5.728189e+001 
3081250000  -2.496147e+001  5.301619e+001 
3084375000  -2.425554e+001  4.941221e+001 
3087500000  -2.411861e+001  4.582739e+001 
3090625000  -2.382961e+001  3.624104e+001 
3093750000  -2.429510e+001  2.829002e+001 
3096875000  -2.559043e+001  2.204453e+001 
3100000000  -2.571794e+001  2.094473e+001 
3103125000  -2.608493e+001  2.208264e+001 
3106250000  -2.578334e+001  1.866928e+001 
3109375000  -2.607508e+001  1.506989e+001 
3112500000  -2.614722e+001  1.422285e+001 
3115625000  -2.598822e+001  1.006133e+001 
3118750000  -2.645580e+001  1.126234e+001 
3121875000  -2.579568e+001  3.051033e+000 
3125000000  -2.697131e+001  -3.486665e-001 
3128125000  -2.814699e+001  7.700500e+000 
3131250000  -2.599090e+001  8.166316e+000 
3134375000  -2.468903e+001  -5.420264e+000 
3137500000  -2.531229e+001  -1.891307e+001 
3140625000  -2.694182e+001  -2.048345e+001 
3143750000  -2.795112e+001  -1.649310e+001 
3146875000  -2.748421e+001  -1.481890e+001 
3150000000  -2.653029e+001  -1.233270e+001 
3153125000  -2.649254e+001  -2.008501e+001 
3156250000  -2.746117e+001  -1.466784e+001 
3159375000  -2.594599e+001  -1.151276e+001 
3162500000  -2.389857e+001  -2.486111e+001 
3165625000  -2.484303e+001  -3.550941e+001 
3168750000  -2.520872e+001  -3.481743e+001 
3171875000  -2.427164e+001  -3.884993e+001 
3175000000  -2.489311e+001  -4.666767e+001 
3178125000  -2.467646e+001  -4.528828e+001 
3181250000  -2.352545e+001  -4.900780e+001 
3184375000  -2.274872e+001  -6.138559e+001 
3187500000  -2.383455e+001  -7.648351e+001 
3190625000  -2.660335e+001  -8.362106e+001 
3193750000  -2.722421e+001  -7.445438e+001 
3196875000  -2.679110e+001  -6.873182e+001 
3200000000  -2.591455e+001  -7.054395e+001 
3203125000  -2.503628e+001  -7.659669e+001 
3206250000  -2.533936e+001  -8.273486e+001 
3209375000  -2.484691e+001  -8.795834e+001 
3212500000  -2.500827e+001  -9.449187e+001 
3215625000  -2.516735e+001  -9.854336e+001 
3218750000  -2.588516e+001  -1.046832e+002 
3221875000  -2.690242e+001  -1.097958e+002 
3225000000  -2.646833e+001  -1.105608e+002 
3228125000  -2.681949e+001  -1.151879e+002 
3231250000  -2.756586e+001  -1.178890e+002 
3234375000  -2.741397e+001  -1.166214e+002 
3237500000  -2.742910e+001  -1.183614e+002 
3240625000  -2.709819e+001  -1.199746e+002 
3243750000  -2.674737e+001  -1.264894e+002 
3246875000  -2.721511e+001  -1.334388e+002 
3250000000  -2.770226e+001  -1.354296e+002 
3253125000  -2.788021e+001  -1.367618e+002 
3256250000  -2.770006e+001  -1.426602e+002 
3259375000  -2.803416e+001  -1.502150e+002 
3262500000  -2.932463e+001  -1.530945e+002 
3265625000  -2.995657e+001  -1.496743e+002 
3268750000  -2.991996e+001  -1.470874e+002 
3271875000  -2.969513e+001  -1.460697e+002 
3275000000  -2.860238e+001  -1.511121e+002 
3278125000  -2.907064e+001  -1.574759e+002 
3281250000  -2.935235e+001  -1.555739e+002 
3284375000  -2.890059e+001  -1.615464e+002 
3287500000  -2.910157e+001  -1.640324e+002 
3290625000  -2.948091e+001  -1.681717e+002 
3293750000  -2.915077e+001  -1.735936e+002 
3296875000  -3.017187e+001  -1.735567e+002 
3300000000  -3.009976e+001  -1.728394e+002 
3303125000  -2.892094e+001  -1.765348e+002 
3306250000  -2.867912e+001  1.765108e+002 
3309375000  -2.850699e+001  1.713964e+002 
3312500000  -2.854496e+001  1.611406e+002 
3315625000  -2.950912e+001  1.535708e+002 
3318750000  -3.091862e+001  1.508457e+002 
3321875000  -3.218952e+001  1.507506e+002 
3325000000  -3.273386e+001  1.558349e+002 
3328125000  -3.252282e+001  1.570925e+002 
3331250000  -3.138615e+001  1.652433e+002 
3334375000  -2.873750e+001  1.552934e+002 
3337500000  -2.875682e+001  1.367179e+002 
3340625000  -3.015973e+001  1.258537e+002 
3343750000  -3.212236e+001  1.245929e+002 
3346875000  -3.258000e+001  1.263423e+002 
3350000000  -3.194946e+001  1.250279e+002 
3353125000  -3.202984e+001  1.203543e+002 
3356250000  -3.173431e+001  1.128698e+002 
3359375000  -3.261619e+001  1.044679e+002 
3362500000  -3.405550e+001  9.904152e+001 
3365625000  -3.461081e+001  9.750793e+001 
3368750000  -3.554316e+001  9.659250e+001 
3371875000  -3.586713e+001  9.210558e+001 
3375000000  -3.751670e+001  8.997704e+001 
3378125000  -3.874234e+001  8.993574e+001 
3381250000  -4.004101e+001  9.755296e+001 
3384375000  -3.928577e+001  1.186793e+002 
3387500000  -3.621272e+001  1.046294e+002 
3390625000  -3.781833e+001  8.665362e+001 
3393750000  -3.964688e+001  9.190385e+001 
3396875000  -3.883402e+001  9.353888e+001 
3400000000  -3.890820e+001  8.552658e+001 
3403125000  -3.999974e+001  8.314909e+001 
3406250000  -4.069098e+001  8.528236e+001 
3409375000  -4.118344e+001  8.225037e+001 
3412500000  -4.224739e+001  8.170354e+001 
3415625000  -4.304531e+001  8.616190e+001 
3418750000  -4.335663e+001  9.019185e+001 
3421875000  -4.367671e+001  9.838950e+001 
3425000000  -4.284622e+001  1.020759e+002 
3428125000  -4.181222e+001  1.004060e+002 
3431250000  -4.158876e+001  9.702879e+001 
3434375000  -4.173492e+001  9.262315e+001 
3437500000  -4.189624e+001  9.017451e+001 
3440625000  -4.211766e+001  9.316522e+001 
3443750000  -4.069437e+001  9.618064e+001 
3446875000  -4.009633e+001  9.177483e+001 
3450000000  -3.982992e+001  8.431558e+001 
3453125000  -4.019830e+001  7.478340e+001 
3456250000  -4.135506e+001  7.038062e+001 
3459375000  -4.222659e+001  7.151920e+001 
3462500000  -4.270319e+001  7.271604e+001 
3465625000  -4.238000e+001  6.889813e+001 
3468750000  -4.276669e+001  6.393306e+001 
3471875000  -4.292424e+001  6.668102e+001 
3475000000  -4.288618e+001  6.252478e+001 
3478125000  -4.328888e+001  5.615971e+001 
3481250000  -4.454852e+001  5.590772e+001 
3484375000  -4.628064e+001  6.131540e+001 
3487500000  -4.562061e+001  6.306195e+001 
3490625000  -4.572398e+001  6.100677e+001 
3493750000  -4.595309e+001  5.765881e+001 
3496875000  -4.702270e+001  5.931302e+001 
3500000000  -4.823223e+001  6.626041e+001 
3503125000  -4.832724e+001  7.784070e+001 
3506250000  -4.664285e+001  7.234697e+001 
3509375000  -4.722310e+001  7.171144e+001 
3512500000  -4.734311e+001  6.964606e+001 
3515625000  -4.774953e+001  7.170615e+001 
3518750000  -4.833627e+001  7.900737e+001 
3521875000  -4.768108e+001  8.446992e+001 
3525000000  -4.837211e+001  8.289138e+001 
3528125000  -4.779047e+001  9.537800e+001 
3531250000  -4.544238e+001  9.674258e+001 
3534375000  -4.508402e+001  8.642023e+001 
3537500000  -4.535826e+001  8.396899e+001 
3540625000  -4.571818e+001  8.138087e+001 
3543750000  -4.591703e+001  8.848608e+001 
3546875000  -4.552491e+001  1.012075e+002 
3550000000  -4.276759e+001  1.032203e+002 
3553125000  -4.162943e+001  8.455820e+001 
3556250000  -4.236479e+001  7.773612e+001 
3559375000  -4.197674e+001  8.201337e+001 
3562500000  -4.077329e+001  7.536246e+001 
3565625000  -4.188164e+001  6.793717e+001 
3568750000  -4.207354e+001  7.058941e+001 
3571875000  -4.165818e+001  7.047791e+001 
3575000000  -4.099016e+001  6.678079e+001 
3578125000  -4.139268e+001  6.263739e+001 
3581250000  -4.155439e+001  6.358400e+001 
3584375000  -4.057817e+001  6.181950e+001 
3587500000  -3.992590e+001  5.660418e+001 
3590625000  -4.010686e+001  4.668097e+001 
3593750000  -4.127531e+001  4.529817e+001 
3596875000  -4.121671e+001  5.422214e+001 
3600000000  -3.973826e+001  5.142131e+001 
3603125000  -3.989427e+001  3.860870e+001 
3606250000  -4.065058e+001  3.449264e+001 
3609375000  -4.097178e+001  3.475360e+001 
3612500000  -4.122997e+001  3.173250e+001 
3615625000  -4.151321e+001  2.967161e+001 
3618750000  -4.199666e+001  3.149680e+001 
3621875000  -4.136864e+001  3.067646e+001 
3625000000  -4.198804e+001  3.105729e+001 
3628125000  -4.154134e+001  3.066318e+001 
3631250000  -4.117704e+001  2.512665e+001 
3634375000  -4.252750e+001  2.845407e+001 
3637500000  -4.205637e+001  3.318416e+001 
3640625000  -4.089886e+001  3.479409e+001 
3643750000  -4.067036e+001  2.873757e+001 
3646875000  -4.111219e+001  2.415475e+001 
3650000000  -4.156183e+001  2.085178e+001 
3653125000  -4.152235e+001  2.361384e+001 
3656250000  -4.147843e+001  2.206520e+001 
3659375000  -4.205963e+001  2.508706e+001 
3662500000  -4.112941e+001  2.258979e+001 
3665625000  -4.126768e+001  2.359078e+001 
3668750000  -4.027397e+001  2.783739e+001 
3671875000  -3.934553e+001  2.188882e+001 
3675000000  -3.977369e+001  1.630186e+001 
3678125000  -4.017478e+001  1.668657e+001 
3681250000  -3.956482e+001  1.669878e+001 
3684375000  -3.976488e+001  1.487167e+001 
3687500000  -3.965060e+001  1.411516e+001 
3690625000  -3.970446e+001  1.123245e+001 
3693750000  -4.033192e+001  1.367337e+001 
3696875000  -4.002643e+001  1.664493e+001 
3700000000  -3.876085e+001  1.553974e+001 
3703125000  -3.860463e+001  1.080657e+001 
3706250000  -3.935753e+001  1.216764e+001 
3709375000  -3.855276e+001  1.732330e+001 
3712500000  -3.760592e+001  1.602895e+001 
3715625000  -3.633993e+001  9.229925e+000 
3718750000  -3.570455e+001  7.274412e+000 
3721875000  -3.516533e+001  1.886981e+000 
3725000000  -3.511921e+001  -2.522188e+000 
3728125000  -3.541987e+001  -3.319248e+000 
3731250000  -3.462579e+001  -4.274323e+000 
3734375000  -3.358343e+001  -9.344147e+000 
3737500000  -3.425794e+001  -1.691483e+001 
3740625000  -3.492363e+001  -2.069891e+001 
3743750000  -3.468448e+001  -2.241142e+001 
3746875000  -3.458371e+001  -2.495710e+001 
3750000000  -3.511482e+001  -2.678848e+001 
3753125000  -3.449772e+001  -2.715752e+001 
3756250000  -3.450991e+001  -2.789135e+001 
3759375000  -3.420708e+001  -2.803603e+001 
3762500000  -3.356975e+001  -3.218489e+001 
3765625000  -3.417343e+001  -3.520071e+001 
3768750000  -3.420835e+001  -3.349348e+001 
3771875000  -3.246745e+001  -3.493388e+001 
3775000000  -3.224179e+001  -4.293254e+001 
3778125000  -3.265460e+001  -4.485006e+001 
3781250000  -3.234758e+001  -4.740130e+001 
3784375000  -3.220644e+001  -4.981475e+001 
3787500000  -3.164368e+001  -5.359340e+001 
3790625000  -3.215259e+001  -5.922321e+001 
3793750000  -3.238501e+001  -5.931573e+001 
3796875000  -3.139340e+001  -6.074848e+001 
3800000000  -2.992680e+001  -6.423173e+001 
3803125000  -3.068648e+001  -7.103318e+001 
3806250000  -3.140146e+001  -7.391483e+001 
3809375000  -3.111555e+001  -7.509861e+001 
3812500000  -3.038181e+001  -8.025204e+001 
3815625000  -3.101194e+001  -8.685786e+001 
3818750000  -3.202650e+001  -8.836612e+001 
3821875000  -3.204970e+001  -8.008454e+001 
3825000000  -3.012622e+001  -7.606863e+001 
3828125000  -2.885122e+001  -8.940134e+001 
3831250000  -2.938814e+001  -1.037142e+002 
3834375000  -3.065118e+001  -1.048730e+002 
3837500000  -3.153173e+001  -9.936472e+001 
3840625000  -3.046111e+001  -1.001263e+002 
3843750000  -2.928571e+001  -1.105668e+002 
3846875000  -2.994308e+001  -1.175156e+002 
3850000000  -3.131961e+001  -1.122698e+002 
3853125000  -3.044343e+001  -1.096099e+002 
3856250000  -3.038044e+001  -1.140279e+002 
3859375000  -2.975297e+001  -1.190338e+002 
3862500000  -2.928436e+001  -1.260093e+002 
3865625000  -2.958372e+001  -1.306817e+002 
3868750000  -2.959887e+001  -1.309488e+002 
3871875000  -2.892145e+001  -1.339538e+002 
3875000000  -2.899216e+001  -1.423349e+002 
3878125000  -3.000110e+001  -1.453575e+002 
3881250000  -3.016047e+001  -1.421517e+002 
3884375000  -2.951871e+001  -1.463313e+002 
3887500000  -2.972297e+001  -1.511375e+002 
3890625000  -3.018524e+001  -1.529983e+002 
3893750000  -3.062255e+001  -1.543125e+002 
3896875000  -3.072445e+001  -1.540764e+002 
3900000000  -3.103457e+001  -1.551921e+002 
3903125000  -3.064747e+001  -1.569020e+002 
3906250000  -3.040197e+001  -1.577004e+002 
3909375000  -2.964350e+001  -1.601233e+002 
3912500000  -2.967176e+001  -1.678124e+002 
3915625000  -3.088015e+001  -1.666700e+002 
3918750000  -3.087730e+001  -1.649702e+002 
3921875000  -3.056998e+001  -1.668770e+002 
3925000000  -2.982786e+001  -1.672067e+002 
3928125000  -2.914052e+001  -1.727684e+002 
3931250000  -2.957232e+001  -1.773367e+002 
3934375000  -2.969257e+001  -1.768880e+002 
3937500000  -2.989832e+001  -1.779295e+002 
3940625000  -3.034974e+001  -1.778334e+002 
3943750000  -2.939148e+001  -1.758849e+002 
3946875000  -2.819088e+001  1.787824e+002 
3950000000  -2.869890e+001  1.714300e+002 
3953125000  -2.957903e+001  1.715114e+002 
3956250000  -2.880220e+001  1.743345e+002 
3959375000  -2.741904e+001  1.710475e+002 
3962500000  -2.693115e+001  1.672784e+002 
3965625000  -2.664729e+001  1.583889e+002 
3968750000  -2.749229e+001  1.518182e+002 
3971875000  -2.784067e+001  1.501754e+002 
3975000000  -2.722806e+001  1.487270e+002 
3978125000  -2.697716e+001  1.467644e+002 
3981250000  -2.680817e+001  1.424708e+002 
3984375000  -2.699329e+001  1.365481e+002 
3987500000  -2.751860e+001  1.339507e+002 
3990625000  -2.748170e+001  1.332817e+002 
3993750000  -2.778041e+001  1.302241e+002 
3996875000  -2.768180e+001  1.275513e+002 
4000000000  -2.785742e+001  1.259306e+002 
4003125000  -2.835601e+001  1.277985e+002 
4006250000  -2.694220e+001  1.282955e+002 
4009375000  -2.577953e+001  1.156765e+002 
4012500000  -2.683830e+001  1.087148e+002 
4015625000  -2.810234e+001  1.092138e+002 
4018750000  -2.824482e+001  1.123290e+002 
4021875000  -2.758921e+001  1.100619e+002 
4025000000  -2.722997e+001  1.052296e+002 
4028125000  -2.717405e+001  1.013093e+002 
4031250000  -2.765690e+001  9.805152e+001 
4034375000  -2.792898e+001  9.798392e+001 
4037500000  -2.743801e+001  1.001180e+002 
4040625000  -2.729911e+001  9.654568e+001 
4043750000  -2.763343e+001  9.624385e+001 
4046875000  -2.726340e+001  9.558461e+001 
4050000000  -2.672236e+001  9.022984e+001 
4053125000  -2.716499e+001  8.816895e+001 
4056250000  -2.783185e+001  9.193955e+001 
4059375000  -2.656706e+001  9.394205e+001 
4062500000  -2.519886e+001  8.964345e+001 
4065625000  -2.504350e+001  8.510935e+001 
4068750000  -2.473834e+001  7.999758e+001 
4071875000  -2.415311e+001  7.249811e+001 
4075000000  -2.448199e+001  6.584317e+001 
4078125000  -2.506789e+001  6.505502e+001 
4081250000  -2.452572e+001  6.267634e+001 
4084375000  -2.415351e+001  5.599800e+001 
4087500000  -2.449479e+001  4.978368e+001 
4090625000  -2.511020e+001  4.883520e+001 
4093750000  -2.489697e+001  4.960505e+001 
4096875000  -2.447830e+001  4.334571e+001 
4100000000  -2.518181e+001  3.668837e+001 
4103125000  -2.605771e+001  3.707796e+001 
4106250000  -2.589436e+001  4.203862e+001 
4109375000  -2.506187e+001  4.166508e+001 
4112500000  -2.445067e+001  3.493579e+001 
4115625000  -2.484816e+001  3.071411e+001 
4118750000  -2.487505e+001  2.783532e+001 
4121875000  -2.450366e+001  2.322526e+001 
4125000000  -2.488781e+001  1.806649e+001 
4128125000  -2.588204e+001  1.826985e+001 
4131250000  -2.563976e+001  2.607177e+001 
4134375000  -2.325546e+001  2.201668e+001 
4137500000  -2.306574e+001  3.405084e+000 
4140625000  -2.516402e+001  -3.762249e+000 
4143750000  -2.652434e+001  1.125661e+000 
4146875000  -2.615449e+001  8.296914e+000 
4150000000  -2.518499e+001  4.831130e+000 
4153125000  -2.500214e+001  -1.024493e+000 
4156250000  -2.586691e+001  -3.932755e+000 
4159375000  -2.619915e+001  5.101178e-001 
4162500000  -2.504427e+001  4.557342e+000 
4165625000  -2.390658e+001  6.867042e-001 
4168750000  -2.329413e+001  -6.335752e+000 
4171875000  -2.330958e+001  -1.562957e+001 
4175000000  -2.385498e+001  -2.105479e+001 
4178125000  -2.450273e+001  -2.139225e+001 
4181250000  -2.435221e+001  -2.168479e+001 
4184375000  -2.416458e+001  -2.494492e+001 
4187500000  -2.425633e+001  -2.797948e+001 
4190625000  -2.405004e+001  -3.331597e+001 
4193750000  -2.482257e+001  -3.721756e+001 
4196875000  -2.557291e+001  -3.726591e+001 
4200000000  -2.642704e+001  -3.497508e+001 
4203125000  -2.644954e+001  -2.183720e+001 
4206250000  -2.307412e+001  -2.028431e+001 
4209375000  -2.187868e+001  -4.095358e+001 
4212500000  -2.382845e+001  -4.922034e+001 
4215625000  -2.480038e+001  -4.361337e+001 
4218750000  -2.352467e+001  -3.635511e+001 
4221875000  -2.116794e+001  -4.566446e+001 
4225000000  -2.238896e+001  -5.853473e+001 
4228125000  -2.310932e+001  -5.324803e+001 
4231250000  -2.155774e+001  -5.689982e+001 
4234375000  -2.148758e+001  -6.522523e+001 
4237500000  -2.106618e+001  -6.860239e+001 
4240625000  -2.101130e+001  -7.708083e+001 
4243750000  -2.202007e+001  -8.384925e+001 
4246875000  -2.293622e+001  -8.397047e+001 
4250000000  -2.297407e+001  -8.105273e+001 
4253125000  -2.239877e+001  -8.304004e+001 
4256250000  -2.267108e+001  -8.700697e+001 
4259375000  -2.240806e+001  -8.918570e+001 
4262500000  -2.242466e+001  -9.264545e+001 
4265625000  -2.261678e+001  -9.242753e+001 
4268750000  -2.168094e+001  -9.622865e+001 
4271875000  -2.150222e+001  -1.020977e+002 
4275000000  -2.085976e+001  -1.084309e+002 
4278125000  -2.143005e+001  -1.197987e+002 
4281250000  -2.326340e+001  -1.217151e+002 
4284375000  -2.297090e+001  -1.208043e+002 
4287500000  -2.375300e+001  -1.245775e+002 
4290625000  -2.498328e+001  -1.150652e+002 
4293750000  -2.299594e+001  -1.093938e+002 
4296875000  -2.167613e+001  -1.208369e+002 
4300000000  -2.247707e+001  -1.300597e+002 
4303125000  -2.360913e+001  -1.288317e+002 
4306250000  -2.300434e+001  -1.227935e+002 
4309375000  -2.164514e+001  -1.250357e+002 
4312500000  -2.150329e+001  -1.333285e+002 
4315625000  -2.172097e+001  -1.394326e+002 
4318750000  -2.203658e+001  -1.428944e+002 
4321875000  -2.222164e+001  -1.422212e+002 
4325000000  -2.161752e+001  -1.416165e+002 
4328125000  -2.114322e+001  -1.479888e+002 
4331250000  -2.105103e+001  -1.561702e+002 
4334375000  -2.149537e+001  -1.613593e+002 
4337500000  -2.235420e+001  -1.634420e+002 
4340625000  -2.290651e+001  -1.601533e+002 
4343750000  -2.232541e+001  -1.597988e+002 
4346875000  -2.191187e+001  -1.653202e+002 
4350000000  -2.191698e+001  -1.701183e+002 
4353125000  -2.199612e+001  -1.777163e+002 
4356250000  -2.373494e+001  -1.783474e+002 
4359375000  -2.436113e+001  -1.655514e+002 
4362500000  -2.165221e+001  -1.633441e+002 
4365625000  -2.005497e+001  -1.752013e+002 
4368750000  -2.079580e+001  1.733157e+002 
4371875000  -2.193126e+001  1.735511e+002 
4375000000  -2.161368e+001  1.747854e+002 
4378125000  -2.095970e+001  1.690705e+002 
4381250000  -2.114852e+001  1.636556e+002 
4384375000  -2.097224e+001  1.592293e+002 
4387500000  -2.172555e+001  1.532728e+002 
4390625000  -2.272962e+001  1.539964e+002 
4393750000  -2.205413e+001  1.563807e+002 
4396875000  -2.139108e+001  1.540109e+002 
4400000000  -2.088520e+001  1.472311e+002 
4403125000  -2.141468e+001  1.395296e+002 
4406250000  -2.230910e+001  1.383851e+002 
4409375000  -2.224979e+001  1.358147e+002 
4412500000  -2.328518e+001  1.333811e+002 
4415625000  -2.366251e+001  1.382637e+002 
4418750000  -2.247424e+001  1.429295e+002 
