!Agilent Technologies,E8363B,MY43030201,A.06.04.32
!Agilent E8363B: A.06.04.32
!Date: Tuesday, November 11, 2014 20:57:24
!Correction: S21(Response(S21)) 
!S1P File: Measurement: S21:
# Hz S  dB   R 50
3000000000  -2.652921e+001  1.472146e+002 
3003125000  -2.795276e+001  1.424265e+002 
3006250000  -2.796828e+001  1.400308e+002 
3009375000  -2.835398e+001  1.453421e+002 
3012500000  -2.779154e+001  1.443903e+002 
3015625000  -2.684669e+001  1.374491e+002 
3018750000  -2.774274e+001  1.369342e+002 
3021875000  -2.638149e+001  1.379228e+002 
3025000000  -2.510284e+001  1.349959e+002 
3028125000  -2.416928e+001  1.297430e+002 
3031250000  -2.309839e+001  1.185692e+002 
3034375000  -2.275259e+001  1.053507e+002 
3037500000  -2.313923e+001  9.363158e+001 
3040625000  -2.449667e+001  8.895441e+001 
3043750000  -2.516490e+001  8.427587e+001 
3046875000  -2.529183e+001  7.795794e+001 
3050000000  -2.703321e+001  7.152587e+001 
3053125000  -2.710777e+001  7.765675e+001 
3056250000  -2.645752e+001  8.072478e+001 
3059375000  -2.670023e+001  8.054993e+001 
3062500000  -2.517504e+001  7.664897e+001 
3065625000  -2.497932e+001  7.077548e+001 
3068750000  -2.469346e+001  6.388936e+001 
3071875000  -2.464565e+001  6.099705e+001 
3075000000  -2.458637e+001  5.695295e+001 
3078125000  -2.435805e+001  5.239447e+001 
3081250000  -2.497720e+001  4.816519e+001 
3084375000  -2.419090e+001  4.468756e+001 
3087500000  -2.410567e+001  4.079927e+001 
3090625000  -2.379741e+001  3.093538e+001 
3093750000  -2.427710e+001  2.313927e+001 
3096875000  -2.555448e+001  1.727823e+001 
3100000000  -2.568579e+001  1.582926e+001 
3103125000  -2.604152e+001  1.725507e+001 
3106250000  -2.578871e+001  1.363632e+001 
3109375000  -2.602313e+001  1.018222e+001 
3112500000  -2.614058e+001  8.908857e+000 
3115625000  -2.596434e+001  5.030177e+000 
3118750000  -2.646154e+001  6.316432e+000 
3121875000  -2.572689e+001  -1.833513e+000 
3125000000  -2.696903e+001  -5.029081e+000 
3128125000  -2.815235e+001  3.064652e+000 
3131250000  -2.583884e+001  3.349403e+000 
3134375000  -2.462248e+001  -1.058168e+001 
3137500000  -2.527965e+001  -2.403815e+001 
3140625000  -2.687847e+001  -2.525609e+001 
3143750000  -2.790904e+001  -2.188932e+001 
3146875000  -2.746911e+001  -1.964694e+001 
3150000000  -2.648402e+001  -1.733084e+001 
3153125000  -2.649160e+001  -2.505256e+001 
3156250000  -2.748065e+001  -1.969956e+001 
3159375000  -2.586261e+001  -1.695801e+001 
3162500000  -2.383567e+001  -2.988341e+001 
3165625000  -2.481656e+001  -4.069969e+001 
3168750000  -2.514829e+001  -3.967845e+001 
3171875000  -2.421822e+001  -4.393432e+001 
3175000000  -2.490122e+001  -5.157683e+001 
3178125000  -2.463459e+001  -5.001455e+001 
3181250000  -2.345906e+001  -5.445859e+001 
3184375000  -2.272428e+001  -6.651054e+001 
3187500000  -2.384571e+001  -8.142525e+001 
3190625000  -2.658561e+001  -8.898074e+001 
3193750000  -2.712293e+001  -7.922617e+001 
3196875000  -2.675515e+001  -7.363762e+001 
3200000000  -2.584608e+001  -7.574979e+001 
3203125000  -2.501432e+001  -8.166264e+001 
3206250000  -2.533090e+001  -8.811487e+001 
3209375000  -2.486696e+001  -9.299182e+001 
3212500000  -2.500688e+001  -9.952205e+001 
3215625000  -2.510168e+001  -1.033602e+002 
3218750000  -2.585056e+001  -1.097180e+002 
3221875000  -2.678656e+001  -1.148087e+002 
3225000000  -2.640170e+001  -1.154697e+002 
3228125000  -2.680678e+001  -1.201531e+002 
3231250000  -2.749193e+001  -1.226140e+002 
3234375000  -2.736065e+001  -1.216746e+002 
3237500000  -2.739839e+001  -1.234858e+002 
3240625000  -2.703637e+001  -1.249901e+002 
3243750000  -2.668645e+001  -1.317776e+002 
3246875000  -2.719077e+001  -1.381758e+002 
3250000000  -2.762402e+001  -1.401708e+002 
3253125000  -2.781552e+001  -1.419275e+002 
3256250000  -2.766437e+001  -1.476495e+002 
3259375000  -2.793971e+001  -1.553450e+002 
3262500000  -2.926195e+001  -1.581808e+002 
3265625000  -2.996146e+001  -1.543861e+002 
3268750000  -2.987418e+001  -1.519092e+002 
3271875000  -2.958394e+001  -1.507259e+002 
3275000000  -2.851317e+001  -1.562248e+002 
3278125000  -2.900699e+001  -1.622546e+002 
3281250000  -2.931798e+001  -1.603132e+002 
3284375000  -2.886079e+001  -1.662753e+002 
3287500000  -2.900002e+001  -1.689104e+002 
3290625000  -2.941444e+001  -1.738141e+002 
3293750000  -2.912579e+001  -1.790757e+002 
3296875000  -3.014797e+001  -1.788044e+002 
3300000000  -3.002146e+001  -1.776428e+002 
3303125000  -2.889520e+001  1.781994e+002 
3306250000  -2.865521e+001  1.714558e+002 
3309375000  -2.845410e+001  1.665920e+002 
3312500000  -2.849388e+001  1.562853e+002 
3315625000  -2.949944e+001  1.481055e+002 
3318750000  -3.092019e+001  1.456650e+002 
3321875000  -3.213948e+001  1.459587e+002 
3325000000  -3.269625e+001  1.508775e+002 
3328125000  -3.242155e+001  1.529430e+002 
3331250000  -3.117968e+001  1.602648e+002 
3334375000  -2.859801e+001  1.501484e+002 
3337500000  -2.868930e+001  1.315535e+002 
3340625000  -3.002879e+001  1.204739e+002 
3343750000  -3.201922e+001  1.199903e+002 
3346875000  -3.250296e+001  1.212646e+002 
3350000000  -3.187132e+001  1.204834e+002 
3353125000  -3.200129e+001  1.154882e+002 
3356250000  -3.160070e+001  1.081972e+002 
3359375000  -3.253386e+001  9.982552e+001 
3362500000  -3.381552e+001  9.397372e+001 
3365625000  -3.453408e+001  9.279965e+001 
3368750000  -3.542145e+001  9.154561e+001 
3371875000  -3.589796e+001  8.761004e+001 
3375000000  -3.757565e+001  8.589547e+001 
3378125000  -3.848775e+001  8.612625e+001 
3381250000  -4.011951e+001  9.489822e+001 
3384375000  -3.908628e+001  1.145329e+002 
3387500000  -3.587528e+001  1.009097e+002 
3390625000  -3.767308e+001  8.122717e+001 
3393750000  -3.951328e+001  8.779595e+001 
3396875000  -3.864512e+001  8.921649e+001 
3400000000  -3.867364e+001  8.236683e+001 
3403125000  -3.979337e+001  7.754606e+001 
3406250000  -4.054617e+001  8.150614e+001 
3409375000  -4.106276e+001  7.508379e+001 
3412500000  -4.192715e+001  7.865653e+001 
3415625000  -4.257302e+001  8.222005e+001 
3418750000  -4.315086e+001  8.669769e+001 
3421875000  -4.335807e+001  9.303033e+001 
3425000000  -4.223571e+001  9.690380e+001 
3428125000  -4.137324e+001  9.401408e+001 
3431250000  -4.134049e+001  8.990846e+001 
3434375000  -4.117448e+001  8.865091e+001 
3437500000  -4.158774e+001  8.621864e+001 
3440625000  -4.180511e+001  8.912362e+001 
3443750000  -4.072562e+001  8.999731e+001 
3446875000  -3.980560e+001  8.567395e+001 
3450000000  -3.957557e+001  7.824104e+001 
3453125000  -3.997176e+001  6.932231e+001 
3456250000  -4.097569e+001  6.380786e+001 
3459375000  -4.222859e+001  6.639475e+001 
3462500000  -4.244050e+001  6.692922e+001 
3465625000  -4.213647e+001  6.262526e+001 
3468750000  -4.258152e+001  6.035646e+001 
3471875000  -4.267142e+001  6.170366e+001 
3475000000  -4.267873e+001  5.828016e+001 
3478125000  -4.332791e+001  5.205589e+001 
3481250000  -4.416906e+001  4.955988e+001 
3484375000  -4.598731e+001  5.656433e+001 
3487500000  -4.537965e+001  5.749054e+001 
3490625000  -4.492609e+001  5.492317e+001 
3493750000  -4.550216e+001  5.191809e+001 
3496875000  -4.646807e+001  5.533551e+001 
3500000000  -4.804597e+001  6.431698e+001 
3503125000  -4.761576e+001  6.856918e+001 
3506250000  -4.622852e+001  6.231788e+001 
3509375000  -4.609458e+001  5.933318e+001 
3512500000  -4.734759e+001  5.795285e+001 
3515625000  -4.781140e+001  6.492839e+001 
3518750000  -4.771536e+001  6.903934e+001 
3521875000  -4.745411e+001  7.661794e+001 
3525000000  -4.824493e+001  7.532658e+001 
3528125000  -4.745606e+001  8.620668e+001 
3531250000  -4.582357e+001  8.808205e+001 
3534375000  -4.506392e+001  7.989326e+001 
3537500000  -4.496582e+001  7.710094e+001 
3540625000  -4.538840e+001  7.446243e+001 
3543750000  -4.587794e+001  7.821156e+001 
3546875000  -4.526270e+001  9.335608e+001 
3550000000  -4.273256e+001  9.366425e+001 
3553125000  -4.138573e+001  7.715728e+001 
3556250000  -4.255449e+001  7.165780e+001 
3559375000  -4.193506e+001  7.208444e+001 
3562500000  -4.102302e+001  6.760884e+001 
3565625000  -4.194126e+001  6.098136e+001 
3568750000  -4.181173e+001  6.391447e+001 
3571875000  -4.142123e+001  6.499415e+001 
3575000000  -4.098312e+001  6.041203e+001 
3578125000  -4.153690e+001  5.543691e+001 
3581250000  -4.121818e+001  5.557200e+001 
3584375000  -4.082834e+001  5.512944e+001 
3587500000  -3.988437e+001  4.902744e+001 
3590625000  -4.035779e+001  3.934156e+001 
3593750000  -4.123658e+001  3.929871e+001 
3596875000  -4.107793e+001  4.621688e+001 
3600000000  -3.945090e+001  4.324686e+001 
3603125000  -3.963952e+001  2.992348e+001 
3606250000  -4.006127e+001  2.912154e+001 
3609375000  -4.077130e+001  2.762742e+001 
3612500000  -4.102681e+001  2.594191e+001 
3615625000  -4.113619e+001  2.483200e+001 
3618750000  -4.173727e+001  2.619580e+001 
3621875000  -4.126363e+001  2.435151e+001 
3625000000  -4.144133e+001  2.484225e+001 
3628125000  -4.176111e+001  2.315804e+001 
3631250000  -4.128688e+001  1.791714e+001 
3634375000  -4.247286e+001  1.906672e+001 
3637500000  -4.198884e+001  2.509179e+001 
3640625000  -4.103186e+001  2.671113e+001 
3643750000  -4.028263e+001  2.022059e+001 
3646875000  -4.119064e+001  1.546943e+001 
3650000000  -4.170640e+001  1.464289e+001 
3653125000  -4.133771e+001  1.577274e+001 
3656250000  -4.160724e+001  1.330541e+001 
3659375000  -4.201730e+001  1.726513e+001 
3662500000  -4.117189e+001  1.642003e+001 
3665625000  -4.122702e+001  1.641169e+001 
3668750000  -4.029153e+001  1.779650e+001 
3671875000  -3.913701e+001  1.365331e+001 
3675000000  -3.977073e+001  7.977115e+000 
3678125000  -4.003090e+001  8.806305e+000 
3681250000  -3.955335e+001  9.968237e+000 
3684375000  -3.963912e+001  9.057150e+000 
3687500000  -3.967949e+001  6.458532e+000 
3690625000  -3.979010e+001  3.223738e+000 
3693750000  -4.015784e+001  5.447790e+000 
3696875000  -4.010725e+001  9.274763e+000 
3700000000  -3.869031e+001  7.724765e+000 
3703125000  -3.858095e+001  3.217927e+000 
3706250000  -3.924848e+001  5.003240e+000 
3709375000  -3.860197e+001  9.797938e+000 
3712500000  -3.751476e+001  7.981897e+000 
3715625000  -3.623094e+001  2.938288e+000 
3718750000  -3.561331e+001  4.890402e-001 
3721875000  -3.511058e+001  -5.369359e+000 
3725000000  -3.507522e+001  -1.003310e+001 
3728125000  -3.539056e+001  -1.099453e+001 
3731250000  -3.465774e+001  -1.164518e+001 
3734375000  -3.373421e+001  -1.698824e+001 
3737500000  -3.419538e+001  -2.492345e+001 
3740625000  -3.485095e+001  -2.717262e+001 
3743750000  -3.458177e+001  -2.953555e+001 
3746875000  -3.454929e+001  -3.365114e+001 
3750000000  -3.499751e+001  -3.355676e+001 
3753125000  -3.447897e+001  -3.398149e+001 
3756250000  -3.455627e+001  -3.573346e+001 
3759375000  -3.429210e+001  -3.551353e+001 
3762500000  -3.372495e+001  -3.983436e+001 
3765625000  -3.430186e+001  -4.234451e+001 
3768750000  -3.433985e+001  -3.971691e+001 
3771875000  -3.257330e+001  -4.224791e+001 
3775000000  -3.227853e+001  -5.033872e+001 
3778125000  -3.263210e+001  -5.159400e+001 
3781250000  -3.238646e+001  -5.482175e+001 
3784375000  -3.241803e+001  -5.724776e+001 
3787500000  -3.168445e+001  -5.974728e+001 
3790625000  -3.226144e+001  -6.653024e+001 
3793750000  -3.246385e+001  -6.620991e+001 
3796875000  -3.141779e+001  -6.794564e+001 
3800000000  -2.990059e+001  -7.122279e+001 
3803125000  -3.077093e+001  -7.833981e+001 
3806250000  -3.137782e+001  -8.079417e+001 
3809375000  -3.114691e+001  -8.218540e+001 
3812500000  -3.038836e+001  -8.651626e+001 
3815625000  -3.110017e+001  -9.453917e+001 
3818750000  -3.213811e+001  -9.572319e+001 
3821875000  -3.213865e+001  -8.668817e+001 
3825000000  -3.012901e+001  -8.277570e+001 
3828125000  -2.881926e+001  -9.652222e+001 
3831250000  -2.930588e+001  -1.108063e+002 
3834375000  -3.073059e+001  -1.115801e+002 
3837500000  -3.153651e+001  -1.063497e+002 
3840625000  -3.038830e+001  -1.077933e+002 
3843750000  -2.926504e+001  -1.176799e+002 
3846875000  -3.000314e+001  -1.251005e+002 
3850000000  -3.120228e+001  -1.196190e+002 
3853125000  -3.040784e+001  -1.172327e+002 
3856250000  -3.031676e+001  -1.208551e+002 
3859375000  -2.966781e+001  -1.262481e+002 
3862500000  -2.914962e+001  -1.335874e+002 
3865625000  -2.953417e+001  -1.375521e+002 
3868750000  -2.951507e+001  -1.387573e+002 
3871875000  -2.880340e+001  -1.413295e+002 
3875000000  -2.901982e+001  -1.500154e+002 
3878125000  -3.000124e+001  -1.523522e+002 
3881250000  -3.009268e+001  -1.495984e+002 
3884375000  -2.957236e+001  -1.545436e+002 
3887500000  -2.976743e+001  -1.578944e+002 
3890625000  -3.025370e+001  -1.609353e+002 
3893750000  -3.069173e+001  -1.619319e+002 
3896875000  -3.080700e+001  -1.615656e+002 
3900000000  -3.104912e+001  -1.620117e+002 
3903125000  -3.070418e+001  -1.636851e+002 
3906250000  -3.042704e+001  -1.645641e+002 
3909375000  -2.962205e+001  -1.675803e+002 
3912500000  -2.972388e+001  -1.749270e+002 
3915625000  -3.093861e+001  -1.734344e+002 
3918750000  -3.094005e+001  -1.723058e+002 
3921875000  -3.065885e+001  -1.743771e+002 
3925000000  -2.974737e+001  -1.745689e+002 
3928125000  -2.910123e+001  1.792321e+002 
3931250000  -2.952400e+001  1.752033e+002 
3934375000  -2.978963e+001  1.758078e+002 
3937500000  -2.995259e+001  1.754243e+002 
3940625000  -3.041138e+001  1.761909e+002 
3943750000  -2.945585e+001  1.770853e+002 
3946875000  -2.822614e+001  1.713212e+002 
3950000000  -2.860241e+001  1.637326e+002 
3953125000  -2.971207e+001  1.643901e+002 
3956250000  -2.875725e+001  1.675050e+002 
3959375000  -2.739989e+001  1.640842e+002 
3962500000  -2.694823e+001  1.598856e+002 
3965625000  -2.654475e+001  1.514069e+002 
3968750000  -2.742506e+001  1.445315e+002 
3971875000  -2.782180e+001  1.431072e+002 
3975000000  -2.718404e+001  1.412812e+002 
3978125000  -2.701078e+001  1.396267e+002 
3981250000  -2.677324e+001  1.354507e+002 
3984375000  -2.700072e+001  1.288898e+002 
3987500000  -2.753836e+001  1.266708e+002 
3990625000  -2.753422e+001  1.259768e+002 
3993750000  -2.781646e+001  1.229060e+002 
3996875000  -2.774144e+001  1.202756e+002 
4000000000  -2.776873e+001  1.182059e+002 
4003125000  -2.844369e+001  1.203602e+002 
4006250000  -2.704171e+001  1.206767e+002 
4009375000  -2.579718e+001  1.084774e+002 
4012500000  -2.695777e+001  1.015701e+002 
4015625000  -2.812648e+001  1.021362e+002 
4018750000  -2.831325e+001  1.038381e+002 
4021875000  -2.759051e+001  1.027751e+002 
4025000000  -2.725584e+001  9.793844e+001 
4028125000  -2.723270e+001  9.412466e+001 
4031250000  -2.773746e+001  9.084939e+001 
4034375000  -2.801738e+001  9.069067e+001 
4037500000  -2.745819e+001  9.275343e+001 
4040625000  -2.737209e+001  8.897910e+001 
4043750000  -2.774505e+001  8.877489e+001 
4046875000  -2.728672e+001  8.803442e+001 
4050000000  -2.684214e+001  8.306288e+001 
4053125000  -2.734699e+001  8.092754e+001 
4056250000  -2.794746e+001  8.528252e+001 
4059375000  -2.657800e+001  8.718858e+001 
4062500000  -2.518098e+001  8.272097e+001 
4065625000  -2.509037e+001  7.788869e+001 
4068750000  -2.484838e+001  7.324303e+001 
4071875000  -2.414544e+001  6.552673e+001 
4075000000  -2.456751e+001  5.907360e+001 
4078125000  -2.513779e+001  5.791765e+001 
4081250000  -2.457842e+001  5.552904e+001 
4084375000  -2.412788e+001  4.889299e+001 
4087500000  -2.453841e+001  4.260535e+001 
4090625000  -2.512683e+001  4.162637e+001 
4093750000  -2.496713e+001  4.234482e+001 
4096875000  -2.451697e+001  3.635498e+001 
4100000000  -2.519445e+001  2.907071e+001 
4103125000  -2.606405e+001  2.991695e+001 
4106250000  -2.592284e+001  3.508240e+001 
4109375000  -2.504878e+001  3.423212e+001 
4112500000  -2.449777e+001  2.748252e+001 
4115625000  -2.479235e+001  2.342316e+001 
4118750000  -2.489938e+001  2.045816e+001 
4121875000  -2.454924e+001  1.534243e+001 
4125000000  -2.484163e+001  1.070641e+001 
4128125000  -2.593678e+001  1.069495e+001 
4131250000  -2.565747e+001  1.903067e+001 
4134375000  -2.326598e+001  1.444760e+001 
4137500000  -2.309051e+001  -4.563847e+000 
4140625000  -2.527704e+001  -1.169901e+001 
4143750000  -2.661691e+001  -6.308627e+000 
4146875000  -2.615466e+001  1.106572e+000 
4150000000  -2.520448e+001  -2.584933e+000 
4153125000  -2.504130e+001  -8.674692e+000 
4156250000  -2.600086e+001  -1.163986e+001 
4159375000  -2.623815e+001  -7.246535e+000 
4162500000  -2.508070e+001  -2.426004e+000 
4165625000  -2.398816e+001  -6.495784e+000 
4168750000  -2.334790e+001  -1.380649e+001 
4171875000  -2.335679e+001  -2.298361e+001 
4175000000  -2.392876e+001  -2.874585e+001 
4178125000  -2.452081e+001  -2.862152e+001 
4181250000  -2.438461e+001  -2.943137e+001 
4184375000  -2.426617e+001  -3.243819e+001 
4187500000  -2.428215e+001  -3.515752e+001 
4190625000  -2.414561e+001  -4.090524e+001 
4193750000  -2.490104e+001  -4.457490e+001 
4196875000  -2.564574e+001  -4.440447e+001 
4200000000  -2.659235e+001  -4.228345e+001 
4203125000  -2.646874e+001  -2.894900e+001 
4206250000  -2.310208e+001  -2.741641e+001 
4209375000  -2.194576e+001  -4.790867e+001 
4212500000  -2.388252e+001  -5.687913e+001 
4215625000  -2.484334e+001  -5.113035e+001 
4218750000  -2.349806e+001  -4.429062e+001 
4221875000  -2.124878e+001  -5.310744e+001 
4225000000  -2.252017e+001  -6.540305e+001 
4228125000  -2.317352e+001  -6.070760e+001 
4231250000  -2.156631e+001  -6.459447e+001 
4234375000  -2.151261e+001  -7.275110e+001 
4237500000  -2.107269e+001  -7.620837e+001 
4240625000  -2.109962e+001  -8.482540e+001 
4243750000  -2.209471e+001  -9.135339e+001 
4246875000  -2.297090e+001  -9.158305e+001 
4250000000  -2.302722e+001  -8.880072e+001 
4253125000  -2.242337e+001  -9.044659e+001 
4256250000  -2.273224e+001  -9.459444e+001 
4259375000  -2.246005e+001  -9.675586e+001 
4262500000  -2.247206e+001  -1.005820e+002 
4265625000  -2.263239e+001  -1.001504e+002 
4268750000  -2.175670e+001  -1.043164e+002 
4271875000  -2.148772e+001  -1.098342e+002 
4275000000  -2.090169e+001  -1.163866e+002 
4278125000  -2.155041e+001  -1.273669e+002 
4281250000  -2.334437e+001  -1.295376e+002 
4284375000  -2.299563e+001  -1.287441e+002 
4287500000  -2.384720e+001  -1.320738e+002 
4290625000  -2.506854e+001  -1.223259e+002 
4293750000  -2.308661e+001  -1.172069e+002 
4296875000  -2.171263e+001  -1.283358e+002 
4300000000  -2.257744e+001  -1.378606e+002 
4303125000  -2.371147e+001  -1.361141e+002 
4306250000  -2.303156e+001  -1.303767e+002 
4309375000  -2.167961e+001  -1.325864e+002 
4312500000  -2.158303e+001  -1.407292e+002 
4315625000  -2.177931e+001  -1.471534e+002 
4318750000  -2.212567e+001  -1.500988e+002 
4321875000  -2.228254e+001  -1.496946e+002 
4325000000  -2.171138e+001  -1.489534e+002 
4328125000  -2.118903e+001  -1.554670e+002 
4331250000  -2.112101e+001  -1.638119e+002 
4334375000  -2.156525e+001  -1.688921e+002 
4337500000  -2.242149e+001  -1.707216e+002 
4340625000  -2.298340e+001  -1.674050e+002 
4343750000  -2.236952e+001  -1.671857e+002 
4346875000  -2.196333e+001  -1.728828e+002 
4350000000  -2.197450e+001  -1.775825e+002 
4353125000  -2.206490e+001  1.748680e+002 
4356250000  -2.381754e+001  1.741919e+002 
4359375000  -2.437526e+001  -1.721259e+002 
4362500000  -2.161742e+001  -1.703517e+002 
4365625000  -2.006224e+001  1.770710e+002 
4368750000  -2.076980e+001  1.655439e+002 
4371875000  -2.197828e+001  1.664030e+002 
4375000000  -2.166011e+001  1.672551e+002 
4378125000  -2.098233e+001  1.614382e+002 
4381250000  -2.118098e+001  1.558470e+002 
4384375000  -2.095341e+001  1.512579e+002 
4387500000  -2.175580e+001  1.458047e+002 
4390625000  -2.277135e+001  1.466890e+002 
4393750000  -2.207742e+001  1.486532e+002 
4396875000  -2.141707e+001  1.464778e+002 
4400000000  -2.087756e+001  1.394599e+002 
4403125000  -2.152171e+001  1.319052e+002 
4406250000  -2.237974e+001  1.307664e+002 
4409375000  -2.231657e+001  1.283265e+002 
4412500000  -2.337204e+001  1.260690e+002 
4415625000  -2.371175e+001  1.307915e+002 
4418750000  -2.247099e+001  1.353686e+002 
