!Agilent Technologies,E8363B,MY43030201,A.06.04.32
!Agilent E8363B: A.06.04.32
!Date: Tuesday, November 11, 2014 20:58:12
!Correction: S21(Response(S21)) 
!S1P File: Measurement: S21:
# Hz S  dB   R 50
3000000000  -2.651351e+001  1.468371e+002 
3003125000  -2.793422e+001  1.419814e+002 
3006250000  -2.797523e+001  1.396227e+002 
3009375000  -2.837992e+001  1.448584e+002 
3012500000  -2.779831e+001  1.441137e+002 
3015625000  -2.681748e+001  1.371534e+002 
3018750000  -2.768931e+001  1.363265e+002 
3021875000  -2.639824e+001  1.378383e+002 
3025000000  -2.507248e+001  1.346060e+002 
3028125000  -2.412982e+001  1.292315e+002 
3031250000  -2.310009e+001  1.181785e+002 
3034375000  -2.276178e+001  1.050705e+002 
3037500000  -2.313197e+001  9.318393e+001 
3040625000  -2.445764e+001  8.849709e+001 
3043750000  -2.512236e+001  8.372665e+001 
3046875000  -2.528981e+001  7.771777e+001 
3050000000  -2.703271e+001  7.102354e+001 
3053125000  -2.708810e+001  7.745671e+001 
3056250000  -2.644719e+001  8.065950e+001 
3059375000  -2.665094e+001  8.012070e+001 
3062500000  -2.517255e+001  7.592990e+001 
3065625000  -2.496380e+001  7.026628e+001 
3068750000  -2.467213e+001  6.344292e+001 
3071875000  -2.462991e+001  6.053157e+001 
3075000000  -2.461448e+001  5.656081e+001 
3078125000  -2.434561e+001  5.195589e+001 
3081250000  -2.493496e+001  4.789519e+001 
3084375000  -2.419422e+001  4.420174e+001 
3087500000  -2.412385e+001  4.031630e+001 
3090625000  -2.380664e+001  3.075503e+001 
3093750000  -2.429925e+001  2.272630e+001 
3096875000  -2.555097e+001  1.665942e+001 
3100000000  -2.565349e+001  1.552757e+001 
3103125000  -2.605360e+001  1.679455e+001 
3106250000  -2.579872e+001  1.315288e+001 
3109375000  -2.601470e+001  9.836019e+000 
3112500000  -2.608480e+001  8.529262e+000 
3115625000  -2.592249e+001  4.526867e+000 
3118750000  -2.641218e+001  5.756117e+000 
3121875000  -2.573454e+001  -2.503045e+000 
3125000000  -2.696722e+001  -5.782403e+000 
3128125000  -2.814615e+001  2.416899e+000 
3131250000  -2.587667e+001  2.935319e+000 
3134375000  -2.463455e+001  -1.106228e+001 
3137500000  -2.531991e+001  -2.445168e+001 
3140625000  -2.684467e+001  -2.600158e+001 
3143750000  -2.790112e+001  -2.233583e+001 
3146875000  -2.749057e+001  -1.984972e+001 
3150000000  -2.646082e+001  -1.807974e+001 
3153125000  -2.644604e+001  -2.557654e+001 
3156250000  -2.744077e+001  -1.994317e+001 
3159375000  -2.583295e+001  -1.702770e+001 
3162500000  -2.383193e+001  -3.026153e+001 
3165625000  -2.483164e+001  -4.132141e+001 
3168750000  -2.515455e+001  -4.010384e+001 
3171875000  -2.422911e+001  -4.430467e+001 
3175000000  -2.488215e+001  -5.210703e+001 
3178125000  -2.463727e+001  -5.045616e+001 
3181250000  -2.347545e+001  -5.481329e+001 
3184375000  -2.273326e+001  -6.690491e+001 
3187500000  -2.389862e+001  -8.181284e+001 
3190625000  -2.656745e+001  -8.927845e+001 
3193750000  -2.713260e+001  -7.949904e+001 
3196875000  -2.669753e+001  -7.436529e+001 
3200000000  -2.583615e+001  -7.633835e+001 
3203125000  -2.502349e+001  -8.212788e+001 
3206250000  -2.531077e+001  -8.852885e+001 
3209375000  -2.481778e+001  -9.343781e+001 
3212500000  -2.499874e+001  -1.000297e+002 
3215625000  -2.512558e+001  -1.038592e+002 
3218750000  -2.585851e+001  -1.101136e+002 
3221875000  -2.678607e+001  -1.154867e+002 
3225000000  -2.641543e+001  -1.161119e+002 
3228125000  -2.678609e+001  -1.207362e+002 
3231250000  -2.753804e+001  -1.230849e+002 
3234375000  -2.732933e+001  -1.217945e+002 
3237500000  -2.737696e+001  -1.237139e+002 
3240625000  -2.701565e+001  -1.258618e+002 
3243750000  -2.672788e+001  -1.322708e+002 
3246875000  -2.720074e+001  -1.388408e+002 
3250000000  -2.765504e+001  -1.407037e+002 
3253125000  -2.780394e+001  -1.423580e+002 
3256250000  -2.767820e+001  -1.480481e+002 
3259375000  -2.793007e+001  -1.554965e+002 
3262500000  -2.925406e+001  -1.586438e+002 
3265625000  -2.991498e+001  -1.551540e+002 
3268750000  -2.986781e+001  -1.524656e+002 
3271875000  -2.963114e+001  -1.512491e+002 
3275000000  -2.854331e+001  -1.564349e+002 
3278125000  -2.907879e+001  -1.630228e+002 
3281250000  -2.927249e+001  -1.609842e+002 
3284375000  -2.880926e+001  -1.666433e+002 
3287500000  -2.903152e+001  -1.693634e+002 
3290625000  -2.946268e+001  -1.740704e+002 
3293750000  -2.909322e+001  -1.795460e+002 
3296875000  -3.016349e+001  -1.794438e+002 
3300000000  -2.999772e+001  -1.778785e+002 
3303125000  -2.890751e+001  1.777678e+002 
3306250000  -2.861555e+001  1.710247e+002 
3309375000  -2.840717e+001  1.658319e+002 
3312500000  -2.846042e+001  1.555986e+002 
3315625000  -2.949938e+001  1.478475e+002 
3318750000  -3.085306e+001  1.454834e+002 
3321875000  -3.216133e+001  1.457123e+002 
3325000000  -3.261549e+001  1.507456e+002 
3328125000  -3.245820e+001  1.522164e+002 
3331250000  -3.114674e+001  1.599353e+002 
3334375000  -2.858434e+001  1.496993e+002 
3337500000  -2.868186e+001  1.310882e+002 
3340625000  -3.004699e+001  1.203374e+002 
3343750000  -3.200480e+001  1.192634e+002 
3346875000  -3.248024e+001  1.208137e+002 
3350000000  -3.178292e+001  1.195132e+002 
3353125000  -3.199582e+001  1.151937e+002 
3356250000  -3.172654e+001  1.069803e+002 
3359375000  -3.255497e+001  9.953770e+001 
3362500000  -3.389976e+001  9.341666e+001 
3365625000  -3.447772e+001  9.236190e+001 
3368750000  -3.544058e+001  9.102011e+001 
3371875000  -3.578550e+001  8.699390e+001 
3375000000  -3.738461e+001  8.496532e+001 
3378125000  -3.836234e+001  8.451049e+001 
3381250000  -4.005924e+001  9.249903e+001 
3384375000  -3.896599e+001  1.147704e+002 
3387500000  -3.579467e+001  1.001778e+002 
3390625000  -3.786871e+001  8.108598e+001 
3393750000  -3.950373e+001  8.596035e+001 
3396875000  -3.842664e+001  8.800252e+001 
3400000000  -3.849454e+001  8.107389e+001 
3403125000  -3.949591e+001  7.750778e+001 
3406250000  -4.043750e+001  7.870393e+001 
3409375000  -4.101824e+001  7.747648e+001 
3412500000  -4.189248e+001  7.661257e+001 
3415625000  -4.243236e+001  8.281759e+001 
3418750000  -4.308334e+001  8.547678e+001 
3421875000  -4.301085e+001  9.259589e+001 
3425000000  -4.231392e+001  9.448935e+001 
3428125000  -4.130604e+001  9.407465e+001 
3431250000  -4.144186e+001  8.973586e+001 
3434375000  -4.116824e+001  8.609631e+001 
3437500000  -4.154763e+001  8.512938e+001 
3440625000  -4.181372e+001  8.979455e+001 
3443750000  -4.053910e+001  9.156789e+001 
3446875000  -3.961872e+001  8.565015e+001 
3450000000  -3.961056e+001  7.695245e+001 
3453125000  -3.977913e+001  6.774872e+001 
3456250000  -4.105235e+001  6.296654e+001 
3459375000  -4.223383e+001  6.515014e+001 
3462500000  -4.227636e+001  6.645206e+001 
3465625000  -4.192559e+001  6.159780e+001 
3468750000  -4.254360e+001  5.886072e+001 
3471875000  -4.268047e+001  5.965290e+001 
3475000000  -4.244680e+001  5.385625e+001 
3478125000  -4.343942e+001  4.892230e+001 
3481250000  -4.452361e+001  4.963776e+001 
3484375000  -4.605811e+001  5.314251e+001 
3487500000  -4.571211e+001  5.581741e+001 
3490625000  -4.494956e+001  5.304974e+001 
3493750000  -4.581357e+001  5.060821e+001 
3496875000  -4.657418e+001  5.149491e+001 
3500000000  -4.785241e+001  5.608756e+001 
3503125000  -4.807949e+001  6.596078e+001 
3506250000  -4.622344e+001  6.434187e+001 
3509375000  -4.656890e+001  6.011263e+001 
3512500000  -4.740005e+001  5.779761e+001 
3515625000  -4.759232e+001  6.503087e+001 
3518750000  -4.813300e+001  6.911890e+001 
3521875000  -4.801221e+001  7.502578e+001 
3525000000  -4.785978e+001  7.436466e+001 
3528125000  -4.761950e+001  8.975137e+001 
3531250000  -4.602937e+001  8.780657e+001 
3534375000  -4.531920e+001  7.752058e+001 
3537500000  -4.499556e+001  7.637538e+001 
3540625000  -4.578301e+001  7.488829e+001 
3543750000  -4.606842e+001  8.198682e+001 
3546875000  -4.539231e+001  8.840704e+001 
3550000000  -4.287783e+001  9.426113e+001 
3553125000  -4.167454e+001  7.630081e+001 
3556250000  -4.262365e+001  7.166355e+001 
3559375000  -4.200773e+001  7.324360e+001 
3562500000  -4.103756e+001  6.678662e+001 
3565625000  -4.160177e+001  6.017008e+001 
3568750000  -4.177139e+001  6.508266e+001 
3571875000  -4.162298e+001  6.308321e+001 
3575000000  -4.100415e+001  5.835449e+001 
3578125000  -4.139484e+001  5.591022e+001 
3581250000  -4.197419e+001  5.591382e+001 
3584375000  -4.048711e+001  5.319160e+001 
3587500000  -3.989957e+001  4.720018e+001 
3590625000  -4.026219e+001  4.021194e+001 
3593750000  -4.155116e+001  3.856143e+001 
3596875000  -4.128276e+001  4.611226e+001 
3600000000  -3.970702e+001  4.294938e+001 
3603125000  -3.991726e+001  3.038118e+001 
3606250000  -4.045740e+001  2.810292e+001 
3609375000  -4.087452e+001  2.732669e+001 
3612500000  -4.137288e+001  2.546240e+001 
3615625000  -4.157138e+001  2.290472e+001 
3618750000  -4.172233e+001  2.537611e+001 
3621875000  -4.142045e+001  2.334938e+001 
3625000000  -4.174998e+001  2.337521e+001 
3628125000  -4.167835e+001  2.284753e+001 
3631250000  -4.116119e+001  1.745875e+001 
3634375000  -4.225705e+001  1.964382e+001 
3637500000  -4.196691e+001  2.443658e+001 
3640625000  -4.059759e+001  2.705747e+001 
3643750000  -4.054901e+001  2.213650e+001 
3646875000  -4.079413e+001  1.560515e+001 
3650000000  -4.145652e+001  1.362079e+001 
3653125000  -4.123511e+001  1.350372e+001 
3656250000  -4.148859e+001  1.358837e+001 
3659375000  -4.171312e+001  1.708676e+001 
3662500000  -4.114499e+001  1.577977e+001 
3665625000  -4.128104e+001  1.543446e+001 
3668750000  -3.994073e+001  1.819996e+001 
3671875000  -3.925418e+001  1.243116e+001 
3675000000  -3.964207e+001  7.623524e+000 
3678125000  -4.045225e+001  8.823222e+000 
3681250000  -4.008368e+001  9.088308e+000 
3684375000  -3.958248e+001  7.161500e+000 
3687500000  -3.976538e+001  4.725933e+000 
3690625000  -3.982502e+001  3.497158e+000 
3693750000  -4.028389e+001  6.588067e+000 
3696875000  -3.994406e+001  8.027102e+000 
3700000000  -3.870822e+001  7.109511e+000 
3703125000  -3.889323e+001  3.600304e+000 
3706250000  -3.939062e+001  6.203811e+000 
3709375000  -3.875084e+001  9.298374e+000 
3712500000  -3.754511e+001  9.583394e+000 
3715625000  -3.623447e+001  2.804019e+000 
3718750000  -3.564165e+001  -3.054160e-001 
3721875000  -3.516104e+001  -5.138500e+000 
3725000000  -3.525181e+001  -9.765048e+000 
3728125000  -3.539436e+001  -1.104055e+001 
3731250000  -3.469368e+001  -1.100178e+001 
3734375000  -3.374996e+001  -1.841134e+001 
3737500000  -3.432774e+001  -2.449478e+001 
3740625000  -3.490476e+001  -2.767241e+001 
3743750000  -3.456475e+001  -2.969850e+001 
3746875000  -3.458778e+001  -3.435598e+001 
3750000000  -3.499828e+001  -3.413935e+001 
3753125000  -3.460505e+001  -3.492797e+001 
3756250000  -3.449280e+001  -3.517334e+001 
3759375000  -3.422353e+001  -3.683732e+001 
3762500000  -3.373172e+001  -3.992654e+001 
3765625000  -3.425182e+001  -4.315123e+001 
3768750000  -3.432694e+001  -3.918093e+001 
3771875000  -3.242081e+001  -4.306781e+001 
3775000000  -3.216553e+001  -5.047678e+001 
3778125000  -3.258297e+001  -5.192147e+001 
3781250000  -3.232184e+001  -5.585664e+001 
3784375000  -3.223221e+001  -5.757837e+001 
3787500000  -3.169392e+001  -6.124067e+001 
3790625000  -3.222858e+001  -6.728320e+001 
3793750000  -3.233988e+001  -6.668798e+001 
3796875000  -3.143882e+001  -6.817789e+001 
3800000000  -2.989165e+001  -7.261575e+001 
3803125000  -3.071524e+001  -7.967472e+001 
3806250000  -3.142155e+001  -8.186062e+001 
3809375000  -3.108186e+001  -8.249895e+001 
3812500000  -3.045823e+001  -8.712691e+001 
3815625000  -3.106232e+001  -9.510534e+001 
3818750000  -3.207313e+001  -9.636233e+001 
3821875000  -3.203390e+001  -8.730442e+001 
3825000000  -3.001804e+001  -8.299633e+001 
3828125000  -2.874951e+001  -9.717932e+001 
3831250000  -2.935334e+001  -1.115301e+002 
3834375000  -3.068651e+001  -1.124356e+002 
3837500000  -3.159275e+001  -1.070882e+002 
3840625000  -3.039174e+001  -1.077655e+002 
3843750000  -2.927653e+001  -1.183865e+002 
3846875000  -2.998242e+001  -1.250618e+002 
3850000000  -3.125101e+001  -1.196347e+002 
3853125000  -3.043657e+001  -1.175146e+002 
3856250000  -3.037624e+001  -1.215988e+002 
3859375000  -2.969364e+001  -1.265735e+002 
3862500000  -2.923273e+001  -1.340631e+002 
3865625000  -2.948525e+001  -1.386127e+002 
3868750000  -2.952675e+001  -1.389994e+002 
3871875000  -2.876881e+001  -1.418382e+002 
3875000000  -2.903743e+001  -1.505315e+002 
3878125000  -2.999728e+001  -1.531038e+002 
3881250000  -3.006243e+001  -1.498300e+002 
3884375000  -2.958726e+001  -1.548359e+002 
3887500000  -2.968318e+001  -1.585233e+002 
3890625000  -3.022574e+001  -1.613181e+002 
3893750000  -3.063574e+001  -1.622200e+002 
3896875000  -3.081995e+001  -1.618005e+002 
3900000000  -3.105794e+001  -1.626722e+002 
3903125000  -3.063819e+001  -1.654789e+002 
3906250000  -3.035014e+001  -1.658020e+002 
3909375000  -2.963553e+001  -1.682379e+002 
3912500000  -2.975229e+001  -1.757804e+002 
3915625000  -3.095642e+001  -1.748570e+002 
3918750000  -3.100520e+001  -1.728001e+002 
3921875000  -3.062414e+001  -1.753694e+002 
3925000000  -2.977850e+001  -1.753087e+002 
3928125000  -2.914735e+001  1.782974e+002 
3931250000  -2.958039e+001  1.745083e+002 
3934375000  -2.990718e+001  1.748430e+002 
3937500000  -2.997442e+001  1.742752e+002 
3940625000  -3.047577e+001  1.749297e+002 
3943750000  -2.941459e+001  1.758206e+002 
3946875000  -2.828737e+001  1.707085e+002 
3950000000  -2.871857e+001  1.628614e+002 
3953125000  -2.969094e+001  1.642376e+002 
3956250000  -2.886312e+001  1.664270e+002 
3959375000  -2.747013e+001  1.636164e+002 
3962500000  -2.698971e+001  1.597307e+002 
3965625000  -2.661538e+001  1.503873e+002 
3968750000  -2.751179e+001  1.443117e+002 
3971875000  -2.783913e+001  1.423572e+002 
3975000000  -2.719080e+001  1.404534e+002 
3978125000  -2.702780e+001  1.389757e+002 
3981250000  -2.677618e+001  1.349057e+002 
3984375000  -2.703355e+001  1.282417e+002 
3987500000  -2.756902e+001  1.262596e+002 
3990625000  -2.759853e+001  1.254862e+002 
3993750000  -2.773118e+001  1.222209e+002 
3996875000  -2.773531e+001  1.200155e+002 
4000000000  -2.786092e+001  1.178460e+002 
4003125000  -2.838758e+001  1.197945e+002 
4006250000  -2.701062e+001  1.204225e+002 
4009375000  -2.576249e+001  1.078635e+002 
4012500000  -2.689162e+001  1.004295e+002 
4015625000  -2.814522e+001  1.015660e+002 
4018750000  -2.833968e+001  1.034628e+002 
4021875000  -2.768273e+001  1.019193e+002 
4025000000  -2.729169e+001  9.723891e+001 
4028125000  -2.721334e+001  9.367231e+001 
4031250000  -2.772553e+001  8.997639e+001 
4034375000  -2.799338e+001  9.000857e+001 
4037500000  -2.750512e+001  9.181107e+001 
4040625000  -2.740533e+001  8.884800e+001 
4043750000  -2.778373e+001  8.820033e+001 
4046875000  -2.726643e+001  8.745430e+001 
4050000000  -2.682580e+001  8.245302e+001 
4053125000  -2.728769e+001  8.052007e+001 
4056250000  -2.787642e+001  8.442399e+001 
4059375000  -2.660092e+001  8.657765e+001 
4062500000  -2.521330e+001  8.156452e+001 
4065625000  -2.511479e+001  7.719569e+001 
4068750000  -2.483374e+001  7.262044e+001 
4071875000  -2.418415e+001  6.467639e+001 
4075000000  -2.459813e+001  5.844152e+001 
4078125000  -2.514435e+001  5.745716e+001 
4081250000  -2.456803e+001  5.533510e+001 
4084375000  -2.416542e+001  4.837597e+001 
4087500000  -2.455542e+001  4.207106e+001 
4090625000  -2.519697e+001  4.119352e+001 
4093750000  -2.492951e+001  4.214646e+001 
4096875000  -2.453102e+001  3.586559e+001 
4100000000  -2.522593e+001  2.883937e+001 
4103125000  -2.609573e+001  3.001198e+001 
4106250000  -2.592642e+001  3.450075e+001 
4109375000  -2.501758e+001  3.399812e+001 
4112500000  -2.445983e+001  2.704793e+001 
4115625000  -2.482465e+001  2.313796e+001 
4118750000  -2.490308e+001  2.007396e+001 
4121875000  -2.449819e+001  1.530752e+001 
4125000000  -2.487864e+001  1.016124e+001 
4128125000  -2.590853e+001  1.055126e+001 
4131250000  -2.554165e+001  1.837068e+001 
4134375000  -2.326672e+001  1.387036e+001 
4137500000  -2.311926e+001  -5.005105e+000 
4140625000  -2.526704e+001  -1.200129e+001 
4143750000  -2.661119e+001  -6.910996e+000 
4146875000  -2.610994e+001  6.536684e-001 
4150000000  -2.515840e+001  -2.993692e+000 
4153125000  -2.502078e+001  -9.476816e+000 
4156250000  -2.599741e+001  -1.183041e+001 
4159375000  -2.614795e+001  -7.700089e+000 
4162500000  -2.506155e+001  -3.292442e+000 
4165625000  -2.393041e+001  -7.163136e+000 
4168750000  -2.332918e+001  -1.465465e+001 
4171875000  -2.332422e+001  -2.341096e+001 
4175000000  -2.393797e+001  -2.957327e+001 
4178125000  -2.454824e+001  -2.909765e+001 
4181250000  -2.437426e+001  -2.981792e+001 
4184375000  -2.426510e+001  -3.326495e+001 
4187500000  -2.433406e+001  -3.592128e+001 
4190625000  -2.412499e+001  -4.144724e+001 
4193750000  -2.498276e+001  -4.528903e+001 
4196875000  -2.567636e+001  -4.502513e+001 
4200000000  -2.653982e+001  -4.275515e+001 
4203125000  -2.648195e+001  -2.932367e+001 
4206250000  -2.306035e+001  -2.789482e+001 
4209375000  -2.193164e+001  -4.871097e+001 
4212500000  -2.388314e+001  -5.750079e+001 
4215625000  -2.488098e+001  -5.092057e+001 
4218750000  -2.350328e+001  -4.484210e+001 
4221875000  -2.118690e+001  -5.356608e+001 
4225000000  -2.248370e+001  -6.615559e+001 
4228125000  -2.310305e+001  -6.096034e+001 
4231250000  -2.158219e+001  -6.508813e+001 
4234375000  -2.149075e+001  -7.336830e+001 
4237500000  -2.107413e+001  -7.624957e+001 
4240625000  -2.110020e+001  -8.527984e+001 
4243750000  -2.205851e+001  -9.183970e+001 
4246875000  -2.293658e+001  -9.212884e+001 
4250000000  -2.299785e+001  -8.893771e+001 
4253125000  -2.239477e+001  -9.073338e+001 
4256250000  -2.268723e+001  -9.498241e+001 
4259375000  -2.239571e+001  -9.683981e+001 
4262500000  -2.244953e+001  -1.008586e+002 
4265625000  -2.260897e+001  -1.005011e+002 
4268750000  -2.167297e+001  -1.043526e+002 
4271875000  -2.145230e+001  -1.103272e+002 
4275000000  -2.083484e+001  -1.167024e+002 
4278125000  -2.155183e+001  -1.279530e+002 
4281250000  -2.326479e+001  -1.299714e+002 
4284375000  -2.294794e+001  -1.290287e+002 
4287500000  -2.379020e+001  -1.324872e+002 
4290625000  -2.501326e+001  -1.230023e+002 
4293750000  -2.300369e+001  -1.176142e+002 
4296875000  -2.166573e+001  -1.289703e+002 
4300000000  -2.253029e+001  -1.378872e+002 
4303125000  -2.368110e+001  -1.369276e+002 
4306250000  -2.299352e+001  -1.307168e+002 
4309375000  -2.160371e+001  -1.329783e+002 
4312500000  -2.154750e+001  -1.415456e+002 
4315625000  -2.173065e+001  -1.479254e+002 
4318750000  -2.206839e+001  -1.511470e+002 
4321875000  -2.224398e+001  -1.503275e+002 
4325000000  -2.170132e+001  -1.496255e+002 
4328125000  -2.113483e+001  -1.563251e+002 
4331250000  -2.110092e+001  -1.645811e+002 
4334375000  -2.156554e+001  -1.694613e+002 
4337500000  -2.242122e+001  -1.713074e+002 
4340625000  -2.294075e+001  -1.680268e+002 
4343750000  -2.230108e+001  -1.676715e+002 
4346875000  -2.196604e+001  -1.730080e+002 
4350000000  -2.195314e+001  -1.781670e+002 
4353125000  -2.202555e+001  1.744687e+002 
4356250000  -2.385700e+001  1.736399e+002 
4359375000  -2.434591e+001  -1.723788e+002 
4362500000  -2.159387e+001  -1.710412e+002 
4365625000  -1.999296e+001  1.767676e+002 
4368750000  -2.073763e+001  1.648345e+002 
4371875000  -2.199471e+001  1.661173e+002 
4375000000  -2.158393e+001  1.668634e+002 
4378125000  -2.095205e+001  1.606825e+002 
4381250000  -2.113070e+001  1.553610e+002 
4384375000  -2.094617e+001  1.510399e+002 
4387500000  -2.168677e+001  1.451092e+002 
4390625000  -2.269631e+001  1.460090e+002 
4393750000  -2.204287e+001  1.481399e+002 
4396875000  -2.137442e+001  1.461566e+002 
4400000000  -2.085891e+001  1.390707e+002 
4403125000  -2.143878e+001  1.313774e+002 
4406250000  -2.232946e+001  1.303265e+002 
4409375000  -2.224195e+001  1.279010e+002 
4412500000  -2.328931e+001  1.248603e+002 
4415625000  -2.366651e+001  1.301747e+002 
4418750000  -2.241110e+001  1.347523e+002 
