!Agilent Technologies,E8363B,MY43030201,A.06.04.32
!Agilent E8363B: A.06.04.32
!Date: Tuesday, November 11, 2014 20:54:27
!Correction: S21(Response(S21)) 
!S1P File: Measurement: S21:
# Hz S  dB   R 50
3000000000  -2.662905e+001  1.508275e+002 
3003125000  -2.804502e+001  1.462518e+002 
3006250000  -2.808163e+001  1.434300e+002 
3009375000  -2.841536e+001  1.486216e+002 
3012500000  -2.789060e+001  1.482258e+002 
3015625000  -2.698449e+001  1.410606e+002 
3018750000  -2.778695e+001  1.402277e+002 
3021875000  -2.655117e+001  1.414350e+002 
3025000000  -2.523581e+001  1.384673e+002 
3028125000  -2.425562e+001  1.332806e+002 
3031250000  -2.321542e+001  1.221135e+002 
3034375000  -2.285452e+001  1.091539e+002 
3037500000  -2.320724e+001  9.720093e+001 
3040625000  -2.454265e+001  9.222733e+001 
3043750000  -2.525070e+001  8.778694e+001 
3046875000  -2.538768e+001  8.165375e+001 
3050000000  -2.710698e+001  7.467929e+001 
3053125000  -2.721424e+001  8.096983e+001 
3056250000  -2.658076e+001  8.391595e+001 
3059375000  -2.678505e+001  8.350780e+001 
3062500000  -2.534931e+001  7.966209e+001 
3065625000  -2.508401e+001  7.410106e+001 
3068750000  -2.483938e+001  6.702678e+001 
3071875000  -2.476939e+001  6.394386e+001 
3075000000  -2.473805e+001  6.018151e+001 
3078125000  -2.446244e+001  5.574173e+001 
3081250000  -2.508565e+001  5.159791e+001 
3084375000  -2.431948e+001  4.779616e+001 
3087500000  -2.421341e+001  4.428259e+001 
3090625000  -2.392568e+001  3.446474e+001 
3093750000  -2.438117e+001  2.663136e+001 
3096875000  -2.564039e+001  2.060740e+001 
3100000000  -2.579887e+001  1.926392e+001 
3103125000  -2.611700e+001  2.068316e+001 
3106250000  -2.587731e+001  1.705192e+001 
3109375000  -2.610683e+001  1.360165e+001 
3112500000  -2.625343e+001  1.241845e+001 
3115625000  -2.603368e+001  8.240436e+000 
3118750000  -2.654090e+001  9.829115e+000 
3121875000  -2.584526e+001  1.264127e+000 
3125000000  -2.707333e+001  -1.831566e+000 
3128125000  -2.823746e+001  6.365817e+000 
3131250000  -2.606554e+001  7.048142e+000 
3134375000  -2.471417e+001  -6.499127e+000 
3137500000  -2.531021e+001  -2.042546e+001 
3140625000  -2.692780e+001  -2.198551e+001 
3143750000  -2.798447e+001  -1.837014e+001 
3146875000  -2.762283e+001  -1.624944e+001 
3150000000  -2.657257e+001  -1.389255e+001 
3153125000  -2.652448e+001  -2.164207e+001 
3156250000  -2.752184e+001  -1.620094e+001 
3159375000  -2.591364e+001  -1.329438e+001 
3162500000  -2.391811e+001  -2.651629e+001 
3165625000  -2.482352e+001  -3.721865e+001 
3168750000  -2.518574e+001  -3.643965e+001 
3171875000  -2.428045e+001  -4.058928e+001 
3175000000  -2.493247e+001  -4.845585e+001 
3178125000  -2.470436e+001  -4.659564e+001 
3181250000  -2.349613e+001  -5.074168e+001 
3184375000  -2.272239e+001  -6.284502e+001 
3187500000  -2.387538e+001  -7.807290e+001 
3190625000  -2.662260e+001  -8.556466e+001 
3193750000  -2.719160e+001  -7.606921e+001 
3196875000  -2.676474e+001  -7.059454e+001 
3200000000  -2.586122e+001  -7.249580e+001 
3203125000  -2.504348e+001  -7.819357e+001 
3206250000  -2.536129e+001  -8.460629e+001 
3209375000  -2.485028e+001  -8.951229e+001 
3212500000  -2.502112e+001  -9.588412e+001 
3215625000  -2.511826e+001  -9.984530e+001 
3218750000  -2.590021e+001  -1.063861e+002 
3221875000  -2.681510e+001  -1.114224e+002 
3225000000  -2.640671e+001  -1.121746e+002 
3228125000  -2.677297e+001  -1.168864e+002 
3231250000  -2.753168e+001  -1.193622e+002 
3234375000  -2.733942e+001  -1.182875e+002 
3237500000  -2.739469e+001  -1.200371e+002 
3240625000  -2.707277e+001  -1.218238e+002 
3243750000  -2.672713e+001  -1.283151e+002 
3246875000  -2.721697e+001  -1.348696e+002 
3250000000  -2.765589e+001  -1.366030e+002 
3253125000  -2.777531e+001  -1.384414e+002 
3256250000  -2.767283e+001  -1.445381e+002 
3259375000  -2.797591e+001  -1.520031e+002 
3262500000  -2.924813e+001  -1.550336e+002 
3265625000  -2.989508e+001  -1.512150e+002 
3268750000  -2.990419e+001  -1.485903e+002 
3271875000  -2.965473e+001  -1.479756e+002 
3275000000  -2.856091e+001  -1.530788e+002 
3278125000  -2.904203e+001  -1.593646e+002 
3281250000  -2.926189e+001  -1.575023e+002 
3284375000  -2.886219e+001  -1.629335e+002 
3287500000  -2.904478e+001  -1.657817e+002 
3290625000  -2.936323e+001  -1.702317e+002 
3293750000  -2.909778e+001  -1.756784e+002 
3296875000  -3.011642e+001  -1.757894e+002 
3300000000  -3.001057e+001  -1.746964e+002 
3303125000  -2.889947e+001  -1.784735e+002 
3306250000  -2.866831e+001  1.750068e+002 
3309375000  -2.842112e+001  1.699021e+002 
3312500000  -2.847782e+001  1.595874e+002 
3315625000  -2.949840e+001  1.516911e+002 
3318750000  -3.084411e+001  1.487836e+002 
3321875000  -3.193640e+001  1.488328e+002 
3325000000  -3.264676e+001  1.544718e+002 
3328125000  -3.234619e+001  1.554541e+002 
3331250000  -3.121488e+001  1.631327e+002 
3334375000  -2.860848e+001  1.535212e+002 
3337500000  -2.870812e+001  1.347718e+002 
3340625000  -3.000245e+001  1.239055e+002 
3343750000  -3.191292e+001  1.233325e+002 
3346875000  -3.245486e+001  1.242759e+002 
3350000000  -3.184238e+001  1.228649e+002 
3353125000  -3.187516e+001  1.182396e+002 
3356250000  -3.161181e+001  1.105900e+002 
3359375000  -3.248094e+001  1.029206e+002 
3362500000  -3.375837e+001  9.705603e+001 
3365625000  -3.443210e+001  9.578879e+001 
3368750000  -3.539523e+001  9.421613e+001 
3371875000  -3.572445e+001  9.078440e+001 
3375000000  -3.735833e+001  8.839436e+001 
3378125000  -3.841807e+001  8.780064e+001 
3381250000  -4.005690e+001  9.634740e+001 
3384375000  -3.904167e+001  1.182640e+002 
3387500000  -3.588806e+001  1.043040e+002 
3390625000  -3.763346e+001  8.402834e+001 
3393750000  -3.947797e+001  8.899548e+001 
3396875000  -3.852432e+001  9.134848e+001 
3400000000  -3.850298e+001  8.573171e+001 
3403125000  -3.935374e+001  8.002187e+001 
3406250000  -4.020803e+001  8.246468e+001 
3409375000  -4.082143e+001  7.885114e+001 
3412500000  -4.180912e+001  7.938364e+001 
3415625000  -4.280528e+001  8.505436e+001 
3418750000  -4.281237e+001  8.771578e+001 
3421875000  -4.299944e+001  9.354769e+001 
3425000000  -4.243624e+001  9.697152e+001 
3428125000  -4.126332e+001  9.583784e+001 
3431250000  -4.153852e+001  9.305478e+001 
3434375000  -4.112819e+001  8.774599e+001 
3437500000  -4.165129e+001  8.655779e+001 
3440625000  -4.200743e+001  8.988183e+001 
3443750000  -4.106763e+001  9.244235e+001 
3446875000  -3.991894e+001  8.821919e+001 
3450000000  -3.991160e+001  7.805688e+001 
3453125000  -4.015926e+001  6.930745e+001 
3456250000  -4.135042e+001  6.472984e+001 
3459375000  -4.205961e+001  6.911287e+001 
3462500000  -4.242081e+001  6.920711e+001 
3465625000  -4.257200e+001  6.469099e+001 
3468750000  -4.297322e+001  6.152357e+001 
3471875000  -4.284618e+001  6.255532e+001 
3475000000  -4.297474e+001  5.770707e+001 
3478125000  -4.371101e+001  5.246916e+001 
3481250000  -4.488598e+001  5.133733e+001 
3484375000  -4.638148e+001  5.976143e+001 
3487500000  -4.569156e+001  6.012349e+001 
3490625000  -4.555302e+001  5.839898e+001 
3493750000  -4.619264e+001  5.248056e+001 
3496875000  -4.745206e+001  5.567938e+001 
3500000000  -4.802413e+001  6.492304e+001 
3503125000  -4.824455e+001  6.460128e+001 
3506250000  -4.735107e+001  7.035648e+001 
3509375000  -4.735113e+001  6.423458e+001 
3512500000  -4.841881e+001  6.535596e+001 
3515625000  -4.813289e+001  7.237660e+001 
3518750000  -4.844004e+001  7.303209e+001 
3521875000  -4.843607e+001  7.846735e+001 
3525000000  -4.812651e+001  7.977044e+001 
3528125000  -4.827673e+001  9.319283e+001 
3531250000  -4.645516e+001  9.033267e+001 
3534375000  -4.521566e+001  8.656660e+001 
3537500000  -4.515746e+001  8.310728e+001 
3540625000  -4.573364e+001  8.284736e+001 
3543750000  -4.618332e+001  8.560228e+001 
3546875000  -4.597630e+001  9.781820e+001 
3550000000  -4.353098e+001  1.002054e+002 
3553125000  -4.138445e+001  8.500858e+001 
3556250000  -4.264157e+001  7.928735e+001 
3559375000  -4.219267e+001  8.100010e+001 
3562500000  -4.104155e+001  7.300301e+001 
3565625000  -4.186366e+001  6.784647e+001 
3568750000  -4.207759e+001  6.993075e+001 
3571875000  -4.158418e+001  7.041848e+001 
3575000000  -4.103466e+001  6.584768e+001 
3578125000  -4.163045e+001  6.119626e+001 
3581250000  -4.152074e+001  6.324035e+001 
3584375000  -4.073388e+001  5.991352e+001 
3587500000  -4.016853e+001  5.651680e+001 
3590625000  -4.031630e+001  4.658632e+001 
3593750000  -4.119737e+001  4.592989e+001 
3596875000  -4.138378e+001  5.306089e+001 
3600000000  -3.973543e+001  4.966474e+001 
3603125000  -3.973050e+001  3.628118e+001 
3606250000  -4.035879e+001  3.384774e+001 
3609375000  -4.075884e+001  3.363220e+001 
3612500000  -4.125183e+001  3.265302e+001 
3615625000  -4.131590e+001  2.822756e+001 
3618750000  -4.182155e+001  3.122557e+001 
3621875000  -4.121296e+001  3.130342e+001 
3625000000  -4.149780e+001  2.999531e+001 
3628125000  -4.162446e+001  2.880984e+001 
3631250000  -4.126713e+001  2.547993e+001 
3634375000  -4.213900e+001  2.604440e+001 
3637500000  -4.186042e+001  3.291866e+001 
3640625000  -4.057100e+001  3.183772e+001 
3643750000  -4.033848e+001  2.685669e+001 
3646875000  -4.117719e+001  2.166844e+001 
3650000000  -4.142799e+001  1.969312e+001 
3653125000  -4.103098e+001  2.143712e+001 
3656250000  -4.133425e+001  1.900547e+001 
3659375000  -4.171577e+001  2.326605e+001 
3662500000  -4.098509e+001  2.212921e+001 
3665625000  -4.109470e+001  2.312866e+001 
3668750000  -3.997499e+001  2.447740e+001 
3671875000  -3.921231e+001  1.994336e+001 
3675000000  -3.959589e+001  1.318032e+001 
3678125000  -4.017462e+001  1.542513e+001 
3681250000  -3.950886e+001  1.594842e+001 
3684375000  -3.925970e+001  1.402302e+001 
3687500000  -3.946669e+001  1.136106e+001 
3690625000  -3.940252e+001  9.506024e+000 
3693750000  -3.982754e+001  1.148954e+001 
3696875000  -3.972359e+001  1.518273e+001 
3700000000  -3.853857e+001  1.218060e+001 
3703125000  -3.852165e+001  9.204019e+000 
3706250000  -3.902456e+001  1.134198e+001 
3709375000  -3.849652e+001  1.377767e+001 
3712500000  -3.718679e+001  1.403691e+001 
3715625000  -3.607153e+001  8.260245e+000 
3718750000  -3.527120e+001  5.349396e+000 
3721875000  -3.506643e+001  -3.352453e-001 
3725000000  -3.507053e+001  -5.076426e+000 
3728125000  -3.517369e+001  -4.726617e+000 
3731250000  -3.447512e+001  -6.133452e+000 
3734375000  -3.342123e+001  -1.166875e+001 
3737500000  -3.393458e+001  -1.843120e+001 
3740625000  -3.462499e+001  -2.291636e+001 
3743750000  -3.437196e+001  -2.364238e+001 
3746875000  -3.429609e+001  -2.836464e+001 
3750000000  -3.464624e+001  -2.850202e+001 
3753125000  -3.432615e+001  -2.922081e+001 
3756250000  -3.423062e+001  -2.994654e+001 
3759375000  -3.406998e+001  -3.032978e+001 
3762500000  -3.356696e+001  -3.481819e+001 
3765625000  -3.395671e+001  -3.713601e+001 
3768750000  -3.416109e+001  -3.515508e+001 
3771875000  -3.240319e+001  -3.766632e+001 
3775000000  -3.205371e+001  -4.497014e+001 
3778125000  -3.242964e+001  -4.707276e+001 
3781250000  -3.214246e+001  -5.008299e+001 
3784375000  -3.212996e+001  -5.136438e+001 
3787500000  -3.148902e+001  -5.503065e+001 
3790625000  -3.198473e+001  -6.083928e+001 
3793750000  -3.214864e+001  -6.105053e+001 
3796875000  -3.134795e+001  -6.228357e+001 
3800000000  -2.975733e+001  -6.574088e+001 
3803125000  -3.048704e+001  -7.280332e+001 
3806250000  -3.111779e+001  -7.587987e+001 
3809375000  -3.098596e+001  -7.699216e+001 
3812500000  -3.033666e+001  -8.154327e+001 
3815625000  -3.089451e+001  -8.924699e+001 
3818750000  -3.184988e+001  -9.009789e+001 
3821875000  -3.192951e+001  -8.181652e+001 
3825000000  -2.994582e+001  -7.678568e+001 
3828125000  -2.857395e+001  -9.133235e+001 
3831250000  -2.908335e+001  -1.057394e+002 
3834375000  -3.042148e+001  -1.059565e+002 
3837500000  -3.132847e+001  -1.015728e+002 
3840625000  -3.029165e+001  -1.016932e+002 
3843750000  -2.902708e+001  -1.123075e+002 
3846875000  -2.983834e+001  -1.191740e+002 
3850000000  -3.103504e+001  -1.133914e+002 
3853125000  -3.018782e+001  -1.116541e+002 
3856250000  -3.024185e+001  -1.155712e+002 
3859375000  -2.959395e+001  -1.200254e+002 
3862500000  -2.894489e+001  -1.272356e+002 
3865625000  -2.937869e+001  -1.322037e+002 
3868750000  -2.928539e+001  -1.323091e+002 
3871875000  -2.853142e+001  -1.353005e+002 
3875000000  -2.874269e+001  -1.440934e+002 
3878125000  -2.969169e+001  -1.462201e+002 
3881250000  -2.986556e+001  -1.432074e+002 
3884375000  -2.924748e+001  -1.477063e+002 
3887500000  -2.934018e+001  -1.520683e+002 
3890625000  -2.992634e+001  -1.547926e+002 
3893750000  -3.033869e+001  -1.560540e+002 
3896875000  -3.046915e+001  -1.556758e+002 
3900000000  -3.064886e+001  -1.569168e+002 
3903125000  -3.039669e+001  -1.591143e+002 
3906250000  -3.009768e+001  -1.591177e+002 
3909375000  -2.937128e+001  -1.618004e+002 
3912500000  -2.941285e+001  -1.690529e+002 
3915625000  -3.061176e+001  -1.683679e+002 
3918750000  -3.071793e+001  -1.665155e+002 
3921875000  -3.034999e+001  -1.678278e+002 
3925000000  -2.940442e+001  -1.685428e+002 
3928125000  -2.874806e+001  -1.747852e+002 
3931250000  -2.917501e+001  -1.786320e+002 
3934375000  -2.944510e+001  -1.782290e+002 
3937500000  -2.953668e+001  -1.788930e+002 
3940625000  -3.005063e+001  -1.790675e+002 
3943750000  -2.910265e+001  -1.768960e+002 
3946875000  -2.785655e+001  1.777603e+002 
3950000000  -2.837415e+001  1.702168e+002 
3953125000  -2.922375e+001  1.706808e+002 
3956250000  -2.829580e+001  1.729908e+002 
3959375000  -2.698914e+001  1.703208e+002 
3962500000  -2.658386e+001  1.660982e+002 
3965625000  -2.617860e+001  1.575293e+002 
3968750000  -2.705383e+001  1.504153e+002 
3971875000  -2.747064e+001  1.486146e+002 
3975000000  -2.678309e+001  1.464919e+002 
3978125000  -2.663706e+001  1.458993e+002 
3981250000  -2.633884e+001  1.412243e+002 
3984375000  -2.652194e+001  1.352567e+002 
3987500000  -2.712087e+001  1.326424e+002 
3990625000  -2.700799e+001  1.318612e+002 
3993750000  -2.723587e+001  1.288152e+002 
3996875000  -2.722581e+001  1.264053e+002 
4000000000  -2.732971e+001  1.241615e+002 
4003125000  -2.797243e+001  1.263658e+002 
4006250000  -2.653856e+001  1.270753e+002 
4009375000  -2.524359e+001  1.147489e+002 
4012500000  -2.630183e+001  1.077252e+002 
4015625000  -2.752036e+001  1.080251e+002 
4018750000  -2.772811e+001  1.101833e+002 
4021875000  -2.706864e+001  1.084926e+002 
4025000000  -2.668140e+001  1.035548e+002 
4028125000  -2.665344e+001  9.941333e+001 
4031250000  -2.706937e+001  9.609422e+001 
4034375000  -2.735754e+001  9.572678e+001 
4037500000  -2.686757e+001  9.762341e+001 
4040625000  -2.681290e+001  9.434568e+001 
4043750000  -2.714960e+001  9.452180e+001 
4046875000  -2.666287e+001  9.369422e+001 
4050000000  -2.611298e+001  8.805736e+001 
4053125000  -2.658353e+001  8.593514e+001 
4056250000  -2.718630e+001  9.025092e+001 
4059375000  -2.607866e+001  9.205585e+001 
4062500000  -2.473951e+001  8.740971e+001 
4065625000  -2.457021e+001  8.320143e+001 
4068750000  -2.426699e+001  7.915974e+001 
4071875000  -2.357604e+001  7.104610e+001 
4075000000  -2.387669e+001  6.472408e+001 
4078125000  -2.442728e+001  6.325865e+001 
4081250000  -2.395600e+001  6.102689e+001 
4084375000  -2.350241e+001  5.400497e+001 
4087500000  -2.380152e+001  4.806740e+001 
4090625000  -2.446121e+001  4.662615e+001 
4093750000  -2.430173e+001  4.726625e+001 
4096875000  -2.384958e+001  4.153897e+001 
4100000000  -2.447422e+001  3.465012e+001 
4103125000  -2.537382e+001  3.541843e+001 
4106250000  -2.518301e+001  4.013895e+001 
4109375000  -2.430774e+001  3.936489e+001 
4112500000  -2.379067e+001  3.257479e+001 
4115625000  -2.400889e+001  2.841210e+001 
4118750000  -2.413477e+001  2.542067e+001 
4121875000  -2.385134e+001  2.048368e+001 
4125000000  -2.418811e+001  1.561133e+001 
4128125000  -2.523201e+001  1.619854e+001 
4131250000  -2.478248e+001  2.469950e+001 
4134375000  -2.246720e+001  1.949298e+001 
4137500000  -2.226953e+001  3.101369e-001 
4140625000  -2.442603e+001  -6.818220e+000 
4143750000  -2.578362e+001  -2.016030e+000 
4146875000  -2.531681e+001  5.411588e+000 
4150000000  -2.438700e+001  2.323663e+000 
4153125000  -2.428683e+001  -4.315615e+000 
4156250000  -2.510739e+001  -7.365755e+000 
4159375000  -2.547711e+001  -2.814578e+000 
4162500000  -2.428676e+001  1.601820e+000 
4165625000  -2.319446e+001  -2.307319e+000 
4168750000  -2.253812e+001  -9.409368e+000 
4171875000  -2.247684e+001  -1.860689e+001 
4175000000  -2.301118e+001  -2.475767e+001 
4178125000  -2.366359e+001  -2.527892e+001 
4181250000  -2.354973e+001  -2.550721e+001 
4184375000  -2.341196e+001  -2.886378e+001 
4187500000  -2.345958e+001  -3.162641e+001 
4190625000  -2.328554e+001  -3.705856e+001 
4193750000  -2.402781e+001  -4.094434e+001 
4196875000  -2.482075e+001  -4.109979e+001 
4200000000  -2.561397e+001  -3.869507e+001 
4203125000  -2.561377e+001  -2.576299e+001 
4206250000  -2.230762e+001  -2.407817e+001 
4209375000  -2.116659e+001  -4.446313e+001 
4212500000  -2.309121e+001  -5.311499e+001 
4215625000  -2.406383e+001  -4.599791e+001 
4218750000  -2.255189e+001  -3.979436e+001 
4221875000  -2.023815e+001  -4.930076e+001 
4225000000  -2.151691e+001  -6.243248e+001 
4228125000  -2.222808e+001  -5.735177e+001 
4231250000  -2.072145e+001  -6.110195e+001 
4234375000  -2.061647e+001  -6.946662e+001 
4237500000  -2.017697e+001  -7.305833e+001 
4240625000  -2.027694e+001  -8.153510e+001 
4243750000  -2.128922e+001  -8.815192e+001 
4246875000  -2.211107e+001  -8.792715e+001 
4250000000  -2.210677e+001  -8.498326e+001 
4253125000  -2.152928e+001  -8.745002e+001 
4256250000  -2.170825e+001  -9.163532e+001 
4259375000  -2.153648e+001  -9.367033e+001 
4262500000  -2.155407e+001  -9.759428e+001 
4265625000  -2.170740e+001  -9.737556e+001 
4268750000  -2.091770e+001  -1.009641e+002 
4271875000  -2.062799e+001  -1.065454e+002 
4275000000  -1.992267e+001  -1.132942e+002 
4278125000  -2.048782e+001  -1.247941e+002 
4281250000  -2.222352e+001  -1.274129e+002 
4284375000  -2.203704e+001  -1.268392e+002 
4287500000  -2.293101e+001  -1.307516e+002 
4290625000  -2.421318e+001  -1.203468e+002 
4293750000  -2.222605e+001  -1.146487e+002 
4296875000  -2.088538e+001  -1.259049e+002 
4300000000  -2.174135e+001  -1.350169e+002 
4303125000  -2.278143e+001  -1.337898e+002 
4306250000  -2.209915e+001  -1.284613e+002 
4309375000  -2.076840e+001  -1.310020e+002 
4312500000  -2.067461e+001  -1.394711e+002 
4315625000  -2.098693e+001  -1.453616e+002 
4318750000  -2.128453e+001  -1.484745e+002 
4321875000  -2.144951e+001  -1.478916e+002 
4325000000  -2.083334e+001  -1.476178e+002 
4328125000  -2.032241e+001  -1.542691e+002 
4331250000  -2.036162e+001  -1.621572e+002 
4334375000  -2.078522e+001  -1.669880e+002 
4337500000  -2.157667e+001  -1.689832e+002 
4340625000  -2.208002e+001  -1.660422e+002 
4343750000  -2.148489e+001  -1.657396e+002 
4346875000  -2.114082e+001  -1.706763e+002 
4350000000  -2.104002e+001  -1.754933e+002 
4353125000  -2.107313e+001  1.764252e+002 
4356250000  -2.277598e+001  1.753172e+002 
4359375000  -2.342666e+001  -1.718379e+002 
4362500000  -2.084310e+001  -1.696587e+002 
4365625000  -1.929957e+001  1.789901e+002 
4368750000  -2.001195e+001  1.669592e+002 
4371875000  -2.112709e+001  1.675780e+002 
4375000000  -2.081065e+001  1.686433e+002 
4378125000  -2.016907e+001  1.628183e+002 
4381250000  -2.029005e+001  1.574280e+002 
4384375000  -2.013498e+001  1.527993e+002 
4387500000  -2.082043e+001  1.467150e+002 
4390625000  -2.183422e+001  1.473769e+002 
4393750000  -2.123343e+001  1.497940e+002 
4396875000  -2.057066e+001  1.472727e+002 
4400000000  -2.007645e+001  1.403908e+002 
4403125000  -2.060118e+001  1.327089e+002 
4406250000  -2.144360e+001  1.313722e+002 
4409375000  -2.141269e+001  1.289356e+002 
4412500000  -2.237430e+001  1.258726e+002 
4415625000  -2.279685e+001  1.304937e+002 
4418750000  -2.171742e+001  1.356837e+002 
