!Agilent Technologies,E8363B,MY43030201,A.06.04.32
!Agilent E8363B: A.06.04.32
!Date: Tuesday, November 11, 2014 20:55:59
!Correction: S21(Response(S21)) 
!S1P File: Measurement: S21:
# Hz S  dB   R 50
3000000000  -2.648470e+001  1.478383e+002 
3003125000  -2.791443e+001  1.430177e+002 
3006250000  -2.797376e+001  1.402536e+002 
3009375000  -2.833992e+001  1.455369e+002 
3012500000  -2.775357e+001  1.448527e+002 
3015625000  -2.683103e+001  1.381546e+002 
3018750000  -2.770162e+001  1.373829e+002 
3021875000  -2.637983e+001  1.387807e+002 
3025000000  -2.507325e+001  1.356055e+002 
3028125000  -2.413027e+001  1.303560e+002 
3031250000  -2.306995e+001  1.192658e+002 
3034375000  -2.271169e+001  1.061056e+002 
3037500000  -2.309966e+001  9.439156e+001 
3040625000  -2.443032e+001  8.919177e+001 
3043750000  -2.513053e+001  8.473055e+001 
3046875000  -2.530681e+001  7.851509e+001 
3050000000  -2.702873e+001  7.196887e+001 
3053125000  -2.711767e+001  7.830367e+001 
3056250000  -2.643693e+001  8.144922e+001 
3059375000  -2.667872e+001  8.077275e+001 
3062500000  -2.516016e+001  7.711676e+001 
3065625000  -2.499154e+001  7.130377e+001 
3068750000  -2.468715e+001  6.436347e+001 
3071875000  -2.465147e+001  6.141699e+001 
3075000000  -2.457135e+001  5.755224e+001 
3078125000  -2.431852e+001  5.295997e+001 
3081250000  -2.498934e+001  4.881882e+001 
3084375000  -2.422314e+001  4.519216e+001 
3087500000  -2.413914e+001  4.130133e+001 
3090625000  -2.379522e+001  3.169150e+001 
3093750000  -2.430771e+001  2.362802e+001 
3096875000  -2.559290e+001  1.794214e+001 
3100000000  -2.567284e+001  1.668425e+001 
3103125000  -2.609200e+001  1.780171e+001 
3106250000  -2.576599e+001  1.430832e+001 
3109375000  -2.606617e+001  1.088906e+001 
3112500000  -2.618004e+001  9.342812e+000 
3115625000  -2.594475e+001  5.754195e+000 
3118750000  -2.644187e+001  6.813272e+000 
3121875000  -2.578451e+001  -1.320838e+000 
3125000000  -2.700171e+001  -4.662619e+000 
3128125000  -2.820447e+001  3.797556e+000 
3131250000  -2.592319e+001  4.077744e+000 
3134375000  -2.466191e+001  -9.630569e+000 
3137500000  -2.537094e+001  -2.318603e+001 
3140625000  -2.694228e+001  -2.479635e+001 
3143750000  -2.790516e+001  -2.117855e+001 
3146875000  -2.748926e+001  -1.867539e+001 
3150000000  -2.652047e+001  -1.688566e+001 
3153125000  -2.649635e+001  -2.428835e+001 
3156250000  -2.747570e+001  -1.881079e+001 
3159375000  -2.587577e+001  -1.604189e+001 
3162500000  -2.386854e+001  -2.910379e+001 
3165625000  -2.485368e+001  -4.002337e+001 
3168750000  -2.517417e+001  -3.909085e+001 
3171875000  -2.422773e+001  -4.318797e+001 
3175000000  -2.490511e+001  -5.117416e+001 
3178125000  -2.467046e+001  -4.952398e+001 
3181250000  -2.349843e+001  -5.362772e+001 
3184375000  -2.275644e+001  -6.551606e+001 
3187500000  -2.385353e+001  -8.071539e+001 
3190625000  -2.660166e+001  -8.791220e+001 
3193750000  -2.713733e+001  -7.860744e+001 
3196875000  -2.680899e+001  -7.311515e+001 
3200000000  -2.586225e+001  -7.504286e+001 
3203125000  -2.504276e+001  -8.119604e+001 
3206250000  -2.531684e+001  -8.727776e+001 
3209375000  -2.486146e+001  -9.229869e+001 
3212500000  -2.501827e+001  -9.883311e+001 
3215625000  -2.512190e+001  -1.029404e+002 
3218750000  -2.588745e+001  -1.089904e+002 
3221875000  -2.687331e+001  -1.143448e+002 
3225000000  -2.646688e+001  -1.150533e+002 
3228125000  -2.676162e+001  -1.196494e+002 
3231250000  -2.757182e+001  -1.219622e+002 
3234375000  -2.734824e+001  -1.210708e+002 
3237500000  -2.743672e+001  -1.226983e+002 
3240625000  -2.708153e+001  -1.248384e+002 
3243750000  -2.673205e+001  -1.310121e+002 
3246875000  -2.720319e+001  -1.374697e+002 
3250000000  -2.769626e+001  -1.394367e+002 
3253125000  -2.786948e+001  -1.409952e+002 
3256250000  -2.767233e+001  -1.470632e+002 
3259375000  -2.799996e+001  -1.550168e+002 
3262500000  -2.933138e+001  -1.575299e+002 
3265625000  -2.994094e+001  -1.540941e+002 
3268750000  -2.995109e+001  -1.511136e+002 
3271875000  -2.966428e+001  -1.502516e+002 
3275000000  -2.855847e+001  -1.554983e+002 
3278125000  -2.912906e+001  -1.618458e+002 
3281250000  -2.932086e+001  -1.597041e+002 
3284375000  -2.891912e+001  -1.656006e+002 
3287500000  -2.905424e+001  -1.683358e+002 
3290625000  -2.945451e+001  -1.728482e+002 
3293750000  -2.920291e+001  -1.784723e+002 
3296875000  -3.022776e+001  -1.780364e+002 
3300000000  -3.002236e+001  -1.771394e+002 
3303125000  -2.892407e+001  1.789373e+002 
3306250000  -2.867573e+001  1.723397e+002 
3309375000  -2.846713e+001  1.671728e+002 
3312500000  -2.856460e+001  1.567480e+002 
3315625000  -2.954969e+001  1.490310e+002 
3318750000  -3.092233e+001  1.463132e+002 
3321875000  -3.213848e+001  1.461071e+002 
3325000000  -3.271195e+001  1.514235e+002 
3328125000  -3.251120e+001  1.532698e+002 
3331250000  -3.128782e+001  1.610627e+002 
3334375000  -2.863023e+001  1.504698e+002 
3337500000  -2.872548e+001  1.323465e+002 
3340625000  -3.013140e+001  1.211446e+002 
3343750000  -3.211386e+001  1.202890e+002 
3346875000  -3.250008e+001  1.219199e+002 
3350000000  -3.194394e+001  1.207282e+002 
3353125000  -3.187122e+001  1.165229e+002 
3356250000  -3.160654e+001  1.092697e+002 
3359375000  -3.248262e+001  1.010403e+002 
3362500000  -3.377016e+001  9.516521e+001 
3365625000  -3.444384e+001  9.353973e+001 
3368750000  -3.532378e+001  9.178393e+001 
3371875000  -3.575994e+001  8.870638e+001 
3375000000  -3.718560e+001  8.665669e+001 
3378125000  -3.840825e+001  8.677905e+001 
3381250000  -3.999074e+001  9.411318e+001 
3384375000  -3.894799e+001  1.141135e+002 
3387500000  -3.575717e+001  1.015207e+002 
3390625000  -3.758414e+001  8.130341e+001 
3393750000  -3.951732e+001  8.701218e+001 
3396875000  -3.862876e+001  8.944502e+001 
3400000000  -3.843052e+001  8.188399e+001 
3403125000  -3.955617e+001  7.668188e+001 
3406250000  -4.025930e+001  8.338892e+001 
3409375000  -4.101220e+001  7.565562e+001 
3412500000  -4.167472e+001  7.749010e+001 
3415625000  -4.257648e+001  8.309675e+001 
3418750000  -4.309979e+001  8.695187e+001 
3421875000  -4.318993e+001  9.363120e+001 
3425000000  -4.225546e+001  9.689932e+001 
3428125000  -4.138613e+001  9.619698e+001 
3431250000  -4.124158e+001  9.257529e+001 
3434375000  -4.112034e+001  8.926891e+001 
3437500000  -4.162731e+001  8.812050e+001 
3440625000  -4.211673e+001  9.025912e+001 
3443750000  -4.056098e+001  9.241633e+001 
3446875000  -3.978464e+001  8.701315e+001 
3450000000  -3.935818e+001  7.711140e+001 
3453125000  -3.985089e+001  6.943168e+001 
3456250000  -4.089784e+001  6.404409e+001 
3459375000  -4.186040e+001  6.665607e+001 
3462500000  -4.205421e+001  6.562003e+001 
3465625000  -4.208297e+001  6.220311e+001 
3468750000  -4.236617e+001  5.923354e+001 
3471875000  -4.249240e+001  6.057097e+001 
3475000000  -4.250185e+001  5.423256e+001 
3478125000  -4.322718e+001  5.035101e+001 
3481250000  -4.435339e+001  4.840602e+001 
3484375000  -4.553543e+001  5.339841e+001 
3487500000  -4.551322e+001  5.543166e+001 
3490625000  -4.549186e+001  5.340264e+001 
3493750000  -4.576267e+001  4.796893e+001 
3496875000  -4.719162e+001  5.024384e+001 
3500000000  -4.801139e+001  5.773334e+001 
3503125000  -4.820042e+001  6.381188e+001 
3506250000  -4.678487e+001  6.441609e+001 
3509375000  -4.752280e+001  6.336619e+001 
3512500000  -4.792884e+001  5.843629e+001 
3515625000  -4.815453e+001  6.504964e+001 
3518750000  -4.942136e+001  7.046615e+001 
3521875000  -4.769069e+001  7.775051e+001 
3525000000  -4.819077e+001  7.821910e+001 
3528125000  -4.810820e+001  8.825516e+001 
3531250000  -4.607891e+001  9.152042e+001 
3534375000  -4.510783e+001  8.061763e+001 
3537500000  -4.506039e+001  7.595903e+001 
3540625000  -4.575537e+001  7.861625e+001 
3543750000  -4.583902e+001  8.494530e+001 
3546875000  -4.553488e+001  9.272951e+001 
3550000000  -4.256992e+001  9.433551e+001 
3553125000  -4.143764e+001  7.878509e+001 
3556250000  -4.230937e+001  7.187740e+001 
3559375000  -4.200229e+001  7.666529e+001 
3562500000  -4.107193e+001  6.718750e+001 
3565625000  -4.184711e+001  6.004493e+001 
3568750000  -4.178808e+001  6.389586e+001 
3571875000  -4.179961e+001  6.200299e+001 
3575000000  -4.118611e+001  5.872895e+001 
3578125000  -4.184132e+001  5.667297e+001 
3581250000  -4.175661e+001  5.520051e+001 
3584375000  -4.125891e+001  5.650099e+001 
3587500000  -4.029723e+001  4.720087e+001 
3590625000  -4.059666e+001  3.891292e+001 
3593750000  -4.172821e+001  3.914204e+001 
3596875000  -4.162411e+001  4.638695e+001 
3600000000  -4.022493e+001  4.497586e+001 
3603125000  -4.012310e+001  3.281312e+001 
3606250000  -4.089460e+001  2.921462e+001 
3609375000  -4.135728e+001  2.934332e+001 
3612500000  -4.164260e+001  2.759897e+001 
3615625000  -4.182381e+001  2.603050e+001 
3618750000  -4.241668e+001  2.783026e+001 
3621875000  -4.181867e+001  2.779657e+001 
3625000000  -4.226482e+001  2.824731e+001 
3628125000  -4.209811e+001  2.808768e+001 
3631250000  -4.170649e+001  2.208683e+001 
3634375000  -4.276091e+001  2.341540e+001 
3637500000  -4.205444e+001  2.833675e+001 
3640625000  -4.081359e+001  3.135397e+001 
3643750000  -4.066312e+001  2.398834e+001 
3646875000  -4.117316e+001  1.902137e+001 
3650000000  -4.157763e+001  1.788609e+001 
3653125000  -4.136547e+001  1.772945e+001 
3656250000  -4.123583e+001  1.762259e+001 
3659375000  -4.171906e+001  2.022459e+001 
3662500000  -4.121737e+001  2.002868e+001 
3665625000  -4.111826e+001  1.847415e+001 
3668750000  -4.001788e+001  2.016817e+001 
3671875000  -3.898049e+001  1.478462e+001 
3675000000  -3.975868e+001  7.776062e+000 
3678125000  -4.023926e+001  1.007109e+001 
3681250000  -3.976228e+001  1.087030e+001 
3684375000  -3.963073e+001  9.547182e+000 
3687500000  -3.977529e+001  8.101770e+000 
3690625000  -3.968788e+001  5.202415e+000 
3693750000  -4.048386e+001  9.460794e+000 
3696875000  -4.018880e+001  1.148957e+001 
3700000000  -3.896862e+001  9.827926e+000 
3703125000  -3.891078e+001  7.192490e+000 
3706250000  -3.938946e+001  8.573367e+000 
3709375000  -3.881458e+001  1.067233e+001 
3712500000  -3.756446e+001  1.189393e+001 
3715625000  -3.644010e+001  5.921622e+000 
3718750000  -3.576665e+001  3.125046e+000 
3721875000  -3.537319e+001  -2.587440e+000 
3725000000  -3.537040e+001  -6.610909e+000 
3728125000  -3.534866e+001  -8.116600e+000 
3731250000  -3.473756e+001  -7.909562e+000 
3734375000  -3.384586e+001  -1.476637e+001 
3737500000  -3.411278e+001  -2.105677e+001 
3740625000  -3.488306e+001  -2.375937e+001 
3743750000  -3.458708e+001  -2.613875e+001 
3746875000  -3.450227e+001  -2.938680e+001 
3750000000  -3.491471e+001  -3.001060e+001 
3753125000  -3.439283e+001  -3.124986e+001 
3756250000  -3.445966e+001  -3.243769e+001 
3759375000  -3.421325e+001  -3.312621e+001 
3762500000  -3.360384e+001  -3.732180e+001 
3765625000  -3.405721e+001  -3.936324e+001 
3768750000  -3.418819e+001  -3.741991e+001 
3771875000  -3.231715e+001  -3.988795e+001 
3775000000  -3.208022e+001  -4.811966e+001 
3778125000  -3.254596e+001  -4.990363e+001 
3781250000  -3.227621e+001  -5.257281e+001 
3784375000  -3.210717e+001  -5.489994e+001 
3787500000  -3.156244e+001  -5.844871e+001 
3790625000  -3.206764e+001  -6.381977e+001 
3793750000  -3.230907e+001  -6.513651e+001 
3796875000  -3.135183e+001  -6.630625e+001 
3800000000  -2.979016e+001  -6.987094e+001 
3803125000  -3.067170e+001  -7.718816e+001 
3806250000  -3.127670e+001  -7.966216e+001 
3809375000  -3.102665e+001  -8.048301e+001 
3812500000  -3.029505e+001  -8.536826e+001 
3815625000  -3.099679e+001  -9.301740e+001 
3818750000  -3.213480e+001  -9.458597e+001 
3821875000  -3.214148e+001  -8.570231e+001 
3825000000  -3.009286e+001  -8.080782e+001 
3828125000  -2.870238e+001  -9.534385e+001 
3831250000  -2.932784e+001  -1.092508e+002 
3834375000  -3.074592e+001  -1.105626e+002 
3837500000  -3.158009e+001  -1.048211e+002 
3840625000  -3.040750e+001  -1.062969e+002 
3843750000  -2.929029e+001  -1.160285e+002 
3846875000  -2.998383e+001  -1.231293e+002 
3850000000  -3.130017e+001  -1.167344e+002 
3853125000  -3.039529e+001  -1.143847e+002 
3856250000  -3.038992e+001  -1.191631e+002 
3859375000  -2.972037e+001  -1.240519e+002 
3862500000  -2.918552e+001  -1.313952e+002 
3865625000  -2.956665e+001  -1.360617e+002 
3868750000  -2.952232e+001  -1.358242e+002 
3871875000  -2.874739e+001  -1.391314e+002 
3875000000  -2.894362e+001  -1.473754e+002 
3878125000  -2.996623e+001  -1.501940e+002 
3881250000  -3.004431e+001  -1.472460e+002 
3884375000  -2.946386e+001  -1.515994e+002 
3887500000  -2.958950e+001  -1.562213e+002 
3890625000  -3.019003e+001  -1.583645e+002 
3893750000  -3.053031e+001  -1.600858e+002 
3896875000  -3.062618e+001  -1.591264e+002 
3900000000  -3.095293e+001  -1.604229e+002 
3903125000  -3.061370e+001  -1.626167e+002 
3906250000  -3.028215e+001  -1.631832e+002 
3909375000  -2.954481e+001  -1.661658e+002 
3912500000  -2.963753e+001  -1.739414e+002 
3915625000  -3.082739e+001  -1.722775e+002 
3918750000  -3.092474e+001  -1.713779e+002 
3921875000  -3.054239e+001  -1.726467e+002 
3925000000  -2.968108e+001  -1.735757e+002 
3928125000  -2.906804e+001  -1.795037e+002 
3931250000  -2.951584e+001  1.770251e+002 
3934375000  -2.989221e+001  1.769955e+002 
3937500000  -2.990036e+001  1.763361e+002 
3940625000  -3.036890e+001  1.768738e+002 
3943750000  -2.947683e+001  1.780739e+002 
3946875000  -2.822411e+001  1.727201e+002 
3950000000  -2.872676e+001  1.656489e+002 
3953125000  -2.973230e+001  1.660707e+002 
3956250000  -2.890132e+001  1.686490e+002 
3959375000  -2.751340e+001  1.655748e+002 
3962500000  -2.690024e+001  1.620884e+002 
3965625000  -2.665539e+001  1.528256e+002 
3968750000  -2.754547e+001  1.464203e+002 
3971875000  -2.794557e+001  1.447024e+002 
3975000000  -2.719097e+001  1.432606e+002 
3978125000  -2.709476e+001  1.415982e+002 
3981250000  -2.681823e+001  1.371412e+002 
3984375000  -2.713518e+001  1.310524e+002 
3987500000  -2.758074e+001  1.292014e+002 
3990625000  -2.759634e+001  1.281909e+002 
3993750000  -2.777126e+001  1.247747e+002 
3996875000  -2.773008e+001  1.224953e+002 
4000000000  -2.786368e+001  1.205271e+002 
4003125000  -2.833826e+001  1.229466e+002 
4006250000  -2.706799e+001  1.229773e+002 
4009375000  -2.574214e+001  1.108612e+002 
4012500000  -2.687289e+001  1.033006e+002 
4015625000  -2.808301e+001  1.040964e+002 
4018750000  -2.822722e+001  1.064220e+002 
4021875000  -2.747896e+001  1.043154e+002 
4025000000  -2.724063e+001  1.002335e+002 
4028125000  -2.718983e+001  9.588174e+001 
4031250000  -2.764091e+001  9.232159e+001 
4034375000  -2.787954e+001  9.201704e+001 
4037500000  -2.735830e+001  9.417115e+001 
4040625000  -2.733383e+001  9.063199e+001 
4043750000  -2.766704e+001  9.044460e+001 
4046875000  -2.731813e+001  8.964275e+001 
4050000000  -2.678055e+001  8.444096e+001 
4053125000  -2.725695e+001  8.241971e+001 
4056250000  -2.781091e+001  8.648381e+001 
4059375000  -2.656684e+001  8.852330e+001 
4062500000  -2.527235e+001  8.354340e+001 
4065625000  -2.515039e+001  7.877955e+001 
4068750000  -2.484984e+001  7.479619e+001 
4071875000  -2.422066e+001  6.669061e+001 
4075000000  -2.457945e+001  6.054361e+001 
4078125000  -2.516042e+001  5.976664e+001 
4081250000  -2.464117e+001  5.739966e+001 
4084375000  -2.421429e+001  5.085219e+001 
4087500000  -2.457692e+001  4.475291e+001 
4090625000  -2.520608e+001  4.401372e+001 
4093750000  -2.497676e+001  4.447828e+001 
4096875000  -2.451657e+001  3.834856e+001 
4100000000  -2.523768e+001  3.173552e+001 
4103125000  -2.607640e+001  3.227864e+001 
4106250000  -2.593467e+001  3.732965e+001 
4109375000  -2.508505e+001  3.687424e+001 
4112500000  -2.446907e+001  3.030278e+001 
4115625000  -2.481227e+001  2.608216e+001 
4118750000  -2.490888e+001  2.319587e+001 
4121875000  -2.448377e+001  1.834641e+001 
4125000000  -2.491176e+001  1.303664e+001 
4128125000  -2.594873e+001  1.349521e+001 
4131250000  -2.556671e+001  2.183024e+001 
4134375000  -2.322034e+001  1.716166e+001 
4137500000  -2.300485e+001  -1.508392e+000 
4140625000  -2.515763e+001  -8.854308e+000 
4143750000  -2.649370e+001  -3.863029e+000 
4146875000  -2.601885e+001  3.520499e+000 
4150000000  -2.507438e+001  2.029450e-001 
4153125000  -2.492231e+001  -6.473059e+000 
4156250000  -2.589377e+001  -9.083820e+000 
4159375000  -2.610348e+001  -4.738937e+000 
4162500000  -2.494744e+001  -5.151789e-001 
4165625000  -2.384806e+001  -4.422142e+000 
4168750000  -2.325160e+001  -1.178743e+001 
4171875000  -2.323272e+001  -2.082872e+001 
4175000000  -2.382854e+001  -2.678726e+001 
4178125000  -2.446218e+001  -2.691677e+001 
4181250000  -2.431218e+001  -2.739185e+001 
4184375000  -2.420438e+001  -3.038829e+001 
4187500000  -2.421614e+001  -3.354186e+001 
4190625000  -2.406911e+001  -3.887598e+001 
4193750000  -2.481523e+001  -4.226028e+001 
4196875000  -2.554607e+001  -4.273232e+001 
4200000000  -2.644155e+001  -4.052032e+001 
4203125000  -2.641271e+001  -2.653782e+001 
4206250000  -2.305603e+001  -2.553668e+001 
4209375000  -2.187768e+001  -4.590905e+001 
4212500000  -2.384387e+001  -5.466685e+001 
4215625000  -2.483937e+001  -4.826043e+001 
4218750000  -2.347751e+001  -4.146886e+001 
4221875000  -2.116888e+001  -5.098196e+001 
4225000000  -2.240849e+001  -6.317631e+001 
4228125000  -2.309188e+001  -5.812685e+001 
4231250000  -2.153472e+001  -6.186601e+001 
4234375000  -2.142920e+001  -7.019920e+001 
4237500000  -2.098121e+001  -7.348000e+001 
4240625000  -2.103360e+001  -8.233691e+001 
4243750000  -2.198224e+001  -8.904148e+001 
4246875000  -2.286633e+001  -8.865385e+001 
4250000000  -2.294691e+001  -8.589983e+001 
4253125000  -2.233488e+001  -8.787691e+001 
4256250000  -2.254617e+001  -9.225370e+001 
4259375000  -2.231248e+001  -9.416910e+001 
4262500000  -2.233957e+001  -9.773048e+001 
4265625000  -2.246695e+001  -9.748307e+001 
4268750000  -2.159049e+001  -1.019304e+002 
4271875000  -2.132173e+001  -1.072342e+002 
4275000000  -2.073995e+001  -1.137475e+002 
4278125000  -2.133787e+001  -1.249155e+002 
4281250000  -2.309316e+001  -1.271565e+002 
4284375000  -2.276962e+001  -1.267305e+002 
4287500000  -2.365607e+001  -1.300404e+002 
4290625000  -2.482652e+001  -1.203450e+002 
4293750000  -2.289511e+001  -1.149073e+002 
4296875000  -2.150698e+001  -1.263786e+002 
4300000000  -2.237535e+001  -1.355272e+002 
4303125000  -2.350100e+001  -1.342078e+002 
4306250000  -2.284589e+001  -1.285160e+002 
4309375000  -2.144402e+001  -1.308117e+002 
4312500000  -2.139867e+001  -1.392199e+002 
4315625000  -2.158517e+001  -1.453859e+002 
4318750000  -2.191985e+001  -1.486561e+002 
4321875000  -2.205779e+001  -1.479974e+002 
4325000000  -2.149512e+001  -1.475002e+002 
4328125000  -2.100722e+001  -1.538957e+002 
4331250000  -2.092905e+001  -1.622493e+002 
4334375000  -2.136504e+001  -1.670285e+002 
4337500000  -2.223313e+001  -1.692798e+002 
4340625000  -2.278495e+001  -1.656131e+002 
4343750000  -2.219537e+001  -1.652147e+002 
4346875000  -2.179658e+001  -1.710018e+002 
4350000000  -2.180242e+001  -1.756828e+002 
4353125000  -2.185020e+001  1.768186e+002 
4356250000  -2.356435e+001  1.763316e+002 
4359375000  -2.425978e+001  -1.701908e+002 
4362500000  -2.144241e+001  -1.687435e+002 
4365625000  -1.986260e+001  1.791729e+002 
4368750000  -2.059363e+001  1.674073e+002 
4371875000  -2.180548e+001  1.681186e+002 
4375000000  -2.144274e+001  1.692566e+002 
4378125000  -2.079373e+001  1.634160e+002 
4381250000  -2.096201e+001  1.580749e+002 
4384375000  -2.077155e+001  1.534624e+002 
4387500000  -2.147349e+001  1.476735e+002 
4390625000  -2.250099e+001  1.484727e+002 
4393750000  -2.185005e+001  1.508929e+002 
4396875000  -2.118441e+001  1.484643e+002 
4400000000  -2.066254e+001  1.414621e+002 
4403125000  -2.123039e+001  1.338413e+002 
4406250000  -2.207735e+001  1.327675e+002 
4409375000  -2.199190e+001  1.301409e+002 
4412500000  -2.303785e+001  1.273658e+002 
4415625000  -2.341637e+001  1.324245e+002 
4418750000  -2.221343e+001  1.369365e+002 
