!Agilent Technologies,E8363B,MY43030201,A.06.04.32
!Agilent E8363B: A.06.04.32
!Date: Tuesday, November 11, 2014 20:45:16
!Correction: S21(Response(S21)) 
!S1P File: Measurement: S21:
# Hz S  dB   R 50
3000000000  -2.649113e+001  1.589766e+002 
3003125000  -2.790303e+001  1.547517e+002 
3006250000  -2.792428e+001  1.518449e+002 
3009375000  -2.825692e+001  1.566285e+002 
3012500000  -2.776600e+001  1.567151e+002 
3015625000  -2.683140e+001  1.494073e+002 
3018750000  -2.763852e+001  1.485945e+002 
3021875000  -2.641581e+001  1.499417e+002 
3025000000  -2.514437e+001  1.467840e+002 
3028125000  -2.418166e+001  1.422527e+002 
3031250000  -2.310605e+001  1.309395e+002 
3034375000  -2.275523e+001  1.180090e+002 
3037500000  -2.304796e+001  1.059314e+002 
3040625000  -2.436395e+001  1.009414e+002 
3043750000  -2.511544e+001  9.656504e+001 
3046875000  -2.519435e+001  9.001723e+001 
3050000000  -2.696075e+001  8.306268e+001 
3053125000  -2.716355e+001  8.953489e+001 
3056250000  -2.642586e+001  9.272633e+001 
3059375000  -2.670853e+001  9.251624e+001 
3062500000  -2.521988e+001  8.841709e+001 
3065625000  -2.501693e+001  8.310702e+001 
3068750000  -2.475571e+001  7.588188e+001 
3071875000  -2.465746e+001  7.288911e+001 
3075000000  -2.465154e+001  6.919695e+001 
3078125000  -2.434512e+001  6.466423e+001 
3081250000  -2.496971e+001  6.067131e+001 
3084375000  -2.425423e+001  5.677763e+001 
3087500000  -2.408738e+001  5.338413e+001 
3090625000  -2.382445e+001  4.375168e+001 
3093750000  -2.417497e+001  3.560697e+001 
3096875000  -2.550152e+001  2.938671e+001 
3100000000  -2.564357e+001  2.817695e+001 
3103125000  -2.605719e+001  2.951402e+001 
3106250000  -2.577843e+001  2.603752e+001 
3109375000  -2.598851e+001  2.249073e+001 
3112500000  -2.613048e+001  2.179215e+001 
3115625000  -2.593551e+001  1.725753e+001 
3118750000  -2.643506e+001  1.858891e+001 
3121875000  -2.573479e+001  1.077446e+001 
3125000000  -2.682648e+001  7.059032e+000 
3128125000  -2.814467e+001  1.483272e+001 
3131250000  -2.599843e+001  1.574795e+001 
3134375000  -2.462494e+001  2.511902e+000 
3137500000  -2.520430e+001  -1.193530e+001 
3140625000  -2.686597e+001  -1.358947e+001 
3143750000  -2.788739e+001  -9.104922e+000 
3146875000  -2.751660e+001  -7.408240e+000 
3150000000  -2.650826e+001  -5.132172e+000 
3153125000  -2.643292e+001  -1.278725e+001 
3156250000  -2.739049e+001  -7.702032e+000 
3159375000  -2.600007e+001  -4.702536e+000 
3162500000  -2.391649e+001  -1.722683e+001 
3165625000  -2.475233e+001  -2.845214e+001 
3168750000  -2.520930e+001  -2.766294e+001 
3171875000  -2.427786e+001  -3.144601e+001 
3175000000  -2.489257e+001  -3.928002e+001 
3178125000  -2.469684e+001  -3.774669e+001 
3181250000  -2.346425e+001  -4.138999e+001 
3184375000  -2.266901e+001  -5.389886e+001 
3187500000  -2.375952e+001  -6.922542e+001 
3190625000  -2.660975e+001  -7.686320e+001 
3193750000  -2.722196e+001  -6.723169e+001 
3196875000  -2.676531e+001  -6.167933e+001 
3200000000  -2.597287e+001  -6.331645e+001 
3203125000  -2.504372e+001  -6.902425e+001 
3206250000  -2.532335e+001  -7.510024e+001 
3209375000  -2.483431e+001  -8.029435e+001 
3212500000  -2.495449e+001  -8.706048e+001 
3215625000  -2.506603e+001  -9.138073e+001 
3218750000  -2.583832e+001  -9.742007e+001 
3221875000  -2.686617e+001  -1.025945e+002 
3225000000  -2.650954e+001  -1.032429e+002 
3228125000  -2.672038e+001  -1.076676e+002 
3231250000  -2.748604e+001  -1.103944e+002 
3234375000  -2.743053e+001  -1.095532e+002 
3237500000  -2.741394e+001  -1.108918e+002 
3240625000  -2.712992e+001  -1.125226e+002 
3243750000  -2.669761e+001  -1.191362e+002 
3246875000  -2.716524e+001  -1.259923e+002 
3250000000  -2.763251e+001  -1.276821e+002 
3253125000  -2.779324e+001  -1.293953e+002 
3256250000  -2.768541e+001  -1.354566e+002 
3259375000  -2.801762e+001  -1.428316e+002 
3262500000  -2.920554e+001  -1.464499e+002 
3265625000  -2.996939e+001  -1.426182e+002 
3268750000  -2.989348e+001  -1.399862e+002 
3271875000  -2.974938e+001  -1.386965e+002 
3275000000  -2.863482e+001  -1.435309e+002 
3278125000  -2.900917e+001  -1.499233e+002 
3281250000  -2.933466e+001  -1.478387e+002 
3284375000  -2.895179e+001  -1.540046e+002 
3287500000  -2.902803e+001  -1.570617e+002 
3290625000  -2.947476e+001  -1.609901e+002 
3293750000  -2.921476e+001  -1.664142e+002 
3296875000  -3.016771e+001  -1.668131e+002 
3300000000  -3.007956e+001  -1.657622e+002 
3303125000  -2.892738e+001  -1.692940e+002 
3306250000  -2.872603e+001  -1.759934e+002 
3309375000  -2.849620e+001  1.789808e+002 
3312500000  -2.846073e+001  1.691904e+002 
3315625000  -2.948621e+001  1.611800e+002 
3318750000  -3.081702e+001  1.580089e+002 
3321875000  -3.209275e+001  1.573468e+002 
3325000000  -3.274892e+001  1.624776e+002 
3328125000  -3.252777e+001  1.640468e+002 
3331250000  -3.130902e+001  1.720725e+002 
3334375000  -2.874450e+001  1.631355e+002 
3337500000  -2.875496e+001  1.448253e+002 
3340625000  -3.007308e+001  1.334932e+002 
3343750000  -3.194722e+001  1.323471e+002 
3346875000  -3.257221e+001  1.337801e+002 
3350000000  -3.199231e+001  1.323311e+002 
3353125000  -3.206160e+001  1.279544e+002 
3356250000  -3.173091e+001  1.201003e+002 
3359375000  -3.254431e+001  1.118324e+002 
3362500000  -3.388396e+001  1.065358e+002 
3365625000  -3.454707e+001  1.049497e+002 
3368750000  -3.542774e+001  1.025872e+002 
3371875000  -3.588527e+001  9.944335e+001 
3375000000  -3.735302e+001  9.818208e+001 
3378125000  -3.842826e+001  9.684346e+001 
3381250000  -3.997800e+001  1.044317e+002 
3384375000  -3.930610e+001  1.250711e+002 
3387500000  -3.616927e+001  1.122335e+002 
3390625000  -3.787167e+001  9.197498e+001 
3393750000  -3.962762e+001  9.724072e+001 
3396875000  -3.884964e+001  9.981920e+001 
3400000000  -3.887868e+001  9.403447e+001 
3403125000  -3.976470e+001  8.949984e+001 
3406250000  -4.045417e+001  9.143956e+001 
3409375000  -4.126318e+001  8.574989e+001 
3412500000  -4.192225e+001  8.807368e+001 
3415625000  -4.302526e+001  9.394981e+001 
3418750000  -4.342399e+001  9.643222e+001 
3421875000  -4.353641e+001  1.053611e+002 
3425000000  -4.271432e+001  1.070077e+002 
3428125000  -4.183171e+001  1.069623e+002 
3431250000  -4.171243e+001  1.021475e+002 
3434375000  -4.147254e+001  1.016080e+002 
3437500000  -4.203557e+001  9.668845e+001 
3440625000  -4.233568e+001  1.033489e+002 
3443750000  -4.112735e+001  1.031857e+002 
3446875000  -4.017404e+001  9.799044e+001 
3450000000  -3.999465e+001  8.950221e+001 
3453125000  -4.038545e+001  8.170113e+001 
3456250000  -4.130899e+001  7.743542e+001 
3459375000  -4.223454e+001  7.857518e+001 
3462500000  -4.246293e+001  7.923470e+001 
3465625000  -4.264967e+001  7.615463e+001 
3468750000  -4.314264e+001  7.526572e+001 
3471875000  -4.321500e+001  7.284106e+001 
3475000000  -4.297644e+001  6.964090e+001 
3478125000  -4.366470e+001  6.317683e+001 
3481250000  -4.503774e+001  6.088526e+001 
3484375000  -4.635340e+001  6.789173e+001 
3487500000  -4.589470e+001  7.167383e+001 
3490625000  -4.571697e+001  6.680173e+001 
3493750000  -4.597647e+001  6.474244e+001 
3496875000  -4.731862e+001  6.712581e+001 
3500000000  -4.817217e+001  7.460551e+001 
3503125000  -4.859669e+001  8.017257e+001 
3506250000  -4.770660e+001  8.340327e+001 
3509375000  -4.733860e+001  7.879295e+001 
3512500000  -4.767225e+001  7.876936e+001 
3515625000  -4.815554e+001  8.205065e+001 
3518750000  -4.890144e+001  8.720971e+001 
3521875000  -4.851862e+001  9.044553e+001 
3525000000  -4.826117e+001  9.038624e+001 
3528125000  -4.776720e+001  1.054673e+002 
3531250000  -4.619072e+001  1.024304e+002 
3534375000  -4.531106e+001  9.650646e+001 
3537500000  -4.505328e+001  9.230721e+001 
3540625000  -4.581942e+001  9.491695e+001 
3543750000  -4.642714e+001  9.388367e+001 
3546875000  -4.554994e+001  1.055748e+002 
3550000000  -4.330237e+001  1.070707e+002 
3553125000  -4.168470e+001  9.358630e+001 
3556250000  -4.280178e+001  8.748269e+001 
3559375000  -4.227134e+001  9.072655e+001 
3562500000  -4.087914e+001  8.220952e+001 
3565625000  -4.181596e+001  7.699017e+001 
3568750000  -4.210936e+001  7.762084e+001 
3571875000  -4.182402e+001  8.035081e+001 
3575000000  -4.133540e+001  7.395877e+001 
3578125000  -4.154171e+001  6.913229e+001 
3581250000  -4.184056e+001  6.990987e+001 
3584375000  -4.151346e+001  6.917690e+001 
3587500000  -4.043877e+001  6.432795e+001 
3590625000  -4.057507e+001  5.523261e+001 
3593750000  -4.157590e+001  5.329005e+001 
3596875000  -4.161423e+001  6.032677e+001 
3600000000  -4.005589e+001  5.936734e+001 
3603125000  -4.032215e+001  4.847696e+001 
3606250000  -4.110171e+001  4.264492e+001 
3609375000  -4.120904e+001  4.416926e+001 
3612500000  -4.142497e+001  4.249254e+001 
3615625000  -4.185642e+001  4.015223e+001 
3618750000  -4.198963e+001  3.955611e+001 
3621875000  -4.155525e+001  4.058279e+001 
3625000000  -4.213575e+001  4.083231e+001 
3628125000  -4.205727e+001  4.118260e+001 
3631250000  -4.159029e+001  3.566280e+001 
3634375000  -4.270388e+001  3.766206e+001 
3637500000  -4.195900e+001  4.254930e+001 
3640625000  -4.086736e+001  4.501794e+001 
3643750000  -4.086302e+001  3.891016e+001 
3646875000  -4.129891e+001  3.137513e+001 
3650000000  -4.171019e+001  3.124957e+001 
3653125000  -4.153829e+001  3.216690e+001 
3656250000  -4.186828e+001  3.173617e+001 
3659375000  -4.197070e+001  3.206036e+001 
3662500000  -4.143267e+001  3.231319e+001 
3665625000  -4.171545e+001  3.135404e+001 
3668750000  -4.018403e+001  3.602500e+001 
3671875000  -3.924874e+001  2.917954e+001 
3675000000  -3.962978e+001  2.303009e+001 
3678125000  -4.024845e+001  2.421867e+001 
3681250000  -4.007001e+001  2.587107e+001 
3684375000  -3.978997e+001  2.397568e+001 
3687500000  -3.975335e+001  2.163185e+001 
3690625000  -3.992248e+001  2.033782e+001 
3693750000  -4.016483e+001  2.347925e+001 
3696875000  -4.034231e+001  2.578843e+001 
3700000000  -3.906549e+001  2.373554e+001 
3703125000  -3.905021e+001  2.152784e+001 
3706250000  -3.959878e+001  2.224029e+001 
3709375000  -3.872588e+001  2.640746e+001 
3712500000  -3.760985e+001  2.622988e+001 
3715625000  -3.637447e+001  1.942129e+001 
3718750000  -3.582313e+001  1.776308e+001 
3721875000  -3.522567e+001  1.185701e+001 
3725000000  -3.525763e+001  7.056974e+000 
3728125000  -3.547321e+001  5.938635e+000 
3731250000  -3.469300e+001  5.892485e+000 
3734375000  -3.364961e+001  -4.883631e-001 
3737500000  -3.416238e+001  -7.356985e+000 
3740625000  -3.480830e+001  -1.047889e+001 
3743750000  -3.453750e+001  -1.310488e+001 
3746875000  -3.460476e+001  -1.596502e+001 
3750000000  -3.483311e+001  -1.654584e+001 
3753125000  -3.451618e+001  -1.733583e+001 
3756250000  -3.433269e+001  -1.772877e+001 
3759375000  -3.423032e+001  -1.932903e+001 
3762500000  -3.359369e+001  -2.316837e+001 
3765625000  -3.400343e+001  -2.561872e+001 
3768750000  -3.427234e+001  -2.426111e+001 
3771875000  -3.250470e+001  -2.568658e+001 
3775000000  -3.218133e+001  -3.354190e+001 
3778125000  -3.253758e+001  -3.542198e+001 
3781250000  -3.235166e+001  -3.868683e+001 
3784375000  -3.230612e+001  -4.017869e+001 
3787500000  -3.162425e+001  -4.393848e+001 
3790625000  -3.214697e+001  -4.984517e+001 
3793750000  -3.238164e+001  -5.030702e+001 
3796875000  -3.154281e+001  -5.221381e+001 
3800000000  -2.999698e+001  -5.529457e+001 
3803125000  -3.059579e+001  -6.237617e+001 
3806250000  -3.137262e+001  -6.423337e+001 
3809375000  -3.104801e+001  -6.592452e+001 
3812500000  -3.046118e+001  -7.041249e+001 
3815625000  -3.092410e+001  -7.811591e+001 
3818750000  -3.185241e+001  -7.945437e+001 
3821875000  -3.210593e+001  -7.110207e+001 
3825000000  -3.025283e+001  -6.677753e+001 
3828125000  -2.880884e+001  -7.997759e+001 
3831250000  -2.937345e+001  -9.366622e+001 
3834375000  -3.061005e+001  -9.555102e+001 
3837500000  -3.156441e+001  -9.027383e+001 
3840625000  -3.048509e+001  -9.144789e+001 
3843750000  -2.932673e+001  -1.009400e+002 
3846875000  -2.992078e+001  -1.086267e+002 
3850000000  -3.126577e+001  -1.031621e+002 
3853125000  -3.038372e+001  -9.973988e+001 
3856250000  -3.039694e+001  -1.049532e+002 
3859375000  -2.974765e+001  -1.091621e+002 
3862500000  -2.930440e+001  -1.167166e+002 
3865625000  -2.946756e+001  -1.215980e+002 
3868750000  -2.954469e+001  -1.217785e+002 
3871875000  -2.890534e+001  -1.243572e+002 
3875000000  -2.894726e+001  -1.331462e+002 
3878125000  -2.984958e+001  -1.358069e+002 
3881250000  -3.006254e+001  -1.324259e+002 
3884375000  -2.949684e+001  -1.374071e+002 
3887500000  -2.962932e+001  -1.418375e+002 
3890625000  -3.016665e+001  -1.438710e+002 
3893750000  -3.047489e+001  -1.454506e+002 
3896875000  -3.069336e+001  -1.450895e+002 
3900000000  -3.093456e+001  -1.463976e+002 
3903125000  -3.059426e+001  -1.479169e+002 
3906250000  -3.036655e+001  -1.482198e+002 
3909375000  -2.964347e+001  -1.504288e+002 
3912500000  -2.955287e+001  -1.582160e+002 
3915625000  -3.086056e+001  -1.578700e+002 
3918750000  -3.085664e+001  -1.556593e+002 
3921875000  -3.054470e+001  -1.583698e+002 
3925000000  -2.983041e+001  -1.581989e+002 
3928125000  -2.907156e+001  -1.640330e+002 
3931250000  -2.944851e+001  -1.676790e+002 
3934375000  -2.969113e+001  -1.679316e+002 
3937500000  -2.981032e+001  -1.686565e+002 
3940625000  -3.031285e+001  -1.683416e+002 
3943750000  -2.942071e+001  -1.670148e+002 
3946875000  -2.816573e+001  -1.722978e+002 
3950000000  -2.867970e+001  -1.797215e+002 
3953125000  -2.955616e+001  -1.794033e+002 
3956250000  -2.882477e+001  -1.763377e+002 
3959375000  -2.751962e+001  -1.797893e+002 
3962500000  -2.690371e+001  1.765299e+002 
3965625000  -2.646036e+001  1.678872e+002 
3968750000  -2.749915e+001  1.609007e+002 
3971875000  -2.787462e+001  1.594950e+002 
3975000000  -2.717514e+001  1.575829e+002 
3978125000  -2.693002e+001  1.564575e+002 
3981250000  -2.671037e+001  1.522109e+002 
3984375000  -2.691221e+001  1.457820e+002 
3987500000  -2.745673e+001  1.436038e+002 
3990625000  -2.747434e+001  1.423067e+002 
3993750000  -2.766947e+001  1.393217e+002 
3996875000  -2.762256e+001  1.368584e+002 
4000000000  -2.766038e+001  1.349035e+002 
4003125000  -2.829145e+001  1.366051e+002 
4006250000  -2.694851e+001  1.378440e+002 
4009375000  -2.572071e+001  1.250287e+002 
4012500000  -2.672853e+001  1.181670e+002 
4015625000  -2.796915e+001  1.183059e+002 
4018750000  -2.817314e+001  1.204249e+002 
4021875000  -2.757007e+001  1.189119e+002 
4025000000  -2.716590e+001  1.144373e+002 
4028125000  -2.715059e+001  1.106768e+002 
4031250000  -2.756007e+001  1.066680e+002 
4034375000  -2.783912e+001  1.068944e+002 
4037500000  -2.734216e+001  1.085499e+002 
4040625000  -2.725728e+001  1.055643e+002 
4043750000  -2.760814e+001  1.046297e+002 
4046875000  -2.721419e+001  1.042756e+002 
4050000000  -2.668347e+001  9.873555e+001 
4053125000  -2.719142e+001  9.681745e+001 
4056250000  -2.777960e+001  1.006636e+002 
4059375000  -2.663972e+001  1.022264e+002 
4062500000  -2.521520e+001  9.810117e+001 
4065625000  -2.501070e+001  9.383192e+001 
4068750000  -2.477296e+001  8.924252e+001 
4071875000  -2.422894e+001  8.154786e+001 
4075000000  -2.451505e+001  7.509463e+001 
4078125000  -2.507535e+001  7.435726e+001 
4081250000  -2.460758e+001  7.194257e+001 
4084375000  -2.414484e+001  6.539146e+001 
4087500000  -2.448852e+001  5.919928e+001 
4090625000  -2.508948e+001  5.793780e+001 
4093750000  -2.493204e+001  5.877784e+001 
4096875000  -2.444947e+001  5.324149e+001 
4100000000  -2.511706e+001  4.600615e+001 
4103125000  -2.598358e+001  4.615540e+001 
4106250000  -2.595707e+001  5.084147e+001 
4109375000  -2.502994e+001  5.042142e+001 
4112500000  -2.447799e+001  4.421856e+001 
4115625000  -2.478810e+001  3.988348e+001 
4118750000  -2.491956e+001  3.692308e+001 
4121875000  -2.448925e+001  3.268077e+001 
4125000000  -2.477154e+001  2.749496e+001 
4128125000  -2.574365e+001  2.703971e+001 
4131250000  -2.556513e+001  3.512883e+001 
4134375000  -2.327824e+001  3.127158e+001 
4137500000  -2.299144e+001  1.239561e+001 
4140625000  -2.518764e+001  4.903766e+000 
4143750000  -2.650111e+001  9.141280e+000 
4146875000  -2.609459e+001  1.686694e+001 
4150000000  -2.525478e+001  1.424981e+001 
4153125000  -2.500175e+001  7.667369e+000 
4156250000  -2.585146e+001  4.993320e+000 
4159375000  -2.616254e+001  8.942270e+000 
4162500000  -2.508667e+001  1.335703e+001 
4165625000  -2.392850e+001  9.195249e+000 
4168750000  -2.336385e+001  2.477134e+000 
4171875000  -2.333227e+001  -6.840893e+000 
4175000000  -2.390344e+001  -1.246031e+001 
4178125000  -2.453343e+001  -1.261761e+001 
4181250000  -2.441250e+001  -1.329553e+001 
4184375000  -2.424954e+001  -1.589952e+001 
4187500000  -2.431727e+001  -1.876935e+001 
4190625000  -2.411526e+001  -2.387852e+001 
4193750000  -2.486702e+001  -2.800080e+001 
4196875000  -2.560728e+001  -2.826937e+001 
4200000000  -2.636765e+001  -2.628508e+001 
4203125000  -2.661723e+001  -1.358599e+001 
4206250000  -2.328064e+001  -1.096435e+001 
4209375000  -2.199234e+001  -3.093830e+001 
4212500000  -2.385300e+001  -4.038140e+001 
4215625000  -2.485935e+001  -3.462378e+001 
4218750000  -2.363362e+001  -2.783852e+001 
4221875000  -2.124645e+001  -3.652388e+001 
4225000000  -2.247205e+001  -4.910020e+001 
4228125000  -2.319052e+001  -4.432213e+001 
4231250000  -2.167374e+001  -4.757798e+001 
4234375000  -2.156169e+001  -5.596559e+001 
4237500000  -2.116144e+001  -5.936068e+001 
4240625000  -2.113436e+001  -6.753486e+001 
4243750000  -2.206662e+001  -7.429962e+001 
4246875000  -2.291308e+001  -7.435513e+001 
4250000000  -2.303377e+001  -7.174023e+001 
4253125000  -2.238078e+001  -7.357998e+001 
4256250000  -2.271605e+001  -7.799126e+001 
4259375000  -2.251114e+001  -7.987794e+001 
4262500000  -2.247548e+001  -8.363644e+001 
4265625000  -2.269308e+001  -8.316453e+001 
4268750000  -2.184681e+001  -8.703235e+001 
4271875000  -2.153439e+001  -9.263159e+001 
4275000000  -2.091120e+001  -9.938013e+001 
4278125000  -2.150688e+001  -1.104443e+002 
4281250000  -2.330745e+001  -1.126723e+002 
4284375000  -2.304735e+001  -1.116467e+002 
4287500000  -2.372841e+001  -1.154684e+002 
4290625000  -2.510138e+001  -1.062835e+002 
4293750000  -2.314248e+001  -1.006003e+002 
4296875000  -2.170240e+001  -1.116533e+002 
4300000000  -2.257831e+001  -1.209493e+002 
4303125000  -2.367881e+001  -1.200654e+002 
4306250000  -2.323714e+001  -1.139608e+002 
4309375000  -2.175864e+001  -1.155462e+002 
4312500000  -2.163067e+001  -1.238066e+002 
4315625000  -2.185412e+001  -1.297043e+002 
4318750000  -2.216769e+001  -1.332872e+002 
4321875000  -2.234551e+001  -1.327739e+002 
4325000000  -2.177946e+001  -1.323095e+002 
4328125000  -2.130705e+001  -1.385200e+002 
4331250000  -2.124100e+001  -1.462740e+002 
4334375000  -2.162022e+001  -1.512271e+002 
4337500000  -2.239014e+001  -1.536486e+002 
4340625000  -2.298612e+001  -1.508479e+002 
4343750000  -2.245253e+001  -1.502581e+002 
4346875000  -2.207781e+001  -1.555110e+002 
4350000000  -2.203952e+001  -1.597309e+002 
4353125000  -2.202078e+001  -1.673554e+002 
4356250000  -2.369601e+001  -1.689632e+002 
4359375000  -2.442448e+001  -1.563553e+002 
4362500000  -2.192565e+001  -1.539175e+002 
4365625000  -2.019471e+001  -1.647859e+002 
4368750000  -2.079872e+001  -1.768465e+002 
4371875000  -2.208586e+001  -1.765651e+002 
4375000000  -2.175072e+001  -1.751999e+002 
4378125000  -2.110939e+001  1.790347e+002 
4381250000  -2.121986e+001  1.734247e+002 
4384375000  -2.101670e+001  1.690850e+002 
4387500000  -2.177679e+001  1.633528e+002 
4390625000  -2.279531e+001  1.641603e+002 
4393750000  -2.212417e+001  1.663822e+002 
4396875000  -2.146770e+001  1.640614e+002 
4400000000  -2.097712e+001  1.571386e+002 
4403125000  -2.148048e+001  1.497027e+002 
4406250000  -2.235140e+001  1.484409e+002 
4409375000  -2.229543e+001  1.461036e+002 
4412500000  -2.331399e+001  1.433495e+002 
4415625000  -2.371602e+001  1.476897e+002 
4418750000  -2.261721e+001  1.526222e+002 
