!Agilent Technologies,E8363B,MY43030201,A.06.04.32
!Agilent E8363B: A.06.04.32
!Date: Tuesday, November 11, 2014 20:56:39
!Correction: S21(Response(S21)) 
!S1P File: Measurement: S21:
# Hz S  dB   R 50
3000000000  -2.650933e+001  1.476392e+002 
3003125000  -2.792690e+001  1.433982e+002 
3006250000  -2.797303e+001  1.407281e+002 
3009375000  -2.836980e+001  1.457452e+002 
3012500000  -2.778287e+001  1.450607e+002 
3015625000  -2.686520e+001  1.381078e+002 
3018750000  -2.769103e+001  1.375550e+002 
3021875000  -2.638824e+001  1.387166e+002 
3025000000  -2.507296e+001  1.356812e+002 
3028125000  -2.412269e+001  1.303726e+002 
3031250000  -2.308297e+001  1.192502e+002 
3034375000  -2.274039e+001  1.060731e+002 
3037500000  -2.310512e+001  9.428261e+001 
3040625000  -2.447249e+001  8.935825e+001 
3043750000  -2.515025e+001  8.503397e+001 
3046875000  -2.529979e+001  7.856308e+001 
3050000000  -2.699900e+001  7.194444e+001 
3053125000  -2.711864e+001  7.820753e+001 
3056250000  -2.649077e+001  8.147238e+001 
3059375000  -2.664573e+001  8.100821e+001 
3062500000  -2.518440e+001  7.725054e+001 
3065625000  -2.493635e+001  7.135852e+001 
3068750000  -2.464038e+001  6.440250e+001 
3071875000  -2.466270e+001  6.170874e+001 
3075000000  -2.456173e+001  5.755547e+001 
3078125000  -2.432969e+001  5.285572e+001 
3081250000  -2.496643e+001  4.895365e+001 
3084375000  -2.419575e+001  4.511946e+001 
3087500000  -2.412746e+001  4.156421e+001 
3090625000  -2.381915e+001  3.176513e+001 
3093750000  -2.429634e+001  2.386761e+001 
3096875000  -2.556278e+001  1.807044e+001 
3100000000  -2.565916e+001  1.651792e+001 
3103125000  -2.604645e+001  1.768160e+001 
3106250000  -2.577648e+001  1.438205e+001 
3109375000  -2.602814e+001  1.078950e+001 
3112500000  -2.612645e+001  9.735106e+000 
3115625000  -2.591932e+001  5.363310e+000 
3118750000  -2.645264e+001  7.163053e+000 
3121875000  -2.572055e+001  -1.225150e+000 
3125000000  -2.696658e+001  -4.706057e+000 
3128125000  -2.814011e+001  3.768054e+000 
3131250000  -2.593362e+001  3.829813e+000 
3134375000  -2.461587e+001  -9.834459e+000 
3137500000  -2.529647e+001  -2.330664e+001 
3140625000  -2.685682e+001  -2.475851e+001 
3143750000  -2.793679e+001  -2.097865e+001 
3146875000  -2.748166e+001  -1.904377e+001 
3150000000  -2.645234e+001  -1.660663e+001 
3153125000  -2.648458e+001  -2.466389e+001 
3156250000  -2.749637e+001  -1.869619e+001 
3159375000  -2.583325e+001  -1.617200e+001 
3162500000  -2.383834e+001  -2.902997e+001 
3165625000  -2.478222e+001  -4.012511e+001 
3168750000  -2.515774e+001  -3.912106e+001 
3171875000  -2.425245e+001  -4.342272e+001 
3175000000  -2.489238e+001  -5.130494e+001 
3178125000  -2.463482e+001  -4.935310e+001 
3181250000  -2.348579e+001  -5.372883e+001 
3184375000  -2.274584e+001  -6.592703e+001 
3187500000  -2.384791e+001  -8.081515e+001 
3190625000  -2.653845e+001  -8.818916e+001 
3193750000  -2.717012e+001  -7.839465e+001 
3196875000  -2.675883e+001  -7.305261e+001 
3200000000  -2.585018e+001  -7.521915e+001 
3203125000  -2.501841e+001  -8.104694e+001 
3206250000  -2.534556e+001  -8.730726e+001 
3209375000  -2.479016e+001  -9.229749e+001 
3212500000  -2.501309e+001  -9.904497e+001 
3215625000  -2.511679e+001  -1.028392e+002 
3218750000  -2.585075e+001  -1.092560e+002 
3221875000  -2.684664e+001  -1.142809e+002 
3225000000  -2.642319e+001  -1.149831e+002 
3228125000  -2.675218e+001  -1.196721e+002 
3231250000  -2.750765e+001  -1.221267e+002 
3234375000  -2.735618e+001  -1.209236e+002 
3237500000  -2.740349e+001  -1.225492e+002 
3240625000  -2.707243e+001  -1.243994e+002 
3243750000  -2.670329e+001  -1.313697e+002 
3246875000  -2.718687e+001  -1.375721e+002 
3250000000  -2.762525e+001  -1.394237e+002 
3253125000  -2.783674e+001  -1.409212e+002 
3256250000  -2.766914e+001  -1.470650e+002 
3259375000  -2.797093e+001  -1.546928e+002 
3262500000  -2.924164e+001  -1.576013e+002 
3265625000  -2.988485e+001  -1.540802e+002 
3268750000  -2.987248e+001  -1.511133e+002 
3271875000  -2.961434e+001  -1.500503e+002 
3275000000  -2.858799e+001  -1.557570e+002 
3278125000  -2.907599e+001  -1.615032e+002 
3281250000  -2.931886e+001  -1.597196e+002 
3284375000  -2.887272e+001  -1.655823e+002 
3287500000  -2.906384e+001  -1.684370e+002 
3290625000  -2.940428e+001  -1.727703e+002 
3293750000  -2.913682e+001  -1.782401e+002 
3296875000  -3.013491e+001  -1.784531e+002 
3300000000  -3.001966e+001  -1.769052e+002 
3303125000  -2.885574e+001  1.787146e+002 
3306250000  -2.865810e+001  1.723758e+002 
3309375000  -2.840670e+001  1.671200e+002 
3312500000  -2.851357e+001  1.566263e+002 
3315625000  -2.952540e+001  1.493679e+002 
3318750000  -3.090249e+001  1.465322e+002 
3321875000  -3.209800e+001  1.466767e+002 
3325000000  -3.258502e+001  1.522274e+002 
3328125000  -3.247213e+001  1.532579e+002 
3331250000  -3.115512e+001  1.615501e+002 
3334375000  -2.852460e+001  1.510171e+002 
3337500000  -2.865806e+001  1.325296e+002 
3340625000  -3.006376e+001  1.215797e+002 
3343750000  -3.204260e+001  1.207132e+002 
3346875000  -3.243203e+001  1.226236e+002 
3350000000  -3.177119e+001  1.207823e+002 
3353125000  -3.185304e+001  1.163249e+002 
3356250000  -3.164156e+001  1.084171e+002 
3359375000  -3.248390e+001  1.001962e+002 
3362500000  -3.379542e+001  9.553070e+001 
3365625000  -3.444261e+001  9.374258e+001 
3368750000  -3.537922e+001  9.169170e+001 
3371875000  -3.585067e+001  8.848971e+001 
3375000000  -3.725507e+001  8.619798e+001 
3378125000  -3.841400e+001  8.741567e+001 
3381250000  -3.992646e+001  9.380476e+001 
3384375000  -3.899096e+001  1.148093e+002 
3387500000  -3.587233e+001  1.002771e+002 
3390625000  -3.768684e+001  8.299590e+001 
3393750000  -3.930864e+001  8.618442e+001 
3396875000  -3.870880e+001  8.929041e+001 
3400000000  -3.838068e+001  8.314924e+001 
3403125000  -3.948774e+001  7.868037e+001 
3406250000  -4.065242e+001  8.121148e+001 
3409375000  -4.083839e+001  7.697632e+001 
3412500000  -4.198562e+001  7.703682e+001 
3415625000  -4.264262e+001  8.300491e+001 
3418750000  -4.288412e+001  8.630457e+001 
3421875000  -4.300488e+001  9.430969e+001 
3425000000  -4.242038e+001  9.695537e+001 
3428125000  -4.151006e+001  9.610413e+001 
3431250000  -4.118966e+001  9.267069e+001 
3434375000  -4.108223e+001  8.864756e+001 
3437500000  -4.174283e+001  8.581487e+001 
3440625000  -4.178883e+001  9.103378e+001 
3443750000  -4.068224e+001  9.401497e+001 
3446875000  -3.973574e+001  8.694048e+001 
3450000000  -3.974391e+001  7.783152e+001 
3453125000  -3.978278e+001  6.897786e+001 
3456250000  -4.098997e+001  6.491561e+001 
3459375000  -4.192638e+001  6.603630e+001 
3462500000  -4.216590e+001  6.805964e+001 
3465625000  -4.201701e+001  6.353144e+001 
3468750000  -4.228944e+001  5.960748e+001 
3471875000  -4.264859e+001  6.121024e+001 
3475000000  -4.265799e+001  5.712594e+001 
3478125000  -4.335590e+001  5.268057e+001 
3481250000  -4.438098e+001  5.025024e+001 
3484375000  -4.562851e+001  5.622646e+001 
3487500000  -4.515638e+001  5.821363e+001 
3490625000  -4.464963e+001  5.446182e+001 
3493750000  -4.548058e+001  5.025904e+001 
3496875000  -4.665139e+001  5.160912e+001 
3500000000  -4.760225e+001  5.959621e+001 
3503125000  -4.779778e+001  6.560645e+001 
3506250000  -4.647198e+001  6.578452e+001 
3509375000  -4.671877e+001  6.291606e+001 
3512500000  -4.717631e+001  6.175821e+001 
3515625000  -4.825861e+001  6.505679e+001 
3518750000  -4.816154e+001  6.859115e+001 
3521875000  -4.804190e+001  7.278762e+001 
3525000000  -4.805682e+001  7.571178e+001 
3528125000  -4.792818e+001  9.107664e+001 
3531250000  -4.608097e+001  8.739190e+001 
3534375000  -4.531935e+001  8.146593e+001 
3537500000  -4.528399e+001  7.648239e+001 
3540625000  -4.557016e+001  7.786795e+001 
3543750000  -4.642430e+001  8.115012e+001 
3546875000  -4.538876e+001  9.290464e+001 
3550000000  -4.276300e+001  9.358866e+001 
3553125000  -4.170502e+001  7.788984e+001 
3556250000  -4.261693e+001  7.346164e+001 
3559375000  -4.223537e+001  7.579162e+001 
3562500000  -4.068225e+001  6.697868e+001 
3565625000  -4.175431e+001  6.103985e+001 
3568750000  -4.187238e+001  6.415083e+001 
3571875000  -4.177337e+001  6.405148e+001 
3575000000  -4.101361e+001  6.033854e+001 
3578125000  -4.164328e+001  5.534467e+001 
3581250000  -4.165674e+001  5.595265e+001 
3584375000  -4.099116e+001  5.448106e+001 
3587500000  -3.996754e+001  4.856235e+001 
3590625000  -4.039318e+001  4.028880e+001 
3593750000  -4.144823e+001  3.981267e+001 
3596875000  -4.143121e+001  4.768537e+001 
3600000000  -3.978348e+001  4.293402e+001 
3603125000  -4.005149e+001  3.230852e+001 
3606250000  -4.060559e+001  3.013583e+001 
3609375000  -4.084938e+001  2.893327e+001 
3612500000  -4.128524e+001  2.780870e+001 
3615625000  -4.170673e+001  2.438035e+001 
3618750000  -4.197931e+001  2.641280e+001 
3621875000  -4.160697e+001  2.551173e+001 
3625000000  -4.191161e+001  2.471878e+001 
3628125000  -4.163739e+001  2.446648e+001 
3631250000  -4.138236e+001  2.113224e+001 
3634375000  -4.233714e+001  2.178281e+001 
3637500000  -4.224601e+001  2.702303e+001 
3640625000  -4.074400e+001  3.026039e+001 
3643750000  -4.051490e+001  2.390202e+001 
3646875000  -4.110834e+001  1.723064e+001 
3650000000  -4.166428e+001  1.637973e+001 
3653125000  -4.107815e+001  1.531556e+001 
3656250000  -4.166152e+001  1.429766e+001 
3659375000  -4.188692e+001  1.922850e+001 
3662500000  -4.123976e+001  1.738647e+001 
3665625000  -4.124946e+001  1.816956e+001 
3668750000  -3.995553e+001  2.120656e+001 
3671875000  -3.943799e+001  1.436493e+001 
3675000000  -3.985576e+001  8.768871e+000 
3678125000  -4.027400e+001  9.487869e+000 
3681250000  -3.983839e+001  1.016290e+001 
3684375000  -3.950765e+001  9.305850e+000 
3687500000  -3.976695e+001  8.077759e+000 
3690625000  -3.955776e+001  4.397382e+000 
3693750000  -4.044011e+001  6.511888e+000 
3696875000  -4.014470e+001  1.108331e+001 
3700000000  -3.893274e+001  9.028305e+000 
3703125000  -3.863174e+001  4.848580e+000 
3706250000  -3.943266e+001  8.380652e+000 
3709375000  -3.862463e+001  1.084566e+001 
3712500000  -3.739260e+001  1.077858e+001 
3715625000  -3.647746e+001  5.228378e+000 
3718750000  -3.564386e+001  2.046990e+000 
3721875000  -3.524409e+001  -3.835422e+000 
3725000000  -3.519962e+001  -8.498809e+000 
3728125000  -3.542919e+001  -9.515490e+000 
3731250000  -3.464453e+001  -9.903574e+000 
3734375000  -3.375214e+001  -1.584451e+001 
3737500000  -3.416985e+001  -2.286454e+001 
3740625000  -3.497775e+001  -2.619751e+001 
3743750000  -3.464454e+001  -2.810285e+001 
3746875000  -3.455379e+001  -3.125152e+001 
3750000000  -3.488560e+001  -3.183813e+001 
3753125000  -3.458561e+001  -3.304124e+001 
3756250000  -3.454709e+001  -3.328768e+001 
3759375000  -3.432800e+001  -3.412286e+001 
3762500000  -3.366619e+001  -3.861631e+001 
3765625000  -3.414599e+001  -4.046352e+001 
3768750000  -3.421428e+001  -3.899273e+001 
3771875000  -3.235766e+001  -4.059101e+001 
3775000000  -3.217255e+001  -4.892281e+001 
3778125000  -3.253994e+001  -5.066466e+001 
3781250000  -3.223211e+001  -5.309980e+001 
3784375000  -3.222120e+001  -5.531584e+001 
3787500000  -3.161964e+001  -5.921379e+001 
3790625000  -3.222076e+001  -6.501825e+001 
3793750000  -3.234297e+001  -6.521758e+001 
3796875000  -3.144473e+001  -6.698296e+001 
3800000000  -2.986973e+001  -7.039220e+001 
3803125000  -3.064628e+001  -7.779801e+001 
3806250000  -3.124625e+001  -7.978675e+001 
3809375000  -3.108678e+001  -8.078172e+001 
3812500000  -3.042775e+001  -8.607462e+001 
3815625000  -3.102257e+001  -9.383518e+001 
3818750000  -3.206714e+001  -9.474999e+001 
3821875000  -3.206458e+001  -8.631435e+001 
3825000000  -3.014568e+001  -8.141895e+001 
3828125000  -2.876410e+001  -9.570496e+001 
3831250000  -2.930832e+001  -1.093722e+002 
3834375000  -3.074324e+001  -1.106636e+002 
3837500000  -3.159192e+001  -1.051962e+002 
3840625000  -3.052034e+001  -1.070112e+002 
3843750000  -2.927753e+001  -1.162304e+002 
3846875000  -3.002698e+001  -1.241297e+002 
3850000000  -3.130976e+001  -1.179224e+002 
3853125000  -3.043779e+001  -1.150577e+002 
3856250000  -3.029403e+001  -1.208090e+002 
3859375000  -2.964312e+001  -1.249830e+002 
3862500000  -2.918839e+001  -1.321420e+002 
3865625000  -2.949744e+001  -1.369773e+002 
3868750000  -2.960928e+001  -1.370067e+002 
3871875000  -2.878387e+001  -1.399720e+002 
3875000000  -2.900278e+001  -1.489547e+002 
3878125000  -2.992609e+001  -1.511166e+002 
3881250000  -3.013435e+001  -1.480834e+002 
3884375000  -2.946796e+001  -1.532000e+002 
3887500000  -2.968840e+001  -1.569240e+002 
3890625000  -3.028866e+001  -1.594940e+002 
3893750000  -3.058869e+001  -1.610676e+002 
3896875000  -3.074407e+001  -1.608662e+002 
3900000000  -3.093608e+001  -1.603273e+002 
3903125000  -3.073930e+001  -1.629511e+002 
3906250000  -3.037738e+001  -1.636082e+002 
3909375000  -2.961814e+001  -1.667226e+002 
3912500000  -2.967037e+001  -1.746881e+002 
3915625000  -3.102399e+001  -1.730479e+002 
3918750000  -3.089232e+001  -1.713587e+002 
3921875000  -3.060508e+001  -1.733829e+002 
3925000000  -2.972692e+001  -1.735389e+002 
3928125000  -2.905126e+001  -1.797647e+002 
3931250000  -2.953363e+001  1.766235e+002 
3934375000  -2.982006e+001  1.767610e+002 
3937500000  -2.996793e+001  1.757010e+002 
3940625000  -3.036058e+001  1.762326e+002 
3943750000  -2.948434e+001  1.781031e+002 
3946875000  -2.817256e+001  1.721694e+002 
3950000000  -2.881987e+001  1.652247e+002 
3953125000  -2.971897e+001  1.655203e+002 
3956250000  -2.877585e+001  1.685280e+002 
3959375000  -2.743291e+001  1.651927e+002 
3962500000  -2.690165e+001  1.608184e+002 
3965625000  -2.656561e+001  1.524977e+002 
3968750000  -2.749482e+001  1.458711e+002 
3971875000  -2.790497e+001  1.442911e+002 
3975000000  -2.719152e+001  1.422631e+002 
3978125000  -2.709854e+001  1.409245e+002 
3981250000  -2.684999e+001  1.364686e+002 
3984375000  -2.704934e+001  1.303743e+002 
3987500000  -2.753007e+001  1.282877e+002 
3990625000  -2.755664e+001  1.274266e+002 
3993750000  -2.776184e+001  1.242542e+002 
3996875000  -2.763783e+001  1.216271e+002 
4000000000  -2.782367e+001  1.197453e+002 
4003125000  -2.836085e+001  1.219153e+002 
4006250000  -2.696764e+001  1.220647e+002 
4009375000  -2.576376e+001  1.100474e+002 
4012500000  -2.686592e+001  1.027103e+002 
4015625000  -2.813455e+001  1.033575e+002 
4018750000  -2.826631e+001  1.059428e+002 
4021875000  -2.762619e+001  1.039181e+002 
4025000000  -2.723696e+001  9.874525e+001 
4028125000  -2.721833e+001  9.480892e+001 
4031250000  -2.767389e+001  9.166328e+001 
4034375000  -2.792387e+001  9.198850e+001 
4037500000  -2.743099e+001  9.369936e+001 
4040625000  -2.733540e+001  9.059318e+001 
4043750000  -2.767664e+001  8.987048e+001 
4046875000  -2.725301e+001  8.944165e+001 
4050000000  -2.678615e+001  8.410488e+001 
4053125000  -2.729570e+001  8.212558e+001 
4056250000  -2.781377e+001  8.631522e+001 
4059375000  -2.656565e+001  8.811449e+001 
4062500000  -2.521106e+001  8.313971e+001 
4065625000  -2.515363e+001  7.886901e+001 
4068750000  -2.484220e+001  7.410652e+001 
4071875000  -2.419467e+001  6.630363e+001 
4075000000  -2.451805e+001  6.030069e+001 
4078125000  -2.509086e+001  5.929459e+001 
4081250000  -2.451613e+001  5.716485e+001 
4084375000  -2.416354e+001  5.017350e+001 
4087500000  -2.450018e+001  4.390914e+001 
4090625000  -2.511846e+001  4.311687e+001 
4093750000  -2.487857e+001  4.384543e+001 
4096875000  -2.447860e+001  3.773086e+001 
4100000000  -2.518894e+001  3.081013e+001 
4103125000  -2.606587e+001  3.117878e+001 
4106250000  -2.596038e+001  3.675435e+001 
4109375000  -2.501262e+001  3.584560e+001 
4112500000  -2.445905e+001  2.912732e+001 
4115625000  -2.479879e+001  2.504711e+001 
4118750000  -2.486930e+001  2.204652e+001 
4121875000  -2.445556e+001  1.736274e+001 
4125000000  -2.486477e+001  1.212483e+001 
4128125000  -2.591939e+001  1.229554e+001 
4131250000  -2.557577e+001  2.061512e+001 
4134375000  -2.315073e+001  1.568468e+001 
4137500000  -2.303383e+001  -2.834252e+000 
4140625000  -2.520173e+001  -1.021637e+001 
4143750000  -2.651695e+001  -4.828156e+000 
4146875000  -2.611047e+001  2.375088e+000 
4150000000  -2.512880e+001  -8.923637e-001 
4153125000  -2.501711e+001  -7.578758e+000 
4156250000  -2.588393e+001  -1.006132e+001 
4159375000  -2.616253e+001  -5.766306e+000 
4162500000  -2.502809e+001  -1.367432e+000 
4165625000  -2.387314e+001  -5.653609e+000 
4168750000  -2.329864e+001  -1.262813e+001 
4171875000  -2.326826e+001  -2.168545e+001 
4175000000  -2.385155e+001  -2.734761e+001 
4178125000  -2.448124e+001  -2.737246e+001 
4181250000  -2.431639e+001  -2.795823e+001 
4184375000  -2.417238e+001  -3.120810e+001 
4187500000  -2.424133e+001  -3.380679e+001 
4190625000  -2.402053e+001  -3.929771e+001 
4193750000  -2.484960e+001  -4.301722e+001 
4196875000  -2.557972e+001  -4.383949e+001 
4200000000  -2.647862e+001  -4.050662e+001 
4203125000  -2.640596e+001  -2.712675e+001 
4206250000  -2.300362e+001  -2.601222e+001 
4209375000  -2.187096e+001  -4.689628e+001 
4212500000  -2.378028e+001  -5.553566e+001 
4215625000  -2.480591e+001  -4.915383e+001 
4218750000  -2.344995e+001  -4.257430e+001 
4221875000  -2.112494e+001  -5.172319e+001 
4225000000  -2.241207e+001  -6.426128e+001 
4228125000  -2.306002e+001  -5.915429e+001 
4231250000  -2.147092e+001  -6.309315e+001 
4234375000  -2.141769e+001  -7.140724e+001 
4237500000  -2.099539e+001  -7.457034e+001 
4240625000  -2.097745e+001  -8.301620e+001 
4243750000  -2.198418e+001  -9.021003e+001 
4246875000  -2.290095e+001  -8.990100e+001 
4250000000  -2.289686e+001  -8.716879e+001 
4253125000  -2.233477e+001  -8.875992e+001 
4256250000  -2.260333e+001  -9.300692e+001 
4259375000  -2.236609e+001  -9.540249e+001 
4262500000  -2.237389e+001  -9.902196e+001 
4265625000  -2.251876e+001  -9.833824e+001 
4268750000  -2.160137e+001  -1.026062e+002 
4271875000  -2.141153e+001  -1.082347e+002 
4275000000  -2.074440e+001  -1.150347e+002 
4278125000  -2.140151e+001  -1.259184e+002 
4281250000  -2.323076e+001  -1.276805e+002 
4284375000  -2.287812e+001  -1.274408e+002 
4287500000  -2.367958e+001  -1.310490e+002 
4290625000  -2.495213e+001  -1.212384e+002 
4293750000  -2.296249e+001  -1.158384e+002 
4296875000  -2.161146e+001  -1.272455e+002 
4300000000  -2.244979e+001  -1.363403e+002 
4303125000  -2.359732e+001  -1.349513e+002 
4306250000  -2.289091e+001  -1.290848e+002 
4309375000  -2.153680e+001  -1.312432e+002 
4312500000  -2.145505e+001  -1.397505e+002 
4315625000  -2.164198e+001  -1.459655e+002 
4318750000  -2.202746e+001  -1.491476e+002 
4321875000  -2.214709e+001  -1.487424e+002 
4325000000  -2.158931e+001  -1.480938e+002 
4328125000  -2.103545e+001  -1.544446e+002 
4331250000  -2.102289e+001  -1.627319e+002 
4334375000  -2.145906e+001  -1.677758e+002 
4337500000  -2.231345e+001  -1.696461e+002 
4340625000  -2.284598e+001  -1.660583e+002 
4343750000  -2.222711e+001  -1.658047e+002 
4346875000  -2.183992e+001  -1.713738e+002 
4350000000  -2.186632e+001  -1.761548e+002 
4353125000  -2.191534e+001  1.761307e+002 
4356250000  -2.369697e+001  1.756855e+002 
4359375000  -2.432431e+001  -1.705664e+002 
4362500000  -2.153314e+001  -1.695421e+002 
4365625000  -1.994623e+001  1.783925e+002 
4368750000  -2.068335e+001  1.669504e+002 
4371875000  -2.184722e+001  1.676538e+002 
4375000000  -2.149787e+001  1.684651e+002 
4378125000  -2.082134e+001  1.623895e+002 
4381250000  -2.104193e+001  1.570115e+002 
4384375000  -2.083953e+001  1.525663e+002 
4387500000  -2.161764e+001  1.469284e+002 
4390625000  -2.258341e+001  1.477272e+002 
4393750000  -2.192881e+001  1.497699e+002 
4396875000  -2.129673e+001  1.475672e+002 
4400000000  -2.076585e+001  1.404904e+002 
4403125000  -2.135467e+001  1.331612e+002 
4406250000  -2.216738e+001  1.316946e+002 
4409375000  -2.215916e+001  1.295712e+002 
4412500000  -2.321388e+001  1.265841e+002 
4415625000  -2.357081e+001  1.318934e+002 
4418750000  -2.235266e+001  1.361134e+002 
