!Agilent Technologies,E8363B,MY43030201,A.06.04.32
!Agilent E8363B: A.06.04.32
!Date: Tuesday, November 11, 2014 20:45:39
!Correction: S21(Response(S21)) 
!S1P File: Measurement: S21:
# Hz S  dB   R 50
3000000000  -2.652225e+001  1.586935e+002 
3003125000  -2.788326e+001  1.546157e+002 
3006250000  -2.795589e+001  1.514655e+002 
3009375000  -2.829564e+001  1.562789e+002 
3012500000  -2.776747e+001  1.566830e+002 
3015625000  -2.682428e+001  1.492422e+002 
3018750000  -2.770447e+001  1.481748e+002 
3021875000  -2.647678e+001  1.495347e+002 
3025000000  -2.518809e+001  1.464726e+002 
3028125000  -2.417863e+001  1.418127e+002 
3031250000  -2.313989e+001  1.307516e+002 
3034375000  -2.274426e+001  1.177831e+002 
3037500000  -2.307958e+001  1.057330e+002 
3040625000  -2.435742e+001  1.005565e+002 
3043750000  -2.512111e+001  9.646853e+001 
3046875000  -2.520868e+001  8.982799e+001 
3050000000  -2.700064e+001  8.277080e+001 
3053125000  -2.718819e+001  8.934807e+001 
3056250000  -2.645740e+001  9.228380e+001 
3059375000  -2.668818e+001  9.214563e+001 
3062500000  -2.527594e+001  8.832766e+001 
3065625000  -2.502666e+001  8.260789e+001 
3068750000  -2.473716e+001  7.578383e+001 
3071875000  -2.462857e+001  7.259484e+001 
3075000000  -2.463806e+001  6.901163e+001 
3078125000  -2.436009e+001  6.450698e+001 
3081250000  -2.499628e+001  6.030872e+001 
3084375000  -2.425962e+001  5.674941e+001 
3087500000  -2.412080e+001  5.312498e+001 
3090625000  -2.383043e+001  4.368386e+001 
3093750000  -2.422357e+001  3.552407e+001 
3096875000  -2.553113e+001  2.930390e+001 
3100000000  -2.568960e+001  2.765035e+001 
3103125000  -2.603016e+001  2.923619e+001 
3106250000  -2.576476e+001  2.584288e+001 
3109375000  -2.600199e+001  2.205576e+001 
3112500000  -2.613005e+001  2.163908e+001 
3115625000  -2.593268e+001  1.717012e+001 
3118750000  -2.644916e+001  1.844679e+001 
3121875000  -2.577184e+001  1.034463e+001 
3125000000  -2.685500e+001  6.676459e+000 
3128125000  -2.816364e+001  1.464765e+001 
3131250000  -2.599532e+001  1.552330e+001 
3134375000  -2.462874e+001  1.976997e+000 
3137500000  -2.528343e+001  -1.223187e+001 
3140625000  -2.689423e+001  -1.364763e+001 
3143750000  -2.788548e+001  -9.449009e+000 
3146875000  -2.747582e+001  -7.619896e+000 
3150000000  -2.649724e+001  -5.341621e+000 
3153125000  -2.645279e+001  -1.294722e+001 
3156250000  -2.741335e+001  -7.846267e+000 
3159375000  -2.596617e+001  -4.696866e+000 
3162500000  -2.387039e+001  -1.748281e+001 
3165625000  -2.478593e+001  -2.838625e+001 
3168750000  -2.522474e+001  -2.803430e+001 
3171875000  -2.423917e+001  -3.169424e+001 
3175000000  -2.487446e+001  -3.949390e+001 
3178125000  -2.468076e+001  -3.790346e+001 
3181250000  -2.350473e+001  -4.160505e+001 
3184375000  -2.265652e+001  -5.398377e+001 
3187500000  -2.373085e+001  -6.943248e+001 
3190625000  -2.657116e+001  -7.744250e+001 
3193750000  -2.727842e+001  -6.708602e+001 
3196875000  -2.674409e+001  -6.203367e+001 
3200000000  -2.593736e+001  -6.367076e+001 
3203125000  -2.502517e+001  -6.909137e+001 
3206250000  -2.530442e+001  -7.527946e+001 
3209375000  -2.483024e+001  -8.046533e+001 
3212500000  -2.494327e+001  -8.742461e+001 
3215625000  -2.510128e+001  -9.158182e+001 
3218750000  -2.582506e+001  -9.799670e+001 
3221875000  -2.684571e+001  -1.028142e+002 
3225000000  -2.649626e+001  -1.035539e+002 
3228125000  -2.674198e+001  -1.080573e+002 
3231250000  -2.749516e+001  -1.108378e+002 
3234375000  -2.733331e+001  -1.094994e+002 
3237500000  -2.737472e+001  -1.114999e+002 
3240625000  -2.708869e+001  -1.127448e+002 
3243750000  -2.671432e+001  -1.196180e+002 
3246875000  -2.714147e+001  -1.263332e+002 
3250000000  -2.759925e+001  -1.280757e+002 
3253125000  -2.779407e+001  -1.299123e+002 
3256250000  -2.767737e+001  -1.357926e+002 
3259375000  -2.798559e+001  -1.430703e+002 
3262500000  -2.929487e+001  -1.462738e+002 
3265625000  -2.992986e+001  -1.426866e+002 
3268750000  -2.985063e+001  -1.402417e+002 
3271875000  -2.969100e+001  -1.388107e+002 
3275000000  -2.865535e+001  -1.439138e+002 
3278125000  -2.896436e+001  -1.500923e+002 
3281250000  -2.928926e+001  -1.484576e+002 
3284375000  -2.889699e+001  -1.543736e+002 
3287500000  -2.910622e+001  -1.573872e+002 
3290625000  -2.944185e+001  -1.612136e+002 
3293750000  -2.915985e+001  -1.669873e+002 
3296875000  -3.018213e+001  -1.671742e+002 
3300000000  -3.009137e+001  -1.658932e+002 
3303125000  -2.898612e+001  -1.698602e+002 
3306250000  -2.867900e+001  -1.762605e+002 
3309375000  -2.848948e+001  1.789522e+002 
3312500000  -2.854409e+001  1.688377e+002 
3315625000  -2.945740e+001  1.606964e+002 
3318750000  -3.077006e+001  1.577497e+002 
3321875000  -3.207996e+001  1.575622e+002 
3325000000  -3.269444e+001  1.618192e+002 
3328125000  -3.247567e+001  1.635676e+002 
3331250000  -3.125635e+001  1.717150e+002 
3334375000  -2.875302e+001  1.627652e+002 
3337500000  -2.878641e+001  1.441703e+002 
3340625000  -3.003435e+001  1.328701e+002 
3343750000  -3.194818e+001  1.317608e+002 
3346875000  -3.256692e+001  1.331808e+002 
3350000000  -3.191821e+001  1.323444e+002 
3353125000  -3.207136e+001  1.273928e+002 
3356250000  -3.178990e+001  1.203456e+002 
3359375000  -3.260391e+001  1.115214e+002 
3362500000  -3.377940e+001  1.064149e+002 
3365625000  -3.441263e+001  1.042403e+002 
3368750000  -3.539442e+001  1.027687e+002 
3371875000  -3.576960e+001  9.952211e+001 
3375000000  -3.740959e+001  9.677312e+001 
3378125000  -3.853474e+001  9.706143e+001 
3381250000  -3.992751e+001  1.049158e+002 
3384375000  -3.919493e+001  1.252920e+002 
3387500000  -3.591585e+001  1.116762e+002 
3390625000  -3.798057e+001  9.262910e+001 
3393750000  -3.965675e+001  9.721460e+001 
3396875000  -3.879842e+001  1.004780e+002 
3400000000  -3.871311e+001  9.336593e+001 
3403125000  -3.987411e+001  8.956670e+001 
3406250000  -4.061528e+001  9.100378e+001 
3409375000  -4.127028e+001  8.795042e+001 
3412500000  -4.238059e+001  8.809623e+001 
3415625000  -4.295007e+001  9.263243e+001 
3418750000  -4.360428e+001  9.676576e+001 
3421875000  -4.362057e+001  1.041016e+002 
3425000000  -4.282147e+001  1.072049e+002 
3428125000  -4.183259e+001  1.063141e+002 
3431250000  -4.160344e+001  1.019895e+002 
3434375000  -4.161440e+001  1.007093e+002 
3437500000  -4.191248e+001  9.989719e+001 
3440625000  -4.241780e+001  1.030872e+002 
3443750000  -4.097331e+001  1.037833e+002 
3446875000  -4.000839e+001  9.932645e+001 
3450000000  -3.995421e+001  9.076991e+001 
3453125000  -4.046656e+001  8.083259e+001 
3456250000  -4.152263e+001  7.740295e+001 
3459375000  -4.253411e+001  7.840932e+001 
3462500000  -4.272470e+001  7.906049e+001 
3465625000  -4.277494e+001  7.475043e+001 
3468750000  -4.284411e+001  7.071410e+001 
3471875000  -4.346325e+001  7.474361e+001 
3475000000  -4.303199e+001  6.812700e+001 
3478125000  -4.372425e+001  6.427660e+001 
3481250000  -4.493756e+001  6.269353e+001 
3484375000  -4.649044e+001  6.784382e+001 
3487500000  -4.623529e+001  7.158063e+001 
3490625000  -4.564206e+001  6.706345e+001 
3493750000  -4.648685e+001  6.380531e+001 
3496875000  -4.726505e+001  6.574334e+001 
3500000000  -4.847943e+001  7.265644e+001 
3503125000  -4.840255e+001  7.900208e+001 
3506250000  -4.678169e+001  8.092531e+001 
3509375000  -4.681356e+001  7.899934e+001 
3512500000  -4.810118e+001  7.866914e+001 
3515625000  -4.815332e+001  7.964506e+001 
3518750000  -4.782965e+001  8.573634e+001 
3521875000  -4.814595e+001  9.046478e+001 
3525000000  -4.859486e+001  9.048963e+001 
3528125000  -4.737726e+001  1.002172e+002 
3531250000  -4.611367e+001  1.058463e+002 
3534375000  -4.492390e+001  9.518380e+001 
3537500000  -4.511279e+001  8.997823e+001 
3540625000  -4.594316e+001  9.361762e+001 
3543750000  -4.630392e+001  9.401849e+001 
3546875000  -4.587575e+001  1.049900e+002 
3550000000  -4.316046e+001  1.101066e+002 
3553125000  -4.141245e+001  9.399348e+001 
3556250000  -4.296725e+001  8.506930e+001 
3559375000  -4.243991e+001  9.030267e+001 
3562500000  -4.095258e+001  8.186703e+001 
3565625000  -4.190386e+001  7.723225e+001 
3568750000  -4.175672e+001  7.780946e+001 
3571875000  -4.191975e+001  7.913081e+001 
3575000000  -4.112831e+001  7.428561e+001 
3578125000  -4.160296e+001  6.856004e+001 
3581250000  -4.159064e+001  7.074811e+001 
3584375000  -4.104771e+001  6.983871e+001 
3587500000  -4.024459e+001  6.534191e+001 
3590625000  -4.058426e+001  5.505812e+001 
3593750000  -4.171583e+001  5.531314e+001 
3596875000  -4.144009e+001  6.118513e+001 
3600000000  -3.984534e+001  5.967556e+001 
3603125000  -4.029904e+001  4.773338e+001 
3606250000  -4.062140e+001  4.276322e+001 
3609375000  -4.120101e+001  4.228388e+001 
3612500000  -4.162042e+001  4.181549e+001 
3615625000  -4.168990e+001  3.919703e+001 
3618750000  -4.208891e+001  4.071068e+001 
3621875000  -4.161134e+001  4.033402e+001 
3625000000  -4.214853e+001  3.895558e+001 
3628125000  -4.187169e+001  3.915099e+001 
3631250000  -4.157678e+001  3.505590e+001 
3634375000  -4.220538e+001  3.636191e+001 
3637500000  -4.192926e+001  4.063366e+001 
3640625000  -4.121239e+001  4.303162e+001 
3643750000  -4.062341e+001  3.740462e+001 
3646875000  -4.124797e+001  3.147532e+001 
3650000000  -4.187012e+001  3.140468e+001 
3653125000  -4.139086e+001  2.953173e+001 
3656250000  -4.186291e+001  2.928069e+001 
3659375000  -4.196317e+001  3.232610e+001 
3662500000  -4.095452e+001  3.252525e+001 
3665625000  -4.118736e+001  3.141481e+001 
3668750000  -4.033201e+001  3.208357e+001 
3671875000  -3.957167e+001  2.865273e+001 
3675000000  -3.997334e+001  2.276842e+001 
3678125000  -4.042675e+001  2.447950e+001 
3681250000  -3.995621e+001  2.560390e+001 
3684375000  -3.969293e+001  2.318847e+001 
3687500000  -4.003211e+001  2.248622e+001 
3690625000  -3.997941e+001  2.058130e+001 
3693750000  -4.045066e+001  2.119609e+001 
3696875000  -4.014013e+001  2.562830e+001 
3700000000  -3.899696e+001  2.334339e+001 
3703125000  -3.887486e+001  2.014783e+001 
3706250000  -3.965142e+001  2.364808e+001 
3709375000  -3.859586e+001  2.462890e+001 
3712500000  -3.768418e+001  2.457398e+001 
3715625000  -3.638577e+001  1.904769e+001 
3718750000  -3.585710e+001  1.601049e+001 
3721875000  -3.521417e+001  1.096003e+001 
3725000000  -3.539463e+001  7.012680e+000 
3728125000  -3.538528e+001  5.940813e+000 
3731250000  -3.475178e+001  5.100453e+000 
3734375000  -3.370109e+001  -6.202047e-001 
3737500000  -3.414895e+001  -7.577376e+000 
3740625000  -3.473886e+001  -1.101606e+001 
3743750000  -3.456995e+001  -1.311998e+001 
3746875000  -3.457374e+001  -1.665755e+001 
3750000000  -3.493825e+001  -1.766119e+001 
3753125000  -3.448478e+001  -1.766609e+001 
3756250000  -3.445405e+001  -1.912883e+001 
3759375000  -3.423239e+001  -1.901105e+001 
3762500000  -3.377164e+001  -2.384054e+001 
3765625000  -3.419827e+001  -2.668843e+001 
3768750000  -3.429709e+001  -2.391309e+001 
3771875000  -3.252471e+001  -2.649892e+001 
3775000000  -3.224752e+001  -3.438397e+001 
3778125000  -3.253576e+001  -3.584393e+001 
3781250000  -3.234392e+001  -3.862318e+001 
3784375000  -3.229793e+001  -4.129142e+001 
3787500000  -3.171517e+001  -4.431329e+001 
3790625000  -3.215577e+001  -5.015513e+001 
3793750000  -3.227632e+001  -5.094594e+001 
3796875000  -3.137344e+001  -5.234590e+001 
3800000000  -2.998044e+001  -5.602008e+001 
3803125000  -3.070329e+001  -6.323594e+001 
3806250000  -3.141881e+001  -6.491282e+001 
3809375000  -3.110865e+001  -6.581900e+001 
3812500000  -3.041244e+001  -7.127030e+001 
3815625000  -3.097817e+001  -7.746682e+001 
3818750000  -3.193082e+001  -7.981722e+001 
3821875000  -3.210347e+001  -7.271129e+001 
3825000000  -3.019298e+001  -6.794411e+001 
3828125000  -2.892062e+001  -8.060837e+001 
3831250000  -2.933742e+001  -9.459285e+001 
3834375000  -3.062514e+001  -9.619284e+001 
3837500000  -3.157266e+001  -9.138145e+001 
3840625000  -3.049634e+001  -9.161465e+001 
3843750000  -2.931439e+001  -1.013021e+002 
3846875000  -2.996048e+001  -1.091152e+002 
3850000000  -3.125842e+001  -1.039690e+002 
3853125000  -3.047121e+001  -1.006019e+002 
3856250000  -3.044364e+001  -1.051748e+002 
3859375000  -2.975804e+001  -1.096626e+002 
3862500000  -2.931560e+001  -1.172453e+002 
3865625000  -2.955427e+001  -1.219645e+002 
3868750000  -2.956748e+001  -1.220940e+002 
3871875000  -2.889749e+001  -1.248834e+002 
3875000000  -2.893991e+001  -1.333291e+002 
3878125000  -2.993688e+001  -1.365744e+002 
3881250000  -3.006135e+001  -1.332149e+002 
3884375000  -2.960193e+001  -1.375369e+002 
3887500000  -2.959012e+001  -1.422314e+002 
3890625000  -3.022399e+001  -1.445397e+002 
3893750000  -3.054938e+001  -1.460840e+002 
3896875000  -3.066987e+001  -1.450934e+002 
3900000000  -3.095326e+001  -1.466210e+002 
3903125000  -3.066692e+001  -1.487327e+002 
3906250000  -3.038895e+001  -1.499615e+002 
3909375000  -2.969733e+001  -1.521057e+002 
3912500000  -2.957865e+001  -1.585817e+002 
3915625000  -3.084784e+001  -1.584930e+002 
3918750000  -3.094166e+001  -1.565934e+002 
3921875000  -3.057676e+001  -1.581008e+002 
3925000000  -2.975339e+001  -1.582469e+002 
3928125000  -2.906024e+001  -1.646294e+002 
3931250000  -2.948499e+001  -1.679242e+002 
3934375000  -2.969835e+001  -1.675961e+002 
3937500000  -2.980870e+001  -1.690037e+002 
3940625000  -3.030319e+001  -1.691933e+002 
3943750000  -2.943324e+001  -1.673795e+002 
3946875000  -2.817565e+001  -1.722456e+002 
3950000000  -2.859965e+001  1.799306e+002 
3953125000  -2.963625e+001  -1.795861e+002 
3956250000  -2.877773e+001  -1.769743e+002 
3959375000  -2.746774e+001  1.799014e+002 
3962500000  -2.689893e+001  1.763500e+002 
3965625000  -2.656264e+001  1.672328e+002 
3968750000  -2.741581e+001  1.605392e+002 
3971875000  -2.793214e+001  1.590197e+002 
3975000000  -2.717688e+001  1.571504e+002 
3978125000  -2.697287e+001  1.564195e+002 
3981250000  -2.670026e+001  1.516039e+002 
3984375000  -2.693332e+001  1.456065e+002 
3987500000  -2.744178e+001  1.430970e+002 
3990625000  -2.742719e+001  1.420303e+002 
3993750000  -2.762419e+001  1.389808e+002 
3996875000  -2.767844e+001  1.368275e+002 
4000000000  -2.771931e+001  1.347098e+002 
4003125000  -2.835773e+001  1.369511e+002 
4006250000  -2.689510e+001  1.371653e+002 
4009375000  -2.565613e+001  1.247214e+002 
4012500000  -2.662141e+001  1.174540e+002 
4015625000  -2.800696e+001  1.175012e+002 
4018750000  -2.821270e+001  1.201293e+002 
4021875000  -2.751209e+001  1.179796e+002 
4025000000  -2.714865e+001  1.141251e+002 
4028125000  -2.710555e+001  1.098991e+002 
4031250000  -2.762031e+001  1.064645e+002 
4034375000  -2.783000e+001  1.061543e+002 
4037500000  -2.730176e+001  1.084769e+002 
4040625000  -2.728188e+001  1.048237e+002 
4043750000  -2.763723e+001  1.044919e+002 
4046875000  -2.719109e+001  1.044645e+002 
4050000000  -2.666813e+001  9.843727e+001 
4053125000  -2.709179e+001  9.645612e+001 
4056250000  -2.778692e+001  1.000838e+002 
4059375000  -2.668130e+001  1.028227e+002 
4062500000  -2.520817e+001  9.820244e+001 
4065625000  -2.501396e+001  9.367438e+001 
4068750000  -2.478019e+001  8.909253e+001 
4071875000  -2.415788e+001  8.114140e+001 
4075000000  -2.447380e+001  7.496767e+001 
4078125000  -2.511486e+001  7.383432e+001 
4081250000  -2.454991e+001  7.157956e+001 
4084375000  -2.417043e+001  6.514285e+001 
4087500000  -2.448210e+001  5.876169e+001 
4090625000  -2.505836e+001  5.732728e+001 
4093750000  -2.492802e+001  5.830497e+001 
4096875000  -2.446971e+001  5.257938e+001 
4100000000  -2.508088e+001  4.548871e+001 
4103125000  -2.594756e+001  4.598527e+001 
4106250000  -2.588616e+001  5.074461e+001 
4109375000  -2.500515e+001  5.053809e+001 
4112500000  -2.449357e+001  4.399688e+001 
4115625000  -2.473988e+001  3.950861e+001 
4118750000  -2.486886e+001  3.675835e+001 
4121875000  -2.446653e+001  3.250028e+001 
4125000000  -2.477661e+001  2.687813e+001 
4128125000  -2.576091e+001  2.640208e+001 
4131250000  -2.552937e+001  3.452835e+001 
4134375000  -2.327750e+001  3.071834e+001 
4137500000  -2.299174e+001  1.188626e+001 
4140625000  -2.506227e+001  4.425220e+000 
4143750000  -2.646144e+001  8.949379e+000 
4146875000  -2.613154e+001  1.645594e+001 
4150000000  -2.519271e+001  1.376316e+001 
4153125000  -2.501520e+001  7.420009e+000 
4156250000  -2.584849e+001  4.293939e+000 
4159375000  -2.622575e+001  8.743117e+000 
4162500000  -2.505512e+001  1.278995e+001 
4165625000  -2.393558e+001  9.180961e+000 
4168750000  -2.335708e+001  2.149928e+000 
4171875000  -2.331312e+001  -7.263037e+000 
4175000000  -2.394326e+001  -1.266665e+001 
4178125000  -2.453695e+001  -1.288232e+001 
4181250000  -2.445115e+001  -1.331829e+001 
4184375000  -2.424743e+001  -1.644839e+001 
4187500000  -2.432698e+001  -1.882724e+001 
4190625000  -2.408709e+001  -2.430063e+001 
4193750000  -2.482772e+001  -2.823913e+001 
4196875000  -2.552810e+001  -2.853414e+001 
4200000000  -2.635870e+001  -2.652132e+001 
4203125000  -2.654010e+001  -1.447367e+001 
4206250000  -2.327843e+001  -1.125523e+001 
4209375000  -2.196477e+001  -3.143200e+001 
4212500000  -2.378238e+001  -4.067420e+001 
4215625000  -2.485382e+001  -3.505426e+001 
4218750000  -2.359554e+001  -2.809085e+001 
4221875000  -2.123260e+001  -3.696762e+001 
4225000000  -2.240357e+001  -4.963923e+001 
4228125000  -2.318865e+001  -4.463387e+001 
4231250000  -2.162558e+001  -4.804321e+001 
4234375000  -2.155333e+001  -5.638378e+001 
4237500000  -2.112260e+001  -5.953753e+001 
4240625000  -2.108552e+001  -6.796372e+001 
4243750000  -2.206138e+001  -7.472913e+001 
4246875000  -2.293373e+001  -7.503186e+001 
4250000000  -2.300399e+001  -7.234146e+001 
4253125000  -2.241502e+001  -7.411320e+001 
4256250000  -2.274295e+001  -7.847517e+001 
4259375000  -2.251659e+001  -8.030312e+001 
4262500000  -2.243050e+001  -8.409844e+001 
4265625000  -2.269201e+001  -8.375928e+001 
4268750000  -2.184460e+001  -8.773479e+001 
4271875000  -2.153154e+001  -9.322969e+001 
4275000000  -2.091445e+001  -9.962769e+001 
4278125000  -2.146090e+001  -1.106217e+002 
4281250000  -2.326693e+001  -1.131519e+002 
4284375000  -2.301370e+001  -1.121436e+002 
4287500000  -2.373352e+001  -1.156371e+002 
4290625000  -2.505955e+001  -1.068470e+002 
4293750000  -2.312219e+001  -1.007545e+002 
4296875000  -2.169236e+001  -1.120459e+002 
4300000000  -2.255161e+001  -1.212526e+002 
4303125000  -2.369606e+001  -1.204448e+002 
4306250000  -2.319425e+001  -1.143873e+002 
4309375000  -2.177687e+001  -1.159050e+002 
4312500000  -2.160449e+001  -1.241250e+002 
4315625000  -2.185322e+001  -1.302019e+002 
4318750000  -2.213184e+001  -1.337503e+002 
4321875000  -2.233163e+001  -1.333018e+002 
4325000000  -2.174840e+001  -1.326139e+002 
4328125000  -2.128120e+001  -1.387913e+002 
4331250000  -2.123139e+001  -1.467882e+002 
4334375000  -2.161543e+001  -1.517124e+002 
4337500000  -2.237455e+001  -1.542126e+002 
4340625000  -2.297155e+001  -1.509733e+002 
4343750000  -2.242523e+001  -1.507089e+002 
4346875000  -2.202336e+001  -1.557575e+002 
4350000000  -2.198007e+001  -1.604478e+002 
4353125000  -2.203252e+001  -1.677974e+002 
4356250000  -2.365394e+001  -1.693664e+002 
4359375000  -2.439576e+001  -1.569515e+002 
4362500000  -2.190468e+001  -1.539997e+002 
4365625000  -2.016758e+001  -1.652369e+002 
4368750000  -2.078963e+001  -1.775900e+002 
4371875000  -2.205523e+001  -1.770580e+002 
4375000000  -2.168538e+001  -1.760338e+002 
4378125000  -2.108442e+001  1.784409e+002 
4381250000  -2.118105e+001  1.732933e+002 
4384375000  -2.105488e+001  1.686712e+002 
4387500000  -2.174875e+001  1.627470e+002 
4390625000  -2.274741e+001  1.634518e+002 
4393750000  -2.214143e+001  1.656200e+002 
4396875000  -2.147682e+001  1.634620e+002 
4400000000  -2.096014e+001  1.566084e+002 
4403125000  -2.149920e+001  1.491348e+002 
4406250000  -2.235832e+001  1.477856e+002 
4409375000  -2.230919e+001  1.453780e+002 
4412500000  -2.335969e+001  1.425143e+002 
4415625000  -2.380011e+001  1.472777e+002 
4418750000  -2.258558e+001  1.519885e+002 
