!Agilent Technologies,E8363B,MY43030201,A.06.04.32
!Agilent E8363B: A.06.04.32
!Date: Tuesday, November 11, 2014 20:50:23
!Correction: S21(Response(S21)) 
!S1P File: Measurement: S21:
# Hz S  dB   R 50
3000000000  -2.654607e+001  1.523405e+002 
3003125000  -2.795333e+001  1.479556e+002 
3006250000  -2.798724e+001  1.453638e+002 
3009375000  -2.834782e+001  1.501116e+002 
3012500000  -2.782098e+001  1.498387e+002 
3015625000  -2.687984e+001  1.427032e+002 
3018750000  -2.769703e+001  1.416880e+002 
3021875000  -2.644845e+001  1.433679e+002 
3025000000  -2.513095e+001  1.401043e+002 
3028125000  -2.414135e+001  1.350518e+002 
3031250000  -2.313334e+001  1.238543e+002 
3034375000  -2.278102e+001  1.109289e+002 
3037500000  -2.313012e+001  9.904389e+001 
3040625000  -2.445539e+001  9.393597e+001 
3043750000  -2.515920e+001  8.963226e+001 
3046875000  -2.528419e+001  8.330177e+001 
3050000000  -2.702548e+001  7.645547e+001 
3053125000  -2.711113e+001  8.328536e+001 
3056250000  -2.645345e+001  8.578362e+001 
3059375000  -2.668273e+001  8.530293e+001 
3062500000  -2.521840e+001  8.142977e+001 
3065625000  -2.503406e+001  7.575472e+001 
3068750000  -2.472768e+001  6.920897e+001 
3071875000  -2.469848e+001  6.601624e+001 
3075000000  -2.467195e+001  6.222683e+001 
3078125000  -2.434637e+001  5.757744e+001 
3081250000  -2.501562e+001  5.348072e+001 
3084375000  -2.427756e+001  4.984111e+001 
3087500000  -2.415545e+001  4.623343e+001 
3090625000  -2.386323e+001  3.655734e+001 
3093750000  -2.427050e+001  2.845307e+001 
3096875000  -2.560181e+001  2.233293e+001 
3100000000  -2.570473e+001  2.123489e+001 
3103125000  -2.608473e+001  2.238423e+001 
3106250000  -2.585353e+001  1.915795e+001 
3109375000  -2.607669e+001  1.545155e+001 
3112500000  -2.616764e+001  1.458699e+001 
3115625000  -2.600279e+001  1.016027e+001 
3118750000  -2.643289e+001  1.139537e+001 
3121875000  -2.580756e+001  3.596596e+000 
3125000000  -2.697716e+001  1.574487e-001 
3128125000  -2.819316e+001  8.256825e+000 
3131250000  -2.596814e+001  8.845965e+000 
3134375000  -2.462707e+001  -4.589824e+000 
3137500000  -2.532410e+001  -1.856609e+001 
3140625000  -2.691008e+001  -2.039090e+001 
3143750000  -2.792366e+001  -1.629762e+001 
3146875000  -2.755161e+001  -1.422457e+001 
3150000000  -2.653545e+001  -1.230750e+001 
3153125000  -2.655266e+001  -1.979538e+001 
3156250000  -2.752414e+001  -1.427588e+001 
3159375000  -2.593165e+001  -1.140171e+001 
3162500000  -2.391702e+001  -2.428146e+001 
3165625000  -2.478617e+001  -3.527201e+001 
3168750000  -2.521813e+001  -3.427568e+001 
3171875000  -2.429757e+001  -3.881264e+001 
3175000000  -2.489012e+001  -4.631331e+001 
3178125000  -2.473054e+001  -4.468488e+001 
3181250000  -2.352074e+001  -4.864622e+001 
3184375000  -2.277826e+001  -6.073500e+001 
3187500000  -2.387905e+001  -7.580824e+001 
3190625000  -2.664027e+001  -8.365483e+001 
3193750000  -2.720592e+001  -7.404129e+001 
3196875000  -2.679659e+001  -6.831634e+001 
3200000000  -2.588748e+001  -7.038341e+001 
3203125000  -2.505898e+001  -7.604746e+001 
3206250000  -2.532842e+001  -8.236646e+001 
3209375000  -2.487041e+001  -8.744012e+001 
3212500000  -2.499872e+001  -9.412840e+001 
3215625000  -2.516991e+001  -9.822399e+001 
3218750000  -2.595448e+001  -1.043389e+002 
3221875000  -2.691376e+001  -1.094405e+002 
3225000000  -2.648611e+001  -1.101107e+002 
3228125000  -2.682742e+001  -1.147471e+002 
3231250000  -2.755487e+001  -1.173968e+002 
3234375000  -2.742219e+001  -1.165402e+002 
3237500000  -2.744024e+001  -1.180282e+002 
3240625000  -2.713411e+001  -1.200033e+002 
3243750000  -2.673888e+001  -1.261542e+002 
3246875000  -2.723518e+001  -1.330038e+002 
3250000000  -2.769187e+001  -1.345582e+002 
3253125000  -2.784990e+001  -1.364286e+002 
3256250000  -2.773751e+001  -1.421297e+002 
3259375000  -2.803536e+001  -1.496418e+002 
3262500000  -2.928775e+001  -1.530787e+002 
3265625000  -2.998146e+001  -1.494778e+002 
3268750000  -2.989052e+001  -1.470487e+002 
3271875000  -2.970933e+001  -1.455089e+002 
3275000000  -2.866213e+001  -1.505874e+002 
3278125000  -2.909833e+001  -1.573964e+002 
3281250000  -2.939161e+001  -1.553076e+002 
3284375000  -2.890541e+001  -1.608645e+002 
3287500000  -2.910010e+001  -1.637332e+002 
3290625000  -2.948159e+001  -1.680827e+002 
3293750000  -2.915944e+001  -1.735286e+002 
3296875000  -3.022803e+001  -1.734036e+002 
3300000000  -3.011492e+001  -1.725276e+002 
3303125000  -2.895684e+001  -1.766920e+002 
3306250000  -2.874245e+001  1.771054e+002 
3309375000  -2.856109e+001  1.718786e+002 
3312500000  -2.854567e+001  1.613889e+002 
3315625000  -2.964465e+001  1.534890e+002 
3318750000  -3.094772e+001  1.507836e+002 
3321875000  -3.216861e+001  1.505545e+002 
3325000000  -3.271304e+001  1.555551e+002 
3328125000  -3.250680e+001  1.583161e+002 
3331250000  -3.128883e+001  1.652450e+002 
3334375000  -2.881283e+001  1.558340e+002 
3337500000  -2.884874e+001  1.372413e+002 
3340625000  -3.012225e+001  1.261533e+002 
3343750000  -3.206501e+001  1.247137e+002 
3346875000  -3.274940e+001  1.266004e+002 
3350000000  -3.198758e+001  1.250424e+002 
3353125000  -3.214686e+001  1.207282e+002 
3356250000  -3.181584e+001  1.134102e+002 
3359375000  -3.271218e+001  1.046562e+002 
3362500000  -3.400631e+001  9.956091e+001 
3365625000  -3.462381e+001  9.786107e+001 
3368750000  -3.558429e+001  9.634441e+001 
3371875000  -3.596817e+001  9.276040e+001 
3375000000  -3.743383e+001  9.021844e+001 
3378125000  -3.855782e+001  9.062796e+001 
3381250000  -4.037728e+001  9.751389e+001 
3384375000  -3.954255e+001  1.193000e+002 
3387500000  -3.615172e+001  1.054043e+002 
3390625000  -3.805465e+001  8.624723e+001 
3393750000  -3.966685e+001  9.159339e+001 
3396875000  -3.909121e+001  9.530106e+001 
3400000000  -3.902477e+001  8.825536e+001 
3403125000  -3.992352e+001  8.239447e+001 
3406250000  -4.064008e+001  8.574540e+001 
3409375000  -4.138070e+001  8.072445e+001 
3412500000  -4.234497e+001  8.279179e+001 
3415625000  -4.274363e+001  8.860514e+001 
3418750000  -4.329642e+001  9.210802e+001 
3421875000  -4.384216e+001  9.857774e+001 
3425000000  -4.301099e+001  1.019843e+002 
3428125000  -4.180338e+001  1.019640e+002 
3431250000  -4.170862e+001  9.748322e+001 
3434375000  -4.163673e+001  9.318895e+001 
3437500000  -4.244719e+001  9.435860e+001 
3440625000  -4.233595e+001  9.458759e+001 
3443750000  -4.113739e+001  9.716448e+001 
3446875000  -4.045413e+001  9.193036e+001 
3450000000  -4.007233e+001  8.405716e+001 
3453125000  -4.038836e+001  7.509287e+001 
3456250000  -4.150436e+001  6.943803e+001 
3459375000  -4.263770e+001  7.274865e+001 
3462500000  -4.260905e+001  7.385813e+001 
3465625000  -4.307635e+001  7.076994e+001 
3468750000  -4.290884e+001  6.734872e+001 
3471875000  -4.304749e+001  6.784273e+001 
3475000000  -4.289837e+001  6.363763e+001 
3478125000  -4.376087e+001  5.830228e+001 
3481250000  -4.513302e+001  5.883584e+001 
3484375000  -4.630056e+001  6.563836e+001 
3487500000  -4.583702e+001  6.588949e+001 
3490625000  -4.539753e+001  6.424175e+001 
3493750000  -4.582093e+001  6.245369e+001 
3496875000  -4.666454e+001  6.221442e+001 
3500000000  -4.777500e+001  6.946426e+001 
3503125000  -4.794572e+001  7.670912e+001 
3506250000  -4.664635e+001  7.420361e+001 
3509375000  -4.629506e+001  7.069356e+001 
3512500000  -4.716500e+001  7.283215e+001 
3515625000  -4.771506e+001  7.110143e+001 
3518750000  -4.809602e+001  7.827480e+001 
3521875000  -4.794427e+001  7.983459e+001 
3525000000  -4.815503e+001  8.851143e+001 
3528125000  -4.768753e+001  9.691747e+001 
3531250000  -4.575741e+001  9.211142e+001 
3534375000  -4.498750e+001  8.722274e+001 
3537500000  -4.532747e+001  8.370466e+001 
3540625000  -4.564230e+001  8.377793e+001 
3543750000  -4.594336e+001  8.954294e+001 
3546875000  -4.533920e+001  1.018248e+002 
3550000000  -4.336148e+001  1.009228e+002 
3553125000  -4.133787e+001  8.480644e+001 
3556250000  -4.251287e+001  8.188392e+001 
3559375000  -4.196480e+001  8.268858e+001 
3562500000  -4.074009e+001  7.636109e+001 
3565625000  -4.165493e+001  6.870709e+001 
3568750000  -4.178713e+001  7.288999e+001 
3571875000  -4.141600e+001  7.084487e+001 
3575000000  -4.095363e+001  6.784100e+001 
3578125000  -4.121138e+001  6.475877e+001 
3581250000  -4.165498e+001  6.398586e+001 
3584375000  -4.034460e+001  6.286161e+001 
3587500000  -3.956842e+001  5.728346e+001 
3590625000  -3.986110e+001  4.661959e+001 
3593750000  -4.112022e+001  4.617272e+001 
3596875000  -4.112201e+001  5.381144e+001 
3600000000  -3.941813e+001  5.057140e+001 
3603125000  -3.971623e+001  3.713956e+001 
3606250000  -4.044651e+001  3.516817e+001 
3609375000  -4.074722e+001  3.298989e+001 
3612500000  -4.117548e+001  3.185433e+001 
3615625000  -4.105074e+001  2.953659e+001 
3618750000  -4.173972e+001  3.084239e+001 
3621875000  -4.126090e+001  2.930289e+001 
3625000000  -4.144706e+001  2.996541e+001 
3628125000  -4.169122e+001  2.794965e+001 
3631250000  -4.148258e+001  2.429773e+001 
3634375000  -4.218579e+001  2.613009e+001 
3637500000  -4.223148e+001  3.208677e+001 
3640625000  -4.094240e+001  3.095977e+001 
3643750000  -4.100893e+001  2.613455e+001 
3646875000  -4.140506e+001  2.090259e+001 
3650000000  -4.175069e+001  1.997247e+001 
3653125000  -4.132184e+001  2.172821e+001 
3656250000  -4.195466e+001  2.054631e+001 
3659375000  -4.231042e+001  2.287188e+001 
3662500000  -4.147038e+001  2.293697e+001 
3665625000  -4.159737e+001  2.365223e+001 
3668750000  -4.045037e+001  2.696278e+001 
3671875000  -3.942902e+001  2.072521e+001 
3675000000  -3.988913e+001  1.407499e+001 
3678125000  -4.076146e+001  1.640791e+001 
3681250000  -4.008430e+001  1.740154e+001 
3684375000  -3.979679e+001  1.532009e+001 
3687500000  -3.983157e+001  1.414602e+001 
3690625000  -3.990569e+001  1.105073e+001 
3693750000  -4.037011e+001  1.426249e+001 
3696875000  -4.023335e+001  1.795737e+001 
3700000000  -3.916162e+001  1.456301e+001 
3703125000  -3.890433e+001  1.075308e+001 
3706250000  -3.959618e+001  1.486089e+001 
3709375000  -3.879146e+001  1.787771e+001 
3712500000  -3.751858e+001  1.576152e+001 
3715625000  -3.639804e+001  9.311253e+000 
3718750000  -3.580093e+001  7.436477e+000 
3721875000  -3.536884e+001  2.660499e+000 
3725000000  -3.531402e+001  -2.851880e+000 
3728125000  -3.556351e+001  -3.555933e+000 
3731250000  -3.481244e+001  -4.494742e+000 
3734375000  -3.387774e+001  -1.035126e+001 
3737500000  -3.459077e+001  -1.712670e+001 
3740625000  -3.507326e+001  -2.058376e+001 
3743750000  -3.493125e+001  -2.204504e+001 
3746875000  -3.475602e+001  -2.583658e+001 
3750000000  -3.504888e+001  -2.695815e+001 
3753125000  -3.482296e+001  -2.791545e+001 
3756250000  -3.474625e+001  -2.750821e+001 
3759375000  -3.452433e+001  -2.797923e+001 
3762500000  -3.408249e+001  -3.182062e+001 
3765625000  -3.454061e+001  -3.406804e+001 
3768750000  -3.462474e+001  -3.225225e+001 
3771875000  -3.275430e+001  -3.397348e+001 
3775000000  -3.237132e+001  -4.229750e+001 
3778125000  -3.281708e+001  -4.388020e+001 
3781250000  -3.254870e+001  -4.627707e+001 
3784375000  -3.264804e+001  -4.815667e+001 
3787500000  -3.197884e+001  -5.185395e+001 
3790625000  -3.255928e+001  -5.702630e+001 
3793750000  -3.260561e+001  -5.788988e+001 
3796875000  -3.174286e+001  -5.914787e+001 
3800000000  -3.014413e+001  -6.290951e+001 
3803125000  -3.080818e+001  -7.001253e+001 
3806250000  -3.146654e+001  -7.159718e+001 
3809375000  -3.120449e+001  -7.307652e+001 
3812500000  -3.052567e+001  -7.774715e+001 
3815625000  -3.114046e+001  -8.545245e+001 
3818750000  -3.214433e+001  -8.731286e+001 
3821875000  -3.221532e+001  -7.993003e+001 
3825000000  -3.028493e+001  -7.449946e+001 
3828125000  -2.887612e+001  -8.801004e+001 
3831250000  -2.940615e+001  -1.019128e+002 
3834375000  -3.075921e+001  -1.030809e+002 
3837500000  -3.164876e+001  -9.823189e+001 
3840625000  -3.053006e+001  -9.911552e+001 
3843750000  -2.945473e+001  -1.091311e+002 
3846875000  -3.010951e+001  -1.164121e+002 
3850000000  -3.127242e+001  -1.107675e+002 
3853125000  -3.057215e+001  -1.080263e+002 
3856250000  -3.042271e+001  -1.132181e+002 
3859375000  -2.986450e+001  -1.174225e+002 
3862500000  -2.941580e+001  -1.247783e+002 
3865625000  -2.964646e+001  -1.294578e+002 
3868750000  -2.977015e+001  -1.298212e+002 
3871875000  -2.899947e+001  -1.330849e+002 
3875000000  -2.918953e+001  -1.406800e+002 
3878125000  -3.013764e+001  -1.436446e+002 
3881250000  -3.019669e+001  -1.403961e+002 
3884375000  -2.975211e+001  -1.451724e+002 
3887500000  -2.977762e+001  -1.495905e+002 
3890625000  -3.032390e+001  -1.511608e+002 
3893750000  -3.079723e+001  -1.533439e+002 
3896875000  -3.086823e+001  -1.525124e+002 
3900000000  -3.119557e+001  -1.535406e+002 
3903125000  -3.084201e+001  -1.550773e+002 
3906250000  -3.051406e+001  -1.560566e+002 
3909375000  -2.974977e+001  -1.582127e+002 
3912500000  -2.982422e+001  -1.654005e+002 
3915625000  -3.097263e+001  -1.644107e+002 
3918750000  -3.108832e+001  -1.630212e+002 
3921875000  -3.068450e+001  -1.645967e+002 
3925000000  -2.997000e+001  -1.650797e+002 
3928125000  -2.917925e+001  -1.710150e+002 
3931250000  -2.960891e+001  -1.747358e+002 
3934375000  -2.977676e+001  -1.751357e+002 
3937500000  -2.996687e+001  -1.755882e+002 
3940625000  -3.042773e+001  -1.755605e+002 
3943750000  -2.944016e+001  -1.736930e+002 
3946875000  -2.821935e+001  -1.799296e+002 
3950000000  -2.868856e+001  1.726788e+002 
3953125000  -2.962940e+001  1.735804e+002 
3956250000  -2.882709e+001  1.759678e+002 
3959375000  -2.746553e+001  1.731109e+002 
3962500000  -2.690036e+001  1.687960e+002 
3965625000  -2.658584e+001  1.603353e+002 
3968750000  -2.750838e+001  1.534454e+002 
3971875000  -2.790792e+001  1.518419e+002 
3975000000  -2.721434e+001  1.498636e+002 
3978125000  -2.704226e+001  1.479142e+002 
3981250000  -2.674267e+001  1.442471e+002 
3984375000  -2.706037e+001  1.378473e+002 
3987500000  -2.758279e+001  1.357263e+002 
3990625000  -2.757835e+001  1.348785e+002 
3993750000  -2.785279e+001  1.314906e+002 
3996875000  -2.773588e+001  1.290101e+002 
4000000000  -2.779861e+001  1.273019e+002 
4003125000  -2.847482e+001  1.288873e+002 
4006250000  -2.710803e+001  1.299447e+002 
4009375000  -2.586112e+001  1.176117e+002 
4012500000  -2.693073e+001  1.107440e+002 
4015625000  -2.813487e+001  1.112154e+002 
4018750000  -2.843229e+001  1.134363e+002 
4021875000  -2.770609e+001  1.115781e+002 
4025000000  -2.725796e+001  1.070140e+002 
4028125000  -2.723655e+001  1.032708e+002 
4031250000  -2.775754e+001  1.001264e+002 
4034375000  -2.793615e+001  1.003828e+002 
4037500000  -2.745934e+001  1.020508e+002 
4040625000  -2.733577e+001  9.855216e+001 
4043750000  -2.766339e+001  9.826740e+001 
4046875000  -2.726112e+001  9.800854e+001 
4050000000  -2.671191e+001  9.211172e+001 
4053125000  -2.719515e+001  9.064088e+001 
4056250000  -2.772137e+001  9.393080e+001 
4059375000  -2.654354e+001  9.602723e+001 
4062500000  -2.519572e+001  9.133879e+001 
4065625000  -2.504008e+001  8.697688e+001 
4068750000  -2.474582e+001  8.208477e+001 
4071875000  -2.409977e+001  7.401495e+001 
4075000000  -2.442686e+001  6.777433e+001 
4078125000  -2.501962e+001  6.694045e+001 
4081250000  -2.452565e+001  6.476056e+001 
4084375000  -2.410139e+001  5.807099e+001 
4087500000  -2.441247e+001  5.150771e+001 
4090625000  -2.505691e+001  5.006197e+001 
4093750000  -2.485351e+001  5.097296e+001 
4096875000  -2.437591e+001  4.505687e+001 
4100000000  -2.512483e+001  3.828546e+001 
4103125000  -2.595641e+001  3.849960e+001 
4106250000  -2.590171e+001  4.350383e+001 
4109375000  -2.498210e+001  4.333751e+001 
4112500000  -2.447911e+001  3.631422e+001 
4115625000  -2.477440e+001  3.201919e+001 
4118750000  -2.486629e+001  2.935689e+001 
4121875000  -2.449690e+001  2.461626e+001 
4125000000  -2.480215e+001  1.953923e+001 
4128125000  -2.583965e+001  1.952516e+001 
4131250000  -2.561593e+001  2.777819e+001 
4134375000  -2.326386e+001  2.343409e+001 
4137500000  -2.310657e+001  4.808252e+000 
4140625000  -2.518739e+001  -2.622263e+000 
4143750000  -2.655887e+001  2.285463e+000 
4146875000  -2.610186e+001  9.549804e+000 
4150000000  -2.516968e+001  6.976140e+000 
4153125000  -2.503544e+001  4.655444e-001 
4156250000  -2.593086e+001  -2.399516e+000 
4159375000  -2.614270e+001  2.331006e+000 
4162500000  -2.503643e+001  6.107059e+000 
4165625000  -2.388750e+001  2.385305e+000 
4168750000  -2.330071e+001  -4.689671e+000 
4171875000  -2.322092e+001  -1.373503e+001 
4175000000  -2.380383e+001  -1.956141e+001 
4178125000  -2.446890e+001  -1.948466e+001 
4181250000  -2.427504e+001  -2.037862e+001 
4184375000  -2.414336e+001  -2.351616e+001 
4187500000  -2.417789e+001  -2.600237e+001 
4190625000  -2.396748e+001  -3.161217e+001 
4193750000  -2.476141e+001  -3.544616e+001 
4196875000  -2.542832e+001  -3.597082e+001 
4200000000  -2.633327e+001  -3.347710e+001 
4203125000  -2.638010e+001  -2.060383e+001 
4206250000  -2.302230e+001  -1.896699e+001 
4209375000  -2.183533e+001  -3.924848e+001 
4212500000  -2.370815e+001  -4.802095e+001 
4215625000  -2.475716e+001  -4.221112e+001 
4218750000  -2.341649e+001  -3.535655e+001 
4221875000  -2.107579e+001  -4.416787e+001 
4225000000  -2.229945e+001  -5.694885e+001 
4228125000  -2.303547e+001  -5.202501e+001 
4231250000  -2.151288e+001  -5.561774e+001 
4234375000  -2.140235e+001  -6.410638e+001 
4237500000  -2.097646e+001  -6.727287e+001 
4240625000  -2.102210e+001  -7.570464e+001 
4243750000  -2.200152e+001  -8.259324e+001 
4246875000  -2.290469e+001  -8.295774e+001 
4250000000  -2.291168e+001  -8.006285e+001 
4253125000  -2.233090e+001  -8.194495e+001 
4256250000  -2.263210e+001  -8.571925e+001 
4259375000  -2.238444e+001  -8.786340e+001 
4262500000  -2.235742e+001  -9.147915e+001 
4265625000  -2.256684e+001  -9.120416e+001 
4268750000  -2.172800e+001  -9.503748e+001 
4271875000  -2.145662e+001  -1.009356e+002 
4275000000  -2.082418e+001  -1.073438e+002 
4278125000  -2.140294e+001  -1.178862e+002 
4281250000  -2.319848e+001  -1.204081e+002 
4284375000  -2.290196e+001  -1.197066e+002 
4287500000  -2.361835e+001  -1.231339e+002 
4290625000  -2.495707e+001  -1.137434e+002 
4293750000  -2.294518e+001  -1.077762e+002 
4296875000  -2.162637e+001  -1.192902e+002 
4300000000  -2.245548e+001  -1.286889e+002 
4303125000  -2.355717e+001  -1.276410e+002 
4306250000  -2.298090e+001  -1.215707e+002 
4309375000  -2.155813e+001  -1.233984e+002 
4312500000  -2.140179e+001  -1.318115e+002 
4315625000  -2.163242e+001  -1.378540e+002 
4318750000  -2.191559e+001  -1.413318e+002 
4321875000  -2.212355e+001  -1.411610e+002 
4325000000  -2.158684e+001  -1.402049e+002 
4328125000  -2.104482e+001  -1.468345e+002 
4331250000  -2.100231e+001  -1.548800e+002 
4334375000  -2.140906e+001  -1.597046e+002 
4337500000  -2.221266e+001  -1.619111e+002 
4340625000  -2.276895e+001  -1.589402e+002 
4343750000  -2.221565e+001  -1.584949e+002 
4346875000  -2.179450e+001  -1.640325e+002 
4350000000  -2.180461e+001  -1.685020e+002 
4353125000  -2.185019e+001  -1.762623e+002 
4356250000  -2.354457e+001  -1.773730e+002 
4359375000  -2.421654e+001  -1.644473e+002 
4362500000  -2.159924e+001  -1.622154e+002 
4365625000  -1.996626e+001  -1.739481e+002 
4368750000  -2.065133e+001  1.741021e+002 
4371875000  -2.186699e+001  1.747446e+002 
4375000000  -2.153585e+001  1.758254e+002 
4378125000  -2.091419e+001  1.699947e+002 
4381250000  -2.104992e+001  1.643964e+002 
4384375000  -2.090350e+001  1.603147e+002 
4387500000  -2.158068e+001  1.545101e+002 
4390625000  -2.261441e+001  1.550678e+002 
4393750000  -2.200924e+001  1.574285e+002 
4396875000  -2.132955e+001  1.550618e+002 
4400000000  -2.079771e+001  1.479886e+002 
4403125000  -2.136939e+001  1.407409e+002 
4406250000  -2.222597e+001  1.392303e+002 
4409375000  -2.221052e+001  1.370844e+002 
4412500000  -2.320184e+001  1.342739e+002 
4415625000  -2.361983e+001  1.392193e+002 
4418750000  -2.240058e+001  1.438965e+002 
