!Agilent Technologies,E8363B,MY43030201,A.06.04.32
!Agilent E8363B: A.06.04.32
!Date: Tuesday, November 11, 2014 20:54:32
!Correction: S21(Response(S21)) 
!S1P File: Measurement: S21:
# Hz S  dB   R 50
3000000000  -2.662051e+001  1.508863e+002 
3003125000  -2.801702e+001  1.463885e+002 
3006250000  -2.809725e+001  1.438830e+002 
3009375000  -2.844476e+001  1.487912e+002 
3012500000  -2.788728e+001  1.479508e+002 
3015625000  -2.695719e+001  1.410471e+002 
3018750000  -2.784275e+001  1.401372e+002 
3021875000  -2.651858e+001  1.414394e+002 
3025000000  -2.525062e+001  1.383735e+002 
3028125000  -2.424672e+001  1.332154e+002 
3031250000  -2.323043e+001  1.222370e+002 
3034375000  -2.284482e+001  1.093190e+002 
3037500000  -2.326270e+001  9.740121e+001 
3040625000  -2.452479e+001  9.220798e+001 
3043750000  -2.523726e+001  8.769566e+001 
3046875000  -2.539853e+001  8.160558e+001 
3050000000  -2.707544e+001  7.466664e+001 
3053125000  -2.723676e+001  8.103459e+001 
3056250000  -2.655276e+001  8.395316e+001 
3059375000  -2.678839e+001  8.381119e+001 
3062500000  -2.528426e+001  7.972195e+001 
3065625000  -2.506401e+001  7.412489e+001 
3068750000  -2.478469e+001  6.730078e+001 
3071875000  -2.473417e+001  6.419628e+001 
3075000000  -2.472483e+001  6.036347e+001 
3078125000  -2.444553e+001  5.595008e+001 
3081250000  -2.508992e+001  5.170995e+001 
3084375000  -2.431729e+001  4.796112e+001 
3087500000  -2.420341e+001  4.434138e+001 
3090625000  -2.395106e+001  3.461982e+001 
3093750000  -2.437714e+001  2.668212e+001 
3096875000  -2.566319e+001  2.077555e+001 
3100000000  -2.576895e+001  1.954649e+001 
3103125000  -2.614478e+001  2.054259e+001 
3106250000  -2.584679e+001  1.744838e+001 
3109375000  -2.610682e+001  1.363642e+001 
3112500000  -2.621919e+001  1.240530e+001 
3115625000  -2.605698e+001  8.605522e+000 
3118750000  -2.652551e+001  9.811588e+000 
3121875000  -2.585013e+001  1.510751e+000 
3125000000  -2.703306e+001  -1.903281e+000 
3128125000  -2.822967e+001  6.198631e+000 
3131250000  -2.606600e+001  6.946513e+000 
3134375000  -2.469232e+001  -6.691908e+000 
3137500000  -2.535146e+001  -2.050768e+001 
3140625000  -2.692092e+001  -2.167143e+001 
3143750000  -2.798780e+001  -1.847298e+001 
3146875000  -2.754119e+001  -1.601701e+001 
3150000000  -2.653809e+001  -1.402909e+001 
3153125000  -2.651980e+001  -2.166009e+001 
3156250000  -2.746857e+001  -1.589682e+001 
3159375000  -2.591263e+001  -1.343336e+001 
3162500000  -2.387399e+001  -2.643786e+001 
3165625000  -2.480265e+001  -3.722029e+001 
3168750000  -2.522970e+001  -3.626183e+001 
3171875000  -2.425883e+001  -4.066135e+001 
3175000000  -2.490796e+001  -4.831445e+001 
3178125000  -2.467377e+001  -4.670051e+001 
3181250000  -2.353001e+001  -5.065437e+001 
3184375000  -2.272978e+001  -6.301180e+001 
3187500000  -2.380245e+001  -7.832440e+001 
3190625000  -2.660891e+001  -8.533971e+001 
3193750000  -2.717673e+001  -7.604479e+001 
3196875000  -2.675991e+001  -7.074413e+001 
3200000000  -2.589452e+001  -7.263334e+001 
3203125000  -2.503610e+001  -7.841795e+001 
3206250000  -2.535829e+001  -8.446613e+001 
3209375000  -2.490609e+001  -8.979670e+001 
3212500000  -2.501057e+001  -9.605504e+001 
3215625000  -2.511420e+001  -9.988902e+001 
3218750000  -2.588283e+001  -1.066104e+002 
3221875000  -2.684637e+001  -1.114632e+002 
3225000000  -2.646944e+001  -1.123014e+002 
3228125000  -2.678025e+001  -1.170666e+002 
3231250000  -2.753589e+001  -1.192335e+002 
3234375000  -2.737262e+001  -1.185092e+002 
3237500000  -2.738636e+001  -1.200227e+002 
3240625000  -2.702363e+001  -1.220145e+002 
3243750000  -2.669775e+001  -1.285620e+002 
3246875000  -2.720689e+001  -1.348214e+002 
3250000000  -2.767681e+001  -1.365312e+002 
3253125000  -2.779460e+001  -1.385980e+002 
3256250000  -2.762879e+001  -1.442300e+002 
3259375000  -2.797574e+001  -1.521171e+002 
3262500000  -2.922604e+001  -1.545039e+002 
3265625000  -2.993347e+001  -1.511775e+002 
3268750000  -2.985323e+001  -1.489285e+002 
3271875000  -2.960796e+001  -1.475847e+002 
3275000000  -2.846996e+001  -1.530368e+002 
3278125000  -2.901914e+001  -1.593016e+002 
3281250000  -2.924070e+001  -1.571769e+002 
3284375000  -2.881728e+001  -1.629405e+002 
3287500000  -2.898375e+001  -1.658567e+002 
3290625000  -2.935308e+001  -1.708461e+002 
3293750000  -2.905631e+001  -1.760415e+002 
3296875000  -3.013938e+001  -1.756744e+002 
3300000000  -3.000066e+001  -1.749672e+002 
3303125000  -2.884524e+001  -1.787275e+002 
3306250000  -2.860267e+001  1.747663e+002 
3309375000  -2.840458e+001  1.697283e+002 
3312500000  -2.843539e+001  1.590167e+002 
3315625000  -2.947005e+001  1.515340e+002 
3318750000  -3.081116e+001  1.487358e+002 
3321875000  -3.198421e+001  1.489936e+002 
3325000000  -3.267363e+001  1.537292e+002 
3328125000  -3.240619e+001  1.555135e+002 
3331250000  -3.106345e+001  1.631282e+002 
3334375000  -2.854922e+001  1.533656e+002 
3337500000  -2.868248e+001  1.349787e+002 
3340625000  -3.001168e+001  1.239382e+002 
3343750000  -3.197645e+001  1.230810e+002 
3346875000  -3.240272e+001  1.245660e+002 
3350000000  -3.177922e+001  1.234814e+002 
3353125000  -3.186901e+001  1.183550e+002 
3356250000  -3.160173e+001  1.111075e+002 
3359375000  -3.248222e+001  1.026482e+002 
3362500000  -3.380602e+001  9.729859e+001 
3365625000  -3.442019e+001  9.605744e+001 
3368750000  -3.523296e+001  9.365929e+001 
3371875000  -3.570987e+001  9.071116e+001 
3375000000  -3.726711e+001  8.921845e+001 
3378125000  -3.835769e+001  8.925096e+001 
3381250000  -3.990268e+001  9.536068e+001 
3384375000  -3.893701e+001  1.181074e+002 
3387500000  -3.581531e+001  1.034199e+002 
3390625000  -3.758382e+001  8.529239e+001 
3393750000  -3.945969e+001  8.798216e+001 
3396875000  -3.842204e+001  9.186747e+001 
3400000000  -3.856282e+001  8.405485e+001 
3403125000  -3.940326e+001  8.010278e+001 
3406250000  -4.013954e+001  8.294233e+001 
3409375000  -4.072944e+001  7.672687e+001 
3412500000  -4.148290e+001  7.870477e+001 
3415625000  -4.254109e+001  8.261197e+001 
3418750000  -4.272179e+001  8.523911e+001 
3421875000  -4.327316e+001  9.550911e+001 
3425000000  -4.228600e+001  9.610812e+001 
3428125000  -4.154790e+001  9.605428e+001 
3431250000  -4.141806e+001  9.188810e+001 
3434375000  -4.142960e+001  8.930441e+001 
3437500000  -4.172495e+001  8.746999e+001 
3440625000  -4.215243e+001  9.134903e+001 
3443750000  -4.073641e+001  9.213796e+001 
3446875000  -3.993411e+001  8.795908e+001 
3450000000  -3.984877e+001  7.795253e+001 
3453125000  -4.028689e+001  7.064939e+001 
3456250000  -4.140258e+001  6.522245e+001 
3459375000  -4.212921e+001  6.826955e+001 
3462500000  -4.225960e+001  6.708979e+001 
3465625000  -4.232533e+001  6.289899e+001 
3468750000  -4.293826e+001  6.179727e+001 
3471875000  -4.299184e+001  6.144780e+001 
3475000000  -4.299837e+001  5.889618e+001 
3478125000  -4.359936e+001  5.169493e+001 
3481250000  -4.497113e+001  5.034574e+001 
3484375000  -4.668776e+001  5.753357e+001 
3487500000  -4.556448e+001  5.921220e+001 
3490625000  -4.542801e+001  5.647493e+001 
3493750000  -4.632315e+001  5.278580e+001 
3496875000  -4.727087e+001  5.633966e+001 
3500000000  -4.839182e+001  6.398624e+001 
3503125000  -4.825185e+001  6.741730e+001 
3506250000  -4.695433e+001  7.090020e+001 
3509375000  -4.769526e+001  6.730678e+001 
3512500000  -4.796900e+001  6.683823e+001 
3515625000  -4.866593e+001  6.863010e+001 
3518750000  -4.893839e+001  7.478700e+001 
3521875000  -4.816958e+001  7.931306e+001 
3525000000  -4.864518e+001  7.843867e+001 
3528125000  -4.840539e+001  9.593851e+001 
3531250000  -4.598043e+001  9.646658e+001 
3534375000  -4.515035e+001  8.549483e+001 
3537500000  -4.578101e+001  8.284981e+001 
3540625000  -4.581481e+001  8.159058e+001 
3543750000  -4.622716e+001  8.670545e+001 
3546875000  -4.557014e+001  9.996598e+001 
3550000000  -4.332747e+001  9.863078e+001 
3553125000  -4.174216e+001  8.782581e+001 
3556250000  -4.266199e+001  7.907795e+001 
3559375000  -4.236522e+001  8.022633e+001 
3562500000  -4.108156e+001  7.371548e+001 
3565625000  -4.204479e+001  6.466911e+001 
3568750000  -4.186269e+001  6.945782e+001 
3571875000  -4.176963e+001  7.115260e+001 
3575000000  -4.124967e+001  6.618941e+001 
3578125000  -4.170009e+001  6.017966e+001 
3581250000  -4.161485e+001  6.232731e+001 
3584375000  -4.066907e+001  6.079766e+001 
3587500000  -3.997132e+001  5.603652e+001 
3590625000  -4.017273e+001  4.662625e+001 
3593750000  -4.137164e+001  4.522009e+001 
3596875000  -4.123628e+001  5.187924e+001 
3600000000  -3.948343e+001  5.052041e+001 
3603125000  -3.969077e+001  3.765322e+001 
3606250000  -4.042274e+001  3.487079e+001 
3609375000  -4.069302e+001  3.399356e+001 
3612500000  -4.140548e+001  3.290483e+001 
3615625000  -4.132788e+001  2.897009e+001 
3618750000  -4.164075e+001  3.198271e+001 
3621875000  -4.132259e+001  3.002373e+001 
3625000000  -4.165317e+001  3.205727e+001 
3628125000  -4.134340e+001  2.929637e+001 
3631250000  -4.136462e+001  2.486588e+001 
3634375000  -4.212463e+001  2.739404e+001 
3637500000  -4.192110e+001  3.015559e+001 
3640625000  -4.092376e+001  3.114540e+001 
3643750000  -4.028143e+001  2.766996e+001 
3646875000  -4.113377e+001  2.045570e+001 
3650000000  -4.118543e+001  2.074891e+001 
3653125000  -4.121511e+001  2.088339e+001 
3656250000  -4.141700e+001  2.045893e+001 
3659375000  -4.150285e+001  2.342319e+001 
3662500000  -4.123656e+001  2.166892e+001 
3665625000  -4.111238e+001  2.220195e+001 
3668750000  -3.999616e+001  2.464472e+001 
3671875000  -3.898244e+001  1.892612e+001 
3675000000  -3.943567e+001  1.446978e+001 
3678125000  -3.997681e+001  1.456213e+001 
3681250000  -3.962566e+001  1.448363e+001 
3684375000  -3.949129e+001  1.301628e+001 
3687500000  -3.966491e+001  1.093176e+001 
3690625000  -3.940033e+001  9.240596e+000 
3693750000  -3.991175e+001  1.184213e+001 
3696875000  -3.968698e+001  1.585875e+001 
3700000000  -3.861374e+001  1.170600e+001 
3703125000  -3.869091e+001  1.031280e+001 
3706250000  -3.921993e+001  1.054299e+001 
3709375000  -3.846929e+001  1.351167e+001 
3712500000  -3.739936e+001  1.414954e+001 
3715625000  -3.612074e+001  8.351536e+000 
3718750000  -3.539866e+001  5.709698e+000 
3721875000  -3.498315e+001  3.851362e-001 
3725000000  -3.496511e+001  -4.486225e+000 
3728125000  -3.510141e+001  -5.653095e+000 
3731250000  -3.454071e+001  -7.172786e+000 
3734375000  -3.351290e+001  -1.202345e+001 
3737500000  -3.403431e+001  -1.987767e+001 
3740625000  -3.471266e+001  -2.211100e+001 
3743750000  -3.437321e+001  -2.507887e+001 
3746875000  -3.428981e+001  -2.797858e+001 
3750000000  -3.463406e+001  -2.880318e+001 
3753125000  -3.428491e+001  -2.966336e+001 
3756250000  -3.418357e+001  -3.037317e+001 
3759375000  -3.405036e+001  -3.083425e+001 
3762500000  -3.341118e+001  -3.525098e+001 
3765625000  -3.391142e+001  -3.799035e+001 
3768750000  -3.401153e+001  -3.514704e+001 
3771875000  -3.229892e+001  -3.801592e+001 
3775000000  -3.211749e+001  -4.564877e+001 
3778125000  -3.246859e+001  -4.677576e+001 
3781250000  -3.215908e+001  -5.009772e+001 
3784375000  -3.214548e+001  -5.159937e+001 
3787500000  -3.150473e+001  -5.524800e+001 
3790625000  -3.208986e+001  -6.130989e+001 
3793750000  -3.221458e+001  -6.196645e+001 
3796875000  -3.133508e+001  -6.280843e+001 
3800000000  -2.976284e+001  -6.679784e+001 
3803125000  -3.047533e+001  -7.354566e+001 
3806250000  -3.117359e+001  -7.568478e+001 
3809375000  -3.090083e+001  -7.687674e+001 
3812500000  -3.024322e+001  -8.225370e+001 
3815625000  -3.086823e+001  -8.886419e+001 
3818750000  -3.203111e+001  -9.026644e+001 
3821875000  -3.190871e+001  -8.124099e+001 
3825000000  -2.987667e+001  -7.726979e+001 
3828125000  -2.859193e+001  -9.136423e+001 
3831250000  -2.903979e+001  -1.053103e+002 
3834375000  -3.045778e+001  -1.066361e+002 
3837500000  -3.134370e+001  -1.012912e+002 
3840625000  -3.032374e+001  -1.021942e+002 
3843750000  -2.903131e+001  -1.120906e+002 
3846875000  -2.973234e+001  -1.194490e+002 
3850000000  -3.100825e+001  -1.141822e+002 
3853125000  -3.020822e+001  -1.112348e+002 
3856250000  -3.025350e+001  -1.157041e+002 
3859375000  -2.946257e+001  -1.205228e+002 
3862500000  -2.901373e+001  -1.277089e+002 
3865625000  -2.928142e+001  -1.325511e+002 
3868750000  -2.934002e+001  -1.327849e+002 
3871875000  -2.862188e+001  -1.352383e+002 
3875000000  -2.869593e+001  -1.441615e+002 
3878125000  -2.967443e+001  -1.463617e+002 
3881250000  -2.983062e+001  -1.437572e+002 
3884375000  -2.924030e+001  -1.483041e+002 
3887500000  -2.932474e+001  -1.525163e+002 
3890625000  -2.987729e+001  -1.547086e+002 
3893750000  -3.037067e+001  -1.562491e+002 
3896875000  -3.046170e+001  -1.559014e+002 
3900000000  -3.073186e+001  -1.563492e+002 
3903125000  -3.030882e+001  -1.586274e+002 
3906250000  -3.003440e+001  -1.592650e+002 
3909375000  -2.930527e+001  -1.615348e+002 
3912500000  -2.936681e+001  -1.694496e+002 
3915625000  -3.059129e+001  -1.692471e+002 
3918750000  -3.066097e+001  -1.669091e+002 
3921875000  -3.028362e+001  -1.675931e+002 
3925000000  -2.938864e+001  -1.687700e+002 
3928125000  -2.877746e+001  -1.748187e+002 
3931250000  -2.917802e+001  -1.789167e+002 
3934375000  -2.938858e+001  -1.785192e+002 
3937500000  -2.953571e+001  -1.792613e+002 
3940625000  -2.999544e+001  -1.789261e+002 
3943750000  -2.911299e+001  -1.772847e+002 
3946875000  -2.775571e+001  1.770933e+002 
3950000000  -2.839750e+001  1.694354e+002 
3953125000  -2.921540e+001  1.711762e+002 
3956250000  -2.836296e+001  1.734435e+002 
3959375000  -2.696537e+001  1.698917e+002 
3962500000  -2.648723e+001  1.654580e+002 
3965625000  -2.614652e+001  1.569813e+002 
3968750000  -2.694003e+001  1.502037e+002 
3971875000  -2.735696e+001  1.480477e+002 
3975000000  -2.676603e+001  1.470141e+002 
3978125000  -2.658127e+001  1.455942e+002 
3981250000  -2.641295e+001  1.412151e+002 
3984375000  -2.649254e+001  1.349539e+002 
3987500000  -2.701226e+001  1.325481e+002 
3990625000  -2.704082e+001  1.316433e+002 
3993750000  -2.725047e+001  1.280773e+002 
3996875000  -2.720710e+001  1.260261e+002 
4000000000  -2.732349e+001  1.234601e+002 
4003125000  -2.792172e+001  1.263733e+002 
4006250000  -2.653935e+001  1.268204e+002 
4009375000  -2.523318e+001  1.148053e+002 
4012500000  -2.626308e+001  1.074163e+002 
4015625000  -2.745444e+001  1.074341e+002 
4018750000  -2.775462e+001  1.098327e+002 
4021875000  -2.708047e+001  1.082362e+002 
4025000000  -2.664576e+001  1.032208e+002 
4028125000  -2.666170e+001  9.942141e+001 
4031250000  -2.700156e+001  9.618498e+001 
4034375000  -2.729672e+001  9.573025e+001 
4037500000  -2.686926e+001  9.733643e+001 
4040625000  -2.675519e+001  9.403806e+001 
4043750000  -2.714344e+001  9.393417e+001 
4046875000  -2.660661e+001  9.363426e+001 
4050000000  -2.612773e+001  8.806816e+001 
4053125000  -2.658151e+001  8.562816e+001 
4056250000  -2.722449e+001  8.960722e+001 
4059375000  -2.611672e+001  9.147198e+001 
4062500000  -2.467901e+001  8.711404e+001 
4065625000  -2.455749e+001  8.347231e+001 
4068750000  -2.420314e+001  7.910121e+001 
4071875000  -2.352806e+001  7.090199e+001 
4075000000  -2.384649e+001  6.434372e+001 
4078125000  -2.439210e+001  6.289886e+001 
4081250000  -2.389578e+001  6.067524e+001 
4084375000  -2.350123e+001  5.378653e+001 
4087500000  -2.382564e+001  4.774768e+001 
4090625000  -2.439515e+001  4.614054e+001 
4093750000  -2.424002e+001  4.728943e+001 
4096875000  -2.380358e+001  4.146643e+001 
4100000000  -2.447633e+001  3.429140e+001 
4103125000  -2.538366e+001  3.502497e+001 
4106250000  -2.511299e+001  3.985137e+001 
4109375000  -2.429140e+001  3.897845e+001 
4112500000  -2.373705e+001  3.229584e+001 
4115625000  -2.401483e+001  2.801004e+001 
4118750000  -2.411917e+001  2.482190e+001 
4121875000  -2.381944e+001  2.019335e+001 
4125000000  -2.417647e+001  1.539534e+001 
4128125000  -2.522190e+001  1.588531e+001 
4131250000  -2.476985e+001  2.370802e+001 
4134375000  -2.240898e+001  1.945525e+001 
4137500000  -2.223544e+001  -1.961147e-001 
4140625000  -2.435487e+001  -7.036105e+000 
4143750000  -2.578413e+001  -2.034181e+000 
4146875000  -2.526099e+001  5.031651e+000 
4150000000  -2.439565e+001  2.116971e+000 
4153125000  -2.415766e+001  -4.875465e+000 
4156250000  -2.508574e+001  -7.408440e+000 
4159375000  -2.543780e+001  -3.058470e+000 
4162500000  -2.429220e+001  1.356615e+000 
4165625000  -2.315573e+001  -2.406829e+000 
4168750000  -2.251565e+001  -9.813450e+000 
4171875000  -2.241084e+001  -1.895734e+001 
4175000000  -2.300061e+001  -2.507960e+001 
4178125000  -2.360611e+001  -2.517502e+001 
4181250000  -2.352335e+001  -2.563287e+001 
4184375000  -2.337845e+001  -2.907788e+001 
4187500000  -2.347426e+001  -3.184840e+001 
4190625000  -2.328653e+001  -3.748444e+001 
4193750000  -2.403993e+001  -4.121241e+001 
4196875000  -2.483313e+001  -4.146045e+001 
4200000000  -2.556648e+001  -3.861673e+001 
4203125000  -2.563805e+001  -2.570664e+001 
4206250000  -2.231707e+001  -2.402918e+001 
4209375000  -2.111079e+001  -4.469825e+001 
4212500000  -2.308005e+001  -5.335353e+001 
4215625000  -2.398781e+001  -4.654336e+001 
4218750000  -2.254483e+001  -4.009061e+001 
4221875000  -2.025913e+001  -4.957927e+001 
4225000000  -2.143527e+001  -6.285509e+001 
4228125000  -2.220216e+001  -5.813597e+001 
4231250000  -2.073106e+001  -6.161010e+001 
4234375000  -2.055987e+001  -6.973811e+001 
4237500000  -2.021155e+001  -7.340918e+001 
4240625000  -2.026668e+001  -8.198817e+001 
4243750000  -2.124920e+001  -8.810983e+001 
4246875000  -2.209180e+001  -8.806733e+001 
4250000000  -2.208750e+001  -8.566149e+001 
4253125000  -2.146927e+001  -8.753878e+001 
4256250000  -2.171745e+001  -9.187517e+001 
4259375000  -2.149223e+001  -9.411725e+001 
4262500000  -2.152120e+001  -9.799577e+001 
4265625000  -2.167019e+001  -9.752990e+001 
4268750000  -2.087495e+001  -1.014352e+002 
4271875000  -2.054009e+001  -1.069969e+002 
4275000000  -1.991466e+001  -1.135329e+002 
4278125000  -2.047532e+001  -1.250234e+002 
4281250000  -2.222294e+001  -1.277055e+002 
4284375000  -2.207979e+001  -1.271187e+002 
4287500000  -2.292287e+001  -1.306489e+002 
4290625000  -2.423129e+001  -1.208806e+002 
4293750000  -2.220923e+001  -1.147872e+002 
4296875000  -2.087388e+001  -1.262474e+002 
4300000000  -2.173069e+001  -1.354283e+002 
4303125000  -2.276905e+001  -1.341590e+002 
4306250000  -2.208739e+001  -1.285937e+002 
4309375000  -2.070354e+001  -1.313484e+002 
4312500000  -2.065232e+001  -1.397041e+002 
4315625000  -2.096823e+001  -1.456919e+002 
4318750000  -2.129686e+001  -1.488848e+002 
4321875000  -2.142056e+001  -1.483416e+002 
4325000000  -2.081752e+001  -1.479829e+002 
4328125000  -2.032279e+001  -1.545132e+002 
4331250000  -2.033384e+001  -1.623566e+002 
4334375000  -2.078733e+001  -1.674035e+002 
4337500000  -2.155076e+001  -1.694985e+002 
4340625000  -2.204914e+001  -1.664011e+002 
4343750000  -2.149456e+001  -1.659483e+002 
4346875000  -2.108776e+001  -1.709052e+002 
4350000000  -2.102757e+001  -1.757314e+002 
4353125000  -2.108239e+001  1.760901e+002 
4356250000  -2.274415e+001  1.745105e+002 
4359375000  -2.343721e+001  -1.719866e+002 
4362500000  -2.088296e+001  -1.698429e+002 
4365625000  -1.926792e+001  1.786210e+002 
4368750000  -1.995281e+001  1.667851e+002 
4371875000  -2.105487e+001  1.671519e+002 
4375000000  -2.079449e+001  1.683195e+002 
4378125000  -2.016069e+001  1.625549e+002 
4381250000  -2.030134e+001  1.572222e+002 
4384375000  -2.009728e+001  1.524562e+002 
4387500000  -2.073517e+001  1.463003e+002 
4390625000  -2.179226e+001  1.468348e+002 
4393750000  -2.121111e+001  1.490788e+002 
4396875000  -2.057070e+001  1.470934e+002 
4400000000  -2.007789e+001  1.402820e+002 
4403125000  -2.057998e+001  1.325281e+002 
4406250000  -2.142694e+001  1.311902e+002 
4409375000  -2.141060e+001  1.286859e+002 
4412500000  -2.233103e+001  1.254138e+002 
4415625000  -2.280265e+001  1.303680e+002 
4418750000  -2.172214e+001  1.353079e+002 
