!Agilent Technologies,E8363B,MY43030201,A.06.04.32
!Agilent E8363B: A.06.04.32
!Date: Tuesday, November 11, 2014 20:55:51
!Correction: S21(Response(S21)) 
!S1P File: Measurement: S21:
# Hz S  dB   R 50
3000000000  -2.641246e+001  1.468570e+002 
3003125000  -2.786494e+001  1.421293e+002 
3006250000  -2.788888e+001  1.396017e+002 
3009375000  -2.823789e+001  1.444449e+002 
3012500000  -2.772216e+001  1.439076e+002 
3015625000  -2.676837e+001  1.367944e+002 
3018750000  -2.758121e+001  1.365001e+002 
3021875000  -2.630396e+001  1.377093e+002 
3025000000  -2.500535e+001  1.345435e+002 
3028125000  -2.405723e+001  1.292867e+002 
3031250000  -2.304124e+001  1.181671e+002 
3034375000  -2.267548e+001  1.049769e+002 
3037500000  -2.302803e+001  9.333306e+001 
3040625000  -2.440691e+001  8.821159e+001 
3043750000  -2.507864e+001  8.356590e+001 
3046875000  -2.520846e+001  7.773037e+001 
3050000000  -2.699844e+001  7.088481e+001 
3053125000  -2.707108e+001  7.753493e+001 
3056250000  -2.644419e+001  8.032283e+001 
3059375000  -2.664239e+001  7.959190e+001 
3062500000  -2.517665e+001  7.597141e+001 
3065625000  -2.493453e+001  7.018227e+001 
3068750000  -2.463930e+001  6.340877e+001 
3071875000  -2.457976e+001  6.049456e+001 
3075000000  -2.457965e+001  5.645016e+001 
3078125000  -2.431753e+001  5.203935e+001 
3081250000  -2.497384e+001  4.781880e+001 
3084375000  -2.420573e+001  4.416770e+001 
3087500000  -2.411415e+001  4.048009e+001 
3090625000  -2.380393e+001  3.068374e+001 
3093750000  -2.431494e+001  2.289615e+001 
3096875000  -2.557999e+001  1.708543e+001 
3100000000  -2.570526e+001  1.573460e+001 
3103125000  -2.610958e+001  1.677584e+001 
3106250000  -2.580561e+001  1.340517e+001 
3109375000  -2.604682e+001  1.003123e+001 
3112500000  -2.618580e+001  8.909082e+000 
3115625000  -2.598764e+001  4.906194e+000 
3118750000  -2.648373e+001  6.185445e+000 
3121875000  -2.578725e+001  -1.931806e+000 
3125000000  -2.702377e+001  -5.419435e+000 
3128125000  -2.818697e+001  3.237885e+000 
3131250000  -2.593917e+001  3.383947e+000 
3134375000  -2.465619e+001  -1.065872e+001 
3137500000  -2.528186e+001  -2.408269e+001 
3140625000  -2.695898e+001  -2.545665e+001 
3143750000  -2.797696e+001  -2.172769e+001 
3146875000  -2.754274e+001  -1.956272e+001 
3150000000  -2.651490e+001  -1.720902e+001 
3153125000  -2.653043e+001  -2.525723e+001 
3156250000  -2.752504e+001  -1.958778e+001 
3159375000  -2.586796e+001  -1.691307e+001 
3162500000  -2.386633e+001  -2.962421e+001 
3165625000  -2.484563e+001  -4.057333e+001 
3168750000  -2.520755e+001  -3.947693e+001 
3171875000  -2.423695e+001  -4.394429e+001 
3175000000  -2.491114e+001  -5.189574e+001 
3178125000  -2.470016e+001  -4.991718e+001 
3181250000  -2.351552e+001  -5.430143e+001 
3184375000  -2.277944e+001  -6.644988e+001 
3187500000  -2.385708e+001  -8.151700e+001 
3190625000  -2.669174e+001  -8.883382e+001 
3193750000  -2.724148e+001  -7.920968e+001 
3196875000  -2.682749e+001  -7.371893e+001 
3200000000  -2.590104e+001  -7.583273e+001 
3203125000  -2.510100e+001  -8.168300e+001 
3206250000  -2.539111e+001  -8.773480e+001 
3209375000  -2.488973e+001  -9.295261e+001 
3212500000  -2.506878e+001  -9.958400e+001 
3215625000  -2.523187e+001  -1.035625e+002 
3218750000  -2.598154e+001  -1.101957e+002 
3221875000  -2.689922e+001  -1.150537e+002 
3225000000  -2.652486e+001  -1.156056e+002 
3228125000  -2.687681e+001  -1.202636e+002 
3231250000  -2.764717e+001  -1.225829e+002 
3234375000  -2.748067e+001  -1.219312e+002 
3237500000  -2.753266e+001  -1.232983e+002 
3240625000  -2.713349e+001  -1.255081e+002 
3243750000  -2.682810e+001  -1.317114e+002 
3246875000  -2.734229e+001  -1.383372e+002 
3250000000  -2.782046e+001  -1.399548e+002 
3253125000  -2.799356e+001  -1.417827e+002 
3256250000  -2.783437e+001  -1.478847e+002 
3259375000  -2.814407e+001  -1.557254e+002 
3262500000  -2.944834e+001  -1.580397e+002 
3265625000  -3.009141e+001  -1.545403e+002 
3268750000  -3.001925e+001  -1.519241e+002 
3271875000  -2.978714e+001  -1.516022e+002 
3275000000  -2.871257e+001  -1.563489e+002 
3278125000  -2.918765e+001  -1.626264e+002 
3281250000  -2.946316e+001  -1.606038e+002 
3284375000  -2.903339e+001  -1.659110e+002 
3287500000  -2.917494e+001  -1.689143e+002 
3290625000  -2.956069e+001  -1.736885e+002 
3293750000  -2.933773e+001  -1.789972e+002 
3296875000  -3.033149e+001  -1.786076e+002 
3300000000  -3.021214e+001  -1.778280e+002 
3303125000  -2.908104e+001  1.783238e+002 
3306250000  -2.883566e+001  1.716350e+002 
3309375000  -2.861442e+001  1.664737e+002 
3312500000  -2.865517e+001  1.560730e+002 
3315625000  -2.967310e+001  1.481988e+002 
3318750000  -3.107763e+001  1.463920e+002 
3321875000  -3.221606e+001  1.461007e+002 
3325000000  -3.281006e+001  1.504288e+002 
3328125000  -3.256049e+001  1.520967e+002 
3331250000  -3.149561e+001  1.599773e+002 
3334375000  -2.879853e+001  1.502074e+002 
3337500000  -2.891434e+001  1.314864e+002 
3340625000  -3.032856e+001  1.206822e+002 
3343750000  -3.238108e+001  1.193689e+002 
3346875000  -3.276618e+001  1.207239e+002 
3350000000  -3.218216e+001  1.194136e+002 
3353125000  -3.227773e+001  1.149377e+002 
3356250000  -3.195788e+001  1.074989e+002 
3359375000  -3.292613e+001  9.930225e+001 
3362500000  -3.415202e+001  9.383951e+001 
3365625000  -3.489067e+001  9.202458e+001 
3368750000  -3.582410e+001  9.065597e+001 
3371875000  -3.618535e+001  8.687132e+001 
3375000000  -3.791842e+001  8.474950e+001 
3378125000  -3.883609e+001  8.480956e+001 
3381250000  -4.041991e+001  9.297631e+001 
3384375000  -3.971335e+001  1.139813e+002 
3387500000  -3.652401e+001  1.004886e+002 
3390625000  -3.847925e+001  8.136953e+001 
3393750000  -4.014815e+001  8.605954e+001 
3396875000  -3.929768e+001  8.908932e+001 
3400000000  -3.942532e+001  8.210809e+001 
3403125000  -4.041846e+001  7.868473e+001 
3406250000  -4.153317e+001  8.212730e+001 
3409375000  -4.184298e+001  7.689938e+001 
3412500000  -4.284557e+001  7.942066e+001 
3415625000  -4.377384e+001  8.355977e+001 
3418750000  -4.386475e+001  8.846007e+001 
3421875000  -4.418476e+001  9.686271e+001 
3425000000  -4.304409e+001  1.003459e+002 
3428125000  -4.223191e+001  9.904941e+001 
3431250000  -4.221826e+001  9.810455e+001 
3434375000  -4.183011e+001  9.144788e+001 
3437500000  -4.200543e+001  9.072391e+001 
3440625000  -4.237888e+001  9.470994e+001 
3443750000  -4.112830e+001  9.678302e+001 
3446875000  -4.032118e+001  9.007534e+001 
3450000000  -4.005500e+001  8.305529e+001 
3453125000  -4.045555e+001  7.441464e+001 
3456250000  -4.158901e+001  6.740237e+001 
3459375000  -4.282800e+001  7.005357e+001 
3462500000  -4.252817e+001  7.081255e+001 
3465625000  -4.250928e+001  6.708900e+001 
3468750000  -4.278155e+001  6.420222e+001 
3471875000  -4.330367e+001  6.510558e+001 
3475000000  -4.304623e+001  6.054070e+001 
3478125000  -4.375895e+001  5.519003e+001 
3481250000  -4.481142e+001  5.548487e+001 
3484375000  -4.642662e+001  6.167659e+001 
3487500000  -4.584544e+001  6.281657e+001 
3490625000  -4.541587e+001  6.190377e+001 
3493750000  -4.582898e+001  5.782894e+001 
3496875000  -4.697109e+001  6.100232e+001 
3500000000  -4.868257e+001  6.667509e+001 
3503125000  -4.793335e+001  7.364461e+001 
3506250000  -4.649103e+001  7.343813e+001 
3509375000  -4.655127e+001  6.908784e+001 
3512500000  -4.673242e+001  7.193136e+001 
3515625000  -4.702880e+001  7.503452e+001 
3518750000  -4.763523e+001  7.865337e+001 
3521875000  -4.727515e+001  8.143621e+001 
3525000000  -4.757900e+001  8.081380e+001 
3528125000  -4.691761e+001  9.395734e+001 
3531250000  -4.515727e+001  9.246162e+001 
3534375000  -4.411728e+001  8.441906e+001 
3537500000  -4.468834e+001  8.158778e+001 
3540625000  -4.500610e+001  8.225767e+001 
3543750000  -4.515985e+001  8.288824e+001 
3546875000  -4.474937e+001  9.578242e+001 
3550000000  -4.218171e+001  9.840448e+001 
3553125000  -4.102082e+001  8.361974e+001 
3556250000  -4.185649e+001  7.589238e+001 
3559375000  -4.146460e+001  7.658826e+001 
3562500000  -4.040544e+001  7.001938e+001 
3565625000  -4.101236e+001  6.428070e+001 
3568750000  -4.105441e+001  6.664695e+001 
3571875000  -4.105942e+001  6.551816e+001 
3575000000  -4.048052e+001  6.123955e+001 
3578125000  -4.084454e+001  5.603353e+001 
3581250000  -4.095472e+001  5.810241e+001 
3584375000  -4.009756e+001  5.620741e+001 
3587500000  -3.958455e+001  4.889199e+001 
3590625000  -3.969441e+001  4.108504e+001 
3593750000  -4.111504e+001  4.054403e+001 
3596875000  -4.092651e+001  4.590115e+001 
3600000000  -3.935576e+001  4.422982e+001 
3603125000  -3.962805e+001  3.092838e+001 
3606250000  -4.031266e+001  2.721557e+001 
3609375000  -4.064071e+001  2.794947e+001 
3612500000  -4.102303e+001  2.567632e+001 
3615625000  -4.126771e+001  2.337997e+001 
3618750000  -4.191517e+001  2.531158e+001 
3621875000  -4.142826e+001  2.451982e+001 
3625000000  -4.179053e+001  2.409945e+001 
3628125000  -4.175437e+001  2.554569e+001 
3631250000  -4.127906e+001  2.025280e+001 
3634375000  -4.219655e+001  2.177602e+001 
3637500000  -4.209298e+001  2.742793e+001 
3640625000  -4.095552e+001  2.794473e+001 
3643750000  -4.078646e+001  2.300706e+001 
3646875000  -4.089864e+001  1.698158e+001 
3650000000  -4.172069e+001  1.746736e+001 
3653125000  -4.129024e+001  1.678542e+001 
3656250000  -4.165117e+001  1.546474e+001 
3659375000  -4.186362e+001  1.964511e+001 
3662500000  -4.122691e+001  1.958506e+001 
3665625000  -4.106447e+001  1.929299e+001 
3668750000  -3.995555e+001  2.145674e+001 
3671875000  -3.900915e+001  1.650441e+001 
3675000000  -3.968080e+001  8.963067e+000 
3678125000  -4.007452e+001  1.171984e+001 
3681250000  -3.953554e+001  1.103995e+001 
3684375000  -3.930896e+001  9.833795e+000 
3687500000  -3.951957e+001  6.984896e+000 
3690625000  -3.954229e+001  6.107812e+000 
3693750000  -4.018161e+001  6.996851e+000 
3696875000  -3.987318e+001  1.109751e+001 
3700000000  -3.866003e+001  7.843016e+000 
3703125000  -3.875102e+001  5.561365e+000 
3706250000  -3.920193e+001  6.669483e+000 
3709375000  -3.850011e+001  9.432878e+000 
3712500000  -3.735521e+001  9.278537e+000 
3715625000  -3.608607e+001  4.477612e+000 
3718750000  -3.560891e+001  7.299418e-001 
3721875000  -3.517822e+001  -4.519827e+000 
3725000000  -3.523635e+001  -8.320987e+000 
3728125000  -3.540807e+001  -9.636365e+000 
3731250000  -3.471839e+001  -1.072379e+001 
3734375000  -3.375810e+001  -1.591812e+001 
3737500000  -3.435862e+001  -2.275123e+001 
3740625000  -3.494794e+001  -2.560791e+001 
3743750000  -3.474768e+001  -2.860759e+001 
3746875000  -3.467967e+001  -3.104330e+001 
3750000000  -3.500546e+001  -3.174853e+001 
3753125000  -3.471120e+001  -3.174279e+001 
3756250000  -3.457242e+001  -3.320695e+001 
3759375000  -3.437599e+001  -3.399137e+001 
3762500000  -3.380669e+001  -3.741550e+001 
3765625000  -3.421340e+001  -3.952193e+001 
3768750000  -3.435046e+001  -3.702308e+001 
3771875000  -3.248190e+001  -4.004736e+001 
3775000000  -3.234066e+001  -4.745931e+001 
3778125000  -3.257402e+001  -4.982174e+001 
3781250000  -3.243120e+001  -5.216179e+001 
3784375000  -3.238372e+001  -5.310210e+001 
3787500000  -3.169214e+001  -5.803770e+001 
3790625000  -3.224121e+001  -6.345513e+001 
3793750000  -3.234137e+001  -6.387030e+001 
3796875000  -3.138602e+001  -6.608307e+001 
3800000000  -2.971784e+001  -6.928430e+001 
3803125000  -3.067101e+001  -7.585477e+001 
3806250000  -3.124566e+001  -7.904420e+001 
3809375000  -3.100033e+001  -7.981479e+001 
3812500000  -3.030854e+001  -8.445831e+001 
3815625000  -3.091067e+001  -9.229002e+001 
3818750000  -3.204537e+001  -9.399816e+001 
3821875000  -3.195066e+001  -8.554443e+001 
3825000000  -2.998088e+001  -8.113541e+001 
3828125000  -2.869980e+001  -9.488698e+001 
3831250000  -2.913768e+001  -1.085974e+002 
3834375000  -3.068238e+001  -1.102518e+002 
3837500000  -3.151493e+001  -1.050300e+002 
3840625000  -3.040829e+001  -1.062988e+002 
3843750000  -2.912295e+001  -1.163049e+002 
3846875000  -2.997666e+001  -1.227769e+002 
3850000000  -3.127207e+001  -1.173278e+002 
3853125000  -3.042970e+001  -1.150693e+002 
3856250000  -3.037219e+001  -1.197205e+002 
3859375000  -2.966358e+001  -1.243525e+002 
3862500000  -2.931657e+001  -1.314648e+002 
3865625000  -2.957135e+001  -1.355278e+002 
3868750000  -2.955423e+001  -1.358933e+002 
3871875000  -2.885491e+001  -1.388707e+002 
3875000000  -2.900914e+001  -1.476163e+002 
3878125000  -3.005122e+001  -1.498328e+002 
3881250000  -3.013604e+001  -1.470219e+002 
3884375000  -2.960122e+001  -1.514408e+002 
3887500000  -2.970427e+001  -1.555270e+002 
3890625000  -3.030517e+001  -1.581111e+002 
3893750000  -3.065343e+001  -1.593190e+002 
3896875000  -3.077469e+001  -1.581948e+002 
3900000000  -3.095600e+001  -1.595188e+002 
3903125000  -3.057634e+001  -1.616388e+002 
3906250000  -3.033284e+001  -1.623095e+002 
3909375000  -2.957746e+001  -1.647778e+002 
3912500000  -2.964189e+001  -1.722569e+002 
3915625000  -3.080842e+001  -1.718575e+002 
3918750000  -3.080643e+001  -1.701102e+002 
3921875000  -3.050070e+001  -1.718549e+002 
3925000000  -2.963121e+001  -1.724893e+002 
3928125000  -2.892955e+001  -1.782542e+002 
3931250000  -2.932689e+001  1.775958e+002 
3934375000  -2.968255e+001  1.781222e+002 
3937500000  -2.979011e+001  1.770913e+002 
3940625000  -3.020074e+001  1.772843e+002 
3943750000  -2.936962e+001  1.782286e+002 
3946875000  -2.803241e+001  1.726444e+002 
3950000000  -2.855599e+001  1.655269e+002 
3953125000  -2.955403e+001  1.659765e+002 
3956250000  -2.867688e+001  1.687124e+002 
3959375000  -2.729745e+001  1.655749e+002 
3962500000  -2.688618e+001  1.610119e+002 
3965625000  -2.655302e+001  1.522403e+002 
3968750000  -2.745617e+001  1.456776e+002 
3971875000  -2.782136e+001  1.443255e+002 
3975000000  -2.718071e+001  1.423364e+002 
3978125000  -2.705594e+001  1.409985e+002 
3981250000  -2.682064e+001  1.363042e+002 
3984375000  -2.706523e+001  1.303703e+002 
3987500000  -2.761165e+001  1.280273e+002 
3990625000  -2.763436e+001  1.273187e+002 
3993750000  -2.783450e+001  1.243514e+002 
3996875000  -2.773488e+001  1.221629e+002 
4000000000  -2.794200e+001  1.203839e+002 
4003125000  -2.849582e+001  1.228858e+002 
4006250000  -2.706551e+001  1.230296e+002 
4009375000  -2.586052e+001  1.106881e+002 
4012500000  -2.697688e+001  1.034047e+002 
4015625000  -2.823271e+001  1.044481e+002 
4018750000  -2.829782e+001  1.068639e+002 
4021875000  -2.764666e+001  1.051346e+002 
4025000000  -2.733558e+001  1.006440e+002 
4028125000  -2.713885e+001  9.672358e+001 
4031250000  -2.765567e+001  9.307409e+001 
4034375000  -2.790164e+001  9.315318e+001 
4037500000  -2.739242e+001  9.492847e+001 
4040625000  -2.728851e+001  9.169380e+001 
4043750000  -2.755173e+001  9.097399e+001 
4046875000  -2.713995e+001  9.078771e+001 
4050000000  -2.668246e+001  8.520850e+001 
4053125000  -2.708152e+001  8.298869e+001 
4056250000  -2.778733e+001  8.677176e+001 
4059375000  -2.650535e+001  8.867744e+001 
4062500000  -2.507629e+001  8.378095e+001 
4065625000  -2.496256e+001  7.893784e+001 
4068750000  -2.463266e+001  7.423494e+001 
4071875000  -2.408831e+001  6.630166e+001 
4075000000  -2.442845e+001  6.037291e+001 
4078125000  -2.502474e+001  5.903350e+001 
4081250000  -2.447262e+001  5.661668e+001 
4084375000  -2.409583e+001  5.015675e+001 
4087500000  -2.449311e+001  4.329445e+001 
4090625000  -2.516981e+001  4.264094e+001 
4093750000  -2.493431e+001  4.323465e+001 
4096875000  -2.447029e+001  3.743206e+001 
4100000000  -2.523609e+001  3.024372e+001 
4103125000  -2.608758e+001  3.095471e+001 
4106250000  -2.593387e+001  3.640582e+001 
4109375000  -2.514793e+001  3.555574e+001 
4112500000  -2.454069e+001  2.883362e+001 
4115625000  -2.490928e+001  2.458884e+001 
4118750000  -2.497709e+001  2.203543e+001 
4121875000  -2.456445e+001  1.735863e+001 
4125000000  -2.496681e+001  1.268898e+001 
4128125000  -2.597392e+001  1.269578e+001 
4131250000  -2.568953e+001  2.079530e+001 
4134375000  -2.332765e+001  1.602527e+001 
4137500000  -2.317199e+001  -2.454211e+000 
4140625000  -2.535795e+001  -9.405135e+000 
4143750000  -2.662628e+001  -3.866678e+000 
4146875000  -2.623607e+001  3.253939e+000 
4150000000  -2.521542e+001  1.910493e-002 
4153125000  -2.507591e+001  -6.612419e+000 
4156250000  -2.604095e+001  -9.125052e+000 
4159375000  -2.618635e+001  -4.442545e+000 
4162500000  -2.507962e+001  -2.449871e-001 
4165625000  -2.388452e+001  -4.402966e+000 
4168750000  -2.329109e+001  -1.162918e+001 
4171875000  -2.328590e+001  -2.094324e+001 
4175000000  -2.383388e+001  -2.663924e+001 
4178125000  -2.447780e+001  -2.659107e+001 
4181250000  -2.427327e+001  -2.742265e+001 
4184375000  -2.417250e+001  -3.076537e+001 
4187500000  -2.414451e+001  -3.341255e+001 
4190625000  -2.400323e+001  -3.886092e+001 
4193750000  -2.481922e+001  -4.271214e+001 
4196875000  -2.550932e+001  -4.350840e+001 
4200000000  -2.644014e+001  -4.075060e+001 
4203125000  -2.636456e+001  -2.679265e+001 
4206250000  -2.303594e+001  -2.636367e+001 
4209375000  -2.185144e+001  -4.665034e+001 
4212500000  -2.384255e+001  -5.583678e+001 
4215625000  -2.480826e+001  -4.920263e+001 
4218750000  -2.348731e+001  -4.273531e+001 
4221875000  -2.123459e+001  -5.168051e+001 
4225000000  -2.247080e+001  -6.414146e+001 
4228125000  -2.312655e+001  -5.940293e+001 
4231250000  -2.159528e+001  -6.308336e+001 
4234375000  -2.155472e+001  -7.145357e+001 
4237500000  -2.114386e+001  -7.452197e+001 
4240625000  -2.116189e+001  -8.329006e+001 
4243750000  -2.212607e+001  -8.987149e+001 
4246875000  -2.304644e+001  -8.973400e+001 
4250000000  -2.305015e+001  -8.698051e+001 
4253125000  -2.250653e+001  -8.872918e+001 
4256250000  -2.275071e+001  -9.256750e+001 
4259375000  -2.255500e+001  -9.491169e+001 
4262500000  -2.254987e+001  -9.826605e+001 
4265625000  -2.271043e+001  -9.779974e+001 
4268750000  -2.181830e+001  -1.016351e+002 
4271875000  -2.158155e+001  -1.074769e+002 
4275000000  -2.092831e+001  -1.142119e+002 
4278125000  -2.153694e+001  -1.250617e+002 
4281250000  -2.331657e+001  -1.270765e+002 
4284375000  -2.296714e+001  -1.265294e+002 
4287500000  -2.384557e+001  -1.299253e+002 
4290625000  -2.501776e+001  -1.199692e+002 
4293750000  -2.296697e+001  -1.147885e+002 
4296875000  -2.166909e+001  -1.262177e+002 
4300000000  -2.249922e+001  -1.351770e+002 
4303125000  -2.361027e+001  -1.341298e+002 
4306250000  -2.296781e+001  -1.279977e+002 
4309375000  -2.157714e+001  -1.302308e+002 
4312500000  -2.146747e+001  -1.387138e+002 
4315625000  -2.168810e+001  -1.451549e+002 
4318750000  -2.202503e+001  -1.487081e+002 
4321875000  -2.218053e+001  -1.479273e+002 
4325000000  -2.159264e+001  -1.476080e+002 
4328125000  -2.112403e+001  -1.540501e+002 
4331250000  -2.102410e+001  -1.620555e+002 
4334375000  -2.151377e+001  -1.672259e+002 
4337500000  -2.236871e+001  -1.695712e+002 
4340625000  -2.294532e+001  -1.661800e+002 
4343750000  -2.230538e+001  -1.656712e+002 
4346875000  -2.191503e+001  -1.714959e+002 
4350000000  -2.198030e+001  -1.762285e+002 
4353125000  -2.202915e+001  1.760897e+002 
4356250000  -2.382786e+001  1.753896e+002 
4359375000  -2.439833e+001  -1.709412e+002 
4362500000  -2.165411e+001  -1.691644e+002 
4365625000  -2.004939e+001  1.785626e+002 
4368750000  -2.084631e+001  1.669772e+002 
4371875000  -2.203262e+001  1.678835e+002 
4375000000  -2.171570e+001  1.687983e+002 
4378125000  -2.105127e+001  1.631035e+002 
4381250000  -2.124173e+001  1.575295e+002 
4384375000  -2.107580e+001  1.529868e+002 
4387500000  -2.180834e+001  1.474937e+002 
4390625000  -2.281997e+001  1.483411e+002 
4393750000  -2.213490e+001  1.504070e+002 
4396875000  -2.148025e+001  1.484561e+002 
4400000000  -2.098443e+001  1.415207e+002 
4403125000  -2.156728e+001  1.339765e+002 
4406250000  -2.240494e+001  1.328496e+002 
4409375000  -2.237485e+001  1.305727e+002 
4412500000  -2.342118e+001  1.278925e+002 
4415625000  -2.374882e+001  1.327914e+002 
4418750000  -2.249311e+001  1.375664e+002 
