!Agilent Technologies,E8363B,MY43030201,A.06.04.32
!Agilent E8363B: A.06.04.32
!Date: Tuesday, November 11, 2014 20:44:32
!Correction: S21(Response(S21)) 
!S1P File: Measurement: S21:
# Hz S  dB   R 50
3000000000  -2.643450e+001  1.562902e+002 
3003125000  -2.781789e+001  1.517646e+002 
3006250000  -2.791437e+001  1.487990e+002 
3009375000  -2.820747e+001  1.538033e+002 
3012500000  -2.775120e+001  1.537928e+002 
3015625000  -2.673284e+001  1.465032e+002 
3018750000  -2.760119e+001  1.458577e+002 
3021875000  -2.640534e+001  1.471611e+002 
3025000000  -2.505990e+001  1.440935e+002 
3028125000  -2.411717e+001  1.393129e+002 
3031250000  -2.305393e+001  1.281739e+002 
3034375000  -2.268051e+001  1.154003e+002 
3037500000  -2.299736e+001  1.032990e+002 
3040625000  -2.433167e+001  9.814218e+001 
3043750000  -2.505925e+001  9.387439e+001 
3046875000  -2.512868e+001  8.724451e+001 
3050000000  -2.689234e+001  8.025224e+001 
3053125000  -2.711263e+001  8.688078e+001 
3056250000  -2.643135e+001  8.968923e+001 
3059375000  -2.666821e+001  8.956217e+001 
3062500000  -2.525128e+001  8.558617e+001 
3065625000  -2.502743e+001  8.016477e+001 
3068750000  -2.471051e+001  7.296523e+001 
3071875000  -2.465278e+001  6.988145e+001 
3075000000  -2.468904e+001  6.639874e+001 
3078125000  -2.439665e+001  6.182229e+001 
3081250000  -2.504910e+001  5.774685e+001 
3084375000  -2.430283e+001  5.425015e+001 
3087500000  -2.417422e+001  5.074090e+001 
3090625000  -2.389825e+001  4.118281e+001 
3093750000  -2.424950e+001  3.303365e+001 
3096875000  -2.562186e+001  2.688115e+001 
3100000000  -2.578890e+001  2.551867e+001 
3103125000  -2.613818e+001  2.737858e+001 
3106250000  -2.588500e+001  2.355378e+001 
3109375000  -2.613023e+001  2.006501e+001 
3112500000  -2.620996e+001  1.933054e+001 
3115625000  -2.604488e+001  1.505796e+001 
3118750000  -2.655695e+001  1.624791e+001 
3121875000  -2.586611e+001  8.348762e+000 
3125000000  -2.696270e+001  5.151866e+000 
3128125000  -2.823286e+001  1.281637e+001 
3131250000  -2.611652e+001  1.379378e+001 
3134375000  -2.470571e+001  1.519161e-001 
3137500000  -2.533923e+001  -1.364879e+001 
3140625000  -2.698104e+001  -1.576750e+001 
3143750000  -2.797254e+001  -1.123977e+001 
3146875000  -2.759167e+001  -9.635871e+000 
3150000000  -2.662281e+001  -7.256333e+000 
3153125000  -2.655636e+001  -1.489595e+001 
3156250000  -2.752969e+001  -9.687181e+000 
3159375000  -2.601365e+001  -6.636157e+000 
3162500000  -2.397614e+001  -1.914346e+001 
3165625000  -2.484966e+001  -3.032721e+001 
3168750000  -2.528900e+001  -2.954080e+001 
3171875000  -2.432636e+001  -3.361777e+001 
3175000000  -2.496280e+001  -4.142104e+001 
3178125000  -2.477016e+001  -3.979411e+001 
3181250000  -2.357656e+001  -4.340571e+001 
3184375000  -2.273333e+001  -5.580852e+001 
3187500000  -2.383165e+001  -7.125407e+001 
3190625000  -2.667197e+001  -7.876477e+001 
3193750000  -2.730268e+001  -6.979002e+001 
3196875000  -2.688264e+001  -6.393621e+001 
3200000000  -2.605877e+001  -6.559435e+001 
3203125000  -2.516758e+001  -7.120067e+001 
3206250000  -2.544380e+001  -7.734709e+001 
3209375000  -2.498473e+001  -8.250361e+001 
3212500000  -2.507855e+001  -8.908089e+001 
3215625000  -2.523855e+001  -9.392872e+001 
3218750000  -2.599769e+001  -9.977173e+001 
3221875000  -2.708075e+001  -1.045928e+002 
3225000000  -2.667515e+001  -1.055482e+002 
3228125000  -2.694484e+001  -1.099813e+002 
3231250000  -2.767386e+001  -1.127170e+002 
3234375000  -2.762081e+001  -1.115626e+002 
3237500000  -2.762041e+001  -1.130932e+002 
3240625000  -2.728348e+001  -1.149121e+002 
3243750000  -2.694263e+001  -1.213065e+002 
3246875000  -2.744686e+001  -1.278903e+002 
3250000000  -2.788581e+001  -1.298685e+002 
3253125000  -2.801207e+001  -1.315540e+002 
3256250000  -2.791861e+001  -1.376787e+002 
3259375000  -2.824877e+001  -1.449042e+002 
3262500000  -2.943777e+001  -1.480900e+002 
3265625000  -3.017387e+001  -1.447035e+002 
3268750000  -3.016092e+001  -1.420363e+002 
3271875000  -2.995718e+001  -1.408077e+002 
3275000000  -2.879340e+001  -1.455872e+002 
3278125000  -2.926645e+001  -1.519442e+002 
3281250000  -2.955834e+001  -1.497753e+002 
3284375000  -2.915948e+001  -1.562063e+002 
3287500000  -2.931145e+001  -1.590770e+002 
3290625000  -2.973317e+001  -1.628793e+002 
3293750000  -2.948692e+001  -1.689520e+002 
3296875000  -3.041154e+001  -1.685522e+002 
3300000000  -3.042008e+001  -1.677370e+002 
3303125000  -2.924112e+001  -1.716747e+002 
3306250000  -2.898923e+001  -1.782852e+002 
3309375000  -2.879474e+001  1.768683e+002 
3312500000  -2.878431e+001  1.665859e+002 
3315625000  -2.976244e+001  1.587673e+002 
3318750000  -3.108763e+001  1.554765e+002 
3321875000  -3.234821e+001  1.554688e+002 
3325000000  -3.296216e+001  1.603326e+002 
3328125000  -3.281882e+001  1.609943e+002 
3331250000  -3.175950e+001  1.697392e+002 
3334375000  -2.917861e+001  1.600988e+002 
3337500000  -2.922931e+001  1.418002e+002 
3340625000  -3.051970e+001  1.307782e+002 
3343750000  -3.242720e+001  1.292254e+002 
3346875000  -3.313955e+001  1.302573e+002 
3350000000  -3.248778e+001  1.296970e+002 
3353125000  -3.257578e+001  1.252209e+002 
3356250000  -3.236194e+001  1.179879e+002 
3359375000  -3.310046e+001  1.088744e+002 
3362500000  -3.452833e+001  1.033324e+002 
3365625000  -3.532600e+001  1.016353e+002 
3368750000  -3.619234e+001  1.003491e+002 
3371875000  -3.652421e+001  9.726347e+001 
3375000000  -3.823173e+001  9.442538e+001 
3378125000  -3.931968e+001  9.410675e+001 
3381250000  -4.074278e+001  1.017196e+002 
3384375000  -4.008993e+001  1.218337e+002 
3387500000  -3.708824e+001  1.107342e+002 
3390625000  -3.878538e+001  9.084023e+001 
3393750000  -4.068673e+001  9.533129e+001 
3396875000  -3.977227e+001  9.932393e+001 
3400000000  -4.000306e+001  9.278060e+001 
3403125000  -4.099698e+001  8.815324e+001 
3406250000  -4.169943e+001  9.177228e+001 
3409375000  -4.240481e+001  8.678878e+001 
3412500000  -4.352808e+001  8.838482e+001 
3415625000  -4.461495e+001  9.477505e+001 
3418750000  -4.478042e+001  1.001143e+002 
3421875000  -4.500451e+001  1.059058e+002 
3425000000  -4.404515e+001  1.119075e+002 
3428125000  -4.325224e+001  1.112293e+002 
3431250000  -4.321735e+001  1.076893e+002 
3434375000  -4.263435e+001  1.048526e+002 
3437500000  -4.310645e+001  1.041544e+002 
3440625000  -4.327779e+001  1.054860e+002 
3443750000  -4.227893e+001  1.094117e+002 
3446875000  -4.152783e+001  1.054713e+002 
3450000000  -4.139770e+001  9.557219e+001 
3453125000  -4.121188e+001  8.689240e+001 
3456250000  -4.253628e+001  8.111585e+001 
3459375000  -4.321268e+001  8.523526e+001 
3462500000  -4.344452e+001  8.434286e+001 
3465625000  -4.331134e+001  8.543848e+001 
3468750000  -4.384210e+001  8.142838e+001 
3471875000  -4.396266e+001  8.136923e+001 
3475000000  -4.384108e+001  7.598084e+001 
3478125000  -4.477266e+001  7.114513e+001 
3481250000  -4.561342e+001  7.344143e+001 
3484375000  -4.695241e+001  7.738515e+001 
3487500000  -4.666967e+001  7.889522e+001 
3490625000  -4.608106e+001  7.749144e+001 
3493750000  -4.678253e+001  7.628895e+001 
3496875000  -4.793357e+001  7.637004e+001 
3500000000  -4.900520e+001  8.876141e+001 
3503125000  -4.854223e+001  9.015689e+001 
3506250000  -4.814098e+001  9.510078e+001 
3509375000  -4.744459e+001  8.789990e+001 
3512500000  -4.762598e+001  8.794073e+001 
3515625000  -4.736743e+001  9.280753e+001 
3518750000  -4.797849e+001  9.915273e+001 
3521875000  -4.729432e+001  1.006869e+002 
3525000000  -4.746672e+001  9.921168e+001 
3528125000  -4.688554e+001  1.116181e+002 
3531250000  -4.524043e+001  1.101421e+002 
3534375000  -4.434779e+001  1.030917e+002 
3537500000  -4.410969e+001  1.008617e+002 
3540625000  -4.476733e+001  9.648341e+001 
3543750000  -4.539262e+001  1.017486e+002 
3546875000  -4.471393e+001  1.120640e+002 
3550000000  -4.223766e+001  1.146386e+002 
3553125000  -4.054213e+001  9.823149e+001 
3556250000  -4.158691e+001  9.227058e+001 
3559375000  -4.138999e+001  9.485170e+001 
3562500000  -4.007605e+001  8.474372e+001 
3565625000  -4.099632e+001  7.841148e+001 
3568750000  -4.079658e+001  8.302262e+001 
3571875000  -4.077328e+001  8.185135e+001 
3575000000  -4.004018e+001  7.750404e+001 
3578125000  -4.049160e+001  6.983323e+001 
3581250000  -4.053442e+001  7.168631e+001 
3584375000  -4.012184e+001  6.953924e+001 
3587500000  -3.904317e+001  6.295447e+001 
3590625000  -3.956358e+001  5.502475e+001 
3593750000  -4.044343e+001  5.071147e+001 
3596875000  -4.054429e+001  6.113591e+001 
3600000000  -3.906941e+001  5.560290e+001 
3603125000  -3.918898e+001  4.133426e+001 
3606250000  -3.998928e+001  3.839943e+001 
3609375000  -4.038113e+001  3.968452e+001 
3612500000  -4.097844e+001  3.759805e+001 
3615625000  -4.109793e+001  3.491240e+001 
3618750000  -4.159012e+001  3.723315e+001 
3621875000  -4.155432e+001  3.464275e+001 
3625000000  -4.185649e+001  3.402196e+001 
3628125000  -4.201988e+001  3.544056e+001 
3631250000  -4.150593e+001  3.181364e+001 
3634375000  -4.240120e+001  3.195433e+001 
3637500000  -4.256943e+001  3.967086e+001 
3640625000  -4.126555e+001  3.863314e+001 
3643750000  -4.122212e+001  3.454289e+001 
3646875000  -4.146289e+001  3.159616e+001 
3650000000  -4.205502e+001  3.164821e+001 
3653125000  -4.207343e+001  3.103856e+001 
3656250000  -4.193060e+001  2.999144e+001 
3659375000  -4.227796e+001  3.440143e+001 
3662500000  -4.151509e+001  3.370019e+001 
3665625000  -4.162357e+001  3.410715e+001 
3668750000  -4.032193e+001  3.526889e+001 
3671875000  -3.922445e+001  3.082560e+001 
3675000000  -4.000468e+001  2.488819e+001 
3678125000  -4.028235e+001  2.656626e+001 
3681250000  -3.962877e+001  2.741416e+001 
3684375000  -3.972187e+001  2.411992e+001 
3687500000  -3.969598e+001  2.188795e+001 
3690625000  -3.949281e+001  2.044668e+001 
3693750000  -4.006824e+001  2.199656e+001 
3696875000  -3.979172e+001  2.517247e+001 
3700000000  -3.900889e+001  2.142222e+001 
3703125000  -3.856311e+001  1.856218e+001 
3706250000  -3.927104e+001  2.130890e+001 
3709375000  -3.857638e+001  2.290219e+001 
3712500000  -3.774372e+001  2.367625e+001 
3715625000  -3.642316e+001  1.693736e+001 
3718750000  -3.585657e+001  1.441337e+001 
3721875000  -3.528310e+001  9.109716e+000 
3725000000  -3.532693e+001  4.440050e+000 
3728125000  -3.578305e+001  3.794247e+000 
3731250000  -3.502382e+001  3.741408e+000 
3734375000  -3.399953e+001  -2.872764e+000 
3737500000  -3.448792e+001  -9.436065e+000 
3740625000  -3.527715e+001  -1.198954e+001 
3743750000  -3.516180e+001  -1.439215e+001 
3746875000  -3.504927e+001  -1.796564e+001 
3750000000  -3.537986e+001  -1.722792e+001 
3753125000  -3.502737e+001  -1.692100e+001 
3756250000  -3.499976e+001  -1.817699e+001 
3759375000  -3.491425e+001  -1.823688e+001 
3762500000  -3.415784e+001  -2.274502e+001 
3765625000  -3.461929e+001  -2.501240e+001 
3768750000  -3.471359e+001  -2.318858e+001 
3771875000  -3.296267e+001  -2.396212e+001 
3775000000  -3.264749e+001  -3.183393e+001 
3778125000  -3.290065e+001  -3.328189e+001 
3781250000  -3.261628e+001  -3.579042e+001 
3784375000  -3.261205e+001  -3.773956e+001 
3787500000  -3.189478e+001  -4.153546e+001 
3790625000  -3.236153e+001  -4.726888e+001 
3793750000  -3.256939e+001  -4.802649e+001 
3796875000  -3.168901e+001  -4.943235e+001 
3800000000  -3.008142e+001  -5.345074e+001 
3803125000  -3.072584e+001  -6.049176e+001 
3806250000  -3.129938e+001  -6.240730e+001 
3809375000  -3.103951e+001  -6.360511e+001 
3812500000  -3.038686e+001  -6.882398e+001 
3815625000  -3.094964e+001  -7.633759e+001 
3818750000  -3.190226e+001  -7.832821e+001 
3821875000  -3.211489e+001  -7.103120e+001 
3825000000  -3.029632e+001  -6.517505e+001 
3828125000  -2.887418e+001  -7.917252e+001 
3831250000  -2.940542e+001  -9.352332e+001 
3834375000  -3.072186e+001  -9.463942e+001 
3837500000  -3.163969e+001  -8.981759e+001 
3840625000  -3.053969e+001  -9.100549e+001 
3843750000  -2.937789e+001  -1.005537e+002 
3846875000  -3.000421e+001  -1.073673e+002 
3850000000  -3.136881e+001  -1.025173e+002 
3853125000  -3.066870e+001  -9.972893e+001 
3856250000  -3.060809e+001  -1.047356e+002 
3859375000  -3.005271e+001  -1.090268e+002 
3862500000  -2.955494e+001  -1.157549e+002 
3865625000  -2.978956e+001  -1.207164e+002 
3868750000  -2.988384e+001  -1.214905e+002 
3871875000  -2.921049e+001  -1.232369e+002 
3875000000  -2.929840e+001  -1.321097e+002 
3878125000  -3.023867e+001  -1.347337e+002 
3881250000  -3.038053e+001  -1.312323e+002 
3884375000  -2.990989e+001  -1.351706e+002 
3887500000  -2.993465e+001  -1.391964e+002 
3890625000  -3.042812e+001  -1.412562e+002 
3893750000  -3.099065e+001  -1.425855e+002 
3896875000  -3.096078e+001  -1.425322e+002 
3900000000  -3.121871e+001  -1.422386e+002 
3903125000  -3.091507e+001  -1.449066e+002 
3906250000  -3.054522e+001  -1.460975e+002 
3909375000  -2.982726e+001  -1.474000e+002 
3912500000  -2.964622e+001  -1.547210e+002 
3915625000  -3.088653e+001  -1.551975e+002 
3918750000  -3.083656e+001  -1.529677e+002 
3921875000  -3.062284e+001  -1.542414e+002 
3925000000  -2.971221e+001  -1.551107e+002 
3928125000  -2.889927e+001  -1.610251e+002 
3931250000  -2.937438e+001  -1.647801e+002 
3934375000  -2.957829e+001  -1.652082e+002 
3937500000  -2.963403e+001  -1.663352e+002 
3940625000  -3.015267e+001  -1.660560e+002 
3943750000  -2.922226e+001  -1.653178e+002 
3946875000  -2.795835e+001  -1.706450e+002 
3950000000  -2.839291e+001  -1.786379e+002 
3953125000  -2.946386e+001  -1.789332e+002 
3956250000  -2.864170e+001  -1.756760e+002 
3959375000  -2.733434e+001  -1.789046e+002 
3962500000  -2.687540e+001  1.768877e+002 
3965625000  -2.642021e+001  1.680870e+002 
3968750000  -2.737194e+001  1.614850e+002 
3971875000  -2.797156e+001  1.597940e+002 
3975000000  -2.728223e+001  1.582127e+002 
3978125000  -2.708660e+001  1.567063e+002 
3981250000  -2.683621e+001  1.523379e+002 
3984375000  -2.705332e+001  1.460195e+002 
3987500000  -2.762796e+001  1.441763e+002 
3990625000  -2.765336e+001  1.435755e+002 
3993750000  -2.791049e+001  1.400637e+002 
3996875000  -2.791893e+001  1.384554e+002 
4000000000  -2.785119e+001  1.365338e+002 
4003125000  -2.853916e+001  1.382686e+002 
4006250000  -2.719065e+001  1.396826e+002 
4009375000  -2.595629e+001  1.276794e+002 
4012500000  -2.697821e+001  1.204720e+002 
4015625000  -2.819912e+001  1.205823e+002 
4018750000  -2.838074e+001  1.231157e+002 
4021875000  -2.769202e+001  1.219433e+002 
4025000000  -2.731873e+001  1.175417e+002 
4028125000  -2.720521e+001  1.136777e+002 
4031250000  -2.761849e+001  1.108556e+002 
4034375000  -2.786558e+001  1.105727e+002 
4037500000  -2.728653e+001  1.120997e+002 
4040625000  -2.713582e+001  1.089885e+002 
4043750000  -2.744001e+001  1.079295e+002 
4046875000  -2.696878e+001  1.076363e+002 
4050000000  -2.652029e+001  1.016977e+002 
4053125000  -2.681803e+001  9.901968e+001 
4056250000  -2.749626e+001  1.028975e+002 
4059375000  -2.635762e+001  1.047817e+002 
4062500000  -2.495366e+001  1.004184e+002 
4065625000  -2.474355e+001  9.524299e+001 
4068750000  -2.454270e+001  9.051746e+001 
4071875000  -2.388195e+001  8.270390e+001 
4075000000  -2.423390e+001  7.619479e+001 
4078125000  -2.484053e+001  7.472533e+001 
4081250000  -2.435616e+001  7.243877e+001 
4084375000  -2.397996e+001  6.579076e+001 
4087500000  -2.430231e+001  5.932491e+001 
4090625000  -2.492597e+001  5.788940e+001 
4093750000  -2.487189e+001  5.891665e+001 
4096875000  -2.441601e+001  5.305491e+001 
4100000000  -2.506937e+001  4.583108e+001 
4103125000  -2.593234e+001  4.644180e+001 
4106250000  -2.590345e+001  5.126498e+001 
4109375000  -2.510472e+001  5.110527e+001 
4112500000  -2.454689e+001  4.475034e+001 
4115625000  -2.482706e+001  4.056429e+001 
4118750000  -2.499646e+001  3.755177e+001 
4121875000  -2.458825e+001  3.355554e+001 
4125000000  -2.491383e+001  2.867140e+001 
4128125000  -2.594097e+001  2.828224e+001 
4131250000  -2.572490e+001  3.665413e+001 
4134375000  -2.345240e+001  3.272609e+001 
4137500000  -2.315263e+001  1.432874e+001 
4140625000  -2.526374e+001  7.087591e+000 
4143750000  -2.658382e+001  1.187700e+001 
4146875000  -2.621132e+001  1.959462e+001 
4150000000  -2.530542e+001  1.666028e+001 
4153125000  -2.507689e+001  1.059722e+001 
4156250000  -2.585123e+001  7.928749e+000 
4159375000  -2.615106e+001  1.203560e+001 
4162500000  -2.497725e+001  1.649836e+001 
4165625000  -2.383234e+001  1.262165e+001 
4168750000  -2.319044e+001  5.267753e+000 
4171875000  -2.316730e+001  -3.866679e+000 
4175000000  -2.367631e+001  -9.905553e+000 
4178125000  -2.428604e+001  -1.017648e+001 
4181250000  -2.418064e+001  -1.062815e+001 
4184375000  -2.400292e+001  -1.412891e+001 
4187500000  -2.403898e+001  -1.707090e+001 
4190625000  -2.380350e+001  -2.226043e+001 
4193750000  -2.459974e+001  -2.662539e+001 
4196875000  -2.526423e+001  -2.711514e+001 
4200000000  -2.609478e+001  -2.571597e+001 
4203125000  -2.632667e+001  -1.283594e+001 
4206250000  -2.305268e+001  -1.060496e+001 
4209375000  -2.176297e+001  -3.043186e+001 
4212500000  -2.359904e+001  -3.989258e+001 
4215625000  -2.468716e+001  -3.425889e+001 
4218750000  -2.344985e+001  -2.709946e+001 
4221875000  -2.117575e+001  -3.635349e+001 
4225000000  -2.229257e+001  -4.913394e+001 
4228125000  -2.311936e+001  -4.393012e+001 
4231250000  -2.157859e+001  -4.746238e+001 
4234375000  -2.151844e+001  -5.577501e+001 
4237500000  -2.113802e+001  -5.893328e+001 
4240625000  -2.112375e+001  -6.720178e+001 
4243750000  -2.211775e+001  -7.369141e+001 
4246875000  -2.297457e+001  -7.399393e+001 
4250000000  -2.305460e+001  -7.110659e+001 
4253125000  -2.249664e+001  -7.297470e+001 
4256250000  -2.279428e+001  -7.704838e+001 
4259375000  -2.256965e+001  -7.861379e+001 
4262500000  -2.249656e+001  -8.213352e+001 
4265625000  -2.273480e+001  -8.167913e+001 
4268750000  -2.189153e+001  -8.570392e+001 
4271875000  -2.159209e+001  -9.102994e+001 
4275000000  -2.095795e+001  -9.728285e+001 
4278125000  -2.145729e+001  -1.081454e+002 
4281250000  -2.329943e+001  -1.106104e+002 
4284375000  -2.301598e+001  -1.095756e+002 
4287500000  -2.363259e+001  -1.133947e+002 
4290625000  -2.500673e+001  -1.040181e+002 
4293750000  -2.303837e+001  -9.806618e+001 
4296875000  -2.160804e+001  -1.092029e+002 
4300000000  -2.236754e+001  -1.186184e+002 
4303125000  -2.349151e+001  -1.179089e+002 
4306250000  -2.297445e+001  -1.118675e+002 
4309375000  -2.153544e+001  -1.137305e+002 
4312500000  -2.138046e+001  -1.219519e+002 
4315625000  -2.156548e+001  -1.282589e+002 
4318750000  -2.187681e+001  -1.319893e+002 
4321875000  -2.205451e+001  -1.317813e+002 
4325000000  -2.146366e+001  -1.311412e+002 
4328125000  -2.101685e+001  -1.376422e+002 
4331250000  -2.093834e+001  -1.455424e+002 
4334375000  -2.131370e+001  -1.506796e+002 
4337500000  -2.211020e+001  -1.534717e+002 
4340625000  -2.270153e+001  -1.505437e+002 
4343750000  -2.220340e+001  -1.502321e+002 
4346875000  -2.184894e+001  -1.550440e+002 
4350000000  -2.183466e+001  -1.598563e+002 
4353125000  -2.185542e+001  -1.676770e+002 
4356250000  -2.352443e+001  -1.694531e+002 
4359375000  -2.432210e+001  -1.566771e+002 
4362500000  -2.183682e+001  -1.541595e+002 
4365625000  -2.011271e+001  -1.651976e+002 
4368750000  -2.076876e+001  -1.767459e+002 
4371875000  -2.203390e+001  -1.766948e+002 
4375000000  -2.176664e+001  -1.753318e+002 
4378125000  -2.111012e+001  1.791046e+002 
4381250000  -2.127497e+001  1.736299e+002 
4384375000  -2.110595e+001  1.696672e+002 
4387500000  -2.174104e+001  1.637365e+002 
4390625000  -2.283588e+001  1.645376e+002 
4393750000  -2.223152e+001  1.669724e+002 
4396875000  -2.147899e+001  1.647560e+002 
4400000000  -2.106124e+001  1.581770e+002 
4403125000  -2.153358e+001  1.506795e+002 
4406250000  -2.239553e+001  1.494847e+002 
4409375000  -2.230786e+001  1.473194e+002 
4412500000  -2.336674e+001  1.445580e+002 
4415625000  -2.378807e+001  1.492520e+002 
4418750000  -2.260290e+001  1.539615e+002 
