!Agilent Technologies,E8363B,MY43030201,A.06.04.32
!Agilent E8363B: A.06.04.32
!Date: Tuesday, November 11, 2014 20:46:32
!Correction: S21(Response(S21)) 
!S1P File: Measurement: S21:
# Hz S  dB   R 50
3000000000  -2.642062e+001  1.566059e+002 
3003125000  -2.781475e+001  1.522094e+002 
3006250000  -2.786543e+001  1.496073e+002 
3009375000  -2.822259e+001  1.546803e+002 
3012500000  -2.774303e+001  1.545630e+002 
3015625000  -2.670301e+001  1.474227e+002 
3018750000  -2.762123e+001  1.463953e+002 
3021875000  -2.635807e+001  1.477591e+002 
3025000000  -2.505053e+001  1.447606e+002 
3028125000  -2.409863e+001  1.396683e+002 
3031250000  -2.304613e+001  1.286934e+002 
3034375000  -2.266836e+001  1.157200e+002 
3037500000  -2.301022e+001  1.037607e+002 
3040625000  -2.434997e+001  9.862937e+001 
3043750000  -2.505401e+001  9.440372e+001 
3046875000  -2.513997e+001  8.791055e+001 
3050000000  -2.694228e+001  8.086905e+001 
3053125000  -2.709237e+001  8.700141e+001 
3056250000  -2.636433e+001  9.014906e+001 
3059375000  -2.667092e+001  8.982518e+001 
3062500000  -2.519321e+001  8.638261e+001 
3065625000  -2.497979e+001  8.070065e+001 
3068750000  -2.467298e+001  7.379865e+001 
3071875000  -2.462912e+001  7.080893e+001 
3075000000  -2.459491e+001  6.703819e+001 
3078125000  -2.431936e+001  6.268488e+001 
3081250000  -2.496036e+001  5.840904e+001 
3084375000  -2.422907e+001  5.458200e+001 
3087500000  -2.406358e+001  5.110932e+001 
3090625000  -2.384068e+001  4.162545e+001 
3093750000  -2.417896e+001  3.364172e+001 
3096875000  -2.551626e+001  2.722128e+001 
3100000000  -2.570352e+001  2.605123e+001 
3103125000  -2.605843e+001  2.757400e+001 
3106250000  -2.579798e+001  2.373693e+001 
3109375000  -2.605214e+001  2.019525e+001 
3112500000  -2.612041e+001  1.961763e+001 
3115625000  -2.592058e+001  1.511684e+001 
3118750000  -2.642532e+001  1.677462e+001 
3121875000  -2.577733e+001  8.756389e+000 
3125000000  -2.684769e+001  5.012245e+000 
3128125000  -2.814749e+001  1.286961e+001 
3131250000  -2.604370e+001  1.373996e+001 
3134375000  -2.467194e+001  3.996159e-001 
3137500000  -2.525665e+001  -1.365140e+001 
3140625000  -2.689348e+001  -1.565829e+001 
3143750000  -2.792118e+001  -1.107275e+001 
3146875000  -2.749335e+001  -9.502516e+000 
3150000000  -2.651561e+001  -7.050040e+000 
3153125000  -2.648071e+001  -1.487418e+001 
3156250000  -2.744066e+001  -9.198484e+000 
3159375000  -2.596465e+001  -6.282757e+000 
3162500000  -2.390417e+001  -1.917757e+001 
3165625000  -2.479954e+001  -3.015902e+001 
3168750000  -2.522029e+001  -2.935558e+001 
3171875000  -2.427352e+001  -3.336177e+001 
3175000000  -2.486702e+001  -4.125568e+001 
3178125000  -2.470840e+001  -3.967230e+001 
3181250000  -2.349268e+001  -4.332863e+001 
3184375000  -2.269326e+001  -5.570834e+001 
3187500000  -2.375785e+001  -7.099013e+001 
3190625000  -2.658815e+001  -7.863275e+001 
3193750000  -2.723428e+001  -6.910745e+001 
3196875000  -2.680110e+001  -6.328892e+001 
3200000000  -2.596233e+001  -6.521496e+001 
3203125000  -2.505887e+001  -7.089391e+001 
3206250000  -2.534416e+001  -7.706993e+001 
3209375000  -2.485615e+001  -8.232590e+001 
3212500000  -2.497275e+001  -8.882290e+001 
3215625000  -2.512529e+001  -9.342386e+001 
3218750000  -2.587102e+001  -9.943615e+001 
3221875000  -2.690472e+001  -1.047118e+002 
3225000000  -2.649848e+001  -1.051935e+002 
3228125000  -2.676661e+001  -1.096353e+002 
3231250000  -2.757090e+001  -1.123262e+002 
3234375000  -2.741658e+001  -1.114081e+002 
3237500000  -2.747408e+001  -1.132800e+002 
3240625000  -2.710433e+001  -1.145215e+002 
3243750000  -2.676474e+001  -1.211821e+002 
3246875000  -2.727110e+001  -1.277874e+002 
3250000000  -2.773092e+001  -1.295397e+002 
3253125000  -2.784091e+001  -1.312333e+002 
3256250000  -2.771328e+001  -1.373247e+002 
3259375000  -2.803934e+001  -1.447695e+002 
3262500000  -2.929157e+001  -1.475656e+002 
3265625000  -2.999507e+001  -1.448908e+002 
3268750000  -3.002054e+001  -1.421387e+002 
3271875000  -2.982186e+001  -1.405101e+002 
3275000000  -2.864597e+001  -1.454018e+002 
3278125000  -2.911767e+001  -1.516163e+002 
3281250000  -2.943860e+001  -1.499447e+002 
3284375000  -2.897775e+001  -1.555029e+002 
3287500000  -2.916811e+001  -1.585402e+002 
3290625000  -2.954439e+001  -1.627919e+002 
3293750000  -2.926201e+001  -1.683544e+002 
3296875000  -3.017304e+001  -1.684002e+002 
3300000000  -3.020477e+001  -1.672237e+002 
3303125000  -2.905171e+001  -1.713789e+002 
3306250000  -2.874265e+001  -1.776367e+002 
3309375000  -2.853215e+001  1.771432e+002 
3312500000  -2.858524e+001  1.670903e+002 
3315625000  -2.957575e+001  1.594083e+002 
3318750000  -3.086103e+001  1.568249e+002 
3321875000  -3.214721e+001  1.561354e+002 
3325000000  -3.269672e+001  1.608582e+002 
3328125000  -3.266146e+001  1.633593e+002 
3331250000  -3.139382e+001  1.704619e+002 
3334375000  -2.881579e+001  1.613255e+002 
3337500000  -2.883733e+001  1.424965e+002 
3340625000  -3.017454e+001  1.317289e+002 
3343750000  -3.208120e+001  1.299256e+002 
3346875000  -3.266978e+001  1.317446e+002 
3350000000  -3.201539e+001  1.304557e+002 
3353125000  -3.211415e+001  1.259883e+002 
3356250000  -3.183843e+001  1.184654e+002 
3359375000  -3.269855e+001  1.096061e+002 
3362500000  -3.398328e+001  1.042246e+002 
3365625000  -3.457579e+001  1.028183e+002 
3368750000  -3.557223e+001  1.014432e+002 
3371875000  -3.598878e+001  9.812527e+001 
3375000000  -3.761195e+001  9.601910e+001 
3378125000  -3.872438e+001  9.490382e+001 
3381250000  -4.017582e+001  1.022394e+002 
3384375000  -3.958872e+001  1.238652e+002 
3387500000  -3.629494e+001  1.103903e+002 
3390625000  -3.841435e+001  9.028313e+001 
3393750000  -3.999196e+001  9.411198e+001 
3396875000  -3.909450e+001  9.829163e+001 
3400000000  -3.924900e+001  9.089577e+001 
3403125000  -4.026520e+001  8.653396e+001 
3406250000  -4.112255e+001  8.933452e+001 
3409375000  -4.160258e+001  8.515734e+001 
3412500000  -4.250188e+001  8.654212e+001 
3415625000  -4.347113e+001  9.407056e+001 
3418750000  -4.413940e+001  9.675421e+001 
3421875000  -4.398232e+001  1.028057e+002 
3425000000  -4.361443e+001  1.081815e+002 
3428125000  -4.229562e+001  1.069936e+002 
3431250000  -4.202077e+001  1.040728e+002 
3434375000  -4.162439e+001  1.017211e+002 
3437500000  -4.231529e+001  9.887581e+001 
3440625000  -4.261467e+001  1.021655e+002 
3443750000  -4.119328e+001  1.033760e+002 
3446875000  -4.022950e+001  9.976589e+001 
3450000000  -4.035384e+001  9.017719e+001 
3453125000  -4.060041e+001  8.210561e+001 
3456250000  -4.146136e+001  7.575549e+001 
3459375000  -4.246853e+001  7.968111e+001 
3462500000  -4.264724e+001  7.854473e+001 
3465625000  -4.236093e+001  7.506359e+001 
3468750000  -4.331203e+001  7.207658e+001 
3471875000  -4.336814e+001  7.306902e+001 
3475000000  -4.333317e+001  6.916250e+001 
3478125000  -4.359156e+001  6.388326e+001 
3481250000  -4.494907e+001  6.262782e+001 
3484375000  -4.682073e+001  6.647919e+001 
3487500000  -4.669073e+001  7.354476e+001 
3490625000  -4.607794e+001  6.537109e+001 
3493750000  -4.644764e+001  6.486830e+001 
3496875000  -4.752011e+001  6.723499e+001 
3500000000  -4.896518e+001  7.337615e+001 
3503125000  -4.923537e+001  7.934561e+001 
3506250000  -4.765697e+001  8.269302e+001 
3509375000  -4.761430e+001  7.800813e+001 
3512500000  -4.820502e+001  8.000316e+001 
3515625000  -4.778573e+001  8.391763e+001 
3518750000  -4.850527e+001  9.214915e+001 
3521875000  -4.806116e+001  9.558434e+001 
3525000000  -4.781170e+001  9.404473e+001 
3528125000  -4.775750e+001  1.044934e+002 
3531250000  -4.527194e+001  1.052793e+002 
3534375000  -4.492530e+001  9.611741e+001 
3537500000  -4.462709e+001  9.152844e+001 
3540625000  -4.527284e+001  9.216586e+001 
3543750000  -4.598392e+001  9.427570e+001 
3546875000  -4.555757e+001  1.082026e+002 
3550000000  -4.256226e+001  1.083956e+002 
3553125000  -4.109809e+001  9.358990e+001 
3556250000  -4.220997e+001  8.575597e+001 
3559375000  -4.207838e+001  8.725086e+001 
3562500000  -4.055782e+001  7.937133e+001 
3565625000  -4.152631e+001  7.275973e+001 
3568750000  -4.191642e+001  7.743502e+001 
3571875000  -4.157630e+001  7.616426e+001 
3575000000  -4.095391e+001  6.985520e+001 
3578125000  -4.158793e+001  6.683431e+001 
3581250000  -4.149923e+001  6.896132e+001 
3584375000  -4.092347e+001  6.563765e+001 
3587500000  -4.011010e+001  6.080040e+001 
3590625000  -4.042376e+001  5.187614e+001 
3593750000  -4.151847e+001  4.990760e+001 
3596875000  -4.153918e+001  5.784031e+001 
3600000000  -4.021326e+001  5.707123e+001 
3603125000  -4.020105e+001  4.368028e+001 
3606250000  -4.123422e+001  4.148011e+001 
3609375000  -4.147654e+001  4.123637e+001 
3612500000  -4.181205e+001  3.942603e+001 
3615625000  -4.175884e+001  3.882493e+001 
3618750000  -4.252604e+001  4.090681e+001 
3621875000  -4.200588e+001  3.960609e+001 
3625000000  -4.213580e+001  4.053151e+001 
3628125000  -4.232081e+001  3.992317e+001 
3631250000  -4.184539e+001  3.557850e+001 
3634375000  -4.273724e+001  3.664073e+001 
3637500000  -4.244923e+001  4.331833e+001 
3640625000  -4.119326e+001  4.408793e+001 
3643750000  -4.060191e+001  3.834869e+001 
3646875000  -4.136184e+001  3.285247e+001 
3650000000  -4.186404e+001  3.294226e+001 
3653125000  -4.156450e+001  3.169276e+001 
3656250000  -4.177375e+001  3.002074e+001 
3659375000  -4.200814e+001  3.194280e+001 
3662500000  -4.133849e+001  3.403872e+001 
3665625000  -4.100624e+001  3.150263e+001 
3668750000  -4.044206e+001  3.411374e+001 
3671875000  -3.939954e+001  2.843441e+001 
3675000000  -3.988177e+001  2.157821e+001 
3678125000  -4.048159e+001  2.374127e+001 
3681250000  -3.976271e+001  2.439450e+001 
3684375000  -3.966967e+001  2.166887e+001 
3687500000  -3.985327e+001  2.183442e+001 
3690625000  -3.998565e+001  1.898411e+001 
3693750000  -4.057286e+001  2.076530e+001 
3696875000  -4.036739e+001  2.483038e+001 
3700000000  -3.926720e+001  2.352300e+001 
3703125000  -3.893107e+001  2.087303e+001 
3706250000  -3.955986e+001  2.047104e+001 
3709375000  -3.895677e+001  2.342488e+001 
3712500000  -3.775289e+001  2.572053e+001 
3715625000  -3.685767e+001  1.893719e+001 
3718750000  -3.589330e+001  1.577002e+001 
3721875000  -3.545903e+001  1.064114e+001 
3725000000  -3.532961e+001  6.498054e+000 
3728125000  -3.569973e+001  4.859306e+000 
3731250000  -3.496305e+001  5.957494e+000 
3734375000  -3.379863e+001  3.363041e-001 
3737500000  -3.436533e+001  -7.985552e+000 
3740625000  -3.488039e+001  -1.054428e+001 
3743750000  -3.466346e+001  -1.309683e+001 
3746875000  -3.467169e+001  -1.655515e+001 
3750000000  -3.496935e+001  -1.608281e+001 
3753125000  -3.454457e+001  -1.745292e+001 
3756250000  -3.449168e+001  -1.808483e+001 
3759375000  -3.426853e+001  -1.858157e+001 
3762500000  -3.370604e+001  -2.304863e+001 
3765625000  -3.408700e+001  -2.604272e+001 
3768750000  -3.414558e+001  -2.387139e+001 
3771875000  -3.255199e+001  -2.556532e+001 
3775000000  -3.215020e+001  -3.412854e+001 
3778125000  -3.248470e+001  -3.588801e+001 
3781250000  -3.223050e+001  -3.882800e+001 
3784375000  -3.220213e+001  -4.044999e+001 
3787500000  -3.155668e+001  -4.447757e+001 
3790625000  -3.210019e+001  -5.095504e+001 
3793750000  -3.234568e+001  -5.205132e+001 
3796875000  -3.139948e+001  -5.272402e+001 
3800000000  -2.987083e+001  -5.627564e+001 
3803125000  -3.067837e+001  -6.321711e+001 
3806250000  -3.129979e+001  -6.530521e+001 
3809375000  -3.099677e+001  -6.640093e+001 
3812500000  -3.046831e+001  -7.166366e+001 
3815625000  -3.096957e+001  -7.850378e+001 
3818750000  -3.188827e+001  -8.105746e+001 
3821875000  -3.211384e+001  -7.325247e+001 
3825000000  -3.019058e+001  -6.785925e+001 
3828125000  -2.891358e+001  -8.188938e+001 
3831250000  -2.930199e+001  -9.523190e+001 
3834375000  -3.065426e+001  -9.676509e+001 
3837500000  -3.153434e+001  -9.193265e+001 
3840625000  -3.055832e+001  -9.187357e+001 
3843750000  -2.931515e+001  -1.021966e+002 
3846875000  -3.003702e+001  -1.094273e+002 
3850000000  -3.134995e+001  -1.039130e+002 
3853125000  -3.057737e+001  -1.011083e+002 
3856250000  -3.048864e+001  -1.060452e+002 
3859375000  -2.990375e+001  -1.104898e+002 
3862500000  -2.937624e+001  -1.174212e+002 
3865625000  -2.961239e+001  -1.217396e+002 
3868750000  -2.966076e+001  -1.226127e+002 
3871875000  -2.891103e+001  -1.251503e+002 
3875000000  -2.903924e+001  -1.332332e+002 
3878125000  -2.996501e+001  -1.364433e+002 
3881250000  -3.020317e+001  -1.335715e+002 
3884375000  -2.954510e+001  -1.377781e+002 
3887500000  -2.969379e+001  -1.418522e+002 
3890625000  -3.015036e+001  -1.444061e+002 
3893750000  -3.046975e+001  -1.455539e+002 
3896875000  -3.067855e+001  -1.448272e+002 
3900000000  -3.097462e+001  -1.464305e+002 
3903125000  -3.059133e+001  -1.480415e+002 
3906250000  -3.029542e+001  -1.490952e+002 
3909375000  -2.957373e+001  -1.514194e+002 
3912500000  -2.946319e+001  -1.596743e+002 
3915625000  -3.075035e+001  -1.588263e+002 
3918750000  -3.072046e+001  -1.567947e+002 
3921875000  -3.044978e+001  -1.587804e+002 
3925000000  -2.974082e+001  -1.596258e+002 
3928125000  -2.895504e+001  -1.654429e+002 
3931250000  -2.941312e+001  -1.691835e+002 
3934375000  -2.967292e+001  -1.688708e+002 
3937500000  -2.980729e+001  -1.700196e+002 
3940625000  -3.034103e+001  -1.699340e+002 
3943750000  -2.938157e+001  -1.686685e+002 
3946875000  -2.810111e+001  -1.742262e+002 
3950000000  -2.861225e+001  1.785129e+002 
3953125000  -2.956845e+001  1.785914e+002 
3956250000  -2.884902e+001  -1.783716e+002 
3959375000  -2.751252e+001  1.787948e+002 
3962500000  -2.693638e+001  1.747816e+002 
3965625000  -2.660168e+001  1.661725e+002 
3968750000  -2.752023e+001  1.593268e+002 
3971875000  -2.798723e+001  1.583999e+002 
3975000000  -2.727407e+001  1.562867e+002 
3978125000  -2.711755e+001  1.552329e+002 
3981250000  -2.679496e+001  1.510635e+002 
3984375000  -2.709039e+001  1.444263e+002 
3987500000  -2.753724e+001  1.424278e+002 
3990625000  -2.750945e+001  1.415007e+002 
3993750000  -2.779489e+001  1.386062e+002 
3996875000  -2.774894e+001  1.361123e+002 
4000000000  -2.777972e+001  1.342743e+002 
4003125000  -2.835423e+001  1.365126e+002 
4006250000  -2.705310e+001  1.368928e+002 
4009375000  -2.577169e+001  1.247269e+002 
4012500000  -2.679102e+001  1.177680e+002 
4015625000  -2.806244e+001  1.180699e+002 
4018750000  -2.824001e+001  1.204709e+002 
4021875000  -2.754814e+001  1.185952e+002 
4025000000  -2.717248e+001  1.136241e+002 
4028125000  -2.711038e+001  1.101058e+002 
4031250000  -2.758729e+001  1.067953e+002 
4034375000  -2.782358e+001  1.065831e+002 
4037500000  -2.734636e+001  1.078512e+002 
4040625000  -2.720092e+001  1.046003e+002 
4043750000  -2.758154e+001  1.039094e+002 
4046875000  -2.713348e+001  1.034703e+002 
4050000000  -2.662606e+001  9.798829e+001 
4053125000  -2.710860e+001  9.571923e+001 
4056250000  -2.775136e+001  9.972926e+001 
4059375000  -2.653735e+001  1.015401e+002 
4062500000  -2.521174e+001  9.733158e+001 
4065625000  -2.498875e+001  9.246607e+001 
4068750000  -2.482632e+001  8.790356e+001 
4071875000  -2.416222e+001  7.999628e+001 
4075000000  -2.449619e+001  7.372024e+001 
4078125000  -2.507566e+001  7.295364e+001 
4081250000  -2.462815e+001  7.069375e+001 
4084375000  -2.421663e+001  6.394511e+001 
4087500000  -2.452561e+001  5.764931e+001 
4090625000  -2.513668e+001  5.651437e+001 
4093750000  -2.503566e+001  5.757109e+001 
4096875000  -2.456292e+001  5.149052e+001 
4100000000  -2.525855e+001  4.443779e+001 
4103125000  -2.611747e+001  4.545550e+001 
4106250000  -2.601624e+001  4.989267e+001 
4109375000  -2.519186e+001  4.977248e+001 
4112500000  -2.461942e+001  4.351285e+001 
4115625000  -2.485336e+001  3.912785e+001 
4118750000  -2.502513e+001  3.605774e+001 
4121875000  -2.463767e+001  3.209709e+001 
4125000000  -2.494731e+001  2.702018e+001 
4128125000  -2.585189e+001  2.637260e+001 
4131250000  -2.568012e+001  3.467547e+001 
4134375000  -2.332571e+001  3.066960e+001 
4137500000  -2.307829e+001  1.249197e+001 
4140625000  -2.518215e+001  4.512600e+000 
4143750000  -2.652847e+001  9.450953e+000 
4146875000  -2.617732e+001  1.673770e+001 
4150000000  -2.520835e+001  1.386222e+001 
4153125000  -2.502612e+001  7.266812e+000 
4156250000  -2.588796e+001  4.826876e+000 
4159375000  -2.620093e+001  9.075113e+000 
4162500000  -2.503848e+001  1.332446e+001 
4165625000  -2.388905e+001  9.417612e+000 
4168750000  -2.324511e+001  2.243667e+000 
4171875000  -2.329509e+001  -6.932057e+000 
4175000000  -2.383560e+001  -1.295216e+001 
4178125000  -2.444355e+001  -1.327257e+001 
4181250000  -2.435492e+001  -1.383264e+001 
4184375000  -2.419583e+001  -1.662352e+001 
4187500000  -2.425253e+001  -1.964873e+001 
4190625000  -2.405062e+001  -2.475591e+001 
4193750000  -2.482959e+001  -2.896554e+001 
4196875000  -2.553992e+001  -2.930559e+001 
4200000000  -2.629276e+001  -2.721779e+001 
4203125000  -2.653878e+001  -1.453717e+001 
4206250000  -2.321760e+001  -1.209410e+001 
4209375000  -2.197199e+001  -3.213878e+001 
4212500000  -2.382595e+001  -4.159594e+001 
4215625000  -2.488428e+001  -3.548940e+001 
4218750000  -2.359965e+001  -2.865957e+001 
4221875000  -2.129939e+001  -3.749337e+001 
4225000000  -2.248591e+001  -5.032865e+001 
4228125000  -2.326030e+001  -4.515989e+001 
4231250000  -2.169010e+001  -4.833184e+001 
4234375000  -2.161939e+001  -5.694478e+001 
4237500000  -2.118111e+001  -5.997875e+001 
4240625000  -2.121836e+001  -6.842695e+001 
4243750000  -2.210794e+001  -7.511381e+001 
4246875000  -2.301350e+001  -7.532703e+001 
4250000000  -2.309553e+001  -7.243394e+001 
4253125000  -2.251103e+001  -7.405042e+001 
4256250000  -2.274554e+001  -7.825050e+001 
4259375000  -2.255380e+001  -8.013236e+001 
4262500000  -2.248741e+001  -8.385303e+001 
4265625000  -2.265398e+001  -8.354389e+001 
4268750000  -2.184227e+001  -8.752711e+001 
4271875000  -2.156173e+001  -9.277353e+001 
4275000000  -2.090858e+001  -9.895156e+001 
4278125000  -2.146815e+001  -1.106138e+002 
4281250000  -2.329222e+001  -1.126791e+002 
4284375000  -2.298430e+001  -1.121147e+002 
4287500000  -2.369600e+001  -1.154672e+002 
4290625000  -2.500483e+001  -1.064120e+002 
4293750000  -2.301559e+001  -1.005995e+002 
4296875000  -2.166082e+001  -1.117879e+002 
4300000000  -2.243550e+001  -1.213523e+002 
4303125000  -2.354285e+001  -1.206630e+002 
4306250000  -2.305790e+001  -1.143416e+002 
4309375000  -2.162781e+001  -1.161917e+002 
4312500000  -2.152365e+001  -1.243648e+002 
4315625000  -2.171809e+001  -1.307601e+002 
4318750000  -2.203508e+001  -1.341057e+002 
4321875000  -2.222630e+001  -1.339839e+002 
4325000000  -2.163950e+001  -1.333415e+002 
4328125000  -2.118879e+001  -1.396481e+002 
4331250000  -2.112935e+001  -1.476335e+002 
4334375000  -2.151954e+001  -1.526650e+002 
4337500000  -2.233887e+001  -1.550713e+002 
4340625000  -2.291165e+001  -1.521805e+002 
4343750000  -2.237082e+001  -1.513070e+002 
4346875000  -2.200248e+001  -1.568585e+002 
4350000000  -2.199677e+001  -1.611985e+002 
4353125000  -2.200829e+001  -1.690311e+002 
4356250000  -2.369642e+001  -1.706676e+002 
4359375000  -2.437217e+001  -1.576171e+002 
4362500000  -2.184215e+001  -1.551443e+002 
4365625000  -2.020499e+001  -1.661373e+002 
4368750000  -2.083289e+001  -1.779118e+002 
4371875000  -2.206551e+001  -1.777152e+002 
4375000000  -2.178289e+001  -1.762552e+002 
4378125000  -2.113318e+001  1.779958e+002 
4381250000  -2.126268e+001  1.725454e+002 
4384375000  -2.108706e+001  1.681164e+002 
4387500000  -2.179293e+001  1.624079e+002 
4390625000  -2.279844e+001  1.631295e+002 
4393750000  -2.220251e+001  1.652926e+002 
4396875000  -2.145720e+001  1.632645e+002 
4400000000  -2.099674e+001  1.565755e+002 
4403125000  -2.147291e+001  1.489234e+002 
4406250000  -2.236325e+001  1.476306e+002 
4409375000  -2.231124e+001  1.454657e+002 
4412500000  -2.328512e+001  1.426543e+002 
4415625000  -2.372148e+001  1.473194e+002 
4418750000  -2.255365e+001  1.519451e+002 
4421875000  -2.105229e+001  1.481241e+002 
