!Agilent Technologies,E8363B,MY43030201,A.06.04.32
!Agilent E8363B: A.06.04.32
!Date: Tuesday, November 11, 2014 20:57:58
!Correction: S21(Response(S21)) 
!S1P File: Measurement: S21:
# Hz S  dB   R 50
3000000000  -2.650842e+001  1.465339e+002 
3003125000  -2.794055e+001  1.418109e+002 
3006250000  -2.800824e+001  1.392416e+002 
3009375000  -2.837398e+001  1.443586e+002 
3012500000  -2.777738e+001  1.435906e+002 
3015625000  -2.688495e+001  1.368456e+002 
3018750000  -2.767358e+001  1.360683e+002 
3021875000  -2.638464e+001  1.372677e+002 
3025000000  -2.507598e+001  1.344431e+002 
3028125000  -2.412962e+001  1.289421e+002 
3031250000  -2.305559e+001  1.178614e+002 
3034375000  -2.275251e+001  1.045771e+002 
3037500000  -2.313428e+001  9.283289e+001 
3040625000  -2.446604e+001  8.800317e+001 
3043750000  -2.516711e+001  8.336076e+001 
3046875000  -2.529699e+001  7.744955e+001 
3050000000  -2.700783e+001  7.056416e+001 
3053125000  -2.709389e+001  7.727267e+001 
3056250000  -2.645080e+001  8.007755e+001 
3059375000  -2.665713e+001  7.974506e+001 
3062500000  -2.514772e+001  7.576851e+001 
3065625000  -2.493915e+001  6.974637e+001 
3068750000  -2.466939e+001  6.302967e+001 
3071875000  -2.462252e+001  6.017561e+001 
3075000000  -2.460224e+001  5.631943e+001 
3078125000  -2.436077e+001  5.163047e+001 
3081250000  -2.498540e+001  4.741067e+001 
3084375000  -2.419277e+001  4.372799e+001 
3087500000  -2.412882e+001  3.998354e+001 
3090625000  -2.381131e+001  3.029058e+001 
3093750000  -2.430279e+001  2.257228e+001 
3096875000  -2.557587e+001  1.625145e+001 
3100000000  -2.569534e+001  1.526529e+001 
3103125000  -2.606218e+001  1.646036e+001 
3106250000  -2.578646e+001  1.298717e+001 
3109375000  -2.599175e+001  9.375153e+000 
3112500000  -2.616233e+001  8.309219e+000 
3115625000  -2.595256e+001  4.302922e+000 
3118750000  -2.643599e+001  5.598109e+000 
3121875000  -2.576677e+001  -2.577358e+000 
3125000000  -2.700504e+001  -5.845315e+000 
3128125000  -2.816723e+001  2.172586e+000 
3131250000  -2.590596e+001  2.437489e+000 
3134375000  -2.462921e+001  -1.122034e+001 
3137500000  -2.531468e+001  -2.433841e+001 
3140625000  -2.687796e+001  -2.597466e+001 
3143750000  -2.794686e+001  -2.246663e+001 
3146875000  -2.750464e+001  -1.994306e+001 
3150000000  -2.649582e+001  -1.812196e+001 
3153125000  -2.647001e+001  -2.604371e+001 
3156250000  -2.748500e+001  -2.018089e+001 
3159375000  -2.586517e+001  -1.746057e+001 
3162500000  -2.383694e+001  -3.031145e+001 
3165625000  -2.478255e+001  -4.125526e+001 
3168750000  -2.517788e+001  -4.068828e+001 
3171875000  -2.419586e+001  -4.464105e+001 
3175000000  -2.489244e+001  -5.236363e+001 
3178125000  -2.466906e+001  -5.071816e+001 
3181250000  -2.350402e+001  -5.500376e+001 
3184375000  -2.275482e+001  -6.716942e+001 
3187500000  -2.385984e+001  -8.203960e+001 
3190625000  -2.666676e+001  -8.953172e+001 
3193750000  -2.718256e+001  -7.996381e+001 
3196875000  -2.678691e+001  -7.452071e+001 
3200000000  -2.583655e+001  -7.655230e+001 
3203125000  -2.499166e+001  -8.229052e+001 
3206250000  -2.533824e+001  -8.874521e+001 
3209375000  -2.483823e+001  -9.360134e+001 
3212500000  -2.502202e+001  -1.001963e+002 
3215625000  -2.513969e+001  -1.042852e+002 
3218750000  -2.590881e+001  -1.106564e+002 
3221875000  -2.684808e+001  -1.156376e+002 
3225000000  -2.644376e+001  -1.164109e+002 
3228125000  -2.680038e+001  -1.210046e+002 
3231250000  -2.753863e+001  -1.234307e+002 
3234375000  -2.736718e+001  -1.223907e+002 
3237500000  -2.744657e+001  -1.241601e+002 
3240625000  -2.706615e+001  -1.259111e+002 
3243750000  -2.672650e+001  -1.326941e+002 
3246875000  -2.721803e+001  -1.390409e+002 
3250000000  -2.770057e+001  -1.409040e+002 
3253125000  -2.782963e+001  -1.425230e+002 
3256250000  -2.770191e+001  -1.484196e+002 
3259375000  -2.804099e+001  -1.564689e+002 
3262500000  -2.930572e+001  -1.590109e+002 
3265625000  -2.996248e+001  -1.552813e+002 
3268750000  -2.997135e+001  -1.527746e+002 
3271875000  -2.960369e+001  -1.520793e+002 
3275000000  -2.856270e+001  -1.567962e+002 
3278125000  -2.907751e+001  -1.630871e+002 
3281250000  -2.932751e+001  -1.615372e+002 
3284375000  -2.892664e+001  -1.673770e+002 
3287500000  -2.907044e+001  -1.698919e+002 
3290625000  -2.949525e+001  -1.745636e+002 
3293750000  -2.915979e+001  -1.796276e+002 
3296875000  -3.023180e+001  -1.791972e+002 
3300000000  -3.006763e+001  -1.786889e+002 
3303125000  -2.895322e+001  1.776441e+002 
3306250000  -2.866443e+001  1.707496e+002 
3309375000  -2.842308e+001  1.658033e+002 
3312500000  -2.851933e+001  1.555555e+002 
3315625000  -2.953533e+001  1.479266e+002 
3318750000  -3.091597e+001  1.450512e+002 
3321875000  -3.212395e+001  1.448472e+002 
3325000000  -3.256637e+001  1.502404e+002 
3328125000  -3.257640e+001  1.524486e+002 
3331250000  -3.117377e+001  1.597490e+002 
3334375000  -2.856626e+001  1.494492e+002 
3337500000  -2.878588e+001  1.307902e+002 
3340625000  -3.020602e+001  1.197807e+002 
3343750000  -3.212790e+001  1.187499e+002 
3346875000  -3.260662e+001  1.209191e+002 
3350000000  -3.193194e+001  1.192072e+002 
3353125000  -3.212819e+001  1.148820e+002 
3356250000  -3.169454e+001  1.070351e+002 
3359375000  -3.262473e+001  9.854667e+001 
3362500000  -3.387674e+001  9.403070e+001 
3365625000  -3.459408e+001  9.124693e+001 
3368750000  -3.553556e+001  8.941933e+001 
3371875000  -3.592447e+001  8.726827e+001 
3375000000  -3.751013e+001  8.463695e+001 
3378125000  -3.867332e+001  8.447536e+001 
3381250000  -4.037485e+001  9.346072e+001 
3384375000  -3.918493e+001  1.131965e+002 
3387500000  -3.608103e+001  9.929248e+001 
3390625000  -3.792978e+001  8.062893e+001 
3393750000  -3.961031e+001  8.459072e+001 
3396875000  -3.891081e+001  8.830421e+001 
3400000000  -3.892052e+001  8.069009e+001 
3403125000  -3.981678e+001  7.753911e+001 
3406250000  -4.076532e+001  7.932907e+001 
3409375000  -4.142392e+001  7.641936e+001 
3412500000  -4.210472e+001  7.780756e+001 
3415625000  -4.293750e+001  8.262003e+001 
3418750000  -4.328590e+001  8.548044e+001 
3421875000  -4.346212e+001  9.377483e+001 
3425000000  -4.255371e+001  9.714809e+001 
3428125000  -4.157859e+001  9.492698e+001 
3431250000  -4.151980e+001  9.020589e+001 
3434375000  -4.135027e+001  8.724773e+001 
3437500000  -4.177737e+001  8.701392e+001 
3440625000  -4.207471e+001  8.845538e+001 
3443750000  -4.083746e+001  9.215112e+001 
3446875000  -3.987980e+001  8.790612e+001 
3450000000  -3.983245e+001  7.674638e+001 
3453125000  -4.014809e+001  6.799357e+001 
3456250000  -4.128705e+001  6.480594e+001 
3459375000  -4.210027e+001  6.720409e+001 
3462500000  -4.225672e+001  6.610007e+001 
3465625000  -4.244616e+001  6.461256e+001 
3468750000  -4.270884e+001  6.154000e+001 
3471875000  -4.271450e+001  6.246093e+001 
3475000000  -4.267722e+001  5.595445e+001 
3478125000  -4.332136e+001  5.205622e+001 
3481250000  -4.460791e+001  4.903076e+001 
3484375000  -4.603635e+001  5.655257e+001 
3487500000  -4.572147e+001  5.916255e+001 
3490625000  -4.488913e+001  5.577654e+001 
3493750000  -4.588233e+001  5.292415e+001 
3496875000  -4.655135e+001  5.606113e+001 
3500000000  -4.820394e+001  6.093338e+001 
3503125000  -4.825781e+001  6.698927e+001 
3506250000  -4.621290e+001  6.646201e+001 
3509375000  -4.646850e+001  6.240510e+001 
3512500000  -4.724518e+001  6.061953e+001 
3515625000  -4.740627e+001  6.648318e+001 
3518750000  -4.837658e+001  7.337424e+001 
3521875000  -4.741935e+001  7.275712e+001 
3525000000  -4.787017e+001  7.674844e+001 
3528125000  -4.715987e+001  8.675423e+001 
3531250000  -4.569131e+001  8.949778e+001 
3534375000  -4.454116e+001  7.991763e+001 
3537500000  -4.480205e+001  7.638953e+001 
3540625000  -4.526722e+001  7.793122e+001 
3543750000  -4.595098e+001  8.128122e+001 
3546875000  -4.525383e+001  9.259568e+001 
3550000000  -4.301688e+001  9.029088e+001 
3553125000  -4.130377e+001  7.903043e+001 
3556250000  -4.246046e+001  7.302885e+001 
3559375000  -4.195425e+001  7.480853e+001 
3562500000  -4.086818e+001  6.560089e+001 
3565625000  -4.157640e+001  5.868630e+001 
3568750000  -4.150543e+001  6.517192e+001 
3571875000  -4.114403e+001  6.318452e+001 
3575000000  -4.064910e+001  6.035611e+001 
3578125000  -4.118741e+001  5.587947e+001 
3581250000  -4.146714e+001  5.401477e+001 
3584375000  -4.054350e+001  5.533391e+001 
3587500000  -3.968291e+001  4.964079e+001 
3590625000  -3.998941e+001  4.021730e+001 
3593750000  -4.097816e+001  3.758849e+001 
3596875000  -4.093628e+001  4.802290e+001 
3600000000  -3.948716e+001  4.310457e+001 
3603125000  -3.968830e+001  3.020373e+001 
3606250000  -4.042054e+001  2.676377e+001 
3609375000  -4.047984e+001  2.629307e+001 
3612500000  -4.107153e+001  2.490921e+001 
3615625000  -4.110139e+001  2.213283e+001 
3618750000  -4.164899e+001  2.421351e+001 
3621875000  -4.137307e+001  2.267520e+001 
3625000000  -4.153436e+001  2.393609e+001 
3628125000  -4.147716e+001  2.178196e+001 
3631250000  -4.125704e+001  1.712056e+001 
3634375000  -4.224686e+001  1.968355e+001 
3637500000  -4.190891e+001  2.559660e+001 
3640625000  -4.070094e+001  2.596973e+001 
3643750000  -4.047420e+001  2.028838e+001 
3646875000  -4.074235e+001  1.419245e+001 
3650000000  -4.164505e+001  1.383254e+001 
3653125000  -4.122187e+001  1.351709e+001 
3656250000  -4.149789e+001  1.299267e+001 
3659375000  -4.186759e+001  1.677691e+001 
3662500000  -4.102619e+001  1.518791e+001 
3665625000  -4.122695e+001  1.657589e+001 
3668750000  -4.024208e+001  1.844334e+001 
3671875000  -3.922934e+001  1.361339e+001 
3675000000  -3.958935e+001  5.714380e+000 
3678125000  -4.023781e+001  9.126822e+000 
3681250000  -3.955109e+001  9.184209e+000 
3684375000  -3.941236e+001  8.145143e+000 
3687500000  -3.962339e+001  5.289837e+000 
3690625000  -3.976940e+001  2.691686e+000 
3693750000  -4.020868e+001  4.975084e+000 
3696875000  -4.001757e+001  8.956248e+000 
3700000000  -3.877744e+001  6.399284e+000 
3703125000  -3.854615e+001  4.133382e+000 
3706250000  -3.928728e+001  5.180541e+000 
3709375000  -3.865406e+001  7.724219e+000 
3712500000  -3.735349e+001  8.201721e+000 
3715625000  -3.629966e+001  1.484200e+000 
3718750000  -3.559661e+001  -1.602392e+000 
3721875000  -3.537771e+001  -5.532550e+000 
3725000000  -3.521549e+001  -1.044588e+001 
3728125000  -3.539804e+001  -1.108954e+001 
3731250000  -3.474725e+001  -1.186706e+001 
3734375000  -3.378576e+001  -1.833158e+001 
3737500000  -3.423185e+001  -2.477995e+001 
3740625000  -3.503492e+001  -2.813668e+001 
3743750000  -3.463258e+001  -3.098179e+001 
3746875000  -3.459224e+001  -3.441203e+001 
3750000000  -3.498405e+001  -3.453757e+001 
3753125000  -3.461607e+001  -3.547182e+001 
3756250000  -3.459294e+001  -3.586506e+001 
3759375000  -3.437442e+001  -3.617329e+001 
3762500000  -3.375396e+001  -3.974878e+001 
3765625000  -3.428257e+001  -4.293422e+001 
3768750000  -3.434333e+001  -4.027484e+001 
3771875000  -3.255510e+001  -4.227552e+001 
3775000000  -3.242849e+001  -5.079307e+001 
3778125000  -3.262529e+001  -5.246208e+001 
3781250000  -3.247451e+001  -5.541432e+001 
3784375000  -3.230560e+001  -5.653586e+001 
3787500000  -3.173729e+001  -6.025863e+001 
3790625000  -3.235205e+001  -6.637608e+001 
3793750000  -3.237214e+001  -6.711229e+001 
3796875000  -3.146621e+001  -6.776095e+001 
3800000000  -2.996193e+001  -7.144382e+001 
3803125000  -3.071824e+001  -7.889673e+001 
3806250000  -3.138604e+001  -8.089956e+001 
3809375000  -3.117531e+001  -8.233134e+001 
3812500000  -3.041047e+001  -8.668831e+001 
3815625000  -3.102654e+001  -9.460719e+001 
3818750000  -3.205629e+001  -9.579046e+001 
3821875000  -3.208963e+001  -8.749930e+001 
3825000000  -3.008246e+001  -8.252983e+001 
3828125000  -2.873287e+001  -9.713519e+001 
3831250000  -2.922166e+001  -1.113837e+002 
3834375000  -3.072229e+001  -1.119098e+002 
3837500000  -3.154334e+001  -1.066226e+002 
3840625000  -3.046595e+001  -1.083802e+002 
3843750000  -2.920042e+001  -1.179870e+002 
3846875000  -2.991948e+001  -1.250356e+002 
3850000000  -3.132199e+001  -1.193653e+002 
3853125000  -3.048554e+001  -1.169192e+002 
3856250000  -3.038988e+001  -1.218143e+002 
3859375000  -2.969984e+001  -1.267788e+002 
3862500000  -2.922924e+001  -1.336694e+002 
3865625000  -2.951306e+001  -1.380010e+002 
3868750000  -2.958821e+001  -1.386573e+002 
3871875000  -2.879731e+001  -1.416234e+002 
3875000000  -2.904525e+001  -1.502313e+002 
3878125000  -3.008166e+001  -1.527883e+002 
3881250000  -3.011480e+001  -1.500178e+002 
3884375000  -2.959217e+001  -1.546504e+002 
3887500000  -2.974335e+001  -1.586599e+002 
3890625000  -3.029300e+001  -1.608517e+002 
3893750000  -3.075248e+001  -1.626385e+002 
3896875000  -3.081931e+001  -1.618817e+002 
3900000000  -3.105997e+001  -1.619208e+002 
3903125000  -3.064265e+001  -1.640404e+002 
3906250000  -3.039046e+001  -1.647709e+002 
3909375000  -2.969235e+001  -1.677242e+002 
3912500000  -2.973772e+001  -1.754733e+002 
3915625000  -3.099783e+001  -1.746430e+002 
3918750000  -3.103565e+001  -1.720958e+002 
3921875000  -3.054992e+001  -1.736908e+002 
3925000000  -2.977402e+001  -1.747247e+002 
3928125000  -2.912444e+001  1.791230e+002 
3931250000  -2.956409e+001  1.755710e+002 
3934375000  -2.983601e+001  1.758257e+002 
3937500000  -2.988083e+001  1.751326e+002 
3940625000  -3.040082e+001  1.752338e+002 
3943750000  -2.946604e+001  1.767219e+002 
3946875000  -2.823614e+001  1.710037e+002 
3950000000  -2.867261e+001  1.635181e+002 
3953125000  -2.964857e+001  1.639685e+002 
3956250000  -2.870232e+001  1.668437e+002 
3959375000  -2.734700e+001  1.638307e+002 
3962500000  -2.685941e+001  1.598449e+002 
3965625000  -2.661403e+001  1.506303e+002 
3968750000  -2.753170e+001  1.440820e+002 
3971875000  -2.788400e+001  1.428048e+002 
3975000000  -2.726465e+001  1.402794e+002 
3978125000  -2.704357e+001  1.392323e+002 
3981250000  -2.681751e+001  1.349040e+002 
3984375000  -2.706791e+001  1.283976e+002 
3987500000  -2.754448e+001  1.263093e+002 
3990625000  -2.754057e+001  1.255906e+002 
3993750000  -2.784746e+001  1.227279e+002 
3996875000  -2.771513e+001  1.200884e+002 
4000000000  -2.796282e+001  1.178349e+002 
4003125000  -2.844186e+001  1.206668e+002 
4006250000  -2.709853e+001  1.203923e+002 
4009375000  -2.583830e+001  1.083754e+002 
4012500000  -2.697317e+001  1.014919e+002 
4015625000  -2.819518e+001  1.021478e+002 
4018750000  -2.840326e+001  1.048468e+002 
4021875000  -2.767524e+001  1.028259e+002 
4025000000  -2.730012e+001  9.825712e+001 
4028125000  -2.725938e+001  9.391535e+001 
4031250000  -2.773213e+001  9.046059e+001 
4034375000  -2.800376e+001  9.087353e+001 
4037500000  -2.751221e+001  9.273490e+001 
4040625000  -2.739701e+001  8.956853e+001 
4043750000  -2.774121e+001  8.906381e+001 
4046875000  -2.728370e+001  8.815460e+001 
4050000000  -2.677947e+001  8.293464e+001 
4053125000  -2.726433e+001  8.124934e+001 
4056250000  -2.780444e+001  8.548968e+001 
4059375000  -2.653912e+001  8.648022e+001 
4062500000  -2.515409e+001  8.226385e+001 
4065625000  -2.511038e+001  7.764668e+001 
4068750000  -2.475116e+001  7.297115e+001 
4071875000  -2.414018e+001  6.532793e+001 
4075000000  -2.451783e+001  5.886235e+001 
4078125000  -2.503413e+001  5.784112e+001 
4081250000  -2.449015e+001  5.529662e+001 
4084375000  -2.412125e+001  4.873197e+001 
4087500000  -2.451056e+001  4.223695e+001 
4090625000  -2.508821e+001  4.107430e+001 
4093750000  -2.489011e+001  4.205456e+001 
4096875000  -2.445724e+001  3.593933e+001 
4100000000  -2.515558e+001  2.906529e+001 
4103125000  -2.606454e+001  2.972434e+001 
4106250000  -2.594442e+001  3.495556e+001 
4109375000  -2.500099e+001  3.406078e+001 
4112500000  -2.444022e+001  2.736600e+001 
4115625000  -2.482664e+001  2.294713e+001 
4118750000  -2.486065e+001  2.001108e+001 
4121875000  -2.448858e+001  1.537258e+001 
4125000000  -2.490079e+001  1.044487e+001 
4128125000  -2.594273e+001  1.042532e+001 
4131250000  -2.561156e+001  1.883140e+001 
4134375000  -2.324640e+001  1.425812e+001 
4137500000  -2.308428e+001  -4.759870e+000 
4140625000  -2.527765e+001  -1.164608e+001 
4143750000  -2.659485e+001  -6.233918e+000 
4146875000  -2.613269e+001  9.361580e-001 
4150000000  -2.514289e+001  -2.529796e+000 
4153125000  -2.506428e+001  -8.959814e+000 
4156250000  -2.595996e+001  -1.125029e+001 
4159375000  -2.621667e+001  -6.685916e+000 
4162500000  -2.508155e+001  -2.744856e+000 
4165625000  -2.393516e+001  -6.683491e+000 
4168750000  -2.332397e+001  -1.394556e+001 
4171875000  -2.328339e+001  -2.304744e+001 
4175000000  -2.387426e+001  -2.881755e+001 
4178125000  -2.448968e+001  -2.853718e+001 
4181250000  -2.430031e+001  -2.936867e+001 
4184375000  -2.420044e+001  -3.271523e+001 
4187500000  -2.427514e+001  -3.528727e+001 
4190625000  -2.400644e+001  -4.093328e+001 
4193750000  -2.492884e+001  -4.478529e+001 
4196875000  -2.560956e+001  -4.484304e+001 
4200000000  -2.647988e+001  -4.232141e+001 
4203125000  -2.644799e+001  -2.911318e+001 
4206250000  -2.296883e+001  -2.804392e+001 
4209375000  -2.188121e+001  -4.855101e+001 
4212500000  -2.378011e+001  -5.737627e+001 
4215625000  -2.483743e+001  -5.097566e+001 
4218750000  -2.345046e+001  -4.467040e+001 
4221875000  -2.113117e+001  -5.340420e+001 
4225000000  -2.246207e+001  -6.592478e+001 
4228125000  -2.308472e+001  -6.053315e+001 
4231250000  -2.151755e+001  -6.467768e+001 
4234375000  -2.141908e+001  -7.331834e+001 
4237500000  -2.102918e+001  -7.630105e+001 
4240625000  -2.105804e+001  -8.503537e+001 
4243750000  -2.204145e+001  -9.183530e+001 
4246875000  -2.291560e+001  -9.193539e+001 
4250000000  -2.297565e+001  -8.880727e+001 
4253125000  -2.238293e+001  -9.088098e+001 
4256250000  -2.266382e+001  -9.471525e+001 
4259375000  -2.240839e+001  -9.680929e+001 
4262500000  -2.245247e+001  -1.006309e+002 
4265625000  -2.261735e+001  -1.001091e+002 
4268750000  -2.170338e+001  -1.043658e+002 
4271875000  -2.146711e+001  -1.099774e+002 
4275000000  -2.082053e+001  -1.165679e+002 
4278125000  -2.153687e+001  -1.276909e+002 
4281250000  -2.327285e+001  -1.293957e+002 
4284375000  -2.296859e+001  -1.288448e+002 
4287500000  -2.376035e+001  -1.319312e+002 
4290625000  -2.495910e+001  -1.223411e+002 
4293750000  -2.301518e+001  -1.173637e+002 
4296875000  -2.164889e+001  -1.285931e+002 
4300000000  -2.250592e+001  -1.378600e+002 
4303125000  -2.365506e+001  -1.364730e+002 
4306250000  -2.294211e+001  -1.305003e+002 
4309375000  -2.161911e+001  -1.326160e+002 
4312500000  -2.145934e+001  -1.411931e+002 
4315625000  -2.167982e+001  -1.473689e+002 
4318750000  -2.204007e+001  -1.507968e+002 
4321875000  -2.216747e+001  -1.500286e+002 
4325000000  -2.158277e+001  -1.492842e+002 
4328125000  -2.108547e+001  -1.560459e+002 
4331250000  -2.101345e+001  -1.641850e+002 
4334375000  -2.149387e+001  -1.694414e+002 
4337500000  -2.234684e+001  -1.712670e+002 
4340625000  -2.287580e+001  -1.678571e+002 
4343750000  -2.225646e+001  -1.677216e+002 
4346875000  -2.188132e+001  -1.732081e+002 
4350000000  -2.189201e+001  -1.779998e+002 
4353125000  -2.195945e+001  1.744261e+002 
4356250000  -2.379274e+001  1.735781e+002 
4359375000  -2.426154e+001  -1.723961e+002 
4362500000  -2.152451e+001  -1.712023e+002 
4365625000  -1.995763e+001  1.766239e+002 
4368750000  -2.071786e+001  1.649156e+002 
4371875000  -2.195364e+001  1.658682e+002 
4375000000  -2.156862e+001  1.667935e+002 
4378125000  -2.097990e+001  1.608222e+002 
4381250000  -2.110018e+001  1.552866e+002 
4384375000  -2.093038e+001  1.509956e+002 
4387500000  -2.167492e+001  1.451752e+002 
4390625000  -2.267779e+001  1.461824e+002 
4393750000  -2.202289e+001  1.482256e+002 
4396875000  -2.136082e+001  1.460998e+002 
4400000000  -2.084410e+001  1.390348e+002 
4403125000  -2.146516e+001  1.311191e+002 
4406250000  -2.229003e+001  1.301673e+002 
4409375000  -2.223669e+001  1.279988e+002 
4412500000  -2.331668e+001  1.253844e+002 
4415625000  -2.365760e+001  1.303501e+002 
4418750000  -2.239515e+001  1.348844e+002 
