!Agilent Technologies,E8363B,MY43030201,A.06.04.32
!Agilent E8363B: A.06.04.32
!Date: Tuesday, November 11, 2014 20:49:49
!Correction: S21(Response(S21)) 
!S1P File: Measurement: S21:
# Hz S  dB   R 50
3000000000  -2.653919e+001  1.538639e+002 
3003125000  -2.791677e+001  1.493753e+002 
3006250000  -2.798620e+001  1.467760e+002 
3009375000  -2.832371e+001  1.514307e+002 
3012500000  -2.787183e+001  1.514648e+002 
3015625000  -2.682526e+001  1.441819e+002 
3018750000  -2.771430e+001  1.436311e+002 
3021875000  -2.646698e+001  1.448215e+002 
3025000000  -2.514916e+001  1.415856e+002 
3028125000  -2.417686e+001  1.366527e+002 
3031250000  -2.313693e+001  1.255789e+002 
3034375000  -2.278324e+001  1.126138e+002 
3037500000  -2.311930e+001  1.006098e+002 
3040625000  -2.445778e+001  9.556941e+001 
3043750000  -2.515176e+001  9.109620e+001 
3046875000  -2.525536e+001  8.511448e+001 
3050000000  -2.700752e+001  7.777889e+001 
3053125000  -2.713897e+001  8.470197e+001 
3056250000  -2.647077e+001  8.741192e+001 
3059375000  -2.670373e+001  8.712549e+001 
3062500000  -2.522151e+001  8.338303e+001 
3065625000  -2.501255e+001  7.749809e+001 
3068750000  -2.473006e+001  7.062263e+001 
3071875000  -2.467053e+001  6.757628e+001 
3075000000  -2.462816e+001  6.414231e+001 
3078125000  -2.436460e+001  5.920366e+001 
3081250000  -2.499646e+001  5.520263e+001 
3084375000  -2.426608e+001  5.140632e+001 
3087500000  -2.410330e+001  4.750753e+001 
3090625000  -2.382075e+001  3.823367e+001 
3093750000  -2.423376e+001  3.017524e+001 
3096875000  -2.554674e+001  2.406276e+001 
3100000000  -2.568266e+001  2.269067e+001 
3103125000  -2.605097e+001  2.427375e+001 
3106250000  -2.579122e+001  2.074453e+001 
3109375000  -2.602210e+001  1.705591e+001 
3112500000  -2.614333e+001  1.640836e+001 
3115625000  -2.593402e+001  1.212924e+001 
3118750000  -2.646504e+001  1.317057e+001 
3121875000  -2.576906e+001  5.017642e+000 
3125000000  -2.692609e+001  1.674123e+000 
3128125000  -2.815122e+001  9.578736e+000 
3131250000  -2.594890e+001  1.044250e+001 
3134375000  -2.463436e+001  -3.490104e+000 
3137500000  -2.526656e+001  -1.713742e+001 
3140625000  -2.688538e+001  -1.883669e+001 
3143750000  -2.792336e+001  -1.460190e+001 
3146875000  -2.750970e+001  -1.270405e+001 
3150000000  -2.647559e+001  -1.041276e+001 
3153125000  -2.648106e+001  -1.809197e+001 
3156250000  -2.746209e+001  -1.297103e+001 
3159375000  -2.593774e+001  -1.016128e+001 
3162500000  -2.387737e+001  -2.271887e+001 
3165625000  -2.480537e+001  -3.369839e+001 
3168750000  -2.519536e+001  -3.286573e+001 
3171875000  -2.423309e+001  -3.703678e+001 
3175000000  -2.487705e+001  -4.485670e+001 
3178125000  -2.466597e+001  -4.311934e+001 
3181250000  -2.350049e+001  -4.719133e+001 
3184375000  -2.267599e+001  -5.940224e+001 
3187500000  -2.381137e+001  -7.438868e+001 
3190625000  -2.657692e+001  -8.212859e+001 
3193750000  -2.717810e+001  -7.255288e+001 
3196875000  -2.675533e+001  -6.687437e+001 
3200000000  -2.591992e+001  -6.887819e+001 
3203125000  -2.498384e+001  -7.445946e+001 
3206250000  -2.530774e+001  -8.076834e+001 
3209375000  -2.483772e+001  -8.583396e+001 
3212500000  -2.497785e+001  -9.242547e+001 
3215625000  -2.512086e+001  -9.681553e+001 
3218750000  -2.586246e+001  -1.030485e+002 
3221875000  -2.679430e+001  -1.082064e+002 
3225000000  -2.646366e+001  -1.085646e+002 
3228125000  -2.673649e+001  -1.131636e+002 
3231250000  -2.751961e+001  -1.161032e+002 
3234375000  -2.736863e+001  -1.147705e+002 
3237500000  -2.736005e+001  -1.165444e+002 
3240625000  -2.707639e+001  -1.182055e+002 
3243750000  -2.671554e+001  -1.249912e+002 
3246875000  -2.718796e+001  -1.313668e+002 
3250000000  -2.766202e+001  -1.332500e+002 
3253125000  -2.780322e+001  -1.349056e+002 
3256250000  -2.768805e+001  -1.409090e+002 
3259375000  -2.795260e+001  -1.484565e+002 
3262500000  -2.922535e+001  -1.514264e+002 
3265625000  -2.987595e+001  -1.481458e+002 
3268750000  -2.992248e+001  -1.454379e+002 
3271875000  -2.965447e+001  -1.444286e+002 
3275000000  -2.857596e+001  -1.491840e+002 
3278125000  -2.901125e+001  -1.554945e+002 
3281250000  -2.931395e+001  -1.534738e+002 
3284375000  -2.885620e+001  -1.596258e+002 
3287500000  -2.905467e+001  -1.621631e+002 
3290625000  -2.938719e+001  -1.666343e+002 
3293750000  -2.915519e+001  -1.722155e+002 
3296875000  -3.013972e+001  -1.719249e+002 
3300000000  -3.004363e+001  -1.712758e+002 
3303125000  -2.892089e+001  -1.749631e+002 
3306250000  -2.867242e+001  1.785201e+002 
3309375000  -2.841524e+001  1.732715e+002 
3312500000  -2.851272e+001  1.631598e+002 
3315625000  -2.945102e+001  1.554731e+002 
3318750000  -3.081527e+001  1.523006e+002 
3321875000  -3.212389e+001  1.529711e+002 
3325000000  -3.266893e+001  1.575158e+002 
3328125000  -3.240522e+001  1.591240e+002 
3331250000  -3.132060e+001  1.663814e+002 
3334375000  -2.868703e+001  1.571479e+002 
3337500000  -2.875979e+001  1.392795e+002 
3340625000  -3.008648e+001  1.279369e+002 
3343750000  -3.197496e+001  1.267982e+002 
3346875000  -3.257352e+001  1.284206e+002 
3350000000  -3.191367e+001  1.266479e+002 
3353125000  -3.196979e+001  1.224870e+002 
3356250000  -3.166900e+001  1.145422e+002 
3359375000  -3.265414e+001  1.060599e+002 
3362500000  -3.380838e+001  1.009141e+002 
3365625000  -3.446833e+001  9.937228e+001 
3368750000  -3.549663e+001  9.779472e+001 
3371875000  -3.599731e+001  9.447584e+001 
3375000000  -3.738134e+001  9.216101e+001 
3378125000  -3.835684e+001  9.159296e+001 
3381250000  -3.991806e+001  9.859729e+001 
3384375000  -3.914273e+001  1.206691e+002 
3387500000  -3.598174e+001  1.061804e+002 
3390625000  -3.779133e+001  8.833360e+001 
3393750000  -3.966680e+001  9.171846e+001 
3396875000  -3.880352e+001  9.558263e+001 
3400000000  -3.880119e+001  8.734645e+001 
3403125000  -3.961968e+001  8.329868e+001 
3406250000  -4.025956e+001  8.549816e+001 
3409375000  -4.133624e+001  8.225035e+001 
3412500000  -4.210516e+001  8.310115e+001 
3415625000  -4.304615e+001  8.803838e+001 
3418750000  -4.297350e+001  9.244696e+001 
3421875000  -4.354137e+001  9.846638e+001 
3425000000  -4.260048e+001  1.029861e+002 
3428125000  -4.168780e+001  1.013248e+002 
3431250000  -4.164186e+001  9.840572e+001 
3434375000  -4.143407e+001  9.446675e+001 
3437500000  -4.188991e+001  9.406988e+001 
3440625000  -4.220509e+001  9.750334e+001 
3443750000  -4.083169e+001  9.747393e+001 
3446875000  -4.032867e+001  9.319299e+001 
3450000000  -3.980468e+001  8.459706e+001 
3453125000  -4.012636e+001  7.653033e+001 
3456250000  -4.127864e+001  7.075597e+001 
3459375000  -4.225211e+001  7.200784e+001 
3462500000  -4.242642e+001  7.337923e+001 
3465625000  -4.265169e+001  6.945442e+001 
3468750000  -4.289037e+001  6.624046e+001 
3471875000  -4.288809e+001  6.752989e+001 
3475000000  -4.288916e+001  6.225625e+001 
3478125000  -4.357619e+001  5.797659e+001 
3481250000  -4.457539e+001  5.584934e+001 
3484375000  -4.617006e+001  6.154253e+001 
3487500000  -4.620790e+001  6.601595e+001 
3490625000  -4.530108e+001  5.977428e+001 
3493750000  -4.613680e+001  5.985233e+001 
3496875000  -4.647377e+001  6.142503e+001 
3500000000  -4.838957e+001  6.821465e+001 
3503125000  -4.819363e+001  7.465757e+001 
3506250000  -4.667549e+001  7.405868e+001 
3509375000  -4.662695e+001  7.200345e+001 
3512500000  -4.776066e+001  7.010677e+001 
3515625000  -4.784528e+001  7.378712e+001 
3518750000  -4.844194e+001  8.188063e+001 
3521875000  -4.804053e+001  8.128600e+001 
3525000000  -4.838118e+001  8.080592e+001 
3528125000  -4.743354e+001  9.431322e+001 
3531250000  -4.610284e+001  9.470534e+001 
3534375000  -4.560040e+001  9.057536e+001 
3537500000  -4.518569e+001  8.695092e+001 
3540625000  -4.575381e+001  8.632129e+001 
3543750000  -4.599191e+001  8.808714e+001 
3546875000  -4.554059e+001  1.005070e+002 
3550000000  -4.287771e+001  1.043777e+002 
3553125000  -4.140651e+001  8.614014e+001 
3556250000  -4.250612e+001  7.948737e+001 
3559375000  -4.195993e+001  8.207920e+001 
3562500000  -4.104501e+001  7.604040e+001 
3565625000  -4.167607e+001  6.926305e+001 
3568750000  -4.193589e+001  7.170298e+001 
3571875000  -4.166584e+001  7.161184e+001 
3575000000  -4.111547e+001  6.834521e+001 
3578125000  -4.140042e+001  6.418032e+001 
3581250000  -4.159106e+001  6.302100e+001 
3584375000  -4.099266e+001  6.307409e+001 
3587500000  -4.001970e+001  5.799734e+001 
3590625000  -4.017549e+001  4.833155e+001 
3593750000  -4.134499e+001  4.716057e+001 
3596875000  -4.151803e+001  5.455154e+001 
3600000000  -3.975304e+001  5.075781e+001 
3603125000  -3.990944e+001  3.961494e+001 
3606250000  -4.034267e+001  3.541205e+001 
3609375000  -4.081704e+001  3.531485e+001 
3612500000  -4.140384e+001  3.471762e+001 
3615625000  -4.141451e+001  3.123147e+001 
3618750000  -4.206002e+001  3.238511e+001 
3621875000  -4.156545e+001  3.147821e+001 
3625000000  -4.164870e+001  3.173092e+001 
3628125000  -4.192945e+001  3.071265e+001 
3631250000  -4.137831e+001  2.711464e+001 
3634375000  -4.245139e+001  2.863505e+001 
3637500000  -4.219947e+001  3.254475e+001 
3640625000  -4.112116e+001  3.520060e+001 
3643750000  -4.052443e+001  2.955088e+001 
3646875000  -4.110081e+001  2.513839e+001 
3650000000  -4.170227e+001  2.237017e+001 
3653125000  -4.126631e+001  2.299348e+001 
3656250000  -4.178325e+001  2.117298e+001 
3659375000  -4.214655e+001  2.444095e+001 
3662500000  -4.117475e+001  2.497861e+001 
3665625000  -4.147375e+001  2.240478e+001 
3668750000  -4.059164e+001  2.700856e+001 
3671875000  -3.938108e+001  2.195651e+001 
3675000000  -3.995846e+001  1.493169e+001 
3678125000  -4.040040e+001  1.806970e+001 
3681250000  -4.000830e+001  1.855579e+001 
3684375000  -3.982650e+001  1.690762e+001 
3687500000  -3.979807e+001  1.471417e+001 
3690625000  -4.009752e+001  1.292284e+001 
3693750000  -4.035492e+001  1.540420e+001 
3696875000  -4.045689e+001  1.967780e+001 
3700000000  -3.897395e+001  1.687496e+001 
3703125000  -3.885834e+001  1.423111e+001 
3706250000  -3.958598e+001  1.429249e+001 
3709375000  -3.881113e+001  1.940462e+001 
3712500000  -3.761378e+001  1.799660e+001 
3715625000  -3.653445e+001  1.249847e+001 
3718750000  -3.585420e+001  9.667701e+000 
3721875000  -3.543767e+001  5.014269e+000 
3725000000  -3.533849e+001  -3.792445e-001 
3728125000  -3.554052e+001  -8.711609e-001 
3731250000  -3.493578e+001  -2.290817e+000 
3734375000  -3.384348e+001  -7.402543e+000 
3737500000  -3.433447e+001  -1.478620e+001 
3740625000  -3.492373e+001  -1.795069e+001 
3743750000  -3.472050e+001  -2.089634e+001 
3746875000  -3.457864e+001  -2.432265e+001 
3750000000  -3.508844e+001  -2.535039e+001 
3753125000  -3.467738e+001  -2.457191e+001 
3756250000  -3.466734e+001  -2.616199e+001 
3759375000  -3.445290e+001  -2.612852e+001 
3762500000  -3.379337e+001  -2.991762e+001 
3765625000  -3.427408e+001  -3.269763e+001 
3768750000  -3.437102e+001  -3.070013e+001 
3771875000  -3.274911e+001  -3.229600e+001 
3775000000  -3.238340e+001  -4.011297e+001 
3778125000  -3.274744e+001  -4.235408e+001 
3781250000  -3.259094e+001  -4.528970e+001 
3784375000  -3.245441e+001  -4.701202e+001 
3787500000  -3.176556e+001  -5.113270e+001 
3790625000  -3.231600e+001  -5.677410e+001 
3793750000  -3.250899e+001  -5.646658e+001 
3796875000  -3.166937e+001  -5.886123e+001 
3800000000  -3.006377e+001  -6.197777e+001 
3803125000  -3.082046e+001  -6.865104e+001 
3806250000  -3.153381e+001  -7.171058e+001 
3809375000  -3.119308e+001  -7.199529e+001 
3812500000  -3.051974e+001  -7.773582e+001 
3815625000  -3.107672e+001  -8.523944e+001 
3818750000  -3.207549e+001  -8.635921e+001 
3821875000  -3.207910e+001  -7.816822e+001 
3825000000  -3.028430e+001  -7.299870e+001 
3828125000  -2.890799e+001  -8.673635e+001 
3831250000  -2.934300e+001  -1.010764e+002 
3834375000  -3.074421e+001  -1.019724e+002 
3837500000  -3.157395e+001  -9.713207e+001 
3840625000  -3.057184e+001  -9.805508e+001 
3843750000  -2.933803e+001  -1.078689e+002 
3846875000  -3.005539e+001  -1.154266e+002 
3850000000  -3.123199e+001  -1.104675e+002 
3853125000  -3.040491e+001  -1.074134e+002 
3856250000  -3.050958e+001  -1.116380e+002 
3859375000  -2.974412e+001  -1.168447e+002 
3862500000  -2.929841e+001  -1.236317e+002 
3865625000  -2.956295e+001  -1.281580e+002 
3868750000  -2.955021e+001  -1.287168e+002 
3871875000  -2.894959e+001  -1.313867e+002 
3875000000  -2.903045e+001  -1.398969e+002 
3878125000  -3.008888e+001  -1.429604e+002 
3881250000  -3.019095e+001  -1.399998e+002 
3884375000  -2.966588e+001  -1.442652e+002 
3887500000  -2.977510e+001  -1.486668e+002 
3890625000  -3.029652e+001  -1.512561e+002 
3893750000  -3.076409e+001  -1.515515e+002 
3896875000  -3.073568e+001  -1.516425e+002 
3900000000  -3.109238e+001  -1.524364e+002 
3903125000  -3.067097e+001  -1.549220e+002 
3906250000  -3.049680e+001  -1.554621e+002 
3909375000  -2.980064e+001  -1.578412e+002 
3912500000  -2.976200e+001  -1.654875e+002 
3915625000  -3.105082e+001  -1.640871e+002 
3918750000  -3.100459e+001  -1.625726e+002 
3921875000  -3.064709e+001  -1.643533e+002 
3925000000  -2.986703e+001  -1.647564e+002 
3928125000  -2.915125e+001  -1.707233e+002 
3931250000  -2.954603e+001  -1.747290e+002 
3934375000  -2.979414e+001  -1.742009e+002 
3937500000  -3.009210e+001  -1.750545e+002 
3940625000  -3.037943e+001  -1.744324e+002 
3943750000  -2.950432e+001  -1.731438e+002 
3946875000  -2.824764e+001  -1.784831e+002 
3950000000  -2.870919e+001  1.736480e+002 
3953125000  -2.966217e+001  1.742175e+002 
3956250000  -2.878185e+001  1.772055e+002 
3959375000  -2.747116e+001  1.739255e+002 
3962500000  -2.695147e+001  1.697468e+002 
3965625000  -2.661574e+001  1.614076e+002 
3968750000  -2.746699e+001  1.542514e+002 
3971875000  -2.787161e+001  1.531257e+002 
3975000000  -2.721580e+001  1.508242e+002 
3978125000  -2.702686e+001  1.497087e+002 
3981250000  -2.674802e+001  1.452075e+002 
3984375000  -2.702840e+001  1.390790e+002 
3987500000  -2.751689e+001  1.366887e+002 
3990625000  -2.754627e+001  1.359631e+002 
3993750000  -2.772863e+001  1.326404e+002 
3996875000  -2.766786e+001  1.298470e+002 
4000000000  -2.778548e+001  1.277347e+002 
4003125000  -2.831150e+001  1.303124e+002 
4006250000  -2.706113e+001  1.305197e+002 
4009375000  -2.580140e+001  1.184387e+002 
4012500000  -2.678356e+001  1.113753e+002 
4015625000  -2.809249e+001  1.112918e+002 
4018750000  -2.836276e+001  1.139411e+002 
4021875000  -2.759696e+001  1.126464e+002 
4025000000  -2.730848e+001  1.077680e+002 
4028125000  -2.723228e+001  1.040190e+002 
4031250000  -2.771218e+001  1.000789e+002 
4034375000  -2.796487e+001  1.004303e+002 
4037500000  -2.745963e+001  1.023891e+002 
4040625000  -2.727500e+001  9.905281e+001 
4043750000  -2.767664e+001  9.842931e+001 
4046875000  -2.726522e+001  9.813765e+001 
4050000000  -2.670548e+001  9.251706e+001 
4053125000  -2.717759e+001  9.074368e+001 
4056250000  -2.776535e+001  9.433780e+001 
4059375000  -2.660409e+001  9.635666e+001 
4062500000  -2.516632e+001  9.196773e+001 
4065625000  -2.505526e+001  8.761458e+001 
4068750000  -2.480540e+001  8.293390e+001 
4071875000  -2.422233e+001  7.504316e+001 
4075000000  -2.448879e+001  6.854372e+001 
4078125000  -2.509455e+001  6.774223e+001 
4081250000  -2.456081e+001  6.534214e+001 
4084375000  -2.413235e+001  5.877357e+001 
4087500000  -2.444543e+001  5.259653e+001 
4090625000  -2.506033e+001  5.141508e+001 
4093750000  -2.487858e+001  5.205660e+001 
4096875000  -2.444665e+001  4.634496e+001 
4100000000  -2.514391e+001  3.928249e+001 
4103125000  -2.604894e+001  3.942590e+001 
4106250000  -2.587510e+001  4.422216e+001 
4109375000  -2.501906e+001  4.395696e+001 
4112500000  -2.445674e+001  3.740028e+001 
4115625000  -2.473170e+001  3.299686e+001 
4118750000  -2.491130e+001  3.007870e+001 
4121875000  -2.449197e+001  2.557005e+001 
4125000000  -2.484217e+001  2.057265e+001 
4128125000  -2.586979e+001  2.039864e+001 
4131250000  -2.557058e+001  2.833127e+001 
4134375000  -2.330222e+001  2.426567e+001 
4137500000  -2.306928e+001  5.549554e+000 
4140625000  -2.522668e+001  -1.627366e+000 
4143750000  -2.648072e+001  2.974508e+000 
4146875000  -2.620349e+001  1.035298e+001 
4150000000  -2.524638e+001  7.188276e+000 
4153125000  -2.505422e+001  1.178743e+000 
4156250000  -2.594591e+001  -1.638560e+000 
4159375000  -2.621061e+001  2.536092e+000 
4162500000  -2.506670e+001  7.330681e+000 
4165625000  -2.396003e+001  2.946819e+000 
4168750000  -2.331755e+001  -4.156511e+000 
4171875000  -2.335309e+001  -1.300341e+001 
4175000000  -2.390716e+001  -1.892291e+001 
4178125000  -2.446863e+001  -1.899866e+001 
4181250000  -2.440789e+001  -1.939430e+001 
4184375000  -2.422054e+001  -2.245557e+001 
4187500000  -2.427816e+001  -2.491073e+001 
4190625000  -2.410975e+001  -3.080579e+001 
4193750000  -2.485767e+001  -3.465670e+001 
4196875000  -2.559387e+001  -3.486150e+001 
4200000000  -2.642672e+001  -3.279242e+001 
4203125000  -2.647843e+001  -1.994453e+001 
4206250000  -2.312034e+001  -1.798302e+001 
4209375000  -2.192809e+001  -3.801731e+001 
4212500000  -2.380853e+001  -4.728445e+001 
4215625000  -2.480885e+001  -4.092062e+001 
4218750000  -2.352287e+001  -3.431376e+001 
4221875000  -2.122536e+001  -4.333995e+001 
4225000000  -2.239134e+001  -5.627488e+001 
4228125000  -2.312691e+001  -5.100705e+001 
4231250000  -2.159910e+001  -5.461171e+001 
4234375000  -2.149213e+001  -6.298130e+001 
4237500000  -2.104778e+001  -6.617622e+001 
4240625000  -2.104564e+001  -7.477295e+001 
4243750000  -2.199466e+001  -8.156858e+001 
4246875000  -2.292565e+001  -8.168657e+001 
4250000000  -2.296107e+001  -7.887804e+001 
4253125000  -2.236653e+001  -8.052289e+001 
4256250000  -2.268930e+001  -8.473158e+001 
4259375000  -2.240332e+001  -8.685016e+001 
4262500000  -2.244904e+001  -9.047609e+001 
4265625000  -2.260510e+001  -9.007002e+001 
4268750000  -2.178135e+001  -9.433311e+001 
4271875000  -2.147611e+001  -1.002138e+002 
4275000000  -2.089842e+001  -1.062496e+002 
4278125000  -2.146392e+001  -1.175803e+002 
4281250000  -2.326335e+001  -1.196392e+002 
4284375000  -2.296951e+001  -1.187453e+002 
4287500000  -2.373226e+001  -1.222001e+002 
4290625000  -2.502960e+001  -1.131022e+002 
4293750000  -2.302383e+001  -1.072670e+002 
4296875000  -2.169497e+001  -1.185625e+002 
4300000000  -2.254526e+001  -1.279984e+002 
4303125000  -2.364139e+001  -1.266899e+002 
4306250000  -2.311129e+001  -1.205616e+002 
4309375000  -2.167572e+001  -1.226949e+002 
4312500000  -2.153622e+001  -1.307824e+002 
4315625000  -2.176745e+001  -1.371089e+002 
4318750000  -2.210348e+001  -1.403598e+002 
4321875000  -2.223348e+001  -1.398504e+002 
4325000000  -2.167653e+001  -1.393230e+002 
4328125000  -2.117802e+001  -1.456585e+002 
4331250000  -2.109475e+001  -1.534892e+002 
4334375000  -2.152332e+001  -1.587501e+002 
4337500000  -2.235491e+001  -1.607231e+002 
4340625000  -2.290025e+001  -1.576683e+002 
4343750000  -2.234247e+001  -1.572444e+002 
4346875000  -2.197398e+001  -1.627175e+002 
4350000000  -2.193424e+001  -1.670568e+002 
4353125000  -2.195229e+001  -1.749285e+002 
4356250000  -2.367443e+001  -1.757682e+002 
4359375000  -2.429552e+001  -1.630175e+002 
4362500000  -2.164889e+001  -1.612542e+002 
4365625000  -2.005486e+001  -1.725202e+002 
4368750000  -2.072500e+001  1.755241e+002 
4371875000  -2.197251e+001  1.760473e+002 
4375000000  -2.162069e+001  1.771244e+002 
4378125000  -2.100192e+001  1.715893e+002 
4381250000  -2.116370e+001  1.659093e+002 
4384375000  -2.095812e+001  1.614153e+002 
4387500000  -2.166163e+001  1.558809e+002 
4390625000  -2.273653e+001  1.565661e+002 
4393750000  -2.207114e+001  1.585701e+002 
4396875000  -2.139457e+001  1.565649e+002 
4400000000  -2.087801e+001  1.495691e+002 
4403125000  -2.147731e+001  1.420818e+002 
4406250000  -2.230978e+001  1.409097e+002 
4409375000  -2.225900e+001  1.385956e+002 
4412500000  -2.326845e+001  1.355804e+002 
4415625000  -2.368640e+001  1.405003e+002 
4418750000  -2.247475e+001  1.451421e+002 
