!Agilent Technologies,E8363B,MY43030201,A.06.04.32
!Agilent E8363B: A.06.04.32
!Date: Tuesday, November 11, 2014 20:57:32
!Correction: S21(Response(S21)) 
!S1P File: Measurement: S21:
# Hz S  dB   R 50
3000000000  -2.651789e+001  1.471793e+002 
3003125000  -2.794045e+001  1.424418e+002 
3006250000  -2.797480e+001  1.402076e+002 
3009375000  -2.834248e+001  1.450534e+002 
3012500000  -2.773756e+001  1.443559e+002 
3015625000  -2.685583e+001  1.375108e+002 
3018750000  -2.771453e+001  1.368484e+002 
3021875000  -2.642453e+001  1.380698e+002 
3025000000  -2.511246e+001  1.349671e+002 
3028125000  -2.415122e+001  1.296978e+002 
3031250000  -2.308137e+001  1.184824e+002 
3034375000  -2.275536e+001  1.053881e+002 
3037500000  -2.313880e+001  9.369186e+001 
3040625000  -2.447300e+001  8.886829e+001 
3043750000  -2.515095e+001  8.408233e+001 
3046875000  -2.532135e+001  7.800441e+001 
3050000000  -2.699573e+001  7.120819e+001 
3053125000  -2.709492e+001  7.770324e+001 
3056250000  -2.646615e+001  8.080648e+001 
3059375000  -2.665950e+001  8.055089e+001 
3062500000  -2.518406e+001  7.649512e+001 
3065625000  -2.494621e+001  7.067230e+001 
3068750000  -2.468630e+001  6.363350e+001 
3071875000  -2.462215e+001  6.082039e+001 
3075000000  -2.458744e+001  5.707743e+001 
3078125000  -2.435367e+001  5.245586e+001 
3081250000  -2.495330e+001  4.813494e+001 
3084375000  -2.417517e+001  4.463033e+001 
3087500000  -2.412801e+001  4.088474e+001 
3090625000  -2.378676e+001  3.093652e+001 
3093750000  -2.430401e+001  2.310721e+001 
3096875000  -2.551549e+001  1.730073e+001 
3100000000  -2.564684e+001  1.599928e+001 
3103125000  -2.603784e+001  1.721298e+001 
3106250000  -2.575633e+001  1.372456e+001 
3109375000  -2.600179e+001  1.025539e+001 
3112500000  -2.613865e+001  9.067360e+000 
3115625000  -2.597064e+001  5.113576e+000 
3118750000  -2.639086e+001  6.388739e+000 
3121875000  -2.577146e+001  -1.893184e+000 
3125000000  -2.695095e+001  -5.294706e+000 
3128125000  -2.812860e+001  2.944089e+000 
3131250000  -2.591131e+001  3.233433e+000 
3134375000  -2.461666e+001  -1.045113e+001 
3137500000  -2.527087e+001  -2.395843e+001 
3140625000  -2.684179e+001  -2.584759e+001 
3143750000  -2.791752e+001  -2.191869e+001 
3146875000  -2.747561e+001  -1.967682e+001 
3150000000  -2.648080e+001  -1.743667e+001 
3153125000  -2.649636e+001  -2.548145e+001 
3156250000  -2.745668e+001  -1.967601e+001 
3159375000  -2.581904e+001  -1.678681e+001 
3162500000  -2.386016e+001  -2.992435e+001 
3165625000  -2.480840e+001  -4.060669e+001 
3168750000  -2.512327e+001  -3.962738e+001 
3171875000  -2.419518e+001  -4.409067e+001 
3175000000  -2.488814e+001  -5.192933e+001 
3178125000  -2.459122e+001  -4.998598e+001 
3181250000  -2.347149e+001  -5.430050e+001 
3184375000  -2.269814e+001  -6.645042e+001 
3187500000  -2.385975e+001  -8.138579e+001 
3190625000  -2.656685e+001  -8.878213e+001 
3193750000  -2.715322e+001  -7.885114e+001 
3196875000  -2.675446e+001  -7.392281e+001 
3200000000  -2.583640e+001  -7.596775e+001 
3203125000  -2.500424e+001  -8.164026e+001 
3206250000  -2.532031e+001  -8.800903e+001 
3209375000  -2.480954e+001  -9.299280e+001 
3212500000  -2.495248e+001  -9.969489e+001 
3215625000  -2.512521e+001  -1.035485e+002 
3218750000  -2.585254e+001  -1.101968e+002 
3221875000  -2.680934e+001  -1.150372e+002 
3225000000  -2.644057e+001  -1.158446e+002 
3228125000  -2.674737e+001  -1.203963e+002 
3231250000  -2.751798e+001  -1.226263e+002 
3234375000  -2.737408e+001  -1.215288e+002 
3237500000  -2.740005e+001  -1.235319e+002 
3240625000  -2.703858e+001  -1.251841e+002 
3243750000  -2.669643e+001  -1.320148e+002 
3246875000  -2.715754e+001  -1.387444e+002 
3250000000  -2.760875e+001  -1.402044e+002 
3253125000  -2.782799e+001  -1.419533e+002 
3256250000  -2.769878e+001  -1.479434e+002 
3259375000  -2.794818e+001  -1.554799e+002 
3262500000  -2.923152e+001  -1.583650e+002 
3265625000  -2.991443e+001  -1.546711e+002 
3268750000  -2.986940e+001  -1.518551e+002 
3271875000  -2.957552e+001  -1.510736e+002 
3275000000  -2.854018e+001  -1.564121e+002 
3278125000  -2.901267e+001  -1.624349e+002 
3281250000  -2.922951e+001  -1.609137e+002 
3284375000  -2.885530e+001  -1.664132e+002 
3287500000  -2.903197e+001  -1.690458e+002 
3290625000  -2.934452e+001  -1.735094e+002 
3293750000  -2.914464e+001  -1.788294e+002 
3296875000  -3.017796e+001  -1.786008e+002 
3300000000  -2.999251e+001  -1.776847e+002 
3303125000  -2.890254e+001  1.780838e+002 
3306250000  -2.866689e+001  1.717958e+002 
3309375000  -2.840212e+001  1.665280e+002 
3312500000  -2.845337e+001  1.557826e+002 
3315625000  -2.948957e+001  1.479698e+002 
3318750000  -3.087998e+001  1.456334e+002 
3321875000  -3.212713e+001  1.459556e+002 
3325000000  -3.257294e+001  1.506025e+002 
3328125000  -3.244970e+001  1.522299e+002 
3331250000  -3.117048e+001  1.602012e+002 
3334375000  -2.857453e+001  1.498832e+002 
3337500000  -2.863292e+001  1.311659e+002 
3340625000  -3.004360e+001  1.208373e+002 
3343750000  -3.202604e+001  1.196460e+002 
3346875000  -3.254364e+001  1.216300e+002 
3350000000  -3.176660e+001  1.196153e+002 
3353125000  -3.189321e+001  1.156611e+002 
3356250000  -3.165372e+001  1.077808e+002 
3359375000  -3.252955e+001  9.972007e+001 
3362500000  -3.379493e+001  9.460006e+001 
3365625000  -3.440960e+001  9.260603e+001 
3368750000  -3.549925e+001  9.099597e+001 
3371875000  -3.581233e+001  8.764298e+001 
3375000000  -3.734716e+001  8.555575e+001 
3378125000  -3.835272e+001  8.617549e+001 
3381250000  -3.988268e+001  9.448862e+001 
3384375000  -3.905206e+001  1.153109e+002 
3387500000  -3.587195e+001  9.991811e+001 
3390625000  -3.775005e+001  8.159302e+001 
3393750000  -3.948125e+001  8.728967e+001 
3396875000  -3.857661e+001  8.861539e+001 
3400000000  -3.872648e+001  8.268052e+001 
3403125000  -3.943570e+001  7.717458e+001 
3406250000  -4.031623e+001  8.168157e+001 
3409375000  -4.091094e+001  7.608526e+001 
3412500000  -4.171158e+001  7.835353e+001 
3415625000  -4.274480e+001  8.186900e+001 
3418750000  -4.292231e+001  8.553696e+001 
3421875000  -4.299940e+001  9.295393e+001 
3425000000  -4.256010e+001  9.559891e+001 
3428125000  -4.118509e+001  9.576923e+001 
3431250000  -4.118082e+001  8.975548e+001 
3434375000  -4.125388e+001  8.760595e+001 
3437500000  -4.162241e+001  8.734654e+001 
3440625000  -4.192605e+001  8.925687e+001 
3443750000  -4.051305e+001  9.243429e+001 
3446875000  -3.962061e+001  8.624366e+001 
3450000000  -3.948781e+001  7.794628e+001 
3453125000  -4.002629e+001  6.795822e+001 
3456250000  -4.115293e+001  6.368316e+001 
3459375000  -4.215081e+001  6.566074e+001 
3462500000  -4.201667e+001  6.560152e+001 
3465625000  -4.215295e+001  6.212507e+001 
3468750000  -4.251927e+001  6.005861e+001 
3471875000  -4.263506e+001  6.086394e+001 
3475000000  -4.270428e+001  5.747390e+001 
3478125000  -4.320197e+001  4.984047e+001 
3481250000  -4.468327e+001  4.992110e+001 
3484375000  -4.571330e+001  5.372113e+001 
3487500000  -4.530245e+001  5.652488e+001 
3490625000  -4.498972e+001  5.479438e+001 
3493750000  -4.548906e+001  5.245613e+001 
3496875000  -4.658458e+001  5.469571e+001 
3500000000  -4.805392e+001  6.009801e+001 
3503125000  -4.844045e+001  6.336162e+001 
3506250000  -4.626624e+001  6.255190e+001 
3509375000  -4.592581e+001  6.179912e+001 
3512500000  -4.770587e+001  5.942708e+001 
3515625000  -4.767364e+001  6.318251e+001 
3518750000  -4.827661e+001  6.946631e+001 
3521875000  -4.765939e+001  7.047533e+001 
3525000000  -4.841826e+001  7.470264e+001 
3528125000  -4.812072e+001  8.712195e+001 
3531250000  -4.597558e+001  8.196550e+001 
3534375000  -4.498430e+001  7.961312e+001 
3537500000  -4.516605e+001  7.518115e+001 
3540625000  -4.531099e+001  7.563415e+001 
3543750000  -4.599637e+001  7.994133e+001 
3546875000  -4.549928e+001  8.779003e+001 
3550000000  -4.309940e+001  9.207793e+001 
3553125000  -4.145303e+001  7.733572e+001 
3556250000  -4.236271e+001  7.175465e+001 
3559375000  -4.214765e+001  7.367037e+001 
3562500000  -4.099430e+001  6.586841e+001 
3565625000  -4.183543e+001  5.953706e+001 
3568750000  -4.166099e+001  6.479978e+001 
3571875000  -4.164170e+001  6.397823e+001 
3575000000  -4.101454e+001  5.878181e+001 
3578125000  -4.157124e+001  5.537518e+001 
3581250000  -4.124807e+001  5.520371e+001 
3584375000  -4.070730e+001  5.438447e+001 
3587500000  -3.974739e+001  4.716814e+001 
3590625000  -4.010961e+001  3.860543e+001 
3593750000  -4.117521e+001  3.812894e+001 
3596875000  -4.125049e+001  4.741961e+001 
3600000000  -3.949823e+001  4.229925e+001 
3603125000  -3.965187e+001  3.154355e+001 
3606250000  -4.036948e+001  2.773172e+001 
3609375000  -4.074796e+001  2.796978e+001 
3612500000  -4.119139e+001  2.616559e+001 
3615625000  -4.153387e+001  2.502749e+001 
3618750000  -4.188573e+001  2.489888e+001 
3621875000  -4.143758e+001  2.242992e+001 
3625000000  -4.146509e+001  2.443210e+001 
3628125000  -4.159425e+001  2.488532e+001 
3631250000  -4.105547e+001  1.873330e+001 
3634375000  -4.234467e+001  2.029775e+001 
3637500000  -4.193221e+001  2.528855e+001 
3640625000  -4.098120e+001  2.720848e+001 
3643750000  -4.068671e+001  2.145743e+001 
3646875000  -4.102500e+001  1.614774e+001 
3650000000  -4.148546e+001  1.676174e+001 
3653125000  -4.121891e+001  1.375352e+001 
3656250000  -4.164730e+001  1.455616e+001 
3659375000  -4.189495e+001  1.768602e+001 
3662500000  -4.110474e+001  1.609990e+001 
3665625000  -4.114791e+001  1.647451e+001 
3668750000  -4.016206e+001  1.874217e+001 
3671875000  -3.930035e+001  1.323651e+001 
3675000000  -3.988197e+001  8.267425e+000 
3678125000  -4.040097e+001  9.310197e+000 
3681250000  -3.970581e+001  9.775866e+000 
3684375000  -3.956959e+001  7.017546e+000 
3687500000  -3.952349e+001  5.315773e+000 
3690625000  -3.961938e+001  3.691941e+000 
3693750000  -4.029408e+001  7.567538e+000 
3696875000  -4.012016e+001  8.132727e+000 
3700000000  -3.904108e+001  8.197097e+000 
3703125000  -3.877626e+001  4.436865e+000 
3706250000  -3.924118e+001  5.622433e+000 
3709375000  -3.850073e+001  9.311700e+000 
3712500000  -3.751411e+001  8.979467e+000 
3715625000  -3.627458e+001  3.019235e+000 
3718750000  -3.568775e+001  7.589664e-002 
3721875000  -3.516103e+001  -5.655124e+000 
3725000000  -3.518291e+001  -1.012094e+001 
3728125000  -3.532589e+001  -1.134619e+001 
3731250000  -3.458177e+001  -1.141020e+001 
3734375000  -3.372214e+001  -1.723776e+001 
3737500000  -3.414593e+001  -2.426230e+001 
3740625000  -3.478403e+001  -2.772271e+001 
3743750000  -3.460506e+001  -2.924105e+001 
3746875000  -3.458400e+001  -3.236156e+001 
3750000000  -3.498874e+001  -3.407016e+001 
3753125000  -3.455255e+001  -3.474391e+001 
3756250000  -3.450342e+001  -3.563587e+001 
3759375000  -3.425093e+001  -3.612091e+001 
3762500000  -3.375414e+001  -4.044675e+001 
3765625000  -3.432357e+001  -4.225742e+001 
3768750000  -3.435362e+001  -4.065563e+001 
3771875000  -3.251793e+001  -4.257517e+001 
3775000000  -3.226077e+001  -5.048165e+001 
3778125000  -3.258460e+001  -5.170349e+001 
3781250000  -3.238654e+001  -5.448210e+001 
3784375000  -3.238848e+001  -5.630449e+001 
3787500000  -3.177662e+001  -6.040830e+001 
3790625000  -3.214181e+001  -6.653079e+001 
3793750000  -3.232537e+001  -6.672324e+001 
3796875000  -3.141909e+001  -6.801113e+001 
3800000000  -2.994624e+001  -7.179052e+001 
3803125000  -3.066667e+001  -7.830882e+001 
3806250000  -3.142528e+001  -8.108058e+001 
3809375000  -3.113787e+001  -8.218124e+001 
3812500000  -3.040447e+001  -8.666607e+001 
3815625000  -3.095821e+001  -9.448347e+001 
3818750000  -3.198703e+001  -9.594547e+001 
3821875000  -3.212556e+001  -8.676942e+001 
3825000000  -3.010041e+001  -8.239137e+001 
3828125000  -2.866879e+001  -9.626886e+001 
3831250000  -2.936501e+001  -1.108686e+002 
3834375000  -3.067139e+001  -1.119290e+002 
3837500000  -3.164552e+001  -1.069232e+002 
3840625000  -3.047164e+001  -1.075040e+002 
3843750000  -2.926996e+001  -1.176447e+002 
3846875000  -3.006925e+001  -1.251983e+002 
3850000000  -3.124022e+001  -1.192868e+002 
3853125000  -3.051715e+001  -1.168188e+002 
3856250000  -3.047555e+001  -1.212077e+002 
3859375000  -2.965857e+001  -1.260527e+002 
3862500000  -2.917434e+001  -1.335064e+002 
3865625000  -2.959655e+001  -1.377782e+002 
3868750000  -2.949477e+001  -1.385340e+002 
3871875000  -2.884790e+001  -1.409518e+002 
3875000000  -2.896073e+001  -1.500806e+002 
3878125000  -2.997613e+001  -1.526542e+002 
3881250000  -3.003517e+001  -1.496329e+002 
3884375000  -2.949536e+001  -1.550235e+002 
3887500000  -2.969675e+001  -1.580549e+002 
3890625000  -3.021142e+001  -1.608549e+002 
3893750000  -3.066873e+001  -1.620977e+002 
3896875000  -3.080537e+001  -1.617340e+002 
3900000000  -3.106871e+001  -1.621958e+002 
3903125000  -3.071451e+001  -1.639950e+002 
3906250000  -3.045416e+001  -1.655193e+002 
3909375000  -2.960845e+001  -1.677291e+002 
3912500000  -2.984322e+001  -1.755807e+002 
3915625000  -3.097696e+001  -1.739947e+002 
3918750000  -3.091358e+001  -1.723739e+002 
3921875000  -3.064314e+001  -1.742408e+002 
3925000000  -2.981732e+001  -1.748881e+002 
3928125000  -2.910869e+001  1.794456e+002 
3931250000  -2.955315e+001  1.751375e+002 
3934375000  -2.985541e+001  1.754588e+002 
3937500000  -3.006927e+001  1.749885e+002 
3940625000  -3.040047e+001  1.755722e+002 
3943750000  -2.940628e+001  1.769513e+002 
3946875000  -2.821392e+001  1.713904e+002 
3950000000  -2.876422e+001  1.634493e+002 
3953125000  -2.973320e+001  1.639479e+002 
3956250000  -2.881117e+001  1.670538e+002 
3959375000  -2.748116e+001  1.643149e+002 
3962500000  -2.694257e+001  1.594792e+002 
3965625000  -2.662391e+001  1.509627e+002 
3968750000  -2.753345e+001  1.445594e+002 
3971875000  -2.788146e+001  1.431357e+002 
3975000000  -2.724409e+001  1.409624e+002 
3978125000  -2.707814e+001  1.396906e+002 
3981250000  -2.683134e+001  1.351374e+002 
3984375000  -2.704909e+001  1.290835e+002 
3987500000  -2.762033e+001  1.267062e+002 
3990625000  -2.758361e+001  1.259412e+002 
3993750000  -2.772795e+001  1.226669e+002 
3996875000  -2.767209e+001  1.203110e+002 
4000000000  -2.784610e+001  1.182629e+002 
4003125000  -2.843862e+001  1.205859e+002 
4006250000  -2.696373e+001  1.206623e+002 
4009375000  -2.579198e+001  1.084429e+002 
4012500000  -2.690673e+001  1.011075e+002 
4015625000  -2.814352e+001  1.017352e+002 
4018750000  -2.828166e+001  1.040362e+002 
4021875000  -2.765912e+001  1.026717e+002 
4025000000  -2.728728e+001  9.758072e+001 
4028125000  -2.719980e+001  9.363328e+001 
4031250000  -2.768649e+001  9.072464e+001 
4034375000  -2.793768e+001  9.061790e+001 
4037500000  -2.748641e+001  9.255821e+001 
4040625000  -2.738730e+001  8.870222e+001 
4043750000  -2.775827e+001  8.839800e+001 
4046875000  -2.727939e+001  8.825176e+001 
4050000000  -2.680114e+001  8.313867e+001 
4053125000  -2.725958e+001  8.051382e+001 
4056250000  -2.792450e+001  8.495214e+001 
4059375000  -2.661386e+001  8.714676e+001 
4062500000  -2.522746e+001  8.217982e+001 
4065625000  -2.511258e+001  7.773888e+001 
4068750000  -2.481005e+001  7.300327e+001 
4071875000  -2.420202e+001  6.535724e+001 
4075000000  -2.454628e+001  5.899187e+001 
4078125000  -2.512078e+001  5.777738e+001 
4081250000  -2.457223e+001  5.557759e+001 
4084375000  -2.415209e+001  4.917383e+001 
4087500000  -2.451929e+001  4.250641e+001 
4090625000  -2.515216e+001  4.161609e+001 
4093750000  -2.495202e+001  4.237074e+001 
4096875000  -2.449609e+001  3.623428e+001 
4100000000  -2.525029e+001  2.922803e+001 
4103125000  -2.609643e+001  2.987474e+001 
4106250000  -2.591889e+001  3.504590e+001 
4109375000  -2.502459e+001  3.445789e+001 
4112500000  -2.448215e+001  2.779586e+001 
4115625000  -2.480215e+001  2.372397e+001 
4118750000  -2.488213e+001  2.032421e+001 
4121875000  -2.449827e+001  1.573065e+001 
4125000000  -2.491619e+001  1.075672e+001 
4128125000  -2.590646e+001  1.122676e+001 
4131250000  -2.557411e+001  1.888951e+001 
4134375000  -2.324855e+001  1.460743e+001 
4137500000  -2.304988e+001  -4.497177e+000 
4140625000  -2.525642e+001  -1.135392e+001 
4143750000  -2.656380e+001  -6.118850e+000 
4146875000  -2.612603e+001  9.516122e-001 
4150000000  -2.517150e+001  -2.184744e+000 
4153125000  -2.505208e+001  -8.875492e+000 
4156250000  -2.600613e+001  -1.167527e+001 
4159375000  -2.623934e+001  -6.940629e+000 
4162500000  -2.502771e+001  -2.689634e+000 
4165625000  -2.390781e+001  -6.537633e+000 
4168750000  -2.333756e+001  -1.412975e+001 
4171875000  -2.336125e+001  -2.318168e+001 
4175000000  -2.394657e+001  -2.880107e+001 
4178125000  -2.453580e+001  -2.860426e+001 
4181250000  -2.437239e+001  -2.934435e+001 
4184375000  -2.427147e+001  -3.270848e+001 
4187500000  -2.427525e+001  -3.539934e+001 
4190625000  -2.407688e+001  -4.062733e+001 
4193750000  -2.493036e+001  -4.441536e+001 
4196875000  -2.563668e+001  -4.481028e+001 
4200000000  -2.649602e+001  -4.219042e+001 
4203125000  -2.644951e+001  -2.842494e+001 
4206250000  -2.306838e+001  -2.728954e+001 
4209375000  -2.190485e+001  -4.810056e+001 
4212500000  -2.389858e+001  -5.720823e+001 
4215625000  -2.486228e+001  -5.042235e+001 
4218750000  -2.348716e+001  -4.373384e+001 
4221875000  -2.123219e+001  -5.328003e+001 
4225000000  -2.247717e+001  -6.541376e+001 
4228125000  -2.311781e+001  -6.027661e+001 
4231250000  -2.157296e+001  -6.453693e+001 
4234375000  -2.149243e+001  -7.267113e+001 
4237500000  -2.104726e+001  -7.617791e+001 
4240625000  -2.110190e+001  -8.450494e+001 
4243750000  -2.205857e+001  -9.111722e+001 
4246875000  -2.295277e+001  -9.128812e+001 
4250000000  -2.299418e+001  -8.846777e+001 
4253125000  -2.241514e+001  -9.052625e+001 
4256250000  -2.268389e+001  -9.454700e+001 
4259375000  -2.244720e+001  -9.655259e+001 
4262500000  -2.241395e+001  -1.002440e+002 
4265625000  -2.260044e+001  -1.000194e+002 
4268750000  -2.170968e+001  -1.043014e+002 
4271875000  -2.144765e+001  -1.096847e+002 
4275000000  -2.084389e+001  -1.162407e+002 
4278125000  -2.152904e+001  -1.275366e+002 
4281250000  -2.332735e+001  -1.292888e+002 
4284375000  -2.297364e+001  -1.290279e+002 
4287500000  -2.379821e+001  -1.322628e+002 
4290625000  -2.502417e+001  -1.223708e+002 
4293750000  -2.301834e+001  -1.170487e+002 
4296875000  -2.168263e+001  -1.286555e+002 
4300000000  -2.255588e+001  -1.377185e+002 
4303125000  -2.371869e+001  -1.360254e+002 
4306250000  -2.301383e+001  -1.301892e+002 
4309375000  -2.162371e+001  -1.325338e+002 
4312500000  -2.153901e+001  -1.410562e+002 
4315625000  -2.176124e+001  -1.471823e+002 
4318750000  -2.207425e+001  -1.506320e+002 
4321875000  -2.218626e+001  -1.497478e+002 
4325000000  -2.169734e+001  -1.490800e+002 
4328125000  -2.115532e+001  -1.556658e+002 
4331250000  -2.108260e+001  -1.637089e+002 
4334375000  -2.156706e+001  -1.688329e+002 
4337500000  -2.239615e+001  -1.710779e+002 
4340625000  -2.296913e+001  -1.671776e+002 
4343750000  -2.233780e+001  -1.670542e+002 
4346875000  -2.196748e+001  -1.729790e+002 
4350000000  -2.191360e+001  -1.772846e+002 
4353125000  -2.202295e+001  1.748957e+002 
4356250000  -2.381484e+001  1.742262e+002 
4359375000  -2.437419e+001  -1.719424e+002 
4362500000  -2.154261e+001  -1.703990e+002 
4365625000  -2.002744e+001  1.772258e+002 
4368750000  -2.077730e+001  1.657021e+002 
4371875000  -2.198118e+001  1.664626e+002 
4375000000  -2.162196e+001  1.674907e+002 
4378125000  -2.094799e+001  1.615882e+002 
4381250000  -2.111953e+001  1.559771e+002 
4384375000  -2.097634e+001  1.511583e+002 
4387500000  -2.170203e+001  1.457640e+002 
4390625000  -2.271318e+001  1.465500e+002 
4393750000  -2.201391e+001  1.487879e+002 
4396875000  -2.138763e+001  1.465460e+002 
4400000000  -2.088109e+001  1.396582e+002 
4403125000  -2.145939e+001  1.318176e+002 
4406250000  -2.227519e+001  1.305893e+002 
4409375000  -2.226881e+001  1.284334e+002 
4412500000  -2.336531e+001  1.259028e+002 
4415625000  -2.364117e+001  1.310289e+002 
4418750000  -2.238964e+001  1.351757e+002 
