!Agilent Technologies,E8363B,MY43030201,A.06.04.32
!Agilent E8363B: A.06.04.32
!Date: Tuesday, November 11, 2014 20:48:57
!Correction: S21(Response(S21)) 
!S1P File: Measurement: S21:
# Hz S  dB   R 50
3000000000  -2.653038e+001  1.549290e+002 
3003125000  -2.789686e+001  1.502263e+002 
3006250000  -2.795521e+001  1.475849e+002 
3009375000  -2.832814e+001  1.525513e+002 
3012500000  -2.781848e+001  1.523118e+002 
3015625000  -2.682427e+001  1.453540e+002 
3018750000  -2.770243e+001  1.445178e+002 
3021875000  -2.645371e+001  1.457268e+002 
3025000000  -2.510879e+001  1.426883e+002 
3028125000  -2.417892e+001  1.377777e+002 
3031250000  -2.310991e+001  1.266474e+002 
3034375000  -2.276359e+001  1.137276e+002 
3037500000  -2.311275e+001  1.016618e+002 
3040625000  -2.441741e+001  9.660878e+001 
3043750000  -2.514006e+001  9.252072e+001 
3046875000  -2.523565e+001  8.595400e+001 
3050000000  -2.699336e+001  7.870747e+001 
3053125000  -2.715653e+001  8.551006e+001 
3056250000  -2.646229e+001  8.855830e+001 
3059375000  -2.672141e+001  8.818385e+001 
3062500000  -2.523182e+001  8.403336e+001 
3065625000  -2.499739e+001  7.854198e+001 
3068750000  -2.472296e+001  7.168311e+001 
3071875000  -2.463667e+001  6.867477e+001 
3075000000  -2.465426e+001  6.498486e+001 
3078125000  -2.437007e+001  6.034646e+001 
3081250000  -2.496321e+001  5.626489e+001 
3084375000  -2.426223e+001  5.260148e+001 
3087500000  -2.412529e+001  4.892436e+001 
3090625000  -2.382206e+001  3.923520e+001 
3093750000  -2.426158e+001  3.132706e+001 
3096875000  -2.556587e+001  2.525148e+001 
3100000000  -2.568816e+001  2.374217e+001 
3103125000  -2.607670e+001  2.527349e+001 
3106250000  -2.580386e+001  2.170169e+001 
3109375000  -2.606280e+001  1.820938e+001 
3112500000  -2.614253e+001  1.722165e+001 
3115625000  -2.593149e+001  1.298884e+001 
3118750000  -2.645712e+001  1.419127e+001 
3121875000  -2.579606e+001  6.411042e+000 
3125000000  -2.689750e+001  2.769190e+000 
3128125000  -2.814773e+001  1.084171e+001 
3131250000  -2.600851e+001  1.146819e+001 
3134375000  -2.462874e+001  -1.947591e+000 
3137500000  -2.523167e+001  -1.622800e+001 
3140625000  -2.689808e+001  -1.773760e+001 
3143750000  -2.794961e+001  -1.344530e+001 
3146875000  -2.753608e+001  -1.177399e+001 
3150000000  -2.651549e+001  -9.564601e+000 
3153125000  -2.647190e+001  -1.703629e+001 
3156250000  -2.740133e+001  -1.168292e+001 
3159375000  -2.591442e+001  -8.911031e+000 
3162500000  -2.390177e+001  -2.151923e+001 
3165625000  -2.479549e+001  -3.250763e+001 
3168750000  -2.519096e+001  -3.159237e+001 
3171875000  -2.425390e+001  -3.579837e+001 
3175000000  -2.487490e+001  -4.368208e+001 
3178125000  -2.469159e+001  -4.198278e+001 
3181250000  -2.350503e+001  -4.588108e+001 
3184375000  -2.271164e+001  -5.815092e+001 
3187500000  -2.378975e+001  -7.345332e+001 
3190625000  -2.659608e+001  -8.107546e+001 
3193750000  -2.721286e+001  -7.135150e+001 
3196875000  -2.678740e+001  -6.597548e+001 
3200000000  -2.591652e+001  -6.780121e+001 
3203125000  -2.504325e+001  -7.319484e+001 
3206250000  -2.531474e+001  -7.970148e+001 
3209375000  -2.486881e+001  -8.468977e+001 
3212500000  -2.494771e+001  -9.133979e+001 
3215625000  -2.509683e+001  -9.546070e+001 
3218750000  -2.587941e+001  -1.019675e+002 
3221875000  -2.686702e+001  -1.071527e+002 
3225000000  -2.651268e+001  -1.074447e+002 
3228125000  -2.680316e+001  -1.119076e+002 
3231250000  -2.750741e+001  -1.148149e+002 
3234375000  -2.741836e+001  -1.136855e+002 
3237500000  -2.741994e+001  -1.153646e+002 
3240625000  -2.709940e+001  -1.170174e+002 
3243750000  -2.669900e+001  -1.236597e+002 
3246875000  -2.719533e+001  -1.299999e+002 
3250000000  -2.769567e+001  -1.321214e+002 
3253125000  -2.785656e+001  -1.337318e+002 
3256250000  -2.771424e+001  -1.396931e+002 
3259375000  -2.798534e+001  -1.474662e+002 
3262500000  -2.923415e+001  -1.501030e+002 
3265625000  -2.997417e+001  -1.466565e+002 
3268750000  -2.994185e+001  -1.440504e+002 
3271875000  -2.968132e+001  -1.432172e+002 
3275000000  -2.862860e+001  -1.478722e+002 
3278125000  -2.906455e+001  -1.545576e+002 
3281250000  -2.932054e+001  -1.526211e+002 
3284375000  -2.885990e+001  -1.583710e+002 
3287500000  -2.904876e+001  -1.609526e+002 
3290625000  -2.944389e+001  -1.654888e+002 
3293750000  -2.916678e+001  -1.706312e+002 
3296875000  -3.020354e+001  -1.705494e+002 
3300000000  -3.015675e+001  -1.697103e+002 
3303125000  -2.900079e+001  -1.739309e+002 
3306250000  -2.874047e+001  1.798215e+002 
3309375000  -2.846903e+001  1.747041e+002 
3312500000  -2.853570e+001  1.642559e+002 
3315625000  -2.948222e+001  1.566740e+002 
3318750000  -3.096835e+001  1.536717e+002 
3321875000  -3.202402e+001  1.532689e+002 
3325000000  -3.268506e+001  1.583653e+002 
3328125000  -3.259359e+001  1.601755e+002 
3331250000  -3.143492e+001  1.679354e+002 
3334375000  -2.880413e+001  1.582188e+002 
3337500000  -2.880399e+001  1.398877e+002 
3340625000  -3.008030e+001  1.286020e+002 
3343750000  -3.203426e+001  1.272701e+002 
3346875000  -3.260795e+001  1.291018e+002 
3350000000  -3.200156e+001  1.279568e+002 
3353125000  -3.214149e+001  1.236869e+002 
3356250000  -3.178537e+001  1.160040e+002 
3359375000  -3.265670e+001  1.077745e+002 
3362500000  -3.391109e+001  1.019473e+002 
3365625000  -3.452755e+001  1.009687e+002 
3368750000  -3.555676e+001  9.860509e+001 
3371875000  -3.581140e+001  9.518843e+001 
3375000000  -3.749971e+001  9.417002e+001 
3378125000  -3.859223e+001  9.213979e+001 
3381250000  -3.994262e+001  1.002582e+002 
3384375000  -3.931359e+001  1.229837e+002 
3387500000  -3.606606e+001  1.084595e+002 
3390625000  -3.796564e+001  8.939825e+001 
3393750000  -3.987864e+001  9.342074e+001 
3396875000  -3.896540e+001  9.802079e+001 
3400000000  -3.889431e+001  9.045165e+001 
3403125000  -3.978558e+001  8.518919e+001 
3406250000  -4.061106e+001  8.764085e+001 
3409375000  -4.141281e+001  8.370446e+001 
3412500000  -4.230396e+001  8.557014e+001 
3415625000  -4.303678e+001  9.056960e+001 
3418750000  -4.329975e+001  9.523857e+001 
3421875000  -4.361854e+001  1.013958e+002 
3425000000  -4.281732e+001  1.035738e+002 
3428125000  -4.186055e+001  1.030493e+002 
3431250000  -4.188956e+001  1.002985e+002 
3434375000  -4.170166e+001  9.422157e+001 
3437500000  -4.207299e+001  9.516071e+001 
3440625000  -4.229377e+001  9.763992e+001 
3443750000  -4.127359e+001  1.001352e+002 
3446875000  -4.039512e+001  9.518582e+001 
3450000000  -4.011533e+001  8.580545e+001 
3453125000  -4.047027e+001  7.745021e+001 
3456250000  -4.141678e+001  7.286710e+001 
3459375000  -4.220301e+001  7.438226e+001 
3462500000  -4.242654e+001  7.593901e+001 
3465625000  -4.256163e+001  7.122673e+001 
3468750000  -4.305947e+001  7.025606e+001 
3471875000  -4.293759e+001  7.137852e+001 
3475000000  -4.277496e+001  6.604220e+001 
3478125000  -4.380597e+001  5.997160e+001 
3481250000  -4.446482e+001  6.093356e+001 
3484375000  -4.621015e+001  6.382312e+001 
3487500000  -4.599511e+001  6.885505e+001 
3490625000  -4.539859e+001  6.754069e+001 
3493750000  -4.583270e+001  6.367046e+001 
3496875000  -4.683562e+001  6.535535e+001 
3500000000  -4.850060e+001  7.296318e+001 
3503125000  -4.763890e+001  7.749198e+001 
3506250000  -4.677291e+001  8.233748e+001 
3509375000  -4.713076e+001  7.614085e+001 
3512500000  -4.733406e+001  6.822086e+001 
3515625000  -4.780983e+001  7.680283e+001 
3518750000  -4.808148e+001  8.043314e+001 
3521875000  -4.754057e+001  8.710936e+001 
3525000000  -4.793181e+001  8.631969e+001 
3528125000  -4.777555e+001  1.000210e+002 
3531250000  -4.578317e+001  9.747617e+001 
3534375000  -4.517321e+001  9.201625e+001 
3537500000  -4.513877e+001  8.707935e+001 
3540625000  -4.540987e+001  8.678459e+001 
3543750000  -4.608724e+001  9.043568e+001 
3546875000  -4.588986e+001  1.034601e+002 
3550000000  -4.291832e+001  1.050474e+002 
3553125000  -4.142250e+001  8.995429e+001 
3556250000  -4.258140e+001  8.233747e+001 
3559375000  -4.205080e+001  8.480367e+001 
3562500000  -4.090445e+001  8.006612e+001 
3565625000  -4.194039e+001  7.255230e+001 
3568750000  -4.170055e+001  7.542410e+001 
3571875000  -4.157290e+001  7.384791e+001 
3575000000  -4.114099e+001  6.885385e+001 
3578125000  -4.144668e+001  6.559562e+001 
3581250000  -4.155395e+001  6.630803e+001 
3584375000  -4.057727e+001  6.548254e+001 
3587500000  -3.968902e+001  5.948088e+001 
3590625000  -4.002460e+001  4.976344e+001 
3593750000  -4.106538e+001  4.919400e+001 
3596875000  -4.130182e+001  5.642875e+001 
3600000000  -3.961220e+001  5.274045e+001 
3603125000  -3.988159e+001  4.133670e+001 
3606250000  -4.021273e+001  3.831730e+001 
3609375000  -4.079763e+001  3.675798e+001 
3612500000  -4.152739e+001  3.648477e+001 
3615625000  -4.133531e+001  3.237980e+001 
3618750000  -4.157979e+001  3.415037e+001 
3621875000  -4.139836e+001  3.326767e+001 
3625000000  -4.166609e+001  3.375904e+001 
3628125000  -4.169398e+001  3.277272e+001 
3631250000  -4.144962e+001  2.951382e+001 
3634375000  -4.256657e+001  2.815507e+001 
3637500000  -4.196700e+001  3.472230e+001 
3640625000  -4.081720e+001  3.625003e+001 
3643750000  -4.081494e+001  3.089683e+001 
3646875000  -4.123566e+001  2.516432e+001 
3650000000  -4.145420e+001  2.439824e+001 
3653125000  -4.138985e+001  2.368767e+001 
3656250000  -4.167004e+001  2.322419e+001 
3659375000  -4.212361e+001  2.624031e+001 
3662500000  -4.149355e+001  2.795871e+001 
3665625000  -4.119279e+001  2.568025e+001 
3668750000  -4.048014e+001  2.835866e+001 
3671875000  -3.924027e+001  2.535369e+001 
3675000000  -3.995148e+001  1.859459e+001 
3678125000  -4.055268e+001  1.941734e+001 
3681250000  -4.010929e+001  2.215846e+001 
3684375000  -3.973359e+001  1.907168e+001 
3687500000  -3.980631e+001  1.785079e+001 
3690625000  -3.993012e+001  1.346952e+001 
3693750000  -4.036003e+001  1.636620e+001 
3696875000  -4.012707e+001  2.040952e+001 
3700000000  -3.890411e+001  1.853042e+001 
3703125000  -3.877874e+001  1.551334e+001 
3706250000  -3.960803e+001  1.592466e+001 
3709375000  -3.888412e+001  1.890026e+001 
3712500000  -3.752943e+001  1.962416e+001 
3715625000  -3.634517e+001  1.368859e+001 
3718750000  -3.578152e+001  1.108949e+001 
3721875000  -3.536068e+001  5.909803e+000 
3725000000  -3.529907e+001  1.911332e+000 
3728125000  -3.546627e+001  -3.813026e-001 
3731250000  -3.486065e+001  -5.097035e-001 
3734375000  -3.376866e+001  -6.964203e+000 
3737500000  -3.419899e+001  -1.363134e+001 
3740625000  -3.485656e+001  -1.728545e+001 
3743750000  -3.471791e+001  -1.879731e+001 
3746875000  -3.477733e+001  -2.299611e+001 
3750000000  -3.516289e+001  -2.341802e+001 
3753125000  -3.466119e+001  -2.307134e+001 
3756250000  -3.458986e+001  -2.454975e+001 
3759375000  -3.441150e+001  -2.486828e+001 
3762500000  -3.382613e+001  -2.876935e+001 
3765625000  -3.440573e+001  -3.136356e+001 
3768750000  -3.436321e+001  -2.846148e+001 
3771875000  -3.258750e+001  -3.119542e+001 
3775000000  -3.236020e+001  -3.942476e+001 
3778125000  -3.270828e+001  -4.118309e+001 
3781250000  -3.247125e+001  -4.384813e+001 
3784375000  -3.241489e+001  -4.605409e+001 
3787500000  -3.181346e+001  -4.868286e+001 
3790625000  -3.226733e+001  -5.495540e+001 
3793750000  -3.244780e+001  -5.533477e+001 
3796875000  -3.158090e+001  -5.683405e+001 
3800000000  -3.008371e+001  -6.031039e+001 
3803125000  -3.081198e+001  -6.669099e+001 
3806250000  -3.144140e+001  -6.921629e+001 
3809375000  -3.120770e+001  -7.006307e+001 
3812500000  -3.041564e+001  -7.556506e+001 
3815625000  -3.103200e+001  -8.320644e+001 
3818750000  -3.206360e+001  -8.412608e+001 
3821875000  -3.216913e+001  -7.621918e+001 
3825000000  -3.023695e+001  -7.137411e+001 
3828125000  -2.884465e+001  -8.573383e+001 
3831250000  -2.932618e+001  -9.957384e+001 
3834375000  -3.076640e+001  -1.011991e+002 
3837500000  -3.159792e+001  -9.546599e+001 
3840625000  -3.049473e+001  -9.629597e+001 
3843750000  -2.935263e+001  -1.062403e+002 
3846875000  -3.004859e+001  -1.136379e+002 
3850000000  -3.120345e+001  -1.087846e+002 
3853125000  -3.044278e+001  -1.058569e+002 
3856250000  -3.034686e+001  -1.099130e+002 
3859375000  -2.968021e+001  -1.141229e+002 
3862500000  -2.926622e+001  -1.221651e+002 
3865625000  -2.956348e+001  -1.268667e+002 
3868750000  -2.954119e+001  -1.279566e+002 
3871875000  -2.884604e+001  -1.306618e+002 
3875000000  -2.898350e+001  -1.390704e+002 
3878125000  -3.005761e+001  -1.415471e+002 
3881250000  -3.017202e+001  -1.383826e+002 
3884375000  -2.957583e+001  -1.422763e+002 
3887500000  -2.982660e+001  -1.468074e+002 
3890625000  -3.033366e+001  -1.494660e+002 
3893750000  -3.066747e+001  -1.504762e+002 
3896875000  -3.079196e+001  -1.496888e+002 
3900000000  -3.097511e+001  -1.508434e+002 
3903125000  -3.077171e+001  -1.527709e+002 
3906250000  -3.041423e+001  -1.538458e+002 
3909375000  -2.970735e+001  -1.563029e+002 
3912500000  -2.977212e+001  -1.637554e+002 
3915625000  -3.093818e+001  -1.632087e+002 
3918750000  -3.097976e+001  -1.609589e+002 
3921875000  -3.065845e+001  -1.623507e+002 
3925000000  -2.981014e+001  -1.634560e+002 
3928125000  -2.909177e+001  -1.687911e+002 
3931250000  -2.951503e+001  -1.725132e+002 
3934375000  -2.974111e+001  -1.721954e+002 
3937500000  -3.000490e+001  -1.733459e+002 
3940625000  -3.038225e+001  -1.731592e+002 
3943750000  -2.947884e+001  -1.716687e+002 
3946875000  -2.822618e+001  -1.774346e+002 
3950000000  -2.869296e+001  1.753203e+002 
3953125000  -2.966356e+001  1.756708e+002 
3956250000  -2.873578e+001  1.783299e+002 
3959375000  -2.738292e+001  1.758868e+002 
3962500000  -2.687416e+001  1.715860e+002 
3965625000  -2.654679e+001  1.626570e+002 
3968750000  -2.752478e+001  1.557615e+002 
3971875000  -2.787509e+001  1.538166e+002 
3975000000  -2.716679e+001  1.520036e+002 
3978125000  -2.704571e+001  1.510861e+002 
3981250000  -2.673929e+001  1.464320e+002 
3984375000  -2.696781e+001  1.406054e+002 
3987500000  -2.750171e+001  1.382751e+002 
3990625000  -2.753184e+001  1.373916e+002 
3993750000  -2.775360e+001  1.338660e+002 
3996875000  -2.773980e+001  1.315720e+002 
4000000000  -2.774715e+001  1.296436e+002 
4003125000  -2.836592e+001  1.320580e+002 
4006250000  -2.701644e+001  1.318921e+002 
4009375000  -2.580489e+001  1.198514e+002 
4012500000  -2.687137e+001  1.126744e+002 
4015625000  -2.810058e+001  1.130205e+002 
4018750000  -2.833199e+001  1.155276e+002 
4021875000  -2.761169e+001  1.139399e+002 
4025000000  -2.728526e+001  1.095941e+002 
4028125000  -2.725403e+001  1.056604e+002 
4031250000  -2.773131e+001  1.021876e+002 
4034375000  -2.796933e+001  1.020142e+002 
4037500000  -2.737056e+001  1.035840e+002 
4040625000  -2.727131e+001  1.006047e+002 
4043750000  -2.768829e+001  9.989695e+001 
4046875000  -2.725159e+001  9.957251e+001 
4050000000  -2.672972e+001  9.404890e+001 
4053125000  -2.715491e+001  9.218083e+001 
4056250000  -2.778031e+001  9.617133e+001 
4059375000  -2.656635e+001  9.818208e+001 
4062500000  -2.522867e+001  9.390022e+001 
4065625000  -2.500337e+001  8.914611e+001 
4068750000  -2.477505e+001  8.436642e+001 
4071875000  -2.413207e+001  7.640511e+001 
4075000000  -2.448055e+001  7.020535e+001 
4078125000  -2.501967e+001  6.918481e+001 
4081250000  -2.454605e+001  6.686595e+001 
4084375000  -2.410291e+001  6.017257e+001 
4087500000  -2.445333e+001  5.394429e+001 
4090625000  -2.501630e+001  5.282013e+001 
4093750000  -2.490820e+001  5.362877e+001 
4096875000  -2.445071e+001  4.761105e+001 
4100000000  -2.512683e+001  4.022586e+001 
4103125000  -2.599775e+001  4.111184e+001 
4106250000  -2.588831e+001  4.561540e+001 
4109375000  -2.503321e+001  4.525183e+001 
4112500000  -2.445609e+001  3.884439e+001 
4115625000  -2.477744e+001  3.424501e+001 
4118750000  -2.488756e+001  3.136653e+001 
4121875000  -2.447789e+001  2.696897e+001 
4125000000  -2.481574e+001  2.191392e+001 
4128125000  -2.587356e+001  2.142492e+001 
4131250000  -2.562010e+001  2.949394e+001 
4134375000  -2.329811e+001  2.600787e+001 
4137500000  -2.304649e+001  6.976230e+000 
4140625000  -2.517501e+001  -4.163044e-001 
4143750000  -2.650912e+001  4.205541e+000 
4146875000  -2.619482e+001  1.175125e+001 
4150000000  -2.521819e+001  9.039665e+000 
4153125000  -2.509560e+001  2.719851e+000 
4156250000  -2.594744e+001  -7.609396e-002 
4159375000  -2.628753e+001  4.262567e+000 
4162500000  -2.508596e+001  8.557673e+000 
4165625000  -2.397576e+001  4.611058e+000 
4168750000  -2.332301e+001  -2.501091e+000 
4171875000  -2.333315e+001  -1.175606e+001 
4175000000  -2.390365e+001  -1.737564e+001 
4178125000  -2.452489e+001  -1.749670e+001 
4181250000  -2.444805e+001  -1.758464e+001 
4184375000  -2.425525e+001  -2.086686e+001 
4187500000  -2.428543e+001  -2.374861e+001 
4190625000  -2.412630e+001  -2.924403e+001 
4193750000  -2.485387e+001  -3.313050e+001 
4196875000  -2.553569e+001  -3.338316e+001 
4200000000  -2.639182e+001  -3.107239e+001 
4203125000  -2.653875e+001  -1.842868e+001 
4206250000  -2.320848e+001  -1.627086e+001 
4209375000  -2.194734e+001  -3.641494e+001 
4212500000  -2.381153e+001  -4.548255e+001 
4215625000  -2.481087e+001  -3.983649e+001 
4218750000  -2.355831e+001  -3.275702e+001 
4221875000  -2.122755e+001  -4.168306e+001 
4225000000  -2.245636e+001  -5.451759e+001 
4228125000  -2.315424e+001  -4.960250e+001 
4231250000  -2.157038e+001  -5.318717e+001 
4234375000  -2.152079e+001  -6.136714e+001 
4237500000  -2.111102e+001  -6.500681e+001 
4240625000  -2.110323e+001  -7.313507e+001 
4243750000  -2.203796e+001  -7.994327e+001 
4246875000  -2.291952e+001  -8.029896e+001 
4250000000  -2.302540e+001  -7.718964e+001 
4253125000  -2.239917e+001  -7.943238e+001 
4256250000  -2.271181e+001  -8.315504e+001 
4259375000  -2.244719e+001  -8.558073e+001 
4262500000  -2.247852e+001  -8.907661e+001 
4265625000  -2.267795e+001  -8.910050e+001 
4268750000  -2.178678e+001  -9.291512e+001 
4271875000  -2.154829e+001  -9.827551e+001 
4275000000  -2.096083e+001  -1.046223e+002 
4278125000  -2.152399e+001  -1.157199e+002 
4281250000  -2.332606e+001  -1.180118e+002 
4284375000  -2.304394e+001  -1.172484e+002 
4287500000  -2.379000e+001  -1.208013e+002 
4290625000  -2.507663e+001  -1.112868e+002 
4293750000  -2.314014e+001  -1.057168e+002 
4296875000  -2.177935e+001  -1.168041e+002 
4300000000  -2.260093e+001  -1.260956e+002 
4303125000  -2.366292e+001  -1.252536e+002 
4306250000  -2.317300e+001  -1.190657e+002 
4309375000  -2.176336e+001  -1.208696e+002 
4312500000  -2.164363e+001  -1.291402e+002 
4315625000  -2.182084e+001  -1.352950e+002 
4318750000  -2.207150e+001  -1.386955e+002 
4321875000  -2.229183e+001  -1.381117e+002 
4325000000  -2.171881e+001  -1.375197e+002 
4328125000  -2.122197e+001  -1.438548e+002 
4331250000  -2.118817e+001  -1.516574e+002 
4334375000  -2.156496e+001  -1.567136e+002 
4337500000  -2.236200e+001  -1.590713e+002 
4340625000  -2.294257e+001  -1.561862e+002 
4343750000  -2.235729e+001  -1.555191e+002 
4346875000  -2.201746e+001  -1.609464e+002 
4350000000  -2.195618e+001  -1.655360e+002 
4353125000  -2.202060e+001  -1.736786e+002 
4356250000  -2.377918e+001  -1.745599e+002 
4359375000  -2.435849e+001  -1.617973e+002 
4362500000  -2.182697e+001  -1.594127e+002 
4365625000  -2.009520e+001  -1.707612e+002 
4368750000  -2.079186e+001  1.772045e+002 
4371875000  -2.203061e+001  1.773972e+002 
4375000000  -2.169683e+001  1.789847e+002 
4378125000  -2.106163e+001  1.730282e+002 
4381250000  -2.119041e+001  1.676318e+002 
4384375000  -2.103885e+001  1.631095e+002 
4387500000  -2.175520e+001  1.575696e+002 
4390625000  -2.275576e+001  1.583667e+002 
4393750000  -2.210350e+001  1.604350e+002 
4396875000  -2.145560e+001  1.582453e+002 
4400000000  -2.095843e+001  1.511565e+002 
4403125000  -2.148946e+001  1.436290e+002 
4406250000  -2.238334e+001  1.423372e+002 
4409375000  -2.233752e+001  1.403627e+002 
4412500000  -2.338539e+001  1.373217e+002 
4415625000  -2.373495e+001  1.421047e+002 
4418750000  -2.257698e+001  1.470656e+002 
