!Agilent Technologies,E8363B,MY43030201,A.06.04.32
!Agilent E8363B: A.06.04.32
!Date: Tuesday, November 11, 2014 20:57:10
!Correction: S21(Response(S21)) 
!S1P File: Measurement: S21:
# Hz S  dB   R 50
3000000000  -2.652892e+001  1.473695e+002 
3003125000  -2.794505e+001  1.428376e+002 
3006250000  -2.799474e+001  1.401539e+002 
3009375000  -2.836482e+001  1.453133e+002 
3012500000  -2.780755e+001  1.448460e+002 
3015625000  -2.689795e+001  1.375917e+002 
3018750000  -2.771397e+001  1.371237e+002 
3021875000  -2.638586e+001  1.383409e+002 
3025000000  -2.507469e+001  1.352769e+002 
3028125000  -2.417031e+001  1.299357e+002 
3031250000  -2.311868e+001  1.188061e+002 
3034375000  -2.277539e+001  1.054712e+002 
3037500000  -2.313802e+001  9.382550e+001 
3040625000  -2.448304e+001  8.909615e+001 
3043750000  -2.518817e+001  8.463448e+001 
3046875000  -2.530458e+001  7.839976e+001 
3050000000  -2.701538e+001  7.159740e+001 
3053125000  -2.708191e+001  7.816085e+001 
3056250000  -2.644561e+001  8.124565e+001 
3059375000  -2.664998e+001  8.074291e+001 
3062500000  -2.516244e+001  7.667638e+001 
3065625000  -2.498127e+001  7.074664e+001 
3068750000  -2.472219e+001  6.400353e+001 
3071875000  -2.466441e+001  6.115314e+001 
3075000000  -2.456481e+001  5.707288e+001 
3078125000  -2.431987e+001  5.255727e+001 
3081250000  -2.498966e+001  4.835517e+001 
3084375000  -2.419576e+001  4.467171e+001 
3087500000  -2.412262e+001  4.091141e+001 
3090625000  -2.378908e+001  3.119423e+001 
3093750000  -2.429005e+001  2.337279e+001 
3096875000  -2.558813e+001  1.745437e+001 
3100000000  -2.567524e+001  1.615280e+001 
3103125000  -2.606002e+001  1.736971e+001 
3106250000  -2.576223e+001  1.394172e+001 
3109375000  -2.599813e+001  1.045887e+001 
3112500000  -2.616059e+001  9.149623e+000 
3115625000  -2.593321e+001  5.074337e+000 
3118750000  -2.639980e+001  6.552518e+000 
3121875000  -2.574758e+001  -1.649069e+000 
3125000000  -2.698073e+001  -4.888711e+000 
3128125000  -2.819859e+001  2.978903e+000 
3131250000  -2.594144e+001  3.368609e+000 
3134375000  -2.462968e+001  -1.035893e+001 
3137500000  -2.534251e+001  -2.377151e+001 
3140625000  -2.688368e+001  -2.522139e+001 
3143750000  -2.789067e+001  -2.149832e+001 
3146875000  -2.747522e+001  -1.951172e+001 
3150000000  -2.651526e+001  -1.706372e+001 
3153125000  -2.643931e+001  -2.504827e+001 
3156250000  -2.745366e+001  -1.940105e+001 
3159375000  -2.585018e+001  -1.646652e+001 
3162500000  -2.382780e+001  -2.970000e+001 
3165625000  -2.479358e+001  -4.063153e+001 
3168750000  -2.517602e+001  -3.934295e+001 
3171875000  -2.423612e+001  -4.381919e+001 
3175000000  -2.489073e+001  -5.146151e+001 
3178125000  -2.464123e+001  -4.984726e+001 
3181250000  -2.348738e+001  -5.403767e+001 
3184375000  -2.274565e+001  -6.628461e+001 
3187500000  -2.386913e+001  -8.115145e+001 
3190625000  -2.659474e+001  -8.852715e+001 
3193750000  -2.719037e+001  -7.875365e+001 
3196875000  -2.677194e+001  -7.371027e+001 
3200000000  -2.584709e+001  -7.540507e+001 
3203125000  -2.500915e+001  -8.132944e+001 
3206250000  -2.528892e+001  -8.760754e+001 
3209375000  -2.480308e+001  -9.271690e+001 
3212500000  -2.496130e+001  -9.930442e+001 
3215625000  -2.513210e+001  -1.031716e+002 
3218750000  -2.588535e+001  -1.099333e+002 
3221875000  -2.684194e+001  -1.147142e+002 
3225000000  -2.641679e+001  -1.153938e+002 
3228125000  -2.672455e+001  -1.199312e+002 
3231250000  -2.745281e+001  -1.225718e+002 
3234375000  -2.737479e+001  -1.213859e+002 
3237500000  -2.740285e+001  -1.232544e+002 
3240625000  -2.706404e+001  -1.249459e+002 
3243750000  -2.672632e+001  -1.314597e+002 
3246875000  -2.717559e+001  -1.379930e+002 
3250000000  -2.764739e+001  -1.400378e+002 
3253125000  -2.777833e+001  -1.415804e+002 
3256250000  -2.769323e+001  -1.474003e+002 
3259375000  -2.797808e+001  -1.552341e+002 
3262500000  -2.923666e+001  -1.582677e+002 
3265625000  -2.992058e+001  -1.544378e+002 
3268750000  -2.986463e+001  -1.514317e+002 
3271875000  -2.962964e+001  -1.507952e+002 
3275000000  -2.851459e+001  -1.560738e+002 
3278125000  -2.905196e+001  -1.622320e+002 
3281250000  -2.934356e+001  -1.602611e+002 
3284375000  -2.889188e+001  -1.662599e+002 
3287500000  -2.902403e+001  -1.689011e+002 
3290625000  -2.941393e+001  -1.734577e+002 
3293750000  -2.912965e+001  -1.786715e+002 
3296875000  -3.017741e+001  -1.787822e+002 
3300000000  -3.001966e+001  -1.772796e+002 
3303125000  -2.881792e+001  1.784883e+002 
3306250000  -2.864169e+001  1.719167e+002 
3309375000  -2.838525e+001  1.668020e+002 
3312500000  -2.846770e+001  1.563259e+002 
3315625000  -2.946692e+001  1.488036e+002 
3318750000  -3.091318e+001  1.458827e+002 
3321875000  -3.202908e+001  1.463358e+002 
3325000000  -3.256119e+001  1.519178e+002 
3328125000  -3.229880e+001  1.532403e+002 
3331250000  -3.120574e+001  1.605627e+002 
3334375000  -2.855077e+001  1.504471e+002 
3337500000  -2.865881e+001  1.320166e+002 
3340625000  -3.007039e+001  1.211165e+002 
3343750000  -3.206223e+001  1.201319e+002 
3346875000  -3.243687e+001  1.223763e+002 
3350000000  -3.183508e+001  1.201763e+002 
3353125000  -3.193052e+001  1.159818e+002 
3356250000  -3.162519e+001  1.081401e+002 
3359375000  -3.257423e+001  1.000552e+002 
3362500000  -3.380258e+001  9.484220e+001 
3365625000  -3.442614e+001  9.369436e+001 
3368750000  -3.540967e+001  9.078648e+001 
3371875000  -3.580526e+001  8.884051e+001 
3375000000  -3.730951e+001  8.630750e+001 
3378125000  -3.841645e+001  8.609229e+001 
3381250000  -3.995632e+001  9.405134e+001 
3384375000  -3.916144e+001  1.156861e+002 
3387500000  -3.585938e+001  1.018614e+002 
3390625000  -3.767796e+001  8.177830e+001 
3393750000  -3.957896e+001  8.692207e+001 
3396875000  -3.880695e+001  8.942979e+001 
3400000000  -3.848737e+001  8.272894e+001 
3403125000  -3.956025e+001  7.815678e+001 
3406250000  -4.050483e+001  8.055561e+001 
3409375000  -4.104093e+001  7.457286e+001 
3412500000  -4.181407e+001  7.786395e+001 
3415625000  -4.249408e+001  8.334509e+001 
3418750000  -4.293233e+001  8.653638e+001 
3421875000  -4.314466e+001  9.293026e+001 
3425000000  -4.234163e+001  9.539593e+001 
3428125000  -4.120438e+001  9.614381e+001 
3431250000  -4.121095e+001  9.120603e+001 
3434375000  -4.107453e+001  8.706673e+001 
3437500000  -4.159588e+001  8.674151e+001 
3440625000  -4.188593e+001  8.960860e+001 
3443750000  -4.064758e+001  9.087147e+001 
3446875000  -3.984650e+001  8.634194e+001 
3450000000  -3.972014e+001  7.734462e+001 
3453125000  -3.990937e+001  6.800531e+001 
3456250000  -4.111039e+001  6.362985e+001 
3459375000  -4.209625e+001  6.609657e+001 
3462500000  -4.210323e+001  6.561477e+001 
3465625000  -4.220299e+001  6.209076e+001 
3468750000  -4.241246e+001  5.938449e+001 
3471875000  -4.247996e+001  5.952475e+001 
3475000000  -4.262547e+001  5.469287e+001 
3478125000  -4.319754e+001  5.146973e+001 
3481250000  -4.422264e+001  4.844475e+001 
3484375000  -4.586876e+001  5.708950e+001 
3487500000  -4.538527e+001  5.833736e+001 
3490625000  -4.515004e+001  5.515253e+001 
3493750000  -4.554754e+001  5.137519e+001 
3496875000  -4.659889e+001  5.156844e+001 
3500000000  -4.786386e+001  5.803588e+001 
3503125000  -4.793451e+001  6.477644e+001 
3506250000  -4.640535e+001  6.553185e+001 
3509375000  -4.679480e+001  6.008958e+001 
3512500000  -4.696427e+001  6.138204e+001 
3515625000  -4.761213e+001  6.450510e+001 
3518750000  -4.834095e+001  6.743530e+001 
3521875000  -4.753392e+001  7.273444e+001 
3525000000  -4.777060e+001  7.679345e+001 
3528125000  -4.723351e+001  8.599166e+001 
3531250000  -4.569730e+001  8.543636e+001 
3534375000  -4.523813e+001  7.650430e+001 
3537500000  -4.541717e+001  7.611612e+001 
3540625000  -4.536927e+001  7.654401e+001 
3543750000  -4.596590e+001  7.865781e+001 
3546875000  -4.569012e+001  9.222672e+001 
3550000000  -4.315855e+001  9.376249e+001 
3553125000  -4.134972e+001  7.807040e+001 
3556250000  -4.234016e+001  7.044569e+001 
3559375000  -4.211263e+001  7.389771e+001 
3562500000  -4.103226e+001  6.718421e+001 
3565625000  -4.172001e+001  5.955151e+001 
3568750000  -4.187143e+001  6.481232e+001 
3571875000  -4.152688e+001  6.350640e+001 
3575000000  -4.099442e+001  5.843415e+001 
3578125000  -4.158470e+001  5.622331e+001 
3581250000  -4.189271e+001  5.505404e+001 
3584375000  -4.081691e+001  5.457731e+001 
3587500000  -3.978827e+001  4.839246e+001 
3590625000  -4.062098e+001  3.908670e+001 
3593750000  -4.169206e+001  3.945396e+001 
3596875000  -4.136776e+001  4.755224e+001 
3600000000  -3.952873e+001  4.421733e+001 
3603125000  -3.983266e+001  3.064424e+001 
3606250000  -4.062608e+001  2.910340e+001 
3609375000  -4.094106e+001  2.702953e+001 
3612500000  -4.128384e+001  2.719300e+001 
3615625000  -4.123523e+001  2.344758e+001 
3618750000  -4.179873e+001  2.406363e+001 
3621875000  -4.151723e+001  2.404749e+001 
3625000000  -4.153061e+001  2.562448e+001 
3628125000  -4.184369e+001  2.435743e+001 
3631250000  -4.148920e+001  1.895823e+001 
3634375000  -4.234522e+001  2.112574e+001 
3637500000  -4.196153e+001  2.597612e+001 
3640625000  -4.077790e+001  2.882598e+001 
3643750000  -4.058539e+001  2.110410e+001 
3646875000  -4.077938e+001  1.446074e+001 
3650000000  -4.135533e+001  1.459074e+001 
3653125000  -4.116897e+001  1.360079e+001 
3656250000  -4.150993e+001  1.328613e+001 
3659375000  -4.205653e+001  1.862268e+001 
3662500000  -4.109926e+001  1.663821e+001 
3665625000  -4.123066e+001  1.500283e+001 
3668750000  -4.021979e+001  1.925179e+001 
3671875000  -3.902064e+001  1.361365e+001 
3675000000  -3.981948e+001  6.546592e+000 
3678125000  -4.025114e+001  1.125229e+001 
3681250000  -3.985682e+001  1.174527e+001 
3684375000  -3.946201e+001  8.027464e+000 
3687500000  -3.974015e+001  7.166008e+000 
3690625000  -3.985982e+001  4.388277e+000 
3693750000  -4.034256e+001  7.358647e+000 
3696875000  -3.994252e+001  9.568875e+000 
3700000000  -3.887886e+001  6.525930e+000 
3703125000  -3.852322e+001  5.091722e+000 
3706250000  -3.933757e+001  5.995868e+000 
3709375000  -3.864041e+001  1.043700e+001 
3712500000  -3.754129e+001  1.026877e+001 
3715625000  -3.623975e+001  3.707243e+000 
3718750000  -3.568146e+001  7.291475e-001 
3721875000  -3.515650e+001  -4.752426e+000 
3725000000  -3.512835e+001  -9.036549e+000 
3728125000  -3.537510e+001  -1.054842e+001 
3731250000  -3.455334e+001  -1.021564e+001 
3734375000  -3.370408e+001  -1.703462e+001 
3737500000  -3.418854e+001  -2.296979e+001 
3740625000  -3.485752e+001  -2.731367e+001 
3743750000  -3.466305e+001  -2.942332e+001 
3746875000  -3.456149e+001  -3.223806e+001 
3750000000  -3.490194e+001  -3.303825e+001 
3753125000  -3.454028e+001  -3.318337e+001 
3756250000  -3.445797e+001  -3.448458e+001 
3759375000  -3.423731e+001  -3.467914e+001 
3762500000  -3.364982e+001  -3.975996e+001 
3765625000  -3.426637e+001  -4.187962e+001 
3768750000  -3.424883e+001  -4.008979e+001 
3771875000  -3.259723e+001  -4.127749e+001 
3775000000  -3.217154e+001  -5.052833e+001 
3778125000  -3.257425e+001  -5.155589e+001 
3781250000  -3.245912e+001  -5.415128e+001 
3784375000  -3.232438e+001  -5.661833e+001 
3787500000  -3.167581e+001  -6.011771e+001 
3790625000  -3.210964e+001  -6.639506e+001 
3793750000  -3.235374e+001  -6.590627e+001 
3796875000  -3.143921e+001  -6.784728e+001 
3800000000  -2.989257e+001  -7.119638e+001 
3803125000  -3.068342e+001  -7.834389e+001 
3806250000  -3.135473e+001  -8.102453e+001 
3809375000  -3.105941e+001  -8.129910e+001 
3812500000  -3.036739e+001  -8.652086e+001 
3815625000  -3.105797e+001  -9.439539e+001 
3818750000  -3.203225e+001  -9.517184e+001 
3821875000  -3.200044e+001  -8.723614e+001 
3825000000  -3.014610e+001  -8.228286e+001 
3828125000  -2.876985e+001  -9.676601e+001 
3831250000  -2.933225e+001  -1.105696e+002 
3834375000  -3.072577e+001  -1.113373e+002 
3837500000  -3.159032e+001  -1.059579e+002 
3840625000  -3.048739e+001  -1.072539e+002 
3843750000  -2.928658e+001  -1.172594e+002 
3846875000  -2.999237e+001  -1.239836e+002 
3850000000  -3.131383e+001  -1.188471e+002 
3853125000  -3.054763e+001  -1.164932e+002 
3856250000  -3.033912e+001  -1.206957e+002 
3859375000  -2.964513e+001  -1.255401e+002 
3862500000  -2.919145e+001  -1.325519e+002 
3865625000  -2.952980e+001  -1.375044e+002 
3868750000  -2.943354e+001  -1.379504e+002 
3871875000  -2.877674e+001  -1.407098e+002 
3875000000  -2.900950e+001  -1.495052e+002 
3878125000  -2.991442e+001  -1.517756e+002 
3881250000  -3.009980e+001  -1.490146e+002 
3884375000  -2.954312e+001  -1.539355e+002 
3887500000  -2.969811e+001  -1.579649e+002 
3890625000  -3.027162e+001  -1.600263e+002 
3893750000  -3.069175e+001  -1.619253e+002 
3896875000  -3.076571e+001  -1.608199e+002 
3900000000  -3.106806e+001  -1.617297e+002 
3903125000  -3.062749e+001  -1.635440e+002 
3906250000  -3.038913e+001  -1.651601e+002 
3909375000  -2.962086e+001  -1.672372e+002 
3912500000  -2.969416e+001  -1.749556e+002 
3915625000  -3.101295e+001  -1.739576e+002 
3918750000  -3.095269e+001  -1.722654e+002 
3921875000  -3.058672e+001  -1.739649e+002 
3925000000  -2.982763e+001  -1.744823e+002 
3928125000  -2.910349e+001  1.793354e+002 
3931250000  -2.958504e+001  1.756168e+002 
3934375000  -2.987525e+001  1.762933e+002 
3937500000  -3.003199e+001  1.751547e+002 
3940625000  -3.048750e+001  1.756777e+002 
3943750000  -2.939965e+001  1.768570e+002 
3946875000  -2.827137e+001  1.715482e+002 
3950000000  -2.875009e+001  1.640062e+002 
3953125000  -2.964639e+001  1.651776e+002 
3956250000  -2.878587e+001  1.675346e+002 
3959375000  -2.741928e+001  1.644873e+002 
3962500000  -2.701319e+001  1.603184e+002 
3965625000  -2.658617e+001  1.516565e+002 
3968750000  -2.752973e+001  1.450656e+002 
3971875000  -2.795070e+001  1.435934e+002 
3975000000  -2.719314e+001  1.417997e+002 
3978125000  -2.705466e+001  1.400150e+002 
3981250000  -2.680765e+001  1.358289e+002 
3984375000  -2.699671e+001  1.296578e+002 
3987500000  -2.755657e+001  1.275313e+002 
3990625000  -2.756707e+001  1.261732e+002 
3993750000  -2.775825e+001  1.235555e+002 
3996875000  -2.769183e+001  1.209583e+002 
4000000000  -2.783017e+001  1.187220e+002 
4003125000  -2.840810e+001  1.207429e+002 
4006250000  -2.700392e+001  1.211844e+002 
4009375000  -2.577088e+001  1.086179e+002 
4012500000  -2.691479e+001  1.014543e+002 
4015625000  -2.812012e+001  1.024261e+002 
4018750000  -2.827745e+001  1.049999e+002 
4021875000  -2.761141e+001  1.027351e+002 
4025000000  -2.724246e+001  9.839986e+001 
4028125000  -2.720222e+001  9.386251e+001 
4031250000  -2.769686e+001  9.108148e+001 
4034375000  -2.793494e+001  9.099073e+001 
4037500000  -2.746003e+001  9.281226e+001 
4040625000  -2.738965e+001  8.955227e+001 
4043750000  -2.775337e+001  8.905148e+001 
4046875000  -2.730647e+001  8.861438e+001 
4050000000  -2.683193e+001  8.309731e+001 
4053125000  -2.727604e+001  8.132626e+001 
4056250000  -2.785623e+001  8.523029e+001 
4059375000  -2.659994e+001  8.701126e+001 
4062500000  -2.527134e+001  8.257721e+001 
4065625000  -2.513900e+001  7.810382e+001 
4068750000  -2.485741e+001  7.360023e+001 
4071875000  -2.420943e+001  6.565827e+001 
4075000000  -2.453877e+001  5.962110e+001 
4078125000  -2.509291e+001  5.874899e+001 
4081250000  -2.454131e+001  5.612423e+001 
4084375000  -2.412950e+001  4.946806e+001 
4087500000  -2.454941e+001  4.322352e+001 
4090625000  -2.513769e+001  4.218919e+001 
4093750000  -2.490358e+001  4.296690e+001 
4096875000  -2.450516e+001  3.705399e+001 
4100000000  -2.514610e+001  3.000273e+001 
4103125000  -2.606559e+001  3.074876e+001 
4106250000  -2.593412e+001  3.555761e+001 
4109375000  -2.504994e+001  3.490511e+001 
4112500000  -2.448863e+001  2.853228e+001 
4115625000  -2.481692e+001  2.384129e+001 
4118750000  -2.486080e+001  2.127513e+001 
4121875000  -2.447923e+001  1.624206e+001 
4125000000  -2.485400e+001  1.119634e+001 
4128125000  -2.592741e+001  1.158123e+001 
4131250000  -2.555822e+001  1.967704e+001 
4134375000  -2.322217e+001  1.518881e+001 
4137500000  -2.301934e+001  -3.949994e+000 
4140625000  -2.523168e+001  -1.079048e+001 
4143750000  -2.651103e+001  -5.666153e+000 
4146875000  -2.612808e+001  1.539143e+000 
4150000000  -2.514675e+001  -1.902474e+000 
4153125000  -2.500602e+001  -8.568976e+000 
4156250000  -2.594284e+001  -1.158678e+001 
4159375000  -2.617204e+001  -6.566638e+000 
4162500000  -2.508159e+001  -2.147828e+000 
4165625000  -2.391292e+001  -6.614614e+000 
4168750000  -2.335962e+001  -1.358693e+001 
4171875000  -2.331553e+001  -2.284201e+001 
4175000000  -2.388218e+001  -2.845174e+001 
4178125000  -2.450618e+001  -2.827547e+001 
4181250000  -2.434679e+001  -2.888579e+001 
4184375000  -2.423012e+001  -3.223269e+001 
4187500000  -2.427064e+001  -3.473024e+001 
4190625000  -2.409785e+001  -4.035103e+001 
4193750000  -2.490018e+001  -4.411967e+001 
4196875000  -2.562573e+001  -4.417007e+001 
4200000000  -2.651898e+001  -4.170049e+001 
4203125000  -2.642709e+001  -2.806003e+001 
4206250000  -2.304664e+001  -2.707095e+001 
4209375000  -2.196157e+001  -4.773193e+001 
4212500000  -2.385450e+001  -5.640151e+001 
4215625000  -2.482358e+001  -4.990181e+001 
4218750000  -2.343657e+001  -4.333291e+001 
4221875000  -2.118504e+001  -5.251600e+001 
4225000000  -2.240607e+001  -6.501281e+001 
4228125000  -2.308804e+001  -5.996307e+001 
4231250000  -2.151893e+001  -6.401389e+001 
4234375000  -2.143672e+001  -7.183644e+001 
4237500000  -2.103773e+001  -7.548585e+001 
4240625000  -2.104154e+001  -8.394154e+001 
4243750000  -2.202730e+001  -9.064668e+001 
4246875000  -2.291085e+001  -9.077118e+001 
4250000000  -2.297326e+001  -8.800586e+001 
4253125000  -2.240284e+001  -8.935966e+001 
4256250000  -2.264742e+001  -9.389472e+001 
4259375000  -2.238871e+001  -9.597205e+001 
4262500000  -2.239663e+001  -9.972678e+001 
4265625000  -2.254350e+001  -9.924306e+001 
4268750000  -2.165667e+001  -1.034261e+002 
4271875000  -2.140837e+001  -1.096309e+002 
4275000000  -2.079148e+001  -1.159383e+002 
4278125000  -2.149854e+001  -1.267821e+002 
4281250000  -2.324369e+001  -1.286366e+002 
4284375000  -2.291494e+001  -1.281901e+002 
4287500000  -2.373937e+001  -1.320793e+002 
4290625000  -2.494932e+001  -1.220834e+002 
4293750000  -2.299568e+001  -1.165922e+002 
4296875000  -2.165371e+001  -1.280961e+002 
4300000000  -2.257339e+001  -1.374300e+002 
4303125000  -2.361612e+001  -1.359902e+002 
4306250000  -2.298356e+001  -1.297688e+002 
4309375000  -2.159326e+001  -1.320916e+002 
4312500000  -2.148908e+001  -1.405033e+002 
4315625000  -2.172555e+001  -1.467188e+002 
4318750000  -2.206170e+001  -1.500406e+002 
4321875000  -2.223641e+001  -1.492981e+002 
4325000000  -2.160134e+001  -1.487343e+002 
4328125000  -2.115702e+001  -1.551391e+002 
4331250000  -2.105369e+001  -1.632673e+002 
4334375000  -2.151774e+001  -1.682529e+002 
4337500000  -2.232075e+001  -1.704464e+002 
4340625000  -2.290400e+001  -1.667882e+002 
4343750000  -2.231625e+001  -1.665171e+002 
4346875000  -2.191600e+001  -1.721184e+002 
4350000000  -2.192587e+001  -1.769477e+002 
4353125000  -2.199948e+001  1.755561e+002 
4356250000  -2.378798e+001  1.747042e+002 
4359375000  -2.427087e+001  -1.715032e+002 
4362500000  -2.155202e+001  -1.699093e+002 
4365625000  -1.996368e+001  1.776841e+002 
4368750000  -2.069763e+001  1.660828e+002 
4371875000  -2.192858e+001  1.669655e+002 
4375000000  -2.151638e+001  1.677647e+002 
4378125000  -2.093492e+001  1.622388e+002 
4381250000  -2.108273e+001  1.563242e+002 
4384375000  -2.086136e+001  1.519483e+002 
4387500000  -2.163358e+001  1.460032e+002 
4390625000  -2.265309e+001  1.469996e+002 
4393750000  -2.199438e+001  1.489346e+002 
4396875000  -2.129272e+001  1.467607e+002 
4400000000  -2.080194e+001  1.399637e+002 
4403125000  -2.140323e+001  1.324810e+002 
4406250000  -2.224881e+001  1.312954e+002 
4409375000  -2.221229e+001  1.288443e+002 
4412500000  -2.327786e+001  1.260033e+002 
4415625000  -2.363439e+001  1.310925e+002 
4418750000  -2.240498e+001  1.356479e+002 
