!Agilent Technologies,E8363B,MY43030201,A.06.04.32
!Agilent E8363B: A.06.04.32
!Date: Tuesday, November 11, 2014 20:46:04
!Correction: S21(Response(S21)) 
!S1P File: Measurement: S21:
# Hz S  dB   R 50
3000000000  -2.653175e+001  1.581570e+002 
3003125000  -2.791828e+001  1.537321e+002 
3006250000  -2.796630e+001  1.509907e+002 
3009375000  -2.832810e+001  1.560339e+002 
3012500000  -2.781400e+001  1.557235e+002 
3015625000  -2.682591e+001  1.484460e+002 
3018750000  -2.766099e+001  1.478120e+002 
3021875000  -2.648595e+001  1.489815e+002 
3025000000  -2.516140e+001  1.459806e+002 
3028125000  -2.417976e+001  1.414313e+002 
3031250000  -2.315931e+001  1.302210e+002 
3034375000  -2.277274e+001  1.173017e+002 
3037500000  -2.307643e+001  1.054030e+002 
3040625000  -2.443757e+001  1.001011e+002 
3043750000  -2.513501e+001  9.587646e+001 
3046875000  -2.522104e+001  8.956529e+001 
3050000000  -2.694183e+001  8.232167e+001 
3053125000  -2.715305e+001  8.889444e+001 
3056250000  -2.644311e+001  9.184425e+001 
3059375000  -2.673297e+001  9.147749e+001 
3062500000  -2.522840e+001  8.756142e+001 
3065625000  -2.499688e+001  8.220716e+001 
3068750000  -2.473020e+001  7.521716e+001 
3071875000  -2.465562e+001  7.212045e+001 
3075000000  -2.467756e+001  6.874209e+001 
3078125000  -2.432416e+001  6.412215e+001 
3081250000  -2.501826e+001  5.981985e+001 
3084375000  -2.427326e+001  5.634900e+001 
3087500000  -2.409883e+001  5.269416e+001 
3090625000  -2.383062e+001  4.298366e+001 
3093750000  -2.421950e+001  3.484644e+001 
3096875000  -2.552070e+001  2.869263e+001 
3100000000  -2.568102e+001  2.740789e+001 
3103125000  -2.607552e+001  2.898203e+001 
3106250000  -2.576764e+001  2.526911e+001 
3109375000  -2.599730e+001  2.200499e+001 
3112500000  -2.615003e+001  2.094099e+001 
3115625000  -2.593946e+001  1.665948e+001 
3118750000  -2.641199e+001  1.767904e+001 
3121875000  -2.580490e+001  9.972015e+000 
3125000000  -2.684433e+001  6.315050e+000 
3128125000  -2.820554e+001  1.431665e+001 
3131250000  -2.597751e+001  1.519563e+001 
3134375000  -2.460483e+001  1.277662e+000 
3137500000  -2.527728e+001  -1.266787e+001 
3140625000  -2.691579e+001  -1.418518e+001 
3143750000  -2.793132e+001  -9.940351e+000 
3146875000  -2.751817e+001  -8.226926e+000 
3150000000  -2.650709e+001  -5.778309e+000 
3153125000  -2.642871e+001  -1.356347e+001 
3156250000  -2.743352e+001  -8.433525e+000 
3159375000  -2.600917e+001  -5.482878e+000 
3162500000  -2.387928e+001  -1.809086e+001 
3165625000  -2.479660e+001  -2.892529e+001 
3168750000  -2.521178e+001  -2.831472e+001 
3171875000  -2.428448e+001  -3.244392e+001 
3175000000  -2.482823e+001  -4.008141e+001 
3178125000  -2.468682e+001  -3.860373e+001 
3181250000  -2.349655e+001  -4.197063e+001 
3184375000  -2.267087e+001  -5.445076e+001 
3187500000  -2.376047e+001  -7.016655e+001 
3190625000  -2.659308e+001  -7.766518e+001 
3193750000  -2.721866e+001  -6.780887e+001 
3196875000  -2.674431e+001  -6.207930e+001 
3200000000  -2.594117e+001  -6.420750e+001 
3203125000  -2.501211e+001  -6.977552e+001 
3206250000  -2.530361e+001  -7.584395e+001 
3209375000  -2.482945e+001  -8.119929e+001 
3212500000  -2.492339e+001  -8.775942e+001 
3215625000  -2.508709e+001  -9.232297e+001 
3218750000  -2.585794e+001  -9.833705e+001 
3221875000  -2.688167e+001  -1.030265e+002 
3225000000  -2.644239e+001  -1.040598e+002 
3228125000  -2.678183e+001  -1.084745e+002 
3231250000  -2.749591e+001  -1.113136e+002 
3234375000  -2.739716e+001  -1.100085e+002 
3237500000  -2.743200e+001  -1.117314e+002 
3240625000  -2.706677e+001  -1.134460e+002 
3243750000  -2.669516e+001  -1.200611e+002 
3246875000  -2.718456e+001  -1.267223e+002 
3250000000  -2.764403e+001  -1.283185e+002 
3253125000  -2.778084e+001  -1.301331e+002 
3256250000  -2.765763e+001  -1.360079e+002 
3259375000  -2.792273e+001  -1.439799e+002 
3262500000  -2.917515e+001  -1.463859e+002 
3265625000  -2.992971e+001  -1.435396e+002 
3268750000  -2.989676e+001  -1.406875e+002 
3271875000  -2.971666e+001  -1.394938e+002 
3275000000  -2.857253e+001  -1.442637e+002 
3278125000  -2.900652e+001  -1.509157e+002 
3281250000  -2.931596e+001  -1.489816e+002 
3284375000  -2.885839e+001  -1.547494e+002 
3287500000  -2.908043e+001  -1.578579e+002 
3290625000  -2.947758e+001  -1.615161e+002 
3293750000  -2.911783e+001  -1.670638e+002 
3296875000  -3.014868e+001  -1.674055e+002 
3300000000  -3.010578e+001  -1.662534e+002 
3303125000  -2.891777e+001  -1.698893e+002 
3306250000  -2.872975e+001  -1.765770e+002 
3309375000  -2.851109e+001  1.782044e+002 
3312500000  -2.848833e+001  1.683430e+002 
3315625000  -2.944938e+001  1.604893e+002 
3318750000  -3.072499e+001  1.573659e+002 
3321875000  -3.197789e+001  1.571563e+002 
3325000000  -3.258537e+001  1.622814e+002 
3328125000  -3.253264e+001  1.641422e+002 
3331250000  -3.130292e+001  1.716906e+002 
3334375000  -2.875910e+001  1.622422e+002 
3337500000  -2.871868e+001  1.438290e+002 
3340625000  -3.002603e+001  1.326398e+002 
3343750000  -3.198124e+001  1.315841e+002 
3346875000  -3.256764e+001  1.328980e+002 
3350000000  -3.191964e+001  1.319910e+002 
3353125000  -3.197415e+001  1.273314e+002 
3356250000  -3.167079e+001  1.196657e+002 
3359375000  -3.254451e+001  1.111233e+002 
3362500000  -3.385328e+001  1.059326e+002 
3365625000  -3.452907e+001  1.037311e+002 
3368750000  -3.541226e+001  1.022341e+002 
3371875000  -3.589607e+001  9.978579e+001 
3375000000  -3.743108e+001  9.797426e+001 
3378125000  -3.853758e+001  9.764831e+001 
3381250000  -3.995345e+001  1.030789e+002 
3384375000  -3.904240e+001  1.251072e+002 
3387500000  -3.614910e+001  1.119246e+002 
3390625000  -3.770701e+001  9.313942e+001 
3393750000  -3.957261e+001  9.784201e+001 
3396875000  -3.865614e+001  1.011849e+002 
3400000000  -3.859476e+001  9.342092e+001 
3403125000  -3.966218e+001  8.889497e+001 
3406250000  -4.058048e+001  9.076308e+001 
3409375000  -4.110789e+001  8.726107e+001 
3412500000  -4.192800e+001  8.755917e+001 
3415625000  -4.285933e+001  9.418337e+001 
3418750000  -4.331051e+001  9.550986e+001 
3421875000  -4.359618e+001  1.029089e+002 
3425000000  -4.297427e+001  1.080810e+002 
3428125000  -4.155398e+001  1.074317e+002 
3431250000  -4.182447e+001  1.023396e+002 
3434375000  -4.138590e+001  9.860221e+001 
3437500000  -4.194001e+001  9.752369e+001 
3440625000  -4.234614e+001  1.019765e+002 
3443750000  -4.096131e+001  1.020967e+002 
3446875000  -4.016558e+001  9.773582e+001 
3450000000  -3.998465e+001  8.853400e+001 
3453125000  -4.021295e+001  8.092336e+001 
3456250000  -4.132025e+001  7.524337e+001 
3459375000  -4.223542e+001  7.859012e+001 
3462500000  -4.268990e+001  7.878004e+001 
3465625000  -4.295675e+001  7.562332e+001 
3468750000  -4.280641e+001  6.968119e+001 
3471875000  -4.313194e+001  7.127259e+001 
3475000000  -4.308969e+001  6.775394e+001 
3478125000  -4.364687e+001  6.253612e+001 
3481250000  -4.486440e+001  6.236948e+001 
3484375000  -4.638150e+001  6.580582e+001 
3487500000  -4.574357e+001  7.042634e+001 
3490625000  -4.542350e+001  6.850957e+001 
3493750000  -4.597540e+001  6.655279e+001 
3496875000  -4.695930e+001  6.919419e+001 
3500000000  -4.825313e+001  7.330284e+001 
3503125000  -4.774452e+001  7.798063e+001 
3506250000  -4.674988e+001  7.847475e+001 
3509375000  -4.681942e+001  7.845338e+001 
3512500000  -4.711819e+001  7.315391e+001 
3515625000  -4.834076e+001  7.942632e+001 
3518750000  -4.805847e+001  8.340070e+001 
3521875000  -4.789764e+001  8.562400e+001 
3525000000  -4.801596e+001  9.187112e+001 
3528125000  -4.786331e+001  9.993902e+001 
3531250000  -4.636636e+001  1.032667e+002 
3534375000  -4.530167e+001  9.507505e+001 
3537500000  -4.525395e+001  8.771634e+001 
3540625000  -4.575381e+001  9.177206e+001 
3543750000  -4.610111e+001  9.427781e+001 
3546875000  -4.563179e+001  1.068039e+002 
3550000000  -4.317123e+001  1.072959e+002 
3553125000  -4.152700e+001  9.046281e+001 
3556250000  -4.250785e+001  8.482023e+001 
3559375000  -4.240460e+001  8.809790e+001 
3562500000  -4.120364e+001  8.311258e+001 
3565625000  -4.181781e+001  7.425593e+001 
3568750000  -4.199971e+001  7.831237e+001 
3571875000  -4.172141e+001  7.726102e+001 
3575000000  -4.122973e+001  7.317260e+001 
3578125000  -4.161328e+001  6.984416e+001 
3581250000  -4.178397e+001  6.887847e+001 
3584375000  -4.081238e+001  6.997758e+001 
3587500000  -4.013607e+001  6.364352e+001 
3590625000  -4.039515e+001  5.432322e+001 
3593750000  -4.149854e+001  5.287545e+001 
3596875000  -4.166149e+001  6.017115e+001 
3600000000  -3.986000e+001  5.899115e+001 
3603125000  -4.015965e+001  4.430623e+001 
3606250000  -4.058786e+001  4.319180e+001 
3609375000  -4.109394e+001  4.085591e+001 
3612500000  -4.130821e+001  4.069186e+001 
3615625000  -4.146299e+001  3.826361e+001 
3618750000  -4.178164e+001  3.985495e+001 
3621875000  -4.169562e+001  3.919329e+001 
3625000000  -4.163583e+001  3.895104e+001 
3628125000  -4.207840e+001  3.787082e+001 
3631250000  -4.148476e+001  3.508618e+001 
3634375000  -4.217194e+001  3.533213e+001 
3637500000  -4.224564e+001  4.090834e+001 
3640625000  -4.097058e+001  4.082177e+001 
3643750000  -4.092409e+001  3.407046e+001 
3646875000  -4.110244e+001  2.950610e+001 
3650000000  -4.156891e+001  2.818980e+001 
3653125000  -4.150278e+001  2.988430e+001 
3656250000  -4.167064e+001  2.758724e+001 
3659375000  -4.213976e+001  3.162627e+001 
3662500000  -4.139640e+001  3.125030e+001 
3665625000  -4.144979e+001  3.103399e+001 
3668750000  -4.048977e+001  3.252682e+001 
3671875000  -3.953496e+001  2.928457e+001 
3675000000  -3.999656e+001  2.250141e+001 
3678125000  -4.029357e+001  2.386997e+001 
3681250000  -4.032843e+001  2.564048e+001 
3684375000  -3.973140e+001  2.216937e+001 
3687500000  -3.992812e+001  2.146253e+001 
3690625000  -3.993980e+001  1.837365e+001 
3693750000  -4.036061e+001  2.152729e+001 
3696875000  -4.025114e+001  2.533045e+001 
3700000000  -3.896638e+001  2.304857e+001 
3703125000  -3.897848e+001  2.097771e+001 
3706250000  -3.954070e+001  2.173953e+001 
3709375000  -3.886791e+001  2.488022e+001 
3712500000  -3.761442e+001  2.454141e+001 
3715625000  -3.655634e+001  2.016776e+001 
3718750000  -3.587938e+001  1.615298e+001 
3721875000  -3.533875e+001  1.091412e+001 
3725000000  -3.531023e+001  6.555914e+000 
3728125000  -3.545455e+001  5.265372e+000 
3731250000  -3.466642e+001  4.519632e+000 
3734375000  -3.366107e+001  -1.283030e+000 
3737500000  -3.405832e+001  -9.075875e+000 
3740625000  -3.470251e+001  -1.254354e+001 
3743750000  -3.457501e+001  -1.483841e+001 
3746875000  -3.451765e+001  -1.758906e+001 
3750000000  -3.493325e+001  -1.791643e+001 
3753125000  -3.441380e+001  -1.813672e+001 
3756250000  -3.446265e+001  -1.983541e+001 
3759375000  -3.437050e+001  -2.032407e+001 
3762500000  -3.374455e+001  -2.500177e+001 
3765625000  -3.403958e+001  -2.768594e+001 
3768750000  -3.422392e+001  -2.461739e+001 
3771875000  -3.258978e+001  -2.764370e+001 
3775000000  -3.214938e+001  -3.567856e+001 
3778125000  -3.253349e+001  -3.645203e+001 
3781250000  -3.235626e+001  -4.002628e+001 
3784375000  -3.223299e+001  -4.200610e+001 
3787500000  -3.170026e+001  -4.520081e+001 
3790625000  -3.216505e+001  -5.168183e+001 
3793750000  -3.229584e+001  -5.245165e+001 
3796875000  -3.154607e+001  -5.331874e+001 
3800000000  -2.995609e+001  -5.694645e+001 
3803125000  -3.076163e+001  -6.363602e+001 
3806250000  -3.135024e+001  -6.606690e+001 
3809375000  -3.111042e+001  -6.706371e+001 
3812500000  -3.048901e+001  -7.214409e+001 
3815625000  -3.103648e+001  -7.947684e+001 
3818750000  -3.195203e+001  -8.131572e+001 
3821875000  -3.207861e+001  -7.363240e+001 
3825000000  -3.014933e+001  -6.809322e+001 
3828125000  -2.879822e+001  -8.179622e+001 
3831250000  -2.937512e+001  -9.558769e+001 
3834375000  -3.066650e+001  -9.687463e+001 
3837500000  -3.147405e+001  -9.141571e+001 
3840625000  -3.037912e+001  -9.269997e+001 
3843750000  -2.922698e+001  -1.026015e+002 
3846875000  -2.995508e+001  -1.096780e+002 
3850000000  -3.114126e+001  -1.041668e+002 
3853125000  -3.044241e+001  -1.015657e+002 
3856250000  -3.029926e+001  -1.062676e+002 
3859375000  -2.971366e+001  -1.105533e+002 
3862500000  -2.926308e+001  -1.176398e+002 
3865625000  -2.953537e+001  -1.231036e+002 
3868750000  -2.956689e+001  -1.232499e+002 
3871875000  -2.885332e+001  -1.262607e+002 
3875000000  -2.900358e+001  -1.347737e+002 
3878125000  -2.987408e+001  -1.378146e+002 
3881250000  -3.007244e+001  -1.342827e+002 
3884375000  -2.959131e+001  -1.391211e+002 
3887500000  -2.964220e+001  -1.429885e+002 
3890625000  -3.006444e+001  -1.455632e+002 
3893750000  -3.061976e+001  -1.463954e+002 
3896875000  -3.067899e+001  -1.467723e+002 
3900000000  -3.106988e+001  -1.475092e+002 
3903125000  -3.058818e+001  -1.494920e+002 
3906250000  -3.031839e+001  -1.496463e+002 
3909375000  -2.965655e+001  -1.526577e+002 
3912500000  -2.966584e+001  -1.600525e+002 
3915625000  -3.084350e+001  -1.589216e+002 
3918750000  -3.082923e+001  -1.575826e+002 
3921875000  -3.060239e+001  -1.591211e+002 
3925000000  -2.976591e+001  -1.597444e+002 
3928125000  -2.909154e+001  -1.655250e+002 
3931250000  -2.952131e+001  -1.692479e+002 
3934375000  -2.970690e+001  -1.688254e+002 
3937500000  -2.984715e+001  -1.700410e+002 
3940625000  -3.032248e+001  -1.693840e+002 
3943750000  -2.941633e+001  -1.679328e+002 
3946875000  -2.821838e+001  -1.732837e+002 
3950000000  -2.855540e+001  1.786537e+002 
3953125000  -2.956931e+001  1.795088e+002 
3956250000  -2.882603e+001  -1.778399e+002 
3959375000  -2.747446e+001  1.792953e+002 
3962500000  -2.694623e+001  1.752905e+002 
3965625000  -2.653311e+001  1.666517e+002 
3968750000  -2.742579e+001  1.597816e+002 
3971875000  -2.792968e+001  1.583672e+002 
3975000000  -2.715645e+001  1.566018e+002 
3978125000  -2.704916e+001  1.550302e+002 
3981250000  -2.670910e+001  1.507660e+002 
3984375000  -2.691670e+001  1.449125e+002 
3987500000  -2.749167e+001  1.421029e+002 
3990625000  -2.748055e+001  1.412390e+002 
3993750000  -2.765410e+001  1.382772e+002 
3996875000  -2.762381e+001  1.353313e+002 
4000000000  -2.765385e+001  1.337762e+002 
4003125000  -2.824697e+001  1.355230e+002 
4006250000  -2.699477e+001  1.360842e+002 
4009375000  -2.577075e+001  1.235791e+002 
4012500000  -2.671022e+001  1.160889e+002 
4015625000  -2.793369e+001  1.167765e+002 
4018750000  -2.820195e+001  1.190258e+002 
4021875000  -2.752553e+001  1.178578e+002 
4025000000  -2.715897e+001  1.128072e+002 
4028125000  -2.712818e+001  1.090224e+002 
4031250000  -2.761316e+001  1.053604e+002 
4034375000  -2.785801e+001  1.053581e+002 
4037500000  -2.739843e+001  1.070128e+002 
4040625000  -2.726601e+001  1.035224e+002 
4043750000  -2.767474e+001  1.035897e+002 
4046875000  -2.727671e+001  1.031821e+002 
4050000000  -2.673016e+001  9.726526e+001 
4053125000  -2.720917e+001  9.520006e+001 
4056250000  -2.779225e+001  9.919919e+001 
4059375000  -2.659811e+001  1.015266e+002 
4062500000  -2.526795e+001  9.699604e+001 
4065625000  -2.507922e+001  9.234203e+001 
4068750000  -2.480500e+001  8.814636e+001 
4071875000  -2.421982e+001  8.010503e+001 
4075000000  -2.454438e+001  7.377631e+001 
4078125000  -2.509237e+001  7.279234e+001 
4081250000  -2.458233e+001  7.069926e+001 
4084375000  -2.416146e+001  6.424840e+001 
4087500000  -2.451168e+001  5.783864e+001 
4090625000  -2.510768e+001  5.628483e+001 
4093750000  -2.497721e+001  5.729993e+001 
4096875000  -2.447608e+001  5.168182e+001 
4100000000  -2.509403e+001  4.446822e+001 
4103125000  -2.603335e+001  4.494333e+001 
4106250000  -2.592207e+001  4.981219e+001 
4109375000  -2.506302e+001  4.932526e+001 
4112500000  -2.444835e+001  4.295946e+001 
4115625000  -2.478153e+001  3.854195e+001 
4118750000  -2.488954e+001  3.563465e+001 
4121875000  -2.445576e+001  3.130983e+001 
4125000000  -2.478314e+001  2.597892e+001 
4128125000  -2.578826e+001  2.565729e+001 
4131250000  -2.551935e+001  3.341002e+001 
4134375000  -2.331160e+001  2.934118e+001 
4137500000  -2.300316e+001  1.079917e+001 
4140625000  -2.509011e+001  3.160160e+000 
4143750000  -2.644764e+001  7.505982e+000 
4146875000  -2.615828e+001  1.520379e+001 
4150000000  -2.528263e+001  1.213663e+001 
4153125000  -2.503014e+001  5.998743e+000 
4156250000  -2.597725e+001  3.159797e+000 
4159375000  -2.619786e+001  7.267648e+000 
4162500000  -2.510807e+001  1.182985e+001 
4165625000  -2.400490e+001  7.985202e+000 
4168750000  -2.336942e+001  1.041640e+000 
4171875000  -2.337230e+001  -8.306473e+000 
4175000000  -2.399070e+001  -1.414962e+001 
4178125000  -2.456019e+001  -1.399729e+001 
4181250000  -2.446203e+001  -1.454452e+001 
4184375000  -2.429507e+001  -1.739604e+001 
4187500000  -2.442165e+001  -2.054725e+001 
4190625000  -2.414633e+001  -2.556188e+001 
4193750000  -2.492320e+001  -2.929360e+001 
4196875000  -2.556457e+001  -2.955848e+001 
4200000000  -2.645715e+001  -2.772018e+001 
4203125000  -2.663829e+001  -1.517561e+001 
4206250000  -2.330334e+001  -1.220941e+001 
4209375000  -2.200265e+001  -3.253597e+001 
4212500000  -2.387092e+001  -4.188700e+001 
4215625000  -2.491014e+001  -3.593137e+001 
4218750000  -2.365474e+001  -2.878442e+001 
4221875000  -2.130131e+001  -3.765358e+001 
4225000000  -2.247457e+001  -5.053501e+001 
4228125000  -2.323878e+001  -4.542867e+001 
4231250000  -2.166752e+001  -4.891618e+001 
4234375000  -2.157828e+001  -5.727123e+001 
4237500000  -2.117305e+001  -6.054568e+001 
4240625000  -2.115687e+001  -6.892289e+001 
4243750000  -2.206281e+001  -7.577623e+001 
4246875000  -2.292133e+001  -7.608011e+001 
4250000000  -2.302398e+001  -7.319970e+001 
4253125000  -2.241598e+001  -7.527711e+001 
4256250000  -2.273839e+001  -7.944434e+001 
4259375000  -2.246202e+001  -8.127145e+001 
4262500000  -2.247123e+001  -8.515599e+001 
4265625000  -2.269869e+001  -8.491816e+001 
4268750000  -2.185677e+001  -8.862534e+001 
4271875000  -2.157656e+001  -9.450924e+001 
4275000000  -2.091579e+001  -1.007368e+002 
4278125000  -2.148638e+001  -1.118277e+002 
4281250000  -2.330875e+001  -1.141309e+002 
4284375000  -2.307879e+001  -1.133070e+002 
4287500000  -2.378495e+001  -1.170422e+002 
4290625000  -2.513539e+001  -1.080633e+002 
4293750000  -2.319829e+001  -1.018160e+002 
4296875000  -2.178177e+001  -1.130987e+002 
4300000000  -2.262247e+001  -1.225598e+002 
4303125000  -2.375042e+001  -1.217203e+002 
4306250000  -2.329706e+001  -1.153956e+002 
4309375000  -2.185525e+001  -1.171317e+002 
4312500000  -2.174214e+001  -1.252234e+002 
4315625000  -2.193347e+001  -1.313000e+002 
4318750000  -2.220812e+001  -1.346836e+002 
4321875000  -2.242216e+001  -1.343034e+002 
4325000000  -2.186223e+001  -1.335295e+002 
4328125000  -2.135312e+001  -1.397894e+002 
4331250000  -2.127689e+001  -1.477287e+002 
4334375000  -2.168433e+001  -1.525601e+002 
4337500000  -2.245167e+001  -1.549892e+002 
4340625000  -2.309434e+001  -1.521473e+002 
4343750000  -2.252323e+001  -1.513853e+002 
4346875000  -2.210441e+001  -1.566590e+002 
4350000000  -2.214460e+001  -1.614573e+002 
4353125000  -2.210506e+001  -1.686923e+002 
4356250000  -2.378515e+001  -1.705451e+002 
4359375000  -2.456192e+001  -1.576928e+002 
4362500000  -2.193311e+001  -1.549835e+002 
4365625000  -2.026083e+001  -1.663437e+002 
4368750000  -2.084997e+001  -1.783098e+002 
4371875000  -2.209715e+001  -1.781904e+002 
4375000000  -2.184724e+001  -1.765168e+002 
4378125000  -2.113580e+001  1.776831e+002 
4381250000  -2.128314e+001  1.722458e+002 
4384375000  -2.112973e+001  1.677313e+002 
4387500000  -2.180317e+001  1.620416e+002 
4390625000  -2.284780e+001  1.624403e+002 
4393750000  -2.219748e+001  1.647932e+002 
4396875000  -2.153775e+001  1.625411e+002 
4400000000  -2.103177e+001  1.556702e+002 
4403125000  -2.156732e+001  1.480179e+002 
4406250000  -2.245009e+001  1.466086e+002 
4409375000  -2.237077e+001  1.444298e+002 
4412500000  -2.341490e+001  1.412285e+002 
4415625000  -2.383854e+001  1.463321e+002 
4418750000  -2.264937e+001  1.510180e+002 
