!Agilent Technologies,E8363B,MY43030201,A.06.04.32
!Agilent E8363B: A.06.04.32
!Date: Tuesday, November 11, 2014 20:43:59
!Correction: S21(Response(S21)) 
!S1P File: Measurement: S21:
# Hz S  dB   R 50
3000000000  -2.654516e+001  1.583077e+002 
3003125000  -2.784789e+001  1.541416e+002 
3006250000  -2.796261e+001  1.511511e+002 
3009375000  -2.830110e+001  1.558154e+002 
3012500000  -2.779601e+001  1.560381e+002 
3015625000  -2.676759e+001  1.486047e+002 
3018750000  -2.764080e+001  1.477421e+002 
3021875000  -2.644371e+001  1.489472e+002 
3025000000  -2.516150e+001  1.460382e+002 
3028125000  -2.415984e+001  1.414563e+002 
3031250000  -2.310195e+001  1.303236e+002 
3034375000  -2.275075e+001  1.172631e+002 
3037500000  -2.306107e+001  1.053480e+002 
3040625000  -2.438824e+001  1.001663e+002 
3043750000  -2.509971e+001  9.593544e+001 
3046875000  -2.518339e+001  8.916376e+001 
3050000000  -2.693038e+001  8.248521e+001 
3053125000  -2.713367e+001  8.881925e+001 
3056250000  -2.644100e+001  9.168198e+001 
3059375000  -2.672505e+001  9.177574e+001 
3062500000  -2.526554e+001  8.763513e+001 
3065625000  -2.505517e+001  8.226734e+001 
3068750000  -2.474547e+001  7.528627e+001 
3071875000  -2.467522e+001  7.205883e+001 
3075000000  -2.467081e+001  6.843343e+001 
3078125000  -2.438393e+001  6.392379e+001 
3081250000  -2.500983e+001  5.988912e+001 
3084375000  -2.432283e+001  5.603610e+001 
3087500000  -2.413268e+001  5.273664e+001 
3090625000  -2.385453e+001  4.309434e+001 
3093750000  -2.425707e+001  3.497800e+001 
3096875000  -2.558797e+001  2.886603e+001 
3100000000  -2.576340e+001  2.736618e+001 
3103125000  -2.610106e+001  2.870454e+001 
3106250000  -2.585204e+001  2.557977e+001 
3109375000  -2.609188e+001  2.203096e+001 
3112500000  -2.618504e+001  2.101920e+001 
3115625000  -2.596552e+001  1.675750e+001 
3118750000  -2.650882e+001  1.783290e+001 
3121875000  -2.584069e+001  1.033156e+001 
3125000000  -2.691630e+001  6.468209e+000 
3128125000  -2.822313e+001  1.421587e+001 
3131250000  -2.606132e+001  1.539688e+001 
3134375000  -2.468731e+001  1.845797e+000 
3137500000  -2.531071e+001  -1.259836e+001 
3140625000  -2.695369e+001  -1.443724e+001 
3143750000  -2.795736e+001  -9.874626e+000 
3146875000  -2.757900e+001  -7.922318e+000 
3150000000  -2.654776e+001  -5.592166e+000 
3153125000  -2.651727e+001  -1.343894e+001 
3156250000  -2.750129e+001  -8.320420e+000 
3159375000  -2.601656e+001  -5.033218e+000 
3162500000  -2.393518e+001  -1.769610e+001 
3165625000  -2.483051e+001  -2.871587e+001 
3168750000  -2.528652e+001  -2.782866e+001 
3171875000  -2.430634e+001  -3.194275e+001 
3175000000  -2.493597e+001  -3.974411e+001 
3178125000  -2.476179e+001  -3.817004e+001 
3181250000  -2.359852e+001  -4.174276e+001 
3184375000  -2.270102e+001  -5.405823e+001 
3187500000  -2.377250e+001  -6.984466e+001 
3190625000  -2.662322e+001  -7.745404e+001 
3193750000  -2.732018e+001  -6.763255e+001 
3196875000  -2.683132e+001  -6.192987e+001 
3200000000  -2.604948e+001  -6.394039e+001 
3203125000  -2.515203e+001  -6.955933e+001 
3206250000  -2.541787e+001  -7.577270e+001 
3209375000  -2.494827e+001  -8.078777e+001 
3212500000  -2.501658e+001  -8.760232e+001 
3215625000  -2.519402e+001  -9.199077e+001 
3218750000  -2.594595e+001  -9.827833e+001 
3221875000  -2.694020e+001  -1.032210e+002 
3225000000  -2.656722e+001  -1.036402e+002 
3228125000  -2.686125e+001  -1.082983e+002 
3231250000  -2.760472e+001  -1.111594e+002 
3234375000  -2.747235e+001  -1.100643e+002 
3237500000  -2.751682e+001  -1.116322e+002 
3240625000  -2.721118e+001  -1.131677e+002 
3243750000  -2.683559e+001  -1.197916e+002 
3246875000  -2.731308e+001  -1.263014e+002 
3250000000  -2.773871e+001  -1.283631e+002 
3253125000  -2.792545e+001  -1.300583e+002 
3256250000  -2.781058e+001  -1.362973e+002 
3259375000  -2.812575e+001  -1.435488e+002 
3262500000  -2.931572e+001  -1.467646e+002 
3265625000  -3.005289e+001  -1.430967e+002 
3268750000  -3.005764e+001  -1.408560e+002 
3271875000  -2.986132e+001  -1.393912e+002 
3275000000  -2.878117e+001  -1.439735e+002 
3278125000  -2.919424e+001  -1.505962e+002 
3281250000  -2.943974e+001  -1.484712e+002 
3284375000  -2.905058e+001  -1.546421e+002 
3287500000  -2.922578e+001  -1.574621e+002 
3290625000  -2.963781e+001  -1.612609e+002 
3293750000  -2.926147e+001  -1.669942e+002 
3296875000  -3.027939e+001  -1.669376e+002 
3300000000  -3.025531e+001  -1.660908e+002 
3303125000  -2.909034e+001  -1.697431e+002 
3306250000  -2.889107e+001  -1.765673e+002 
3309375000  -2.862684e+001  1.783146e+002 
3312500000  -2.864713e+001  1.683322e+002 
3315625000  -2.964873e+001  1.598736e+002 
3318750000  -3.097601e+001  1.577528e+002 
3321875000  -3.213839e+001  1.572435e+002 
3325000000  -3.290256e+001  1.606540e+002 
3328125000  -3.277737e+001  1.637975e+002 
3331250000  -3.156826e+001  1.712229e+002 
3334375000  -2.900903e+001  1.622538e+002 
3337500000  -2.899058e+001  1.435913e+002 
3340625000  -3.030790e+001  1.324711e+002 
3343750000  -3.222106e+001  1.309168e+002 
3346875000  -3.289112e+001  1.322608e+002 
3350000000  -3.220019e+001  1.310331e+002 
3353125000  -3.227200e+001  1.273207e+002 
3356250000  -3.203182e+001  1.195736e+002 
3359375000  -3.287850e+001  1.108643e+002 
3362500000  -3.425953e+001  1.051063e+002 
3365625000  -3.483266e+001  1.037542e+002 
3368750000  -3.586887e+001  1.019833e+002 
3371875000  -3.617145e+001  9.869282e+001 
3375000000  -3.776808e+001  9.656209e+001 
3378125000  -3.902338e+001  9.666281e+001 
3381250000  -4.049866e+001  1.034191e+002 
3384375000  -3.985410e+001  1.246988e+002 
3387500000  -3.665969e+001  1.109561e+002 
3390625000  -3.846061e+001  9.208268e+001 
3393750000  -4.026432e+001  9.687548e+001 
3396875000  -3.944101e+001  1.001487e+002 
3400000000  -3.934893e+001  9.263301e+001 
3403125000  -4.050312e+001  8.853710e+001 
3406250000  -4.156319e+001  9.122750e+001 
3409375000  -4.178945e+001  8.625588e+001 
3412500000  -4.264840e+001  8.722208e+001 
3415625000  -4.376145e+001  9.255594e+001 
3418750000  -4.403086e+001  9.853285e+001 
3421875000  -4.439233e+001  1.057532e+002 
3425000000  -4.354021e+001  1.107367e+002 
3428125000  -4.251209e+001  1.085047e+002 
3431250000  -4.229216e+001  1.045600e+002 
3434375000  -4.192001e+001  1.028685e+002 
3437500000  -4.268253e+001  1.008922e+002 
3440625000  -4.282906e+001  1.038598e+002 
3443750000  -4.168121e+001  1.059907e+002 
3446875000  -4.069283e+001  1.015102e+002 
3450000000  -4.054005e+001  9.271404e+001 
3453125000  -4.087947e+001  8.401653e+001 
3456250000  -4.216010e+001  7.968658e+001 
3459375000  -4.265071e+001  8.321169e+001 
3462500000  -4.310469e+001  8.164085e+001 
3465625000  -4.331487e+001  8.056853e+001 
3468750000  -4.352137e+001  7.690912e+001 
3471875000  -4.336440e+001  7.760287e+001 
3475000000  -4.378837e+001  7.343723e+001 
3478125000  -4.437192e+001  6.895071e+001 
3481250000  -4.535605e+001  6.516414e+001 
3484375000  -4.706622e+001  7.354193e+001 
3487500000  -4.633956e+001  7.532861e+001 
3490625000  -4.565113e+001  7.458360e+001 
3493750000  -4.651228e+001  7.114731e+001 
3496875000  -4.743621e+001  6.993783e+001 
3500000000  -4.898471e+001  8.088593e+001 
3503125000  -4.837531e+001  8.541109e+001 
3506250000  -4.747653e+001  8.867169e+001 
3509375000  -4.744827e+001  8.757845e+001 
3512500000  -4.781571e+001  8.517593e+001 
3515625000  -4.805632e+001  8.611224e+001 
3518750000  -4.835432e+001  9.141769e+001 
3521875000  -4.792534e+001  9.537152e+001 
3525000000  -4.783346e+001  9.828165e+001 
3528125000  -4.713152e+001  1.079687e+002 
3531250000  -4.563342e+001  1.072533e+002 
3534375000  -4.511213e+001  9.914131e+001 
3537500000  -4.498974e+001  9.628500e+001 
3540625000  -4.511425e+001  9.712855e+001 
3543750000  -4.566277e+001  1.002667e+002 
3546875000  -4.550260e+001  1.116990e+002 
3550000000  -4.248884e+001  1.153862e+002 
3553125000  -4.103917e+001  9.657332e+001 
3556250000  -4.226085e+001  8.921101e+001 
3559375000  -4.197746e+001  9.050547e+001 
3562500000  -4.063147e+001  8.530198e+001 
3565625000  -4.153610e+001  7.896724e+001 
3568750000  -4.168823e+001  8.238815e+001 
3571875000  -4.133148e+001  8.293653e+001 
3575000000  -4.074545e+001  7.656992e+001 
3578125000  -4.112210e+001  7.240070e+001 
3581250000  -4.124485e+001  7.218333e+001 
3584375000  -4.040022e+001  7.181071e+001 
3587500000  -3.979649e+001  6.561434e+001 
3590625000  -3.990194e+001  5.518005e+001 
3593750000  -4.094733e+001  5.412700e+001 
3596875000  -4.142097e+001  6.338125e+001 
3600000000  -3.955955e+001  5.950906e+001 
3603125000  -3.942280e+001  4.721297e+001 
3606250000  -4.043676e+001  4.370058e+001 
3609375000  -4.064611e+001  4.362511e+001 
3612500000  -4.109245e+001  4.107389e+001 
3615625000  -4.126647e+001  3.779827e+001 
3618750000  -4.167653e+001  4.099407e+001 
3621875000  -4.152205e+001  3.808786e+001 
3625000000  -4.170340e+001  4.003098e+001 
3628125000  -4.176888e+001  4.035618e+001 
3631250000  -4.158950e+001  3.329235e+001 
3634375000  -4.245122e+001  3.491443e+001 
3637500000  -4.222071e+001  4.061528e+001 
3640625000  -4.086114e+001  4.263898e+001 
3643750000  -4.077434e+001  3.764888e+001 
3646875000  -4.143613e+001  3.229616e+001 
3650000000  -4.164568e+001  3.237849e+001 
3653125000  -4.131775e+001  3.159362e+001 
3656250000  -4.167579e+001  2.844985e+001 
3659375000  -4.261863e+001  3.621563e+001 
3662500000  -4.147826e+001  3.467402e+001 
3665625000  -4.144232e+001  3.360858e+001 
3668750000  -4.031765e+001  3.584389e+001 
3671875000  -3.948912e+001  3.134187e+001 
3675000000  -3.968017e+001  2.534339e+001 
3678125000  -4.023235e+001  2.714419e+001 
3681250000  -3.989816e+001  2.777643e+001 
3684375000  -3.962374e+001  2.592713e+001 
3687500000  -3.971491e+001  2.325040e+001 
3690625000  -3.949422e+001  2.265054e+001 
3693750000  -4.039378e+001  2.297469e+001 
3696875000  -4.018795e+001  2.690081e+001 
3700000000  -3.897491e+001  2.432741e+001 
3703125000  -3.856370e+001  2.157153e+001 
3706250000  -3.925372e+001  2.163132e+001 
3709375000  -3.884143e+001  2.412179e+001 
3712500000  -3.749538e+001  2.534972e+001 
3715625000  -3.636235e+001  1.903024e+001 
3718750000  -3.591118e+001  1.701050e+001 
3721875000  -3.530816e+001  1.150617e+001 
3725000000  -3.534866e+001  7.118413e+000 
3728125000  -3.533285e+001  5.065603e+000 
3731250000  -3.476481e+001  5.049573e+000 
3734375000  -3.387485e+001  -1.774578e+000 
3737500000  -3.439487e+001  -8.041855e+000 
3740625000  -3.507728e+001  -1.134189e+001 
3743750000  -3.483871e+001  -1.295856e+001 
3746875000  -3.481380e+001  -1.563297e+001 
3750000000  -3.522915e+001  -1.693399e+001 
3753125000  -3.467918e+001  -1.793909e+001 
3756250000  -3.465938e+001  -1.804293e+001 
3759375000  -3.447773e+001  -1.784255e+001 
3762500000  -3.395321e+001  -2.216780e+001 
3765625000  -3.425150e+001  -2.493988e+001 
3768750000  -3.453270e+001  -2.357376e+001 
3771875000  -3.281469e+001  -2.462147e+001 
3775000000  -3.239484e+001  -3.284362e+001 
3778125000  -3.275084e+001  -3.420900e+001 
3781250000  -3.257165e+001  -3.724459e+001 
3784375000  -3.240756e+001  -3.904855e+001 
3787500000  -3.175565e+001  -4.206861e+001 
3790625000  -3.229572e+001  -4.833630e+001 
3793750000  -3.253561e+001  -4.892077e+001 
3796875000  -3.164491e+001  -4.998317e+001 
3800000000  -3.008589e+001  -5.376408e+001 
3803125000  -3.081423e+001  -6.025344e+001 
3806250000  -3.126214e+001  -6.265648e+001 
3809375000  -3.113656e+001  -6.447424e+001 
3812500000  -3.046840e+001  -6.888970e+001 
3815625000  -3.101841e+001  -7.667906e+001 
3818750000  -3.194042e+001  -7.874090e+001 
3821875000  -3.205110e+001  -6.984454e+001 
3825000000  -3.027060e+001  -6.500476e+001 
3828125000  -2.885062e+001  -7.881083e+001 
3831250000  -2.943116e+001  -9.322511e+001 
3834375000  -3.067580e+001  -9.453192e+001 
3837500000  -3.171024e+001  -8.947635e+001 
3840625000  -3.050676e+001  -9.068890e+001 
3843750000  -2.934580e+001  -1.007099e+002 
3846875000  -3.006017e+001  -1.070475e+002 
3850000000  -3.125485e+001  -1.023332e+002 
3853125000  -3.054436e+001  -9.960152e+001 
3856250000  -3.046876e+001  -1.043875e+002 
3859375000  -2.990306e+001  -1.084348e+002 
3862500000  -2.939500e+001  -1.155674e+002 
3865625000  -2.962512e+001  -1.196733e+002 
3868750000  -2.970884e+001  -1.210816e+002 
3871875000  -2.898751e+001  -1.234170e+002 
3875000000  -2.909989e+001  -1.314385e+002 
3878125000  -3.007107e+001  -1.341993e+002 
3881250000  -3.031005e+001  -1.310814e+002 
3884375000  -2.982272e+001  -1.360951e+002 
3887500000  -2.974065e+001  -1.395861e+002 
3890625000  -3.034419e+001  -1.419800e+002 
3893750000  -3.071354e+001  -1.427683e+002 
3896875000  -3.075535e+001  -1.427503e+002 
3900000000  -3.106324e+001  -1.433528e+002 
3903125000  -3.078153e+001  -1.456426e+002 
3906250000  -3.056272e+001  -1.465210e+002 
3909375000  -2.980470e+001  -1.482832e+002 
3912500000  -2.971617e+001  -1.559551e+002 
3915625000  -3.087850e+001  -1.553100e+002 
3918750000  -3.084853e+001  -1.537202e+002 
3921875000  -3.058171e+001  -1.550327e+002 
3925000000  -2.986239e+001  -1.552581e+002 
3928125000  -2.906784e+001  -1.609742e+002 
3931250000  -2.940832e+001  -1.647645e+002 
3934375000  -2.969453e+001  -1.656022e+002 
3937500000  -2.986072e+001  -1.662102e+002 
3940625000  -3.021992e+001  -1.662093e+002 
3943750000  -2.937674e+001  -1.647013e+002 
3946875000  -2.809561e+001  -1.703692e+002 
3950000000  -2.852350e+001  -1.778046e+002 
3953125000  -2.947766e+001  -1.775646e+002 
3956250000  -2.872669e+001  -1.750446e+002 
3959375000  -2.732966e+001  -1.777123e+002 
3962500000  -2.688501e+001  1.781082e+002 
3965625000  -2.647314e+001  1.691989e+002 
3968750000  -2.730207e+001  1.628351e+002 
3971875000  -2.785720e+001  1.611150e+002 
3975000000  -2.721029e+001  1.591518e+002 
3978125000  -2.697475e+001  1.579366e+002 
3981250000  -2.674643e+001  1.535446e+002 
3984375000  -2.698199e+001  1.474215e+002 
3987500000  -2.753007e+001  1.453222e+002 
3990625000  -2.745788e+001  1.444626e+002 
3993750000  -2.770949e+001  1.408934e+002 
3996875000  -2.773569e+001  1.385918e+002 
4000000000  -2.784012e+001  1.368354e+002 
4003125000  -2.841181e+001  1.385853e+002 
4006250000  -2.711255e+001  1.396525e+002 
4009375000  -2.583465e+001  1.275434e+002 
4012500000  -2.688994e+001  1.205603e+002 
4015625000  -2.806417e+001  1.212303e+002 
4018750000  -2.829305e+001  1.230612e+002 
4021875000  -2.759473e+001  1.216181e+002 
4025000000  -2.725732e+001  1.169849e+002 
4028125000  -2.713571e+001  1.133667e+002 
4031250000  -2.753813e+001  1.104121e+002 
4034375000  -2.783914e+001  1.099897e+002 
4037500000  -2.735548e+001  1.119942e+002 
4040625000  -2.715730e+001  1.086333e+002 
4043750000  -2.749536e+001  1.078773e+002 
4046875000  -2.710258e+001  1.070972e+002 
4050000000  -2.657879e+001  1.016510e+002 
4053125000  -2.698251e+001  9.940326e+001 
4056250000  -2.761810e+001  1.034589e+002 
4059375000  -2.642181e+001  1.054581e+002 
4062500000  -2.504546e+001  1.008346e+002 
4065625000  -2.487893e+001  9.620100e+001 
4068750000  -2.458870e+001  9.147701e+001 
4071875000  -2.396658e+001  8.375848e+001 
4075000000  -2.428477e+001  7.721157e+001 
4078125000  -2.487751e+001  7.587476e+001 
4081250000  -2.433550e+001  7.385564e+001 
4084375000  -2.393218e+001  6.727438e+001 
4087500000  -2.433761e+001  6.058396e+001 
4090625000  -2.492509e+001  5.927991e+001 
4093750000  -2.477890e+001  6.009957e+001 
4096875000  -2.434881e+001  5.468851e+001 
4100000000  -2.494208e+001  4.748103e+001 
4103125000  -2.584222e+001  4.784790e+001 
4106250000  -2.579633e+001  5.205167e+001 
4109375000  -2.496728e+001  5.235702e+001 
4112500000  -2.441199e+001  4.555651e+001 
4115625000  -2.471093e+001  4.170238e+001 
4118750000  -2.486990e+001  3.854242e+001 
4121875000  -2.444229e+001  3.438394e+001 
4125000000  -2.474129e+001  2.939105e+001 
4128125000  -2.574475e+001  2.905816e+001 
4131250000  -2.555550e+001  3.662193e+001 
4134375000  -2.327813e+001  3.317230e+001 
4137500000  -2.293281e+001  1.467550e+001 
4140625000  -2.504074e+001  7.435238e+000 
4143750000  -2.641940e+001  1.210971e+001 
4146875000  -2.605878e+001  1.984066e+001 
4150000000  -2.517522e+001  1.644129e+001 
4153125000  -2.494239e+001  1.021327e+001 
4156250000  -2.576892e+001  7.635623e+000 
4159375000  -2.610941e+001  1.182493e+001 
4162500000  -2.495621e+001  1.593072e+001 
4165625000  -2.384996e+001  1.239625e+001 
4168750000  -2.316093e+001  5.155433e+000 
4171875000  -2.309422e+001  -3.749250e+000 
4175000000  -2.369860e+001  -9.506679e+000 
4178125000  -2.429189e+001  -9.863596e+000 
4181250000  -2.415605e+001  -1.010863e+001 
4184375000  -2.399989e+001  -1.355433e+001 
4187500000  -2.403907e+001  -1.628915e+001 
4190625000  -2.382423e+001  -2.172655e+001 
4193750000  -2.457797e+001  -2.566232e+001 
4196875000  -2.525611e+001  -2.608305e+001 
4200000000  -2.604867e+001  -2.463589e+001 
4203125000  -2.630807e+001  -1.192339e+001 
4206250000  -2.296994e+001  -9.393659e+000 
4209375000  -2.170471e+001  -2.966469e+001 
4212500000  -2.356928e+001  -3.872145e+001 
4215625000  -2.465174e+001  -3.314512e+001 
4218750000  -2.337842e+001  -2.580346e+001 
4221875000  -2.100312e+001  -3.521807e+001 
4225000000  -2.216533e+001  -4.791571e+001 
4228125000  -2.301117e+001  -4.313473e+001 
4231250000  -2.144270e+001  -4.648368e+001 
4234375000  -2.139735e+001  -5.481798e+001 
4237500000  -2.093644e+001  -5.812740e+001 
4240625000  -2.097016e+001  -6.638783e+001 
4243750000  -2.190900e+001  -7.278085e+001 
4246875000  -2.279331e+001  -7.327883e+001 
4250000000  -2.285151e+001  -7.037416e+001 
4253125000  -2.228560e+001  -7.210553e+001 
4256250000  -2.254011e+001  -7.616354e+001 
4259375000  -2.232301e+001  -7.815602e+001 
4262500000  -2.230289e+001  -8.198030e+001 
4265625000  -2.253829e+001  -8.133125e+001 
4268750000  -2.168650e+001  -8.519095e+001 
4271875000  -2.139592e+001  -9.065726e+001 
4275000000  -2.076332e+001  -9.709694e+001 
4278125000  -2.129472e+001  -1.081045e+002 
4281250000  -2.311938e+001  -1.100974e+002 
4284375000  -2.284268e+001  -1.098510e+002 
4287500000  -2.356445e+001  -1.133342e+002 
4290625000  -2.481971e+001  -1.045730e+002 
4293750000  -2.288853e+001  -9.820027e+001 
4296875000  -2.153456e+001  -1.094826e+002 
4300000000  -2.228183e+001  -1.187462e+002 
4303125000  -2.339575e+001  -1.177804e+002 
4306250000  -2.291071e+001  -1.118628e+002 
4309375000  -2.144608e+001  -1.136686e+002 
4312500000  -2.132840e+001  -1.218548e+002 
4315625000  -2.154076e+001  -1.281976e+002 
4318750000  -2.182899e+001  -1.316341e+002 
4321875000  -2.201046e+001  -1.314207e+002 
4325000000  -2.139464e+001  -1.307504e+002 
4328125000  -2.093074e+001  -1.371657e+002 
4331250000  -2.091948e+001  -1.453237e+002 
4334375000  -2.126751e+001  -1.500497e+002 
4337500000  -2.204539e+001  -1.524672e+002 
4340625000  -2.258934e+001  -1.498369e+002 
4343750000  -2.209024e+001  -1.492417e+002 
4346875000  -2.170235e+001  -1.542175e+002 
4350000000  -2.172101e+001  -1.591231e+002 
4353125000  -2.166796e+001  -1.666611e+002 
4356250000  -2.334184e+001  -1.685885e+002 
4359375000  -2.414616e+001  -1.557911e+002 
4362500000  -2.162328e+001  -1.529723e+002 
4365625000  -1.994122e+001  -1.643441e+002 
4368750000  -2.056296e+001  -1.763955e+002 
4371875000  -2.179602e+001  -1.760993e+002 
4375000000  -2.155346e+001  -1.747003e+002 
4378125000  -2.089119e+001  1.795881e+002 
4381250000  -2.103225e+001  1.740650e+002 
4384375000  -2.082273e+001  1.697148e+002 
4387500000  -2.150647e+001  1.640341e+002 
4390625000  -2.260252e+001  1.648464e+002 
4393750000  -2.194594e+001  1.670976e+002 
4396875000  -2.126851e+001  1.650442e+002 
4400000000  -2.076061e+001  1.583938e+002 
4403125000  -2.127792e+001  1.505497e+002 
4406250000  -2.219412e+001  1.492926e+002 
4409375000  -2.214581e+001  1.470161e+002 
4412500000  -2.306123e+001  1.443941e+002 
4415625000  -2.351645e+001  1.488299e+002 
4418750000  -2.241207e+001  1.538036e+002 
