!Agilent Technologies,E8363B,MY43030201,A.06.04.32
!Agilent E8363B: A.06.04.32
!Date: Tuesday, November 11, 2014 20:51:43
!Correction: S21(Response(S21)) 
!S1P File: Measurement: S21:
# Hz S  dB   R 50
3000000000  -2.653056e+001  1.512765e+002 
3003125000  -2.792790e+001  1.469376e+002 
3006250000  -2.804208e+001  1.441237e+002 
3009375000  -2.835098e+001  1.492455e+002 
3012500000  -2.780946e+001  1.487106e+002 
3015625000  -2.689393e+001  1.416972e+002 
3018750000  -2.771679e+001  1.408923e+002 
3021875000  -2.644352e+001  1.423074e+002 
3025000000  -2.511626e+001  1.393329e+002 
3028125000  -2.416067e+001  1.342516e+002 
3031250000  -2.313314e+001  1.230662e+002 
3034375000  -2.277245e+001  1.099031e+002 
3037500000  -2.312421e+001  9.817343e+001 
3040625000  -2.442859e+001  9.285931e+001 
3043750000  -2.516961e+001  8.864423e+001 
3046875000  -2.527039e+001  8.232817e+001 
3050000000  -2.702280e+001  7.547266e+001 
3053125000  -2.712323e+001  8.181318e+001 
3056250000  -2.647955e+001  8.477814e+001 
3059375000  -2.672761e+001  8.486778e+001 
3062500000  -2.524318e+001  8.077139e+001 
3065625000  -2.501261e+001  7.508532e+001 
3068750000  -2.473707e+001  6.816863e+001 
3071875000  -2.468795e+001  6.500210e+001 
3075000000  -2.462679e+001  6.126044e+001 
3078125000  -2.437444e+001  5.686983e+001 
3081250000  -2.499707e+001  5.259272e+001 
3084375000  -2.424741e+001  4.902723e+001 
3087500000  -2.413254e+001  4.534766e+001 
3090625000  -2.384491e+001  3.573586e+001 
3093750000  -2.429744e+001  2.771016e+001 
3096875000  -2.559396e+001  2.155652e+001 
3100000000  -2.568945e+001  2.022949e+001 
3103125000  -2.609032e+001  2.187277e+001 
3106250000  -2.581337e+001  1.797090e+001 
3109375000  -2.602979e+001  1.479816e+001 
3112500000  -2.620482e+001  1.371009e+001 
3115625000  -2.598414e+001  9.575008e+000 
3118750000  -2.647916e+001  1.075704e+001 
3121875000  -2.577383e+001  2.661945e+000 
3125000000  -2.696540e+001  -5.487034e-001 
3128125000  -2.820430e+001  7.120991e+000 
3131250000  -2.596572e+001  7.878671e+000 
3134375000  -2.464887e+001  -5.858523e+000 
3137500000  -2.532243e+001  -1.937103e+001 
3140625000  -2.694085e+001  -2.091007e+001 
3143750000  -2.799962e+001  -1.728937e+001 
3146875000  -2.752904e+001  -1.524388e+001 
3150000000  -2.650745e+001  -1.298291e+001 
3153125000  -2.649228e+001  -2.060634e+001 
3156250000  -2.749066e+001  -1.519254e+001 
3159375000  -2.591431e+001  -1.218867e+001 
3162500000  -2.388405e+001  -2.497367e+001 
3165625000  -2.480116e+001  -3.603620e+001 
3168750000  -2.521084e+001  -3.512416e+001 
3171875000  -2.425941e+001  -3.953883e+001 
3175000000  -2.491970e+001  -4.716757e+001 
3178125000  -2.472135e+001  -4.554402e+001 
3181250000  -2.352810e+001  -4.933553e+001 
3184375000  -2.273319e+001  -6.182923e+001 
3187500000  -2.382392e+001  -7.681396e+001 
3190625000  -2.663785e+001  -8.455612e+001 
3193750000  -2.723917e+001  -7.486608e+001 
3196875000  -2.676715e+001  -6.947185e+001 
3200000000  -2.589515e+001  -7.107787e+001 
3203125000  -2.507575e+001  -7.694411e+001 
3206250000  -2.532673e+001  -8.321507e+001 
3209375000  -2.484682e+001  -8.832912e+001 
3212500000  -2.499899e+001  -9.488947e+001 
3215625000  -2.517227e+001  -9.898057e+001 
3218750000  -2.589501e+001  -1.053063e+002 
3221875000  -2.685469e+001  -1.104452e+002 
3225000000  -2.652150e+001  -1.111880e+002 
3228125000  -2.683876e+001  -1.153524e+002 
3231250000  -2.758081e+001  -1.179557e+002 
3234375000  -2.741164e+001  -1.173511e+002 
3237500000  -2.746122e+001  -1.190198e+002 
3240625000  -2.714407e+001  -1.206773e+002 
3243750000  -2.675949e+001  -1.272160e+002 
3246875000  -2.725169e+001  -1.337393e+002 
3250000000  -2.769249e+001  -1.354868e+002 
3253125000  -2.784496e+001  -1.373671e+002 
3256250000  -2.775131e+001  -1.433090e+002 
3259375000  -2.804028e+001  -1.511008e+002 
3262500000  -2.928513e+001  -1.538784e+002 
3265625000  -2.993084e+001  -1.501749e+002 
3268750000  -2.989931e+001  -1.476120e+002 
3271875000  -2.966420e+001  -1.463421e+002 
3275000000  -2.864182e+001  -1.516805e+002 
3278125000  -2.913570e+001  -1.579042e+002 
3281250000  -2.938303e+001  -1.559985e+002 
3284375000  -2.893793e+001  -1.619650e+002 
3287500000  -2.908536e+001  -1.647181e+002 
3290625000  -2.945950e+001  -1.685150e+002 
3293750000  -2.918978e+001  -1.743803e+002 
3296875000  -3.024707e+001  -1.743823e+002 
3300000000  -3.007413e+001  -1.732114e+002 
3303125000  -2.897025e+001  -1.768810e+002 
3306250000  -2.872826e+001  1.763032e+002 
3309375000  -2.847194e+001  1.712066e+002 
3312500000  -2.850165e+001  1.606572e+002 
3315625000  -2.956340e+001  1.529380e+002 
3318750000  -3.092274e+001  1.502634e+002 
3321875000  -3.215334e+001  1.507837e+002 
3325000000  -3.269737e+001  1.552727e+002 
3328125000  -3.250507e+001  1.571584e+002 
3331250000  -3.125520e+001  1.649702e+002 
3334375000  -2.871371e+001  1.545757e+002 
3337500000  -2.874288e+001  1.362300e+002 
3340625000  -3.008050e+001  1.252563e+002 
3343750000  -3.214554e+001  1.241906e+002 
3346875000  -3.263704e+001  1.260499e+002 
3350000000  -3.195078e+001  1.240777e+002 
3353125000  -3.206123e+001  1.197733e+002 
3356250000  -3.181319e+001  1.117961e+002 
3359375000  -3.266880e+001  1.041905e+002 
3362500000  -3.396600e+001  9.854825e+001 
3365625000  -3.454772e+001  9.706380e+001 
3368750000  -3.558978e+001  9.487553e+001 
3371875000  -3.588501e+001  9.203266e+001 
3375000000  -3.755896e+001  9.051476e+001 
3378125000  -3.852316e+001  8.842700e+001 
3381250000  -4.044184e+001  9.718807e+001 
3384375000  -3.922145e+001  1.187980e+002 
3387500000  -3.612385e+001  1.048729e+002 
3390625000  -3.793410e+001  8.499694e+001 
3393750000  -3.976801e+001  9.029387e+001 
3396875000  -3.884432e+001  9.404320e+001 
3400000000  -3.880389e+001  8.577246e+001 
3403125000  -3.972736e+001  8.165755e+001 
3406250000  -4.072811e+001  8.456606e+001 
3409375000  -4.131740e+001  8.017174e+001 
3412500000  -4.221066e+001  8.152669e+001 
3415625000  -4.307776e+001  8.614260e+001 
3418750000  -4.336077e+001  8.950616e+001 
3421875000  -4.373105e+001  9.597380e+001 
3425000000  -4.271705e+001  9.998298e+001 
3428125000  -4.169132e+001  1.007888e+002 
3431250000  -4.188525e+001  9.627129e+001 
3434375000  -4.125450e+001  9.380194e+001 
3437500000  -4.186523e+001  9.052628e+001 
3440625000  -4.216560e+001  9.297704e+001 
3443750000  -4.095002e+001  9.747855e+001 
3446875000  -3.994461e+001  9.276019e+001 
3450000000  -3.997879e+001  8.282145e+001 
3453125000  -4.012617e+001  7.330289e+001 
3456250000  -4.142121e+001  6.671291e+001 
3459375000  -4.237007e+001  7.174030e+001 
3462500000  -4.245021e+001  7.193492e+001 
3465625000  -4.224180e+001  6.757537e+001 
3468750000  -4.288983e+001  6.622572e+001 
3471875000  -4.273742e+001  6.655278e+001 
3475000000  -4.305830e+001  6.187429e+001 
3478125000  -4.355074e+001  5.744876e+001 
3481250000  -4.472709e+001  5.539012e+001 
3484375000  -4.656569e+001  5.969488e+001 
3487500000  -4.598463e+001  6.330789e+001 
3490625000  -4.539344e+001  5.955739e+001 
3493750000  -4.584146e+001  5.823499e+001 
3496875000  -4.735629e+001  6.124555e+001 
3500000000  -4.819477e+001  6.410139e+001 
3503125000  -4.768045e+001  7.239496e+001 
3506250000  -4.623369e+001  7.628214e+001 
3509375000  -4.697087e+001  7.074957e+001 
3512500000  -4.722784e+001  6.841495e+001 
3515625000  -4.738168e+001  7.268642e+001 
3518750000  -4.821501e+001  8.059577e+001 
3521875000  -4.762204e+001  8.253377e+001 
3525000000  -4.820372e+001  8.337698e+001 
3528125000  -4.759064e+001  9.346447e+001 
3531250000  -4.630610e+001  9.294471e+001 
3534375000  -4.527045e+001  8.780820e+001 
3537500000  -4.479412e+001  8.577257e+001 
3540625000  -4.536013e+001  8.337164e+001 
3543750000  -4.575871e+001  8.899852e+001 
3546875000  -4.537893e+001  9.805611e+001 
3550000000  -4.290307e+001  9.900168e+001 
3553125000  -4.136745e+001  8.431039e+001 
3556250000  -4.248030e+001  7.835693e+001 
3559375000  -4.222115e+001  8.162154e+001 
3562500000  -4.083562e+001  7.188732e+001 
3565625000  -4.182633e+001  6.758573e+001 
3568750000  -4.186504e+001  6.931665e+001 
3571875000  -4.167651e+001  7.157187e+001 
3575000000  -4.098090e+001  6.471670e+001 
3578125000  -4.165261e+001  6.166906e+001 
3581250000  -4.148587e+001  6.262916e+001 
3584375000  -4.070190e+001  6.148536e+001 
3587500000  -3.965675e+001  5.629650e+001 
3590625000  -4.029527e+001  4.719755e+001 
3593750000  -4.122685e+001  4.444678e+001 
3596875000  -4.119928e+001  5.262326e+001 
3600000000  -3.953110e+001  4.885954e+001 
3603125000  -3.974649e+001  3.732375e+001 
3606250000  -4.029282e+001  3.389988e+001 
3609375000  -4.075631e+001  3.410081e+001 
3612500000  -4.122053e+001  3.089822e+001 
3615625000  -4.134308e+001  2.967332e+001 
3618750000  -4.197975e+001  3.134855e+001 
3621875000  -4.152080e+001  3.072591e+001 
3625000000  -4.165694e+001  2.942309e+001 
3628125000  -4.160276e+001  3.003853e+001 
3631250000  -4.126497e+001  2.510675e+001 
3634375000  -4.248952e+001  2.680089e+001 
3637500000  -4.199768e+001  3.274401e+001 
3640625000  -4.081849e+001  3.376492e+001 
3643750000  -4.061069e+001  2.675236e+001 
3646875000  -4.108130e+001  2.212103e+001 
3650000000  -4.168037e+001  2.204877e+001 
3653125000  -4.128195e+001  2.137298e+001 
3656250000  -4.145739e+001  2.005300e+001 
3659375000  -4.186346e+001  2.306318e+001 
3662500000  -4.143259e+001  2.058798e+001 
3665625000  -4.107170e+001  2.271589e+001 
3668750000  -4.002980e+001  2.433231e+001 
3671875000  -3.906928e+001  2.032933e+001 
3675000000  -3.965742e+001  1.353595e+001 
3678125000  -4.022478e+001  1.625940e+001 
3681250000  -3.983871e+001  1.519157e+001 
3684375000  -3.951978e+001  1.320425e+001 
3687500000  -3.981266e+001  1.238716e+001 
3690625000  -3.975889e+001  1.012182e+001 
3693750000  -4.037741e+001  1.386891e+001 
3696875000  -3.989972e+001  1.598929e+001 
3700000000  -3.866047e+001  1.332676e+001 
3703125000  -3.854556e+001  1.061308e+001 
3706250000  -3.928901e+001  1.163183e+001 
3709375000  -3.880604e+001  1.562216e+001 
3712500000  -3.742048e+001  1.605089e+001 
3715625000  -3.627317e+001  7.888445e+000 
3718750000  -3.568998e+001  7.164614e+000 
3721875000  -3.516107e+001  1.671443e+000 
3725000000  -3.525537e+001  -3.149955e+000 
3728125000  -3.531612e+001  -4.728535e+000 
3731250000  -3.472287e+001  -4.988774e+000 
3734375000  -3.368822e+001  -1.137462e+001 
3737500000  -3.430415e+001  -1.823026e+001 
3740625000  -3.478232e+001  -2.145860e+001 
3743750000  -3.456593e+001  -2.355110e+001 
3746875000  -3.458803e+001  -2.663348e+001 
3750000000  -3.491835e+001  -2.749484e+001 
3753125000  -3.459637e+001  -2.738149e+001 
3756250000  -3.449076e+001  -2.944264e+001 
3759375000  -3.431035e+001  -2.901595e+001 
3762500000  -3.380263e+001  -3.371062e+001 
3765625000  -3.416266e+001  -3.572803e+001 
3768750000  -3.425718e+001  -3.300334e+001 
3771875000  -3.250827e+001  -3.540638e+001 
3775000000  -3.233933e+001  -4.342660e+001 
3778125000  -3.260482e+001  -4.488658e+001 
3781250000  -3.237947e+001  -4.809042e+001 
3784375000  -3.235953e+001  -5.018314e+001 
3787500000  -3.160294e+001  -5.357547e+001 
3790625000  -3.225202e+001  -6.004490e+001 
3793750000  -3.250001e+001  -6.010656e+001 
3796875000  -3.152493e+001  -6.119836e+001 
3800000000  -2.995509e+001  -6.521934e+001 
3803125000  -3.078467e+001  -7.229874e+001 
3806250000  -3.137087e+001  -7.401061e+001 
3809375000  -3.109036e+001  -7.554408e+001 
3812500000  -3.041125e+001  -8.055859e+001 
3815625000  -3.102571e+001  -8.706509e+001 
3818750000  -3.198480e+001  -8.911872e+001 
3821875000  -3.198935e+001  -8.108113e+001 
3825000000  -3.018495e+001  -7.615149e+001 
3828125000  -2.880036e+001  -9.007212e+001 
3831250000  -2.934504e+001  -1.046624e+002 
3834375000  -3.073899e+001  -1.049780e+002 
3837500000  -3.160069e+001  -1.003347e+002 
3840625000  -3.050782e+001  -1.011929e+002 
3843750000  -2.931372e+001  -1.111670e+002 
3846875000  -3.003396e+001  -1.180936e+002 
3850000000  -3.125589e+001  -1.127520e+002 
3853125000  -3.044798e+001  -1.104263e+002 
3856250000  -3.048840e+001  -1.152273e+002 
3859375000  -2.975779e+001  -1.194264e+002 
3862500000  -2.936918e+001  -1.269725e+002 
3865625000  -2.959598e+001  -1.310988e+002 
3868750000  -2.964153e+001  -1.316913e+002 
3871875000  -2.890158e+001  -1.348551e+002 
3875000000  -2.894769e+001  -1.434573e+002 
3878125000  -3.004017e+001  -1.457917e+002 
3881250000  -3.013210e+001  -1.432320e+002 
3884375000  -2.961559e+001  -1.474315e+002 
3887500000  -2.967893e+001  -1.512699e+002 
3890625000  -3.023690e+001  -1.538040e+002 
3893750000  -3.062970e+001  -1.560759e+002 
3896875000  -3.078629e+001  -1.543429e+002 
3900000000  -3.093503e+001  -1.558275e+002 
3903125000  -3.054470e+001  -1.576373e+002 
3906250000  -3.045994e+001  -1.586393e+002 
3909375000  -2.961345e+001  -1.608580e+002 
3912500000  -2.976864e+001  -1.680993e+002 
3915625000  -3.090786e+001  -1.671088e+002 
3918750000  -3.098891e+001  -1.659644e+002 
3921875000  -3.067364e+001  -1.669597e+002 
3925000000  -2.981875e+001  -1.679669e+002 
3928125000  -2.910951e+001  -1.740585e+002 
3931250000  -2.951391e+001  -1.778823e+002 
3934375000  -2.981069e+001  -1.778397e+002 
3937500000  -2.994407e+001  -1.784197e+002 
3940625000  -3.032243e+001  -1.778631e+002 
3943750000  -2.941068e+001  -1.768134e+002 
3946875000  -2.817614e+001  1.782732e+002 
3950000000  -2.865237e+001  1.702378e+002 
3953125000  -2.968228e+001  1.714305e+002 
3956250000  -2.882245e+001  1.739160e+002 
3959375000  -2.740012e+001  1.704363e+002 
3962500000  -2.695075e+001  1.667361e+002 
3965625000  -2.656201e+001  1.577223e+002 
3968750000  -2.747215e+001  1.514880e+002 
3971875000  -2.794350e+001  1.498311e+002 
3975000000  -2.720908e+001  1.477565e+002 
3978125000  -2.704651e+001  1.462053e+002 
3981250000  -2.677640e+001  1.419362e+002 
3984375000  -2.707033e+001  1.360400e+002 
3987500000  -2.750538e+001  1.333522e+002 
3990625000  -2.751690e+001  1.325146e+002 
3993750000  -2.782715e+001  1.295930e+002 
3996875000  -2.772529e+001  1.273785e+002 
4000000000  -2.785661e+001  1.253628e+002 
4003125000  -2.838309e+001  1.275074e+002 
4006250000  -2.698094e+001  1.279613e+002 
4009375000  -2.588034e+001  1.153147e+002 
4012500000  -2.684644e+001  1.083328e+002 
4015625000  -2.810832e+001  1.084390e+002 
4018750000  -2.825919e+001  1.111710e+002 
4021875000  -2.758509e+001  1.096128e+002 
4025000000  -2.727330e+001  1.048510e+002 
4028125000  -2.723153e+001  1.011747e+002 
4031250000  -2.766170e+001  9.748366e+001 
4034375000  -2.795841e+001  9.759668e+001 
4037500000  -2.738460e+001  9.950907e+001 
4040625000  -2.731380e+001  9.617728e+001 
4043750000  -2.764222e+001  9.570617e+001 
4046875000  -2.721968e+001  9.487787e+001 
4050000000  -2.671793e+001  8.986974e+001 
4053125000  -2.717067e+001  8.753148e+001 
4056250000  -2.774188e+001  9.177380e+001 
4059375000  -2.662669e+001  9.337905e+001 
4062500000  -2.519245e+001  8.900381e+001 
4065625000  -2.507254e+001  8.441637e+001 
4068750000  -2.476505e+001  7.965736e+001 
4071875000  -2.411932e+001  7.181294e+001 
4075000000  -2.452646e+001  6.535931e+001 
4078125000  -2.506368e+001  6.454436e+001 
4081250000  -2.457747e+001  6.230454e+001 
4084375000  -2.412802e+001  5.552761e+001 
4087500000  -2.449830e+001  4.922068e+001 
4090625000  -2.514682e+001  4.813105e+001 
4093750000  -2.493788e+001  4.893970e+001 
4096875000  -2.450768e+001  4.297644e+001 
4100000000  -2.516463e+001  3.577316e+001 
4103125000  -2.602340e+001  3.634839e+001 
4106250000  -2.592498e+001  4.139877e+001 
4109375000  -2.505165e+001  4.098105e+001 
4112500000  -2.450431e+001  3.437213e+001 
4115625000  -2.480067e+001  2.992270e+001 
4118750000  -2.490862e+001  2.727838e+001 
4121875000  -2.456236e+001  2.251361e+001 
4125000000  -2.485058e+001  1.741054e+001 
4128125000  -2.586375e+001  1.772263e+001 
4131250000  -2.559362e+001  2.580858e+001 
4134375000  -2.332761e+001  2.134593e+001 
4137500000  -2.307108e+001  2.464546e+000 
4140625000  -2.520846e+001  -4.807484e+000 
4143750000  -2.654925e+001  2.485738e-001 
4146875000  -2.613659e+001  7.851068e+000 
4150000000  -2.521365e+001  4.552322e+000 
4153125000  -2.504100e+001  -2.126019e+000 
4156250000  -2.594739e+001  -4.488868e+000 
4159375000  -2.619907e+001  -7.510412e-002 
4162500000  -2.508204e+001  4.098532e+000 
4165625000  -2.395377e+001  -2.640276e-002 
4168750000  -2.331783e+001  -7.093853e+000 
4171875000  -2.330508e+001  -1.633176e+001 
4175000000  -2.386543e+001  -2.197769e+001 
4178125000  -2.451288e+001  -2.206991e+001 
4181250000  -2.435397e+001  -2.238428e+001 
4184375000  -2.418438e+001  -2.595333e+001 
4187500000  -2.426174e+001  -2.864474e+001 
4190625000  -2.404915e+001  -3.383844e+001 
4193750000  -2.486251e+001  -3.781009e+001 
4196875000  -2.554443e+001  -3.803878e+001 
4200000000  -2.641367e+001  -3.601480e+001 
4203125000  -2.648023e+001  -2.272636e+001 
4206250000  -2.308812e+001  -2.118372e+001 
4209375000  -2.191608e+001  -4.136782e+001 
4212500000  -2.382034e+001  -5.073997e+001 
4215625000  -2.482913e+001  -4.416529e+001 
4218750000  -2.352934e+001  -3.779825e+001 
4221875000  -2.120304e+001  -4.663068e+001 
4225000000  -2.247445e+001  -5.924628e+001 
4228125000  -2.315167e+001  -5.412101e+001 
4231250000  -2.162873e+001  -5.760624e+001 
4234375000  -2.152378e+001  -6.632926e+001 
4237500000  -2.108732e+001  -6.947529e+001 
4240625000  -2.110229e+001  -7.778828e+001 
4243750000  -2.205528e+001  -8.465680e+001 
4246875000  -2.296741e+001  -8.469471e+001 
4250000000  -2.298738e+001  -8.185288e+001 
4253125000  -2.241889e+001  -8.378545e+001 
4256250000  -2.271706e+001  -8.806466e+001 
4259375000  -2.248002e+001  -8.993317e+001 
4262500000  -2.245600e+001  -9.380098e+001 
4265625000  -2.263709e+001  -9.323129e+001 
4268750000  -2.176346e+001  -9.702592e+001 
4271875000  -2.150875e+001  -1.027839e+002 
4275000000  -2.089185e+001  -1.092667e+002 
4278125000  -2.148281e+001  -1.205139e+002 
4281250000  -2.331529e+001  -1.222508e+002 
4284375000  -2.296450e+001  -1.217771e+002 
4287500000  -2.377522e+001  -1.252794e+002 
4290625000  -2.499886e+001  -1.158169e+002 
4293750000  -2.303705e+001  -1.097920e+002 
4296875000  -2.169396e+001  -1.216926e+002 
4300000000  -2.251302e+001  -1.310421e+002 
4303125000  -2.364713e+001  -1.297187e+002 
4306250000  -2.303127e+001  -1.235842e+002 
4309375000  -2.167626e+001  -1.256781e+002 
4312500000  -2.153456e+001  -1.337392e+002 
4315625000  -2.174618e+001  -1.402418e+002 
4318750000  -2.206572e+001  -1.435750e+002 
4321875000  -2.224354e+001  -1.430254e+002 
4325000000  -2.168125e+001  -1.424599e+002 
4328125000  -2.120215e+001  -1.488381e+002 
4331250000  -2.111422e+001  -1.569381e+002 
4334375000  -2.154454e+001  -1.619339e+002 
4337500000  -2.237001e+001  -1.640794e+002 
4340625000  -2.290042e+001  -1.608291e+002 
4343750000  -2.230288e+001  -1.603564e+002 
4346875000  -2.190135e+001  -1.662545e+002 
4350000000  -2.198372e+001  -1.706618e+002 
4353125000  -2.200582e+001  -1.783973e+002 
4356250000  -2.376374e+001  -1.792743e+002 
4359375000  -2.435853e+001  -1.664061e+002 
4362500000  -2.170525e+001  -1.638848e+002 
4365625000  -2.009812e+001  -1.758040e+002 
4368750000  -2.075981e+001  1.723592e+002 
4371875000  -2.201993e+001  1.729144e+002 
4375000000  -2.167427e+001  1.739935e+002 
4378125000  -2.103457e+001  1.681925e+002 
4381250000  -2.117268e+001  1.626485e+002 
4384375000  -2.101869e+001  1.581881e+002 
4387500000  -2.175975e+001  1.526745e+002 
4390625000  -2.276575e+001  1.534563e+002 
4393750000  -2.213083e+001  1.554356e+002 
4396875000  -2.144512e+001  1.535059e+002 
4400000000  -2.091145e+001  1.464788e+002 
4403125000  -2.149376e+001  1.390269e+002 
4406250000  -2.237661e+001  1.375966e+002 
4409375000  -2.234106e+001  1.353844e+002 
4412500000  -2.336443e+001  1.327622e+002 
4415625000  -2.375138e+001  1.376636e+002 
4418750000  -2.251912e+001  1.423042e+002 
