!Agilent Technologies,E8363B,MY43030201,A.06.04.32
!Agilent E8363B: A.06.04.32
!Date: Tuesday, November 11, 2014 20:45:48
!Correction: S21(Response(S21)) 
!S1P File: Measurement: S21:
# Hz S  dB   R 50
3000000000  -2.650217e+001  1.588082e+002 
3003125000  -2.789115e+001  1.545552e+002 
3006250000  -2.797359e+001  1.514479e+002 
3009375000  -2.830260e+001  1.564241e+002 
3012500000  -2.781176e+001  1.564215e+002 
3015625000  -2.684068e+001  1.492743e+002 
3018750000  -2.769875e+001  1.482096e+002 
3021875000  -2.647373e+001  1.495772e+002 
3025000000  -2.515166e+001  1.464529e+002 
3028125000  -2.417441e+001  1.418879e+002 
3031250000  -2.312149e+001  1.307399e+002 
3034375000  -2.275252e+001  1.176856e+002 
3037500000  -2.308362e+001  1.058222e+002 
3040625000  -2.440676e+001  1.006674e+002 
3043750000  -2.513465e+001  9.636377e+001 
3046875000  -2.520777e+001  8.996648e+001 
3050000000  -2.696771e+001  8.289263e+001 
3053125000  -2.716964e+001  8.941025e+001 
3056250000  -2.646588e+001  9.227823e+001 
3059375000  -2.670940e+001  9.214858e+001 
3062500000  -2.524721e+001  8.800735e+001 
3065625000  -2.501415e+001  8.266211e+001 
3068750000  -2.476295e+001  7.584676e+001 
3071875000  -2.463095e+001  7.267493e+001 
3075000000  -2.464945e+001  6.886492e+001 
3078125000  -2.435578e+001  6.449348e+001 
3081250000  -2.498604e+001  6.011415e+001 
3084375000  -2.426773e+001  5.668756e+001 
3087500000  -2.409265e+001  5.321500e+001 
3090625000  -2.381712e+001  4.341988e+001 
3093750000  -2.421226e+001  3.561599e+001 
3096875000  -2.553296e+001  2.916131e+001 
3100000000  -2.568090e+001  2.790697e+001 
3103125000  -2.603719e+001  2.923355e+001 
3106250000  -2.576776e+001  2.580117e+001 
3109375000  -2.603465e+001  2.239755e+001 
3112500000  -2.617657e+001  2.138228e+001 
3115625000  -2.594606e+001  1.708814e+001 
3118750000  -2.642058e+001  1.830158e+001 
3121875000  -2.575523e+001  1.025183e+001 
3125000000  -2.687162e+001  6.701460e+000 
3128125000  -2.811414e+001  1.446207e+001 
3131250000  -2.601267e+001  1.541815e+001 
3134375000  -2.464243e+001  1.778918e+000 
3137500000  -2.525456e+001  -1.224009e+001 
3140625000  -2.689310e+001  -1.403102e+001 
3143750000  -2.787663e+001  -9.547044e+000 
3146875000  -2.752469e+001  -7.874665e+000 
3150000000  -2.649340e+001  -5.611909e+000 
3153125000  -2.645663e+001  -1.328433e+001 
3156250000  -2.742820e+001  -7.840243e+000 
3159375000  -2.599425e+001  -4.727092e+000 
3162500000  -2.383752e+001  -1.762368e+001 
3165625000  -2.480223e+001  -2.865038e+001 
3168750000  -2.522387e+001  -2.788356e+001 
3171875000  -2.423643e+001  -3.181806e+001 
3175000000  -2.486933e+001  -3.965074e+001 
3178125000  -2.467368e+001  -3.810223e+001 
3181250000  -2.351306e+001  -4.158287e+001 
3184375000  -2.267265e+001  -5.396530e+001 
3187500000  -2.373112e+001  -6.952416e+001 
3190625000  -2.654222e+001  -7.735316e+001 
3193750000  -2.724705e+001  -6.777605e+001 
3196875000  -2.678750e+001  -6.206680e+001 
3200000000  -2.592657e+001  -6.353262e+001 
3203125000  -2.502782e+001  -6.908407e+001 
3206250000  -2.530841e+001  -7.548814e+001 
3209375000  -2.484072e+001  -8.056072e+001 
3212500000  -2.490687e+001  -8.730579e+001 
3215625000  -2.508269e+001  -9.189465e+001 
3218750000  -2.585461e+001  -9.787127e+001 
3221875000  -2.687864e+001  -1.031132e+002 
3225000000  -2.648442e+001  -1.033997e+002 
3228125000  -2.674562e+001  -1.077766e+002 
3231250000  -2.748667e+001  -1.109422e+002 
3234375000  -2.742212e+001  -1.100099e+002 
3237500000  -2.741703e+001  -1.116009e+002 
3240625000  -2.709624e+001  -1.131505e+002 
3243750000  -2.671313e+001  -1.193009e+002 
3246875000  -2.718512e+001  -1.261589e+002 
3250000000  -2.760768e+001  -1.280465e+002 
3253125000  -2.778066e+001  -1.296875e+002 
3256250000  -2.767107e+001  -1.358827e+002 
3259375000  -2.794184e+001  -1.432183e+002 
3262500000  -2.921309e+001  -1.463610e+002 
3265625000  -2.996515e+001  -1.427574e+002 
3268750000  -2.980865e+001  -1.400465e+002 
3271875000  -2.971662e+001  -1.386908e+002 
3275000000  -2.857681e+001  -1.439900e+002 
3278125000  -2.903070e+001  -1.502655e+002 
3281250000  -2.929492e+001  -1.486099e+002 
3284375000  -2.887059e+001  -1.543077e+002 
3287500000  -2.899049e+001  -1.571723e+002 
3290625000  -2.944310e+001  -1.610582e+002 
3293750000  -2.917067e+001  -1.667622e+002 
3296875000  -3.016362e+001  -1.668561e+002 
3300000000  -3.006981e+001  -1.660623e+002 
3303125000  -2.893062e+001  -1.695149e+002 
3306250000  -2.871972e+001  -1.764057e+002 
3309375000  -2.848449e+001  1.791019e+002 
3312500000  -2.848656e+001  1.682930e+002 
3315625000  -2.945345e+001  1.605292e+002 
3318750000  -3.077759e+001  1.575204e+002 
3321875000  -3.204220e+001  1.572459e+002 
3325000000  -3.252983e+001  1.624949e+002 
3328125000  -3.254085e+001  1.639976e+002 
3331250000  -3.127034e+001  1.721675e+002 
3334375000  -2.869915e+001  1.624646e+002 
3337500000  -2.870662e+001  1.446287e+002 
3340625000  -3.006355e+001  1.331162e+002 
3343750000  -3.200974e+001  1.320867e+002 
3346875000  -3.254889e+001  1.331373e+002 
3350000000  -3.189641e+001  1.321851e+002 
3353125000  -3.202261e+001  1.280622e+002 
3356250000  -3.171108e+001  1.203221e+002 
3359375000  -3.259637e+001  1.118382e+002 
3362500000  -3.375352e+001  1.061615e+002 
3365625000  -3.445906e+001  1.048799e+002 
3368750000  -3.542917e+001  1.038909e+002 
3371875000  -3.589929e+001  9.927087e+001 
3375000000  -3.728569e+001  9.803678e+001 
3378125000  -3.845184e+001  9.756817e+001 
3381250000  -4.005545e+001  1.042890e+002 
3384375000  -3.912054e+001  1.241366e+002 
3387500000  -3.611421e+001  1.126537e+002 
3390625000  -3.761786e+001  9.265966e+001 
3393750000  -3.967733e+001  9.770473e+001 
3396875000  -3.893336e+001  1.011970e+002 
3400000000  -3.862650e+001  9.382786e+001 
3403125000  -4.001022e+001  8.778133e+001 
3406250000  -4.049082e+001  9.123513e+001 
3409375000  -4.109060e+001  8.548698e+001 
3412500000  -4.228016e+001  8.775854e+001 
3415625000  -4.285773e+001  9.405786e+001 
3418750000  -4.354878e+001  9.597286e+001 
3421875000  -4.358554e+001  1.031134e+002 
3425000000  -4.271657e+001  1.064703e+002 
3428125000  -4.171860e+001  1.061677e+002 
3431250000  -4.176450e+001  1.030719e+002 
3434375000  -4.146279e+001  9.841226e+001 
3437500000  -4.166088e+001  9.821143e+001 
3440625000  -4.212853e+001  1.014060e+002 
3443750000  -4.097087e+001  1.032883e+002 
3446875000  -4.013671e+001  9.794324e+001 
3450000000  -4.002777e+001  8.884254e+001 
3453125000  -4.040614e+001  8.054609e+001 
3456250000  -4.151567e+001  7.664903e+001 
3459375000  -4.255003e+001  7.667728e+001 
3462500000  -4.241697e+001  7.959698e+001 
3465625000  -4.243323e+001  7.728249e+001 
3468750000  -4.277541e+001  7.066197e+001 
3471875000  -4.306967e+001  7.268029e+001 
3475000000  -4.275242e+001  6.967060e+001 
3478125000  -4.356837e+001  6.460437e+001 
3481250000  -4.492057e+001  6.098683e+001 
3484375000  -4.636061e+001  6.952755e+001 
3487500000  -4.594993e+001  6.957424e+001 
3490625000  -4.552739e+001  6.901007e+001 
3493750000  -4.594917e+001  6.597285e+001 
3496875000  -4.690729e+001  6.414433e+001 
3500000000  -4.850852e+001  7.368090e+001 
3503125000  -4.858883e+001  8.010265e+001 
3506250000  -4.664804e+001  8.034781e+001 
3509375000  -4.703538e+001  7.795721e+001 
3512500000  -4.773529e+001  7.637795e+001 
3515625000  -4.836721e+001  7.807915e+001 
3518750000  -4.859319e+001  8.381898e+001 
3521875000  -4.833487e+001  9.398403e+001 
3525000000  -4.798779e+001  9.035296e+001 
3528125000  -4.801715e+001  1.019280e+002 
3531250000  -4.588807e+001  1.028380e+002 
3534375000  -4.511329e+001  9.568607e+001 
3537500000  -4.508535e+001  9.036146e+001 
3540625000  -4.595885e+001  9.025230e+001 
3543750000  -4.597701e+001  9.400510e+001 
3546875000  -4.568928e+001  1.043463e+002 
3550000000  -4.334413e+001  1.093268e+002 
3553125000  -4.176703e+001  9.190150e+001 
3556250000  -4.263594e+001  8.640705e+001 
3559375000  -4.244378e+001  8.812537e+001 
3562500000  -4.104465e+001  8.057606e+001 
3565625000  -4.208179e+001  7.521671e+001 
3568750000  -4.232509e+001  7.872520e+001 
3571875000  -4.174971e+001  7.686929e+001 
3575000000  -4.112431e+001  7.220640e+001 
3578125000  -4.152751e+001  7.106904e+001 
3581250000  -4.168044e+001  6.983798e+001 
3584375000  -4.063794e+001  7.014165e+001 
3587500000  -4.035139e+001  6.300894e+001 
3590625000  -4.034380e+001  5.360168e+001 
3593750000  -4.145107e+001  5.252396e+001 
3596875000  -4.180345e+001  6.101154e+001 
3600000000  -3.977797e+001  5.948742e+001 
3603125000  -4.005866e+001  4.592550e+001 
3606250000  -4.086155e+001  4.228906e+001 
3609375000  -4.097365e+001  4.377069e+001 
3612500000  -4.144719e+001  4.091943e+001 
3615625000  -4.142618e+001  3.857698e+001 
3618750000  -4.204551e+001  4.096590e+001 
3621875000  -4.148305e+001  3.916880e+001 
3625000000  -4.201482e+001  4.015100e+001 
3628125000  -4.183782e+001  4.064188e+001 
3631250000  -4.152160e+001  3.325187e+001 
3634375000  -4.256991e+001  3.615189e+001 
3637500000  -4.194091e+001  4.147945e+001 
3640625000  -4.088152e+001  4.273426e+001 
3643750000  -4.071949e+001  3.604449e+001 
3646875000  -4.116107e+001  3.091291e+001 
3650000000  -4.168428e+001  2.974349e+001 
3653125000  -4.159277e+001  2.889642e+001 
3656250000  -4.139830e+001  2.849131e+001 
3659375000  -4.217118e+001  3.429031e+001 
3662500000  -4.135701e+001  3.124368e+001 
3665625000  -4.147446e+001  3.014746e+001 
3668750000  -4.043594e+001  3.209092e+001 
3671875000  -3.933534e+001  2.935438e+001 
3675000000  -3.992859e+001  2.375354e+001 
3678125000  -4.063980e+001  2.487191e+001 
3681250000  -4.017534e+001  2.616254e+001 
3684375000  -3.982199e+001  2.194813e+001 
3687500000  -4.006787e+001  2.249369e+001 
3690625000  -3.996659e+001  2.112431e+001 
3693750000  -4.044901e+001  2.191985e+001 
3696875000  -4.012483e+001  2.553372e+001 
3700000000  -3.893459e+001  2.371426e+001 
3703125000  -3.882702e+001  1.991332e+001 
3706250000  -3.949930e+001  2.130512e+001 
3709375000  -3.862751e+001  2.535805e+001 
3712500000  -3.765148e+001  2.446816e+001 
3715625000  -3.640821e+001  1.892980e+001 
3718750000  -3.564997e+001  1.772801e+001 
3721875000  -3.522385e+001  1.208274e+001 
3725000000  -3.512309e+001  6.370961e+000 
3728125000  -3.545930e+001  5.788683e+000 
3731250000  -3.479535e+001  3.658584e+000 
3734375000  -3.374403e+001  -9.734103e-001 
3737500000  -3.413295e+001  -7.664760e+000 
3740625000  -3.479465e+001  -1.120874e+001 
3743750000  -3.448344e+001  -1.369768e+001 
3746875000  -3.448687e+001  -1.709582e+001 
3750000000  -3.477120e+001  -1.784030e+001 
3753125000  -3.452543e+001  -1.840294e+001 
3756250000  -3.438858e+001  -1.913206e+001 
3759375000  -3.419469e+001  -1.976486e+001 
3762500000  -3.357641e+001  -2.434020e+001 
3765625000  -3.398756e+001  -2.714997e+001 
3768750000  -3.417728e+001  -2.486420e+001 
3771875000  -3.257314e+001  -2.700542e+001 
3775000000  -3.216660e+001  -3.431239e+001 
3778125000  -3.248758e+001  -3.658223e+001 
3781250000  -3.226307e+001  -3.928304e+001 
3784375000  -3.225129e+001  -4.148986e+001 
3787500000  -3.156075e+001  -4.500440e+001 
3790625000  -3.210372e+001  -5.105186e+001 
3793750000  -3.235651e+001  -5.114206e+001 
3796875000  -3.153253e+001  -5.260587e+001 
3800000000  -2.999860e+001  -5.636969e+001 
3803125000  -3.065304e+001  -6.307422e+001 
3806250000  -3.133920e+001  -6.578555e+001 
3809375000  -3.114988e+001  -6.693727e+001 
3812500000  -3.037546e+001  -7.152258e+001 
3815625000  -3.091867e+001  -7.844437e+001 
3818750000  -3.195133e+001  -8.052192e+001 
3821875000  -3.200240e+001  -7.331294e+001 
3825000000  -3.022850e+001  -6.705193e+001 
3828125000  -2.882976e+001  -8.125400e+001 
3831250000  -2.935063e+001  -9.449165e+001 
3834375000  -3.061766e+001  -9.601522e+001 
3837500000  -3.149470e+001  -9.099198e+001 
3840625000  -3.053674e+001  -9.207586e+001 
3843750000  -2.936615e+001  -1.018603e+002 
3846875000  -2.994362e+001  -1.091476e+002 
3850000000  -3.124761e+001  -1.043628e+002 
3853125000  -3.033391e+001  -1.015035e+002 
3856250000  -3.037473e+001  -1.055990e+002 
3859375000  -2.978657e+001  -1.102638e+002 
3862500000  -2.925364e+001  -1.165895e+002 
3865625000  -2.957471e+001  -1.223015e+002 
3868750000  -2.940210e+001  -1.228873e+002 
3871875000  -2.883930e+001  -1.253470e+002 
3875000000  -2.886152e+001  -1.335975e+002 
3878125000  -2.990048e+001  -1.369792e+002 
3881250000  -2.999443e+001  -1.334084e+002 
3884375000  -2.948651e+001  -1.377715e+002 
3887500000  -2.960307e+001  -1.425579e+002 
3890625000  -3.014210e+001  -1.447382e+002 
3893750000  -3.057763e+001  -1.460780e+002 
3896875000  -3.063255e+001  -1.456436e+002 
3900000000  -3.092259e+001  -1.473595e+002 
3903125000  -3.069018e+001  -1.488882e+002 
3906250000  -3.034528e+001  -1.499813e+002 
3909375000  -2.969088e+001  -1.515668e+002 
3912500000  -2.965246e+001  -1.594050e+002 
3915625000  -3.086581e+001  -1.586614e+002 
3918750000  -3.096232e+001  -1.570621e+002 
3921875000  -3.057183e+001  -1.589782e+002 
3925000000  -2.989172e+001  -1.592589e+002 
3928125000  -2.907601e+001  -1.646190e+002 
3931250000  -2.949865e+001  -1.686699e+002 
3934375000  -2.971519e+001  -1.682052e+002 
3937500000  -2.981894e+001  -1.694545e+002 
3940625000  -3.043535e+001  -1.691766e+002 
3943750000  -2.948323e+001  -1.675935e+002 
3946875000  -2.818640e+001  -1.726563e+002 
3950000000  -2.861699e+001  1.798590e+002 
3953125000  -2.960119e+001  1.798723e+002 
3956250000  -2.876500e+001  -1.772132e+002 
3959375000  -2.753515e+001  -1.798250e+002 
3962500000  -2.693953e+001  1.758711e+002 
3965625000  -2.655087e+001  1.672023e+002 
3968750000  -2.741686e+001  1.603443e+002 
3971875000  -2.785492e+001  1.589653e+002 
3975000000  -2.718913e+001  1.572453e+002 
3978125000  -2.690982e+001  1.556447e+002 
3981250000  -2.667689e+001  1.514284e+002 
3984375000  -2.687462e+001  1.455613e+002 
3987500000  -2.740378e+001  1.430247e+002 
3990625000  -2.738135e+001  1.425148e+002 
3993750000  -2.764258e+001  1.388467e+002 
3996875000  -2.759998e+001  1.362562e+002 
4000000000  -2.769804e+001  1.343757e+002 
4003125000  -2.824207e+001  1.361000e+002 
4006250000  -2.689300e+001  1.368872e+002 
4009375000  -2.567498e+001  1.241181e+002 
4012500000  -2.669763e+001  1.167702e+002 
4015625000  -2.792592e+001  1.171127e+002 
4018750000  -2.821781e+001  1.199837e+002 
4021875000  -2.752965e+001  1.184586e+002 
4025000000  -2.719847e+001  1.134021e+002 
4028125000  -2.712344e+001  1.092535e+002 
4031250000  -2.756841e+001  1.058361e+002 
4034375000  -2.790380e+001  1.060877e+002 
4037500000  -2.728918e+001  1.077176e+002 
4040625000  -2.728674e+001  1.046222e+002 
4043750000  -2.766522e+001  1.041287e+002 
4046875000  -2.724775e+001  1.038587e+002 
4050000000  -2.666628e+001  9.774892e+001 
4053125000  -2.718262e+001  9.577708e+001 
4056250000  -2.776456e+001  1.000136e+002 
4059375000  -2.670473e+001  1.019228e+002 
4062500000  -2.530445e+001  9.774922e+001 
4065625000  -2.506818e+001  9.318595e+001 
4068750000  -2.481978e+001  8.850575e+001 
4071875000  -2.417273e+001  8.087370e+001 
4075000000  -2.452735e+001  7.456800e+001 
4078125000  -2.510283e+001  7.341492e+001 
4081250000  -2.461422e+001  7.132019e+001 
4084375000  -2.412207e+001  6.498754e+001 
4087500000  -2.449517e+001  5.873849e+001 
4090625000  -2.506286e+001  5.724483e+001 
4093750000  -2.495601e+001  5.802337e+001 
4096875000  -2.448935e+001  5.245520e+001 
4100000000  -2.509630e+001  4.532594e+001 
4103125000  -2.599276e+001  4.560635e+001 
4106250000  -2.589710e+001  5.056324e+001 
4109375000  -2.506336e+001  4.986950e+001 
4112500000  -2.444326e+001  4.368677e+001 
4115625000  -2.473755e+001  3.911134e+001 
4118750000  -2.485564e+001  3.620852e+001 
4121875000  -2.447852e+001  3.188465e+001 
4125000000  -2.474284e+001  2.667325e+001 
4128125000  -2.578659e+001  2.641863e+001 
4131250000  -2.554513e+001  3.411393e+001 
4134375000  -2.328746e+001  3.027242e+001 
4137500000  -2.296147e+001  1.186044e+001 
4140625000  -2.509962e+001  4.204839e+000 
4143750000  -2.644851e+001  8.595176e+000 
4146875000  -2.610868e+001  1.618106e+001 
4150000000  -2.524664e+001  1.316252e+001 
4153125000  -2.503650e+001  6.591504e+000 
4156250000  -2.591505e+001  3.826701e+000 
4159375000  -2.619583e+001  8.409217e+000 
4162500000  -2.506256e+001  1.251414e+001 
4165625000  -2.393769e+001  8.843518e+000 
4168750000  -2.336384e+001  1.400628e+000 
4171875000  -2.333447e+001  -7.443311e+000 
4175000000  -2.391301e+001  -1.292749e+001 
4178125000  -2.458039e+001  -1.342205e+001 
4181250000  -2.446675e+001  -1.380128e+001 
4184375000  -2.428907e+001  -1.685724e+001 
4187500000  -2.433491e+001  -1.955133e+001 
4190625000  -2.417315e+001  -2.468921e+001 
4193750000  -2.485498e+001  -2.889723e+001 
4196875000  -2.558783e+001  -2.920035e+001 
4200000000  -2.644031e+001  -2.685400e+001 
4203125000  -2.651719e+001  -1.450930e+001 
4206250000  -2.328424e+001  -1.149734e+001 
4209375000  -2.193759e+001  -3.177146e+001 
4212500000  -2.378896e+001  -4.073633e+001 
4215625000  -2.485048e+001  -3.506994e+001 
4218750000  -2.358671e+001  -2.804705e+001 
4221875000  -2.123785e+001  -3.709940e+001 
4225000000  -2.246827e+001  -4.950183e+001 
4228125000  -2.313987e+001  -4.454997e+001 
4231250000  -2.162060e+001  -4.825941e+001 
4234375000  -2.155202e+001  -5.627441e+001 
4237500000  -2.110062e+001  -6.002176e+001 
4240625000  -2.110889e+001  -6.819999e+001 
4243750000  -2.204833e+001  -7.480290e+001 
4246875000  -2.290106e+001  -7.523233e+001 
4250000000  -2.298160e+001  -7.221406e+001 
4253125000  -2.240253e+001  -7.439749e+001 
4256250000  -2.265869e+001  -7.845093e+001 
4259375000  -2.241423e+001  -8.028493e+001 
4262500000  -2.246489e+001  -8.420329e+001 
4265625000  -2.261882e+001  -8.397474e+001 
4268750000  -2.178856e+001  -8.788412e+001 
4271875000  -2.151916e+001  -9.380154e+001 
4275000000  -2.090710e+001  -9.975648e+001 
4278125000  -2.147997e+001  -1.111267e+002 
4281250000  -2.327565e+001  -1.135636e+002 
4284375000  -2.301000e+001  -1.125124e+002 
4287500000  -2.374510e+001  -1.161343e+002 
4290625000  -2.502735e+001  -1.072788e+002 
4293750000  -2.315969e+001  -1.010508e+002 
4296875000  -2.170570e+001  -1.123755e+002 
4300000000  -2.253340e+001  -1.217196e+002 
4303125000  -2.370471e+001  -1.209387e+002 
4306250000  -2.319938e+001  -1.147393e+002 
4309375000  -2.174490e+001  -1.162893e+002 
4312500000  -2.167198e+001  -1.246534e+002 
4315625000  -2.187078e+001  -1.307966e+002 
4318750000  -2.215526e+001  -1.339566e+002 
4321875000  -2.236351e+001  -1.335127e+002 
4325000000  -2.174640e+001  -1.329497e+002 
4328125000  -2.127845e+001  -1.391518e+002 
4331250000  -2.125416e+001  -1.469191e+002 
4334375000  -2.159225e+001  -1.519359e+002 
4337500000  -2.239705e+001  -1.542050e+002 
4340625000  -2.301221e+001  -1.512150e+002 
4343750000  -2.242429e+001  -1.506202e+002 
4346875000  -2.204707e+001  -1.558764e+002 
4350000000  -2.203447e+001  -1.605304e+002 
4353125000  -2.200630e+001  -1.679774e+002 
4356250000  -2.366838e+001  -1.698005e+002 
4359375000  -2.444440e+001  -1.569661e+002 
4362500000  -2.182428e+001  -1.545051e+002 
4365625000  -2.014762e+001  -1.653424e+002 
4368750000  -2.076702e+001  -1.777456e+002 
4371875000  -2.205006e+001  -1.772567e+002 
4375000000  -2.175458e+001  -1.758799e+002 
4378125000  -2.105659e+001  1.786479e+002 
4381250000  -2.123618e+001  1.727414e+002 
4384375000  -2.102615e+001  1.684934e+002 
4387500000  -2.173535e+001  1.629916e+002 
4390625000  -2.279326e+001  1.631647e+002 
4393750000  -2.208506e+001  1.654545e+002 
4396875000  -2.144111e+001  1.632857e+002 
4400000000  -2.094337e+001  1.565804e+002 
4403125000  -2.149510e+001  1.487170e+002 
4406250000  -2.238133e+001  1.473171e+002 
4409375000  -2.228789e+001  1.452594e+002 
4412500000  -2.329597e+001  1.422807e+002 
4415625000  -2.374407e+001  1.466931e+002 
4418750000  -2.259150e+001  1.518012e+002 
