!Agilent Technologies,E8363B,MY43030201,A.06.04.32
!Agilent E8363B: A.06.04.32
!Date: Tuesday, November 11, 2014 20:56:10
!Correction: S21(Response(S21)) 
!S1P File: Measurement: S21:
# Hz S  dB   R 50
3000000000  -2.648336e+001  1.478262e+002 
3003125000  -2.790700e+001  1.433062e+002 
3006250000  -2.795119e+001  1.405720e+002 
3009375000  -2.829156e+001  1.456215e+002 
3012500000  -2.776802e+001  1.450576e+002 
3015625000  -2.687481e+001  1.383861e+002 
3018750000  -2.767950e+001  1.374836e+002 
3021875000  -2.638234e+001  1.386454e+002 
3025000000  -2.505178e+001  1.357993e+002 
3028125000  -2.414657e+001  1.305392e+002 
3031250000  -2.310715e+001  1.193179e+002 
3034375000  -2.273810e+001  1.062950e+002 
3037500000  -2.310753e+001  9.438900e+001 
3040625000  -2.446407e+001  8.957845e+001 
3043750000  -2.514243e+001  8.489587e+001 
3046875000  -2.528822e+001  7.878931e+001 
3050000000  -2.700756e+001  7.200907e+001 
3053125000  -2.708120e+001  7.836085e+001 
3056250000  -2.647438e+001  8.152277e+001 
3059375000  -2.667150e+001  8.104286e+001 
3062500000  -2.518573e+001  7.736454e+001 
3065625000  -2.494368e+001  7.134971e+001 
3068750000  -2.470092e+001  6.447429e+001 
3071875000  -2.465197e+001  6.175602e+001 
3075000000  -2.457644e+001  5.763914e+001 
3078125000  -2.433646e+001  5.318899e+001 
3081250000  -2.497546e+001  4.891094e+001 
3084375000  -2.419993e+001  4.514873e+001 
3087500000  -2.412927e+001  4.153632e+001 
3090625000  -2.379517e+001  3.182007e+001 
3093750000  -2.430300e+001  2.408405e+001 
3096875000  -2.555669e+001  1.800048e+001 
3100000000  -2.564506e+001  1.670737e+001 
3103125000  -2.605637e+001  1.779553e+001 
3106250000  -2.578586e+001  1.448925e+001 
3109375000  -2.600266e+001  1.107558e+001 
3112500000  -2.614201e+001  9.909722e+000 
3115625000  -2.595665e+001  5.663336e+000 
3118750000  -2.644230e+001  7.019905e+000 
3121875000  -2.574285e+001  -1.127459e+000 
3125000000  -2.701258e+001  -4.555574e+000 
3128125000  -2.815940e+001  3.861830e+000 
3131250000  -2.594367e+001  4.063481e+000 
3134375000  -2.465670e+001  -9.714961e+000 
3137500000  -2.531014e+001  -2.329278e+001 
3140625000  -2.690852e+001  -2.488993e+001 
3143750000  -2.789912e+001  -2.097997e+001 
3146875000  -2.750564e+001  -1.861685e+001 
3150000000  -2.646637e+001  -1.673541e+001 
3153125000  -2.646459e+001  -2.439530e+001 
3156250000  -2.748485e+001  -1.858435e+001 
3159375000  -2.586814e+001  -1.594839e+001 
3162500000  -2.384318e+001  -2.891216e+001 
3165625000  -2.479679e+001  -3.991083e+001 
3168750000  -2.516506e+001  -3.871729e+001 
3171875000  -2.424723e+001  -4.310037e+001 
3175000000  -2.487256e+001  -5.104093e+001 
3178125000  -2.462390e+001  -4.927295e+001 
3181250000  -2.347641e+001  -5.347401e+001 
3184375000  -2.273923e+001  -6.561398e+001 
3187500000  -2.385977e+001  -8.049498e+001 
3190625000  -2.663308e+001  -8.812394e+001 
3193750000  -2.717230e+001  -7.832440e+001 
3196875000  -2.674633e+001  -7.311600e+001 
3200000000  -2.586393e+001  -7.498401e+001 
3203125000  -2.502550e+001  -8.091319e+001 
3206250000  -2.533269e+001  -8.704394e+001 
3209375000  -2.481783e+001  -9.224148e+001 
3212500000  -2.503359e+001  -9.873790e+001 
3215625000  -2.515377e+001  -1.026913e+002 
3218750000  -2.589058e+001  -1.091260e+002 
3221875000  -2.682895e+001  -1.142576e+002 
3225000000  -2.646105e+001  -1.147145e+002 
3228125000  -2.676836e+001  -1.195588e+002 
3231250000  -2.752617e+001  -1.220855e+002 
3234375000  -2.740141e+001  -1.210223e+002 
3237500000  -2.741879e+001  -1.227784e+002 
3240625000  -2.706082e+001  -1.245863e+002 
3243750000  -2.671125e+001  -1.310779e+002 
3246875000  -2.718720e+001  -1.374125e+002 
3250000000  -2.767765e+001  -1.394752e+002 
3253125000  -2.784354e+001  -1.412740e+002 
3256250000  -2.770592e+001  -1.468830e+002 
3259375000  -2.800867e+001  -1.547358e+002 
3262500000  -2.926689e+001  -1.573910e+002 
3265625000  -2.991279e+001  -1.538169e+002 
3268750000  -2.994322e+001  -1.511676e+002 
3271875000  -2.966569e+001  -1.501806e+002 
3275000000  -2.856835e+001  -1.555413e+002 
3278125000  -2.907993e+001  -1.616081e+002 
3281250000  -2.927634e+001  -1.595697e+002 
3284375000  -2.888234e+001  -1.657359e+002 
3287500000  -2.906962e+001  -1.685026e+002 
3290625000  -2.942776e+001  -1.726987e+002 
3293750000  -2.912479e+001  -1.784303e+002 
3296875000  -3.019202e+001  -1.779285e+002 
3300000000  -2.999871e+001  -1.767024e+002 
3303125000  -2.891215e+001  1.792067e+002 
3306250000  -2.869410e+001  1.727847e+002 
3309375000  -2.847179e+001  1.672236e+002 
3312500000  -2.854935e+001  1.567475e+002 
3315625000  -2.952848e+001  1.495071e+002 
3318750000  -3.093620e+001  1.464357e+002 
3321875000  -3.215915e+001  1.468350e+002 
3325000000  -3.266013e+001  1.523786e+002 
3328125000  -3.244844e+001  1.532109e+002 
3331250000  -3.122497e+001  1.611893e+002 
3334375000  -2.864438e+001  1.508570e+002 
3337500000  -2.869782e+001  1.323161e+002 
3340625000  -3.013837e+001  1.216065e+002 
3343750000  -3.209204e+001  1.201526e+002 
3346875000  -3.245797e+001  1.222945e+002 
3350000000  -3.187085e+001  1.209877e+002 
3353125000  -3.200540e+001  1.162015e+002 
3356250000  -3.167812e+001  1.084392e+002 
3359375000  -3.262164e+001  9.993185e+001 
3362500000  -3.390831e+001  9.441531e+001 
3365625000  -3.453796e+001  9.392863e+001 
3368750000  -3.549600e+001  9.202245e+001 
3371875000  -3.582873e+001  8.842155e+001 
3375000000  -3.751228e+001  8.644869e+001 
3378125000  -3.859882e+001  8.594892e+001 
3381250000  -4.004031e+001  9.499383e+001 
3384375000  -3.946958e+001  1.166565e+002 
3387500000  -3.583738e+001  1.012504e+002 
3390625000  -3.789096e+001  8.173266e+001 
3393750000  -3.961955e+001  8.635630e+001 
3396875000  -3.865089e+001  8.930968e+001 
3400000000  -3.855108e+001  8.217802e+001 
3403125000  -3.953356e+001  7.787173e+001 
3406250000  -4.054292e+001  8.136887e+001 
3409375000  -4.100684e+001  7.754259e+001 
3412500000  -4.205285e+001  7.722629e+001 
3415625000  -4.269967e+001  8.410987e+001 
3418750000  -4.309102e+001  8.583167e+001 
3421875000  -4.319962e+001  9.468592e+001 
3425000000  -4.271275e+001  9.724329e+001 
3428125000  -4.146346e+001  9.602882e+001 
3431250000  -4.140586e+001  9.335989e+001 
3434375000  -4.115715e+001  9.013562e+001 
3437500000  -4.167936e+001  8.828857e+001 
3440625000  -4.197068e+001  9.150915e+001 
3443750000  -4.063210e+001  9.205948e+001 
3446875000  -3.990303e+001  8.796872e+001 
3450000000  -3.986839e+001  7.786259e+001 
3453125000  -3.987479e+001  7.018626e+001 
3456250000  -4.122393e+001  6.368732e+001 
3459375000  -4.229187e+001  6.713322e+001 
3462500000  -4.229350e+001  6.921636e+001 
3465625000  -4.234135e+001  6.389570e+001 
3468750000  -4.254949e+001  6.030832e+001 
3471875000  -4.272070e+001  6.147293e+001 
3475000000  -4.266625e+001  5.685718e+001 
3478125000  -4.354279e+001  4.905175e+001 
3481250000  -4.476414e+001  5.086144e+001 
3484375000  -4.581200e+001  5.473603e+001 
3487500000  -4.510560e+001  5.882149e+001 
3490625000  -4.490048e+001  5.328507e+001 
3493750000  -4.582298e+001  5.143866e+001 
3496875000  -4.746730e+001  5.455439e+001 
3500000000  -4.764556e+001  6.451497e+001 
3503125000  -4.795610e+001  6.622430e+001 
3506250000  -4.668557e+001  6.772878e+001 
3509375000  -4.675266e+001  6.329643e+001 
3512500000  -4.769090e+001  6.323597e+001 
3515625000  -4.735843e+001  6.430130e+001 
3518750000  -4.843665e+001  7.409335e+001 
3521875000  -4.789005e+001  7.738310e+001 
3525000000  -4.816155e+001  7.738865e+001 
3528125000  -4.745836e+001  8.818905e+001 
3531250000  -4.584378e+001  8.774005e+001 
3534375000  -4.548446e+001  8.041729e+001 
3537500000  -4.534149e+001  7.838573e+001 
3540625000  -4.580955e+001  7.803259e+001 
3543750000  -4.590725e+001  8.185825e+001 
3546875000  -4.558461e+001  9.155563e+001 
3550000000  -4.300450e+001  9.557868e+001 
3553125000  -4.145607e+001  7.813509e+001 
3556250000  -4.225889e+001  7.350832e+001 
3559375000  -4.216968e+001  7.604088e+001 
3562500000  -4.094119e+001  6.815440e+001 
3565625000  -4.160331e+001  6.050681e+001 
3568750000  -4.180851e+001  6.440363e+001 
3571875000  -4.152385e+001  6.542584e+001 
3575000000  -4.114967e+001  5.969198e+001 
3578125000  -4.148207e+001  5.690366e+001 
3581250000  -4.154032e+001  5.628639e+001 
3584375000  -4.094232e+001  5.604305e+001 
3587500000  -3.982317e+001  4.910851e+001 
3590625000  -4.037179e+001  4.095452e+001 
3593750000  -4.135178e+001  4.044874e+001 
3596875000  -4.137130e+001  4.909085e+001 
3600000000  -3.996402e+001  4.464118e+001 
3603125000  -3.993333e+001  3.172678e+001 
3606250000  -4.044360e+001  2.772891e+001 
3609375000  -4.092685e+001  2.748739e+001 
3612500000  -4.122663e+001  2.755431e+001 
3615625000  -4.143320e+001  2.415021e+001 
3618750000  -4.214321e+001  2.668125e+001 
3621875000  -4.161153e+001  2.593438e+001 
3625000000  -4.162290e+001  2.542427e+001 
3628125000  -4.185772e+001  2.704543e+001 
3631250000  -4.125010e+001  2.095160e+001 
3634375000  -4.259883e+001  2.121826e+001 
3637500000  -4.210180e+001  2.939911e+001 
3640625000  -4.089281e+001  2.953479e+001 
3643750000  -4.060076e+001  2.157569e+001 
3646875000  -4.112279e+001  1.777957e+001 
3650000000  -4.164440e+001  1.795849e+001 
3653125000  -4.131347e+001  1.705110e+001 
3656250000  -4.145396e+001  1.462245e+001 
3659375000  -4.164382e+001  1.858110e+001 
3662500000  -4.126594e+001  1.699575e+001 
3665625000  -4.136079e+001  1.827307e+001 
3668750000  -4.005384e+001  1.999140e+001 
3671875000  -3.930862e+001  1.461867e+001 
3675000000  -3.965051e+001  8.156706e+000 
3678125000  -4.000757e+001  1.033155e+001 
3681250000  -3.982356e+001  9.750193e+000 
3684375000  -3.955308e+001  8.977934e+000 
3687500000  -3.959332e+001  9.272668e+000 
3690625000  -3.981557e+001  5.836933e+000 
3693750000  -4.044839e+001  8.360700e+000 
3696875000  -3.976698e+001  1.056069e+001 
3700000000  -3.888213e+001  9.728189e+000 
3703125000  -3.891532e+001  6.493222e+000 
3706250000  -3.961787e+001  8.043036e+000 
3709375000  -3.861961e+001  1.123166e+001 
3712500000  -3.751244e+001  1.125854e+001 
3715625000  -3.640642e+001  4.187462e+000 
3718750000  -3.560790e+001  2.845551e+000 
3721875000  -3.543766e+001  -3.239714e+000 
3725000000  -3.516622e+001  -7.527184e+000 
3728125000  -3.543932e+001  -8.874846e+000 
3731250000  -3.464118e+001  -9.732974e+000 
3734375000  -3.382655e+001  -1.500982e+001 
3737500000  -3.421754e+001  -2.266395e+001 
3740625000  -3.492105e+001  -2.563022e+001 
3743750000  -3.465142e+001  -2.783888e+001 
3746875000  -3.449780e+001  -3.161191e+001 
3750000000  -3.489222e+001  -3.248030e+001 
3753125000  -3.452805e+001  -3.230245e+001 
3756250000  -3.450044e+001  -3.315823e+001 
3759375000  -3.434282e+001  -3.287613e+001 
3762500000  -3.365921e+001  -3.778663e+001 
3765625000  -3.433129e+001  -4.005059e+001 
3768750000  -3.425639e+001  -3.877100e+001 
3771875000  -3.254476e+001  -4.136766e+001 
3775000000  -3.228714e+001  -4.878462e+001 
3778125000  -3.267469e+001  -5.078218e+001 
3781250000  -3.238086e+001  -5.315330e+001 
3784375000  -3.231720e+001  -5.513040e+001 
3787500000  -3.164067e+001  -5.900857e+001 
3790625000  -3.226784e+001  -6.434444e+001 
3793750000  -3.243377e+001  -6.454658e+001 
3796875000  -3.147910e+001  -6.682394e+001 
3800000000  -2.992834e+001  -6.982450e+001 
3803125000  -3.060621e+001  -7.699258e+001 
3806250000  -3.129797e+001  -7.925982e+001 
3809375000  -3.104180e+001  -8.065485e+001 
3812500000  -3.044074e+001  -8.530684e+001 
3815625000  -3.109350e+001  -9.334788e+001 
3818750000  -3.203836e+001  -9.416632e+001 
3821875000  -3.202791e+001  -8.530588e+001 
3825000000  -3.023754e+001  -8.216388e+001 
3828125000  -2.873747e+001  -9.541212e+001 
3831250000  -2.929095e+001  -1.089768e+002 
3834375000  -3.073413e+001  -1.101415e+002 
3837500000  -3.154724e+001  -1.052162e+002 
3840625000  -3.043250e+001  -1.063221e+002 
3843750000  -2.931554e+001  -1.158033e+002 
3846875000  -3.005402e+001  -1.229377e+002 
3850000000  -3.126763e+001  -1.175944e+002 
3853125000  -3.046466e+001  -1.151590e+002 
3856250000  -3.049290e+001  -1.198761e+002 
3859375000  -2.968911e+001  -1.242735e+002 
3862500000  -2.929082e+001  -1.317629e+002 
3865625000  -2.961531e+001  -1.364783e+002 
3868750000  -2.958303e+001  -1.364451e+002 
3871875000  -2.884115e+001  -1.397010e+002 
3875000000  -2.902327e+001  -1.483212e+002 
3878125000  -2.999793e+001  -1.506134e+002 
3881250000  -3.015494e+001  -1.476062e+002 
3884375000  -2.950018e+001  -1.522967e+002 
3887500000  -2.967827e+001  -1.566324e+002 
3890625000  -3.022908e+001  -1.586049e+002 
3893750000  -3.063671e+001  -1.603496e+002 
3896875000  -3.078982e+001  -1.597693e+002 
3900000000  -3.114307e+001  -1.613836e+002 
3903125000  -3.070016e+001  -1.621965e+002 
3906250000  -3.037546e+001  -1.632392e+002 
3909375000  -2.961199e+001  -1.656196e+002 
3912500000  -2.966600e+001  -1.738698e+002 
3915625000  -3.095939e+001  -1.725597e+002 
3918750000  -3.100536e+001  -1.702451e+002 
3921875000  -3.063333e+001  -1.724865e+002 
3925000000  -2.981136e+001  -1.731131e+002 
3928125000  -2.905086e+001  -1.788273e+002 
3931250000  -2.957524e+001  1.773427e+002 
3934375000  -2.980197e+001  1.770178e+002 
3937500000  -2.992128e+001  1.767075e+002 
3940625000  -3.042251e+001  1.771982e+002 
3943750000  -2.946387e+001  1.782974e+002 
3946875000  -2.817542e+001  1.729778e+002 
3950000000  -2.872756e+001  1.654578e+002 
3953125000  -2.969411e+001  1.664494e+002 
3956250000  -2.887081e+001  1.690157e+002 
3959375000  -2.748579e+001  1.657313e+002 
3962500000  -2.688802e+001  1.614836e+002 
3965625000  -2.654718e+001  1.531001e+002 
3968750000  -2.754386e+001  1.463966e+002 
3971875000  -2.783850e+001  1.451724e+002 
3975000000  -2.724838e+001  1.427210e+002 
3978125000  -2.703205e+001  1.414088e+002 
3981250000  -2.676955e+001  1.371364e+002 
3984375000  -2.702616e+001  1.308609e+002 
3987500000  -2.757857e+001  1.290248e+002 
3990625000  -2.763640e+001  1.280891e+002 
3993750000  -2.777134e+001  1.246482e+002 
3996875000  -2.774584e+001  1.224334e+002 
4000000000  -2.783804e+001  1.205894e+002 
4003125000  -2.847100e+001  1.224369e+002 
4006250000  -2.703733e+001  1.231115e+002 
4009375000  -2.577032e+001  1.109302e+002 
4012500000  -2.688415e+001  1.038351e+002 
4015625000  -2.822348e+001  1.043091e+002 
4018750000  -2.826822e+001  1.065134e+002 
4021875000  -2.765607e+001  1.049942e+002 
4025000000  -2.728061e+001  1.000908e+002 
4028125000  -2.715395e+001  9.654428e+001 
4031250000  -2.764021e+001  9.303117e+001 
4034375000  -2.793751e+001  9.315845e+001 
4037500000  -2.743487e+001  9.483353e+001 
4040625000  -2.734501e+001  9.168225e+001 
4043750000  -2.767142e+001  9.068756e+001 
4046875000  -2.721326e+001  9.082486e+001 
4050000000  -2.672539e+001  8.504282e+001 
4053125000  -2.721869e+001  8.323605e+001 
4056250000  -2.778227e+001  8.691558e+001 
4059375000  -2.659539e+001  8.923738e+001 
4062500000  -2.519535e+001  8.384789e+001 
4065625000  -2.511312e+001  7.948101e+001 
4068750000  -2.480005e+001  7.515663e+001 
4071875000  -2.412075e+001  6.737498e+001 
4075000000  -2.455013e+001  6.073831e+001 
4078125000  -2.504468e+001  6.023064e+001 
4081250000  -2.449776e+001  5.775979e+001 
4084375000  -2.410822e+001  5.101696e+001 
4087500000  -2.449055e+001  4.465319e+001 
4090625000  -2.508013e+001  4.372363e+001 
4093750000  -2.489596e+001  4.432199e+001 
4096875000  -2.448198e+001  3.843526e+001 
4100000000  -2.516436e+001  3.153870e+001 
4103125000  -2.604071e+001  3.223400e+001 
4106250000  -2.589464e+001  3.736133e+001 
4109375000  -2.500550e+001  3.658329e+001 
4112500000  -2.443480e+001  2.957756e+001 
4115625000  -2.478747e+001  2.576969e+001 
4118750000  -2.480689e+001  2.271164e+001 
4121875000  -2.447003e+001  1.789162e+001 
4125000000  -2.485596e+001  1.292345e+001 
4128125000  -2.587986e+001  1.333132e+001 
4131250000  -2.556452e+001  2.147209e+001 
4134375000  -2.319727e+001  1.678885e+001 
4137500000  -2.301345e+001  -1.810427e+000 
4140625000  -2.515428e+001  -9.072458e+000 
4143750000  -2.648981e+001  -3.593678e+000 
4146875000  -2.603084e+001  3.763746e+000 
4150000000  -2.512213e+001  -1.467327e-002 
4153125000  -2.494205e+001  -6.298224e+000 
4156250000  -2.581541e+001  -8.976003e+000 
4159375000  -2.615348e+001  -4.300349e+000 
4162500000  -2.494299e+001  -1.907137e-001 
4165625000  -2.378992e+001  -4.321896e+000 
4168750000  -2.320873e+001  -1.160406e+001 
4171875000  -2.318883e+001  -2.066618e+001 
4175000000  -2.375681e+001  -2.658461e+001 
4178125000  -2.440268e+001  -2.646437e+001 
4181250000  -2.422003e+001  -2.687127e+001 
4184375000  -2.411935e+001  -3.014918e+001 
4187500000  -2.417920e+001  -3.342068e+001 
4190625000  -2.397441e+001  -3.871899e+001 
4193750000  -2.476152e+001  -4.204603e+001 
4196875000  -2.551099e+001  -4.274112e+001 
4200000000  -2.641887e+001  -3.994335e+001 
4203125000  -2.631458e+001  -2.692019e+001 
4206250000  -2.293067e+001  -2.552216e+001 
4209375000  -2.182437e+001  -4.650436e+001 
4212500000  -2.376216e+001  -5.481228e+001 
4215625000  -2.474048e+001  -4.844020e+001 
4218750000  -2.336174e+001  -4.189331e+001 
4221875000  -2.111357e+001  -5.095071e+001 
4225000000  -2.225389e+001  -6.338633e+001 
4228125000  -2.299424e+001  -5.853980e+001 
4231250000  -2.143544e+001  -6.247513e+001 
4234375000  -2.131810e+001  -7.051406e+001 
4237500000  -2.092272e+001  -7.376156e+001 
4240625000  -2.097236e+001  -8.269157e+001 
4243750000  -2.192971e+001  -8.953542e+001 
4246875000  -2.282782e+001  -8.931726e+001 
4250000000  -2.284769e+001  -8.650514e+001 
4253125000  -2.221792e+001  -8.829148e+001 
4256250000  -2.251543e+001  -9.226383e+001 
4259375000  -2.225232e+001  -9.445171e+001 
4262500000  -2.226893e+001  -9.820853e+001 
4265625000  -2.243795e+001  -9.758817e+001 
4268750000  -2.159519e+001  -1.019172e+002 
4271875000  -2.135450e+001  -1.076022e+002 
4275000000  -2.070653e+001  -1.140643e+002 
4278125000  -2.137207e+001  -1.252247e+002 
4281250000  -2.308327e+001  -1.271072e+002 
4284375000  -2.277000e+001  -1.266180e+002 
4287500000  -2.360317e+001  -1.298619e+002 
4290625000  -2.482665e+001  -1.205110e+002 
4293750000  -2.284730e+001  -1.148486e+002 
4296875000  -2.148856e+001  -1.267416e+002 
4300000000  -2.235239e+001  -1.358376e+002 
4303125000  -2.344469e+001  -1.341098e+002 
4306250000  -2.280126e+001  -1.285524e+002 
4309375000  -2.141943e+001  -1.305938e+002 
4312500000  -2.132483e+001  -1.391265e+002 
4315625000  -2.153668e+001  -1.452749e+002 
4318750000  -2.184178e+001  -1.489283e+002 
4321875000  -2.204171e+001  -1.480941e+002 
4325000000  -2.145406e+001  -1.472223e+002 
4328125000  -2.094740e+001  -1.542010e+002 
4331250000  -2.091299e+001  -1.622426e+002 
4334375000  -2.135689e+001  -1.672944e+002 
4337500000  -2.216254e+001  -1.693039e+002 
4340625000  -2.272141e+001  -1.658356e+002 
4343750000  -2.213944e+001  -1.654517e+002 
4346875000  -2.172114e+001  -1.713782e+002 
4350000000  -2.175113e+001  -1.756746e+002 
4353125000  -2.178280e+001  1.762190e+002 
4356250000  -2.359055e+001  1.757498e+002 
4359375000  -2.415582e+001  -1.706833e+002 
4362500000  -2.141503e+001  -1.688276e+002 
4365625000  -1.987284e+001  1.788934e+002 
4368750000  -2.058824e+001  1.669730e+002 
4371875000  -2.175470e+001  1.677792e+002 
4375000000  -2.140519e+001  1.688045e+002 
4378125000  -2.081362e+001  1.629103e+002 
4381250000  -2.093932e+001  1.573146e+002 
4384375000  -2.079885e+001  1.529260e+002 
4387500000  -2.151292e+001  1.474624e+002 
4390625000  -2.253947e+001  1.482594e+002 
4393750000  -2.188147e+001  1.501917e+002 
4396875000  -2.121647e+001  1.480132e+002 
4400000000  -2.069600e+001  1.414125e+002 
4403125000  -2.126679e+001  1.336194e+002 
4406250000  -2.211542e+001  1.323264e+002 
4409375000  -2.205047e+001  1.298795e+002 
4412500000  -2.306646e+001  1.270900e+002 
4415625000  -2.345374e+001  1.326314e+002 
4418750000  -2.224794e+001  1.370104e+002 
