!Agilent Technologies,E8363B,MY43030201,A.06.04.32
!Agilent E8363B: A.06.04.32
!Date: Tuesday, November 11, 2014 20:47:10
!Correction: S21(Response(S21)) 
!S1P File: Measurement: S21:
# Hz S  dB   R 50
3000000000  -2.657298e+001  1.579974e+002 
3003125000  -2.796537e+001  1.534804e+002 
3006250000  -2.803106e+001  1.505665e+002 
3009375000  -2.837372e+001  1.554436e+002 
3012500000  -2.788507e+001  1.553794e+002 
3015625000  -2.692902e+001  1.481671e+002 
3018750000  -2.774190e+001  1.470357e+002 
3021875000  -2.652191e+001  1.487061e+002 
3025000000  -2.523777e+001  1.454804e+002 
3028125000  -2.425819e+001  1.407884e+002 
3031250000  -2.322567e+001  1.295600e+002 
3034375000  -2.282954e+001  1.168489e+002 
3037500000  -2.316035e+001  1.045951e+002 
3040625000  -2.448773e+001  9.950249e+001 
3043750000  -2.519880e+001  9.542988e+001 
3046875000  -2.529783e+001  8.886685e+001 
3050000000  -2.700754e+001  8.163556e+001 
3053125000  -2.723484e+001  8.785071e+001 
3056250000  -2.651453e+001  9.105849e+001 
3059375000  -2.677243e+001  9.086636e+001 
3062500000  -2.535827e+001  8.683567e+001 
3065625000  -2.509901e+001  8.130363e+001 
3068750000  -2.481579e+001  7.428155e+001 
3071875000  -2.477512e+001  7.117638e+001 
3075000000  -2.476686e+001  6.781238e+001 
3078125000  -2.442140e+001  6.310756e+001 
3081250000  -2.510464e+001  5.911913e+001 
3084375000  -2.435600e+001  5.516535e+001 
3087500000  -2.420420e+001  5.188191e+001 
3090625000  -2.392034e+001  4.223785e+001 
3093750000  -2.429367e+001  3.417702e+001 
3096875000  -2.563207e+001  2.816373e+001 
3100000000  -2.579674e+001  2.662953e+001 
3103125000  -2.612381e+001  2.806592e+001 
3106250000  -2.587334e+001  2.460807e+001 
3109375000  -2.610284e+001  2.102503e+001 
3112500000  -2.624423e+001  2.011135e+001 
3115625000  -2.599372e+001  1.606708e+001 
3118750000  -2.654242e+001  1.707417e+001 
3121875000  -2.588077e+001  9.254904e+000 
3125000000  -2.696189e+001  5.518023e+000 
3128125000  -2.826545e+001  1.320978e+001 
3131250000  -2.611937e+001  1.447914e+001 
3134375000  -2.472203e+001  1.029463e+000 
3137500000  -2.530861e+001  -1.332446e+001 
3140625000  -2.694889e+001  -1.505909e+001 
3143750000  -2.798246e+001  -1.057970e+001 
3146875000  -2.759352e+001  -8.685173e+000 
3150000000  -2.655812e+001  -6.383232e+000 
3153125000  -2.655218e+001  -1.400985e+001 
3156250000  -2.752062e+001  -8.798530e+000 
3159375000  -2.597834e+001  -5.960052e+000 
3162500000  -2.392994e+001  -1.874316e+001 
3165625000  -2.481092e+001  -2.961726e+001 
3168750000  -2.522797e+001  -2.876155e+001 
3171875000  -2.429299e+001  -3.308934e+001 
3175000000  -2.489357e+001  -4.085115e+001 
3178125000  -2.475254e+001  -3.905885e+001 
3181250000  -2.353237e+001  -4.298386e+001 
3184375000  -2.268575e+001  -5.526804e+001 
3187500000  -2.371254e+001  -7.039552e+001 
3190625000  -2.660835e+001  -7.846551e+001 
3193750000  -2.721944e+001  -6.882372e+001 
3196875000  -2.680166e+001  -6.317489e+001 
3200000000  -2.601129e+001  -6.493645e+001 
3203125000  -2.507860e+001  -7.056167e+001 
3206250000  -2.533962e+001  -7.688567e+001 
3209375000  -2.491302e+001  -8.183883e+001 
3212500000  -2.499096e+001  -8.820237e+001 
3215625000  -2.513786e+001  -9.291145e+001 
3218750000  -2.584728e+001  -9.882472e+001 
3221875000  -2.690671e+001  -1.043307e+002 
3225000000  -2.650703e+001  -1.046284e+002 
3228125000  -2.673592e+001  -1.089603e+002 
3231250000  -2.752809e+001  -1.121843e+002 
3234375000  -2.741650e+001  -1.109885e+002 
3237500000  -2.743910e+001  -1.126176e+002 
3240625000  -2.712121e+001  -1.140522e+002 
3243750000  -2.672181e+001  -1.207378e+002 
3246875000  -2.725613e+001  -1.271052e+002 
3250000000  -2.768902e+001  -1.291826e+002 
3253125000  -2.781824e+001  -1.308290e+002 
3256250000  -2.763545e+001  -1.369819e+002 
3259375000  -2.800026e+001  -1.442604e+002 
3262500000  -2.923754e+001  -1.474397e+002 
3265625000  -2.989677e+001  -1.443453e+002 
3268750000  -2.987433e+001  -1.416485e+002 
3271875000  -2.974361e+001  -1.399983e+002 
3275000000  -2.858917e+001  -1.452105e+002 
3278125000  -2.907433e+001  -1.517656e+002 
3281250000  -2.932179e+001  -1.497690e+002 
3284375000  -2.890466e+001  -1.553560e+002 
3287500000  -2.902533e+001  -1.581406e+002 
3290625000  -2.945512e+001  -1.626645e+002 
3293750000  -2.917739e+001  -1.681948e+002 
3296875000  -3.015584e+001  -1.681783e+002 
3300000000  -3.006859e+001  -1.672334e+002 
3303125000  -2.894666e+001  -1.710077e+002 
3306250000  -2.869633e+001  -1.775809e+002 
3309375000  -2.849682e+001  1.774333e+002 
3312500000  -2.848158e+001  1.669774e+002 
3315625000  -2.947293e+001  1.591189e+002 
3318750000  -3.081167e+001  1.564434e+002 
3321875000  -3.194630e+001  1.559297e+002 
3325000000  -3.252137e+001  1.612441e+002 
3328125000  -3.256153e+001  1.622818e+002 
3331250000  -3.136399e+001  1.699236e+002 
3334375000  -2.879263e+001  1.608004e+002 
3337500000  -2.876693e+001  1.430270e+002 
3340625000  -2.999920e+001  1.316164e+002 
3343750000  -3.198818e+001  1.305120e+002 
3346875000  -3.257417e+001  1.313877e+002 
3350000000  -3.187911e+001  1.305254e+002 
3353125000  -3.197574e+001  1.262851e+002 
3356250000  -3.167566e+001  1.183375e+002 
3359375000  -3.258944e+001  1.097640e+002 
3362500000  -3.390256e+001  1.044108e+002 
3365625000  -3.451329e+001  1.027211e+002 
3368750000  -3.536140e+001  1.012062e+002 
3371875000  -3.582742e+001  9.802024e+001 
3375000000  -3.731739e+001  9.600790e+001 
3378125000  -3.854162e+001  9.400273e+001 
3381250000  -3.985209e+001  1.024083e+002 
3384375000  -3.923416e+001  1.238795e+002 
3387500000  -3.617076e+001  1.105011e+002 
3390625000  -3.798083e+001  9.133094e+001 
3393750000  -3.952813e+001  9.519627e+001 
3396875000  -3.859769e+001  9.860264e+001 
3400000000  -3.876637e+001  9.170286e+001 
3403125000  -3.978913e+001  8.719236e+001 
3406250000  -4.053907e+001  9.088864e+001 
3409375000  -4.130912e+001  8.646830e+001 
3412500000  -4.207403e+001  8.674281e+001 
3415625000  -4.312563e+001  9.094268e+001 
3418750000  -4.314604e+001  9.213298e+001 
3421875000  -4.356991e+001  1.016242e+002 
3425000000  -4.286637e+001  1.046399e+002 
3428125000  -4.187836e+001  1.063127e+002 
3431250000  -4.173367e+001  1.010364e+002 
3434375000  -4.133219e+001  9.710831e+001 
3437500000  -4.199799e+001  9.525018e+001 
3440625000  -4.216862e+001  9.860341e+001 
3443750000  -4.117125e+001  1.012189e+002 
3446875000  -4.029169e+001  9.760359e+001 
3450000000  -4.017589e+001  8.671038e+001 
3453125000  -4.042257e+001  7.846210e+001 
3456250000  -4.155857e+001  7.431963e+001 
3459375000  -4.277730e+001  7.548240e+001 
3462500000  -4.290232e+001  7.655958e+001 
3465625000  -4.312687e+001  7.387450e+001 
3468750000  -4.343079e+001  6.938766e+001 
3471875000  -4.326441e+001  6.969283e+001 
3475000000  -4.333362e+001  6.589676e+001 
3478125000  -4.422614e+001  6.107875e+001 
3481250000  -4.504995e+001  6.006826e+001 
3484375000  -4.716373e+001  6.473018e+001 
3487500000  -4.643363e+001  6.711738e+001 
3490625000  -4.577358e+001  6.483503e+001 
3493750000  -4.692991e+001  6.230012e+001 
3496875000  -4.785789e+001  6.515373e+001 
3500000000  -4.926268e+001  7.375110e+001 
3503125000  -4.892705e+001  7.244969e+001 
3506250000  -4.788309e+001  7.722532e+001 
3509375000  -4.777368e+001  8.288915e+001 
3512500000  -4.836722e+001  7.958147e+001 
3515625000  -4.807753e+001  8.230534e+001 
3518750000  -4.896150e+001  9.304744e+001 
3521875000  -4.806590e+001  9.202864e+001 
3525000000  -4.868883e+001  9.322840e+001 
3528125000  -4.795751e+001  1.038987e+002 
3531250000  -4.611082e+001  1.056348e+002 
3534375000  -4.562750e+001  9.678923e+001 
3537500000  -4.546603e+001  9.236433e+001 
3540625000  -4.572625e+001  9.261192e+001 
3543750000  -4.628178e+001  9.814631e+001 
3546875000  -4.597777e+001  1.069464e+002 
3550000000  -4.331672e+001  1.103055e+002 
3553125000  -4.154336e+001  9.288745e+001 
3556250000  -4.231884e+001  8.606796e+001 
3559375000  -4.226253e+001  9.028520e+001 
3562500000  -4.107277e+001  8.030390e+001 
3565625000  -4.196262e+001  7.517751e+001 
3568750000  -4.199288e+001  8.021129e+001 
3571875000  -4.182369e+001  7.834218e+001 
3575000000  -4.128072e+001  7.381293e+001 
3578125000  -4.158756e+001  6.993537e+001 
3581250000  -4.168675e+001  7.108727e+001 
3584375000  -4.070250e+001  6.867021e+001 
3587500000  -3.989498e+001  6.350152e+001 
3590625000  -4.030193e+001  5.483432e+001 
3593750000  -4.148099e+001  5.420200e+001 
3596875000  -4.167275e+001  6.167178e+001 
3600000000  -4.001950e+001  5.850773e+001 
3603125000  -4.023484e+001  4.671621e+001 
3606250000  -4.057445e+001  4.399842e+001 
3609375000  -4.098490e+001  4.324854e+001 
3612500000  -4.179131e+001  4.259385e+001 
3615625000  -4.153915e+001  3.889882e+001 
3618750000  -4.197320e+001  4.242437e+001 
3621875000  -4.184068e+001  4.141897e+001 
3625000000  -4.178109e+001  4.047084e+001 
3628125000  -4.183275e+001  3.884190e+001 
3631250000  -4.145807e+001  3.363050e+001 
3634375000  -4.220093e+001  3.687659e+001 
3637500000  -4.213474e+001  4.190951e+001 
3640625000  -4.101726e+001  4.310072e+001 
3643750000  -4.071708e+001  3.751009e+001 
3646875000  -4.113420e+001  3.131155e+001 
3650000000  -4.149012e+001  3.122191e+001 
3653125000  -4.151672e+001  3.188065e+001 
3656250000  -4.150360e+001  3.007462e+001 
3659375000  -4.197308e+001  3.375086e+001 
3662500000  -4.113693e+001  3.238520e+001 
3665625000  -4.120818e+001  3.142671e+001 
3668750000  -4.039935e+001  3.439488e+001 
3671875000  -3.924986e+001  2.740495e+001 
3675000000  -3.967751e+001  2.213551e+001 
3678125000  -4.047171e+001  2.387405e+001 
3681250000  -3.969907e+001  2.527944e+001 
3684375000  -3.961300e+001  2.243748e+001 
3687500000  -3.975479e+001  2.108597e+001 
3690625000  -3.977390e+001  2.029032e+001 
3693750000  -4.021794e+001  2.180340e+001 
3696875000  -4.006007e+001  2.556440e+001 
3700000000  -3.896564e+001  2.213284e+001 
3703125000  -3.854107e+001  1.962271e+001 
3706250000  -3.930990e+001  2.103494e+001 
3709375000  -3.852662e+001  2.470821e+001 
3712500000  -3.759320e+001  2.521683e+001 
3715625000  -3.652669e+001  1.903964e+001 
3718750000  -3.572718e+001  1.676915e+001 
3721875000  -3.520359e+001  1.032560e+001 
3725000000  -3.516516e+001  5.677920e+000 
3728125000  -3.534166e+001  5.301230e+000 
3731250000  -3.473934e+001  5.600368e+000 
3734375000  -3.362614e+001  -1.473321e+000 
3737500000  -3.414182e+001  -8.321045e+000 
3740625000  -3.481383e+001  -1.165166e+001 
3743750000  -3.458035e+001  -1.313757e+001 
3746875000  -3.446281e+001  -1.624874e+001 
3750000000  -3.492112e+001  -1.830748e+001 
3753125000  -3.455504e+001  -1.802409e+001 
3756250000  -3.433856e+001  -1.891459e+001 
3759375000  -3.425218e+001  -1.906454e+001 
3762500000  -3.363749e+001  -2.389515e+001 
3765625000  -3.387477e+001  -2.591029e+001 
3768750000  -3.414904e+001  -2.439683e+001 
3771875000  -3.242098e+001  -2.649965e+001 
3775000000  -3.226478e+001  -3.435900e+001 
3778125000  -3.248510e+001  -3.591963e+001 
3781250000  -3.221189e+001  -3.915136e+001 
3784375000  -3.218004e+001  -4.079799e+001 
3787500000  -3.154894e+001  -4.438832e+001 
3790625000  -3.210180e+001  -5.067426e+001 
3793750000  -3.237324e+001  -5.088308e+001 
3796875000  -3.142260e+001  -5.244422e+001 
3800000000  -2.992132e+001  -5.548431e+001 
3803125000  -3.054232e+001  -6.261196e+001 
3806250000  -3.120726e+001  -6.469579e+001 
3809375000  -3.098183e+001  -6.612334e+001 
3812500000  -3.032761e+001  -7.086996e+001 
3815625000  -3.096313e+001  -7.804566e+001 
3818750000  -3.190424e+001  -7.974543e+001 
3821875000  -3.197699e+001  -7.146252e+001 
3825000000  -3.012630e+001  -6.666322e+001 
3828125000  -2.875931e+001  -8.021746e+001 
3831250000  -2.918863e+001  -9.482149e+001 
3834375000  -3.056039e+001  -9.530891e+001 
3837500000  -3.138627e+001  -9.116689e+001 
3840625000  -3.044605e+001  -9.137571e+001 
3843750000  -2.926324e+001  -1.011944e+002 
3846875000  -2.986870e+001  -1.082411e+002 
3850000000  -3.109522e+001  -1.042915e+002 
3853125000  -3.037481e+001  -9.980422e+001 
3856250000  -3.038019e+001  -1.049710e+002 
3859375000  -2.971773e+001  -1.093287e+002 
3862500000  -2.927908e+001  -1.166271e+002 
3865625000  -2.945473e+001  -1.212380e+002 
3868750000  -2.946171e+001  -1.214064e+002 
3871875000  -2.875691e+001  -1.239546e+002 
3875000000  -2.884691e+001  -1.321743e+002 
3878125000  -2.984924e+001  -1.351671e+002 
3881250000  -2.991544e+001  -1.319883e+002 
3884375000  -2.942690e+001  -1.364315e+002 
3887500000  -2.945244e+001  -1.413190e+002 
3890625000  -3.001637e+001  -1.433626e+002 
3893750000  -3.041714e+001  -1.451544e+002 
3896875000  -3.045559e+001  -1.441712e+002 
3900000000  -3.071824e+001  -1.454893e+002 
3903125000  -3.044285e+001  -1.476466e+002 
3906250000  -3.014386e+001  -1.481948e+002 
3909375000  -2.935519e+001  -1.505211e+002 
3912500000  -2.941090e+001  -1.579536e+002 
3915625000  -3.066393e+001  -1.573174e+002 
3918750000  -3.073884e+001  -1.550817e+002 
3921875000  -3.034478e+001  -1.567865e+002 
3925000000  -2.950781e+001  -1.573171e+002 
3928125000  -2.882644e+001  -1.634589e+002 
3931250000  -2.914738e+001  -1.672264e+002 
3934375000  -2.939029e+001  -1.669727e+002 
3937500000  -2.951900e+001  -1.678716e+002 
3940625000  -3.001266e+001  -1.677218e+002 
3943750000  -2.919345e+001  -1.665786e+002 
3946875000  -2.786400e+001  -1.720831e+002 
3950000000  -2.825786e+001  -1.786961e+002 
3953125000  -2.926970e+001  -1.783667e+002 
3956250000  -2.840366e+001  -1.761414e+002 
3959375000  -2.717039e+001  -1.793410e+002 
3962500000  -2.658856e+001  1.770768e+002 
3965625000  -2.624176e+001  1.683445e+002 
3968750000  -2.708359e+001  1.613103e+002 
3971875000  -2.752317e+001  1.596627e+002 
3975000000  -2.693048e+001  1.579664e+002 
3978125000  -2.668853e+001  1.566747e+002 
3981250000  -2.646175e+001  1.525470e+002 
3984375000  -2.662674e+001  1.464757e+002 
3987500000  -2.709992e+001  1.442688e+002 
3990625000  -2.707364e+001  1.431415e+002 
3993750000  -2.728247e+001  1.399461e+002 
3996875000  -2.731081e+001  1.376248e+002 
4000000000  -2.729736e+001  1.355473e+002 
4003125000  -2.797737e+001  1.373843e+002 
4006250000  -2.662259e+001  1.380765e+002 
4009375000  -2.536637e+001  1.262862e+002 
4012500000  -2.631372e+001  1.192192e+002 
4015625000  -2.747842e+001  1.188924e+002 
4018750000  -2.775212e+001  1.210545e+002 
4021875000  -2.708480e+001  1.199987e+002 
4025000000  -2.674987e+001  1.154490e+002 
4028125000  -2.657855e+001  1.111430e+002 
4031250000  -2.701725e+001  1.076216e+002 
4034375000  -2.731835e+001  1.073882e+002 
4037500000  -2.681602e+001  1.086397e+002 
4040625000  -2.673699e+001  1.055770e+002 
4043750000  -2.709481e+001  1.055319e+002 
4046875000  -2.661183e+001  1.050009e+002 
4050000000  -2.611961e+001  9.915366e+001 
4053125000  -2.649104e+001  9.696797e+001 
4056250000  -2.714166e+001  1.003075e+002 
4059375000  -2.613471e+001  1.024129e+002 
4062500000  -2.471153e+001  9.842236e+001 
4065625000  -2.454605e+001  9.421941e+001 
4068750000  -2.425616e+001  8.970327e+001 
4071875000  -2.355180e+001  8.208089e+001 
4075000000  -2.391734e+001  7.559376e+001 
4078125000  -2.439136e+001  7.442219e+001 
4081250000  -2.397115e+001  7.190236e+001 
4084375000  -2.353615e+001  6.530746e+001 
4087500000  -2.385678e+001  5.885149e+001 
4090625000  -2.447742e+001  5.743510e+001 
4093750000  -2.433413e+001  5.860587e+001 
4096875000  -2.387485e+001  5.297383e+001 
4100000000  -2.453313e+001  4.576830e+001 
4103125000  -2.537076e+001  4.622702e+001 
4106250000  -2.525286e+001  5.077371e+001 
4109375000  -2.440281e+001  5.053482e+001 
4112500000  -2.382824e+001  4.390048e+001 
4115625000  -2.408018e+001  3.944221e+001 
4118750000  -2.422366e+001  3.639857e+001 
4121875000  -2.393434e+001  3.192743e+001 
4125000000  -2.422381e+001  2.710747e+001 
4128125000  -2.519891e+001  2.702366e+001 
4131250000  -2.487344e+001  3.531786e+001 
4134375000  -2.263244e+001  3.102986e+001 
4137500000  -2.228714e+001  1.214745e+001 
4140625000  -2.438029e+001  4.582852e+000 
4143750000  -2.578389e+001  9.429976e+000 
4146875000  -2.535123e+001  1.665338e+001 
4150000000  -2.443950e+001  1.364417e+001 
4153125000  -2.426658e+001  7.302078e+000 
4156250000  -2.508188e+001  4.356338e+000 
4159375000  -2.546494e+001  8.566654e+000 
4162500000  -2.426983e+001  1.263124e+001 
4165625000  -2.317601e+001  9.032965e+000 
4168750000  -2.254096e+001  1.934167e+000 
4171875000  -2.248432e+001  -7.421458e+000 
4175000000  -2.301079e+001  -1.355555e+001 
4178125000  -2.363188e+001  -1.348754e+001 
4181250000  -2.357850e+001  -1.412487e+001 
4184375000  -2.341597e+001  -1.739793e+001 
4187500000  -2.341601e+001  -2.006915e+001 
4190625000  -2.329217e+001  -2.550700e+001 
4193750000  -2.399870e+001  -2.950259e+001 
4196875000  -2.481392e+001  -2.961807e+001 
4200000000  -2.551602e+001  -2.768690e+001 
4203125000  -2.562802e+001  -1.517876e+001 
4206250000  -2.244266e+001  -1.329596e+001 
4209375000  -2.115376e+001  -3.288287e+001 
4212500000  -2.309566e+001  -4.185904e+001 
4215625000  -2.406017e+001  -3.554393e+001 
4218750000  -2.268586e+001  -2.840863e+001 
4221875000  -2.033342e+001  -3.787574e+001 
4225000000  -2.145867e+001  -5.127329e+001 
4228125000  -2.229604e+001  -4.653666e+001 
4231250000  -2.088553e+001  -4.973005e+001 
4234375000  -2.068978e+001  -5.810385e+001 
4237500000  -2.030007e+001  -6.182553e+001 
4240625000  -2.032455e+001  -7.019732e+001 
4243750000  -2.134354e+001  -7.625092e+001 
4246875000  -2.210489e+001  -7.645498e+001 
4250000000  -2.219391e+001  -7.381705e+001 
4253125000  -2.154044e+001  -7.568068e+001 
4256250000  -2.174245e+001  -8.027550e+001 
4259375000  -2.157883e+001  -8.235535e+001 
4262500000  -2.161181e+001  -8.574735e+001 
4265625000  -2.173900e+001  -8.596711e+001 
4268750000  -2.097951e+001  -8.946465e+001 
4271875000  -2.068857e+001  -9.468728e+001 
4275000000  -2.000903e+001  -1.012439e+002 
4278125000  -2.051229e+001  -1.129949e+002 
4281250000  -2.223980e+001  -1.156350e+002 
4284375000  -2.205439e+001  -1.149250e+002 
4287500000  -2.285866e+001  -1.187453e+002 
4290625000  -2.424522e+001  -1.090736e+002 
4293750000  -2.233113e+001  -1.028710e+002 
4296875000  -2.092548e+001  -1.142174e+002 
4300000000  -2.169381e+001  -1.233107e+002 
4303125000  -2.274201e+001  -1.226411e+002 
4306250000  -2.215699e+001  -1.166572e+002 
4309375000  -2.077105e+001  -1.190422e+002 
4312500000  -2.070050e+001  -1.276372e+002 
4315625000  -2.099619e+001  -1.333794e+002 
4318750000  -2.128098e+001  -1.367474e+002 
4321875000  -2.145952e+001  -1.362491e+002 
4325000000  -2.083284e+001  -1.360183e+002 
4328125000  -2.034590e+001  -1.426031e+002 
4331250000  -2.035930e+001  -1.503063e+002 
4334375000  -2.080301e+001  -1.550041e+002 
4337500000  -2.153787e+001  -1.575059e+002 
4340625000  -2.201543e+001  -1.550005e+002 
4343750000  -2.155802e+001  -1.541962e+002 
4346875000  -2.117426e+001  -1.590316e+002 
4350000000  -2.109765e+001  -1.636741e+002 
4353125000  -2.107023e+001  -1.718543e+002 
4356250000  -2.270955e+001  -1.737476e+002 
4359375000  -2.349068e+001  -1.612784e+002 
4362500000  -2.105020e+001  -1.584340e+002 
4365625000  -1.940428e+001  -1.694083e+002 
4368750000  -1.997263e+001  1.786542e+002 
4371875000  -2.115081e+001  1.787712e+002 
4375000000  -2.089556e+001  1.798391e+002 
4378125000  -2.026292e+001  1.744629e+002 
4381250000  -2.038790e+001  1.691994e+002 
4384375000  -2.017122e+001  1.647682e+002 
4387500000  -2.077818e+001  1.586351e+002 
4390625000  -2.183963e+001  1.589879e+002 
4393750000  -2.130881e+001  1.614684e+002 
4396875000  -2.059452e+001  1.592779e+002 
4400000000  -2.018022e+001  1.526238e+002 
4403125000  -2.062308e+001  1.448478e+002 
4406250000  -2.144484e+001  1.432223e+002 
4409375000  -2.142262e+001  1.408562e+002 
4412500000  -2.230457e+001  1.379619e+002 
4415625000  -2.285632e+001  1.422444e+002 
4418750000  -2.179679e+001  1.475954e+002 
