!Agilent Technologies,E8363B,MY43030201,A.06.04.32
!Agilent E8363B: A.06.04.32
!Date: Tuesday, November 11, 2014 20:58:41
!Correction: S21(Response(S21)) 
!S1P File: Measurement: S21:
# Hz S  dB   R 50
3000000000  -2.652450e+001  1.463845e+002 
3003125000  -2.794502e+001  1.416060e+002 
3006250000  -2.798564e+001  1.391763e+002 
3009375000  -2.838525e+001  1.442879e+002 
3012500000  -2.774371e+001  1.438239e+002 
3015625000  -2.684389e+001  1.368663e+002 
3018750000  -2.767753e+001  1.359831e+002 
3021875000  -2.640383e+001  1.373463e+002 
3025000000  -2.508820e+001  1.343808e+002 
3028125000  -2.411972e+001  1.289987e+002 
3031250000  -2.305269e+001  1.177650e+002 
3034375000  -2.272223e+001  1.046237e+002 
3037500000  -2.314606e+001  9.281948e+001 
3040625000  -2.448952e+001  8.800311e+001 
3043750000  -2.514738e+001  8.331055e+001 
3046875000  -2.528764e+001  7.729960e+001 
3050000000  -2.704443e+001  7.055402e+001 
3053125000  -2.710597e+001  7.700156e+001 
3056250000  -2.650765e+001  8.023849e+001 
3059375000  -2.668288e+001  7.953818e+001 
3062500000  -2.517262e+001  7.573276e+001 
3065625000  -2.497277e+001  6.978878e+001 
3068750000  -2.467052e+001  6.298101e+001 
3071875000  -2.462930e+001  6.014419e+001 
3075000000  -2.458615e+001  5.595864e+001 
3078125000  -2.430041e+001  5.159143e+001 
3081250000  -2.494715e+001  4.743794e+001 
3084375000  -2.417669e+001  4.376559e+001 
3087500000  -2.410875e+001  3.994920e+001 
3090625000  -2.379984e+001  2.991299e+001 
3093750000  -2.430137e+001  2.234434e+001 
3096875000  -2.554174e+001  1.637861e+001 
3100000000  -2.567868e+001  1.522771e+001 
3103125000  -2.605313e+001  1.645892e+001 
3106250000  -2.578959e+001  1.275837e+001 
3109375000  -2.600983e+001  9.151954e+000 
3112500000  -2.613796e+001  8.051141e+000 
3115625000  -2.590778e+001  4.163682e+000 
3118750000  -2.641259e+001  5.350791e+000 
3121875000  -2.571538e+001  -2.783638e+000 
3125000000  -2.697172e+001  -6.167069e+000 
3128125000  -2.812555e+001  2.087468e+000 
3131250000  -2.586919e+001  2.069772e+000 
3134375000  -2.465277e+001  -1.131317e+001 
3137500000  -2.529072e+001  -2.494535e+001 
3140625000  -2.690458e+001  -2.619599e+001 
3143750000  -2.789845e+001  -2.265536e+001 
3146875000  -2.746770e+001  -2.026424e+001 
3150000000  -2.644043e+001  -1.817207e+001 
3153125000  -2.647611e+001  -2.617387e+001 
3156250000  -2.745100e+001  -2.024491e+001 
3159375000  -2.583866e+001  -1.758336e+001 
3162500000  -2.383753e+001  -3.063996e+001 
3165625000  -2.478660e+001  -4.162375e+001 
3168750000  -2.512025e+001  -4.054165e+001 
3171875000  -2.422623e+001  -4.492260e+001 
3175000000  -2.488169e+001  -5.278761e+001 
3178125000  -2.461221e+001  -5.086546e+001 
3181250000  -2.347525e+001  -5.537951e+001 
3184375000  -2.270981e+001  -6.737748e+001 
3187500000  -2.387308e+001  -8.250740e+001 
3190625000  -2.663136e+001  -8.953457e+001 
3193750000  -2.713768e+001  -7.979549e+001 
3196875000  -2.671947e+001  -7.462768e+001 
3200000000  -2.583260e+001  -7.671110e+001 
3203125000  -2.498565e+001  -8.259760e+001 
3206250000  -2.529662e+001  -8.878676e+001 
3209375000  -2.481131e+001  -9.391675e+001 
3212500000  -2.498220e+001  -1.002296e+002 
3215625000  -2.508190e+001  -1.042011e+002 
3218750000  -2.592712e+001  -1.105941e+002 
3221875000  -2.682573e+001  -1.161253e+002 
3225000000  -2.638576e+001  -1.164152e+002 
3228125000  -2.677274e+001  -1.211107e+002 
3231250000  -2.752106e+001  -1.235368e+002 
3234375000  -2.734091e+001  -1.225862e+002 
3237500000  -2.734992e+001  -1.242371e+002 
3240625000  -2.705752e+001  -1.264347e+002 
3243750000  -2.673438e+001  -1.328384e+002 
3246875000  -2.717678e+001  -1.390814e+002 
3250000000  -2.760892e+001  -1.410846e+002 
3253125000  -2.783415e+001  -1.425873e+002 
3256250000  -2.766741e+001  -1.485356e+002 
3259375000  -2.793938e+001  -1.565523e+002 
3262500000  -2.929219e+001  -1.589597e+002 
3265625000  -2.991220e+001  -1.552939e+002 
3268750000  -2.991156e+001  -1.525255e+002 
3271875000  -2.961084e+001  -1.519591e+002 
3275000000  -2.854819e+001  -1.572415e+002 
3278125000  -2.902162e+001  -1.633280e+002 
3281250000  -2.926265e+001  -1.612738e+002 
3284375000  -2.887467e+001  -1.672580e+002 
3287500000  -2.899948e+001  -1.699190e+002 
3290625000  -2.941831e+001  -1.740108e+002 
3293750000  -2.911666e+001  -1.799198e+002 
3296875000  -3.015730e+001  -1.798241e+002 
3300000000  -2.994361e+001  -1.789525e+002 
3303125000  -2.888794e+001  1.770629e+002 
3306250000  -2.861068e+001  1.704082e+002 
3309375000  -2.837255e+001  1.653235e+002 
3312500000  -2.847392e+001  1.551197e+002 
3315625000  -2.955151e+001  1.475695e+002 
3318750000  -3.091712e+001  1.449543e+002 
3321875000  -3.203059e+001  1.447026e+002 
3325000000  -3.266740e+001  1.509513e+002 
3328125000  -3.240567e+001  1.523830e+002 
3331250000  -3.107070e+001  1.600984e+002 
3334375000  -2.859317e+001  1.495084e+002 
3337500000  -2.863060e+001  1.303787e+002 
3340625000  -3.007764e+001  1.200251e+002 
3343750000  -3.204159e+001  1.189495e+002 
3346875000  -3.241649e+001  1.205411e+002 
3350000000  -3.179373e+001  1.192136e+002 
3353125000  -3.190977e+001  1.149446e+002 
3356250000  -3.160576e+001  1.068669e+002 
3359375000  -3.251743e+001  9.833595e+001 
3362500000  -3.379892e+001  9.335423e+001 
3365625000  -3.455741e+001  9.249392e+001 
3368750000  -3.545591e+001  9.004629e+001 
3371875000  -3.581615e+001  8.656799e+001 
3375000000  -3.732107e+001  8.561401e+001 
3378125000  -3.849007e+001  8.446554e+001 
3381250000  -3.990589e+001  9.351084e+001 
3384375000  -3.883660e+001  1.148970e+002 
3387500000  -3.568019e+001  1.006789e+002 
3390625000  -3.780391e+001  8.013129e+001 
3393750000  -3.945855e+001  8.545857e+001 
3396875000  -3.864256e+001  8.825881e+001 
3400000000  -3.856838e+001  8.050929e+001 
3403125000  -3.945943e+001  7.764874e+001 
3406250000  -4.045884e+001  7.935983e+001 
3409375000  -4.098233e+001  7.478079e+001 
3412500000  -4.177219e+001  7.820787e+001 
3415625000  -4.256342e+001  8.113105e+001 
3418750000  -4.298037e+001  8.496106e+001 
3421875000  -4.328905e+001  9.231540e+001 
3425000000  -4.218749e+001  9.471911e+001 
3428125000  -4.130973e+001  9.389697e+001 
3431250000  -4.117121e+001  8.989217e+001 
3434375000  -4.089004e+001  8.705819e+001 
3437500000  -4.155701e+001  8.491685e+001 
3440625000  -4.210025e+001  8.814285e+001 
3443750000  -4.046574e+001  8.944734e+001 
3446875000  -3.970118e+001  8.513247e+001 
3450000000  -3.971624e+001  7.597583e+001 
3453125000  -3.980097e+001  6.702446e+001 
3456250000  -4.097140e+001  6.225788e+001 
3459375000  -4.231510e+001  6.594052e+001 
3462500000  -4.218399e+001  6.712568e+001 
3465625000  -4.195561e+001  6.358333e+001 
3468750000  -4.261252e+001  5.733239e+001 
3471875000  -4.271889e+001  5.926877e+001 
3475000000  -4.224135e+001  5.611456e+001 
3478125000  -4.327893e+001  4.908960e+001 
3481250000  -4.474105e+001  4.747419e+001 
3484375000  -4.548790e+001  5.265922e+001 
3487500000  -4.539661e+001  5.625956e+001 
3490625000  -4.484217e+001  5.406815e+001 
3493750000  -4.555448e+001  4.827174e+001 
3496875000  -4.661890e+001  5.030697e+001 
3500000000  -4.765574e+001  6.187674e+001 
3503125000  -4.781985e+001  6.446334e+001 
3506250000  -4.641148e+001  6.240729e+001 
3509375000  -4.662735e+001  6.114576e+001 
3512500000  -4.663968e+001  6.118869e+001 
3515625000  -4.775089e+001  6.574404e+001 
3518750000  -4.763392e+001  6.803982e+001 
3521875000  -4.780136e+001  7.227026e+001 
3525000000  -4.800253e+001  7.197227e+001 
3528125000  -4.751379e+001  8.437865e+001 
3531250000  -4.551943e+001  8.696963e+001 
3534375000  -4.544852e+001  7.566809e+001 
3537500000  -4.513890e+001  7.353440e+001 
3540625000  -4.581117e+001  7.402019e+001 
3543750000  -4.576376e+001  7.825277e+001 
3546875000  -4.556186e+001  9.174384e+001 
3550000000  -4.280156e+001  9.312809e+001 
3553125000  -4.106380e+001  7.701264e+001 
3556250000  -4.247507e+001  6.969450e+001 
3559375000  -4.192888e+001  7.242096e+001 
3562500000  -4.086002e+001  6.435856e+001 
3565625000  -4.169598e+001  5.885731e+001 
3568750000  -4.171590e+001  6.214504e+001 
3571875000  -4.142504e+001  6.263918e+001 
3575000000  -4.102879e+001  5.743993e+001 
3578125000  -4.122809e+001  5.506326e+001 
3581250000  -4.168603e+001  5.504792e+001 
3584375000  -4.061523e+001  5.459130e+001 
3587500000  -3.979404e+001  4.627309e+001 
3590625000  -4.031009e+001  3.799131e+001 
3593750000  -4.123938e+001  3.836307e+001 
3596875000  -4.123758e+001  4.630165e+001 
3600000000  -3.949705e+001  4.302938e+001 
3603125000  -3.998422e+001  2.994683e+001 
3606250000  -4.026904e+001  2.756843e+001 
3609375000  -4.087817e+001  2.493872e+001 
3612500000  -4.112512e+001  2.331741e+001 
3615625000  -4.129401e+001  2.143906e+001 
3618750000  -4.204192e+001  2.275529e+001 
3621875000  -4.155649e+001  2.275502e+001 
3625000000  -4.164083e+001  2.285527e+001 
3628125000  -4.131335e+001  2.301173e+001 
3631250000  -4.133564e+001  1.701292e+001 
3634375000  -4.217384e+001  1.982037e+001 
3637500000  -4.201056e+001  2.341133e+001 
3640625000  -4.111489e+001  2.638677e+001 
3643750000  -4.062466e+001  2.103245e+001 
3646875000  -4.098361e+001  1.361691e+001 
3650000000  -4.136600e+001  1.307381e+001 
3653125000  -4.144126e+001  1.273813e+001 
3656250000  -4.166010e+001  1.279095e+001 
3659375000  -4.175821e+001  1.565496e+001 
3662500000  -4.109840e+001  1.430456e+001 
3665625000  -4.134810e+001  1.385712e+001 
3668750000  -4.015776e+001  1.696002e+001 
3671875000  -3.928359e+001  1.191465e+001 
3675000000  -3.966801e+001  6.038134e+000 
3678125000  -4.028024e+001  8.322176e+000 
3681250000  -3.967976e+001  7.834494e+000 
3684375000  -3.954945e+001  5.178626e+000 
3687500000  -3.970136e+001  4.856593e+000 
3690625000  -3.991225e+001  2.566514e+000 
3693750000  -4.021559e+001  5.169466e+000 
3696875000  -4.032100e+001  8.649792e+000 
3700000000  -3.885939e+001  6.127379e+000 
3703125000  -3.876219e+001  2.056261e+000 
3706250000  -3.939866e+001  5.149958e+000 
3709375000  -3.875002e+001  7.225236e+000 
3712500000  -3.764319e+001  6.778613e+000 
3715625000  -3.631038e+001  1.978094e+000 
3718750000  -3.565362e+001  -1.461659e+000 
3721875000  -3.534950e+001  -6.112325e+000 
3725000000  -3.530738e+001  -1.081833e+001 
3728125000  -3.545126e+001  -1.128026e+001 
3731250000  -3.452848e+001  -1.202194e+001 
3734375000  -3.378496e+001  -1.820521e+001 
3737500000  -3.428257e+001  -2.596287e+001 
3740625000  -3.493096e+001  -2.907053e+001 
3743750000  -3.458592e+001  -3.102986e+001 
3746875000  -3.448003e+001  -3.452746e+001 
3750000000  -3.490276e+001  -3.511506e+001 
3753125000  -3.463184e+001  -3.516787e+001 
3756250000  -3.463147e+001  -3.582388e+001 
3759375000  -3.423748e+001  -3.709041e+001 
3762500000  -3.382446e+001  -4.096939e+001 
3765625000  -3.429506e+001  -4.264499e+001 
3768750000  -3.430940e+001  -4.174591e+001 
3771875000  -3.245660e+001  -4.307724e+001 
3775000000  -3.226513e+001  -5.155791e+001 
3778125000  -3.258416e+001  -5.298079e+001 
3781250000  -3.240362e+001  -5.632310e+001 
3784375000  -3.241208e+001  -5.833102e+001 
3787500000  -3.163816e+001  -6.188619e+001 
3790625000  -3.223439e+001  -6.742289e+001 
3793750000  -3.245883e+001  -6.815194e+001 
3796875000  -3.144075e+001  -6.915658e+001 
3800000000  -2.985834e+001  -7.310987e+001 
3803125000  -3.075862e+001  -7.983994e+001 
3806250000  -3.137278e+001  -8.238692e+001 
3809375000  -3.118190e+001  -8.322726e+001 
3812500000  -3.040327e+001  -8.829876e+001 
3815625000  -3.105653e+001  -9.607881e+001 
3818750000  -3.213772e+001  -9.705618e+001 
3821875000  -3.203862e+001  -8.818162e+001 
3825000000  -3.007115e+001  -8.389413e+001 
3828125000  -2.874242e+001  -9.831783e+001 
3831250000  -2.934399e+001  -1.125509e+002 
3834375000  -3.069049e+001  -1.134422e+002 
3837500000  -3.152156e+001  -1.073024e+002 
3840625000  -3.035220e+001  -1.087075e+002 
3843750000  -2.920761e+001  -1.192368e+002 
3846875000  -3.003272e+001  -1.266375e+002 
3850000000  -3.130176e+001  -1.208888e+002 
3853125000  -3.041758e+001  -1.177194e+002 
3856250000  -3.029516e+001  -1.224200e+002 
3859375000  -2.965298e+001  -1.278732e+002 
3862500000  -2.922931e+001  -1.346166e+002 
3865625000  -2.945597e+001  -1.393625e+002 
3868750000  -2.958093e+001  -1.396172e+002 
3871875000  -2.883119e+001  -1.423786e+002 
3875000000  -2.897276e+001  -1.513727e+002 
3878125000  -2.995325e+001  -1.537006e+002 
3881250000  -3.008554e+001  -1.505661e+002 
3884375000  -2.959309e+001  -1.561974e+002 
3887500000  -2.972187e+001  -1.601600e+002 
3890625000  -3.019353e+001  -1.624607e+002 
3893750000  -3.060598e+001  -1.633850e+002 
3896875000  -3.079661e+001  -1.624224e+002 
3900000000  -3.108134e+001  -1.633076e+002 
3903125000  -3.059552e+001  -1.653142e+002 
3906250000  -3.034569e+001  -1.666608e+002 
3909375000  -2.957756e+001  -1.698233e+002 
3912500000  -2.973223e+001  -1.763713e+002 
3915625000  -3.097239e+001  -1.759700e+002 
3918750000  -3.091692e+001  -1.743033e+002 
3921875000  -3.051991e+001  -1.755391e+002 
3925000000  -2.978888e+001  -1.758377e+002 
3928125000  -2.908717e+001  1.777716e+002 
3931250000  -2.958860e+001  1.740170e+002 
3934375000  -2.985978e+001  1.738195e+002 
3937500000  -3.005448e+001  1.733662e+002 
3940625000  -3.037519e+001  1.737606e+002 
3943750000  -2.946772e+001  1.751622e+002 
3946875000  -2.828578e+001  1.699421e+002 
3950000000  -2.871430e+001  1.622453e+002 
3953125000  -2.968130e+001  1.627733e+002 
3956250000  -2.882395e+001  1.661486e+002 
3959375000  -2.748178e+001  1.626496e+002 
3962500000  -2.695235e+001  1.585920e+002 
3965625000  -2.661311e+001  1.496420e+002 
3968750000  -2.753409e+001  1.431103e+002 
3971875000  -2.784211e+001  1.417037e+002 
3975000000  -2.721866e+001  1.402885e+002 
3978125000  -2.706771e+001  1.383373e+002 
3981250000  -2.678691e+001  1.337308e+002 
3984375000  -2.708669e+001  1.277180e+002 
3987500000  -2.759949e+001  1.255387e+002 
3990625000  -2.756582e+001  1.245795e+002 
3993750000  -2.774879e+001  1.208542e+002 
3996875000  -2.769815e+001  1.191954e+002 
4000000000  -2.783003e+001  1.170176e+002 
4003125000  -2.837883e+001  1.191374e+002 
4006250000  -2.695599e+001  1.194571e+002 
4009375000  -2.580737e+001  1.068208e+002 
4012500000  -2.692159e+001  9.980601e+001 
4015625000  -2.819324e+001  1.003488e+002 
4018750000  -2.828528e+001  1.023909e+002 
4021875000  -2.756455e+001  1.010923e+002 
4025000000  -2.731690e+001  9.643120e+001 
4028125000  -2.720385e+001  9.208892e+001 
4031250000  -2.775038e+001  8.885095e+001 
4034375000  -2.805094e+001  8.887398e+001 
4037500000  -2.753405e+001  9.124979e+001 
4040625000  -2.744786e+001  8.773165e+001 
4043750000  -2.775949e+001  8.710382e+001 
4046875000  -2.736604e+001  8.689903e+001 
4050000000  -2.680558e+001  8.180150e+001 
4053125000  -2.730746e+001  7.962153e+001 
4056250000  -2.785799e+001  8.353737e+001 
4059375000  -2.660279e+001  8.583285e+001 
4062500000  -2.523613e+001  8.130595e+001 
4065625000  -2.514601e+001  7.644139e+001 
4068750000  -2.485923e+001  7.163278e+001 
4071875000  -2.416923e+001  6.360858e+001 
4075000000  -2.456854e+001  5.760598e+001 
4078125000  -2.512425e+001  5.661626e+001 
4081250000  -2.459132e+001  5.430058e+001 
4084375000  -2.418536e+001  4.759760e+001 
4087500000  -2.456441e+001  4.099026e+001 
4090625000  -2.515958e+001  4.030780e+001 
4093750000  -2.497972e+001  4.114938e+001 
4096875000  -2.451086e+001  3.490903e+001 
4100000000  -2.519896e+001  2.800328e+001 
4103125000  -2.609140e+001  2.920248e+001 
4106250000  -2.591671e+001  3.388697e+001 
4109375000  -2.501420e+001  3.310387e+001 
4112500000  -2.454922e+001  2.643778e+001 
4115625000  -2.480968e+001  2.184787e+001 
4118750000  -2.487258e+001  1.915889e+001 
4121875000  -2.450437e+001  1.438967e+001 
4125000000  -2.490292e+001  9.049895e+000 
4128125000  -2.592332e+001  9.877088e+000 
4131250000  -2.559656e+001  1.774900e+001 
4134375000  -2.324087e+001  1.255589e+001 
4137500000  -2.310852e+001  -5.964775e+000 
4140625000  -2.526311e+001  -1.269409e+001 
4143750000  -2.659240e+001  -7.635286e+000 
4146875000  -2.617844e+001  -1.308188e-001 
4150000000  -2.516550e+001  -4.301349e+000 
4153125000  -2.506821e+001  -1.056065e+001 
4156250000  -2.600365e+001  -1.282925e+001 
4159375000  -2.620416e+001  -8.521992e+000 
4162500000  -2.508944e+001  -4.292256e+000 
4165625000  -2.394077e+001  -8.044687e+000 
4168750000  -2.328280e+001  -1.560022e+001 
4171875000  -2.336401e+001  -2.456753e+001 
4175000000  -2.397287e+001  -3.028657e+001 
4178125000  -2.453755e+001  -3.011452e+001 
4181250000  -2.444907e+001  -3.101429e+001 
4184375000  -2.428442e+001  -3.386061e+001 
4187500000  -2.437143e+001  -3.691187e+001 
4190625000  -2.413560e+001  -4.241211e+001 
4193750000  -2.498789e+001  -4.588518e+001 
4196875000  -2.569218e+001  -4.614748e+001 
4200000000  -2.664127e+001  -4.359015e+001 
4203125000  -2.651992e+001  -2.984095e+001 
4206250000  -2.309744e+001  -2.876579e+001 
4209375000  -2.193226e+001  -4.953866e+001 
4212500000  -2.391464e+001  -5.839143e+001 
4215625000  -2.488318e+001  -5.179630e+001 
4218750000  -2.349870e+001  -4.553919e+001 
4221875000  -2.127366e+001  -5.455222e+001 
4225000000  -2.254958e+001  -6.697010e+001 
4228125000  -2.313117e+001  -6.160781e+001 
4231250000  -2.157128e+001  -6.559703e+001 
4234375000  -2.150727e+001  -7.426647e+001 
4237500000  -2.110780e+001  -7.737497e+001 
4240625000  -2.108197e+001  -8.586088e+001 
4243750000  -2.209093e+001  -9.268106e+001 
4246875000  -2.298946e+001  -9.276467e+001 
4250000000  -2.300053e+001  -8.993484e+001 
4253125000  -2.245298e+001  -9.173090e+001 
4256250000  -2.274179e+001  -9.607707e+001 
4259375000  -2.243267e+001  -9.791857e+001 
4262500000  -2.250319e+001  -1.019703e+002 
4265625000  -2.263288e+001  -1.014129e+002 
4268750000  -2.176006e+001  -1.054126e+002 
4271875000  -2.148921e+001  -1.111989e+002 
4275000000  -2.091770e+001  -1.181053e+002 
4278125000  -2.157861e+001  -1.289812e+002 
4281250000  -2.334444e+001  -1.310131e+002 
4284375000  -2.300312e+001  -1.301498e+002 
4287500000  -2.388957e+001  -1.338778e+002 
4290625000  -2.501968e+001  -1.241192e+002 
4293750000  -2.307724e+001  -1.186223e+002 
4296875000  -2.171426e+001  -1.302374e+002 
4300000000  -2.262329e+001  -1.394927e+002 
4303125000  -2.377419e+001  -1.375602e+002 
4306250000  -2.305380e+001  -1.316973e+002 
4309375000  -2.168154e+001  -1.341944e+002 
4312500000  -2.154948e+001  -1.426512e+002 
4315625000  -2.177175e+001  -1.484871e+002 
4318750000  -2.217016e+001  -1.519443e+002 
4321875000  -2.228716e+001  -1.510677e+002 
4325000000  -2.171180e+001  -1.506523e+002 
4328125000  -2.119530e+001  -1.570340e+002 
4331250000  -2.114043e+001  -1.652799e+002 
4334375000  -2.158542e+001  -1.700296e+002 
4337500000  -2.242284e+001  -1.722463e+002 
4340625000  -2.298076e+001  -1.684632e+002 
4343750000  -2.236364e+001  -1.684293e+002 
4346875000  -2.200136e+001  -1.744308e+002 
4350000000  -2.198920e+001  -1.787466e+002 
4353125000  -2.208816e+001  1.737891e+002 
4356250000  -2.385622e+001  1.731320e+002 
4359375000  -2.445688e+001  -1.728400e+002 
4362500000  -2.160147e+001  -1.717126e+002 
4365625000  -2.001274e+001  1.759879e+002 
4368750000  -2.078877e+001  1.643561e+002 
4371875000  -2.200924e+001  1.649235e+002 
4375000000  -2.162124e+001  1.658447e+002 
4378125000  -2.096607e+001  1.600943e+002 
4381250000  -2.118426e+001  1.545050e+002 
4384375000  -2.097554e+001  1.501971e+002 
4387500000  -2.174341e+001  1.445035e+002 
4390625000  -2.273347e+001  1.453568e+002 
4393750000  -2.204353e+001  1.473678e+002 
4396875000  -2.142872e+001  1.451782e+002 
4400000000  -2.087511e+001  1.380067e+002 
4403125000  -2.149400e+001  1.305206e+002 
4406250000  -2.230455e+001  1.293986e+002 
4409375000  -2.231839e+001  1.270170e+002 
4412500000  -2.333304e+001  1.244291e+002 
4415625000  -2.368834e+001  1.292771e+002 
4418750000  -2.246098e+001  1.340981e+002 
