!Agilent Technologies,E8363B,MY43030201,A.06.04.32
!Agilent E8363B: A.06.04.32
!Date: Tuesday, November 11, 2014 20:56:24
!Correction: S21(Response(S21)) 
!S1P File: Measurement: S21:
# Hz S  dB   R 50
3000000000  -2.649453e+001  1.475530e+002 
3003125000  -2.792548e+001  1.428137e+002 
3006250000  -2.799161e+001  1.401624e+002 
3009375000  -2.834122e+001  1.455201e+002 
3012500000  -2.775338e+001  1.447750e+002 
3015625000  -2.681822e+001  1.377298e+002 
3018750000  -2.770015e+001  1.372532e+002 
3021875000  -2.640713e+001  1.384329e+002 
3025000000  -2.508945e+001  1.353347e+002 
3028125000  -2.410573e+001  1.299601e+002 
3031250000  -2.309593e+001  1.189895e+002 
3034375000  -2.274796e+001  1.059140e+002 
3037500000  -2.311876e+001  9.398397e+001 
3040625000  -2.447500e+001  8.909173e+001 
3043750000  -2.515364e+001  8.481223e+001 
3046875000  -2.530367e+001  7.845139e+001 
3050000000  -2.703714e+001  7.158407e+001 
3053125000  -2.707094e+001  7.822546e+001 
3056250000  -2.644489e+001  8.137722e+001 
3059375000  -2.670338e+001  8.083668e+001 
3062500000  -2.523095e+001  7.681729e+001 
3065625000  -2.501469e+001  7.114971e+001 
3068750000  -2.469345e+001  6.424846e+001 
3071875000  -2.464722e+001  6.124289e+001 
3075000000  -2.459117e+001  5.741951e+001 
3078125000  -2.435284e+001  5.291201e+001 
3081250000  -2.497643e+001  4.872885e+001 
3084375000  -2.420381e+001  4.502176e+001 
3087500000  -2.410825e+001  4.128704e+001 
3090625000  -2.379669e+001  3.141352e+001 
3093750000  -2.428052e+001  2.355048e+001 
3096875000  -2.557671e+001  1.763017e+001 
3100000000  -2.568957e+001  1.662918e+001 
3103125000  -2.605465e+001  1.766618e+001 
3106250000  -2.581689e+001  1.412802e+001 
3109375000  -2.605431e+001  1.068211e+001 
3112500000  -2.615903e+001  9.555709e+000 
3115625000  -2.594606e+001  5.204025e+000 
3118750000  -2.645493e+001  6.622329e+000 
3121875000  -2.574877e+001  -1.481130e+000 
3125000000  -2.699427e+001  -4.754961e+000 
3128125000  -2.819759e+001  3.483347e+000 
3131250000  -2.595425e+001  3.750229e+000 
3134375000  -2.463601e+001  -9.924602e+000 
3137500000  -2.529864e+001  -2.357076e+001 
3140625000  -2.691743e+001  -2.503591e+001 
3143750000  -2.797380e+001  -2.098806e+001 
3146875000  -2.751071e+001  -1.911757e+001 
3150000000  -2.647955e+001  -1.680413e+001 
3153125000  -2.647805e+001  -2.489663e+001 
3156250000  -2.748921e+001  -1.888082e+001 
3159375000  -2.587234e+001  -1.633490e+001 
3162500000  -2.386226e+001  -2.938885e+001 
3165625000  -2.483852e+001  -4.018904e+001 
3168750000  -2.516853e+001  -3.925879e+001 
3171875000  -2.422921e+001  -4.350242e+001 
3175000000  -2.491419e+001  -5.117556e+001 
3178125000  -2.465380e+001  -4.955283e+001 
3181250000  -2.349802e+001  -5.356790e+001 
3184375000  -2.273809e+001  -6.610423e+001 
3187500000  -2.386438e+001  -8.101175e+001 
3190625000  -2.659764e+001  -8.804790e+001 
3193750000  -2.715699e+001  -7.886269e+001 
3196875000  -2.675845e+001  -7.337064e+001 
3200000000  -2.584738e+001  -7.520021e+001 
3203125000  -2.503191e+001  -8.125058e+001 
3206250000  -2.529897e+001  -8.733186e+001 
3209375000  -2.485943e+001  -9.234531e+001 
3212500000  -2.501156e+001  -9.908527e+001 
3215625000  -2.514016e+001  -1.031017e+002 
3218750000  -2.589603e+001  -1.094621e+002 
3221875000  -2.687501e+001  -1.145600e+002 
3225000000  -2.644138e+001  -1.152165e+002 
3228125000  -2.679383e+001  -1.198886e+002 
3231250000  -2.750199e+001  -1.221131e+002 
3234375000  -2.738068e+001  -1.210965e+002 
3237500000  -2.745963e+001  -1.228330e+002 
3240625000  -2.709484e+001  -1.247614e+002 
3243750000  -2.675319e+001  -1.315522e+002 
3246875000  -2.721400e+001  -1.379096e+002 
3250000000  -2.766042e+001  -1.397430e+002 
3253125000  -2.781369e+001  -1.412975e+002 
3256250000  -2.772404e+001  -1.467784e+002 
3259375000  -2.803475e+001  -1.548783e+002 
3262500000  -2.930812e+001  -1.572915e+002 
3265625000  -2.987480e+001  -1.540555e+002 
3268750000  -2.988520e+001  -1.514487e+002 
3271875000  -2.967646e+001  -1.503935e+002 
3275000000  -2.857747e+001  -1.555870e+002 
3278125000  -2.904826e+001  -1.618983e+002 
3281250000  -2.937609e+001  -1.600929e+002 
3284375000  -2.890848e+001  -1.661007e+002 
3287500000  -2.908191e+001  -1.686003e+002 
3290625000  -2.947054e+001  -1.728107e+002 
3293750000  -2.917005e+001  -1.782798e+002 
3296875000  -3.021049e+001  -1.787504e+002 
3300000000  -3.005889e+001  -1.772605e+002 
3303125000  -2.891504e+001  1.788234e+002 
3306250000  -2.867568e+001  1.720518e+002 
3309375000  -2.850816e+001  1.669809e+002 
3312500000  -2.850768e+001  1.563919e+002 
3315625000  -2.957435e+001  1.488276e+002 
3318750000  -3.088954e+001  1.462038e+002 
3321875000  -3.212904e+001  1.463871e+002 
3325000000  -3.267527e+001  1.513913e+002 
3328125000  -3.258050e+001  1.529609e+002 
3331250000  -3.128511e+001  1.609125e+002 
3334375000  -2.864953e+001  1.506780e+002 
3337500000  -2.880124e+001  1.318889e+002 
3340625000  -3.018767e+001  1.209980e+002 
3343750000  -3.207219e+001  1.203584e+002 
3346875000  -3.259371e+001  1.217126e+002 
3350000000  -3.193628e+001  1.205905e+002 
3353125000  -3.203774e+001  1.157781e+002 
3356250000  -3.181814e+001  1.083710e+002 
3359375000  -3.260824e+001  1.000478e+002 
3362500000  -3.386184e+001  9.466881e+001 
3365625000  -3.465291e+001  9.270167e+001 
3368750000  -3.551046e+001  9.089492e+001 
3371875000  -3.590591e+001  8.790705e+001 
3375000000  -3.741544e+001  8.606334e+001 
3378125000  -3.861597e+001  8.560127e+001 
3381250000  -4.000925e+001  9.401289e+001 
3384375000  -3.959414e+001  1.156818e+002 
3387500000  -3.605793e+001  1.012998e+002 
3390625000  -3.782530e+001  7.978181e+001 
3393750000  -3.972332e+001  8.683768e+001 
3396875000  -3.876684e+001  8.966129e+001 
3400000000  -3.871035e+001  8.268283e+001 
3403125000  -3.982836e+001  7.873177e+001 
3406250000  -4.061613e+001  8.037038e+001 
3409375000  -4.127967e+001  7.771922e+001 
3412500000  -4.208141e+001  7.847085e+001 
3415625000  -4.301668e+001  8.291477e+001 
3418750000  -4.325369e+001  8.791515e+001 
3421875000  -4.346808e+001  9.233636e+001 
3425000000  -4.246462e+001  9.793516e+001 
3428125000  -4.159998e+001  9.675099e+001 
3431250000  -4.152588e+001  9.190617e+001 
3434375000  -4.133938e+001  8.869634e+001 
3437500000  -4.181514e+001  8.790552e+001 
3440625000  -4.212980e+001  9.158113e+001 
3443750000  -4.091239e+001  9.367667e+001 
3446875000  -3.985343e+001  8.801949e+001 
3450000000  -3.982956e+001  7.802010e+001 
3453125000  -4.003265e+001  6.906765e+001 
3456250000  -4.110406e+001  6.547758e+001 
3459375000  -4.215106e+001  6.685398e+001 
3462500000  -4.229765e+001  6.672119e+001 
3465625000  -4.210405e+001  6.371960e+001 
3468750000  -4.281095e+001  6.124554e+001 
3471875000  -4.287764e+001  6.140181e+001 
3475000000  -4.253056e+001  5.848190e+001 
3478125000  -4.351738e+001  5.139549e+001 
3481250000  -4.463265e+001  5.159365e+001 
3484375000  -4.638267e+001  5.542002e+001 
3487500000  -4.585360e+001  5.922762e+001 
3490625000  -4.532722e+001  5.575237e+001 
3493750000  -4.589374e+001  5.391187e+001 
3496875000  -4.669622e+001  5.455644e+001 
3500000000  -4.803700e+001  6.223570e+001 
3503125000  -4.779949e+001  6.843218e+001 
3506250000  -4.632919e+001  6.848193e+001 
3509375000  -4.707659e+001  6.614539e+001 
3512500000  -4.764952e+001  6.670142e+001 
3515625000  -4.748556e+001  6.899539e+001 
3518750000  -4.781853e+001  7.359784e+001 
3521875000  -4.829090e+001  7.689736e+001 
3525000000  -4.821885e+001  7.800450e+001 
3528125000  -4.776455e+001  8.971152e+001 
3531250000  -4.574899e+001  8.997198e+001 
3534375000  -4.506651e+001  8.239529e+001 
3537500000  -4.482059e+001  7.870509e+001 
3540625000  -4.563261e+001  7.834684e+001 
3543750000  -4.587323e+001  8.142600e+001 
3546875000  -4.560427e+001  9.341013e+001 
3550000000  -4.268784e+001  9.488100e+001 
3553125000  -4.116655e+001  8.131031e+001 
3556250000  -4.237851e+001  7.262453e+001 
3559375000  -4.204158e+001  7.683738e+001 
3562500000  -4.088930e+001  6.772972e+001 
3565625000  -4.152921e+001  6.160806e+001 
3568750000  -4.184306e+001  6.611688e+001 
3571875000  -4.168457e+001  6.566998e+001 
3575000000  -4.100218e+001  6.022372e+001 
3578125000  -4.134174e+001  5.739622e+001 
3581250000  -4.145432e+001  5.749981e+001 
3584375000  -4.054539e+001  5.623540e+001 
3587500000  -3.977843e+001  4.945272e+001 
3590625000  -4.045037e+001  4.096544e+001 
3593750000  -4.105148e+001  3.860173e+001 
3596875000  -4.140369e+001  4.867208e+001 
3600000000  -3.973795e+001  4.418275e+001 
3603125000  -3.977901e+001  3.080797e+001 
3606250000  -4.025549e+001  2.874977e+001 
3609375000  -4.083541e+001  2.793043e+001 
3612500000  -4.135102e+001  2.627921e+001 
3615625000  -4.150529e+001  2.476584e+001 
3618750000  -4.189975e+001  2.728870e+001 
3621875000  -4.148647e+001  2.629517e+001 
3625000000  -4.177506e+001  2.457430e+001 
3628125000  -4.170120e+001  2.527370e+001 
3631250000  -4.129443e+001  2.048854e+001 
3634375000  -4.237646e+001  2.069593e+001 
3637500000  -4.208210e+001  2.751126e+001 
3640625000  -4.093179e+001  2.816397e+001 
3643750000  -4.053349e+001  2.350730e+001 
3646875000  -4.125819e+001  1.685542e+001 
3650000000  -4.154888e+001  1.659386e+001 
3653125000  -4.142720e+001  1.622686e+001 
3656250000  -4.153040e+001  1.536928e+001 
3659375000  -4.181683e+001  1.907254e+001 
3662500000  -4.124543e+001  1.819342e+001 
3665625000  -4.111544e+001  1.870497e+001 
3668750000  -4.008032e+001  1.974178e+001 
3671875000  -3.923631e+001  1.561148e+001 
3675000000  -3.983176e+001  9.875025e+000 
3678125000  -4.019574e+001  9.691016e+000 
3681250000  -3.978212e+001  1.145940e+001 
3684375000  -3.960645e+001  9.035311e+000 
3687500000  -3.961730e+001  6.533420e+000 
3690625000  -3.979589e+001  5.019721e+000 
3693750000  -4.021786e+001  6.611328e+000 
3696875000  -3.996583e+001  1.068089e+001 
3700000000  -3.886208e+001  8.864173e+000 
3703125000  -3.869583e+001  5.392175e+000 
3706250000  -3.930054e+001  7.596289e+000 
3709375000  -3.865858e+001  1.112815e+001 
3712500000  -3.741791e+001  1.030121e+001 
3715625000  -3.647336e+001  4.511652e+000 
3718750000  -3.576358e+001  1.793095e+000 
3721875000  -3.525596e+001  -3.898681e+000 
3725000000  -3.518385e+001  -7.962648e+000 
3728125000  -3.534508e+001  -1.088798e+001 
3731250000  -3.475774e+001  -9.863411e+000 
3734375000  -3.369535e+001  -1.685551e+001 
3737500000  -3.416731e+001  -2.387582e+001 
3740625000  -3.488023e+001  -2.616222e+001 
3743750000  -3.450154e+001  -2.818617e+001 
3746875000  -3.459132e+001  -3.135654e+001 
3750000000  -3.500863e+001  -3.270380e+001 
3753125000  -3.452754e+001  -3.288176e+001 
3756250000  -3.453741e+001  -3.394349e+001 
3759375000  -3.439920e+001  -3.414605e+001 
3762500000  -3.382040e+001  -3.846384e+001 
3765625000  -3.426943e+001  -4.048231e+001 
3768750000  -3.433379e+001  -3.860040e+001 
3771875000  -3.251118e+001  -4.129319e+001 
3775000000  -3.221052e+001  -4.871490e+001 
3778125000  -3.252583e+001  -5.021427e+001 
3781250000  -3.249671e+001  -5.307303e+001 
3784375000  -3.238817e+001  -5.527237e+001 
3787500000  -3.171059e+001  -5.837701e+001 
3790625000  -3.223531e+001  -6.416988e+001 
3793750000  -3.244242e+001  -6.487704e+001 
3796875000  -3.142071e+001  -6.675861e+001 
3800000000  -2.988444e+001  -7.013654e+001 
3803125000  -3.072897e+001  -7.729716e+001 
3806250000  -3.135555e+001  -7.926233e+001 
3809375000  -3.107471e+001  -8.058202e+001 
3812500000  -3.034051e+001  -8.559322e+001 
3815625000  -3.104660e+001  -9.269207e+001 
3818750000  -3.204495e+001  -9.449928e+001 
3821875000  -3.200159e+001  -8.511568e+001 
3825000000  -3.016263e+001  -8.149148e+001 
3828125000  -2.870907e+001  -9.476088e+001 
3831250000  -2.935577e+001  -1.095162e+002 
3834375000  -3.075653e+001  -1.107607e+002 
3837500000  -3.149524e+001  -1.046103e+002 
3840625000  -3.049383e+001  -1.058416e+002 
3843750000  -2.929514e+001  -1.160006e+002 
3846875000  -2.998381e+001  -1.229982e+002 
3850000000  -3.126678e+001  -1.183397e+002 
3853125000  -3.047717e+001  -1.151985e+002 
3856250000  -3.040983e+001  -1.195226e+002 
3859375000  -2.971889e+001  -1.243439e+002 
3862500000  -2.932227e+001  -1.322039e+002 
3865625000  -2.955553e+001  -1.363974e+002 
3868750000  -2.954065e+001  -1.366261e+002 
3871875000  -2.887779e+001  -1.397265e+002 
3875000000  -2.897609e+001  -1.483293e+002 
3878125000  -3.004885e+001  -1.513753e+002 
3881250000  -3.016570e+001  -1.477773e+002 
3884375000  -2.963220e+001  -1.523951e+002 
3887500000  -2.960502e+001  -1.566651e+002 
3890625000  -3.023412e+001  -1.588005e+002 
3893750000  -3.074639e+001  -1.606076e+002 
3896875000  -3.080151e+001  -1.599718e+002 
3900000000  -3.098979e+001  -1.607393e+002 
3903125000  -3.060911e+001  -1.623871e+002 
3906250000  -3.041509e+001  -1.632757e+002 
3909375000  -2.965266e+001  -1.659356e+002 
3912500000  -2.971713e+001  -1.733692e+002 
3915625000  -3.095366e+001  -1.726570e+002 
3918750000  -3.089530e+001  -1.713583e+002 
3921875000  -3.059042e+001  -1.725711e+002 
3925000000  -2.975007e+001  -1.735483e+002 
3928125000  -2.902603e+001  -1.791295e+002 
3931250000  -2.957742e+001  1.770964e+002 
3934375000  -2.992257e+001  1.772226e+002 
3937500000  -2.991102e+001  1.765541e+002 
3940625000  -3.037378e+001  1.761082e+002 
3943750000  -2.937981e+001  1.779324e+002 
3946875000  -2.818327e+001  1.725304e+002 
3950000000  -2.877579e+001  1.650135e+002 
3953125000  -2.973679e+001  1.660795e+002 
3956250000  -2.889345e+001  1.684306e+002 
3959375000  -2.748178e+001  1.659833e+002 
3962500000  -2.698837e+001  1.613499e+002 
3965625000  -2.664091e+001  1.524212e+002 
3968750000  -2.750648e+001  1.456422e+002 
3971875000  -2.787482e+001  1.441212e+002 
3975000000  -2.721919e+001  1.424016e+002 
3978125000  -2.714498e+001  1.409183e+002 
3981250000  -2.681828e+001  1.367419e+002 
3984375000  -2.704929e+001  1.302876e+002 
3987500000  -2.758798e+001  1.284424e+002 
3990625000  -2.755650e+001  1.276928e+002 
3993750000  -2.778373e+001  1.246012e+002 
3996875000  -2.773403e+001  1.220655e+002 
4000000000  -2.786102e+001  1.202562e+002 
4003125000  -2.842456e+001  1.222601e+002 
4006250000  -2.693218e+001  1.219993e+002 
4009375000  -2.578915e+001  1.102803e+002 
4012500000  -2.687287e+001  1.033233e+002 
4015625000  -2.816885e+001  1.033208e+002 
4018750000  -2.830795e+001  1.057444e+002 
4021875000  -2.762512e+001  1.043078e+002 
4025000000  -2.726588e+001  9.967628e+001 
4028125000  -2.722993e+001  9.551514e+001 
4031250000  -2.770722e+001  9.225375e+001 
4034375000  -2.795603e+001  9.271974e+001 
4037500000  -2.741825e+001  9.391256e+001 
4040625000  -2.737979e+001  9.048334e+001 
4043750000  -2.778518e+001  9.033050e+001 
4046875000  -2.725941e+001  8.972948e+001 
4050000000  -2.675988e+001  8.385912e+001 
4053125000  -2.726739e+001  8.248211e+001 
4056250000  -2.778802e+001  8.646512e+001 
4059375000  -2.656143e+001  8.825087e+001 
4062500000  -2.525529e+001  8.379346e+001 
4065625000  -2.506454e+001  7.916640e+001 
4068750000  -2.479746e+001  7.464793e+001 
4071875000  -2.415385e+001  6.661565e+001 
4075000000  -2.454313e+001  6.062864e+001 
4078125000  -2.508100e+001  5.929104e+001 
4081250000  -2.457791e+001  5.714358e+001 
4084375000  -2.415307e+001  5.039036e+001 
4087500000  -2.452934e+001  4.435744e+001 
4090625000  -2.515491e+001  4.320488e+001 
4093750000  -2.496492e+001  4.388393e+001 
4096875000  -2.447941e+001  3.763910e+001 
4100000000  -2.522683e+001  3.105434e+001 
4103125000  -2.609976e+001  3.182649e+001 
4106250000  -2.594581e+001  3.672089e+001 
4109375000  -2.504320e+001  3.619235e+001 
4112500000  -2.449021e+001  2.934358e+001 
4115625000  -2.479345e+001  2.495534e+001 
4118750000  -2.488313e+001  2.204056e+001 
4121875000  -2.451130e+001  1.751921e+001 
4125000000  -2.486265e+001  1.214967e+001 
4128125000  -2.594048e+001  1.277231e+001 
4131250000  -2.556384e+001  2.064545e+001 
4134375000  -2.319179e+001  1.609839e+001 
4137500000  -2.307110e+001  -2.299133e+000 
4140625000  -2.524990e+001  -9.678222e+000 
4143750000  -2.651992e+001  -3.940044e+000 
4146875000  -2.612358e+001  2.624268e+000 
4150000000  -2.516311e+001  -7.175205e-001 
4153125000  -2.501931e+001  -7.161144e+000 
4156250000  -2.593828e+001  -9.536048e+000 
4159375000  -2.617144e+001  -5.234207e+000 
4162500000  -2.502388e+001  -8.067082e-001 
4165625000  -2.384842e+001  -5.018164e+000 
4168750000  -2.331709e+001  -1.227715e+001 
4171875000  -2.326487e+001  -2.143139e+001 
4175000000  -2.383031e+001  -2.708625e+001 
4178125000  -2.449962e+001  -2.660763e+001 
4181250000  -2.429047e+001  -2.765304e+001 
4184375000  -2.420634e+001  -3.085059e+001 
4187500000  -2.421923e+001  -3.386562e+001 
4190625000  -2.406300e+001  -3.893730e+001 
4193750000  -2.492853e+001  -4.278308e+001 
4196875000  -2.556986e+001  -4.323911e+001 
4200000000  -2.643065e+001  -4.084005e+001 
4203125000  -2.646317e+001  -2.718717e+001 
4206250000  -2.305917e+001  -2.597526e+001 
4209375000  -2.192751e+001  -4.654480e+001 
4212500000  -2.386679e+001  -5.538936e+001 
4215625000  -2.482249e+001  -4.886592e+001 
4218750000  -2.349368e+001  -4.242891e+001 
4221875000  -2.116906e+001  -5.126603e+001 
4225000000  -2.242425e+001  -6.369419e+001 
4228125000  -2.312010e+001  -5.884804e+001 
4231250000  -2.152178e+001  -6.268998e+001 
4234375000  -2.141739e+001  -7.107905e+001 
4237500000  -2.101573e+001  -7.432115e+001 
4240625000  -2.104422e+001  -8.309959e+001 
4243750000  -2.203099e+001  -8.969051e+001 
4246875000  -2.288956e+001  -8.944154e+001 
4250000000  -2.295614e+001  -8.698975e+001 
4253125000  -2.235812e+001  -8.871676e+001 
4256250000  -2.260266e+001  -9.276711e+001 
4259375000  -2.234368e+001  -9.484093e+001 
4262500000  -2.239618e+001  -9.848517e+001 
4265625000  -2.253547e+001  -9.818587e+001 
4268750000  -2.167194e+001  -1.021712e+002 
4271875000  -2.139929e+001  -1.077351e+002 
4275000000  -2.078335e+001  -1.145604e+002 
4278125000  -2.145107e+001  -1.256431e+002 
4281250000  -2.319203e+001  -1.275783e+002 
4284375000  -2.284597e+001  -1.272635e+002 
4287500000  -2.368184e+001  -1.304843e+002 
4290625000  -2.496376e+001  -1.209907e+002 
4293750000  -2.293658e+001  -1.152910e+002 
4296875000  -2.163340e+001  -1.271493e+002 
4300000000  -2.246465e+001  -1.359853e+002 
4303125000  -2.358998e+001  -1.348756e+002 
4306250000  -2.291690e+001  -1.285593e+002 
4309375000  -2.157181e+001  -1.311196e+002 
4312500000  -2.143981e+001  -1.393177e+002 
4315625000  -2.167876e+001  -1.455408e+002 
4318750000  -2.201179e+001  -1.490486e+002 
4321875000  -2.218813e+001  -1.483406e+002 
4325000000  -2.158604e+001  -1.476252e+002 
4328125000  -2.107093e+001  -1.539554e+002 
4331250000  -2.101419e+001  -1.623606e+002 
4334375000  -2.145703e+001  -1.675384e+002 
4337500000  -2.233154e+001  -1.693350e+002 
4340625000  -2.288190e+001  -1.662703e+002 
4343750000  -2.224460e+001  -1.656901e+002 
4346875000  -2.188158e+001  -1.713678e+002 
4350000000  -2.187593e+001  -1.760508e+002 
4353125000  -2.199436e+001  1.764331e+002 
4356250000  -2.373580e+001  1.755695e+002 
4359375000  -2.431907e+001  -1.709379e+002 
4362500000  -2.153097e+001  -1.689539e+002 
4365625000  -1.994166e+001  1.787079e+002 
4368750000  -2.071615e+001  1.670154e+002 
4371875000  -2.189383e+001  1.679988e+002 
4375000000  -2.154131e+001  1.690052e+002 
4378125000  -2.090914e+001  1.628913e+002 
4381250000  -2.106360e+001  1.574823e+002 
4384375000  -2.087522e+001  1.528576e+002 
4387500000  -2.163144e+001  1.472704e+002 
4390625000  -2.263076e+001  1.479408e+002 
4393750000  -2.195208e+001  1.502495e+002 
4396875000  -2.131115e+001  1.480667e+002 
4400000000  -2.077855e+001  1.410309e+002 
4403125000  -2.136449e+001  1.334265e+002 
4406250000  -2.222941e+001  1.319381e+002 
4409375000  -2.215569e+001  1.299565e+002 
4412500000  -2.323704e+001  1.270595e+002 
4415625000  -2.357102e+001  1.321086e+002 
4418750000  -2.236211e+001  1.368041e+002 
