!Agilent Technologies,E8363B,MY43030201,A.06.04.32
!Agilent E8363B: A.06.04.32
!Date: Tuesday, November 11, 2014 20:47:47
!Correction: S21(Response(S21)) 
!S1P File: Measurement: S21:
# Hz S  dB   R 50
3000000000  -2.650696e+001  1.564143e+002 
3003125000  -2.789818e+001  1.519963e+002 
3006250000  -2.796796e+001  1.490459e+002 
3009375000  -2.830843e+001  1.541643e+002 
3012500000  -2.781940e+001  1.538312e+002 
3015625000  -2.680741e+001  1.466707e+002 
3018750000  -2.765254e+001  1.459846e+002 
3021875000  -2.645144e+001  1.473272e+002 
3025000000  -2.513404e+001  1.440615e+002 
3028125000  -2.415531e+001  1.393854e+002 
3031250000  -2.311914e+001  1.282713e+002 
3034375000  -2.273576e+001  1.153470e+002 
3037500000  -2.306295e+001  1.032836e+002 
3040625000  -2.440578e+001  9.817722e+001 
3043750000  -2.511849e+001  9.385954e+001 
3046875000  -2.522814e+001  8.738962e+001 
3050000000  -2.699416e+001  8.022510e+001 
3053125000  -2.715811e+001  8.677954e+001 
3056250000  -2.643840e+001  9.004909e+001 
3059375000  -2.669260e+001  8.986468e+001 
3062500000  -2.521374e+001  8.543163e+001 
3065625000  -2.502282e+001  8.020250e+001 
3068750000  -2.471589e+001  7.327516e+001 
3071875000  -2.465785e+001  7.018855e+001 
3075000000  -2.464967e+001  6.640755e+001 
3078125000  -2.434545e+001  6.198907e+001 
3081250000  -2.501120e+001  5.787274e+001 
3084375000  -2.425921e+001  5.391234e+001 
3087500000  -2.411901e+001  5.075399e+001 
3090625000  -2.382724e+001  4.106530e+001 
3093750000  -2.421163e+001  3.305098e+001 
3096875000  -2.550867e+001  2.655436e+001 
3100000000  -2.570652e+001  2.530302e+001 
3103125000  -2.602928e+001  2.692532e+001 
3106250000  -2.578211e+001  2.317140e+001 
3109375000  -2.599526e+001  1.972940e+001 
3112500000  -2.615086e+001  1.893818e+001 
3115625000  -2.592899e+001  1.455219e+001 
3118750000  -2.643064e+001  1.584330e+001 
3121875000  -2.577232e+001  7.838558e+000 
3125000000  -2.691598e+001  4.570408e+000 
3128125000  -2.813306e+001  1.205735e+001 
3131250000  -2.598236e+001  1.288321e+001 
3134375000  -2.461365e+001  -5.177496e-001 
3137500000  -2.527541e+001  -1.447526e+001 
3140625000  -2.690610e+001  -1.591736e+001 
3143750000  -2.793060e+001  -1.190950e+001 
3146875000  -2.753745e+001  -1.025689e+001 
3150000000  -2.648358e+001  -7.536928e+000 
3153125000  -2.648828e+001  -1.553903e+001 
3156250000  -2.744363e+001  -1.039967e+001 
3159375000  -2.593791e+001  -7.165656e+000 
3162500000  -2.386286e+001  -2.000494e+001 
3165625000  -2.475783e+001  -3.086711e+001 
3168750000  -2.519388e+001  -3.019575e+001 
3171875000  -2.427137e+001  -3.426369e+001 
3175000000  -2.488840e+001  -4.199280e+001 
3178125000  -2.469462e+001  -4.024771e+001 
3181250000  -2.349468e+001  -4.424149e+001 
3184375000  -2.268375e+001  -5.645270e+001 
3187500000  -2.375167e+001  -7.193166e+001 
3190625000  -2.661577e+001  -7.955775e+001 
3193750000  -2.721887e+001  -6.996232e+001 
3196875000  -2.677288e+001  -6.446638e+001 
3200000000  -2.595357e+001  -6.624191e+001 
3203125000  -2.502804e+001  -7.176915e+001 
3206250000  -2.531284e+001  -7.797354e+001 
3209375000  -2.488835e+001  -8.295591e+001 
3212500000  -2.496308e+001  -8.954547e+001 
3215625000  -2.510617e+001  -9.412730e+001 
3218750000  -2.588606e+001  -1.000967e+002 
3221875000  -2.687038e+001  -1.052128e+002 
3225000000  -2.648384e+001  -1.056413e+002 
3228125000  -2.672509e+001  -1.104208e+002 
3231250000  -2.752686e+001  -1.133683e+002 
3234375000  -2.740424e+001  -1.122402e+002 
3237500000  -2.742024e+001  -1.139472e+002 
3240625000  -2.711264e+001  -1.151778e+002 
3243750000  -2.669760e+001  -1.220864e+002 
3246875000  -2.719846e+001  -1.290247e+002 
3250000000  -2.766387e+001  -1.306826e+002 
3253125000  -2.782405e+001  -1.323055e+002 
3256250000  -2.769730e+001  -1.381956e+002 
3259375000  -2.799580e+001  -1.457492e+002 
3262500000  -2.923330e+001  -1.486337e+002 
3265625000  -2.997370e+001  -1.454504e+002 
3268750000  -2.984248e+001  -1.430172e+002 
3271875000  -2.968206e+001  -1.415029e+002 
3275000000  -2.859412e+001  -1.463828e+002 
3278125000  -2.901019e+001  -1.529772e+002 
3281250000  -2.932232e+001  -1.508693e+002 
3284375000  -2.894210e+001  -1.566247e+002 
3287500000  -2.909313e+001  -1.593460e+002 
3290625000  -2.950703e+001  -1.638758e+002 
3293750000  -2.919250e+001  -1.695114e+002 
3296875000  -3.021211e+001  -1.692037e+002 
3300000000  -3.008713e+001  -1.684392e+002 
3303125000  -2.898977e+001  -1.720448e+002 
3306250000  -2.870984e+001  -1.788064e+002 
3309375000  -2.850143e+001  1.761010e+002 
3312500000  -2.857614e+001  1.660587e+002 
3315625000  -2.945894e+001  1.578806e+002 
3318750000  -3.081932e+001  1.554591e+002 
3321875000  -3.209079e+001  1.553292e+002 
3325000000  -3.270456e+001  1.604743e+002 
3328125000  -3.245419e+001  1.623717e+002 
3331250000  -3.140118e+001  1.691339e+002 
3334375000  -2.878952e+001  1.602585e+002 
3337500000  -2.883317e+001  1.420385e+002 
3340625000  -3.013635e+001  1.304985e+002 
3343750000  -3.204794e+001  1.289262e+002 
3346875000  -3.271864e+001  1.309905e+002 
3350000000  -3.197967e+001  1.293088e+002 
3353125000  -3.216393e+001  1.251512e+002 
3356250000  -3.182481e+001  1.174610e+002 
3359375000  -3.257232e+001  1.090853e+002 
3362500000  -3.387771e+001  1.038555e+002 
3365625000  -3.467392e+001  1.022496e+002 
3368750000  -3.548173e+001  1.004127e+002 
3371875000  -3.590708e+001  9.671953e+001 
3375000000  -3.744787e+001  9.537265e+001 
3378125000  -3.862681e+001  9.424041e+001 
3381250000  -3.994826e+001  1.020487e+002 
3384375000  -3.965680e+001  1.236972e+002 
3387500000  -3.621392e+001  1.090199e+002 
3390625000  -3.781026e+001  8.944607e+001 
3393750000  -3.990897e+001  9.413998e+001 
3396875000  -3.876820e+001  9.861707e+001 
3400000000  -3.873495e+001  9.119128e+001 
3403125000  -3.990774e+001  8.675565e+001 
3406250000  -4.060667e+001  9.078941e+001 
3409375000  -4.156352e+001  8.575581e+001 
3412500000  -4.227524e+001  8.718844e+001 
3415625000  -4.300560e+001  9.002576e+001 
3418750000  -4.337590e+001  9.451137e+001 
3421875000  -4.366677e+001  1.037566e+002 
3425000000  -4.288637e+001  1.061286e+002 
3428125000  -4.207566e+001  1.053098e+002 
3431250000  -4.183267e+001  1.012096e+002 
3434375000  -4.169308e+001  9.826234e+001 
3437500000  -4.206884e+001  9.747149e+001 
3440625000  -4.245980e+001  9.993886e+001 
3443750000  -4.124344e+001  1.028021e+002 
3446875000  -4.019902e+001  9.722698e+001 
3450000000  -4.021511e+001  8.865222e+001 
3453125000  -4.067034e+001  7.899263e+001 
3456250000  -4.147465e+001  7.661152e+001 
3459375000  -4.255038e+001  7.571774e+001 
3462500000  -4.232725e+001  7.742722e+001 
3465625000  -4.262639e+001  7.218975e+001 
3468750000  -4.312022e+001  7.151776e+001 
3471875000  -4.306275e+001  7.160526e+001 
3475000000  -4.323338e+001  6.754365e+001 
3478125000  -4.387800e+001  6.208633e+001 
3481250000  -4.509180e+001  6.092785e+001 
3484375000  -4.625882e+001  6.524175e+001 
3487500000  -4.627290e+001  7.160145e+001 
3490625000  -4.582143e+001  6.755758e+001 
3493750000  -4.576308e+001  6.449532e+001 
3496875000  -4.749202e+001  6.563229e+001 
3500000000  -4.764706e+001  7.618458e+001 
3503125000  -4.816164e+001  7.626434e+001 
3506250000  -4.699451e+001  8.113773e+001 
3509375000  -4.712805e+001  7.828876e+001 
3512500000  -4.709563e+001  7.736101e+001 
3515625000  -4.748324e+001  8.039320e+001 
3518750000  -4.842736e+001  8.471681e+001 
3521875000  -4.733143e+001  8.730415e+001 
3525000000  -4.812154e+001  8.971084e+001 
3528125000  -4.775512e+001  9.767750e+001 
3531250000  -4.580506e+001  1.022303e+002 
3534375000  -4.513708e+001  9.532868e+001 
3537500000  -4.522200e+001  9.005095e+001 
3540625000  -4.521253e+001  9.089111e+001 
3543750000  -4.586184e+001  8.957410e+001 
3546875000  -4.545270e+001  1.039171e+002 
3550000000  -4.303890e+001  1.070153e+002 
3553125000  -4.153378e+001  9.105057e+001 
3556250000  -4.241854e+001  8.348331e+001 
3559375000  -4.202540e+001  8.627000e+001 
3562500000  -4.079632e+001  8.008066e+001 
3565625000  -4.153279e+001  7.204446e+001 
3568750000  -4.177212e+001  7.554401e+001 
3571875000  -4.156855e+001  7.620358e+001 
3575000000  -4.088684e+001  7.217108e+001 
3578125000  -4.146452e+001  6.580614e+001 
3581250000  -4.151654e+001  6.726753e+001 
3584375000  -4.060313e+001  6.777174e+001 
3587500000  -4.000792e+001  6.141099e+001 
3590625000  -4.018354e+001  5.140852e+001 
3593750000  -4.093782e+001  5.007187e+001 
3596875000  -4.123684e+001  5.900819e+001 
3600000000  -3.952779e+001  5.679491e+001 
3603125000  -3.976691e+001  4.221503e+001 
3606250000  -4.047827e+001  3.998298e+001 
3609375000  -4.083097e+001  3.913206e+001 
3612500000  -4.141931e+001  3.712163e+001 
3615625000  -4.132962e+001  3.598053e+001 
3618750000  -4.180515e+001  3.833136e+001 
3621875000  -4.137841e+001  3.647863e+001 
3625000000  -4.160360e+001  3.524712e+001 
3628125000  -4.185640e+001  3.447617e+001 
3631250000  -4.149075e+001  3.200208e+001 
3634375000  -4.266771e+001  3.136652e+001 
3637500000  -4.227265e+001  3.941889e+001 
3640625000  -4.105381e+001  3.901938e+001 
3643750000  -4.070426e+001  3.424656e+001 
3646875000  -4.116704e+001  2.808297e+001 
3650000000  -4.148473e+001  2.770208e+001 
3653125000  -4.139371e+001  2.730087e+001 
3656250000  -4.160830e+001  2.820294e+001 
3659375000  -4.202754e+001  2.973337e+001 
3662500000  -4.138139e+001  2.844586e+001 
3665625000  -4.133754e+001  2.932139e+001 
3668750000  -4.046588e+001  3.132590e+001 
3671875000  -3.925875e+001  2.635997e+001 
3675000000  -3.998396e+001  1.984478e+001 
3678125000  -4.051082e+001  2.241765e+001 
3681250000  -3.986746e+001  2.260138e+001 
3684375000  -3.965841e+001  2.002327e+001 
3687500000  -3.983626e+001  1.991563e+001 
3690625000  -3.962531e+001  1.768506e+001 
3693750000  -4.033675e+001  1.917720e+001 
3696875000  -4.012265e+001  2.011277e+001 
3700000000  -3.895218e+001  2.071748e+001 
3703125000  -3.864883e+001  1.671263e+001 
3706250000  -3.948414e+001  1.956490e+001 
3709375000  -3.864595e+001  2.288446e+001 
3712500000  -3.766526e+001  2.005575e+001 
3715625000  -3.640940e+001  1.544634e+001 
3718750000  -3.580088e+001  1.226675e+001 
3721875000  -3.524329e+001  7.714069e+000 
3725000000  -3.533115e+001  2.621811e+000 
3728125000  -3.541353e+001  2.136820e+000 
3731250000  -3.478291e+001  2.023894e+000 
3734375000  -3.367264e+001  -3.970607e+000 
3737500000  -3.423810e+001  -1.166149e+001 
3740625000  -3.504776e+001  -1.518360e+001 
3743750000  -3.472206e+001  -1.720622e+001 
3746875000  -3.459720e+001  -2.023731e+001 
3750000000  -3.488260e+001  -2.169605e+001 
3753125000  -3.457232e+001  -2.146905e+001 
3756250000  -3.455290e+001  -2.196539e+001 
3759375000  -3.427089e+001  -2.181336e+001 
3762500000  -3.378923e+001  -2.685779e+001 
3765625000  -3.421391e+001  -2.969123e+001 
3768750000  -3.447423e+001  -2.742800e+001 
3771875000  -3.255513e+001  -2.887888e+001 
3775000000  -3.239676e+001  -3.725858e+001 
3778125000  -3.270146e+001  -3.915303e+001 
3781250000  -3.251526e+001  -4.188824e+001 
3784375000  -3.234248e+001  -4.356672e+001 
3787500000  -3.173853e+001  -4.734768e+001 
3790625000  -3.225465e+001  -5.271711e+001 
3793750000  -3.246047e+001  -5.370100e+001 
3796875000  -3.156044e+001  -5.494634e+001 
3800000000  -3.002509e+001  -5.849471e+001 
3803125000  -3.081419e+001  -6.528368e+001 
3806250000  -3.132416e+001  -6.751575e+001 
3809375000  -3.110246e+001  -6.851885e+001 
3812500000  -3.037863e+001  -7.347877e+001 
3815625000  -3.102032e+001  -8.075478e+001 
3818750000  -3.202592e+001  -8.272970e+001 
3821875000  -3.211187e+001  -7.495573e+001 
3825000000  -3.020153e+001  -6.959691e+001 
3828125000  -2.881774e+001  -8.363734e+001 
3831250000  -2.930946e+001  -9.752718e+001 
3834375000  -3.071302e+001  -9.892844e+001 
3837500000  -3.155539e+001  -9.362863e+001 
3840625000  -3.049455e+001  -9.412501e+001 
3843750000  -2.932061e+001  -1.042363e+002 
3846875000  -2.990504e+001  -1.115734e+002 
3850000000  -3.120609e+001  -1.067035e+002 
3853125000  -3.040347e+001  -1.034558e+002 
3856250000  -3.044437e+001  -1.082969e+002 
3859375000  -2.980975e+001  -1.132518e+002 
3862500000  -2.926103e+001  -1.200769e+002 
3865625000  -2.956680e+001  -1.241448e+002 
3868750000  -2.960802e+001  -1.251850e+002 
3871875000  -2.886740e+001  -1.282719e+002 
3875000000  -2.894855e+001  -1.365694e+002 
3878125000  -2.994174e+001  -1.390845e+002 
3881250000  -3.015427e+001  -1.361081e+002 
3884375000  -2.960366e+001  -1.407748e+002 
3887500000  -2.971375e+001  -1.445688e+002 
3890625000  -3.024515e+001  -1.471871e+002 
3893750000  -3.068929e+001  -1.482899e+002 
3896875000  -3.068595e+001  -1.473931e+002 
3900000000  -3.098351e+001  -1.485229e+002 
3903125000  -3.068387e+001  -1.510509e+002 
3906250000  -3.044389e+001  -1.515338e+002 
3909375000  -2.979855e+001  -1.537450e+002 
3912500000  -2.975357e+001  -1.606428e+002 
3915625000  -3.092493e+001  -1.604358e+002 
3918750000  -3.091184e+001  -1.585809e+002 
3921875000  -3.064949e+001  -1.605770e+002 
3925000000  -2.983494e+001  -1.605753e+002 
3928125000  -2.905984e+001  -1.668140e+002 
3931250000  -2.952121e+001  -1.708106e+002 
3934375000  -2.982874e+001  -1.702414e+002 
3937500000  -2.987613e+001  -1.708731e+002 
3940625000  -3.041614e+001  -1.715853e+002 
3943750000  -2.947068e+001  -1.698778e+002 
3946875000  -2.812523e+001  -1.748019e+002 
3950000000  -2.859503e+001  1.766536e+002 
3953125000  -2.956754e+001  1.775804e+002 
3956250000  -2.878116e+001  -1.794444e+002 
3959375000  -2.739730e+001  1.771552e+002 
3962500000  -2.691777e+001  1.735363e+002 
3965625000  -2.648385e+001  1.644151e+002 
3968750000  -2.747674e+001  1.579695e+002 
3971875000  -2.784412e+001  1.563490e+002 
3975000000  -2.720603e+001  1.541200e+002 
3978125000  -2.696158e+001  1.530537e+002 
3981250000  -2.672767e+001  1.487732e+002 
3984375000  -2.691683e+001  1.423703e+002 
3987500000  -2.746636e+001  1.406428e+002 
3990625000  -2.746492e+001  1.393688e+002 
3993750000  -2.771062e+001  1.357918e+002 
3996875000  -2.767155e+001  1.334776e+002 
4000000000  -2.772834e+001  1.317310e+002 
4003125000  -2.830788e+001  1.339188e+002 
4006250000  -2.697430e+001  1.342256e+002 
4009375000  -2.580056e+001  1.219399e+002 
4012500000  -2.687002e+001  1.149043e+002 
4015625000  -2.805144e+001  1.154820e+002 
4018750000  -2.826778e+001  1.174276e+002 
4021875000  -2.756567e+001  1.162674e+002 
4025000000  -2.724900e+001  1.113529e+002 
4028125000  -2.712903e+001  1.074472e+002 
4031250000  -2.764501e+001  1.044786e+002 
4034375000  -2.794593e+001  1.047962e+002 
4037500000  -2.740402e+001  1.060571e+002 
4040625000  -2.726172e+001  1.026043e+002 
4043750000  -2.761455e+001  1.025426e+002 
4046875000  -2.718021e+001  1.020045e+002 
4050000000  -2.670493e+001  9.650845e+001 
4053125000  -2.719016e+001  9.418462e+001 
4056250000  -2.777920e+001  9.827531e+001 
4059375000  -2.653862e+001  1.002575e+002 
4062500000  -2.515962e+001  9.557137e+001 
4065625000  -2.496030e+001  9.126917e+001 
4068750000  -2.472789e+001  8.668111e+001 
4071875000  -2.411107e+001  7.878093e+001 
4075000000  -2.444735e+001  7.225392e+001 
4078125000  -2.495978e+001  7.130742e+001 
4081250000  -2.449083e+001  6.904860e+001 
4084375000  -2.409851e+001  6.242712e+001 
4087500000  -2.441697e+001  5.611475e+001 
4090625000  -2.506566e+001  5.467730e+001 
4093750000  -2.488774e+001  5.554414e+001 
4096875000  -2.441142e+001  4.986251e+001 
4100000000  -2.508637e+001  4.272450e+001 
4103125000  -2.591718e+001  4.319200e+001 
4106250000  -2.589829e+001  4.739101e+001 
4109375000  -2.501806e+001  4.750491e+001 
4112500000  -2.439691e+001  4.088223e+001 
4115625000  -2.472071e+001  3.671376e+001 
4118750000  -2.492561e+001  3.395900e+001 
4121875000  -2.445912e+001  2.921259e+001 
4125000000  -2.477833e+001  2.432499e+001 
4128125000  -2.582912e+001  2.410386e+001 
4131250000  -2.563077e+001  3.233076e+001 
4134375000  -2.328351e+001  2.811490e+001 
4137500000  -2.305144e+001  9.518110e+000 
4140625000  -2.513782e+001  2.074047e+000 
4143750000  -2.651526e+001  7.049088e+000 
4146875000  -2.616722e+001  1.432630e+001 
4150000000  -2.518077e+001  1.109092e+001 
4153125000  -2.502692e+001  4.873702e+000 
4156250000  -2.592348e+001  2.171875e+000 
4159375000  -2.618287e+001  6.274308e+000 
4162500000  -2.503655e+001  1.038609e+001 
4165625000  -2.390017e+001  6.834384e+000 
4168750000  -2.330735e+001  -8.767123e-002 
4171875000  -2.326621e+001  -9.484275e+000 
4175000000  -2.381698e+001  -1.471986e+001 
4178125000  -2.446319e+001  -1.529722e+001 
4181250000  -2.433864e+001  -1.546083e+001 
4184375000  -2.418658e+001  -1.857222e+001 
4187500000  -2.426613e+001  -2.144469e+001 
4190625000  -2.404918e+001  -2.707025e+001 
4193750000  -2.481399e+001  -3.078507e+001 
4196875000  -2.544246e+001  -3.113697e+001 
4200000000  -2.630132e+001  -2.912067e+001 
4203125000  -2.640543e+001  -1.634392e+001 
4206250000  -2.310837e+001  -1.401853e+001 
4209375000  -2.186810e+001  -3.414756e+001 
4212500000  -2.372540e+001  -4.352970e+001 
4215625000  -2.480947e+001  -3.787247e+001 
4218750000  -2.354073e+001  -3.061720e+001 
4221875000  -2.115990e+001  -3.959737e+001 
4225000000  -2.238106e+001  -5.215578e+001 
4228125000  -2.312890e+001  -4.704040e+001 
4231250000  -2.156226e+001  -5.122766e+001 
4234375000  -2.143497e+001  -5.916467e+001 
4237500000  -2.107253e+001  -6.248700e+001 
4240625000  -2.105572e+001  -7.111674e+001 
4243750000  -2.198096e+001  -7.759535e+001 
4246875000  -2.293150e+001  -7.771713e+001 
4250000000  -2.299148e+001  -7.503487e+001 
4253125000  -2.238480e+001  -7.695257e+001 
4256250000  -2.267002e+001  -8.119096e+001 
4259375000  -2.239723e+001  -8.300951e+001 
4262500000  -2.240035e+001  -8.684936e+001 
4265625000  -2.262154e+001  -8.629575e+001 
4268750000  -2.177698e+001  -9.042752e+001 
4271875000  -2.149649e+001  -9.612109e+001 
4275000000  -2.086792e+001  -1.021102e+002 
4278125000  -2.142869e+001  -1.134462e+002 
4281250000  -2.323084e+001  -1.154750e+002 
4284375000  -2.293668e+001  -1.147054e+002 
4287500000  -2.367325e+001  -1.183896e+002 
4290625000  -2.497747e+001  -1.090142e+002 
4293750000  -2.306023e+001  -1.033088e+002 
4296875000  -2.166843e+001  -1.144979e+002 
4300000000  -2.248330e+001  -1.238231e+002 
4303125000  -2.360144e+001  -1.228263e+002 
4306250000  -2.306644e+001  -1.166171e+002 
4309375000  -2.165512e+001  -1.184061e+002 
4312500000  -2.149260e+001  -1.268386e+002 
4315625000  -2.172434e+001  -1.328217e+002 
4318750000  -2.202182e+001  -1.362085e+002 
4321875000  -2.218553e+001  -1.358450e+002 
4325000000  -2.161090e+001  -1.348936e+002 
4328125000  -2.110759e+001  -1.416056e+002 
4331250000  -2.102966e+001  -1.494232e+002 
4334375000  -2.145688e+001  -1.543221e+002 
4337500000  -2.224813e+001  -1.569292e+002 
4340625000  -2.281730e+001  -1.542582e+002 
4343750000  -2.225158e+001  -1.533260e+002 
4346875000  -2.186811e+001  -1.586881e+002 
4350000000  -2.187288e+001  -1.631691e+002 
4353125000  -2.187940e+001  -1.710771e+002 
4356250000  -2.357760e+001  -1.723551e+002 
4359375000  -2.430187e+001  -1.597907e+002 
4362500000  -2.170103e+001  -1.573515e+002 
4365625000  -2.004803e+001  -1.687122e+002 
4368750000  -2.067022e+001  1.795393e+002 
4371875000  -2.190226e+001  1.797278e+002 
4375000000  -2.161319e+001  -1.789366e+002 
4378125000  -2.095366e+001  1.753383e+002 
4381250000  -2.110618e+001  1.700483e+002 
4384375000  -2.093431e+001  1.655729e+002 
4387500000  -2.163265e+001  1.597224e+002 
4390625000  -2.268252e+001  1.604067e+002 
4393750000  -2.202822e+001  1.626739e+002 
4396875000  -2.139096e+001  1.605143e+002 
4400000000  -2.084479e+001  1.536057e+002 
4403125000  -2.141485e+001  1.461206e+002 
4406250000  -2.229221e+001  1.448338e+002 
4409375000  -2.218739e+001  1.425629e+002 
4412500000  -2.321773e+001  1.397263e+002 
4415625000  -2.368411e+001  1.444724e+002 
4418750000  -2.247744e+001  1.493848e+002 
