!Agilent Technologies,E8363B,MY43030201,A.06.04.32
!Agilent E8363B: A.06.04.32
!Date: Tuesday, November 11, 2014 20:57:22
!Correction: S21(Response(S21)) 
!S1P File: Measurement: S21:
# Hz S  dB   R 50
3000000000  -2.653979e+001  1.473116e+002 
3003125000  -2.798143e+001  1.425963e+002 
3006250000  -2.796555e+001  1.402150e+002 
3009375000  -2.833870e+001  1.451957e+002 
3012500000  -2.774907e+001  1.446886e+002 
3015625000  -2.686722e+001  1.377062e+002 
3018750000  -2.769307e+001  1.369877e+002 
3021875000  -2.640147e+001  1.381125e+002 
3025000000  -2.507497e+001  1.348985e+002 
3028125000  -2.413524e+001  1.298263e+002 
3031250000  -2.312073e+001  1.185527e+002 
3034375000  -2.276025e+001  1.055309e+002 
3037500000  -2.312892e+001  9.362333e+001 
3040625000  -2.449529e+001  8.893610e+001 
3043750000  -2.517477e+001  8.437582e+001 
3046875000  -2.530102e+001  7.790940e+001 
3050000000  -2.704788e+001  7.124239e+001 
3053125000  -2.710771e+001  7.770193e+001 
3056250000  -2.651310e+001  8.085229e+001 
3059375000  -2.670133e+001  8.046094e+001 
3062500000  -2.520257e+001  7.661655e+001 
3065625000  -2.496140e+001  7.070272e+001 
3068750000  -2.468349e+001  6.366559e+001 
3071875000  -2.462200e+001  6.093171e+001 
3075000000  -2.457528e+001  5.720926e+001 
3078125000  -2.434182e+001  5.261894e+001 
3081250000  -2.494932e+001  4.815041e+001 
3084375000  -2.421396e+001  4.450949e+001 
3087500000  -2.412916e+001  4.098700e+001 
3090625000  -2.381126e+001  3.104574e+001 
3093750000  -2.429161e+001  2.326531e+001 
3096875000  -2.556037e+001  1.743319e+001 
3100000000  -2.564320e+001  1.622227e+001 
3103125000  -2.603666e+001  1.727643e+001 
3106250000  -2.576779e+001  1.380842e+001 
3109375000  -2.600418e+001  1.037788e+001 
3112500000  -2.612043e+001  9.193113e+000 
3115625000  -2.593074e+001  4.972824e+000 
3118750000  -2.642576e+001  6.354137e+000 
3121875000  -2.573802e+001  -2.040725e+000 
3125000000  -2.702963e+001  -5.137044e+000 
3128125000  -2.814370e+001  2.896472e+000 
3131250000  -2.588955e+001  3.110346e+000 
3134375000  -2.464830e+001  -1.069484e+001 
3137500000  -2.527629e+001  -2.401534e+001 
3140625000  -2.690209e+001  -2.562189e+001 
3143750000  -2.793978e+001  -2.166871e+001 
3146875000  -2.745584e+001  -1.946296e+001 
3150000000  -2.646104e+001  -1.724846e+001 
3153125000  -2.647071e+001  -2.510541e+001 
3156250000  -2.748915e+001  -1.955869e+001 
3159375000  -2.584712e+001  -1.660158e+001 
3162500000  -2.382758e+001  -2.978824e+001 
3165625000  -2.477968e+001  -4.075771e+001 
3168750000  -2.518031e+001  -3.963357e+001 
3171875000  -2.422859e+001  -4.398722e+001 
3175000000  -2.487709e+001  -5.157429e+001 
3178125000  -2.462064e+001  -4.992959e+001 
3181250000  -2.346653e+001  -5.426641e+001 
3184375000  -2.271259e+001  -6.640868e+001 
3187500000  -2.386606e+001  -8.130334e+001 
3190625000  -2.659644e+001  -8.864112e+001 
3193750000  -2.715535e+001  -7.914342e+001 
3196875000  -2.671202e+001  -7.381127e+001 
3200000000  -2.580099e+001  -7.587502e+001 
3203125000  -2.499729e+001  -8.167276e+001 
3206250000  -2.533725e+001  -8.770091e+001 
3209375000  -2.480628e+001  -9.286605e+001 
3212500000  -2.501396e+001  -9.940064e+001 
3215625000  -2.509644e+001  -1.034868e+002 
3218750000  -2.585378e+001  -1.099558e+002 
3221875000  -2.683491e+001  -1.148918e+002 
3225000000  -2.642872e+001  -1.154594e+002 
3228125000  -2.676569e+001  -1.201202e+002 
3231250000  -2.755639e+001  -1.229946e+002 
3234375000  -2.733870e+001  -1.216830e+002 
3237500000  -2.738402e+001  -1.234523e+002 
3240625000  -2.704014e+001  -1.250879e+002 
3243750000  -2.669150e+001  -1.320711e+002 
3246875000  -2.718500e+001  -1.383364e+002 
3250000000  -2.765412e+001  -1.401554e+002 
3253125000  -2.783734e+001  -1.417300e+002 
3256250000  -2.764905e+001  -1.475699e+002 
3259375000  -2.793799e+001  -1.554400e+002 
3262500000  -2.923297e+001  -1.583443e+002 
3265625000  -2.989485e+001  -1.542458e+002 
3268750000  -2.992120e+001  -1.519090e+002 
3271875000  -2.957399e+001  -1.509539e+002 
3275000000  -2.851715e+001  -1.561888e+002 
3278125000  -2.899955e+001  -1.622853e+002 
3281250000  -2.931857e+001  -1.606399e+002 
3284375000  -2.884038e+001  -1.664089e+002 
3287500000  -2.904552e+001  -1.690979e+002 
3290625000  -2.938448e+001  -1.735039e+002 
3293750000  -2.914913e+001  -1.791477e+002 
3296875000  -3.018206e+001  -1.788049e+002 
3300000000  -3.002483e+001  -1.777740e+002 
3303125000  -2.888567e+001  1.782847e+002 
3306250000  -2.861720e+001  1.715997e+002 
3309375000  -2.841654e+001  1.665435e+002 
3312500000  -2.848827e+001  1.561991e+002 
3315625000  -2.952509e+001  1.487522e+002 
3318750000  -3.086694e+001  1.459441e+002 
3321875000  -3.202786e+001  1.461573e+002 
3325000000  -3.262521e+001  1.514736e+002 
3328125000  -3.246450e+001  1.524536e+002 
3331250000  -3.114133e+001  1.604745e+002 
3334375000  -2.858071e+001  1.504000e+002 
3337500000  -2.866112e+001  1.317660e+002 
3340625000  -3.000853e+001  1.206271e+002 
3343750000  -3.206060e+001  1.195916e+002 
3346875000  -3.241893e+001  1.216752e+002 
3350000000  -3.180492e+001  1.203964e+002 
3353125000  -3.193503e+001  1.151532e+002 
3356250000  -3.169589e+001  1.081750e+002 
3359375000  -3.256805e+001  9.942742e+001 
3362500000  -3.383574e+001  9.433675e+001 
3365625000  -3.442351e+001  9.205849e+001 
3368750000  -3.546837e+001  9.078850e+001 
3371875000  -3.589869e+001  8.721268e+001 
3375000000  -3.736324e+001  8.591569e+001 
3378125000  -3.835796e+001  8.538698e+001 
3381250000  -3.990453e+001  9.434924e+001 
3384375000  -3.918583e+001  1.158478e+002 
3387500000  -3.580100e+001  1.002177e+002 
3390625000  -3.781139e+001  8.096966e+001 
3393750000  -3.948741e+001  8.693120e+001 
3396875000  -3.865635e+001  8.969798e+001 
3400000000  -3.857761e+001  8.144869e+001 
3403125000  -3.982640e+001  7.692731e+001 
3406250000  -4.041436e+001  8.023610e+001 
3409375000  -4.116917e+001  7.683277e+001 
3412500000  -4.188789e+001  7.701765e+001 
3415625000  -4.270517e+001  8.105363e+001 
3418750000  -4.314817e+001  8.648762e+001 
3421875000  -4.314187e+001  9.362861e+001 
3425000000  -4.270234e+001  9.524976e+001 
3428125000  -4.141037e+001  9.492155e+001 
3431250000  -4.144256e+001  9.039475e+001 
3434375000  -4.100028e+001  8.754822e+001 
3437500000  -4.163265e+001  8.653287e+001 
3440625000  -4.197638e+001  8.962840e+001 
3443750000  -4.059865e+001  9.100202e+001 
3446875000  -3.970709e+001  8.537163e+001 
3450000000  -3.958750e+001  7.640031e+001 
3453125000  -3.986360e+001  6.862679e+001 
3456250000  -4.088970e+001  6.356936e+001 
3459375000  -4.237756e+001  6.676121e+001 
3462500000  -4.236271e+001  6.651161e+001 
3465625000  -4.217625e+001  6.066112e+001 
3468750000  -4.250257e+001  6.107317e+001 
3471875000  -4.257608e+001  6.122052e+001 
3475000000  -4.240579e+001  5.631694e+001 
3478125000  -4.325630e+001  5.094754e+001 
3481250000  -4.448238e+001  4.956168e+001 
3484375000  -4.594927e+001  5.523153e+001 
3487500000  -4.526245e+001  5.916020e+001 
3490625000  -4.480455e+001  5.305697e+001 
3493750000  -4.585712e+001  5.107964e+001 
3496875000  -4.655628e+001  5.266146e+001 
3500000000  -4.724748e+001  6.155955e+001 
3503125000  -4.766727e+001  6.913461e+001 
3506250000  -4.653196e+001  6.370442e+001 
3509375000  -4.618245e+001  6.100990e+001 
3512500000  -4.701829e+001  6.087942e+001 
3515625000  -4.798025e+001  6.558614e+001 
3518750000  -4.802791e+001  7.134446e+001 
3521875000  -4.830775e+001  7.448532e+001 
3525000000  -4.795269e+001  7.252882e+001 
3528125000  -4.705269e+001  8.627818e+001 
3531250000  -4.597893e+001  8.678699e+001 
3534375000  -4.469738e+001  7.682388e+001 
3537500000  -4.517951e+001  7.494741e+001 
3540625000  -4.544920e+001  7.767435e+001 
3543750000  -4.609422e+001  8.174592e+001 
3546875000  -4.565810e+001  9.142583e+001 
3550000000  -4.296536e+001  9.325424e+001 
3553125000  -4.137014e+001  7.813425e+001 
3556250000  -4.214076e+001  7.174316e+001 
3559375000  -4.197939e+001  7.365106e+001 
3562500000  -4.088401e+001  6.738359e+001 
3565625000  -4.178802e+001  5.992245e+001 
3568750000  -4.194812e+001  6.349842e+001 
3571875000  -4.150017e+001  6.292530e+001 
3575000000  -4.121067e+001  5.850615e+001 
3578125000  -4.160833e+001  5.343727e+001 
3581250000  -4.155525e+001  5.563693e+001 
3584375000  -4.075910e+001  5.449451e+001 
3587500000  -3.991813e+001  4.869841e+001 
3590625000  -4.039290e+001  3.966925e+001 
3593750000  -4.136889e+001  3.876405e+001 
3596875000  -4.128275e+001  4.729054e+001 
3600000000  -3.948977e+001  4.346559e+001 
3603125000  -3.993761e+001  2.912712e+001 
3606250000  -4.040253e+001  2.737019e+001 
3609375000  -4.068133e+001  2.764991e+001 
3612500000  -4.102488e+001  2.635598e+001 
3615625000  -4.153058e+001  2.230634e+001 
3618750000  -4.187477e+001  2.540649e+001 
3621875000  -4.148280e+001  2.540616e+001 
3625000000  -4.179094e+001  2.450956e+001 
3628125000  -4.167281e+001  2.292600e+001 
3631250000  -4.099298e+001  1.927136e+001 
3634375000  -4.209475e+001  1.862791e+001 
3637500000  -4.196754e+001  2.582829e+001 
3640625000  -4.067838e+001  2.790522e+001 
3643750000  -4.057703e+001  2.080505e+001 
3646875000  -4.126889e+001  1.548722e+001 
3650000000  -4.150087e+001  1.545302e+001 
3653125000  -4.105806e+001  1.490340e+001 
3656250000  -4.144065e+001  1.542284e+001 
3659375000  -4.192786e+001  1.800207e+001 
3662500000  -4.092451e+001  1.547587e+001 
3665625000  -4.115441e+001  1.647073e+001 
3668750000  -4.005570e+001  1.779910e+001 
3671875000  -3.912199e+001  1.404517e+001 
3675000000  -3.994292e+001  6.301550e+000 
3678125000  -4.006879e+001  8.746631e+000 
3681250000  -3.967505e+001  1.015905e+001 
3684375000  -3.951009e+001  7.229023e+000 
3687500000  -3.979272e+001  6.406072e+000 
3690625000  -3.964437e+001  4.518152e+000 
3693750000  -4.041403e+001  4.555824e+000 
3696875000  -4.034019e+001  1.066760e+001 
3700000000  -3.886766e+001  8.027046e+000 
3703125000  -3.861211e+001  4.177956e+000 
3706250000  -3.944277e+001  6.757358e+000 
3709375000  -3.866544e+001  1.004006e+001 
3712500000  -3.749067e+001  9.611413e+000 
3715625000  -3.638626e+001  2.962517e+000 
3718750000  -3.579547e+001  1.403120e+000 
3721875000  -3.533743e+001  -4.855339e+000 
3725000000  -3.518598e+001  -9.576682e+000 
3728125000  -3.540166e+001  -9.814285e+000 
3731250000  -3.483225e+001  -1.085629e+001 
3734375000  -3.384001e+001  -1.708775e+001 
3737500000  -3.422868e+001  -2.435849e+001 
3740625000  -3.483129e+001  -2.769527e+001 
3743750000  -3.471010e+001  -2.884883e+001 
3746875000  -3.446716e+001  -3.280069e+001 
3750000000  -3.500863e+001  -3.344448e+001 
3753125000  -3.459855e+001  -3.386091e+001 
3756250000  -3.452068e+001  -3.450652e+001 
3759375000  -3.424375e+001  -3.446046e+001 
3762500000  -3.364354e+001  -3.902982e+001 
3765625000  -3.420003e+001  -4.212737e+001 
3768750000  -3.429517e+001  -3.868064e+001 
3771875000  -3.249748e+001  -4.248456e+001 
3775000000  -3.222195e+001  -5.021935e+001 
3778125000  -3.258694e+001  -5.189938e+001 
3781250000  -3.245782e+001  -5.404661e+001 
3784375000  -3.231564e+001  -5.691343e+001 
3787500000  -3.169853e+001  -6.035944e+001 
3790625000  -3.222274e+001  -6.632160e+001 
3793750000  -3.235840e+001  -6.675549e+001 
3796875000  -3.143559e+001  -6.745811e+001 
3800000000  -2.991389e+001  -7.143549e+001 
3803125000  -3.080410e+001  -7.845847e+001 
3806250000  -3.141100e+001  -8.105981e+001 
3809375000  -3.114443e+001  -8.198288e+001 
3812500000  -3.049576e+001  -8.690305e+001 
3815625000  -3.110822e+001  -9.429707e+001 
3818750000  -3.200661e+001  -9.542258e+001 
3821875000  -3.211726e+001  -8.654311e+001 
3825000000  -3.008982e+001  -8.244883e+001 
3828125000  -2.879820e+001  -9.644448e+001 
3831250000  -2.929794e+001  -1.104788e+002 
3834375000  -3.070161e+001  -1.119619e+002 
3837500000  -3.164977e+001  -1.067923e+002 
3840625000  -3.036992e+001  -1.071823e+002 
3843750000  -2.923896e+001  -1.176970e+002 
3846875000  -3.000990e+001  -1.244387e+002 
3850000000  -3.125258e+001  -1.184093e+002 
3853125000  -3.042901e+001  -1.168849e+002 
3856250000  -3.041384e+001  -1.208349e+002 
3859375000  -2.965071e+001  -1.254061e+002 
3862500000  -2.920975e+001  -1.336293e+002 
3865625000  -2.956654e+001  -1.378356e+002 
3868750000  -2.956708e+001  -1.381978e+002 
3871875000  -2.884559e+001  -1.409399e+002 
3875000000  -2.903797e+001  -1.498790e+002 
3878125000  -2.999057e+001  -1.527198e+002 
3881250000  -3.013489e+001  -1.489116e+002 
3884375000  -2.965123e+001  -1.537728e+002 
3887500000  -2.973129e+001  -1.578313e+002 
3890625000  -3.028069e+001  -1.605898e+002 
3893750000  -3.076081e+001  -1.612658e+002 
3896875000  -3.088557e+001  -1.612444e+002 
3900000000  -3.107895e+001  -1.621278e+002 
3903125000  -3.067746e+001  -1.638977e+002 
3906250000  -3.040932e+001  -1.644359e+002 
3909375000  -2.962127e+001  -1.670421e+002 
3912500000  -2.971526e+001  -1.746227e+002 
3915625000  -3.094485e+001  -1.730005e+002 
3918750000  -3.089921e+001  -1.717313e+002 
3921875000  -3.059671e+001  -1.730782e+002 
3925000000  -2.971185e+001  -1.740509e+002 
3928125000  -2.913050e+001  1.798021e+002 
3931250000  -2.955754e+001  1.758370e+002 
3934375000  -2.980603e+001  1.762182e+002 
3937500000  -3.002088e+001  1.755230e+002 
3940625000  -3.044042e+001  1.757804e+002 
3943750000  -2.941882e+001  1.767267e+002 
3946875000  -2.815736e+001  1.710480e+002 
3950000000  -2.869560e+001  1.639996e+002 
3953125000  -2.965754e+001  1.647213e+002 
3956250000  -2.879385e+001  1.677028e+002 
3959375000  -2.747276e+001  1.645012e+002 
3962500000  -2.694061e+001  1.603537e+002 
3965625000  -2.658062e+001  1.519874e+002 
3968750000  -2.756290e+001  1.447605e+002 
3971875000  -2.787995e+001  1.434718e+002 
3975000000  -2.725271e+001  1.412070e+002 
3978125000  -2.709743e+001  1.397799e+002 
3981250000  -2.682639e+001  1.350455e+002 
3984375000  -2.706026e+001  1.291841e+002 
3987500000  -2.757995e+001  1.270588e+002 
3990625000  -2.753791e+001  1.261721e+002 
3993750000  -2.782916e+001  1.230480e+002 
3996875000  -2.774545e+001  1.209181e+002 
4000000000  -2.786589e+001  1.183742e+002 
4003125000  -2.838125e+001  1.208191e+002 
4006250000  -2.700374e+001  1.207135e+002 
4009375000  -2.583828e+001  1.092167e+002 
4012500000  -2.695297e+001  1.016966e+002 
4015625000  -2.813482e+001  1.021527e+002 
4018750000  -2.839926e+001  1.044011e+002 
4021875000  -2.764010e+001  1.027535e+002 
4025000000  -2.727554e+001  9.874410e+001 
4028125000  -2.725607e+001  9.435946e+001 
4031250000  -2.775716e+001  9.084399e+001 
4034375000  -2.795243e+001  9.123762e+001 
4037500000  -2.744128e+001  9.312992e+001 
4040625000  -2.735935e+001  8.966634e+001 
4043750000  -2.775948e+001  8.928107e+001 
4046875000  -2.726013e+001  8.899671e+001 
4050000000  -2.683141e+001  8.314593e+001 
4053125000  -2.723209e+001  8.136562e+001 
4056250000  -2.787804e+001  8.519395e+001 
4059375000  -2.655746e+001  8.726712e+001 
4062500000  -2.521606e+001  8.246429e+001 
4065625000  -2.508376e+001  7.809364e+001 
4068750000  -2.481979e+001  7.334176e+001 
4071875000  -2.415173e+001  6.573234e+001 
4075000000  -2.453180e+001  5.930510e+001 
4078125000  -2.505829e+001  5.838384e+001 
4081250000  -2.454957e+001  5.582170e+001 
4084375000  -2.415060e+001  4.901734e+001 
4087500000  -2.453645e+001  4.288974e+001 
4090625000  -2.517635e+001  4.206259e+001 
4093750000  -2.493983e+001  4.254617e+001 
4096875000  -2.449654e+001  3.654837e+001 
4100000000  -2.518155e+001  2.963623e+001 
4103125000  -2.607785e+001  3.029736e+001 
4106250000  -2.590836e+001  3.537082e+001 
4109375000  -2.505124e+001  3.465169e+001 
4112500000  -2.452642e+001  2.785742e+001 
4115625000  -2.476032e+001  2.393843e+001 
4118750000  -2.487894e+001  2.064858e+001 
4121875000  -2.447521e+001  1.602113e+001 
4125000000  -2.488084e+001  1.106297e+001 
4128125000  -2.593465e+001  1.137448e+001 
4131250000  -2.563282e+001  1.968926e+001 
4134375000  -2.328775e+001  1.468462e+001 
4137500000  -2.305075e+001  -4.098119e+000 
4140625000  -2.523910e+001  -1.090444e+001 
4143750000  -2.652254e+001  -6.084566e+000 
4146875000  -2.612395e+001  1.603500e+000 
4150000000  -2.523058e+001  -1.978125e+000 
4153125000  -2.509074e+001  -8.475919e+000 
4156250000  -2.598788e+001  -1.083589e+001 
4159375000  -2.621933e+001  -6.376282e+000 
4162500000  -2.500977e+001  -2.012972e+000 
4165625000  -2.395746e+001  -5.857943e+000 
4168750000  -2.334311e+001  -1.367822e+001 
4171875000  -2.331750e+001  -2.230162e+001 
4175000000  -2.388685e+001  -2.816022e+001 
4178125000  -2.450370e+001  -2.828111e+001 
4181250000  -2.437018e+001  -2.899764e+001 
4184375000  -2.419703e+001  -3.205898e+001 
4187500000  -2.429500e+001  -3.453064e+001 
4190625000  -2.410697e+001  -4.065465e+001 
4193750000  -2.489516e+001  -4.437479e+001 
4196875000  -2.561380e+001  -4.452787e+001 
4200000000  -2.647266e+001  -4.200677e+001 
4203125000  -2.644391e+001  -2.844078e+001 
4206250000  -2.303702e+001  -2.719382e+001 
4209375000  -2.181354e+001  -4.811397e+001 
4212500000  -2.385140e+001  -5.639450e+001 
4215625000  -2.484447e+001  -5.015362e+001 
4218750000  -2.346839e+001  -4.380366e+001 
4221875000  -2.120928e+001  -5.275292e+001 
4225000000  -2.242598e+001  -6.545419e+001 
4228125000  -2.306357e+001  -6.040964e+001 
4231250000  -2.151166e+001  -6.400835e+001 
4234375000  -2.143419e+001  -7.254148e+001 
4237500000  -2.101193e+001  -7.566923e+001 
4240625000  -2.102360e+001  -8.421229e+001 
4243750000  -2.203493e+001  -9.111638e+001 
4246875000  -2.296621e+001  -9.111006e+001 
4250000000  -2.297117e+001  -8.827950e+001 
4253125000  -2.238915e+001  -9.018172e+001 
4256250000  -2.267750e+001  -9.400919e+001 
4259375000  -2.238718e+001  -9.638692e+001 
4262500000  -2.242398e+001  -9.967808e+001 
4265625000  -2.262841e+001  -9.987984e+001 
4268750000  -2.172602e+001  -1.036585e+002 
4271875000  -2.144374e+001  -1.095773e+002 
4275000000  -2.081413e+001  -1.158982e+002 
4278125000  -2.149081e+001  -1.272269e+002 
4281250000  -2.328579e+001  -1.290354e+002 
4284375000  -2.294558e+001  -1.283816e+002 
4287500000  -2.376388e+001  -1.320038e+002 
4290625000  -2.501851e+001  -1.222109e+002 
4293750000  -2.301683e+001  -1.166597e+002 
4296875000  -2.163685e+001  -1.281112e+002 
4300000000  -2.255944e+001  -1.370645e+002 
4303125000  -2.363035e+001  -1.358979e+002 
4306250000  -2.296725e+001  -1.301003e+002 
4309375000  -2.158556e+001  -1.322001e+002 
4312500000  -2.149988e+001  -1.405840e+002 
4315625000  -2.169701e+001  -1.470661e+002 
4318750000  -2.207776e+001  -1.501100e+002 
4321875000  -2.221975e+001  -1.494165e+002 
4325000000  -2.163255e+001  -1.488109e+002 
4328125000  -2.115006e+001  -1.555183e+002 
4331250000  -2.103370e+001  -1.635625e+002 
4334375000  -2.153026e+001  -1.687516e+002 
4337500000  -2.237442e+001  -1.707533e+002 
4340625000  -2.292250e+001  -1.672198e+002 
4343750000  -2.227083e+001  -1.671430e+002 
4346875000  -2.193723e+001  -1.727098e+002 
4350000000  -2.193312e+001  -1.775116e+002 
4353125000  -2.200853e+001  1.750486e+002 
4356250000  -2.382036e+001  1.742496e+002 
4359375000  -2.433430e+001  -1.725073e+002 
4362500000  -2.153778e+001  -1.703871e+002 
4365625000  -1.995693e+001  1.774106e+002 
4368750000  -2.076874e+001  1.656586e+002 
4371875000  -2.194283e+001  1.665760e+002 
4375000000  -2.160309e+001  1.673783e+002 
4378125000  -2.091455e+001  1.615897e+002 
4381250000  -2.112220e+001  1.560531e+002 
4384375000  -2.090134e+001  1.515473e+002 
4387500000  -2.169844e+001  1.458493e+002 
4390625000  -2.269623e+001  1.464552e+002 
4393750000  -2.199167e+001  1.491717e+002 
4396875000  -2.135581e+001  1.467059e+002 
4400000000  -2.084432e+001  1.396798e+002 
4403125000  -2.144968e+001  1.320348e+002 
4406250000  -2.228767e+001  1.310722e+002 
4409375000  -2.224432e+001  1.288663e+002 
4412500000  -2.330692e+001  1.259915e+002 
4415625000  -2.363495e+001  1.312399e+002 
4418750000  -2.242946e+001  1.353530e+002 
