!Agilent Technologies,E8363B,MY43030201,A.06.04.32
!Agilent E8363B: A.06.04.32
!Date: Tuesday, November 11, 2014 20:45:30
!Correction: S21(Response(S21)) 
!S1P File: Measurement: S21:
# Hz S  dB   R 50
3000000000  -2.648450e+001  1.584515e+002 
3003125000  -2.784349e+001  1.541972e+002 
3006250000  -2.797401e+001  1.509683e+002 
3009375000  -2.825913e+001  1.564354e+002 
3012500000  -2.780557e+001  1.560246e+002 
3015625000  -2.680155e+001  1.489654e+002 
3018750000  -2.770427e+001  1.479039e+002 
3021875000  -2.645046e+001  1.493067e+002 
3025000000  -2.515558e+001  1.461909e+002 
3028125000  -2.418057e+001  1.415725e+002 
3031250000  -2.313053e+001  1.303645e+002 
3034375000  -2.275561e+001  1.175472e+002 
3037500000  -2.305695e+001  1.054953e+002 
3040625000  -2.437126e+001  1.001665e+002 
3043750000  -2.513600e+001  9.614581e+001 
3046875000  -2.515453e+001  8.952415e+001 
3050000000  -2.697963e+001  8.243123e+001 
3053125000  -2.712928e+001  8.890756e+001 
3056250000  -2.643322e+001  9.216291e+001 
3059375000  -2.670142e+001  9.180768e+001 
3062500000  -2.526287e+001  8.777022e+001 
3065625000  -2.504777e+001  8.246616e+001 
3068750000  -2.476162e+001  7.536408e+001 
3071875000  -2.466661e+001  7.214375e+001 
3075000000  -2.464786e+001  6.873891e+001 
3078125000  -2.435721e+001  6.430781e+001 
3081250000  -2.500311e+001  6.017095e+001 
3084375000  -2.429738e+001  5.637912e+001 
3087500000  -2.415154e+001  5.284111e+001 
3090625000  -2.383016e+001  4.324085e+001 
3093750000  -2.420672e+001  3.503660e+001 
3096875000  -2.553587e+001  2.897982e+001 
3100000000  -2.568290e+001  2.735785e+001 
3103125000  -2.606986e+001  2.904358e+001 
3106250000  -2.576830e+001  2.558374e+001 
3109375000  -2.603103e+001  2.207250e+001 
3112500000  -2.617397e+001  2.116105e+001 
3115625000  -2.594087e+001  1.686697e+001 
3118750000  -2.647336e+001  1.792950e+001 
3121875000  -2.579035e+001  1.017735e+001 
3125000000  -2.687832e+001  6.620504e+000 
3128125000  -2.820357e+001  1.409237e+001 
3131250000  -2.599859e+001  1.523149e+001 
3134375000  -2.464157e+001  1.855907e+000 
3137500000  -2.525879e+001  -1.244733e+001 
3140625000  -2.692584e+001  -1.425604e+001 
3143750000  -2.788558e+001  -9.710039e+000 
3146875000  -2.754393e+001  -7.934971e+000 
3150000000  -2.649773e+001  -5.537239e+000 
3153125000  -2.647330e+001  -1.317816e+001 
3156250000  -2.741204e+001  -7.783790e+000 
3159375000  -2.595729e+001  -5.185630e+000 
3162500000  -2.393120e+001  -1.748628e+001 
3165625000  -2.477345e+001  -2.845357e+001 
3168750000  -2.522674e+001  -2.799459e+001 
3171875000  -2.428111e+001  -3.205576e+001 
3175000000  -2.484532e+001  -3.972811e+001 
3178125000  -2.470780e+001  -3.811354e+001 
3181250000  -2.350393e+001  -4.195332e+001 
3184375000  -2.266070e+001  -5.408982e+001 
3187500000  -2.373310e+001  -6.983492e+001 
3190625000  -2.661031e+001  -7.744465e+001 
3193750000  -2.723593e+001  -6.785321e+001 
3196875000  -2.678997e+001  -6.222164e+001 
3200000000  -2.596689e+001  -6.380626e+001 
3203125000  -2.506757e+001  -6.933553e+001 
3206250000  -2.533648e+001  -7.574824e+001 
3209375000  -2.485767e+001  -8.058743e+001 
3212500000  -2.495000e+001  -8.764070e+001 
3215625000  -2.510658e+001  -9.209190e+001 
3218750000  -2.586497e+001  -9.806557e+001 
3221875000  -2.688812e+001  -1.032449e+002 
3225000000  -2.651933e+001  -1.036629e+002 
3228125000  -2.676343e+001  -1.079574e+002 
3231250000  -2.754579e+001  -1.111493e+002 
3234375000  -2.741317e+001  -1.101227e+002 
3237500000  -2.745888e+001  -1.115417e+002 
3240625000  -2.716045e+001  -1.133024e+002 
3243750000  -2.670891e+001  -1.197249e+002 
3246875000  -2.724638e+001  -1.265106e+002 
3250000000  -2.772522e+001  -1.282146e+002 
3253125000  -2.780770e+001  -1.302660e+002 
3256250000  -2.773255e+001  -1.359414e+002 
3259375000  -2.802302e+001  -1.433796e+002 
3262500000  -2.927254e+001  -1.467459e+002 
3265625000  -2.999389e+001  -1.430913e+002 
3268750000  -2.998277e+001  -1.404956e+002 
3271875000  -2.976804e+001  -1.393000e+002 
3275000000  -2.866627e+001  -1.440935e+002 
3278125000  -2.906270e+001  -1.508243e+002 
3281250000  -2.931829e+001  -1.483267e+002 
3284375000  -2.891252e+001  -1.547909e+002 
3287500000  -2.910258e+001  -1.576637e+002 
3290625000  -2.947439e+001  -1.615000e+002 
3293750000  -2.921461e+001  -1.670244e+002 
3296875000  -3.018476e+001  -1.672508e+002 
3300000000  -3.014966e+001  -1.661295e+002 
3303125000  -2.899862e+001  -1.696152e+002 
3306250000  -2.876742e+001  -1.766538e+002 
3309375000  -2.854527e+001  1.787761e+002 
3312500000  -2.855128e+001  1.684408e+002 
3315625000  -2.950185e+001  1.599673e+002 
3318750000  -3.082806e+001  1.575419e+002 
3321875000  -3.216523e+001  1.570065e+002 
3325000000  -3.274674e+001  1.620911e+002 
3328125000  -3.251248e+001  1.636661e+002 
3331250000  -3.139428e+001  1.719129e+002 
3334375000  -2.875296e+001  1.620758e+002 
3337500000  -2.880650e+001  1.438456e+002 
3340625000  -3.013320e+001  1.328577e+002 
3343750000  -3.204620e+001  1.314397e+002 
3346875000  -3.272446e+001  1.327618e+002 
3350000000  -3.198309e+001  1.316278e+002 
3353125000  -3.215863e+001  1.277010e+002 
3356250000  -3.181127e+001  1.198587e+002 
3359375000  -3.272337e+001  1.114090e+002 
3362500000  -3.394401e+001  1.057448e+002 
3365625000  -3.462114e+001  1.037835e+002 
3368750000  -3.554940e+001  1.023686e+002 
3371875000  -3.586508e+001  9.968142e+001 
3375000000  -3.756331e+001  9.788164e+001 
3378125000  -3.872725e+001  9.736561e+001 
3381250000  -4.019137e+001  1.048531e+002 
3384375000  -3.952767e+001  1.253309e+002 
3387500000  -3.629968e+001  1.115694e+002 
3390625000  -3.810051e+001  9.371027e+001 
3393750000  -3.987913e+001  9.614495e+001 
3396875000  -3.909971e+001  1.005386e+002 
3400000000  -3.879848e+001  9.242237e+001 
3403125000  -4.016706e+001  8.807972e+001 
3406250000  -4.052985e+001  9.120928e+001 
3409375000  -4.135077e+001  8.684080e+001 
3412500000  -4.217894e+001  8.885911e+001 
3415625000  -4.316134e+001  9.216631e+001 
3418750000  -4.357330e+001  9.605945e+001 
3421875000  -4.362881e+001  1.034989e+002 
3425000000  -4.315467e+001  1.084655e+002 
3428125000  -4.207541e+001  1.065216e+002 
3431250000  -4.222115e+001  1.028579e+002 
3434375000  -4.153455e+001  1.018981e+002 
3437500000  -4.219871e+001  9.911359e+001 
3440625000  -4.256927e+001  1.027979e+002 
3443750000  -4.138006e+001  1.052330e+002 
3446875000  -4.050565e+001  1.005898e+002 
3450000000  -4.049471e+001  8.971292e+001 
3453125000  -4.054749e+001  8.107960e+001 
3456250000  -4.162224e+001  7.811839e+001 
3459375000  -4.262625e+001  7.976390e+001 
3462500000  -4.281596e+001  8.114230e+001 
3465625000  -4.284016e+001  7.647925e+001 
3468750000  -4.317968e+001  7.202014e+001 
3471875000  -4.338348e+001  7.332496e+001 
3475000000  -4.303492e+001  6.971574e+001 
3478125000  -4.375111e+001  6.582819e+001 
3481250000  -4.522012e+001  6.346193e+001 
3484375000  -4.666110e+001  6.908647e+001 
3487500000  -4.619107e+001  7.267876e+001 
3490625000  -4.574520e+001  6.840173e+001 
3493750000  -4.665939e+001  6.666979e+001 
3496875000  -4.716689e+001  6.770720e+001 
3500000000  -4.860490e+001  7.596185e+001 
3503125000  -4.808846e+001  8.265835e+001 
3506250000  -4.714905e+001  8.271774e+001 
3509375000  -4.720280e+001  8.225163e+001 
3512500000  -4.776337e+001  8.022008e+001 
3515625000  -4.784451e+001  8.263837e+001 
3518750000  -4.786239e+001  8.863914e+001 
3521875000  -4.830238e+001  9.559621e+001 
3525000000  -4.747095e+001  9.344767e+001 
3528125000  -4.752590e+001  1.044069e+002 
3531250000  -4.537988e+001  1.048605e+002 
3534375000  -4.514159e+001  9.696082e+001 
3537500000  -4.522460e+001  9.182083e+001 
3540625000  -4.554344e+001  9.311508e+001 
3543750000  -4.549582e+001  9.627623e+001 
3546875000  -4.555759e+001  1.085893e+002 
3550000000  -4.299487e+001  1.109940e+002 
3553125000  -4.154721e+001  9.366873e+001 
3556250000  -4.266589e+001  8.780818e+001 
3559375000  -4.201994e+001  8.983044e+001 
3562500000  -4.105025e+001  8.266266e+001 
3565625000  -4.179703e+001  7.658696e+001 
3568750000  -4.190540e+001  7.931071e+001 
3571875000  -4.148126e+001  8.160569e+001 
3575000000  -4.087531e+001  7.309383e+001 
3578125000  -4.149335e+001  6.977431e+001 
3581250000  -4.163823e+001  7.039243e+001 
3584375000  -4.081942e+001  7.015831e+001 
3587500000  -4.016383e+001  6.352931e+001 
3590625000  -4.037441e+001  5.617951e+001 
3593750000  -4.134994e+001  5.275723e+001 
3596875000  -4.114911e+001  6.214476e+001 
3600000000  -3.971070e+001  6.005856e+001 
3603125000  -3.992557e+001  4.616975e+001 
3606250000  -4.058878e+001  4.268745e+001 
3609375000  -4.095388e+001  4.207007e+001 
3612500000  -4.138919e+001  4.145636e+001 
3615625000  -4.127138e+001  3.897778e+001 
3618750000  -4.200023e+001  4.067125e+001 
3621875000  -4.155797e+001  3.950598e+001 
3625000000  -4.167482e+001  3.899620e+001 
3628125000  -4.173775e+001  3.934325e+001 
3631250000  -4.150476e+001  3.356316e+001 
3634375000  -4.260221e+001  3.439063e+001 
3637500000  -4.190758e+001  4.132128e+001 
3640625000  -4.095979e+001  4.276755e+001 
3643750000  -4.097273e+001  3.745515e+001 
3646875000  -4.120373e+001  2.988725e+001 
3650000000  -4.171471e+001  2.927210e+001 
3653125000  -4.162633e+001  3.281379e+001 
3656250000  -4.173073e+001  3.080365e+001 
3659375000  -4.214021e+001  3.206717e+001 
3662500000  -4.133372e+001  3.182088e+001 
3665625000  -4.124969e+001  3.141842e+001 
3668750000  -4.035294e+001  3.385704e+001 
3671875000  -3.957487e+001  3.028451e+001 
3675000000  -3.985534e+001  2.344313e+001 
3678125000  -4.037993e+001  2.499266e+001 
3681250000  -3.984457e+001  2.746822e+001 
3684375000  -3.984202e+001  2.400653e+001 
3687500000  -4.001923e+001  2.238993e+001 
3690625000  -3.976683e+001  1.953535e+001 
3693750000  -4.029010e+001  2.288236e+001 
3696875000  -4.012793e+001  2.728689e+001 
3700000000  -3.896781e+001  2.269024e+001 
3703125000  -3.883784e+001  2.150053e+001 
3706250000  -3.936251e+001  2.146163e+001 
3709375000  -3.874967e+001  2.435873e+001 
3712500000  -3.758281e+001  2.391437e+001 
3715625000  -3.637249e+001  1.876558e+001 
3718750000  -3.575484e+001  1.704401e+001 
3721875000  -3.526379e+001  1.081420e+001 
3725000000  -3.528251e+001  6.724418e+000 
3728125000  -3.540815e+001  4.812898e+000 
3731250000  -3.470380e+001  5.001715e+000 
3734375000  -3.380271e+001  -1.496840e+000 
3737500000  -3.426280e+001  -8.822715e+000 
3740625000  -3.477491e+001  -1.141688e+001 
3743750000  -3.460176e+001  -1.393213e+001 
3746875000  -3.465225e+001  -1.715968e+001 
3750000000  -3.489935e+001  -1.798181e+001 
3753125000  -3.455093e+001  -1.772091e+001 
3756250000  -3.455342e+001  -1.845312e+001 
3759375000  -3.432503e+001  -1.898333e+001 
3762500000  -3.373654e+001  -2.338317e+001 
3765625000  -3.409710e+001  -2.630218e+001 
3768750000  -3.427375e+001  -2.478137e+001 
3771875000  -3.259526e+001  -2.586934e+001 
3775000000  -3.235431e+001  -3.426575e+001 
3778125000  -3.259024e+001  -3.622322e+001 
3781250000  -3.241858e+001  -3.936415e+001 
3784375000  -3.237373e+001  -4.009809e+001 
3787500000  -3.160154e+001  -4.428102e+001 
3790625000  -3.220678e+001  -4.935683e+001 
3793750000  -3.245174e+001  -5.028014e+001 
3796875000  -3.153536e+001  -5.170129e+001 
3800000000  -2.999207e+001  -5.560416e+001 
3803125000  -3.072557e+001  -6.217019e+001 
3806250000  -3.141716e+001  -6.408244e+001 
3809375000  -3.110510e+001  -6.544980e+001 
3812500000  -3.037514e+001  -7.100407e+001 
3815625000  -3.097035e+001  -7.742445e+001 
3818750000  -3.191562e+001  -7.966924e+001 
3821875000  -3.215868e+001  -7.174052e+001 
3825000000  -3.027053e+001  -6.689284e+001 
3828125000  -2.883855e+001  -8.031352e+001 
3831250000  -2.933289e+001  -9.453571e+001 
3834375000  -3.059083e+001  -9.550230e+001 
3837500000  -3.148799e+001  -9.102146e+001 
3840625000  -3.051296e+001  -9.141457e+001 
3843750000  -2.933772e+001  -1.012127e+002 
3846875000  -2.990541e+001  -1.090515e+002 
3850000000  -3.119551e+001  -1.033003e+002 
3853125000  -3.045194e+001  -1.006939e+002 
3856250000  -3.041763e+001  -1.053135e+002 
3859375000  -2.983521e+001  -1.095709e+002 
3862500000  -2.929456e+001  -1.165663e+002 
3865625000  -2.958799e+001  -1.214501e+002 
3868750000  -2.955949e+001  -1.218761e+002 
3871875000  -2.886641e+001  -1.246157e+002 
3875000000  -2.897779e+001  -1.330705e+002 
3878125000  -2.995957e+001  -1.359049e+002 
3881250000  -3.007909e+001  -1.331803e+002 
3884375000  -2.964556e+001  -1.370353e+002 
3887500000  -2.957747e+001  -1.417278e+002 
3890625000  -3.012725e+001  -1.438971e+002 
3893750000  -3.059756e+001  -1.450754e+002 
3896875000  -3.075418e+001  -1.446288e+002 
3900000000  -3.093383e+001  -1.454020e+002 
3903125000  -3.060554e+001  -1.473530e+002 
3906250000  -3.035626e+001  -1.489201e+002 
3909375000  -2.969363e+001  -1.507404e+002 
3912500000  -2.963390e+001  -1.576824e+002 
3915625000  -3.088534e+001  -1.577358e+002 
3918750000  -3.091709e+001  -1.561294e+002 
3921875000  -3.060476e+001  -1.573388e+002 
3925000000  -2.985741e+001  -1.577634e+002 
3928125000  -2.905648e+001  -1.636677e+002 
3931250000  -2.943297e+001  -1.677158e+002 
3934375000  -2.975134e+001  -1.677247e+002 
3937500000  -2.994948e+001  -1.685958e+002 
3940625000  -3.037763e+001  -1.681681e+002 
3943750000  -2.942140e+001  -1.666193e+002 
3946875000  -2.817684e+001  -1.716704e+002 
3950000000  -2.857036e+001  -1.797793e+002 
3953125000  -2.957185e+001  -1.795038e+002 
3956250000  -2.885340e+001  -1.762701e+002 
3959375000  -2.742576e+001  -1.795093e+002 
3962500000  -2.690238e+001  1.768215e+002 
3965625000  -2.650615e+001  1.677588e+002 
3968750000  -2.745178e+001  1.613169e+002 
3971875000  -2.789147e+001  1.598409e+002 
3975000000  -2.722336e+001  1.576282e+002 
3978125000  -2.698443e+001  1.562760e+002 
3981250000  -2.671069e+001  1.522982e+002 
3984375000  -2.699327e+001  1.460250e+002 
3987500000  -2.745446e+001  1.434887e+002 
3990625000  -2.750338e+001  1.424530e+002 
3993750000  -2.764591e+001  1.390965e+002 
3996875000  -2.768461e+001  1.367405e+002 
4000000000  -2.776035e+001  1.352695e+002 
4003125000  -2.831861e+001  1.367637e+002 
4006250000  -2.701964e+001  1.372509e+002 
4009375000  -2.577873e+001  1.251277e+002 
4012500000  -2.674006e+001  1.181992e+002 
4015625000  -2.799896e+001  1.182686e+002 
4018750000  -2.824006e+001  1.211390e+002 
4021875000  -2.756878e+001  1.192517e+002 
4025000000  -2.716238e+001  1.144412e+002 
4028125000  -2.712070e+001  1.108828e+002 
4031250000  -2.761068e+001  1.073357e+002 
4034375000  -2.787311e+001  1.073581e+002 
4037500000  -2.734126e+001  1.093855e+002 
4040625000  -2.723859e+001  1.062103e+002 
4043750000  -2.757562e+001  1.051840e+002 
4046875000  -2.721487e+001  1.048033e+002 
4050000000  -2.667526e+001  9.927551e+001 
4053125000  -2.708549e+001  9.705524e+001 
4056250000  -2.770791e+001  1.009104e+002 
4059375000  -2.662206e+001  1.029238e+002 
4062500000  -2.522534e+001  9.879380e+001 
4065625000  -2.499496e+001  9.394772e+001 
4068750000  -2.474233e+001  8.971039e+001 
4071875000  -2.411544e+001  8.158971e+001 
4075000000  -2.442300e+001  7.517867e+001 
4078125000  -2.499541e+001  7.395561e+001 
4081250000  -2.458134e+001  7.212632e+001 
4084375000  -2.412330e+001  6.553022e+001 
4087500000  -2.441939e+001  5.878178e+001 
4090625000  -2.500927e+001  5.782826e+001 
4093750000  -2.489267e+001  5.853568e+001 
4096875000  -2.441376e+001  5.275225e+001 
4100000000  -2.509553e+001  4.584037e+001 
4103125000  -2.594117e+001  4.583202e+001 
4106250000  -2.588126e+001  5.098417e+001 
4109375000  -2.507036e+001  5.074508e+001 
4112500000  -2.444956e+001  4.433889e+001 
4115625000  -2.471536e+001  3.958374e+001 
4118750000  -2.484566e+001  3.687440e+001 
4121875000  -2.450698e+001  3.277706e+001 
4125000000  -2.474879e+001  2.725519e+001 
4128125000  -2.576590e+001  2.677806e+001 
4131250000  -2.557874e+001  3.503394e+001 
4134375000  -2.330109e+001  3.106548e+001 
4137500000  -2.303112e+001  1.239772e+001 
4140625000  -2.511731e+001  4.896641e+000 
4143750000  -2.649539e+001  9.577472e+000 
4146875000  -2.607681e+001  1.713812e+001 
4150000000  -2.516675e+001  1.416374e+001 
4153125000  -2.499508e+001  7.767896e+000 
4156250000  -2.588213e+001  4.813074e+000 
4159375000  -2.619224e+001  9.434586e+000 
4162500000  -2.505386e+001  1.354701e+001 
4165625000  -2.398131e+001  1.003526e+001 
4168750000  -2.328952e+001  2.842575e+000 
4171875000  -2.327258e+001  -6.432175e+000 
4175000000  -2.385056e+001  -1.205192e+001 
4178125000  -2.449978e+001  -1.223217e+001 
4181250000  -2.436741e+001  -1.253745e+001 
4184375000  -2.423848e+001  -1.564754e+001 
4187500000  -2.423020e+001  -1.841859e+001 
4190625000  -2.404403e+001  -2.367443e+001 
4193750000  -2.476630e+001  -2.766691e+001 
4196875000  -2.552686e+001  -2.839780e+001 
4200000000  -2.633110e+001  -2.601854e+001 
4203125000  -2.647112e+001  -1.345740e+001 
4206250000  -2.322282e+001  -1.103351e+001 
4209375000  -2.185749e+001  -3.114698e+001 
4212500000  -2.374865e+001  -4.020778e+001 
4215625000  -2.480049e+001  -3.467838e+001 
4218750000  -2.355000e+001  -2.741583e+001 
4221875000  -2.119211e+001  -3.644952e+001 
4225000000  -2.240491e+001  -4.912114e+001 
4228125000  -2.317026e+001  -4.448640e+001 
4231250000  -2.163157e+001  -4.758242e+001 
4234375000  -2.154766e+001  -5.630935e+001 
4237500000  -2.105559e+001  -5.916378e+001 
4240625000  -2.105812e+001  -6.764735e+001 
4243750000  -2.202400e+001  -7.407404e+001 
4246875000  -2.293363e+001  -7.454780e+001 
4250000000  -2.303037e+001  -7.190833e+001 
4253125000  -2.242102e+001  -7.361420e+001 
4256250000  -2.268720e+001  -7.790308e+001 
4259375000  -2.247002e+001  -7.995528e+001 
4262500000  -2.244777e+001  -8.358913e+001 
4265625000  -2.261766e+001  -8.338590e+001 
4268750000  -2.181633e+001  -8.734491e+001 
4271875000  -2.151842e+001  -9.268116e+001 
4275000000  -2.084649e+001  -9.884177e+001 
4278125000  -2.142687e+001  -1.101452e+002 
4281250000  -2.328651e+001  -1.126670e+002 
4284375000  -2.297008e+001  -1.117419e+002 
4287500000  -2.370866e+001  -1.152687e+002 
4290625000  -2.503891e+001  -1.064364e+002 
4293750000  -2.311957e+001  -1.001284e+002 
4296875000  -2.169685e+001  -1.114825e+002 
4300000000  -2.248256e+001  -1.205798e+002 
4303125000  -2.362916e+001  -1.198723e+002 
4306250000  -2.313031e+001  -1.140247e+002 
4309375000  -2.169994e+001  -1.153233e+002 
4312500000  -2.157096e+001  -1.237001e+002 
4315625000  -2.179943e+001  -1.297732e+002 
4318750000  -2.208253e+001  -1.331621e+002 
4321875000  -2.227036e+001  -1.326153e+002 
4325000000  -2.171347e+001  -1.322868e+002 
4328125000  -2.121996e+001  -1.384183e+002 
4331250000  -2.114449e+001  -1.462140e+002 
4334375000  -2.151725e+001  -1.514034e+002 
4337500000  -2.231381e+001  -1.540335e+002 
4340625000  -2.288371e+001  -1.511060e+002 
4343750000  -2.237853e+001  -1.503521e+002 
4346875000  -2.196357e+001  -1.554072e+002 
4350000000  -2.198497e+001  -1.600403e+002 
4353125000  -2.198177e+001  -1.677176e+002 
4356250000  -2.361854e+001  -1.693845e+002 
4359375000  -2.443079e+001  -1.566147e+002 
4362500000  -2.182875e+001  -1.540487e+002 
4365625000  -2.015646e+001  -1.653163e+002 
4368750000  -2.076539e+001  -1.772483e+002 
4371875000  -2.196514e+001  -1.772413e+002 
4375000000  -2.168416e+001  -1.758174e+002 
4378125000  -2.105486e+001  1.786309e+002 
4381250000  -2.121937e+001  1.732791e+002 
4384375000  -2.105662e+001  1.687009e+002 
4387500000  -2.169168e+001  1.628419e+002 
4390625000  -2.278109e+001  1.636189e+002 
4393750000  -2.210496e+001  1.658742e+002 
4396875000  -2.146070e+001  1.637073e+002 
4400000000  -2.094600e+001  1.570215e+002 
4403125000  -2.146453e+001  1.494807e+002 
4406250000  -2.233596e+001  1.480380e+002 
4409375000  -2.229864e+001  1.457600e+002 
4412500000  -2.330295e+001  1.429267e+002 
4415625000  -2.367235e+001  1.476229e+002 
4418750000  -2.262782e+001  1.523119e+002 
