!Agilent Technologies,E8363B,MY43030201,A.06.04.32
!Agilent E8363B: A.06.04.32
!Date: Tuesday, November 11, 2014 20:51:02
!Correction: S21(Response(S21)) 
!S1P File: Measurement: S21:
# Hz S  dB   R 50
3000000000  -2.646130e+001  1.522326e+002 
3003125000  -2.788133e+001  1.475448e+002 
3006250000  -2.790446e+001  1.446083e+002 
3009375000  -2.827410e+001  1.501434e+002 
3012500000  -2.775183e+001  1.497778e+002 
3015625000  -2.680315e+001  1.425178e+002 
3018750000  -2.764017e+001  1.417650e+002 
3021875000  -2.640178e+001  1.430430e+002 
3025000000  -2.507921e+001  1.400778e+002 
3028125000  -2.410375e+001  1.351611e+002 
3031250000  -2.309427e+001  1.237658e+002 
3034375000  -2.272719e+001  1.109018e+002 
3037500000  -2.306800e+001  9.892375e+001 
3040625000  -2.440713e+001  9.379903e+001 
3043750000  -2.512747e+001  8.941310e+001 
3046875000  -2.524421e+001  8.335648e+001 
3050000000  -2.694001e+001  7.626790e+001 
3053125000  -2.715104e+001  8.301727e+001 
3056250000  -2.644790e+001  8.588458e+001 
3059375000  -2.670156e+001  8.551908e+001 
3062500000  -2.522342e+001  8.161442e+001 
3065625000  -2.497089e+001  7.577178e+001 
3068750000  -2.467201e+001  6.891160e+001 
3071875000  -2.464347e+001  6.621183e+001 
3075000000  -2.459186e+001  6.233355e+001 
3078125000  -2.432093e+001  5.771660e+001 
3081250000  -2.496202e+001  5.348683e+001 
3084375000  -2.420858e+001  4.981234e+001 
3087500000  -2.408451e+001  4.624824e+001 
3090625000  -2.383004e+001  3.644485e+001 
3093750000  -2.424239e+001  2.858215e+001 
3096875000  -2.554669e+001  2.267585e+001 
3100000000  -2.565210e+001  2.128513e+001 
3103125000  -2.604072e+001  2.257525e+001 
3106250000  -2.577590e+001  1.915540e+001 
3109375000  -2.601861e+001  1.542169e+001 
3112500000  -2.613271e+001  1.454196e+001 
3115625000  -2.593839e+001  1.051358e+001 
3118750000  -2.643439e+001  1.155573e+001 
3121875000  -2.574665e+001  3.571660e+000 
3125000000  -2.696237e+001  1.831788e-001 
3128125000  -2.815557e+001  8.203771e+000 
3131250000  -2.598112e+001  8.608499e+000 
3134375000  -2.460728e+001  -4.976586e+000 
3137500000  -2.527708e+001  -1.889262e+001 
3140625000  -2.688493e+001  -2.046959e+001 
3143750000  -2.794514e+001  -1.622622e+001 
3146875000  -2.749510e+001  -1.424180e+001 
3150000000  -2.657320e+001  -1.189353e+001 
3153125000  -2.646946e+001  -1.953435e+001 
3156250000  -2.747475e+001  -1.423650e+001 
3159375000  -2.589557e+001  -1.140119e+001 
3162500000  -2.384439e+001  -2.432774e+001 
3165625000  -2.482084e+001  -3.547386e+001 
3168750000  -2.519483e+001  -3.438565e+001 
3171875000  -2.425081e+001  -3.847059e+001 
3175000000  -2.488096e+001  -4.616595e+001 
3178125000  -2.466065e+001  -4.455173e+001 
3181250000  -2.347595e+001  -4.860154e+001 
3184375000  -2.272517e+001  -6.086909e+001 
3187500000  -2.384484e+001  -7.599148e+001 
3190625000  -2.659297e+001  -8.368245e+001 
3193750000  -2.716542e+001  -7.405669e+001 
3196875000  -2.676657e+001  -6.874491e+001 
3200000000  -2.591312e+001  -7.025774e+001 
3203125000  -2.506182e+001  -7.601476e+001 
3206250000  -2.532259e+001  -8.220417e+001 
3209375000  -2.485632e+001  -8.732840e+001 
3212500000  -2.497900e+001  -9.393930e+001 
3215625000  -2.508229e+001  -9.797831e+001 
3218750000  -2.588646e+001  -1.045779e+002 
3221875000  -2.684974e+001  -1.095310e+002 
3225000000  -2.649922e+001  -1.101893e+002 
3228125000  -2.675800e+001  -1.146182e+002 
3231250000  -2.753199e+001  -1.172744e+002 
3234375000  -2.741403e+001  -1.164490e+002 
3237500000  -2.742576e+001  -1.181028e+002 
3240625000  -2.711979e+001  -1.197408e+002 
3243750000  -2.675653e+001  -1.262283e+002 
3246875000  -2.721411e+001  -1.332157e+002 
3250000000  -2.768400e+001  -1.350565e+002 
3253125000  -2.788773e+001  -1.364083e+002 
3256250000  -2.765757e+001  -1.425169e+002 
3259375000  -2.796892e+001  -1.499517e+002 
3262500000  -2.930731e+001  -1.526638e+002 
3265625000  -2.997054e+001  -1.492945e+002 
3268750000  -2.995820e+001  -1.466956e+002 
3271875000  -2.971210e+001  -1.454572e+002 
3275000000  -2.859225e+001  -1.504688e+002 
3278125000  -2.913716e+001  -1.568153e+002 
3281250000  -2.938997e+001  -1.549976e+002 
3284375000  -2.888614e+001  -1.607969e+002 
3287500000  -2.906338e+001  -1.634096e+002 
3290625000  -2.948789e+001  -1.680652e+002 
3293750000  -2.921764e+001  -1.736766e+002 
3296875000  -3.019301e+001  -1.736295e+002 
3300000000  -3.009730e+001  -1.722551e+002 
3303125000  -2.889989e+001  -1.758659e+002 
3306250000  -2.873894e+001  1.772183e+002 
3309375000  -2.848805e+001  1.723699e+002 
3312500000  -2.851837e+001  1.620477e+002 
3315625000  -2.954628e+001  1.539548e+002 
3318750000  -3.088677e+001  1.515071e+002 
3321875000  -3.212415e+001  1.511779e+002 
3325000000  -3.267490e+001  1.558605e+002 
3328125000  -3.250146e+001  1.584795e+002 
3331250000  -3.128193e+001  1.658818e+002 
3334375000  -2.866646e+001  1.557567e+002 
3337500000  -2.871670e+001  1.368087e+002 
3340625000  -3.004568e+001  1.261141e+002 
3343750000  -3.203518e+001  1.253276e+002 
3346875000  -3.256010e+001  1.268830e+002 
3350000000  -3.193107e+001  1.256208e+002 
3353125000  -3.213798e+001  1.206555e+002 
3356250000  -3.188727e+001  1.122340e+002 
3359375000  -3.277798e+001  1.040916e+002 
3362500000  -3.402993e+001  9.859994e+001 
3365625000  -3.473578e+001  9.758854e+001 
3368750000  -3.565231e+001  9.595545e+001 
3371875000  -3.606751e+001  9.200805e+001 
3375000000  -3.773101e+001  9.074635e+001 
3378125000  -3.867170e+001  9.000463e+001 
3381250000  -4.031449e+001  9.708719e+001 
3384375000  -3.944035e+001  1.189895e+002 
3387500000  -3.618463e+001  1.054122e+002 
3390625000  -3.797605e+001  8.617435e+001 
3393750000  -4.002489e+001  9.080647e+001 
3396875000  -3.889069e+001  9.365910e+001 
3400000000  -3.915651e+001  8.727038e+001 
3403125000  -4.042987e+001  8.146033e+001 
3406250000  -4.088309e+001  8.495825e+001 
3409375000  -4.148509e+001  8.176125e+001 
3412500000  -4.260768e+001  8.239125e+001 
3415625000  -4.321552e+001  8.851303e+001 
3418750000  -4.354960e+001  9.434692e+001 
3421875000  -4.386074e+001  9.931084e+001 
3425000000  -4.287138e+001  1.030729e+002 
3428125000  -4.197099e+001  1.032805e+002 
3431250000  -4.192170e+001  9.935374e+001 
3434375000  -4.146658e+001  9.596892e+001 
3437500000  -4.216866e+001  9.376199e+001 
3440625000  -4.237244e+001  9.697063e+001 
3443750000  -4.124692e+001  9.956552e+001 
3446875000  -4.014825e+001  9.427259e+001 
3450000000  -4.008847e+001  8.464335e+001 
3453125000  -4.056308e+001  7.585782e+001 
3456250000  -4.140821e+001  7.265072e+001 
3459375000  -4.229271e+001  7.493764e+001 
3462500000  -4.249071e+001  7.280988e+001 
3465625000  -4.262044e+001  6.978624e+001 
3468750000  -4.275890e+001  6.811245e+001 
3471875000  -4.315711e+001  6.766769e+001 
3475000000  -4.267363e+001  6.395650e+001 
3478125000  -4.372247e+001  5.866017e+001 
3481250000  -4.485930e+001  5.812560e+001 
3484375000  -4.608664e+001  6.241560e+001 
3487500000  -4.576397e+001  6.628242e+001 
3490625000  -4.540538e+001  6.404567e+001 
3493750000  -4.592516e+001  5.996762e+001 
3496875000  -4.741040e+001  6.189699e+001 
3500000000  -4.879221e+001  6.806596e+001 
3503125000  -4.749941e+001  7.484911e+001 
3506250000  -4.714979e+001  8.000533e+001 
3509375000  -4.716076e+001  7.467009e+001 
3512500000  -4.743062e+001  7.146213e+001 
3515625000  -4.769864e+001  7.361926e+001 
3518750000  -4.781900e+001  7.979467e+001 
3521875000  -4.808067e+001  8.307966e+001 
3525000000  -4.811949e+001  8.606091e+001 
3528125000  -4.749281e+001  9.783369e+001 
3531250000  -4.518808e+001  9.606788e+001 
3534375000  -4.497322e+001  9.191249e+001 
3537500000  -4.486954e+001  8.469674e+001 
3540625000  -4.522494e+001  8.395141e+001 
3543750000  -4.592630e+001  8.701731e+001 
3546875000  -4.493882e+001  9.789355e+001 
3550000000  -4.263693e+001  1.020572e+002 
3553125000  -4.148682e+001  8.534932e+001 
3556250000  -4.194835e+001  8.055321e+001 
3559375000  -4.188967e+001  8.278666e+001 
3562500000  -4.071289e+001  7.417018e+001 
3565625000  -4.146188e+001  6.739806e+001 
3568750000  -4.175422e+001  7.192450e+001 
3571875000  -4.127592e+001  7.066676e+001 
3575000000  -4.091565e+001  6.602126e+001 
3578125000  -4.121786e+001  6.054138e+001 
3581250000  -4.129527e+001  6.230514e+001 
3584375000  -4.056559e+001  6.258655e+001 
3587500000  -3.956788e+001  5.532664e+001 
3590625000  -4.021051e+001  4.733651e+001 
3593750000  -4.141839e+001  4.293014e+001 
3596875000  -4.105438e+001  5.274109e+001 
3600000000  -3.979881e+001  4.906266e+001 
3603125000  -4.026767e+001  3.709566e+001 
3606250000  -4.042995e+001  3.488437e+001 
3609375000  -4.094008e+001  3.394150e+001 
3612500000  -4.141508e+001  3.340283e+001 
3615625000  -4.141854e+001  3.021489e+001 
3618750000  -4.199580e+001  3.258217e+001 
3621875000  -4.150323e+001  3.251928e+001 
3625000000  -4.178171e+001  3.323297e+001 
3628125000  -4.186139e+001  3.169876e+001 
3631250000  -4.134711e+001  2.849729e+001 
3634375000  -4.227642e+001  2.831840e+001 
3637500000  -4.214153e+001  3.339204e+001 
3640625000  -4.075339e+001  3.474770e+001 
3643750000  -4.045922e+001  2.964767e+001 
3646875000  -4.093000e+001  2.353359e+001 
3650000000  -4.162170e+001  2.232756e+001 
3653125000  -4.132255e+001  2.323504e+001 
3656250000  -4.169176e+001  2.195640e+001 
3659375000  -4.195550e+001  2.513474e+001 
3662500000  -4.113546e+001  2.418310e+001 
3665625000  -4.092960e+001  2.486588e+001 
3668750000  -3.991885e+001  2.598792e+001 
3671875000  -3.920017e+001  2.079203e+001 
3675000000  -3.953961e+001  1.481188e+001 
3678125000  -4.009586e+001  1.663162e+001 
3681250000  -3.965503e+001  1.743505e+001 
3684375000  -3.941517e+001  1.460728e+001 
3687500000  -3.970462e+001  1.340570e+001 
3690625000  -3.968093e+001  1.159057e+001 
3693750000  -4.016923e+001  1.410391e+001 
3696875000  -4.007287e+001  1.579148e+001 
3700000000  -3.896252e+001  1.461864e+001 
3703125000  -3.868371e+001  1.173322e+001 
3706250000  -3.945325e+001  1.325468e+001 
3709375000  -3.863457e+001  1.616287e+001 
3712500000  -3.756438e+001  1.653430e+001 
3715625000  -3.652583e+001  1.024330e+001 
3718750000  -3.570543e+001  7.429009e+000 
3721875000  -3.529129e+001  2.437926e+000 
3725000000  -3.520268e+001  -1.506312e+000 
3728125000  -3.534850e+001  -3.105521e+000 
3731250000  -3.458544e+001  -3.600322e+000 
3734375000  -3.363857e+001  -9.466204e+000 
3737500000  -3.418892e+001  -1.734465e+001 
3740625000  -3.477702e+001  -1.976361e+001 
3743750000  -3.452342e+001  -2.177871e+001 
3746875000  -3.460236e+001  -2.612319e+001 
3750000000  -3.495301e+001  -2.640178e+001 
3753125000  -3.457373e+001  -2.616708e+001 
3756250000  -3.451075e+001  -2.710678e+001 
3759375000  -3.423820e+001  -2.821061e+001 
3762500000  -3.379616e+001  -3.241875e+001 
3765625000  -3.407138e+001  -3.404610e+001 
3768750000  -3.429123e+001  -3.127526e+001 
3771875000  -3.240519e+001  -3.411761e+001 
3775000000  -3.220415e+001  -4.281743e+001 
3778125000  -3.263797e+001  -4.391372e+001 
3781250000  -3.220987e+001  -4.755539e+001 
3784375000  -3.213643e+001  -4.936908e+001 
3787500000  -3.161952e+001  -5.261180e+001 
3790625000  -3.220149e+001  -5.851633e+001 
3793750000  -3.228319e+001  -5.967160e+001 
3796875000  -3.143126e+001  -6.007147e+001 
3800000000  -2.989274e+001  -6.433669e+001 
3803125000  -3.061103e+001  -7.078305e+001 
3806250000  -3.128750e+001  -7.381316e+001 
3809375000  -3.096552e+001  -7.466671e+001 
3812500000  -3.036431e+001  -7.964143e+001 
3815625000  -3.099672e+001  -8.700857e+001 
3818750000  -3.193733e+001  -8.838432e+001 
3821875000  -3.212562e+001  -7.985234e+001 
3825000000  -3.012558e+001  -7.588525e+001 
3828125000  -2.877378e+001  -8.945373e+001 
3831250000  -2.923151e+001  -1.034225e+002 
3834375000  -3.056764e+001  -1.046381e+002 
3837500000  -3.148159e+001  -9.881028e+001 
3840625000  -3.040085e+001  -1.004410e+002 
3843750000  -2.929691e+001  -1.103804e+002 
3846875000  -2.992462e+001  -1.171192e+002 
3850000000  -3.124438e+001  -1.122072e+002 
3853125000  -3.044906e+001  -1.091665e+002 
3856250000  -3.029238e+001  -1.133784e+002 
3859375000  -2.966883e+001  -1.188108e+002 
3862500000  -2.927724e+001  -1.261132e+002 
3865625000  -2.961342e+001  -1.306141e+002 
3868750000  -2.958174e+001  -1.308974e+002 
3871875000  -2.882876e+001  -1.337633e+002 
3875000000  -2.898710e+001  -1.418270e+002 
3878125000  -2.997756e+001  -1.447979e+002 
3881250000  -3.006809e+001  -1.416731e+002 
3884375000  -2.952522e+001  -1.459926e+002 
3887500000  -2.970422e+001  -1.503112e+002 
3890625000  -3.018306e+001  -1.528409e+002 
3893750000  -3.065514e+001  -1.533727e+002 
3896875000  -3.057608e+001  -1.526502e+002 
3900000000  -3.095002e+001  -1.541805e+002 
3903125000  -3.057420e+001  -1.561916e+002 
3906250000  -3.031801e+001  -1.577694e+002 
3909375000  -2.955526e+001  -1.597547e+002 
3912500000  -2.960730e+001  -1.677275e+002 
3915625000  -3.078762e+001  -1.664975e+002 
3918750000  -3.083915e+001  -1.647592e+002 
3921875000  -3.049596e+001  -1.666043e+002 
3925000000  -2.980186e+001  -1.669883e+002 
3928125000  -2.900585e+001  -1.729957e+002 
3931250000  -2.946902e+001  -1.769458e+002 
3934375000  -2.962471e+001  -1.766300e+002 
3937500000  -2.975430e+001  -1.774771e+002 
3940625000  -3.025529e+001  -1.773249e+002 
3943750000  -2.941854e+001  -1.760634e+002 
3946875000  -2.815766e+001  1.786963e+002 
3950000000  -2.861885e+001  1.712157e+002 
3953125000  -2.960242e+001  1.719803e+002 
3956250000  -2.881356e+001  1.750249e+002 
3959375000  -2.742085e+001  1.712042e+002 
3962500000  -2.699101e+001  1.674368e+002 
3965625000  -2.659291e+001  1.584323e+002 
3968750000  -2.752495e+001  1.512606e+002 
3971875000  -2.786681e+001  1.501323e+002 
3975000000  -2.725018e+001  1.485960e+002 
3978125000  -2.704313e+001  1.472819e+002 
3981250000  -2.683365e+001  1.429848e+002 
3984375000  -2.711837e+001  1.366634e+002 
3987500000  -2.754075e+001  1.348661e+002 
3990625000  -2.747534e+001  1.336767e+002 
3993750000  -2.775670e+001  1.305119e+002 
3996875000  -2.773381e+001  1.282802e+002 
4000000000  -2.778258e+001  1.258759e+002 
4003125000  -2.836616e+001  1.281279e+002 
4006250000  -2.710102e+001  1.284960e+002 
4009375000  -2.578675e+001  1.166517e+002 
4012500000  -2.686995e+001  1.092799e+002 
4015625000  -2.805160e+001  1.097761e+002 
4018750000  -2.828920e+001  1.122375e+002 
4021875000  -2.760304e+001  1.101890e+002 
4025000000  -2.723191e+001  1.059878e+002 
4028125000  -2.712706e+001  1.021023e+002 
4031250000  -2.760171e+001  9.853299e+001 
4034375000  -2.789140e+001  9.882095e+001 
4037500000  -2.743129e+001  1.001288e+002 
4040625000  -2.728973e+001  9.681822e+001 
4043750000  -2.763894e+001  9.631483e+001 
4046875000  -2.715949e+001  9.608256e+001 
4050000000  -2.664774e+001  9.006178e+001 
4053125000  -2.714426e+001  8.822727e+001 
4056250000  -2.776189e+001  9.235765e+001 
4059375000  -2.660180e+001  9.475718e+001 
4062500000  -2.518216e+001  8.977705e+001 
4065625000  -2.506248e+001  8.500970e+001 
4068750000  -2.480811e+001  8.062787e+001 
4071875000  -2.411188e+001  7.248324e+001 
4075000000  -2.451529e+001  6.599658e+001 
4078125000  -2.505848e+001  6.551549e+001 
4081250000  -2.450102e+001  6.321128e+001 
4084375000  -2.413387e+001  5.649822e+001 
4087500000  -2.451518e+001  5.012756e+001 
4090625000  -2.508355e+001  4.873956e+001 
4093750000  -2.493240e+001  4.998730e+001 
4096875000  -2.451376e+001  4.401931e+001 
4100000000  -2.515815e+001  3.683537e+001 
4103125000  -2.602753e+001  3.762924e+001 
4106250000  -2.590120e+001  4.248897e+001 
4109375000  -2.503863e+001  4.200443e+001 
4112500000  -2.445857e+001  3.515962e+001 
4115625000  -2.478800e+001  3.117783e+001 
4118750000  -2.489271e+001  2.840373e+001 
4121875000  -2.453471e+001  2.370079e+001 
4125000000  -2.486772e+001  1.859135e+001 
4128125000  -2.591079e+001  1.860049e+001 
4131250000  -2.558872e+001  2.652320e+001 
4134375000  -2.323663e+001  2.252243e+001 
4137500000  -2.300009e+001  3.627220e+000 
4140625000  -2.517872e+001  -3.597260e+000 
4143750000  -2.646759e+001  1.534384e+000 
4146875000  -2.612285e+001  8.915157e+000 
4150000000  -2.517947e+001  5.822112e+000 
4153125000  -2.502168e+001  -1.142790e+000 
4156250000  -2.586268e+001  -3.737019e+000 
4159375000  -2.620364e+001  1.053423e+000 
4162500000  -2.506215e+001  5.346718e+000 
4165625000  -2.387263e+001  1.330008e+000 
4168750000  -2.326811e+001  -5.824181e+000 
4171875000  -2.322300e+001  -1.544366e+001 
4175000000  -2.383447e+001  -2.074575e+001 
4178125000  -2.444749e+001  -2.110117e+001 
4181250000  -2.430699e+001  -2.158737e+001 
4184375000  -2.414449e+001  -2.478042e+001 
4187500000  -2.415866e+001  -2.756056e+001 
4190625000  -2.399323e+001  -3.298552e+001 
4193750000  -2.481950e+001  -3.683530e+001 
4196875000  -2.556929e+001  -3.710394e+001 
4200000000  -2.636231e+001  -3.504501e+001 
4203125000  -2.640352e+001  -2.141324e+001 
4206250000  -2.310847e+001  -2.001091e+001 
4209375000  -2.190259e+001  -4.040473e+001 
4212500000  -2.382997e+001  -4.924870e+001 
4215625000  -2.481375e+001  -4.295808e+001 
4218750000  -2.352824e+001  -3.650728e+001 
4221875000  -2.118718e+001  -4.548523e+001 
4225000000  -2.241566e+001  -5.788393e+001 
4228125000  -2.312402e+001  -5.268448e+001 
4231250000  -2.152055e+001  -5.653600e+001 
4234375000  -2.143699e+001  -6.469305e+001 
4237500000  -2.106011e+001  -6.812967e+001 
4240625000  -2.107338e+001  -7.680830e+001 
4243750000  -2.201869e+001  -8.324751e+001 
4246875000  -2.289848e+001  -8.350600e+001 
4250000000  -2.298613e+001  -8.060275e+001 
4253125000  -2.239416e+001  -8.240434e+001 
4256250000  -2.264773e+001  -8.678618e+001 
4259375000  -2.239494e+001  -8.840630e+001 
4262500000  -2.244282e+001  -9.225444e+001 
4265625000  -2.261289e+001  -9.174975e+001 
4268750000  -2.171632e+001  -9.570509e+001 
4271875000  -2.143971e+001  -1.018143e+002 
4275000000  -2.084444e+001  -1.078777e+002 
4278125000  -2.139605e+001  -1.190708e+002 
4281250000  -2.323406e+001  -1.213828e+002 
4284375000  -2.291158e+001  -1.205952e+002 
4287500000  -2.366276e+001  -1.239802e+002 
4290625000  -2.495127e+001  -1.144295e+002 
4293750000  -2.298544e+001  -1.090503e+002 
4296875000  -2.157844e+001  -1.205328e+002 
4300000000  -2.246247e+001  -1.296390e+002 
4303125000  -2.352211e+001  -1.284376e+002 
4306250000  -2.296522e+001  -1.223534e+002 
4309375000  -2.155471e+001  -1.244745e+002 
4312500000  -2.143417e+001  -1.330302e+002 
4315625000  -2.167576e+001  -1.390764e+002 
4318750000  -2.202508e+001  -1.426521e+002 
4321875000  -2.217499e+001  -1.418434e+002 
4325000000  -2.160308e+001  -1.414253e+002 
4328125000  -2.108415e+001  -1.476815e+002 
4331250000  -2.103717e+001  -1.559047e+002 
4334375000  -2.146043e+001  -1.610158e+002 
4337500000  -2.232618e+001  -1.631809e+002 
4340625000  -2.285116e+001  -1.598115e+002 
4343750000  -2.228155e+001  -1.595686e+002 
4346875000  -2.191096e+001  -1.647704e+002 
4350000000  -2.191961e+001  -1.693212e+002 
4353125000  -2.192851e+001  -1.774259e+002 
4356250000  -2.368438e+001  -1.780236e+002 
4359375000  -2.428349e+001  -1.650220e+002 
4362500000  -2.167556e+001  -1.628850e+002 
4365625000  -2.004420e+001  -1.749002e+002 
4368750000  -2.073774e+001  1.734711e+002 
4371875000  -2.191830e+001  1.739661e+002 
4375000000  -2.163220e+001  1.750478e+002 
4378125000  -2.095297e+001  1.693424e+002 
4381250000  -2.111830e+001  1.639752e+002 
4384375000  -2.096757e+001  1.596198e+002 
4387500000  -2.165266e+001  1.539461e+002 
4390625000  -2.267238e+001  1.545059e+002 
4393750000  -2.201385e+001  1.567851e+002 
4396875000  -2.133486e+001  1.547294e+002 
4400000000  -2.082019e+001  1.476887e+002 
4403125000  -2.142945e+001  1.402990e+002 
4406250000  -2.231274e+001  1.388690e+002 
4409375000  -2.220191e+001  1.366703e+002 
4412500000  -2.322602e+001  1.339018e+002 
4415625000  -2.364889e+001  1.387791e+002 
4418750000  -2.240745e+001  1.434788e+002 
