!Agilent Technologies,E8363B,MY43030201,A.06.04.32
!Agilent E8363B: A.06.04.32
!Date: Tuesday, November 11, 2014 20:50:08
!Correction: S21(Response(S21)) 
!S1P File: Measurement: S21:
# Hz S  dB   R 50
3000000000  -2.655220e+001  1.531681e+002 
3003125000  -2.790815e+001  1.488190e+002 
3006250000  -2.796942e+001  1.462168e+002 
3009375000  -2.831110e+001  1.510017e+002 
3012500000  -2.780393e+001  1.507698e+002 
3015625000  -2.686156e+001  1.436773e+002 
3018750000  -2.775180e+001  1.429843e+002 
3021875000  -2.644584e+001  1.441437e+002 
3025000000  -2.515274e+001  1.411730e+002 
3028125000  -2.416829e+001  1.360160e+002 
3031250000  -2.314170e+001  1.248161e+002 
3034375000  -2.276771e+001  1.119207e+002 
3037500000  -2.310624e+001  9.998147e+001 
3040625000  -2.443472e+001  9.490914e+001 
3043750000  -2.515523e+001  9.057541e+001 
3046875000  -2.523473e+001  8.414153e+001 
3050000000  -2.699450e+001  7.741978e+001 
3053125000  -2.718558e+001  8.395637e+001 
3056250000  -2.640212e+001  8.679311e+001 
3059375000  -2.672964e+001  8.646800e+001 
3062500000  -2.522492e+001  8.260021e+001 
3065625000  -2.503208e+001  7.689137e+001 
3068750000  -2.471507e+001  6.995409e+001 
3071875000  -2.468410e+001  6.685754e+001 
3075000000  -2.464913e+001  6.320848e+001 
3078125000  -2.433989e+001  5.846362e+001 
3081250000  -2.500593e+001  5.443434e+001 
3084375000  -2.424288e+001  5.082085e+001 
3087500000  -2.412551e+001  4.723981e+001 
3090625000  -2.382211e+001  3.759302e+001 
3093750000  -2.422426e+001  2.963318e+001 
3096875000  -2.557138e+001  2.347915e+001 
3100000000  -2.566785e+001  2.228416e+001 
3103125000  -2.607302e+001  2.349867e+001 
3106250000  -2.576953e+001  2.008306e+001 
3109375000  -2.602428e+001  1.641002e+001 
3112500000  -2.617271e+001  1.562490e+001 
3115625000  -2.594050e+001  1.100697e+001 
3118750000  -2.643634e+001  1.255902e+001 
3121875000  -2.577135e+001  4.440969e+000 
3125000000  -2.694000e+001  1.281879e+000 
3128125000  -2.813990e+001  8.866296e+000 
3131250000  -2.598298e+001  9.444044e+000 
3134375000  -2.463176e+001  -4.095956e+000 
3137500000  -2.532141e+001  -1.773932e+001 
3140625000  -2.688140e+001  -1.928783e+001 
3143750000  -2.792069e+001  -1.547080e+001 
3146875000  -2.753084e+001  -1.339199e+001 
3150000000  -2.652209e+001  -1.113370e+001 
3153125000  -2.646807e+001  -1.899185e+001 
3156250000  -2.743666e+001  -1.338454e+001 
3159375000  -2.591861e+001  -1.086578e+001 
3162500000  -2.387574e+001  -2.337125e+001 
3165625000  -2.480640e+001  -3.423563e+001 
3168750000  -2.520379e+001  -3.344367e+001 
3171875000  -2.426026e+001  -3.761249e+001 
3175000000  -2.491746e+001  -4.550578e+001 
3178125000  -2.467435e+001  -4.389571e+001 
3181250000  -2.350278e+001  -4.778108e+001 
3184375000  -2.271004e+001  -5.993895e+001 
3187500000  -2.382554e+001  -7.520599e+001 
3190625000  -2.661229e+001  -8.274039e+001 
3193750000  -2.720348e+001  -7.314818e+001 
3196875000  -2.677318e+001  -6.783270e+001 
3200000000  -2.587333e+001  -6.971706e+001 
3203125000  -2.499195e+001  -7.530909e+001 
3206250000  -2.532783e+001  -8.152715e+001 
3209375000  -2.484269e+001  -8.661691e+001 
3212500000  -2.496483e+001  -9.310835e+001 
3215625000  -2.511464e+001  -9.768768e+001 
3218750000  -2.585994e+001  -1.038443e+002 
3221875000  -2.682166e+001  -1.087493e+002 
3225000000  -2.645364e+001  -1.092874e+002 
3228125000  -2.677363e+001  -1.139205e+002 
3231250000  -2.752036e+001  -1.164280e+002 
3234375000  -2.737935e+001  -1.154794e+002 
3237500000  -2.739667e+001  -1.170511e+002 
3240625000  -2.706195e+001  -1.187035e+002 
3243750000  -2.669483e+001  -1.254948e+002 
3246875000  -2.719769e+001  -1.321894e+002 
3250000000  -2.769058e+001  -1.339667e+002 
3253125000  -2.784467e+001  -1.354086e+002 
3256250000  -2.769909e+001  -1.414956e+002 
3259375000  -2.800197e+001  -1.493032e+002 
3262500000  -2.925914e+001  -1.520119e+002 
3265625000  -2.996589e+001  -1.488407e+002 
3268750000  -2.989060e+001  -1.459818e+002 
3271875000  -2.965565e+001  -1.450390e+002 
3275000000  -2.853164e+001  -1.497267e+002 
3278125000  -2.904286e+001  -1.564469e+002 
3281250000  -2.927593e+001  -1.543548e+002 
3284375000  -2.892143e+001  -1.600982e+002 
3287500000  -2.905551e+001  -1.629179e+002 
3290625000  -2.941986e+001  -1.670526e+002 
3293750000  -2.914108e+001  -1.726573e+002 
3296875000  -3.014375e+001  -1.725403e+002 
3300000000  -3.008328e+001  -1.716317e+002 
3303125000  -2.887109e+001  -1.752290e+002 
3306250000  -2.868254e+001  1.778719e+002 
3309375000  -2.841781e+001  1.730334e+002 
3312500000  -2.851814e+001  1.624563e+002 
3315625000  -2.948053e+001  1.545704e+002 
3318750000  -3.090751e+001  1.519766e+002 
3321875000  -3.209501e+001  1.520006e+002 
3325000000  -3.260643e+001  1.566322e+002 
3328125000  -3.242677e+001  1.576283e+002 
3331250000  -3.124964e+001  1.664785e+002 
3334375000  -2.864398e+001  1.563748e+002 
3337500000  -2.875681e+001  1.377369e+002 
3340625000  -3.005541e+001  1.268512e+002 
3343750000  -3.205568e+001  1.257049e+002 
3346875000  -3.254451e+001  1.270063e+002 
3350000000  -3.183375e+001  1.261534e+002 
3353125000  -3.189545e+001  1.216228e+002 
3356250000  -3.166543e+001  1.140404e+002 
3359375000  -3.252180e+001  1.054528e+002 
3362500000  -3.382080e+001  9.993771e+001 
3365625000  -3.445953e+001  9.940044e+001 
3368750000  -3.546037e+001  9.647234e+001 
3371875000  -3.593016e+001  9.362949e+001 
3375000000  -3.743457e+001  9.247343e+001 
3378125000  -3.856496e+001  9.141546e+001 
3381250000  -4.010849e+001  9.807742e+001 
3384375000  -3.913241e+001  1.190522e+002 
3387500000  -3.603043e+001  1.073862e+002 
3390625000  -3.779813e+001  8.686134e+001 
3393750000  -3.954702e+001  9.180680e+001 
3396875000  -3.870267e+001  9.451733e+001 
3400000000  -3.877903e+001  8.622615e+001 
3403125000  -3.984108e+001  8.368742e+001 
3406250000  -4.080151e+001  8.545049e+001 
3409375000  -4.127847e+001  8.243031e+001 
3412500000  -4.226878e+001  8.198179e+001 
3415625000  -4.324947e+001  8.712973e+001 
3418750000  -4.339745e+001  9.199588e+001 
3421875000  -4.333947e+001  9.968360e+001 
3425000000  -4.272398e+001  1.014677e+002 
3428125000  -4.185303e+001  1.005794e+002 
3431250000  -4.157107e+001  9.672248e+001 
3434375000  -4.138263e+001  9.479877e+001 
3437500000  -4.202187e+001  9.194650e+001 
3440625000  -4.235061e+001  9.616064e+001 
3443750000  -4.110337e+001  9.816676e+001 
3446875000  -4.025452e+001  9.418300e+001 
3450000000  -4.002552e+001  8.429623e+001 
3453125000  -4.031285e+001  7.544494e+001 
3456250000  -4.125742e+001  7.084219e+001 
3459375000  -4.237012e+001  7.205235e+001 
3462500000  -4.253856e+001  7.406150e+001 
3465625000  -4.218632e+001  6.829227e+001 
3468750000  -4.299334e+001  6.628420e+001 
3471875000  -4.301156e+001  6.787131e+001 
3475000000  -4.297427e+001  6.281805e+001 
3478125000  -4.347216e+001  5.885883e+001 
3481250000  -4.498434e+001  5.578079e+001 
3484375000  -4.629556e+001  6.149504e+001 
3487500000  -4.575477e+001  6.493341e+001 
3490625000  -4.540805e+001  6.312263e+001 
3493750000  -4.611037e+001  5.803692e+001 
3496875000  -4.718804e+001  6.056003e+001 
3500000000  -4.910712e+001  6.656042e+001 
3503125000  -4.770492e+001  7.533961e+001 
3506250000  -4.745613e+001  7.311177e+001 
3509375000  -4.741979e+001  6.990056e+001 
3512500000  -4.759230e+001  7.170913e+001 
3515625000  -4.816464e+001  7.652283e+001 
3518750000  -4.816050e+001  8.017561e+001 
3521875000  -4.885646e+001  8.419228e+001 
3525000000  -4.796069e+001  8.550399e+001 
3528125000  -4.726070e+001  9.526703e+001 
3531250000  -4.582010e+001  9.435073e+001 
3534375000  -4.519180e+001  8.707161e+001 
3537500000  -4.525510e+001  8.393219e+001 
3540625000  -4.579538e+001  8.709735e+001 
3543750000  -4.591275e+001  8.726906e+001 
3546875000  -4.533109e+001  9.879688e+001 
3550000000  -4.286633e+001  1.033925e+002 
3553125000  -4.148975e+001  8.575951e+001 
3556250000  -4.252651e+001  8.033355e+001 
3559375000  -4.215738e+001  8.110195e+001 
3562500000  -4.087822e+001  7.589736e+001 
3565625000  -4.181794e+001  6.963625e+001 
3568750000  -4.183925e+001  7.161356e+001 
3571875000  -4.171826e+001  7.197791e+001 
3575000000  -4.102754e+001  6.562807e+001 
3578125000  -4.149541e+001  6.242036e+001 
3581250000  -4.147647e+001  6.301108e+001 
3584375000  -4.070039e+001  6.161802e+001 
3587500000  -4.003623e+001  5.628979e+001 
3590625000  -4.014493e+001  4.676556e+001 
3593750000  -4.141336e+001  4.595407e+001 
3596875000  -4.144832e+001  5.580853e+001 
3600000000  -3.985258e+001  5.193656e+001 
3603125000  -3.991237e+001  3.770051e+001 
3606250000  -4.023640e+001  3.626668e+001 
3609375000  -4.094422e+001  3.470790e+001 
3612500000  -4.116922e+001  3.289381e+001 
3615625000  -4.165995e+001  2.925783e+001 
3618750000  -4.176699e+001  3.303797e+001 
3621875000  -4.151961e+001  3.150489e+001 
3625000000  -4.186770e+001  3.188420e+001 
3628125000  -4.190483e+001  3.194585e+001 
3631250000  -4.154556e+001  2.625554e+001 
3634375000  -4.280413e+001  2.953245e+001 
3637500000  -4.198922e+001  3.342405e+001 
3640625000  -4.109408e+001  3.420411e+001 
3643750000  -4.045205e+001  2.916792e+001 
3646875000  -4.137019e+001  2.273606e+001 
3650000000  -4.171407e+001  2.278358e+001 
3653125000  -4.153166e+001  2.349402e+001 
3656250000  -4.178518e+001  2.078411e+001 
3659375000  -4.229376e+001  2.417274e+001 
3662500000  -4.149766e+001  2.288093e+001 
3665625000  -4.158093e+001  2.207122e+001 
3668750000  -4.078338e+001  2.575389e+001 
3671875000  -3.943182e+001  2.197815e+001 
3675000000  -4.014597e+001  1.542760e+001 
3678125000  -4.039811e+001  1.783222e+001 
3681250000  -4.016842e+001  1.590538e+001 
3684375000  -3.996197e+001  1.611820e+001 
3687500000  -3.978772e+001  1.397050e+001 
3690625000  -3.998698e+001  1.205254e+001 
3693750000  -4.055509e+001  1.602405e+001 
3696875000  -4.006423e+001  1.848011e+001 
3700000000  -3.899861e+001  1.574451e+001 
3703125000  -3.918211e+001  1.313749e+001 
3706250000  -3.954808e+001  1.403391e+001 
3709375000  -3.891638e+001  1.611389e+001 
3712500000  -3.771337e+001  1.695510e+001 
3715625000  -3.651795e+001  1.119946e+001 
3718750000  -3.576908e+001  8.957854e+000 
3721875000  -3.531767e+001  4.390432e+000 
3725000000  -3.545375e+001  -1.862085e+000 
3728125000  -3.554148e+001  -1.643342e+000 
3731250000  -3.500779e+001  -1.834575e+000 
3734375000  -3.380052e+001  -7.823384e+000 
3737500000  -3.431944e+001  -1.544104e+001 
3740625000  -3.506730e+001  -1.902740e+001 
3743750000  -3.481538e+001  -2.042807e+001 
3746875000  -3.484864e+001  -2.369693e+001 
3750000000  -3.508211e+001  -2.552619e+001 
3753125000  -3.483287e+001  -2.571468e+001 
3756250000  -3.477229e+001  -2.612871e+001 
3759375000  -3.447777e+001  -2.699259e+001 
3762500000  -3.391486e+001  -3.090283e+001 
3765625000  -3.437522e+001  -3.333913e+001 
3768750000  -3.433477e+001  -3.121188e+001 
3771875000  -3.266230e+001  -3.377117e+001 
3775000000  -3.242800e+001  -4.151978e+001 
3778125000  -3.273748e+001  -4.297315e+001 
3781250000  -3.257604e+001  -4.642496e+001 
3784375000  -3.248461e+001  -4.823242e+001 
3787500000  -3.181304e+001  -5.122991e+001 
3790625000  -3.231385e+001  -5.714335e+001 
3793750000  -3.250655e+001  -5.814406e+001 
3796875000  -3.162032e+001  -5.909967e+001 
3800000000  -3.002325e+001  -6.251534e+001 
3803125000  -3.090670e+001  -6.959670e+001 
3806250000  -3.143214e+001  -7.188582e+001 
3809375000  -3.119924e+001  -7.317833e+001 
3812500000  -3.056940e+001  -7.748698e+001 
3815625000  -3.109958e+001  -8.502921e+001 
3818750000  -3.217896e+001  -8.663360e+001 
3821875000  -3.213506e+001  -7.822208e+001 
3825000000  -3.019458e+001  -7.414489e+001 
3828125000  -2.898389e+001  -8.788712e+001 
3831250000  -2.942913e+001  -1.019605e+002 
3834375000  -3.088532e+001  -1.028507e+002 
3837500000  -3.171448e+001  -9.776223e+001 
3840625000  -3.055708e+001  -9.870728e+001 
3843750000  -2.939248e+001  -1.085872e+002 
3846875000  -3.010427e+001  -1.160503e+002 
3850000000  -3.140932e+001  -1.107983e+002 
3853125000  -3.053023e+001  -1.071362e+002 
3856250000  -3.050293e+001  -1.124787e+002 
3859375000  -2.979242e+001  -1.163123e+002 
3862500000  -2.941332e+001  -1.240082e+002 
3865625000  -2.961341e+001  -1.287215e+002 
3868750000  -2.971675e+001  -1.292015e+002 
3871875000  -2.898421e+001  -1.317429e+002 
3875000000  -2.902903e+001  -1.406521e+002 
3878125000  -3.010752e+001  -1.429476e+002 
3881250000  -3.016125e+001  -1.398294e+002 
3884375000  -2.964046e+001  -1.450065e+002 
3887500000  -2.973387e+001  -1.486072e+002 
3890625000  -3.032425e+001  -1.512397e+002 
3893750000  -3.081345e+001  -1.528564e+002 
3896875000  -3.078912e+001  -1.523891e+002 
3900000000  -3.109615e+001  -1.527680e+002 
3903125000  -3.071910e+001  -1.551753e+002 
3906250000  -3.045922e+001  -1.559071e+002 
3909375000  -2.979535e+001  -1.583046e+002 
3912500000  -2.978774e+001  -1.656066e+002 
3915625000  -3.093202e+001  -1.648372e+002 
3918750000  -3.099789e+001  -1.629472e+002 
3921875000  -3.071749e+001  -1.649232e+002 
3925000000  -2.981904e+001  -1.659788e+002 
3928125000  -2.917912e+001  -1.712680e+002 
3931250000  -2.961728e+001  -1.748513e+002 
3934375000  -2.987569e+001  -1.750934e+002 
3937500000  -2.994410e+001  -1.759259e+002 
3940625000  -3.043311e+001  -1.755623e+002 
3943750000  -2.959229e+001  -1.744729e+002 
3946875000  -2.817545e+001  -1.795419e+002 
3950000000  -2.874903e+001  1.727793e+002 
3953125000  -2.970286e+001  1.735017e+002 
3956250000  -2.885640e+001  1.764003e+002 
3959375000  -2.751057e+001  1.733942e+002 
3962500000  -2.702869e+001  1.691955e+002 
3965625000  -2.657612e+001  1.605483e+002 
3968750000  -2.757619e+001  1.537166e+002 
3971875000  -2.790660e+001  1.524038e+002 
3975000000  -2.725146e+001  1.507586e+002 
3978125000  -2.704739e+001  1.489789e+002 
3981250000  -2.685558e+001  1.446942e+002 
3984375000  -2.709474e+001  1.387938e+002 
3987500000  -2.762118e+001  1.358920e+002 
3990625000  -2.756151e+001  1.353779e+002 
3993750000  -2.776736e+001  1.319719e+002 
3996875000  -2.768335e+001  1.295808e+002 
4000000000  -2.780457e+001  1.274323e+002 
4003125000  -2.840013e+001  1.293598e+002 
4006250000  -2.701184e+001  1.303625e+002 
4009375000  -2.576803e+001  1.177989e+002 
4012500000  -2.686217e+001  1.108037e+002 
4015625000  -2.812016e+001  1.109805e+002 
4018750000  -2.825855e+001  1.134682e+002 
4021875000  -2.767175e+001  1.118515e+002 
4025000000  -2.732247e+001  1.071488e+002 
4028125000  -2.721950e+001  1.032211e+002 
4031250000  -2.766420e+001  1.000013e+002 
4034375000  -2.795676e+001  1.001772e+002 
4037500000  -2.742280e+001  1.017458e+002 
4040625000  -2.737094e+001  9.816743e+001 
4043750000  -2.768433e+001  9.819637e+001 
4046875000  -2.732739e+001  9.731505e+001 
4050000000  -2.673695e+001  9.199987e+001 
4053125000  -2.726604e+001  8.991422e+001 
4056250000  -2.781595e+001  9.374860e+001 
4059375000  -2.669379e+001  9.575425e+001 
4062500000  -2.521183e+001  9.120175e+001 
4065625000  -2.511086e+001  8.681873e+001 
4068750000  -2.484957e+001  8.197378e+001 
4071875000  -2.420311e+001  7.441646e+001 
4075000000  -2.450994e+001  6.806045e+001 
4078125000  -2.510652e+001  6.691021e+001 
4081250000  -2.457078e+001  6.476318e+001 
4084375000  -2.420242e+001  5.824928e+001 
4087500000  -2.455023e+001  5.185423e+001 
4090625000  -2.517278e+001  5.065001e+001 
4093750000  -2.496410e+001  5.151079e+001 
4096875000  -2.450828e+001  4.558410e+001 
4100000000  -2.520436e+001  3.852962e+001 
4103125000  -2.599333e+001  3.916435e+001 
4106250000  -2.597817e+001  4.386004e+001 
4109375000  -2.508275e+001  4.345742e+001 
4112500000  -2.451171e+001  3.693667e+001 
4115625000  -2.480449e+001  3.244101e+001 
4118750000  -2.489559e+001  2.955369e+001 
4121875000  -2.457540e+001  2.495203e+001 
4125000000  -2.489651e+001  2.012992e+001 
4128125000  -2.588756e+001  1.958462e+001 
4131250000  -2.563394e+001  2.793190e+001 
4134375000  -2.327980e+001  2.344529e+001 
4137500000  -2.308697e+001  5.003041e+000 
4140625000  -2.521859e+001  -2.210238e+000 
4143750000  -2.659579e+001  2.540818e+000 
4146875000  -2.616966e+001  1.004888e+001 
4150000000  -2.521261e+001  6.651085e+000 
4153125000  -2.502293e+001  3.517518e-001 
4156250000  -2.595344e+001  -2.426877e+000 
4159375000  -2.625560e+001  2.144649e+000 
4162500000  -2.513641e+001  6.752684e+000 
4165625000  -2.401199e+001  2.289716e+000 
4168750000  -2.340972e+001  -4.673908e+000 
4171875000  -2.330602e+001  -1.404588e+001 
4175000000  -2.390960e+001  -1.968518e+001 
4178125000  -2.450933e+001  -2.003717e+001 
4181250000  -2.439567e+001  -1.978700e+001 
4184375000  -2.428143e+001  -2.319329e+001 
4187500000  -2.430548e+001  -2.613028e+001 
4190625000  -2.415057e+001  -3.151455e+001 
4193750000  -2.488768e+001  -3.531559e+001 
4196875000  -2.558748e+001  -3.562273e+001 
4200000000  -2.643446e+001  -3.357349e+001 
4203125000  -2.643692e+001  -1.957957e+001 
4206250000  -2.319102e+001  -1.823740e+001 
4209375000  -2.196882e+001  -3.885944e+001 
4212500000  -2.384807e+001  -4.771428e+001 
4215625000  -2.486323e+001  -4.180222e+001 
4218750000  -2.353176e+001  -3.499748e+001 
4221875000  -2.125954e+001  -4.381996e+001 
4225000000  -2.247367e+001  -5.649196e+001 
4228125000  -2.318471e+001  -5.148759e+001 
4231250000  -2.163740e+001  -5.519036e+001 
4234375000  -2.151050e+001  -6.352013e+001 
4237500000  -2.113406e+001  -6.668851e+001 
4240625000  -2.109362e+001  -7.518587e+001 
4243750000  -2.207418e+001  -8.202178e+001 
4246875000  -2.295580e+001  -8.225083e+001 
4250000000  -2.300850e+001  -7.928978e+001 
4253125000  -2.244242e+001  -8.136717e+001 
4256250000  -2.273098e+001  -8.514618e+001 
4259375000  -2.244026e+001  -8.726012e+001 
4262500000  -2.249698e+001  -9.110280e+001 
4265625000  -2.264925e+001  -9.065948e+001 
4268750000  -2.179294e+001  -9.483691e+001 
4271875000  -2.153743e+001  -1.006819e+002 
4275000000  -2.095155e+001  -1.067960e+002 
4278125000  -2.149403e+001  -1.178752e+002 
4281250000  -2.332931e+001  -1.201315e+002 
4284375000  -2.304928e+001  -1.195756e+002 
4287500000  -2.375701e+001  -1.226330e+002 
4290625000  -2.508550e+001  -1.133911e+002 
4293750000  -2.308164e+001  -1.077132e+002 
4296875000  -2.168724e+001  -1.192435e+002 
4300000000  -2.257895e+001  -1.283539e+002 
4303125000  -2.367479e+001  -1.273018e+002 
4306250000  -2.307709e+001  -1.210120e+002 
4309375000  -2.167368e+001  -1.230469e+002 
4312500000  -2.160512e+001  -1.314295e+002 
4315625000  -2.178304e+001  -1.377176e+002 
4318750000  -2.210895e+001  -1.410474e+002 
4321875000  -2.226375e+001  -1.405643e+002 
4325000000  -2.166497e+001  -1.399040e+002 
4328125000  -2.122998e+001  -1.461264e+002 
4331250000  -2.112945e+001  -1.542355e+002 
4334375000  -2.154842e+001  -1.589918e+002 
4337500000  -2.237337e+001  -1.615242e+002 
4340625000  -2.291333e+001  -1.582565e+002 
4343750000  -2.236822e+001  -1.577940e+002 
4346875000  -2.191682e+001  -1.632292e+002 
4350000000  -2.194994e+001  -1.678512e+002 
4353125000  -2.198596e+001  -1.755743e+002 
4356250000  -2.372910e+001  -1.768432e+002 
4359375000  -2.434006e+001  -1.634826e+002 
4362500000  -2.173958e+001  -1.610092e+002 
4365625000  -2.006857e+001  -1.731908e+002 
4368750000  -2.074793e+001  1.750518e+002 
4371875000  -2.202667e+001  1.756342e+002 
4375000000  -2.166420e+001  1.766241e+002 
4378125000  -2.103681e+001  1.710617e+002 
4381250000  -2.117994e+001  1.656216e+002 
4384375000  -2.101286e+001  1.610616e+002 
4387500000  -2.173401e+001  1.553189e+002 
4390625000  -2.278506e+001  1.562063e+002 
4393750000  -2.210275e+001  1.582974e+002 
4396875000  -2.143179e+001  1.560729e+002 
4400000000  -2.092542e+001  1.490389e+002 
4403125000  -2.148186e+001  1.413272e+002 
4406250000  -2.234154e+001  1.405537e+002 
4409375000  -2.227979e+001  1.381155e+002 
4412500000  -2.332549e+001  1.349825e+002 
4415625000  -2.373091e+001  1.400030e+002 
4418750000  -2.252650e+001  1.445261e+002 
