!Agilent Technologies,E8363B,MY43030201,A.06.04.32
!Agilent E8363B: A.06.04.32
!Date: Tuesday, November 11, 2014 20:57:42
!Correction: S21(Response(S21)) 
!S1P File: Measurement: S21:
# Hz S  dB   R 50
3000000000  -2.654085e+001  1.469208e+002 
3003125000  -2.792953e+001  1.420578e+002 
3006250000  -2.797548e+001  1.400572e+002 
3009375000  -2.835078e+001  1.446979e+002 
3012500000  -2.776840e+001  1.442577e+002 
3015625000  -2.686160e+001  1.373648e+002 
3018750000  -2.773307e+001  1.366171e+002 
3021875000  -2.642093e+001  1.379809e+002 
3025000000  -2.509528e+001  1.347458e+002 
3028125000  -2.412141e+001  1.293085e+002 
3031250000  -2.309626e+001  1.183492e+002 
3034375000  -2.275806e+001  1.050988e+002 
3037500000  -2.312657e+001  9.338864e+001 
3040625000  -2.448979e+001  8.847945e+001 
3043750000  -2.517761e+001  8.419109e+001 
3046875000  -2.532047e+001  7.770362e+001 
3050000000  -2.703682e+001  7.126478e+001 
3053125000  -2.713335e+001  7.778244e+001 
3056250000  -2.652107e+001  8.066402e+001 
3059375000  -2.665964e+001  7.992136e+001 
3062500000  -2.520490e+001  7.658762e+001 
3065625000  -2.496728e+001  7.031811e+001 
3068750000  -2.468638e+001  6.351555e+001 
3071875000  -2.467444e+001  6.072163e+001 
3075000000  -2.456469e+001  5.683035e+001 
3078125000  -2.432837e+001  5.231882e+001 
3081250000  -2.497619e+001  4.805638e+001 
3084375000  -2.417982e+001  4.442638e+001 
3087500000  -2.410219e+001  4.061375e+001 
3090625000  -2.380446e+001  3.055517e+001 
3093750000  -2.428792e+001  2.298145e+001 
3096875000  -2.555612e+001  1.694227e+001 
3100000000  -2.568102e+001  1.555575e+001 
3103125000  -2.605929e+001  1.702909e+001 
3106250000  -2.578971e+001  1.358725e+001 
3109375000  -2.600904e+001  1.006394e+001 
3112500000  -2.613601e+001  8.715201e+000 
3115625000  -2.595184e+001  4.751518e+000 
3118750000  -2.642241e+001  5.954340e+000 
3121875000  -2.574515e+001  -2.207630e+000 
3125000000  -2.699686e+001  -5.639846e+000 
3128125000  -2.814849e+001  3.001662e+000 
3131250000  -2.592992e+001  3.025003e+000 
3134375000  -2.464796e+001  -1.082016e+001 
3137500000  -2.532094e+001  -2.419455e+001 
3140625000  -2.691989e+001  -2.550131e+001 
3143750000  -2.791194e+001  -2.215516e+001 
3146875000  -2.748624e+001  -1.969643e+001 
3150000000  -2.645625e+001  -1.795527e+001 
3153125000  -2.646089e+001  -2.537358e+001 
3156250000  -2.746821e+001  -1.983441e+001 
3159375000  -2.584289e+001  -1.695129e+001 
3162500000  -2.381860e+001  -3.008993e+001 
3165625000  -2.480704e+001  -4.080043e+001 
3168750000  -2.513636e+001  -3.997662e+001 
3171875000  -2.423724e+001  -4.443860e+001 
3175000000  -2.485708e+001  -5.195356e+001 
3178125000  -2.461429e+001  -5.036395e+001 
3181250000  -2.347861e+001  -5.444628e+001 
3184375000  -2.272990e+001  -6.692760e+001 
3187500000  -2.384911e+001  -8.160979e+001 
3190625000  -2.659203e+001  -8.881495e+001 
3193750000  -2.717079e+001  -7.949224e+001 
3196875000  -2.676607e+001  -7.402525e+001 
3200000000  -2.583817e+001  -7.588431e+001 
3203125000  -2.500329e+001  -8.184199e+001 
3206250000  -2.531013e+001  -8.821280e+001 
3209375000  -2.486983e+001  -9.316495e+001 
3212500000  -2.501830e+001  -9.956600e+001 
3215625000  -2.511021e+001  -1.034655e+002 
3218750000  -2.586345e+001  -1.100232e+002 
3221875000  -2.682248e+001  -1.151871e+002 
3225000000  -2.642292e+001  -1.156988e+002 
3228125000  -2.677211e+001  -1.207053e+002 
3231250000  -2.750171e+001  -1.229109e+002 
3234375000  -2.733914e+001  -1.218332e+002 
3237500000  -2.739956e+001  -1.235306e+002 
3240625000  -2.702810e+001  -1.255576e+002 
3243750000  -2.671841e+001  -1.320573e+002 
3246875000  -2.716751e+001  -1.384176e+002 
3250000000  -2.761922e+001  -1.405216e+002 
3253125000  -2.779964e+001  -1.421107e+002 
3256250000  -2.763162e+001  -1.482175e+002 
3259375000  -2.797130e+001  -1.555797e+002 
3262500000  -2.920715e+001  -1.585268e+002 
3265625000  -2.990593e+001  -1.548441e+002 
3268750000  -2.984518e+001  -1.520840e+002 
3271875000  -2.960704e+001  -1.511710e+002 
3275000000  -2.856477e+001  -1.566820e+002 
3278125000  -2.904664e+001  -1.626871e+002 
3281250000  -2.931231e+001  -1.606345e+002 
3284375000  -2.887655e+001  -1.669285e+002 
3287500000  -2.902810e+001  -1.693725e+002 
3290625000  -2.940699e+001  -1.735795e+002 
3293750000  -2.917093e+001  -1.794400e+002 
3296875000  -3.017650e+001  -1.790115e+002 
3300000000  -3.001529e+001  -1.780186e+002 
3303125000  -2.888527e+001  1.778189e+002 
3306250000  -2.869567e+001  1.711084e+002 
3309375000  -2.844985e+001  1.661614e+002 
3312500000  -2.847159e+001  1.559182e+002 
3315625000  -2.950344e+001  1.479254e+002 
3318750000  -3.086698e+001  1.453385e+002 
3321875000  -3.207113e+001  1.454819e+002 
3325000000  -3.257623e+001  1.514406e+002 
3328125000  -3.242264e+001  1.527437e+002 
3331250000  -3.111340e+001  1.596555e+002 
3334375000  -2.856545e+001  1.500747e+002 
3337500000  -2.864149e+001  1.313748e+002 
3340625000  -3.007440e+001  1.204899e+002 
3343750000  -3.209411e+001  1.193091e+002 
3346875000  -3.251865e+001  1.208619e+002 
3350000000  -3.186908e+001  1.200986e+002 
3353125000  -3.194456e+001  1.156793e+002 
3356250000  -3.170271e+001  1.072353e+002 
3359375000  -3.263771e+001  9.955560e+001 
3362500000  -3.378020e+001  9.389256e+001 
3365625000  -3.447886e+001  9.234359e+001 
3368750000  -3.545435e+001  9.139916e+001 
3371875000  -3.579854e+001  8.727184e+001 
3375000000  -3.746724e+001  8.573808e+001 
3378125000  -3.853481e+001  8.505356e+001 
3381250000  -4.010706e+001  9.345710e+001 
3384375000  -3.896955e+001  1.150368e+002 
3387500000  -3.574362e+001  9.854572e+001 
3390625000  -3.789912e+001  8.147702e+001 
3393750000  -3.949712e+001  8.507307e+001 
3396875000  -3.858326e+001  8.829469e+001 
3400000000  -3.866697e+001  8.231091e+001 
3403125000  -3.945149e+001  7.792464e+001 
3406250000  -4.042627e+001  8.081635e+001 
3409375000  -4.097134e+001  7.579963e+001 
3412500000  -4.197287e+001  7.815297e+001 
3415625000  -4.280299e+001  8.218283e+001 
3418750000  -4.292688e+001  8.448364e+001 
3421875000  -4.316726e+001  9.045197e+001 
3425000000  -4.251602e+001  9.498189e+001 
3428125000  -4.131005e+001  9.481786e+001 
3431250000  -4.116431e+001  9.199594e+001 
3434375000  -4.101098e+001  8.683001e+001 
3437500000  -4.159075e+001  8.515220e+001 
3440625000  -4.187858e+001  8.793714e+001 
3443750000  -4.069015e+001  9.146310e+001 
3446875000  -3.973246e+001  8.605039e+001 
3450000000  -3.968700e+001  7.753972e+001 
3453125000  -3.992881e+001  6.832372e+001 
3456250000  -4.108882e+001  6.237774e+001 
3459375000  -4.200558e+001  6.628570e+001 
3462500000  -4.213715e+001  6.761259e+001 
3465625000  -4.208056e+001  6.259409e+001 
3468750000  -4.250334e+001  6.073210e+001 
3471875000  -4.248658e+001  5.954061e+001 
3475000000  -4.261264e+001  5.593404e+001 
3478125000  -4.296868e+001  5.232040e+001 
3481250000  -4.460258e+001  5.064070e+001 
3484375000  -4.569900e+001  5.304077e+001 
3487500000  -4.514132e+001  5.744322e+001 
3490625000  -4.479873e+001  5.480177e+001 
3493750000  -4.566022e+001  5.249087e+001 
3496875000  -4.658815e+001  5.579589e+001 
3500000000  -4.820214e+001  5.978357e+001 
3503125000  -4.758391e+001  6.643201e+001 
3506250000  -4.625348e+001  6.517914e+001 
3509375000  -4.651334e+001  5.923853e+001 
3512500000  -4.738367e+001  6.124142e+001 
3515625000  -4.807322e+001  6.433463e+001 
3518750000  -4.811099e+001  6.913411e+001 
3521875000  -4.795214e+001  7.300905e+001 
3525000000  -4.798680e+001  7.477455e+001 
3528125000  -4.718358e+001  8.731493e+001 
3531250000  -4.574847e+001  8.826870e+001 
3534375000  -4.494885e+001  7.932043e+001 
3537500000  -4.515690e+001  7.537386e+001 
3540625000  -4.551609e+001  7.499490e+001 
3543750000  -4.575811e+001  7.755235e+001 
3546875000  -4.583363e+001  9.208195e+001 
3550000000  -4.315403e+001  9.348569e+001 
3553125000  -4.145926e+001  7.626046e+001 
3556250000  -4.260104e+001  7.288182e+001 
3559375000  -4.196596e+001  7.431628e+001 
3562500000  -4.099212e+001  6.732043e+001 
3565625000  -4.163036e+001  6.110804e+001 
3568750000  -4.191105e+001  6.387698e+001 
3571875000  -4.160515e+001  6.374120e+001 
3575000000  -4.098921e+001  5.826384e+001 
3578125000  -4.180922e+001  5.655921e+001 
3581250000  -4.139685e+001  5.581990e+001 
3584375000  -4.056483e+001  5.446291e+001 
3587500000  -4.002206e+001  4.821501e+001 
3590625000  -4.004740e+001  3.875177e+001 
3593750000  -4.131128e+001  3.907454e+001 
3596875000  -4.133533e+001  4.694981e+001 
3600000000  -3.961639e+001  4.178023e+001 
3603125000  -3.979113e+001  3.065100e+001 
3606250000  -4.030959e+001  2.767758e+001 
3609375000  -4.077692e+001  2.745304e+001 
3612500000  -4.107780e+001  2.573842e+001 
3615625000  -4.113302e+001  2.216787e+001 
3618750000  -4.179429e+001  2.442146e+001 
3621875000  -4.154318e+001  2.474915e+001 
3625000000  -4.172307e+001  2.485994e+001 
3628125000  -4.156014e+001  2.427684e+001 
3631250000  -4.122908e+001  1.908715e+001 
3634375000  -4.240375e+001  2.056156e+001 
3637500000  -4.205658e+001  2.682391e+001 
3640625000  -4.089016e+001  2.690148e+001 
3643750000  -4.066562e+001  2.045425e+001 
3646875000  -4.122098e+001  1.591893e+001 
3650000000  -4.149173e+001  1.551331e+001 
3653125000  -4.124234e+001  1.258181e+001 
3656250000  -4.160608e+001  1.505945e+001 
3659375000  -4.196008e+001  1.811150e+001 
3662500000  -4.123550e+001  1.473208e+001 
3665625000  -4.122004e+001  1.657044e+001 
3668750000  -4.026767e+001  1.702998e+001 
3671875000  -3.933263e+001  1.376320e+001 
3675000000  -3.987943e+001  7.551704e+000 
3678125000  -4.024155e+001  8.927639e+000 
3681250000  -3.974659e+001  8.036505e+000 
3684375000  -3.967227e+001  7.209502e+000 
3687500000  -3.984856e+001  6.838984e+000 
3690625000  -3.970346e+001  3.086455e+000 
3693750000  -4.032872e+001  5.735542e+000 
3696875000  -3.995285e+001  8.281245e+000 
3700000000  -3.875415e+001  7.799329e+000 
3703125000  -3.872670e+001  3.560080e+000 
3706250000  -3.943372e+001  6.155721e+000 
3709375000  -3.868547e+001  8.603931e+000 
3712500000  -3.761012e+001  8.745745e+000 
3715625000  -3.628532e+001  3.279064e+000 
3718750000  -3.577958e+001  5.236177e-001 
3721875000  -3.513406e+001  -6.233812e+000 
3725000000  -3.533814e+001  -1.052179e+001 
3728125000  -3.534847e+001  -9.979078e+000 
3731250000  -3.468260e+001  -1.108915e+001 
3734375000  -3.366408e+001  -1.759694e+001 
3737500000  -3.413421e+001  -2.525449e+001 
3740625000  -3.482948e+001  -2.778680e+001 
3743750000  -3.454408e+001  -2.988642e+001 
3746875000  -3.453014e+001  -3.327457e+001 
3750000000  -3.497550e+001  -3.394009e+001 
3753125000  -3.459499e+001  -3.405761e+001 
3756250000  -3.450471e+001  -3.508515e+001 
3759375000  -3.432361e+001  -3.637247e+001 
3762500000  -3.367818e+001  -3.922591e+001 
3765625000  -3.432272e+001  -4.236842e+001 
3768750000  -3.423193e+001  -4.099733e+001 
3771875000  -3.250010e+001  -4.206985e+001 
3775000000  -3.227912e+001  -4.983785e+001 
3778125000  -3.261445e+001  -5.170406e+001 
3781250000  -3.247564e+001  -5.462123e+001 
3784375000  -3.233252e+001  -5.664489e+001 
3787500000  -3.169306e+001  -6.045932e+001 
3790625000  -3.223896e+001  -6.571672e+001 
3793750000  -3.244650e+001  -6.679659e+001 
3796875000  -3.145862e+001  -6.762467e+001 
3800000000  -2.991202e+001  -7.165136e+001 
3803125000  -3.078152e+001  -7.865267e+001 
3806250000  -3.146507e+001  -8.114825e+001 
3809375000  -3.112343e+001  -8.219799e+001 
3812500000  -3.040860e+001  -8.740527e+001 
3815625000  -3.109988e+001  -9.429691e+001 
3818750000  -3.213284e+001  -9.473769e+001 
3821875000  -3.212436e+001  -8.737602e+001 
3825000000  -3.021591e+001  -8.204629e+001 
3828125000  -2.881135e+001  -9.695896e+001 
3831250000  -2.927101e+001  -1.106384e+002 
3834375000  -3.070849e+001  -1.118381e+002 
3837500000  -3.155977e+001  -1.066953e+002 
3840625000  -3.043900e+001  -1.074551e+002 
3843750000  -2.926139e+001  -1.177540e+002 
3846875000  -3.004939e+001  -1.245968e+002 
3850000000  -3.130586e+001  -1.186190e+002 
3853125000  -3.035257e+001  -1.161314e+002 
3856250000  -3.044235e+001  -1.212261e+002 
3859375000  -2.957994e+001  -1.261341e+002 
3862500000  -2.920495e+001  -1.331065e+002 
3865625000  -2.950705e+001  -1.380407e+002 
3868750000  -2.954869e+001  -1.384550e+002 
3871875000  -2.877276e+001  -1.415883e+002 
3875000000  -2.895825e+001  -1.502865e+002 
3878125000  -2.994598e+001  -1.524023e+002 
3881250000  -3.016423e+001  -1.494533e+002 
3884375000  -2.955669e+001  -1.543684e+002 
3887500000  -2.980025e+001  -1.582971e+002 
3890625000  -3.027338e+001  -1.603657e+002 
3893750000  -3.068398e+001  -1.621480e+002 
3896875000  -3.085730e+001  -1.614765e+002 
3900000000  -3.101862e+001  -1.620333e+002 
3903125000  -3.061471e+001  -1.642359e+002 
3906250000  -3.045025e+001  -1.649922e+002 
3909375000  -2.968198e+001  -1.676858e+002 
3912500000  -2.982416e+001  -1.749847e+002 
3915625000  -3.096105e+001  -1.749017e+002 
3918750000  -3.097926e+001  -1.726464e+002 
3921875000  -3.055804e+001  -1.735180e+002 
3925000000  -2.980769e+001  -1.751414e+002 
3928125000  -2.904969e+001  1.794269e+002 
3931250000  -2.955248e+001  1.751685e+002 
3934375000  -2.981576e+001  1.752242e+002 
3937500000  -2.998306e+001  1.744281e+002 
3940625000  -3.044226e+001  1.755248e+002 
3943750000  -2.938050e+001  1.765585e+002 
3946875000  -2.825572e+001  1.713109e+002 
3950000000  -2.876810e+001  1.635299e+002 
3953125000  -2.968928e+001  1.647506e+002 
3956250000  -2.879183e+001  1.665337e+002 
3959375000  -2.749714e+001  1.641269e+002 
3962500000  -2.694654e+001  1.596201e+002 
3965625000  -2.662611e+001  1.509820e+002 
3968750000  -2.757681e+001  1.445922e+002 
3971875000  -2.790549e+001  1.428791e+002 
3975000000  -2.721902e+001  1.411547e+002 
3978125000  -2.705637e+001  1.394746e+002 
3981250000  -2.678173e+001  1.350985e+002 
3984375000  -2.702951e+001  1.288386e+002 
3987500000  -2.752824e+001  1.269855e+002 
3990625000  -2.756041e+001  1.261502e+002 
3993750000  -2.777710e+001  1.227189e+002 
3996875000  -2.771947e+001  1.204955e+002 
4000000000  -2.787454e+001  1.182152e+002 
4003125000  -2.844069e+001  1.205017e+002 
4006250000  -2.701775e+001  1.204976e+002 
4009375000  -2.588232e+001  1.085839e+002 
4012500000  -2.695907e+001  1.013526e+002 
4015625000  -2.817994e+001  1.020526e+002 
4018750000  -2.832817e+001  1.040564e+002 
4021875000  -2.761346e+001  1.025003e+002 
4025000000  -2.730214e+001  9.786578e+001 
4028125000  -2.723754e+001  9.382900e+001 
4031250000  -2.772985e+001  9.037427e+001 
4034375000  -2.798393e+001  9.058691e+001 
4037500000  -2.751805e+001  9.268315e+001 
4040625000  -2.737431e+001  8.897218e+001 
4043750000  -2.770573e+001  8.838670e+001 
4046875000  -2.732787e+001  8.810995e+001 
4050000000  -2.677865e+001  8.281853e+001 
4053125000  -2.729835e+001  8.090456e+001 
4056250000  -2.783013e+001  8.502222e+001 
4059375000  -2.662728e+001  8.701698e+001 
4062500000  -2.521117e+001  8.186376e+001 
4065625000  -2.515113e+001  7.744456e+001 
4068750000  -2.477639e+001  7.280500e+001 
4071875000  -2.421055e+001  6.511011e+001 
4075000000  -2.458292e+001  5.867594e+001 
4078125000  -2.511400e+001  5.792009e+001 
4081250000  -2.458147e+001  5.559576e+001 
4084375000  -2.418853e+001  4.897076e+001 
4087500000  -2.453344e+001  4.241198e+001 
4090625000  -2.517278e+001  4.154334e+001 
4093750000  -2.496453e+001  4.197771e+001 
4096875000  -2.447967e+001  3.629454e+001 
4100000000  -2.524562e+001  2.921828e+001 
4103125000  -2.611565e+001  2.985981e+001 
4106250000  -2.591989e+001  3.495001e+001 
4109375000  -2.504972e+001  3.442921e+001 
4112500000  -2.447863e+001  2.764224e+001 
4115625000  -2.481587e+001  2.329803e+001 
4118750000  -2.486917e+001  2.030857e+001 
4121875000  -2.451114e+001  1.579508e+001 
4125000000  -2.489946e+001  1.043219e+001 
4128125000  -2.591528e+001  1.072540e+001 
4131250000  -2.557002e+001  1.883757e+001 
4134375000  -2.327121e+001  1.437983e+001 
4137500000  -2.307352e+001  -3.884997e+000 
4140625000  -2.525558e+001  -1.142035e+001 
4143750000  -2.658215e+001  -6.163184e+000 
4146875000  -2.613094e+001  9.403872e-001 
4150000000  -2.518435e+001  -2.211284e+000 
4153125000  -2.504891e+001  -8.572229e+000 
4156250000  -2.594564e+001  -1.174507e+001 
4159375000  -2.622078e+001  -6.856471e+000 
4162500000  -2.504820e+001  -2.916044e+000 
4165625000  -2.391471e+001  -6.655859e+000 
4168750000  -2.334454e+001  -1.402341e+001 
4171875000  -2.332221e+001  -2.350421e+001 
4175000000  -2.398159e+001  -2.883655e+001 
4178125000  -2.454561e+001  -2.873512e+001 
4181250000  -2.440360e+001  -2.965692e+001 
4184375000  -2.425760e+001  -3.275720e+001 
4187500000  -2.428996e+001  -3.557574e+001 
4190625000  -2.412930e+001  -4.119520e+001 
4193750000  -2.493554e+001  -4.455747e+001 
4196875000  -2.565347e+001  -4.499849e+001 
4200000000  -2.652884e+001  -4.260163e+001 
4203125000  -2.647655e+001  -2.853886e+001 
4206250000  -2.302326e+001  -2.786464e+001 
4209375000  -2.188635e+001  -4.840601e+001 
4212500000  -2.392225e+001  -5.688845e+001 
4215625000  -2.490470e+001  -5.046048e+001 
4218750000  -2.351760e+001  -4.422475e+001 
4221875000  -2.119016e+001  -5.304094e+001 
4225000000  -2.246645e+001  -6.583363e+001 
4228125000  -2.311612e+001  -6.034038e+001 
4231250000  -2.152161e+001  -6.456645e+001 
4234375000  -2.148857e+001  -7.269308e+001 
4237500000  -2.107502e+001  -7.598537e+001 
4240625000  -2.109467e+001  -8.454282e+001 
4243750000  -2.201147e+001  -9.160994e+001 
4246875000  -2.292564e+001  -9.160770e+001 
4250000000  -2.297914e+001  -8.850552e+001 
4253125000  -2.239795e+001  -9.034555e+001 
4256250000  -2.268737e+001  -9.476479e+001 
4259375000  -2.242093e+001  -9.682414e+001 
4262500000  -2.244505e+001  -1.004701e+002 
4265625000  -2.254272e+001  -9.974635e+001 
4268750000  -2.172614e+001  -1.042505e+002 
4271875000  -2.145539e+001  -1.099871e+002 
4275000000  -2.086679e+001  -1.163682e+002 
4278125000  -2.149778e+001  -1.275790e+002 
4281250000  -2.327467e+001  -1.293983e+002 
4284375000  -2.296135e+001  -1.284314e+002 
4287500000  -2.377576e+001  -1.321017e+002 
4290625000  -2.496476e+001  -1.229507e+002 
4293750000  -2.304846e+001  -1.175642e+002 
4296875000  -2.169527e+001  -1.285472e+002 
4300000000  -2.250364e+001  -1.377441e+002 
4303125000  -2.366775e+001  -1.363752e+002 
4306250000  -2.297881e+001  -1.304565e+002 
4309375000  -2.164824e+001  -1.324809e+002 
4312500000  -2.152670e+001  -1.411529e+002 
4315625000  -2.171625e+001  -1.474125e+002 
4318750000  -2.204976e+001  -1.507194e+002 
4321875000  -2.223163e+001  -1.499755e+002 
4325000000  -2.166649e+001  -1.493121e+002 
4328125000  -2.119727e+001  -1.559190e+002 
4331250000  -2.109083e+001  -1.638955e+002 
4334375000  -2.156235e+001  -1.689162e+002 
4337500000  -2.240702e+001  -1.710778e+002 
4340625000  -2.292742e+001  -1.676693e+002 
4343750000  -2.230829e+001  -1.672832e+002 
4346875000  -2.190869e+001  -1.729425e+002 
4350000000  -2.196263e+001  -1.776172e+002 
4353125000  -2.204154e+001  1.748881e+002 
4356250000  -2.380473e+001  1.740756e+002 
4359375000  -2.424318e+001  -1.721417e+002 
4362500000  -2.160730e+001  -1.708617e+002 
4365625000  -2.003703e+001  1.771408e+002 
4368750000  -2.078338e+001  1.653691e+002 
4371875000  -2.193134e+001  1.660560e+002 
4375000000  -2.161056e+001  1.673793e+002 
4378125000  -2.095163e+001  1.612909e+002 
4381250000  -2.115113e+001  1.559315e+002 
4384375000  -2.095860e+001  1.515707e+002 
4387500000  -2.170251e+001  1.457398e+002 
4390625000  -2.270856e+001  1.464777e+002 
4393750000  -2.204339e+001  1.486349e+002 
4396875000  -2.138354e+001  1.464690e+002 
4400000000  -2.086612e+001  1.394603e+002 
4403125000  -2.145134e+001  1.315989e+002 
4406250000  -2.229881e+001  1.305668e+002 
4409375000  -2.225450e+001  1.281045e+002 
4412500000  -2.330872e+001  1.255960e+002 
4415625000  -2.365462e+001  1.307000e+002 
4418750000  -2.242107e+001  1.349963e+002 
