!Agilent Technologies,E8363B,MY43030201,A.06.04.32
!Agilent E8363B: A.06.04.32
!Date: Tuesday, November 11, 2014 20:53:07
!Correction: S21(Response(S21)) 
!S1P File: Measurement: S21:
# Hz S  dB   R 50
3000000000  -2.654184e+001  1.506374e+002 
3003125000  -2.796725e+001  1.456930e+002 
3006250000  -2.802550e+001  1.431622e+002 
3009375000  -2.840348e+001  1.480448e+002 
3012500000  -2.782581e+001  1.478673e+002 
3015625000  -2.690180e+001  1.406740e+002 
3018750000  -2.774519e+001  1.397645e+002 
3021875000  -2.649175e+001  1.409817e+002 
3025000000  -2.518000e+001  1.377890e+002 
3028125000  -2.421739e+001  1.328813e+002 
3031250000  -2.318057e+001  1.216945e+002 
3034375000  -2.279529e+001  1.086888e+002 
3037500000  -2.315832e+001  9.668468e+001 
3040625000  -2.449390e+001  9.163460e+001 
3043750000  -2.520022e+001  8.748917e+001 
3046875000  -2.529972e+001  8.120522e+001 
3050000000  -2.704370e+001  7.407573e+001 
3053125000  -2.713854e+001  8.036510e+001 
3056250000  -2.653325e+001  8.338351e+001 
3059375000  -2.679251e+001  8.310141e+001 
3062500000  -2.528428e+001  7.920345e+001 
3065625000  -2.508982e+001  7.366253e+001 
3068750000  -2.480085e+001  6.663506e+001 
3071875000  -2.477458e+001  6.346690e+001 
3075000000  -2.471109e+001  5.988894e+001 
3078125000  -2.446182e+001  5.520864e+001 
3081250000  -2.507998e+001  5.109798e+001 
3084375000  -2.433921e+001  4.735611e+001 
3087500000  -2.422515e+001  4.369660e+001 
3090625000  -2.392591e+001  3.403191e+001 
3093750000  -2.439183e+001  2.604862e+001 
3096875000  -2.566736e+001  2.017843e+001 
3100000000  -2.580993e+001  1.895455e+001 
3103125000  -2.619053e+001  2.018192e+001 
3106250000  -2.589502e+001  1.677334e+001 
3109375000  -2.613617e+001  1.326801e+001 
3112500000  -2.626269e+001  1.221569e+001 
3115625000  -2.609937e+001  8.114156e+000 
3118750000  -2.653201e+001  9.373701e+000 
3121875000  -2.591922e+001  1.320514e+000 
3125000000  -2.707068e+001  -2.331081e+000 
3128125000  -2.833805e+001  6.017571e+000 
3131250000  -2.605368e+001  7.030317e+000 
3134375000  -2.472152e+001  -6.894173e+000 
3137500000  -2.539463e+001  -2.070926e+001 
3140625000  -2.693457e+001  -2.228668e+001 
3143750000  -2.802777e+001  -1.861876e+001 
3146875000  -2.760271e+001  -1.644422e+001 
3150000000  -2.657685e+001  -1.420739e+001 
3153125000  -2.654234e+001  -2.172011e+001 
3156250000  -2.753738e+001  -1.627165e+001 
3159375000  -2.594301e+001  -1.317428e+001 
3162500000  -2.395821e+001  -2.655339e+001 
3165625000  -2.486609e+001  -3.735928e+001 
3168750000  -2.523004e+001  -3.656570e+001 
3171875000  -2.429448e+001  -4.072765e+001 
3175000000  -2.492578e+001  -4.841153e+001 
3178125000  -2.473471e+001  -4.693768e+001 
3181250000  -2.355442e+001  -5.108010e+001 
3184375000  -2.277512e+001  -6.324628e+001 
3187500000  -2.388663e+001  -7.823937e+001 
3190625000  -2.666447e+001  -8.582420e+001 
3193750000  -2.724500e+001  -7.605476e+001 
3196875000  -2.686038e+001  -7.124003e+001 
3200000000  -2.596010e+001  -7.288553e+001 
3203125000  -2.506402e+001  -7.838377e+001 
3206250000  -2.542897e+001  -8.465543e+001 
3209375000  -2.493799e+001  -8.988027e+001 
3212500000  -2.510097e+001  -9.621889e+001 
3215625000  -2.519783e+001  -1.000676e+002 
3218750000  -2.595149e+001  -1.068047e+002 
3221875000  -2.691751e+001  -1.118544e+002 
3225000000  -2.653173e+001  -1.126440e+002 
3228125000  -2.684596e+001  -1.172634e+002 
3231250000  -2.762628e+001  -1.195008e+002 
3234375000  -2.748238e+001  -1.184982e+002 
3237500000  -2.749574e+001  -1.204128e+002 
3240625000  -2.719501e+001  -1.220945e+002 
3243750000  -2.683151e+001  -1.287044e+002 
3246875000  -2.732681e+001  -1.352456e+002 
3250000000  -2.777387e+001  -1.368104e+002 
3253125000  -2.791984e+001  -1.385451e+002 
3256250000  -2.777841e+001  -1.446756e+002 
3259375000  -2.810218e+001  -1.524619e+002 
3262500000  -2.933113e+001  -1.549194e+002 
3265625000  -3.007503e+001  -1.514583e+002 
3268750000  -2.998260e+001  -1.489386e+002 
3271875000  -2.972805e+001  -1.476114e+002 
3275000000  -2.865596e+001  -1.528745e+002 
3278125000  -2.915199e+001  -1.593444e+002 
3281250000  -2.942969e+001  -1.574087e+002 
3284375000  -2.898462e+001  -1.632048e+002 
3287500000  -2.920428e+001  -1.661923e+002 
3290625000  -2.953481e+001  -1.702180e+002 
3293750000  -2.921180e+001  -1.761137e+002 
3296875000  -3.033196e+001  -1.763194e+002 
3300000000  -3.020443e+001  -1.753256e+002 
3303125000  -2.909385e+001  -1.791493e+002 
3306250000  -2.884820e+001  1.741363e+002 
3309375000  -2.862213e+001  1.690127e+002 
3312500000  -2.865920e+001  1.588938e+002 
3315625000  -2.971984e+001  1.508930e+002 
3318750000  -3.105337e+001  1.479949e+002 
3321875000  -3.224793e+001  1.477310e+002 
3325000000  -3.277352e+001  1.526103e+002 
3328125000  -3.264645e+001  1.541886e+002 
3331250000  -3.142876e+001  1.626858e+002 
3334375000  -2.888097e+001  1.524067e+002 
3337500000  -2.892963e+001  1.337352e+002 
3340625000  -3.031133e+001  1.228154e+002 
3343750000  -3.223611e+001  1.220473e+002 
3346875000  -3.280634e+001  1.237003e+002 
3350000000  -3.214607e+001  1.220358e+002 
3353125000  -3.221884e+001  1.173448e+002 
3356250000  -3.202344e+001  1.098930e+002 
3359375000  -3.289023e+001  1.017297e+002 
3362500000  -3.418593e+001  9.601820e+001 
3365625000  -3.478283e+001  9.463068e+001 
3368750000  -3.584454e+001  9.264704e+001 
3371875000  -3.628132e+001  8.917356e+001 
3375000000  -3.771759e+001  8.766854e+001 
3378125000  -3.886493e+001  8.634914e+001 
3381250000  -4.037207e+001  9.464349e+001 
3384375000  -3.991358e+001  1.161475e+002 
3387500000  -3.648298e+001  1.011172e+002 
3390625000  -3.835509e+001  8.377802e+001 
3393750000  -4.022868e+001  8.652802e+001 
3396875000  -3.936571e+001  9.134082e+001 
3400000000  -3.943547e+001  8.473360e+001 
3403125000  -4.042469e+001  7.842457e+001 
3406250000  -4.135133e+001  8.234024e+001 
3409375000  -4.199759e+001  7.729269e+001 
3412500000  -4.290855e+001  7.974356e+001 
3415625000  -4.366483e+001  8.451412e+001 
3418750000  -4.404936e+001  8.973214e+001 
3421875000  -4.421420e+001  9.679717e+001 
3425000000  -4.332713e+001  1.002690e+002 
3428125000  -4.240582e+001  1.003362e+002 
3431250000  -4.244530e+001  9.624765e+001 
3434375000  -4.183797e+001  9.245612e+001 
3437500000  -4.240028e+001  9.285667e+001 
3440625000  -4.278711e+001  9.289458e+001 
3443750000  -4.158544e+001  9.575639e+001 
3446875000  -4.054407e+001  9.136176e+001 
3450000000  -4.035361e+001  8.151450e+001 
3453125000  -4.067957e+001  7.464324e+001 
3456250000  -4.183894e+001  6.755945e+001 
3459375000  -4.287267e+001  7.074486e+001 
3462500000  -4.305413e+001  7.171446e+001 
3465625000  -4.324475e+001  6.869868e+001 
3468750000  -4.324736e+001  6.676641e+001 
3471875000  -4.358479e+001  6.622031e+001 
3475000000  -4.348310e+001  6.180195e+001 
3478125000  -4.438759e+001  5.692213e+001 
3481250000  -4.590194e+001  5.766951e+001 
3484375000  -4.700417e+001  5.854029e+001 
3487500000  -4.625510e+001  6.513968e+001 
3490625000  -4.616772e+001  6.254098e+001 
3493750000  -4.620084e+001  6.208227e+001 
3496875000  -4.772649e+001  6.387692e+001 
3500000000  -4.979678e+001  6.968413e+001 
3503125000  -4.949992e+001  7.447726e+001 
3506250000  -4.811421e+001  8.194402e+001 
3509375000  -4.738198e+001  7.777496e+001 
3512500000  -4.810774e+001  7.924683e+001 
3515625000  -4.811608e+001  8.298071e+001 
3518750000  -4.865812e+001  9.090507e+001 
3521875000  -4.815345e+001  8.944671e+001 
3525000000  -4.803675e+001  9.226147e+001 
3528125000  -4.756886e+001  1.015375e+002 
3531250000  -4.499514e+001  1.010184e+002 
3534375000  -4.460427e+001  9.142156e+001 
3537500000  -4.416618e+001  8.768890e+001 
3540625000  -4.527443e+001  8.602492e+001 
3543750000  -4.553086e+001  8.993039e+001 
3546875000  -4.478442e+001  1.051870e+002 
3550000000  -4.237218e+001  1.062531e+002 
3553125000  -4.100904e+001  8.771185e+001 
3556250000  -4.185841e+001  8.130007e+001 
3559375000  -4.168576e+001  8.273245e+001 
3562500000  -4.022094e+001  7.635090e+001 
3565625000  -4.131134e+001  6.930845e+001 
3568750000  -4.112850e+001  7.277952e+001 
3571875000  -4.112543e+001  7.083074e+001 
3575000000  -4.045275e+001  6.566497e+001 
3578125000  -4.106281e+001  6.222424e+001 
3581250000  -4.124018e+001  6.183830e+001 
3584375000  -4.034286e+001  6.055648e+001 
3587500000  -3.954859e+001  5.445494e+001 
3590625000  -3.987853e+001  4.731568e+001 
3593750000  -4.090055e+001  4.546358e+001 
3596875000  -4.101225e+001  5.283382e+001 
3600000000  -3.935068e+001  5.046104e+001 
3603125000  -3.949564e+001  3.649607e+001 
3606250000  -4.022094e+001  3.427564e+001 
3609375000  -4.071064e+001  3.182306e+001 
3612500000  -4.112752e+001  3.099642e+001 
3615625000  -4.117825e+001  2.943379e+001 
3618750000  -4.183173e+001  2.861933e+001 
3621875000  -4.149178e+001  2.950725e+001 
3625000000  -4.187145e+001  2.964550e+001 
3628125000  -4.221370e+001  3.233092e+001 
3631250000  -4.147579e+001  2.566830e+001 
3634375000  -4.251671e+001  2.824476e+001 
3637500000  -4.229972e+001  3.386069e+001 
3640625000  -4.087752e+001  3.385978e+001 
3643750000  -4.062062e+001  2.795280e+001 
3646875000  -4.103400e+001  2.287297e+001 
3650000000  -4.143195e+001  2.121193e+001 
3653125000  -4.107779e+001  2.399398e+001 
3656250000  -4.159097e+001  2.031711e+001 
3659375000  -4.181266e+001  2.505835e+001 
3662500000  -4.086850e+001  2.139337e+001 
3665625000  -4.099596e+001  2.569839e+001 
3668750000  -4.006429e+001  2.516783e+001 
3671875000  -3.888098e+001  2.059596e+001 
3675000000  -3.945256e+001  1.508815e+001 
3678125000  -4.003930e+001  1.631666e+001 
3681250000  -3.956807e+001  1.588913e+001 
3684375000  -3.926097e+001  1.461615e+001 
3687500000  -3.933082e+001  1.246329e+001 
3690625000  -3.943723e+001  9.618746e+000 
3693750000  -3.999724e+001  1.381493e+001 
3696875000  -3.987558e+001  1.486939e+001 
3700000000  -3.870155e+001  1.349477e+001 
3703125000  -3.860658e+001  9.942729e+000 
3706250000  -3.916254e+001  1.132820e+001 
3709375000  -3.869724e+001  1.396432e+001 
3712500000  -3.739418e+001  1.572720e+001 
3715625000  -3.625636e+001  8.934168e+000 
3718750000  -3.551878e+001  5.855951e+000 
3721875000  -3.527502e+001  1.069288e+000 
3725000000  -3.523079e+001  -3.799190e+000 
3728125000  -3.551285e+001  -3.947770e+000 
3731250000  -3.475649e+001  -5.951209e+000 
3734375000  -3.388094e+001  -1.098151e+001 
3737500000  -3.433768e+001  -1.764305e+001 
3740625000  -3.491553e+001  -2.157218e+001 
3743750000  -3.467730e+001  -2.325905e+001 
3746875000  -3.460523e+001  -2.667048e+001 
3750000000  -3.498029e+001  -2.628813e+001 
3753125000  -3.456615e+001  -2.714516e+001 
3756250000  -3.453278e+001  -2.788739e+001 
3759375000  -3.437816e+001  -2.784484e+001 
3762500000  -3.369940e+001  -3.155353e+001 
3765625000  -3.421889e+001  -3.515744e+001 
3768750000  -3.428573e+001  -3.275913e+001 
3771875000  -3.244185e+001  -3.513796e+001 
3775000000  -3.217081e+001  -4.300774e+001 
3778125000  -3.255529e+001  -4.440415e+001 
3781250000  -3.239710e+001  -4.652731e+001 
3784375000  -3.226767e+001  -4.904246e+001 
3787500000  -3.157702e+001  -5.263924e+001 
3790625000  -3.207440e+001  -5.835682e+001 
3793750000  -3.238197e+001  -5.851767e+001 
3796875000  -3.138775e+001  -6.036021e+001 
3800000000  -2.979644e+001  -6.334138e+001 
3803125000  -3.049115e+001  -7.179825e+001 
3806250000  -3.123866e+001  -7.346142e+001 
3809375000  -3.092642e+001  -7.465538e+001 
3812500000  -3.034994e+001  -8.011317e+001 
3815625000  -3.086932e+001  -8.782487e+001 
3818750000  -3.187514e+001  -8.767786e+001 
3821875000  -3.187550e+001  -8.013886e+001 
3825000000  -3.015957e+001  -7.569391e+001 
3828125000  -2.866715e+001  -8.941098e+001 
3831250000  -2.911778e+001  -1.037549e+002 
3834375000  -3.049763e+001  -1.048251e+002 
3837500000  -3.141403e+001  -1.000642e+002 
3840625000  -3.043030e+001  -1.000429e+002 
3843750000  -2.921986e+001  -1.101631e+002 
3846875000  -3.001447e+001  -1.178432e+002 
3850000000  -3.126923e+001  -1.120414e+002 
3853125000  -3.037108e+001  -1.095689e+002 
3856250000  -3.038614e+001  -1.132930e+002 
3859375000  -2.973783e+001  -1.177726e+002 
3862500000  -2.922907e+001  -1.254385e+002 
3865625000  -2.953428e+001  -1.297232e+002 
3868750000  -2.960074e+001  -1.303817e+002 
3871875000  -2.881942e+001  -1.330842e+002 
3875000000  -2.897391e+001  -1.408673e+002 
3878125000  -2.995493e+001  -1.440527e+002 
3881250000  -3.003366e+001  -1.403387e+002 
3884375000  -2.936844e+001  -1.447052e+002 
3887500000  -2.958288e+001  -1.488497e+002 
3890625000  -2.998128e+001  -1.516743e+002 
3893750000  -3.041942e+001  -1.528074e+002 
3896875000  -3.046824e+001  -1.523276e+002 
3900000000  -3.082754e+001  -1.531480e+002 
3903125000  -3.044081e+001  -1.549160e+002 
3906250000  -3.017099e+001  -1.557562e+002 
3909375000  -2.941276e+001  -1.585983e+002 
3912500000  -2.938650e+001  -1.657127e+002 
3915625000  -3.059003e+001  -1.649245e+002 
3918750000  -3.065692e+001  -1.628572e+002 
3921875000  -3.024390e+001  -1.652062e+002 
3925000000  -2.936765e+001  -1.658422e+002 
3928125000  -2.861582e+001  -1.721364e+002 
3931250000  -2.901758e+001  -1.761338e+002 
3934375000  -2.925307e+001  -1.758445e+002 
3937500000  -2.947130e+001  -1.762783e+002 
3940625000  -2.992392e+001  -1.765651e+002 
3943750000  -2.898283e+001  -1.751373e+002 
3946875000  -2.769915e+001  1.791958e+002 
3950000000  -2.823592e+001  1.719379e+002 
3953125000  -2.910593e+001  1.727318e+002 
3956250000  -2.835024e+001  1.745328e+002 
3959375000  -2.702135e+001  1.711828e+002 
3962500000  -2.651386e+001  1.673208e+002 
3965625000  -2.619319e+001  1.584983e+002 
3968750000  -2.702043e+001  1.519653e+002 
3971875000  -2.747704e+001  1.501443e+002 
3975000000  -2.689011e+001  1.487139e+002 
3978125000  -2.675850e+001  1.469223e+002 
3981250000  -2.649562e+001  1.427429e+002 
3984375000  -2.666757e+001  1.367361e+002 
3987500000  -2.721036e+001  1.350367e+002 
3990625000  -2.719916e+001  1.339106e+002 
3993750000  -2.739460e+001  1.308535e+002 
3996875000  -2.738902e+001  1.285618e+002 
4000000000  -2.743047e+001  1.265439e+002 
4003125000  -2.806816e+001  1.291730e+002 
4006250000  -2.667985e+001  1.298785e+002 
4009375000  -2.542605e+001  1.179689e+002 
4012500000  -2.645757e+001  1.107819e+002 
4015625000  -2.762642e+001  1.111706e+002 
4018750000  -2.780929e+001  1.136467e+002 
4021875000  -2.714190e+001  1.119073e+002 
4025000000  -2.669266e+001  1.076405e+002 
4028125000  -2.664555e+001  1.032323e+002 
4031250000  -2.705203e+001  9.960281e+001 
4034375000  -2.727643e+001  9.965701e+001 
4037500000  -2.674365e+001  1.014668e+002 
4040625000  -2.667986e+001  9.784941e+001 
4043750000  -2.700235e+001  9.726865e+001 
4046875000  -2.650348e+001  9.714723e+001 
4050000000  -2.598862e+001  9.068733e+001 
4053125000  -2.640981e+001  8.849494e+001 
4056250000  -2.699399e+001  9.211369e+001 
4059375000  -2.591758e+001  9.396868e+001 
4062500000  -2.448368e+001  8.946436e+001 
4065625000  -2.439720e+001  8.523948e+001 
4068750000  -2.411777e+001  8.066827e+001 
4071875000  -2.341499e+001  7.271194e+001 
4075000000  -2.376982e+001  6.631218e+001 
4078125000  -2.431338e+001  6.485408e+001 
4081250000  -2.382568e+001  6.199537e+001 
4084375000  -2.345725e+001  5.551532e+001 
4087500000  -2.378684e+001  4.897237e+001 
4090625000  -2.440700e+001  4.772722e+001 
4093750000  -2.431225e+001  4.847168e+001 
4096875000  -2.384324e+001  4.287401e+001 
4100000000  -2.453181e+001  3.605368e+001 
4103125000  -2.543502e+001  3.648560e+001 
4106250000  -2.529044e+001  4.156660e+001 
4109375000  -2.442224e+001  4.064290e+001 
4112500000  -2.386573e+001  3.474202e+001 
4115625000  -2.413697e+001  3.020155e+001 
4118750000  -2.428951e+001  2.728836e+001 
4121875000  -2.398459e+001  2.273980e+001 
4125000000  -2.434735e+001  1.790540e+001 
4128125000  -2.532797e+001  1.865666e+001 
4131250000  -2.489654e+001  2.684864e+001 
4134375000  -2.257097e+001  2.222828e+001 
4137500000  -2.229056e+001  3.087760e+000 
4140625000  -2.451095e+001  -4.007790e+000 
4143750000  -2.585395e+001  1.342117e+000 
4146875000  -2.533723e+001  8.680887e+000 
4150000000  -2.441057e+001  5.078359e+000 
4153125000  -2.423219e+001  -1.333805e+000 
4156250000  -2.506668e+001  -4.351449e+000 
4159375000  -2.536431e+001  2.781796e-001 
4162500000  -2.425043e+001  4.584504e+000 
4165625000  -2.312414e+001  4.333259e-001 
4168750000  -2.234935e+001  -6.590855e+000 
4171875000  -2.233781e+001  -1.600059e+001 
4175000000  -2.288706e+001  -2.185529e+001 
4178125000  -2.348182e+001  -2.229190e+001 
4181250000  -2.336126e+001  -2.306288e+001 
4184375000  -2.323216e+001  -2.655091e+001 
4187500000  -2.321601e+001  -2.940082e+001 
4190625000  -2.308408e+001  -3.499023e+001 
4193750000  -2.385673e+001  -3.914462e+001 
4196875000  -2.467101e+001  -3.974925e+001 
4200000000  -2.545119e+001  -3.749957e+001 
4203125000  -2.552294e+001  -2.413337e+001 
4206250000  -2.218470e+001  -2.253637e+001 
4209375000  -2.102542e+001  -4.299243e+001 
4212500000  -2.300578e+001  -5.160870e+001 
4215625000  -2.395547e+001  -4.488858e+001 
4218750000  -2.249785e+001  -3.863202e+001 
4221875000  -2.021331e+001  -4.827713e+001 
4225000000  -2.149238e+001  -6.131255e+001 
4228125000  -2.218577e+001  -5.632454e+001 
4231250000  -2.078292e+001  -6.014859e+001 
4234375000  -2.064158e+001  -6.810590e+001 
4237500000  -2.023235e+001  -7.159427e+001 
4240625000  -2.033539e+001  -8.011166e+001 
4243750000  -2.129883e+001  -8.608901e+001 
4246875000  -2.216727e+001  -8.608337e+001 
4250000000  -2.213604e+001  -8.343884e+001 
4253125000  -2.159686e+001  -8.521189e+001 
4256250000  -2.179262e+001  -8.950829e+001 
4259375000  -2.155507e+001  -9.154632e+001 
4262500000  -2.158194e+001  -9.528113e+001 
4265625000  -2.173980e+001  -9.481928e+001 
4268750000  -2.090232e+001  -9.869829e+001 
4271875000  -2.059085e+001  -1.039144e+002 
4275000000  -1.997810e+001  -1.104743e+002 
4278125000  -2.050422e+001  -1.221653e+002 
4281250000  -2.223843e+001  -1.243853e+002 
4284375000  -2.202763e+001  -1.243258e+002 
4287500000  -2.289799e+001  -1.279443e+002 
4290625000  -2.420607e+001  -1.177489e+002 
4293750000  -2.219881e+001  -1.117884e+002 
4296875000  -2.074557e+001  -1.232692e+002 
4300000000  -2.159282e+001  -1.326122e+002 
4303125000  -2.259596e+001  -1.313492e+002 
4306250000  -2.196524e+001  -1.257901e+002 
4309375000  -2.060198e+001  -1.284813e+002 
4312500000  -2.053599e+001  -1.371302e+002 
4315625000  -2.080145e+001  -1.430127e+002 
4318750000  -2.111319e+001  -1.464539e+002 
4321875000  -2.124123e+001  -1.461276e+002 
4325000000  -2.064630e+001  -1.460565e+002 
4328125000  -2.014855e+001  -1.525710e+002 
4331250000  -2.019993e+001  -1.606457e+002 
4334375000  -2.062983e+001  -1.654929e+002 
4337500000  -2.140343e+001  -1.679512e+002 
4340625000  -2.191387e+001  -1.649754e+002 
4343750000  -2.138347e+001  -1.646061e+002 
4346875000  -2.102783e+001  -1.697932e+002 
4350000000  -2.094116e+001  -1.745262e+002 
4353125000  -2.103316e+001  1.776344e+002 
4356250000  -2.275540e+001  1.759057e+002 
4359375000  -2.342029e+001  -1.709440e+002 
4362500000  -2.084708e+001  -1.687963e+002 
4365625000  -1.927184e+001  1.799237e+002 
4368750000  -1.997681e+001  1.680887e+002 
4371875000  -2.111611e+001  1.684226e+002 
4375000000  -2.081852e+001  1.697760e+002 
4378125000  -2.022368e+001  1.641867e+002 
4381250000  -2.036626e+001  1.587179e+002 
4384375000  -2.017179e+001  1.543424e+002 
4387500000  -2.087317e+001  1.484393e+002 
4390625000  -2.183079e+001  1.487405e+002 
4393750000  -2.132007e+001  1.513094e+002 
4396875000  -2.064406e+001  1.493143e+002 
4400000000  -2.014850e+001  1.425183e+002 
4403125000  -2.066027e+001  1.347400e+002 
4406250000  -2.146588e+001  1.334489e+002 
4409375000  -2.142640e+001  1.310918e+002 
4412500000  -2.237890e+001  1.280079e+002 
4415625000  -2.280038e+001  1.328634e+002 
4418750000  -2.173206e+001  1.381550e+002 
