!Agilent Technologies,E8363B,MY43030201,A.06.04.32
!Agilent E8363B: A.06.04.32
!Date: Tuesday, November 11, 2014 20:44:30
!Correction: S21(Response(S21)) 
!S1P File: Measurement: S21:
# Hz S  dB   R 50
3000000000  -2.648463e+001  1.572700e+002 
3003125000  -2.782268e+001  1.527597e+002 
3006250000  -2.790536e+001  1.498653e+002 
3009375000  -2.820706e+001  1.548328e+002 
3012500000  -2.777711e+001  1.550937e+002 
3015625000  -2.673783e+001  1.476711e+002 
3018750000  -2.757539e+001  1.468201e+002 
3021875000  -2.638503e+001  1.480861e+002 
3025000000  -2.507972e+001  1.451249e+002 
3028125000  -2.412495e+001  1.404343e+002 
3031250000  -2.308206e+001  1.291670e+002 
3034375000  -2.269997e+001  1.161662e+002 
3037500000  -2.302283e+001  1.039750e+002 
3040625000  -2.437114e+001  9.905074e+001 
3043750000  -2.507967e+001  9.501372e+001 
3046875000  -2.516756e+001  8.839737e+001 
3050000000  -2.695204e+001  8.122330e+001 
3053125000  -2.713009e+001  8.755567e+001 
3056250000  -2.643818e+001  9.051458e+001 
3059375000  -2.667142e+001  9.060654e+001 
3062500000  -2.530214e+001  8.664097e+001 
3065625000  -2.500902e+001  8.097541e+001 
3068750000  -2.471135e+001  7.415829e+001 
3071875000  -2.464003e+001  7.094886e+001 
3075000000  -2.468437e+001  6.740943e+001 
3078125000  -2.435749e+001  6.281799e+001 
3081250000  -2.500206e+001  5.878186e+001 
3084375000  -2.430504e+001  5.508776e+001 
3087500000  -2.414186e+001  5.159599e+001 
3090625000  -2.387882e+001  4.210313e+001 
3093750000  -2.424504e+001  3.399446e+001 
3096875000  -2.559452e+001  2.785586e+001 
3100000000  -2.575554e+001  2.640982e+001 
3103125000  -2.609989e+001  2.812643e+001 
3106250000  -2.587018e+001  2.439796e+001 
3109375000  -2.610952e+001  2.086809e+001 
3112500000  -2.623708e+001  1.987783e+001 
3115625000  -2.601303e+001  1.572761e+001 
3118750000  -2.653343e+001  1.724229e+001 
3121875000  -2.584036e+001  9.314731e+000 
3125000000  -2.692615e+001  5.457677e+000 
3128125000  -2.825375e+001  1.374641e+001 
3131250000  -2.608516e+001  1.432676e+001 
3134375000  -2.469742e+001  8.477066e-001 
3137500000  -2.532156e+001  -1.274582e+001 
3140625000  -2.700415e+001  -1.502456e+001 
3143750000  -2.795239e+001  -1.065541e+001 
3146875000  -2.760979e+001  -8.760740e+000 
3150000000  -2.656007e+001  -6.140707e+000 
3153125000  -2.652996e+001  -1.382151e+001 
3156250000  -2.752207e+001  -8.967435e+000 
3159375000  -2.603519e+001  -5.906134e+000 
3162500000  -2.395604e+001  -1.837778e+001 
3165625000  -2.486578e+001  -2.946255e+001 
3168750000  -2.529478e+001  -2.909541e+001 
3171875000  -2.433706e+001  -3.267240e+001 
3175000000  -2.495848e+001  -4.052461e+001 
3178125000  -2.479580e+001  -3.926261e+001 
3181250000  -2.355860e+001  -4.266396e+001 
3184375000  -2.273084e+001  -5.516913e+001 
3187500000  -2.379668e+001  -7.073363e+001 
3190625000  -2.666331e+001  -7.828517e+001 
3193750000  -2.731220e+001  -6.852548e+001 
3196875000  -2.689091e+001  -6.303225e+001 
3200000000  -2.605774e+001  -6.506873e+001 
3203125000  -2.517694e+001  -7.046200e+001 
3206250000  -2.540458e+001  -7.656150e+001 
3209375000  -2.496047e+001  -8.173172e+001 
3212500000  -2.505294e+001  -8.858885e+001 
3215625000  -2.526587e+001  -9.296069e+001 
3218750000  -2.596020e+001  -9.910080e+001 
3221875000  -2.702068e+001  -1.043598e+002 
3225000000  -2.662834e+001  -1.045670e+002 
3228125000  -2.688804e+001  -1.090427e+002 
3231250000  -2.766981e+001  -1.120562e+002 
3234375000  -2.764596e+001  -1.110464e+002 
3237500000  -2.758416e+001  -1.124881e+002 
3240625000  -2.728938e+001  -1.140430e+002 
3243750000  -2.687842e+001  -1.203845e+002 
3246875000  -2.736576e+001  -1.273531e+002 
3250000000  -2.783008e+001  -1.288454e+002 
3253125000  -2.799189e+001  -1.305252e+002 
3256250000  -2.786651e+001  -1.365972e+002 
3259375000  -2.816316e+001  -1.440905e+002 
3262500000  -2.940296e+001  -1.470638e+002 
3265625000  -3.016770e+001  -1.439976e+002 
3268750000  -3.013193e+001  -1.412604e+002 
3271875000  -2.993225e+001  -1.399603e+002 
3275000000  -2.877666e+001  -1.449141e+002 
3278125000  -2.919456e+001  -1.513904e+002 
3281250000  -2.953869e+001  -1.499761e+002 
3284375000  -2.910353e+001  -1.555256e+002 
3287500000  -2.922657e+001  -1.583500e+002 
3290625000  -2.970886e+001  -1.622378e+002 
3293750000  -2.938255e+001  -1.679731e+002 
3296875000  -3.041480e+001  -1.683045e+002 
3300000000  -3.041276e+001  -1.669591e+002 
3303125000  -2.922668e+001  -1.709286e+002 
3306250000  -2.898248e+001  -1.775102e+002 
3309375000  -2.873335e+001  1.774490e+002 
3312500000  -2.876299e+001  1.673011e+002 
3315625000  -2.978063e+001  1.593868e+002 
3318750000  -3.101361e+001  1.564625e+002 
3321875000  -3.238450e+001  1.556705e+002 
3325000000  -3.286368e+001  1.605011e+002 
3328125000  -3.268653e+001  1.635547e+002 
3331250000  -3.155292e+001  1.712150e+002 
3334375000  -2.891413e+001  1.624928e+002 
3337500000  -2.892777e+001  1.444981e+002 
3340625000  -3.022525e+001  1.327819e+002 
3343750000  -3.213174e+001  1.312191e+002 
3346875000  -3.280296e+001  1.331186e+002 
3350000000  -3.213904e+001  1.318027e+002 
3353125000  -3.221920e+001  1.274536e+002 
3356250000  -3.191210e+001  1.196700e+002 
3359375000  -3.276726e+001  1.109503e+002 
3362500000  -3.406025e+001  1.058661e+002 
3365625000  -3.470060e+001  1.040652e+002 
3368750000  -3.571561e+001  1.026031e+002 
3371875000  -3.610158e+001  9.861458e+001 
3375000000  -3.759179e+001  9.677623e+001 
3378125000  -3.873849e+001  9.742442e+001 
3381250000  -4.032476e+001  1.036348e+002 
3384375000  -3.953883e+001  1.244420e+002 
3387500000  -3.647134e+001  1.096466e+002 
3390625000  -3.817071e+001  9.253001e+001 
3393750000  -3.997426e+001  9.674967e+001 
3396875000  -3.922206e+001  9.970730e+001 
3400000000  -3.913857e+001  9.261795e+001 
3403125000  -4.031697e+001  8.896490e+001 
3406250000  -4.120802e+001  9.196943e+001 
3409375000  -4.188906e+001  8.720087e+001 
3412500000  -4.282824e+001  9.181567e+001 
3415625000  -4.360518e+001  9.551939e+001 
3418750000  -4.424198e+001  9.881618e+001 
3421875000  -4.406073e+001  1.044866e+002 
3425000000  -4.307605e+001  1.087694e+002 
3428125000  -4.218647e+001  1.086654e+002 
3431250000  -4.221881e+001  1.051769e+002 
3434375000  -4.205799e+001  1.036066e+002 
3437500000  -4.233760e+001  1.018322e+002 
3440625000  -4.266682e+001  1.046276e+002 
3443750000  -4.148085e+001  1.055052e+002 
3446875000  -4.057509e+001  1.019109e+002 
3450000000  -4.034727e+001  9.281557e+001 
3453125000  -4.053185e+001  8.290954e+001 
3456250000  -4.170344e+001  7.926154e+001 
3459375000  -4.265255e+001  8.034032e+001 
3462500000  -4.282742e+001  8.085748e+001 
3465625000  -4.288721e+001  7.818533e+001 
3468750000  -4.301272e+001  7.360860e+001 
3471875000  -4.342607e+001  7.412102e+001 
3475000000  -4.338590e+001  7.085699e+001 
3478125000  -4.395647e+001  6.735774e+001 
3481250000  -4.515986e+001  6.577151e+001 
3484375000  -4.700931e+001  7.168806e+001 
3487500000  -4.639457e+001  7.402828e+001 
3490625000  -4.592487e+001  6.994225e+001 
3493750000  -4.648893e+001  6.831642e+001 
3496875000  -4.753469e+001  7.154330e+001 
3500000000  -4.898175e+001  8.067284e+001 
3503125000  -4.885604e+001  8.498595e+001 
3506250000  -4.747887e+001  8.375256e+001 
3509375000  -4.795381e+001  8.613180e+001 
3512500000  -4.785843e+001  8.577527e+001 
3515625000  -4.771015e+001  8.254733e+001 
3518750000  -4.860911e+001  9.627607e+001 
3521875000  -4.740925e+001  9.501104e+001 
3525000000  -4.769419e+001  9.499377e+001 
3528125000  -4.768029e+001  1.080161e+002 
3531250000  -4.550719e+001  1.082972e+002 
3534375000  -4.484929e+001  9.876044e+001 
3537500000  -4.481778e+001  9.197754e+001 
3540625000  -4.554736e+001  9.496667e+001 
3543750000  -4.593839e+001  9.775269e+001 
3546875000  -4.540612e+001  1.098907e+002 
3550000000  -4.277611e+001  1.125621e+002 
3553125000  -4.162000e+001  9.478479e+001 
3556250000  -4.235209e+001  8.749449e+001 
3559375000  -4.187498e+001  9.191370e+001 
3562500000  -4.089733e+001  8.437276e+001 
3565625000  -4.151886e+001  7.875475e+001 
3568750000  -4.191660e+001  8.097061e+001 
3571875000  -4.138216e+001  8.128376e+001 
3575000000  -4.098276e+001  7.384732e+001 
3578125000  -4.135781e+001  7.019126e+001 
3581250000  -4.169719e+001  7.367639e+001 
3584375000  -4.064219e+001  6.994423e+001 
3587500000  -3.988438e+001  6.471108e+001 
3590625000  -4.024585e+001  5.654995e+001 
3593750000  -4.129896e+001  5.423483e+001 
3596875000  -4.164115e+001  6.388689e+001 
3600000000  -3.982384e+001  5.997594e+001 
3603125000  -3.997955e+001  4.601198e+001 
3606250000  -4.070132e+001  4.383485e+001 
3609375000  -4.088173e+001  4.357685e+001 
3612500000  -4.153851e+001  4.112193e+001 
3615625000  -4.149879e+001  3.873480e+001 
3618750000  -4.198817e+001  4.165097e+001 
3621875000  -4.190047e+001  4.117682e+001 
3625000000  -4.214840e+001  3.963676e+001 
3628125000  -4.195009e+001  4.102160e+001 
3631250000  -4.170927e+001  3.518779e+001 
3634375000  -4.250823e+001  3.704463e+001 
3637500000  -4.217937e+001  4.382055e+001 
3640625000  -4.123958e+001  4.331985e+001 
3643750000  -4.059737e+001  3.808726e+001 
3646875000  -4.119159e+001  3.209683e+001 
3650000000  -4.185559e+001  3.164351e+001 
3653125000  -4.131224e+001  3.222489e+001 
3656250000  -4.197959e+001  3.219213e+001 
3659375000  -4.182234e+001  3.332039e+001 
3662500000  -4.125942e+001  3.355345e+001 
3665625000  -4.148529e+001  3.292645e+001 
3668750000  -4.030123e+001  3.635411e+001 
3671875000  -3.929605e+001  3.001228e+001 
3675000000  -3.982650e+001  2.463798e+001 
3678125000  -4.024615e+001  2.609886e+001 
3681250000  -3.995812e+001  2.705977e+001 
3684375000  -3.965517e+001  2.503033e+001 
3687500000  -3.975663e+001  2.463730e+001 
3690625000  -3.967915e+001  2.010415e+001 
3693750000  -4.031785e+001  2.257081e+001 
3696875000  -4.023633e+001  2.479092e+001 
3700000000  -3.929771e+001  2.420988e+001 
3703125000  -3.878731e+001  2.170532e+001 
3706250000  -3.938133e+001  2.441549e+001 
3709375000  -3.875448e+001  2.559560e+001 
3712500000  -3.751359e+001  2.672864e+001 
3715625000  -3.645116e+001  2.064891e+001 
3718750000  -3.582111e+001  1.713877e+001 
3721875000  -3.539903e+001  1.214916e+001 
3725000000  -3.534140e+001  7.739852e+000 
3728125000  -3.564578e+001  7.089240e+000 
3731250000  -3.493486e+001  6.842127e+000 
3734375000  -3.378339e+001  2.033184e-003 
3737500000  -3.427782e+001  -7.500859e+000 
3740625000  -3.480096e+001  -9.521155e+000 
3743750000  -3.474320e+001  -1.185122e+001 
3746875000  -3.473452e+001  -1.599035e+001 
3750000000  -3.495953e+001  -1.607233e+001 
3753125000  -3.475238e+001  -1.608069e+001 
3756250000  -3.450106e+001  -1.692000e+001 
3759375000  -3.434764e+001  -1.767312e+001 
3762500000  -3.374944e+001  -2.179257e+001 
3765625000  -3.404483e+001  -2.480603e+001 
3768750000  -3.429377e+001  -2.289440e+001 
3771875000  -3.255344e+001  -2.506554e+001 
3775000000  -3.226250e+001  -3.263625e+001 
3778125000  -3.258097e+001  -3.437376e+001 
3781250000  -3.230635e+001  -3.720749e+001 
3784375000  -3.245900e+001  -3.957173e+001 
3787500000  -3.159355e+001  -4.267322e+001 
3790625000  -3.216764e+001  -4.890133e+001 
3793750000  -3.240543e+001  -4.888842e+001 
3796875000  -3.144878e+001  -5.047290e+001 
3800000000  -3.001000e+001  -5.389402e+001 
3803125000  -3.066480e+001  -6.103210e+001 
3806250000  -3.135842e+001  -6.333234e+001 
3809375000  -3.111268e+001  -6.500054e+001 
3812500000  -3.036338e+001  -6.940627e+001 
3815625000  -3.093751e+001  -7.704066e+001 
3818750000  -3.197663e+001  -7.865068e+001 
3821875000  -3.212569e+001  -7.085178e+001 
3825000000  -3.025813e+001  -6.579359e+001 
3828125000  -2.886535e+001  -7.862680e+001 
3831250000  -2.937475e+001  -9.401987e+001 
3834375000  -3.057550e+001  -9.441212e+001 
3837500000  -3.153140e+001  -8.926910e+001 
3840625000  -3.059976e+001  -9.017096e+001 
3843750000  -2.936787e+001  -9.974546e+001 
3846875000  -2.992336e+001  -1.072898e+002 
3850000000  -3.134182e+001  -1.023788e+002 
3853125000  -3.061620e+001  -1.001842e+002 
3856250000  -3.048254e+001  -1.041543e+002 
3859375000  -2.979127e+001  -1.086619e+002 
3862500000  -2.936074e+001  -1.154129e+002 
3865625000  -2.959694e+001  -1.203410e+002 
3868750000  -2.958627e+001  -1.204585e+002 
3871875000  -2.896052e+001  -1.230441e+002 
3875000000  -2.893829e+001  -1.314971e+002 
3878125000  -2.998182e+001  -1.347052e+002 
3881250000  -3.015717e+001  -1.316792e+002 
3884375000  -2.957366e+001  -1.363172e+002 
3887500000  -2.966170e+001  -1.401329e+002 
3890625000  -3.027187e+001  -1.422842e+002 
3893750000  -3.063648e+001  -1.436267e+002 
3896875000  -3.065962e+001  -1.430907e+002 
3900000000  -3.100770e+001  -1.442613e+002 
3903125000  -3.067894e+001  -1.464890e+002 
3906250000  -3.035067e+001  -1.472396e+002 
3909375000  -2.969322e+001  -1.490718e+002 
3912500000  -2.960297e+001  -1.570105e+002 
3915625000  -3.078165e+001  -1.563839e+002 
3918750000  -3.084402e+001  -1.550347e+002 
3921875000  -3.064099e+001  -1.569271e+002 
3925000000  -2.976720e+001  -1.566557e+002 
3928125000  -2.904709e+001  -1.627913e+002 
3931250000  -2.941333e+001  -1.671335e+002 
3934375000  -2.966521e+001  -1.664512e+002 
3937500000  -2.985267e+001  -1.672816e+002 
3940625000  -3.037160e+001  -1.669260e+002 
3943750000  -2.942829e+001  -1.665993e+002 
3946875000  -2.819427e+001  -1.713730e+002 
3950000000  -2.852417e+001  -1.789033e+002 
3953125000  -2.958405e+001  -1.785395e+002 
3956250000  -2.872486e+001  -1.756511e+002 
3959375000  -2.744541e+001  -1.791968e+002 
3962500000  -2.707524e+001  1.779858e+002 
3965625000  -2.657807e+001  1.683356e+002 
3968750000  -2.750902e+001  1.621532e+002 
3971875000  -2.790482e+001  1.609030e+002 
3975000000  -2.726199e+001  1.588395e+002 
3978125000  -2.700268e+001  1.573904e+002 
3981250000  -2.682534e+001  1.534219e+002 
3984375000  -2.702732e+001  1.469902e+002 
3987500000  -2.754177e+001  1.446400e+002 
3990625000  -2.751382e+001  1.434902e+002 
3993750000  -2.775571e+001  1.405160e+002 
3996875000  -2.772746e+001  1.386926e+002 
4000000000  -2.778738e+001  1.363386e+002 
4003125000  -2.836576e+001  1.383012e+002 
4006250000  -2.700634e+001  1.388198e+002 
4009375000  -2.576498e+001  1.266978e+002 
4012500000  -2.678334e+001  1.196619e+002 
4015625000  -2.809130e+001  1.198025e+002 
4018750000  -2.821898e+001  1.222858e+002 
4021875000  -2.756993e+001  1.206559e+002 
4025000000  -2.720795e+001  1.159608e+002 
4028125000  -2.710189e+001  1.117511e+002 
4031250000  -2.758687e+001  1.087152e+002 
4034375000  -2.788244e+001  1.083677e+002 
4037500000  -2.735383e+001  1.104584e+002 
4040625000  -2.725173e+001  1.070471e+002 
4043750000  -2.759569e+001  1.062974e+002 
4046875000  -2.721929e+001  1.060347e+002 
4050000000  -2.661107e+001  1.002624e+002 
4053125000  -2.711904e+001  9.804307e+001 
4056250000  -2.775049e+001  1.017767e+002 
4059375000  -2.658059e+001  1.041475e+002 
4062500000  -2.520136e+001  9.989664e+001 
4065625000  -2.501157e+001  9.485758e+001 
4068750000  -2.477963e+001  9.022378e+001 
4071875000  -2.413864e+001  8.256448e+001 
4075000000  -2.446202e+001  7.640388e+001 
4078125000  -2.503609e+001  7.500859e+001 
4081250000  -2.460097e+001  7.295706e+001 
4084375000  -2.411392e+001  6.644937e+001 
4087500000  -2.447828e+001  6.025261e+001 
4090625000  -2.510263e+001  5.900410e+001 
4093750000  -2.498456e+001  5.945586e+001 
4096875000  -2.445661e+001  5.415308e+001 
4100000000  -2.511839e+001  4.714888e+001 
4103125000  -2.595427e+001  4.720924e+001 
4106250000  -2.594280e+001  5.209212e+001 
4109375000  -2.509583e+001  5.197975e+001 
4112500000  -2.448071e+001  4.534461e+001 
4115625000  -2.479022e+001  4.128479e+001 
4118750000  -2.493220e+001  3.817494e+001 
4121875000  -2.452061e+001  3.391033e+001 
4125000000  -2.484122e+001  2.899228e+001 
4128125000  -2.580307e+001  2.846923e+001 
4131250000  -2.562030e+001  3.639933e+001 
4134375000  -2.331488e+001  3.282215e+001 
4137500000  -2.302376e+001  1.395635e+001 
4140625000  -2.512308e+001  6.700186e+000 
4143750000  -2.647089e+001  1.126541e+001 
4146875000  -2.612354e+001  1.852157e+001 
4150000000  -2.527475e+001  1.607183e+001 
4153125000  -2.500499e+001  9.539504e+000 
4156250000  -2.581655e+001  6.646082e+000 
4159375000  -2.621095e+001  1.096738e+001 
4162500000  -2.503905e+001  1.497234e+001 
4165625000  -2.392202e+001  1.125242e+001 
4168750000  -2.328371e+001  4.175752e+000 
4171875000  -2.324989e+001  -4.906954e+000 
4175000000  -2.381683e+001  -1.095442e+001 
4178125000  -2.446633e+001  -1.080545e+001 
4181250000  -2.436108e+001  -1.158284e+001 
4184375000  -2.420667e+001  -1.455430e+001 
4187500000  -2.424527e+001  -1.730178e+001 
4190625000  -2.402890e+001  -2.257541e+001 
4193750000  -2.480393e+001  -2.666429e+001 
4196875000  -2.549758e+001  -2.692991e+001 
4200000000  -2.629006e+001  -2.513410e+001 
4203125000  -2.650639e+001  -1.250108e+001 
4206250000  -2.320443e+001  -9.689049e+000 
4209375000  -2.191694e+001  -2.988934e+001 
4212500000  -2.379560e+001  -3.892470e+001 
4215625000  -2.483438e+001  -3.346333e+001 
4218750000  -2.358517e+001  -2.658175e+001 
4221875000  -2.123693e+001  -3.523572e+001 
4225000000  -2.243719e+001  -4.795622e+001 
4228125000  -2.319717e+001  -4.339269e+001 
4231250000  -2.167623e+001  -4.680304e+001 
4234375000  -2.158069e+001  -5.459621e+001 
4237500000  -2.116076e+001  -5.788031e+001 
4240625000  -2.112713e+001  -6.641953e+001 
4243750000  -2.205455e+001  -7.301028e+001 
4246875000  -2.292902e+001  -7.309126e+001 
4250000000  -2.298791e+001  -7.049188e+001 
4253125000  -2.240248e+001  -7.234792e+001 
4256250000  -2.266895e+001  -7.653071e+001 
4259375000  -2.247941e+001  -7.818434e+001 
4262500000  -2.247647e+001  -8.204173e+001 
4265625000  -2.261545e+001  -8.161671e+001 
4268750000  -2.178301e+001  -8.556557e+001 
4271875000  -2.150370e+001  -9.089724e+001 
4275000000  -2.091476e+001  -9.732147e+001 
4278125000  -2.144191e+001  -1.088221e+002 
4281250000  -2.327487e+001  -1.107830e+002 
4284375000  -2.293583e+001  -1.102170e+002 
4287500000  -2.367289e+001  -1.136005e+002 
4290625000  -2.496021e+001  -1.047525e+002 
4293750000  -2.305170e+001  -9.861244e+001 
4296875000  -2.165282e+001  -1.102085e+002 
4300000000  -2.242103e+001  -1.194977e+002 
4303125000  -2.357114e+001  -1.184640e+002 
4306250000  -2.309330e+001  -1.126818e+002 
4309375000  -2.164433e+001  -1.141290e+002 
4312500000  -2.154302e+001  -1.224674e+002 
4315625000  -2.173864e+001  -1.285133e+002 
4318750000  -2.203378e+001  -1.322373e+002 
4321875000  -2.222579e+001  -1.318099e+002 
4325000000  -2.167187e+001  -1.311232e+002 
4328125000  -2.115722e+001  -1.372569e+002 
4331250000  -2.114767e+001  -1.453335e+002 
4334375000  -2.151157e+001  -1.502407e+002 
4337500000  -2.231748e+001  -1.527438e+002 
4340625000  -2.287045e+001  -1.495888e+002 
4343750000  -2.239712e+001  -1.492454e+002 
4346875000  -2.195915e+001  -1.544066e+002 
4350000000  -2.196687e+001  -1.592330e+002 
4353125000  -2.197325e+001  -1.663942e+002 
4356250000  -2.363491e+001  -1.683428e+002 
4359375000  -2.436905e+001  -1.555425e+002 
4362500000  -2.188428e+001  -1.529994e+002 
4365625000  -2.013408e+001  -1.638410e+002 
4368750000  -2.079332e+001  -1.761100e+002 
4371875000  -2.201986e+001  -1.758907e+002 
4375000000  -2.177042e+001  -1.741943e+002 
4378125000  -2.106726e+001  -1.798326e+002 
4381250000  -2.125349e+001  1.747065e+002 
4384375000  -2.103565e+001  1.703670e+002 
4387500000  -2.170014e+001  1.646613e+002 
4390625000  -2.280001e+001  1.652705e+002 
4393750000  -2.210582e+001  1.675719e+002 
4396875000  -2.143999e+001  1.653002e+002 
4400000000  -2.093235e+001  1.584822e+002 
4403125000  -2.145124e+001  1.510188e+002 
4406250000  -2.232341e+001  1.496002e+002 
4409375000  -2.223464e+001  1.471835e+002 
4412500000  -2.329797e+001  1.444961e+002 
4415625000  -2.368254e+001  1.492957e+002 
4418750000  -2.256736e+001  1.538604e+002 
