!Agilent Technologies,E8363B,MY43030201,A.06.04.32
!Agilent E8363B: A.06.04.32
!Date: Tuesday, November 11, 2014 20:55:18
!Correction: S21(Response(S21)) 
!S1P File: Measurement: S21:
# Hz S  dB   R 50
3000000000  -2.648168e+001  1.469266e+002 
3003125000  -2.787702e+001  1.423696e+002 
3006250000  -2.795075e+001  1.398312e+002 
3009375000  -2.832397e+001  1.449303e+002 
3012500000  -2.772684e+001  1.444909e+002 
3015625000  -2.682980e+001  1.373145e+002 
3018750000  -2.767284e+001  1.367872e+002 
3021875000  -2.637478e+001  1.380149e+002 
3025000000  -2.507301e+001  1.348495e+002 
3028125000  -2.410824e+001  1.297314e+002 
3031250000  -2.307263e+001  1.185240e+002 
3034375000  -2.273491e+001  1.053928e+002 
3037500000  -2.309104e+001  9.359976e+001 
3040625000  -2.443975e+001  8.861325e+001 
3043750000  -2.514733e+001  8.419511e+001 
3046875000  -2.525935e+001  7.776077e+001 
3050000000  -2.700973e+001  7.084435e+001 
3053125000  -2.708869e+001  7.777065e+001 
3056250000  -2.647664e+001  8.072501e+001 
3059375000  -2.667543e+001  8.002229e+001 
3062500000  -2.520510e+001  7.627119e+001 
3065625000  -2.497775e+001  7.038154e+001 
3068750000  -2.469744e+001  6.360481e+001 
3071875000  -2.467900e+001  6.063332e+001 
3075000000  -2.458951e+001  5.705603e+001 
3078125000  -2.435413e+001  5.238327e+001 
3081250000  -2.500885e+001  4.821918e+001 
3084375000  -2.422256e+001  4.433565e+001 
3087500000  -2.414822e+001  4.095614e+001 
3090625000  -2.387174e+001  3.088775e+001 
3093750000  -2.433566e+001  2.296632e+001 
3096875000  -2.557561e+001  1.723444e+001 
3100000000  -2.573590e+001  1.591361e+001 
3103125000  -2.609589e+001  1.725678e+001 
3106250000  -2.585947e+001  1.379162e+001 
3109375000  -2.612074e+001  1.037901e+001 
3112500000  -2.622394e+001  9.076106e+000 
3115625000  -2.603943e+001  5.116500e+000 
3118750000  -2.649776e+001  6.575714e+000 
3121875000  -2.583339e+001  -1.705808e+000 
3125000000  -2.704358e+001  -5.115522e+000 
3128125000  -2.826041e+001  2.895438e+000 
3131250000  -2.601186e+001  3.619570e+000 
3134375000  -2.470963e+001  -9.965805e+000 
3137500000  -2.538086e+001  -2.393406e+001 
3140625000  -2.696990e+001  -2.528795e+001 
3143750000  -2.796139e+001  -2.123799e+001 
3146875000  -2.756153e+001  -1.899701e+001 
3150000000  -2.656367e+001  -1.737198e+001 
3153125000  -2.657644e+001  -2.460796e+001 
3156250000  -2.755007e+001  -1.930651e+001 
3159375000  -2.594468e+001  -1.667976e+001 
3162500000  -2.391413e+001  -2.918320e+001 
3165625000  -2.485283e+001  -4.034760e+001 
3168750000  -2.521158e+001  -3.951608e+001 
3171875000  -2.428468e+001  -4.348897e+001 
3175000000  -2.496481e+001  -5.136637e+001 
3178125000  -2.468834e+001  -4.962230e+001 
3181250000  -2.353983e+001  -5.401092e+001 
3184375000  -2.276985e+001  -6.615723e+001 
3187500000  -2.388904e+001  -8.131375e+001 
3190625000  -2.666612e+001  -8.867544e+001 
3193750000  -2.726251e+001  -7.884793e+001 
3196875000  -2.682177e+001  -7.363815e+001 
3200000000  -2.593681e+001  -7.556244e+001 
3203125000  -2.509053e+001  -8.128816e+001 
3206250000  -2.539679e+001  -8.745781e+001 
3209375000  -2.492808e+001  -9.256528e+001 
3212500000  -2.509113e+001  -9.901732e+001 
3215625000  -2.521318e+001  -1.034177e+002 
3218750000  -2.598304e+001  -1.093879e+002 
3221875000  -2.693322e+001  -1.146099e+002 
3225000000  -2.655867e+001  -1.151163e+002 
3228125000  -2.689649e+001  -1.198231e+002 
3231250000  -2.763994e+001  -1.225457e+002 
3234375000  -2.749405e+001  -1.213564e+002 
3237500000  -2.756857e+001  -1.231730e+002 
3240625000  -2.717136e+001  -1.250418e+002 
3243750000  -2.686393e+001  -1.315179e+002 
3246875000  -2.732563e+001  -1.380618e+002 
3250000000  -2.779347e+001  -1.397567e+002 
3253125000  -2.797086e+001  -1.415978e+002 
3256250000  -2.787125e+001  -1.475041e+002 
3259375000  -2.807394e+001  -1.551342e+002 
3262500000  -2.945517e+001  -1.580264e+002 
3265625000  -3.007508e+001  -1.543357e+002 
3268750000  -3.000216e+001  -1.512531e+002 
3271875000  -2.975565e+001  -1.505811e+002 
3275000000  -2.871539e+001  -1.558580e+002 
3278125000  -2.918822e+001  -1.620292e+002 
3281250000  -2.944936e+001  -1.597768e+002 
3284375000  -2.903323e+001  -1.660495e+002 
3287500000  -2.919663e+001  -1.685364e+002 
3290625000  -2.956348e+001  -1.728942e+002 
3293750000  -2.930322e+001  -1.785147e+002 
3296875000  -3.038778e+001  -1.783622e+002 
3300000000  -3.013636e+001  -1.776472e+002 
3303125000  -2.905589e+001  1.784372e+002 
3306250000  -2.881605e+001  1.715591e+002 
3309375000  -2.859696e+001  1.665065e+002 
3312500000  -2.862947e+001  1.563416e+002 
3315625000  -2.972839e+001  1.486775e+002 
3318750000  -3.105641e+001  1.454966e+002 
3321875000  -3.226582e+001  1.469005e+002 
3325000000  -3.281662e+001  1.506340e+002 
3328125000  -3.264334e+001  1.533387e+002 
3331250000  -3.140865e+001  1.596321e+002 
3334375000  -2.886422e+001  1.501119e+002 
3337500000  -2.895769e+001  1.315979e+002 
3340625000  -3.032358e+001  1.208764e+002 
3343750000  -3.229005e+001  1.203200e+002 
3346875000  -3.282655e+001  1.214412e+002 
3350000000  -3.218710e+001  1.208614e+002 
3353125000  -3.226275e+001  1.155494e+002 
3356250000  -3.206199e+001  1.078234e+002 
3359375000  -3.289465e+001  9.920689e+001 
3362500000  -3.423184e+001  9.434003e+001 
3365625000  -3.489763e+001  9.287478e+001 
3368750000  -3.575950e+001  9.122242e+001 
3371875000  -3.617627e+001  8.806050e+001 
3375000000  -3.792210e+001  8.659447e+001 
3378125000  -3.898156e+001  8.501910e+001 
3381250000  -4.035179e+001  9.428793e+001 
3384375000  -3.967730e+001  1.146578e+002 
3387500000  -3.650970e+001  1.002617e+002 
3390625000  -3.846001e+001  8.144750e+001 
3393750000  -4.023291e+001  8.826433e+001 
3396875000  -3.914329e+001  9.068830e+001 
3400000000  -3.905708e+001  8.298702e+001 
3403125000  -4.015973e+001  7.949654e+001 
3406250000  -4.089960e+001  8.079010e+001 
3409375000  -4.166560e+001  7.738101e+001 
3412500000  -4.239014e+001  8.033190e+001 
3415625000  -4.328037e+001  8.442406e+001 
3418750000  -4.382431e+001  8.852853e+001 
3421875000  -4.405806e+001  9.644798e+001 
3425000000  -4.299498e+001  9.889700e+001 
3428125000  -4.219214e+001  9.719650e+001 
3431250000  -4.212728e+001  9.287206e+001 
3434375000  -4.182491e+001  8.992384e+001 
3437500000  -4.234802e+001  9.020220e+001 
3440625000  -4.280261e+001  9.413471e+001 
3443750000  -4.130082e+001  9.627418e+001 
3446875000  -4.036525e+001  8.956960e+001 
3450000000  -4.027879e+001  8.226703e+001 
3453125000  -4.044067e+001  7.291031e+001 
3456250000  -4.157939e+001  6.708059e+001 
3459375000  -4.239369e+001  7.058854e+001 
3462500000  -4.268487e+001  7.152666e+001 
3465625000  -4.260881e+001  6.681867e+001 
3468750000  -4.291739e+001  6.579092e+001 
3471875000  -4.341104e+001  6.565281e+001 
3475000000  -4.289750e+001  6.059839e+001 
3478125000  -4.349194e+001  5.545777e+001 
3481250000  -4.499925e+001  5.551592e+001 
3484375000  -4.624839e+001  6.202069e+001 
3487500000  -4.545208e+001  6.276805e+001 
3490625000  -4.520538e+001  6.203559e+001 
3493750000  -4.599034e+001  5.773601e+001 
3496875000  -4.665176e+001  5.916171e+001 
3500000000  -4.810726e+001  6.727425e+001 
3503125000  -4.695882e+001  7.433752e+001 
3506250000  -4.612188e+001  7.247973e+001 
3509375000  -4.674915e+001  6.953107e+001 
3512500000  -4.756179e+001  6.895656e+001 
3515625000  -4.734727e+001  6.959335e+001 
3518750000  -4.777701e+001  7.794209e+001 
3521875000  -4.764164e+001  8.177813e+001 
3525000000  -4.799760e+001  8.119539e+001 
3528125000  -4.757008e+001  9.179380e+001 
3531250000  -4.479047e+001  9.275616e+001 
3534375000  -4.459579e+001  8.317524e+001 
3537500000  -4.506930e+001  8.114679e+001 
3540625000  -4.545012e+001  8.269784e+001 
3543750000  -4.587804e+001  8.257526e+001 
3546875000  -4.471958e+001  9.501282e+001 
3550000000  -4.242743e+001  9.927966e+001 
3553125000  -4.133038e+001  8.272986e+001 
3556250000  -4.208956e+001  7.791428e+001 
3559375000  -4.153029e+001  7.987653e+001 
3562500000  -4.039375e+001  7.212449e+001 
3565625000  -4.120264e+001  6.374569e+001 
3568750000  -4.127563e+001  6.724156e+001 
3571875000  -4.105140e+001  6.725034e+001 
3575000000  -4.083105e+001  6.175186e+001 
3578125000  -4.107135e+001  5.793048e+001 
3581250000  -4.100388e+001  5.749440e+001 
3584375000  -4.015038e+001  5.599093e+001 
3587500000  -3.927044e+001  5.017580e+001 
3590625000  -3.965331e+001  4.161465e+001 
3593750000  -4.075656e+001  4.071054e+001 
3596875000  -4.096820e+001  4.711574e+001 
3600000000  -3.920327e+001  4.376696e+001 
3603125000  -3.936973e+001  3.076793e+001 
3606250000  -3.995412e+001  2.867761e+001 
3609375000  -4.047267e+001  2.587045e+001 
3612500000  -4.083443e+001  2.635032e+001 
3615625000  -4.124445e+001  2.281414e+001 
3618750000  -4.183363e+001  2.382679e+001 
3621875000  -4.136119e+001  2.307043e+001 
3625000000  -4.166962e+001  2.314989e+001 
3628125000  -4.177178e+001  2.220213e+001 
3631250000  -4.130354e+001  1.976774e+001 
3634375000  -4.239160e+001  2.054653e+001 
3637500000  -4.218071e+001  2.597405e+001 
3640625000  -4.113116e+001  2.703975e+001 
3643750000  -4.085639e+001  2.242651e+001 
3646875000  -4.122874e+001  1.670034e+001 
3650000000  -4.189834e+001  1.670578e+001 
3653125000  -4.153714e+001  1.747584e+001 
3656250000  -4.164509e+001  1.577865e+001 
3659375000  -4.228789e+001  1.982455e+001 
3662500000  -4.129326e+001  1.798577e+001 
3665625000  -4.129139e+001  1.941898e+001 
3668750000  -4.021657e+001  2.123520e+001 
3671875000  -3.908517e+001  1.635282e+001 
3675000000  -3.977559e+001  1.022201e+001 
3678125000  -4.003665e+001  1.114274e+001 
3681250000  -3.978159e+001  1.259586e+001 
3684375000  -3.951121e+001  1.043253e+001 
3687500000  -3.947127e+001  8.911149e+000 
3690625000  -3.958851e+001  6.225448e+000 
3693750000  -4.003642e+001  8.849650e+000 
3696875000  -3.993840e+001  1.192162e+001 
3700000000  -3.864631e+001  7.543516e+000 
3703125000  -3.844463e+001  5.857126e+000 
3706250000  -3.940659e+001  7.953320e+000 
3709375000  -3.854380e+001  9.443620e+000 
3712500000  -3.740592e+001  1.036559e+001 
3715625000  -3.633447e+001  3.580162e+000 
3718750000  -3.565456e+001  5.433329e-001 
3721875000  -3.517421e+001  -3.361109e+000 
3725000000  -3.519541e+001  -9.411279e+000 
3728125000  -3.544995e+001  -9.238050e+000 
3731250000  -3.471695e+001  -9.981062e+000 
3734375000  -3.378623e+001  -1.661439e+001 
3737500000  -3.425299e+001  -2.418669e+001 
3740625000  -3.493055e+001  -2.605674e+001 
3743750000  -3.481164e+001  -2.828111e+001 
3746875000  -3.476329e+001  -3.109028e+001 
3750000000  -3.516348e+001  -3.190530e+001 
3753125000  -3.476383e+001  -3.183704e+001 
3756250000  -3.482214e+001  -3.293814e+001 
3759375000  -3.443429e+001  -3.315610e+001 
3762500000  -3.390609e+001  -3.697299e+001 
3765625000  -3.441902e+001  -3.969658e+001 
3768750000  -3.444091e+001  -3.721542e+001 
3771875000  -3.279652e+001  -3.962939e+001 
3775000000  -3.246783e+001  -4.695480e+001 
3778125000  -3.268843e+001  -4.852840e+001 
3781250000  -3.261098e+001  -5.090092e+001 
3784375000  -3.253010e+001  -5.350879e+001 
3787500000  -3.182695e+001  -5.787427e+001 
3790625000  -3.229546e+001  -6.300627e+001 
3793750000  -3.243832e+001  -6.287873e+001 
3796875000  -3.152435e+001  -6.428849e+001 
3800000000  -2.989735e+001  -6.819359e+001 
3803125000  -3.075304e+001  -7.538713e+001 
3806250000  -3.133862e+001  -7.836353e+001 
3809375000  -3.109002e+001  -7.879793e+001 
3812500000  -3.037218e+001  -8.425527e+001 
3815625000  -3.102394e+001  -9.145734e+001 
3818750000  -3.201312e+001  -9.313753e+001 
3821875000  -3.215830e+001  -8.420338e+001 
3825000000  -3.005528e+001  -7.933584e+001 
3828125000  -2.879118e+001  -9.437910e+001 
3831250000  -2.929201e+001  -1.083657e+002 
3834375000  -3.068793e+001  -1.095354e+002 
3837500000  -3.152497e+001  -1.038610e+002 
3840625000  -3.044720e+001  -1.056007e+002 
3843750000  -2.928105e+001  -1.161337e+002 
3846875000  -3.005402e+001  -1.224257e+002 
3850000000  -3.143326e+001  -1.169437e+002 
3853125000  -3.050580e+001  -1.138906e+002 
3856250000  -3.051089e+001  -1.194156e+002 
3859375000  -2.979237e+001  -1.243084e+002 
3862500000  -2.931959e+001  -1.309611e+002 
3865625000  -2.960910e+001  -1.357643e+002 
3868750000  -2.969510e+001  -1.356534e+002 
3871875000  -2.896649e+001  -1.391168e+002 
3875000000  -2.909398e+001  -1.473974e+002 
3878125000  -3.018606e+001  -1.500810e+002 
3881250000  -3.023996e+001  -1.466173e+002 
3884375000  -2.972605e+001  -1.517395e+002 
3887500000  -2.988623e+001  -1.553980e+002 
3890625000  -3.038141e+001  -1.576120e+002 
3893750000  -3.085409e+001  -1.585499e+002 
3896875000  -3.088560e+001  -1.583339e+002 
3900000000  -3.104760e+001  -1.589710e+002 
3903125000  -3.078349e+001  -1.614429e+002 
3906250000  -3.039902e+001  -1.620728e+002 
3909375000  -2.978434e+001  -1.637571e+002 
3912500000  -2.976518e+001  -1.711644e+002 
3915625000  -3.096149e+001  -1.705972e+002 
3918750000  -3.092547e+001  -1.681960e+002 
3921875000  -3.063308e+001  -1.701417e+002 
3925000000  -2.972737e+001  -1.714264e+002 
3928125000  -2.905899e+001  -1.769512e+002 
3931250000  -2.946060e+001  1.790453e+002 
3934375000  -2.973115e+001  1.795208e+002 
3937500000  -2.983160e+001  1.780307e+002 
3940625000  -3.027522e+001  1.782563e+002 
3943750000  -2.935237e+001  1.798521e+002 
3946875000  -2.808473e+001  1.735895e+002 
3950000000  -2.861665e+001  1.666676e+002 
3953125000  -2.949806e+001  1.665969e+002 
3956250000  -2.876393e+001  1.696470e+002 
3959375000  -2.733260e+001  1.665659e+002 
3962500000  -2.689586e+001  1.626670e+002 
3965625000  -2.653896e+001  1.534167e+002 
3968750000  -2.748279e+001  1.467020e+002 
3971875000  -2.788986e+001  1.450797e+002 
3975000000  -2.722242e+001  1.429106e+002 
3978125000  -2.705763e+001  1.417866e+002 
3981250000  -2.681211e+001  1.373874e+002 
3984375000  -2.702605e+001  1.311197e+002 
3987500000  -2.759374e+001  1.291606e+002 
3990625000  -2.762977e+001  1.281186e+002 
3993750000  -2.783347e+001  1.250376e+002 
3996875000  -2.779101e+001  1.229764e+002 
4000000000  -2.797367e+001  1.211044e+002 
4003125000  -2.852641e+001  1.230379e+002 
4006250000  -2.708191e+001  1.237638e+002 
4009375000  -2.590437e+001  1.115549e+002 
4012500000  -2.693118e+001  1.047460e+002 
4015625000  -2.826242e+001  1.052699e+002 
4018750000  -2.838038e+001  1.077070e+002 
4021875000  -2.765044e+001  1.062558e+002 
4025000000  -2.731540e+001  1.013697e+002 
4028125000  -2.726528e+001  9.743056e+001 
4031250000  -2.772461e+001  9.450216e+001 
4034375000  -2.789339e+001  9.476133e+001 
4037500000  -2.743471e+001  9.626089e+001 
4040625000  -2.739341e+001  9.301035e+001 
4043750000  -2.766363e+001  9.235420e+001 
4046875000  -2.718594e+001  9.232743e+001 
4050000000  -2.674603e+001  8.639526e+001 
4053125000  -2.717702e+001  8.383817e+001 
4056250000  -2.774289e+001  8.787299e+001 
4059375000  -2.647099e+001  9.042945e+001 
4062500000  -2.505418e+001  8.510446e+001 
4065625000  -2.497009e+001  8.103659e+001 
4068750000  -2.471752e+001  7.589609e+001 
4071875000  -2.400904e+001  6.783772e+001 
4075000000  -2.437114e+001  6.169696e+001 
4078125000  -2.496378e+001  6.072438e+001 
4081250000  -2.442936e+001  5.810853e+001 
4084375000  -2.404908e+001  5.150177e+001 
4087500000  -2.441092e+001  4.503667e+001 
4090625000  -2.500686e+001  4.410092e+001 
4093750000  -2.486040e+001  4.455856e+001 
4096875000  -2.445697e+001  3.866645e+001 
4100000000  -2.518177e+001  3.169391e+001 
4103125000  -2.605659e+001  3.258799e+001 
4106250000  -2.589658e+001  3.716309e+001 
4109375000  -2.501234e+001  3.654566e+001 
4112500000  -2.449965e+001  3.032008e+001 
4115625000  -2.481882e+001  2.560881e+001 
4118750000  -2.489081e+001  2.274518e+001 
4121875000  -2.451422e+001  1.792510e+001 
4125000000  -2.496185e+001  1.317514e+001 
4128125000  -2.597187e+001  1.363063e+001 
4131250000  -2.558497e+001  2.164030e+001 
4134375000  -2.328942e+001  1.744181e+001 
4137500000  -2.311502e+001  -1.417897e+000 
4140625000  -2.520767e+001  -8.331429e+000 
4143750000  -2.655471e+001  -3.119150e+000 
4146875000  -2.616393e+001  3.836641e+000 
4150000000  -2.514513e+001  1.015721e+000 
4153125000  -2.502927e+001  -5.582495e+000 
4156250000  -2.602710e+001  -7.709952e+000 
4159375000  -2.616582e+001  -3.313019e+000 
4162500000  -2.501879e+001  9.914919e-001 
4165625000  -2.385174e+001  -3.472276e+000 
4168750000  -2.327095e+001  -1.014357e+001 
4171875000  -2.326254e+001  -1.926780e+001 
4175000000  -2.382574e+001  -2.539997e+001 
4178125000  -2.440490e+001  -2.515938e+001 
4181250000  -2.423996e+001  -2.601187e+001 
4184375000  -2.409299e+001  -2.903493e+001 
4187500000  -2.412144e+001  -3.191654e+001 
4190625000  -2.394954e+001  -3.771448e+001 
4193750000  -2.471471e+001  -4.159314e+001 
4196875000  -2.548588e+001  -4.173526e+001 
4200000000  -2.633039e+001  -3.988026e+001 
4203125000  -2.634662e+001  -2.596500e+001 
4206250000  -2.295895e+001  -2.510052e+001 
4209375000  -2.178023e+001  -4.553937e+001 
4212500000  -2.373049e+001  -5.441140e+001 
4215625000  -2.476386e+001  -4.817473e+001 
4218750000  -2.339840e+001  -4.153556e+001 
4221875000  -2.110756e+001  -5.064335e+001 
4225000000  -2.234749e+001  -6.329985e+001 
4228125000  -2.302665e+001  -5.794739e+001 
4231250000  -2.148895e+001  -6.221339e+001 
4234375000  -2.145201e+001  -7.068597e+001 
4237500000  -2.097906e+001  -7.367194e+001 
4240625000  -2.103547e+001  -8.223988e+001 
4243750000  -2.200089e+001  -8.890163e+001 
4246875000  -2.289843e+001  -8.883702e+001 
4250000000  -2.297186e+001  -8.620007e+001 
4253125000  -2.237223e+001  -8.789233e+001 
4256250000  -2.262331e+001  -9.159431e+001 
4259375000  -2.233954e+001  -9.397662e+001 
4262500000  -2.240123e+001  -9.738412e+001 
4265625000  -2.256484e+001  -9.717812e+001 
4268750000  -2.172803e+001  -1.013129e+002 
4271875000  -2.145084e+001  -1.069166e+002 
4275000000  -2.079276e+001  -1.129999e+002 
4278125000  -2.146415e+001  -1.241699e+002 
4281250000  -2.320863e+001  -1.262082e+002 
4284375000  -2.286446e+001  -1.253113e+002 
4287500000  -2.371187e+001  -1.291718e+002 
4290625000  -2.493855e+001  -1.195379e+002 
4293750000  -2.295043e+001  -1.140160e+002 
4296875000  -2.159166e+001  -1.251951e+002 
4300000000  -2.240140e+001  -1.344875e+002 
4303125000  -2.350396e+001  -1.330396e+002 
4306250000  -2.288772e+001  -1.268591e+002 
4309375000  -2.144918e+001  -1.295117e+002 
4312500000  -2.136241e+001  -1.378499e+002 
4315625000  -2.155194e+001  -1.441511e+002 
4318750000  -2.186515e+001  -1.475359e+002 
4321875000  -2.201924e+001  -1.469497e+002 
4325000000  -2.143494e+001  -1.465072e+002 
4328125000  -2.094339e+001  -1.530656e+002 
4331250000  -2.087988e+001  -1.612971e+002 
4334375000  -2.129636e+001  -1.661940e+002 
4337500000  -2.217971e+001  -1.683778e+002 
4340625000  -2.269403e+001  -1.649276e+002 
4343750000  -2.210673e+001  -1.649004e+002 
4346875000  -2.172844e+001  -1.704593e+002 
4350000000  -2.174875e+001  -1.751428e+002 
4353125000  -2.181922e+001  1.770557e+002 
4356250000  -2.359487e+001  1.764237e+002 
4359375000  -2.420108e+001  -1.702439e+002 
4362500000  -2.140196e+001  -1.686443e+002 
4365625000  -1.985553e+001  1.795084e+002 
4368750000  -2.065502e+001  1.678246e+002 
4371875000  -2.179461e+001  1.684418e+002 
4375000000  -2.144724e+001  1.692348e+002 
4378125000  -2.087373e+001  1.636596e+002 
4381250000  -2.102453e+001  1.583149e+002 
4384375000  -2.083598e+001  1.536510e+002 
4387500000  -2.156232e+001  1.482191e+002 
4390625000  -2.259905e+001  1.487933e+002 
4393750000  -2.193789e+001  1.511825e+002 
4396875000  -2.124597e+001  1.491223e+002 
4400000000  -2.074786e+001  1.419588e+002 
4403125000  -2.130539e+001  1.344775e+002 
4406250000  -2.215401e+001  1.333281e+002 
4409375000  -2.213974e+001  1.312885e+002 
4412500000  -2.315902e+001  1.284861e+002 
4415625000  -2.353362e+001  1.335055e+002 
4418750000  -2.234901e+001  1.377456e+002 
