!Agilent Technologies,E8363B,MY43030201,A.06.04.32
!Agilent E8363B: A.06.04.32
!Date: Tuesday, November 11, 2014 20:52:32
!Correction: S21(Response(S21)) 
!S1P File: Measurement: S21:
# Hz S  dB   R 50
3000000000  -2.652229e+001  1.512941e+002 
3003125000  -2.790969e+001  1.467376e+002 
3006250000  -2.798284e+001  1.440399e+002 
3009375000  -2.835393e+001  1.491610e+002 
3012500000  -2.780280e+001  1.485618e+002 
3015625000  -2.684616e+001  1.416356e+002 
3018750000  -2.769106e+001  1.407432e+002 
3021875000  -2.645139e+001  1.423558e+002 
3025000000  -2.510793e+001  1.390890e+002 
3028125000  -2.416865e+001  1.339373e+002 
3031250000  -2.311362e+001  1.229619e+002 
3034375000  -2.276336e+001  1.098301e+002 
3037500000  -2.314855e+001  9.810530e+001 
3040625000  -2.444873e+001  9.300041e+001 
3043750000  -2.518673e+001  8.865170e+001 
3046875000  -2.528535e+001  8.231149e+001 
3050000000  -2.700359e+001  7.538497e+001 
3053125000  -2.714115e+001  8.197769e+001 
3056250000  -2.647927e+001  8.485557e+001 
3059375000  -2.667773e+001  8.460854e+001 
3062500000  -2.520491e+001  8.072880e+001 
3065625000  -2.499430e+001  7.497784e+001 
3068750000  -2.473191e+001  6.815559e+001 
3071875000  -2.466838e+001  6.519352e+001 
3075000000  -2.461281e+001  6.132299e+001 
3078125000  -2.434638e+001  5.668254e+001 
3081250000  -2.498974e+001  5.249423e+001 
3084375000  -2.422547e+001  4.883693e+001 
3087500000  -2.412607e+001  4.529217e+001 
3090625000  -2.378804e+001  3.546234e+001 
3093750000  -2.428026e+001  2.759015e+001 
3096875000  -2.553636e+001  2.134775e+001 
3100000000  -2.565348e+001  2.017038e+001 
3103125000  -2.604052e+001  2.138440e+001 
3106250000  -2.577793e+001  1.811478e+001 
3109375000  -2.604123e+001  1.455572e+001 
3112500000  -2.616299e+001  1.323575e+001 
3115625000  -2.591459e+001  9.269512e+000 
3118750000  -2.644332e+001  1.038460e+001 
3121875000  -2.576880e+001  2.205115e+000 
3125000000  -2.695037e+001  -1.073756e+000 
3128125000  -2.820714e+001  7.037752e+000 
3131250000  -2.591766e+001  7.690118e+000 
3134375000  -2.462608e+001  -6.236340e+000 
3137500000  -2.528831e+001  -1.999708e+001 
3140625000  -2.688348e+001  -2.159484e+001 
3143750000  -2.790679e+001  -1.774857e+001 
3146875000  -2.753827e+001  -1.556281e+001 
3150000000  -2.645293e+001  -1.321825e+001 
3153125000  -2.647785e+001  -2.080780e+001 
3156250000  -2.746839e+001  -1.568081e+001 
3159375000  -2.583165e+001  -1.271272e+001 
3162500000  -2.384682e+001  -2.554978e+001 
3165625000  -2.482305e+001  -3.659488e+001 
3168750000  -2.520486e+001  -3.547645e+001 
3171875000  -2.425336e+001  -3.982842e+001 
3175000000  -2.486493e+001  -4.768323e+001 
3178125000  -2.465458e+001  -4.595151e+001 
3181250000  -2.347887e+001  -4.994411e+001 
3184375000  -2.272074e+001  -6.214061e+001 
3187500000  -2.384910e+001  -7.710043e+001 
3190625000  -2.659189e+001  -8.458048e+001 
3193750000  -2.715917e+001  -7.499100e+001 
3196875000  -2.678049e+001  -6.940498e+001 
3200000000  -2.589473e+001  -7.154771e+001 
3203125000  -2.504691e+001  -7.719083e+001 
3206250000  -2.532688e+001  -8.361513e+001 
3209375000  -2.484286e+001  -8.881139e+001 
3212500000  -2.499274e+001  -9.516058e+001 
3215625000  -2.510675e+001  -9.952134e+001 
3218750000  -2.585959e+001  -1.055320e+002 
3221875000  -2.680187e+001  -1.106649e+002 
3225000000  -2.642187e+001  -1.112754e+002 
3228125000  -2.674338e+001  -1.159403e+002 
3231250000  -2.753873e+001  -1.183125e+002 
3234375000  -2.737845e+001  -1.174497e+002 
3237500000  -2.737474e+001  -1.190136e+002 
3240625000  -2.704739e+001  -1.211246e+002 
3243750000  -2.667938e+001  -1.275476e+002 
3246875000  -2.711628e+001  -1.341295e+002 
3250000000  -2.759449e+001  -1.360356e+002 
3253125000  -2.781051e+001  -1.379802e+002 
3256250000  -2.769201e+001  -1.437120e+002 
3259375000  -2.793349e+001  -1.511822e+002 
3262500000  -2.924654e+001  -1.540277e+002 
3265625000  -2.992946e+001  -1.502110e+002 
3268750000  -2.982410e+001  -1.480070e+002 
3271875000  -2.959199e+001  -1.469438e+002 
3275000000  -2.849791e+001  -1.519549e+002 
3278125000  -2.904067e+001  -1.584095e+002 
3281250000  -2.927743e+001  -1.565243e+002 
3284375000  -2.885769e+001  -1.620358e+002 
3287500000  -2.893187e+001  -1.648490e+002 
3290625000  -2.939965e+001  -1.693784e+002 
3293750000  -2.906529e+001  -1.746765e+002 
3296875000  -3.013655e+001  -1.748915e+002 
3300000000  -3.002663e+001  -1.734594e+002 
3303125000  -2.888854e+001  -1.776344e+002 
3306250000  -2.862469e+001  1.758916e+002 
3309375000  -2.842140e+001  1.706859e+002 
3312500000  -2.846095e+001  1.601813e+002 
3315625000  -2.949127e+001  1.526636e+002 
3318750000  -3.080894e+001  1.496820e+002 
3321875000  -3.199962e+001  1.501678e+002 
3325000000  -3.260207e+001  1.552630e+002 
3328125000  -3.239007e+001  1.563553e+002 
3331250000  -3.114687e+001  1.646902e+002 
3334375000  -2.862831e+001  1.549362e+002 
3337500000  -2.869783e+001  1.360599e+002 
3340625000  -3.001128e+001  1.251682e+002 
3343750000  -3.206479e+001  1.232015e+002 
3346875000  -3.246830e+001  1.254853e+002 
3350000000  -3.181845e+001  1.245093e+002 
3353125000  -3.193885e+001  1.198069e+002 
3356250000  -3.171212e+001  1.120421e+002 
3359375000  -3.259595e+001  1.040758e+002 
3362500000  -3.377200e+001  9.802881e+001 
3365625000  -3.444706e+001  9.643010e+001 
3368750000  -3.535642e+001  9.563670e+001 
3371875000  -3.575943e+001  9.190489e+001 
3375000000  -3.737595e+001  8.986321e+001 
3378125000  -3.841697e+001  8.877939e+001 
3381250000  -4.000008e+001  9.624276e+001 
3384375000  -3.915547e+001  1.180726e+002 
3387500000  -3.580017e+001  1.048710e+002 
3390625000  -3.769607e+001  8.512089e+001 
3393750000  -3.948011e+001  9.008323e+001 
3396875000  -3.868544e+001  9.346429e+001 
3400000000  -3.859939e+001  8.595337e+001 
3403125000  -3.960131e+001  8.171844e+001 
3406250000  -4.057569e+001  8.442677e+001 
3409375000  -4.103416e+001  7.812809e+001 
3412500000  -4.177223e+001  8.335124e+001 
3415625000  -4.292729e+001  8.518733e+001 
3418750000  -4.328946e+001  8.949844e+001 
3421875000  -4.345980e+001  9.565425e+001 
3425000000  -4.244160e+001  9.940495e+001 
3428125000  -4.133226e+001  9.795282e+001 
3431250000  -4.147504e+001  9.448833e+001 
3434375000  -4.136528e+001  9.048923e+001 
3437500000  -4.171540e+001  9.006645e+001 
3440625000  -4.210480e+001  9.391437e+001 
3443750000  -4.065154e+001  9.426292e+001 
3446875000  -3.997111e+001  8.979671e+001 
3450000000  -3.967463e+001  8.101616e+001 
3453125000  -3.988843e+001  7.299263e+001 
3456250000  -4.120330e+001  6.671989e+001 
3459375000  -4.234520e+001  7.065135e+001 
3462500000  -4.216472e+001  6.976596e+001 
3465625000  -4.228638e+001  6.581133e+001 
3468750000  -4.262971e+001  6.298175e+001 
3471875000  -4.268906e+001  6.256032e+001 
3475000000  -4.256612e+001  6.026361e+001 
3478125000  -4.349029e+001  5.441933e+001 
3481250000  -4.422546e+001  5.227232e+001 
3484375000  -4.627742e+001  5.884204e+001 
3487500000  -4.566698e+001  5.922480e+001 
3490625000  -4.523908e+001  6.098268e+001 
3493750000  -4.596270e+001  5.631982e+001 
3496875000  -4.733569e+001  5.510615e+001 
3500000000  -4.765234e+001  6.359684e+001 
3503125000  -4.835561e+001  6.777065e+001 
3506250000  -4.646969e+001  6.909940e+001 
3509375000  -4.714317e+001  6.770375e+001 
3512500000  -4.737021e+001  6.608138e+001 
3515625000  -4.779426e+001  6.823422e+001 
3518750000  -4.840335e+001  7.299081e+001 
3521875000  -4.854326e+001  7.731766e+001 
3525000000  -4.808586e+001  8.165854e+001 
3528125000  -4.750895e+001  9.142607e+001 
3531250000  -4.636021e+001  9.139524e+001 
3534375000  -4.489561e+001  8.474969e+001 
3537500000  -4.534338e+001  7.874048e+001 
3540625000  -4.577935e+001  8.340474e+001 
3543750000  -4.581860e+001  8.295657e+001 
3546875000  -4.528392e+001  9.625613e+001 
3550000000  -4.292947e+001  1.011939e+002 
3553125000  -4.172272e+001  8.328272e+001 
3556250000  -4.271257e+001  7.673351e+001 
3559375000  -4.238860e+001  7.836810e+001 
3562500000  -4.096564e+001  7.260867e+001 
3565625000  -4.184245e+001  6.655215e+001 
3568750000  -4.197223e+001  6.871885e+001 
3571875000  -4.168693e+001  6.854788e+001 
3575000000  -4.104625e+001  6.410442e+001 
3578125000  -4.141535e+001  6.028942e+001 
3581250000  -4.175748e+001  6.128231e+001 
3584375000  -4.094536e+001  5.958050e+001 
3587500000  -3.995955e+001  5.323885e+001 
3590625000  -4.034482e+001  4.607301e+001 
3593750000  -4.138922e+001  4.521662e+001 
3596875000  -4.151834e+001  5.333184e+001 
3600000000  -3.979980e+001  4.911222e+001 
3603125000  -3.983005e+001  3.554621e+001 
3606250000  -4.057219e+001  3.223032e+001 
3609375000  -4.105647e+001  3.276243e+001 
3612500000  -4.140587e+001  3.094284e+001 
3615625000  -4.139553e+001  2.951510e+001 
3618750000  -4.213366e+001  3.006121e+001 
3621875000  -4.163523e+001  3.007438e+001 
3625000000  -4.180590e+001  2.725239e+001 
3628125000  -4.171716e+001  3.085575e+001 
3631250000  -4.145970e+001  2.431087e+001 
3634375000  -4.241602e+001  2.516428e+001 
3637500000  -4.201320e+001  3.126332e+001 
3640625000  -4.115978e+001  3.299972e+001 
3643750000  -4.070316e+001  2.516675e+001 
3646875000  -4.117120e+001  2.119593e+001 
3650000000  -4.185166e+001  2.113421e+001 
3653125000  -4.116414e+001  2.052581e+001 
3656250000  -4.161299e+001  1.856525e+001 
3659375000  -4.201274e+001  2.226921e+001 
3662500000  -4.111924e+001  2.202018e+001 
3665625000  -4.119049e+001  2.145030e+001 
3668750000  -4.030552e+001  2.349610e+001 
3671875000  -3.916042e+001  1.801081e+001 
3675000000  -3.943566e+001  1.146604e+001 
3678125000  -4.042350e+001  1.266980e+001 
3681250000  -3.989103e+001  1.516499e+001 
3684375000  -3.958628e+001  1.347650e+001 
3687500000  -3.977180e+001  1.177936e+001 
3690625000  -3.978663e+001  8.187563e+000 
3693750000  -4.039017e+001  1.231673e+001 
3696875000  -4.005384e+001  1.660203e+001 
3700000000  -3.882539e+001  1.368122e+001 
3703125000  -3.893484e+001  1.042212e+001 
3706250000  -3.935767e+001  1.054430e+001 
3709375000  -3.874647e+001  1.470850e+001 
3712500000  -3.744818e+001  1.483588e+001 
3715625000  -3.632220e+001  8.830958e+000 
3718750000  -3.558889e+001  6.512568e+000 
3721875000  -3.518981e+001  -1.656706e-001 
3725000000  -3.518036e+001  -4.383307e+000 
3728125000  -3.537683e+001  -4.842476e+000 
3731250000  -3.483747e+001  -5.679276e+000 
3734375000  -3.365116e+001  -1.219950e+001 
3737500000  -3.416566e+001  -2.005721e+001 
3740625000  -3.474211e+001  -2.245453e+001 
3743750000  -3.463390e+001  -2.454413e+001 
3746875000  -3.456339e+001  -2.699200e+001 
3750000000  -3.488921e+001  -2.891622e+001 
3753125000  -3.452721e+001  -2.851783e+001 
3756250000  -3.437247e+001  -2.961993e+001 
3759375000  -3.419234e+001  -3.006453e+001 
3762500000  -3.369815e+001  -3.543000e+001 
3765625000  -3.408759e+001  -3.645765e+001 
3768750000  -3.422435e+001  -3.438783e+001 
3771875000  -3.238476e+001  -3.757043e+001 
3775000000  -3.216113e+001  -4.528300e+001 
3778125000  -3.258974e+001  -4.663397e+001 
3781250000  -3.238573e+001  -4.941436e+001 
3784375000  -3.227649e+001  -5.199311e+001 
3787500000  -3.163951e+001  -5.504407e+001 
3790625000  -3.225489e+001  -6.104848e+001 
3793750000  -3.241856e+001  -6.105064e+001 
3796875000  -3.142343e+001  -6.310558e+001 
3800000000  -2.988450e+001  -6.653600e+001 
3803125000  -3.074725e+001  -7.320782e+001 
3806250000  -3.140305e+001  -7.609199e+001 
3809375000  -3.100717e+001  -7.653149e+001 
3812500000  -3.043732e+001  -8.162771e+001 
3815625000  -3.111308e+001  -9.012012e+001 
3818750000  -3.199781e+001  -9.010684e+001 
3821875000  -3.211202e+001  -8.194030e+001 
3825000000  -3.007051e+001  -7.773667e+001 
3828125000  -2.888046e+001  -9.131297e+001 
3831250000  -2.934178e+001  -1.058930e+002 
3834375000  -3.061511e+001  -1.074285e+002 
3837500000  -3.154057e+001  -1.010411e+002 
3840625000  -3.046173e+001  -1.022467e+002 
3843750000  -2.924719e+001  -1.126889e+002 
3846875000  -2.995973e+001  -1.197800e+002 
3850000000  -3.131224e+001  -1.139624e+002 
3853125000  -3.038300e+001  -1.109622e+002 
3856250000  -3.037204e+001  -1.165340e+002 
3859375000  -2.966805e+001  -1.210699e+002 
3862500000  -2.925790e+001  -1.282722e+002 
3865625000  -2.952435e+001  -1.328907e+002 
3868750000  -2.956034e+001  -1.334620e+002 
3871875000  -2.883563e+001  -1.363159e+002 
3875000000  -2.890826e+001  -1.446491e+002 
3878125000  -2.995700e+001  -1.471750e+002 
3881250000  -3.011017e+001  -1.439944e+002 
3884375000  -2.939842e+001  -1.490966e+002 
3887500000  -2.965641e+001  -1.530401e+002 
3890625000  -3.015767e+001  -1.558895e+002 
3893750000  -3.066164e+001  -1.569914e+002 
3896875000  -3.066706e+001  -1.565531e+002 
3900000000  -3.105445e+001  -1.576919e+002 
3903125000  -3.066271e+001  -1.594489e+002 
3906250000  -3.038030e+001  -1.604719e+002 
3909375000  -2.961982e+001  -1.624688e+002 
3912500000  -2.969124e+001  -1.698943e+002 
3915625000  -3.093968e+001  -1.689499e+002 
3918750000  -3.088399e+001  -1.676119e+002 
3921875000  -3.053828e+001  -1.690924e+002 
3925000000  -2.982555e+001  -1.696471e+002 
3928125000  -2.911986e+001  -1.759687e+002 
3931250000  -2.948091e+001  -1.796700e+002 
3934375000  -2.978710e+001  -1.792682e+002 
3937500000  -2.988778e+001  -1.799112e+002 
3940625000  -3.038135e+001  -1.796344e+002 
3943750000  -2.951843e+001  -1.779491e+002 
3946875000  -2.821887e+001  1.760333e+002 
3950000000  -2.869436e+001  1.683514e+002 
3953125000  -2.970177e+001  1.693926e+002 
3956250000  -2.883334e+001  1.724667e+002 
3959375000  -2.748603e+001  1.690232e+002 
3962500000  -2.695616e+001  1.650801e+002 
3965625000  -2.655688e+001  1.561133e+002 
3968750000  -2.750260e+001  1.500614e+002 
3971875000  -2.793992e+001  1.483602e+002 
3975000000  -2.720745e+001  1.461513e+002 
3978125000  -2.699559e+001  1.446730e+002 
3981250000  -2.669468e+001  1.403015e+002 
3984375000  -2.697655e+001  1.338339e+002 
3987500000  -2.743178e+001  1.321812e+002 
3990625000  -2.747820e+001  1.309673e+002 
3993750000  -2.768560e+001  1.274530e+002 
3996875000  -2.764698e+001  1.252547e+002 
4000000000  -2.777851e+001  1.230826e+002 
4003125000  -2.838813e+001  1.249246e+002 
4006250000  -2.698634e+001  1.255261e+002 
4009375000  -2.571863e+001  1.137324e+002 
4012500000  -2.683589e+001  1.062155e+002 
4015625000  -2.806341e+001  1.067140e+002 
4018750000  -2.834709e+001  1.089269e+002 
4021875000  -2.756781e+001  1.069426e+002 
4025000000  -2.722009e+001  1.023085e+002 
4028125000  -2.718764e+001  9.841066e+001 
4031250000  -2.770786e+001  9.513151e+001 
4034375000  -2.792385e+001  9.525581e+001 
4037500000  -2.745845e+001  9.713937e+001 
4040625000  -2.737329e+001  9.361773e+001 
4043750000  -2.770790e+001  9.308307e+001 
4046875000  -2.726330e+001  9.289220e+001 
4050000000  -2.677902e+001  8.732629e+001 
4053125000  -2.733254e+001  8.524603e+001 
4056250000  -2.786121e+001  8.979764e+001 
4059375000  -2.666008e+001  9.148913e+001 
4062500000  -2.526303e+001  8.662209e+001 
4065625000  -2.507200e+001  8.225613e+001 
4068750000  -2.482239e+001  7.767995e+001 
4071875000  -2.418290e+001  7.000365e+001 
4075000000  -2.451601e+001  6.378416e+001 
4078125000  -2.511303e+001  6.249990e+001 
4081250000  -2.457630e+001  6.033950e+001 
4084375000  -2.422641e+001  5.381014e+001 
4087500000  -2.457339e+001  4.735809e+001 
4090625000  -2.512018e+001  4.627808e+001 
4093750000  -2.497097e+001  4.692122e+001 
4096875000  -2.450880e+001  4.124866e+001 
4100000000  -2.520387e+001  3.386496e+001 
4103125000  -2.606558e+001  3.456437e+001 
4106250000  -2.593369e+001  3.932153e+001 
4109375000  -2.505929e+001  3.893664e+001 
4112500000  -2.448539e+001  3.244366e+001 
4115625000  -2.480535e+001  2.792850e+001 
4118750000  -2.488771e+001  2.535947e+001 
4121875000  -2.457001e+001  2.014053e+001 
4125000000  -2.485643e+001  1.537395e+001 
4128125000  -2.589259e+001  1.534910e+001 
4131250000  -2.562035e+001  2.322969e+001 
4134375000  -2.328510e+001  1.885770e+001 
4137500000  -2.313170e+001  -1.510878e-001 
4140625000  -2.522068e+001  -7.060016e+000 
4143750000  -2.654738e+001  -2.136737e+000 
4146875000  -2.621526e+001  5.597742e+000 
4150000000  -2.522384e+001  2.127341e+000 
4153125000  -2.508634e+001  -4.524723e+000 
4156250000  -2.597847e+001  -7.155248e+000 
4159375000  -2.623821e+001  -2.847307e+000 
4162500000  -2.515699e+001  1.662189e+000 
4165625000  -2.399362e+001  -2.356733e+000 
4168750000  -2.342235e+001  -9.616132e+000 
4171875000  -2.339568e+001  -1.876101e+001 
4175000000  -2.399776e+001  -2.445219e+001 
4178125000  -2.465086e+001  -2.441202e+001 
4181250000  -2.449741e+001  -2.473408e+001 
4184375000  -2.441597e+001  -2.809802e+001 
4187500000  -2.437933e+001  -3.081643e+001 
4190625000  -2.420620e+001  -3.619990e+001 
4193750000  -2.497748e+001  -4.009541e+001 
4196875000  -2.572661e+001  -4.033577e+001 
4200000000  -2.651748e+001  -3.773852e+001 
4203125000  -2.654332e+001  -2.459761e+001 
4206250000  -2.321259e+001  -2.279218e+001 
4209375000  -2.202691e+001  -4.328459e+001 
4212500000  -2.392646e+001  -5.248848e+001 
4215625000  -2.493873e+001  -4.605169e+001 
4218750000  -2.365100e+001  -3.961034e+001 
4221875000  -2.132427e+001  -4.865860e+001 
4225000000  -2.255674e+001  -6.117623e+001 
4228125000  -2.328202e+001  -5.587634e+001 
4231250000  -2.165344e+001  -5.971714e+001 
4234375000  -2.161673e+001  -6.787589e+001 
4237500000  -2.119071e+001  -7.144373e+001 
4240625000  -2.119502e+001  -7.979878e+001 
4243750000  -2.214079e+001  -8.660629e+001 
4246875000  -2.306483e+001  -8.668330e+001 
4250000000  -2.309263e+001  -8.409726e+001 
4253125000  -2.249808e+001  -8.606294e+001 
4256250000  -2.283477e+001  -9.009946e+001 
4259375000  -2.255033e+001  -9.212555e+001 
4262500000  -2.257573e+001  -9.581854e+001 
4265625000  -2.275150e+001  -9.568858e+001 
4268750000  -2.189797e+001  -9.958669e+001 
4271875000  -2.160544e+001  -1.052551e+002 
4275000000  -2.102868e+001  -1.119118e+002 
4278125000  -2.162135e+001  -1.230354e+002 
4281250000  -2.344489e+001  -1.250786e+002 
4284375000  -2.314954e+001  -1.241434e+002 
4287500000  -2.392081e+001  -1.274376e+002 
4290625000  -2.519073e+001  -1.180915e+002 
4293750000  -2.317162e+001  -1.121710e+002 
4296875000  -2.183381e+001  -1.237710e+002 
4300000000  -2.271773e+001  -1.329691e+002 
4303125000  -2.383694e+001  -1.318463e+002 
4306250000  -2.322249e+001  -1.258735e+002 
4309375000  -2.187913e+001  -1.279913e+002 
4312500000  -2.176686e+001  -1.360898e+002 
4315625000  -2.194842e+001  -1.421998e+002 
4318750000  -2.230377e+001  -1.456598e+002 
4321875000  -2.249694e+001  -1.449967e+002 
4325000000  -2.191292e+001  -1.442955e+002 
4328125000  -2.141269e+001  -1.504612e+002 
4331250000  -2.132179e+001  -1.586560e+002 
4334375000  -2.178192e+001  -1.636313e+002 
4337500000  -2.258039e+001  -1.659150e+002 
4340625000  -2.313811e+001  -1.624287e+002 
4343750000  -2.256635e+001  -1.619274e+002 
4346875000  -2.214689e+001  -1.677770e+002 
4350000000  -2.219402e+001  -1.723326e+002 
4353125000  -2.221313e+001  1.798568e+002 
4356250000  -2.395304e+001  1.790092e+002 
4359375000  -2.456182e+001  -1.676340e+002 
4362500000  -2.188178e+001  -1.654637e+002 
4365625000  -2.024703e+001  -1.771037e+002 
4368750000  -2.094851e+001  1.709814e+002 
4371875000  -2.218289e+001  1.713364e+002 
4375000000  -2.184529e+001  1.722382e+002 
4378125000  -2.116546e+001  1.667911e+002 
4381250000  -2.135187e+001  1.612948e+002 
4384375000  -2.116485e+001  1.567078e+002 
4387500000  -2.192049e+001  1.508438e+002 
4390625000  -2.294572e+001  1.515252e+002 
4393750000  -2.224318e+001  1.537841e+002 
4396875000  -2.161340e+001  1.518344e+002 
4400000000  -2.111767e+001  1.446797e+002 
4403125000  -2.166430e+001  1.370605e+002 
4406250000  -2.256092e+001  1.357984e+002 
4409375000  -2.250087e+001  1.335926e+002 
4412500000  -2.358663e+001  1.307484e+002 
4415625000  -2.393961e+001  1.357873e+002 
4418750000  -2.267672e+001  1.405055e+002 
