!Agilent Technologies,E8363B,MY43030201,A.06.04.32
!Agilent E8363B: A.06.04.32
!Date: Tuesday, November 11, 2014 20:49:06
!Correction: S21(Response(S21)) 
!S1P File: Measurement: S21:
# Hz S  dB   R 50
3000000000  -2.652604e+001  1.545992e+002 
3003125000  -2.791531e+001  1.502309e+002 
3006250000  -2.795967e+001  1.473997e+002 
3009375000  -2.831316e+001  1.524074e+002 
3012500000  -2.778686e+001  1.521875e+002 
3015625000  -2.680859e+001  1.451553e+002 
3018750000  -2.769586e+001  1.441034e+002 
3021875000  -2.645687e+001  1.455614e+002 
3025000000  -2.512526e+001  1.423812e+002 
3028125000  -2.415462e+001  1.375969e+002 
3031250000  -2.313781e+001  1.264749e+002 
3034375000  -2.275201e+001  1.136574e+002 
3037500000  -2.308971e+001  1.014325e+002 
3040625000  -2.441113e+001  9.638366e+001 
3043750000  -2.517026e+001  9.209164e+001 
3046875000  -2.525801e+001  8.561987e+001 
3050000000  -2.699097e+001  7.863486e+001 
3053125000  -2.716000e+001  8.517566e+001 
3056250000  -2.641153e+001  8.813953e+001 
3059375000  -2.668429e+001  8.771857e+001 
3062500000  -2.519078e+001  8.405873e+001 
3065625000  -2.501816e+001  7.863728e+001 
3068750000  -2.469920e+001  7.143873e+001 
3071875000  -2.464429e+001  6.823404e+001 
3075000000  -2.466169e+001  6.461207e+001 
3078125000  -2.435808e+001  6.028611e+001 
3081250000  -2.498809e+001  5.599047e+001 
3084375000  -2.426157e+001  5.235944e+001 
3087500000  -2.414061e+001  4.873222e+001 
3090625000  -2.383398e+001  3.924699e+001 
3093750000  -2.424617e+001  3.100414e+001 
3096875000  -2.553678e+001  2.501880e+001 
3100000000  -2.569029e+001  2.348151e+001 
3103125000  -2.602526e+001  2.492052e+001 
3106250000  -2.579280e+001  2.163919e+001 
3109375000  -2.605432e+001  1.813723e+001 
3112500000  -2.613377e+001  1.700718e+001 
3115625000  -2.597433e+001  1.293421e+001 
3118750000  -2.645464e+001  1.387825e+001 
3121875000  -2.576781e+001  6.049129e+000 
3125000000  -2.686773e+001  2.482447e+000 
3128125000  -2.816164e+001  1.049633e+001 
3131250000  -2.601074e+001  1.117718e+001 
3134375000  -2.465952e+001  -2.398482e+000 
3137500000  -2.524569e+001  -1.625262e+001 
3140625000  -2.693683e+001  -1.794573e+001 
3143750000  -2.787142e+001  -1.368862e+001 
3146875000  -2.753782e+001  -1.224747e+001 
3150000000  -2.651593e+001  -9.203189e+000 
3153125000  -2.646055e+001  -1.734394e+001 
3156250000  -2.743865e+001  -1.216109e+001 
3159375000  -2.596829e+001  -8.919184e+000 
3162500000  -2.386577e+001  -2.207809e+001 
3165625000  -2.478554e+001  -3.288938e+001 
3168750000  -2.518042e+001  -3.192273e+001 
3171875000  -2.423013e+001  -3.621616e+001 
3175000000  -2.489594e+001  -4.385514e+001 
3178125000  -2.470570e+001  -4.225491e+001 
3181250000  -2.349710e+001  -4.600566e+001 
3184375000  -2.269014e+001  -5.829383e+001 
3187500000  -2.376494e+001  -7.371289e+001 
3190625000  -2.656722e+001  -8.135927e+001 
3193750000  -2.719851e+001  -7.160406e+001 
3196875000  -2.675486e+001  -6.595164e+001 
3200000000  -2.594436e+001  -6.802097e+001 
3203125000  -2.503853e+001  -7.373061e+001 
3206250000  -2.529963e+001  -7.966520e+001 
3209375000  -2.486041e+001  -8.500953e+001 
3212500000  -2.497176e+001  -9.170645e+001 
3215625000  -2.510187e+001  -9.577903e+001 
3218750000  -2.582344e+001  -1.020837e+002 
3221875000  -2.684545e+001  -1.071914e+002 
3225000000  -2.646508e+001  -1.076797e+002 
3228125000  -2.672628e+001  -1.123233e+002 
3231250000  -2.748772e+001  -1.150466e+002 
3234375000  -2.736116e+001  -1.142409e+002 
3237500000  -2.743318e+001  -1.155717e+002 
3240625000  -2.711834e+001  -1.174586e+002 
3243750000  -2.673259e+001  -1.235981e+002 
3246875000  -2.723405e+001  -1.304602e+002 
3250000000  -2.762404e+001  -1.322731e+002 
3253125000  -2.781655e+001  -1.342114e+002 
3256250000  -2.770117e+001  -1.401251e+002 
3259375000  -2.799942e+001  -1.475369e+002 
3262500000  -2.925758e+001  -1.504946e+002 
3265625000  -2.992864e+001  -1.470072e+002 
3268750000  -2.993818e+001  -1.442918e+002 
3271875000  -2.967577e+001  -1.430608e+002 
3275000000  -2.857943e+001  -1.479038e+002 
3278125000  -2.908574e+001  -1.548352e+002 
3281250000  -2.940241e+001  -1.526731e+002 
3284375000  -2.891695e+001  -1.584109e+002 
3287500000  -2.906090e+001  -1.615034e+002 
3290625000  -2.945839e+001  -1.656844e+002 
3293750000  -2.919610e+001  -1.708219e+002 
3296875000  -3.015298e+001  -1.709960e+002 
3300000000  -3.005323e+001  -1.699031e+002 
3303125000  -2.894221e+001  -1.743073e+002 
3306250000  -2.870765e+001  1.793547e+002 
3309375000  -2.846622e+001  1.745003e+002 
3312500000  -2.850710e+001  1.642298e+002 
3315625000  -2.951889e+001  1.558073e+002 
3318750000  -3.090380e+001  1.535726e+002 
3321875000  -3.205147e+001  1.537481e+002 
3325000000  -3.263302e+001  1.591289e+002 
3328125000  -3.251594e+001  1.597182e+002 
3331250000  -3.136780e+001  1.677514e+002 
3334375000  -2.868123e+001  1.582377e+002 
3337500000  -2.878044e+001  1.395093e+002 
3340625000  -3.014334e+001  1.287442e+002 
3343750000  -3.205410e+001  1.276887e+002 
3346875000  -3.260235e+001  1.289582e+002 
3350000000  -3.197732e+001  1.277199e+002 
3353125000  -3.205653e+001  1.233909e+002 
3356250000  -3.180679e+001  1.156494e+002 
3359375000  -3.266122e+001  1.075059e+002 
3362500000  -3.390168e+001  1.014834e+002 
3365625000  -3.452866e+001  1.006076e+002 
3368750000  -3.550780e+001  9.832980e+001 
3371875000  -3.590903e+001  9.644508e+001 
3375000000  -3.725911e+001  9.319921e+001 
3378125000  -3.856743e+001  9.285696e+001 
3381250000  -3.997375e+001  9.846162e+001 
3384375000  -3.939875e+001  1.205320e+002 
3387500000  -3.619010e+001  1.088432e+002 
3390625000  -3.794189e+001  8.825919e+001 
3393750000  -3.968729e+001  9.364732e+001 
3396875000  -3.887129e+001  9.758405e+001 
3400000000  -3.872070e+001  8.946399e+001 
3403125000  -3.989208e+001  8.447903e+001 
3406250000  -4.061547e+001  8.734659e+001 
3409375000  -4.124715e+001  8.345921e+001 
3412500000  -4.221735e+001  8.457776e+001 
3415625000  -4.295043e+001  8.896543e+001 
3418750000  -4.354900e+001  9.468330e+001 
3421875000  -4.350691e+001  1.015605e+002 
3425000000  -4.267303e+001  1.020425e+002 
3428125000  -4.172385e+001  1.032441e+002 
3431250000  -4.169427e+001  9.782996e+001 
3434375000  -4.157194e+001  9.614973e+001 
3437500000  -4.215230e+001  9.635161e+001 
3440625000  -4.225809e+001  9.690534e+001 
3443750000  -4.107353e+001  1.016483e+002 
3446875000  -3.990062e+001  9.574550e+001 
3450000000  -4.009865e+001  8.581516e+001 
3453125000  -4.030495e+001  7.811634e+001 
3456250000  -4.142987e+001  7.359113e+001 
3459375000  -4.238408e+001  7.433900e+001 
3462500000  -4.248131e+001  7.495733e+001 
3465625000  -4.274966e+001  7.159700e+001 
3468750000  -4.295035e+001  6.919099e+001 
3471875000  -4.305254e+001  7.085483e+001 
3475000000  -4.295443e+001  6.638998e+001 
3478125000  -4.345204e+001  6.023343e+001 
3481250000  -4.461642e+001  6.019323e+001 
3484375000  -4.635089e+001  6.381031e+001 
3487500000  -4.573656e+001  6.773749e+001 
3490625000  -4.565556e+001  6.294148e+001 
3493750000  -4.632204e+001  6.158334e+001 
3496875000  -4.686481e+001  6.183972e+001 
3500000000  -4.793338e+001  7.310726e+001 
3503125000  -4.780027e+001  7.543216e+001 
3506250000  -4.732301e+001  7.562569e+001 
3509375000  -4.675795e+001  7.491469e+001 
3512500000  -4.783881e+001  7.090057e+001 
3515625000  -4.752757e+001  7.441006e+001 
3518750000  -4.836244e+001  8.024574e+001 
3521875000  -4.840797e+001  8.615416e+001 
3525000000  -4.784746e+001  8.714407e+001 
3528125000  -4.796678e+001  9.688846e+001 
3531250000  -4.580936e+001  9.731755e+001 
3534375000  -4.524696e+001  8.988546e+001 
3537500000  -4.501767e+001  8.880263e+001 
3540625000  -4.545304e+001  8.806167e+001 
3543750000  -4.619761e+001  9.065411e+001 
3546875000  -4.542725e+001  9.983723e+001 
3550000000  -4.312004e+001  1.048386e+002 
3553125000  -4.152908e+001  8.638988e+001 
3556250000  -4.255400e+001  8.254591e+001 
3559375000  -4.237071e+001  8.396971e+001 
3562500000  -4.094317e+001  7.777477e+001 
3565625000  -4.175668e+001  7.101682e+001 
3568750000  -4.196059e+001  7.276984e+001 
3571875000  -4.153897e+001  7.471395e+001 
3575000000  -4.130190e+001  6.807533e+001 
3578125000  -4.135823e+001  6.490224e+001 
3581250000  -4.138813e+001  6.621589e+001 
3584375000  -4.062136e+001  6.537422e+001 
3587500000  -3.981127e+001  5.829165e+001 
3590625000  -4.001269e+001  4.921698e+001 
3593750000  -4.133487e+001  4.744236e+001 
3596875000  -4.125601e+001  5.539394e+001 
3600000000  -3.939432e+001  5.268298e+001 
3603125000  -3.973284e+001  4.029223e+001 
3606250000  -4.061281e+001  3.712903e+001 
3609375000  -4.079182e+001  3.475805e+001 
3612500000  -4.149083e+001  3.440694e+001 
3615625000  -4.146420e+001  3.391549e+001 
3618750000  -4.188742e+001  3.371416e+001 
3621875000  -4.145626e+001  3.361499e+001 
3625000000  -4.170855e+001  3.402031e+001 
3628125000  -4.198776e+001  3.170703e+001 
3631250000  -4.112999e+001  2.885042e+001 
3634375000  -4.229670e+001  2.847182e+001 
3637500000  -4.204950e+001  3.438505e+001 
3640625000  -4.089893e+001  3.589574e+001 
3643750000  -4.055193e+001  2.949656e+001 
3646875000  -4.136317e+001  2.616751e+001 
3650000000  -4.170470e+001  2.443546e+001 
3653125000  -4.145926e+001  2.412143e+001 
3656250000  -4.159072e+001  2.268324e+001 
3659375000  -4.193858e+001  2.691259e+001 
3662500000  -4.140910e+001  2.596877e+001 
3665625000  -4.142621e+001  2.651304e+001 
3668750000  -4.046651e+001  2.882737e+001 
3671875000  -3.956837e+001  2.214981e+001 
3675000000  -3.985368e+001  1.749697e+001 
3678125000  -4.061638e+001  1.840616e+001 
3681250000  -3.996489e+001  2.050226e+001 
3684375000  -3.979942e+001  1.905793e+001 
3687500000  -3.988795e+001  1.701621e+001 
3690625000  -3.978625e+001  1.338123e+001 
3693750000  -4.045573e+001  1.621335e+001 
3696875000  -4.023186e+001  2.023259e+001 
3700000000  -3.903306e+001  1.785452e+001 
3703125000  -3.869383e+001  1.515342e+001 
3706250000  -3.951030e+001  1.649590e+001 
3709375000  -3.859168e+001  1.962645e+001 
3712500000  -3.748883e+001  1.916932e+001 
3715625000  -3.654659e+001  1.372967e+001 
3718750000  -3.579572e+001  1.059791e+001 
3721875000  -3.535709e+001  5.256606e+000 
3725000000  -3.529888e+001  1.780633e-001 
3728125000  -3.546341e+001  1.639768e-001 
3731250000  -3.482618e+001  -6.612532e-001 
3734375000  -3.383287e+001  -6.033128e+000 
3737500000  -3.435768e+001  -1.431300e+001 
3740625000  -3.493786e+001  -1.695704e+001 
3743750000  -3.478291e+001  -1.904791e+001 
3746875000  -3.460226e+001  -2.273716e+001 
3750000000  -3.510418e+001  -2.346682e+001 
3753125000  -3.473184e+001  -2.360144e+001 
3756250000  -3.459421e+001  -2.436601e+001 
3759375000  -3.444680e+001  -2.480278e+001 
3762500000  -3.389164e+001  -2.877549e+001 
3765625000  -3.417172e+001  -3.276566e+001 
3768750000  -3.442562e+001  -2.897911e+001 
3771875000  -3.266258e+001  -3.147386e+001 
3775000000  -3.227982e+001  -3.910271e+001 
3778125000  -3.272514e+001  -4.177885e+001 
3781250000  -3.251263e+001  -4.359589e+001 
3784375000  -3.242651e+001  -4.542765e+001 
3787500000  -3.181497e+001  -4.892712e+001 
3790625000  -3.228469e+001  -5.475041e+001 
3793750000  -3.247828e+001  -5.526214e+001 
3796875000  -3.156606e+001  -5.718601e+001 
3800000000  -3.010234e+001  -6.067028e+001 
3803125000  -3.085608e+001  -6.789889e+001 
3806250000  -3.141052e+001  -6.965327e+001 
3809375000  -3.119328e+001  -7.096288e+001 
3812500000  -3.040808e+001  -7.595124e+001 
3815625000  -3.113872e+001  -8.305710e+001 
3818750000  -3.194456e+001  -8.432625e+001 
3821875000  -3.209496e+001  -7.670136e+001 
3825000000  -3.019216e+001  -7.177702e+001 
3828125000  -2.886049e+001  -8.593484e+001 
3831250000  -2.931405e+001  -1.000139e+002 
3834375000  -3.066810e+001  -1.006388e+002 
3837500000  -3.159043e+001  -9.583251e+001 
3840625000  -3.051304e+001  -9.732338e+001 
3843750000  -2.931359e+001  -1.062805e+002 
3846875000  -2.991132e+001  -1.135782e+002 
3850000000  -3.125578e+001  -1.084194e+002 
3853125000  -3.054511e+001  -1.056028e+002 
3856250000  -3.051626e+001  -1.103823e+002 
3859375000  -2.985802e+001  -1.150750e+002 
3862500000  -2.938243e+001  -1.223503e+002 
3865625000  -2.952661e+001  -1.273837e+002 
3868750000  -2.958830e+001  -1.277939e+002 
3871875000  -2.889781e+001  -1.300395e+002 
3875000000  -2.896950e+001  -1.389198e+002 
3878125000  -3.003552e+001  -1.418802e+002 
3881250000  -3.021108e+001  -1.386143e+002 
3884375000  -2.958639e+001  -1.431431e+002 
3887500000  -2.975482e+001  -1.476286e+002 
3890625000  -3.025465e+001  -1.496825e+002 
3893750000  -3.063855e+001  -1.508425e+002 
3896875000  -3.074275e+001  -1.505612e+002 
3900000000  -3.100648e+001  -1.511083e+002 
3903125000  -3.071092e+001  -1.530439e+002 
3906250000  -3.037790e+001  -1.542141e+002 
3909375000  -2.975618e+001  -1.568711e+002 
3912500000  -2.970887e+001  -1.639275e+002 
3915625000  -3.102747e+001  -1.632226e+002 
3918750000  -3.096227e+001  -1.614234e+002 
3921875000  -3.063622e+001  -1.630764e+002 
3925000000  -2.979636e+001  -1.635132e+002 
3928125000  -2.911993e+001  -1.689274e+002 
3931250000  -2.948682e+001  -1.733869e+002 
3934375000  -2.975447e+001  -1.730647e+002 
3937500000  -2.995472e+001  -1.740635e+002 
3940625000  -3.033132e+001  -1.737225e+002 
3943750000  -2.946992e+001  -1.721693e+002 
3946875000  -2.818088e+001  -1.773947e+002 
3950000000  -2.869489e+001  1.746699e+002 
3953125000  -2.959520e+001  1.752975e+002 
3956250000  -2.876796e+001  1.778535e+002 
3959375000  -2.746282e+001  1.752146e+002 
3962500000  -2.698489e+001  1.708563e+002 
3965625000  -2.660714e+001  1.622704e+002 
3968750000  -2.752052e+001  1.551886e+002 
3971875000  -2.790353e+001  1.540917e+002 
3975000000  -2.720734e+001  1.517061e+002 
3978125000  -2.698089e+001  1.506837e+002 
3981250000  -2.681380e+001  1.461816e+002 
3984375000  -2.697977e+001  1.401622e+002 
3987500000  -2.750182e+001  1.377938e+002 
3990625000  -2.752823e+001  1.367082e+002 
3993750000  -2.775457e+001  1.336940e+002 
3996875000  -2.768350e+001  1.312112e+002 
4000000000  -2.775052e+001  1.290389e+002 
4003125000  -2.846052e+001  1.316843e+002 
4006250000  -2.695614e+001  1.319793e+002 
4009375000  -2.576481e+001  1.198273e+002 
4012500000  -2.686296e+001  1.119105e+002 
4015625000  -2.806575e+001  1.127178e+002 
4018750000  -2.833437e+001  1.151265e+002 
4021875000  -2.760949e+001  1.136827e+002 
4025000000  -2.729287e+001  1.087917e+002 
4028125000  -2.722281e+001  1.050776e+002 
4031250000  -2.769722e+001  1.013822e+002 
4034375000  -2.798725e+001  1.016413e+002 
4037500000  -2.746230e+001  1.032979e+002 
4040625000  -2.735297e+001  1.001921e+002 
4043750000  -2.764930e+001  9.938991e+001 
4046875000  -2.730311e+001  9.941953e+001 
4050000000  -2.672835e+001  9.366438e+001 
4053125000  -2.726042e+001  9.116975e+001 
4056250000  -2.782618e+001  9.580469e+001 
4059375000  -2.669087e+001  9.745058e+001 
4062500000  -2.522087e+001  9.324791e+001 
4065625000  -2.508887e+001  8.895264e+001 
4068750000  -2.481905e+001  8.369746e+001 
4071875000  -2.414934e+001  7.590152e+001 
4075000000  -2.451038e+001  6.960126e+001 
4078125000  -2.506955e+001  6.887533e+001 
4081250000  -2.459141e+001  6.615736e+001 
4084375000  -2.415146e+001  5.977091e+001 
4087500000  -2.448883e+001  5.326485e+001 
4090625000  -2.509760e+001  5.199588e+001 
4093750000  -2.491537e+001  5.313512e+001 
4096875000  -2.445816e+001  4.722434e+001 
4100000000  -2.517846e+001  4.007286e+001 
4103125000  -2.609019e+001  4.038353e+001 
4106250000  -2.595968e+001  4.521967e+001 
4109375000  -2.499962e+001  4.482588e+001 
4112500000  -2.451908e+001  3.843547e+001 
4115625000  -2.479036e+001  3.417163e+001 
4118750000  -2.492552e+001  3.137115e+001 
4121875000  -2.452211e+001  2.650845e+001 
4125000000  -2.486116e+001  2.155989e+001 
4128125000  -2.584085e+001  2.106275e+001 
4131250000  -2.568153e+001  2.954657e+001 
4134375000  -2.332071e+001  2.525039e+001 
4137500000  -2.307719e+001  6.456452e+000 
4140625000  -2.524985e+001  -6.606530e-001 
4143750000  -2.656192e+001  4.055000e+000 
4146875000  -2.623275e+001  1.122069e+001 
4150000000  -2.524695e+001  8.361531e+000 
4153125000  -2.509618e+001  1.964975e+000 
4156250000  -2.599127e+001  -5.349753e-001 
4159375000  -2.626302e+001  3.689191e+000 
4162500000  -2.519821e+001  7.815111e+000 
4165625000  -2.400812e+001  4.047017e+000 
4168750000  -2.340176e+001  -3.308059e+000 
4171875000  -2.331998e+001  -1.223490e+001 
4175000000  -2.394148e+001  -1.790913e+001 
4178125000  -2.459578e+001  -1.817716e+001 
4181250000  -2.447504e+001  -1.858017e+001 
4184375000  -2.428153e+001  -2.170720e+001 
4187500000  -2.436479e+001  -2.456850e+001 
4190625000  -2.415290e+001  -2.960938e+001 
4193750000  -2.488054e+001  -3.368085e+001 
4196875000  -2.566062e+001  -3.399014e+001 
4200000000  -2.645948e+001  -3.186457e+001 
4203125000  -2.657016e+001  -1.887170e+001 
4206250000  -2.322379e+001  -1.658475e+001 
4209375000  -2.201652e+001  -3.705087e+001 
4212500000  -2.384715e+001  -4.634771e+001 
4215625000  -2.493085e+001  -4.025019e+001 
4218750000  -2.362754e+001  -3.334881e+001 
4221875000  -2.127173e+001  -4.273656e+001 
4225000000  -2.248369e+001  -5.531976e+001 
4228125000  -2.321259e+001  -5.004798e+001 
4231250000  -2.169530e+001  -5.354629e+001 
4234375000  -2.161471e+001  -6.192913e+001 
4237500000  -2.118789e+001  -6.528859e+001 
4240625000  -2.115333e+001  -7.355010e+001 
4243750000  -2.208818e+001  -8.041533e+001 
4246875000  -2.299984e+001  -8.074557e+001 
4250000000  -2.305872e+001  -7.787386e+001 
4253125000  -2.246341e+001  -7.948151e+001 
4256250000  -2.273252e+001  -8.400987e+001 
4259375000  -2.250615e+001  -8.569474e+001 
4262500000  -2.252638e+001  -8.982195e+001 
4265625000  -2.271730e+001  -8.940588e+001 
4268750000  -2.184439e+001  -9.317897e+001 
4271875000  -2.157627e+001  -9.896496e+001 
4275000000  -2.100848e+001  -1.049324e+002 
4278125000  -2.156597e+001  -1.165055e+002 
4281250000  -2.335471e+001  -1.186860e+002 
4284375000  -2.307880e+001  -1.172508e+002 
4287500000  -2.385311e+001  -1.207329e+002 
4290625000  -2.509548e+001  -1.117562e+002 
4293750000  -2.310090e+001  -1.064089e+002 
4296875000  -2.182303e+001  -1.173358e+002 
4300000000  -2.261019e+001  -1.266977e+002 
4303125000  -2.376373e+001  -1.254553e+002 
4306250000  -2.319596e+001  -1.194985e+002 
4309375000  -2.181470e+001  -1.215635e+002 
4312500000  -2.166909e+001  -1.296666e+002 
4315625000  -2.186055e+001  -1.355007e+002 
4318750000  -2.218203e+001  -1.394363e+002 
4321875000  -2.238461e+001  -1.386806e+002 
4325000000  -2.181931e+001  -1.381608e+002 
4328125000  -2.130081e+001  -1.443540e+002 
4331250000  -2.124473e+001  -1.524689e+002 
4334375000  -2.166279e+001  -1.573311e+002 
4337500000  -2.242906e+001  -1.597982e+002 
4340625000  -2.303581e+001  -1.565234e+002 
4343750000  -2.244596e+001  -1.562133e+002 
4346875000  -2.207813e+001  -1.616230e+002 
4350000000  -2.204306e+001  -1.661593e+002 
4353125000  -2.209919e+001  -1.735566e+002 
4356250000  -2.388467e+001  -1.748336e+002 
4359375000  -2.449116e+001  -1.622128e+002 
4362500000  -2.184316e+001  -1.596890e+002 
4365625000  -2.020819e+001  -1.710734e+002 
4368750000  -2.086183e+001  1.771215e+002 
4371875000  -2.210654e+001  1.772114e+002 
4375000000  -2.181638e+001  1.786555e+002 
4378125000  -2.113656e+001  1.729332e+002 
4381250000  -2.129392e+001  1.673981e+002 
4384375000  -2.113677e+001  1.627619e+002 
4387500000  -2.183313e+001  1.568602e+002 
4390625000  -2.285625e+001  1.579573e+002 
4393750000  -2.219676e+001  1.600445e+002 
4396875000  -2.152077e+001  1.578607e+002 
4400000000  -2.103604e+001  1.512540e+002 
4403125000  -2.157096e+001  1.433871e+002 
4406250000  -2.249768e+001  1.420949e+002 
4409375000  -2.242385e+001  1.398896e+002 
4412500000  -2.342859e+001  1.369620e+002 
4415625000  -2.388199e+001  1.418103e+002 
4418750000  -2.263880e+001  1.467182e+002 
