!Agilent Technologies,E8363B,MY43030201,A.06.04.32
!Agilent E8363B: A.06.04.32
!Date: Tuesday, November 11, 2014 20:45:14
!Correction: S21(Response(S21)) 
!S1P File: Measurement: S21:
# Hz S  dB   R 50
3000000000  -2.650679e+001  1.589461e+002 
3003125000  -2.782085e+001  1.545513e+002 
3006250000  -2.793541e+001  1.515991e+002 
3009375000  -2.828234e+001  1.565190e+002 
3012500000  -2.780158e+001  1.565795e+002 
3015625000  -2.682254e+001  1.496705e+002 
3018750000  -2.765874e+001  1.483569e+002 
3021875000  -2.643864e+001  1.496375e+002 
3025000000  -2.514984e+001  1.467688e+002 
3028125000  -2.416249e+001  1.421096e+002 
3031250000  -2.312744e+001  1.309581e+002 
3034375000  -2.276995e+001  1.182730e+002 
3037500000  -2.305621e+001  1.059013e+002 
3040625000  -2.440289e+001  1.008706e+002 
3043750000  -2.510178e+001  9.668457e+001 
3046875000  -2.520559e+001  9.033065e+001 
3050000000  -2.697444e+001  8.310787e+001 
3053125000  -2.714437e+001  8.954456e+001 
3056250000  -2.642937e+001  9.293263e+001 
3059375000  -2.670470e+001  9.243046e+001 
3062500000  -2.521395e+001  8.853934e+001 
3065625000  -2.502820e+001  8.297274e+001 
3068750000  -2.473985e+001  7.610886e+001 
3071875000  -2.465332e+001  7.284593e+001 
3075000000  -2.466157e+001  6.931186e+001 
3078125000  -2.435627e+001  6.484349e+001 
3081250000  -2.495951e+001  6.058034e+001 
3084375000  -2.426603e+001  5.701216e+001 
3087500000  -2.411121e+001  5.339708e+001 
3090625000  -2.383106e+001  4.386143e+001 
3093750000  -2.419761e+001  3.561003e+001 
3096875000  -2.553356e+001  2.940305e+001 
3100000000  -2.565475e+001  2.820146e+001 
3103125000  -2.605377e+001  2.972770e+001 
3106250000  -2.577399e+001  2.595045e+001 
3109375000  -2.600827e+001  2.241604e+001 
3112500000  -2.616091e+001  2.185685e+001 
3115625000  -2.591461e+001  1.733385e+001 
3118750000  -2.640136e+001  1.860162e+001 
3121875000  -2.578079e+001  1.066363e+001 
3125000000  -2.683200e+001  6.998249e+000 
3128125000  -2.812945e+001  1.475303e+001 
3131250000  -2.595623e+001  1.574232e+001 
3134375000  -2.463116e+001  2.144775e+000 
3137500000  -2.525263e+001  -1.183238e+001 
3140625000  -2.688613e+001  -1.387577e+001 
3143750000  -2.789848e+001  -9.316639e+000 
3146875000  -2.755593e+001  -7.608366e+000 
3150000000  -2.647177e+001  -4.823447e+000 
3153125000  -2.647780e+001  -1.279017e+001 
3156250000  -2.741819e+001  -7.539118e+000 
3159375000  -2.593467e+001  -4.515030e+000 
3162500000  -2.383956e+001  -1.728944e+001 
3165625000  -2.476624e+001  -2.821451e+001 
3168750000  -2.519292e+001  -2.754679e+001 
3171875000  -2.425547e+001  -3.140952e+001 
3175000000  -2.487867e+001  -3.929267e+001 
3178125000  -2.469434e+001  -3.771724e+001 
3181250000  -2.351133e+001  -4.144087e+001 
3184375000  -2.266261e+001  -5.368973e+001 
3187500000  -2.373847e+001  -6.917421e+001 
3190625000  -2.658740e+001  -7.665826e+001 
3193750000  -2.723142e+001  -6.721944e+001 
3196875000  -2.677037e+001  -6.175028e+001 
3200000000  -2.595104e+001  -6.320682e+001 
3203125000  -2.501859e+001  -6.875984e+001 
3206250000  -2.531824e+001  -7.526944e+001 
3209375000  -2.484819e+001  -8.010891e+001 
3212500000  -2.488870e+001  -8.685610e+001 
3215625000  -2.510856e+001  -9.136777e+001 
3218750000  -2.580493e+001  -9.766820e+001 
3221875000  -2.683702e+001  -1.028970e+002 
3225000000  -2.650397e+001  -1.030931e+002 
3228125000  -2.670196e+001  -1.075367e+002 
3231250000  -2.750692e+001  -1.107398e+002 
3234375000  -2.738054e+001  -1.092944e+002 
3237500000  -2.738778e+001  -1.110512e+002 
3240625000  -2.709959e+001  -1.125261e+002 
3243750000  -2.667820e+001  -1.192360e+002 
3246875000  -2.718110e+001  -1.260489e+002 
3250000000  -2.764543e+001  -1.276865e+002 
3253125000  -2.774714e+001  -1.291812e+002 
3256250000  -2.769777e+001  -1.355449e+002 
3259375000  -2.797763e+001  -1.428145e+002 
3262500000  -2.921645e+001  -1.457785e+002 
3265625000  -2.998157e+001  -1.427011e+002 
3268750000  -2.990046e+001  -1.401409e+002 
3271875000  -2.970213e+001  -1.385971e+002 
3275000000  -2.861139e+001  -1.436409e+002 
3278125000  -2.904212e+001  -1.503320e+002 
3281250000  -2.932521e+001  -1.481825e+002 
3284375000  -2.891041e+001  -1.540369e+002 
3287500000  -2.901898e+001  -1.568639e+002 
3290625000  -2.945354e+001  -1.606621e+002 
3293750000  -2.920050e+001  -1.664576e+002 
3296875000  -3.018751e+001  -1.665854e+002 
3300000000  -3.010685e+001  -1.655931e+002 
3303125000  -2.891384e+001  -1.689927e+002 
3306250000  -2.867557e+001  -1.759309e+002 
3309375000  -2.851281e+001  1.792927e+002 
3312500000  -2.854139e+001  1.689958e+002 
3315625000  -2.948092e+001  1.610240e+002 
3318750000  -3.083700e+001  1.583887e+002 
3321875000  -3.205009e+001  1.574402e+002 
3325000000  -3.265792e+001  1.623837e+002 
3328125000  -3.251762e+001  1.646519e+002 
3331250000  -3.132743e+001  1.720730e+002 
3334375000  -2.876201e+001  1.627639e+002 
3337500000  -2.874327e+001  1.445534e+002 
3340625000  -2.997879e+001  1.338275e+002 
3343750000  -3.195985e+001  1.318696e+002 
3346875000  -3.255299e+001  1.337184e+002 
3350000000  -3.195552e+001  1.325768e+002 
3353125000  -3.207268e+001  1.283406e+002 
3356250000  -3.175397e+001  1.207849e+002 
3359375000  -3.258340e+001  1.122029e+002 
3362500000  -3.382228e+001  1.067051e+002 
3365625000  -3.447195e+001  1.052150e+002 
3368750000  -3.552219e+001  1.037325e+002 
3371875000  -3.586992e+001  9.967583e+001 
3375000000  -3.737537e+001  9.804848e+001 
3378125000  -3.831377e+001  9.713987e+001 
3381250000  -3.999145e+001  1.030261e+002 
3384375000  -3.934929e+001  1.253357e+002 
3387500000  -3.600390e+001  1.122590e+002 
3390625000  -3.786521e+001  9.183273e+001 
3393750000  -3.963614e+001  9.762371e+001 
3396875000  -3.864479e+001  1.008584e+002 
3400000000  -3.888847e+001  9.421071e+001 
3403125000  -3.968419e+001  8.836939e+001 
3406250000  -4.048936e+001  9.111398e+001 
3409375000  -4.109289e+001  8.768542e+001 
3412500000  -4.216539e+001  8.826051e+001 
3415625000  -4.269217e+001  9.469124e+001 
3418750000  -4.346896e+001  9.800046e+001 
3421875000  -4.360770e+001  1.043640e+002 
3425000000  -4.257732e+001  1.072583e+002 
3428125000  -4.160300e+001  1.090558e+002 
3431250000  -4.171740e+001  1.047460e+002 
3434375000  -4.141343e+001  1.010819e+002 
3437500000  -4.198995e+001  9.902226e+001 
3440625000  -4.237877e+001  1.023122e+002 
3443750000  -4.110041e+001  1.031884e+002 
3446875000  -4.025523e+001  9.869262e+001 
3450000000  -3.985481e+001  8.931857e+001 
3453125000  -4.023811e+001  8.164732e+001 
3456250000  -4.132369e+001  7.625433e+001 
3459375000  -4.247450e+001  7.842319e+001 
3462500000  -4.237390e+001  7.876658e+001 
3465625000  -4.256561e+001  7.717390e+001 
3468750000  -4.286210e+001  7.411590e+001 
3471875000  -4.311417e+001  7.511983e+001 
3475000000  -4.287397e+001  6.827659e+001 
3478125000  -4.382330e+001  6.443422e+001 
3481250000  -4.483634e+001  6.314582e+001 
3484375000  -4.583194e+001  6.607641e+001 
3487500000  -4.630275e+001  7.112717e+001 
3490625000  -4.558630e+001  6.939558e+001 
3493750000  -4.594349e+001  6.491916e+001 
3496875000  -4.733895e+001  6.619091e+001 
3500000000  -4.885097e+001  7.559762e+001 
3503125000  -4.860239e+001  8.006227e+001 
3506250000  -4.770465e+001  7.846277e+001 
3509375000  -4.786563e+001  7.839716e+001 
3512500000  -4.799056e+001  8.167539e+001 
3515625000  -4.816336e+001  8.068612e+001 
3518750000  -4.842967e+001  8.629957e+001 
3521875000  -4.812714e+001  8.886797e+001 
3525000000  -4.808809e+001  9.105691e+001 
3528125000  -4.817408e+001  1.028229e+002 
3531250000  -4.597628e+001  1.071898e+002 
3534375000  -4.563919e+001  9.357127e+001 
3537500000  -4.485274e+001  9.296167e+001 
3540625000  -4.555600e+001  9.341600e+001 
3543750000  -4.610471e+001  9.664835e+001 
3546875000  -4.560495e+001  1.086846e+002 
3550000000  -4.307092e+001  1.099199e+002 
3553125000  -4.173968e+001  9.297717e+001 
3556250000  -4.241195e+001  8.670463e+001 
3559375000  -4.208376e+001  8.935262e+001 
3562500000  -4.115745e+001  8.249303e+001 
3565625000  -4.198246e+001  7.576392e+001 
3568750000  -4.205860e+001  7.751228e+001 
3571875000  -4.195095e+001  7.964256e+001 
3575000000  -4.115340e+001  7.268639e+001 
3578125000  -4.156040e+001  6.947822e+001 
3581250000  -4.190396e+001  6.988202e+001 
3584375000  -4.104649e+001  6.974712e+001 
3587500000  -4.017774e+001  6.280357e+001 
3590625000  -4.061193e+001  5.434526e+001 
3593750000  -4.133549e+001  5.418356e+001 
3596875000  -4.159272e+001  6.289790e+001 
3600000000  -3.986905e+001  5.937003e+001 
3603125000  -4.008354e+001  4.722015e+001 
3606250000  -4.089972e+001  4.368975e+001 
3609375000  -4.104718e+001  4.328637e+001 
3612500000  -4.139236e+001  4.192029e+001 
3615625000  -4.141159e+001  3.962391e+001 
3618750000  -4.221516e+001  4.229361e+001 
3621875000  -4.173547e+001  3.993396e+001 
3625000000  -4.192114e+001  4.012366e+001 
3628125000  -4.200254e+001  3.893041e+001 
3631250000  -4.178414e+001  3.559010e+001 
3634375000  -4.254921e+001  3.655399e+001 
3637500000  -4.214655e+001  4.061802e+001 
3640625000  -4.103281e+001  4.344637e+001 
3643750000  -4.080574e+001  3.708903e+001 
3646875000  -4.106411e+001  3.224954e+001 
3650000000  -4.172147e+001  3.069818e+001 
3653125000  -4.140011e+001  3.211172e+001 
3656250000  -4.170466e+001  2.914208e+001 
3659375000  -4.195066e+001  3.287741e+001 
3662500000  -4.132163e+001  3.104994e+001 
3665625000  -4.124306e+001  3.168417e+001 
3668750000  -4.035933e+001  3.332430e+001 
3671875000  -3.919298e+001  3.042304e+001 
3675000000  -3.982824e+001  2.333536e+001 
3678125000  -4.048829e+001  2.560103e+001 
3681250000  -4.003651e+001  2.590071e+001 
3684375000  -3.979955e+001  2.497551e+001 
3687500000  -3.991977e+001  2.363038e+001 
3690625000  -3.990169e+001  2.034142e+001 
3693750000  -4.053103e+001  2.275498e+001 
3696875000  -4.009469e+001  2.585126e+001 
3700000000  -3.901914e+001  2.392982e+001 
3703125000  -3.876274e+001  2.118936e+001 
3706250000  -3.956359e+001  2.234254e+001 
3709375000  -3.884742e+001  2.459372e+001 
3712500000  -3.754419e+001  2.700911e+001 
3715625000  -3.648224e+001  2.082375e+001 
3718750000  -3.588763e+001  1.733774e+001 
3721875000  -3.539084e+001  1.205687e+001 
3725000000  -3.528610e+001  6.915315e+000 
3728125000  -3.547318e+001  5.956488e+000 
3731250000  -3.471843e+001  6.549711e+000 
3734375000  -3.365000e+001  3.329847e-001 
3737500000  -3.411251e+001  -8.027321e+000 
3740625000  -3.497002e+001  -1.026408e+001 
3743750000  -3.460272e+001  -1.290951e+001 
3746875000  -3.454900e+001  -1.646370e+001 
3750000000  -3.480506e+001  -1.779063e+001 
3753125000  -3.455095e+001  -1.763088e+001 
3756250000  -3.436145e+001  -1.779959e+001 
3759375000  -3.413392e+001  -1.906957e+001 
3762500000  -3.357548e+001  -2.279724e+001 
3765625000  -3.403752e+001  -2.614994e+001 
3768750000  -3.429642e+001  -2.404588e+001 
3771875000  -3.257095e+001  -2.608686e+001 
3775000000  -3.213251e+001  -3.389870e+001 
3778125000  -3.251689e+001  -3.626155e+001 
3781250000  -3.222945e+001  -3.867751e+001 
3784375000  -3.227928e+001  -4.050244e+001 
3787500000  -3.164652e+001  -4.442184e+001 
3790625000  -3.217330e+001  -4.988392e+001 
3793750000  -3.236184e+001  -5.063529e+001 
3796875000  -3.143721e+001  -5.189354e+001 
3800000000  -2.997418e+001  -5.522216e+001 
3803125000  -3.059884e+001  -6.242086e+001 
3806250000  -3.139076e+001  -6.432111e+001 
3809375000  -3.103188e+001  -6.564809e+001 
3812500000  -3.039120e+001  -7.030075e+001 
3815625000  -3.098373e+001  -7.758356e+001 
3818750000  -3.192266e+001  -7.941412e+001 
3821875000  -3.208950e+001  -7.155041e+001 
3825000000  -3.027208e+001  -6.693793e+001 
3828125000  -2.878930e+001  -8.013655e+001 
3831250000  -2.930516e+001  -9.443620e+001 
3834375000  -3.065012e+001  -9.560000e+001 
3837500000  -3.148323e+001  -9.055531e+001 
3840625000  -3.049225e+001  -9.135538e+001 
3843750000  -2.936983e+001  -1.007381e+002 
3846875000  -2.994050e+001  -1.083248e+002 
3850000000  -3.111515e+001  -1.033274e+002 
3853125000  -3.038136e+001  -1.003258e+002 
3856250000  -3.039152e+001  -1.051702e+002 
3859375000  -2.970760e+001  -1.095480e+002 
3862500000  -2.927841e+001  -1.167414e+002 
3865625000  -2.951216e+001  -1.212687e+002 
3868750000  -2.953734e+001  -1.221981e+002 
3871875000  -2.880190e+001  -1.247208e+002 
3875000000  -2.888195e+001  -1.328709e+002 
3878125000  -2.991835e+001  -1.360189e+002 
3881250000  -2.999809e+001  -1.329416e+002 
3884375000  -2.946040e+001  -1.371245e+002 
3887500000  -2.958241e+001  -1.415564e+002 
3890625000  -3.013916e+001  -1.440374e+002 
3893750000  -3.054371e+001  -1.453498e+002 
3896875000  -3.055405e+001  -1.450039e+002 
3900000000  -3.095795e+001  -1.461307e+002 
3903125000  -3.056987e+001  -1.482980e+002 
3906250000  -3.038871e+001  -1.492331e+002 
3909375000  -2.957978e+001  -1.510606e+002 
3912500000  -2.958779e+001  -1.585073e+002 
3915625000  -3.078286e+001  -1.584869e+002 
3918750000  -3.083084e+001  -1.561807e+002 
3921875000  -3.056281e+001  -1.580490e+002 
3925000000  -2.979851e+001  -1.584885e+002 
3928125000  -2.905619e+001  -1.642679e+002 
3931250000  -2.945353e+001  -1.682075e+002 
3934375000  -2.973565e+001  -1.679928e+002 
3937500000  -2.987444e+001  -1.693148e+002 
3940625000  -3.033369e+001  -1.687937e+002 
3943750000  -2.945314e+001  -1.671490e+002 
3946875000  -2.820324e+001  -1.722752e+002 
3950000000  -2.873776e+001  -1.796604e+002 
3953125000  -2.955189e+001  -1.791268e+002 
3956250000  -2.878655e+001  -1.767280e+002 
3959375000  -2.748982e+001  1.799297e+002 
3962500000  -2.691694e+001  1.764724e+002 
3965625000  -2.652515e+001  1.677519e+002 
3968750000  -2.738146e+001  1.603329e+002 
3971875000  -2.784385e+001  1.597645e+002 
3975000000  -2.719830e+001  1.580664e+002 
3978125000  -2.695617e+001  1.561422e+002 
3981250000  -2.675213e+001  1.518276e+002 
3984375000  -2.695536e+001  1.458739e+002 
3987500000  -2.747288e+001  1.439328e+002 
3990625000  -2.739247e+001  1.426996e+002 
3993750000  -2.762985e+001  1.393789e+002 
3996875000  -2.763742e+001  1.371327e+002 
4000000000  -2.764702e+001  1.347653e+002 
4003125000  -2.822157e+001  1.364987e+002 
4006250000  -2.695152e+001  1.375372e+002 
4009375000  -2.572779e+001  1.252494e+002 
4012500000  -2.671007e+001  1.179780e+002 
4015625000  -2.791286e+001  1.185347e+002 
4018750000  -2.815145e+001  1.200206e+002 
4021875000  -2.755558e+001  1.189409e+002 
4025000000  -2.713803e+001  1.138816e+002 
4028125000  -2.710623e+001  1.097156e+002 
4031250000  -2.755491e+001  1.066319e+002 
4034375000  -2.788909e+001  1.065765e+002 
4037500000  -2.732248e+001  1.086951e+002 
4040625000  -2.722637e+001  1.055328e+002 
4043750000  -2.752593e+001  1.047639e+002 
4046875000  -2.717349e+001  1.042443e+002 
4050000000  -2.666971e+001  9.888307e+001 
4053125000  -2.711759e+001  9.649643e+001 
4056250000  -2.769485e+001  1.003489e+002 
4059375000  -2.663730e+001  1.025892e+002 
4062500000  -2.525110e+001  9.825688e+001 
4065625000  -2.499624e+001  9.371930e+001 
4068750000  -2.480849e+001  8.886513e+001 
4071875000  -2.419704e+001  8.132857e+001 
4075000000  -2.449179e+001  7.523180e+001 
4078125000  -2.510692e+001  7.377425e+001 
4081250000  -2.460234e+001  7.179754e+001 
4084375000  -2.418688e+001  6.510414e+001 
4087500000  -2.450260e+001  5.901582e+001 
4090625000  -2.509204e+001  5.789265e+001 
4093750000  -2.494701e+001  5.860098e+001 
4096875000  -2.447556e+001  5.293957e+001 
4100000000  -2.512328e+001  4.574953e+001 
4103125000  -2.595794e+001  4.620711e+001 
4106250000  -2.590904e+001  5.108209e+001 
4109375000  -2.503778e+001  5.077608e+001 
4112500000  -2.447297e+001  4.422746e+001 
4115625000  -2.477775e+001  3.971669e+001 
4118750000  -2.491983e+001  3.701776e+001 
4121875000  -2.447458e+001  3.263846e+001 
4125000000  -2.472868e+001  2.751174e+001 
4128125000  -2.574750e+001  2.681965e+001 
4131250000  -2.558432e+001  3.490065e+001 
4134375000  -2.328737e+001  3.127659e+001 
4137500000  -2.300820e+001  1.220754e+001 
4140625000  -2.510345e+001  4.838596e+000 
4143750000  -2.647591e+001  9.387751e+000 
4146875000  -2.615770e+001  1.668654e+001 
4150000000  -2.517763e+001  1.340886e+001 
4153125000  -2.506824e+001  7.205997e+000 
4156250000  -2.591350e+001  4.671330e+000 
4159375000  -2.623613e+001  9.091952e+000 
4162500000  -2.511714e+001  1.325176e+001 
4165625000  -2.395625e+001  9.187152e+000 
4168750000  -2.337783e+001  2.145149e+000 
4171875000  -2.335304e+001  -6.779253e+000 
4175000000  -2.390025e+001  -1.243212e+001 
4178125000  -2.453802e+001  -1.281357e+001 
4181250000  -2.443430e+001  -1.333014e+001 
4184375000  -2.427766e+001  -1.599584e+001 
4187500000  -2.433068e+001  -1.874998e+001 
4190625000  -2.410369e+001  -2.431455e+001 
4193750000  -2.488666e+001  -2.827771e+001 
4196875000  -2.558319e+001  -2.864413e+001 
4200000000  -2.637672e+001  -2.645410e+001 
4203125000  -2.660291e+001  -1.351988e+001 
4206250000  -2.328376e+001  -1.108332e+001 
4209375000  -2.200148e+001  -3.106006e+001 
4212500000  -2.382500e+001  -4.029791e+001 
4215625000  -2.483842e+001  -3.429277e+001 
4218750000  -2.362136e+001  -2.711903e+001 
4221875000  -2.126513e+001  -3.648906e+001 
4225000000  -2.243511e+001  -4.894204e+001 
4228125000  -2.325534e+001  -4.446172e+001 
4231250000  -2.168915e+001  -4.783040e+001 
4234375000  -2.160606e+001  -5.586675e+001 
4237500000  -2.117646e+001  -5.918839e+001 
4240625000  -2.116725e+001  -6.776939e+001 
4243750000  -2.206096e+001  -7.411578e+001 
4246875000  -2.292435e+001  -7.470883e+001 
4250000000  -2.303656e+001  -7.203592e+001 
4253125000  -2.239582e+001  -7.368097e+001 
4256250000  -2.273511e+001  -7.824251e+001 
4259375000  -2.248826e+001  -7.992158e+001 
4262500000  -2.246601e+001  -8.380002e+001 
4265625000  -2.262360e+001  -8.321717e+001 
4268750000  -2.178058e+001  -8.727277e+001 
4271875000  -2.154307e+001  -9.278335e+001 
4275000000  -2.094049e+001  -9.933191e+001 
4278125000  -2.147430e+001  -1.103573e+002 
4281250000  -2.334805e+001  -1.127440e+002 
4284375000  -2.304099e+001  -1.116455e+002 
4287500000  -2.377843e+001  -1.157892e+002 
4290625000  -2.508282e+001  -1.067736e+002 
4293750000  -2.315658e+001  -1.005562e+002 
4296875000  -2.173052e+001  -1.115785e+002 
4300000000  -2.254102e+001  -1.208842e+002 
4303125000  -2.367903e+001  -1.200134e+002 
4306250000  -2.319290e+001  -1.142657e+002 
4309375000  -2.177518e+001  -1.156614e+002 
4312500000  -2.165938e+001  -1.241905e+002 
4315625000  -2.190872e+001  -1.299475e+002 
4318750000  -2.215222e+001  -1.332784e+002 
4321875000  -2.234286e+001  -1.328904e+002 
4325000000  -2.175047e+001  -1.321335e+002 
4328125000  -2.131001e+001  -1.385526e+002 
4331250000  -2.123046e+001  -1.462851e+002 
4334375000  -2.160919e+001  -1.513165e+002 
4337500000  -2.240910e+001  -1.536184e+002 
4340625000  -2.300506e+001  -1.510060e+002 
4343750000  -2.244424e+001  -1.501531e+002 
4346875000  -2.206265e+001  -1.552639e+002 
4350000000  -2.206235e+001  -1.598193e+002 
4353125000  -2.205669e+001  -1.674541e+002 
4356250000  -2.370025e+001  -1.693629e+002 
4359375000  -2.446533e+001  -1.562461e+002 
4362500000  -2.191601e+001  -1.538865e+002 
4365625000  -2.021172e+001  -1.648098e+002 
4368750000  -2.080213e+001  -1.768288e+002 
4371875000  -2.203873e+001  -1.766895e+002 
4375000000  -2.178300e+001  -1.751772e+002 
4378125000  -2.106185e+001  1.790837e+002 
4381250000  -2.125694e+001  1.737468e+002 
4384375000  -2.105086e+001  1.691965e+002 
4387500000  -2.175940e+001  1.632115e+002 
4390625000  -2.279243e+001  1.638938e+002 
4393750000  -2.211063e+001  1.662220e+002 
4396875000  -2.149103e+001  1.640787e+002 
4400000000  -2.098478e+001  1.574512e+002 
4403125000  -2.147511e+001  1.496117e+002 
4406250000  -2.237974e+001  1.480898e+002 
4409375000  -2.234380e+001  1.459416e+002 
4412500000  -2.336307e+001  1.432503e+002 
4415625000  -2.376514e+001  1.477448e+002 
4418750000  -2.257712e+001  1.524661e+002 
