!Agilent Technologies,E8363B,MY43030201,A.06.04.32
!Agilent E8363B: A.06.04.32
!Date: Tuesday, November 11, 2014 20:52:24
!Correction: S21(Response(S21)) 
!S1P File: Measurement: S21:
# Hz S  dB   R 50
3000000000  -2.654786e+001  1.513784e+002 
3003125000  -2.797113e+001  1.468019e+002 
3006250000  -2.798241e+001  1.440792e+002 
3009375000  -2.834865e+001  1.492492e+002 
3012500000  -2.779410e+001  1.487088e+002 
3015625000  -2.688474e+001  1.416182e+002 
3018750000  -2.775163e+001  1.410609e+002 
3021875000  -2.646034e+001  1.423499e+002 
3025000000  -2.513359e+001  1.392448e+002 
3028125000  -2.416546e+001  1.341377e+002 
3031250000  -2.309708e+001  1.228673e+002 
3034375000  -2.279141e+001  1.098617e+002 
3037500000  -2.315960e+001  9.790043e+001 
3040625000  -2.446245e+001  9.313874e+001 
3043750000  -2.516402e+001  8.868923e+001 
3046875000  -2.530762e+001  8.214407e+001 
3050000000  -2.702946e+001  7.551050e+001 
3053125000  -2.715319e+001  8.179846e+001 
3056250000  -2.651951e+001  8.511138e+001 
3059375000  -2.671364e+001  8.467167e+001 
3062500000  -2.526357e+001  8.070670e+001 
3065625000  -2.498023e+001  7.482561e+001 
3068750000  -2.471902e+001  6.812246e+001 
3071875000  -2.466957e+001  6.511673e+001 
3075000000  -2.464150e+001  6.127900e+001 
3078125000  -2.435608e+001  5.673874e+001 
3081250000  -2.500857e+001  5.240600e+001 
3084375000  -2.425677e+001  4.895853e+001 
3087500000  -2.414088e+001  4.535577e+001 
3090625000  -2.382719e+001  3.557392e+001 
3093750000  -2.427532e+001  2.750013e+001 
3096875000  -2.560016e+001  2.150455e+001 
3100000000  -2.567542e+001  2.012253e+001 
3103125000  -2.607322e+001  2.160096e+001 
3106250000  -2.576311e+001  1.796179e+001 
3109375000  -2.605205e+001  1.447292e+001 
3112500000  -2.615141e+001  1.344203e+001 
3115625000  -2.594576e+001  9.527510e+000 
3118750000  -2.646595e+001  1.074740e+001 
3121875000  -2.574270e+001  2.430788e+000 
3125000000  -2.695464e+001  -1.186937e+000 
3128125000  -2.816143e+001  7.137754e+000 
3131250000  -2.591866e+001  7.855484e+000 
3134375000  -2.464293e+001  -6.138531e+000 
3137500000  -2.526190e+001  -1.968331e+001 
3140625000  -2.686477e+001  -2.154121e+001 
3143750000  -2.791551e+001  -1.729100e+001 
3146875000  -2.750970e+001  -1.537077e+001 
3150000000  -2.650909e+001  -1.322259e+001 
3153125000  -2.646738e+001  -2.082109e+001 
3156250000  -2.743453e+001  -1.550873e+001 
3159375000  -2.592309e+001  -1.248354e+001 
3162500000  -2.386114e+001  -2.533172e+001 
3165625000  -2.480540e+001  -3.636089e+001 
3168750000  -2.522228e+001  -3.543605e+001 
3171875000  -2.426639e+001  -3.957603e+001 
3175000000  -2.484890e+001  -4.750495e+001 
3178125000  -2.465344e+001  -4.580177e+001 
3181250000  -2.348577e+001  -4.986717e+001 
3184375000  -2.271545e+001  -6.200355e+001 
3187500000  -2.386597e+001  -7.726984e+001 
3190625000  -2.656878e+001  -8.445834e+001 
3193750000  -2.720334e+001  -7.469888e+001 
3196875000  -2.672044e+001  -6.969715e+001 
3200000000  -2.586404e+001  -7.153499e+001 
3203125000  -2.499514e+001  -7.712430e+001 
3206250000  -2.531415e+001  -8.349764e+001 
3209375000  -2.483672e+001  -8.865266e+001 
3212500000  -2.494417e+001  -9.502460e+001 
3215625000  -2.509122e+001  -9.920615e+001 
3218750000  -2.589561e+001  -1.054136e+002 
3221875000  -2.679730e+001  -1.106130e+002 
3225000000  -2.646414e+001  -1.111409e+002 
3228125000  -2.672379e+001  -1.160640e+002 
3231250000  -2.754280e+001  -1.185835e+002 
3234375000  -2.738581e+001  -1.172874e+002 
3237500000  -2.740282e+001  -1.190161e+002 
3240625000  -2.703998e+001  -1.207499e+002 
3243750000  -2.670849e+001  -1.272380e+002 
3246875000  -2.718346e+001  -1.340133e+002 
3250000000  -2.766693e+001  -1.360497e+002 
3253125000  -2.780376e+001  -1.376006e+002 
3256250000  -2.765939e+001  -1.438398e+002 
3259375000  -2.795585e+001  -1.511467e+002 
3262500000  -2.925202e+001  -1.542101e+002 
3265625000  -2.997056e+001  -1.505024e+002 
3268750000  -2.990469e+001  -1.481475e+002 
3271875000  -2.958757e+001  -1.468675e+002 
3275000000  -2.856730e+001  -1.517844e+002 
3278125000  -2.905532e+001  -1.583141e+002 
3281250000  -2.928526e+001  -1.563291e+002 
3284375000  -2.882730e+001  -1.619686e+002 
3287500000  -2.898763e+001  -1.650523e+002 
3290625000  -2.943658e+001  -1.689939e+002 
3293750000  -2.914050e+001  -1.746437e+002 
3296875000  -3.021405e+001  -1.750515e+002 
3300000000  -3.003877e+001  -1.735628e+002 
3303125000  -2.887604e+001  -1.774339e+002 
3306250000  -2.871043e+001  1.758880e+002 
3309375000  -2.844202e+001  1.709758e+002 
3312500000  -2.847110e+001  1.602938e+002 
3315625000  -2.952921e+001  1.525308e+002 
3318750000  -3.085317e+001  1.500949e+002 
3321875000  -3.204646e+001  1.498700e+002 
3325000000  -3.274645e+001  1.544039e+002 
3328125000  -3.245323e+001  1.569352e+002 
3331250000  -3.116222e+001  1.640216e+002 
3334375000  -2.866403e+001  1.546746e+002 
3337500000  -2.868141e+001  1.357944e+002 
3340625000  -3.006941e+001  1.252400e+002 
3343750000  -3.195731e+001  1.234145e+002 
3346875000  -3.249969e+001  1.256904e+002 
3350000000  -3.183380e+001  1.249117e+002 
3353125000  -3.195041e+001  1.205445e+002 
3356250000  -3.167863e+001  1.124593e+002 
3359375000  -3.252691e+001  1.035864e+002 
3362500000  -3.380172e+001  9.790568e+001 
3365625000  -3.439397e+001  9.686835e+001 
3368750000  -3.540664e+001  9.493987e+001 
3371875000  -3.578461e+001  9.215392e+001 
3375000000  -3.726540e+001  9.023679e+001 
3378125000  -3.859652e+001  9.030989e+001 
3381250000  -3.991039e+001  9.779292e+001 
3384375000  -3.914888e+001  1.181751e+002 
3387500000  -3.576575e+001  1.043452e+002 
3390625000  -3.778046e+001  8.632323e+001 
3393750000  -3.958992e+001  9.018816e+001 
3396875000  -3.872686e+001  9.249045e+001 
3400000000  -3.855525e+001  8.517769e+001 
3403125000  -3.962020e+001  8.197920e+001 
3406250000  -4.044379e+001  8.543193e+001 
3409375000  -4.085279e+001  8.066756e+001 
3412500000  -4.186092e+001  8.103958e+001 
3415625000  -4.267425e+001  8.577480e+001 
3418750000  -4.316799e+001  8.916006e+001 
3421875000  -4.314869e+001  9.729276e+001 
3425000000  -4.247906e+001  9.792263e+001 
3428125000  -4.141531e+001  9.836638e+001 
3431250000  -4.156583e+001  9.545145e+001 
3434375000  -4.117807e+001  9.131400e+001 
3437500000  -4.175114e+001  9.036724e+001 
3440625000  -4.206022e+001  9.209588e+001 
3443750000  -4.085639e+001  9.427025e+001 
3446875000  -3.985463e+001  9.097903e+001 
3450000000  -3.972637e+001  8.053191e+001 
3453125000  -3.986236e+001  7.250116e+001 
3456250000  -4.114445e+001  6.830170e+001 
3459375000  -4.201450e+001  6.952771e+001 
3462500000  -4.219027e+001  6.988740e+001 
3465625000  -4.239405e+001  6.728136e+001 
3468750000  -4.293781e+001  6.410178e+001 
3471875000  -4.263755e+001  6.448056e+001 
3475000000  -4.286410e+001  6.087823e+001 
3478125000  -4.357600e+001  5.378146e+001 
3481250000  -4.456662e+001  5.277030e+001 
3484375000  -4.624776e+001  5.712972e+001 
3487500000  -4.540067e+001  6.165464e+001 
3490625000  -4.540051e+001  5.977401e+001 
3493750000  -4.553518e+001  5.363491e+001 
3496875000  -4.689481e+001  5.588140e+001 
3500000000  -4.790142e+001  5.993690e+001 
3503125000  -4.774173e+001  7.084278e+001 
3506250000  -4.679850e+001  6.859256e+001 
3509375000  -4.667585e+001  6.801827e+001 
3512500000  -4.742175e+001  6.522964e+001 
3515625000  -4.758341e+001  6.782996e+001 
3518750000  -4.825826e+001  7.021998e+001 
3521875000  -4.812798e+001  8.397498e+001 
3525000000  -4.807949e+001  7.880698e+001 
3528125000  -4.788046e+001  9.464288e+001 
3531250000  -4.596667e+001  9.148479e+001 
3534375000  -4.563289e+001  8.454727e+001 
3537500000  -4.516433e+001  8.163887e+001 
3540625000  -4.529261e+001  8.007179e+001 
3543750000  -4.614432e+001  8.440250e+001 
3546875000  -4.524264e+001  9.861454e+001 
3550000000  -4.289641e+001  9.736923e+001 
3553125000  -4.178246e+001  8.220486e+001 
3556250000  -4.291869e+001  7.711288e+001 
3559375000  -4.233596e+001  7.962878e+001 
3562500000  -4.108643e+001  7.119839e+001 
3565625000  -4.205330e+001  6.559537e+001 
3568750000  -4.173772e+001  6.862173e+001 
3571875000  -4.181004e+001  7.022747e+001 
3575000000  -4.099239e+001  6.449125e+001 
3578125000  -4.172750e+001  5.889955e+001 
3581250000  -4.183195e+001  6.119477e+001 
3584375000  -4.061903e+001  6.137088e+001 
3587500000  -4.003478e+001  5.348766e+001 
3590625000  -4.015890e+001  4.503254e+001 
3593750000  -4.128108e+001  4.475965e+001 
3596875000  -4.142926e+001  5.261895e+001 
3600000000  -3.975203e+001  5.026723e+001 
3603125000  -3.995272e+001  3.613861e+001 
3606250000  -4.057633e+001  3.184440e+001 
3609375000  -4.108740e+001  3.330168e+001 
3612500000  -4.133128e+001  3.178616e+001 
3615625000  -4.143233e+001  3.021458e+001 
3618750000  -4.181989e+001  3.096388e+001 
3621875000  -4.177980e+001  3.034933e+001 
3625000000  -4.156477e+001  3.037969e+001 
3628125000  -4.165604e+001  2.979455e+001 
3631250000  -4.131583e+001  2.399989e+001 
3634375000  -4.251567e+001  2.541001e+001 
3637500000  -4.212106e+001  3.097732e+001 
3640625000  -4.118881e+001  3.232757e+001 
3643750000  -4.043879e+001  2.600753e+001 
3646875000  -4.121019e+001  2.097443e+001 
3650000000  -4.162363e+001  2.057060e+001 
3653125000  -4.140679e+001  1.969728e+001 
3656250000  -4.172629e+001  1.912210e+001 
3659375000  -4.214894e+001  2.216827e+001 
3662500000  -4.106609e+001  2.179935e+001 
3665625000  -4.122931e+001  2.097687e+001 
3668750000  -4.011135e+001  2.387660e+001 
3671875000  -3.930559e+001  1.812610e+001 
3675000000  -3.979163e+001  1.312333e+001 
3678125000  -4.022571e+001  1.475035e+001 
3681250000  -3.973088e+001  1.610041e+001 
3684375000  -3.963361e+001  1.290697e+001 
3687500000  -3.980020e+001  1.278582e+001 
3690625000  -3.978202e+001  9.456534e+000 
3693750000  -4.029339e+001  1.246490e+001 
3696875000  -3.985668e+001  1.550386e+001 
3700000000  -3.887289e+001  1.306186e+001 
3703125000  -3.888840e+001  9.374720e+000 
3706250000  -3.947289e+001  1.087470e+001 
3709375000  -3.849315e+001  1.422976e+001 
3712500000  -3.742065e+001  1.572040e+001 
3715625000  -3.629373e+001  7.941901e+000 
3718750000  -3.562670e+001  6.942778e+000 
3721875000  -3.509946e+001  3.587969e-001 
3725000000  -3.511123e+001  -4.480178e+000 
3728125000  -3.532564e+001  -4.473778e+000 
3731250000  -3.471158e+001  -5.277562e+000 
3734375000  -3.360349e+001  -1.238420e+001 
3737500000  -3.417664e+001  -1.918312e+001 
3740625000  -3.481436e+001  -2.213552e+001 
3743750000  -3.461201e+001  -2.460692e+001 
3746875000  -3.436144e+001  -2.771152e+001 
3750000000  -3.480891e+001  -2.795140e+001 
3753125000  -3.449483e+001  -2.859772e+001 
3756250000  -3.453754e+001  -2.960793e+001 
3759375000  -3.415303e+001  -3.030701e+001 
3762500000  -3.355680e+001  -3.465007e+001 
3765625000  -3.423279e+001  -3.696931e+001 
3768750000  -3.421890e+001  -3.489625e+001 
3771875000  -3.238361e+001  -3.706072e+001 
3775000000  -3.229228e+001  -4.494181e+001 
3778125000  -3.249580e+001  -4.693295e+001 
3781250000  -3.238916e+001  -5.021484e+001 
3784375000  -3.230655e+001  -5.146183e+001 
3787500000  -3.172864e+001  -5.557671e+001 
3790625000  -3.215597e+001  -6.112001e+001 
3793750000  -3.235004e+001  -6.123125e+001 
3796875000  -3.151877e+001  -6.253208e+001 
3800000000  -2.998767e+001  -6.647099e+001 
3803125000  -3.063587e+001  -7.373017e+001 
3806250000  -3.139572e+001  -7.551121e+001 
3809375000  -3.105528e+001  -7.710529e+001 
3812500000  -3.037420e+001  -8.181154e+001 
3815625000  -3.110669e+001  -8.961284e+001 
3818750000  -3.198638e+001  -9.015518e+001 
3821875000  -3.204494e+001  -8.210467e+001 
3825000000  -3.010381e+001  -7.742213e+001 
3828125000  -2.879646e+001  -9.118031e+001 
3831250000  -2.930911e+001  -1.058189e+002 
3834375000  -3.065313e+001  -1.068988e+002 
3837500000  -3.154266e+001  -1.005764e+002 
3840625000  -3.050211e+001  -1.015183e+002 
3843750000  -2.920331e+001  -1.124316e+002 
3846875000  -2.994619e+001  -1.196096e+002 
3850000000  -3.123120e+001  -1.144622e+002 
3853125000  -3.043282e+001  -1.118368e+002 
3856250000  -3.041713e+001  -1.154400e+002 
3859375000  -2.964828e+001  -1.202983e+002 
3862500000  -2.915711e+001  -1.279160e+002 
3865625000  -2.956822e+001  -1.327538e+002 
3868750000  -2.945497e+001  -1.334474e+002 
3871875000  -2.875961e+001  -1.360273e+002 
3875000000  -2.892035e+001  -1.447665e+002 
3878125000  -2.992502e+001  -1.476339e+002 
3881250000  -3.005573e+001  -1.441005e+002 
3884375000  -2.948269e+001  -1.487104e+002 
3887500000  -2.964817e+001  -1.534643e+002 
3890625000  -3.020196e+001  -1.557489e+002 
3893750000  -3.064778e+001  -1.567095e+002 
3896875000  -3.065880e+001  -1.561516e+002 
3900000000  -3.094532e+001  -1.571391e+002 
3903125000  -3.065106e+001  -1.588763e+002 
3906250000  -3.036902e+001  -1.599427e+002 
3909375000  -2.971670e+001  -1.619334e+002 
3912500000  -2.970179e+001  -1.699459e+002 
3915625000  -3.091957e+001  -1.694541e+002 
3918750000  -3.098190e+001  -1.670695e+002 
3921875000  -3.064635e+001  -1.689397e+002 
3925000000  -2.983285e+001  -1.696181e+002 
3928125000  -2.915550e+001  -1.750534e+002 
3931250000  -2.955102e+001  -1.795444e+002 
3934375000  -2.973448e+001  -1.793287e+002 
3937500000  -2.991004e+001  -1.795822e+002 
3940625000  -3.033782e+001  -1.793055e+002 
3943750000  -2.940050e+001  -1.780556e+002 
3946875000  -2.818325e+001  1.764940e+002 
3950000000  -2.869545e+001  1.688041e+002 
3953125000  -2.964461e+001  1.692703e+002 
3956250000  -2.888707e+001  1.721051e+002 
3959375000  -2.737795e+001  1.696218e+002 
3962500000  -2.688781e+001  1.650921e+002 
3965625000  -2.658505e+001  1.566624e+002 
3968750000  -2.747474e+001  1.495072e+002 
3971875000  -2.786499e+001  1.480310e+002 
3975000000  -2.715133e+001  1.463352e+002 
3978125000  -2.703228e+001  1.451327e+002 
3981250000  -2.677130e+001  1.403092e+002 
3984375000  -2.696754e+001  1.341764e+002 
3987500000  -2.750062e+001  1.317327e+002 
3990625000  -2.748420e+001  1.315338e+002 
3993750000  -2.774865e+001  1.276667e+002 
3996875000  -2.761648e+001  1.255290e+002 
4000000000  -2.774724e+001  1.237378e+002 
4003125000  -2.836140e+001  1.255910e+002 
4006250000  -2.696047e+001  1.259403e+002 
4009375000  -2.571081e+001  1.136492e+002 
4012500000  -2.676440e+001  1.065033e+002 
4015625000  -2.809144e+001  1.064262e+002 
4018750000  -2.827692e+001  1.089354e+002 
4021875000  -2.751988e+001  1.070748e+002 
4025000000  -2.726632e+001  1.025110e+002 
4028125000  -2.720975e+001  9.834342e+001 
4031250000  -2.771179e+001  9.522058e+001 
4034375000  -2.796997e+001  9.522981e+001 
4037500000  -2.747330e+001  9.741952e+001 
4040625000  -2.734458e+001  9.367034e+001 
4043750000  -2.771737e+001  9.333510e+001 
4046875000  -2.726892e+001  9.271178e+001 
4050000000  -2.680144e+001  8.768556e+001 
4053125000  -2.725787e+001  8.565378e+001 
4056250000  -2.794544e+001  8.949559e+001 
4059375000  -2.664800e+001  9.147845e+001 
4062500000  -2.526334e+001  8.691417e+001 
4065625000  -2.509679e+001  8.236778e+001 
4068750000  -2.481464e+001  7.781580e+001 
4071875000  -2.417927e+001  6.984844e+001 
4075000000  -2.456824e+001  6.368339e+001 
4078125000  -2.512392e+001  6.262405e+001 
4081250000  -2.463730e+001  6.039085e+001 
4084375000  -2.419614e+001  5.363746e+001 
4087500000  -2.455245e+001  4.751070e+001 
4090625000  -2.512184e+001  4.660591e+001 
4093750000  -2.494578e+001  4.717614e+001 
4096875000  -2.453367e+001  4.103323e+001 
4100000000  -2.517574e+001  3.404435e+001 
4103125000  -2.604527e+001  3.510305e+001 
4106250000  -2.594814e+001  3.961525e+001 
4109375000  -2.507641e+001  3.903762e+001 
4112500000  -2.449954e+001  3.251602e+001 
4115625000  -2.481087e+001  2.826405e+001 
4118750000  -2.490809e+001  2.543104e+001 
4121875000  -2.451024e+001  2.069213e+001 
4125000000  -2.485792e+001  1.547798e+001 
4128125000  -2.584822e+001  1.545325e+001 
4131250000  -2.560872e+001  2.375213e+001 
4134375000  -2.327806e+001  1.914319e+001 
4137500000  -2.307806e+001  4.571302e-001 
4140625000  -2.520466e+001  -6.948718e+000 
4143750000  -2.656738e+001  -2.533871e+000 
4146875000  -2.616853e+001  5.179243e+000 
4150000000  -2.530465e+001  2.116714e+000 
4153125000  -2.507585e+001  -4.684064e+000 
4156250000  -2.604860e+001  -7.066471e+000 
4159375000  -2.631739e+001  -2.580949e+000 
4162500000  -2.516373e+001  2.003135e+000 
4165625000  -2.399177e+001  -2.587282e+000 
4168750000  -2.338794e+001  -9.402826e+000 
4171875000  -2.343729e+001  -1.888984e+001 
4175000000  -2.398744e+001  -2.418325e+001 
4178125000  -2.466459e+001  -2.422787e+001 
4181250000  -2.451993e+001  -2.476275e+001 
4184375000  -2.438418e+001  -2.798908e+001 
4187500000  -2.445223e+001  -3.042957e+001 
4190625000  -2.422236e+001  -3.605443e+001 
4193750000  -2.498056e+001  -3.976675e+001 
4196875000  -2.574043e+001  -4.023376e+001 
4200000000  -2.655693e+001  -3.804563e+001 
4203125000  -2.658384e+001  -2.410668e+001 
4206250000  -2.325628e+001  -2.294800e+001 
4209375000  -2.205155e+001  -4.349861e+001 
4212500000  -2.394976e+001  -5.220230e+001 
4215625000  -2.493066e+001  -4.607545e+001 
4218750000  -2.360838e+001  -3.953672e+001 
4221875000  -2.137039e+001  -4.859285e+001 
4225000000  -2.257425e+001  -6.116375e+001 
4228125000  -2.321685e+001  -5.612429e+001 
4231250000  -2.169436e+001  -5.952053e+001 
4234375000  -2.160643e+001  -6.798690e+001 
4237500000  -2.118180e+001  -7.099246e+001 
4240625000  -2.116941e+001  -7.999122e+001 
4243750000  -2.217310e+001  -8.634640e+001 
4246875000  -2.302759e+001  -8.678246e+001 
4250000000  -2.309295e+001  -8.380653e+001 
4253125000  -2.252245e+001  -8.582252e+001 
4256250000  -2.282979e+001  -8.989215e+001 
4259375000  -2.255872e+001  -9.203507e+001 
4262500000  -2.254826e+001  -9.563415e+001 
4265625000  -2.271985e+001  -9.534149e+001 
4268750000  -2.183963e+001  -9.943745e+001 
4271875000  -2.162520e+001  -1.049816e+002 
4275000000  -2.101925e+001  -1.118681e+002 
4278125000  -2.164250e+001  -1.228723e+002 
4281250000  -2.343653e+001  -1.250153e+002 
4284375000  -2.313457e+001  -1.241034e+002 
4287500000  -2.395458e+001  -1.270247e+002 
4290625000  -2.515084e+001  -1.180028e+002 
4293750000  -2.322800e+001  -1.121819e+002 
4296875000  -2.186617e+001  -1.237683e+002 
4300000000  -2.270049e+001  -1.328981e+002 
4303125000  -2.387948e+001  -1.318237e+002 
4306250000  -2.322293e+001  -1.257530e+002 
4309375000  -2.192084e+001  -1.278352e+002 
4312500000  -2.173306e+001  -1.361013e+002 
4315625000  -2.198023e+001  -1.422559e+002 
4318750000  -2.228584e+001  -1.452867e+002 
4321875000  -2.249180e+001  -1.447952e+002 
4325000000  -2.189889e+001  -1.440443e+002 
4328125000  -2.144163e+001  -1.504450e+002 
4331250000  -2.131593e+001  -1.585964e+002 
4334375000  -2.177014e+001  -1.633333e+002 
4337500000  -2.260250e+001  -1.657687e+002 
4340625000  -2.316106e+001  -1.623344e+002 
4343750000  -2.254497e+001  -1.619733e+002 
4346875000  -2.211592e+001  -1.676123e+002 
4350000000  -2.215381e+001  -1.724479e+002 
4353125000  -2.223029e+001  1.799363e+002 
4356250000  -2.398551e+001  1.790778e+002 
4359375000  -2.456282e+001  -1.675710e+002 
4362500000  -2.184192e+001  -1.652500e+002 
4365625000  -2.027409e+001  -1.770825e+002 
4368750000  -2.092883e+001  1.708400e+002 
4371875000  -2.219192e+001  1.713667e+002 
4375000000  -2.183822e+001  1.726308e+002 
4378125000  -2.117035e+001  1.670015e+002 
4381250000  -2.137641e+001  1.612679e+002 
4384375000  -2.117180e+001  1.568525e+002 
4387500000  -2.196140e+001  1.509063e+002 
4390625000  -2.289464e+001  1.519204e+002 
4393750000  -2.223847e+001  1.540435e+002 
4396875000  -2.161226e+001  1.520520e+002 
4400000000  -2.106927e+001  1.448145e+002 
4403125000  -2.167477e+001  1.372388e+002 
4406250000  -2.252491e+001  1.359972e+002 
4409375000  -2.254463e+001  1.337156e+002 
4412500000  -2.356502e+001  1.305949e+002 
4415625000  -2.398120e+001  1.360034e+002 
4418750000  -2.270523e+001  1.406489e+002 
