!Agilent Technologies,E8363B,MY43030201,A.06.04.32
!Agilent E8363B: A.06.04.32
!Date: Tuesday, November 11, 2014 20:50:00
!Correction: S21(Response(S21)) 
!S1P File: Measurement: S21:
# Hz S  dB   R 50
3000000000  -2.654016e+001  1.532493e+002 
3003125000  -2.793601e+001  1.485561e+002 
3006250000  -2.799331e+001  1.457668e+002 
3009375000  -2.837027e+001  1.509156e+002 
3012500000  -2.783499e+001  1.507088e+002 
3015625000  -2.685567e+001  1.435339e+002 
3018750000  -2.770949e+001  1.427576e+002 
3021875000  -2.648286e+001  1.442844e+002 
3025000000  -2.514766e+001  1.410652e+002 
3028125000  -2.416259e+001  1.360690e+002 
3031250000  -2.315193e+001  1.247745e+002 
3034375000  -2.276567e+001  1.117941e+002 
3037500000  -2.312964e+001  9.990583e+001 
3040625000  -2.443262e+001  9.490646e+001 
3043750000  -2.518076e+001  9.054803e+001 
3046875000  -2.528068e+001  8.382770e+001 
3050000000  -2.703761e+001  7.730512e+001 
3053125000  -2.716082e+001  8.369166e+001 
3056250000  -2.646763e+001  8.661830e+001 
3059375000  -2.667906e+001  8.632812e+001 
3062500000  -2.518544e+001  8.254058e+001 
3065625000  -2.501519e+001  7.694509e+001 
3068750000  -2.472769e+001  7.006686e+001 
3071875000  -2.469057e+001  6.704484e+001 
3075000000  -2.462730e+001  6.326048e+001 
3078125000  -2.436144e+001  5.875783e+001 
3081250000  -2.501594e+001  5.435223e+001 
3084375000  -2.427596e+001  5.085563e+001 
3087500000  -2.416060e+001  4.716909e+001 
3090625000  -2.387272e+001  3.740728e+001 
3093750000  -2.429495e+001  2.944606e+001 
3096875000  -2.555556e+001  2.337127e+001 
3100000000  -2.570268e+001  2.204226e+001 
3103125000  -2.612248e+001  2.348483e+001 
3106250000  -2.580988e+001  1.993343e+001 
3109375000  -2.605703e+001  1.630067e+001 
3112500000  -2.619897e+001  1.556970e+001 
3115625000  -2.596834e+001  1.129267e+001 
3118750000  -2.646111e+001  1.258060e+001 
3121875000  -2.578494e+001  4.592330e+000 
3125000000  -2.695640e+001  1.118594e+000 
3128125000  -2.819572e+001  9.066512e+000 
3131250000  -2.600360e+001  9.754822e+000 
3134375000  -2.465435e+001  -3.906919e+000 
3137500000  -2.532371e+001  -1.793002e+001 
3140625000  -2.695845e+001  -1.936222e+001 
3143750000  -2.793223e+001  -1.521418e+001 
3146875000  -2.748039e+001  -1.331534e+001 
3150000000  -2.657144e+001  -1.110845e+001 
3153125000  -2.649183e+001  -1.879373e+001 
3156250000  -2.746010e+001  -1.355724e+001 
3159375000  -2.596156e+001  -1.042709e+001 
3162500000  -2.389393e+001  -2.322198e+001 
3165625000  -2.483229e+001  -3.415441e+001 
3168750000  -2.521823e+001  -3.335362e+001 
3171875000  -2.426925e+001  -3.763327e+001 
3175000000  -2.488885e+001  -4.560438e+001 
3178125000  -2.470029e+001  -4.354004e+001 
3181250000  -2.350743e+001  -4.771906e+001 
3184375000  -2.271130e+001  -5.980575e+001 
3187500000  -2.380741e+001  -7.517080e+001 
3190625000  -2.663166e+001  -8.274733e+001 
3193750000  -2.717904e+001  -7.290697e+001 
3196875000  -2.675910e+001  -6.756753e+001 
3200000000  -2.592141e+001  -6.931847e+001 
3203125000  -2.503650e+001  -7.520757e+001 
3206250000  -2.534324e+001  -8.139283e+001 
3209375000  -2.489438e+001  -8.658745e+001 
3212500000  -2.501210e+001  -9.312255e+001 
3215625000  -2.514368e+001  -9.747681e+001 
3218750000  -2.584669e+001  -1.035328e+002 
3221875000  -2.685823e+001  -1.085898e+002 
3225000000  -2.651421e+001  -1.090612e+002 
3228125000  -2.679890e+001  -1.138115e+002 
3231250000  -2.757553e+001  -1.166843e+002 
3234375000  -2.739512e+001  -1.153103e+002 
3237500000  -2.746013e+001  -1.171173e+002 
3240625000  -2.707723e+001  -1.188022e+002 
3243750000  -2.673839e+001  -1.253575e+002 
3246875000  -2.725527e+001  -1.322026e+002 
3250000000  -2.769049e+001  -1.337478e+002 
3253125000  -2.782172e+001  -1.353718e+002 
3256250000  -2.772745e+001  -1.415648e+002 
3259375000  -2.802209e+001  -1.489470e+002 
3262500000  -2.928580e+001  -1.518472e+002 
3265625000  -2.994571e+001  -1.486079e+002 
3268750000  -2.990974e+001  -1.459764e+002 
3271875000  -2.974482e+001  -1.448088e+002 
3275000000  -2.858963e+001  -1.499749e+002 
3278125000  -2.908311e+001  -1.564014e+002 
3281250000  -2.933221e+001  -1.543127e+002 
3284375000  -2.892251e+001  -1.600959e+002 
3287500000  -2.904888e+001  -1.628228e+002 
3290625000  -2.949353e+001  -1.671368e+002 
3293750000  -2.919882e+001  -1.727771e+002 
3296875000  -3.016722e+001  -1.725726e+002 
3300000000  -3.011329e+001  -1.716833e+002 
3303125000  -2.894042e+001  -1.755096e+002 
3306250000  -2.874268e+001  1.779687e+002 
3309375000  -2.848518e+001  1.729450e+002 
3312500000  -2.855477e+001  1.623580e+002 
3315625000  -2.956768e+001  1.546138e+002 
3318750000  -3.085790e+001  1.521728e+002 
3321875000  -3.207795e+001  1.517269e+002 
3325000000  -3.263638e+001  1.566094e+002 
3328125000  -3.270562e+001  1.582898e+002 
3331250000  -3.138422e+001  1.663932e+002 
3334375000  -2.876089e+001  1.562778e+002 
3337500000  -2.876777e+001  1.381135e+002 
3340625000  -3.013585e+001  1.269404e+002 
3343750000  -3.205180e+001  1.260517e+002 
3346875000  -3.257694e+001  1.274494e+002 
3350000000  -3.193285e+001  1.263039e+002 
3353125000  -3.211097e+001  1.217364e+002 
3356250000  -3.186666e+001  1.137233e+002 
3359375000  -3.261558e+001  1.059572e+002 
3362500000  -3.395313e+001  1.004543e+002 
3365625000  -3.456459e+001  9.848817e+001 
3368750000  -3.553685e+001  9.777338e+001 
3371875000  -3.587436e+001  9.409608e+001 
3375000000  -3.752591e+001  9.174657e+001 
3378125000  -3.865247e+001  9.122602e+001 
3381250000  -4.011661e+001  9.990816e+001 
3384375000  -3.947836e+001  1.195794e+002 
3387500000  -3.619202e+001  1.067686e+002 
3390625000  -3.797118e+001  8.825813e+001 
3393750000  -3.973033e+001  9.225935e+001 
3396875000  -3.889005e+001  9.508302e+001 
3400000000  -3.877978e+001  8.814147e+001 
3403125000  -3.982058e+001  8.349211e+001 
3406250000  -4.104380e+001  8.556043e+001 
3409375000  -4.123093e+001  8.269031e+001 
3412500000  -4.211882e+001  8.293777e+001 
3415625000  -4.288633e+001  8.778123e+001 
3418750000  -4.349550e+001  9.080246e+001 
3421875000  -4.374244e+001  9.753181e+001 
3425000000  -4.283843e+001  1.025328e+002 
3428125000  -4.172267e+001  1.015906e+002 
3431250000  -4.170717e+001  9.844024e+001 
3434375000  -4.161026e+001  9.430442e+001 
3437500000  -4.200360e+001  9.310980e+001 
3440625000  -4.208947e+001  9.662887e+001 
3443750000  -4.106027e+001  9.756417e+001 
3446875000  -4.013723e+001  9.438622e+001 
3450000000  -4.018279e+001  8.619485e+001 
3453125000  -4.025061e+001  7.712320e+001 
3456250000  -4.126231e+001  7.229476e+001 
3459375000  -4.260332e+001  7.316682e+001 
3462500000  -4.260603e+001  7.464076e+001 
3465625000  -4.279531e+001  6.874148e+001 
3468750000  -4.300865e+001  6.692513e+001 
3471875000  -4.304888e+001  6.977217e+001 
3475000000  -4.290341e+001  6.530231e+001 
3478125000  -4.377644e+001  5.930463e+001 
3481250000  -4.466934e+001  5.695971e+001 
3484375000  -4.619471e+001  6.491074e+001 
3487500000  -4.582055e+001  6.639966e+001 
3490625000  -4.591897e+001  6.338317e+001 
3493750000  -4.619130e+001  5.997595e+001 
3496875000  -4.701172e+001  6.178683e+001 
3500000000  -4.813829e+001  7.338405e+001 
3503125000  -4.748097e+001  7.584723e+001 
3506250000  -4.695097e+001  7.389198e+001 
3509375000  -4.728468e+001  7.399290e+001 
3512500000  -4.717578e+001  7.077515e+001 
3515625000  -4.752515e+001  7.788206e+001 
3518750000  -4.812825e+001  7.824607e+001 
3521875000  -4.803972e+001  8.477587e+001 
3525000000  -4.828152e+001  8.257630e+001 
3528125000  -4.777105e+001  9.816087e+001 
3531250000  -4.576659e+001  9.813995e+001 
3534375000  -4.510033e+001  8.932545e+001 
3537500000  -4.507826e+001  8.413251e+001 
3540625000  -4.586657e+001  8.596861e+001 
3543750000  -4.565749e+001  8.650211e+001 
3546875000  -4.585260e+001  1.005084e+002 
3550000000  -4.293492e+001  1.023013e+002 
3553125000  -4.121381e+001  8.617556e+001 
3556250000  -4.205766e+001  8.025788e+001 
3559375000  -4.229861e+001  8.403110e+001 
3562500000  -4.076879e+001  7.570940e+001 
3565625000  -4.190111e+001  6.975494e+001 
3568750000  -4.169412e+001  7.168009e+001 
3571875000  -4.140830e+001  7.240717e+001 
3575000000  -4.093115e+001  6.829079e+001 
3578125000  -4.139193e+001  6.379298e+001 
3581250000  -4.137904e+001  6.567965e+001 
3584375000  -4.045952e+001  6.262495e+001 
3587500000  -3.974112e+001  5.690497e+001 
3590625000  -4.022811e+001  5.015995e+001 
3593750000  -4.115025e+001  4.589115e+001 
3596875000  -4.128217e+001  5.319928e+001 
3600000000  -3.934356e+001  5.151688e+001 
3603125000  -3.972932e+001  3.917897e+001 
3606250000  -4.038271e+001  3.690295e+001 
3609375000  -4.066338e+001  3.640207e+001 
3612500000  -4.129818e+001  3.390647e+001 
3615625000  -4.126714e+001  3.060498e+001 
3618750000  -4.195937e+001  3.206888e+001 
3621875000  -4.130706e+001  3.156419e+001 
3625000000  -4.190354e+001  3.107792e+001 
3628125000  -4.176796e+001  3.184893e+001 
3631250000  -4.125012e+001  2.547041e+001 
3634375000  -4.263279e+001  2.715390e+001 
3637500000  -4.207397e+001  3.422687e+001 
3640625000  -4.100317e+001  3.409018e+001 
3643750000  -4.078396e+001  2.788277e+001 
3646875000  -4.125299e+001  2.293929e+001 
3650000000  -4.179709e+001  2.220691e+001 
3653125000  -4.172698e+001  2.316026e+001 
3656250000  -4.176883e+001  2.185481e+001 
3659375000  -4.221712e+001  2.462583e+001 
3662500000  -4.137173e+001  2.366721e+001 
3665625000  -4.148120e+001  2.415650e+001 
3668750000  -4.044436e+001  2.739449e+001 
3671875000  -3.953044e+001  2.189282e+001 
3675000000  -3.996436e+001  1.746311e+001 
3678125000  -4.045107e+001  1.800586e+001 
3681250000  -4.004704e+001  1.810485e+001 
3684375000  -3.974424e+001  1.711980e+001 
3687500000  -3.993400e+001  1.611770e+001 
3690625000  -3.988358e+001  1.288809e+001 
3693750000  -4.038700e+001  1.544962e+001 
3696875000  -4.033945e+001  1.789934e+001 
3700000000  -3.908356e+001  1.674813e+001 
3703125000  -3.884483e+001  1.302001e+001 
3706250000  -3.955439e+001  1.469046e+001 
3709375000  -3.856294e+001  1.764352e+001 
3712500000  -3.752467e+001  1.833515e+001 
3715625000  -3.652002e+001  1.182064e+001 
3718750000  -3.589182e+001  9.537870e+000 
3721875000  -3.528801e+001  3.381023e+000 
3725000000  -3.532714e+001  -6.842784e-001 
3728125000  -3.556497e+001  -2.470422e+000 
3731250000  -3.487718e+001  -3.167058e+000 
3734375000  -3.391496e+001  -8.577316e+000 
3737500000  -3.434652e+001  -1.623796e+001 
3740625000  -3.497737e+001  -1.988486e+001 
3743750000  -3.493501e+001  -2.086502e+001 
3746875000  -3.482787e+001  -2.474214e+001 
3750000000  -3.510695e+001  -2.522344e+001 
3753125000  -3.473246e+001  -2.535606e+001 
3756250000  -3.471004e+001  -2.605075e+001 
3759375000  -3.447422e+001  -2.612384e+001 
3762500000  -3.405714e+001  -3.081307e+001 
3765625000  -3.436545e+001  -3.352286e+001 
3768750000  -3.460497e+001  -3.005894e+001 
3771875000  -3.266477e+001  -3.310255e+001 
3775000000  -3.240038e+001  -4.091952e+001 
3778125000  -3.280377e+001  -4.256643e+001 
3781250000  -3.261798e+001  -4.573594e+001 
3784375000  -3.250809e+001  -4.778970e+001 
3787500000  -3.176752e+001  -5.086226e+001 
3790625000  -3.239123e+001  -5.632676e+001 
3793750000  -3.256969e+001  -5.657252e+001 
3796875000  -3.165188e+001  -5.799623e+001 
3800000000  -3.010781e+001  -6.213963e+001 
3803125000  -3.084862e+001  -6.890376e+001 
3806250000  -3.145000e+001  -7.138000e+001 
3809375000  -3.132034e+001  -7.268705e+001 
3812500000  -3.048305e+001  -7.757034e+001 
3815625000  -3.107144e+001  -8.431563e+001 
3818750000  -3.208178e+001  -8.587668e+001 
3821875000  -3.218425e+001  -7.838159e+001 
3825000000  -3.032910e+001  -7.309592e+001 
3828125000  -2.893862e+001  -8.720432e+001 
3831250000  -2.938351e+001  -1.018102e+002 
3834375000  -3.077770e+001  -1.018887e+002 
3837500000  -3.157196e+001  -9.718754e+001 
3840625000  -3.058945e+001  -9.766691e+001 
3843750000  -2.945007e+001  -1.082598e+002 
3846875000  -3.004539e+001  -1.152487e+002 
3850000000  -3.137117e+001  -1.106381e+002 
3853125000  -3.046936e+001  -1.075993e+002 
3856250000  -3.045154e+001  -1.123086e+002 
3859375000  -2.978306e+001  -1.163459e+002 
3862500000  -2.942432e+001  -1.242296e+002 
3865625000  -2.966106e+001  -1.284407e+002 
3868750000  -2.960334e+001  -1.294070e+002 
3871875000  -2.896729e+001  -1.317216e+002 
3875000000  -2.903996e+001  -1.399715e+002 
3878125000  -3.006506e+001  -1.429170e+002 
3881250000  -3.018181e+001  -1.396983e+002 
3884375000  -2.962699e+001  -1.445490e+002 
3887500000  -2.984602e+001  -1.483374e+002 
3890625000  -3.033767e+001  -1.512784e+002 
3893750000  -3.070493e+001  -1.523612e+002 
3896875000  -3.086538e+001  -1.512063e+002 
3900000000  -3.126096e+001  -1.530586e+002 
3903125000  -3.080304e+001  -1.546010e+002 
3906250000  -3.052288e+001  -1.555289e+002 
3909375000  -2.978672e+001  -1.583892e+002 
3912500000  -2.983784e+001  -1.651304e+002 
3915625000  -3.103896e+001  -1.637810e+002 
3918750000  -3.103429e+001  -1.620493e+002 
3921875000  -3.064243e+001  -1.631485e+002 
3925000000  -2.996409e+001  -1.645081e+002 
3928125000  -2.922061e+001  -1.704673e+002 
3931250000  -2.956957e+001  -1.744412e+002 
3934375000  -2.978519e+001  -1.740481e+002 
3937500000  -2.993024e+001  -1.747266e+002 
3940625000  -3.036126e+001  -1.742854e+002 
3943750000  -2.952970e+001  -1.734530e+002 
3946875000  -2.819159e+001  -1.784357e+002 
3950000000  -2.869818e+001  1.740024e+002 
3953125000  -2.969864e+001  1.746300e+002 
3956250000  -2.877077e+001  1.769278e+002 
3959375000  -2.753641e+001  1.737851e+002 
3962500000  -2.693388e+001  1.695373e+002 
3965625000  -2.658317e+001  1.611741e+002 
3968750000  -2.750643e+001  1.545253e+002 
3971875000  -2.793561e+001  1.525919e+002 
3975000000  -2.719441e+001  1.507342e+002 
3978125000  -2.704940e+001  1.493455e+002 
3981250000  -2.679022e+001  1.451147e+002 
3984375000  -2.705678e+001  1.389736e+002 
3987500000  -2.752388e+001  1.366716e+002 
3990625000  -2.751943e+001  1.362113e+002 
3993750000  -2.773771e+001  1.326607e+002 
3996875000  -2.767296e+001  1.300602e+002 
4000000000  -2.781897e+001  1.280447e+002 
4003125000  -2.837617e+001  1.298570e+002 
4006250000  -2.698184e+001  1.304585e+002 
4009375000  -2.580181e+001  1.183819e+002 
4012500000  -2.683597e+001  1.113253e+002 
4015625000  -2.813787e+001  1.118827e+002 
4018750000  -2.831764e+001  1.141635e+002 
4021875000  -2.760647e+001  1.129041e+002 
4025000000  -2.727178e+001  1.078036e+002 
4028125000  -2.722500e+001  1.036525e+002 
4031250000  -2.772722e+001  1.010292e+002 
4034375000  -2.798693e+001  1.012359e+002 
4037500000  -2.741865e+001  1.030509e+002 
4040625000  -2.731917e+001  9.917883e+001 
4043750000  -2.764851e+001  9.884988e+001 
4046875000  -2.725132e+001  9.858351e+001 
4050000000  -2.672627e+001  9.255081e+001 
4053125000  -2.714150e+001  9.078802e+001 
4056250000  -2.776021e+001  9.469943e+001 
4059375000  -2.661697e+001  9.674009e+001 
4062500000  -2.515018e+001  9.190822e+001 
4065625000  -2.508410e+001  8.764825e+001 
4068750000  -2.477838e+001  8.280889e+001 
4071875000  -2.414747e+001  7.507307e+001 
4075000000  -2.446832e+001  6.876379e+001 
4078125000  -2.502387e+001  6.772102e+001 
4081250000  -2.451069e+001  6.553773e+001 
4084375000  -2.414346e+001  5.866900e+001 
4087500000  -2.445000e+001  5.266174e+001 
4090625000  -2.506877e+001  5.140508e+001 
4093750000  -2.487744e+001  5.197902e+001 
4096875000  -2.439973e+001  4.636596e+001 
4100000000  -2.510437e+001  3.921746e+001 
4103125000  -2.598734e+001  3.933188e+001 
4106250000  -2.586810e+001  4.438327e+001 
4109375000  -2.498008e+001  4.410225e+001 
4112500000  -2.438832e+001  3.759222e+001 
4115625000  -2.473704e+001  3.330553e+001 
4118750000  -2.485498e+001  3.027609e+001 
4121875000  -2.447316e+001  2.570678e+001 
4125000000  -2.479459e+001  2.047538e+001 
4128125000  -2.585538e+001  2.036291e+001 
4131250000  -2.559545e+001  2.876236e+001 
4134375000  -2.323578e+001  2.471255e+001 
4137500000  -2.303995e+001  5.707247e+000 
4140625000  -2.518614e+001  -1.536326e+000 
4143750000  -2.653983e+001  2.903512e+000 
4146875000  -2.612818e+001  1.082731e+001 
4150000000  -2.519263e+001  7.711531e+000 
4153125000  -2.502122e+001  1.419887e+000 
4156250000  -2.589446e+001  -1.835156e+000 
4159375000  -2.615785e+001  2.802560e+000 
4162500000  -2.502182e+001  7.260745e+000 
4165625000  -2.389491e+001  3.241115e+000 
4168750000  -2.329379e+001  -4.050558e+000 
4171875000  -2.326501e+001  -1.303214e+001 
4175000000  -2.381021e+001  -1.863874e+001 
4178125000  -2.442142e+001  -1.901696e+001 
4181250000  -2.432880e+001  -1.929782e+001 
4184375000  -2.412347e+001  -2.257589e+001 
4187500000  -2.420771e+001  -2.514555e+001 
4190625000  -2.398696e+001  -3.062811e+001 
4193750000  -2.479456e+001  -3.453811e+001 
4196875000  -2.551069e+001  -3.476186e+001 
4200000000  -2.633786e+001  -3.265414e+001 
4203125000  -2.639557e+001  -1.989811e+001 
4206250000  -2.302090e+001  -1.790635e+001 
4209375000  -2.182007e+001  -3.808649e+001 
4212500000  -2.371828e+001  -4.730778e+001 
4215625000  -2.476606e+001  -4.124545e+001 
4218750000  -2.345539e+001  -3.410547e+001 
4221875000  -2.111052e+001  -4.306678e+001 
4225000000  -2.235148e+001  -5.602651e+001 
4228125000  -2.303871e+001  -5.087589e+001 
4231250000  -2.150454e+001  -5.465319e+001 
4234375000  -2.146073e+001  -6.281878e+001 
4237500000  -2.098141e+001  -6.632512e+001 
4240625000  -2.102583e+001  -7.490920e+001 
4243750000  -2.197387e+001  -8.149173e+001 
4246875000  -2.284686e+001  -8.172041e+001 
4250000000  -2.287394e+001  -7.902169e+001 
4253125000  -2.230805e+001  -8.107622e+001 
4256250000  -2.258424e+001  -8.499258e+001 
4259375000  -2.236236e+001  -8.685093e+001 
4262500000  -2.237909e+001  -9.061623e+001 
4265625000  -2.253648e+001  -9.047497e+001 
4268750000  -2.166944e+001  -9.446693e+001 
4271875000  -2.142346e+001  -9.984717e+001 
4275000000  -2.078342e+001  -1.063363e+002 
4278125000  -2.136172e+001  -1.175195e+002 
4281250000  -2.317492e+001  -1.198130e+002 
4284375000  -2.291114e+001  -1.189074e+002 
4287500000  -2.365928e+001  -1.221478e+002 
4290625000  -2.492710e+001  -1.126908e+002 
4293750000  -2.295746e+001  -1.072077e+002 
4296875000  -2.158795e+001  -1.186368e+002 
4300000000  -2.245956e+001  -1.278701e+002 
4303125000  -2.352301e+001  -1.265563e+002 
4306250000  -2.296818e+001  -1.208900e+002 
4309375000  -2.155891e+001  -1.226277e+002 
4312500000  -2.142495e+001  -1.307325e+002 
4315625000  -2.164800e+001  -1.370917e+002 
4318750000  -2.197436e+001  -1.404770e+002 
4321875000  -2.214386e+001  -1.398902e+002 
4325000000  -2.160186e+001  -1.395434e+002 
4328125000  -2.110008e+001  -1.457340e+002 
4331250000  -2.099799e+001  -1.538378e+002 
4334375000  -2.141582e+001  -1.589105e+002 
4337500000  -2.227367e+001  -1.609630e+002 
4340625000  -2.278996e+001  -1.579046e+002 
4343750000  -2.219716e+001  -1.573939e+002 
4346875000  -2.184899e+001  -1.627719e+002 
4350000000  -2.181444e+001  -1.675981e+002 
4353125000  -2.188027e+001  -1.749544e+002 
4356250000  -2.354395e+001  -1.764683e+002 
4359375000  -2.422735e+001  -1.628987e+002 
4362500000  -2.159230e+001  -1.611542e+002 
4365625000  -2.000521e+001  -1.729227e+002 
4368750000  -2.064175e+001  1.750117e+002 
4371875000  -2.186169e+001  1.754636e+002 
4375000000  -2.152323e+001  1.771743e+002 
4378125000  -2.089206e+001  1.713978e+002 
4381250000  -2.105148e+001  1.656625e+002 
4384375000  -2.087497e+001  1.613550e+002 
4387500000  -2.159035e+001  1.554503e+002 
4390625000  -2.263418e+001  1.562825e+002 
4393750000  -2.194940e+001  1.582070e+002 
4396875000  -2.130716e+001  1.562948e+002 
4400000000  -2.076050e+001  1.492903e+002 
4403125000  -2.134759e+001  1.416187e+002 
4406250000  -2.221762e+001  1.405005e+002 
4409375000  -2.215142e+001  1.381423e+002 
4412500000  -2.316277e+001  1.356083e+002 
4415625000  -2.354211e+001  1.404442e+002 
4418750000  -2.243109e+001  1.449292e+002 
