!Agilent Technologies,E8363B,MY43030201,A.06.04.32
!Agilent E8363B: A.06.04.32
!Date: Tuesday, November 11, 2014 20:49:08
!Correction: S21(Response(S21)) 
!S1P File: Measurement: S21:
# Hz S  dB   R 50
3000000000  -2.651703e+001  1.547526e+002 
3003125000  -2.791916e+001  1.500334e+002 
3006250000  -2.798363e+001  1.474888e+002 
3009375000  -2.829859e+001  1.525243e+002 
3012500000  -2.782222e+001  1.521909e+002 
3015625000  -2.684119e+001  1.451665e+002 
3018750000  -2.769785e+001  1.440935e+002 
3021875000  -2.643159e+001  1.454796e+002 
3025000000  -2.510521e+001  1.425218e+002 
3028125000  -2.414370e+001  1.374272e+002 
3031250000  -2.314427e+001  1.262504e+002 
3034375000  -2.274107e+001  1.132958e+002 
3037500000  -2.309181e+001  1.014833e+002 
3040625000  -2.442598e+001  9.634665e+001 
3043750000  -2.514479e+001  9.215093e+001 
3046875000  -2.523104e+001  8.573870e+001 
3050000000  -2.698792e+001  7.884439e+001 
3053125000  -2.712799e+001  8.531994e+001 
3056250000  -2.646373e+001  8.839797e+001 
3059375000  -2.668503e+001  8.813312e+001 
3062500000  -2.520577e+001  8.383871e+001 
3065625000  -2.502099e+001  7.844240e+001 
3068750000  -2.469876e+001  7.139348e+001 
3071875000  -2.465526e+001  6.837486e+001 
3075000000  -2.464530e+001  6.484784e+001 
3078125000  -2.433791e+001  6.008911e+001 
3081250000  -2.498595e+001  5.612316e+001 
3084375000  -2.424948e+001  5.240096e+001 
3087500000  -2.412052e+001  4.870334e+001 
3090625000  -2.382439e+001  3.925645e+001 
3093750000  -2.426237e+001  3.114082e+001 
3096875000  -2.558970e+001  2.480627e+001 
3100000000  -2.567569e+001  2.360375e+001 
3103125000  -2.606418e+001  2.514907e+001 
3106250000  -2.577667e+001  2.154283e+001 
3109375000  -2.604379e+001  1.803319e+001 
3112500000  -2.616481e+001  1.699252e+001 
3115625000  -2.591634e+001  1.281342e+001 
3118750000  -2.644580e+001  1.408276e+001 
3121875000  -2.578178e+001  6.055398e+000 
3125000000  -2.690963e+001  2.433987e+000 
3128125000  -2.818390e+001  1.043021e+001 
3131250000  -2.598655e+001  1.127364e+001 
3134375000  -2.462228e+001  -2.207091e+000 
3137500000  -2.529531e+001  -1.632924e+001 
3140625000  -2.693081e+001  -1.807740e+001 
3143750000  -2.792134e+001  -1.374706e+001 
3146875000  -2.749809e+001  -1.176670e+001 
3150000000  -2.649991e+001  -9.667342e+000 
3153125000  -2.646352e+001  -1.736218e+001 
3156250000  -2.748238e+001  -1.200408e+001 
3159375000  -2.592300e+001  -9.055980e+000 
3162500000  -2.388331e+001  -2.173753e+001 
3165625000  -2.479866e+001  -3.257564e+001 
3168750000  -2.521347e+001  -3.207328e+001 
3171875000  -2.424152e+001  -3.604112e+001 
3175000000  -2.487330e+001  -4.405065e+001 
3178125000  -2.466451e+001  -4.219674e+001 
3181250000  -2.349901e+001  -4.594053e+001 
3184375000  -2.270046e+001  -5.849434e+001 
3187500000  -2.378462e+001  -7.384004e+001 
3190625000  -2.658240e+001  -8.151580e+001 
3193750000  -2.718041e+001  -7.188226e+001 
3196875000  -2.676466e+001  -6.599356e+001 
3200000000  -2.589650e+001  -6.766625e+001 
3203125000  -2.503286e+001  -7.360223e+001 
3206250000  -2.531653e+001  -7.957156e+001 
3209375000  -2.486930e+001  -8.480838e+001 
3212500000  -2.498615e+001  -9.144842e+001 
3215625000  -2.511418e+001  -9.601924e+001 
3218750000  -2.590124e+001  -1.021051e+002 
3221875000  -2.688695e+001  -1.072757e+002 
3225000000  -2.648345e+001  -1.076194e+002 
3228125000  -2.678953e+001  -1.123503e+002 
3231250000  -2.749646e+001  -1.149092e+002 
3234375000  -2.740116e+001  -1.141999e+002 
3237500000  -2.744279e+001  -1.155302e+002 
3240625000  -2.710348e+001  -1.173110e+002 
3243750000  -2.672881e+001  -1.238262e+002 
3246875000  -2.719691e+001  -1.306292e+002 
3250000000  -2.764245e+001  -1.322791e+002 
3253125000  -2.778818e+001  -1.341521e+002 
3256250000  -2.774905e+001  -1.399661e+002 
3259375000  -2.802715e+001  -1.474875e+002 
3262500000  -2.925713e+001  -1.507087e+002 
3265625000  -2.993630e+001  -1.471348e+002 
3268750000  -2.988976e+001  -1.443316e+002 
3271875000  -2.972859e+001  -1.430861e+002 
3275000000  -2.857256e+001  -1.484046e+002 
3278125000  -2.907213e+001  -1.546040e+002 
3281250000  -2.930149e+001  -1.524421e+002 
3284375000  -2.891098e+001  -1.586651e+002 
3287500000  -2.909101e+001  -1.613724e+002 
3290625000  -2.948117e+001  -1.656586e+002 
3293750000  -2.915311e+001  -1.710204e+002 
3296875000  -3.020226e+001  -1.714001e+002 
3300000000  -3.013035e+001  -1.703424e+002 
3303125000  -2.896551e+001  -1.738772e+002 
3306250000  -2.871550e+001  1.792783e+002 
3309375000  -2.846057e+001  1.743926e+002 
3312500000  -2.847539e+001  1.642424e+002 
3315625000  -2.955085e+001  1.562632e+002 
3318750000  -3.078714e+001  1.537609e+002 
3321875000  -3.202177e+001  1.537388e+002 
3325000000  -3.268881e+001  1.579926e+002 
3328125000  -3.259550e+001  1.607075e+002 
3331250000  -3.134755e+001  1.674804e+002 
3334375000  -2.868148e+001  1.582106e+002 
3337500000  -2.876993e+001  1.395233e+002 
3340625000  -3.010788e+001  1.284973e+002 
3343750000  -3.210657e+001  1.276211e+002 
3346875000  -3.257699e+001  1.290464e+002 
3350000000  -3.192912e+001  1.277750e+002 
3353125000  -3.198590e+001  1.233675e+002 
3356250000  -3.163901e+001  1.158204e+002 
3359375000  -3.256887e+001  1.071326e+002 
3362500000  -3.400244e+001  1.015926e+002 
3365625000  -3.456578e+001  1.004429e+002 
3368750000  -3.550027e+001  9.876456e+001 
3371875000  -3.587121e+001  9.474867e+001 
3375000000  -3.743207e+001  9.412555e+001 
3378125000  -3.870153e+001  9.294539e+001 
3381250000  -4.018246e+001  9.942398e+001 
3384375000  -3.925147e+001  1.221220e+002 
3387500000  -3.611139e+001  1.070807e+002 
3390625000  -3.780949e+001  8.821707e+001 
3393750000  -3.970977e+001  9.256322e+001 
3396875000  -3.881493e+001  9.621475e+001 
3400000000  -3.876827e+001  8.860943e+001 
3403125000  -3.968251e+001  8.442942e+001 
3406250000  -4.061740e+001  8.715829e+001 
3409375000  -4.130178e+001  8.293578e+001 
3412500000  -4.190801e+001  8.474292e+001 
3415625000  -4.295399e+001  9.040204e+001 
3418750000  -4.337178e+001  9.155925e+001 
3421875000  -4.364645e+001  1.018462e+002 
3425000000  -4.309656e+001  1.037663e+002 
3428125000  -4.172591e+001  1.010741e+002 
3431250000  -4.176396e+001  1.002801e+002 
3434375000  -4.150121e+001  9.577134e+001 
3437500000  -4.212784e+001  9.637361e+001 
3440625000  -4.242682e+001  9.823817e+001 
3443750000  -4.088554e+001  1.001428e+002 
3446875000  -4.010583e+001  9.486737e+001 
3450000000  -4.015524e+001  8.643913e+001 
3453125000  -4.026232e+001  7.843951e+001 
3456250000  -4.150246e+001  7.365024e+001 
3459375000  -4.228215e+001  7.445527e+001 
3462500000  -4.281544e+001  7.513050e+001 
3465625000  -4.281874e+001  7.038574e+001 
3468750000  -4.293261e+001  6.916550e+001 
3471875000  -4.327154e+001  7.178167e+001 
3475000000  -4.299298e+001  6.398017e+001 
3478125000  -4.347359e+001  5.953354e+001 
3481250000  -4.453488e+001  5.874309e+001 
3484375000  -4.607316e+001  6.542905e+001 
3487500000  -4.582165e+001  6.780711e+001 
3490625000  -4.521560e+001  6.390483e+001 
3493750000  -4.617528e+001  6.265016e+001 
3496875000  -4.671370e+001  6.421758e+001 
3500000000  -4.789038e+001  7.043046e+001 
3503125000  -4.791345e+001  7.798775e+001 
3506250000  -4.667661e+001  7.709979e+001 
3509375000  -4.710118e+001  7.156079e+001 
3512500000  -4.779025e+001  7.698257e+001 
3515625000  -4.786855e+001  7.785893e+001 
3518750000  -4.867395e+001  8.253548e+001 
3521875000  -4.749110e+001  8.324612e+001 
3525000000  -4.811022e+001  8.606882e+001 
3528125000  -4.770809e+001  9.646887e+001 
3531250000  -4.575788e+001  9.906341e+001 
3534375000  -4.495973e+001  8.933629e+001 
3537500000  -4.512014e+001  8.925157e+001 
3540625000  -4.544162e+001  8.936167e+001 
3543750000  -4.565060e+001  8.849263e+001 
3546875000  -4.521597e+001  1.021030e+002 
3550000000  -4.319828e+001  1.062216e+002 
3553125000  -4.145859e+001  8.996723e+001 
3556250000  -4.228925e+001  8.268989e+001 
3559375000  -4.201423e+001  8.355242e+001 
3562500000  -4.108014e+001  7.688394e+001 
3565625000  -4.180131e+001  6.974438e+001 
3568750000  -4.207417e+001  7.580070e+001 
3571875000  -4.159301e+001  7.670419e+001 
3575000000  -4.101521e+001  6.743380e+001 
3578125000  -4.158832e+001  6.463775e+001 
3581250000  -4.137464e+001  6.493832e+001 
3584375000  -4.080513e+001  6.742654e+001 
3587500000  -3.988097e+001  5.829144e+001 
3590625000  -4.012572e+001  4.853760e+001 
3593750000  -4.135532e+001  4.818512e+001 
3596875000  -4.124245e+001  5.725474e+001 
3600000000  -3.946243e+001  5.387071e+001 
3603125000  -3.970871e+001  4.034054e+001 
3606250000  -4.039933e+001  3.677523e+001 
3609375000  -4.066584e+001  3.710883e+001 
3612500000  -4.120425e+001  3.495076e+001 
3615625000  -4.113872e+001  3.187531e+001 
3618750000  -4.188254e+001  3.494934e+001 
3621875000  -4.137595e+001  3.273497e+001 
3625000000  -4.159370e+001  3.276070e+001 
3628125000  -4.201371e+001  3.309311e+001 
3631250000  -4.132380e+001  2.812957e+001 
3634375000  -4.246535e+001  2.983042e+001 
3637500000  -4.214963e+001  3.603740e+001 
3640625000  -4.101890e+001  3.679079e+001 
3643750000  -4.081945e+001  3.156421e+001 
3646875000  -4.126089e+001  2.458168e+001 
3650000000  -4.179004e+001  2.397326e+001 
3653125000  -4.176081e+001  2.318832e+001 
3656250000  -4.202413e+001  2.302879e+001 
3659375000  -4.237173e+001  2.617177e+001 
3662500000  -4.151610e+001  2.610045e+001 
3665625000  -4.157868e+001  2.803449e+001 
3668750000  -4.065444e+001  2.748561e+001 
3671875000  -3.933959e+001  2.375923e+001 
3675000000  -4.012001e+001  1.836953e+001 
3678125000  -4.056190e+001  1.857427e+001 
3681250000  -3.979417e+001  2.039679e+001 
3684375000  -3.968624e+001  1.747382e+001 
3687500000  -3.995480e+001  1.668284e+001 
3690625000  -3.979071e+001  1.428625e+001 
3693750000  -4.037154e+001  1.694561e+001 
3696875000  -4.032848e+001  1.955866e+001 
3700000000  -3.907906e+001  1.787363e+001 
3703125000  -3.905774e+001  1.465815e+001 
3706250000  -3.938165e+001  1.615776e+001 
3709375000  -3.873093e+001  1.866786e+001 
3712500000  -3.742075e+001  1.927909e+001 
3715625000  -3.652550e+001  1.335385e+001 
3718750000  -3.594575e+001  1.080970e+001 
3721875000  -3.529271e+001  5.726912e+000 
3725000000  -3.530208e+001  -1.524067e-001 
3728125000  -3.539564e+001  4.179275e-001 
3731250000  -3.470860e+001  1.353498e-001 
3734375000  -3.380036e+001  -7.451339e+000 
3737500000  -3.426056e+001  -1.433419e+001 
3740625000  -3.483554e+001  -1.679251e+001 
3743750000  -3.462757e+001  -1.958572e+001 
3746875000  -3.468354e+001  -2.248110e+001 
3750000000  -3.500950e+001  -2.418633e+001 
3753125000  -3.469014e+001  -2.327130e+001 
3756250000  -3.455344e+001  -2.398684e+001 
3759375000  -3.440427e+001  -2.527353e+001 
3762500000  -3.376640e+001  -2.883716e+001 
3765625000  -3.430951e+001  -3.180767e+001 
3768750000  -3.434813e+001  -2.918714e+001 
3771875000  -3.267472e+001  -3.173528e+001 
3775000000  -3.227328e+001  -3.938094e+001 
3778125000  -3.278265e+001  -4.116658e+001 
3781250000  -3.245896e+001  -4.451673e+001 
3784375000  -3.248390e+001  -4.586948e+001 
3787500000  -3.175233e+001  -4.989289e+001 
3790625000  -3.235597e+001  -5.513615e+001 
3793750000  -3.250465e+001  -5.568510e+001 
3796875000  -3.153089e+001  -5.671539e+001 
3800000000  -3.005054e+001  -6.064406e+001 
3803125000  -3.081399e+001  -6.726576e+001 
3806250000  -3.137173e+001  -6.958390e+001 
3809375000  -3.112995e+001  -7.110008e+001 
3812500000  -3.049397e+001  -7.603749e+001 
3815625000  -3.105167e+001  -8.320869e+001 
3818750000  -3.196463e+001  -8.482289e+001 
3821875000  -3.217918e+001  -7.594442e+001 
3825000000  -3.031320e+001  -7.283446e+001 
3828125000  -2.888276e+001  -8.611849e+001 
3831250000  -2.935458e+001  -9.989965e+001 
3834375000  -3.069609e+001  -1.013046e+002 
3837500000  -3.157262e+001  -9.582533e+001 
3840625000  -3.063412e+001  -9.717892e+001 
3843750000  -2.932402e+001  -1.066867e+002 
3846875000  -2.993472e+001  -1.139033e+002 
3850000000  -3.128500e+001  -1.088221e+002 
3853125000  -3.054202e+001  -1.061723e+002 
3856250000  -3.040290e+001  -1.105237e+002 
3859375000  -2.977067e+001  -1.152794e+002 
3862500000  -2.931626e+001  -1.222507e+002 
3865625000  -2.956062e+001  -1.268299e+002 
3868750000  -2.956097e+001  -1.277526e+002 
3871875000  -2.889452e+001  -1.305567e+002 
3875000000  -2.899951e+001  -1.387666e+002 
3878125000  -3.001908e+001  -1.419106e+002 
3881250000  -3.007336e+001  -1.380992e+002 
3884375000  -2.956277e+001  -1.429414e+002 
3887500000  -2.969990e+001  -1.476604e+002 
3890625000  -3.030742e+001  -1.493132e+002 
3893750000  -3.063511e+001  -1.511957e+002 
3896875000  -3.084464e+001  -1.505624e+002 
3900000000  -3.100877e+001  -1.510727e+002 
3903125000  -3.064401e+001  -1.540194e+002 
3906250000  -3.040618e+001  -1.541243e+002 
3909375000  -2.975541e+001  -1.565673e+002 
3912500000  -2.976463e+001  -1.638122e+002 
3915625000  -3.094129e+001  -1.632980e+002 
3918750000  -3.092629e+001  -1.615624e+002 
3921875000  -3.062635e+001  -1.626044e+002 
3925000000  -2.989649e+001  -1.640142e+002 
3928125000  -2.911398e+001  -1.694099e+002 
3931250000  -2.947617e+001  -1.728296e+002 
3934375000  -2.979705e+001  -1.726952e+002 
3937500000  -2.993959e+001  -1.738117e+002 
3940625000  -3.037703e+001  -1.732366e+002 
3943750000  -2.949259e+001  -1.726785e+002 
3946875000  -2.822587e+001  -1.776437e+002 
3950000000  -2.864948e+001  1.750434e+002 
3953125000  -2.958167e+001  1.749545e+002 
3956250000  -2.881708e+001  1.785749e+002 
3959375000  -2.746553e+001  1.750801e+002 
3962500000  -2.688788e+001  1.707332e+002 
3965625000  -2.657413e+001  1.622218e+002 
3968750000  -2.750743e+001  1.553583e+002 
3971875000  -2.785263e+001  1.541203e+002 
3975000000  -2.723259e+001  1.521739e+002 
3978125000  -2.703218e+001  1.503659e+002 
3981250000  -2.675138e+001  1.461733e+002 
3984375000  -2.703826e+001  1.400745e+002 
3987500000  -2.751728e+001  1.376437e+002 
3990625000  -2.751480e+001  1.368270e+002 
3993750000  -2.765375e+001  1.334767e+002 
3996875000  -2.764570e+001  1.309909e+002 
4000000000  -2.775856e+001  1.291133e+002 
4003125000  -2.843093e+001  1.313307e+002 
4006250000  -2.701627e+001  1.319808e+002 
4009375000  -2.578276e+001  1.192232e+002 
4012500000  -2.677582e+001  1.122481e+002 
4015625000  -2.809433e+001  1.127381e+002 
4018750000  -2.829816e+001  1.153287e+002 
4021875000  -2.758631e+001  1.134951e+002 
4025000000  -2.727731e+001  1.085747e+002 
4028125000  -2.715989e+001  1.046996e+002 
4031250000  -2.763848e+001  1.013508e+002 
4034375000  -2.797304e+001  1.014140e+002 
4037500000  -2.748573e+001  1.031999e+002 
4040625000  -2.731407e+001  1.001543e+002 
4043750000  -2.766443e+001  9.948070e+001 
4046875000  -2.727301e+001  9.912681e+001 
4050000000  -2.675118e+001  9.336777e+001 
4053125000  -2.722621e+001  9.161829e+001 
4056250000  -2.778511e+001  9.540866e+001 
4059375000  -2.665561e+001  9.779444e+001 
4062500000  -2.525741e+001  9.312386e+001 
4065625000  -2.503158e+001  8.823009e+001 
4068750000  -2.478365e+001  8.411686e+001 
4071875000  -2.417038e+001  7.604008e+001 
4075000000  -2.452476e+001  6.936663e+001 
4078125000  -2.510241e+001  6.832075e+001 
4081250000  -2.456981e+001  6.621880e+001 
4084375000  -2.414562e+001  5.969949e+001 
4087500000  -2.454274e+001  5.333862e+001 
4090625000  -2.510254e+001  5.197301e+001 
4093750000  -2.498154e+001  5.280622e+001 
4096875000  -2.447768e+001  4.713878e+001 
4100000000  -2.514163e+001  3.991763e+001 
4103125000  -2.608442e+001  4.051671e+001 
4106250000  -2.594799e+001  4.507450e+001 
4109375000  -2.500978e+001  4.458290e+001 
4112500000  -2.445848e+001  3.851248e+001 
4115625000  -2.480350e+001  3.379344e+001 
4118750000  -2.490036e+001  3.110622e+001 
4121875000  -2.450638e+001  2.629471e+001 
4125000000  -2.483475e+001  2.135700e+001 
4128125000  -2.582996e+001  2.108241e+001 
4131250000  -2.563306e+001  2.943514e+001 
4134375000  -2.331932e+001  2.505986e+001 
4137500000  -2.308921e+001  6.442930e+000 
4140625000  -2.515325e+001  -1.015092e+000 
4143750000  -2.658298e+001  4.040635e+000 
4146875000  -2.618744e+001  1.158221e+001 
4150000000  -2.529641e+001  8.288740e+000 
4153125000  -2.503950e+001  2.099431e+000 
4156250000  -2.600215e+001  -9.313613e-001 
4159375000  -2.627583e+001  3.623393e+000 
4162500000  -2.512541e+001  8.227008e+000 
4165625000  -2.398688e+001  3.818716e+000 
4168750000  -2.339718e+001  -3.178563e+000 
4171875000  -2.335603e+001  -1.240240e+001 
4175000000  -2.396576e+001  -1.802325e+001 
4178125000  -2.455181e+001  -1.805190e+001 
4181250000  -2.444879e+001  -1.854576e+001 
4184375000  -2.431066e+001  -2.185113e+001 
4187500000  -2.436229e+001  -2.441354e+001 
4190625000  -2.413285e+001  -2.987834e+001 
4193750000  -2.490810e+001  -3.375155e+001 
4196875000  -2.564656e+001  -3.405324e+001 
4200000000  -2.644881e+001  -3.227003e+001 
4203125000  -2.658259e+001  -1.910226e+001 
4206250000  -2.322113e+001  -1.724530e+001 
4209375000  -2.198926e+001  -3.711578e+001 
4212500000  -2.384700e+001  -4.598006e+001 
4215625000  -2.490695e+001  -4.060545e+001 
4218750000  -2.361385e+001  -3.365624e+001 
4221875000  -2.132163e+001  -4.263939e+001 
4225000000  -2.248994e+001  -5.517441e+001 
4228125000  -2.317992e+001  -5.001070e+001 
4231250000  -2.165691e+001  -5.369605e+001 
4234375000  -2.160521e+001  -6.185439e+001 
4237500000  -2.119778e+001  -6.538999e+001 
4240625000  -2.118242e+001  -7.360648e+001 
4243750000  -2.212021e+001  -8.038515e+001 
4246875000  -2.298751e+001  -8.068011e+001 
4250000000  -2.306336e+001  -7.789324e+001 
4253125000  -2.249399e+001  -7.997532e+001 
4256250000  -2.274386e+001  -8.400028e+001 
4259375000  -2.253985e+001  -8.558235e+001 
4262500000  -2.251978e+001  -8.969252e+001 
4265625000  -2.266710e+001  -8.919906e+001 
4268750000  -2.185456e+001  -9.318797e+001 
4271875000  -2.156889e+001  -9.886759e+001 
4275000000  -2.097909e+001  -1.054068e+002 
4278125000  -2.157906e+001  -1.168364e+002 
4281250000  -2.338694e+001  -1.186617e+002 
4284375000  -2.310173e+001  -1.175168e+002 
4287500000  -2.382210e+001  -1.213009e+002 
4290625000  -2.514656e+001  -1.120202e+002 
4293750000  -2.315063e+001  -1.062742e+002 
4296875000  -2.176566e+001  -1.175707e+002 
4300000000  -2.260588e+001  -1.267349e+002 
4303125000  -2.374704e+001  -1.258887e+002 
4306250000  -2.322409e+001  -1.196221e+002 
4309375000  -2.180566e+001  -1.214010e+002 
4312500000  -2.170551e+001  -1.297988e+002 
4315625000  -2.190066e+001  -1.359782e+002 
4318750000  -2.221621e+001  -1.391798e+002 
4321875000  -2.236134e+001  -1.387949e+002 
4325000000  -2.183283e+001  -1.379711e+002 
4328125000  -2.132111e+001  -1.444602e+002 
4331250000  -2.123500e+001  -1.524225e+002 
4334375000  -2.167156e+001  -1.573664e+002 
4337500000  -2.245843e+001  -1.596493e+002 
4340625000  -2.304134e+001  -1.565935e+002 
4343750000  -2.250154e+001  -1.559871e+002 
4346875000  -2.205029e+001  -1.614326e+002 
4350000000  -2.208258e+001  -1.661842e+002 
4353125000  -2.209149e+001  -1.738026e+002 
4356250000  -2.385244e+001  -1.747882e+002 
4359375000  -2.454931e+001  -1.622608e+002 
4362500000  -2.187907e+001  -1.592278e+002 
4365625000  -2.018722e+001  -1.712031e+002 
4368750000  -2.086256e+001  1.770285e+002 
4371875000  -2.209497e+001  1.774738e+002 
4375000000  -2.182776e+001  1.785248e+002 
4378125000  -2.114349e+001  1.726801e+002 
4381250000  -2.130655e+001  1.672212e+002 
4384375000  -2.114792e+001  1.629444e+002 
4387500000  -2.180544e+001  1.571191e+002 
4390625000  -2.290646e+001  1.579544e+002 
4393750000  -2.224119e+001  1.601446e+002 
4396875000  -2.154688e+001  1.579720e+002 
4400000000  -2.102654e+001  1.509545e+002 
4403125000  -2.159570e+001  1.436361e+002 
4406250000  -2.246095e+001  1.419224e+002 
4409375000  -2.243963e+001  1.398265e+002 
4412500000  -2.344264e+001  1.371565e+002 
4415625000  -2.386490e+001  1.418124e+002 
4418750000  -2.264746e+001  1.465300e+002 
