!Agilent Technologies,E8363B,MY43030201,A.06.04.32
!Agilent E8363B: A.06.04.32
!Date: Tuesday, November 11, 2014 20:50:03
!Correction: S21(Response(S21)) 
!S1P File: Measurement: S21:
# Hz S  dB   R 50
3000000000  -2.656308e+001  1.534946e+002 
3003125000  -2.793353e+001  1.490872e+002 
3006250000  -2.800544e+001  1.461658e+002 
3009375000  -2.837663e+001  1.509770e+002 
3012500000  -2.780284e+001  1.507906e+002 
3015625000  -2.689121e+001  1.436692e+002 
3018750000  -2.771375e+001  1.427078e+002 
3021875000  -2.648855e+001  1.442376e+002 
3025000000  -2.513077e+001  1.411759e+002 
3028125000  -2.416622e+001  1.361250e+002 
3031250000  -2.314323e+001  1.249273e+002 
3034375000  -2.277998e+001  1.119010e+002 
3037500000  -2.312584e+001  9.994272e+001 
3040625000  -2.446026e+001  9.499678e+001 
3043750000  -2.518609e+001  9.064644e+001 
3046875000  -2.530492e+001  8.435377e+001 
3050000000  -2.703834e+001  7.733083e+001 
3053125000  -2.713995e+001  8.384697e+001 
3056250000  -2.645583e+001  8.701373e+001 
3059375000  -2.676212e+001  8.658705e+001 
3062500000  -2.524308e+001  8.264146e+001 
3065625000  -2.499722e+001  7.711228e+001 
3068750000  -2.472789e+001  7.003866e+001 
3071875000  -2.468418e+001  6.706758e+001 
3075000000  -2.467127e+001  6.332396e+001 
3078125000  -2.439059e+001  5.886205e+001 
3081250000  -2.502654e+001  5.459674e+001 
3084375000  -2.425695e+001  5.101231e+001 
3087500000  -2.413970e+001  4.730243e+001 
3090625000  -2.386006e+001  3.782646e+001 
3093750000  -2.429041e+001  2.958743e+001 
3096875000  -2.557847e+001  2.364168e+001 
3100000000  -2.573345e+001  2.224447e+001 
3103125000  -2.605647e+001  2.382412e+001 
3106250000  -2.583238e+001  2.025080e+001 
3109375000  -2.608828e+001  1.672268e+001 
3112500000  -2.617152e+001  1.556366e+001 
3115625000  -2.598736e+001  1.154526e+001 
3118750000  -2.642219e+001  1.259448e+001 
3121875000  -2.578969e+001  4.777668e+000 
3125000000  -2.692368e+001  1.258245e+000 
3128125000  -2.820443e+001  8.953570e+000 
3131250000  -2.596705e+001  9.618044e+000 
3134375000  -2.465987e+001  -3.758689e+000 
3137500000  -2.526885e+001  -1.797305e+001 
3140625000  -2.692316e+001  -1.915493e+001 
3143750000  -2.793888e+001  -1.488737e+001 
3146875000  -2.751314e+001  -1.339515e+001 
3150000000  -2.648867e+001  -1.081916e+001 
3153125000  -2.647525e+001  -1.889606e+001 
3156250000  -2.746789e+001  -1.350313e+001 
3159375000  -2.592484e+001  -1.044308e+001 
3162500000  -2.387078e+001  -2.328926e+001 
3165625000  -2.480567e+001  -3.425883e+001 
3168750000  -2.519312e+001  -3.310273e+001 
3171875000  -2.428266e+001  -3.754428e+001 
3175000000  -2.488582e+001  -4.519316e+001 
3178125000  -2.468720e+001  -4.364848e+001 
3181250000  -2.350550e+001  -4.752388e+001 
3184375000  -2.271960e+001  -5.984259e+001 
3187500000  -2.382079e+001  -7.508610e+001 
3190625000  -2.659600e+001  -8.244090e+001 
3193750000  -2.723566e+001  -7.293101e+001 
3196875000  -2.680000e+001  -6.776043e+001 
3200000000  -2.591964e+001  -6.922947e+001 
3203125000  -2.507150e+001  -7.494537e+001 
3206250000  -2.532770e+001  -8.136370e+001 
3209375000  -2.484245e+001  -8.629265e+001 
3212500000  -2.499870e+001  -9.302432e+001 
3215625000  -2.512706e+001  -9.729548e+001 
3218750000  -2.586967e+001  -1.036183e+002 
3221875000  -2.689325e+001  -1.085405e+002 
3225000000  -2.647590e+001  -1.091447e+002 
3228125000  -2.676499e+001  -1.137569e+002 
3231250000  -2.753663e+001  -1.163750e+002 
3234375000  -2.740588e+001  -1.155052e+002 
3237500000  -2.741516e+001  -1.168803e+002 
3240625000  -2.709620e+001  -1.188375e+002 
3243750000  -2.667676e+001  -1.254373e+002 
3246875000  -2.724230e+001  -1.318518e+002 
3250000000  -2.768069e+001  -1.335860e+002 
3253125000  -2.785749e+001  -1.353336e+002 
3256250000  -2.763742e+001  -1.414142e+002 
3259375000  -2.803080e+001  -1.489007e+002 
3262500000  -2.923619e+001  -1.523527e+002 
3265625000  -2.995166e+001  -1.484286e+002 
3268750000  -2.990637e+001  -1.460336e+002 
3271875000  -2.967884e+001  -1.445226e+002 
3275000000  -2.859918e+001  -1.497062e+002 
3278125000  -2.904795e+001  -1.563080e+002 
3281250000  -2.933370e+001  -1.540300e+002 
3284375000  -2.892219e+001  -1.600896e+002 
3287500000  -2.908278e+001  -1.628985e+002 
3290625000  -2.941989e+001  -1.669912e+002 
3293750000  -2.913573e+001  -1.728512e+002 
3296875000  -3.009521e+001  -1.726361e+002 
3300000000  -3.008194e+001  -1.713896e+002 
3303125000  -2.892498e+001  -1.753903e+002 
3306250000  -2.867341e+001  1.778383e+002 
3309375000  -2.847094e+001  1.726406e+002 
3312500000  -2.853124e+001  1.627693e+002 
3315625000  -2.950284e+001  1.544126e+002 
3318750000  -3.096501e+001  1.522293e+002 
3321875000  -3.204692e+001  1.516992e+002 
3325000000  -3.262432e+001  1.571895e+002 
3328125000  -3.248525e+001  1.586890e+002 
3331250000  -3.124748e+001  1.661511e+002 
3334375000  -2.867240e+001  1.566301e+002 
3337500000  -2.868921e+001  1.385796e+002 
3340625000  -3.012587e+001  1.276480e+002 
3343750000  -3.198145e+001  1.262313e+002 
3346875000  -3.248949e+001  1.277420e+002 
3350000000  -3.184885e+001  1.263113e+002 
3353125000  -3.197693e+001  1.220051e+002 
3356250000  -3.176207e+001  1.145644e+002 
3359375000  -3.259472e+001  1.060958e+002 
3362500000  -3.375861e+001  1.003997e+002 
3365625000  -3.456320e+001  9.903387e+001 
3368750000  -3.547140e+001  9.743288e+001 
3371875000  -3.581094e+001  9.438580e+001 
3375000000  -3.731257e+001  9.242699e+001 
3378125000  -3.848560e+001  9.189472e+001 
3381250000  -3.998888e+001  9.979790e+001 
3384375000  -3.903829e+001  1.197992e+002 
3387500000  -3.590857e+001  1.074359e+002 
3390625000  -3.769798e+001  8.803513e+001 
3393750000  -3.970544e+001  9.166284e+001 
3396875000  -3.867941e+001  9.493029e+001 
3400000000  -3.859883e+001  8.868434e+001 
3403125000  -3.974841e+001  8.353742e+001 
3406250000  -4.041502e+001  8.595955e+001 
3409375000  -4.136118e+001  8.063802e+001 
3412500000  -4.207991e+001  8.295939e+001 
3415625000  -4.251483e+001  8.822413e+001 
3418750000  -4.298466e+001  9.101108e+001 
3421875000  -4.353825e+001  9.861826e+001 
3425000000  -4.234291e+001  1.024221e+002 
3428125000  -4.158613e+001  1.005799e+002 
3431250000  -4.162086e+001  9.739507e+001 
3434375000  -4.131294e+001  9.534870e+001 
3437500000  -4.190548e+001  9.247536e+001 
3440625000  -4.223234e+001  9.518059e+001 
3443750000  -4.086979e+001  9.636658e+001 
3446875000  -3.988010e+001  9.261058e+001 
3450000000  -3.994321e+001  8.279839e+001 
3453125000  -4.015967e+001  7.501645e+001 
3456250000  -4.131456e+001  6.950645e+001 
3459375000  -4.233567e+001  7.214027e+001 
3462500000  -4.238195e+001  7.136845e+001 
3465625000  -4.249593e+001  7.100430e+001 
3468750000  -4.289935e+001  6.527926e+001 
3471875000  -4.323285e+001  6.878789e+001 
3475000000  -4.277423e+001  6.239320e+001 
3478125000  -4.368461e+001  5.689511e+001 
3481250000  -4.499202e+001  5.683795e+001 
3484375000  -4.595637e+001  6.157528e+001 
3487500000  -4.598868e+001  6.534216e+001 
3490625000  -4.514026e+001  6.154945e+001 
3493750000  -4.614347e+001  5.693791e+001 
3496875000  -4.670392e+001  5.919823e+001 
3500000000  -4.848621e+001  6.816795e+001 
3503125000  -4.795114e+001  7.018788e+001 
3506250000  -4.626154e+001  7.445584e+001 
3509375000  -4.708366e+001  7.088412e+001 
3512500000  -4.786940e+001  6.758272e+001 
3515625000  -4.774461e+001  7.354743e+001 
3518750000  -4.854323e+001  8.110866e+001 
3521875000  -4.839021e+001  8.254594e+001 
3525000000  -4.796841e+001  8.300651e+001 
3528125000  -4.763107e+001  9.509609e+001 
3531250000  -4.579463e+001  9.436209e+001 
3534375000  -4.536042e+001  8.665381e+001 
3537500000  -4.516346e+001  8.331937e+001 
3540625000  -4.590672e+001  8.519260e+001 
3543750000  -4.589232e+001  8.701612e+001 
3546875000  -4.548305e+001  9.840773e+001 
3550000000  -4.287835e+001  1.026395e+002 
3553125000  -4.167603e+001  8.598256e+001 
3556250000  -4.244938e+001  7.914075e+001 
3559375000  -4.208968e+001  8.364704e+001 
3562500000  -4.093018e+001  7.587459e+001 
3565625000  -4.173319e+001  6.947672e+001 
3568750000  -4.209029e+001  7.153516e+001 
3571875000  -4.163087e+001  7.167115e+001 
3575000000  -4.099550e+001  6.715665e+001 
3578125000  -4.181746e+001  6.427118e+001 
3581250000  -4.166923e+001  6.289811e+001 
3584375000  -4.075935e+001  6.189927e+001 
3587500000  -4.004574e+001  5.502926e+001 
3590625000  -4.024424e+001  4.840916e+001 
3593750000  -4.151044e+001  4.611311e+001 
3596875000  -4.153434e+001  5.572454e+001 
3600000000  -3.983986e+001  5.012312e+001 
3603125000  -4.004127e+001  3.851894e+001 
3606250000  -4.043448e+001  3.642596e+001 
3609375000  -4.090991e+001  3.684548e+001 
3612500000  -4.154408e+001  3.260169e+001 
3615625000  -4.158965e+001  3.125344e+001 
3618750000  -4.180723e+001  3.318102e+001 
3621875000  -4.157161e+001  3.119051e+001 
3625000000  -4.189583e+001  3.044927e+001 
3628125000  -4.186620e+001  3.120693e+001 
3631250000  -4.149129e+001  2.678841e+001 
3634375000  -4.254945e+001  2.829302e+001 
3637500000  -4.219435e+001  3.325204e+001 
3640625000  -4.108099e+001  3.458126e+001 
3643750000  -4.060085e+001  2.789629e+001 
3646875000  -4.111341e+001  2.360537e+001 
3650000000  -4.188279e+001  2.344007e+001 
3653125000  -4.134863e+001  2.254705e+001 
3656250000  -4.181595e+001  2.192510e+001 
3659375000  -4.207374e+001  2.674487e+001 
3662500000  -4.150171e+001  2.354527e+001 
3665625000  -4.151627e+001  2.512257e+001 
3668750000  -4.039531e+001  2.568926e+001 
3671875000  -3.948315e+001  2.255955e+001 
3675000000  -4.013091e+001  1.551558e+001 
3678125000  -4.077966e+001  1.814885e+001 
3681250000  -3.986021e+001  1.830738e+001 
3684375000  -3.988498e+001  1.655779e+001 
3687500000  -3.989026e+001  1.444265e+001 
3690625000  -3.993572e+001  1.221473e+001 
3693750000  -4.033564e+001  1.386496e+001 
3696875000  -4.022778e+001  1.892342e+001 
3700000000  -3.905995e+001  1.614590e+001 
3703125000  -3.902731e+001  1.294634e+001 
3706250000  -3.944303e+001  1.572011e+001 
3709375000  -3.880936e+001  1.750700e+001 
3712500000  -3.761699e+001  1.779240e+001 
3715625000  -3.661863e+001  1.282246e+001 
3718750000  -3.575208e+001  9.736193e+000 
3721875000  -3.546360e+001  4.005451e+000 
3725000000  -3.548323e+001  -4.027728e-001 
3728125000  -3.543449e+001  -1.780786e+000 
3731250000  -3.475243e+001  -2.521955e+000 
3734375000  -3.367936e+001  -8.802748e+000 
3737500000  -3.429693e+001  -1.507558e+001 
3740625000  -3.503366e+001  -1.804180e+001 
3743750000  -3.468574e+001  -2.073981e+001 
3746875000  -3.479271e+001  -2.437298e+001 
3750000000  -3.518739e+001  -2.464085e+001 
3753125000  -3.465752e+001  -2.581275e+001 
3756250000  -3.464231e+001  -2.661091e+001 
3759375000  -3.446616e+001  -2.635275e+001 
3762500000  -3.394347e+001  -3.108213e+001 
3765625000  -3.438060e+001  -3.398230e+001 
3768750000  -3.427245e+001  -3.109659e+001 
3771875000  -3.266666e+001  -3.277954e+001 
3775000000  -3.230407e+001  -4.087014e+001 
3778125000  -3.268131e+001  -4.266198e+001 
3781250000  -3.255240e+001  -4.571527e+001 
3784375000  -3.251274e+001  -4.784330e+001 
3787500000  -3.178362e+001  -5.099105e+001 
3790625000  -3.241412e+001  -5.733141e+001 
3793750000  -3.260349e+001  -5.705931e+001 
3796875000  -3.161651e+001  -5.891993e+001 
3800000000  -3.008085e+001  -6.242531e+001 
3803125000  -3.076902e+001  -6.917281e+001 
3806250000  -3.150523e+001  -7.188696e+001 
3809375000  -3.117504e+001  -7.264948e+001 
3812500000  -3.050544e+001  -7.777702e+001 
3815625000  -3.106819e+001  -8.529411e+001 
3818750000  -3.212089e+001  -8.673536e+001 
3821875000  -3.214599e+001  -7.736928e+001 
3825000000  -3.028962e+001  -7.375257e+001 
3828125000  -2.885283e+001  -8.749532e+001 
3831250000  -2.937086e+001  -1.021759e+002 
3834375000  -3.076510e+001  -1.026261e+002 
3837500000  -3.166105e+001  -9.780524e+001 
3840625000  -3.051419e+001  -9.853566e+001 
3843750000  -2.936433e+001  -1.081562e+002 
3846875000  -2.998915e+001  -1.157685e+002 
3850000000  -3.135831e+001  -1.100676e+002 
3853125000  -3.058310e+001  -1.069251e+002 
3856250000  -3.043976e+001  -1.118765e+002 
3859375000  -2.986294e+001  -1.166913e+002 
3862500000  -2.927363e+001  -1.235064e+002 
3865625000  -2.965797e+001  -1.289065e+002 
3868750000  -2.960450e+001  -1.291866e+002 
3871875000  -2.891850e+001  -1.319736e+002 
3875000000  -2.906597e+001  -1.406149e+002 
3878125000  -3.007312e+001  -1.428593e+002 
3881250000  -3.018805e+001  -1.401451e+002 
3884375000  -2.963627e+001  -1.446812e+002 
3887500000  -2.976310e+001  -1.489104e+002 
3890625000  -3.025336e+001  -1.507060e+002 
3893750000  -3.070252e+001  -1.524801e+002 
3896875000  -3.076019e+001  -1.520170e+002 
3900000000  -3.111819e+001  -1.521632e+002 
3903125000  -3.072379e+001  -1.545992e+002 
3906250000  -3.041417e+001  -1.558031e+002 
3909375000  -2.978361e+001  -1.585476e+002 
3912500000  -2.972321e+001  -1.657608e+002 
3915625000  -3.090256e+001  -1.643446e+002 
3918750000  -3.113683e+001  -1.629281e+002 
3921875000  -3.070282e+001  -1.648953e+002 
3925000000  -2.990390e+001  -1.651983e+002 
3928125000  -2.914555e+001  -1.707510e+002 
3931250000  -2.954156e+001  -1.751084e+002 
3934375000  -2.977837e+001  -1.747993e+002 
3937500000  -2.994600e+001  -1.756646e+002 
3940625000  -3.046239e+001  -1.748627e+002 
3943750000  -2.955599e+001  -1.734337e+002 
3946875000  -2.821701e+001  -1.788930e+002 
3950000000  -2.875251e+001  1.737103e+002 
3953125000  -2.970797e+001  1.741800e+002 
3956250000  -2.885980e+001  1.763279e+002 
3959375000  -2.748304e+001  1.735516e+002 
3962500000  -2.702595e+001  1.695714e+002 
3965625000  -2.663121e+001  1.611695e+002 
3968750000  -2.755079e+001  1.543814e+002 
3971875000  -2.783560e+001  1.528426e+002 
3975000000  -2.722741e+001  1.507091e+002 
3978125000  -2.703185e+001  1.493936e+002 
3981250000  -2.677272e+001  1.450542e+002 
3984375000  -2.704199e+001  1.388392e+002 
3987500000  -2.753615e+001  1.362262e+002 
3990625000  -2.757844e+001  1.355985e+002 
3993750000  -2.777626e+001  1.324538e+002 
3996875000  -2.761613e+001  1.295859e+002 
4000000000  -2.780069e+001  1.281241e+002 
4003125000  -2.840527e+001  1.297431e+002 
4006250000  -2.703930e+001  1.306600e+002 
4009375000  -2.579915e+001  1.180796e+002 
4012500000  -2.682813e+001  1.111720e+002 
4015625000  -2.804774e+001  1.113975e+002 
4018750000  -2.825089e+001  1.136790e+002 
4021875000  -2.763992e+001  1.120907e+002 
4025000000  -2.720008e+001  1.074177e+002 
4028125000  -2.721903e+001  1.037943e+002 
4031250000  -2.760171e+001  1.005381e+002 
4034375000  -2.790958e+001  1.006453e+002 
4037500000  -2.742640e+001  1.020786e+002 
4040625000  -2.733468e+001  9.848692e+001 
4043750000  -2.769813e+001  9.854885e+001 
4046875000  -2.725722e+001  9.806555e+001 
4050000000  -2.672735e+001  9.267024e+001 
4053125000  -2.719482e+001  9.020255e+001 
4056250000  -2.778994e+001  9.446522e+001 
4059375000  -2.664569e+001  9.661746e+001 
4062500000  -2.523221e+001  9.176563e+001 
4065625000  -2.512627e+001  8.738573e+001 
4068750000  -2.479614e+001  8.263372e+001 
4071875000  -2.416700e+001  7.495470e+001 
4075000000  -2.452204e+001  6.854232e+001 
4078125000  -2.502792e+001  6.787301e+001 
4081250000  -2.451984e+001  6.522369e+001 
4084375000  -2.414530e+001  5.874932e+001 
4087500000  -2.445587e+001  5.204950e+001 
4090625000  -2.507617e+001  5.134093e+001 
4093750000  -2.491359e+001  5.212601e+001 
4096875000  -2.441638e+001  4.603393e+001 
4100000000  -2.510717e+001  3.913963e+001 
4103125000  -2.600312e+001  3.981285e+001 
4106250000  -2.587345e+001  4.439347e+001 
4109375000  -2.501194e+001  4.383870e+001 
4112500000  -2.445170e+001  3.726442e+001 
4115625000  -2.475727e+001  3.293011e+001 
4118750000  -2.483118e+001  3.035922e+001 
4121875000  -2.450435e+001  2.542895e+001 
4125000000  -2.481891e+001  2.020663e+001 
4128125000  -2.582611e+001  2.032464e+001 
4131250000  -2.555967e+001  2.867121e+001 
4134375000  -2.324793e+001  2.411712e+001 
4137500000  -2.297972e+001  5.367561e+000 
4140625000  -2.510299e+001  -1.561502e+000 
4143750000  -2.645805e+001  2.754332e+000 
4146875000  -2.610689e+001  9.904667e+000 
4150000000  -2.517034e+001  7.118919e+000 
4153125000  -2.502745e+001  9.177853e-001 
4156250000  -2.587914e+001  -2.111862e+000 
4159375000  -2.618007e+001  2.626061e+000 
4162500000  -2.500208e+001  7.083152e+000 
4165625000  -2.389788e+001  2.631428e+000 
4168750000  -2.327440e+001  -4.010511e+000 
4171875000  -2.327949e+001  -1.339991e+001 
4175000000  -2.387218e+001  -1.895781e+001 
4178125000  -2.449529e+001  -1.891463e+001 
4181250000  -2.437150e+001  -1.957799e+001 
4184375000  -2.421056e+001  -2.289313e+001 
4187500000  -2.423812e+001  -2.557149e+001 
4190625000  -2.400648e+001  -3.092057e+001 
4193750000  -2.478088e+001  -3.483505e+001 
4196875000  -2.552084e+001  -3.510350e+001 
4200000000  -2.637777e+001  -3.303347e+001 
4203125000  -2.645724e+001  -1.972539e+001 
4206250000  -2.311950e+001  -1.799020e+001 
4209375000  -2.184073e+001  -3.836209e+001 
4212500000  -2.376070e+001  -4.744159e+001 
4215625000  -2.475266e+001  -4.122953e+001 
4218750000  -2.344536e+001  -3.414904e+001 
4221875000  -2.112139e+001  -4.325240e+001 
4225000000  -2.234593e+001  -5.623043e+001 
4228125000  -2.307310e+001  -5.059419e+001 
4231250000  -2.150764e+001  -5.465796e+001 
4234375000  -2.141568e+001  -6.299953e+001 
4237500000  -2.101925e+001  -6.627270e+001 
4240625000  -2.099082e+001  -7.472141e+001 
4243750000  -2.196700e+001  -8.146991e+001 
4246875000  -2.282463e+001  -8.162527e+001 
4250000000  -2.286815e+001  -7.890269e+001 
4253125000  -2.230853e+001  -8.059062e+001 
4256250000  -2.258720e+001  -8.477419e+001 
4259375000  -2.235550e+001  -8.709709e+001 
4262500000  -2.234028e+001  -9.053609e+001 
4265625000  -2.250723e+001  -9.038885e+001 
4268750000  -2.167306e+001  -9.431263e+001 
4271875000  -2.142510e+001  -9.976543e+001 
4275000000  -2.079866e+001  -1.065182e+002 
4278125000  -2.141338e+001  -1.177472e+002 
4281250000  -2.316880e+001  -1.198227e+002 
4284375000  -2.287315e+001  -1.189115e+002 
4287500000  -2.362236e+001  -1.229245e+002 
4290625000  -2.495988e+001  -1.133454e+002 
4293750000  -2.300753e+001  -1.077326e+002 
4296875000  -2.162123e+001  -1.190514e+002 
4300000000  -2.241641e+001  -1.280470e+002 
4303125000  -2.362332e+001  -1.268325e+002 
4306250000  -2.302476e+001  -1.208749e+002 
4309375000  -2.161241e+001  -1.229100e+002 
4312500000  -2.145861e+001  -1.313601e+002 
4315625000  -2.170744e+001  -1.373665e+002 
4318750000  -2.200293e+001  -1.407731e+002 
4321875000  -2.220388e+001  -1.402963e+002 
4325000000  -2.161455e+001  -1.395164e+002 
4328125000  -2.110966e+001  -1.457168e+002 
4331250000  -2.103190e+001  -1.538298e+002 
4334375000  -2.146965e+001  -1.588842e+002 
4337500000  -2.225751e+001  -1.611364e+002 
4340625000  -2.280441e+001  -1.580185e+002 
4343750000  -2.221099e+001  -1.573430e+002 
4346875000  -2.185569e+001  -1.628714e+002 
4350000000  -2.181938e+001  -1.674427e+002 
4353125000  -2.189317e+001  -1.750686e+002 
4356250000  -2.355384e+001  -1.760766e+002 
4359375000  -2.424945e+001  -1.633905e+002 
4362500000  -2.159753e+001  -1.608962e+002 
4365625000  -1.997717e+001  -1.727589e+002 
4368750000  -2.065107e+001  1.752443e+002 
4371875000  -2.189345e+001  1.757114e+002 
4375000000  -2.153518e+001  1.770673e+002 
4378125000  -2.089891e+001  1.711807e+002 
4381250000  -2.106395e+001  1.656567e+002 
4384375000  -2.087874e+001  1.612715e+002 
4387500000  -2.157660e+001  1.555509e+002 
4390625000  -2.259699e+001  1.564395e+002 
4393750000  -2.197048e+001  1.582547e+002 
4396875000  -2.128737e+001  1.562012e+002 
4400000000  -2.076842e+001  1.494374e+002 
4403125000  -2.134499e+001  1.416504e+002 
4406250000  -2.220862e+001  1.403697e+002 
4409375000  -2.214180e+001  1.379406e+002 
4412500000  -2.315669e+001  1.352909e+002 
4415625000  -2.356862e+001  1.400844e+002 
4418750000  -2.240808e+001  1.445804e+002 
