!Agilent Technologies,E8363B,MY43030201,A.06.04.32
!Agilent E8363B: A.06.04.32
!Date: Tuesday, November 11, 2014 20:58:01
!Correction: S21(Response(S21)) 
!S1P File: Measurement: S21:
# Hz S  dB   R 50
3000000000  -2.650489e+001  1.466384e+002 
3003125000  -2.790391e+001  1.420890e+002 
3006250000  -2.798980e+001  1.395666e+002 
3009375000  -2.833904e+001  1.446115e+002 
3012500000  -2.773205e+001  1.437964e+002 
3015625000  -2.689958e+001  1.370803e+002 
3018750000  -2.770626e+001  1.361772e+002 
3021875000  -2.639820e+001  1.378186e+002 
3025000000  -2.508519e+001  1.344976e+002 
3028125000  -2.412965e+001  1.291792e+002 
3031250000  -2.306660e+001  1.179981e+002 
3034375000  -2.272805e+001  1.050102e+002 
3037500000  -2.312877e+001  9.303960e+001 
3040625000  -2.446382e+001  8.812122e+001 
3043750000  -2.518296e+001  8.368806e+001 
3046875000  -2.534172e+001  7.779389e+001 
3050000000  -2.700089e+001  7.072232e+001 
3053125000  -2.707914e+001  7.742712e+001 
3056250000  -2.647414e+001  8.046739e+001 
3059375000  -2.664895e+001  8.008189e+001 
3062500000  -2.519207e+001  7.588460e+001 
3065625000  -2.495054e+001  7.032644e+001 
3068750000  -2.467371e+001  6.331799e+001 
3071875000  -2.464125e+001  6.060459e+001 
3075000000  -2.455823e+001  5.644556e+001 
3078125000  -2.432444e+001  5.183648e+001 
3081250000  -2.496370e+001  4.770541e+001 
3084375000  -2.418453e+001  4.412945e+001 
3087500000  -2.409341e+001  4.014159e+001 
3090625000  -2.380075e+001  3.039112e+001 
3093750000  -2.432231e+001  2.253311e+001 
3096875000  -2.554296e+001  1.680264e+001 
3100000000  -2.563703e+001  1.546093e+001 
3103125000  -2.602807e+001  1.675344e+001 
3106250000  -2.576546e+001  1.350736e+001 
3109375000  -2.600682e+001  9.552348e+000 
3112500000  -2.614169e+001  8.558825e+000 
3115625000  -2.594775e+001  4.479131e+000 
3118750000  -2.642458e+001  5.967562e+000 
3121875000  -2.572170e+001  -2.515479e+000 
3125000000  -2.700258e+001  -5.686923e+000 
3128125000  -2.813521e+001  2.738495e+000 
3131250000  -2.589219e+001  2.608172e+000 
3134375000  -2.466942e+001  -1.096211e+001 
3137500000  -2.529650e+001  -2.446509e+001 
3140625000  -2.687800e+001  -2.562994e+001 
3143750000  -2.792853e+001  -2.242404e+001 
3146875000  -2.751707e+001  -1.991079e+001 
3150000000  -2.647239e+001  -1.807879e+001 
3153125000  -2.648550e+001  -2.564783e+001 
3156250000  -2.743669e+001  -1.991783e+001 
3159375000  -2.585947e+001  -1.734039e+001 
3162500000  -2.384519e+001  -3.035022e+001 
3165625000  -2.481319e+001  -4.111459e+001 
3168750000  -2.517978e+001  -4.018708e+001 
3171875000  -2.420428e+001  -4.437060e+001 
3175000000  -2.487857e+001  -5.260774e+001 
3178125000  -2.462121e+001  -5.068487e+001 
3181250000  -2.347658e+001  -5.498388e+001 
3184375000  -2.273206e+001  -6.686252e+001 
3187500000  -2.384365e+001  -8.196134e+001 
3190625000  -2.659515e+001  -8.909615e+001 
3193750000  -2.716108e+001  -7.970219e+001 
3196875000  -2.672264e+001  -7.422796e+001 
3200000000  -2.582732e+001  -7.607516e+001 
3203125000  -2.500370e+001  -8.204034e+001 
3206250000  -2.529959e+001  -8.829677e+001 
3209375000  -2.482307e+001  -9.340147e+001 
3212500000  -2.503278e+001  -1.002031e+002 
3215625000  -2.511732e+001  -1.039072e+002 
3218750000  -2.586243e+001  -1.103608e+002 
3221875000  -2.683218e+001  -1.153800e+002 
3225000000  -2.642498e+001  -1.159964e+002 
3228125000  -2.678550e+001  -1.208528e+002 
3231250000  -2.753136e+001  -1.231357e+002 
3234375000  -2.740207e+001  -1.220817e+002 
3237500000  -2.740300e+001  -1.238463e+002 
3240625000  -2.709057e+001  -1.259460e+002 
3243750000  -2.668313e+001  -1.322389e+002 
3246875000  -2.718338e+001  -1.389520e+002 
3250000000  -2.767605e+001  -1.407832e+002 
3253125000  -2.780766e+001  -1.420719e+002 
3256250000  -2.764717e+001  -1.482237e+002 
3259375000  -2.796643e+001  -1.561707e+002 
3262500000  -2.926903e+001  -1.589220e+002 
3265625000  -2.997397e+001  -1.553497e+002 
3268750000  -2.986815e+001  -1.525555e+002 
3271875000  -2.965252e+001  -1.517859e+002 
3275000000  -2.857021e+001  -1.567247e+002 
3278125000  -2.906242e+001  -1.627099e+002 
3281250000  -2.928329e+001  -1.609901e+002 
3284375000  -2.886966e+001  -1.667556e+002 
3287500000  -2.900383e+001  -1.692159e+002 
3290625000  -2.942418e+001  -1.740797e+002 
3293750000  -2.915390e+001  -1.793188e+002 
3296875000  -3.020137e+001  -1.792537e+002 
3300000000  -3.006798e+001  -1.782576e+002 
3303125000  -2.888911e+001  1.777029e+002 
3306250000  -2.862642e+001  1.709113e+002 
3309375000  -2.839444e+001  1.659256e+002 
3312500000  -2.849930e+001  1.556018e+002 
3315625000  -2.945714e+001  1.477644e+002 
3318750000  -3.091485e+001  1.455171e+002 
3321875000  -3.210268e+001  1.456588e+002 
3325000000  -3.273528e+001  1.505537e+002 
3328125000  -3.237135e+001  1.519057e+002 
3331250000  -3.117390e+001  1.596442e+002 
3334375000  -2.851240e+001  1.500656e+002 
3337500000  -2.868365e+001  1.308908e+002 
3340625000  -3.016427e+001  1.200992e+002 
3343750000  -3.204576e+001  1.194686e+002 
3346875000  -3.242587e+001  1.209000e+002 
3350000000  -3.185334e+001  1.196306e+002 
3353125000  -3.197432e+001  1.152522e+002 
3356250000  -3.164701e+001  1.073493e+002 
3359375000  -3.257850e+001  9.906012e+001 
3362500000  -3.380682e+001  9.364921e+001 
3365625000  -3.446815e+001  9.213219e+001 
3368750000  -3.544789e+001  9.035160e+001 
3371875000  -3.578103e+001  8.708681e+001 
3375000000  -3.748097e+001  8.586438e+001 
3378125000  -3.855143e+001  8.550757e+001 
3381250000  -4.003984e+001  9.230988e+001 
3384375000  -3.909793e+001  1.151717e+002 
3387500000  -3.589025e+001  9.989459e+001 
3390625000  -3.784657e+001  8.116383e+001 
3393750000  -3.954883e+001  8.516637e+001 
3396875000  -3.870789e+001  8.975242e+001 
3400000000  -3.863509e+001  8.187541e+001 
3403125000  -3.973981e+001  7.583749e+001 
3406250000  -4.049083e+001  7.946520e+001 
3409375000  -4.074487e+001  7.438817e+001 
3412500000  -4.177203e+001  7.670567e+001 
3415625000  -4.266064e+001  8.198532e+001 
3418750000  -4.317365e+001  8.612910e+001 
3421875000  -4.308669e+001  9.319499e+001 
3425000000  -4.232280e+001  9.641626e+001 
3428125000  -4.122531e+001  9.518512e+001 
3431250000  -4.126248e+001  9.105438e+001 
3434375000  -4.117849e+001  8.752434e+001 
3437500000  -4.166332e+001  8.562141e+001 
3440625000  -4.171671e+001  8.891358e+001 
3443750000  -4.060950e+001  9.216716e+001 
3446875000  -3.960432e+001  8.696420e+001 
3450000000  -3.977696e+001  7.624068e+001 
3453125000  -3.976554e+001  6.723241e+001 
3456250000  -4.118429e+001  6.290305e+001 
3459375000  -4.221482e+001  6.658836e+001 
3462500000  -4.208136e+001  6.601147e+001 
3465625000  -4.194680e+001  6.276323e+001 
3468750000  -4.250433e+001  5.940145e+001 
3471875000  -4.310920e+001  6.111374e+001 
3475000000  -4.258562e+001  5.501136e+001 
3478125000  -4.340081e+001  5.050996e+001 
3481250000  -4.451864e+001  4.838538e+001 
3484375000  -4.603076e+001  5.448897e+001 
3487500000  -4.547021e+001  5.853965e+001 
3490625000  -4.494213e+001  5.496249e+001 
3493750000  -4.577426e+001  5.040686e+001 
3496875000  -4.686092e+001  5.207381e+001 
3500000000  -4.746590e+001  6.310749e+001 
3503125000  -4.759573e+001  6.491351e+001 
3506250000  -4.630963e+001  6.540903e+001 
3509375000  -4.669587e+001  6.264485e+001 
3512500000  -4.725718e+001  6.042604e+001 
3515625000  -4.757531e+001  6.381273e+001 
3518750000  -4.813889e+001  6.981512e+001 
3521875000  -4.770227e+001  7.443447e+001 
3525000000  -4.771555e+001  7.426141e+001 
3528125000  -4.760562e+001  8.520371e+001 
3531250000  -4.574476e+001  8.746873e+001 
3534375000  -4.492620e+001  7.920281e+001 
3537500000  -4.496312e+001  7.562611e+001 
3540625000  -4.525630e+001  7.544450e+001 
3543750000  -4.574572e+001  7.892207e+001 
3546875000  -4.528003e+001  9.206448e+001 
3550000000  -4.283945e+001  9.288973e+001 
3553125000  -4.145343e+001  7.704637e+001 
3556250000  -4.254885e+001  7.154124e+001 
3559375000  -4.232008e+001  7.308498e+001 
3562500000  -4.100998e+001  6.583308e+001 
3565625000  -4.175995e+001  6.049926e+001 
3568750000  -4.178557e+001  6.413205e+001 
3571875000  -4.164160e+001  6.367730e+001 
3575000000  -4.102589e+001  5.805280e+001 
3578125000  -4.151950e+001  5.330019e+001 
3581250000  -4.151824e+001  5.546096e+001 
3584375000  -4.066481e+001  5.353565e+001 
3587500000  -3.975999e+001  4.902474e+001 
3590625000  -4.018533e+001  3.707307e+001 
3593750000  -4.128280e+001  3.683842e+001 
3596875000  -4.114307e+001  4.742469e+001 
3600000000  -3.975761e+001  4.255873e+001 
3603125000  -3.974397e+001  2.828235e+001 
3606250000  -4.046476e+001  2.738436e+001 
3609375000  -4.086324e+001  2.543934e+001 
3612500000  -4.126538e+001  2.514619e+001 
3615625000  -4.119518e+001  2.266111e+001 
3618750000  -4.192687e+001  2.352996e+001 
3621875000  -4.142531e+001  2.279186e+001 
3625000000  -4.189944e+001  2.293376e+001 
3628125000  -4.163692e+001  2.430917e+001 
3631250000  -4.124174e+001  1.812980e+001 
3634375000  -4.243538e+001  2.046334e+001 
3637500000  -4.190795e+001  2.624172e+001 
3640625000  -4.118588e+001  2.495407e+001 
3643750000  -4.065289e+001  2.145554e+001 
3646875000  -4.100278e+001  1.501073e+001 
3650000000  -4.176501e+001  1.520398e+001 
3653125000  -4.118916e+001  1.326389e+001 
3656250000  -4.173145e+001  1.264457e+001 
3659375000  -4.202409e+001  1.755013e+001 
3662500000  -4.104242e+001  1.328020e+001 
3665625000  -4.135244e+001  1.553945e+001 
3668750000  -4.025089e+001  1.872986e+001 
3671875000  -3.895038e+001  1.301850e+001 
3675000000  -3.977575e+001  6.505804e+000 
3678125000  -4.032822e+001  7.901882e+000 
3681250000  -3.986148e+001  1.010659e+001 
3684375000  -3.960955e+001  7.995246e+000 
3687500000  -3.994927e+001  4.458164e+000 
3690625000  -3.957305e+001  2.787140e+000 
3693750000  -4.039350e+001  4.918042e+000 
3696875000  -4.017050e+001  9.410207e+000 
3700000000  -3.884351e+001  6.796831e+000 
3703125000  -3.881342e+001  4.316685e+000 
3706250000  -3.949530e+001  5.145920e+000 
3709375000  -3.842852e+001  7.605274e+000 
3712500000  -3.755899e+001  8.935942e+000 
3715625000  -3.634972e+001  2.928687e+000 
3718750000  -3.579974e+001  4.189425e-001 
3721875000  -3.533139e+001  -6.357415e+000 
3725000000  -3.520573e+001  -9.136827e+000 
3728125000  -3.545999e+001  -1.092516e+001 
3731250000  -3.473414e+001  -1.036849e+001 
3734375000  -3.374816e+001  -1.817408e+001 
3737500000  -3.422519e+001  -2.441776e+001 
3740625000  -3.483889e+001  -2.733169e+001 
3743750000  -3.463220e+001  -3.012882e+001 
3746875000  -3.449571e+001  -3.277008e+001 
3750000000  -3.492390e+001  -3.395290e+001 
3753125000  -3.463742e+001  -3.401118e+001 
3756250000  -3.448883e+001  -3.477257e+001 
3759375000  -3.442588e+001  -3.607179e+001 
3762500000  -3.365633e+001  -4.048555e+001 
3765625000  -3.425067e+001  -4.320787e+001 
3768750000  -3.427331e+001  -4.024871e+001 
3771875000  -3.242250e+001  -4.197670e+001 
3775000000  -3.218647e+001  -5.075092e+001 
3778125000  -3.265781e+001  -5.217366e+001 
3781250000  -3.249316e+001  -5.534330e+001 
3784375000  -3.234544e+001  -5.659513e+001 
3787500000  -3.165296e+001  -6.041214e+001 
3790625000  -3.228402e+001  -6.651881e+001 
3793750000  -3.239210e+001  -6.706243e+001 
3796875000  -3.141142e+001  -6.812643e+001 
3800000000  -2.990817e+001  -7.158504e+001 
3803125000  -3.072502e+001  -7.867400e+001 
3806250000  -3.141924e+001  -8.138704e+001 
3809375000  -3.110734e+001  -8.232780e+001 
3812500000  -3.046075e+001  -8.744341e+001 
3815625000  -3.106501e+001  -9.471947e+001 
3818750000  -3.210779e+001  -9.574014e+001 
3821875000  -3.207342e+001  -8.657941e+001 
3825000000  -3.013434e+001  -8.331107e+001 
3828125000  -2.874211e+001  -9.737268e+001 
3831250000  -2.937409e+001  -1.116659e+002 
3834375000  -3.074845e+001  -1.119257e+002 
3837500000  -3.161835e+001  -1.071657e+002 
3840625000  -3.042664e+001  -1.078609e+002 
3843750000  -2.917355e+001  -1.179534e+002 
3846875000  -3.005644e+001  -1.248233e+002 
3850000000  -3.134256e+001  -1.190659e+002 
3853125000  -3.044183e+001  -1.168755e+002 
3856250000  -3.037282e+001  -1.216903e+002 
3859375000  -2.966150e+001  -1.264878e+002 
3862500000  -2.925638e+001  -1.334039e+002 
3865625000  -2.954101e+001  -1.376915e+002 
3868750000  -2.962154e+001  -1.380593e+002 
3871875000  -2.877841e+001  -1.411711e+002 
3875000000  -2.905991e+001  -1.502287e+002 
3878125000  -2.998472e+001  -1.525112e+002 
3881250000  -3.010542e+001  -1.493582e+002 
3884375000  -2.960472e+001  -1.545062e+002 
3887500000  -2.977048e+001  -1.585404e+002 
3890625000  -3.030768e+001  -1.607655e+002 
3893750000  -3.074006e+001  -1.620799e+002 
3896875000  -3.085064e+001  -1.616846e+002 
3900000000  -3.102009e+001  -1.626714e+002 
3903125000  -3.068625e+001  -1.644700e+002 
3906250000  -3.033832e+001  -1.652165e+002 
3909375000  -2.967411e+001  -1.685056e+002 
3912500000  -2.981350e+001  -1.756561e+002 
3915625000  -3.100164e+001  -1.743583e+002 
3918750000  -3.094273e+001  -1.733298e+002 
3921875000  -3.058193e+001  -1.744019e+002 
3925000000  -2.987608e+001  -1.750933e+002 
3928125000  -2.915374e+001  1.793923e+002 
3931250000  -2.961971e+001  1.751494e+002 
3934375000  -2.978440e+001  1.754164e+002 
3937500000  -2.995716e+001  1.746653e+002 
3940625000  -3.040963e+001  1.753043e+002 
3943750000  -2.955750e+001  1.759681e+002 
3946875000  -2.823085e+001  1.706554e+002 
3950000000  -2.878030e+001  1.640472e+002 
3953125000  -2.965403e+001  1.639375e+002 
3956250000  -2.881532e+001  1.668050e+002 
3959375000  -2.749607e+001  1.637625e+002 
3962500000  -2.694709e+001  1.597446e+002 
3965625000  -2.662558e+001  1.506192e+002 
3968750000  -2.758125e+001  1.445522e+002 
3971875000  -2.790966e+001  1.427853e+002 
3975000000  -2.725658e+001  1.405727e+002 
3978125000  -2.709778e+001  1.395088e+002 
3981250000  -2.685395e+001  1.351298e+002 
3984375000  -2.711974e+001  1.286494e+002 
3987500000  -2.761855e+001  1.262551e+002 
3990625000  -2.762484e+001  1.260459e+002 
3993750000  -2.785414e+001  1.226151e+002 
3996875000  -2.772584e+001  1.201788e+002 
4000000000  -2.791237e+001  1.182751e+002 
4003125000  -2.841938e+001  1.205845e+002 
4006250000  -2.698598e+001  1.207787e+002 
4009375000  -2.580858e+001  1.083375e+002 
4012500000  -2.696661e+001  1.006013e+002 
4015625000  -2.811388e+001  1.016021e+002 
4018750000  -2.831524e+001  1.040839e+002 
4021875000  -2.761003e+001  1.026322e+002 
4025000000  -2.724949e+001  9.734264e+001 
4028125000  -2.725585e+001  9.331917e+001 
4031250000  -2.773602e+001  9.013673e+001 
4034375000  -2.794591e+001  9.029948e+001 
4037500000  -2.749313e+001  9.237150e+001 
4040625000  -2.739498e+001  8.884947e+001 
4043750000  -2.773720e+001  8.826005e+001 
4046875000  -2.727358e+001  8.804249e+001 
4050000000  -2.679803e+001  8.229008e+001 
4053125000  -2.732834e+001  8.074783e+001 
4056250000  -2.785456e+001  8.457039e+001 
4059375000  -2.662964e+001  8.625113e+001 
4062500000  -2.521864e+001  8.178706e+001 
4065625000  -2.511993e+001  7.726855e+001 
4068750000  -2.486774e+001  7.248856e+001 
4071875000  -2.424270e+001  6.496318e+001 
4075000000  -2.456677e+001  5.882625e+001 
4078125000  -2.511949e+001  5.751547e+001 
4081250000  -2.458721e+001  5.535478e+001 
4084375000  -2.416472e+001  4.849540e+001 
4087500000  -2.458725e+001  4.256534e+001 
4090625000  -2.517691e+001  4.161630e+001 
4093750000  -2.500416e+001  4.214555e+001 
4096875000  -2.452191e+001  3.619170e+001 
4100000000  -2.520103e+001  2.906400e+001 
4103125000  -2.611304e+001  2.996952e+001 
4106250000  -2.596542e+001  3.465175e+001 
4109375000  -2.509703e+001  3.416007e+001 
4112500000  -2.451140e+001  2.752625e+001 
4115625000  -2.481564e+001  2.350326e+001 
4118750000  -2.489995e+001  2.043465e+001 
4121875000  -2.451942e+001  1.585496e+001 
4125000000  -2.492556e+001  1.067765e+001 
4128125000  -2.596353e+001  1.062006e+001 
4131250000  -2.561622e+001  1.899225e+001 
4134375000  -2.324344e+001  1.444776e+001 
4137500000  -2.309661e+001  -4.581774e+000 
4140625000  -2.524014e+001  -1.156510e+001 
4143750000  -2.658276e+001  -6.550220e+000 
4146875000  -2.614788e+001  9.628031e-001 
4150000000  -2.517360e+001  -2.268460e+000 
4153125000  -2.503852e+001  -9.054771e+000 
4156250000  -2.601428e+001  -1.140056e+001 
4159375000  -2.621542e+001  -7.281792e+000 
4162500000  -2.502054e+001  -2.927717e+000 
4165625000  -2.392185e+001  -7.094893e+000 
4168750000  -2.335710e+001  -1.435630e+001 
4171875000  -2.330237e+001  -2.334020e+001 
4175000000  -2.387453e+001  -2.904199e+001 
4178125000  -2.451981e+001  -2.858972e+001 
4181250000  -2.436979e+001  -2.954939e+001 
4184375000  -2.422670e+001  -3.296918e+001 
4187500000  -2.427113e+001  -3.551305e+001 
4190625000  -2.408577e+001  -4.116426e+001 
4193750000  -2.491419e+001  -4.469735e+001 
4196875000  -2.561606e+001  -4.521446e+001 
4200000000  -2.650508e+001  -4.220201e+001 
4203125000  -2.641642e+001  -2.930117e+001 
4206250000  -2.308121e+001  -2.781941e+001 
4209375000  -2.191222e+001  -4.856765e+001 
4212500000  -2.392550e+001  -5.726163e+001 
4215625000  -2.491981e+001  -5.101678e+001 
4218750000  -2.348295e+001  -4.411455e+001 
4221875000  -2.125080e+001  -5.315139e+001 
4225000000  -2.245980e+001  -6.567725e+001 
4228125000  -2.314261e+001  -6.086209e+001 
4231250000  -2.156059e+001  -6.430267e+001 
4234375000  -2.148724e+001  -7.291480e+001 
4237500000  -2.107465e+001  -7.612478e+001 
4240625000  -2.108123e+001  -8.483794e+001 
4243750000  -2.205937e+001  -9.146136e+001 
4246875000  -2.293839e+001  -9.147578e+001 
4250000000  -2.296685e+001  -8.860851e+001 
4253125000  -2.244159e+001  -9.051369e+001 
4256250000  -2.266398e+001  -9.452635e+001 
4259375000  -2.239401e+001  -9.666370e+001 
4262500000  -2.243219e+001  -1.002431e+002 
4265625000  -2.261427e+001  -1.000264e+002 
4268750000  -2.169103e+001  -1.041450e+002 
4271875000  -2.145929e+001  -1.099702e+002 
4275000000  -2.085482e+001  -1.164605e+002 
4278125000  -2.146696e+001  -1.275783e+002 
4281250000  -2.324630e+001  -1.295026e+002 
4284375000  -2.290041e+001  -1.285174e+002 
4287500000  -2.379246e+001  -1.321587e+002 
4290625000  -2.498622e+001  -1.225025e+002 
4293750000  -2.297680e+001  -1.173840e+002 
4296875000  -2.163975e+001  -1.290958e+002 
4300000000  -2.250109e+001  -1.379191e+002 
4303125000  -2.366648e+001  -1.366240e+002 
4306250000  -2.299629e+001  -1.305964e+002 
4309375000  -2.162800e+001  -1.328358e+002 
4312500000  -2.149636e+001  -1.412009e+002 
4315625000  -2.171625e+001  -1.476667e+002 
4318750000  -2.205195e+001  -1.506819e+002 
4321875000  -2.223330e+001  -1.500876e+002 
4325000000  -2.165956e+001  -1.494389e+002 
4328125000  -2.118428e+001  -1.558970e+002 
4331250000  -2.105010e+001  -1.643392e+002 
4334375000  -2.152031e+001  -1.692928e+002 
4337500000  -2.239333e+001  -1.711980e+002 
4340625000  -2.291231e+001  -1.677193e+002 
4343750000  -2.230212e+001  -1.674556e+002 
4346875000  -2.191208e+001  -1.731050e+002 
4350000000  -2.190644e+001  -1.778772e+002 
4353125000  -2.197463e+001  1.746720e+002 
4356250000  -2.386259e+001  1.736391e+002 
4359375000  -2.436225e+001  -1.724442e+002 
4362500000  -2.156725e+001  -1.705729e+002 
4365625000  -1.998187e+001  1.767771e+002 
4368750000  -2.078506e+001  1.654926e+002 
4371875000  -2.195312e+001  1.660766e+002 
4375000000  -2.156692e+001  1.667411e+002 
4378125000  -2.098156e+001  1.610456e+002 
4381250000  -2.110872e+001  1.558933e+002 
4384375000  -2.091997e+001  1.512308e+002 
4387500000  -2.167903e+001  1.453550e+002 
4390625000  -2.267709e+001  1.460806e+002 
4393750000  -2.203290e+001  1.484512e+002 
4396875000  -2.132288e+001  1.463265e+002 
4400000000  -2.083450e+001  1.392618e+002 
4403125000  -2.141910e+001  1.316160e+002 
4406250000  -2.229241e+001  1.304421e+002 
4409375000  -2.224828e+001  1.282660e+002 
4412500000  -2.330942e+001  1.252066e+002 
4415625000  -2.360854e+001  1.303053e+002 
4418750000  -2.241205e+001  1.349703e+002 
