!Agilent Technologies,E8363B,MY43030201,A.06.04.32
!Agilent E8363B: A.06.04.32
!Date: Tuesday, November 11, 2014 20:49:23
!Correction: S21(Response(S21)) 
!S1P File: Measurement: S21:
# Hz S  dB   R 50
3000000000  -2.650776e+001  1.546613e+002 
3003125000  -2.792086e+001  1.501168e+002 
3006250000  -2.795850e+001  1.475520e+002 
3009375000  -2.831053e+001  1.522883e+002 
3012500000  -2.782449e+001  1.524450e+002 
3015625000  -2.685594e+001  1.449903e+002 
3018750000  -2.766744e+001  1.439560e+002 
3021875000  -2.645664e+001  1.457009e+002 
3025000000  -2.515030e+001  1.423928e+002 
3028125000  -2.414749e+001  1.377311e+002 
3031250000  -2.309396e+001  1.263951e+002 
3034375000  -2.275286e+001  1.133147e+002 
3037500000  -2.310572e+001  1.013883e+002 
3040625000  -2.441673e+001  9.653310e+001 
3043750000  -2.519402e+001  9.236724e+001 
3046875000  -2.526946e+001  8.572033e+001 
3050000000  -2.700343e+001  7.874272e+001 
3053125000  -2.714487e+001  8.516335e+001 
3056250000  -2.644202e+001  8.841160e+001 
3059375000  -2.666553e+001  8.797617e+001 
3062500000  -2.519741e+001  8.392567e+001 
3065625000  -2.501372e+001  7.851515e+001 
3068750000  -2.472916e+001  7.154187e+001 
3071875000  -2.466575e+001  6.838332e+001 
3075000000  -2.462102e+001  6.492210e+001 
3078125000  -2.433420e+001  6.020805e+001 
3081250000  -2.499812e+001  5.601861e+001 
3084375000  -2.424722e+001  5.243102e+001 
3087500000  -2.412546e+001  4.889876e+001 
3090625000  -2.379743e+001  3.895580e+001 
3093750000  -2.421952e+001  3.103057e+001 
3096875000  -2.554669e+001  2.490358e+001 
3100000000  -2.567356e+001  2.339233e+001 
3103125000  -2.603323e+001  2.499738e+001 
3106250000  -2.576141e+001  2.172474e+001 
3109375000  -2.599943e+001  1.793936e+001 
3112500000  -2.612711e+001  1.711804e+001 
3115625000  -2.592765e+001  1.273248e+001 
3118750000  -2.639891e+001  1.395357e+001 
3121875000  -2.574887e+001  5.655509e+000 
3125000000  -2.692938e+001  2.479643e+000 
3128125000  -2.812987e+001  1.044812e+001 
3131250000  -2.593609e+001  1.113490e+001 
3134375000  -2.457343e+001  -2.498910e+000 
3137500000  -2.525595e+001  -1.635563e+001 
3140625000  -2.689784e+001  -1.783298e+001 
3143750000  -2.790277e+001  -1.383993e+001 
3146875000  -2.753084e+001  -1.186707e+001 
3150000000  -2.648196e+001  -9.347391e+000 
3153125000  -2.646802e+001  -1.718464e+001 
3156250000  -2.745702e+001  -1.214626e+001 
3159375000  -2.589392e+001  -9.335471e+000 
3162500000  -2.384255e+001  -2.177136e+001 
3165625000  -2.481587e+001  -3.304604e+001 
3168750000  -2.520413e+001  -3.204983e+001 
3171875000  -2.422470e+001  -3.640021e+001 
3175000000  -2.486178e+001  -4.390949e+001 
3178125000  -2.465094e+001  -4.222605e+001 
3181250000  -2.347567e+001  -4.617332e+001 
3184375000  -2.266982e+001  -5.851283e+001 
3187500000  -2.379400e+001  -7.368042e+001 
3190625000  -2.660982e+001  -8.123251e+001 
3193750000  -2.721661e+001  -7.142017e+001 
3196875000  -2.676896e+001  -6.598822e+001 
3200000000  -2.586990e+001  -6.780251e+001 
3203125000  -2.499090e+001  -7.354667e+001 
3206250000  -2.528230e+001  -7.991096e+001 
3209375000  -2.483417e+001  -8.493758e+001 
3212500000  -2.496334e+001  -9.148219e+001 
3215625000  -2.510370e+001  -9.597118e+001 
3218750000  -2.582288e+001  -1.021401e+002 
3221875000  -2.683541e+001  -1.071808e+002 
3225000000  -2.643130e+001  -1.077085e+002 
3228125000  -2.674850e+001  -1.123903e+002 
3231250000  -2.746866e+001  -1.152688e+002 
3234375000  -2.735803e+001  -1.140422e+002 
3237500000  -2.738675e+001  -1.155584e+002 
3240625000  -2.709770e+001  -1.173791e+002 
3243750000  -2.666761e+001  -1.238258e+002 
3246875000  -2.713150e+001  -1.304435e+002 
3250000000  -2.761347e+001  -1.324162e+002 
3253125000  -2.779258e+001  -1.341417e+002 
3256250000  -2.769045e+001  -1.402576e+002 
3259375000  -2.796419e+001  -1.473218e+002 
3262500000  -2.918578e+001  -1.505826e+002 
3265625000  -2.990203e+001  -1.471125e+002 
3268750000  -2.984801e+001  -1.441341e+002 
3271875000  -2.963123e+001  -1.433723e+002 
3275000000  -2.855640e+001  -1.482416e+002 
3278125000  -2.903641e+001  -1.545966e+002 
3281250000  -2.929774e+001  -1.530602e+002 
3284375000  -2.889333e+001  -1.585850e+002 
3287500000  -2.906450e+001  -1.613983e+002 
3290625000  -2.943148e+001  -1.659877e+002 
3293750000  -2.911584e+001  -1.713107e+002 
3296875000  -3.015891e+001  -1.713171e+002 
3300000000  -3.006624e+001  -1.701366e+002 
3303125000  -2.893296e+001  -1.741692e+002 
3306250000  -2.863683e+001  1.792729e+002 
3309375000  -2.842883e+001  1.743598e+002 
3312500000  -2.848223e+001  1.641407e+002 
3315625000  -2.947651e+001  1.558461e+002 
3318750000  -3.079646e+001  1.532891e+002 
3321875000  -3.202543e+001  1.535738e+002 
3325000000  -3.255325e+001  1.584979e+002 
3328125000  -3.246513e+001  1.601077e+002 
3331250000  -3.117243e+001  1.673469e+002 
3334375000  -2.862980e+001  1.579222e+002 
3337500000  -2.865504e+001  1.397900e+002 
3340625000  -2.999271e+001  1.288335e+002 
3343750000  -3.201544e+001  1.275603e+002 
3346875000  -3.257071e+001  1.288954e+002 
3350000000  -3.185164e+001  1.279881e+002 
3353125000  -3.194639e+001  1.232883e+002 
3356250000  -3.168982e+001  1.153904e+002 
3359375000  -3.256008e+001  1.077831e+002 
3362500000  -3.383135e+001  1.020571e+002 
3365625000  -3.446118e+001  1.001727e+002 
3368750000  -3.534161e+001  9.821691e+001 
3371875000  -3.579577e+001  9.546802e+001 
3375000000  -3.729435e+001  9.349868e+001 
3378125000  -3.840732e+001  9.244886e+001 
3381250000  -3.991502e+001  1.013726e+002 
3384375000  -3.918075e+001  1.210320e+002 
3387500000  -3.598227e+001  1.088009e+002 
3390625000  -3.784678e+001  8.911076e+001 
3393750000  -3.963017e+001  9.207599e+001 
3396875000  -3.892764e+001  9.671741e+001 
3400000000  -3.856342e+001  8.894718e+001 
3403125000  -3.955984e+001  8.375622e+001 
3406250000  -4.026624e+001  8.800549e+001 
3409375000  -4.086713e+001  8.213164e+001 
3412500000  -4.185070e+001  8.330201e+001 
3415625000  -4.297461e+001  8.990722e+001 
3418750000  -4.312880e+001  9.217661e+001 
3421875000  -4.334224e+001  9.883423e+001 
3425000000  -4.258221e+001  1.022006e+002 
3428125000  -4.191840e+001  1.028111e+002 
3431250000  -4.164224e+001  9.867610e+001 
3434375000  -4.122694e+001  9.513899e+001 
3437500000  -4.183303e+001  9.329912e+001 
3440625000  -4.235767e+001  9.598113e+001 
3443750000  -4.111736e+001  9.943130e+001 
3446875000  -4.016387e+001  9.252078e+001 
3450000000  -3.996874e+001  8.435677e+001 
3453125000  -4.022219e+001  7.674221e+001 
3456250000  -4.141987e+001  7.059991e+001 
3459375000  -4.235340e+001  7.453643e+001 
3462500000  -4.226197e+001  7.390170e+001 
3465625000  -4.253021e+001  6.960210e+001 
3468750000  -4.294114e+001  6.760480e+001 
3471875000  -4.312126e+001  6.806541e+001 
3475000000  -4.297662e+001  6.417907e+001 
3478125000  -4.323502e+001  5.855209e+001 
3481250000  -4.470094e+001  5.990504e+001 
3484375000  -4.592867e+001  6.339791e+001 
3487500000  -4.584999e+001  6.656938e+001 
3490625000  -4.530881e+001  6.334250e+001 
3493750000  -4.545997e+001  5.848811e+001 
3496875000  -4.723057e+001  6.443661e+001 
3500000000  -4.799717e+001  6.876204e+001 
3503125000  -4.765790e+001  7.363370e+001 
3506250000  -4.649248e+001  7.476941e+001 
3509375000  -4.677889e+001  6.992147e+001 
3512500000  -4.750749e+001  6.900920e+001 
3515625000  -4.763477e+001  7.416204e+001 
3518750000  -4.810139e+001  7.879801e+001 
3521875000  -4.783624e+001  8.393028e+001 
3525000000  -4.789718e+001  8.722697e+001 
3528125000  -4.749837e+001  9.756899e+001 
3531250000  -4.568252e+001  9.413179e+001 
3534375000  -4.501108e+001  8.826694e+001 
3537500000  -4.510485e+001  8.638824e+001 
3540625000  -4.562280e+001  8.531162e+001 
3543750000  -4.609379e+001  8.857233e+001 
3546875000  -4.553085e+001  1.004032e+002 
3550000000  -4.292788e+001  1.039869e+002 
3553125000  -4.163125e+001  8.628191e+001 
3556250000  -4.243702e+001  8.001057e+001 
3559375000  -4.240520e+001  8.360960e+001 
3562500000  -4.111914e+001  7.503777e+001 
3565625000  -4.203661e+001  6.951008e+001 
3568750000  -4.203868e+001  7.393438e+001 
3571875000  -4.159571e+001  7.388862e+001 
3575000000  -4.129435e+001  6.805400e+001 
3578125000  -4.135627e+001  6.250262e+001 
3581250000  -4.156785e+001  6.528380e+001 
3584375000  -4.076701e+001  6.425563e+001 
3587500000  -3.986270e+001  5.683790e+001 
3590625000  -4.030444e+001  5.071134e+001 
3593750000  -4.141455e+001  4.793751e+001 
3596875000  -4.129358e+001  5.775547e+001 
3600000000  -3.981315e+001  5.237624e+001 
3603125000  -3.987773e+001  4.000070e+001 
3606250000  -4.068762e+001  3.686882e+001 
3609375000  -4.060694e+001  3.552003e+001 
3612500000  -4.133761e+001  3.503125e+001 
3615625000  -4.135128e+001  3.088612e+001 
3618750000  -4.185130e+001  3.382657e+001 
3621875000  -4.156989e+001  3.410199e+001 
3625000000  -4.169793e+001  3.241581e+001 
3628125000  -4.152007e+001  3.320080e+001 
3631250000  -4.151878e+001  2.762846e+001 
3634375000  -4.228475e+001  3.053412e+001 
3637500000  -4.199094e+001  3.525595e+001 
3640625000  -4.080204e+001  3.599092e+001 
3643750000  -4.067321e+001  2.940065e+001 
3646875000  -4.124265e+001  2.401464e+001 
3650000000  -4.161089e+001  2.328052e+001 
3653125000  -4.166660e+001  2.385090e+001 
3656250000  -4.175993e+001  2.364431e+001 
3659375000  -4.213065e+001  2.652027e+001 
3662500000  -4.105632e+001  2.559269e+001 
3665625000  -4.130738e+001  2.421813e+001 
3668750000  -4.030074e+001  2.656677e+001 
3671875000  -3.937963e+001  2.310967e+001 
3675000000  -3.977560e+001  1.680016e+001 
3678125000  -4.044684e+001  1.794262e+001 
3681250000  -3.993160e+001  1.986776e+001 
3684375000  -3.982230e+001  1.708772e+001 
3687500000  -3.998968e+001  1.641367e+001 
3690625000  -3.975989e+001  1.388244e+001 
3693750000  -4.047421e+001  1.677258e+001 
3696875000  -4.013155e+001  1.885561e+001 
3700000000  -3.899442e+001  1.611072e+001 
3703125000  -3.902485e+001  1.472917e+001 
3706250000  -3.945245e+001  1.646363e+001 
3709375000  -3.881173e+001  1.896004e+001 
3712500000  -3.751408e+001  1.958078e+001 
3715625000  -3.657899e+001  1.426055e+001 
3718750000  -3.593752e+001  1.050362e+001 
3721875000  -3.539690e+001  4.532567e+000 
3725000000  -3.541956e+001  5.480549e-001 
3728125000  -3.558398e+001  1.730015e-001 
3731250000  -3.475397e+001  -8.473108e-001 
3734375000  -3.374868e+001  -7.150304e+000 
3737500000  -3.426863e+001  -1.409046e+001 
3740625000  -3.496198e+001  -1.667386e+001 
3743750000  -3.477778e+001  -1.949285e+001 
3746875000  -3.467054e+001  -2.328904e+001 
3750000000  -3.518819e+001  -2.397966e+001 
3753125000  -3.470120e+001  -2.400824e+001 
3756250000  -3.456059e+001  -2.525434e+001 
3759375000  -3.437930e+001  -2.522351e+001 
3762500000  -3.378973e+001  -2.923966e+001 
3765625000  -3.424532e+001  -3.190630e+001 
3768750000  -3.438176e+001  -3.021449e+001 
3771875000  -3.256694e+001  -3.216648e+001 
3775000000  -3.232737e+001  -4.023631e+001 
3778125000  -3.258883e+001  -4.176604e+001 
3781250000  -3.248374e+001  -4.503679e+001 
3784375000  -3.232886e+001  -4.666663e+001 
3787500000  -3.177109e+001  -5.004580e+001 
3790625000  -3.228742e+001  -5.618820e+001 
3793750000  -3.249894e+001  -5.623492e+001 
3796875000  -3.155051e+001  -5.763638e+001 
3800000000  -3.006662e+001  -6.131120e+001 
3803125000  -3.074583e+001  -6.796139e+001 
3806250000  -3.141755e+001  -7.142694e+001 
3809375000  -3.117932e+001  -7.219512e+001 
3812500000  -3.047577e+001  -7.671374e+001 
3815625000  -3.101779e+001  -8.434517e+001 
3818750000  -3.205157e+001  -8.578342e+001 
3821875000  -3.219675e+001  -7.717949e+001 
3825000000  -3.025342e+001  -7.303308e+001 
3828125000  -2.886557e+001  -8.650366e+001 
3831250000  -2.934708e+001  -1.005860e+002 
3834375000  -3.074307e+001  -1.020461e+002 
3837500000  -3.153329e+001  -9.665932e+001 
3840625000  -3.050307e+001  -9.735622e+001 
3843750000  -2.932073e+001  -1.071273e+002 
3846875000  -2.993981e+001  -1.145353e+002 
3850000000  -3.122359e+001  -1.092803e+002 
3853125000  -3.042401e+001  -1.068578e+002 
3856250000  -3.036111e+001  -1.104451e+002 
3859375000  -2.974891e+001  -1.161143e+002 
3862500000  -2.930634e+001  -1.230276e+002 
3865625000  -2.952927e+001  -1.274629e+002 
3868750000  -2.955767e+001  -1.282205e+002 
3871875000  -2.886887e+001  -1.309320e+002 
3875000000  -2.894633e+001  -1.398115e+002 
3878125000  -2.996900e+001  -1.426636e+002 
3881250000  -3.013189e+001  -1.392271e+002 
3884375000  -2.960776e+001  -1.440244e+002 
3887500000  -2.973767e+001  -1.480700e+002 
3890625000  -3.013095e+001  -1.506713e+002 
3893750000  -3.061317e+001  -1.517522e+002 
3896875000  -3.073286e+001  -1.511113e+002 
3900000000  -3.095167e+001  -1.519030e+002 
3903125000  -3.067001e+001  -1.542749e+002 
3906250000  -3.048749e+001  -1.556207e+002 
3909375000  -2.969761e+001  -1.577260e+002 
3912500000  -2.970609e+001  -1.649656e+002 
3915625000  -3.098289e+001  -1.633514e+002 
3918750000  -3.103899e+001  -1.629589e+002 
3921875000  -3.062663e+001  -1.638921e+002 
3925000000  -2.992143e+001  -1.647523e+002 
3928125000  -2.915318e+001  -1.701609e+002 
3931250000  -2.954895e+001  -1.739887e+002 
3934375000  -2.980362e+001  -1.742188e+002 
3937500000  -2.991667e+001  -1.749391e+002 
3940625000  -3.039560e+001  -1.746432e+002 
3943750000  -2.943917e+001  -1.729769e+002 
3946875000  -2.819618e+001  -1.785817e+002 
3950000000  -2.871702e+001  1.741777e+002 
3953125000  -2.961513e+001  1.746653e+002 
3956250000  -2.881485e+001  1.773871e+002 
3959375000  -2.750796e+001  1.738395e+002 
3962500000  -2.696911e+001  1.701463e+002 
3965625000  -2.655408e+001  1.615287e+002 
3968750000  -2.747944e+001  1.546368e+002 
3971875000  -2.787955e+001  1.535494e+002 
3975000000  -2.720853e+001  1.514593e+002 
3978125000  -2.698733e+001  1.499701e+002 
3981250000  -2.676769e+001  1.454777e+002 
3984375000  -2.694453e+001  1.394601e+002 
3987500000  -2.748466e+001  1.367589e+002 
3990625000  -2.749666e+001  1.357010e+002 
3993750000  -2.770834e+001  1.327631e+002 
3996875000  -2.765672e+001  1.300834e+002 
4000000000  -2.773427e+001  1.281881e+002 
4003125000  -2.829972e+001  1.303974e+002 
4006250000  -2.699244e+001  1.309404e+002 
4009375000  -2.566775e+001  1.184658e+002 
4012500000  -2.676651e+001  1.113049e+002 
4015625000  -2.802775e+001  1.116470e+002 
4018750000  -2.823391e+001  1.140129e+002 
4021875000  -2.754894e+001  1.122364e+002 
4025000000  -2.727701e+001  1.075229e+002 
4028125000  -2.716985e+001  1.037829e+002 
4031250000  -2.773046e+001  9.991887e+001 
4034375000  -2.790242e+001  1.000130e+002 
4037500000  -2.746087e+001  1.022941e+002 
4040625000  -2.737808e+001  9.886137e+001 
4043750000  -2.768135e+001  9.823660e+001 
4046875000  -2.720646e+001  9.832054e+001 
4050000000  -2.676914e+001  9.243069e+001 
4053125000  -2.715238e+001  9.034094e+001 
4056250000  -2.785339e+001  9.481087e+001 
4059375000  -2.664423e+001  9.670361e+001 
4062500000  -2.522401e+001  9.226811e+001 
4065625000  -2.509648e+001  8.777255e+001 
4068750000  -2.483499e+001  8.304714e+001 
4071875000  -2.419002e+001  7.504732e+001 
4075000000  -2.452965e+001  6.870812e+001 
4078125000  -2.512777e+001  6.721210e+001 
4081250000  -2.457493e+001  6.522954e+001 
4084375000  -2.416308e+001  5.883456e+001 
4087500000  -2.450845e+001  5.270722e+001 
4090625000  -2.504764e+001  5.121920e+001 
4093750000  -2.492874e+001  5.228857e+001 
4096875000  -2.446299e+001  4.654493e+001 
4100000000  -2.516012e+001  3.899267e+001 
4103125000  -2.603368e+001  3.944406e+001 
4106250000  -2.596544e+001  4.457421e+001 
4109375000  -2.509222e+001  4.426957e+001 
4112500000  -2.445710e+001  3.746572e+001 
4115625000  -2.480634e+001  3.316740e+001 
4118750000  -2.489726e+001  3.011165e+001 
4121875000  -2.449670e+001  2.579794e+001 
4125000000  -2.485952e+001  2.077743e+001 
4128125000  -2.585171e+001  2.033602e+001 
4131250000  -2.561134e+001  2.821737e+001 
4134375000  -2.330423e+001  2.388381e+001 
4137500000  -2.303813e+001  5.310523e+000 
4140625000  -2.520134e+001  -2.241708e+000 
4143750000  -2.653298e+001  2.953887e+000 
4146875000  -2.615135e+001  1.009401e+001 
4150000000  -2.527632e+001  7.208225e+000 
4153125000  -2.514723e+001  7.026728e-001 
4156250000  -2.597725e+001  -2.112069e+000 
4159375000  -2.630423e+001  2.667081e+000 
4162500000  -2.516364e+001  6.848420e+000 
4165625000  -2.407130e+001  2.806836e+000 
4168750000  -2.341408e+001  -4.482087e+000 
4171875000  -2.340835e+001  -1.369469e+001 
4175000000  -2.402437e+001  -1.906319e+001 
4178125000  -2.462194e+001  -1.911528e+001 
4181250000  -2.451667e+001  -1.962935e+001 
4184375000  -2.433988e+001  -2.306833e+001 
4187500000  -2.442183e+001  -2.534966e+001 
4190625000  -2.421482e+001  -3.094966e+001 
4193750000  -2.494094e+001  -3.442170e+001 
4196875000  -2.566285e+001  -3.509072e+001 
4200000000  -2.653560e+001  -3.281829e+001 
4203125000  -2.660244e+001  -1.997058e+001 
4206250000  -2.325102e+001  -1.743343e+001 
4209375000  -2.200705e+001  -3.789936e+001 
4212500000  -2.388570e+001  -4.722795e+001 
4215625000  -2.488843e+001  -4.135584e+001 
4218750000  -2.364638e+001  -3.444728e+001 
4221875000  -2.134020e+001  -4.326364e+001 
4225000000  -2.254453e+001  -5.620843e+001 
4228125000  -2.322852e+001  -5.094080e+001 
4231250000  -2.168116e+001  -5.463351e+001 
4234375000  -2.163457e+001  -6.265176e+001 
4237500000  -2.117813e+001  -6.603715e+001 
4240625000  -2.116797e+001  -7.455435e+001 
4243750000  -2.213672e+001  -8.122368e+001 
4246875000  -2.300885e+001  -8.170169e+001 
4250000000  -2.314529e+001  -7.890672e+001 
4253125000  -2.252355e+001  -8.074110e+001 
4256250000  -2.280126e+001  -8.494385e+001 
4259375000  -2.257151e+001  -8.696414e+001 
4262500000  -2.254303e+001  -9.053626e+001 
4265625000  -2.271507e+001  -9.048957e+001 
4268750000  -2.182401e+001  -9.440765e+001 
4271875000  -2.162004e+001  -9.986508e+001 
4275000000  -2.102460e+001  -1.064905e+002 
4278125000  -2.160779e+001  -1.178019e+002 
4281250000  -2.343649e+001  -1.196958e+002 
4284375000  -2.316907e+001  -1.187394e+002 
4287500000  -2.391946e+001  -1.223399e+002 
4290625000  -2.520481e+001  -1.126509e+002 
4293750000  -2.319538e+001  -1.071365e+002 
4296875000  -2.186176e+001  -1.187015e+002 
4300000000  -2.268489e+001  -1.277490e+002 
4303125000  -2.382387e+001  -1.270430e+002 
4306250000  -2.329340e+001  -1.205117e+002 
4309375000  -2.188454e+001  -1.223075e+002 
4312500000  -2.178441e+001  -1.306518e+002 
4315625000  -2.196469e+001  -1.367493e+002 
4318750000  -2.228411e+001  -1.399018e+002 
4321875000  -2.246405e+001  -1.394236e+002 
4325000000  -2.190517e+001  -1.388340e+002 
4328125000  -2.141696e+001  -1.452404e+002 
4331250000  -2.130359e+001  -1.532092e+002 
4334375000  -2.172521e+001  -1.580139e+002 
4337500000  -2.251984e+001  -1.603629e+002 
4340625000  -2.310611e+001  -1.575616e+002 
4343750000  -2.254558e+001  -1.568730e+002 
4346875000  -2.207471e+001  -1.624135e+002 
4350000000  -2.214481e+001  -1.671569e+002 
4353125000  -2.218097e+001  -1.746774e+002 
4356250000  -2.389141e+001  -1.757684e+002 
4359375000  -2.459761e+001  -1.628303e+002 
4362500000  -2.198397e+001  -1.601449e+002 
4365625000  -2.023602e+001  -1.717809e+002 
4368750000  -2.091339e+001  1.759558e+002 
4371875000  -2.218477e+001  1.765519e+002 
4375000000  -2.180268e+001  1.776371e+002 
4378125000  -2.119985e+001  1.722496e+002 
4381250000  -2.132987e+001  1.667202e+002 
4384375000  -2.117829e+001  1.619203e+002 
4387500000  -2.194851e+001  1.561498e+002 
4390625000  -2.293318e+001  1.568085e+002 
4393750000  -2.223143e+001  1.591198e+002 
4396875000  -2.159444e+001  1.570483e+002 
4400000000  -2.109650e+001  1.501084e+002 
4403125000  -2.169551e+001  1.427007e+002 
4406250000  -2.252250e+001  1.411261e+002 
4409375000  -2.254312e+001  1.390479e+002 
4412500000  -2.354544e+001  1.359545e+002 
4415625000  -2.394894e+001  1.411238e+002 
4418750000  -2.269876e+001  1.459314e+002 
