!Agilent Technologies,E8363B,MY43030201,A.06.04.32
!Agilent E8363B: A.06.04.32
!Date: Tuesday, November 11, 2014 20:44:09
!Correction: S21(Response(S21)) 
!S1P File: Measurement: S21:
# Hz S  dB   R 50
3000000000  -2.648477e+001  1.586570e+002 
3003125000  -2.785420e+001  1.545188e+002 
3006250000  -2.797518e+001  1.511706e+002 
3009375000  -2.823869e+001  1.563974e+002 
3012500000  -2.779972e+001  1.561760e+002 
3015625000  -2.678679e+001  1.492705e+002 
3018750000  -2.768854e+001  1.480392e+002 
3021875000  -2.642827e+001  1.494844e+002 
3025000000  -2.513163e+001  1.464032e+002 
3028125000  -2.414793e+001  1.417445e+002 
3031250000  -2.310159e+001  1.308452e+002 
3034375000  -2.275230e+001  1.179775e+002 
3037500000  -2.306102e+001  1.057254e+002 
3040625000  -2.439330e+001  1.006287e+002 
3043750000  -2.509932e+001  9.630215e+001 
3046875000  -2.517690e+001  8.977953e+001 
3050000000  -2.696255e+001  8.301836e+001 
3053125000  -2.713154e+001  8.925426e+001 
3056250000  -2.641101e+001  9.231577e+001 
3059375000  -2.671390e+001  9.218987e+001 
3062500000  -2.523252e+001  8.817331e+001 
3065625000  -2.501780e+001  8.263494e+001 
3068750000  -2.474240e+001  7.566019e+001 
3071875000  -2.469160e+001  7.266936e+001 
3075000000  -2.467392e+001  6.922431e+001 
3078125000  -2.437375e+001  6.441569e+001 
3081250000  -2.501804e+001  6.020272e+001 
3084375000  -2.429419e+001  5.673178e+001 
3087500000  -2.412894e+001  5.317249e+001 
3090625000  -2.385380e+001  4.354024e+001 
3093750000  -2.422179e+001  3.541816e+001 
3096875000  -2.556957e+001  2.912634e+001 
3100000000  -2.569604e+001  2.805111e+001 
3103125000  -2.610115e+001  2.928532e+001 
3106250000  -2.582067e+001  2.564751e+001 
3109375000  -2.607972e+001  2.227390e+001 
3112500000  -2.617364e+001  2.166232e+001 
3115625000  -2.595189e+001  1.721008e+001 
3118750000  -2.646022e+001  1.833449e+001 
3121875000  -2.581975e+001  1.072032e+001 
3125000000  -2.687717e+001  7.049949e+000 
3128125000  -2.819517e+001  1.479856e+001 
3131250000  -2.605552e+001  1.585826e+001 
3134375000  -2.467424e+001  2.255741e+000 
3137500000  -2.528959e+001  -1.207555e+001 
3140625000  -2.691748e+001  -1.369101e+001 
3143750000  -2.795043e+001  -9.069538e+000 
3146875000  -2.757950e+001  -7.406517e+000 
3150000000  -2.657122e+001  -5.012535e+000 
3153125000  -2.648521e+001  -1.289157e+001 
3156250000  -2.746783e+001  -7.677247e+000 
3159375000  -2.600244e+001  -4.723076e+000 
3162500000  -2.391433e+001  -1.706810e+001 
3165625000  -2.482431e+001  -2.848874e+001 
3168750000  -2.529504e+001  -2.772478e+001 
3171875000  -2.429807e+001  -3.175393e+001 
3175000000  -2.489939e+001  -3.925593e+001 
3178125000  -2.473742e+001  -3.795874e+001 
3181250000  -2.354421e+001  -4.127925e+001 
3184375000  -2.269736e+001  -5.387176e+001 
3187500000  -2.374110e+001  -6.921418e+001 
3190625000  -2.664162e+001  -7.699477e+001 
3193750000  -2.729264e+001  -6.737761e+001 
3196875000  -2.679245e+001  -6.167670e+001 
3200000000  -2.598894e+001  -6.352013e+001 
3203125000  -2.509550e+001  -6.912193e+001 
3206250000  -2.535747e+001  -7.512911e+001 
3209375000  -2.493063e+001  -8.020122e+001 
3212500000  -2.494497e+001  -8.711857e+001 
3215625000  -2.516381e+001  -9.154615e+001 
3218750000  -2.593725e+001  -9.747555e+001 
3221875000  -2.691776e+001  -1.028327e+002 
3225000000  -2.650266e+001  -1.035256e+002 
3228125000  -2.684383e+001  -1.078133e+002 
3231250000  -2.754208e+001  -1.108667e+002 
3234375000  -2.747258e+001  -1.096164e+002 
3237500000  -2.750925e+001  -1.113459e+002 
3240625000  -2.719613e+001  -1.130608e+002 
3243750000  -2.678732e+001  -1.191809e+002 
3246875000  -2.727166e+001  -1.258598e+002 
3250000000  -2.767941e+001  -1.277937e+002 
3253125000  -2.786660e+001  -1.297504e+002 
3256250000  -2.777038e+001  -1.356710e+002 
3259375000  -2.801207e+001  -1.429414e+002 
3262500000  -2.934497e+001  -1.460430e+002 
3265625000  -2.998663e+001  -1.430746e+002 
3268750000  -3.003782e+001  -1.402884e+002 
3271875000  -2.982340e+001  -1.389789e+002 
3275000000  -2.868993e+001  -1.436792e+002 
3278125000  -2.915139e+001  -1.500812e+002 
3281250000  -2.946215e+001  -1.485499e+002 
3284375000  -2.903221e+001  -1.536965e+002 
3287500000  -2.907975e+001  -1.570164e+002 
3290625000  -2.965152e+001  -1.611981e+002 
3293750000  -2.931119e+001  -1.668172e+002 
3296875000  -3.024376e+001  -1.667034e+002 
3300000000  -3.018927e+001  -1.655725e+002 
3303125000  -2.907263e+001  -1.693922e+002 
3306250000  -2.879426e+001  -1.764664e+002 
3309375000  -2.856943e+001  1.788493e+002 
3312500000  -2.865285e+001  1.691722e+002 
3315625000  -2.958814e+001  1.608081e+002 
3318750000  -3.089200e+001  1.582915e+002 
3321875000  -3.215937e+001  1.580008e+002 
3325000000  -3.260782e+001  1.619678e+002 
3328125000  -3.259597e+001  1.636464e+002 
3331250000  -3.151702e+001  1.714186e+002 
3334375000  -2.891440e+001  1.630885e+002 
3337500000  -2.885451e+001  1.443997e+002 
3340625000  -3.016151e+001  1.331656e+002 
3343750000  -3.211019e+001  1.314503e+002 
3346875000  -3.276768e+001  1.339923e+002 
3350000000  -3.208486e+001  1.320976e+002 
3353125000  -3.219398e+001  1.276716e+002 
3356250000  -3.196402e+001  1.196369e+002 
3359375000  -3.280725e+001  1.118565e+002 
3362500000  -3.397993e+001  1.056906e+002 
3365625000  -3.477367e+001  1.041753e+002 
3368750000  -3.565129e+001  1.027696e+002 
3371875000  -3.604855e+001  9.993727e+001 
3375000000  -3.751119e+001  9.756083e+001 
3378125000  -3.877695e+001  9.730942e+001 
3381250000  -4.026257e+001  1.036569e+002 
3384375000  -3.946080e+001  1.238071e+002 
3387500000  -3.624627e+001  1.126764e+002 
3390625000  -3.825653e+001  9.254131e+001 
3393750000  -4.001835e+001  9.653017e+001 
3396875000  -3.895434e+001  1.003254e+002 
3400000000  -3.901846e+001  9.338697e+001 
3403125000  -4.034428e+001  8.825936e+001 
3406250000  -4.105743e+001  9.245040e+001 
3409375000  -4.153773e+001  8.933265e+001 
3412500000  -4.244641e+001  8.883916e+001 
3415625000  -4.350918e+001  9.396749e+001 
3418750000  -4.390967e+001  1.003671e+002 
3421875000  -4.412554e+001  1.053167e+002 
3425000000  -4.342528e+001  1.071182e+002 
3428125000  -4.239164e+001  1.089370e+002 
3431250000  -4.223292e+001  1.045963e+002 
3434375000  -4.182521e+001  1.012175e+002 
3437500000  -4.224795e+001  9.957069e+001 
3440625000  -4.285331e+001  1.022346e+002 
3443750000  -4.120208e+001  1.065255e+002 
3446875000  -4.053335e+001  1.003699e+002 
3450000000  -4.033879e+001  9.144808e+001 
3453125000  -4.066912e+001  8.365099e+001 
3456250000  -4.169030e+001  7.880260e+001 
3459375000  -4.273737e+001  8.131930e+001 
3462500000  -4.273148e+001  7.901987e+001 
3465625000  -4.292498e+001  7.675028e+001 
3468750000  -4.329625e+001  7.679538e+001 
3471875000  -4.319902e+001  7.645744e+001 
3475000000  -4.359617e+001  7.113644e+001 
3478125000  -4.444022e+001  6.672166e+001 
3481250000  -4.512421e+001  6.749659e+001 
3484375000  -4.669217e+001  6.895691e+001 
3487500000  -4.687963e+001  7.390945e+001 
3490625000  -4.596305e+001  7.127468e+001 
3493750000  -4.633304e+001  7.092696e+001 
3496875000  -4.746460e+001  7.061332e+001 
3500000000  -4.886929e+001  7.966348e+001 
3503125000  -4.841475e+001  8.397801e+001 
3506250000  -4.733820e+001  8.484541e+001 
3509375000  -4.749507e+001  8.310859e+001 
3512500000  -4.823828e+001  8.475766e+001 
3515625000  -4.780605e+001  9.353988e+001 
3518750000  -4.837439e+001  9.005249e+001 
3521875000  -4.794561e+001  9.359213e+001 
3525000000  -4.846886e+001  9.391612e+001 
3528125000  -4.774408e+001  1.082671e+002 
3531250000  -4.558896e+001  1.065069e+002 
3534375000  -4.517653e+001  9.924913e+001 
3537500000  -4.511317e+001  9.536227e+001 
3540625000  -4.554099e+001  9.579426e+001 
3543750000  -4.599591e+001  9.818381e+001 
3546875000  -4.575590e+001  1.063729e+002 
3550000000  -4.325135e+001  1.125852e+002 
3553125000  -4.146856e+001  9.757870e+001 
3556250000  -4.227121e+001  8.910442e+001 
3559375000  -4.224911e+001  9.219363e+001 
3562500000  -4.075910e+001  8.647327e+001 
3565625000  -4.162078e+001  7.771178e+001 
3568750000  -4.165619e+001  8.052360e+001 
3571875000  -4.167472e+001  8.181778e+001 
3575000000  -4.102216e+001  7.627613e+001 
3578125000  -4.117375e+001  7.151825e+001 
3581250000  -4.139774e+001  7.076941e+001 
3584375000  -4.066292e+001  7.114597e+001 
3587500000  -3.996552e+001  6.638277e+001 
3590625000  -4.013355e+001  5.661739e+001 
3593750000  -4.118691e+001  5.382732e+001 
3596875000  -4.144977e+001  6.304645e+001 
3600000000  -3.962866e+001  5.999381e+001 
3603125000  -3.971156e+001  4.664262e+001 
3606250000  -4.045801e+001  4.335604e+001 
3609375000  -4.094770e+001  4.340005e+001 
3612500000  -4.144127e+001  4.236178e+001 
3615625000  -4.130347e+001  3.730099e+001 
3618750000  -4.219780e+001  4.207512e+001 
3621875000  -4.155428e+001  4.158870e+001 
3625000000  -4.184652e+001  4.075906e+001 
3628125000  -4.177233e+001  4.198407e+001 
3631250000  -4.141325e+001  3.646071e+001 
3634375000  -4.271540e+001  3.753973e+001 
3637500000  -4.206017e+001  4.354716e+001 
3640625000  -4.096700e+001  4.448600e+001 
3643750000  -4.091911e+001  3.733743e+001 
3646875000  -4.116327e+001  3.324621e+001 
3650000000  -4.163564e+001  3.259347e+001 
3653125000  -4.151513e+001  3.178593e+001 
3656250000  -4.178972e+001  3.030618e+001 
3659375000  -4.224739e+001  3.391945e+001 
3662500000  -4.109812e+001  3.353566e+001 
3665625000  -4.132999e+001  3.445671e+001 
3668750000  -4.056830e+001  3.584625e+001 
3671875000  -3.964327e+001  3.143662e+001 
3675000000  -3.983467e+001  2.316750e+001 
3678125000  -4.038270e+001  2.394690e+001 
3681250000  -3.983511e+001  2.772988e+001 
3684375000  -3.973014e+001  2.496184e+001 
3687500000  -3.981012e+001  2.410431e+001 
3690625000  -3.965221e+001  2.249549e+001 
3693750000  -4.033934e+001  2.393119e+001 
3696875000  -3.991132e+001  2.629745e+001 
3700000000  -3.892504e+001  2.441739e+001 
3703125000  -3.873554e+001  2.099830e+001 
3706250000  -3.959387e+001  2.128871e+001 
3709375000  -3.853558e+001  2.591726e+001 
3712500000  -3.756517e+001  2.543807e+001 
3715625000  -3.649965e+001  1.951662e+001 
3718750000  -3.577628e+001  1.750603e+001 
3721875000  -3.520628e+001  1.238326e+001 
3725000000  -3.513132e+001  7.078569e+000 
3728125000  -3.545743e+001  5.756291e+000 
3731250000  -3.481706e+001  6.402476e+000 
3734375000  -3.383586e+001  -8.165784e-001 
3737500000  -3.422206e+001  -7.766634e+000 
3740625000  -3.483874e+001  -1.008589e+001 
3743750000  -3.473085e+001  -1.223125e+001 
3746875000  -3.457473e+001  -1.584105e+001 
3750000000  -3.505196e+001  -1.703811e+001 
3753125000  -3.475659e+001  -1.655044e+001 
3756250000  -3.440618e+001  -1.812708e+001 
3759375000  -3.438024e+001  -1.845919e+001 
3762500000  -3.374733e+001  -2.190713e+001 
3765625000  -3.430779e+001  -2.497783e+001 
3768750000  -3.431020e+001  -2.329956e+001 
3771875000  -3.265858e+001  -2.461501e+001 
3775000000  -3.239070e+001  -3.217512e+001 
3778125000  -3.262609e+001  -3.439927e+001 
3781250000  -3.236637e+001  -3.687223e+001 
3784375000  -3.243696e+001  -3.900993e+001 
3787500000  -3.171166e+001  -4.326572e+001 
3790625000  -3.227124e+001  -4.835536e+001 
3793750000  -3.238559e+001  -4.923258e+001 
3796875000  -3.153256e+001  -5.042885e+001 
3800000000  -3.003011e+001  -5.458105e+001 
3803125000  -3.073818e+001  -6.075543e+001 
3806250000  -3.135876e+001  -6.302002e+001 
3809375000  -3.119142e+001  -6.411266e+001 
3812500000  -3.045340e+001  -6.943886e+001 
3815625000  -3.105199e+001  -7.662682e+001 
3818750000  -3.180288e+001  -7.821735e+001 
3821875000  -3.209106e+001  -6.979430e+001 
3825000000  -3.018546e+001  -6.532774e+001 
3828125000  -2.885162e+001  -7.910152e+001 
3831250000  -2.942115e+001  -9.319126e+001 
3834375000  -3.051020e+001  -9.414983e+001 
3837500000  -3.153525e+001  -8.956994e+001 
3840625000  -3.045339e+001  -9.013656e+001 
3843750000  -2.935322e+001  -1.001116e+002 
3846875000  -2.994146e+001  -1.067861e+002 
3850000000  -3.129178e+001  -1.018856e+002 
3853125000  -3.042148e+001  -9.909560e+001 
3856250000  -3.042233e+001  -1.047005e+002 
3859375000  -2.983441e+001  -1.085566e+002 
3862500000  -2.936982e+001  -1.156268e+002 
3865625000  -2.955456e+001  -1.201272e+002 
3868750000  -2.965993e+001  -1.209796e+002 
3871875000  -2.893133e+001  -1.230358e+002 
3875000000  -2.902536e+001  -1.318808e+002 
3878125000  -3.004521e+001  -1.348739e+002 
3881250000  -3.022643e+001  -1.315419e+002 
3884375000  -2.964462e+001  -1.359660e+002 
3887500000  -2.974933e+001  -1.402155e+002 
3890625000  -3.022192e+001  -1.424504e+002 
3893750000  -3.060228e+001  -1.437687e+002 
3896875000  -3.070087e+001  -1.433287e+002 
3900000000  -3.093930e+001  -1.435983e+002 
3903125000  -3.061770e+001  -1.459686e+002 
3906250000  -3.040762e+001  -1.467747e+002 
3909375000  -2.977413e+001  -1.489975e+002 
3912500000  -2.969547e+001  -1.564721e+002 
3915625000  -3.086068e+001  -1.555784e+002 
3918750000  -3.095529e+001  -1.537024e+002 
3921875000  -3.055001e+001  -1.549909e+002 
3925000000  -2.979320e+001  -1.562371e+002 
3928125000  -2.902754e+001  -1.616303e+002 
3931250000  -2.951963e+001  -1.659457e+002 
3934375000  -2.971147e+001  -1.658246e+002 
3937500000  -2.984901e+001  -1.661655e+002 
3940625000  -3.034782e+001  -1.659329e+002 
3943750000  -2.936599e+001  -1.649010e+002 
3946875000  -2.817219e+001  -1.701544e+002 
3950000000  -2.851909e+001  -1.782287e+002 
3953125000  -2.957319e+001  -1.779093e+002 
3956250000  -2.875550e+001  -1.746834e+002 
3959375000  -2.742056e+001  -1.779073e+002 
3962500000  -2.688324e+001  1.777817e+002 
3965625000  -2.648964e+001  1.694896e+002 
3968750000  -2.738949e+001  1.625970e+002 
3971875000  -2.781867e+001  1.605191e+002 
3975000000  -2.717989e+001  1.586240e+002 
3978125000  -2.699287e+001  1.579865e+002 
3981250000  -2.668837e+001  1.534289e+002 
3984375000  -2.694524e+001  1.474638e+002 
3987500000  -2.747830e+001  1.450590e+002 
3990625000  -2.749518e+001  1.439499e+002 
3993750000  -2.776226e+001  1.406913e+002 
3996875000  -2.765962e+001  1.385691e+002 
4000000000  -2.775657e+001  1.363257e+002 
4003125000  -2.837026e+001  1.382202e+002 
4006250000  -2.699901e+001  1.392759e+002 
4009375000  -2.583294e+001  1.269716e+002 
4012500000  -2.673430e+001  1.196709e+002 
4015625000  -2.800788e+001  1.205510e+002 
4018750000  -2.824344e+001  1.230306e+002 
4021875000  -2.756913e+001  1.210386e+002 
4025000000  -2.720163e+001  1.164207e+002 
4028125000  -2.715077e+001  1.125837e+002 
4031250000  -2.754663e+001  1.093820e+002 
4034375000  -2.785806e+001  1.094885e+002 
4037500000  -2.730703e+001  1.111027e+002 
4040625000  -2.722167e+001  1.076680e+002 
4043750000  -2.749856e+001  1.073080e+002 
4046875000  -2.710694e+001  1.069805e+002 
4050000000  -2.659203e+001  1.014896e+002 
4053125000  -2.705621e+001  9.949763e+001 
4056250000  -2.762823e+001  1.031028e+002 
4059375000  -2.655080e+001  1.048748e+002 
4062500000  -2.515018e+001  1.004455e+002 
4065625000  -2.494757e+001  9.618031e+001 
4068750000  -2.469565e+001  9.105918e+001 
4071875000  -2.406799e+001  8.331248e+001 
4075000000  -2.432854e+001  7.740568e+001 
4078125000  -2.492807e+001  7.601058e+001 
4081250000  -2.438660e+001  7.358475e+001 
4084375000  -2.399921e+001  6.748553e+001 
4087500000  -2.437315e+001  6.080232e+001 
4090625000  -2.492717e+001  5.938454e+001 
4093750000  -2.481281e+001  6.013091e+001 
4096875000  -2.437247e+001  5.478827e+001 
4100000000  -2.501129e+001  4.726360e+001 
4103125000  -2.585037e+001  4.785229e+001 
4106250000  -2.580618e+001  5.265101e+001 
4109375000  -2.494904e+001  5.215465e+001 
4112500000  -2.438566e+001  4.585941e+001 
4115625000  -2.467607e+001  4.148380e+001 
4118750000  -2.477323e+001  3.856232e+001 
4121875000  -2.443789e+001  3.409814e+001 
4125000000  -2.472378e+001  2.899455e+001 
4128125000  -2.573473e+001  2.846078e+001 
4131250000  -2.553425e+001  3.662637e+001 
4134375000  -2.325304e+001  3.291722e+001 
4137500000  -2.291353e+001  1.429192e+001 
4140625000  -2.499743e+001  7.023734e+000 
4143750000  -2.640523e+001  1.107329e+001 
4146875000  -2.604276e+001  1.888119e+001 
4150000000  -2.514561e+001  1.630505e+001 
4153125000  -2.487565e+001  9.706626e+000 
4156250000  -2.574699e+001  7.136623e+000 
4159375000  -2.600833e+001  1.118720e+001 
4162500000  -2.492588e+001  1.550817e+001 
4165625000  -2.382818e+001  1.161840e+001 
4168750000  -2.319708e+001  4.828832e+000 
4171875000  -2.313680e+001  -4.542411e+000 
4175000000  -2.370721e+001  -1.006136e+001 
4178125000  -2.434037e+001  -1.036339e+001 
4181250000  -2.423655e+001  -1.077433e+001 
4184375000  -2.405974e+001  -1.398144e+001 
4187500000  -2.412354e+001  -1.677445e+001 
4190625000  -2.389123e+001  -2.200857e+001 
4193750000  -2.460653e+001  -2.597189e+001 
4196875000  -2.533980e+001  -2.671980e+001 
4200000000  -2.612007e+001  -2.432820e+001 
4203125000  -2.635926e+001  -1.223678e+001 
4206250000  -2.310296e+001  -9.143848e+000 
4209375000  -2.177432e+001  -2.931523e+001 
4212500000  -2.358136e+001  -3.857255e+001 
4215625000  -2.464433e+001  -3.282362e+001 
4218750000  -2.341181e+001  -2.605717e+001 
4221875000  -2.104376e+001  -3.504682e+001 
4225000000  -2.222842e+001  -4.738853e+001 
4228125000  -2.302731e+001  -4.314063e+001 
4231250000  -2.143460e+001  -4.643283e+001 
4234375000  -2.135579e+001  -5.467210e+001 
4237500000  -2.091985e+001  -5.773775e+001 
4240625000  -2.095550e+001  -6.633856e+001 
4243750000  -2.189356e+001  -7.279196e+001 
4246875000  -2.279500e+001  -7.312480e+001 
4250000000  -2.285808e+001  -7.037061e+001 
4253125000  -2.221526e+001  -7.228522e+001 
4256250000  -2.253470e+001  -7.638622e+001 
4259375000  -2.231601e+001  -7.834914e+001 
4262500000  -2.232275e+001  -8.198405e+001 
4265625000  -2.248313e+001  -8.186710e+001 
4268750000  -2.168150e+001  -8.570238e+001 
4271875000  -2.139895e+001  -9.113448e+001 
4275000000  -2.075714e+001  -9.733383e+001 
4278125000  -2.130666e+001  -1.082898e+002 
4281250000  -2.309103e+001  -1.108804e+002 
4284375000  -2.283566e+001  -1.100806e+002 
4287500000  -2.352186e+001  -1.140530e+002 
4290625000  -2.482835e+001  -1.045484e+002 
4293750000  -2.294287e+001  -9.871014e+001 
4296875000  -2.152444e+001  -1.096942e+002 
4300000000  -2.235770e+001  -1.190062e+002 
4303125000  -2.345868e+001  -1.184064e+002 
4306250000  -2.293927e+001  -1.122589e+002 
4309375000  -2.154523e+001  -1.141550e+002 
4312500000  -2.139472e+001  -1.222865e+002 
4315625000  -2.156401e+001  -1.283853e+002 
4318750000  -2.189481e+001  -1.318224e+002 
4321875000  -2.206507e+001  -1.315653e+002 
4325000000  -2.147868e+001  -1.307353e+002 
4328125000  -2.099334e+001  -1.370586e+002 
4331250000  -2.093183e+001  -1.451673e+002 
4334375000  -2.133354e+001  -1.503084e+002 
4337500000  -2.210940e+001  -1.523627e+002 
4340625000  -2.267055e+001  -1.495076e+002 
4343750000  -2.216123e+001  -1.488695e+002 
4346875000  -2.181106e+001  -1.541138e+002 
4350000000  -2.176065e+001  -1.587521e+002 
4353125000  -2.173888e+001  -1.666012e+002 
4356250000  -2.338906e+001  -1.679345e+002 
4359375000  -2.418875e+001  -1.557099e+002 
4362500000  -2.165644e+001  -1.533760e+002 
4365625000  -1.993357e+001  -1.643989e+002 
4368750000  -2.054815e+001  -1.763262e+002 
4371875000  -2.179748e+001  -1.760517e+002 
4375000000  -2.154272e+001  -1.745797e+002 
4378125000  -2.087005e+001  1.798255e+002 
4381250000  -2.101398e+001  1.743136e+002 
4384375000  -2.087488e+001  1.699020e+002 
4387500000  -2.149761e+001  1.641682e+002 
4390625000  -2.260359e+001  1.644417e+002 
4393750000  -2.193942e+001  1.668323e+002 
4396875000  -2.124700e+001  1.646428e+002 
4400000000  -2.077788e+001  1.579794e+002 
4403125000  -2.124746e+001  1.501958e+002 
4406250000  -2.213468e+001  1.488203e+002 
4409375000  -2.209362e+001  1.466510e+002 
4412500000  -2.309699e+001  1.441168e+002 
4415625000  -2.349110e+001  1.483704e+002 
4418750000  -2.241349e+001  1.532734e+002 
