!Agilent Technologies,E8363B,MY43030201,A.06.04.32
!Agilent E8363B: A.06.04.32
!Date: Tuesday, November 11, 2014 20:45:33
!Correction: S21(Response(S21)) 
!S1P File: Measurement: S21:
# Hz S  dB   R 50
3000000000  -2.651874e+001  1.583970e+002 
3003125000  -2.785994e+001  1.539631e+002 
3006250000  -2.796708e+001  1.510522e+002 
3009375000  -2.825848e+001  1.560138e+002 
3012500000  -2.780874e+001  1.559290e+002 
3015625000  -2.682473e+001  1.488270e+002 
3018750000  -2.767882e+001  1.477700e+002 
3021875000  -2.643833e+001  1.492641e+002 
3025000000  -2.516163e+001  1.462117e+002 
3028125000  -2.418271e+001  1.413114e+002 
3031250000  -2.311795e+001  1.302048e+002 
3034375000  -2.272684e+001  1.175059e+002 
3037500000  -2.306472e+001  1.054461e+002 
3040625000  -2.437702e+001  1.002285e+002 
3043750000  -2.511279e+001  9.622691e+001 
3046875000  -2.521603e+001  8.959106e+001 
3050000000  -2.695781e+001  8.239545e+001 
3053125000  -2.716124e+001  8.855163e+001 
3056250000  -2.643166e+001  9.191287e+001 
3059375000  -2.668730e+001  9.144369e+001 
3062500000  -2.522350e+001  8.788686e+001 
3065625000  -2.502683e+001  8.227350e+001 
3068750000  -2.474874e+001  7.533646e+001 
3071875000  -2.468847e+001  7.226374e+001 
3075000000  -2.467689e+001  6.854356e+001 
3078125000  -2.434298e+001  6.404321e+001 
3081250000  -2.503662e+001  6.004985e+001 
3084375000  -2.430891e+001  5.621441e+001 
3087500000  -2.413158e+001  5.276761e+001 
3090625000  -2.384144e+001  4.318826e+001 
3093750000  -2.421994e+001  3.509961e+001 
3096875000  -2.557302e+001  2.881957e+001 
3100000000  -2.573263e+001  2.757540e+001 
3103125000  -2.602987e+001  2.904787e+001 
3106250000  -2.582078e+001  2.537281e+001 
3109375000  -2.605357e+001  2.203953e+001 
3112500000  -2.619858e+001  2.110558e+001 
3115625000  -2.595813e+001  1.690109e+001 
3118750000  -2.647561e+001  1.806382e+001 
3121875000  -2.582798e+001  1.021253e+001 
3125000000  -2.689222e+001  6.370932e+000 
3128125000  -2.817293e+001  1.434472e+001 
3131250000  -2.605145e+001  1.536657e+001 
3134375000  -2.463808e+001  1.855649e+000 
3137500000  -2.525172e+001  -1.249489e+001 
3140625000  -2.688632e+001  -1.396098e+001 
3143750000  -2.793552e+001  -9.343862e+000 
3146875000  -2.750546e+001  -8.178171e+000 
3150000000  -2.652506e+001  -5.402523e+000 
3153125000  -2.643015e+001  -1.327752e+001 
3156250000  -2.742655e+001  -8.123676e+000 
3159375000  -2.597150e+001  -5.032766e+000 
3162500000  -2.390430e+001  -1.780776e+001 
3165625000  -2.479554e+001  -2.864217e+001 
3168750000  -2.524488e+001  -2.786603e+001 
3171875000  -2.426608e+001  -3.195370e+001 
3175000000  -2.486423e+001  -3.969966e+001 
3178125000  -2.473648e+001  -3.828599e+001 
3181250000  -2.353076e+001  -4.182387e+001 
3184375000  -2.265986e+001  -5.425677e+001 
3187500000  -2.374480e+001  -6.970435e+001 
3190625000  -2.658565e+001  -7.742495e+001 
3193750000  -2.724186e+001  -6.773563e+001 
3196875000  -2.680594e+001  -6.204937e+001 
3200000000  -2.598927e+001  -6.385081e+001 
3203125000  -2.503006e+001  -6.964781e+001 
3206250000  -2.535265e+001  -7.584835e+001 
3209375000  -2.487498e+001  -8.075166e+001 
3212500000  -2.495549e+001  -8.738659e+001 
3215625000  -2.514073e+001  -9.219292e+001 
3218750000  -2.589690e+001  -9.813699e+001 
3221875000  -2.691556e+001  -1.032048e+002 
3225000000  -2.653518e+001  -1.034518e+002 
3228125000  -2.677744e+001  -1.081797e+002 
3231250000  -2.752799e+001  -1.110726e+002 
3234375000  -2.739473e+001  -1.101617e+002 
3237500000  -2.746765e+001  -1.115225e+002 
3240625000  -2.711295e+001  -1.131534e+002 
3243750000  -2.672075e+001  -1.195921e+002 
3246875000  -2.722977e+001  -1.264228e+002 
3250000000  -2.766860e+001  -1.282731e+002 
3253125000  -2.780143e+001  -1.299350e+002 
3256250000  -2.770409e+001  -1.360060e+002 
3259375000  -2.799818e+001  -1.435893e+002 
3262500000  -2.925388e+001  -1.459755e+002 
3265625000  -2.999323e+001  -1.433141e+002 
3268750000  -2.998201e+001  -1.405072e+002 
3271875000  -2.977175e+001  -1.391184e+002 
3275000000  -2.866464e+001  -1.441442e+002 
3278125000  -2.908525e+001  -1.505581e+002 
3281250000  -2.938220e+001  -1.484393e+002 
3284375000  -2.895054e+001  -1.542943e+002 
3287500000  -2.903382e+001  -1.574511e+002 
3290625000  -2.952110e+001  -1.617155e+002 
3293750000  -2.918468e+001  -1.671086e+002 
3296875000  -3.014593e+001  -1.675791e+002 
3300000000  -3.014853e+001  -1.659578e+002 
3303125000  -2.901310e+001  -1.697136e+002 
3306250000  -2.875178e+001  -1.767129e+002 
3309375000  -2.854100e+001  1.786931e+002 
3312500000  -2.852937e+001  1.683464e+002 
3315625000  -2.950923e+001  1.603238e+002 
3318750000  -3.089706e+001  1.577454e+002 
3321875000  -3.208389e+001  1.572851e+002 
3325000000  -3.266892e+001  1.613961e+002 
3328125000  -3.257241e+001  1.636085e+002 
3331250000  -3.135026e+001  1.715035e+002 
3334375000  -2.880967e+001  1.620636e+002 
3337500000  -2.879516e+001  1.443489e+002 
3340625000  -3.012362e+001  1.322021e+002 
3343750000  -3.208760e+001  1.314861e+002 
3346875000  -3.266792e+001  1.330639e+002 
3350000000  -3.207170e+001  1.323141e+002 
3353125000  -3.207010e+001  1.274475e+002 
3356250000  -3.183389e+001  1.196876e+002 
3359375000  -3.262955e+001  1.111968e+002 
3362500000  -3.406830e+001  1.058330e+002 
3365625000  -3.457806e+001  1.047178e+002 
3368750000  -3.547788e+001  1.026841e+002 
3371875000  -3.597858e+001  1.000856e+002 
3375000000  -3.751194e+001  9.676188e+001 
3378125000  -3.849001e+001  9.621291e+001 
3381250000  -4.010130e+001  1.028201e+002 
3384375000  -3.919339e+001  1.250206e+002 
3387500000  -3.613777e+001  1.125526e+002 
3390625000  -3.789079e+001  9.268022e+001 
3393750000  -3.980174e+001  9.640956e+001 
3396875000  -3.898901e+001  9.978548e+001 
3400000000  -3.902412e+001  9.279674e+001 
3403125000  -3.989192e+001  8.747911e+001 
3406250000  -4.089351e+001  9.047267e+001 
3409375000  -4.148775e+001  8.813123e+001 
3412500000  -4.230925e+001  8.801379e+001 
3415625000  -4.302784e+001  9.365089e+001 
3418750000  -4.357994e+001  9.630214e+001 
3421875000  -4.383628e+001  1.054038e+002 
3425000000  -4.315148e+001  1.069420e+002 
3428125000  -4.189670e+001  1.077938e+002 
3431250000  -4.199535e+001  1.028011e+002 
3434375000  -4.178010e+001  1.006476e+002 
3437500000  -4.198374e+001  9.905367e+001 
3440625000  -4.251270e+001  1.014048e+002 
3443750000  -4.124397e+001  1.034215e+002 
3446875000  -4.033070e+001  1.007389e+002 
3450000000  -4.005164e+001  9.025631e+001 
3453125000  -4.042906e+001  8.309901e+001 
3456250000  -4.139272e+001  7.786607e+001 
3459375000  -4.251393e+001  7.682683e+001 
3462500000  -4.258228e+001  7.861674e+001 
3465625000  -4.278038e+001  7.465504e+001 
3468750000  -4.324826e+001  7.099878e+001 
3471875000  -4.320957e+001  7.291118e+001 
3475000000  -4.317944e+001  7.131552e+001 
3478125000  -4.379383e+001  6.256128e+001 
3481250000  -4.514925e+001  6.582497e+001 
3484375000  -4.682002e+001  6.766113e+001 
3487500000  -4.620802e+001  7.336403e+001 
3490625000  -4.593241e+001  6.884115e+001 
3493750000  -4.628455e+001  6.511750e+001 
3496875000  -4.722018e+001  6.788828e+001 
3500000000  -4.804450e+001  7.753505e+001 
3503125000  -4.873330e+001  8.342956e+001 
3506250000  -4.742617e+001  8.048137e+001 
3509375000  -4.736309e+001  7.941399e+001 
3512500000  -4.744921e+001  8.064268e+001 
3515625000  -4.792158e+001  8.521024e+001 
3518750000  -4.846555e+001  8.828043e+001 
3521875000  -4.811507e+001  9.312314e+001 
3525000000  -4.837339e+001  9.280078e+001 
3528125000  -4.740799e+001  1.049875e+002 
3531250000  -4.605821e+001  1.029821e+002 
3534375000  -4.506022e+001  1.004648e+002 
3537500000  -4.530621e+001  9.281178e+001 
3540625000  -4.538306e+001  9.242152e+001 
3543750000  -4.582619e+001  9.510865e+001 
3546875000  -4.576099e+001  1.078849e+002 
3550000000  -4.292062e+001  1.096883e+002 
3553125000  -4.159100e+001  9.363788e+001 
3556250000  -4.255995e+001  8.646900e+001 
3559375000  -4.218397e+001  8.812376e+001 
3562500000  -4.089712e+001  8.280560e+001 
3565625000  -4.156668e+001  7.624287e+001 
3568750000  -4.214830e+001  7.846193e+001 
3571875000  -4.154558e+001  8.002416e+001 
3575000000  -4.122589e+001  7.596355e+001 
3578125000  -4.153625e+001  7.066986e+001 
3581250000  -4.152932e+001  7.144632e+001 
3584375000  -4.105141e+001  7.083729e+001 
3587500000  -4.002417e+001  6.408088e+001 
3590625000  -4.035272e+001  5.457143e+001 
3593750000  -4.146733e+001  5.299435e+001 
3596875000  -4.145665e+001  6.316079e+001 
3600000000  -3.972636e+001  5.900161e+001 
3603125000  -3.982707e+001  4.664917e+001 
3606250000  -4.056163e+001  4.126588e+001 
3609375000  -4.103893e+001  4.200742e+001 
3612500000  -4.139403e+001  4.102160e+001 
3615625000  -4.140315e+001  3.975884e+001 
3618750000  -4.184353e+001  4.001295e+001 
3621875000  -4.161401e+001  3.854295e+001 
3625000000  -4.180824e+001  3.874274e+001 
3628125000  -4.179351e+001  4.129958e+001 
3631250000  -4.151271e+001  3.414418e+001 
3634375000  -4.247488e+001  3.487409e+001 
3637500000  -4.233005e+001  4.113563e+001 
3640625000  -4.090152e+001  4.325325e+001 
3643750000  -4.078042e+001  3.778896e+001 
3646875000  -4.122443e+001  3.118523e+001 
3650000000  -4.175193e+001  2.926978e+001 
3653125000  -4.140226e+001  3.022256e+001 
3656250000  -4.180667e+001  2.865491e+001 
3659375000  -4.217015e+001  3.110116e+001 
3662500000  -4.139685e+001  3.156534e+001 
3665625000  -4.141892e+001  3.141641e+001 
3668750000  -4.047319e+001  3.323364e+001 
3671875000  -3.942139e+001  2.887921e+001 
3675000000  -3.988597e+001  2.297352e+001 
3678125000  -4.022407e+001  2.560285e+001 
3681250000  -4.003539e+001  2.602523e+001 
3684375000  -3.958877e+001  2.525445e+001 
3687500000  -3.994398e+001  2.291326e+001 
3690625000  -3.981006e+001  1.984020e+001 
3693750000  -4.025754e+001  2.303296e+001 
3696875000  -4.013404e+001  2.437889e+001 
3700000000  -3.920511e+001  2.339531e+001 
3703125000  -3.889323e+001  2.108284e+001 
3706250000  -3.949739e+001  2.284106e+001 
3709375000  -3.870459e+001  2.551653e+001 
3712500000  -3.761424e+001  2.483392e+001 
3715625000  -3.642458e+001  1.940026e+001 
3718750000  -3.565490e+001  1.680826e+001 
3721875000  -3.528690e+001  1.127701e+001 
3725000000  -3.517535e+001  6.721252e+000 
3728125000  -3.544888e+001  4.982134e+000 
3731250000  -3.473434e+001  4.162884e+000 
3734375000  -3.373042e+001  -2.477326e-001 
3737500000  -3.422290e+001  -7.992481e+000 
3740625000  -3.482395e+001  -1.193615e+001 
3743750000  -3.459819e+001  -1.315902e+001 
3746875000  -3.457293e+001  -1.692691e+001 
3750000000  -3.494709e+001  -1.723388e+001 
3753125000  -3.463229e+001  -1.797611e+001 
3756250000  -3.444546e+001  -1.872130e+001 
3759375000  -3.431504e+001  -1.884609e+001 
3762500000  -3.370714e+001  -2.382004e+001 
3765625000  -3.416211e+001  -2.629655e+001 
3768750000  -3.422979e+001  -2.377339e+001 
3771875000  -3.251140e+001  -2.583127e+001 
3775000000  -3.218560e+001  -3.410014e+001 
3778125000  -3.252440e+001  -3.513805e+001 
3781250000  -3.232220e+001  -3.892707e+001 
3784375000  -3.229448e+001  -4.106673e+001 
3787500000  -3.168383e+001  -4.481691e+001 
3790625000  -3.215077e+001  -4.991682e+001 
3793750000  -3.243222e+001  -5.092828e+001 
3796875000  -3.156701e+001  -5.190879e+001 
3800000000  -2.998273e+001  -5.567623e+001 
3803125000  -3.072407e+001  -6.189089e+001 
3806250000  -3.137761e+001  -6.501591e+001 
3809375000  -3.117643e+001  -6.620193e+001 
3812500000  -3.036995e+001  -7.049657e+001 
3815625000  -3.095879e+001  -7.783916e+001 
3818750000  -3.198439e+001  -7.964359e+001 
3821875000  -3.213002e+001  -7.133301e+001 
3825000000  -3.020819e+001  -6.699691e+001 
3828125000  -2.889361e+001  -8.052636e+001 
3831250000  -2.938867e+001  -9.488016e+001 
3834375000  -3.064633e+001  -9.482806e+001 
3837500000  -3.150220e+001  -9.055095e+001 
3840625000  -3.041309e+001  -9.130842e+001 
3843750000  -2.926919e+001  -1.010007e+002 
3846875000  -2.990545e+001  -1.086834e+002 
3850000000  -3.120751e+001  -1.040388e+002 
3853125000  -3.038277e+001  -1.008105e+002 
3856250000  -3.049507e+001  -1.054383e+002 
3859375000  -2.978433e+001  -1.095372e+002 
3862500000  -2.932310e+001  -1.169453e+002 
3865625000  -2.951027e+001  -1.215163e+002 
3868750000  -2.957230e+001  -1.223049e+002 
3871875000  -2.887082e+001  -1.244001e+002 
3875000000  -2.892319e+001  -1.329588e+002 
3878125000  -2.994663e+001  -1.361369e+002 
3881250000  -3.009265e+001  -1.332920e+002 
3884375000  -2.955017e+001  -1.377153e+002 
3887500000  -2.961965e+001  -1.421197e+002 
3890625000  -3.009319e+001  -1.438928e+002 
3893750000  -3.053594e+001  -1.458287e+002 
3896875000  -3.076710e+001  -1.448167e+002 
3900000000  -3.097208e+001  -1.459356e+002 
3903125000  -3.057153e+001  -1.480571e+002 
3906250000  -3.035779e+001  -1.487532e+002 
3909375000  -2.971722e+001  -1.511927e+002 
3912500000  -2.968204e+001  -1.583366e+002 
3915625000  -3.081269e+001  -1.576514e+002 
3918750000  -3.080387e+001  -1.561632e+002 
3921875000  -3.057705e+001  -1.580002e+002 
3925000000  -2.976684e+001  -1.584753e+002 
3928125000  -2.911547e+001  -1.639845e+002 
3931250000  -2.945286e+001  -1.678457e+002 
3934375000  -2.975964e+001  -1.676361e+002 
3937500000  -2.983545e+001  -1.689572e+002 
3940625000  -3.030587e+001  -1.690513e+002 
3943750000  -2.947128e+001  -1.673949e+002 
3946875000  -2.810929e+001  -1.723107e+002 
3950000000  -2.862024e+001  -1.794815e+002 
3953125000  -2.952685e+001  -1.790720e+002 
3956250000  -2.881972e+001  -1.763523e+002 
3959375000  -2.749872e+001  -1.793423e+002 
3962500000  -2.691027e+001  1.765874e+002 
3965625000  -2.651308e+001  1.678291e+002 
3968750000  -2.739227e+001  1.606539e+002 
3971875000  -2.783419e+001  1.595637e+002 
3975000000  -2.720019e+001  1.575477e+002 
3978125000  -2.699646e+001  1.562916e+002 
3981250000  -2.674502e+001  1.521634e+002 
3984375000  -2.694538e+001  1.454928e+002 
3987500000  -2.744549e+001  1.436322e+002 
3990625000  -2.746451e+001  1.426079e+002 
3993750000  -2.769769e+001  1.391604e+002 
3996875000  -2.764155e+001  1.367731e+002 
4000000000  -2.766532e+001  1.347869e+002 
4003125000  -2.834474e+001  1.371444e+002 
4006250000  -2.699628e+001  1.377563e+002 
4009375000  -2.569377e+001  1.250135e+002 
4012500000  -2.672218e+001  1.184013e+002 
4015625000  -2.796812e+001  1.189117e+002 
4018750000  -2.818178e+001  1.206667e+002 
4021875000  -2.753338e+001  1.192107e+002 
4025000000  -2.718686e+001  1.142163e+002 
4028125000  -2.710763e+001  1.103566e+002 
4031250000  -2.755512e+001  1.071114e+002 
4034375000  -2.786957e+001  1.068977e+002 
4037500000  -2.733783e+001  1.089322e+002 
4040625000  -2.728870e+001  1.054457e+002 
4043750000  -2.766806e+001  1.049472e+002 
4046875000  -2.717098e+001  1.043900e+002 
4050000000  -2.667782e+001  9.901941e+001 
4053125000  -2.713049e+001  9.709688e+001 
4056250000  -2.774196e+001  1.007993e+002 
4059375000  -2.667055e+001  1.027444e+002 
4062500000  -2.519470e+001  9.857865e+001 
4065625000  -2.501636e+001  9.358395e+001 
4068750000  -2.479891e+001  8.923906e+001 
4071875000  -2.417405e+001  8.158571e+001 
4075000000  -2.445070e+001  7.512520e+001 
4078125000  -2.503452e+001  7.414225e+001 
4081250000  -2.454183e+001  7.204443e+001 
4084375000  -2.415184e+001  6.551260e+001 
4087500000  -2.446344e+001  5.936982e+001 
4090625000  -2.510065e+001  5.811425e+001 
4093750000  -2.493535e+001  5.863678e+001 
4096875000  -2.446183e+001  5.287207e+001 
4100000000  -2.511343e+001  4.583707e+001 
4103125000  -2.594721e+001  4.638428e+001 
4106250000  -2.587485e+001  5.101657e+001 
4109375000  -2.502298e+001  5.098703e+001 
4112500000  -2.448007e+001  4.396997e+001 
4115625000  -2.481610e+001  3.968271e+001 
4118750000  -2.486736e+001  3.702554e+001 
4121875000  -2.446922e+001  3.245678e+001 
4125000000  -2.478930e+001  2.735004e+001 
4128125000  -2.575117e+001  2.717371e+001 
4131250000  -2.557378e+001  3.496630e+001 
4134375000  -2.328527e+001  3.121255e+001 
4137500000  -2.297042e+001  1.259759e+001 
4140625000  -2.507530e+001  5.283937e+000 
4143750000  -2.643484e+001  9.698342e+000 
4146875000  -2.607319e+001  1.703273e+001 
4150000000  -2.522030e+001  1.396540e+001 
4153125000  -2.500864e+001  7.689391e+000 
4156250000  -2.584850e+001  4.935267e+000 
4159375000  -2.616426e+001  9.340084e+000 
4162500000  -2.505446e+001  1.318300e+001 
4165625000  -2.388243e+001  9.726722e+000 
4168750000  -2.330465e+001  2.543919e+000 
4171875000  -2.330402e+001  -6.525406e+000 
4175000000  -2.388013e+001  -1.250229e+001 
4178125000  -2.444819e+001  -1.230908e+001 
4181250000  -2.438473e+001  -1.252367e+001 
4184375000  -2.421397e+001  -1.588342e+001 
4187500000  -2.426092e+001  -1.863240e+001 
4190625000  -2.406804e+001  -2.369030e+001 
4193750000  -2.483780e+001  -2.778033e+001 
4196875000  -2.554319e+001  -2.817297e+001 
4200000000  -2.634748e+001  -2.662636e+001 
4203125000  -2.647435e+001  -1.346127e+001 
4206250000  -2.323223e+001  -1.139380e+001 
4209375000  -2.195504e+001  -3.095343e+001 
4212500000  -2.384394e+001  -4.043771e+001 
4215625000  -2.483293e+001  -3.440763e+001 
4218750000  -2.361769e+001  -2.715342e+001 
4221875000  -2.124873e+001  -3.663883e+001 
4225000000  -2.240945e+001  -4.914966e+001 
4228125000  -2.314042e+001  -4.426847e+001 
4231250000  -2.160224e+001  -4.746856e+001 
4234375000  -2.155331e+001  -5.597471e+001 
4237500000  -2.105948e+001  -5.921011e+001 
4240625000  -2.110359e+001  -6.750907e+001 
4243750000  -2.202830e+001  -7.424997e+001 
4246875000  -2.291698e+001  -7.434970e+001 
4250000000  -2.297527e+001  -7.205052e+001 
4253125000  -2.238141e+001  -7.372944e+001 
4256250000  -2.270246e+001  -7.783405e+001 
4259375000  -2.246445e+001  -7.987218e+001 
4262500000  -2.242813e+001  -8.384096e+001 
4265625000  -2.256223e+001  -8.300251e+001 
4268750000  -2.175653e+001  -8.701510e+001 
4271875000  -2.153731e+001  -9.265627e+001 
4275000000  -2.084798e+001  -9.910916e+001 
4278125000  -2.140784e+001  -1.102449e+002 
4281250000  -2.326234e+001  -1.124731e+002 
4284375000  -2.298004e+001  -1.115981e+002 
4287500000  -2.367680e+001  -1.153757e+002 
4290625000  -2.500849e+001  -1.061928e+002 
4293750000  -2.308439e+001  -1.002143e+002 
4296875000  -2.168088e+001  -1.114340e+002 
4300000000  -2.254195e+001  -1.208941e+002 
4303125000  -2.360247e+001  -1.200604e+002 
4306250000  -2.311766e+001  -1.138764e+002 
4309375000  -2.169719e+001  -1.157250e+002 
4312500000  -2.157919e+001  -1.239228e+002 
4315625000  -2.178095e+001  -1.298290e+002 
4318750000  -2.209859e+001  -1.332558e+002 
4321875000  -2.226848e+001  -1.329986e+002 
4325000000  -2.169142e+001  -1.321987e+002 
4328125000  -2.123016e+001  -1.386300e+002 
4331250000  -2.116048e+001  -1.463289e+002 
4334375000  -2.152726e+001  -1.511725e+002 
4337500000  -2.232656e+001  -1.537209e+002 
4340625000  -2.295150e+001  -1.510236e+002 
4343750000  -2.240828e+001  -1.500873e+002 
4346875000  -2.200824e+001  -1.556133e+002 
4350000000  -2.198690e+001  -1.600054e+002 
4353125000  -2.196045e+001  -1.675568e+002 
4356250000  -2.359849e+001  -1.689894e+002 
4359375000  -2.437841e+001  -1.566843e+002 
4362500000  -2.190777e+001  -1.539204e+002 
4365625000  -2.013741e+001  -1.650924e+002 
4368750000  -2.076941e+001  -1.769907e+002 
4371875000  -2.200567e+001  -1.768047e+002 
4375000000  -2.168965e+001  -1.753795e+002 
4378125000  -2.101846e+001  1.789870e+002 
4381250000  -2.119481e+001  1.732313e+002 
4384375000  -2.104596e+001  1.689364e+002 
4387500000  -2.171353e+001  1.632233e+002 
4390625000  -2.273870e+001  1.636999e+002 
4393750000  -2.208020e+001  1.661191e+002 
4396875000  -2.140078e+001  1.636155e+002 
4400000000  -2.089506e+001  1.570993e+002 
4403125000  -2.139875e+001  1.495108e+002 
4406250000  -2.232355e+001  1.479610e+002 
4409375000  -2.226390e+001  1.456683e+002 
4412500000  -2.324565e+001  1.427624e+002 
4415625000  -2.369522e+001  1.476096e+002 
4418750000  -2.254525e+001  1.522386e+002 
