!Agilent Technologies,E8363B,MY43030201,A.06.04.32
!Agilent E8363B: A.06.04.32
!Date: Tuesday, November 11, 2014 20:56:32
!Correction: S21(Response(S21)) 
!S1P File: Measurement: S21:
# Hz S  dB   R 50
3000000000  -2.648221e+001  1.476365e+002 
3003125000  -2.791595e+001  1.430682e+002 
3006250000  -2.794650e+001  1.404068e+002 
3009375000  -2.833823e+001  1.454688e+002 
3012500000  -2.772351e+001  1.449991e+002 
3015625000  -2.685252e+001  1.380138e+002 
3018750000  -2.765167e+001  1.373177e+002 
3021875000  -2.639228e+001  1.386954e+002 
3025000000  -2.506303e+001  1.353488e+002 
3028125000  -2.412094e+001  1.299850e+002 
3031250000  -2.308772e+001  1.190373e+002 
3034375000  -2.274769e+001  1.060047e+002 
3037500000  -2.311370e+001  9.415189e+001 
3040625000  -2.442368e+001  8.912736e+001 
3043750000  -2.513551e+001  8.491135e+001 
3046875000  -2.528916e+001  7.845615e+001 
3050000000  -2.696498e+001  7.169185e+001 
3053125000  -2.707054e+001  7.825008e+001 
3056250000  -2.645791e+001  8.135239e+001 
3059375000  -2.666148e+001  8.088734e+001 
3062500000  -2.518551e+001  7.713303e+001 
3065625000  -2.495762e+001  7.128114e+001 
3068750000  -2.463255e+001  6.406895e+001 
3071875000  -2.466160e+001  6.134902e+001 
3075000000  -2.461697e+001  5.745183e+001 
3078125000  -2.431734e+001  5.297598e+001 
3081250000  -2.499503e+001  4.872144e+001 
3084375000  -2.421264e+001  4.501672e+001 
3087500000  -2.411833e+001  4.132876e+001 
3090625000  -2.380415e+001  3.140919e+001 
3093750000  -2.428511e+001  2.369097e+001 
3096875000  -2.556932e+001  1.783037e+001 
3100000000  -2.567064e+001  1.622435e+001 
3103125000  -2.606317e+001  1.782022e+001 
3106250000  -2.577001e+001  1.419751e+001 
3109375000  -2.606211e+001  1.075217e+001 
3112500000  -2.612558e+001  9.800948e+000 
3115625000  -2.595255e+001  5.498577e+000 
3118750000  -2.642648e+001  6.578735e+000 
3121875000  -2.578128e+001  -1.531210e+000 
3125000000  -2.699503e+001  -4.942897e+000 
3128125000  -2.818156e+001  3.967618e+000 
3131250000  -2.593044e+001  3.785430e+000 
3134375000  -2.464170e+001  -9.933280e+000 
3137500000  -2.528539e+001  -2.314912e+001 
3140625000  -2.689622e+001  -2.504159e+001 
3143750000  -2.794610e+001  -2.110551e+001 
3146875000  -2.746800e+001  -1.890048e+001 
3150000000  -2.650239e+001  -1.683368e+001 
3153125000  -2.646841e+001  -2.459492e+001 
3156250000  -2.751323e+001  -1.896968e+001 
3159375000  -2.591867e+001  -1.600200e+001 
3162500000  -2.385110e+001  -2.888494e+001 
3165625000  -2.480492e+001  -3.995562e+001 
3168750000  -2.518876e+001  -3.906102e+001 
3171875000  -2.424673e+001  -4.317387e+001 
3175000000  -2.488079e+001  -5.123870e+001 
3178125000  -2.464817e+001  -4.929683e+001 
3181250000  -2.350735e+001  -5.372461e+001 
3184375000  -2.271816e+001  -6.574280e+001 
3187500000  -2.384439e+001  -8.079165e+001 
3190625000  -2.660028e+001  -8.826299e+001 
3193750000  -2.719597e+001  -7.850634e+001 
3196875000  -2.674015e+001  -7.321971e+001 
3200000000  -2.585689e+001  -7.513218e+001 
3203125000  -2.502674e+001  -8.094255e+001 
3206250000  -2.531151e+001  -8.723277e+001 
3209375000  -2.484629e+001  -9.243437e+001 
3212500000  -2.502845e+001  -9.880101e+001 
3215625000  -2.513249e+001  -1.027454e+002 
3218750000  -2.586321e+001  -1.094890e+002 
3221875000  -2.684711e+001  -1.144905e+002 
3225000000  -2.645789e+001  -1.151116e+002 
3228125000  -2.678408e+001  -1.197105e+002 
3231250000  -2.753486e+001  -1.221197e+002 
3234375000  -2.740469e+001  -1.210738e+002 
3237500000  -2.742577e+001  -1.230063e+002 
3240625000  -2.707885e+001  -1.245821e+002 
3243750000  -2.673682e+001  -1.312608e+002 
3246875000  -2.725771e+001  -1.377061e+002 
3250000000  -2.766370e+001  -1.397135e+002 
3253125000  -2.786032e+001  -1.414598e+002 
3256250000  -2.771539e+001  -1.472075e+002 
3259375000  -2.799792e+001  -1.550960e+002 
3262500000  -2.926205e+001  -1.577576e+002 
3265625000  -2.996724e+001  -1.539149e+002 
3268750000  -2.989215e+001  -1.513450e+002 
3271875000  -2.963655e+001  -1.504984e+002 
3275000000  -2.856804e+001  -1.554312e+002 
3278125000  -2.910987e+001  -1.618071e+002 
3281250000  -2.934937e+001  -1.597152e+002 
3284375000  -2.886622e+001  -1.655954e+002 
3287500000  -2.905912e+001  -1.685599e+002 
3290625000  -2.946260e+001  -1.725936e+002 
3293750000  -2.921073e+001  -1.782672e+002 
3296875000  -3.021527e+001  -1.784702e+002 
3300000000  -3.005258e+001  -1.771085e+002 
3303125000  -2.889774e+001  1.791156e+002 
3306250000  -2.866127e+001  1.723933e+002 
3309375000  -2.840767e+001  1.669244e+002 
3312500000  -2.847776e+001  1.564742e+002 
3315625000  -2.951337e+001  1.488033e+002 
3318750000  -3.091875e+001  1.460386e+002 
3321875000  -3.212663e+001  1.462616e+002 
3325000000  -3.268365e+001  1.522144e+002 
3328125000  -3.234448e+001  1.538616e+002 
3331250000  -3.123743e+001  1.609781e+002 
3334375000  -2.860971e+001  1.509228e+002 
3337500000  -2.868303e+001  1.322251e+002 
3340625000  -3.009580e+001  1.212993e+002 
3343750000  -3.203609e+001  1.200116e+002 
3346875000  -3.255143e+001  1.221685e+002 
3350000000  -3.186934e+001  1.207074e+002 
3353125000  -3.201380e+001  1.158341e+002 
3356250000  -3.179259e+001  1.081980e+002 
3359375000  -3.265569e+001  1.000635e+002 
3362500000  -3.380320e+001  9.487741e+001 
3365625000  -3.445497e+001  9.344939e+001 
3368750000  -3.555699e+001  9.105061e+001 
3371875000  -3.584185e+001  8.849127e+001 
3375000000  -3.745107e+001  8.689806e+001 
3378125000  -3.848419e+001  8.603026e+001 
3381250000  -3.997932e+001  9.439066e+001 
3384375000  -3.924052e+001  1.156714e+002 
3387500000  -3.597827e+001  1.023762e+002 
3390625000  -3.789801e+001  8.236073e+001 
3393750000  -3.952399e+001  8.645117e+001 
3396875000  -3.877388e+001  8.931418e+001 
3400000000  -3.881630e+001  8.312657e+001 
3403125000  -3.963980e+001  7.860634e+001 
3406250000  -4.059502e+001  8.101354e+001 
3409375000  -4.103247e+001  7.669073e+001 
3412500000  -4.208821e+001  7.742367e+001 
3415625000  -4.309580e+001  8.354337e+001 
3418750000  -4.313307e+001  8.712228e+001 
3421875000  -4.344072e+001  9.301283e+001 
3425000000  -4.246667e+001  9.740271e+001 
3428125000  -4.147945e+001  9.581548e+001 
3431250000  -4.154168e+001  9.037141e+001 
3434375000  -4.101185e+001  8.925875e+001 
3437500000  -4.183331e+001  8.777209e+001 
3440625000  -4.182351e+001  8.966153e+001 
3443750000  -4.066563e+001  9.231977e+001 
3446875000  -3.993814e+001  8.843573e+001 
3450000000  -3.966375e+001  7.774060e+001 
3453125000  -4.003786e+001  6.881475e+001 
3456250000  -4.120273e+001  6.510267e+001 
3459375000  -4.199635e+001  6.656866e+001 
3462500000  -4.235246e+001  6.747971e+001 
3465625000  -4.221647e+001  6.445364e+001 
3468750000  -4.280463e+001  5.924401e+001 
3471875000  -4.286362e+001  6.370390e+001 
3475000000  -4.271461e+001  5.731450e+001 
3478125000  -4.341507e+001  5.251404e+001 
3481250000  -4.457089e+001  4.875632e+001 
3484375000  -4.605418e+001  5.512035e+001 
3487500000  -4.575989e+001  5.844898e+001 
3490625000  -4.530158e+001  5.621141e+001 
3493750000  -4.627441e+001  5.201133e+001 
3496875000  -4.697922e+001  5.502544e+001 
3500000000  -4.803143e+001  5.791778e+001 
3503125000  -4.759190e+001  6.443931e+001 
3506250000  -4.704497e+001  6.771508e+001 
3509375000  -4.663593e+001  6.634911e+001 
3512500000  -4.724862e+001  6.273649e+001 
3515625000  -4.784435e+001  6.745454e+001 
3518750000  -4.791207e+001  7.232625e+001 
3521875000  -4.784586e+001  7.678460e+001 
3525000000  -4.783964e+001  7.696299e+001 
3528125000  -4.765331e+001  9.001003e+001 
3531250000  -4.558415e+001  9.181427e+001 
3534375000  -4.475843e+001  8.407498e+001 
3537500000  -4.519068e+001  7.796911e+001 
3540625000  -4.565660e+001  7.936514e+001 
3543750000  -4.594235e+001  8.179371e+001 
3546875000  -4.533424e+001  9.167031e+001 
3550000000  -4.297093e+001  9.580603e+001 
3553125000  -4.144818e+001  7.841747e+001 
3556250000  -4.239900e+001  7.149170e+001 
3559375000  -4.225826e+001  7.441502e+001 
3562500000  -4.088319e+001  6.713499e+001 
3565625000  -4.187615e+001  6.091820e+001 
3568750000  -4.164889e+001  6.595359e+001 
3571875000  -4.164269e+001  6.508710e+001 
3575000000  -4.112171e+001  5.838783e+001 
3578125000  -4.136769e+001  5.733326e+001 
3581250000  -4.159923e+001  5.679234e+001 
3584375000  -4.074556e+001  5.544555e+001 
3587500000  -4.005568e+001  5.093125e+001 
3590625000  -4.027660e+001  4.070393e+001 
3593750000  -4.136168e+001  4.007659e+001 
3596875000  -4.142270e+001  4.751436e+001 
3600000000  -3.964743e+001  4.486918e+001 
3603125000  -3.992389e+001  3.185980e+001 
3606250000  -4.039668e+001  2.978744e+001 
3609375000  -4.093963e+001  2.867379e+001 
3612500000  -4.146515e+001  2.518643e+001 
3615625000  -4.134069e+001  2.422985e+001 
3618750000  -4.200567e+001  2.839660e+001 
3621875000  -4.148065e+001  2.608712e+001 
3625000000  -4.170124e+001  2.532942e+001 
3628125000  -4.166264e+001  2.549826e+001 
3631250000  -4.129394e+001  2.057371e+001 
3634375000  -4.245751e+001  2.065144e+001 
3637500000  -4.204666e+001  2.977458e+001 
3640625000  -4.105774e+001  2.827714e+001 
3643750000  -4.054574e+001  2.245516e+001 
3646875000  -4.095772e+001  1.740448e+001 
3650000000  -4.164357e+001  1.715339e+001 
3653125000  -4.137196e+001  1.682810e+001 
3656250000  -4.138691e+001  1.572366e+001 
3659375000  -4.181253e+001  1.980711e+001 
3662500000  -4.097860e+001  1.621386e+001 
3665625000  -4.148426e+001  1.677706e+001 
3668750000  -4.015152e+001  2.069034e+001 
3671875000  -3.927779e+001  1.472321e+001 
3675000000  -3.976046e+001  8.157817e+000 
3678125000  -4.008231e+001  1.057515e+001 
3681250000  -3.965588e+001  1.137792e+001 
3684375000  -3.973233e+001  9.488338e+000 
3687500000  -3.972753e+001  7.022433e+000 
3690625000  -3.982180e+001  6.692616e+000 
3693750000  -4.053573e+001  8.692573e+000 
3696875000  -4.003078e+001  1.039977e+001 
3700000000  -3.898975e+001  7.808307e+000 
3703125000  -3.852804e+001  5.027867e+000 
3706250000  -3.946363e+001  7.144833e+000 
3709375000  -3.865685e+001  1.069155e+001 
3712500000  -3.762233e+001  1.028855e+001 
3715625000  -3.636529e+001  3.893292e+000 
3718750000  -3.570104e+001  1.249928e+000 
3721875000  -3.517497e+001  -3.102586e+000 
3725000000  -3.521233e+001  -8.277492e+000 
3728125000  -3.537089e+001  -8.522713e+000 
3731250000  -3.469709e+001  -1.002227e+001 
3734375000  -3.383455e+001  -1.549619e+001 
3737500000  -3.421914e+001  -2.267476e+001 
3740625000  -3.496192e+001  -2.580169e+001 
3743750000  -3.455446e+001  -2.795009e+001 
3746875000  -3.455036e+001  -3.125631e+001 
3750000000  -3.504649e+001  -3.118298e+001 
3753125000  -3.460613e+001  -3.296172e+001 
3756250000  -3.448369e+001  -3.371742e+001 
3759375000  -3.427739e+001  -3.366658e+001 
3762500000  -3.366391e+001  -3.777097e+001 
3765625000  -3.424768e+001  -4.045510e+001 
3768750000  -3.422258e+001  -3.835625e+001 
3771875000  -3.237127e+001  -4.081709e+001 
3775000000  -3.218444e+001  -4.903687e+001 
3778125000  -3.255657e+001  -5.011642e+001 
3781250000  -3.235462e+001  -5.397482e+001 
3784375000  -3.237078e+001  -5.529457e+001 
3787500000  -3.167713e+001  -5.853804e+001 
3790625000  -3.219119e+001  -6.474326e+001 
3793750000  -3.234106e+001  -6.490400e+001 
3796875000  -3.145412e+001  -6.690202e+001 
3800000000  -2.986980e+001  -7.015408e+001 
3803125000  -3.068288e+001  -7.737825e+001 
3806250000  -3.134854e+001  -7.958127e+001 
3809375000  -3.100223e+001  -8.128904e+001 
3812500000  -3.033659e+001  -8.606359e+001 
3815625000  -3.105666e+001  -9.410661e+001 
3818750000  -3.211718e+001  -9.463929e+001 
3821875000  -3.211776e+001  -8.583856e+001 
3825000000  -3.011728e+001  -8.131131e+001 
3828125000  -2.874903e+001  -9.539486e+001 
3831250000  -2.928475e+001  -1.096665e+002 
3834375000  -3.074145e+001  -1.104762e+002 
3837500000  -3.151641e+001  -1.051604e+002 
3840625000  -3.045396e+001  -1.068387e+002 
3843750000  -2.930108e+001  -1.167259e+002 
3846875000  -3.000473e+001  -1.237279e+002 
3850000000  -3.134494e+001  -1.173549e+002 
3853125000  -3.042747e+001  -1.151241e+002 
3856250000  -3.037325e+001  -1.204660e+002 
3859375000  -2.973363e+001  -1.241266e+002 
3862500000  -2.922834e+001  -1.319651e+002 
3865625000  -2.951136e+001  -1.360490e+002 
3868750000  -2.961023e+001  -1.364060e+002 
3871875000  -2.883482e+001  -1.396220e+002 
3875000000  -2.906277e+001  -1.481976e+002 
3878125000  -2.997370e+001  -1.514628e+002 
3881250000  -3.013926e+001  -1.481512e+002 
3884375000  -2.958578e+001  -1.527879e+002 
3887500000  -2.972948e+001  -1.567279e+002 
3890625000  -3.017752e+001  -1.597539e+002 
3893750000  -3.068963e+001  -1.607275e+002 
3896875000  -3.070957e+001  -1.596139e+002 
3900000000  -3.105037e+001  -1.606383e+002 
3903125000  -3.073425e+001  -1.623899e+002 
3906250000  -3.038728e+001  -1.633064e+002 
3909375000  -2.969889e+001  -1.668109e+002 
3912500000  -2.972279e+001  -1.737219e+002 
3915625000  -3.090200e+001  -1.722573e+002 
3918750000  -3.098376e+001  -1.709326e+002 
3921875000  -3.060765e+001  -1.727952e+002 
3925000000  -2.983365e+001  -1.735493e+002 
3928125000  -2.913792e+001  -1.792294e+002 
3931250000  -2.960970e+001  1.767158e+002 
3934375000  -2.983952e+001  1.773056e+002 
3937500000  -3.004942e+001  1.763242e+002 
3940625000  -3.039429e+001  1.764204e+002 
3943750000  -2.945204e+001  1.780108e+002 
3946875000  -2.822604e+001  1.727074e+002 
3950000000  -2.884577e+001  1.651592e+002 
3953125000  -2.972700e+001  1.661036e+002 
3956250000  -2.878911e+001  1.685439e+002 
3959375000  -2.748272e+001  1.655508e+002 
3962500000  -2.692314e+001  1.616064e+002 
3965625000  -2.663678e+001  1.522648e+002 
3968750000  -2.759073e+001  1.459014e+002 
3971875000  -2.784475e+001  1.442011e+002 
3975000000  -2.722885e+001  1.424536e+002 
3978125000  -2.705015e+001  1.412767e+002 
3981250000  -2.680391e+001  1.367716e+002 
3984375000  -2.708590e+001  1.308923e+002 
3987500000  -2.757726e+001  1.286003e+002 
3990625000  -2.759875e+001  1.275766e+002 
3993750000  -2.779045e+001  1.243310e+002 
3996875000  -2.768915e+001  1.218183e+002 
4000000000  -2.786401e+001  1.202673e+002 
4003125000  -2.842813e+001  1.225979e+002 
4006250000  -2.698297e+001  1.229694e+002 
4009375000  -2.574764e+001  1.102342e+002 
4012500000  -2.694177e+001  1.033790e+002 
4015625000  -2.811995e+001  1.037558e+002 
4018750000  -2.829954e+001  1.058967e+002 
4021875000  -2.757454e+001  1.046176e+002 
4025000000  -2.730396e+001  9.975132e+001 
4028125000  -2.719532e+001  9.561512e+001 
4031250000  -2.768737e+001  9.227876e+001 
4034375000  -2.791585e+001  9.246951e+001 
4037500000  -2.745498e+001  9.442683e+001 
4040625000  -2.731711e+001  9.047344e+001 
4043750000  -2.771544e+001  9.030539e+001 
4046875000  -2.730946e+001  8.998697e+001 
4050000000  -2.679607e+001  8.484328e+001 
4053125000  -2.724061e+001  8.240886e+001 
4056250000  -2.781933e+001  8.643650e+001 
4059375000  -2.654748e+001  8.789300e+001 
4062500000  -2.524668e+001  8.415602e+001 
4065625000  -2.508851e+001  7.916820e+001 
4068750000  -2.481794e+001  7.459830e+001 
4071875000  -2.417209e+001  6.661056e+001 
4075000000  -2.457120e+001  6.032638e+001 
4078125000  -2.510478e+001  5.966685e+001 
4081250000  -2.456032e+001  5.732541e+001 
4084375000  -2.416184e+001  5.050647e+001 
4087500000  -2.451093e+001  4.417599e+001 
4090625000  -2.515389e+001  4.338570e+001 
4093750000  -2.490194e+001  4.414318e+001 
4096875000  -2.448858e+001  3.804286e+001 
4100000000  -2.520416e+001  3.114544e+001 
4103125000  -2.609029e+001  3.195218e+001 
4106250000  -2.594924e+001  3.696864e+001 
4109375000  -2.501641e+001  3.637051e+001 
4112500000  -2.444567e+001  2.957126e+001 
4115625000  -2.479119e+001  2.522968e+001 
4118750000  -2.487612e+001  2.260485e+001 
4121875000  -2.447431e+001  1.746342e+001 
4125000000  -2.486418e+001  1.234438e+001 
4128125000  -2.592192e+001  1.294805e+001 
4131250000  -2.563878e+001  2.123179e+001 
4134375000  -2.323648e+001  1.651532e+001 
4137500000  -2.306353e+001  -2.479886e+000 
4140625000  -2.518600e+001  -9.343104e+000 
4143750000  -2.654271e+001  -4.393470e+000 
4146875000  -2.609375e+001  3.266826e+000 
4150000000  -2.513346e+001  -4.066730e-001 
4153125000  -2.498413e+001  -6.982778e+000 
4156250000  -2.587738e+001  -9.596009e+000 
4159375000  -2.616509e+001  -5.260703e+000 
4162500000  -2.502420e+001  -9.129049e-001 
4165625000  -2.385892e+001  -5.045094e+000 
4168750000  -2.328830e+001  -1.193330e+001 
4171875000  -2.322067e+001  -2.110613e+001 
4175000000  -2.381204e+001  -2.698455e+001 
4178125000  -2.444738e+001  -2.679463e+001 
4181250000  -2.428561e+001  -2.770134e+001 
4184375000  -2.416603e+001  -3.069056e+001 
4187500000  -2.419684e+001  -3.322297e+001 
4190625000  -2.405065e+001  -3.908624e+001 
4193750000  -2.480824e+001  -4.255620e+001 
4196875000  -2.560221e+001  -4.320429e+001 
4200000000  -2.647783e+001  -4.048187e+001 
4203125000  -2.638599e+001  -2.695415e+001 
4206250000  -2.300033e+001  -2.615368e+001 
4209375000  -2.184837e+001  -4.663243e+001 
4212500000  -2.381746e+001  -5.541447e+001 
4215625000  -2.480337e+001  -4.859100e+001 
4218750000  -2.342885e+001  -4.228734e+001 
4221875000  -2.113664e+001  -5.154229e+001 
4225000000  -2.240222e+001  -6.368830e+001 
4228125000  -2.306772e+001  -5.878703e+001 
4231250000  -2.147463e+001  -6.260717e+001 
4234375000  -2.140466e+001  -7.084766e+001 
4237500000  -2.098809e+001  -7.423620e+001 
4240625000  -2.099542e+001  -8.287930e+001 
4243750000  -2.198763e+001  -8.965303e+001 
4246875000  -2.283334e+001  -8.938933e+001 
4250000000  -2.286617e+001  -8.650841e+001 
4253125000  -2.233681e+001  -8.867770e+001 
4256250000  -2.255339e+001  -9.255991e+001 
4259375000  -2.234331e+001  -9.466306e+001 
4262500000  -2.234851e+001  -9.830497e+001 
4265625000  -2.250707e+001  -9.810752e+001 
4268750000  -2.161587e+001  -1.022569e+002 
4271875000  -2.132071e+001  -1.080486e+002 
4275000000  -2.074543e+001  -1.143630e+002 
4278125000  -2.140619e+001  -1.255764e+002 
4281250000  -2.316241e+001  -1.274827e+002 
4284375000  -2.278667e+001  -1.272492e+002 
4287500000  -2.367472e+001  -1.304618e+002 
4290625000  -2.491513e+001  -1.206977e+002 
4293750000  -2.291300e+001  -1.159029e+002 
4296875000  -2.152803e+001  -1.266645e+002 
4300000000  -2.239599e+001  -1.363186e+002 
4303125000  -2.357634e+001  -1.347923e+002 
4306250000  -2.284877e+001  -1.286466e+002 
4309375000  -2.148401e+001  -1.311727e+002 
4312500000  -2.140869e+001  -1.395054e+002 
4315625000  -2.163963e+001  -1.458112e+002 
4318750000  -2.197609e+001  -1.488093e+002 
4321875000  -2.211775e+001  -1.483681e+002 
4325000000  -2.151343e+001  -1.476904e+002 
4328125000  -2.103915e+001  -1.542569e+002 
4331250000  -2.096644e+001  -1.625735e+002 
4334375000  -2.144878e+001  -1.674013e+002 
4337500000  -2.226618e+001  -1.694234e+002 
4340625000  -2.284258e+001  -1.660168e+002 
4343750000  -2.221987e+001  -1.658747e+002 
4346875000  -2.183410e+001  -1.713808e+002 
4350000000  -2.184166e+001  -1.760823e+002 
4353125000  -2.188140e+001  1.761053e+002 
4356250000  -2.366662e+001  1.755707e+002 
4359375000  -2.426733e+001  -1.705654e+002 
4362500000  -2.146119e+001  -1.692990e+002 
4365625000  -1.991238e+001  1.788630e+002 
4368750000  -2.062224e+001  1.668308e+002 
4371875000  -2.186712e+001  1.676591e+002 
4375000000  -2.149455e+001  1.688321e+002 
4378125000  -2.084524e+001  1.628961e+002 
4381250000  -2.104539e+001  1.575176e+002 
4384375000  -2.084421e+001  1.529494e+002 
4387500000  -2.158883e+001  1.471654e+002 
4390625000  -2.255960e+001  1.480471e+002 
4393750000  -2.192768e+001  1.500347e+002 
4396875000  -2.128034e+001  1.481369e+002 
4400000000  -2.072858e+001  1.409415e+002 
4403125000  -2.132212e+001  1.331517e+002 
4406250000  -2.216886e+001  1.320965e+002 
4409375000  -2.210654e+001  1.299665e+002 
4412500000  -2.313941e+001  1.271574e+002 
4415625000  -2.353126e+001  1.319665e+002 
4418750000  -2.228715e+001  1.369022e+002 
