!Agilent Technologies,E8363B,MY43030201,A.06.04.32
!Agilent E8363B: A.06.04.32
!Date: Tuesday, November 11, 2014 20:56:49
!Correction: S21(Response(S21)) 
!S1P File: Measurement: S21:
# Hz S  dB   R 50
3000000000  -2.650264e+001  1.479292e+002 
3003125000  -2.792300e+001  1.427771e+002 
3006250000  -2.796032e+001  1.406882e+002 
3009375000  -2.837991e+001  1.461808e+002 
3012500000  -2.776105e+001  1.452386e+002 
3015625000  -2.684101e+001  1.383061e+002 
3018750000  -2.768410e+001  1.374064e+002 
3021875000  -2.643694e+001  1.386798e+002 
3025000000  -2.509659e+001  1.357535e+002 
3028125000  -2.413347e+001  1.305535e+002 
3031250000  -2.310572e+001  1.193123e+002 
3034375000  -2.275099e+001  1.062774e+002 
3037500000  -2.314218e+001  9.429932e+001 
3040625000  -2.443714e+001  8.944201e+001 
3043750000  -2.516017e+001  8.507500e+001 
3046875000  -2.529065e+001  7.887602e+001 
3050000000  -2.698423e+001  7.222668e+001 
3053125000  -2.708413e+001  7.834920e+001 
3056250000  -2.648785e+001  8.159608e+001 
3059375000  -2.669260e+001  8.100747e+001 
3062500000  -2.517288e+001  7.709153e+001 
3065625000  -2.494975e+001  7.179357e+001 
3068750000  -2.468217e+001  6.449755e+001 
3071875000  -2.465345e+001  6.154737e+001 
3075000000  -2.462038e+001  5.767313e+001 
3078125000  -2.432352e+001  5.325278e+001 
3081250000  -2.496732e+001  4.895248e+001 
3084375000  -2.420523e+001  4.521267e+001 
3087500000  -2.411439e+001  4.178171e+001 
3090625000  -2.380641e+001  3.176415e+001 
3093750000  -2.427045e+001  2.393919e+001 
3096875000  -2.556320e+001  1.815152e+001 
3100000000  -2.564102e+001  1.672317e+001 
3103125000  -2.602637e+001  1.803787e+001 
3106250000  -2.577307e+001  1.434200e+001 
3109375000  -2.600848e+001  1.111052e+001 
3112500000  -2.613826e+001  9.804109e+000 
3115625000  -2.595569e+001  5.913739e+000 
3118750000  -2.642734e+001  6.912817e+000 
3121875000  -2.574246e+001  -1.197328e+000 
3125000000  -2.700543e+001  -4.466243e+000 
3128125000  -2.812266e+001  3.857485e+000 
3131250000  -2.591874e+001  4.127151e+000 
3134375000  -2.458765e+001  -9.617913e+000 
3137500000  -2.529147e+001  -2.318727e+001 
3140625000  -2.690871e+001  -2.470295e+001 
3143750000  -2.791872e+001  -2.111377e+001 
3146875000  -2.749355e+001  -1.877440e+001 
3150000000  -2.640733e+001  -1.664809e+001 
3153125000  -2.645575e+001  -2.463371e+001 
3156250000  -2.748767e+001  -1.906911e+001 
3159375000  -2.583283e+001  -1.627123e+001 
3162500000  -2.380184e+001  -2.884715e+001 
3165625000  -2.477847e+001  -4.004253e+001 
3168750000  -2.516261e+001  -3.887958e+001 
3171875000  -2.422021e+001  -4.318170e+001 
3175000000  -2.486739e+001  -5.104702e+001 
3178125000  -2.462775e+001  -4.921368e+001 
3181250000  -2.350315e+001  -5.347243e+001 
3184375000  -2.271567e+001  -6.572330e+001 
3187500000  -2.387057e+001  -8.073676e+001 
3190625000  -2.663706e+001  -8.784433e+001 
3193750000  -2.716648e+001  -7.819524e+001 
3196875000  -2.675164e+001  -7.321964e+001 
3200000000  -2.583120e+001  -7.523950e+001 
3203125000  -2.499413e+001  -8.092888e+001 
3206250000  -2.529542e+001  -8.697126e+001 
3209375000  -2.479718e+001  -9.222626e+001 
3212500000  -2.499118e+001  -9.840469e+001 
3215625000  -2.510409e+001  -1.025846e+002 
3218750000  -2.583524e+001  -1.091158e+002 
3221875000  -2.678740e+001  -1.139603e+002 
3225000000  -2.640503e+001  -1.147149e+002 
3228125000  -2.672955e+001  -1.196071e+002 
3231250000  -2.750506e+001  -1.218901e+002 
3234375000  -2.731902e+001  -1.211033e+002 
3237500000  -2.738631e+001  -1.227321e+002 
3240625000  -2.704813e+001  -1.246273e+002 
3243750000  -2.667564e+001  -1.311270e+002 
3246875000  -2.711612e+001  -1.374677e+002 
3250000000  -2.761911e+001  -1.393051e+002 
3253125000  -2.780288e+001  -1.411501e+002 
3256250000  -2.767323e+001  -1.472377e+002 
3259375000  -2.798013e+001  -1.545413e+002 
3262500000  -2.923436e+001  -1.574784e+002 
3265625000  -2.991480e+001  -1.536853e+002 
3268750000  -2.983069e+001  -1.511211e+002 
3271875000  -2.955831e+001  -1.500781e+002 
3275000000  -2.852266e+001  -1.555625e+002 
3278125000  -2.901184e+001  -1.617752e+002 
3281250000  -2.928414e+001  -1.595773e+002 
3284375000  -2.885310e+001  -1.656831e+002 
3287500000  -2.904907e+001  -1.681401e+002 
3290625000  -2.942230e+001  -1.727781e+002 
3293750000  -2.908418e+001  -1.780704e+002 
3296875000  -3.009698e+001  -1.783463e+002 
3300000000  -2.999308e+001  -1.769872e+002 
3303125000  -2.885727e+001  1.786392e+002 
3306250000  -2.861062e+001  1.722285e+002 
3309375000  -2.835677e+001  1.672021e+002 
3312500000  -2.841561e+001  1.569130e+002 
3315625000  -2.954582e+001  1.490057e+002 
3318750000  -3.084925e+001  1.462603e+002 
3321875000  -3.199434e+001  1.467942e+002 
3325000000  -3.263881e+001  1.526859e+002 
3328125000  -3.234398e+001  1.537694e+002 
3331250000  -3.112147e+001  1.610669e+002 
3334375000  -2.851002e+001  1.511927e+002 
3337500000  -2.867557e+001  1.325300e+002 
3340625000  -3.001234e+001  1.219992e+002 
3343750000  -3.204827e+001  1.203896e+002 
3346875000  -3.237369e+001  1.224598e+002 
3350000000  -3.177741e+001  1.208824e+002 
3353125000  -3.192114e+001  1.163492e+002 
3356250000  -3.163415e+001  1.089632e+002 
3359375000  -3.258963e+001  1.002922e+002 
3362500000  -3.382660e+001  9.505405e+001 
3365625000  -3.430101e+001  9.397653e+001 
3368750000  -3.534543e+001  9.203874e+001 
3371875000  -3.567797e+001  8.892246e+001 
3375000000  -3.735957e+001  8.764110e+001 
3378125000  -3.844814e+001  8.698222e+001 
3381250000  -4.009818e+001  9.422531e+001 
3384375000  -3.912755e+001  1.152953e+002 
3387500000  -3.572892e+001  1.013765e+002 
3390625000  -3.776052e+001  8.220466e+001 
3393750000  -3.941145e+001  8.801880e+001 
3396875000  -3.848609e+001  8.954561e+001 
3400000000  -3.848041e+001  8.358118e+001 
3403125000  -3.940004e+001  7.910530e+001 
3406250000  -4.009575e+001  7.998730e+001 
3409375000  -4.075010e+001  7.611107e+001 
3412500000  -4.170392e+001  7.779748e+001 
3415625000  -4.227303e+001  8.309041e+001 
3418750000  -4.293613e+001  8.638804e+001 
3421875000  -4.311968e+001  9.341238e+001 
3425000000  -4.200047e+001  9.594038e+001 
3428125000  -4.135621e+001  9.468697e+001 
3431250000  -4.133434e+001  9.110278e+001 
3434375000  -4.105517e+001  8.793711e+001 
3437500000  -4.155881e+001  8.480772e+001 
3440625000  -4.175206e+001  8.890741e+001 
3443750000  -4.038613e+001  9.190543e+001 
3446875000  -3.959457e+001  8.600515e+001 
3450000000  -3.938723e+001  7.657731e+001 
3453125000  -3.986844e+001  6.870042e+001 
3456250000  -4.094028e+001  6.336104e+001 
3459375000  -4.175881e+001  6.492310e+001 
3462500000  -4.199078e+001  6.760945e+001 
3465625000  -4.225363e+001  6.221526e+001 
3468750000  -4.238357e+001  6.069077e+001 
3471875000  -4.255191e+001  6.027753e+001 
3475000000  -4.245214e+001  5.464531e+001 
3478125000  -4.334017e+001  5.092345e+001 
3481250000  -4.433532e+001  4.895612e+001 
3484375000  -4.596048e+001  5.466712e+001 
3487500000  -4.526195e+001  5.802216e+001 
3490625000  -4.510254e+001  5.363441e+001 
3493750000  -4.565629e+001  5.025992e+001 
3496875000  -4.684953e+001  5.280532e+001 
3500000000  -4.790651e+001  5.705326e+001 
3503125000  -4.726229e+001  6.484628e+001 
3506250000  -4.631925e+001  6.682304e+001 
3509375000  -4.663230e+001  6.451839e+001 
3512500000  -4.728274e+001  6.156232e+001 
3515625000  -4.720686e+001  6.147564e+001 
3518750000  -4.847694e+001  6.833787e+001 
3521875000  -4.780938e+001  7.196894e+001 
3525000000  -4.821190e+001  7.307280e+001 
3528125000  -4.768145e+001  8.886545e+001 
3531250000  -4.580495e+001  8.552312e+001 
3534375000  -4.509830e+001  8.016969e+001 
3537500000  -4.517034e+001  7.404126e+001 
3540625000  -4.566148e+001  7.554664e+001 
3543750000  -4.616933e+001  7.771010e+001 
3546875000  -4.534130e+001  9.332655e+001 
3550000000  -4.261985e+001  9.273335e+001 
3553125000  -4.159044e+001  7.797897e+001 
3556250000  -4.236972e+001  7.139851e+001 
3559375000  -4.232132e+001  7.499419e+001 
3562500000  -4.092552e+001  6.718838e+001 
3565625000  -4.204201e+001  5.970575e+001 
3568750000  -4.190101e+001  6.494746e+001 
3571875000  -4.175641e+001  6.288184e+001 
3575000000  -4.103883e+001  5.896614e+001 
3578125000  -4.166318e+001  5.596714e+001 
3581250000  -4.169060e+001  5.771765e+001 
3584375000  -4.080833e+001  5.585225e+001 
3587500000  -3.994499e+001  4.832536e+001 
3590625000  -4.023170e+001  4.070888e+001 
3593750000  -4.154140e+001  3.948332e+001 
3596875000  -4.151217e+001  4.871415e+001 
3600000000  -3.980782e+001  4.597672e+001 
3603125000  -3.996532e+001  3.159324e+001 
3606250000  -4.040485e+001  2.953397e+001 
3609375000  -4.091732e+001  2.829204e+001 
3612500000  -4.120877e+001  2.680946e+001 
3615625000  -4.145416e+001  2.436999e+001 
3618750000  -4.209728e+001  2.605232e+001 
3621875000  -4.146718e+001  2.538220e+001 
3625000000  -4.150624e+001  2.471963e+001 
3628125000  -4.160898e+001  2.478292e+001 
3631250000  -4.120368e+001  1.928688e+001 
3634375000  -4.224771e+001  2.204778e+001 
3637500000  -4.171870e+001  2.767658e+001 
3640625000  -4.086439e+001  2.937553e+001 
3643750000  -4.055475e+001  2.118193e+001 
3646875000  -4.099785e+001  1.562498e+001 
3650000000  -4.149083e+001  1.665987e+001 
3653125000  -4.130404e+001  1.469816e+001 
3656250000  -4.153745e+001  1.562371e+001 
3659375000  -4.157562e+001  1.765886e+001 
3662500000  -4.122744e+001  1.857637e+001 
3665625000  -4.128084e+001  1.851512e+001 
3668750000  -4.002706e+001  1.883236e+001 
3671875000  -3.900108e+001  1.427370e+001 
3675000000  -4.001849e+001  7.505350e+000 
3678125000  -4.016516e+001  9.878797e+000 
3681250000  -3.961133e+001  9.837481e+000 
3684375000  -3.977104e+001  7.825930e+000 
3687500000  -3.976331e+001  7.314980e+000 
3690625000  -3.952574e+001  4.274564e+000 
3693750000  -4.042064e+001  8.030876e+000 
3696875000  -4.011254e+001  1.025632e+001 
3700000000  -3.883433e+001  1.027237e+001 
3703125000  -3.879352e+001  5.065766e+000 
3706250000  -3.932152e+001  7.309797e+000 
3709375000  -3.875385e+001  9.311244e+000 
3712500000  -3.749029e+001  9.481972e+000 
3715625000  -3.629972e+001  4.648863e+000 
3718750000  -3.566774e+001  1.868591e+000 
3721875000  -3.529129e+001  -4.300697e+000 
3725000000  -3.512482e+001  -7.908909e+000 
3728125000  -3.535367e+001  -9.445581e+000 
3731250000  -3.468348e+001  -9.899402e+000 
3734375000  -3.362955e+001  -1.615195e+001 
3737500000  -3.406587e+001  -2.348722e+001 
3740625000  -3.478081e+001  -2.634258e+001 
3743750000  -3.448729e+001  -2.862859e+001 
3746875000  -3.447814e+001  -3.207579e+001 
3750000000  -3.485041e+001  -3.250618e+001 
3753125000  -3.450015e+001  -3.387176e+001 
3756250000  -3.459215e+001  -3.449157e+001 
3759375000  -3.424126e+001  -3.391599e+001 
3762500000  -3.362288e+001  -3.892015e+001 
3765625000  -3.423795e+001  -4.179415e+001 
3768750000  -3.422111e+001  -3.908138e+001 
3771875000  -3.240380e+001  -4.184578e+001 
3775000000  -3.214788e+001  -5.009778e+001 
3778125000  -3.251667e+001  -5.148631e+001 
3781250000  -3.232521e+001  -5.413324e+001 
3784375000  -3.226198e+001  -5.585217e+001 
3787500000  -3.159040e+001  -5.953933e+001 
3790625000  -3.228304e+001  -6.552621e+001 
3793750000  -3.236531e+001  -6.546732e+001 
3796875000  -3.146275e+001  -6.708525e+001 
3800000000  -2.993549e+001  -7.088863e+001 
3803125000  -3.070465e+001  -7.777055e+001 
3806250000  -3.130565e+001  -8.060966e+001 
3809375000  -3.102623e+001  -8.171815e+001 
3812500000  -3.040981e+001  -8.646876e+001 
3815625000  -3.098237e+001  -9.381678e+001 
3818750000  -3.195235e+001  -9.503941e+001 
3821875000  -3.202630e+001  -8.666352e+001 
3825000000  -3.015707e+001  -8.198653e+001 
3828125000  -2.872451e+001  -9.601446e+001 
3831250000  -2.925179e+001  -1.101992e+002 
3834375000  -3.063343e+001  -1.111118e+002 
3837500000  -3.152731e+001  -1.057689e+002 
3840625000  -3.028988e+001  -1.070864e+002 
3843750000  -2.925125e+001  -1.169076e+002 
3846875000  -3.004047e+001  -1.234407e+002 
3850000000  -3.124820e+001  -1.178074e+002 
3853125000  -3.042616e+001  -1.156289e+002 
3856250000  -3.028969e+001  -1.207996e+002 
3859375000  -2.961767e+001  -1.249876e+002 
3862500000  -2.920044e+001  -1.324674e+002 
3865625000  -2.956176e+001  -1.369335e+002 
3868750000  -2.948787e+001  -1.372711e+002 
3871875000  -2.870370e+001  -1.405242e+002 
3875000000  -2.888801e+001  -1.488744e+002 
3878125000  -2.988059e+001  -1.514848e+002 
3881250000  -3.003485e+001  -1.491540e+002 
3884375000  -2.945261e+001  -1.533146e+002 
3887500000  -2.974802e+001  -1.573625e+002 
3890625000  -3.021027e+001  -1.601297e+002 
3893750000  -3.056956e+001  -1.612101e+002 
3896875000  -3.072761e+001  -1.605033e+002 
3900000000  -3.098199e+001  -1.616703e+002 
3903125000  -3.062489e+001  -1.634680e+002 
3906250000  -3.040345e+001  -1.640507e+002 
3909375000  -2.965676e+001  -1.675051e+002 
3912500000  -2.968137e+001  -1.746905e+002 
3915625000  -3.102695e+001  -1.736753e+002 
3918750000  -3.096646e+001  -1.716085e+002 
3921875000  -3.053969e+001  -1.733547e+002 
3925000000  -2.970632e+001  -1.746441e+002 
3928125000  -2.908144e+001  -1.798806e+002 
3931250000  -2.957616e+001  1.758935e+002 
3934375000  -2.979133e+001  1.761565e+002 
3937500000  -3.002606e+001  1.761852e+002 
3940625000  -3.036292e+001  1.759967e+002 
3943750000  -2.950952e+001  1.774280e+002 
3946875000  -2.820811e+001  1.722709e+002 
3950000000  -2.870405e+001  1.648630e+002 
3953125000  -2.963084e+001  1.653800e+002 
3956250000  -2.883523e+001  1.677847e+002 
3959375000  -2.744146e+001  1.651078e+002 
3962500000  -2.694928e+001  1.607525e+002 
3965625000  -2.660058e+001  1.522696e+002 
3968750000  -2.758266e+001  1.458932e+002 
3971875000  -2.784744e+001  1.440457e+002 
3975000000  -2.718387e+001  1.420681e+002 
3978125000  -2.705644e+001  1.406584e+002 
3981250000  -2.678670e+001  1.360449e+002 
3984375000  -2.697719e+001  1.300185e+002 
3987500000  -2.748709e+001  1.281300e+002 
3990625000  -2.752353e+001  1.267552e+002 
3993750000  -2.778575e+001  1.234980e+002 
3996875000  -2.770423e+001  1.210210e+002 
4000000000  -2.780411e+001  1.190310e+002 
4003125000  -2.841860e+001  1.211927e+002 
4006250000  -2.694292e+001  1.219071e+002 
4009375000  -2.575530e+001  1.090809e+002 
4012500000  -2.686180e+001  1.022560e+002 
4015625000  -2.814518e+001  1.023782e+002 
4018750000  -2.829111e+001  1.050180e+002 
4021875000  -2.758117e+001  1.035052e+002 
4025000000  -2.722250e+001  9.896082e+001 
4028125000  -2.719093e+001  9.427031e+001 
4031250000  -2.769448e+001  9.144939e+001 
4034375000  -2.792912e+001  9.144157e+001 
4037500000  -2.743562e+001  9.287790e+001 
4040625000  -2.739424e+001  8.963603e+001 
4043750000  -2.775919e+001  8.932563e+001 
4046875000  -2.734353e+001  8.880244e+001 
4050000000  -2.674985e+001  8.311667e+001 
4053125000  -2.726477e+001  8.137712e+001 
4056250000  -2.785031e+001  8.596309e+001 
4059375000  -2.662090e+001  8.770814e+001 
4062500000  -2.526087e+001  8.266784e+001 
4065625000  -2.513840e+001  7.843822e+001 
4068750000  -2.485830e+001  7.397400e+001 
4071875000  -2.412784e+001  6.625278e+001 
4075000000  -2.455652e+001  5.992061e+001 
4078125000  -2.512128e+001  5.892619e+001 
4081250000  -2.457513e+001  5.645018e+001 
4084375000  -2.415816e+001  4.993287e+001 
4087500000  -2.455153e+001  4.364497e+001 
4090625000  -2.515967e+001  4.272604e+001 
4093750000  -2.494415e+001  4.338944e+001 
4096875000  -2.445338e+001  3.718065e+001 
4100000000  -2.518647e+001  3.030314e+001 
4103125000  -2.605928e+001  3.120999e+001 
4106250000  -2.591230e+001  3.610810e+001 
4109375000  -2.500439e+001  3.576559e+001 
4112500000  -2.446150e+001  2.878177e+001 
4115625000  -2.476273e+001  2.455771e+001 
4118750000  -2.483663e+001  2.128483e+001 
4121875000  -2.450200e+001  1.680525e+001 
4125000000  -2.484831e+001  1.146008e+001 
4128125000  -2.591625e+001  1.179850e+001 
4131250000  -2.560081e+001  2.002027e+001 
4134375000  -2.323705e+001  1.518094e+001 
4137500000  -2.307213e+001  -3.692533e+000 
4140625000  -2.527187e+001  -1.051618e+001 
4143750000  -2.653644e+001  -5.372674e+000 
4146875000  -2.611181e+001  1.745992e+000 
4150000000  -2.510520e+001  -1.679221e+000 
4153125000  -2.502762e+001  -8.068727e+000 
4156250000  -2.597304e+001  -1.053747e+001 
4159375000  -2.617507e+001  -6.267350e+000 
4162500000  -2.507916e+001  -1.924699e+000 
4165625000  -2.385287e+001  -6.119260e+000 
4168750000  -2.332168e+001  -1.301595e+001 
4171875000  -2.332907e+001  -2.232441e+001 
4175000000  -2.391425e+001  -2.811971e+001 
4178125000  -2.453212e+001  -2.789873e+001 
4181250000  -2.437956e+001  -2.850054e+001 
4184375000  -2.427220e+001  -3.173054e+001 
4187500000  -2.429389e+001  -3.456226e+001 
4190625000  -2.405339e+001  -3.986073e+001 
4193750000  -2.494236e+001  -4.393499e+001 
4196875000  -2.562752e+001  -4.372675e+001 
4200000000  -2.647731e+001  -4.100795e+001 
4203125000  -2.645959e+001  -2.789204e+001 
4206250000  -2.306440e+001  -2.658091e+001 
4209375000  -2.192557e+001  -4.737987e+001 
4212500000  -2.386330e+001  -5.571315e+001 
4215625000  -2.484666e+001  -4.958011e+001 
4218750000  -2.350251e+001  -4.280418e+001 
4221875000  -2.122571e+001  -5.219597e+001 
4225000000  -2.247131e+001  -6.436291e+001 
4228125000  -2.307742e+001  -5.972739e+001 
4231250000  -2.149249e+001  -6.366618e+001 
4234375000  -2.141664e+001  -7.161562e+001 
4237500000  -2.102521e+001  -7.504247e+001 
4240625000  -2.104015e+001  -8.356007e+001 
4243750000  -2.199068e+001  -9.019717e+001 
4246875000  -2.290345e+001  -9.029376e+001 
4250000000  -2.294481e+001  -8.770980e+001 
4253125000  -2.235627e+001  -8.941266e+001 
4256250000  -2.267177e+001  -9.334833e+001 
4259375000  -2.233955e+001  -9.561818e+001 
4262500000  -2.240158e+001  -9.941035e+001 
4265625000  -2.252899e+001  -9.866667e+001 
4268750000  -2.165090e+001  -1.032360e+002 
4271875000  -2.139902e+001  -1.089452e+002 
4275000000  -2.079086e+001  -1.153053e+002 
4278125000  -2.147778e+001  -1.267788e+002 
4281250000  -2.321982e+001  -1.286130e+002 
4284375000  -2.291007e+001  -1.279110e+002 
4287500000  -2.375209e+001  -1.314091e+002 
4290625000  -2.497917e+001  -1.218234e+002 
4293750000  -2.300860e+001  -1.161445e+002 
4296875000  -2.163498e+001  -1.277898e+002 
4300000000  -2.248330e+001  -1.368917e+002 
4303125000  -2.366521e+001  -1.353389e+002 
4306250000  -2.294889e+001  -1.295743e+002 
4309375000  -2.158242e+001  -1.317500e+002 
4312500000  -2.150304e+001  -1.401626e+002 
4315625000  -2.171370e+001  -1.463922e+002 
4318750000  -2.204183e+001  -1.497722e+002 
4321875000  -2.219694e+001  -1.490905e+002 
4325000000  -2.162502e+001  -1.482385e+002 
4328125000  -2.115480e+001  -1.547561e+002 
4331250000  -2.105877e+001  -1.627949e+002 
4334375000  -2.151962e+001  -1.679816e+002 
4337500000  -2.240617e+001  -1.699128e+002 
4340625000  -2.294041e+001  -1.665152e+002 
4343750000  -2.227507e+001  -1.662246e+002 
4346875000  -2.193388e+001  -1.718876e+002 
4350000000  -2.194317e+001  -1.766878e+002 
4353125000  -2.196558e+001  1.759462e+002 
4356250000  -2.374304e+001  1.752227e+002 
4359375000  -2.428995e+001  -1.708782e+002 
4362500000  -2.157117e+001  -1.698726e+002 
4365625000  -1.994394e+001  1.780887e+002 
4368750000  -2.069723e+001  1.664143e+002 
4371875000  -2.186458e+001  1.672244e+002 
4375000000  -2.157195e+001  1.681851e+002 
4378125000  -2.089544e+001  1.620604e+002 
4381250000  -2.108484e+001  1.569160e+002 
4384375000  -2.090209e+001  1.523614e+002 
4387500000  -2.162028e+001  1.466492e+002 
4390625000  -2.263952e+001  1.472093e+002 
4393750000  -2.196541e+001  1.496467e+002 
4396875000  -2.132403e+001  1.473025e+002 
4400000000  -2.081680e+001  1.401740e+002 
4403125000  -2.141575e+001  1.327072e+002 
4406250000  -2.225618e+001  1.317197e+002 
4409375000  -2.217539e+001  1.290452e+002 
4412500000  -2.324100e+001  1.262858e+002 
4415625000  -2.356850e+001  1.313467e+002 
4418750000  -2.240832e+001  1.361023e+002 
