!Agilent Technologies,E8363B,MY43030201,A.06.04.32
!Agilent E8363B: A.06.04.32
!Date: Tuesday, November 11, 2014 20:49:22
!Correction: S21(Response(S21)) 
!S1P File: Measurement: S21:
# Hz S  dB   R 50
3000000000  -2.650137e+001  1.548247e+002 
3003125000  -2.790877e+001  1.503364e+002 
3006250000  -2.794970e+001  1.473941e+002 
3009375000  -2.833666e+001  1.523150e+002 
3012500000  -2.781897e+001  1.522075e+002 
3015625000  -2.685925e+001  1.453163e+002 
3018750000  -2.771304e+001  1.441986e+002 
3021875000  -2.643572e+001  1.455872e+002 
3025000000  -2.513179e+001  1.424335e+002 
3028125000  -2.414755e+001  1.376437e+002 
3031250000  -2.311873e+001  1.264791e+002 
3034375000  -2.273429e+001  1.135344e+002 
3037500000  -2.309550e+001  1.015428e+002 
3040625000  -2.444576e+001  9.634676e+001 
3043750000  -2.512579e+001  9.215318e+001 
3046875000  -2.523190e+001  8.588448e+001 
3050000000  -2.696975e+001  7.887508e+001 
3053125000  -2.711439e+001  8.509158e+001 
3056250000  -2.643155e+001  8.840199e+001 
3059375000  -2.669598e+001  8.789493e+001 
3062500000  -2.521176e+001  8.394785e+001 
3065625000  -2.498781e+001  7.843678e+001 
3068750000  -2.468946e+001  7.183653e+001 
3071875000  -2.463294e+001  6.846174e+001 
3075000000  -2.462906e+001  6.474548e+001 
3078125000  -2.432226e+001  6.026323e+001 
3081250000  -2.498442e+001  5.611597e+001 
3084375000  -2.422289e+001  5.251139e+001 
3087500000  -2.407943e+001  4.859641e+001 
3090625000  -2.382347e+001  3.910530e+001 
3093750000  -2.422245e+001  3.110400e+001 
3096875000  -2.551248e+001  2.483409e+001 
3100000000  -2.569708e+001  2.365655e+001 
3103125000  -2.603158e+001  2.509830e+001 
3106250000  -2.577549e+001  2.172136e+001 
3109375000  -2.604205e+001  1.785861e+001 
3112500000  -2.615665e+001  1.686670e+001 
3115625000  -2.590536e+001  1.271208e+001 
3118750000  -2.644713e+001  1.394864e+001 
3121875000  -2.574693e+001  6.029810e+000 
3125000000  -2.686948e+001  2.441736e+000 
3128125000  -2.811843e+001  1.045142e+001 
3131250000  -2.593410e+001  1.112756e+001 
3134375000  -2.461888e+001  -2.263144e+000 
3137500000  -2.526493e+001  -1.611832e+001 
3140625000  -2.687625e+001  -1.796947e+001 
3143750000  -2.794162e+001  -1.383478e+001 
3146875000  -2.750537e+001  -1.196370e+001 
3150000000  -2.645491e+001  -9.574091e+000 
3153125000  -2.648214e+001  -1.741569e+001 
3156250000  -2.746080e+001  -1.212583e+001 
3159375000  -2.590291e+001  -9.177726e+000 
3162500000  -2.387673e+001  -2.203868e+001 
3165625000  -2.477742e+001  -3.294674e+001 
3168750000  -2.518714e+001  -3.215401e+001 
3171875000  -2.423446e+001  -3.607634e+001 
3175000000  -2.485727e+001  -4.404946e+001 
3178125000  -2.464908e+001  -4.233851e+001 
3181250000  -2.348879e+001  -4.620282e+001 
3184375000  -2.268473e+001  -5.854716e+001 
3187500000  -2.379648e+001  -7.365718e+001 
3190625000  -2.655349e+001  -8.098015e+001 
3193750000  -2.720392e+001  -7.171075e+001 
3196875000  -2.676927e+001  -6.603468e+001 
3200000000  -2.590724e+001  -6.798222e+001 
3203125000  -2.501237e+001  -7.381285e+001 
3206250000  -2.528955e+001  -7.972323e+001 
3209375000  -2.483692e+001  -8.491512e+001 
3212500000  -2.495539e+001  -9.159003e+001 
3215625000  -2.506870e+001  -9.601867e+001 
3218750000  -2.581200e+001  -1.023219e+002 
3221875000  -2.684475e+001  -1.072650e+002 
3225000000  -2.645117e+001  -1.076226e+002 
3228125000  -2.677688e+001  -1.122382e+002 
3231250000  -2.749106e+001  -1.151172e+002 
3234375000  -2.737557e+001  -1.139995e+002 
3237500000  -2.735387e+001  -1.155461e+002 
3240625000  -2.708187e+001  -1.173648e+002 
3243750000  -2.666567e+001  -1.238803e+002 
3246875000  -2.716037e+001  -1.304853e+002 
3250000000  -2.762421e+001  -1.325538e+002 
3253125000  -2.783155e+001  -1.341689e+002 
3256250000  -2.764644e+001  -1.399594e+002 
3259375000  -2.797108e+001  -1.477186e+002 
3262500000  -2.919746e+001  -1.505968e+002 
3265625000  -2.992296e+001  -1.469873e+002 
3268750000  -2.983925e+001  -1.443735e+002 
3271875000  -2.970117e+001  -1.432762e+002 
3275000000  -2.855881e+001  -1.486818e+002 
3278125000  -2.899398e+001  -1.549241e+002 
3281250000  -2.930034e+001  -1.528009e+002 
3284375000  -2.888033e+001  -1.585545e+002 
3287500000  -2.898584e+001  -1.613901e+002 
3290625000  -2.941561e+001  -1.657271e+002 
3293750000  -2.910916e+001  -1.711164e+002 
3296875000  -3.012932e+001  -1.711555e+002 
3300000000  -3.005831e+001  -1.700511e+002 
3303125000  -2.882689e+001  -1.740606e+002 
3306250000  -2.866018e+001  1.793278e+002 
3309375000  -2.843105e+001  1.745128e+002 
3312500000  -2.848315e+001  1.639782e+002 
3315625000  -2.944710e+001  1.558436e+002 
3318750000  -3.075893e+001  1.536590e+002 
3321875000  -3.203441e+001  1.533214e+002 
3325000000  -3.257552e+001  1.581370e+002 
3328125000  -3.251944e+001  1.600033e+002 
3331250000  -3.128684e+001  1.671779e+002 
3334375000  -2.867073e+001  1.579149e+002 
3337500000  -2.876548e+001  1.393973e+002 
3340625000  -3.003831e+001  1.290226e+002 
3343750000  -3.196344e+001  1.273820e+002 
3346875000  -3.251029e+001  1.291524e+002 
3350000000  -3.197215e+001  1.278371e+002 
3353125000  -3.196460e+001  1.234895e+002 
3356250000  -3.166483e+001  1.155464e+002 
3359375000  -3.256111e+001  1.074073e+002 
3362500000  -3.377427e+001  1.017968e+002 
3365625000  -3.453895e+001  1.004113e+002 
3368750000  -3.540496e+001  9.864376e+001 
3371875000  -3.578922e+001  9.544856e+001 
3375000000  -3.740385e+001  9.303512e+001 
3378125000  -3.841906e+001  9.314397e+001 
3381250000  -4.004161e+001  1.008553e+002 
3384375000  -3.940565e+001  1.211766e+002 
3387500000  -3.588029e+001  1.074301e+002 
3390625000  -3.782803e+001  8.855804e+001 
3393750000  -3.958418e+001  9.426408e+001 
3396875000  -3.871782e+001  9.642394e+001 
3400000000  -3.868018e+001  8.991149e+001 
3403125000  -3.968729e+001  8.459045e+001 
3406250000  -4.058088e+001  8.726582e+001 
3409375000  -4.116587e+001  8.338746e+001 
3412500000  -4.197253e+001  8.364608e+001 
3415625000  -4.274578e+001  8.799452e+001 
3418750000  -4.327864e+001  9.362714e+001 
3421875000  -4.313569e+001  9.914310e+001 
3425000000  -4.247964e+001  1.019683e+002 
3428125000  -4.161608e+001  1.020388e+002 
3431250000  -4.154625e+001  9.883401e+001 
3434375000  -4.127362e+001  9.625411e+001 
3437500000  -4.187969e+001  9.349091e+001 
3440625000  -4.223338e+001  9.657122e+001 
3443750000  -4.098539e+001  9.873071e+001 
3446875000  -4.025576e+001  9.433865e+001 
3450000000  -4.004084e+001  8.532967e+001 
3453125000  -4.023893e+001  7.702190e+001 
3456250000  -4.117398e+001  7.077991e+001 
3459375000  -4.229441e+001  7.517602e+001 
3462500000  -4.246722e+001  7.581992e+001 
3465625000  -4.252197e+001  7.163358e+001 
3468750000  -4.272152e+001  6.681676e+001 
3471875000  -4.308725e+001  6.984330e+001 
3475000000  -4.292655e+001  6.430943e+001 
3478125000  -4.326816e+001  5.886323e+001 
3481250000  -4.454199e+001  5.926614e+001 
3484375000  -4.599372e+001  6.327881e+001 
3487500000  -4.577985e+001  6.711366e+001 
3490625000  -4.539140e+001  6.453428e+001 
3493750000  -4.605593e+001  6.122228e+001 
3496875000  -4.703616e+001  6.411965e+001 
3500000000  -4.796479e+001  6.991690e+001 
3503125000  -4.780318e+001  7.292357e+001 
3506250000  -4.663928e+001  7.387097e+001 
3509375000  -4.666824e+001  7.115309e+001 
3512500000  -4.753027e+001  7.137280e+001 
3515625000  -4.763081e+001  7.616280e+001 
3518750000  -4.821216e+001  8.132884e+001 
3521875000  -4.780120e+001  8.797443e+001 
3525000000  -4.819268e+001  8.660704e+001 
3528125000  -4.773960e+001  9.660043e+001 
3531250000  -4.577637e+001  9.665365e+001 
3534375000  -4.524843e+001  8.931586e+001 
3537500000  -4.514900e+001  8.630782e+001 
3540625000  -4.553806e+001  8.609402e+001 
3543750000  -4.606071e+001  8.631430e+001 
3546875000  -4.583415e+001  1.015466e+002 
3550000000  -4.301677e+001  1.030182e+002 
3553125000  -4.152856e+001  8.720151e+001 
3556250000  -4.252285e+001  8.091992e+001 
3559375000  -4.231976e+001  8.448668e+001 
3562500000  -4.075615e+001  7.744765e+001 
3565625000  -4.174400e+001  7.010242e+001 
3568750000  -4.183595e+001  7.527617e+001 
3571875000  -4.183751e+001  7.379974e+001 
3575000000  -4.126842e+001  6.920465e+001 
3578125000  -4.160273e+001  6.350174e+001 
3581250000  -4.134532e+001  6.675318e+001 
3584375000  -4.064957e+001  6.401250e+001 
3587500000  -3.985894e+001  5.910610e+001 
3590625000  -4.044050e+001  5.153864e+001 
3593750000  -4.119859e+001  4.676297e+001 
3596875000  -4.127998e+001  5.517652e+001 
3600000000  -3.967447e+001  5.300844e+001 
3603125000  -3.983743e+001  4.076653e+001 
3606250000  -4.060893e+001  3.804350e+001 
3609375000  -4.078669e+001  3.708349e+001 
3612500000  -4.134041e+001  3.496395e+001 
3615625000  -4.124082e+001  3.167011e+001 
3618750000  -4.180790e+001  3.404211e+001 
3621875000  -4.142318e+001  3.296152e+001 
3625000000  -4.165673e+001  3.312889e+001 
3628125000  -4.196717e+001  3.298249e+001 
3631250000  -4.138507e+001  2.733264e+001 
3634375000  -4.245672e+001  2.930406e+001 
3637500000  -4.202210e+001  3.433314e+001 
3640625000  -4.090738e+001  3.621068e+001 
3643750000  -4.098200e+001  2.880418e+001 
3646875000  -4.132193e+001  2.574983e+001 
3650000000  -4.173875e+001  2.394102e+001 
3653125000  -4.154781e+001  2.376146e+001 
3656250000  -4.211300e+001  2.341294e+001 
3659375000  -4.213185e+001  2.634760e+001 
3662500000  -4.140161e+001  2.239652e+001 
3665625000  -4.138021e+001  2.381651e+001 
3668750000  -4.034068e+001  2.771349e+001 
3671875000  -3.934888e+001  2.425217e+001 
3675000000  -3.972949e+001  1.711085e+001 
3678125000  -4.056353e+001  1.907391e+001 
3681250000  -4.002119e+001  1.882867e+001 
3684375000  -3.977807e+001  1.770733e+001 
3687500000  -3.991642e+001  1.561263e+001 
3690625000  -3.975956e+001  1.351649e+001 
3693750000  -4.055037e+001  1.615497e+001 
3696875000  -4.032658e+001  1.959480e+001 
3700000000  -3.913119e+001  1.714384e+001 
3703125000  -3.875066e+001  1.486498e+001 
3706250000  -3.945914e+001  1.753760e+001 
3709375000  -3.870964e+001  1.857478e+001 
3712500000  -3.768578e+001  1.902001e+001 
3715625000  -3.651433e+001  1.398773e+001 
3718750000  -3.567223e+001  1.101741e+001 
3721875000  -3.529819e+001  5.608716e+000 
3725000000  -3.528084e+001  2.270143e-001 
3728125000  -3.548183e+001  -6.780792e-001 
3731250000  -3.460830e+001  -1.501877e+000 
3734375000  -3.367381e+001  -6.606668e+000 
3737500000  -3.431293e+001  -1.436753e+001 
3740625000  -3.486885e+001  -1.714745e+001 
3743750000  -3.478547e+001  -2.011553e+001 
3746875000  -3.455499e+001  -2.277345e+001 
3750000000  -3.497944e+001  -2.431421e+001 
3753125000  -3.464948e+001  -2.466842e+001 
3756250000  -3.457773e+001  -2.467388e+001 
3759375000  -3.429921e+001  -2.529913e+001 
3762500000  -3.376865e+001  -2.952279e+001 
3765625000  -3.428411e+001  -3.264551e+001 
3768750000  -3.435272e+001  -2.994425e+001 
3771875000  -3.247165e+001  -3.214291e+001 
3775000000  -3.234901e+001  -3.976005e+001 
3778125000  -3.271367e+001  -4.225402e+001 
3781250000  -3.253161e+001  -4.495262e+001 
3784375000  -3.238906e+001  -4.635512e+001 
3787500000  -3.184707e+001  -5.069929e+001 
3790625000  -3.223181e+001  -5.593870e+001 
3793750000  -3.244828e+001  -5.646088e+001 
3796875000  -3.157231e+001  -5.766504e+001 
3800000000  -3.006439e+001  -6.148306e+001 
3803125000  -3.073460e+001  -6.819510e+001 
3806250000  -3.138721e+001  -7.037605e+001 
3809375000  -3.121002e+001  -7.190305e+001 
3812500000  -3.046679e+001  -7.640370e+001 
3815625000  -3.102206e+001  -8.443431e+001 
3818750000  -3.197940e+001  -8.534832e+001 
3821875000  -3.209424e+001  -7.812991e+001 
3825000000  -3.020779e+001  -7.292463e+001 
3828125000  -2.884004e+001  -8.698653e+001 
3831250000  -2.941604e+001  -1.011760e+002 
3834375000  -3.061764e+001  -1.017729e+002 
3837500000  -3.162140e+001  -9.681201e+001 
3840625000  -3.050694e+001  -9.772415e+001 
3843750000  -2.931255e+001  -1.071491e+002 
3846875000  -2.996209e+001  -1.152218e+002 
3850000000  -3.120923e+001  -1.097366e+002 
3853125000  -3.042773e+001  -1.063514e+002 
3856250000  -3.039162e+001  -1.106814e+002 
3859375000  -2.972375e+001  -1.162690e+002 
3862500000  -2.926257e+001  -1.234199e+002 
3865625000  -2.946687e+001  -1.279498e+002 
3868750000  -2.953499e+001  -1.282533e+002 
3871875000  -2.883756e+001  -1.310544e+002 
3875000000  -2.893294e+001  -1.399519e+002 
3878125000  -2.995474e+001  -1.428852e+002 
3881250000  -3.014797e+001  -1.395229e+002 
3884375000  -2.959430e+001  -1.436704e+002 
3887500000  -2.970599e+001  -1.480559e+002 
3890625000  -3.020612e+001  -1.505655e+002 
3893750000  -3.066575e+001  -1.520168e+002 
3896875000  -3.073550e+001  -1.507537e+002 
3900000000  -3.106223e+001  -1.525237e+002 
3903125000  -3.075663e+001  -1.541549e+002 
3906250000  -3.045052e+001  -1.555955e+002 
3909375000  -2.966689e+001  -1.572265e+002 
3912500000  -2.972315e+001  -1.647648e+002 
3915625000  -3.091031e+001  -1.635761e+002 
3918750000  -3.089526e+001  -1.625861e+002 
3921875000  -3.064810e+001  -1.644760e+002 
3925000000  -2.983480e+001  -1.643541e+002 
3928125000  -2.916629e+001  -1.703136e+002 
3931250000  -2.954140e+001  -1.740624e+002 
3934375000  -2.968745e+001  -1.742449e+002 
3937500000  -2.995766e+001  -1.747445e+002 
3940625000  -3.036859e+001  -1.742161e+002 
3943750000  -2.945889e+001  -1.734601e+002 
3946875000  -2.826661e+001  -1.779969e+002 
3950000000  -2.864731e+001  1.737693e+002 
3953125000  -2.961804e+001  1.744952e+002 
3956250000  -2.889297e+001  1.775327e+002 
3959375000  -2.743795e+001  1.735883e+002 
3962500000  -2.695450e+001  1.702546e+002 
3965625000  -2.657329e+001  1.616277e+002 
3968750000  -2.744697e+001  1.544525e+002 
3971875000  -2.791040e+001  1.534744e+002 
3975000000  -2.716474e+001  1.514657e+002 
3978125000  -2.697229e+001  1.502644e+002 
3981250000  -2.670343e+001  1.453523e+002 
3984375000  -2.697348e+001  1.391298e+002 
3987500000  -2.741824e+001  1.371202e+002 
3990625000  -2.746070e+001  1.362174e+002 
3993750000  -2.765182e+001  1.321330e+002 
3996875000  -2.755061e+001  1.303704e+002 
4000000000  -2.774866e+001  1.280291e+002 
4003125000  -2.833362e+001  1.300254e+002 
4006250000  -2.693718e+001  1.312059e+002 
4009375000  -2.571388e+001  1.181671e+002 
4012500000  -2.674384e+001  1.109984e+002 
4015625000  -2.801454e+001  1.115893e+002 
4018750000  -2.825093e+001  1.140276e+002 
4021875000  -2.760431e+001  1.121503e+002 
4025000000  -2.722382e+001  1.076250e+002 
4028125000  -2.714987e+001  1.034484e+002 
4031250000  -2.764921e+001  1.005857e+002 
4034375000  -2.795760e+001  1.003682e+002 
4037500000  -2.746394e+001  1.021754e+002 
4040625000  -2.735704e+001  9.896313e+001 
4043750000  -2.765522e+001  9.852360e+001 
4046875000  -2.725086e+001  9.816282e+001 
4050000000  -2.673145e+001  9.265086e+001 
4053125000  -2.718899e+001  9.049955e+001 
4056250000  -2.777580e+001  9.454212e+001 
4059375000  -2.665517e+001  9.666849e+001 
4062500000  -2.521481e+001  9.227687e+001 
4065625000  -2.504862e+001  8.745353e+001 
4068750000  -2.480918e+001  8.279592e+001 
4071875000  -2.419597e+001  7.502946e+001 
4075000000  -2.455354e+001  6.876130e+001 
4078125000  -2.507932e+001  6.792493e+001 
4081250000  -2.452979e+001  6.545061e+001 
4084375000  -2.414827e+001  5.867319e+001 
4087500000  -2.450391e+001  5.276417e+001 
4090625000  -2.511121e+001  5.122546e+001 
4093750000  -2.493476e+001  5.218139e+001 
4096875000  -2.449722e+001  4.664571e+001 
4100000000  -2.516036e+001  3.938282e+001 
4103125000  -2.601095e+001  3.965753e+001 
4106250000  -2.592142e+001  4.426761e+001 
4109375000  -2.510076e+001  4.405000e+001 
4112500000  -2.447842e+001  3.747406e+001 
4115625000  -2.478307e+001  3.311971e+001 
4118750000  -2.490376e+001  3.042622e+001 
4121875000  -2.447753e+001  2.569736e+001 
4125000000  -2.482745e+001  2.042139e+001 
4128125000  -2.581747e+001  2.032554e+001 
4131250000  -2.565202e+001  2.817504e+001 
4134375000  -2.326801e+001  2.401909e+001 
4137500000  -2.306892e+001  5.166715e+000 
4140625000  -2.521647e+001  -1.772074e+000 
4143750000  -2.654121e+001  3.228387e+000 
4146875000  -2.616298e+001  9.937052e+000 
4150000000  -2.528121e+001  7.298879e+000 
4153125000  -2.507124e+001  5.249623e-001 
4156250000  -2.599182e+001  -2.326666e+000 
4159375000  -2.625296e+001  2.376163e+000 
4162500000  -2.516182e+001  6.526570e+000 
4165625000  -2.402047e+001  2.583165e+000 
4168750000  -2.341598e+001  -4.331187e+000 
4171875000  -2.337733e+001  -1.366886e+001 
4175000000  -2.400869e+001  -1.917745e+001 
4178125000  -2.457527e+001  -1.915477e+001 
4181250000  -2.450983e+001  -1.992380e+001 
4184375000  -2.436052e+001  -2.276455e+001 
4187500000  -2.439473e+001  -2.552529e+001 
4190625000  -2.417336e+001  -3.081533e+001 
4193750000  -2.497325e+001  -3.474493e+001 
4196875000  -2.566252e+001  -3.491476e+001 
4200000000  -2.645470e+001  -3.264434e+001 
4203125000  -2.659398e+001  -1.993786e+001 
4206250000  -2.322603e+001  -1.739200e+001 
4209375000  -2.199890e+001  -3.801104e+001 
4212500000  -2.390466e+001  -4.741218e+001 
4215625000  -2.493191e+001  -4.122107e+001 
4218750000  -2.360782e+001  -3.452137e+001 
4221875000  -2.132289e+001  -4.328542e+001 
4225000000  -2.255433e+001  -5.596146e+001 
4228125000  -2.325622e+001  -5.084930e+001 
4231250000  -2.170060e+001  -5.457489e+001 
4234375000  -2.159712e+001  -6.316491e+001 
4237500000  -2.116678e+001  -6.582811e+001 
4240625000  -2.119352e+001  -7.451405e+001 
4243750000  -2.213651e+001  -8.140300e+001 
4246875000  -2.297331e+001  -8.150555e+001 
4250000000  -2.310986e+001  -7.886230e+001 
4253125000  -2.249854e+001  -8.088789e+001 
4256250000  -2.279309e+001  -8.515927e+001 
4259375000  -2.250509e+001  -8.679587e+001 
4262500000  -2.255253e+001  -9.068109e+001 
4265625000  -2.273952e+001  -9.025529e+001 
4268750000  -2.183453e+001  -9.430952e+001 
4271875000  -2.165485e+001  -9.980688e+001 
4275000000  -2.105713e+001  -1.063735e+002 
4278125000  -2.165707e+001  -1.177098e+002 
4281250000  -2.341720e+001  -1.197025e+002 
4284375000  -2.314625e+001  -1.185694e+002 
4287500000  -2.392413e+001  -1.223704e+002 
4290625000  -2.518377e+001  -1.127848e+002 
4293750000  -2.324069e+001  -1.073509e+002 
4296875000  -2.184782e+001  -1.186117e+002 
4300000000  -2.272733e+001  -1.274766e+002 
4303125000  -2.381646e+001  -1.270048e+002 
4306250000  -2.329386e+001  -1.204486e+002 
4309375000  -2.187321e+001  -1.223670e+002 
4312500000  -2.176341e+001  -1.306046e+002 
4315625000  -2.197845e+001  -1.366056e+002 
4318750000  -2.231582e+001  -1.399932e+002 
4321875000  -2.248418e+001  -1.398038e+002 
4325000000  -2.187219e+001  -1.392108e+002 
4328125000  -2.139364e+001  -1.451686e+002 
4331250000  -2.131555e+001  -1.529595e+002 
4334375000  -2.173063e+001  -1.580919e+002 
4337500000  -2.256941e+001  -1.602540e+002 
4340625000  -2.311718e+001  -1.574730e+002 
4343750000  -2.253442e+001  -1.565835e+002 
4346875000  -2.213375e+001  -1.619327e+002 
4350000000  -2.216372e+001  -1.669407e+002 
4353125000  -2.218529e+001  -1.745035e+002 
4356250000  -2.391047e+001  -1.760638e+002 
4359375000  -2.460000e+001  -1.623633e+002 
4362500000  -2.190035e+001  -1.601111e+002 
4365625000  -2.022454e+001  -1.718813e+002 
4368750000  -2.092824e+001  1.762630e+002 
4371875000  -2.217267e+001  1.765537e+002 
4375000000  -2.186786e+001  1.778538e+002 
4378125000  -2.116466e+001  1.720776e+002 
4381250000  -2.136706e+001  1.664890e+002 
4384375000  -2.115205e+001  1.620742e+002 
4387500000  -2.187394e+001  1.561234e+002 
4390625000  -2.295106e+001  1.570895e+002 
4393750000  -2.226283e+001  1.594083e+002 
4396875000  -2.160538e+001  1.570414e+002 
4400000000  -2.108226e+001  1.501414e+002 
4403125000  -2.163941e+001  1.426396e+002 
4406250000  -2.251252e+001  1.411732e+002 
4409375000  -2.249677e+001  1.389502e+002 
4412500000  -2.353187e+001  1.358840e+002 
4415625000  -2.392571e+001  1.409093e+002 
4418750000  -2.269938e+001  1.459529e+002 
