!Agilent Technologies,E8363B,MY43030201,A.06.04.32
!Agilent E8363B: A.06.04.32
!Date: Tuesday, November 11, 2014 20:57:51
!Correction: S21(Response(S21)) 
!S1P File: Measurement: S21:
# Hz S  dB   R 50
3000000000  -2.648703e+001  1.465320e+002 
3003125000  -2.794054e+001  1.419239e+002 
3006250000  -2.793510e+001  1.394900e+002 
3009375000  -2.834182e+001  1.441956e+002 
3012500000  -2.777193e+001  1.436899e+002 
3015625000  -2.684026e+001  1.369584e+002 
3018750000  -2.766387e+001  1.362854e+002 
3021875000  -2.634700e+001  1.374909e+002 
3025000000  -2.506196e+001  1.343844e+002 
3028125000  -2.409375e+001  1.291281e+002 
3031250000  -2.306003e+001  1.179210e+002 
3034375000  -2.270987e+001  1.047699e+002 
3037500000  -2.311927e+001  9.309536e+001 
3040625000  -2.448506e+001  8.797495e+001 
3043750000  -2.515250e+001  8.361979e+001 
3046875000  -2.529780e+001  7.753402e+001 
3050000000  -2.698713e+001  7.092577e+001 
3053125000  -2.710378e+001  7.706150e+001 
3056250000  -2.644383e+001  8.045068e+001 
3059375000  -2.666420e+001  7.966641e+001 
3062500000  -2.516432e+001  7.585534e+001 
3065625000  -2.496189e+001  7.026210e+001 
3068750000  -2.467512e+001  6.325384e+001 
3071875000  -2.462227e+001  6.041171e+001 
3075000000  -2.459484e+001  5.637035e+001 
3078125000  -2.432582e+001  5.187515e+001 
3081250000  -2.495734e+001  4.749584e+001 
3084375000  -2.417484e+001  4.399361e+001 
3087500000  -2.409855e+001  4.015581e+001 
3090625000  -2.378203e+001  3.045385e+001 
3093750000  -2.429878e+001  2.261612e+001 
3096875000  -2.555843e+001  1.685934e+001 
3100000000  -2.564029e+001  1.543218e+001 
3103125000  -2.604588e+001  1.684406e+001 
3106250000  -2.579882e+001  1.310023e+001 
3109375000  -2.600723e+001  9.667959e+000 
3112500000  -2.616734e+001  8.322059e+000 
3115625000  -2.594977e+001  4.147777e+000 
3118750000  -2.644835e+001  5.778146e+000 
3121875000  -2.575300e+001  -2.502869e+000 
3125000000  -2.698753e+001  -6.002831e+000 
3128125000  -2.817360e+001  2.770254e+000 
3131250000  -2.593954e+001  2.717488e+000 
3134375000  -2.464588e+001  -1.102484e+001 
3137500000  -2.526975e+001  -2.445177e+001 
3140625000  -2.687512e+001  -2.613876e+001 
3143750000  -2.791485e+001  -2.221635e+001 
3146875000  -2.748126e+001  -2.004472e+001 
3150000000  -2.651136e+001  -1.809203e+001 
3153125000  -2.648173e+001  -2.574742e+001 
3156250000  -2.750734e+001  -1.997384e+001 
3159375000  -2.583028e+001  -1.747416e+001 
3162500000  -2.386537e+001  -3.040999e+001 
3165625000  -2.481463e+001  -4.142339e+001 
3168750000  -2.515521e+001  -4.022939e+001 
3171875000  -2.422618e+001  -4.450607e+001 
3175000000  -2.488444e+001  -5.220786e+001 
3178125000  -2.462078e+001  -5.057233e+001 
3181250000  -2.348737e+001  -5.492696e+001 
3184375000  -2.275183e+001  -6.678165e+001 
3187500000  -2.390587e+001  -8.229555e+001 
3190625000  -2.659068e+001  -8.917114e+001 
3193750000  -2.718304e+001  -7.989793e+001 
3196875000  -2.680665e+001  -7.423635e+001 
3200000000  -2.582660e+001  -7.632766e+001 
3203125000  -2.498403e+001  -8.218543e+001 
3206250000  -2.534036e+001  -8.839360e+001 
3209375000  -2.485388e+001  -9.370470e+001 
3212500000  -2.503653e+001  -1.000368e+002 
3215625000  -2.513987e+001  -1.038808e+002 
3218750000  -2.587506e+001  -1.103251e+002 
3221875000  -2.681414e+001  -1.156613e+002 
3225000000  -2.644445e+001  -1.160495e+002 
3228125000  -2.677623e+001  -1.206751e+002 
3231250000  -2.754001e+001  -1.233387e+002 
3234375000  -2.735643e+001  -1.224050e+002 
3237500000  -2.738974e+001  -1.239402e+002 
3240625000  -2.706598e+001  -1.257930e+002 
3243750000  -2.672246e+001  -1.326033e+002 
3246875000  -2.721730e+001  -1.387527e+002 
3250000000  -2.766409e+001  -1.409358e+002 
3253125000  -2.785933e+001  -1.424052e+002 
3256250000  -2.768275e+001  -1.481137e+002 
3259375000  -2.800385e+001  -1.561336e+002 
3262500000  -2.933355e+001  -1.587400e+002 
3265625000  -2.997626e+001  -1.551986e+002 
3268750000  -2.987309e+001  -1.524808e+002 
3271875000  -2.967614e+001  -1.512530e+002 
3275000000  -2.856448e+001  -1.569082e+002 
3278125000  -2.908511e+001  -1.628704e+002 
3281250000  -2.930840e+001  -1.611773e+002 
3284375000  -2.893430e+001  -1.668777e+002 
3287500000  -2.906518e+001  -1.694549e+002 
3290625000  -2.947984e+001  -1.737233e+002 
3293750000  -2.915931e+001  -1.796521e+002 
3296875000  -3.017413e+001  -1.793020e+002 
3300000000  -3.002098e+001  -1.780397e+002 
3303125000  -2.884777e+001  1.774500e+002 
3306250000  -2.869988e+001  1.708007e+002 
3309375000  -2.840836e+001  1.658499e+002 
3312500000  -2.850449e+001  1.554299e+002 
3315625000  -2.950653e+001  1.476769e+002 
3318750000  -3.092806e+001  1.454277e+002 
3321875000  -3.213854e+001  1.455758e+002 
3325000000  -3.266832e+001  1.507258e+002 
3328125000  -3.239913e+001  1.514750e+002 
3331250000  -3.125310e+001  1.590657e+002 
3334375000  -2.867367e+001  1.497855e+002 
3337500000  -2.872689e+001  1.309954e+002 
3340625000  -3.008674e+001  1.201069e+002 
3343750000  -3.214194e+001  1.190517e+002 
3346875000  -3.254174e+001  1.206397e+002 
3350000000  -3.193097e+001  1.197176e+002 
3353125000  -3.200854e+001  1.144805e+002 
3356250000  -3.171852e+001  1.070366e+002 
3359375000  -3.262925e+001  9.898967e+001 
3362500000  -3.395796e+001  9.368306e+001 
3365625000  -3.450793e+001  9.252724e+001 
3368750000  -3.550613e+001  8.986747e+001 
3371875000  -3.600583e+001  8.712608e+001 
3375000000  -3.745636e+001  8.518139e+001 
3378125000  -3.857362e+001  8.519302e+001 
3381250000  -4.019508e+001  9.383658e+001 
3384375000  -3.923609e+001  1.147121e+002 
3387500000  -3.595951e+001  9.977252e+001 
3390625000  -3.765366e+001  8.034769e+001 
3393750000  -3.957939e+001  8.456046e+001 
3396875000  -3.882833e+001  8.760646e+001 
3400000000  -3.887206e+001  8.096854e+001 
3403125000  -3.990869e+001  7.670544e+001 
3406250000  -4.058358e+001  7.950115e+001 
3409375000  -4.089633e+001  7.588147e+001 
3412500000  -4.221503e+001  7.690002e+001 
3415625000  -4.272550e+001  8.268079e+001 
3418750000  -4.311285e+001  8.657221e+001 
3421875000  -4.354263e+001  9.381692e+001 
3425000000  -4.270741e+001  9.714470e+001 
3428125000  -4.148285e+001  9.507484e+001 
3431250000  -4.154504e+001  9.049078e+001 
3434375000  -4.139018e+001  8.932591e+001 
3437500000  -4.186135e+001  8.674020e+001 
3440625000  -4.191816e+001  8.958172e+001 
3443750000  -4.058007e+001  9.178824e+001 
3446875000  -3.976077e+001  8.645657e+001 
3450000000  -3.977932e+001  7.710899e+001 
3453125000  -3.981658e+001  6.848206e+001 
3456250000  -4.100481e+001  6.439699e+001 
3459375000  -4.205838e+001  6.705154e+001 
3462500000  -4.237041e+001  6.827209e+001 
3465625000  -4.223818e+001  6.247451e+001 
3468750000  -4.267142e+001  5.966208e+001 
3471875000  -4.283926e+001  6.124616e+001 
3475000000  -4.252616e+001  5.682042e+001 
3478125000  -4.323383e+001  4.975383e+001 
3481250000  -4.472067e+001  4.881605e+001 
3484375000  -4.613150e+001  5.605395e+001 
3487500000  -4.515481e+001  5.677922e+001 
3490625000  -4.522691e+001  5.702645e+001 
3493750000  -4.556983e+001  5.193422e+001 
3496875000  -4.712608e+001  5.218386e+001 
3500000000  -4.783542e+001  6.083039e+001 
3503125000  -4.757417e+001  6.660625e+001 
3506250000  -4.668714e+001  6.783318e+001 
3509375000  -4.664914e+001  6.195803e+001 
3512500000  -4.732501e+001  6.144077e+001 
3515625000  -4.760888e+001  6.718976e+001 
3518750000  -4.837451e+001  7.489406e+001 
3521875000  -4.766199e+001  7.477132e+001 
3525000000  -4.767687e+001  7.511486e+001 
3528125000  -4.790501e+001  9.275552e+001 
3531250000  -4.528956e+001  8.766883e+001 
3534375000  -4.520009e+001  7.752587e+001 
3537500000  -4.495200e+001  7.832793e+001 
3540625000  -4.539927e+001  7.499879e+001 
3543750000  -4.556870e+001  7.995408e+001 
3546875000  -4.546264e+001  9.446944e+001 
3550000000  -4.287127e+001  9.480804e+001 
3553125000  -4.117137e+001  7.586073e+001 
3556250000  -4.253893e+001  7.098026e+001 
3559375000  -4.192972e+001  7.441393e+001 
3562500000  -4.092883e+001  6.665730e+001 
3565625000  -4.158364e+001  5.915256e+001 
3568750000  -4.185726e+001  6.379298e+001 
3571875000  -4.139980e+001  6.381780e+001 
3575000000  -4.091637e+001  5.670688e+001 
3578125000  -4.128503e+001  5.310506e+001 
3581250000  -4.136614e+001  5.455635e+001 
3584375000  -4.056290e+001  5.326310e+001 
3587500000  -3.989033e+001  4.771735e+001 
3590625000  -4.019434e+001  3.753027e+001 
3593750000  -4.135477e+001  3.812942e+001 
3596875000  -4.114562e+001  4.723522e+001 
3600000000  -3.955964e+001  4.330723e+001 
3603125000  -3.976054e+001  3.158876e+001 
3606250000  -4.055137e+001  2.677733e+001 
3609375000  -4.088358e+001  2.721651e+001 
3612500000  -4.109695e+001  2.602803e+001 
3615625000  -4.124587e+001  2.192652e+001 
3618750000  -4.187475e+001  2.519543e+001 
3621875000  -4.162148e+001  2.572674e+001 
3625000000  -4.177105e+001  2.299334e+001 
3628125000  -4.188037e+001  2.454223e+001 
3631250000  -4.115690e+001  2.096422e+001 
3634375000  -4.247051e+001  2.161910e+001 
3637500000  -4.216588e+001  2.492119e+001 
3640625000  -4.102674e+001  2.765613e+001 
3643750000  -4.060437e+001  2.045855e+001 
3646875000  -4.100414e+001  1.521354e+001 
3650000000  -4.158073e+001  1.588377e+001 
3653125000  -4.104995e+001  1.360553e+001 
3656250000  -4.154729e+001  1.376989e+001 
3659375000  -4.209657e+001  1.796591e+001 
3662500000  -4.110330e+001  1.617473e+001 
3665625000  -4.106027e+001  1.630119e+001 
3668750000  -3.988122e+001  1.792846e+001 
3671875000  -3.937059e+001  1.325266e+001 
3675000000  -3.973553e+001  5.963004e+000 
3678125000  -4.041340e+001  8.446927e+000 
3681250000  -3.987344e+001  8.936402e+000 
3684375000  -3.978110e+001  7.421567e+000 
3687500000  -3.974022e+001  5.694035e+000 
3690625000  -3.978982e+001  2.833356e+000 
3693750000  -4.041220e+001  6.574407e+000 
3696875000  -4.000896e+001  7.597877e+000 
3700000000  -3.907732e+001  5.912537e+000 
3703125000  -3.866211e+001  2.937018e+000 
3706250000  -3.946767e+001  5.495156e+000 
3709375000  -3.850431e+001  8.658392e+000 
3712500000  -3.737684e+001  9.502475e+000 
3715625000  -3.641458e+001  2.477534e+000 
3718750000  -3.570369e+001  -8.884727e-002 
3721875000  -3.532412e+001  -5.222025e+000 
3725000000  -3.534082e+001  -1.064387e+001 
3728125000  -3.546810e+001  -1.046612e+001 
3731250000  -3.460492e+001  -1.211561e+001 
3734375000  -3.376593e+001  -1.805201e+001 
3737500000  -3.428398e+001  -2.483558e+001 
3740625000  -3.490891e+001  -2.659594e+001 
3743750000  -3.468211e+001  -2.926945e+001 
3746875000  -3.466067e+001  -3.280590e+001 
3750000000  -3.501315e+001  -3.286579e+001 
3753125000  -3.464386e+001  -3.403450e+001 
3756250000  -3.461631e+001  -3.519781e+001 
3759375000  -3.426760e+001  -3.564801e+001 
3762500000  -3.379795e+001  -3.928818e+001 
3765625000  -3.419169e+001  -4.137229e+001 
3768750000  -3.434639e+001  -3.988699e+001 
3771875000  -3.243931e+001  -4.227023e+001 
3775000000  -3.230651e+001  -4.992416e+001 
3778125000  -3.265897e+001  -5.197235e+001 
3781250000  -3.238236e+001  -5.475869e+001 
3784375000  -3.240474e+001  -5.698712e+001 
3787500000  -3.175370e+001  -6.035775e+001 
3790625000  -3.214964e+001  -6.587834e+001 
3793750000  -3.239275e+001  -6.635574e+001 
3796875000  -3.148178e+001  -6.779609e+001 
3800000000  -2.992266e+001  -7.185904e+001 
3803125000  -3.073308e+001  -7.884805e+001 
3806250000  -3.135860e+001  -8.091538e+001 
3809375000  -3.102339e+001  -8.194786e+001 
3812500000  -3.040934e+001  -8.720528e+001 
3815625000  -3.103642e+001  -9.473962e+001 
3818750000  -3.212186e+001  -9.558108e+001 
3821875000  -3.221396e+001  -8.732674e+001 
3825000000  -3.023542e+001  -8.297565e+001 
3828125000  -2.876122e+001  -9.687373e+001 
3831250000  -2.929165e+001  -1.114480e+002 
3834375000  -3.076459e+001  -1.115608e+002 
3837500000  -3.165255e+001  -1.071190e+002 
3840625000  -3.042519e+001  -1.073125e+002 
3843750000  -2.933740e+001  -1.172219e+002 
3846875000  -3.008564e+001  -1.252132e+002 
3850000000  -3.133422e+001  -1.192319e+002 
3853125000  -3.047584e+001  -1.165829e+002 
3856250000  -3.041390e+001  -1.211281e+002 
3859375000  -2.972193e+001  -1.258246e+002 
3862500000  -2.935156e+001  -1.330994e+002 
3865625000  -2.961473e+001  -1.381843e+002 
3868750000  -2.959859e+001  -1.385373e+002 
3871875000  -2.884941e+001  -1.413665e+002 
3875000000  -2.897802e+001  -1.494800e+002 
3878125000  -3.003959e+001  -1.520683e+002 
3881250000  -3.016166e+001  -1.491704e+002 
3884375000  -2.958438e+001  -1.539606e+002 
3887500000  -2.970047e+001  -1.578660e+002 
3890625000  -3.029915e+001  -1.604513e+002 
3893750000  -3.072150e+001  -1.623498e+002 
3896875000  -3.080850e+001  -1.609322e+002 
3900000000  -3.103929e+001  -1.620611e+002 
3903125000  -3.062747e+001  -1.634562e+002 
3906250000  -3.040177e+001  -1.645161e+002 
3909375000  -2.960806e+001  -1.676198e+002 
3912500000  -2.968453e+001  -1.749364e+002 
3915625000  -3.099058e+001  -1.741487e+002 
3918750000  -3.090090e+001  -1.723803e+002 
3921875000  -3.055915e+001  -1.745070e+002 
3925000000  -2.977197e+001  -1.746311e+002 
3928125000  -2.909840e+001  1.792079e+002 
3931250000  -2.956375e+001  1.751364e+002 
3934375000  -2.984955e+001  1.755129e+002 
3937500000  -3.003893e+001  1.751025e+002 
3940625000  -3.039645e+001  1.754093e+002 
3943750000  -2.943459e+001  1.762884e+002 
3946875000  -2.824272e+001  1.712629e+002 
3950000000  -2.875427e+001  1.635197e+002 
3953125000  -2.970849e+001  1.646811e+002 
3956250000  -2.879672e+001  1.669244e+002 
3959375000  -2.747606e+001  1.641397e+002 
3962500000  -2.698217e+001  1.595645e+002 
3965625000  -2.669689e+001  1.508466e+002 
3968750000  -2.760750e+001  1.447926e+002 
3971875000  -2.794455e+001  1.430875e+002 
3975000000  -2.726750e+001  1.412726e+002 
3978125000  -2.713892e+001  1.395290e+002 
3981250000  -2.683819e+001  1.351124e+002 
3984375000  -2.711428e+001  1.292701e+002 
3987500000  -2.763221e+001  1.269506e+002 
3990625000  -2.764500e+001  1.260669e+002 
3993750000  -2.779416e+001  1.229934e+002 
3996875000  -2.772538e+001  1.204316e+002 
4000000000  -2.789382e+001  1.184059e+002 
4003125000  -2.841751e+001  1.202659e+002 
4006250000  -2.711048e+001  1.214948e+002 
4009375000  -2.579941e+001  1.086871e+002 
4012500000  -2.689911e+001  1.018863e+002 
4015625000  -2.824772e+001  1.024116e+002 
4018750000  -2.833271e+001  1.048863e+002 
4021875000  -2.765320e+001  1.030011e+002 
4025000000  -2.724881e+001  9.872103e+001 
4028125000  -2.723214e+001  9.393642e+001 
4031250000  -2.774261e+001  9.085572e+001 
4034375000  -2.798986e+001  9.105083e+001 
4037500000  -2.748852e+001  9.254124e+001 
4040625000  -2.738886e+001  8.930566e+001 
4043750000  -2.771863e+001  8.926332e+001 
4046875000  -2.724231e+001  8.854792e+001 
4050000000  -2.679136e+001  8.314381e+001 
4053125000  -2.725261e+001  8.121668e+001 
4056250000  -2.782309e+001  8.522046e+001 
4059375000  -2.653936e+001  8.698724e+001 
4062500000  -2.522114e+001  8.254638e+001 
4065625000  -2.507379e+001  7.780515e+001 
4068750000  -2.479110e+001  7.314162e+001 
4071875000  -2.414975e+001  6.516949e+001 
4075000000  -2.457092e+001  5.876263e+001 
4078125000  -2.513897e+001  5.813063e+001 
4081250000  -2.456691e+001  5.576254e+001 
4084375000  -2.418939e+001  4.880276e+001 
4087500000  -2.457403e+001  4.277543e+001 
4090625000  -2.513379e+001  4.170874e+001 
4093750000  -2.490634e+001  4.253122e+001 
4096875000  -2.453053e+001  3.651543e+001 
4100000000  -2.524076e+001  2.921636e+001 
4103125000  -2.607165e+001  3.045211e+001 
4106250000  -2.596605e+001  3.543720e+001 
4109375000  -2.504509e+001  3.460267e+001 
4112500000  -2.447526e+001  2.774105e+001 
4115625000  -2.486493e+001  2.353057e+001 
4118750000  -2.493123e+001  2.095149e+001 
4121875000  -2.450755e+001  1.600664e+001 
4125000000  -2.490773e+001  1.082475e+001 
4128125000  -2.594713e+001  1.137073e+001 
4131250000  -2.564160e+001  1.959721e+001 
4134375000  -2.328454e+001  1.495504e+001 
4137500000  -2.306672e+001  -4.206781e+000 
4140625000  -2.534261e+001  -1.113172e+001 
4143750000  -2.659046e+001  -5.810562e+000 
4146875000  -2.616483e+001  1.756753e+000 
4150000000  -2.520816e+001  -2.047417e+000 
4153125000  -2.503577e+001  -8.792126e+000 
4156250000  -2.594208e+001  -1.096427e+001 
4159375000  -2.620580e+001  -6.851233e+000 
4162500000  -2.504323e+001  -2.509944e+000 
4165625000  -2.387992e+001  -6.386362e+000 
4168750000  -2.330828e+001  -1.370539e+001 
4171875000  -2.329738e+001  -2.301046e+001 
4175000000  -2.387572e+001  -2.832233e+001 
4178125000  -2.452220e+001  -2.835314e+001 
4181250000  -2.430884e+001  -2.909666e+001 
4184375000  -2.421080e+001  -3.239569e+001 
4187500000  -2.422167e+001  -3.497433e+001 
4190625000  -2.404293e+001  -4.045306e+001 
4193750000  -2.493376e+001  -4.455249e+001 
4196875000  -2.563266e+001  -4.504377e+001 
4200000000  -2.654712e+001  -4.183996e+001 
4203125000  -2.652814e+001  -2.839961e+001 
4206250000  -2.304538e+001  -2.758455e+001 
4209375000  -2.191812e+001  -4.815973e+001 
4212500000  -2.381868e+001  -5.676015e+001 
4215625000  -2.484498e+001  -5.067429e+001 
4218750000  -2.344136e+001  -4.382657e+001 
4221875000  -2.115918e+001  -5.319487e+001 
4225000000  -2.242956e+001  -6.532775e+001 
4228125000  -2.316106e+001  -6.056234e+001 
4231250000  -2.154278e+001  -6.435356e+001 
4234375000  -2.146592e+001  -7.261773e+001 
4237500000  -2.106810e+001  -7.607633e+001 
4240625000  -2.105973e+001  -8.445882e+001 
4243750000  -2.203357e+001  -9.148321e+001 
4246875000  -2.293163e+001  -9.126333e+001 
4250000000  -2.296475e+001  -8.822758e+001 
4253125000  -2.237266e+001  -9.019561e+001 
4256250000  -2.265127e+001  -9.431181e+001 
4259375000  -2.241382e+001  -9.628754e+001 
4262500000  -2.248865e+001  -9.995310e+001 
4265625000  -2.253540e+001  -9.963307e+001 
4268750000  -2.168578e+001  -1.037095e+002 
4271875000  -2.145394e+001  -1.096553e+002 
4275000000  -2.082123e+001  -1.158804e+002 
4278125000  -2.149824e+001  -1.273821e+002 
4281250000  -2.320815e+001  -1.290215e+002 
4284375000  -2.292529e+001  -1.284556e+002 
4287500000  -2.374882e+001  -1.321637e+002 
4290625000  -2.495933e+001  -1.219479e+002 
4293750000  -2.290770e+001  -1.165951e+002 
4296875000  -2.160275e+001  -1.284523e+002 
4300000000  -2.245411e+001  -1.374824e+002 
4303125000  -2.358159e+001  -1.360976e+002 
4306250000  -2.293509e+001  -1.300670e+002 
4309375000  -2.158764e+001  -1.323409e+002 
4312500000  -2.145619e+001  -1.410032e+002 
4315625000  -2.168597e+001  -1.472291e+002 
4318750000  -2.202926e+001  -1.505320e+002 
4321875000  -2.221240e+001  -1.498739e+002 
4325000000  -2.159668e+001  -1.489576e+002 
4328125000  -2.108537e+001  -1.557219e+002 
4331250000  -2.101078e+001  -1.638357e+002 
4334375000  -2.150674e+001  -1.689348e+002 
4337500000  -2.234183e+001  -1.711351e+002 
4340625000  -2.289700e+001  -1.677290e+002 
4343750000  -2.229338e+001  -1.673769e+002 
4346875000  -2.187091e+001  -1.730886e+002 
4350000000  -2.186923e+001  -1.776178e+002 
4353125000  -2.199303e+001  1.746701e+002 
4356250000  -2.382650e+001  1.738038e+002 
4359375000  -2.435031e+001  -1.720396e+002 
4362500000  -2.152848e+001  -1.707988e+002 
4365625000  -1.999358e+001  1.770895e+002 
4368750000  -2.072620e+001  1.651546e+002 
4371875000  -2.190991e+001  1.663230e+002 
4375000000  -2.154702e+001  1.672123e+002 
4378125000  -2.093451e+001  1.612347e+002 
4381250000  -2.109604e+001  1.556908e+002 
4384375000  -2.095281e+001  1.512390e+002 
4387500000  -2.170664e+001  1.456850e+002 
4390625000  -2.268772e+001  1.466555e+002 
4393750000  -2.198836e+001  1.487187e+002 
4396875000  -2.133779e+001  1.464978e+002 
4400000000  -2.079571e+001  1.394274e+002 
4403125000  -2.144441e+001  1.319243e+002 
4406250000  -2.226923e+001  1.306204e+002 
4409375000  -2.222379e+001  1.281259e+002 
4412500000  -2.326517e+001  1.257867e+002 
4415625000  -2.360076e+001  1.308355e+002 
4418750000  -2.237642e+001  1.351531e+002 
