!Agilent Technologies,E8363B,MY43030201,A.06.04.32
!Agilent E8363B: A.06.04.32
!Date: Tuesday, November 11, 2014 20:52:10
!Correction: S21(Response(S21)) 
!S1P File: Measurement: S21:
# Hz S  dB   R 50
3000000000  -2.654186e+001  1.510181e+002 
3003125000  -2.791359e+001  1.466999e+002 
3006250000  -2.795281e+001  1.439435e+002 
3009375000  -2.828260e+001  1.490206e+002 
3012500000  -2.775194e+001  1.484996e+002 
3015625000  -2.685768e+001  1.417067e+002 
3018750000  -2.768124e+001  1.406948e+002 
3021875000  -2.644334e+001  1.421465e+002 
3025000000  -2.513130e+001  1.389668e+002 
3028125000  -2.413950e+001  1.340232e+002 
3031250000  -2.309804e+001  1.226874e+002 
3034375000  -2.275557e+001  1.096771e+002 
3037500000  -2.312668e+001  9.774175e+001 
3040625000  -2.443873e+001  9.272962e+001 
3043750000  -2.513168e+001  8.829343e+001 
3046875000  -2.528439e+001  8.224886e+001 
3050000000  -2.699836e+001  7.498690e+001 
3053125000  -2.711286e+001  8.151154e+001 
3056250000  -2.648255e+001  8.460059e+001 
3059375000  -2.672758e+001  8.453896e+001 
3062500000  -2.519164e+001  8.055911e+001 
3065625000  -2.498786e+001  7.478436e+001 
3068750000  -2.470201e+001  6.772866e+001 
3071875000  -2.465975e+001  6.497892e+001 
3075000000  -2.461596e+001  6.106454e+001 
3078125000  -2.434803e+001  5.657989e+001 
3081250000  -2.499265e+001  5.212765e+001 
3084375000  -2.422771e+001  4.864512e+001 
3087500000  -2.413179e+001  4.500009e+001 
3090625000  -2.385179e+001  3.524150e+001 
3093750000  -2.428374e+001  2.744524e+001 
3096875000  -2.557682e+001  2.159909e+001 
3100000000  -2.569199e+001  1.984749e+001 
3103125000  -2.608192e+001  2.140346e+001 
3106250000  -2.580079e+001  1.785436e+001 
3109375000  -2.601587e+001  1.431846e+001 
3112500000  -2.615374e+001  1.325568e+001 
3115625000  -2.596598e+001  9.139130e+000 
3118750000  -2.646080e+001  1.020480e+001 
3121875000  -2.578792e+001  2.238817e+000 
3125000000  -2.702382e+001  -1.227131e+000 
3128125000  -2.814486e+001  6.878270e+000 
3131250000  -2.595968e+001  7.466003e+000 
3134375000  -2.462228e+001  -5.992273e+000 
3137500000  -2.531828e+001  -1.983808e+001 
3140625000  -2.687008e+001  -2.157598e+001 
3143750000  -2.793905e+001  -1.752191e+001 
3146875000  -2.756132e+001  -1.555011e+001 
3150000000  -2.653701e+001  -1.324856e+001 
3153125000  -2.648301e+001  -2.109954e+001 
3156250000  -2.749530e+001  -1.541454e+001 
3159375000  -2.591808e+001  -1.250325e+001 
3162500000  -2.387059e+001  -2.539364e+001 
3165625000  -2.482288e+001  -3.636102e+001 
3168750000  -2.522729e+001  -3.580360e+001 
3171875000  -2.426498e+001  -3.982544e+001 
3175000000  -2.485346e+001  -4.766175e+001 
3178125000  -2.471457e+001  -4.591782e+001 
3181250000  -2.351024e+001  -4.993827e+001 
3184375000  -2.273082e+001  -6.221763e+001 
3187500000  -2.389777e+001  -7.730864e+001 
3190625000  -2.655125e+001  -8.440295e+001 
3193750000  -2.718427e+001  -7.522172e+001 
3196875000  -2.675727e+001  -6.967481e+001 
3200000000  -2.592161e+001  -7.154652e+001 
3203125000  -2.503053e+001  -7.730771e+001 
3206250000  -2.532149e+001  -8.355640e+001 
3209375000  -2.485216e+001  -8.861753e+001 
3212500000  -2.496728e+001  -9.544416e+001 
3215625000  -2.512958e+001  -9.944332e+001 
3218750000  -2.589987e+001  -1.056414e+002 
3221875000  -2.687091e+001  -1.109101e+002 
3225000000  -2.643814e+001  -1.113730e+002 
3228125000  -2.683853e+001  -1.163066e+002 
3231250000  -2.755551e+001  -1.185897e+002 
3234375000  -2.744891e+001  -1.174987e+002 
3237500000  -2.742914e+001  -1.190262e+002 
3240625000  -2.712434e+001  -1.211537e+002 
3243750000  -2.671987e+001  -1.275739e+002 
3246875000  -2.724257e+001  -1.343649e+002 
3250000000  -2.767765e+001  -1.361776e+002 
3253125000  -2.785400e+001  -1.378043e+002 
3256250000  -2.772472e+001  -1.436516e+002 
3259375000  -2.802315e+001  -1.511166e+002 
3262500000  -2.928133e+001  -1.539777e+002 
3265625000  -2.993151e+001  -1.507088e+002 
3268750000  -2.996223e+001  -1.480063e+002 
3271875000  -2.969777e+001  -1.468771e+002 
3275000000  -2.862903e+001  -1.517206e+002 
3278125000  -2.906989e+001  -1.584335e+002 
3281250000  -2.940758e+001  -1.563471e+002 
3284375000  -2.890384e+001  -1.623486e+002 
3287500000  -2.908837e+001  -1.649609e+002 
3290625000  -2.947467e+001  -1.693905e+002 
3293750000  -2.917786e+001  -1.748351e+002 
3296875000  -3.018036e+001  -1.746854e+002 
3300000000  -3.011183e+001  -1.736775e+002 
3303125000  -2.895223e+001  -1.773067e+002 
3306250000  -2.872563e+001  1.758782e+002 
3309375000  -2.849212e+001  1.706557e+002 
3312500000  -2.849869e+001  1.604326e+002 
3315625000  -2.961625e+001  1.525711e+002 
3318750000  -3.083011e+001  1.497921e+002 
3321875000  -3.207532e+001  1.495406e+002 
3325000000  -3.268340e+001  1.551238e+002 
3328125000  -3.255744e+001  1.561136e+002 
3331250000  -3.127069e+001  1.639761e+002 
3334375000  -2.864581e+001  1.545809e+002 
3337500000  -2.872605e+001  1.359835e+002 
3340625000  -3.013877e+001  1.248379e+002 
3343750000  -3.210431e+001  1.239592e+002 
3346875000  -3.269883e+001  1.251658e+002 
3350000000  -3.193051e+001  1.245678e+002 
3353125000  -3.206686e+001  1.195326e+002 
3356250000  -3.183240e+001  1.120467e+002 
3359375000  -3.260872e+001  1.041725e+002 
3362500000  -3.393960e+001  9.835622e+001 
3365625000  -3.454691e+001  9.601794e+001 
3368750000  -3.552338e+001  9.528162e+001 
3371875000  -3.581531e+001  9.150471e+001 
3375000000  -3.750805e+001  8.940044e+001 
3378125000  -3.845552e+001  8.988715e+001 
3381250000  -4.018253e+001  9.764650e+001 
3384375000  -3.944353e+001  1.175625e+002 
3387500000  -3.588514e+001  1.040225e+002 
3390625000  -3.780647e+001  8.575871e+001 
3393750000  -3.982652e+001  8.870721e+001 
3396875000  -3.888453e+001  9.304618e+001 
3400000000  -3.880998e+001  8.705923e+001 
3403125000  -3.990401e+001  8.296143e+001 
3406250000  -4.048060e+001  8.356850e+001 
3409375000  -4.128658e+001  8.111078e+001 
3412500000  -4.212683e+001  8.212110e+001 
3415625000  -4.290321e+001  8.643166e+001 
3418750000  -4.345816e+001  9.056812e+001 
3421875000  -4.354124e+001  9.705353e+001 
3425000000  -4.257076e+001  1.010715e+002 
3428125000  -4.196178e+001  9.956867e+001 
3431250000  -4.178554e+001  9.600938e+001 
3434375000  -4.130732e+001  9.177715e+001 
3437500000  -4.184817e+001  8.978757e+001 
3440625000  -4.206369e+001  9.304881e+001 
3443750000  -4.089178e+001  9.578870e+001 
3446875000  -3.992689e+001  9.204485e+001 
3450000000  -3.979948e+001  8.193914e+001 
3453125000  -4.017781e+001  7.368526e+001 
3456250000  -4.121066e+001  6.893704e+001 
3459375000  -4.221164e+001  7.108553e+001 
3462500000  -4.248686e+001  7.236938e+001 
3465625000  -4.235082e+001  6.640305e+001 
3468750000  -4.270308e+001  6.456320e+001 
3471875000  -4.320118e+001  6.631722e+001 
3475000000  -4.263584e+001  6.098201e+001 
3478125000  -4.366844e+001  5.542002e+001 
3481250000  -4.458559e+001  5.575564e+001 
3484375000  -4.631129e+001  5.997782e+001 
3487500000  -4.576829e+001  6.354252e+001 
3490625000  -4.525214e+001  5.963376e+001 
3493750000  -4.577118e+001  5.626355e+001 
3496875000  -4.699817e+001  5.557461e+001 
3500000000  -4.875905e+001  6.545259e+001 
3503125000  -4.813029e+001  7.063935e+001 
3506250000  -4.683080e+001  7.201581e+001 
3509375000  -4.679095e+001  7.033816e+001 
3512500000  -4.734814e+001  6.893466e+001 
3515625000  -4.774024e+001  7.305582e+001 
3518750000  -4.852472e+001  7.568364e+001 
3521875000  -4.793200e+001  7.974701e+001 
3525000000  -4.823876e+001  8.412422e+001 
3528125000  -4.767260e+001  9.437230e+001 
3531250000  -4.556866e+001  9.502554e+001 
3534375000  -4.483888e+001  8.664558e+001 
3537500000  -4.491681e+001  8.385775e+001 
3540625000  -4.590593e+001  8.182899e+001 
3543750000  -4.571027e+001  8.414092e+001 
3546875000  -4.540322e+001  9.928130e+001 
3550000000  -4.308958e+001  1.004689e+002 
3553125000  -4.135185e+001  8.405292e+001 
3556250000  -4.238181e+001  7.788185e+001 
3559375000  -4.214556e+001  8.055734e+001 
3562500000  -4.104126e+001  7.308633e+001 
3565625000  -4.164435e+001  6.537782e+001 
3568750000  -4.182321e+001  6.920809e+001 
3571875000  -4.152299e+001  6.928935e+001 
3575000000  -4.103140e+001  6.539791e+001 
3578125000  -4.134216e+001  6.028767e+001 
3581250000  -4.136470e+001  6.088645e+001 
3584375000  -4.078609e+001  6.070247e+001 
3587500000  -3.973720e+001  5.446837e+001 
3590625000  -4.023826e+001  4.570239e+001 
3593750000  -4.149005e+001  4.381368e+001 
3596875000  -4.117573e+001  5.245521e+001 
3600000000  -3.974076e+001  4.888890e+001 
3603125000  -3.978803e+001  3.531877e+001 
3606250000  -4.023512e+001  3.487149e+001 
3609375000  -4.070605e+001  3.343840e+001 
3612500000  -4.107048e+001  3.100462e+001 
3615625000  -4.143774e+001  2.940499e+001 
3618750000  -4.201353e+001  3.024701e+001 
3621875000  -4.131149e+001  2.877224e+001 
3625000000  -4.206149e+001  3.040891e+001 
3628125000  -4.168903e+001  2.928810e+001 
3631250000  -4.143787e+001  2.476745e+001 
3634375000  -4.255777e+001  2.703753e+001 
3637500000  -4.193748e+001  3.332296e+001 
3640625000  -4.106601e+001  3.254630e+001 
3643750000  -4.051692e+001  2.620574e+001 
3646875000  -4.097787e+001  2.135496e+001 
3650000000  -4.169331e+001  2.194102e+001 
3653125000  -4.135160e+001  2.047247e+001 
3656250000  -4.155449e+001  1.953769e+001 
3659375000  -4.198649e+001  2.316374e+001 
3662500000  -4.093869e+001  2.209310e+001 
3665625000  -4.114290e+001  2.192981e+001 
3668750000  -4.033783e+001  2.442167e+001 
3671875000  -3.929384e+001  1.982569e+001 
3675000000  -3.966107e+001  1.277860e+001 
3678125000  -4.048380e+001  1.509859e+001 
3681250000  -3.989820e+001  1.591236e+001 
3684375000  -3.939963e+001  1.347904e+001 
3687500000  -3.964192e+001  1.189166e+001 
3690625000  -3.963811e+001  1.041303e+001 
3693750000  -4.054518e+001  1.263699e+001 
3696875000  -4.001844e+001  1.595305e+001 
3700000000  -3.901577e+001  1.364392e+001 
3703125000  -3.867932e+001  1.063102e+001 
3706250000  -3.919196e+001  1.352118e+001 
3709375000  -3.862849e+001  1.558290e+001 
3712500000  -3.741455e+001  1.551936e+001 
3715625000  -3.637518e+001  9.233838e+000 
3718750000  -3.561735e+001  6.043596e+000 
3721875000  -3.517138e+001  4.272760e-001 
3725000000  -3.517768e+001  -3.248927e+000 
3728125000  -3.523318e+001  -4.887865e+000 
3731250000  -3.462450e+001  -6.071695e+000 
3734375000  -3.359961e+001  -1.132779e+001 
3737500000  -3.424260e+001  -1.926826e+001 
3740625000  -3.484198e+001  -2.232804e+001 
3743750000  -3.454128e+001  -2.337872e+001 
3746875000  -3.459855e+001  -2.670481e+001 
3750000000  -3.493315e+001  -2.810283e+001 
3753125000  -3.456257e+001  -2.858873e+001 
3756250000  -3.455128e+001  -2.955063e+001 
3759375000  -3.432243e+001  -2.964982e+001 
3762500000  -3.374671e+001  -3.357487e+001 
3765625000  -3.417414e+001  -3.640549e+001 
3768750000  -3.427317e+001  -3.371215e+001 
3771875000  -3.255380e+001  -3.620860e+001 
3775000000  -3.222346e+001  -4.459219e+001 
3778125000  -3.255434e+001  -4.630741e+001 
3781250000  -3.244128e+001  -4.902725e+001 
3784375000  -3.234081e+001  -5.080965e+001 
3787500000  -3.156109e+001  -5.490656e+001 
3790625000  -3.220366e+001  -6.047282e+001 
3793750000  -3.240221e+001  -6.048517e+001 
3796875000  -3.139858e+001  -6.218834e+001 
3800000000  -2.995847e+001  -6.584879e+001 
3803125000  -3.063609e+001  -7.310677e+001 
3806250000  -3.137815e+001  -7.505094e+001 
3809375000  -3.113551e+001  -7.663253e+001 
3812500000  -3.040023e+001  -8.115531e+001 
3815625000  -3.100214e+001  -8.831729e+001 
3818750000  -3.195651e+001  -8.949781e+001 
3821875000  -3.192419e+001  -8.142065e+001 
3825000000  -3.017423e+001  -7.736465e+001 
3828125000  -2.881756e+001  -9.098237e+001 
3831250000  -2.926957e+001  -1.051040e+002 
3834375000  -3.067341e+001  -1.066255e+002 
3837500000  -3.154091e+001  -1.011220e+002 
3840625000  -3.043381e+001  -1.015785e+002 
3843750000  -2.931118e+001  -1.118908e+002 
3846875000  -2.991245e+001  -1.189130e+002 
3850000000  -3.130629e+001  -1.136670e+002 
3853125000  -3.041792e+001  -1.111003e+002 
3856250000  -3.044782e+001  -1.161632e+002 
3859375000  -2.973595e+001  -1.197961e+002 
3862500000  -2.926790e+001  -1.274985e+002 
3865625000  -2.953353e+001  -1.320995e+002 
3868750000  -2.953674e+001  -1.325049e+002 
3871875000  -2.888153e+001  -1.352074e+002 
3875000000  -2.903139e+001  -1.439458e+002 
3878125000  -2.990182e+001  -1.465734e+002 
3881250000  -3.011722e+001  -1.436287e+002 
3884375000  -2.955639e+001  -1.481107e+002 
3887500000  -2.965215e+001  -1.519671e+002 
3890625000  -3.032610e+001  -1.547402e+002 
3893750000  -3.062963e+001  -1.559719e+002 
3896875000  -3.075566e+001  -1.558477e+002 
3900000000  -3.102639e+001  -1.562435e+002 
3903125000  -3.066162e+001  -1.585853e+002 
3906250000  -3.039791e+001  -1.592120e+002 
3909375000  -2.964328e+001  -1.619028e+002 
3912500000  -2.969995e+001  -1.695264e+002 
3915625000  -3.090041e+001  -1.685179e+002 
3918750000  -3.096701e+001  -1.663199e+002 
3921875000  -3.050599e+001  -1.683268e+002 
3925000000  -2.978315e+001  -1.694196e+002 
3928125000  -2.908340e+001  -1.744836e+002 
3931250000  -2.946461e+001  -1.782593e+002 
3934375000  -2.976130e+001  -1.783270e+002 
3937500000  -2.990246e+001  -1.791820e+002 
3940625000  -3.037828e+001  -1.790973e+002 
3943750000  -2.944626e+001  -1.774248e+002 
3946875000  -2.819478e+001  1.771062e+002 
3950000000  -2.859470e+001  1.695726e+002 
3953125000  -2.962031e+001  1.694816e+002 
3956250000  -2.873397e+001  1.726309e+002 
3959375000  -2.743321e+001  1.695435e+002 
3962500000  -2.690261e+001  1.660022e+002 
3965625000  -2.653392e+001  1.569236e+002 
3968750000  -2.747803e+001  1.503214e+002 
3971875000  -2.781939e+001  1.490626e+002 
3975000000  -2.713450e+001  1.467938e+002 
3978125000  -2.698518e+001  1.454573e+002 
3981250000  -2.678950e+001  1.412096e+002 
3984375000  -2.695726e+001  1.346800e+002 
3987500000  -2.752372e+001  1.326208e+002 
3990625000  -2.747095e+001  1.318474e+002 
3993750000  -2.774698e+001  1.282884e+002 
3996875000  -2.767939e+001  1.261118e+002 
4000000000  -2.779678e+001  1.240389e+002 
4003125000  -2.831439e+001  1.265173e+002 
4006250000  -2.693972e+001  1.263583e+002 
4009375000  -2.579377e+001  1.142058e+002 
4012500000  -2.678996e+001  1.068681e+002 
4015625000  -2.809523e+001  1.074269e+002 
4018750000  -2.830502e+001  1.097789e+002 
4021875000  -2.759634e+001  1.083653e+002 
4025000000  -2.724998e+001  1.038431e+002 
4028125000  -2.716022e+001  9.969518e+001 
4031250000  -2.766342e+001  9.644075e+001 
4034375000  -2.802726e+001  9.629389e+001 
4037500000  -2.746371e+001  9.834090e+001 
4040625000  -2.737135e+001  9.484134e+001 
4043750000  -2.762800e+001  9.421107e+001 
4046875000  -2.722607e+001  9.416550e+001 
4050000000  -2.676731e+001  8.860795e+001 
4053125000  -2.717733e+001  8.596112e+001 
4056250000  -2.780041e+001  9.069382e+001 
4059375000  -2.657970e+001  9.250822e+001 
4062500000  -2.525036e+001  8.775674e+001 
4065625000  -2.505983e+001  8.347354e+001 
4068750000  -2.476121e+001  7.868038e+001 
4071875000  -2.412837e+001  7.082127e+001 
4075000000  -2.454116e+001  6.432649e+001 
4078125000  -2.508694e+001  6.337392e+001 
4081250000  -2.453532e+001  6.077528e+001 
4084375000  -2.412372e+001  5.462158e+001 
4087500000  -2.446439e+001  4.819446e+001 
4090625000  -2.507773e+001  4.675103e+001 
4093750000  -2.490562e+001  4.809979e+001 
4096875000  -2.451253e+001  4.156962e+001 
4100000000  -2.517893e+001  3.486665e+001 
4103125000  -2.604642e+001  3.518952e+001 
4106250000  -2.595280e+001  4.017544e+001 
4109375000  -2.507616e+001  3.959779e+001 
4112500000  -2.449471e+001  3.290813e+001 
4115625000  -2.484477e+001  2.882697e+001 
4118750000  -2.495220e+001  2.576678e+001 
4121875000  -2.452537e+001  2.118488e+001 
4125000000  -2.485905e+001  1.628116e+001 
4128125000  -2.588476e+001  1.614908e+001 
4131250000  -2.558321e+001  2.424453e+001 
4134375000  -2.327703e+001  1.966891e+001 
4137500000  -2.307631e+001  1.261018e+000 
4140625000  -2.527916e+001  -6.082852e+000 
4143750000  -2.657318e+001  -1.205330e+000 
4146875000  -2.621876e+001  6.406046e+000 
4150000000  -2.518128e+001  3.336004e+000 
4153125000  -2.506137e+001  -3.078455e+000 
4156250000  -2.599097e+001  -5.973287e+000 
4159375000  -2.628114e+001  -1.244872e+000 
4162500000  -2.509850e+001  2.769136e+000 
4165625000  -2.395587e+001  -1.379899e+000 
4168750000  -2.338413e+001  -8.548669e+000 
4171875000  -2.339866e+001  -1.749741e+001 
4175000000  -2.396696e+001  -2.321549e+001 
4178125000  -2.452287e+001  -2.317860e+001 
4181250000  -2.442667e+001  -2.371767e+001 
4184375000  -2.428597e+001  -2.701026e+001 
4187500000  -2.428339e+001  -2.965053e+001 
4190625000  -2.411875e+001  -3.502540e+001 
4193750000  -2.490954e+001  -3.881600e+001 
4196875000  -2.563224e+001  -3.939255e+001 
4200000000  -2.648313e+001  -3.731197e+001 
4203125000  -2.656186e+001  -2.351571e+001 
4206250000  -2.314428e+001  -2.217916e+001 
4209375000  -2.194158e+001  -4.245010e+001 
4212500000  -2.383245e+001  -5.157273e+001 
4215625000  -2.487200e+001  -4.550184e+001 
4218750000  -2.354114e+001  -3.863443e+001 
4221875000  -2.125579e+001  -4.776984e+001 
4225000000  -2.249411e+001  -6.033786e+001 
4228125000  -2.316694e+001  -5.499627e+001 
4231250000  -2.165462e+001  -5.895154e+001 
4234375000  -2.158993e+001  -6.721362e+001 
4237500000  -2.113056e+001  -7.053130e+001 
4240625000  -2.117060e+001  -7.912511e+001 
4243750000  -2.208659e+001  -8.579863e+001 
4246875000  -2.302866e+001  -8.608413e+001 
4250000000  -2.307622e+001  -8.326759e+001 
4253125000  -2.252386e+001  -8.487440e+001 
4256250000  -2.275384e+001  -8.901038e+001 
4259375000  -2.250573e+001  -9.108965e+001 
4262500000  -2.252352e+001  -9.478487e+001 
4265625000  -2.269842e+001  -9.435018e+001 
4268750000  -2.181478e+001  -9.869911e+001 
4271875000  -2.157396e+001  -1.043472e+002 
4275000000  -2.097327e+001  -1.107249e+002 
4278125000  -2.159700e+001  -1.219145e+002 
4281250000  -2.341281e+001  -1.235692e+002 
4284375000  -2.311029e+001  -1.229035e+002 
4287500000  -2.390256e+001  -1.267563e+002 
4290625000  -2.515213e+001  -1.166890e+002 
4293750000  -2.311193e+001  -1.113919e+002 
4296875000  -2.179188e+001  -1.227295e+002 
4300000000  -2.258017e+001  -1.321588e+002 
4303125000  -2.377893e+001  -1.308883e+002 
4306250000  -2.317581e+001  -1.247966e+002 
4309375000  -2.176488e+001  -1.266148e+002 
4312500000  -2.164084e+001  -1.351284e+002 
4315625000  -2.186672e+001  -1.411565e+002 
4318750000  -2.218336e+001  -1.445228e+002 
4321875000  -2.235502e+001  -1.439756e+002 
4325000000  -2.176123e+001  -1.435302e+002 
4328125000  -2.127614e+001  -1.496341e+002 
4331250000  -2.118324e+001  -1.578403e+002 
4334375000  -2.164844e+001  -1.628300e+002 
4337500000  -2.247936e+001  -1.650327e+002 
4340625000  -2.303616e+001  -1.620905e+002 
4343750000  -2.241386e+001  -1.614700e+002 
4346875000  -2.205396e+001  -1.669929e+002 
4350000000  -2.205571e+001  -1.716962e+002 
4353125000  -2.214531e+001  -1.792805e+002 
4356250000  -2.388797e+001  1.797392e+002 
4359375000  -2.447791e+001  -1.670803e+002 
4362500000  -2.178064e+001  -1.646273e+002 
4365625000  -2.013616e+001  -1.769125e+002 
4368750000  -2.085227e+001  1.714404e+002 
4371875000  -2.211143e+001  1.719439e+002 
4375000000  -2.173583e+001  1.728668e+002 
4378125000  -2.110815e+001  1.670701e+002 
4381250000  -2.127890e+001  1.616803e+002 
4384375000  -2.113890e+001  1.573274e+002 
4387500000  -2.185779e+001  1.513942e+002 
4390625000  -2.288410e+001  1.521566e+002 
4393750000  -2.218176e+001  1.544887e+002 
4396875000  -2.154518e+001  1.525935e+002 
4400000000  -2.101465e+001  1.455055e+002 
4403125000  -2.162722e+001  1.379870e+002 
4406250000  -2.246033e+001  1.364401e+002 
4409375000  -2.248650e+001  1.342677e+002 
4412500000  -2.351208e+001  1.314787e+002 
4415625000  -2.379403e+001  1.367293e+002 
4418750000  -2.266780e+001  1.416428e+002 
