!Agilent Technologies,E8363B,MY43030201,A.06.04.32
!Agilent E8363B: A.06.04.32
!Date: Tuesday, November 11, 2014 20:56:30
!Correction: S21(Response(S21)) 
!S1P File: Measurement: S21:
# Hz S  dB   R 50
3000000000  -2.650046e+001  1.477876e+002 
3003125000  -2.790647e+001  1.431328e+002 
3006250000  -2.793199e+001  1.406262e+002 
3009375000  -2.831808e+001  1.456852e+002 
3012500000  -2.773103e+001  1.448124e+002 
3015625000  -2.685626e+001  1.378831e+002 
3018750000  -2.768407e+001  1.372533e+002 
3021875000  -2.638146e+001  1.385645e+002 
3025000000  -2.508185e+001  1.355928e+002 
3028125000  -2.407591e+001  1.302514e+002 
3031250000  -2.307330e+001  1.189021e+002 
3034375000  -2.272451e+001  1.060527e+002 
3037500000  -2.311097e+001  9.417015e+001 
3040625000  -2.446905e+001  8.927058e+001 
3043750000  -2.515019e+001  8.474059e+001 
3046875000  -2.527848e+001  7.858032e+001 
3050000000  -2.701725e+001  7.195899e+001 
3053125000  -2.710801e+001  7.825877e+001 
3056250000  -2.648501e+001  8.146021e+001 
3059375000  -2.665619e+001  8.071713e+001 
3062500000  -2.517851e+001  7.724574e+001 
3065625000  -2.495683e+001  7.116250e+001 
3068750000  -2.465689e+001  6.417149e+001 
3071875000  -2.461052e+001  6.123550e+001 
3075000000  -2.458698e+001  5.748494e+001 
3078125000  -2.432478e+001  5.283336e+001 
3081250000  -2.496990e+001  4.859716e+001 
3084375000  -2.420344e+001  4.490948e+001 
3087500000  -2.411307e+001  4.152315e+001 
3090625000  -2.381761e+001  3.151178e+001 
3093750000  -2.428568e+001  2.372737e+001 
3096875000  -2.553830e+001  1.765749e+001 
3100000000  -2.568730e+001  1.631633e+001 
3103125000  -2.604555e+001  1.772707e+001 
3106250000  -2.578359e+001  1.421700e+001 
3109375000  -2.604236e+001  1.069139e+001 
3112500000  -2.617758e+001  9.517306e+000 
3115625000  -2.595650e+001  5.233284e+000 
3118750000  -2.645237e+001  6.681284e+000 
3121875000  -2.575447e+001  -1.539733e+000 
3125000000  -2.700677e+001  -4.689745e+000 
3128125000  -2.819713e+001  3.344712e+000 
3131250000  -2.592807e+001  3.705868e+000 
3134375000  -2.463630e+001  -1.007976e+001 
3137500000  -2.530391e+001  -2.351224e+001 
3140625000  -2.687772e+001  -2.495685e+001 
3143750000  -2.795748e+001  -2.117795e+001 
3146875000  -2.748921e+001  -1.900040e+001 
3150000000  -2.653714e+001  -1.697619e+001 
3153125000  -2.644796e+001  -2.461432e+001 
3156250000  -2.744556e+001  -1.903344e+001 
3159375000  -2.586120e+001  -1.616860e+001 
3162500000  -2.387094e+001  -2.927685e+001 
3165625000  -2.482247e+001  -4.007373e+001 
3168750000  -2.518386e+001  -3.900994e+001 
3171875000  -2.422805e+001  -4.356902e+001 
3175000000  -2.486360e+001  -5.145825e+001 
3178125000  -2.466537e+001  -4.964441e+001 
3181250000  -2.350934e+001  -5.360503e+001 
3184375000  -2.273676e+001  -6.597498e+001 
3187500000  -2.386462e+001  -8.072038e+001 
3190625000  -2.662111e+001  -8.821375e+001 
3193750000  -2.716614e+001  -7.860012e+001 
3196875000  -2.678549e+001  -7.362782e+001 
3200000000  -2.584991e+001  -7.544132e+001 
3203125000  -2.502497e+001  -8.113793e+001 
3206250000  -2.531337e+001  -8.742699e+001 
3209375000  -2.485100e+001  -9.242024e+001 
3212500000  -2.501149e+001  -9.898965e+001 
3215625000  -2.514496e+001  -1.029997e+002 
3218750000  -2.588266e+001  -1.095570e+002 
3221875000  -2.682770e+001  -1.143949e+002 
3225000000  -2.643702e+001  -1.149417e+002 
3228125000  -2.679587e+001  -1.196697e+002 
3231250000  -2.757906e+001  -1.221151e+002 
3234375000  -2.738089e+001  -1.211176e+002 
3237500000  -2.742210e+001  -1.227203e+002 
3240625000  -2.708713e+001  -1.245671e+002 
3243750000  -2.673287e+001  -1.311277e+002 
3246875000  -2.724536e+001  -1.375655e+002 
3250000000  -2.764548e+001  -1.399402e+002 
3253125000  -2.787720e+001  -1.415469e+002 
3256250000  -2.774099e+001  -1.473035e+002 
3259375000  -2.804395e+001  -1.550383e+002 
3262500000  -2.928839e+001  -1.576812e+002 
3265625000  -3.001841e+001  -1.541808e+002 
3268750000  -2.994240e+001  -1.512321e+002 
3271875000  -2.967299e+001  -1.505327e+002 
3275000000  -2.859022e+001  -1.555987e+002 
3278125000  -2.906158e+001  -1.618706e+002 
3281250000  -2.927867e+001  -1.602590e+002 
3284375000  -2.889254e+001  -1.655486e+002 
3287500000  -2.907846e+001  -1.686522e+002 
3290625000  -2.951296e+001  -1.730159e+002 
3293750000  -2.915693e+001  -1.784066e+002 
3296875000  -3.021708e+001  -1.785207e+002 
3300000000  -3.002996e+001  -1.773919e+002 
3303125000  -2.893133e+001  1.784203e+002 
3306250000  -2.864182e+001  1.719484e+002 
3309375000  -2.845598e+001  1.670424e+002 
3312500000  -2.854899e+001  1.566769e+002 
3315625000  -2.956038e+001  1.488648e+002 
3318750000  -3.092512e+001  1.466936e+002 
3321875000  -3.203889e+001  1.464665e+002 
3325000000  -3.262629e+001  1.511733e+002 
3328125000  -3.241611e+001  1.533333e+002 
3331250000  -3.123305e+001  1.606749e+002 
3334375000  -2.854631e+001  1.505975e+002 
3337500000  -2.867676e+001  1.319996e+002 
3340625000  -3.012588e+001  1.214684e+002 
3343750000  -3.216267e+001  1.203052e+002 
3346875000  -3.246994e+001  1.215929e+002 
3350000000  -3.182801e+001  1.206527e+002 
3353125000  -3.197934e+001  1.158778e+002 
3356250000  -3.168631e+001  1.081833e+002 
3359375000  -3.261783e+001  9.933360e+001 
3362500000  -3.390010e+001  9.451273e+001 
3365625000  -3.444956e+001  9.258575e+001 
3368750000  -3.549673e+001  9.164460e+001 
3371875000  -3.589900e+001  8.807133e+001 
3375000000  -3.753282e+001  8.647340e+001 
3378125000  -3.863816e+001  8.599820e+001 
3381250000  -4.005480e+001  9.379781e+001 
3384375000  -3.916072e+001  1.144538e+002 
3387500000  -3.614981e+001  1.007814e+002 
3390625000  -3.799385e+001  8.202319e+001 
3393750000  -3.985166e+001  8.580367e+001 
3396875000  -3.887466e+001  8.992702e+001 
3400000000  -3.879121e+001  8.148369e+001 
3403125000  -3.968950e+001  7.761796e+001 
3406250000  -4.059335e+001  8.064245e+001 
3409375000  -4.132143e+001  7.671371e+001 
3412500000  -4.210297e+001  7.777335e+001 
3415625000  -4.280972e+001  8.357072e+001 
3418750000  -4.302834e+001  8.616811e+001 
3421875000  -4.334806e+001  9.380923e+001 
3425000000  -4.242373e+001  9.669510e+001 
3428125000  -4.150247e+001  9.614268e+001 
3431250000  -4.152410e+001  9.218989e+001 
3434375000  -4.121108e+001  8.954104e+001 
3437500000  -4.175032e+001  8.838831e+001 
3440625000  -4.223150e+001  9.026394e+001 
3443750000  -4.080029e+001  9.232446e+001 
3446875000  -3.997651e+001  8.799180e+001 
3450000000  -3.965516e+001  7.833102e+001 
3453125000  -4.011118e+001  7.067072e+001 
3456250000  -4.123754e+001  6.519508e+001 
3459375000  -4.193508e+001  6.580102e+001 
3462500000  -4.230864e+001  6.667567e+001 
3465625000  -4.218111e+001  6.455544e+001 
3468750000  -4.255362e+001  5.944984e+001 
3471875000  -4.278145e+001  6.152777e+001 
3475000000  -4.256569e+001  5.591612e+001 
3478125000  -4.349471e+001  5.197104e+001 
3481250000  -4.452008e+001  4.997154e+001 
3484375000  -4.589466e+001  5.861966e+001 
3487500000  -4.558896e+001  5.858867e+001 
3490625000  -4.497819e+001  5.525298e+001 
3493750000  -4.567640e+001  5.136194e+001 
3496875000  -4.693359e+001  5.354245e+001 
3500000000  -4.816780e+001  6.364077e+001 
3503125000  -4.805247e+001  6.238557e+001 
3506250000  -4.644666e+001  6.999747e+001 
3509375000  -4.701171e+001  6.480345e+001 
3512500000  -4.722761e+001  6.244761e+001 
3515625000  -4.763712e+001  6.575826e+001 
3518750000  -4.824892e+001  7.039349e+001 
3521875000  -4.826334e+001  7.371932e+001 
3525000000  -4.821919e+001  7.577491e+001 
3528125000  -4.767230e+001  8.656207e+001 
3531250000  -4.495336e+001  8.497485e+001 
3534375000  -4.464522e+001  8.010160e+001 
3537500000  -4.492261e+001  7.871275e+001 
3540625000  -4.603019e+001  7.560808e+001 
3543750000  -4.596757e+001  8.125095e+001 
3546875000  -4.534864e+001  9.350391e+001 
3550000000  -4.273531e+001  9.500497e+001 
3553125000  -4.147351e+001  7.995123e+001 
3556250000  -4.231329e+001  7.351181e+001 
3559375000  -4.205295e+001  7.576459e+001 
3562500000  -4.105093e+001  6.738607e+001 
3565625000  -4.184996e+001  6.186878e+001 
3568750000  -4.180866e+001  6.469434e+001 
3571875000  -4.151226e+001  6.552356e+001 
3575000000  -4.134763e+001  6.098630e+001 
3578125000  -4.125367e+001  5.547136e+001 
3581250000  -4.138826e+001  5.818060e+001 
3584375000  -4.093587e+001  5.587073e+001 
3587500000  -3.985129e+001  4.893803e+001 
3590625000  -4.024554e+001  4.003809e+001 
3593750000  -4.139335e+001  4.056868e+001 
3596875000  -4.132415e+001  4.696753e+001 
3600000000  -3.966604e+001  4.342577e+001 
3603125000  -4.009807e+001  3.092674e+001 
3606250000  -4.055252e+001  2.911922e+001 
3609375000  -4.091027e+001  2.628642e+001 
3612500000  -4.099662e+001  2.664735e+001 
3615625000  -4.134995e+001  2.345370e+001 
3618750000  -4.218364e+001  2.702670e+001 
3621875000  -4.158850e+001  2.366136e+001 
3625000000  -4.188872e+001  2.509398e+001 
3628125000  -4.188859e+001  2.533283e+001 
3631250000  -4.128741e+001  2.151766e+001 
3634375000  -4.261272e+001  2.212197e+001 
3637500000  -4.204759e+001  2.775140e+001 
3640625000  -4.081470e+001  2.686378e+001 
3643750000  -4.063857e+001  2.274887e+001 
3646875000  -4.098573e+001  1.734218e+001 
3650000000  -4.184285e+001  1.536346e+001 
3653125000  -4.128958e+001  1.646046e+001 
3656250000  -4.139624e+001  1.685116e+001 
3659375000  -4.201699e+001  1.759997e+001 
3662500000  -4.129427e+001  1.771278e+001 
3665625000  -4.123274e+001  1.789771e+001 
3668750000  -4.006620e+001  1.921198e+001 
3671875000  -3.908968e+001  1.473997e+001 
3675000000  -3.961217e+001  7.555583e+000 
3678125000  -4.036377e+001  1.049577e+001 
3681250000  -3.977283e+001  1.003498e+001 
3684375000  -3.978273e+001  8.666684e+000 
3687500000  -3.968686e+001  7.900111e+000 
3690625000  -3.975756e+001  4.741599e+000 
3693750000  -4.018063e+001  8.130976e+000 
3696875000  -4.002877e+001  1.009550e+001 
3700000000  -3.892413e+001  7.261796e+000 
3703125000  -3.881377e+001  4.859604e+000 
3706250000  -3.949558e+001  7.046722e+000 
3709375000  -3.863010e+001  1.011244e+001 
3712500000  -3.732398e+001  1.051587e+001 
3715625000  -3.651718e+001  4.890943e+000 
3718750000  -3.579201e+001  2.425606e+000 
3721875000  -3.528800e+001  -3.821736e+000 
3725000000  -3.534107e+001  -7.626803e+000 
3728125000  -3.538089e+001  -9.184152e+000 
3731250000  -3.478730e+001  -1.061627e+001 
3734375000  -3.368721e+001  -1.520936e+001 
3737500000  -3.431446e+001  -2.274306e+001 
3740625000  -3.491608e+001  -2.630761e+001 
3743750000  -3.467348e+001  -2.812343e+001 
3746875000  -3.459909e+001  -3.147874e+001 
3750000000  -3.500905e+001  -3.182674e+001 
3753125000  -3.467732e+001  -3.311364e+001 
3756250000  -3.445016e+001  -3.365466e+001 
3759375000  -3.431863e+001  -3.377727e+001 
3762500000  -3.383284e+001  -3.815224e+001 
3765625000  -3.419288e+001  -4.064810e+001 
3768750000  -3.423236e+001  -3.822950e+001 
3771875000  -3.247109e+001  -4.093532e+001 
3775000000  -3.222131e+001  -4.848498e+001 
3778125000  -3.255073e+001  -4.994516e+001 
3781250000  -3.235765e+001  -5.331370e+001 
3784375000  -3.234630e+001  -5.549646e+001 
3787500000  -3.165181e+001  -5.868233e+001 
3790625000  -3.220807e+001  -6.429374e+001 
3793750000  -3.241745e+001  -6.518066e+001 
3796875000  -3.148662e+001  -6.606928e+001 
3800000000  -2.992277e+001  -7.005722e+001 
3803125000  -3.067224e+001  -7.759985e+001 
3806250000  -3.135123e+001  -7.971621e+001 
3809375000  -3.109519e+001  -8.079851e+001 
3812500000  -3.041059e+001  -8.551630e+001 
3815625000  -3.104740e+001  -9.260654e+001 
3818750000  -3.207202e+001  -9.389242e+001 
3821875000  -3.204683e+001  -8.587098e+001 
3825000000  -3.001395e+001  -8.185981e+001 
3828125000  -2.880052e+001  -9.574983e+001 
3831250000  -2.936435e+001  -1.096471e+002 
3834375000  -3.065165e+001  -1.103613e+002 
3837500000  -3.155809e+001  -1.051849e+002 
3840625000  -3.042188e+001  -1.059584e+002 
3843750000  -2.932555e+001  -1.165014e+002 
3846875000  -2.994916e+001  -1.233913e+002 
3850000000  -3.130966e+001  -1.179515e+002 
3853125000  -3.043943e+001  -1.152954e+002 
3856250000  -3.035315e+001  -1.202492e+002 
3859375000  -2.979927e+001  -1.245044e+002 
3862500000  -2.931073e+001  -1.318531e+002 
3865625000  -2.957060e+001  -1.366837e+002 
3868750000  -2.959871e+001  -1.368771e+002 
3871875000  -2.883544e+001  -1.393325e+002 
3875000000  -2.896886e+001  -1.481418e+002 
3878125000  -2.999291e+001  -1.509780e+002 
3881250000  -3.012369e+001  -1.477781e+002 
3884375000  -2.960263e+001  -1.520601e+002 
3887500000  -2.972235e+001  -1.569287e+002 
3890625000  -3.024757e+001  -1.593268e+002 
3893750000  -3.065385e+001  -1.603605e+002 
3896875000  -3.084316e+001  -1.592120e+002 
3900000000  -3.098334e+001  -1.609209e+002 
3903125000  -3.065310e+001  -1.625155e+002 
3906250000  -3.037036e+001  -1.631875e+002 
3909375000  -2.973892e+001  -1.657967e+002 
3912500000  -2.972671e+001  -1.734088e+002 
3915625000  -3.096562e+001  -1.725432e+002 
3918750000  -3.091771e+001  -1.707602e+002 
3921875000  -3.059151e+001  -1.724877e+002 
3925000000  -2.976252e+001  -1.735353e+002 
3928125000  -2.902160e+001  -1.787106e+002 
3931250000  -2.951892e+001  1.763870e+002 
3934375000  -2.980263e+001  1.772759e+002 
3937500000  -2.992261e+001  1.765760e+002 
3940625000  -3.038257e+001  1.769195e+002 
3943750000  -2.940311e+001  1.776813e+002 
3946875000  -2.826650e+001  1.725724e+002 
3950000000  -2.871953e+001  1.654771e+002 
3953125000  -2.967664e+001  1.664736e+002 
3956250000  -2.883926e+001  1.688815e+002 
3959375000  -2.745101e+001  1.656565e+002 
3962500000  -2.703697e+001  1.615197e+002 
3965625000  -2.667680e+001  1.525687e+002 
3968750000  -2.758155e+001  1.458252e+002 
3971875000  -2.788851e+001  1.444605e+002 
3975000000  -2.727168e+001  1.427165e+002 
3978125000  -2.706818e+001  1.415713e+002 
3981250000  -2.685502e+001  1.368476e+002 
3984375000  -2.702977e+001  1.308636e+002 
3987500000  -2.757525e+001  1.284619e+002 
3990625000  -2.757793e+001  1.278035e+002 
3993750000  -2.774663e+001  1.245392e+002 
3996875000  -2.773074e+001  1.218147e+002 
4000000000  -2.785099e+001  1.201027e+002 
4003125000  -2.843727e+001  1.221628e+002 
4006250000  -2.703413e+001  1.225845e+002 
4009375000  -2.584694e+001  1.104868e+002 
4012500000  -2.686506e+001  1.033799e+002 
4015625000  -2.813203e+001  1.039040e+002 
4018750000  -2.828075e+001  1.061765e+002 
4021875000  -2.766580e+001  1.047683e+002 
4025000000  -2.724514e+001  9.973820e+001 
4028125000  -2.719869e+001  9.592554e+001 
4031250000  -2.772220e+001  9.238094e+001 
4034375000  -2.787651e+001  9.249825e+001 
4037500000  -2.746397e+001  9.456155e+001 
4040625000  -2.741590e+001  9.115060e+001 
4043750000  -2.771316e+001  9.065229e+001 
4046875000  -2.724076e+001  8.982460e+001 
4050000000  -2.676909e+001  8.488559e+001 
4053125000  -2.725463e+001  8.294833e+001 
4056250000  -2.779283e+001  8.662264e+001 
4059375000  -2.657115e+001  8.883732e+001 
4062500000  -2.522287e+001  8.380920e+001 
4065625000  -2.511516e+001  7.956971e+001 
4068750000  -2.483466e+001  7.484859e+001 
4071875000  -2.413628e+001  6.684359e+001 
4075000000  -2.454802e+001  6.071772e+001 
4078125000  -2.509113e+001  5.958385e+001 
4081250000  -2.456622e+001  5.745848e+001 
4084375000  -2.417435e+001  5.066748e+001 
4087500000  -2.450087e+001  4.442067e+001 
4090625000  -2.509040e+001  4.322835e+001 
4093750000  -2.490602e+001  4.412136e+001 
4096875000  -2.448903e+001  3.782559e+001 
4100000000  -2.521413e+001  3.107569e+001 
4103125000  -2.599855e+001  3.184721e+001 
4106250000  -2.592621e+001  3.708552e+001 
4109375000  -2.503415e+001  3.623277e+001 
4112500000  -2.449127e+001  2.979357e+001 
4115625000  -2.481465e+001  2.555834e+001 
4118750000  -2.487712e+001  2.239486e+001 
4121875000  -2.450320e+001  1.771744e+001 
4125000000  -2.484215e+001  1.274653e+001 
4128125000  -2.593837e+001  1.266137e+001 
4131250000  -2.563626e+001  2.097705e+001 
4134375000  -2.321652e+001  1.643814e+001 
4137500000  -2.302735e+001  -2.165177e+000 
4140625000  -2.523331e+001  -9.503016e+000 
4143750000  -2.655893e+001  -4.037792e+000 
4146875000  -2.605155e+001  3.269391e+000 
4150000000  -2.513290e+001  -3.322838e-001 
4153125000  -2.497233e+001  -6.972357e+000 
4156250000  -2.586776e+001  -9.397543e+000 
4159375000  -2.612846e+001  -4.902637e+000 
4162500000  -2.497386e+001  -9.193375e-001 
4165625000  -2.386405e+001  -4.706161e+000 
4168750000  -2.324154e+001  -1.210524e+001 
4171875000  -2.322227e+001  -2.095513e+001 
4175000000  -2.382015e+001  -2.676633e+001 
4178125000  -2.444588e+001  -2.670932e+001 
4181250000  -2.426631e+001  -2.782262e+001 
4184375000  -2.416013e+001  -3.083864e+001 
4187500000  -2.416605e+001  -3.346998e+001 
4190625000  -2.403002e+001  -3.884718e+001 
4193750000  -2.481362e+001  -4.263501e+001 
4196875000  -2.556025e+001  -4.320544e+001 
4200000000  -2.645834e+001  -4.069191e+001 
4203125000  -2.640383e+001  -2.713550e+001 
4206250000  -2.301475e+001  -2.588695e+001 
4209375000  -2.184538e+001  -4.644359e+001 
4212500000  -2.373871e+001  -5.520449e+001 
4215625000  -2.475516e+001  -4.875974e+001 
4218750000  -2.342585e+001  -4.217562e+001 
4221875000  -2.112779e+001  -5.118410e+001 
4225000000  -2.239898e+001  -6.387773e+001 
4228125000  -2.302484e+001  -5.862384e+001 
4231250000  -2.148303e+001  -6.265588e+001 
4234375000  -2.139824e+001  -7.094563e+001 
4237500000  -2.097696e+001  -7.426134e+001 
4240625000  -2.096935e+001  -8.282649e+001 
4243750000  -2.197505e+001  -8.954781e+001 
4246875000  -2.288431e+001  -8.955174e+001 
4250000000  -2.288229e+001  -8.670045e+001 
4253125000  -2.230902e+001  -8.847225e+001 
4256250000  -2.259294e+001  -9.246818e+001 
4259375000  -2.234568e+001  -9.476950e+001 
4262500000  -2.232902e+001  -9.828535e+001 
4265625000  -2.250746e+001  -9.834123e+001 
4268750000  -2.162772e+001  -1.022830e+002 
4271875000  -2.136720e+001  -1.079981e+002 
4275000000  -2.074115e+001  -1.142475e+002 
4278125000  -2.140847e+001  -1.254598e+002 
4281250000  -2.313900e+001  -1.269541e+002 
4284375000  -2.282617e+001  -1.266730e+002 
4287500000  -2.368066e+001  -1.303652e+002 
4290625000  -2.487768e+001  -1.207539e+002 
4293750000  -2.291972e+001  -1.155590e+002 
4296875000  -2.155923e+001  -1.268591e+002 
4300000000  -2.241189e+001  -1.360551e+002 
4303125000  -2.351608e+001  -1.346399e+002 
4306250000  -2.285050e+001  -1.289340e+002 
4309375000  -2.151390e+001  -1.309592e+002 
4312500000  -2.138655e+001  -1.394639e+002 
4315625000  -2.161528e+001  -1.458947e+002 
4318750000  -2.193557e+001  -1.490753e+002 
4321875000  -2.207475e+001  -1.481736e+002 
4325000000  -2.152298e+001  -1.477411e+002 
4328125000  -2.103083e+001  -1.543150e+002 
4331250000  -2.098672e+001  -1.625346e+002 
4334375000  -2.143230e+001  -1.674313e+002 
4337500000  -2.222526e+001  -1.696807e+002 
4340625000  -2.281190e+001  -1.659480e+002 
4343750000  -2.218455e+001  -1.657604e+002 
4346875000  -2.184204e+001  -1.713857e+002 
4350000000  -2.184815e+001  -1.761629e+002 
4353125000  -2.186760e+001  1.760770e+002 
4356250000  -2.361265e+001  1.754153e+002 
4359375000  -2.421336e+001  -1.710305e+002 
4362500000  -2.147840e+001  -1.692310e+002 
4365625000  -1.994810e+001  1.786756e+002 
4368750000  -2.067533e+001  1.672268e+002 
4371875000  -2.185587e+001  1.678322e+002 
4375000000  -2.149069e+001  1.685181e+002 
4378125000  -2.086285e+001  1.628422e+002 
4381250000  -2.100773e+001  1.573647e+002 
4384375000  -2.082452e+001  1.530002e+002 
4387500000  -2.160811e+001  1.472692e+002 
4390625000  -2.258940e+001  1.479246e+002 
4393750000  -2.194367e+001  1.502505e+002 
4396875000  -2.126229e+001  1.479723e+002 
4400000000  -2.072887e+001  1.411125e+002 
4403125000  -2.133037e+001  1.333433e+002 
4406250000  -2.216691e+001  1.319296e+002 
4409375000  -2.210282e+001  1.298202e+002 
4412500000  -2.315935e+001  1.272499e+002 
4415625000  -2.353676e+001  1.320841e+002 
4418750000  -2.230799e+001  1.366575e+002 
