!Agilent Technologies,E8363B,MY43030201,A.06.04.32
!Agilent E8363B: A.06.04.32
!Date: Tuesday, November 11, 2014 20:51:57
!Correction: S21(Response(S21)) 
!S1P File: Measurement: S21:
# Hz S  dB   R 50
3000000000  -2.652538e+001  1.511782e+002 
3003125000  -2.794701e+001  1.465614e+002 
3006250000  -2.800083e+001  1.442428e+002 
3009375000  -2.835029e+001  1.494475e+002 
3012500000  -2.782324e+001  1.488692e+002 
3015625000  -2.685524e+001  1.421345e+002 
3018750000  -2.773495e+001  1.410491e+002 
3021875000  -2.645149e+001  1.423353e+002 
3025000000  -2.512733e+001  1.392846e+002 
3028125000  -2.415947e+001  1.342270e+002 
3031250000  -2.310576e+001  1.230838e+002 
3034375000  -2.277220e+001  1.100917e+002 
3037500000  -2.311507e+001  9.826026e+001 
3040625000  -2.446718e+001  9.312902e+001 
3043750000  -2.518041e+001  8.884565e+001 
3046875000  -2.528884e+001  8.251443e+001 
3050000000  -2.699273e+001  7.575486e+001 
3053125000  -2.714494e+001  8.200717e+001 
3056250000  -2.647546e+001  8.507246e+001 
3059375000  -2.675081e+001  8.461164e+001 
3062500000  -2.521504e+001  8.094206e+001 
3065625000  -2.498393e+001  7.526448e+001 
3068750000  -2.469878e+001  6.822534e+001 
3071875000  -2.465289e+001  6.528169e+001 
3075000000  -2.465548e+001  6.162035e+001 
3078125000  -2.435921e+001  5.682880e+001 
3081250000  -2.500747e+001  5.277094e+001 
3084375000  -2.425187e+001  4.906643e+001 
3087500000  -2.416889e+001  4.542085e+001 
3090625000  -2.382565e+001  3.570430e+001 
3093750000  -2.429114e+001  2.780253e+001 
3096875000  -2.556919e+001  2.201398e+001 
3100000000  -2.568390e+001  2.041377e+001 
3103125000  -2.607091e+001  2.174495e+001 
3106250000  -2.580584e+001  1.828102e+001 
3109375000  -2.604963e+001  1.513732e+001 
3112500000  -2.618569e+001  1.367844e+001 
3115625000  -2.597462e+001  9.565721e+000 
3118750000  -2.645421e+001  1.088637e+001 
3121875000  -2.573871e+001  2.560560e+000 
3125000000  -2.694531e+001  -6.104711e-001 
3128125000  -2.817895e+001  7.118859e+000 
3131250000  -2.598603e+001  7.824452e+000 
3134375000  -2.461450e+001  -5.784325e+000 
3137500000  -2.528312e+001  -1.934117e+001 
3140625000  -2.689330e+001  -2.123412e+001 
3143750000  -2.791033e+001  -1.707384e+001 
3146875000  -2.752792e+001  -1.501226e+001 
3150000000  -2.653527e+001  -1.276704e+001 
3153125000  -2.646684e+001  -2.050673e+001 
3156250000  -2.745991e+001  -1.503854e+001 
3159375000  -2.589852e+001  -1.231771e+001 
3162500000  -2.383704e+001  -2.510436e+001 
3165625000  -2.483698e+001  -3.602089e+001 
3168750000  -2.516822e+001  -3.510709e+001 
3171875000  -2.425397e+001  -3.929298e+001 
3175000000  -2.488807e+001  -4.711454e+001 
3178125000  -2.469516e+001  -4.550406e+001 
3181250000  -2.352191e+001  -4.976532e+001 
3184375000  -2.270994e+001  -6.159781e+001 
3187500000  -2.383913e+001  -7.688116e+001 
3190625000  -2.660133e+001  -8.416698e+001 
3193750000  -2.721061e+001  -7.479351e+001 
3196875000  -2.674964e+001  -6.917574e+001 
3200000000  -2.590606e+001  -7.119584e+001 
3203125000  -2.501831e+001  -7.705371e+001 
3206250000  -2.534408e+001  -8.297715e+001 
3209375000  -2.484293e+001  -8.817499e+001 
3212500000  -2.497688e+001  -9.484495e+001 
3215625000  -2.515337e+001  -9.921286e+001 
3218750000  -2.587702e+001  -1.054597e+002 
3221875000  -2.683261e+001  -1.103259e+002 
3225000000  -2.647558e+001  -1.111609e+002 
3228125000  -2.681931e+001  -1.157327e+002 
3231250000  -2.752536e+001  -1.179722e+002 
3234375000  -2.740574e+001  -1.171278e+002 
3237500000  -2.744953e+001  -1.187610e+002 
3240625000  -2.705509e+001  -1.206158e+002 
3243750000  -2.671990e+001  -1.273426e+002 
3246875000  -2.720959e+001  -1.337247e+002 
3250000000  -2.765185e+001  -1.357191e+002 
3253125000  -2.785390e+001  -1.374291e+002 
3256250000  -2.771281e+001  -1.430030e+002 
3259375000  -2.797646e+001  -1.510637e+002 
3262500000  -2.924646e+001  -1.535493e+002 
3265625000  -2.994667e+001  -1.502112e+002 
3268750000  -2.990517e+001  -1.478754e+002 
3271875000  -2.965264e+001  -1.462158e+002 
3275000000  -2.861609e+001  -1.516142e+002 
3278125000  -2.903619e+001  -1.577336e+002 
3281250000  -2.934839e+001  -1.558721e+002 
3284375000  -2.888169e+001  -1.615057e+002 
3287500000  -2.905897e+001  -1.641740e+002 
3290625000  -2.949058e+001  -1.687571e+002 
3293750000  -2.913419e+001  -1.743502e+002 
3296875000  -3.021523e+001  -1.745055e+002 
3300000000  -3.008192e+001  -1.732089e+002 
3303125000  -2.889787e+001  -1.773605e+002 
3306250000  -2.870377e+001  1.760944e+002 
3309375000  -2.845581e+001  1.713482e+002 
3312500000  -2.849313e+001  1.608478e+002 
3315625000  -2.958403e+001  1.530561e+002 
3318750000  -3.089745e+001  1.508196e+002 
3321875000  -3.216610e+001  1.501752e+002 
3325000000  -3.262532e+001  1.554497e+002 
3328125000  -3.248449e+001  1.571348e+002 
3331250000  -3.116651e+001  1.649252e+002 
3334375000  -2.865597e+001  1.547077e+002 
3337500000  -2.868776e+001  1.362172e+002 
3340625000  -3.008333e+001  1.256697e+002 
3343750000  -3.205280e+001  1.242815e+002 
3346875000  -3.249247e+001  1.259872e+002 
3350000000  -3.190639e+001  1.246052e+002 
3353125000  -3.200912e+001  1.202085e+002 
3356250000  -3.178349e+001  1.122469e+002 
3359375000  -3.265397e+001  1.039398e+002 
3362500000  -3.393324e+001  9.910307e+001 
3365625000  -3.446990e+001  9.708331e+001 
3368750000  -3.555704e+001  9.602106e+001 
3371875000  -3.583841e+001  9.233516e+001 
3375000000  -3.745666e+001  9.109309e+001 
3378125000  -3.852120e+001  8.956792e+001 
3381250000  -3.991748e+001  9.834689e+001 
3384375000  -3.951768e+001  1.195944e+002 
3387500000  -3.592017e+001  1.054670e+002 
3390625000  -3.783710e+001  8.502451e+001 
3393750000  -3.969001e+001  8.970118e+001 
3396875000  -3.889370e+001  9.354543e+001 
3400000000  -3.867005e+001  8.707856e+001 
3403125000  -3.986620e+001  8.130260e+001 
3406250000  -4.073190e+001  8.472673e+001 
3409375000  -4.113113e+001  7.963680e+001 
3412500000  -4.212646e+001  8.074657e+001 
3415625000  -4.283642e+001  8.514763e+001 
3418750000  -4.316214e+001  9.159507e+001 
3421875000  -4.327291e+001  9.740914e+001 
3425000000  -4.272485e+001  1.022109e+002 
3428125000  -4.157527e+001  9.819583e+001 
3431250000  -4.145245e+001  9.373282e+001 
3434375000  -4.118370e+001  9.306718e+001 
3437500000  -4.176172e+001  8.968951e+001 
3440625000  -4.226201e+001  9.512298e+001 
3443750000  -4.092029e+001  9.539881e+001 
3446875000  -4.000476e+001  9.260269e+001 
3450000000  -3.982069e+001  8.301019e+001 
3453125000  -4.004526e+001  7.342043e+001 
3456250000  -4.151444e+001  6.802551e+001 
3459375000  -4.230913e+001  7.001553e+001 
3462500000  -4.231403e+001  7.191114e+001 
3465625000  -4.239834e+001  6.765633e+001 
3468750000  -4.285672e+001  6.459555e+001 
3471875000  -4.282701e+001  6.538217e+001 
3475000000  -4.295450e+001  6.248824e+001 
3478125000  -4.340307e+001  5.698397e+001 
3481250000  -4.489919e+001  5.336042e+001 
3484375000  -4.601780e+001  5.751465e+001 
3487500000  -4.565357e+001  6.358713e+001 
3490625000  -4.535817e+001  6.118161e+001 
3493750000  -4.559544e+001  5.671549e+001 
3496875000  -4.696560e+001  6.148756e+001 
3500000000  -4.829507e+001  6.446882e+001 
3503125000  -4.822696e+001  7.247760e+001 
3506250000  -4.696566e+001  7.044814e+001 
3509375000  -4.683662e+001  7.162084e+001 
3512500000  -4.742082e+001  6.739108e+001 
3515625000  -4.776889e+001  6.967866e+001 
3518750000  -4.812683e+001  7.701919e+001 
3521875000  -4.777192e+001  8.057659e+001 
3525000000  -4.805237e+001  8.198670e+001 
3528125000  -4.711784e+001  9.672201e+001 
3531250000  -4.578463e+001  9.447024e+001 
3534375000  -4.559224e+001  8.353454e+001 
3537500000  -4.515058e+001  8.148264e+001 
3540625000  -4.591848e+001  8.330920e+001 
3543750000  -4.632930e+001  8.546589e+001 
3546875000  -4.546090e+001  9.841328e+001 
3550000000  -4.281070e+001  9.906739e+001 
3553125000  -4.170547e+001  8.358551e+001 
3556250000  -4.267149e+001  7.804137e+001 
3559375000  -4.199536e+001  7.967527e+001 
3562500000  -4.088761e+001  7.165064e+001 
3565625000  -4.184813e+001  6.576829e+001 
3568750000  -4.187975e+001  6.961682e+001 
3571875000  -4.188210e+001  7.082629e+001 
3575000000  -4.093973e+001  6.574143e+001 
3578125000  -4.158871e+001  6.012469e+001 
3581250000  -4.190542e+001  6.214870e+001 
3584375000  -4.081538e+001  6.201242e+001 
3587500000  -3.991838e+001  5.529591e+001 
3590625000  -4.024529e+001  4.505808e+001 
3593750000  -4.131288e+001  4.505984e+001 
3596875000  -4.146148e+001  5.308324e+001 
3600000000  -3.966422e+001  5.158397e+001 
3603125000  -3.993092e+001  3.668625e+001 
3606250000  -4.040969e+001  3.492123e+001 
3609375000  -4.062494e+001  3.352796e+001 
3612500000  -4.142099e+001  3.284723e+001 
3615625000  -4.126222e+001  2.891817e+001 
3618750000  -4.201381e+001  3.108345e+001 
3621875000  -4.151875e+001  3.080847e+001 
3625000000  -4.180306e+001  3.132813e+001 
3628125000  -4.178128e+001  2.944974e+001 
3631250000  -4.120797e+001  2.521184e+001 
3634375000  -4.222166e+001  2.540944e+001 
3637500000  -4.209882e+001  3.215884e+001 
3640625000  -4.074559e+001  3.279852e+001 
3643750000  -4.067731e+001  2.754317e+001 
3646875000  -4.091263e+001  2.136190e+001 
3650000000  -4.172889e+001  2.235926e+001 
3653125000  -4.119408e+001  2.215343e+001 
3656250000  -4.132544e+001  1.991662e+001 
3659375000  -4.181691e+001  2.383395e+001 
3662500000  -4.103980e+001  2.255143e+001 
3665625000  -4.090210e+001  2.414157e+001 
3668750000  -4.041338e+001  2.410298e+001 
3671875000  -3.924009e+001  1.978624e+001 
3675000000  -3.971554e+001  1.484666e+001 
3678125000  -4.014164e+001  1.655990e+001 
3681250000  -3.978030e+001  1.495374e+001 
3684375000  -3.979062e+001  1.454439e+001 
3687500000  -3.962457e+001  1.208114e+001 
3690625000  -3.970278e+001  1.086534e+001 
3693750000  -4.039942e+001  1.195599e+001 
3696875000  -4.015545e+001  1.565742e+001 
3700000000  -3.895598e+001  1.471955e+001 
3703125000  -3.848009e+001  9.722415e+000 
3706250000  -3.922938e+001  1.265749e+001 
3709375000  -3.870441e+001  1.573113e+001 
3712500000  -3.745032e+001  1.523561e+001 
3715625000  -3.615727e+001  8.381379e+000 
3718750000  -3.571637e+001  6.599813e+000 
3721875000  -3.530713e+001  1.272013e+000 
3725000000  -3.512415e+001  -2.993830e+000 
3728125000  -3.535023e+001  -4.207720e+000 
3731250000  -3.470988e+001  -4.359787e+000 
3734375000  -3.365004e+001  -1.147189e+001 
3737500000  -3.408770e+001  -1.838650e+001 
3740625000  -3.472850e+001  -2.162227e+001 
3743750000  -3.459552e+001  -2.379492e+001 
3746875000  -3.457045e+001  -2.665170e+001 
3750000000  -3.492994e+001  -2.799055e+001 
3753125000  -3.446917e+001  -2.857932e+001 
3756250000  -3.439526e+001  -2.862275e+001 
3759375000  -3.434580e+001  -2.957389e+001 
3762500000  -3.366665e+001  -3.367621e+001 
3765625000  -3.416484e+001  -3.590012e+001 
3768750000  -3.417733e+001  -3.400212e+001 
3771875000  -3.246487e+001  -3.654737e+001 
3775000000  -3.225941e+001  -4.492353e+001 
3778125000  -3.255556e+001  -4.659957e+001 
3781250000  -3.239350e+001  -4.861772e+001 
3784375000  -3.220253e+001  -5.065852e+001 
3787500000  -3.155050e+001  -5.425615e+001 
3790625000  -3.224080e+001  -5.999391e+001 
3793750000  -3.237209e+001  -6.054288e+001 
3796875000  -3.148824e+001  -6.218527e+001 
3800000000  -2.991121e+001  -6.522698e+001 
3803125000  -3.069387e+001  -7.254391e+001 
3806250000  -3.130926e+001  -7.479823e+001 
3809375000  -3.109720e+001  -7.622558e+001 
3812500000  -3.040526e+001  -8.083714e+001 
3815625000  -3.097408e+001  -8.839040e+001 
3818750000  -3.208552e+001  -8.916052e+001 
3821875000  -3.198121e+001  -8.186829e+001 
3825000000  -3.007081e+001  -7.647569e+001 
3828125000  -2.880764e+001  -9.021837e+001 
3831250000  -2.929391e+001  -1.046312e+002 
3834375000  -3.063441e+001  -1.057134e+002 
3837500000  -3.158014e+001  -1.007875e+002 
3840625000  -3.047214e+001  -1.009645e+002 
3843750000  -2.926529e+001  -1.116834e+002 
3846875000  -3.000441e+001  -1.186409e+002 
3850000000  -3.119130e+001  -1.133182e+002 
3853125000  -3.042382e+001  -1.104885e+002 
3856250000  -3.037163e+001  -1.159257e+002 
3859375000  -2.965944e+001  -1.194285e+002 
3862500000  -2.924520e+001  -1.268913e+002 
3865625000  -2.955380e+001  -1.319888e+002 
3868750000  -2.950746e+001  -1.322411e+002 
3871875000  -2.876380e+001  -1.350499e+002 
3875000000  -2.896404e+001  -1.438339e+002 
3878125000  -2.993449e+001  -1.462575e+002 
3881250000  -3.008300e+001  -1.431722e+002 
3884375000  -2.957985e+001  -1.483629e+002 
3887500000  -2.969215e+001  -1.522917e+002 
3890625000  -3.014485e+001  -1.544351e+002 
3893750000  -3.064713e+001  -1.556396e+002 
3896875000  -3.076727e+001  -1.552786e+002 
3900000000  -3.100171e+001  -1.564893e+002 
3903125000  -3.071289e+001  -1.581472e+002 
3906250000  -3.036780e+001  -1.590268e+002 
3909375000  -2.963939e+001  -1.608753e+002 
3912500000  -2.974126e+001  -1.690674e+002 
3915625000  -3.097275e+001  -1.679795e+002 
3918750000  -3.092107e+001  -1.665113e+002 
3921875000  -3.057690e+001  -1.677327e+002 
3925000000  -2.982308e+001  -1.689298e+002 
3928125000  -2.903233e+001  -1.748078e+002 
3931250000  -2.949447e+001  -1.779335e+002 
3934375000  -2.973854e+001  -1.782437e+002 
3937500000  -2.994064e+001  -1.787399e+002 
3940625000  -3.038218e+001  -1.788303e+002 
3943750000  -2.941759e+001  -1.771853e+002 
3946875000  -2.816202e+001  1.774079e+002 
3950000000  -2.863870e+001  1.697490e+002 
3953125000  -2.958007e+001  1.701956e+002 
3956250000  -2.877345e+001  1.731936e+002 
3959375000  -2.746402e+001  1.695716e+002 
3962500000  -2.690692e+001  1.658274e+002 
3965625000  -2.657003e+001  1.576778e+002 
3968750000  -2.750288e+001  1.512314e+002 
3971875000  -2.785235e+001  1.492068e+002 
3975000000  -2.715232e+001  1.471297e+002 
3978125000  -2.697791e+001  1.459996e+002 
3981250000  -2.677709e+001  1.416779e+002 
3984375000  -2.699211e+001  1.348508e+002 
3987500000  -2.749443e+001  1.329857e+002 
3990625000  -2.744639e+001  1.321535e+002 
3993750000  -2.768004e+001  1.291052e+002 
3996875000  -2.758773e+001  1.265715e+002 
4000000000  -2.781414e+001  1.243025e+002 
4003125000  -2.837976e+001  1.266706e+002 
4006250000  -2.693891e+001  1.269659e+002 
4009375000  -2.572625e+001  1.142770e+002 
4012500000  -2.681404e+001  1.076010e+002 
4015625000  -2.809916e+001  1.082773e+002 
4018750000  -2.828612e+001  1.098743e+002 
4021875000  -2.755231e+001  1.087922e+002 
4025000000  -2.723401e+001  1.036420e+002 
4028125000  -2.719975e+001  9.979292e+001 
4031250000  -2.766914e+001  9.638276e+001 
4034375000  -2.793801e+001  9.658854e+001 
4037500000  -2.739825e+001  9.852825e+001 
4040625000  -2.730550e+001  9.502640e+001 
4043750000  -2.772974e+001  9.453973e+001 
4046875000  -2.723593e+001  9.430413e+001 
4050000000  -2.678319e+001  8.873164e+001 
4053125000  -2.723662e+001  8.638114e+001 
4056250000  -2.782733e+001  9.088728e+001 
4059375000  -2.661624e+001  9.292655e+001 
4062500000  -2.525994e+001  8.851555e+001 
4065625000  -2.512288e+001  8.409673e+001 
4068750000  -2.481444e+001  7.950723e+001 
4071875000  -2.415266e+001  7.110722e+001 
4075000000  -2.452402e+001  6.480459e+001 
4078125000  -2.509125e+001  6.379649e+001 
4081250000  -2.454544e+001  6.171106e+001 
4084375000  -2.417301e+001  5.536294e+001 
4087500000  -2.451967e+001  4.858115e+001 
4090625000  -2.511441e+001  4.750049e+001 
4093750000  -2.491867e+001  4.833300e+001 
4096875000  -2.445734e+001  4.234779e+001 
4100000000  -2.518580e+001  3.523238e+001 
4103125000  -2.603803e+001  3.587061e+001 
4106250000  -2.594345e+001  4.050222e+001 
4109375000  -2.507780e+001  4.027349e+001 
4112500000  -2.447651e+001  3.355268e+001 
4115625000  -2.478355e+001  2.939652e+001 
4118750000  -2.493897e+001  2.636918e+001 
4121875000  -2.449886e+001  2.207112e+001 
4125000000  -2.481996e+001  1.687168e+001 
4128125000  -2.591101e+001  1.672062e+001 
4131250000  -2.558045e+001  2.468721e+001 
4134375000  -2.327908e+001  2.071246e+001 
4137500000  -2.305209e+001  1.621605e+000 
4140625000  -2.520360e+001  -5.337409e+000 
4143750000  -2.656105e+001  -5.192472e-001 
4146875000  -2.619832e+001  7.003176e+000 
4150000000  -2.519722e+001  3.642754e+000 
4153125000  -2.506960e+001  -2.853696e+000 
4156250000  -2.595541e+001  -5.290614e+000 
4159375000  -2.622550e+001  -7.430332e-001 
4162500000  -2.507493e+001  3.426128e+000 
4165625000  -2.394431e+001  -7.984489e-001 
4168750000  -2.335053e+001  -7.924896e+000 
4171875000  -2.331292e+001  -1.720635e+001 
4175000000  -2.389648e+001  -2.293724e+001 
4178125000  -2.457436e+001  -2.305431e+001 
4181250000  -2.437753e+001  -2.309917e+001 
4184375000  -2.427408e+001  -2.651154e+001 
4187500000  -2.437119e+001  -2.896956e+001 
4190625000  -2.413813e+001  -3.469560e+001 
4193750000  -2.488146e+001  -3.851498e+001 
4196875000  -2.563205e+001  -3.893347e+001 
4200000000  -2.648056e+001  -3.665765e+001 
4203125000  -2.647905e+001  -2.281406e+001 
4206250000  -2.313883e+001  -2.152053e+001 
4209375000  -2.197490e+001  -4.214487e+001 
4212500000  -2.388187e+001  -5.088186e+001 
4215625000  -2.482029e+001  -4.473369e+001 
4218750000  -2.353869e+001  -3.801455e+001 
4221875000  -2.126913e+001  -4.697956e+001 
4225000000  -2.245752e+001  -5.953266e+001 
4228125000  -2.316743e+001  -5.475062e+001 
4231250000  -2.161118e+001  -5.810311e+001 
4234375000  -2.152657e+001  -6.682161e+001 
4237500000  -2.110292e+001  -7.008007e+001 
4240625000  -2.109002e+001  -7.829453e+001 
4243750000  -2.211957e+001  -8.511116e+001 
4246875000  -2.297751e+001  -8.543250e+001 
4250000000  -2.297603e+001  -8.230635e+001 
4253125000  -2.242752e+001  -8.444273e+001 
4256250000  -2.273831e+001  -8.860709e+001 
4259375000  -2.246768e+001  -9.053091e+001 
4262500000  -2.249199e+001  -9.428312e+001 
4265625000  -2.263628e+001  -9.380579e+001 
4268750000  -2.177866e+001  -9.787465e+001 
4271875000  -2.148837e+001  -1.038860e+002 
4275000000  -2.094102e+001  -1.097899e+002 
4278125000  -2.155561e+001  -1.212953e+002 
4281250000  -2.334841e+001  -1.230899e+002 
4284375000  -2.304196e+001  -1.225207e+002 
4287500000  -2.386749e+001  -1.260323e+002 
4290625000  -2.501485e+001  -1.166605e+002 
4293750000  -2.307210e+001  -1.108752e+002 
4296875000  -2.167735e+001  -1.224363e+002 
4300000000  -2.257073e+001  -1.317374e+002 
4303125000  -2.371844e+001  -1.302599e+002 
4306250000  -2.311364e+001  -1.244322e+002 
4309375000  -2.170420e+001  -1.264729e+002 
4312500000  -2.163194e+001  -1.347633e+002 
4315625000  -2.182340e+001  -1.409128e+002 
4318750000  -2.215463e+001  -1.441552e+002 
4321875000  -2.232804e+001  -1.436634e+002 
4325000000  -2.176272e+001  -1.429664e+002 
4328125000  -2.122968e+001  -1.494070e+002 
4331250000  -2.119695e+001  -1.573319e+002 
4334375000  -2.161945e+001  -1.623903e+002 
4337500000  -2.242487e+001  -1.646530e+002 
4340625000  -2.298674e+001  -1.613513e+002 
4343750000  -2.239021e+001  -1.609795e+002 
4346875000  -2.200816e+001  -1.663221e+002 
4350000000  -2.201719e+001  -1.711756e+002 
4353125000  -2.205013e+001  -1.788471e+002 
4356250000  -2.380551e+001  -1.798598e+002 
4359375000  -2.445904e+001  -1.661685e+002 
4362500000  -2.175166e+001  -1.642366e+002 
4365625000  -2.008490e+001  -1.760458e+002 
4368750000  -2.080641e+001  1.723015e+002 
4371875000  -2.201318e+001  1.727726e+002 
4375000000  -2.166406e+001  1.736407e+002 
4378125000  -2.105184e+001  1.680198e+002 
4381250000  -2.122711e+001  1.623439e+002 
4384375000  -2.105570e+001  1.580101e+002 
4387500000  -2.178561e+001  1.521803e+002 
4390625000  -2.277320e+001  1.529492e+002 
4393750000  -2.211728e+001  1.553283e+002 
4396875000  -2.146139e+001  1.531509e+002 
4400000000  -2.094061e+001  1.459183e+002 
4403125000  -2.154812e+001  1.385501e+002 
4406250000  -2.238412e+001  1.372519e+002 
4409375000  -2.233419e+001  1.348063e+002 
4412500000  -2.338348e+001  1.319938e+002 
4415625000  -2.377460e+001  1.366695e+002 
4418750000  -2.256966e+001  1.417311e+002 
