!Agilent Technologies,E8363B,MY43030201,A.06.04.32
!Agilent E8363B: A.06.04.32
!Date: Tuesday, November 11, 2014 20:58:57
!Correction: S21(Response(S21)) 
!S1P File: Measurement: S21:
# Hz S  dB   R 50
3000000000  -2.651009e+001  1.461313e+002 
3003125000  -2.793394e+001  1.410328e+002 
3006250000  -2.796560e+001  1.389567e+002 
3009375000  -2.832172e+001  1.439154e+002 
3012500000  -2.777895e+001  1.433132e+002 
3015625000  -2.688560e+001  1.361325e+002 
3018750000  -2.764416e+001  1.356019e+002 
3021875000  -2.637088e+001  1.367762e+002 
3025000000  -2.506264e+001  1.337573e+002 
3028125000  -2.412282e+001  1.284840e+002 
3031250000  -2.308656e+001  1.173199e+002 
3034375000  -2.272584e+001  1.041304e+002 
3037500000  -2.316582e+001  9.230964e+001 
3040625000  -2.446518e+001  8.741851e+001 
3043750000  -2.517196e+001  8.296277e+001 
3046875000  -2.531228e+001  7.673554e+001 
3050000000  -2.698560e+001  6.996125e+001 
3053125000  -2.706613e+001  7.667423e+001 
3056250000  -2.649430e+001  7.984849e+001 
3059375000  -2.669665e+001  7.920970e+001 
3062500000  -2.515733e+001  7.529694e+001 
3065625000  -2.494400e+001  6.943277e+001 
3068750000  -2.468960e+001  6.217665e+001 
3071875000  -2.466707e+001  5.961492e+001 
3075000000  -2.455430e+001  5.541291e+001 
3078125000  -2.430594e+001  5.105801e+001 
3081250000  -2.496938e+001  4.691150e+001 
3084375000  -2.416358e+001  4.337634e+001 
3087500000  -2.414628e+001  3.953386e+001 
3090625000  -2.379238e+001  2.960942e+001 
3093750000  -2.432787e+001  2.188491e+001 
3096875000  -2.555354e+001  1.606197e+001 
3100000000  -2.565899e+001  1.471866e+001 
3103125000  -2.603448e+001  1.579583e+001 
3106250000  -2.577848e+001  1.253818e+001 
3109375000  -2.598954e+001  8.981112e+000 
3112500000  -2.612809e+001  7.553955e+000 
3115625000  -2.593857e+001  3.684969e+000 
3118750000  -2.641822e+001  4.908797e+000 
3121875000  -2.572437e+001  -3.549715e+000 
3125000000  -2.696331e+001  -6.676621e+000 
3128125000  -2.815089e+001  1.621375e+000 
3131250000  -2.588107e+001  1.904099e+000 
3134375000  -2.461554e+001  -1.189087e+001 
3137500000  -2.532088e+001  -2.516732e+001 
3140625000  -2.692745e+001  -2.695926e+001 
3143750000  -2.792526e+001  -2.324442e+001 
3146875000  -2.749976e+001  -2.123439e+001 
3150000000  -2.648465e+001  -1.882778e+001 
3153125000  -2.646908e+001  -2.655777e+001 
3156250000  -2.745955e+001  -2.063374e+001 
3159375000  -2.580530e+001  -1.817136e+001 
3162500000  -2.383722e+001  -3.131328e+001 
3165625000  -2.478865e+001  -4.212800e+001 
3168750000  -2.517643e+001  -4.082882e+001 
3171875000  -2.424122e+001  -4.532494e+001 
3175000000  -2.486808e+001  -5.317291e+001 
3178125000  -2.461808e+001  -5.138605e+001 
3181250000  -2.350146e+001  -5.575145e+001 
3184375000  -2.274514e+001  -6.773206e+001 
3187500000  -2.391308e+001  -8.270816e+001 
3190625000  -2.661538e+001  -8.994003e+001 
3193750000  -2.714428e+001  -8.051873e+001 
3196875000  -2.674697e+001  -7.525591e+001 
3200000000  -2.583642e+001  -7.719620e+001 
3203125000  -2.501903e+001  -8.303928e+001 
3206250000  -2.530718e+001  -8.904524e+001 
3209375000  -2.482961e+001  -9.420152e+001 
3212500000  -2.498579e+001  -1.009109e+002 
3215625000  -2.510313e+001  -1.046793e+002 
3218750000  -2.588796e+001  -1.112559e+002 
3221875000  -2.678200e+001  -1.163450e+002 
3225000000  -2.642177e+001  -1.165920e+002 
3228125000  -2.676721e+001  -1.216185e+002 
3231250000  -2.755375e+001  -1.238800e+002 
3234375000  -2.732829e+001  -1.234228e+002 
3237500000  -2.737784e+001  -1.243227e+002 
3240625000  -2.703306e+001  -1.267071e+002 
3243750000  -2.674194e+001  -1.332444e+002 
3246875000  -2.718042e+001  -1.394193e+002 
3250000000  -2.761625e+001  -1.415343e+002 
3253125000  -2.782965e+001  -1.431780e+002 
3256250000  -2.760143e+001  -1.491655e+002 
3259375000  -2.797414e+001  -1.570193e+002 
3262500000  -2.925232e+001  -1.595711e+002 
3265625000  -2.992937e+001  -1.560604e+002 
3268750000  -2.987906e+001  -1.530422e+002 
3271875000  -2.956854e+001  -1.524205e+002 
3275000000  -2.856872e+001  -1.575800e+002 
3278125000  -2.904178e+001  -1.635831e+002 
3281250000  -2.930135e+001  -1.621818e+002 
3284375000  -2.883588e+001  -1.678577e+002 
3287500000  -2.901806e+001  -1.700737e+002 
3290625000  -2.942206e+001  -1.750820e+002 
3293750000  -2.915674e+001  1.795138e+002 
3296875000  -3.013535e+001  1.796340e+002 
3300000000  -3.007728e+001  -1.793344e+002 
3303125000  -2.890077e+001  1.769153e+002 
3306250000  -2.869498e+001  1.700839e+002 
3309375000  -2.840284e+001  1.650192e+002 
3312500000  -2.850147e+001  1.544604e+002 
3315625000  -2.957684e+001  1.468125e+002 
3318750000  -3.089476e+001  1.442984e+002 
3321875000  -3.207038e+001  1.448303e+002 
3325000000  -3.265888e+001  1.496271e+002 
3328125000  -3.234552e+001  1.514303e+002 
3331250000  -3.116250e+001  1.590666e+002 
3334375000  -2.846682e+001  1.487600e+002 
3337500000  -2.867461e+001  1.302273e+002 
3340625000  -3.007113e+001  1.188814e+002 
3343750000  -3.205873e+001  1.183599e+002 
3346875000  -3.239479e+001  1.203252e+002 
3350000000  -3.178213e+001  1.185056e+002 
3353125000  -3.196788e+001  1.142780e+002 
3356250000  -3.167880e+001  1.067809e+002 
3359375000  -3.253106e+001  9.804241e+001 
3362500000  -3.391653e+001  9.271986e+001 
3365625000  -3.458650e+001  9.160754e+001 
3368750000  -3.540462e+001  9.021160e+001 
3371875000  -3.583140e+001  8.662014e+001 
3375000000  -3.753438e+001  8.570657e+001 
3378125000  -3.834235e+001  8.425022e+001 
3381250000  -4.006142e+001  9.485817e+001 
3384375000  -3.915277e+001  1.137065e+002 
3387500000  -3.593767e+001  9.872044e+001 
3390625000  -3.780616e+001  7.974957e+001 
3393750000  -3.964171e+001  8.577493e+001 
3396875000  -3.865015e+001  8.823540e+001 
3400000000  -3.868103e+001  8.032384e+001 
3403125000  -3.982467e+001  7.597590e+001 
3406250000  -4.047578e+001  7.917250e+001 
3409375000  -4.110297e+001  7.518213e+001 
3412500000  -4.177827e+001  7.715447e+001 
3415625000  -4.271046e+001  8.107809e+001 
3418750000  -4.295003e+001  8.458023e+001 
3421875000  -4.319073e+001  9.062216e+001 
3425000000  -4.258151e+001  9.388953e+001 
3428125000  -4.126513e+001  9.390192e+001 
3431250000  -4.139906e+001  9.056680e+001 
3434375000  -4.123128e+001  8.617799e+001 
3437500000  -4.168940e+001  8.551279e+001 
3440625000  -4.185287e+001  8.824957e+001 
3443750000  -4.067773e+001  8.997078e+001 
3446875000  -3.983529e+001  8.432867e+001 
3450000000  -3.961655e+001  7.615622e+001 
3453125000  -4.005470e+001  6.747733e+001 
3456250000  -4.130276e+001  6.235314e+001 
3459375000  -4.228450e+001  6.383022e+001 
3462500000  -4.194414e+001  6.520567e+001 
3465625000  -4.211612e+001  6.257828e+001 
3468750000  -4.238386e+001  5.896634e+001 
3471875000  -4.269866e+001  6.027845e+001 
3475000000  -4.276384e+001  5.560392e+001 
3478125000  -4.355399e+001  5.005032e+001 
3481250000  -4.439801e+001  5.175479e+001 
3484375000  -4.569337e+001  5.345242e+001 
3487500000  -4.544923e+001  5.859818e+001 
3490625000  -4.477479e+001  5.576224e+001 
3493750000  -4.585480e+001  5.171079e+001 
3496875000  -4.662125e+001  5.118900e+001 
3500000000  -4.790942e+001  5.838565e+001 
3503125000  -4.756153e+001  6.302399e+001 
3506250000  -4.590331e+001  6.242566e+001 
3509375000  -4.657603e+001  6.132397e+001 
3512500000  -4.677038e+001  6.077759e+001 
3515625000  -4.733144e+001  6.322152e+001 
3518750000  -4.818026e+001  7.039502e+001 
3521875000  -4.731678e+001  7.068855e+001 
3525000000  -4.810876e+001  7.146867e+001 
3528125000  -4.764154e+001  8.633096e+001 
3531250000  -4.555400e+001  8.527098e+001 
3534375000  -4.507274e+001  8.039386e+001 
3537500000  -4.498632e+001  7.244934e+001 
3540625000  -4.564360e+001  7.540971e+001 
3543750000  -4.585508e+001  7.849247e+001 
3546875000  -4.525648e+001  8.777091e+001 
3550000000  -4.261582e+001  9.249749e+001 
3553125000  -4.142790e+001  7.681892e+001 
3556250000  -4.273024e+001  7.008389e+001 
3559375000  -4.217929e+001  7.251504e+001 
3562500000  -4.094910e+001  6.464786e+001 
3565625000  -4.165862e+001  5.896296e+001 
3568750000  -4.170121e+001  6.205280e+001 
3571875000  -4.157724e+001  6.133098e+001 
3575000000  -4.113758e+001  5.755595e+001 
3578125000  -4.158677e+001  5.331767e+001 
3581250000  -4.130374e+001  5.150145e+001 
3584375000  -4.059162e+001  5.325601e+001 
3587500000  -3.984742e+001  4.738412e+001 
3590625000  -4.019739e+001  3.830317e+001 
3593750000  -4.103087e+001  3.771052e+001 
3596875000  -4.094367e+001  4.560261e+001 
3600000000  -3.965361e+001  4.049349e+001 
3603125000  -3.967235e+001  2.875704e+001 
3606250000  -4.033701e+001  2.494350e+001 
3609375000  -4.100452e+001  2.470009e+001 
3612500000  -4.104254e+001  2.379636e+001 
3615625000  -4.121583e+001  2.178458e+001 
3618750000  -4.182064e+001  2.193975e+001 
3621875000  -4.128611e+001  2.176906e+001 
3625000000  -4.151501e+001  2.317766e+001 
3628125000  -4.141928e+001  2.105564e+001 
3631250000  -4.118221e+001  1.735975e+001 
3634375000  -4.250265e+001  1.826930e+001 
3637500000  -4.217892e+001  2.286127e+001 
3640625000  -4.093664e+001  2.595719e+001 
3643750000  -4.040034e+001  1.725327e+001 
3646875000  -4.100389e+001  1.294874e+001 
3650000000  -4.142339e+001  1.268067e+001 
3653125000  -4.134921e+001  1.383081e+001 
3656250000  -4.143431e+001  1.221972e+001 
3659375000  -4.171708e+001  1.590750e+001 
3662500000  -4.108033e+001  1.408686e+001 
3665625000  -4.118492e+001  1.575725e+001 
3668750000  -4.025312e+001  1.619022e+001 
3671875000  -3.931615e+001  1.211626e+001 
3675000000  -3.962671e+001  5.929733e+000 
3678125000  -4.036195e+001  6.964382e+000 
3681250000  -3.989845e+001  8.324562e+000 
3684375000  -3.943999e+001  6.455046e+000 
3687500000  -3.988227e+001  4.025802e+000 
3690625000  -3.979611e+001  1.547904e+000 
3693750000  -4.038788e+001  4.372406e+000 
3696875000  -4.002023e+001  7.555203e+000 
3700000000  -3.892667e+001  5.863072e+000 
3703125000  -3.856624e+001  1.473505e+000 
3706250000  -3.929886e+001  3.776359e+000 
3709375000  -3.870803e+001  6.786305e+000 
3712500000  -3.737358e+001  7.039428e+000 
3715625000  -3.632634e+001  5.766277e-001 
3718750000  -3.555998e+001  -7.884350e-001 
3721875000  -3.521765e+001  -7.010651e+000 
3725000000  -3.529616e+001  -1.180404e+001 
3728125000  -3.538778e+001  -1.162833e+001 
3731250000  -3.473164e+001  -1.273202e+001 
3734375000  -3.378336e+001  -1.925754e+001 
3737500000  -3.433896e+001  -2.644283e+001 
3740625000  -3.477013e+001  -2.983929e+001 
3743750000  -3.455360e+001  -3.147713e+001 
3746875000  -3.459739e+001  -3.521429e+001 
3750000000  -3.502174e+001  -3.528492e+001 
3753125000  -3.459918e+001  -3.635065e+001 
3756250000  -3.457410e+001  -3.670248e+001 
3759375000  -3.429054e+001  -3.674929e+001 
3762500000  -3.377470e+001  -4.161938e+001 
3765625000  -3.439547e+001  -4.324372e+001 
3768750000  -3.436394e+001  -4.138026e+001 
3771875000  -3.253236e+001  -4.343134e+001 
3775000000  -3.225193e+001  -5.150755e+001 
3778125000  -3.255533e+001  -5.395411e+001 
3781250000  -3.240084e+001  -5.685893e+001 
3784375000  -3.240563e+001  -5.862083e+001 
3787500000  -3.177932e+001  -6.201835e+001 
3790625000  -3.228517e+001  -6.783478e+001 
3793750000  -3.242675e+001  -6.810313e+001 
3796875000  -3.155403e+001  -6.955125e+001 
3800000000  -2.995505e+001  -7.278775e+001 
3803125000  -3.070601e+001  -7.989056e+001 
3806250000  -3.141251e+001  -8.290704e+001 
3809375000  -3.120780e+001  -8.434028e+001 
3812500000  -3.048338e+001  -8.822984e+001 
3815625000  -3.110893e+001  -9.581183e+001 
3818750000  -3.220260e+001  -9.720627e+001 
3821875000  -3.208717e+001  -8.832622e+001 
3825000000  -3.009099e+001  -8.439175e+001 
3828125000  -2.870598e+001  -9.824014e+001 
3831250000  -2.931992e+001  -1.123855e+002 
3834375000  -3.069653e+001  -1.130687e+002 
3837500000  -3.156226e+001  -1.078799e+002 
3840625000  -3.043729e+001  -1.088145e+002 
3843750000  -2.925902e+001  -1.193987e+002 
3846875000  -3.009552e+001  -1.262599e+002 
3850000000  -3.128449e+001  -1.202909e+002 
3853125000  -3.041190e+001  -1.177122e+002 
3856250000  -3.042727e+001  -1.226050e+002 
3859375000  -2.969398e+001  -1.278581e+002 
3862500000  -2.918289e+001  -1.353806e+002 
3865625000  -2.953918e+001  -1.395836e+002 
3868750000  -2.958746e+001  -1.397005e+002 
3871875000  -2.884341e+001  -1.429566e+002 
3875000000  -2.901089e+001  -1.519387e+002 
3878125000  -3.005010e+001  -1.539476e+002 
3881250000  -3.009352e+001  -1.510128e+002 
3884375000  -2.952734e+001  -1.557806e+002 
3887500000  -2.976539e+001  -1.600253e+002 
3890625000  -3.024582e+001  -1.626112e+002 
3893750000  -3.062953e+001  -1.636514e+002 
3896875000  -3.081944e+001  -1.624100e+002 
3900000000  -3.104790e+001  -1.639657e+002 
3903125000  -3.067209e+001  -1.660114e+002 
3906250000  -3.049976e+001  -1.669256e+002 
3909375000  -2.967421e+001  -1.693016e+002 
3912500000  -2.985484e+001  -1.767267e+002 
3915625000  -3.100438e+001  -1.757708e+002 
3918750000  -3.088543e+001  -1.744081e+002 
3921875000  -3.070651e+001  -1.758193e+002 
3925000000  -2.986399e+001  -1.766126e+002 
3928125000  -2.907528e+001  1.780747e+002 
3931250000  -2.955088e+001  1.741261e+002 
3934375000  -2.981378e+001  1.742215e+002 
3937500000  -3.001664e+001  1.738630e+002 
3940625000  -3.045670e+001  1.736319e+002 
3943750000  -2.941004e+001  1.755622e+002 
3946875000  -2.826822e+001  1.696447e+002 
3950000000  -2.874916e+001  1.620838e+002 
3953125000  -2.971103e+001  1.634751e+002 
3956250000  -2.871291e+001  1.657200e+002 
3959375000  -2.742148e+001  1.624415e+002 
3962500000  -2.698653e+001  1.580155e+002 
3965625000  -2.661182e+001  1.493232e+002 
3968750000  -2.752502e+001  1.431304e+002 
3971875000  -2.784265e+001  1.412049e+002 
3975000000  -2.711905e+001  1.395724e+002 
3978125000  -2.708028e+001  1.380092e+002 
3981250000  -2.678657e+001  1.334679e+002 
3984375000  -2.706698e+001  1.273102e+002 
3987500000  -2.754409e+001  1.254168e+002 
3990625000  -2.752970e+001  1.243467e+002 
3993750000  -2.773035e+001  1.211464e+002 
3996875000  -2.769107e+001  1.184595e+002 
4000000000  -2.784023e+001  1.163628e+002 
4003125000  -2.840320e+001  1.186195e+002 
4006250000  -2.698345e+001  1.188735e+002 
4009375000  -2.579163e+001  1.067451e+002 
4012500000  -2.692368e+001  9.962619e+001 
4015625000  -2.813871e+001  1.001774e+002 
4018750000  -2.839752e+001  1.025089e+002 
4021875000  -2.762854e+001  1.007579e+002 
4025000000  -2.737569e+001  9.627577e+001 
4028125000  -2.720853e+001  9.203934e+001 
4031250000  -2.778599e+001  8.880011e+001 
4034375000  -2.799050e+001  8.915891e+001 
4037500000  -2.751486e+001  9.084708e+001 
4040625000  -2.742579e+001  8.761120e+001 
4043750000  -2.770809e+001  8.701022e+001 
4046875000  -2.735076e+001  8.646375e+001 
4050000000  -2.675937e+001  8.150268e+001 
4053125000  -2.728557e+001  7.949660e+001 
4056250000  -2.794415e+001  8.338655e+001 
4059375000  -2.660643e+001  8.575887e+001 
4062500000  -2.523280e+001  8.063059e+001 
4065625000  -2.515096e+001  7.584532e+001 
4068750000  -2.478954e+001  7.161363e+001 
4071875000  -2.421768e+001  6.377721e+001 
4075000000  -2.456688e+001  5.727415e+001 
4078125000  -2.510913e+001  5.653670e+001 
4081250000  -2.454004e+001  5.406582e+001 
4084375000  -2.417065e+001  4.740648e+001 
4087500000  -2.453144e+001  4.113235e+001 
4090625000  -2.513890e+001  4.006176e+001 
4093750000  -2.493609e+001  4.090384e+001 
4096875000  -2.448318e+001  3.471041e+001 
4100000000  -2.521686e+001  2.760631e+001 
4103125000  -2.612219e+001  2.896416e+001 
4106250000  -2.592124e+001  3.342688e+001 
4109375000  -2.499500e+001  3.289819e+001 
4112500000  -2.444593e+001  2.590973e+001 
4115625000  -2.480406e+001  2.186108e+001 
4118750000  -2.489804e+001  1.894776e+001 
4121875000  -2.447187e+001  1.404997e+001 
4125000000  -2.491271e+001  9.102525e+000 
4128125000  -2.592943e+001  9.460633e+000 
4131250000  -2.556936e+001  1.740233e+001 
4134375000  -2.324626e+001  1.263285e+001 
4137500000  -2.305479e+001  -6.154122e+000 
4140625000  -2.527366e+001  -1.364207e+001 
4143750000  -2.662945e+001  -8.072635e+000 
4146875000  -2.614643e+001  -1.151756e-001 
4150000000  -2.519425e+001  -3.753002e+000 
4153125000  -2.503350e+001  -1.059050e+001 
4156250000  -2.602053e+001  -1.286094e+001 
4159375000  -2.623839e+001  -8.429836e+000 
4162500000  -2.509155e+001  -4.258043e+000 
4165625000  -2.395171e+001  -8.332674e+000 
4168750000  -2.337086e+001  -1.561027e+001 
4171875000  -2.330618e+001  -2.460373e+001 
4175000000  -2.393352e+001  -3.029139e+001 
4178125000  -2.457795e+001  -3.012200e+001 
4181250000  -2.436268e+001  -3.073206e+001 
4184375000  -2.422260e+001  -3.413037e+001 
4187500000  -2.430225e+001  -3.660315e+001 
4190625000  -2.411808e+001  -4.227584e+001 
4193750000  -2.495419e+001  -4.591589e+001 
4196875000  -2.568494e+001  -4.656776e+001 
4200000000  -2.655005e+001  -4.389113e+001 
4203125000  -2.641747e+001  -2.986324e+001 
4206250000  -2.304336e+001  -2.891756e+001 
4209375000  -2.192336e+001  -4.976171e+001 
4212500000  -2.384207e+001  -5.872789e+001 
4215625000  -2.483364e+001  -5.201138e+001 
4218750000  -2.348066e+001  -4.563486e+001 
4221875000  -2.116715e+001  -5.483605e+001 
4225000000  -2.241674e+001  -6.724654e+001 
4228125000  -2.305422e+001  -6.225819e+001 
4231250000  -2.152581e+001  -6.592950e+001 
4234375000  -2.145416e+001  -7.442886e+001 
4237500000  -2.098246e+001  -7.775614e+001 
4240625000  -2.108506e+001  -8.628841e+001 
4243750000  -2.202539e+001  -9.326140e+001 
4246875000  -2.293587e+001  -9.333897e+001 
4250000000  -2.296716e+001  -9.026612e+001 
4253125000  -2.240470e+001  -9.231631e+001 
4256250000  -2.267929e+001  -9.638321e+001 
4259375000  -2.238680e+001  -9.851225e+001 
4262500000  -2.242237e+001  -1.019954e+002 
4265625000  -2.256996e+001  -1.014389e+002 
4268750000  -2.165455e+001  -1.057451e+002 
4271875000  -2.145734e+001  -1.116390e+002 
4275000000  -2.083891e+001  -1.180877e+002 
4278125000  -2.151016e+001  -1.290965e+002 
4281250000  -2.331047e+001  -1.308415e+002 
4284375000  -2.294861e+001  -1.306247e+002 
4287500000  -2.382103e+001  -1.337896e+002 
4290625000  -2.506414e+001  -1.241935e+002 
4293750000  -2.304680e+001  -1.188336e+002 
4296875000  -2.163880e+001  -1.304996e+002 
4300000000  -2.254732e+001  -1.394406e+002 
4303125000  -2.368712e+001  -1.378385e+002 
4306250000  -2.294170e+001  -1.319078e+002 
4309375000  -2.163250e+001  -1.341820e+002 
4312500000  -2.151448e+001  -1.427117e+002 
4315625000  -2.171524e+001  -1.490057e+002 
4318750000  -2.205630e+001  -1.521352e+002 
4321875000  -2.225309e+001  -1.512770e+002 
4325000000  -2.164504e+001  -1.507386e+002 
4328125000  -2.112109e+001  -1.575067e+002 
4331250000  -2.104208e+001  -1.653253e+002 
4334375000  -2.154440e+001  -1.706352e+002 
4337500000  -2.237024e+001  -1.725654e+002 
4340625000  -2.292914e+001  -1.690260e+002 
4343750000  -2.228664e+001  -1.687917e+002 
4346875000  -2.189589e+001  -1.745893e+002 
4350000000  -2.191659e+001  -1.792218e+002 
4353125000  -2.201315e+001  1.732603e+002 
4356250000  -2.381581e+001  1.727553e+002 
4359375000  -2.428512e+001  -1.741037e+002 
4362500000  -2.148566e+001  -1.720214e+002 
4365625000  -1.998622e+001  1.752889e+002 
4368750000  -2.073660e+001  1.636559e+002 
4371875000  -2.192263e+001  1.644473e+002 
4375000000  -2.154770e+001  1.655079e+002 
4378125000  -2.091643e+001  1.595007e+002 
4381250000  -2.110414e+001  1.544424e+002 
4384375000  -2.089060e+001  1.494774e+002 
4387500000  -2.170263e+001  1.436775e+002 
4390625000  -2.265814e+001  1.447613e+002 
4393750000  -2.198516e+001  1.469082e+002 
4396875000  -2.134001e+001  1.446177e+002 
4400000000  -2.081014e+001  1.376227e+002 
4403125000  -2.145056e+001  1.300920e+002 
4406250000  -2.227937e+001  1.287698e+002 
4409375000  -2.225363e+001  1.265875e+002 
4412500000  -2.327313e+001  1.237435e+002 
4415625000  -2.362659e+001  1.289529e+002 
4418750000  -2.237952e+001  1.332195e+002 
