!Agilent Technologies,E8363B,MY43030201,A.06.04.32
!Agilent E8363B: A.06.04.32
!Date: Tuesday, November 11, 2014 20:45:01
!Correction: S21(Response(S21)) 
!S1P File: Measurement: S21:
# Hz S  dB   R 50
3000000000  -2.647367e+001  1.586433e+002 
3003125000  -2.782644e+001  1.542871e+002 
3006250000  -2.796316e+001  1.514771e+002 
3009375000  -2.827075e+001  1.563618e+002 
3012500000  -2.776965e+001  1.564605e+002 
3015625000  -2.680489e+001  1.489193e+002 
3018750000  -2.766140e+001  1.482779e+002 
3021875000  -2.642630e+001  1.496978e+002 
3025000000  -2.511963e+001  1.465512e+002 
3028125000  -2.415348e+001  1.419526e+002 
3031250000  -2.311640e+001  1.307549e+002 
3034375000  -2.272350e+001  1.179635e+002 
3037500000  -2.304815e+001  1.057378e+002 
3040625000  -2.436515e+001  1.005215e+002 
3043750000  -2.507819e+001  9.654398e+001 
3046875000  -2.516913e+001  9.000521e+001 
3050000000  -2.693456e+001  8.266845e+001 
3053125000  -2.713235e+001  8.937489e+001 
3056250000  -2.639341e+001  9.230630e+001 
3059375000  -2.669088e+001  9.214706e+001 
3062500000  -2.523842e+001  8.825320e+001 
3065625000  -2.499046e+001  8.277578e+001 
3068750000  -2.471942e+001  7.583418e+001 
3071875000  -2.464224e+001  7.263935e+001 
3075000000  -2.466587e+001  6.910888e+001 
3078125000  -2.434377e+001  6.442072e+001 
3081250000  -2.499156e+001  6.045199e+001 
3084375000  -2.427073e+001  5.680920e+001 
3087500000  -2.411805e+001  5.322090e+001 
3090625000  -2.380503e+001  4.345675e+001 
3093750000  -2.420440e+001  3.572387e+001 
3096875000  -2.553184e+001  2.910909e+001 
3100000000  -2.571429e+001  2.789919e+001 
3103125000  -2.606664e+001  2.937541e+001 
3106250000  -2.577822e+001  2.582246e+001 
3109375000  -2.602089e+001  2.241141e+001 
3112500000  -2.611144e+001  2.161945e+001 
3115625000  -2.594062e+001  1.724789e+001 
3118750000  -2.642116e+001  1.841862e+001 
3121875000  -2.580268e+001  1.048014e+001 
3125000000  -2.684158e+001  6.666708e+000 
3128125000  -2.814073e+001  1.466145e+001 
3131250000  -2.600470e+001  1.549754e+001 
3134375000  -2.461574e+001  2.540688e+000 
3137500000  -2.522707e+001  -1.176034e+001 
3140625000  -2.689571e+001  -1.389225e+001 
3143750000  -2.796227e+001  -9.408060e+000 
3146875000  -2.753977e+001  -7.597737e+000 
3150000000  -2.650355e+001  -5.175167e+000 
3153125000  -2.645788e+001  -1.286728e+001 
3156250000  -2.743137e+001  -7.570619e+000 
3159375000  -2.598817e+001  -4.847875e+000 
3162500000  -2.389984e+001  -1.744865e+001 
3165625000  -2.478728e+001  -2.838040e+001 
3168750000  -2.527450e+001  -2.762619e+001 
3171875000  -2.423949e+001  -3.173666e+001 
3175000000  -2.487842e+001  -3.950437e+001 
3178125000  -2.472896e+001  -3.781141e+001 
3181250000  -2.350543e+001  -4.153577e+001 
3184375000  -2.265830e+001  -5.385951e+001 
3187500000  -2.375307e+001  -6.917506e+001 
3190625000  -2.659180e+001  -7.705725e+001 
3193750000  -2.726807e+001  -6.740175e+001 
3196875000  -2.681299e+001  -6.199150e+001 
3200000000  -2.596253e+001  -6.338769e+001 
3203125000  -2.503993e+001  -6.900455e+001 
3206250000  -2.530547e+001  -7.536365e+001 
3209375000  -2.487300e+001  -8.034103e+001 
3212500000  -2.496943e+001  -8.700180e+001 
3215625000  -2.513919e+001  -9.167731e+001 
3218750000  -2.586871e+001  -9.780702e+001 
3221875000  -2.688550e+001  -1.028839e+002 
3225000000  -2.651091e+001  -1.033141e+002 
3228125000  -2.676984e+001  -1.077996e+002 
3231250000  -2.747992e+001  -1.107747e+002 
3234375000  -2.739655e+001  -1.097021e+002 
3237500000  -2.747652e+001  -1.111389e+002 
3240625000  -2.714258e+001  -1.126084e+002 
3243750000  -2.673569e+001  -1.194189e+002 
3246875000  -2.725167e+001  -1.258617e+002 
3250000000  -2.765447e+001  -1.279594e+002 
3253125000  -2.783130e+001  -1.299569e+002 
3256250000  -2.772555e+001  -1.354691e+002 
3259375000  -2.802818e+001  -1.430173e+002 
3262500000  -2.927349e+001  -1.458063e+002 
3265625000  -2.994351e+001  -1.427601e+002 
3268750000  -2.995065e+001  -1.401364e+002 
3271875000  -2.975060e+001  -1.389826e+002 
3275000000  -2.863925e+001  -1.436653e+002 
3278125000  -2.904692e+001  -1.497993e+002 
3281250000  -2.929644e+001  -1.479350e+002 
3284375000  -2.895082e+001  -1.540201e+002 
3287500000  -2.907584e+001  -1.572048e+002 
3290625000  -2.950152e+001  -1.611670e+002 
3293750000  -2.919434e+001  -1.669052e+002 
3296875000  -3.020130e+001  -1.671125e+002 
3300000000  -3.014347e+001  -1.654610e+002 
3303125000  -2.898776e+001  -1.695222e+002 
3306250000  -2.869568e+001  -1.760232e+002 
3309375000  -2.851750e+001  1.789169e+002 
3312500000  -2.857074e+001  1.687136e+002 
3315625000  -2.953800e+001  1.605920e+002 
3318750000  -3.079545e+001  1.581427e+002 
3321875000  -3.212289e+001  1.581423e+002 
3325000000  -3.267930e+001  1.615592e+002 
3328125000  -3.246411e+001  1.640242e+002 
3331250000  -3.136240e+001  1.727924e+002 
3334375000  -2.881753e+001  1.628051e+002 
3337500000  -2.880349e+001  1.447313e+002 
3340625000  -3.004443e+001  1.334955e+002 
3343750000  -3.199284e+001  1.319846e+002 
3346875000  -3.267100e+001  1.337860e+002 
3350000000  -3.198513e+001  1.320895e+002 
3353125000  -3.209255e+001  1.278374e+002 
3356250000  -3.180332e+001  1.205488e+002 
3359375000  -3.263823e+001  1.117363e+002 
3362500000  -3.395320e+001  1.063686e+002 
3365625000  -3.448365e+001  1.045861e+002 
3368750000  -3.545378e+001  1.035872e+002 
3371875000  -3.582645e+001  9.978325e+001 
3375000000  -3.747811e+001  9.771461e+001 
3378125000  -3.857013e+001  9.697355e+001 
3381250000  -4.012116e+001  1.034606e+002 
3384375000  -3.930079e+001  1.256152e+002 
3387500000  -3.635611e+001  1.125096e+002 
3390625000  -3.803421e+001  9.299256e+001 
3393750000  -3.989725e+001  9.818872e+001 
3396875000  -3.873268e+001  9.868832e+001 
3400000000  -3.884659e+001  9.434842e+001 
3403125000  -4.008143e+001  8.898317e+001 
3406250000  -4.065331e+001  9.067090e+001 
3409375000  -4.144349e+001  8.740221e+001 
3412500000  -4.224339e+001  8.869422e+001 
3415625000  -4.292020e+001  9.276062e+001 
3418750000  -4.377864e+001  9.706181e+001 
3421875000  -4.362584e+001  1.037090e+002 
3425000000  -4.293040e+001  1.076048e+002 
3428125000  -4.199662e+001  1.072634e+002 
3431250000  -4.182320e+001  1.046622e+002 
3434375000  -4.135991e+001  1.016836e+002 
3437500000  -4.228868e+001  9.985118e+001 
3440625000  -4.246627e+001  1.025879e+002 
3443750000  -4.111427e+001  1.046406e+002 
3446875000  -4.008290e+001  9.925443e+001 
3450000000  -4.019872e+001  8.999004e+001 
3453125000  -4.046338e+001  8.121783e+001 
3456250000  -4.152994e+001  7.763263e+001 
3459375000  -4.247575e+001  7.866750e+001 
3462500000  -4.257158e+001  7.962417e+001 
3465625000  -4.277626e+001  7.648704e+001 
3468750000  -4.316542e+001  7.271566e+001 
3471875000  -4.346376e+001  7.293159e+001 
3475000000  -4.310439e+001  6.906909e+001 
3478125000  -4.389639e+001  6.231206e+001 
3481250000  -4.507775e+001  6.466142e+001 
3484375000  -4.667949e+001  6.925733e+001 
3487500000  -4.594884e+001  7.238266e+001 
3490625000  -4.593050e+001  6.838258e+001 
3493750000  -4.629004e+001  6.538942e+001 
3496875000  -4.741355e+001  6.906145e+001 
3500000000  -4.837955e+001  7.424582e+001 
3503125000  -4.861366e+001  7.848728e+001 
3506250000  -4.693922e+001  8.242829e+001 
3509375000  -4.739756e+001  8.131320e+001 
3512500000  -4.773824e+001  7.868145e+001 
3515625000  -4.793097e+001  8.104550e+001 
3518750000  -4.895925e+001  8.828766e+001 
3521875000  -4.811135e+001  9.418931e+001 
3525000000  -4.830814e+001  9.444897e+001 
3528125000  -4.767661e+001  1.050922e+002 
3531250000  -4.611391e+001  1.037874e+002 
3534375000  -4.530398e+001  9.645042e+001 
3537500000  -4.475467e+001  9.401701e+001 
3540625000  -4.589732e+001  9.420435e+001 
3543750000  -4.609095e+001  9.294980e+001 
3546875000  -4.557660e+001  1.057488e+002 
3550000000  -4.325483e+001  1.099667e+002 
3553125000  -4.150576e+001  9.298878e+001 
3556250000  -4.278014e+001  8.763382e+001 
3559375000  -4.239429e+001  8.941846e+001 
3562500000  -4.105236e+001  8.213637e+001 
3565625000  -4.179533e+001  7.529459e+001 
3568750000  -4.204539e+001  7.783835e+001 
3571875000  -4.187082e+001  7.931607e+001 
3575000000  -4.124673e+001  7.461598e+001 
3578125000  -4.156211e+001  7.212571e+001 
3581250000  -4.171513e+001  7.057682e+001 
3584375000  -4.103537e+001  6.872124e+001 
3587500000  -4.033713e+001  6.413621e+001 
3590625000  -4.055442e+001  5.481293e+001 
3593750000  -4.126663e+001  5.419592e+001 
3596875000  -4.154291e+001  6.061680e+001 
3600000000  -4.005362e+001  6.023366e+001 
3603125000  -4.005991e+001  4.619601e+001 
3606250000  -4.084325e+001  4.330256e+001 
3609375000  -4.111500e+001  4.261811e+001 
3612500000  -4.178478e+001  4.239498e+001 
3615625000  -4.145492e+001  4.062697e+001 
3618750000  -4.221172e+001  4.024116e+001 
3621875000  -4.174467e+001  3.993066e+001 
3625000000  -4.200616e+001  3.989839e+001 
3628125000  -4.203483e+001  4.012699e+001 
3631250000  -4.159335e+001  3.595650e+001 
3634375000  -4.255837e+001  3.661367e+001 
3637500000  -4.209381e+001  4.145278e+001 
3640625000  -4.132673e+001  4.325282e+001 
3643750000  -4.058109e+001  3.736665e+001 
3646875000  -4.117191e+001  3.162795e+001 
3650000000  -4.172242e+001  3.219727e+001 
3653125000  -4.151110e+001  3.131314e+001 
3656250000  -4.189887e+001  3.240492e+001 
3659375000  -4.204255e+001  3.524343e+001 
3662500000  -4.118004e+001  3.302991e+001 
3665625000  -4.148004e+001  3.364174e+001 
3668750000  -4.045814e+001  3.452338e+001 
3671875000  -3.919785e+001  2.941284e+001 
3675000000  -3.993279e+001  2.525234e+001 
3678125000  -4.034912e+001  2.468074e+001 
3681250000  -3.992220e+001  2.661798e+001 
3684375000  -3.968436e+001  2.485277e+001 
3687500000  -3.970120e+001  2.404172e+001 
3690625000  -3.976453e+001  2.137460e+001 
3693750000  -4.046218e+001  2.299089e+001 
3696875000  -4.015071e+001  2.550872e+001 
3700000000  -3.902607e+001  2.443222e+001 
3703125000  -3.891986e+001  2.138779e+001 
3706250000  -3.955819e+001  2.179277e+001 
3709375000  -3.881699e+001  2.643911e+001 
3712500000  -3.738796e+001  2.534299e+001 
3715625000  -3.660551e+001  2.069184e+001 
3718750000  -3.585823e+001  1.767102e+001 
3721875000  -3.534735e+001  1.204833e+001 
3725000000  -3.523615e+001  6.843843e+000 
3728125000  -3.545170e+001  6.155679e+000 
3731250000  -3.470996e+001  5.863038e+000 
3734375000  -3.373024e+001  -3.466920e-001 
3737500000  -3.420601e+001  -7.336258e+000 
3740625000  -3.472813e+001  -1.071104e+001 
3743750000  -3.466375e+001  -1.273455e+001 
3746875000  -3.456863e+001  -1.608627e+001 
3750000000  -3.488271e+001  -1.631889e+001 
3753125000  -3.457924e+001  -1.736619e+001 
3756250000  -3.442271e+001  -1.797434e+001 
3759375000  -3.422784e+001  -1.839671e+001 
3762500000  -3.369592e+001  -2.203284e+001 
3765625000  -3.408851e+001  -2.503809e+001 
3768750000  -3.411348e+001  -2.297326e+001 
3771875000  -3.253422e+001  -2.630988e+001 
3775000000  -3.231524e+001  -3.257648e+001 
3778125000  -3.251952e+001  -3.482365e+001 
3781250000  -3.234504e+001  -3.766906e+001 
3784375000  -3.232221e+001  -4.038890e+001 
3787500000  -3.164531e+001  -4.358725e+001 
3790625000  -3.219328e+001  -4.943903e+001 
3793750000  -3.240908e+001  -4.972664e+001 
3796875000  -3.141034e+001  -5.126901e+001 
3800000000  -3.002054e+001  -5.489785e+001 
3803125000  -3.070557e+001  -6.168937e+001 
3806250000  -3.131348e+001  -6.356362e+001 
3809375000  -3.099726e+001  -6.531336e+001 
3812500000  -3.046131e+001  -7.054005e+001 
3815625000  -3.100302e+001  -7.750256e+001 
3818750000  -3.190624e+001  -7.897238e+001 
3821875000  -3.216010e+001  -7.132734e+001 
3825000000  -3.026436e+001  -6.614559e+001 
3828125000  -2.881912e+001  -7.955579e+001 
3831250000  -2.924361e+001  -9.341196e+001 
3834375000  -3.060891e+001  -9.492782e+001 
3837500000  -3.146935e+001  -8.997958e+001 
3840625000  -3.046764e+001  -9.112791e+001 
3843750000  -2.930413e+001  -1.003482e+002 
3846875000  -2.986454e+001  -1.082256e+002 
3850000000  -3.117746e+001  -1.027061e+002 
3853125000  -3.047276e+001  -1.010036e+002 
3856250000  -3.039767e+001  -1.047635e+002 
3859375000  -2.978312e+001  -1.085924e+002 
3862500000  -2.923252e+001  -1.159843e+002 
3865625000  -2.950229e+001  -1.205295e+002 
3868750000  -2.960773e+001  -1.216199e+002 
3871875000  -2.885682e+001  -1.238757e+002 
3875000000  -2.893879e+001  -1.324052e+002 
3878125000  -2.992487e+001  -1.352950e+002 
3881250000  -3.012166e+001  -1.323367e+002 
3884375000  -2.955193e+001  -1.365336e+002 
3887500000  -2.963914e+001  -1.411352e+002 
3890625000  -3.019742e+001  -1.435661e+002 
3893750000  -3.056435e+001  -1.453401e+002 
3896875000  -3.069937e+001  -1.447556e+002 
3900000000  -3.087301e+001  -1.461247e+002 
3903125000  -3.061757e+001  -1.476047e+002 
3906250000  -3.039856e+001  -1.479704e+002 
3909375000  -2.964551e+001  -1.505570e+002 
3912500000  -2.956968e+001  -1.576506e+002 
3915625000  -3.073398e+001  -1.572939e+002 
3918750000  -3.082005e+001  -1.557924e+002 
3921875000  -3.060013e+001  -1.575675e+002 
3925000000  -2.977495e+001  -1.579240e+002 
3928125000  -2.901482e+001  -1.635069e+002 
3931250000  -2.942767e+001  -1.677603e+002 
3934375000  -2.973079e+001  -1.673257e+002 
3937500000  -2.983085e+001  -1.681049e+002 
3940625000  -3.037827e+001  -1.677787e+002 
3943750000  -2.943616e+001  -1.666803e+002 
3946875000  -2.814108e+001  -1.716577e+002 
3950000000  -2.861177e+001  -1.793671e+002 
3953125000  -2.952377e+001  -1.792532e+002 
3956250000  -2.874636e+001  -1.761518e+002 
3959375000  -2.741899e+001  -1.793569e+002 
3962500000  -2.693455e+001  1.770037e+002 
3965625000  -2.650042e+001  1.683821e+002 
3968750000  -2.739410e+001  1.614198e+002 
3971875000  -2.787828e+001  1.598842e+002 
3975000000  -2.721679e+001  1.577554e+002 
3978125000  -2.699620e+001  1.568421e+002 
3981250000  -2.670619e+001  1.526411e+002 
3984375000  -2.693845e+001  1.465827e+002 
3987500000  -2.746157e+001  1.440984e+002 
3990625000  -2.749995e+001  1.430347e+002 
3993750000  -2.768586e+001  1.399329e+002 
3996875000  -2.762553e+001  1.373323e+002 
4000000000  -2.770430e+001  1.352311e+002 
4003125000  -2.829734e+001  1.374568e+002 
4006250000  -2.692840e+001  1.375251e+002 
4009375000  -2.573957e+001  1.256579e+002 
4012500000  -2.670316e+001  1.188595e+002 
4015625000  -2.792522e+001  1.188778e+002 
4018750000  -2.818690e+001  1.213462e+002 
4021875000  -2.753945e+001  1.202220e+002 
4025000000  -2.716327e+001  1.151431e+002 
4028125000  -2.709317e+001  1.109140e+002 
4031250000  -2.757620e+001  1.079454e+002 
4034375000  -2.784833e+001  1.072983e+002 
4037500000  -2.730356e+001  1.095826e+002 
4040625000  -2.724625e+001  1.057840e+002 
4043750000  -2.763825e+001  1.053285e+002 
4046875000  -2.719596e+001  1.054254e+002 
4050000000  -2.666121e+001  9.977265e+001 
4053125000  -2.715687e+001  9.717325e+001 
4056250000  -2.774488e+001  1.010374e+002 
4059375000  -2.661279e+001  1.034921e+002 
4062500000  -2.521138e+001  9.964456e+001 
4065625000  -2.501363e+001  9.449709e+001 
4068750000  -2.473780e+001  8.989586e+001 
4071875000  -2.411512e+001  8.222247e+001 
4075000000  -2.445755e+001  7.575890e+001 
4078125000  -2.501721e+001  7.463594e+001 
4081250000  -2.452569e+001  7.264524e+001 
4084375000  -2.413625e+001  6.612029e+001 
4087500000  -2.444335e+001  5.970537e+001 
4090625000  -2.502352e+001  5.853247e+001 
4093750000  -2.492137e+001  5.922638e+001 
4096875000  -2.434999e+001  5.345081e+001 
4100000000  -2.509004e+001  4.637867e+001 
4103125000  -2.594988e+001  4.705923e+001 
4106250000  -2.588354e+001  5.147518e+001 
4109375000  -2.497833e+001  5.116936e+001 
4112500000  -2.447808e+001  4.486625e+001 
4115625000  -2.472391e+001  4.044477e+001 
4118750000  -2.487130e+001  3.757357e+001 
4121875000  -2.446645e+001  3.298540e+001 
4125000000  -2.479867e+001  2.809024e+001 
4128125000  -2.582910e+001  2.762847e+001 
4131250000  -2.556985e+001  3.544907e+001 
4134375000  -2.326490e+001  3.196377e+001 
4137500000  -2.298374e+001  1.311712e+001 
4140625000  -2.509115e+001  5.616928e+000 
4143750000  -2.642654e+001  1.073251e+001 
4146875000  -2.616948e+001  1.775135e+001 
4150000000  -2.516795e+001  1.485975e+001 
4153125000  -2.504180e+001  8.651746e+000 
4156250000  -2.590462e+001  5.960336e+000 
4159375000  -2.613662e+001  9.933653e+000 
4162500000  -2.501099e+001  1.391877e+001 
4165625000  -2.390402e+001  1.019865e+001 
4168750000  -2.333486e+001  3.257088e+000 
4171875000  -2.328273e+001  -5.862689e+000 
4175000000  -2.380155e+001  -1.161593e+001 
4178125000  -2.444237e+001  -1.210422e+001 
4181250000  -2.437490e+001  -1.235191e+001 
4184375000  -2.419547e+001  -1.527338e+001 
4187500000  -2.425751e+001  -1.792862e+001 
4190625000  -2.405585e+001  -2.310921e+001 
4193750000  -2.477118e+001  -2.696872e+001 
4196875000  -2.549214e+001  -2.746833e+001 
4200000000  -2.629752e+001  -2.559422e+001 
4203125000  -2.650952e+001  -1.321067e+001 
4206250000  -2.319740e+001  -1.057672e+001 
4209375000  -2.193777e+001  -3.032534e+001 
4212500000  -2.374272e+001  -3.945790e+001 
4215625000  -2.480366e+001  -3.407962e+001 
4218750000  -2.356677e+001  -2.670663e+001 
4221875000  -2.127049e+001  -3.588197e+001 
4225000000  -2.236803e+001  -4.856306e+001 
4228125000  -2.307967e+001  -4.334335e+001 
4231250000  -2.159199e+001  -4.703054e+001 
4234375000  -2.152614e+001  -5.525340e+001 
4237500000  -2.116806e+001  -5.877607e+001 
4240625000  -2.111502e+001  -6.694556e+001 
4243750000  -2.201913e+001  -7.364175e+001 
4246875000  -2.287222e+001  -7.426307e+001 
4250000000  -2.300077e+001  -7.118371e+001 
4253125000  -2.233220e+001  -7.332520e+001 
4256250000  -2.265704e+001  -7.732607e+001 
4259375000  -2.239208e+001  -7.940683e+001 
4262500000  -2.241995e+001  -8.273442e+001 
4265625000  -2.258808e+001  -8.267145e+001 
4268750000  -2.174815e+001  -8.652528e+001 
4271875000  -2.148843e+001  -9.213574e+001 
4275000000  -2.085390e+001  -9.852035e+001 
4278125000  -2.141521e+001  -1.096025e+002 
4281250000  -2.322120e+001  -1.119502e+002 
4284375000  -2.298386e+001  -1.111534e+002 
4287500000  -2.365704e+001  -1.146890e+002 
4290625000  -2.497120e+001  -1.055817e+002 
4293750000  -2.303392e+001  -9.951320e+001 
4296875000  -2.164447e+001  -1.110738e+002 
4300000000  -2.244011e+001  -1.199466e+002 
4303125000  -2.361698e+001  -1.194245e+002 
4306250000  -2.311048e+001  -1.133114e+002 
4309375000  -2.168933e+001  -1.150514e+002 
4312500000  -2.155972e+001  -1.234580e+002 
4315625000  -2.177101e+001  -1.293293e+002 
4318750000  -2.205895e+001  -1.327121e+002 
4321875000  -2.223581e+001  -1.323684e+002 
4325000000  -2.169804e+001  -1.317786e+002 
4328125000  -2.121587e+001  -1.380041e+002 
4331250000  -2.111642e+001  -1.459223e+002 
4334375000  -2.150944e+001  -1.508029e+002 
4337500000  -2.226752e+001  -1.531736e+002 
4340625000  -2.289668e+001  -1.504243e+002 
4343750000  -2.237242e+001  -1.495928e+002 
4346875000  -2.193781e+001  -1.547025e+002 
4350000000  -2.194187e+001  -1.591924e+002 
4353125000  -2.194608e+001  -1.674591e+002 
4356250000  -2.362490e+001  -1.690057e+002 
4359375000  -2.439525e+001  -1.563029e+002 
4362500000  -2.182648e+001  -1.534178e+002 
4365625000  -2.015517e+001  -1.647898e+002 
4368750000  -2.069782e+001  -1.765857e+002 
4371875000  -2.195005e+001  -1.761410e+002 
4375000000  -2.167846e+001  -1.749357e+002 
4378125000  -2.099522e+001  1.793129e+002 
4381250000  -2.117252e+001  1.739138e+002 
4384375000  -2.097133e+001  1.694464e+002 
4387500000  -2.167434e+001  1.637344e+002 
4390625000  -2.270428e+001  1.644442e+002 
4393750000  -2.207387e+001  1.663038e+002 
4396875000  -2.141986e+001  1.644341e+002 
4400000000  -2.090421e+001  1.574645e+002 
4403125000  -2.138777e+001  1.500229e+002 
4406250000  -2.230567e+001  1.487646e+002 
4409375000  -2.223847e+001  1.462428e+002 
4412500000  -2.325290e+001  1.436161e+002 
4415625000  -2.372166e+001  1.481681e+002 
4418750000  -2.247669e+001  1.528137e+002 
