!Agilent Technologies,E8363B,MY43030201,A.06.04.32
!Agilent E8363B: A.06.04.32
!Date: Tuesday, November 11, 2014 20:45:10
!Correction: S21(Response(S21)) 
!S1P File: Measurement: S21:
# Hz S  dB   R 50
3000000000  -2.649346e+001  1.589671e+002 
3003125000  -2.788554e+001  1.544606e+002 
3006250000  -2.793488e+001  1.515689e+002 
3009375000  -2.828399e+001  1.566890e+002 
3012500000  -2.779062e+001  1.565956e+002 
3015625000  -2.679450e+001  1.493573e+002 
3018750000  -2.764745e+001  1.485471e+002 
3021875000  -2.647460e+001  1.495713e+002 
3025000000  -2.513229e+001  1.468378e+002 
3028125000  -2.417975e+001  1.421521e+002 
3031250000  -2.311114e+001  1.310465e+002 
3034375000  -2.274875e+001  1.181101e+002 
3037500000  -2.306852e+001  1.059618e+002 
3040625000  -2.438329e+001  1.008159e+002 
3043750000  -2.511161e+001  9.658988e+001 
3046875000  -2.516610e+001  9.002290e+001 
3050000000  -2.693670e+001  8.283933e+001 
3053125000  -2.719731e+001  8.953802e+001 
3056250000  -2.644563e+001  9.204678e+001 
3059375000  -2.672218e+001  9.235509e+001 
3062500000  -2.523415e+001  8.841693e+001 
3065625000  -2.502863e+001  8.294606e+001 
3068750000  -2.472435e+001  7.603942e+001 
3071875000  -2.467733e+001  7.278963e+001 
3075000000  -2.464356e+001  6.919551e+001 
3078125000  -2.433799e+001  6.475684e+001 
3081250000  -2.500670e+001  6.053646e+001 
3084375000  -2.426612e+001  5.689315e+001 
3087500000  -2.411864e+001  5.357849e+001 
3090625000  -2.381636e+001  4.369712e+001 
3093750000  -2.419854e+001  3.557509e+001 
3096875000  -2.552740e+001  2.941536e+001 
3100000000  -2.569204e+001  2.807828e+001 
3103125000  -2.604524e+001  2.965150e+001 
3106250000  -2.577644e+001  2.603872e+001 
3109375000  -2.602180e+001  2.258391e+001 
3112500000  -2.613815e+001  2.181509e+001 
3115625000  -2.592790e+001  1.736716e+001 
3118750000  -2.644893e+001  1.850480e+001 
3121875000  -2.575241e+001  1.053803e+001 
3125000000  -2.684496e+001  6.946805e+000 
3128125000  -2.813888e+001  1.473975e+001 
3131250000  -2.600468e+001  1.575680e+001 
3134375000  -2.461145e+001  2.330205e+000 
3137500000  -2.525570e+001  -1.187572e+001 
3140625000  -2.689572e+001  -1.353219e+001 
3143750000  -2.787677e+001  -9.197504e+000 
3146875000  -2.753220e+001  -7.480990e+000 
3150000000  -2.651213e+001  -5.098642e+000 
3153125000  -2.644954e+001  -1.286898e+001 
3156250000  -2.745358e+001  -7.742218e+000 
3159375000  -2.595313e+001  -4.645345e+000 
3162500000  -2.387564e+001  -1.722267e+001 
3165625000  -2.477749e+001  -2.815102e+001 
3168750000  -2.524757e+001  -2.757649e+001 
3171875000  -2.422047e+001  -3.155204e+001 
3175000000  -2.485646e+001  -3.921550e+001 
3178125000  -2.470812e+001  -3.771468e+001 
3181250000  -2.352642e+001  -4.150334e+001 
3184375000  -2.266776e+001  -5.391192e+001 
3187500000  -2.375667e+001  -6.922608e+001 
3190625000  -2.658042e+001  -7.709863e+001 
3193750000  -2.716632e+001  -6.739399e+001 
3196875000  -2.678739e+001  -6.172155e+001 
3200000000  -2.593010e+001  -6.353542e+001 
3203125000  -2.504426e+001  -6.898312e+001 
3206250000  -2.534038e+001  -7.504416e+001 
3209375000  -2.483949e+001  -8.018613e+001 
3212500000  -2.495110e+001  -8.673318e+001 
3215625000  -2.508674e+001  -9.157365e+001 
3218750000  -2.586047e+001  -9.775880e+001 
3221875000  -2.687070e+001  -1.028731e+002 
3225000000  -2.649799e+001  -1.030732e+002 
3228125000  -2.674561e+001  -1.075773e+002 
3231250000  -2.750822e+001  -1.107151e+002 
3234375000  -2.740892e+001  -1.096302e+002 
3237500000  -2.742738e+001  -1.108812e+002 
3240625000  -2.712433e+001  -1.126330e+002 
3243750000  -2.675017e+001  -1.191173e+002 
3246875000  -2.720319e+001  -1.259510e+002 
3250000000  -2.765212e+001  -1.277835e+002 
3253125000  -2.784105e+001  -1.294270e+002 
3256250000  -2.772142e+001  -1.352679e+002 
3259375000  -2.800459e+001  -1.426768e+002 
3262500000  -2.920927e+001  -1.457167e+002 
3265625000  -2.996341e+001  -1.427658e+002 
3268750000  -2.992363e+001  -1.398456e+002 
3271875000  -2.972178e+001  -1.388990e+002 
3275000000  -2.861040e+001  -1.436783e+002 
3278125000  -2.904106e+001  -1.498516e+002 
3281250000  -2.933760e+001  -1.483371e+002 
3284375000  -2.889350e+001  -1.541653e+002 
3287500000  -2.906522e+001  -1.571316e+002 
3290625000  -2.951003e+001  -1.609938e+002 
3293750000  -2.914385e+001  -1.668152e+002 
3296875000  -3.019078e+001  -1.664820e+002 
3300000000  -3.012365e+001  -1.658255e+002 
3303125000  -2.895959e+001  -1.692134e+002 
3306250000  -2.876093e+001  -1.758112e+002 
3309375000  -2.848698e+001  1.789738e+002 
3312500000  -2.854238e+001  1.687376e+002 
3315625000  -2.948446e+001  1.607207e+002 
3318750000  -3.079596e+001  1.580810e+002 
3321875000  -3.209388e+001  1.577018e+002 
3325000000  -3.259626e+001  1.620467e+002 
3328125000  -3.248999e+001  1.649133e+002 
3331250000  -3.129020e+001  1.717405e+002 
3334375000  -2.877306e+001  1.628428e+002 
3337500000  -2.879612e+001  1.447076e+002 
3340625000  -3.002269e+001  1.334658e+002 
3343750000  -3.200521e+001  1.317439e+002 
3346875000  -3.257106e+001  1.330771e+002 
3350000000  -3.190734e+001  1.320460e+002 
3353125000  -3.194635e+001  1.281746e+002 
3356250000  -3.178040e+001  1.205262e+002 
3359375000  -3.256076e+001  1.121741e+002 
3362500000  -3.389481e+001  1.063795e+002 
3365625000  -3.445942e+001  1.054653e+002 
3368750000  -3.542897e+001  1.035001e+002 
3371875000  -3.592242e+001  1.005867e+002 
3375000000  -3.732816e+001  9.845337e+001 
3378125000  -3.850538e+001  9.694116e+001 
3381250000  -3.997323e+001  1.032746e+002 
3384375000  -3.919249e+001  1.262435e+002 
3387500000  -3.604663e+001  1.127679e+002 
3390625000  -3.782394e+001  9.368672e+001 
3393750000  -3.965471e+001  9.714117e+001 
3396875000  -3.859318e+001  1.016998e+002 
3400000000  -3.863000e+001  9.416370e+001 
3403125000  -3.979102e+001  8.954289e+001 
3406250000  -4.051094e+001  9.187390e+001 
3409375000  -4.151093e+001  8.688909e+001 
3412500000  -4.228449e+001  8.799373e+001 
3415625000  -4.299372e+001  9.404475e+001 
3418750000  -4.348452e+001  9.700423e+001 
3421875000  -4.379369e+001  1.025270e+002 
3425000000  -4.286143e+001  1.099369e+002 
3428125000  -4.160569e+001  1.067392e+002 
3431250000  -4.152174e+001  1.041045e+002 
3434375000  -4.157611e+001  1.013421e+002 
3437500000  -4.198388e+001  9.882098e+001 
3440625000  -4.222854e+001  1.026652e+002 
3443750000  -4.103332e+001  1.043450e+002 
3446875000  -3.988816e+001  9.854351e+001 
3450000000  -3.996033e+001  9.157829e+001 
3453125000  -4.023244e+001  8.217661e+001 
3456250000  -4.145256e+001  7.743192e+001 
3459375000  -4.240861e+001  8.015357e+001 
3462500000  -4.252025e+001  7.900847e+001 
3465625000  -4.279693e+001  7.463362e+001 
3468750000  -4.305086e+001  7.140482e+001 
3471875000  -4.282776e+001  7.543113e+001 
3475000000  -4.312095e+001  7.107341e+001 
3478125000  -4.376516e+001  6.507651e+001 
3481250000  -4.484633e+001  6.093111e+001 
3484375000  -4.640175e+001  6.981915e+001 
3487500000  -4.613222e+001  6.974487e+001 
3490625000  -4.572745e+001  6.837970e+001 
3493750000  -4.603330e+001  6.805323e+001 
3496875000  -4.733704e+001  6.877664e+001 
3500000000  -4.808312e+001  7.254292e+001 
3503125000  -4.872619e+001  8.058820e+001 
3506250000  -4.667027e+001  8.584837e+001 
3509375000  -4.715936e+001  7.993964e+001 
3512500000  -4.784061e+001  7.651477e+001 
3515625000  -4.789751e+001  7.940219e+001 
3518750000  -4.896663e+001  8.760269e+001 
3521875000  -4.812210e+001  9.297407e+001 
3525000000  -4.866214e+001  9.220622e+001 
3528125000  -4.745936e+001  1.014911e+002 
3531250000  -4.592125e+001  1.026730e+002 
3534375000  -4.518908e+001  9.418890e+001 
3537500000  -4.504963e+001  9.025032e+001 
3540625000  -4.565800e+001  9.182327e+001 
3543750000  -4.593208e+001  9.421717e+001 
3546875000  -4.604702e+001  1.071975e+002 
3550000000  -4.331302e+001  1.082605e+002 
3553125000  -4.131580e+001  9.467445e+001 
3556250000  -4.239429e+001  8.630296e+001 
3559375000  -4.225085e+001  8.920453e+001 
3562500000  -4.109731e+001  8.206307e+001 
3565625000  -4.215295e+001  7.541984e+001 
3568750000  -4.216915e+001  7.871086e+001 
3571875000  -4.163894e+001  7.827185e+001 
3575000000  -4.136563e+001  7.285094e+001 
3578125000  -4.160674e+001  6.950124e+001 
3581250000  -4.173656e+001  6.796904e+001 
3584375000  -4.121411e+001  7.028693e+001 
3587500000  -3.996305e+001  6.339621e+001 
3590625000  -4.042345e+001  5.653097e+001 
3593750000  -4.164328e+001  5.454070e+001 
3596875000  -4.184185e+001  6.196154e+001 
3600000000  -3.983126e+001  6.029476e+001 
3603125000  -4.009052e+001  4.676336e+001 
3606250000  -4.072223e+001  4.374121e+001 
3609375000  -4.114653e+001  4.437314e+001 
3612500000  -4.155156e+001  4.343218e+001 
3615625000  -4.152765e+001  3.915987e+001 
3618750000  -4.217981e+001  4.193285e+001 
3621875000  -4.172210e+001  3.916536e+001 
3625000000  -4.189956e+001  4.017342e+001 
3628125000  -4.179306e+001  4.225764e+001 
3631250000  -4.142537e+001  3.779956e+001 
3634375000  -4.258058e+001  3.666925e+001 
3637500000  -4.220367e+001  4.343147e+001 
3640625000  -4.102054e+001  4.319580e+001 
3643750000  -4.078802e+001  3.765909e+001 
3646875000  -4.137883e+001  3.052666e+001 
3650000000  -4.162850e+001  3.169076e+001 
3653125000  -4.152620e+001  2.971473e+001 
3656250000  -4.153248e+001  3.051576e+001 
3659375000  -4.209655e+001  3.253753e+001 
3662500000  -4.125753e+001  3.275134e+001 
3665625000  -4.131087e+001  3.216731e+001 
3668750000  -4.042764e+001  3.454824e+001 
3671875000  -3.931338e+001  2.923652e+001 
3675000000  -3.992999e+001  2.416996e+001 
3678125000  -4.042485e+001  2.467331e+001 
3681250000  -3.987988e+001  2.638538e+001 
3684375000  -3.988033e+001  2.425589e+001 
3687500000  -3.989627e+001  2.359604e+001 
3690625000  -3.970858e+001  2.077114e+001 
3693750000  -4.035489e+001  2.222737e+001 
3696875000  -4.032334e+001  2.575795e+001 
3700000000  -3.914769e+001  2.442786e+001 
3703125000  -3.875384e+001  2.070946e+001 
3706250000  -3.941227e+001  2.321872e+001 
3709375000  -3.872014e+001  2.671659e+001 
3712500000  -3.766258e+001  2.539139e+001 
3715625000  -3.654149e+001  1.919874e+001 
3718750000  -3.578964e+001  1.727439e+001 
3721875000  -3.540590e+001  1.155974e+001 
3725000000  -3.521175e+001  7.953024e+000 
3728125000  -3.533655e+001  6.822831e+000 
3731250000  -3.470180e+001  6.266596e+000 
3734375000  -3.365921e+001  -7.129833e-001 
3737500000  -3.414072e+001  -7.549387e+000 
3740625000  -3.476329e+001  -1.110457e+001 
3743750000  -3.458558e+001  -1.292912e+001 
3746875000  -3.447000e+001  -1.583687e+001 
3750000000  -3.507486e+001  -1.691277e+001 
3753125000  -3.449900e+001  -1.737568e+001 
3756250000  -3.441116e+001  -1.790001e+001 
3759375000  -3.420652e+001  -1.856423e+001 
3762500000  -3.350608e+001  -2.280239e+001 
3765625000  -3.407705e+001  -2.537514e+001 
3768750000  -3.415771e+001  -2.418476e+001 
3771875000  -3.241906e+001  -2.510722e+001 
3775000000  -3.212214e+001  -3.348877e+001 
3778125000  -3.244244e+001  -3.554140e+001 
3781250000  -3.225510e+001  -3.855524e+001 
3784375000  -3.219591e+001  -4.050843e+001 
3787500000  -3.152795e+001  -4.350562e+001 
3790625000  -3.220330e+001  -5.053107e+001 
3793750000  -3.234416e+001  -5.016743e+001 
3796875000  -3.154685e+001  -5.231662e+001 
3800000000  -2.994858e+001  -5.557510e+001 
3803125000  -3.067466e+001  -6.224731e+001 
3806250000  -3.128870e+001  -6.462610e+001 
3809375000  -3.113135e+001  -6.573207e+001 
3812500000  -3.038287e+001  -7.070921e+001 
3815625000  -3.091529e+001  -7.774827e+001 
3818750000  -3.184626e+001  -7.893161e+001 
3821875000  -3.206540e+001  -7.147381e+001 
3825000000  -3.023772e+001  -6.694254e+001 
3828125000  -2.875256e+001  -7.997878e+001 
3831250000  -2.936712e+001  -9.416062e+001 
3834375000  -3.060113e+001  -9.559466e+001 
3837500000  -3.149246e+001  -9.017839e+001 
3840625000  -3.056265e+001  -9.143513e+001 
3843750000  -2.929633e+001  -1.009615e+002 
3846875000  -2.992481e+001  -1.082457e+002 
3850000000  -3.129710e+001  -1.030793e+002 
3853125000  -3.060900e+001  -9.985911e+001 
3856250000  -3.044707e+001  -1.050963e+002 
3859375000  -2.983496e+001  -1.093250e+002 
3862500000  -2.937536e+001  -1.160407e+002 
3865625000  -2.947687e+001  -1.212148e+002 
3868750000  -2.950413e+001  -1.217086e+002 
3871875000  -2.885398e+001  -1.244809e+002 
3875000000  -2.886526e+001  -1.331667e+002 
3878125000  -2.990676e+001  -1.358632e+002 
3881250000  -3.006100e+001  -1.326229e+002 
3884375000  -2.953049e+001  -1.375968e+002 
3887500000  -2.963030e+001  -1.414626e+002 
3890625000  -3.012415e+001  -1.441418e+002 
3893750000  -3.056307e+001  -1.450770e+002 
3896875000  -3.062089e+001  -1.447905e+002 
3900000000  -3.087328e+001  -1.462526e+002 
3903125000  -3.060872e+001  -1.479052e+002 
3906250000  -3.030637e+001  -1.490460e+002 
3909375000  -2.961893e+001  -1.507286e+002 
3912500000  -2.963724e+001  -1.579335e+002 
3915625000  -3.085963e+001  -1.583179e+002 
3918750000  -3.084069e+001  -1.558892e+002 
3921875000  -3.064757e+001  -1.577467e+002 
3925000000  -2.976258e+001  -1.585746e+002 
3928125000  -2.906420e+001  -1.642140e+002 
3931250000  -2.942292e+001  -1.677661e+002 
3934375000  -2.971082e+001  -1.678211e+002 
3937500000  -2.990654e+001  -1.685378e+002 
3940625000  -3.031506e+001  -1.680390e+002 
3943750000  -2.942363e+001  -1.671194e+002 
3946875000  -2.812916e+001  -1.721458e+002 
3950000000  -2.868209e+001  -1.797431e+002 
3953125000  -2.964966e+001  -1.794046e+002 
3956250000  -2.883218e+001  -1.762576e+002 
3959375000  -2.746165e+001  -1.799336e+002 
3962500000  -2.689389e+001  1.770578e+002 
3965625000  -2.656640e+001  1.680318e+002 
3968750000  -2.746306e+001  1.612025e+002 
3971875000  -2.790283e+001  1.597310e+002 
3975000000  -2.718758e+001  1.580912e+002 
3978125000  -2.693402e+001  1.566459e+002 
3981250000  -2.673339e+001  1.523500e+002 
3984375000  -2.690534e+001  1.458646e+002 
3987500000  -2.745582e+001  1.437144e+002 
3990625000  -2.743314e+001  1.427094e+002 
3993750000  -2.768060e+001  1.397941e+002 
3996875000  -2.766719e+001  1.373340e+002 
4000000000  -2.770494e+001  1.351232e+002 
4003125000  -2.830750e+001  1.370133e+002 
4006250000  -2.696478e+001  1.373527e+002 
4009375000  -2.574744e+001  1.256405e+002 
4012500000  -2.670758e+001  1.179648e+002 
4015625000  -2.791915e+001  1.181191e+002 
4018750000  -2.821026e+001  1.206320e+002 
4021875000  -2.743402e+001  1.187764e+002 
4025000000  -2.714933e+001  1.142600e+002 
4028125000  -2.711185e+001  1.105145e+002 
4031250000  -2.759494e+001  1.067730e+002 
4034375000  -2.785487e+001  1.063447e+002 
4037500000  -2.730413e+001  1.089363e+002 
4040625000  -2.723290e+001  1.054690e+002 
4043750000  -2.764219e+001  1.048060e+002 
4046875000  -2.714754e+001  1.044058e+002 
4050000000  -2.665636e+001  9.879537e+001 
4053125000  -2.719344e+001  9.643746e+001 
4056250000  -2.778096e+001  1.008119e+002 
4059375000  -2.665316e+001  1.029249e+002 
4062500000  -2.520644e+001  9.854377e+001 
4065625000  -2.505469e+001  9.374760e+001 
4068750000  -2.476366e+001  8.919759e+001 
4071875000  -2.415244e+001  8.160609e+001 
4075000000  -2.446373e+001  7.543241e+001 
4078125000  -2.502914e+001  7.417394e+001 
4081250000  -2.461125e+001  7.195279e+001 
4084375000  -2.420770e+001  6.509083e+001 
4087500000  -2.452051e+001  5.925329e+001 
4090625000  -2.509408e+001  5.790529e+001 
4093750000  -2.493349e+001  5.872049e+001 
4096875000  -2.445184e+001  5.314283e+001 
4100000000  -2.512713e+001  4.583002e+001 
4103125000  -2.599853e+001  4.637547e+001 
4106250000  -2.594456e+001  5.087428e+001 
4109375000  -2.504922e+001  5.071444e+001 
4112500000  -2.445247e+001  4.416941e+001 
4115625000  -2.472823e+001  4.010507e+001 
4118750000  -2.490860e+001  3.693533e+001 
4121875000  -2.448854e+001  3.292891e+001 
4125000000  -2.478943e+001  2.757748e+001 
4128125000  -2.578264e+001  2.719066e+001 
4131250000  -2.557180e+001  3.487799e+001 
4134375000  -2.329762e+001  3.127034e+001 
4137500000  -2.296348e+001  1.275128e+001 
4140625000  -2.508202e+001  4.963634e+000 
4143750000  -2.652948e+001  9.609521e+000 
4146875000  -2.613647e+001  1.742659e+001 
4150000000  -2.522458e+001  1.412707e+001 
4153125000  -2.497966e+001  7.767103e+000 
4156250000  -2.582979e+001  4.727480e+000 
4159375000  -2.621549e+001  9.053013e+000 
4162500000  -2.507076e+001  1.343539e+001 
4165625000  -2.396224e+001  9.378427e+000 
4168750000  -2.330980e+001  2.175735e+000 
4171875000  -2.332098e+001  -6.453271e+000 
4175000000  -2.392035e+001  -1.235052e+001 
4178125000  -2.450809e+001  -1.226984e+001 
4181250000  -2.442280e+001  -1.284627e+001 
4184375000  -2.430443e+001  -1.593294e+001 
4187500000  -2.434429e+001  -1.877106e+001 
4190625000  -2.410389e+001  -2.361855e+001 
4193750000  -2.485964e+001  -2.767076e+001 
4196875000  -2.558660e+001  -2.809475e+001 
4200000000  -2.636122e+001  -2.610719e+001 
4203125000  -2.659845e+001  -1.356367e+001 
4206250000  -2.328514e+001  -1.119583e+001 
4209375000  -2.194248e+001  -3.109073e+001 
4212500000  -2.386456e+001  -4.011356e+001 
4215625000  -2.482857e+001  -3.436974e+001 
4218750000  -2.360821e+001  -2.732670e+001 
4221875000  -2.129272e+001  -3.641982e+001 
4225000000  -2.248093e+001  -4.921235e+001 
4228125000  -2.324954e+001  -4.437262e+001 
4231250000  -2.163869e+001  -4.738215e+001 
4234375000  -2.157481e+001  -5.574844e+001 
4237500000  -2.114698e+001  -5.881776e+001 
4240625000  -2.113389e+001  -6.740771e+001 
4243750000  -2.206153e+001  -7.415018e+001 
4246875000  -2.293851e+001  -7.446856e+001 
4250000000  -2.301577e+001  -7.165413e+001 
4253125000  -2.240804e+001  -7.362619e+001 
4256250000  -2.269675e+001  -7.787760e+001 
4259375000  -2.242617e+001  -7.955071e+001 
4262500000  -2.245322e+001  -8.368044e+001 
4265625000  -2.265659e+001  -8.325791e+001 
4268750000  -2.179977e+001  -8.730943e+001 
4271875000  -2.154756e+001  -9.271546e+001 
4275000000  -2.092096e+001  -9.892046e+001 
4278125000  -2.143804e+001  -1.103942e+002 
4281250000  -2.331431e+001  -1.124847e+002 
4284375000  -2.301666e+001  -1.114273e+002 
4287500000  -2.372320e+001  -1.153909e+002 
4290625000  -2.512508e+001  -1.061003e+002 
4293750000  -2.307662e+001  -1.001425e+002 
4296875000  -2.172250e+001  -1.113475e+002 
4300000000  -2.251880e+001  -1.206687e+002 
4303125000  -2.366192e+001  -1.203004e+002 
4306250000  -2.317675e+001  -1.136865e+002 
4309375000  -2.176044e+001  -1.156536e+002 
4312500000  -2.164357e+001  -1.239498e+002 
4315625000  -2.184032e+001  -1.298044e+002 
4318750000  -2.212502e+001  -1.333691e+002 
4321875000  -2.232069e+001  -1.329394e+002 
4325000000  -2.174980e+001  -1.320432e+002 
4328125000  -2.126223e+001  -1.382916e+002 
4331250000  -2.120092e+001  -1.461123e+002 
4334375000  -2.160349e+001  -1.509278e+002 
4337500000  -2.236349e+001  -1.533099e+002 
4340625000  -2.297829e+001  -1.504942e+002 
4343750000  -2.243016e+001  -1.500054e+002 
4346875000  -2.202244e+001  -1.551988e+002 
4350000000  -2.199985e+001  -1.597318e+002 
4353125000  -2.200159e+001  -1.674464e+002 
4356250000  -2.364636e+001  -1.688157e+002 
4359375000  -2.435471e+001  -1.562381e+002 
4362500000  -2.187504e+001  -1.535572e+002 
4365625000  -2.014715e+001  -1.650149e+002 
4368750000  -2.078452e+001  -1.769091e+002 
4371875000  -2.203219e+001  -1.764015e+002 
4375000000  -2.172153e+001  -1.752549e+002 
4378125000  -2.105528e+001  1.790844e+002 
4381250000  -2.121140e+001  1.736511e+002 
4384375000  -2.103365e+001  1.693778e+002 
4387500000  -2.170433e+001  1.636249e+002 
4390625000  -2.276410e+001  1.640653e+002 
4393750000  -2.210917e+001  1.664446e+002 
4396875000  -2.142262e+001  1.642751e+002 
4400000000  -2.093486e+001  1.573550e+002 
4403125000  -2.140244e+001  1.498686e+002 
4406250000  -2.232198e+001  1.485011e+002 
4409375000  -2.224204e+001  1.459939e+002 
4412500000  -2.326899e+001  1.431818e+002 
4415625000  -2.371322e+001  1.476068e+002 
4418750000  -2.253061e+001  1.523486e+002 
