!Agilent Technologies,E8363B,MY43030201,A.06.04.32
!Agilent E8363B: A.06.04.32
!Date: Tuesday, November 11, 2014 20:58:04
!Correction: S21(Response(S21)) 
!S1P File: Measurement: S21:
# Hz S  dB   R 50
3000000000  -2.647765e+001  1.467415e+002 
3003125000  -2.795342e+001  1.423008e+002 
3006250000  -2.793337e+001  1.396216e+002 
3009375000  -2.835220e+001  1.449253e+002 
3012500000  -2.776822e+001  1.441617e+002 
3015625000  -2.684687e+001  1.372389e+002 
3018750000  -2.768759e+001  1.362612e+002 
3021875000  -2.640102e+001  1.377134e+002 
3025000000  -2.507773e+001  1.346553e+002 
3028125000  -2.412291e+001  1.292963e+002 
3031250000  -2.310974e+001  1.181446e+002 
3034375000  -2.273912e+001  1.048634e+002 
3037500000  -2.312195e+001  9.308452e+001 
3040625000  -2.445523e+001  8.840041e+001 
3043750000  -2.516003e+001  8.398652e+001 
3046875000  -2.529863e+001  7.770529e+001 
3050000000  -2.701101e+001  7.072395e+001 
3053125000  -2.709909e+001  7.775395e+001 
3056250000  -2.649479e+001  8.038993e+001 
3059375000  -2.665173e+001  8.023079e+001 
3062500000  -2.518349e+001  7.608382e+001 
3065625000  -2.495626e+001  7.028605e+001 
3068750000  -2.465823e+001  6.354781e+001 
3071875000  -2.464215e+001  6.063098e+001 
3075000000  -2.454179e+001  5.667834e+001 
3078125000  -2.432234e+001  5.199969e+001 
3081250000  -2.496969e+001  4.777218e+001 
3084375000  -2.417164e+001  4.416232e+001 
3087500000  -2.408500e+001  4.046508e+001 
3090625000  -2.378772e+001  3.056451e+001 
3093750000  -2.425832e+001  2.295936e+001 
3096875000  -2.555471e+001  1.673502e+001 
3100000000  -2.563197e+001  1.558338e+001 
3103125000  -2.607205e+001  1.676554e+001 
3106250000  -2.576751e+001  1.319501e+001 
3109375000  -2.603654e+001  9.944016e+000 
3112500000  -2.609888e+001  8.638468e+000 
3115625000  -2.591358e+001  4.680856e+000 
3118750000  -2.642169e+001  5.792784e+000 
3121875000  -2.574597e+001  -2.192493e+000 
3125000000  -2.697059e+001  -5.758977e+000 
3128125000  -2.815188e+001  2.674113e+000 
3131250000  -2.586272e+001  2.875541e+000 
3134375000  -2.460271e+001  -1.090159e+001 
3137500000  -2.530377e+001  -2.420544e+001 
3140625000  -2.688465e+001  -2.575586e+001 
3143750000  -2.790139e+001  -2.210612e+001 
3146875000  -2.748274e+001  -1.979052e+001 
3150000000  -2.650903e+001  -1.767291e+001 
3153125000  -2.646974e+001  -2.580220e+001 
3156250000  -2.748387e+001  -1.988425e+001 
3159375000  -2.585259e+001  -1.722162e+001 
3162500000  -2.383666e+001  -3.018312e+001 
3165625000  -2.481360e+001  -4.105708e+001 
3168750000  -2.515895e+001  -4.004250e+001 
3171875000  -2.419896e+001  -4.453611e+001 
3175000000  -2.488216e+001  -5.211100e+001 
3178125000  -2.462283e+001  -5.047343e+001 
3181250000  -2.346718e+001  -5.479782e+001 
3184375000  -2.272060e+001  -6.684995e+001 
3187500000  -2.389181e+001  -8.182295e+001 
3190625000  -2.654866e+001  -8.920784e+001 
3193750000  -2.716338e+001  -7.981118e+001 
3196875000  -2.676406e+001  -7.412200e+001 
3200000000  -2.584418e+001  -7.612074e+001 
3203125000  -2.501341e+001  -8.193014e+001 
3206250000  -2.531315e+001  -8.827859e+001 
3209375000  -2.479935e+001  -9.320995e+001 
3212500000  -2.495438e+001  -9.976017e+001 
3215625000  -2.513956e+001  -1.037266e+002 
3218750000  -2.588130e+001  -1.103929e+002 
3221875000  -2.681703e+001  -1.155438e+002 
3225000000  -2.644712e+001  -1.159857e+002 
3228125000  -2.676776e+001  -1.208553e+002 
3231250000  -2.751156e+001  -1.229913e+002 
3234375000  -2.735327e+001  -1.219992e+002 
3237500000  -2.736718e+001  -1.238019e+002 
3240625000  -2.701993e+001  -1.256517e+002 
3243750000  -2.671525e+001  -1.323302e+002 
3246875000  -2.716226e+001  -1.387825e+002 
3250000000  -2.765525e+001  -1.406183e+002 
3253125000  -2.775572e+001  -1.422351e+002 
3256250000  -2.770131e+001  -1.479846e+002 
3259375000  -2.797209e+001  -1.560401e+002 
3262500000  -2.926850e+001  -1.586936e+002 
3265625000  -2.987498e+001  -1.550208e+002 
3268750000  -2.981176e+001  -1.524315e+002 
3271875000  -2.955922e+001  -1.516313e+002 
3275000000  -2.850417e+001  -1.568660e+002 
3278125000  -2.902036e+001  -1.629111e+002 
3281250000  -2.929236e+001  -1.610568e+002 
3284375000  -2.888322e+001  -1.668665e+002 
3287500000  -2.904313e+001  -1.695186e+002 
3290625000  -2.942003e+001  -1.739630e+002 
3293750000  -2.912228e+001  -1.794319e+002 
3296875000  -3.013312e+001  -1.791774e+002 
3300000000  -2.999151e+001  -1.781993e+002 
3303125000  -2.882774e+001  1.776967e+002 
3306250000  -2.865781e+001  1.710922e+002 
3309375000  -2.843446e+001  1.661498e+002 
3312500000  -2.850373e+001  1.555204e+002 
3315625000  -2.948059e+001  1.479126e+002 
3318750000  -3.087114e+001  1.451912e+002 
3321875000  -3.214823e+001  1.450874e+002 
3325000000  -3.260228e+001  1.506559e+002 
3328125000  -3.238422e+001  1.525898e+002 
3331250000  -3.113711e+001  1.600929e+002 
3334375000  -2.858413e+001  1.497354e+002 
3337500000  -2.864360e+001  1.311120e+002 
3340625000  -3.006496e+001  1.200202e+002 
3343750000  -3.204044e+001  1.190750e+002 
3346875000  -3.236959e+001  1.208750e+002 
3350000000  -3.185896e+001  1.199421e+002 
3353125000  -3.193441e+001  1.152499e+002 
3356250000  -3.164680e+001  1.073580e+002 
3359375000  -3.251922e+001  9.967927e+001 
3362500000  -3.387239e+001  9.400810e+001 
3365625000  -3.444467e+001  9.306895e+001 
3368750000  -3.534109e+001  9.078548e+001 
3371875000  -3.579699e+001  8.730442e+001 
3375000000  -3.744577e+001  8.468684e+001 
3378125000  -3.844809e+001  8.387656e+001 
3381250000  -4.018212e+001  9.286041e+001 
3384375000  -3.904833e+001  1.138984e+002 
3387500000  -3.591945e+001  9.981778e+001 
3390625000  -3.765651e+001  8.001903e+001 
3393750000  -3.956150e+001  8.617790e+001 
3396875000  -3.862972e+001  8.970776e+001 
3400000000  -3.864468e+001  8.176267e+001 
3403125000  -3.957525e+001  7.762014e+001 
3406250000  -4.039457e+001  7.856644e+001 
3409375000  -4.073112e+001  7.546358e+001 
3412500000  -4.188216e+001  7.746735e+001 
3415625000  -4.239308e+001  8.162459e+001 
3418750000  -4.306297e+001  8.684988e+001 
3421875000  -4.330852e+001  9.238410e+001 
3425000000  -4.246314e+001  9.510062e+001 
3428125000  -4.129424e+001  9.355647e+001 
3431250000  -4.139719e+001  9.052444e+001 
3434375000  -4.081609e+001  8.871474e+001 
3437500000  -4.168005e+001  8.584947e+001 
3440625000  -4.193858e+001  8.957571e+001 
3443750000  -4.048042e+001  9.234547e+001 
3446875000  -3.974945e+001  8.622411e+001 
3450000000  -3.970732e+001  7.643817e+001 
3453125000  -3.983898e+001  6.793311e+001 
3456250000  -4.113478e+001  6.375340e+001 
3459375000  -4.206110e+001  6.619321e+001 
3462500000  -4.187302e+001  6.824202e+001 
3465625000  -4.217172e+001  6.241861e+001 
3468750000  -4.275683e+001  6.043773e+001 
3471875000  -4.290133e+001  6.001452e+001 
3475000000  -4.250874e+001  5.447209e+001 
3478125000  -4.321209e+001  5.043187e+001 
3481250000  -4.437174e+001  4.942817e+001 
3484375000  -4.601370e+001  5.377323e+001 
3487500000  -4.540653e+001  5.571167e+001 
3490625000  -4.496169e+001  5.403461e+001 
3493750000  -4.566065e+001  4.885506e+001 
3496875000  -4.695235e+001  5.066323e+001 
3500000000  -4.739611e+001  6.178488e+001 
3503125000  -4.725198e+001  6.484172e+001 
3506250000  -4.633827e+001  6.879343e+001 
3509375000  -4.663428e+001  6.321508e+001 
3512500000  -4.722766e+001  6.276798e+001 
3515625000  -4.750288e+001  6.297507e+001 
3518750000  -4.785379e+001  7.211906e+001 
3521875000  -4.792266e+001  6.776580e+001 
3525000000  -4.816831e+001  7.274057e+001 
3528125000  -4.774636e+001  8.755666e+001 
3531250000  -4.587144e+001  8.727684e+001 
3534375000  -4.513118e+001  7.857129e+001 
3537500000  -4.468898e+001  7.462427e+001 
3540625000  -4.541297e+001  7.558775e+001 
3543750000  -4.593803e+001  8.033324e+001 
3546875000  -4.577084e+001  9.115045e+001 
3550000000  -4.278157e+001  9.396590e+001 
3553125000  -4.146464e+001  7.677239e+001 
3556250000  -4.224767e+001  7.051534e+001 
3559375000  -4.209210e+001  7.244391e+001 
3562500000  -4.084647e+001  6.676431e+001 
3565625000  -4.183398e+001  6.079646e+001 
3568750000  -4.176018e+001  6.335247e+001 
3571875000  -4.168246e+001  6.259151e+001 
3575000000  -4.081645e+001  5.930754e+001 
3578125000  -4.150535e+001  5.458311e+001 
3581250000  -4.155947e+001  5.451141e+001 
3584375000  -4.083773e+001  5.384600e+001 
3587500000  -3.980939e+001  4.644429e+001 
3590625000  -4.033780e+001  3.853253e+001 
3593750000  -4.135570e+001  3.781197e+001 
3596875000  -4.125431e+001  4.828086e+001 
3600000000  -3.954572e+001  4.277744e+001 
3603125000  -3.981249e+001  3.034606e+001 
3606250000  -4.058453e+001  2.573809e+001 
3609375000  -4.083337e+001  2.568380e+001 
3612500000  -4.110287e+001  2.619678e+001 
3615625000  -4.151105e+001  2.278178e+001 
3618750000  -4.169674e+001  2.533820e+001 
3621875000  -4.134289e+001  2.359854e+001 
3625000000  -4.180619e+001  2.344763e+001 
3628125000  -4.182764e+001  2.404241e+001 
3631250000  -4.131076e+001  1.896675e+001 
3634375000  -4.246949e+001  1.975369e+001 
3637500000  -4.206974e+001  2.721312e+001 
3640625000  -4.092030e+001  2.700555e+001 
3643750000  -4.051637e+001  1.935470e+001 
3646875000  -4.114764e+001  1.440432e+001 
3650000000  -4.164730e+001  1.710938e+001 
3653125000  -4.119595e+001  1.408895e+001 
3656250000  -4.151626e+001  1.468780e+001 
3659375000  -4.190895e+001  1.627308e+001 
3662500000  -4.100186e+001  1.423566e+001 
3665625000  -4.126011e+001  1.649552e+001 
3668750000  -4.015913e+001  1.719483e+001 
3671875000  -3.928578e+001  1.301577e+001 
3675000000  -3.967003e+001  7.332313e+000 
3678125000  -4.027528e+001  8.111866e+000 
3681250000  -3.974924e+001  8.779869e+000 
3684375000  -3.965627e+001  6.548083e+000 
3687500000  -3.985911e+001  5.566994e+000 
3690625000  -3.969755e+001  3.222277e+000 
3693750000  -4.038905e+001  6.787937e+000 
3696875000  -4.002481e+001  9.940797e+000 
3700000000  -3.901465e+001  6.755384e+000 
3703125000  -3.868291e+001  4.163848e+000 
3706250000  -3.946651e+001  4.873199e+000 
3709375000  -3.878703e+001  8.795509e+000 
3712500000  -3.751295e+001  7.530084e+000 
3715625000  -3.625140e+001  3.390223e+000 
3718750000  -3.579815e+001  7.835779e-001 
3721875000  -3.531143e+001  -5.266853e+000 
3725000000  -3.521738e+001  -9.729564e+000 
3728125000  -3.529722e+001  -1.088691e+001 
3731250000  -3.447789e+001  -1.067919e+001 
3734375000  -3.370837e+001  -1.757491e+001 
3737500000  -3.433478e+001  -2.434417e+001 
3740625000  -3.483569e+001  -2.742194e+001 
3743750000  -3.454738e+001  -3.004853e+001 
3746875000  -3.459508e+001  -3.341710e+001 
3750000000  -3.498317e+001  -3.381332e+001 
3753125000  -3.454983e+001  -3.497292e+001 
3756250000  -3.448332e+001  -3.514972e+001 
3759375000  -3.430125e+001  -3.588069e+001 
3762500000  -3.375540e+001  -3.971952e+001 
3765625000  -3.415727e+001  -4.232891e+001 
3768750000  -3.420461e+001  -3.993734e+001 
3771875000  -3.249423e+001  -4.282021e+001 
3775000000  -3.228087e+001  -4.999010e+001 
3778125000  -3.258498e+001  -5.222588e+001 
3781250000  -3.241323e+001  -5.518423e+001 
3784375000  -3.226234e+001  -5.793071e+001 
3787500000  -3.170613e+001  -6.092957e+001 
3790625000  -3.221398e+001  -6.597319e+001 
3793750000  -3.240790e+001  -6.711729e+001 
3796875000  -3.144691e+001  -6.875177e+001 
3800000000  -2.983498e+001  -7.167554e+001 
3803125000  -3.067638e+001  -7.946626e+001 
3806250000  -3.130116e+001  -8.126312e+001 
3809375000  -3.101245e+001  -8.200342e+001 
3812500000  -3.047198e+001  -8.759078e+001 
3815625000  -3.104892e+001  -9.484314e+001 
3818750000  -3.200666e+001  -9.595576e+001 
3821875000  -3.209146e+001  -8.782698e+001 
3825000000  -3.022406e+001  -8.327907e+001 
3828125000  -2.878207e+001  -9.774676e+001 
3831250000  -2.927224e+001  -1.114153e+002 
3834375000  -3.077957e+001  -1.126384e+002 
3837500000  -3.159529e+001  -1.070715e+002 
3840625000  -3.044612e+001  -1.083339e+002 
3843750000  -2.926184e+001  -1.182791e+002 
3846875000  -3.006164e+001  -1.252255e+002 
3850000000  -3.128961e+001  -1.193629e+002 
3853125000  -3.044391e+001  -1.166387e+002 
3856250000  -3.040883e+001  -1.215884e+002 
3859375000  -2.969119e+001  -1.265449e+002 
3862500000  -2.927539e+001  -1.340264e+002 
3865625000  -2.949934e+001  -1.386991e+002 
3868750000  -2.955420e+001  -1.386776e+002 
3871875000  -2.879563e+001  -1.416625e+002 
3875000000  -2.895455e+001  -1.500074e+002 
3878125000  -3.006183e+001  -1.527115e+002 
3881250000  -3.006517e+001  -1.500732e+002 
3884375000  -2.956857e+001  -1.546648e+002 
3887500000  -2.972309e+001  -1.586252e+002 
3890625000  -3.026169e+001  -1.609414e+002 
3893750000  -3.069220e+001  -1.622358e+002 
3896875000  -3.080237e+001  -1.615851e+002 
3900000000  -3.117486e+001  -1.630691e+002 
3903125000  -3.058392e+001  -1.646257e+002 
3906250000  -3.041559e+001  -1.652466e+002 
3909375000  -2.959961e+001  -1.680267e+002 
3912500000  -2.966668e+001  -1.755903e+002 
3915625000  -3.098693e+001  -1.747202e+002 
3918750000  -3.104869e+001  -1.730609e+002 
3921875000  -3.058664e+001  -1.755439e+002 
3925000000  -2.977111e+001  -1.752036e+002 
3928125000  -2.915115e+001  1.786659e+002 
3931250000  -2.956940e+001  1.748444e+002 
3934375000  -2.983406e+001  1.750451e+002 
3937500000  -3.004298e+001  1.745816e+002 
3940625000  -3.037405e+001  1.745104e+002 
3943750000  -2.941457e+001  1.758256e+002 
3946875000  -2.819018e+001  1.703982e+002 
3950000000  -2.874059e+001  1.636924e+002 
3953125000  -2.965634e+001  1.636530e+002 
3956250000  -2.879870e+001  1.664000e+002 
3959375000  -2.745357e+001  1.635551e+002 
3962500000  -2.703531e+001  1.594529e+002 
3965625000  -2.661457e+001  1.502857e+002 
3968750000  -2.756353e+001  1.443075e+002 
3971875000  -2.790276e+001  1.427218e+002 
3975000000  -2.722353e+001  1.406670e+002 
3978125000  -2.712586e+001  1.390944e+002 
3981250000  -2.680632e+001  1.349790e+002 
3984375000  -2.710775e+001  1.288852e+002 
3987500000  -2.752645e+001  1.263346e+002 
3990625000  -2.761371e+001  1.259017e+002 
3993750000  -2.776312e+001  1.225240e+002 
3996875000  -2.766786e+001  1.196440e+002 
4000000000  -2.789679e+001  1.178050e+002 
4003125000  -2.842985e+001  1.200031e+002 
4006250000  -2.700518e+001  1.206125e+002 
4009375000  -2.579828e+001  1.075150e+002 
4012500000  -2.688418e+001  1.010343e+002 
4015625000  -2.821881e+001  1.012168e+002 
4018750000  -2.827067e+001  1.038796e+002 
4021875000  -2.759041e+001  1.024079e+002 
4025000000  -2.727336e+001  9.727750e+001 
4028125000  -2.722211e+001  9.354636e+001 
4031250000  -2.771905e+001  9.010471e+001 
4034375000  -2.791694e+001  9.030546e+001 
4037500000  -2.744881e+001  9.203346e+001 
4040625000  -2.733819e+001  8.876126e+001 
4043750000  -2.778649e+001  8.836857e+001 
4046875000  -2.728141e+001  8.783299e+001 
4050000000  -2.684088e+001  8.274455e+001 
4053125000  -2.734777e+001  8.027042e+001 
4056250000  -2.787926e+001  8.488082e+001 
4059375000  -2.661289e+001  8.653727e+001 
4062500000  -2.521109e+001  8.209975e+001 
4065625000  -2.518707e+001  7.726033e+001 
4068750000  -2.481442e+001  7.255939e+001 
4071875000  -2.418590e+001  6.495979e+001 
4075000000  -2.458753e+001  5.830015e+001 
4078125000  -2.511381e+001  5.737331e+001 
4081250000  -2.460112e+001  5.549030e+001 
4084375000  -2.421938e+001  4.848748e+001 
4087500000  -2.458207e+001  4.203728e+001 
4090625000  -2.519338e+001  4.134113e+001 
4093750000  -2.494839e+001  4.187719e+001 
4096875000  -2.452311e+001  3.563367e+001 
4100000000  -2.522698e+001  2.916879e+001 
4103125000  -2.612198e+001  2.999608e+001 
4106250000  -2.595845e+001  3.463671e+001 
4109375000  -2.503840e+001  3.404818e+001 
4112500000  -2.451738e+001  2.756241e+001 
4115625000  -2.483142e+001  2.291119e+001 
4118750000  -2.491590e+001  2.023085e+001 
4121875000  -2.452185e+001  1.548971e+001 
4125000000  -2.487132e+001  1.059722e+001 
4128125000  -2.590821e+001  1.066574e+001 
4131250000  -2.563472e+001  1.878471e+001 
4134375000  -2.330072e+001  1.408496e+001 
4137500000  -2.307865e+001  -4.628033e+000 
4140625000  -2.527549e+001  -1.184413e+001 
4143750000  -2.655692e+001  -6.522874e+000 
4146875000  -2.611634e+001  1.073514e+000 
4150000000  -2.514381e+001  -3.037547e+000 
4153125000  -2.509797e+001  -9.319955e+000 
4156250000  -2.597956e+001  -1.152984e+001 
4159375000  -2.620488e+001  -7.641178e+000 
4162500000  -2.505747e+001  -2.909744e+000 
4165625000  -2.393246e+001  -7.253321e+000 
4168750000  -2.337053e+001  -1.470041e+001 
4171875000  -2.333808e+001  -2.321770e+001 
4175000000  -2.394741e+001  -2.895417e+001 
4178125000  -2.455204e+001  -2.894820e+001 
4181250000  -2.436087e+001  -2.953968e+001 
4184375000  -2.425273e+001  -3.292677e+001 
4187500000  -2.427032e+001  -3.552025e+001 
4190625000  -2.413284e+001  -4.116683e+001 
4193750000  -2.493815e+001  -4.500893e+001 
4196875000  -2.563218e+001  -4.518493e+001 
4200000000  -2.657332e+001  -4.301856e+001 
4203125000  -2.654300e+001  -2.922176e+001 
4206250000  -2.305941e+001  -2.776657e+001 
4209375000  -2.192016e+001  -4.873218e+001 
4212500000  -2.393278e+001  -5.762948e+001 
4215625000  -2.493175e+001  -5.111421e+001 
4218750000  -2.350019e+001  -4.433565e+001 
4221875000  -2.124387e+001  -5.321803e+001 
4225000000  -2.247186e+001  -6.592886e+001 
4228125000  -2.316464e+001  -6.086429e+001 
4231250000  -2.158119e+001  -6.445975e+001 
4234375000  -2.145274e+001  -7.292692e+001 
4237500000  -2.110025e+001  -7.643694e+001 
4240625000  -2.108218e+001  -8.468355e+001 
4243750000  -2.202763e+001  -9.203883e+001 
4246875000  -2.294333e+001  -9.194409e+001 
4250000000  -2.299493e+001  -8.901868e+001 
4253125000  -2.241788e+001  -9.067762e+001 
4256250000  -2.269038e+001  -9.484618e+001 
4259375000  -2.238004e+001  -9.697082e+001 
4262500000  -2.243666e+001  -1.004692e+002 
4265625000  -2.259004e+001  -1.001615e+002 
4268750000  -2.167486e+001  -1.044329e+002 
4271875000  -2.146228e+001  -1.103610e+002 
4275000000  -2.083864e+001  -1.165904e+002 
4278125000  -2.147904e+001  -1.277387e+002 
4281250000  -2.334539e+001  -1.298172e+002 
4284375000  -2.299890e+001  -1.291936e+002 
4287500000  -2.379548e+001  -1.327071e+002 
4290625000  -2.498094e+001  -1.224681e+002 
4293750000  -2.297985e+001  -1.174166e+002 
4296875000  -2.171178e+001  -1.293150e+002 
4300000000  -2.255599e+001  -1.377246e+002 
4303125000  -2.367799e+001  -1.368467e+002 
4306250000  -2.297321e+001  -1.308853e+002 
4309375000  -2.157800e+001  -1.328399e+002 
4312500000  -2.151501e+001  -1.414998e+002 
4315625000  -2.173709e+001  -1.475362e+002 
4318750000  -2.209357e+001  -1.509471e+002 
4321875000  -2.226943e+001  -1.503109e+002 
4325000000  -2.165514e+001  -1.498189e+002 
4328125000  -2.114939e+001  -1.559026e+002 
4331250000  -2.110039e+001  -1.643532e+002 
4334375000  -2.158284e+001  -1.695079e+002 
4337500000  -2.240396e+001  -1.714878e+002 
4340625000  -2.295997e+001  -1.679107e+002 
4343750000  -2.234104e+001  -1.674801e+002 
4346875000  -2.194164e+001  -1.733028e+002 
4350000000  -2.194769e+001  -1.779276e+002 
4353125000  -2.203159e+001  1.745130e+002 
4356250000  -2.384796e+001  1.736738e+002 
4359375000  -2.435439e+001  -1.722839e+002 
4362500000  -2.158791e+001  -1.706630e+002 
4365625000  -2.001127e+001  1.769304e+002 
4368750000  -2.080407e+001  1.648610e+002 
4371875000  -2.197375e+001  1.662120e+002 
4375000000  -2.158582e+001  1.671077e+002 
4378125000  -2.097235e+001  1.608095e+002 
4381250000  -2.112948e+001  1.555770e+002 
4384375000  -2.094991e+001  1.511467e+002 
4387500000  -2.172430e+001  1.453422e+002 
4390625000  -2.272183e+001  1.460504e+002 
4393750000  -2.205436e+001  1.484892e+002 
4396875000  -2.136735e+001  1.461334e+002 
4400000000  -2.085642e+001  1.391235e+002 
4403125000  -2.147838e+001  1.314438e+002 
4406250000  -2.226402e+001  1.304012e+002 
4409375000  -2.222699e+001  1.278215e+002 
4412500000  -2.333134e+001  1.254178e+002 
4415625000  -2.367020e+001  1.303556e+002 
4418750000  -2.242430e+001  1.348782e+002 
