!Agilent Technologies,E8363B,MY43030201,A.06.04.32
!Agilent E8363B: A.06.04.32
!Date: Tuesday, November 11, 2014 20:46:29
!Correction: S21(Response(S21)) 
!S1P File: Measurement: S21:
# Hz S  dB   R 50
3000000000  -2.644128e+001  1.558938e+002 
3003125000  -2.787164e+001  1.517577e+002 
3006250000  -2.785953e+001  1.488103e+002 
3009375000  -2.822671e+001  1.536336e+002 
3012500000  -2.774957e+001  1.535803e+002 
3015625000  -2.674611e+001  1.464585e+002 
3018750000  -2.761546e+001  1.454038e+002 
3021875000  -2.635729e+001  1.468719e+002 
3025000000  -2.508299e+001  1.438873e+002 
3028125000  -2.410863e+001  1.389682e+002 
3031250000  -2.307080e+001  1.280690e+002 
3034375000  -2.268376e+001  1.149426e+002 
3037500000  -2.301746e+001  1.029917e+002 
3040625000  -2.436365e+001  9.784102e+001 
3043750000  -2.507510e+001  9.371890e+001 
3046875000  -2.513858e+001  8.710566e+001 
3050000000  -2.688629e+001  8.016184e+001 
3053125000  -2.708463e+001  8.680347e+001 
3056250000  -2.636519e+001  8.962027e+001 
3059375000  -2.663888e+001  8.939941e+001 
3062500000  -2.518580e+001  8.541078e+001 
3065625000  -2.499690e+001  8.002895e+001 
3068750000  -2.469132e+001  7.333244e+001 
3071875000  -2.463888e+001  6.982652e+001 
3075000000  -2.466444e+001  6.618978e+001 
3078125000  -2.435471e+001  6.165436e+001 
3081250000  -2.500083e+001  5.744723e+001 
3084375000  -2.426517e+001  5.405801e+001 
3087500000  -2.411373e+001  5.041819e+001 
3090625000  -2.382430e+001  4.099482e+001 
3093750000  -2.423227e+001  3.286086e+001 
3096875000  -2.553222e+001  2.659106e+001 
3100000000  -2.570480e+001  2.545431e+001 
3103125000  -2.606790e+001  2.693757e+001 
3106250000  -2.582354e+001  2.345935e+001 
3109375000  -2.605182e+001  1.969980e+001 
3112500000  -2.618526e+001  1.918398e+001 
3115625000  -2.597532e+001  1.462691e+001 
3118750000  -2.644938e+001  1.591702e+001 
3121875000  -2.581383e+001  8.264600e+000 
3125000000  -2.690853e+001  4.434740e+000 
3128125000  -2.816584e+001  1.225591e+001 
3131250000  -2.600220e+001  1.309091e+001 
3134375000  -2.467357e+001  -2.257067e-001 
3137500000  -2.529733e+001  -1.425208e+001 
3140625000  -2.694164e+001  -1.605690e+001 
3143750000  -2.795532e+001  -1.194839e+001 
3146875000  -2.749183e+001  -9.838703e+000 
3150000000  -2.650066e+001  -7.307655e+000 
3153125000  -2.651940e+001  -1.525445e+001 
3156250000  -2.747676e+001  -9.884873e+000 
3159375000  -2.598048e+001  -6.978772e+000 
3162500000  -2.388937e+001  -1.958191e+001 
3165625000  -2.478123e+001  -3.074964e+001 
3168750000  -2.524787e+001  -3.006843e+001 
3171875000  -2.427582e+001  -3.396936e+001 
3175000000  -2.487947e+001  -4.189252e+001 
3178125000  -2.472071e+001  -4.008256e+001 
3181250000  -2.354922e+001  -4.374122e+001 
3184375000  -2.272139e+001  -5.618221e+001 
3187500000  -2.376223e+001  -7.167955e+001 
3190625000  -2.664730e+001  -7.942611e+001 
3193750000  -2.728861e+001  -6.959295e+001 
3196875000  -2.679698e+001  -6.393139e+001 
3200000000  -2.597087e+001  -6.570523e+001 
3203125000  -2.509197e+001  -7.148633e+001 
3206250000  -2.536975e+001  -7.768961e+001 
3209375000  -2.493340e+001  -8.260390e+001 
3212500000  -2.499080e+001  -8.952448e+001 
3215625000  -2.516307e+001  -9.398649e+001 
3218750000  -2.590834e+001  -1.000413e+002 
3221875000  -2.693017e+001  -1.053504e+002 
3225000000  -2.657654e+001  -1.055914e+002 
3228125000  -2.684888e+001  -1.101088e+002 
3231250000  -2.759123e+001  -1.130324e+002 
3234375000  -2.750343e+001  -1.118290e+002 
3237500000  -2.754833e+001  -1.134180e+002 
3240625000  -2.719954e+001  -1.152557e+002 
3243750000  -2.683160e+001  -1.217080e+002 
3246875000  -2.729878e+001  -1.283376e+002 
3250000000  -2.780002e+001  -1.303531e+002 
3253125000  -2.792057e+001  -1.318313e+002 
3256250000  -2.781287e+001  -1.378375e+002 
3259375000  -2.806473e+001  -1.450902e+002 
3262500000  -2.934493e+001  -1.484466e+002 
3265625000  -3.001064e+001  -1.450079e+002 
3268750000  -3.002832e+001  -1.422119e+002 
3271875000  -2.982357e+001  -1.406202e+002 
3275000000  -2.869231e+001  -1.458691e+002 
3278125000  -2.916537e+001  -1.523043e+002 
3281250000  -2.941834e+001  -1.502139e+002 
3284375000  -2.904841e+001  -1.566306e+002 
3287500000  -2.916151e+001  -1.594591e+002 
3290625000  -2.958186e+001  -1.637132e+002 
3293750000  -2.933305e+001  -1.687421e+002 
3296875000  -3.024925e+001  -1.688431e+002 
3300000000  -3.020214e+001  -1.681884e+002 
3303125000  -2.906405e+001  -1.714786e+002 
3306250000  -2.876917e+001  -1.783555e+002 
3309375000  -2.865705e+001  1.768829e+002 
3312500000  -2.866696e+001  1.667970e+002 
3315625000  -2.962231e+001  1.585061e+002 
3318750000  -3.093237e+001  1.557443e+002 
3321875000  -3.217764e+001  1.556206e+002 
3325000000  -3.281268e+001  1.603139e+002 
3328125000  -3.266014e+001  1.624672e+002 
3331250000  -3.150412e+001  1.696087e+002 
3334375000  -2.892554e+001  1.603193e+002 
3337500000  -2.894134e+001  1.421527e+002 
3340625000  -3.023845e+001  1.310403e+002 
3343750000  -3.231844e+001  1.293416e+002 
3346875000  -3.285524e+001  1.309319e+002 
3350000000  -3.215000e+001  1.294167e+002 
3353125000  -3.220544e+001  1.255524e+002 
3356250000  -3.199302e+001  1.179222e+002 
3359375000  -3.286854e+001  1.091049e+002 
3362500000  -3.421839e+001  1.035464e+002 
3365625000  -3.485543e+001  1.022705e+002 
3368750000  -3.580944e+001  1.007173e+002 
3371875000  -3.618611e+001  9.721831e+001 
3375000000  -3.771642e+001  9.547467e+001 
3378125000  -3.887151e+001  9.575169e+001 
3381250000  -4.054365e+001  1.006610e+002 
3384375000  -3.967032e+001  1.235840e+002 
3387500000  -3.665839e+001  1.095349e+002 
3390625000  -3.837774e+001  9.048013e+001 
3393750000  -4.027536e+001  9.526203e+001 
3396875000  -3.944663e+001  9.937240e+001 
3400000000  -3.934069e+001  9.107777e+001 
3403125000  -4.033822e+001  8.665795e+001 
3406250000  -4.143515e+001  8.908932e+001 
3409375000  -4.201995e+001  8.601305e+001 
3412500000  -4.327779e+001  8.718260e+001 
3415625000  -4.384011e+001  9.386832e+001 
3418750000  -4.420795e+001  9.717918e+001 
3421875000  -4.442022e+001  1.037980e+002 
3425000000  -4.343801e+001  1.085562e+002 
3428125000  -4.230295e+001  1.100418e+002 
3431250000  -4.228559e+001  1.047440e+002 
3434375000  -4.213035e+001  1.007995e+002 
3437500000  -4.251689e+001  1.002130e+002 
3440625000  -4.281063e+001  1.032953e+002 
3443750000  -4.125071e+001  1.055517e+002 
3446875000  -4.059291e+001  1.003050e+002 
3450000000  -4.040075e+001  9.074032e+001 
3453125000  -4.052614e+001  8.213870e+001 
3456250000  -4.181056e+001  7.741740e+001 
3459375000  -4.277181e+001  7.882328e+001 
3462500000  -4.292342e+001  7.984252e+001 
3465625000  -4.286631e+001  7.719408e+001 
3468750000  -4.339867e+001  7.324369e+001 
3471875000  -4.328406e+001  7.549786e+001 
3475000000  -4.319695e+001  6.994019e+001 
3478125000  -4.411877e+001  6.473373e+001 
3481250000  -4.523644e+001  6.578090e+001 
3484375000  -4.652071e+001  6.789297e+001 
3487500000  -4.647250e+001  7.214750e+001 
3490625000  -4.579362e+001  6.996637e+001 
3493750000  -4.641629e+001  6.798820e+001 
3496875000  -4.731160e+001  6.852284e+001 
3500000000  -4.844148e+001  7.819730e+001 
3503125000  -4.841723e+001  8.114224e+001 
3506250000  -4.712324e+001  8.515980e+001 
3509375000  -4.668023e+001  8.265253e+001 
3512500000  -4.771844e+001  8.086897e+001 
3515625000  -4.791109e+001  8.412512e+001 
3518750000  -4.830622e+001  9.093560e+001 
3521875000  -4.768949e+001  9.347157e+001 
3525000000  -4.788872e+001  9.245695e+001 
3528125000  -4.752529e+001  1.051784e+002 
3531250000  -4.551093e+001  1.061027e+002 
3534375000  -4.493833e+001  9.694437e+001 
3537500000  -4.480859e+001  9.142448e+001 
3540625000  -4.518471e+001  9.374186e+001 
3543750000  -4.566434e+001  9.546594e+001 
3546875000  -4.560781e+001  1.092277e+002 
3550000000  -4.241345e+001  1.090108e+002 
3553125000  -4.136543e+001  9.388155e+001 
3556250000  -4.233912e+001  8.650496e+001 
3559375000  -4.190097e+001  8.698367e+001 
3562500000  -4.051417e+001  8.063610e+001 
3565625000  -4.156401e+001  7.499592e+001 
3568750000  -4.151199e+001  7.716499e+001 
3571875000  -4.115650e+001  7.608231e+001 
3575000000  -4.091768e+001  7.271734e+001 
3578125000  -4.138474e+001  6.717230e+001 
3581250000  -4.129034e+001  6.832881e+001 
3584375000  -4.036954e+001  6.640978e+001 
3587500000  -3.987828e+001  6.281406e+001 
3590625000  -4.022526e+001  5.249117e+001 
3593750000  -4.122157e+001  5.187690e+001 
3596875000  -4.137457e+001  5.801686e+001 
3600000000  -3.975923e+001  5.615430e+001 
3603125000  -3.979416e+001  4.368705e+001 
3606250000  -4.066365e+001  3.996459e+001 
3609375000  -4.102614e+001  3.973257e+001 
3612500000  -4.166409e+001  3.652438e+001 
3615625000  -4.125929e+001  3.715896e+001 
3618750000  -4.198818e+001  3.806049e+001 
3621875000  -4.199982e+001  3.806242e+001 
3625000000  -4.196492e+001  3.537702e+001 
3628125000  -4.226388e+001  3.785511e+001 
3631250000  -4.170885e+001  3.312989e+001 
3634375000  -4.273290e+001  3.411708e+001 
3637500000  -4.248438e+001  4.127463e+001 
3640625000  -4.132993e+001  3.946037e+001 
3643750000  -4.098541e+001  3.725356e+001 
3646875000  -4.123578e+001  2.910046e+001 
3650000000  -4.165088e+001  3.038586e+001 
3653125000  -4.140290e+001  3.043128e+001 
3656250000  -4.198111e+001  3.066508e+001 
3659375000  -4.218375e+001  3.408116e+001 
3662500000  -4.130246e+001  3.235588e+001 
3665625000  -4.125162e+001  3.059469e+001 
3668750000  -4.032687e+001  3.521523e+001 
3671875000  -3.938265e+001  2.789764e+001 
3675000000  -3.976155e+001  2.312308e+001 
3678125000  -4.053973e+001  2.281351e+001 
3681250000  -3.980382e+001  2.603423e+001 
3684375000  -3.973460e+001  2.315575e+001 
3687500000  -3.969499e+001  2.223736e+001 
3690625000  -3.990995e+001  1.920529e+001 
3693750000  -4.050418e+001  2.122063e+001 
3696875000  -4.015379e+001  2.377348e+001 
3700000000  -3.914082e+001  2.173282e+001 
3703125000  -3.884298e+001  1.870651e+001 
3706250000  -3.954393e+001  2.002815e+001 
3709375000  -3.875285e+001  2.276742e+001 
3712500000  -3.759460e+001  2.287109e+001 
3715625000  -3.655080e+001  1.828264e+001 
3718750000  -3.579834e+001  1.611179e+001 
3721875000  -3.551904e+001  1.038868e+001 
3725000000  -3.525723e+001  5.284423e+000 
3728125000  -3.545641e+001  4.496708e+000 
3731250000  -3.477044e+001  3.913826e+000 
3734375000  -3.381151e+001  -1.954511e+000 
3737500000  -3.448681e+001  -9.516958e+000 
3740625000  -3.502596e+001  -1.190982e+001 
3743750000  -3.473850e+001  -1.422225e+001 
3746875000  -3.466070e+001  -1.772950e+001 
3750000000  -3.516812e+001  -1.786118e+001 
3753125000  -3.482880e+001  -1.880023e+001 
3756250000  -3.461229e+001  -1.942422e+001 
3759375000  -3.435349e+001  -1.942415e+001 
3762500000  -3.373324e+001  -2.362380e+001 
3765625000  -3.430718e+001  -2.693213e+001 
3768750000  -3.443378e+001  -2.383308e+001 
3771875000  -3.260419e+001  -2.722247e+001 
3775000000  -3.218073e+001  -3.441595e+001 
3778125000  -3.253377e+001  -3.668603e+001 
3781250000  -3.237840e+001  -3.916252e+001 
3784375000  -3.228571e+001  -4.042643e+001 
3787500000  -3.158593e+001  -4.427333e+001 
3790625000  -3.219669e+001  -5.052379e+001 
3793750000  -3.242834e+001  -5.067968e+001 
3796875000  -3.143628e+001  -5.222154e+001 
3800000000  -3.000303e+001  -5.617755e+001 
3803125000  -3.065599e+001  -6.337694e+001 
3806250000  -3.128822e+001  -6.574980e+001 
3809375000  -3.100303e+001  -6.674242e+001 
3812500000  -3.042449e+001  -7.160454e+001 
3815625000  -3.084362e+001  -7.865507e+001 
3818750000  -3.187076e+001  -8.066570e+001 
3821875000  -3.212556e+001  -7.337865e+001 
3825000000  -3.010409e+001  -6.795741e+001 
3828125000  -2.874174e+001  -8.155746e+001 
3831250000  -2.934913e+001  -9.586250e+001 
3834375000  -3.058282e+001  -9.736663e+001 
3837500000  -3.152574e+001  -9.167310e+001 
3840625000  -3.053768e+001  -9.281792e+001 
3843750000  -2.931830e+001  -1.027683e+002 
3846875000  -2.997414e+001  -1.101341e+002 
3850000000  -3.126166e+001  -1.044391e+002 
3853125000  -3.050048e+001  -1.019741e+002 
3856250000  -3.048785e+001  -1.060889e+002 
3859375000  -2.975268e+001  -1.107738e+002 
3862500000  -2.936017e+001  -1.180633e+002 
3865625000  -2.954414e+001  -1.224884e+002 
3868750000  -2.958124e+001  -1.231845e+002 
3871875000  -2.884842e+001  -1.257750e+002 
3875000000  -2.902314e+001  -1.342044e+002 
3878125000  -3.003071e+001  -1.367017e+002 
3881250000  -3.016699e+001  -1.339989e+002 
3884375000  -2.958751e+001  -1.379503e+002 
3887500000  -2.971074e+001  -1.427438e+002 
3890625000  -3.024224e+001  -1.451808e+002 
3893750000  -3.063718e+001  -1.460839e+002 
3896875000  -3.076630e+001  -1.461547e+002 
3900000000  -3.088556e+001  -1.467457e+002 
3903125000  -3.055059e+001  -1.482075e+002 
3906250000  -3.031452e+001  -1.492800e+002 
3909375000  -2.961735e+001  -1.517446e+002 
3912500000  -2.964661e+001  -1.589101e+002 
3915625000  -3.080604e+001  -1.588282e+002 
3918750000  -3.087606e+001  -1.570562e+002 
3921875000  -3.050805e+001  -1.587386e+002 
3925000000  -2.966301e+001  -1.591724e+002 
3928125000  -2.903359e+001  -1.646971e+002 
3931250000  -2.941997e+001  -1.688406e+002 
3934375000  -2.966649e+001  -1.691764e+002 
3937500000  -2.979938e+001  -1.700240e+002 
3940625000  -3.026136e+001  -1.703016e+002 
3943750000  -2.939019e+001  -1.682057e+002 
3946875000  -2.811034e+001  -1.736962e+002 
3950000000  -2.849219e+001  1.785479e+002 
3953125000  -2.951260e+001  1.791863e+002 
3956250000  -2.878986e+001  -1.786846e+002 
3959375000  -2.735629e+001  1.783795e+002 
3962500000  -2.690281e+001  1.750153e+002 
3965625000  -2.649901e+001  1.661546e+002 
3968750000  -2.743715e+001  1.591957e+002 
3971875000  -2.786620e+001  1.578700e+002 
3975000000  -2.722512e+001  1.558818e+002 
3978125000  -2.697656e+001  1.544244e+002 
3981250000  -2.677888e+001  1.505483e+002 
3984375000  -2.703193e+001  1.441142e+002 
3987500000  -2.751884e+001  1.416500e+002 
3990625000  -2.753478e+001  1.412547e+002 
3993750000  -2.769009e+001  1.376818e+002 
3996875000  -2.768607e+001  1.354779e+002 
4000000000  -2.780106e+001  1.335073e+002 
4003125000  -2.838298e+001  1.356796e+002 
4006250000  -2.703314e+001  1.359170e+002 
4009375000  -2.576427e+001  1.241846e+002 
4012500000  -2.675467e+001  1.173232e+002 
4015625000  -2.806913e+001  1.177255e+002 
4018750000  -2.828209e+001  1.198439e+002 
4021875000  -2.759915e+001  1.182574e+002 
4025000000  -2.720004e+001  1.132765e+002 
4028125000  -2.713360e+001  1.093806e+002 
4031250000  -2.759464e+001  1.062064e+002 
4034375000  -2.791762e+001  1.061898e+002 
4037500000  -2.736937e+001  1.079811e+002 
4040625000  -2.725637e+001  1.044135e+002 
4043750000  -2.761499e+001  1.041834e+002 
4046875000  -2.712154e+001  1.038929e+002 
4050000000  -2.664040e+001  9.802387e+001 
4053125000  -2.703611e+001  9.599145e+001 
4056250000  -2.767784e+001  9.969542e+001 
4059375000  -2.657891e+001  1.017313e+002 
4062500000  -2.513794e+001  9.741081e+001 
4065625000  -2.495088e+001  9.255418e+001 
4068750000  -2.473007e+001  8.769657e+001 
4071875000  -2.408732e+001  8.010258e+001 
4075000000  -2.437983e+001  7.344723e+001 
4078125000  -2.499972e+001  7.258603e+001 
4081250000  -2.452874e+001  7.011801e+001 
4084375000  -2.412584e+001  6.406672e+001 
4087500000  -2.447829e+001  5.729815e+001 
4090625000  -2.508156e+001  5.585833e+001 
4093750000  -2.492056e+001  5.663777e+001 
4096875000  -2.450743e+001  5.104643e+001 
4100000000  -2.513945e+001  4.431852e+001 
4103125000  -2.604821e+001  4.457140e+001 
4106250000  -2.596177e+001  4.949309e+001 
4109375000  -2.509163e+001  4.893192e+001 
4112500000  -2.450652e+001  4.254889e+001 
4115625000  -2.483262e+001  3.816564e+001 
4118750000  -2.498757e+001  3.561254e+001 
4121875000  -2.460308e+001  3.120010e+001 
4125000000  -2.485290e+001  2.588943e+001 
4128125000  -2.592091e+001  2.608488e+001 
4131250000  -2.571486e+001  3.361979e+001 
4134375000  -2.331597e+001  2.973400e+001 
4137500000  -2.308334e+001  1.135474e+001 
4140625000  -2.514254e+001  4.171030e+000 
4143750000  -2.653019e+001  8.782172e+000 
4146875000  -2.623235e+001  1.614978e+001 
4150000000  -2.531646e+001  1.346835e+001 
4153125000  -2.507485e+001  7.035827e+000 
4156250000  -2.591035e+001  4.270956e+000 
4159375000  -2.622371e+001  8.520125e+000 
4162500000  -2.506978e+001  1.256486e+001 
4165625000  -2.395884e+001  8.700706e+000 
4168750000  -2.334916e+001  1.718262e+000 
4171875000  -2.326021e+001  -7.686309e+000 
4175000000  -2.382950e+001  -1.303419e+001 
4178125000  -2.445290e+001  -1.342822e+001 
4181250000  -2.434389e+001  -1.361517e+001 
4184375000  -2.417247e+001  -1.719832e+001 
4187500000  -2.426845e+001  -1.987263e+001 
4190625000  -2.405378e+001  -2.511275e+001 
4193750000  -2.481196e+001  -2.917495e+001 
4196875000  -2.546438e+001  -2.959517e+001 
4200000000  -2.628083e+001  -2.729357e+001 
4203125000  -2.647342e+001  -1.496426e+001 
4206250000  -2.319683e+001  -1.241703e+001 
4209375000  -2.188429e+001  -3.247811e+001 
4212500000  -2.378905e+001  -4.193113e+001 
4215625000  -2.484108e+001  -3.636774e+001 
4218750000  -2.357577e+001  -2.928398e+001 
4221875000  -2.120403e+001  -3.802326e+001 
4225000000  -2.239802e+001  -5.095036e+001 
4228125000  -2.319891e+001  -4.574359e+001 
4231250000  -2.164776e+001  -4.906436e+001 
4234375000  -2.159011e+001  -5.773463e+001 
4237500000  -2.118492e+001  -6.086737e+001 
4240625000  -2.116596e+001  -6.900741e+001 
4243750000  -2.209027e+001  -7.545300e+001 
4246875000  -2.297616e+001  -7.599717e+001 
4250000000  -2.306967e+001  -7.344708e+001 
4253125000  -2.252422e+001  -7.500226e+001 
4256250000  -2.278757e+001  -7.889864e+001 
4259375000  -2.256601e+001  -8.112215e+001 
4262500000  -2.253061e+001  -8.454226e+001 
4265625000  -2.269537e+001  -8.453082e+001 
4268750000  -2.181233e+001  -8.813511e+001 
4271875000  -2.158521e+001  -9.360419e+001 
4275000000  -2.098401e+001  -1.000257e+002 
4278125000  -2.148817e+001  -1.113229e+002 
4281250000  -2.329703e+001  -1.139134e+002 
4284375000  -2.299654e+001  -1.126451e+002 
4287500000  -2.374365e+001  -1.160819e+002 
4290625000  -2.505157e+001  -1.070728e+002 
4293750000  -2.307695e+001  -1.008196e+002 
4296875000  -2.167968e+001  -1.124278e+002 
4300000000  -2.246815e+001  -1.215529e+002 
4303125000  -2.364540e+001  -1.214302e+002 
4306250000  -2.310931e+001  -1.148062e+002 
4309375000  -2.170143e+001  -1.165161e+002 
4312500000  -2.154976e+001  -1.247489e+002 
4315625000  -2.175306e+001  -1.311101e+002 
4318750000  -2.206517e+001  -1.343446e+002 
4321875000  -2.226849e+001  -1.340487e+002 
4325000000  -2.166576e+001  -1.336108e+002 
4328125000  -2.120523e+001  -1.398725e+002 
4331250000  -2.113694e+001  -1.478683e+002 
4334375000  -2.153462e+001  -1.528354e+002 
4337500000  -2.231385e+001  -1.552179e+002 
4340625000  -2.292384e+001  -1.523803e+002 
4343750000  -2.236228e+001  -1.516850e+002 
4346875000  -2.200962e+001  -1.568689e+002 
4350000000  -2.197262e+001  -1.618658e+002 
4353125000  -2.202070e+001  -1.691573e+002 
4356250000  -2.367982e+001  -1.706395e+002 
4359375000  -2.444405e+001  -1.586251e+002 
4362500000  -2.184299e+001  -1.554244e+002 
4365625000  -2.017591e+001  -1.667984e+002 
4368750000  -2.083776e+001  -1.787918e+002 
4371875000  -2.207500e+001  -1.785415e+002 
4375000000  -2.179388e+001  -1.767000e+002 
4378125000  -2.110401e+001  1.774601e+002 
4381250000  -2.131599e+001  1.717344e+002 
4384375000  -2.109389e+001  1.674547e+002 
4387500000  -2.178962e+001  1.616007e+002 
4390625000  -2.286389e+001  1.623597e+002 
4393750000  -2.217425e+001  1.648788e+002 
4396875000  -2.154543e+001  1.625751e+002 
4400000000  -2.099248e+001  1.558998e+002 
4403125000  -2.153874e+001  1.483181e+002 
4406250000  -2.242985e+001  1.468778e+002 
4409375000  -2.234342e+001  1.448331e+002 
4412500000  -2.333492e+001  1.420944e+002 
4415625000  -2.378549e+001  1.466513e+002 
4418750000  -2.260925e+001  1.516950e+002 
