!Agilent Technologies,E8363B,MY43030201,A.06.04.32
!Agilent E8363B: A.06.04.32
!Date: Tuesday, November 11, 2014 20:47:17
!Correction: S21(Response(S21)) 
!S1P File: Measurement: S21:
# Hz S  dB   R 50
3000000000  -2.665607e+001  1.578522e+002 
3003125000  -2.798666e+001  1.537337e+002 
3006250000  -2.807720e+001  1.507308e+002 
3009375000  -2.836250e+001  1.554530e+002 
3012500000  -2.792517e+001  1.552942e+002 
3015625000  -2.693427e+001  1.482727e+002 
3018750000  -2.778931e+001  1.474076e+002 
3021875000  -2.653886e+001  1.485572e+002 
3025000000  -2.527876e+001  1.454690e+002 
3028125000  -2.429241e+001  1.408056e+002 
3031250000  -2.322106e+001  1.296801e+002 
3034375000  -2.283501e+001  1.167966e+002 
3037500000  -2.316509e+001  1.045845e+002 
3040625000  -2.449731e+001  9.953921e+001 
3043750000  -2.523873e+001  9.525330e+001 
3046875000  -2.529315e+001  8.877452e+001 
3050000000  -2.705728e+001  8.168977e+001 
3053125000  -2.721102e+001  8.817338e+001 
3056250000  -2.649618e+001  9.125563e+001 
3059375000  -2.683673e+001  9.068224e+001 
3062500000  -2.532564e+001  8.675426e+001 
3065625000  -2.512118e+001  8.147354e+001 
3068750000  -2.482034e+001  7.418816e+001 
3071875000  -2.475332e+001  7.128090e+001 
3075000000  -2.479065e+001  6.780816e+001 
3078125000  -2.446333e+001  6.326542e+001 
3081250000  -2.508378e+001  5.911154e+001 
3084375000  -2.437874e+001  5.547736e+001 
3087500000  -2.421102e+001  5.188631e+001 
3090625000  -2.394101e+001  4.232187e+001 
3093750000  -2.430407e+001  3.421482e+001 
3096875000  -2.566090e+001  2.814670e+001 
3100000000  -2.583352e+001  2.653319e+001 
3103125000  -2.613017e+001  2.814305e+001 
3106250000  -2.584044e+001  2.468927e+001 
3109375000  -2.612171e+001  2.091357e+001 
3112500000  -2.622528e+001  2.008179e+001 
3115625000  -2.602450e+001  1.600778e+001 
3118750000  -2.651054e+001  1.732734e+001 
3121875000  -2.586125e+001  9.478715e+000 
3125000000  -2.696063e+001  5.539505e+000 
3128125000  -2.823882e+001  1.328141e+001 
3131250000  -2.609941e+001  1.466549e+001 
3134375000  -2.471252e+001  1.007127e+000 
3137500000  -2.530112e+001  -1.308645e+001 
3140625000  -2.693227e+001  -1.492278e+001 
3143750000  -2.794893e+001  -1.047905e+001 
3146875000  -2.755764e+001  -8.920772e+000 
3150000000  -2.659182e+001  -6.429376e+000 
3153125000  -2.654039e+001  -1.394445e+001 
3156250000  -2.746110e+001  -8.808990e+000 
3159375000  -2.593511e+001  -5.664928e+000 
3162500000  -2.394390e+001  -1.840622e+001 
3165625000  -2.478179e+001  -2.957468e+001 
3168750000  -2.522743e+001  -2.913831e+001 
3171875000  -2.429149e+001  -3.286950e+001 
3175000000  -2.489450e+001  -4.088654e+001 
3178125000  -2.473321e+001  -3.908722e+001 
3181250000  -2.353449e+001  -4.293819e+001 
3184375000  -2.267121e+001  -5.528657e+001 
3187500000  -2.375016e+001  -7.050636e+001 
3190625000  -2.661164e+001  -7.809728e+001 
3193750000  -2.724179e+001  -6.870267e+001 
3196875000  -2.679281e+001  -6.311740e+001 
3200000000  -2.596390e+001  -6.496018e+001 
3203125000  -2.504957e+001  -7.056931e+001 
3206250000  -2.535310e+001  -7.693668e+001 
3209375000  -2.491827e+001  -8.186024e+001 
3212500000  -2.500509e+001  -8.842509e+001 
3215625000  -2.513357e+001  -9.263664e+001 
3218750000  -2.588741e+001  -9.866889e+001 
3221875000  -2.686536e+001  -1.042671e+002 
3225000000  -2.649603e+001  -1.048661e+002 
3228125000  -2.678822e+001  -1.091641e+002 
3231250000  -2.755011e+001  -1.120615e+002 
3234375000  -2.743006e+001  -1.111142e+002 
3237500000  -2.742224e+001  -1.123394e+002 
3240625000  -2.715160e+001  -1.144355e+002 
3243750000  -2.671459e+001  -1.205493e+002 
3246875000  -2.719058e+001  -1.273570e+002 
3250000000  -2.767579e+001  -1.293805e+002 
3253125000  -2.779693e+001  -1.306038e+002 
3256250000  -2.764924e+001  -1.368604e+002 
3259375000  -2.796489e+001  -1.445034e+002 
3262500000  -2.920508e+001  -1.470683e+002 
3265625000  -3.000387e+001  -1.440309e+002 
3268750000  -2.985336e+001  -1.412610e+002 
3271875000  -2.969644e+001  -1.399201e+002 
3275000000  -2.863074e+001  -1.451017e+002 
3278125000  -2.901082e+001  -1.516295e+002 
3281250000  -2.931802e+001  -1.499163e+002 
3284375000  -2.889665e+001  -1.555007e+002 
3287500000  -2.902448e+001  -1.586378e+002 
3290625000  -2.944800e+001  -1.627754e+002 
3293750000  -2.914471e+001  -1.679163e+002 
3296875000  -3.012496e+001  -1.683678e+002 
3300000000  -3.011378e+001  -1.674431e+002 
3303125000  -2.895116e+001  -1.711608e+002 
3306250000  -2.870561e+001  -1.778697e+002 
3309375000  -2.844018e+001  1.775275e+002 
3312500000  -2.844922e+001  1.675472e+002 
3315625000  -2.950135e+001  1.592314e+002 
3318750000  -3.074677e+001  1.562604e+002 
3321875000  -3.195899e+001  1.559592e+002 
3325000000  -3.251758e+001  1.608384e+002 
3328125000  -3.245217e+001  1.620275e+002 
3331250000  -3.124505e+001  1.704524e+002 
3334375000  -2.872894e+001  1.610150e+002 
3337500000  -2.868206e+001  1.426841e+002 
3340625000  -3.002983e+001  1.319229e+002 
3343750000  -3.201564e+001  1.304675e+002 
3346875000  -3.259055e+001  1.318003e+002 
3350000000  -3.191631e+001  1.305070e+002 
3353125000  -3.198366e+001  1.266725e+002 
3356250000  -3.171600e+001  1.187161e+002 
3359375000  -3.254129e+001  1.100456e+002 
3362500000  -3.388762e+001  1.049727e+002 
3365625000  -3.447095e+001  1.029478e+002 
3368750000  -3.536025e+001  1.013636e+002 
3371875000  -3.572409e+001  9.832758e+001 
3375000000  -3.727648e+001  9.712128e+001 
3378125000  -3.858769e+001  9.498695e+001 
3381250000  -3.986643e+001  1.032347e+002 
3384375000  -3.923136e+001  1.230510e+002 
3387500000  -3.602649e+001  1.093438e+002 
3390625000  -3.780298e+001  9.218548e+001 
3393750000  -3.954495e+001  9.554550e+001 
3396875000  -3.874437e+001  9.865134e+001 
3400000000  -3.866955e+001  9.152805e+001 
3403125000  -3.966943e+001  8.654314e+001 
3406250000  -4.038428e+001  8.930372e+001 
3409375000  -4.117291e+001  8.504481e+001 
3412500000  -4.201488e+001  8.648480e+001 
3415625000  -4.299918e+001  9.021292e+001 
3418750000  -4.330027e+001  9.651980e+001 
3421875000  -4.366694e+001  1.005058e+002 
3425000000  -4.281797e+001  1.045709e+002 
3428125000  -4.143945e+001  1.032003e+002 
3431250000  -4.167934e+001  1.002813e+002 
3434375000  -4.162875e+001  9.697192e+001 
3437500000  -4.192753e+001  9.516738e+001 
3440625000  -4.241813e+001  9.890115e+001 
3443750000  -4.092546e+001  1.011012e+002 
3446875000  -4.011032e+001  9.613776e+001 
3450000000  -4.029573e+001  8.641505e+001 
3453125000  -4.040337e+001  7.878288e+001 
3456250000  -4.168870e+001  7.396167e+001 
3459375000  -4.246616e+001  7.615678e+001 
3462500000  -4.279425e+001  7.404371e+001 
3465625000  -4.281411e+001  7.425647e+001 
3468750000  -4.319249e+001  6.904226e+001 
3471875000  -4.357877e+001  6.893378e+001 
3475000000  -4.315574e+001  6.543602e+001 
3478125000  -4.378761e+001  6.183308e+001 
3481250000  -4.494495e+001  5.918921e+001 
3484375000  -4.693986e+001  6.660829e+001 
3487500000  -4.662931e+001  6.914709e+001 
3490625000  -4.594693e+001  6.480670e+001 
3493750000  -4.651491e+001  6.350502e+001 
3496875000  -4.762445e+001  6.269200e+001 
3500000000  -4.917353e+001  7.002676e+001 
3503125000  -4.844689e+001  7.796148e+001 
3506250000  -4.771165e+001  7.988969e+001 
3509375000  -4.836707e+001  7.773252e+001 
3512500000  -4.869459e+001  7.723581e+001 
3515625000  -4.887607e+001  8.126678e+001 
3518750000  -4.903025e+001  8.412825e+001 
3521875000  -4.858099e+001  9.083644e+001 
3525000000  -4.789525e+001  9.328436e+001 
3528125000  -4.830886e+001  1.075986e+002 
3531250000  -4.623228e+001  1.023626e+002 
3534375000  -4.562255e+001  9.837743e+001 
3537500000  -4.525218e+001  9.082945e+001 
3540625000  -4.559633e+001  9.110590e+001 
3543750000  -4.646045e+001  9.380399e+001 
3546875000  -4.556464e+001  1.075311e+002 
3550000000  -4.292213e+001  1.107982e+002 
3553125000  -4.187651e+001  9.567060e+001 
3556250000  -4.263440e+001  8.616635e+001 
3559375000  -4.237504e+001  9.018896e+001 
3562500000  -4.092502e+001  8.203175e+001 
3565625000  -4.189351e+001  7.507732e+001 
3568750000  -4.171223e+001  7.985801e+001 
3571875000  -4.166616e+001  7.933760e+001 
3575000000  -4.104688e+001  7.378065e+001 
3578125000  -4.173809e+001  6.871143e+001 
3581250000  -4.147871e+001  7.165211e+001 
3584375000  -4.073456e+001  6.942106e+001 
3587500000  -4.016793e+001  6.536155e+001 
3590625000  -4.035175e+001  5.522199e+001 
3593750000  -4.187311e+001  5.439904e+001 
3596875000  -4.129627e+001  6.215894e+001 
3600000000  -3.977664e+001  5.907463e+001 
3603125000  -3.987440e+001  4.621072e+001 
3606250000  -4.036806e+001  4.374205e+001 
3609375000  -4.075166e+001  4.288925e+001 
3612500000  -4.147623e+001  3.967879e+001 
3615625000  -4.143585e+001  4.117554e+001 
3618750000  -4.205966e+001  4.140803e+001 
3621875000  -4.156567e+001  4.022092e+001 
3625000000  -4.198729e+001  4.006556e+001 
3628125000  -4.185928e+001  4.039415e+001 
3631250000  -4.151214e+001  3.618860e+001 
3634375000  -4.245461e+001  3.494985e+001 
3637500000  -4.207091e+001  4.224227e+001 
3640625000  -4.089056e+001  4.371098e+001 
3643750000  -4.049109e+001  3.803315e+001 
3646875000  -4.095079e+001  3.200877e+001 
3650000000  -4.146893e+001  3.111396e+001 
3653125000  -4.169607e+001  3.025829e+001 
3656250000  -4.173640e+001  2.974861e+001 
3659375000  -4.206679e+001  3.240663e+001 
3662500000  -4.119682e+001  3.028039e+001 
3665625000  -4.099733e+001  3.203011e+001 
3668750000  -4.025522e+001  3.507612e+001 
3671875000  -3.926246e+001  2.901948e+001 
3675000000  -3.970110e+001  2.250115e+001 
3678125000  -4.031513e+001  2.465279e+001 
3681250000  -3.997593e+001  2.538044e+001 
3684375000  -3.963669e+001  2.356212e+001 
3687500000  -3.969166e+001  2.208581e+001 
3690625000  -3.973532e+001  2.009837e+001 
3693750000  -4.030419e+001  2.270894e+001 
3696875000  -4.014610e+001  2.550172e+001 
3700000000  -3.884449e+001  2.196469e+001 
3703125000  -3.871549e+001  1.973681e+001 
3706250000  -3.958424e+001  2.086717e+001 
3709375000  -3.879230e+001  2.450352e+001 
3712500000  -3.732171e+001  2.338539e+001 
3715625000  -3.634399e+001  1.819176e+001 
3718750000  -3.559258e+001  1.593470e+001 
3721875000  -3.537472e+001  1.051626e+001 
3725000000  -3.520904e+001  5.434021e+000 
3728125000  -3.530769e+001  3.704419e+000 
3731250000  -3.473267e+001  4.481091e+000 
3734375000  -3.359596e+001  -1.808115e+000 
3737500000  -3.414249e+001  -9.089911e+000 
3740625000  -3.480352e+001  -1.159306e+001 
3743750000  -3.455131e+001  -1.422188e+001 
3746875000  -3.441393e+001  -1.700198e+001 
3750000000  -3.489400e+001  -1.774541e+001 
3753125000  -3.450306e+001  -1.876403e+001 
3756250000  -3.440632e+001  -1.890840e+001 
3759375000  -3.416121e+001  -1.989038e+001 
3762500000  -3.361547e+001  -2.439253e+001 
3765625000  -3.398481e+001  -2.729267e+001 
3768750000  -3.402890e+001  -2.504930e+001 
3771875000  -3.240923e+001  -2.637077e+001 
3775000000  -3.219178e+001  -3.470293e+001 
3778125000  -3.257780e+001  -3.635311e+001 
3781250000  -3.222845e+001  -3.910646e+001 
3784375000  -3.221863e+001  -4.087738e+001 
3787500000  -3.153076e+001  -4.526308e+001 
3790625000  -3.214640e+001  -5.052819e+001 
3793750000  -3.225852e+001  -5.165263e+001 
3796875000  -3.144275e+001  -5.208721e+001 
3800000000  -2.992493e+001  -5.634435e+001 
3803125000  -3.062385e+001  -6.281635e+001 
3806250000  -3.124229e+001  -6.531715e+001 
3809375000  -3.113608e+001  -6.595264e+001 
3812500000  -3.033393e+001  -7.112885e+001 
3815625000  -3.094063e+001  -7.818477e+001 
3818750000  -3.191008e+001  -8.057288e+001 
3821875000  -3.207057e+001  -7.151982e+001 
3825000000  -3.009257e+001  -6.659558e+001 
3828125000  -2.870396e+001  -8.029855e+001 
3831250000  -2.919441e+001  -9.401164e+001 
3834375000  -3.039768e+001  -9.582920e+001 
3837500000  -3.139522e+001  -9.065926e+001 
3840625000  -3.033933e+001  -9.161633e+001 
3843750000  -2.923172e+001  -1.014739e+002 
3846875000  -2.982885e+001  -1.083889e+002 
3850000000  -3.108453e+001  -1.039913e+002 
3853125000  -3.034847e+001  -1.009783e+002 
3856250000  -3.035814e+001  -1.057245e+002 
3859375000  -2.964535e+001  -1.095345e+002 
3862500000  -2.923363e+001  -1.167953e+002 
3865625000  -2.947891e+001  -1.216455e+002 
3868750000  -2.950629e+001  -1.220824e+002 
3871875000  -2.874237e+001  -1.242899e+002 
3875000000  -2.883770e+001  -1.329384e+002 
3878125000  -2.978892e+001  -1.354831e+002 
3881250000  -2.995686e+001  -1.322808e+002 
3884375000  -2.939187e+001  -1.371223e+002 
3887500000  -2.942494e+001  -1.409425e+002 
3890625000  -2.991868e+001  -1.436094e+002 
3893750000  -3.039207e+001  -1.447918e+002 
3896875000  -3.044153e+001  -1.450625e+002 
3900000000  -3.066506e+001  -1.459086e+002 
3903125000  -3.040283e+001  -1.478236e+002 
3906250000  -3.009407e+001  -1.486304e+002 
3909375000  -2.936388e+001  -1.509887e+002 
3912500000  -2.939694e+001  -1.586544e+002 
3915625000  -3.046950e+001  -1.582674e+002 
3918750000  -3.064423e+001  -1.556462e+002 
3921875000  -3.033434e+001  -1.571127e+002 
3925000000  -2.948762e+001  -1.578701e+002 
3928125000  -2.877499e+001  -1.638888e+002 
3931250000  -2.917094e+001  -1.677031e+002 
3934375000  -2.939201e+001  -1.669463e+002 
3937500000  -2.953024e+001  -1.685550e+002 
3940625000  -3.003349e+001  -1.682959e+002 
3943750000  -2.922117e+001  -1.663682e+002 
3946875000  -2.790266e+001  -1.712869e+002 
3950000000  -2.831967e+001  -1.790002e+002 
3953125000  -2.922938e+001  -1.790449e+002 
3956250000  -2.844200e+001  -1.767638e+002 
3959375000  -2.707528e+001  -1.795585e+002 
3962500000  -2.661247e+001  1.769991e+002 
3965625000  -2.620530e+001  1.678032e+002 
3968750000  -2.711581e+001  1.613463e+002 
3971875000  -2.751882e+001  1.597104e+002 
3975000000  -2.684908e+001  1.575574e+002 
3978125000  -2.664913e+001  1.566509e+002 
3981250000  -2.637491e+001  1.521823e+002 
3984375000  -2.658704e+001  1.460232e+002 
3987500000  -2.702533e+001  1.439173e+002 
3990625000  -2.711751e+001  1.427855e+002 
3993750000  -2.724668e+001  1.396277e+002 
3996875000  -2.722744e+001  1.369597e+002 
4000000000  -2.733231e+001  1.345572e+002 
4003125000  -2.797739e+001  1.373325e+002 
4006250000  -2.663478e+001  1.381975e+002 
4009375000  -2.529460e+001  1.259032e+002 
4012500000  -2.633987e+001  1.191874e+002 
4015625000  -2.746588e+001  1.189710e+002 
4018750000  -2.779220e+001  1.206235e+002 
4021875000  -2.709327e+001  1.196371e+002 
4025000000  -2.670294e+001  1.147971e+002 
4028125000  -2.663587e+001  1.105539e+002 
4031250000  -2.703746e+001  1.073697e+002 
4034375000  -2.733403e+001  1.069050e+002 
4037500000  -2.684778e+001  1.086329e+002 
4040625000  -2.676352e+001  1.051418e+002 
4043750000  -2.708794e+001  1.051328e+002 
4046875000  -2.659785e+001  1.047480e+002 
4050000000  -2.613357e+001  9.894894e+001 
4053125000  -2.658310e+001  9.602493e+001 
4056250000  -2.718198e+001  1.003930e+002 
4059375000  -2.617834e+001  1.022909e+002 
4062500000  -2.474522e+001  9.808029e+001 
4065625000  -2.455677e+001  9.356489e+001 
4068750000  -2.426535e+001  8.976777e+001 
4071875000  -2.357720e+001  8.180703e+001 
4075000000  -2.388078e+001  7.525669e+001 
4078125000  -2.440282e+001  7.397688e+001 
4081250000  -2.392380e+001  7.159380e+001 
4084375000  -2.352170e+001  6.509310e+001 
4087500000  -2.384113e+001  5.875876e+001 
4090625000  -2.444552e+001  5.720409e+001 
4093750000  -2.437251e+001  5.801546e+001 
4096875000  -2.385592e+001  5.236934e+001 
4100000000  -2.448034e+001  4.569535e+001 
4103125000  -2.532696e+001  4.563199e+001 
4106250000  -2.523997e+001  5.022881e+001 
4109375000  -2.436825e+001  5.007893e+001 
4112500000  -2.380877e+001  4.358414e+001 
4115625000  -2.405959e+001  3.905955e+001 
4118750000  -2.424673e+001  3.636339e+001 
4121875000  -2.388991e+001  3.137041e+001 
4125000000  -2.416312e+001  2.672118e+001 
4128125000  -2.518017e+001  2.685283e+001 
4131250000  -2.486459e+001  3.454108e+001 
4134375000  -2.255283e+001  3.065004e+001 
4137500000  -2.225400e+001  1.185349e+001 
4140625000  -2.431334e+001  4.382313e+000 
4143750000  -2.575087e+001  8.773767e+000 
4146875000  -2.533178e+001  1.615110e+001 
4150000000  -2.443993e+001  1.318019e+001 
4153125000  -2.422722e+001  6.452231e+000 
4156250000  -2.506248e+001  3.583808e+000 
4159375000  -2.545224e+001  7.669413e+000 
4162500000  -2.426937e+001  1.201854e+001 
4165625000  -2.317721e+001  8.403354e+000 
4168750000  -2.256398e+001  1.557581e+000 
4171875000  -2.248810e+001  -7.624485e+000 
4175000000  -2.302379e+001  -1.374669e+001 
4178125000  -2.365536e+001  -1.423351e+001 
4181250000  -2.355165e+001  -1.438015e+001 
4184375000  -2.340407e+001  -1.778197e+001 
4187500000  -2.345790e+001  -2.061168e+001 
4190625000  -2.330167e+001  -2.579825e+001 
4193750000  -2.400105e+001  -3.005305e+001 
4196875000  -2.477630e+001  -3.003466e+001 
4200000000  -2.551156e+001  -2.820038e+001 
4203125000  -2.558859e+001  -1.545198e+001 
4206250000  -2.247473e+001  -1.299169e+001 
4209375000  -2.120320e+001  -3.320287e+001 
4212500000  -2.304330e+001  -4.219188e+001 
4215625000  -2.407199e+001  -3.571298e+001 
4218750000  -2.269949e+001  -2.873371e+001 
4221875000  -2.026107e+001  -3.808162e+001 
4225000000  -2.147597e+001  -5.174757e+001 
4228125000  -2.225386e+001  -4.676993e+001 
4231250000  -2.079545e+001  -5.006777e+001 
4234375000  -2.066278e+001  -5.833816e+001 
4237500000  -2.027381e+001  -6.206287e+001 
4240625000  -2.033591e+001  -7.036588e+001 
4243750000  -2.128825e+001  -7.684522e+001 
4246875000  -2.210110e+001  -7.684299e+001 
4250000000  -2.211728e+001  -7.414954e+001 
4253125000  -2.154401e+001  -7.606045e+001 
4256250000  -2.170607e+001  -8.035194e+001 
4259375000  -2.157794e+001  -8.259053e+001 
4262500000  -2.155227e+001  -8.672325e+001 
4265625000  -2.171622e+001  -8.617963e+001 
4268750000  -2.096714e+001  -9.009051e+001 
4271875000  -2.067132e+001  -9.517533e+001 
4275000000  -1.998265e+001  -1.016516e+002 
4278125000  -2.046527e+001  -1.135965e+002 
4281250000  -2.225540e+001  -1.161288e+002 
4284375000  -2.207554e+001  -1.155140e+002 
4287500000  -2.287891e+001  -1.191501e+002 
4290625000  -2.425883e+001  -1.101837e+002 
4293750000  -2.233070e+001  -1.033134e+002 
4296875000  -2.090698e+001  -1.146254e+002 
4300000000  -2.170001e+001  -1.238532e+002 
4303125000  -2.274992e+001  -1.232839e+002 
4306250000  -2.218094e+001  -1.173151e+002 
4309375000  -2.080431e+001  -1.194380e+002 
4312500000  -2.074754e+001  -1.281397e+002 
4315625000  -2.102409e+001  -1.339170e+002 
4318750000  -2.130619e+001  -1.372571e+002 
4321875000  -2.143664e+001  -1.367097e+002 
4325000000  -2.085478e+001  -1.363230e+002 
4328125000  -2.035794e+001  -1.430236e+002 
4331250000  -2.039020e+001  -1.507090e+002 
4334375000  -2.079066e+001  -1.553609e+002 
4337500000  -2.154167e+001  -1.578039e+002 
4340625000  -2.208066e+001  -1.552076e+002 
4343750000  -2.155508e+001  -1.542995e+002 
4346875000  -2.115332e+001  -1.593547e+002 
4350000000  -2.106615e+001  -1.637977e+002 
4353125000  -2.105380e+001  -1.717142e+002 
4356250000  -2.263469e+001  -1.741653e+002 
4359375000  -2.348085e+001  -1.616421e+002 
4362500000  -2.104255e+001  -1.586945e+002 
4365625000  -1.938303e+001  -1.696461e+002 
4368750000  -1.999864e+001  1.783811e+002 
4371875000  -2.115531e+001  1.782612e+002 
4375000000  -2.087771e+001  1.797055e+002 
4378125000  -2.028014e+001  1.743383e+002 
4381250000  -2.035425e+001  1.688277e+002 
4384375000  -2.016892e+001  1.642502e+002 
4387500000  -2.074372e+001  1.582834e+002 
4390625000  -2.181655e+001  1.586487e+002 
4393750000  -2.132098e+001  1.610655e+002 
4396875000  -2.062590e+001  1.586151e+002 
4400000000  -2.016289e+001  1.521279e+002 
4403125000  -2.056675e+001  1.441818e+002 
4406250000  -2.145855e+001  1.428311e+002 
4409375000  -2.138476e+001  1.404140e+002 
4412500000  -2.233064e+001  1.372874e+002 
4415625000  -2.283374e+001  1.417976e+002 
4418750000  -2.181283e+001  1.468192e+002 
