!Agilent Technologies,E8363B,MY43030201,A.06.04.32
!Agilent E8363B: A.06.04.32
!Date: Tuesday, November 11, 2014 20:53:32
!Correction: S21(Response(S21)) 
!S1P File: Measurement: S21:
# Hz S  dB   R 50
3000000000  -2.660162e+001  1.504124e+002 
3003125000  -2.802079e+001  1.459748e+002 
3006250000  -2.807842e+001  1.432257e+002 
3009375000  -2.844579e+001  1.480969e+002 
3012500000  -2.784260e+001  1.475662e+002 
3015625000  -2.693588e+001  1.407619e+002 
3018750000  -2.778246e+001  1.399518e+002 
3021875000  -2.648778e+001  1.410779e+002 
3025000000  -2.518848e+001  1.381444e+002 
3028125000  -2.422904e+001  1.329802e+002 
3031250000  -2.320563e+001  1.218418e+002 
3034375000  -2.281868e+001  1.089014e+002 
3037500000  -2.318800e+001  9.692877e+001 
3040625000  -2.454541e+001  9.189614e+001 
3043750000  -2.523158e+001  8.745864e+001 
3046875000  -2.534150e+001  8.117707e+001 
3050000000  -2.700513e+001  7.402773e+001 
3053125000  -2.717092e+001  8.093604e+001 
3056250000  -2.653893e+001  8.365662e+001 
3059375000  -2.681136e+001  8.319591e+001 
3062500000  -2.529820e+001  7.962070e+001 
3065625000  -2.510677e+001  7.368009e+001 
3068750000  -2.476670e+001  6.667908e+001 
3071875000  -2.474318e+001  6.401093e+001 
3075000000  -2.471930e+001  5.999996e+001 
3078125000  -2.445225e+001  5.528189e+001 
3081250000  -2.509360e+001  5.121055e+001 
3084375000  -2.435057e+001  4.758307e+001 
3087500000  -2.423575e+001  4.396757e+001 
3090625000  -2.394201e+001  3.424547e+001 
3093750000  -2.438469e+001  2.639325e+001 
3096875000  -2.566022e+001  2.053086e+001 
3100000000  -2.576769e+001  1.907159e+001 
3103125000  -2.617650e+001  2.051317e+001 
3106250000  -2.589712e+001  1.694888e+001 
3109375000  -2.612696e+001  1.357535e+001 
3112500000  -2.627763e+001  1.253039e+001 
3115625000  -2.605317e+001  8.466994e+000 
3118750000  -2.655398e+001  9.519442e+000 
3121875000  -2.589707e+001  1.446012e+000 
3125000000  -2.704929e+001  -2.040696e+000 
3128125000  -2.828719e+001  6.282687e+000 
3131250000  -2.607020e+001  6.943280e+000 
3134375000  -2.477211e+001  -6.750958e+000 
3137500000  -2.535571e+001  -2.047189e+001 
3140625000  -2.697437e+001  -2.200371e+001 
3143750000  -2.801293e+001  -1.834946e+001 
3146875000  -2.763012e+001  -1.620088e+001 
3150000000  -2.658117e+001  -1.378259e+001 
3153125000  -2.655465e+001  -2.184125e+001 
3156250000  -2.756536e+001  -1.619102e+001 
3159375000  -2.590929e+001  -1.357600e+001 
3162500000  -2.387987e+001  -2.637255e+001 
3165625000  -2.485560e+001  -3.714967e+001 
3168750000  -2.520109e+001  -3.621186e+001 
3171875000  -2.430363e+001  -4.075981e+001 
3175000000  -2.494905e+001  -4.836742e+001 
3178125000  -2.471871e+001  -4.663460e+001 
3181250000  -2.353834e+001  -5.071738e+001 
3184375000  -2.275930e+001  -6.296883e+001 
3187500000  -2.388771e+001  -7.799824e+001 
3190625000  -2.663220e+001  -8.587950e+001 
3193750000  -2.718491e+001  -7.608755e+001 
3196875000  -2.681235e+001  -7.078590e+001 
3200000000  -2.590289e+001  -7.277695e+001 
3203125000  -2.506962e+001  -7.849425e+001 
3206250000  -2.539045e+001  -8.448113e+001 
3209375000  -2.492748e+001  -8.976204e+001 
3212500000  -2.507461e+001  -9.638852e+001 
3215625000  -2.516577e+001  -1.000343e+002 
3218750000  -2.592009e+001  -1.065883e+002 
3221875000  -2.691078e+001  -1.117639e+002 
3225000000  -2.650695e+001  -1.121757e+002 
3228125000  -2.685425e+001  -1.170087e+002 
3231250000  -2.757821e+001  -1.195491e+002 
3234375000  -2.744142e+001  -1.185407e+002 
3237500000  -2.746490e+001  -1.201600e+002 
3240625000  -2.714017e+001  -1.218947e+002 
3243750000  -2.679417e+001  -1.285960e+002 
3246875000  -2.728570e+001  -1.351770e+002 
3250000000  -2.775156e+001  -1.366238e+002 
3253125000  -2.786218e+001  -1.385367e+002 
3256250000  -2.770593e+001  -1.447660e+002 
3259375000  -2.806998e+001  -1.521557e+002 
3262500000  -2.936628e+001  -1.547715e+002 
3265625000  -2.994651e+001  -1.515062e+002 
3268750000  -2.995981e+001  -1.485674e+002 
3271875000  -2.969539e+001  -1.477688e+002 
3275000000  -2.866410e+001  -1.527698e+002 
3278125000  -2.907232e+001  -1.589387e+002 
3281250000  -2.933643e+001  -1.573411e+002 
3284375000  -2.895487e+001  -1.632659e+002 
3287500000  -2.897886e+001  -1.659411e+002 
3290625000  -2.947940e+001  -1.703937e+002 
3293750000  -2.921706e+001  -1.758290e+002 
3296875000  -3.022621e+001  -1.756801e+002 
3300000000  -3.008410e+001  -1.750299e+002 
3303125000  -2.893466e+001  -1.788001e+002 
3306250000  -2.877792e+001  1.747899e+002 
3309375000  -2.850203e+001  1.697610e+002 
3312500000  -2.857329e+001  1.591256e+002 
3315625000  -2.957761e+001  1.514656e+002 
3318750000  -3.093715e+001  1.489846e+002 
3321875000  -3.209175e+001  1.486139e+002 
3325000000  -3.268706e+001  1.533554e+002 
3328125000  -3.259990e+001  1.549949e+002 
3331250000  -3.134113e+001  1.625544e+002 
3334375000  -2.873487e+001  1.534506e+002 
3337500000  -2.878587e+001  1.348731e+002 
3340625000  -3.019159e+001  1.236013e+002 
3343750000  -3.213588e+001  1.224977e+002 
3346875000  -3.263857e+001  1.238032e+002 
3350000000  -3.198909e+001  1.230272e+002 
3353125000  -3.209772e+001  1.182125e+002 
3356250000  -3.179273e+001  1.107345e+002 
3359375000  -3.276668e+001  1.023985e+002 
3362500000  -3.396119e+001  9.689793e+001 
3365625000  -3.468152e+001  9.524783e+001 
3368750000  -3.556501e+001  9.443779e+001 
3371875000  -3.600171e+001  9.018538e+001 
3375000000  -3.759221e+001  8.801876e+001 
3378125000  -3.857232e+001  8.740948e+001 
3381250000  -4.015063e+001  9.495058e+001 
3384375000  -3.948459e+001  1.176751e+002 
3387500000  -3.596287e+001  1.027739e+002 
3390625000  -3.788634e+001  8.422758e+001 
3393750000  -3.983703e+001  8.803237e+001 
3396875000  -3.903100e+001  9.199807e+001 
3400000000  -3.893692e+001  8.460676e+001 
3403125000  -3.996336e+001  7.933511e+001 
3406250000  -4.052046e+001  8.325314e+001 
3409375000  -4.140461e+001  7.814098e+001 
3412500000  -4.229001e+001  8.086636e+001 
3415625000  -4.304229e+001  8.461784e+001 
3418750000  -4.362745e+001  8.954626e+001 
3421875000  -4.358934e+001  9.500978e+001 
3425000000  -4.297622e+001  9.805562e+001 
3428125000  -4.191136e+001  9.903882e+001 
3431250000  -4.188649e+001  9.506747e+001 
3434375000  -4.139012e+001  9.037965e+001 
3437500000  -4.197248e+001  8.843031e+001 
3440625000  -4.249771e+001  9.159472e+001 
3443750000  -4.094217e+001  9.235291e+001 
3446875000  -4.023364e+001  8.895033e+001 
3450000000  -4.022169e+001  7.946740e+001 
3453125000  -4.033362e+001  7.199804e+001 
3456250000  -4.170779e+001  6.710078e+001 
3459375000  -4.280888e+001  7.026445e+001 
3462500000  -4.280962e+001  7.044490e+001 
3465625000  -4.268702e+001  6.582057e+001 
3468750000  -4.329396e+001  6.393314e+001 
3471875000  -4.333552e+001  6.534641e+001 
3475000000  -4.311778e+001  5.955470e+001 
3478125000  -4.427244e+001  5.266489e+001 
3481250000  -4.543809e+001  5.633680e+001 
3484375000  -4.675109e+001  6.132437e+001 
3487500000  -4.646077e+001  6.427754e+001 
3490625000  -4.545331e+001  5.930868e+001 
3493750000  -4.653566e+001  5.557341e+001 
3496875000  -4.744517e+001  5.739758e+001 
3500000000  -4.874192e+001  6.583856e+001 
3503125000  -4.882609e+001  7.262789e+001 
3506250000  -4.791664e+001  7.331666e+001 
3509375000  -4.746800e+001  6.575932e+001 
3512500000  -4.789152e+001  7.183475e+001 
3515625000  -4.822281e+001  7.451553e+001 
3518750000  -4.939219e+001  7.892191e+001 
3521875000  -4.849110e+001  8.668693e+001 
3525000000  -4.862826e+001  8.484737e+001 
3528125000  -4.777836e+001  9.662002e+001 
3531250000  -4.578183e+001  9.964117e+001 
3534375000  -4.520902e+001  9.015134e+001 
3537500000  -4.530531e+001  8.350946e+001 
3540625000  -4.590953e+001  8.437012e+001 
3543750000  -4.591924e+001  9.079664e+001 
3546875000  -4.561620e+001  1.026316e+002 
3550000000  -4.308528e+001  1.012832e+002 
3553125000  -4.125428e+001  8.582573e+001 
3556250000  -4.262739e+001  8.146550e+001 
3559375000  -4.199662e+001  8.196692e+001 
3562500000  -4.065956e+001  7.478642e+001 
3565625000  -4.168890e+001  6.905821e+001 
3568750000  -4.156867e+001  7.184099e+001 
3571875000  -4.160329e+001  7.204100e+001 
3575000000  -4.074738e+001  6.571882e+001 
3578125000  -4.147496e+001  6.238905e+001 
3581250000  -4.127455e+001  6.123051e+001 
3584375000  -4.045876e+001  6.301332e+001 
3587500000  -3.996309e+001  5.506335e+001 
3590625000  -4.004008e+001  4.684482e+001 
3593750000  -4.107710e+001  4.536877e+001 
3596875000  -4.105042e+001  5.328607e+001 
3600000000  -3.966590e+001  5.032737e+001 
3603125000  -3.954442e+001  3.770834e+001 
3606250000  -4.043778e+001  3.360165e+001 
3609375000  -4.060957e+001  3.314198e+001 
3612500000  -4.094483e+001  3.248209e+001 
3615625000  -4.095959e+001  2.970001e+001 
3618750000  -4.178069e+001  3.176052e+001 
3621875000  -4.149576e+001  3.054252e+001 
3625000000  -4.170933e+001  2.859294e+001 
3628125000  -4.161425e+001  2.860966e+001 
3631250000  -4.111673e+001  2.580426e+001 
3634375000  -4.243684e+001  2.732575e+001 
3637500000  -4.192160e+001  3.217740e+001 
3640625000  -4.086015e+001  3.410779e+001 
3643750000  -4.065076e+001  2.896584e+001 
3646875000  -4.105220e+001  2.301073e+001 
3650000000  -4.154865e+001  2.267959e+001 
3653125000  -4.122731e+001  2.144286e+001 
3656250000  -4.169461e+001  2.003948e+001 
3659375000  -4.180550e+001  2.404194e+001 
3662500000  -4.091505e+001  2.341822e+001 
3665625000  -4.118447e+001  2.439705e+001 
3668750000  -3.999856e+001  2.664688e+001 
3671875000  -3.893234e+001  1.987583e+001 
3675000000  -3.938890e+001  1.497869e+001 
3678125000  -3.994862e+001  1.712757e+001 
3681250000  -3.940014e+001  1.649298e+001 
3684375000  -3.938728e+001  1.404155e+001 
3687500000  -3.954028e+001  1.449653e+001 
3690625000  -3.963562e+001  1.220098e+001 
3693750000  -4.006173e+001  1.274435e+001 
3696875000  -3.987318e+001  1.785025e+001 
3700000000  -3.858143e+001  1.327003e+001 
3703125000  -3.845431e+001  9.612735e+000 
3706250000  -3.912524e+001  1.218823e+001 
3709375000  -3.841800e+001  1.534161e+001 
3712500000  -3.730535e+001  1.548798e+001 
3715625000  -3.623196e+001  8.452023e+000 
3718750000  -3.547931e+001  5.443753e+000 
3721875000  -3.516360e+001  1.207604e+000 
3725000000  -3.513126e+001  -3.577982e+000 
3728125000  -3.531591e+001  -5.405638e+000 
3731250000  -3.461946e+001  -5.975814e+000 
3734375000  -3.358738e+001  -1.167496e+001 
3737500000  -3.421223e+001  -1.863141e+001 
3740625000  -3.475391e+001  -2.137420e+001 
3743750000  -3.460443e+001  -2.346234e+001 
3746875000  -3.443653e+001  -2.687162e+001 
3750000000  -3.482949e+001  -2.780378e+001 
3753125000  -3.445079e+001  -2.817895e+001 
3756250000  -3.439154e+001  -2.871645e+001 
3759375000  -3.419888e+001  -2.911067e+001 
3762500000  -3.369526e+001  -3.312751e+001 
3765625000  -3.412959e+001  -3.658444e+001 
3768750000  -3.432924e+001  -3.362172e+001 
3771875000  -3.240610e+001  -3.638725e+001 
3775000000  -3.209507e+001  -4.368722e+001 
3778125000  -3.256318e+001  -4.470645e+001 
3781250000  -3.225483e+001  -4.839621e+001 
3784375000  -3.225912e+001  -4.948967e+001 
3787500000  -3.157960e+001  -5.357307e+001 
3790625000  -3.210069e+001  -5.922394e+001 
3793750000  -3.218491e+001  -5.986858e+001 
3796875000  -3.139937e+001  -6.104631e+001 
3800000000  -2.977889e+001  -6.481091e+001 
3803125000  -3.050655e+001  -7.159923e+001 
3806250000  -3.111040e+001  -7.447644e+001 
3809375000  -3.090806e+001  -7.539415e+001 
3812500000  -3.029060e+001  -8.047512e+001 
3815625000  -3.098872e+001  -8.773678e+001 
3818750000  -3.185684e+001  -8.889114e+001 
3821875000  -3.184506e+001  -8.014115e+001 
3825000000  -2.995607e+001  -7.553252e+001 
3828125000  -2.859108e+001  -8.988502e+001 
3831250000  -2.910690e+001  -1.040129e+002 
3834375000  -3.043422e+001  -1.052222e+002 
3837500000  -3.142343e+001  -1.001572e+002 
3840625000  -3.030280e+001  -1.014085e+002 
3843750000  -2.907764e+001  -1.115716e+002 
3846875000  -2.980900e+001  -1.181886e+002 
3850000000  -3.107222e+001  -1.124797e+002 
3853125000  -3.028006e+001  -1.099620e+002 
3856250000  -3.027429e+001  -1.153017e+002 
3859375000  -2.962211e+001  -1.191362e+002 
3862500000  -2.909553e+001  -1.260667e+002 
3865625000  -2.945621e+001  -1.312668e+002 
3868750000  -2.939740e+001  -1.313543e+002 
3871875000  -2.865569e+001  -1.339313e+002 
3875000000  -2.876680e+001  -1.424887e+002 
3878125000  -2.986141e+001  -1.448402e+002 
3881250000  -2.991695e+001  -1.419881e+002 
3884375000  -2.936106e+001  -1.464678e+002 
3887500000  -2.943730e+001  -1.508893e+002 
3890625000  -3.000532e+001  -1.530024e+002 
3893750000  -3.044973e+001  -1.542687e+002 
3896875000  -3.056563e+001  -1.532935e+002 
3900000000  -3.072547e+001  -1.546025e+002 
3903125000  -3.042517e+001  -1.568199e+002 
3906250000  -3.010963e+001  -1.569100e+002 
3909375000  -2.939669e+001  -1.601053e+002 
3912500000  -2.944900e+001  -1.673074e+002 
3915625000  -3.062416e+001  -1.668534e+002 
3918750000  -3.067921e+001  -1.650648e+002 
3921875000  -3.030289e+001  -1.661288e+002 
3925000000  -2.939077e+001  -1.669564e+002 
3928125000  -2.865353e+001  -1.726514e+002 
3931250000  -2.917956e+001  -1.769228e+002 
3934375000  -2.942491e+001  -1.768945e+002 
3937500000  -2.953181e+001  -1.774964e+002 
3940625000  -3.005577e+001  -1.771913e+002 
3943750000  -2.907878e+001  -1.756577e+002 
3946875000  -2.785043e+001  1.788105e+002 
3950000000  -2.824868e+001  1.712537e+002 
3953125000  -2.923930e+001  1.718871e+002 
3956250000  -2.836822e+001  1.745748e+002 
3959375000  -2.697253e+001  1.709905e+002 
3962500000  -2.649275e+001  1.667512e+002 
3965625000  -2.614049e+001  1.582387e+002 
3968750000  -2.703801e+001  1.518365e+002 
3971875000  -2.746375e+001  1.497130e+002 
3975000000  -2.686160e+001  1.476846e+002 
3978125000  -2.663161e+001  1.463866e+002 
3981250000  -2.644052e+001  1.422843e+002 
3984375000  -2.657182e+001  1.361364e+002 
3987500000  -2.712581e+001  1.341323e+002 
3990625000  -2.711315e+001  1.331245e+002 
3993750000  -2.732820e+001  1.300139e+002 
3996875000  -2.735457e+001  1.276502e+002 
4000000000  -2.740324e+001  1.249402e+002 
4003125000  -2.799533e+001  1.281714e+002 
4006250000  -2.662000e+001  1.287443e+002 
4009375000  -2.534938e+001  1.163590e+002 
4012500000  -2.634394e+001  1.091948e+002 
4015625000  -2.761440e+001  1.093967e+002 
4018750000  -2.777663e+001  1.119129e+002 
4021875000  -2.711499e+001  1.105107e+002 
4025000000  -2.672457e+001  1.058061e+002 
4028125000  -2.659283e+001  1.013694e+002 
4031250000  -2.709915e+001  9.831809e+001 
4034375000  -2.730030e+001  9.806654e+001 
4037500000  -2.688514e+001  9.935796e+001 
4040625000  -2.671120e+001  9.628519e+001 
4043750000  -2.707072e+001  9.616837e+001 
4046875000  -2.657896e+001  9.557086e+001 
4050000000  -2.607071e+001  8.969256e+001 
4053125000  -2.654608e+001  8.747322e+001 
4056250000  -2.714348e+001  9.141888e+001 
4059375000  -2.594316e+001  9.306977e+001 
4062500000  -2.458457e+001  8.861119e+001 
4065625000  -2.447235e+001  8.462374e+001 
4068750000  -2.419050e+001  8.028412e+001 
4071875000  -2.349037e+001  7.234978e+001 
4075000000  -2.383035e+001  6.593557e+001 
4078125000  -2.434087e+001  6.477350e+001 
4081250000  -2.382322e+001  6.177525e+001 
4084375000  -2.349572e+001  5.512600e+001 
4087500000  -2.383760e+001  4.879771e+001 
4090625000  -2.443067e+001  4.776862e+001 
4093750000  -2.425963e+001  4.869312e+001 
4096875000  -2.389749e+001  4.233232e+001 
4100000000  -2.453070e+001  3.546122e+001 
4103125000  -2.536432e+001  3.635379e+001 
4106250000  -2.527163e+001  4.112109e+001 
4109375000  -2.435248e+001  4.047560e+001 
4112500000  -2.379850e+001  3.378086e+001 
4115625000  -2.408536e+001  2.936161e+001 
4118750000  -2.424164e+001  2.647727e+001 
4121875000  -2.393186e+001  2.197704e+001 
4125000000  -2.424537e+001  1.682824e+001 
4128125000  -2.530768e+001  1.769254e+001 
4131250000  -2.485654e+001  2.592677e+001 
4134375000  -2.254173e+001  2.150793e+001 
4137500000  -2.229096e+001  2.119447e+000 
4140625000  -2.447120e+001  -5.339339e+000 
4143750000  -2.589331e+001  -2.772616e-001 
4146875000  -2.539173e+001  7.142479e+000 
4150000000  -2.441034e+001  4.140934e+000 
4153125000  -2.426144e+001  -2.653161e+000 
4156250000  -2.510058e+001  -5.498175e+000 
4159375000  -2.546691e+001  -1.000638e+000 
4162500000  -2.431173e+001  3.350589e+000 
4165625000  -2.315974e+001  -4.720341e-001 
4168750000  -2.255440e+001  -7.819798e+000 
4171875000  -2.247442e+001  -1.697218e+001 
4175000000  -2.300459e+001  -2.270807e+001 
4178125000  -2.359833e+001  -2.297400e+001 
4181250000  -2.352655e+001  -2.390133e+001 
4184375000  -2.330164e+001  -2.740521e+001 
4187500000  -2.336102e+001  -3.009353e+001 
4190625000  -2.325586e+001  -3.582022e+001 
4193750000  -2.401521e+001  -3.945800e+001 
4196875000  -2.477388e+001  -4.004287e+001 
4200000000  -2.551463e+001  -3.731899e+001 
4203125000  -2.559764e+001  -2.441061e+001 
4206250000  -2.230692e+001  -2.275714e+001 
4209375000  -2.113544e+001  -4.330173e+001 
4212500000  -2.305703e+001  -5.205590e+001 
4215625000  -2.397266e+001  -4.523545e+001 
4218750000  -2.259116e+001  -3.864652e+001 
4221875000  -2.026347e+001  -4.826989e+001 
4225000000  -2.150798e+001  -6.125994e+001 
4228125000  -2.218847e+001  -5.622528e+001 
4231250000  -2.078817e+001  -5.995374e+001 
4234375000  -2.062777e+001  -6.838397e+001 
4237500000  -2.024638e+001  -7.209891e+001 
4240625000  -2.029630e+001  -8.046877e+001 
4243750000  -2.127645e+001  -8.667509e+001 
4246875000  -2.215001e+001  -8.658266e+001 
4250000000  -2.215660e+001  -8.382365e+001 
4253125000  -2.153046e+001  -8.600574e+001 
4256250000  -2.176646e+001  -9.011438e+001 
4259375000  -2.158070e+001  -9.240041e+001 
4262500000  -2.157455e+001  -9.609037e+001 
4265625000  -2.172336e+001  -9.583314e+001 
4268750000  -2.095150e+001  -9.968021e+001 
4271875000  -2.064016e+001  -1.051733e+002 
4275000000  -1.997337e+001  -1.115956e+002 
4278125000  -2.054325e+001  -1.232310e+002 
4281250000  -2.228471e+001  -1.254606e+002 
4284375000  -2.208005e+001  -1.249503e+002 
4287500000  -2.295234e+001  -1.286854e+002 
4290625000  -2.424899e+001  -1.191527e+002 
4293750000  -2.226375e+001  -1.126223e+002 
4296875000  -2.085142e+001  -1.241565e+002 
4300000000  -2.166825e+001  -1.333687e+002 
4303125000  -2.267934e+001  -1.322827e+002 
4306250000  -2.201655e+001  -1.267532e+002 
4309375000  -2.068539e+001  -1.292001e+002 
4312500000  -2.062727e+001  -1.377990e+002 
4315625000  -2.090726e+001  -1.437999e+002 
4318750000  -2.120555e+001  -1.467203e+002 
4321875000  -2.136267e+001  -1.462846e+002 
4325000000  -2.078040e+001  -1.461507e+002 
4328125000  -2.026607e+001  -1.527714e+002 
4331250000  -2.027512e+001  -1.607441e+002 
4334375000  -2.076011e+001  -1.653970e+002 
4337500000  -2.153459e+001  -1.679680e+002 
4340625000  -2.200594e+001  -1.649478e+002 
4343750000  -2.145728e+001  -1.645304e+002 
4346875000  -2.106977e+001  -1.697876e+002 
4350000000  -2.096349e+001  -1.743146e+002 
4353125000  -2.105525e+001  1.774449e+002 
4356250000  -2.278300e+001  1.759722e+002 
4359375000  -2.344892e+001  -1.708379e+002 
4362500000  -2.087990e+001  -1.683469e+002 
4365625000  -1.934799e+001  1.799734e+002 
4368750000  -1.996514e+001  1.681432e+002 
4371875000  -2.112472e+001  1.685341e+002 
4375000000  -2.081593e+001  1.696511e+002 
4378125000  -2.024372e+001  1.639864e+002 
4381250000  -2.034831e+001  1.585272e+002 
4384375000  -2.017502e+001  1.540502e+002 
4387500000  -2.080961e+001  1.477518e+002 
4390625000  -2.182572e+001  1.485413e+002 
4393750000  -2.131709e+001  1.509619e+002 
4396875000  -2.062076e+001  1.484911e+002 
4400000000  -2.012745e+001  1.419016e+002 
4403125000  -2.066301e+001  1.340789e+002 
4406250000  -2.151154e+001  1.329449e+002 
4409375000  -2.143150e+001  1.304026e+002 
4412500000  -2.238292e+001  1.274440e+002 
4415625000  -2.281940e+001  1.321466e+002 
4418750000  -2.176319e+001  1.372836e+002 
