!Agilent Technologies,E8363B,MY43030201,A.06.04.32
!Agilent E8363B: A.06.04.32
!Date: Tuesday, November 11, 2014 20:46:46
!Correction: S21(Response(S21)) 
!S1P File: Measurement: S21:
# Hz S  dB   R 50
3000000000  -2.646267e+001  1.554962e+002 
3003125000  -2.786472e+001  1.513431e+002 
3006250000  -2.788692e+001  1.483618e+002 
3009375000  -2.825166e+001  1.531062e+002 
3012500000  -2.776767e+001  1.531824e+002 
3015625000  -2.675120e+001  1.461731e+002 
3018750000  -2.761814e+001  1.452675e+002 
3021875000  -2.641154e+001  1.465493e+002 
3025000000  -2.509298e+001  1.434018e+002 
3028125000  -2.411699e+001  1.385841e+002 
3031250000  -2.306234e+001  1.275298e+002 
3034375000  -2.267198e+001  1.145603e+002 
3037500000  -2.304468e+001  1.025064e+002 
3040625000  -2.434369e+001  9.752747e+001 
3043750000  -2.509203e+001  9.309933e+001 
3046875000  -2.517874e+001  8.673190e+001 
3050000000  -2.694186e+001  7.962276e+001 
3053125000  -2.710955e+001  8.604230e+001 
3056250000  -2.643917e+001  8.914834e+001 
3059375000  -2.668974e+001  8.883707e+001 
3062500000  -2.525109e+001  8.490253e+001 
3065625000  -2.498289e+001  7.951122e+001 
3068750000  -2.471770e+001  7.264902e+001 
3071875000  -2.462258e+001  6.946095e+001 
3075000000  -2.468077e+001  6.605516e+001 
3078125000  -2.435791e+001  6.105144e+001 
3081250000  -2.501603e+001  5.709014e+001 
3084375000  -2.427288e+001  5.342038e+001 
3087500000  -2.414685e+001  4.992175e+001 
3090625000  -2.384517e+001  4.043692e+001 
3093750000  -2.424063e+001  3.240238e+001 
3096875000  -2.558729e+001  2.610810e+001 
3100000000  -2.573524e+001  2.470836e+001 
3103125000  -2.608272e+001  2.640255e+001 
3106250000  -2.586495e+001  2.263624e+001 
3109375000  -2.610615e+001  1.918398e+001 
3112500000  -2.620605e+001  1.852196e+001 
3115625000  -2.597029e+001  1.428746e+001 
3118750000  -2.647962e+001  1.541679e+001 
3121875000  -2.584822e+001  7.644722e+000 
3125000000  -2.696388e+001  3.954796e+000 
3128125000  -2.818732e+001  1.203016e+001 
3131250000  -2.605521e+001  1.265722e+001 
3134375000  -2.467559e+001  -7.215978e-001 
3137500000  -2.530620e+001  -1.492293e+001 
3140625000  -2.698582e+001  -1.659754e+001 
3143750000  -2.799350e+001  -1.207974e+001 
3146875000  -2.759999e+001  -1.058322e+001 
3150000000  -2.654053e+001  -7.866016e+000 
3153125000  -2.650571e+001  -1.568816e+001 
3156250000  -2.747303e+001  -1.062815e+001 
3159375000  -2.597304e+001  -7.212097e+000 
3162500000  -2.391206e+001  -1.998758e+001 
3165625000  -2.480723e+001  -3.134696e+001 
3168750000  -2.527394e+001  -3.050980e+001 
3171875000  -2.431342e+001  -3.431841e+001 
3175000000  -2.492129e+001  -4.231719e+001 
3178125000  -2.474556e+001  -4.049597e+001 
3181250000  -2.354508e+001  -4.437623e+001 
3184375000  -2.272484e+001  -5.682096e+001 
3187500000  -2.380002e+001  -7.221821e+001 
3190625000  -2.665511e+001  -7.973827e+001 
3193750000  -2.723720e+001  -7.015136e+001 
3196875000  -2.680951e+001  -6.463542e+001 
3200000000  -2.598718e+001  -6.643777e+001 
3203125000  -2.509925e+001  -7.198623e+001 
3206250000  -2.536213e+001  -7.827533e+001 
3209375000  -2.497780e+001  -8.328431e+001 
3212500000  -2.501575e+001  -9.025117e+001 
3215625000  -2.516898e+001  -9.480414e+001 
3218750000  -2.596536e+001  -1.006301e+002 
3221875000  -2.696826e+001  -1.056624e+002 
3225000000  -2.663411e+001  -1.061667e+002 
3228125000  -2.685835e+001  -1.108440e+002 
3231250000  -2.763797e+001  -1.136280e+002 
3234375000  -2.751394e+001  -1.125567e+002 
3237500000  -2.754021e+001  -1.139424e+002 
3240625000  -2.724649e+001  -1.155243e+002 
3243750000  -2.682631e+001  -1.221802e+002 
3246875000  -2.733794e+001  -1.290725e+002 
3250000000  -2.780087e+001  -1.306917e+002 
3253125000  -2.794918e+001  -1.325208e+002 
3256250000  -2.782775e+001  -1.381922e+002 
3259375000  -2.811105e+001  -1.460631e+002 
3262500000  -2.943101e+001  -1.489142e+002 
3265625000  -3.011535e+001  -1.454763e+002 
3268750000  -3.005707e+001  -1.429001e+002 
3271875000  -2.986455e+001  -1.417013e+002 
3275000000  -2.866591e+001  -1.464033e+002 
3278125000  -2.914013e+001  -1.532419e+002 
3281250000  -2.945451e+001  -1.509478e+002 
3284375000  -2.904613e+001  -1.572354e+002 
3287500000  -2.921610e+001  -1.598771e+002 
3290625000  -2.966534e+001  -1.636839e+002 
3293750000  -2.927986e+001  -1.696368e+002 
3296875000  -3.029045e+001  -1.692962e+002 
3300000000  -3.024034e+001  -1.685708e+002 
3303125000  -2.911791e+001  -1.723733e+002 
3306250000  -2.891046e+001  -1.793255e+002 
3309375000  -2.867760e+001  1.762394e+002 
3312500000  -2.865657e+001  1.656909e+002 
3315625000  -2.964272e+001  1.577831e+002 
3318750000  -3.101718e+001  1.550089e+002 
3321875000  -3.226531e+001  1.545787e+002 
3325000000  -3.286015e+001  1.594767e+002 
3328125000  -3.264160e+001  1.611517e+002 
3331250000  -3.158770e+001  1.686052e+002 
3334375000  -2.897324e+001  1.596308e+002 
3337500000  -2.904570e+001  1.412179e+002 
3340625000  -3.032363e+001  1.301468e+002 
3343750000  -3.230713e+001  1.283160e+002 
3346875000  -3.290257e+001  1.303572e+002 
3350000000  -3.218161e+001  1.288677e+002 
3353125000  -3.230558e+001  1.247904e+002 
3356250000  -3.207642e+001  1.167582e+002 
3359375000  -3.298809e+001  1.086803e+002 
3362500000  -3.421587e+001  1.032660e+002 
3365625000  -3.487302e+001  1.010287e+002 
3368750000  -3.583427e+001  9.991723e+001 
3371875000  -3.633128e+001  9.678873e+001 
3375000000  -3.776437e+001  9.406823e+001 
3378125000  -3.908524e+001  9.289005e+001 
3381250000  -4.040428e+001  1.011506e+002 
3384375000  -3.959227e+001  1.233667e+002 
3387500000  -3.649757e+001  1.091659e+002 
3390625000  -3.850373e+001  9.056954e+001 
3393750000  -4.027927e+001  9.517298e+001 
3396875000  -3.948442e+001  9.878187e+001 
3400000000  -3.950638e+001  9.041440e+001 
3403125000  -4.047022e+001  8.705112e+001 
3406250000  -4.154984e+001  8.907158e+001 
3409375000  -4.205365e+001  8.613430e+001 
3412500000  -4.291443e+001  8.827966e+001 
3415625000  -4.373606e+001  9.353219e+001 
3418750000  -4.424956e+001  9.708575e+001 
3421875000  -4.444830e+001  1.045310e+002 
3425000000  -4.359478e+001  1.094110e+002 
3428125000  -4.258499e+001  1.083292e+002 
3431250000  -4.270252e+001  1.056131e+002 
3434375000  -4.210011e+001  1.018760e+002 
3437500000  -4.264442e+001  1.011777e+002 
3440625000  -4.288585e+001  1.020266e+002 
3443750000  -4.174826e+001  1.044857e+002 
3446875000  -4.078439e+001  1.000509e+002 
3450000000  -4.071117e+001  9.154420e+001 
3453125000  -4.091881e+001  8.288152e+001 
3456250000  -4.195338e+001  7.792054e+001 
3459375000  -4.307547e+001  8.253903e+001 
3462500000  -4.303332e+001  8.270031e+001 
3465625000  -4.331525e+001  7.855200e+001 
3468750000  -4.333026e+001  7.425509e+001 
3471875000  -4.351040e+001  7.692124e+001 
3475000000  -4.341375e+001  7.153568e+001 
3478125000  -4.425599e+001  6.783266e+001 
3481250000  -4.511809e+001  6.619605e+001 
3484375000  -4.672281e+001  7.183165e+001 
3487500000  -4.646208e+001  7.499577e+001 
3490625000  -4.572666e+001  7.102900e+001 
3493750000  -4.655368e+001  6.902853e+001 
3496875000  -4.732931e+001  7.370965e+001 
3500000000  -4.845924e+001  7.898149e+001 
3503125000  -4.825285e+001  8.462305e+001 
3506250000  -4.713247e+001  8.679414e+001 
3509375000  -4.714683e+001  8.366811e+001 
3512500000  -4.732897e+001  8.358819e+001 
3515625000  -4.786960e+001  8.351432e+001 
3518750000  -4.792609e+001  8.921166e+001 
3521875000  -4.746327e+001  9.569894e+001 
3525000000  -4.776350e+001  9.442960e+001 
3528125000  -4.745982e+001  1.064096e+002 
3531250000  -4.534168e+001  1.049095e+002 
3534375000  -4.483203e+001  9.841933e+001 
3537500000  -4.455052e+001  9.475040e+001 
3540625000  -4.528953e+001  9.153349e+001 
3543750000  -4.528316e+001  9.623159e+001 
3546875000  -4.507015e+001  1.099462e+002 
3550000000  -4.254287e+001  1.102221e+002 
3553125000  -4.079811e+001  9.434734e+001 
3556250000  -4.221893e+001  8.742683e+001 
3559375000  -4.186057e+001  8.927170e+001 
3562500000  -4.044675e+001  8.335158e+001 
3565625000  -4.118865e+001  7.531581e+001 
3568750000  -4.143558e+001  7.752464e+001 
3571875000  -4.095605e+001  7.941840e+001 
3575000000  -4.047615e+001  7.303413e+001 
3578125000  -4.106440e+001  7.015166e+001 
3581250000  -4.100809e+001  6.816888e+001 
3584375000  -4.038100e+001  6.772410e+001 
3587500000  -3.960835e+001  6.117147e+001 
3590625000  -3.973002e+001  5.233640e+001 
3593750000  -4.091961e+001  5.087918e+001 
3596875000  -4.101824e+001  5.907114e+001 
3600000000  -3.929505e+001  5.497276e+001 
3603125000  -3.967481e+001  4.206501e+001 
3606250000  -4.014907e+001  3.996767e+001 
3609375000  -4.080545e+001  3.783127e+001 
3612500000  -4.122528e+001  3.643452e+001 
3615625000  -4.136831e+001  3.413099e+001 
3618750000  -4.174443e+001  3.641863e+001 
3621875000  -4.155328e+001  3.497449e+001 
3625000000  -4.163147e+001  3.629521e+001 
3628125000  -4.163216e+001  3.680756e+001 
3631250000  -4.155587e+001  3.282330e+001 
3634375000  -4.226210e+001  3.003472e+001 
3637500000  -4.203418e+001  3.734307e+001 
3640625000  -4.135415e+001  3.932804e+001 
3643750000  -4.071894e+001  3.430828e+001 
3646875000  -4.143650e+001  2.913630e+001 
3650000000  -4.173350e+001  2.940702e+001 
3653125000  -4.148424e+001  2.870487e+001 
3656250000  -4.162233e+001  2.825247e+001 
3659375000  -4.232436e+001  3.099560e+001 
3662500000  -4.146986e+001  3.062663e+001 
3665625000  -4.137902e+001  3.091698e+001 
3668750000  -4.055159e+001  3.274779e+001 
3671875000  -3.963706e+001  2.865509e+001 
3675000000  -3.980251e+001  2.306085e+001 
3678125000  -4.042117e+001  2.295339e+001 
3681250000  -3.986394e+001  2.485570e+001 
3684375000  -3.982977e+001  2.144475e+001 
3687500000  -3.985795e+001  2.037137e+001 
3690625000  -3.963566e+001  1.690440e+001 
3693750000  -4.015031e+001  1.948803e+001 
3696875000  -4.025594e+001  2.420871e+001 
3700000000  -3.895918e+001  2.059577e+001 
3703125000  -3.870529e+001  1.805834e+001 
3706250000  -3.924846e+001  1.885566e+001 
3709375000  -3.862313e+001  2.205861e+001 
3712500000  -3.731603e+001  2.235126e+001 
3715625000  -3.645057e+001  1.612724e+001 
3718750000  -3.573043e+001  1.308975e+001 
3721875000  -3.533546e+001  7.898753e+000 
3725000000  -3.528966e+001  2.859706e+000 
3728125000  -3.556916e+001  1.799240e+000 
3731250000  -3.487951e+001  2.334069e+000 
3734375000  -3.391862e+001  -3.664639e+000 
3737500000  -3.443449e+001  -1.050772e+001 
3740625000  -3.507757e+001  -1.479321e+001 
3743750000  -3.487111e+001  -1.501026e+001 
3746875000  -3.485225e+001  -1.936837e+001 
3750000000  -3.509907e+001  -1.981970e+001 
3753125000  -3.493425e+001  -1.962504e+001 
3756250000  -3.482015e+001  -2.059000e+001 
3759375000  -3.444944e+001  -2.117760e+001 
3762500000  -3.399417e+001  -2.514400e+001 
3765625000  -3.438603e+001  -2.765237e+001 
3768750000  -3.441284e+001  -2.529100e+001 
3771875000  -3.277738e+001  -2.658530e+001 
3775000000  -3.247947e+001  -3.535595e+001 
3778125000  -3.273341e+001  -3.609016e+001 
3781250000  -3.253463e+001  -3.994844e+001 
3784375000  -3.249442e+001  -4.152472e+001 
3787500000  -3.183422e+001  -4.464650e+001 
3790625000  -3.230193e+001  -5.030109e+001 
3793750000  -3.255070e+001  -5.050046e+001 
3796875000  -3.156223e+001  -5.275510e+001 
3800000000  -3.012541e+001  -5.640361e+001 
3803125000  -3.076293e+001  -6.304131e+001 
3806250000  -3.141832e+001  -6.560995e+001 
3809375000  -3.105706e+001  -6.657967e+001 
3812500000  -3.044329e+001  -7.121763e+001 
3815625000  -3.105060e+001  -7.930479e+001 
3818750000  -3.190252e+001  -8.101275e+001 
3821875000  -3.213396e+001  -7.266473e+001 
3825000000  -3.025822e+001  -6.864381e+001 
3828125000  -2.881939e+001  -8.149512e+001 
3831250000  -2.939496e+001  -9.523750e+001 
3834375000  -3.065128e+001  -9.729755e+001 
3837500000  -3.156576e+001  -9.207075e+001 
3840625000  -3.056492e+001  -9.316035e+001 
3843750000  -2.928239e+001  -1.028858e+002 
3846875000  -2.999956e+001  -1.105841e+002 
3850000000  -3.124182e+001  -1.047094e+002 
3853125000  -3.062173e+001  -1.021624e+002 
3856250000  -3.054759e+001  -1.072592e+002 
3859375000  -2.993579e+001  -1.118835e+002 
3862500000  -2.944323e+001  -1.188971e+002 
3865625000  -2.965094e+001  -1.232825e+002 
3868750000  -2.973843e+001  -1.239265e+002 
3871875000  -2.907461e+001  -1.263818e+002 
3875000000  -2.912642e+001  -1.344174e+002 
3878125000  -3.014243e+001  -1.373869e+002 
3881250000  -3.025787e+001  -1.344474e+002 
3884375000  -2.978713e+001  -1.383014e+002 
3887500000  -2.977107e+001  -1.430726e+002 
3890625000  -3.033698e+001  -1.448392e+002 
3893750000  -3.069922e+001  -1.461113e+002 
3896875000  -3.076190e+001  -1.455105e+002 
3900000000  -3.113564e+001  -1.461515e+002 
3903125000  -3.082051e+001  -1.486035e+002 
3906250000  -3.046586e+001  -1.493684e+002 
3909375000  -2.971725e+001  -1.517458e+002 
3912500000  -2.976148e+001  -1.587571e+002 
3915625000  -3.077339e+001  -1.580492e+002 
3918750000  -3.098651e+001  -1.565665e+002 
3921875000  -3.066284e+001  -1.581226e+002 
3925000000  -2.979677e+001  -1.592252e+002 
3928125000  -2.903907e+001  -1.646555e+002 
3931250000  -2.935513e+001  -1.692294e+002 
3934375000  -2.967606e+001  -1.689481e+002 
3937500000  -2.981522e+001  -1.698811e+002 
3940625000  -3.019690e+001  -1.698018e+002 
3943750000  -2.934405e+001  -1.679451e+002 
3946875000  -2.812174e+001  -1.733857e+002 
3950000000  -2.850947e+001  1.790175e+002 
3953125000  -2.951122e+001  1.787851e+002 
3956250000  -2.875501e+001  -1.791948e+002 
3959375000  -2.742595e+001  1.782706e+002 
3962500000  -2.693618e+001  1.746656e+002 
3965625000  -2.648284e+001  1.658493e+002 
3968750000  -2.740925e+001  1.590652e+002 
3971875000  -2.792126e+001  1.577342e+002 
3975000000  -2.721275e+001  1.556602e+002 
3978125000  -2.705371e+001  1.544671e+002 
3981250000  -2.681577e+001  1.502571e+002 
3984375000  -2.703983e+001  1.437863e+002 
3987500000  -2.756778e+001  1.415822e+002 
3990625000  -2.753968e+001  1.407702e+002 
3993750000  -2.785793e+001  1.372061e+002 
3996875000  -2.775348e+001  1.352607e+002 
4000000000  -2.787170e+001  1.335307e+002 
4003125000  -2.848378e+001  1.357027e+002 
4006250000  -2.710493e+001  1.362256e+002 
4009375000  -2.585147e+001  1.243013e+002 
4012500000  -2.691512e+001  1.170404e+002 
4015625000  -2.816443e+001  1.169950e+002 
4018750000  -2.829434e+001  1.196910e+002 
4021875000  -2.768465e+001  1.182151e+002 
4025000000  -2.727796e+001  1.138647e+002 
4028125000  -2.714692e+001  1.096371e+002 
4031250000  -2.768130e+001  1.067388e+002 
4034375000  -2.789559e+001  1.064414e+002 
4037500000  -2.738180e+001  1.083908e+002 
4040625000  -2.724238e+001  1.047495e+002 
4043750000  -2.753684e+001  1.045405e+002 
4046875000  -2.714994e+001  1.045586e+002 
4050000000  -2.663195e+001  9.852421e+001 
4053125000  -2.708310e+001  9.613999e+001 
4056250000  -2.766797e+001  1.003417e+002 
4059375000  -2.645963e+001  1.019267e+002 
4062500000  -2.510116e+001  9.708452e+001 
4065625000  -2.498900e+001  9.262024e+001 
4068750000  -2.467966e+001  8.754337e+001 
4071875000  -2.406420e+001  8.006461e+001 
4075000000  -2.438333e+001  7.353705e+001 
4078125000  -2.499673e+001  7.255715e+001 
4081250000  -2.448623e+001  7.013983e+001 
4084375000  -2.412160e+001  6.343948e+001 
4087500000  -2.444954e+001  5.729630e+001 
4090625000  -2.504543e+001  5.580715e+001 
4093750000  -2.489816e+001  5.654969e+001 
4096875000  -2.446459e+001  5.069193e+001 
4100000000  -2.514368e+001  4.358549e+001 
4103125000  -2.600391e+001  4.379010e+001 
4106250000  -2.596305e+001  4.886610e+001 
4109375000  -2.507309e+001  4.861063e+001 
4112500000  -2.455336e+001  4.235125e+001 
4115625000  -2.484065e+001  3.802984e+001 
4118750000  -2.490941e+001  3.531700e+001 
4121875000  -2.461432e+001  3.100178e+001 
4125000000  -2.492798e+001  2.589295e+001 
4128125000  -2.589859e+001  2.550859e+001 
4131250000  -2.570144e+001  3.355582e+001 
4134375000  -2.340154e+001  2.977571e+001 
4137500000  -2.310219e+001  1.126919e+001 
4140625000  -2.523136e+001  3.726302e+000 
4143750000  -2.655300e+001  8.547714e+000 
4146875000  -2.625152e+001  1.611868e+001 
4150000000  -2.525696e+001  1.327749e+001 
4153125000  -2.509974e+001  6.959311e+000 
4156250000  -2.596702e+001  4.298116e+000 
4159375000  -2.623042e+001  8.501269e+000 
4162500000  -2.512028e+001  1.265593e+001 
4165625000  -2.393234e+001  8.910826e+000 
4168750000  -2.329099e+001  1.808179e+000 
4171875000  -2.327622e+001  -7.333653e+000 
4175000000  -2.383783e+001  -1.313138e+001 
4178125000  -2.440133e+001  -1.331448e+001 
4181250000  -2.431190e+001  -1.388805e+001 
4184375000  -2.413731e+001  -1.712037e+001 
4187500000  -2.420156e+001  -1.992626e+001 
4190625000  -2.398161e+001  -2.515274e+001 
4193750000  -2.475489e+001  -2.929236e+001 
4196875000  -2.544591e+001  -2.982268e+001 
4200000000  -2.626988e+001  -2.806309e+001 
4203125000  -2.653380e+001  -1.501269e+001 
4206250000  -2.317170e+001  -1.279700e+001 
4209375000  -2.189422e+001  -3.315993e+001 
4212500000  -2.370485e+001  -4.201973e+001 
4215625000  -2.482245e+001  -3.670787e+001 
4218750000  -2.354568e+001  -2.992152e+001 
4221875000  -2.123722e+001  -3.836826e+001 
4225000000  -2.242193e+001  -5.137246e+001 
4228125000  -2.317144e+001  -4.668216e+001 
4231250000  -2.164134e+001  -4.980906e+001 
4234375000  -2.161007e+001  -5.793704e+001 
4237500000  -2.117547e+001  -6.114244e+001 
4240625000  -2.113655e+001  -6.971540e+001 
4243750000  -2.210825e+001  -7.626566e+001 
4246875000  -2.299268e+001  -7.654937e+001 
4250000000  -2.308740e+001  -7.362550e+001 
4253125000  -2.245248e+001  -7.548585e+001 
4256250000  -2.274467e+001  -7.967763e+001 
4259375000  -2.254779e+001  -8.163416e+001 
4262500000  -2.256923e+001  -8.488670e+001 
4265625000  -2.272693e+001  -8.469633e+001 
4268750000  -2.188980e+001  -8.841490e+001 
4271875000  -2.159091e+001  -9.402550e+001 
4275000000  -2.096045e+001  -1.002215e+002 
4278125000  -2.152285e+001  -1.115886e+002 
4281250000  -2.333266e+001  -1.137759e+002 
4284375000  -2.304024e+001  -1.127353e+002 
4287500000  -2.373029e+001  -1.164875e+002 
4290625000  -2.504760e+001  -1.071333e+002 
4293750000  -2.309710e+001  -1.012542e+002 
4296875000  -2.170732e+001  -1.125023e+002 
4300000000  -2.246489e+001  -1.218986e+002 
4303125000  -2.360019e+001  -1.210435e+002 
4306250000  -2.311633e+001  -1.150761e+002 
4309375000  -2.167941e+001  -1.167695e+002 
4312500000  -2.152156e+001  -1.251779e+002 
4315625000  -2.174219e+001  -1.312733e+002 
4318750000  -2.201040e+001  -1.348143e+002 
4321875000  -2.220811e+001  -1.344925e+002 
4325000000  -2.162321e+001  -1.338557e+002 
4328125000  -2.119018e+001  -1.401909e+002 
4331250000  -2.108087e+001  -1.480797e+002 
4334375000  -2.150056e+001  -1.531018e+002 
4337500000  -2.229482e+001  -1.556780e+002 
4340625000  -2.287644e+001  -1.528875e+002 
4343750000  -2.235903e+001  -1.521705e+002 
4346875000  -2.192871e+001  -1.578225e+002 
4350000000  -2.200278e+001  -1.621468e+002 
4353125000  -2.203114e+001  -1.699807e+002 
4356250000  -2.370554e+001  -1.714174e+002 
4359375000  -2.440956e+001  -1.583619e+002 
4362500000  -2.183158e+001  -1.563442e+002 
4365625000  -2.017075e+001  -1.672256e+002 
4368750000  -2.084920e+001  -1.790670e+002 
4371875000  -2.209813e+001  -1.789546e+002 
4375000000  -2.180034e+001  -1.774380e+002 
4378125000  -2.111620e+001  1.767590e+002 
4381250000  -2.130626e+001  1.715357e+002 
4384375000  -2.112048e+001  1.671414e+002 
4387500000  -2.180912e+001  1.610697e+002 
4390625000  -2.286876e+001  1.618468e+002 
4393750000  -2.215867e+001  1.643459e+002 
4396875000  -2.152099e+001  1.619843e+002 
4400000000  -2.102895e+001  1.554921e+002 
4403125000  -2.155807e+001  1.480954e+002 
4406250000  -2.246982e+001  1.465795e+002 
4409375000  -2.238072e+001  1.441929e+002 
4412500000  -2.337265e+001  1.415379e+002 
4415625000  -2.381448e+001  1.461934e+002 
4418750000  -2.263014e+001  1.511970e+002 
