!Agilent Technologies,E8363B,MY43030201,A.06.04.32
!Agilent E8363B: A.06.04.32
!Date: Tuesday, November 11, 2014 20:47:49
!Correction: S21(Response(S21)) 
!S1P File: Measurement: S21:
# Hz S  dB   R 50
3000000000  -2.651397e+001  1.557822e+002 
3003125000  -2.788247e+001  1.514094e+002 
3006250000  -2.795959e+001  1.487580e+002 
3009375000  -2.825132e+001  1.534516e+002 
3012500000  -2.779069e+001  1.532811e+002 
3015625000  -2.677978e+001  1.462650e+002 
3018750000  -2.766805e+001  1.452176e+002 
3021875000  -2.639915e+001  1.466038e+002 
3025000000  -2.509898e+001  1.438061e+002 
3028125000  -2.412979e+001  1.389087e+002 
3031250000  -2.310378e+001  1.276902e+002 
3034375000  -2.271827e+001  1.145516e+002 
3037500000  -2.306714e+001  1.027634e+002 
3040625000  -2.438897e+001  9.768621e+001 
3043750000  -2.516313e+001  9.342372e+001 
3046875000  -2.521389e+001  8.700643e+001 
3050000000  -2.697685e+001  7.995173e+001 
3053125000  -2.715028e+001  8.636816e+001 
3056250000  -2.642558e+001  8.932051e+001 
3059375000  -2.670707e+001  8.932783e+001 
3062500000  -2.523569e+001  8.522276e+001 
3065625000  -2.497800e+001  7.953643e+001 
3068750000  -2.471077e+001  7.271553e+001 
3071875000  -2.466637e+001  6.964359e+001 
3075000000  -2.465429e+001  6.603545e+001 
3078125000  -2.435001e+001  6.147091e+001 
3081250000  -2.499602e+001  5.722559e+001 
3084375000  -2.426540e+001  5.373896e+001 
3087500000  -2.410932e+001  5.011412e+001 
3090625000  -2.383339e+001  4.031802e+001 
3093750000  -2.423645e+001  3.262053e+001 
3096875000  -2.554734e+001  2.624801e+001 
3100000000  -2.569609e+001  2.482326e+001 
3103125000  -2.606262e+001  2.628240e+001 
3106250000  -2.580788e+001  2.279113e+001 
3109375000  -2.605150e+001  1.935249e+001 
3112500000  -2.615817e+001  1.846458e+001 
3115625000  -2.595274e+001  1.454861e+001 
3118750000  -2.648624e+001  1.513353e+001 
3121875000  -2.580557e+001  7.403362e+000 
3125000000  -2.689399e+001  3.748214e+000 
3128125000  -2.819520e+001  1.214984e+001 
3131250000  -2.603487e+001  1.260192e+001 
3134375000  -2.466667e+001  -1.035620e+000 
3137500000  -2.526309e+001  -1.506616e+001 
3140625000  -2.695501e+001  -1.667696e+001 
3143750000  -2.795066e+001  -1.222463e+001 
3146875000  -2.754942e+001  -1.051748e+001 
3150000000  -2.649485e+001  -8.237542e+000 
3153125000  -2.651380e+001  -1.589820e+001 
3156250000  -2.746315e+001  -1.046847e+001 
3159375000  -2.596548e+001  -7.763061e+000 
3162500000  -2.388450e+001  -2.032458e+001 
3165625000  -2.480467e+001  -3.122417e+001 
3168750000  -2.525670e+001  -3.049126e+001 
3171875000  -2.425290e+001  -3.462278e+001 
3175000000  -2.484657e+001  -4.235796e+001 
3178125000  -2.470467e+001  -4.074617e+001 
3181250000  -2.349797e+001  -4.473512e+001 
3184375000  -2.266353e+001  -5.696405e+001 
3187500000  -2.374257e+001  -7.226452e+001 
3190625000  -2.665781e+001  -7.984005e+001 
3193750000  -2.727468e+001  -7.023737e+001 
3196875000  -2.680609e+001  -6.467362e+001 
3200000000  -2.593420e+001  -6.660400e+001 
3203125000  -2.507830e+001  -7.218306e+001 
3206250000  -2.535064e+001  -7.833216e+001 
3209375000  -2.487944e+001  -8.349656e+001 
3212500000  -2.497408e+001  -9.023505e+001 
3215625000  -2.513388e+001  -9.446837e+001 
3218750000  -2.591638e+001  -1.009016e+002 
3221875000  -2.693592e+001  -1.059461e+002 
3225000000  -2.653484e+001  -1.063989e+002 
3228125000  -2.681272e+001  -1.105539e+002 
3231250000  -2.754295e+001  -1.136470e+002 
3234375000  -2.742846e+001  -1.126411e+002 
3237500000  -2.749546e+001  -1.141403e+002 
3240625000  -2.710333e+001  -1.158335e+002 
3243750000  -2.677781e+001  -1.225258e+002 
3246875000  -2.723971e+001  -1.290543e+002 
3250000000  -2.769959e+001  -1.310845e+002 
3253125000  -2.783716e+001  -1.326863e+002 
3256250000  -2.771559e+001  -1.381273e+002 
3259375000  -2.804518e+001  -1.461872e+002 
3262500000  -2.928697e+001  -1.490536e+002 
3265625000  -2.998950e+001  -1.456938e+002 
3268750000  -2.997072e+001  -1.432775e+002 
3271875000  -2.973796e+001  -1.416731e+002 
3275000000  -2.864174e+001  -1.467762e+002 
3278125000  -2.904998e+001  -1.529859e+002 
3281250000  -2.938429e+001  -1.515702e+002 
3284375000  -2.897604e+001  -1.572947e+002 
3287500000  -2.910517e+001  -1.599015e+002 
3290625000  -2.956631e+001  -1.641177e+002 
3293750000  -2.925848e+001  -1.696734e+002 
3296875000  -3.020502e+001  -1.699683e+002 
3300000000  -3.016907e+001  -1.685890e+002 
3303125000  -2.899403e+001  -1.726299e+002 
3306250000  -2.877799e+001  -1.788856e+002 
3309375000  -2.851178e+001  1.758175e+002 
3312500000  -2.855928e+001  1.656178e+002 
3315625000  -2.958054e+001  1.577775e+002 
3318750000  -3.089912e+001  1.549166e+002 
3321875000  -3.211904e+001  1.547679e+002 
3325000000  -3.280213e+001  1.594596e+002 
3328125000  -3.257042e+001  1.608820e+002 
3331250000  -3.141796e+001  1.695157e+002 
3334375000  -2.887526e+001  1.594707e+002 
3337500000  -2.883193e+001  1.411638e+002 
3340625000  -3.018029e+001  1.299434e+002 
3343750000  -3.209285e+001  1.287925e+002 
3346875000  -3.274395e+001  1.299049e+002 
3350000000  -3.204248e+001  1.291446e+002 
3353125000  -3.206018e+001  1.248625e+002 
3356250000  -3.191511e+001  1.170089e+002 
3359375000  -3.268926e+001  1.086927e+002 
3362500000  -3.402420e+001  1.033985e+002 
3365625000  -3.470406e+001  1.014941e+002 
3368750000  -3.564536e+001  1.001802e+002 
3371875000  -3.602161e+001  9.637305e+001 
3375000000  -3.764426e+001  9.383032e+001 
3378125000  -3.864068e+001  9.416116e+001 
3381250000  -4.021723e+001  1.006024e+002 
3384375000  -3.942747e+001  1.216841e+002 
3387500000  -3.627426e+001  1.094385e+002 
3390625000  -3.814621e+001  9.045287e+001 
3393750000  -4.001277e+001  9.429206e+001 
3396875000  -3.912983e+001  9.741044e+001 
3400000000  -3.925195e+001  9.059262e+001 
3403125000  -4.011544e+001  8.542995e+001 
3406250000  -4.109300e+001  8.829700e+001 
3409375000  -4.143092e+001  8.380950e+001 
3412500000  -4.237307e+001  8.659589e+001 
3415625000  -4.322310e+001  9.262228e+001 
3418750000  -4.370768e+001  9.419118e+001 
3421875000  -4.407856e+001  1.009198e+002 
3425000000  -4.333397e+001  1.062926e+002 
3428125000  -4.213894e+001  1.052319e+002 
3431250000  -4.215702e+001  1.018821e+002 
3434375000  -4.182588e+001  9.838615e+001 
3437500000  -4.237980e+001  9.887719e+001 
3440625000  -4.265213e+001  1.014678e+002 
3443750000  -4.126118e+001  1.035207e+002 
3446875000  -4.039301e+001  9.867208e+001 
3450000000  -4.033886e+001  8.904790e+001 
3453125000  -4.056656e+001  8.095361e+001 
3456250000  -4.170041e+001  7.567747e+001 
3459375000  -4.266303e+001  7.834196e+001 
3462500000  -4.263962e+001  8.061278e+001 
3465625000  -4.303556e+001  7.508783e+001 
3468750000  -4.301791e+001  7.133828e+001 
3471875000  -4.321140e+001  7.349759e+001 
3475000000  -4.315856e+001  6.790209e+001 
3478125000  -4.391607e+001  6.378465e+001 
3481250000  -4.504158e+001  6.280885e+001 
3484375000  -4.651176e+001  6.591946e+001 
3487500000  -4.599030e+001  7.138657e+001 
3490625000  -4.562590e+001  6.790099e+001 
3493750000  -4.627766e+001  6.336541e+001 
3496875000  -4.751555e+001  6.880068e+001 
3500000000  -4.873401e+001  7.337053e+001 
3503125000  -4.831310e+001  8.101044e+001 
3506250000  -4.660331e+001  7.840561e+001 
3509375000  -4.696565e+001  7.656377e+001 
3512500000  -4.706047e+001  7.786343e+001 
3515625000  -4.766647e+001  7.974039e+001 
3518750000  -4.796338e+001  8.519444e+001 
3521875000  -4.797801e+001  9.058073e+001 
3525000000  -4.764080e+001  8.943679e+001 
3528125000  -4.755600e+001  9.915255e+001 
3531250000  -4.589518e+001  1.011760e+002 
3534375000  -4.492258e+001  9.400089e+001 
3537500000  -4.482782e+001  8.924564e+001 
3540625000  -4.533051e+001  8.992883e+001 
3543750000  -4.562613e+001  9.463559e+001 
3546875000  -4.513602e+001  1.060597e+002 
3550000000  -4.274662e+001  1.072367e+002 
3553125000  -4.123293e+001  9.167415e+001 
3556250000  -4.221843e+001  8.588509e+001 
3559375000  -4.179023e+001  8.800976e+001 
3562500000  -4.061486e+001  8.153888e+001 
3565625000  -4.169236e+001  7.328747e+001 
3568750000  -4.160337e+001  7.682063e+001 
3571875000  -4.142219e+001  7.719388e+001 
3575000000  -4.078837e+001  7.166489e+001 
3578125000  -4.128242e+001  6.786707e+001 
3581250000  -4.155297e+001  6.848303e+001 
3584375000  -4.034948e+001  6.666544e+001 
3587500000  -3.966247e+001  6.093423e+001 
3590625000  -4.009371e+001  4.989030e+001 
3593750000  -4.105358e+001  5.137751e+001 
3596875000  -4.107994e+001  5.653775e+001 
3600000000  -3.949257e+001  5.597678e+001 
3603125000  -3.950402e+001  4.255833e+001 
3606250000  -4.060234e+001  3.832645e+001 
3609375000  -4.076520e+001  3.860561e+001 
3612500000  -4.129710e+001  3.644455e+001 
3615625000  -4.129890e+001  3.481717e+001 
3618750000  -4.208774e+001  3.513783e+001 
3621875000  -4.150296e+001  3.460331e+001 
3625000000  -4.189164e+001  3.428331e+001 
3628125000  -4.188852e+001  3.632806e+001 
3631250000  -4.132690e+001  2.984402e+001 
3634375000  -4.243209e+001  3.223843e+001 
3637500000  -4.239292e+001  3.626672e+001 
3640625000  -4.109917e+001  3.858556e+001 
3643750000  -4.065351e+001  3.406918e+001 
3646875000  -4.124203e+001  2.713213e+001 
3650000000  -4.177468e+001  2.866006e+001 
3653125000  -4.154223e+001  2.543274e+001 
3656250000  -4.183780e+001  2.539522e+001 
3659375000  -4.213398e+001  2.910922e+001 
3662500000  -4.100948e+001  2.982561e+001 
3665625000  -4.123079e+001  3.017060e+001 
3668750000  -4.040616e+001  3.260119e+001 
3671875000  -3.945718e+001  2.523809e+001 
3675000000  -3.986811e+001  2.214289e+001 
3678125000  -4.029866e+001  2.246053e+001 
3681250000  -3.974951e+001  2.105851e+001 
3684375000  -3.950298e+001  2.122538e+001 
3687500000  -3.972967e+001  1.875107e+001 
3690625000  -3.983035e+001  1.626274e+001 
3693750000  -4.034467e+001  1.857850e+001 
3696875000  -4.016289e+001  2.132541e+001 
3700000000  -3.907095e+001  2.021698e+001 
3703125000  -3.866150e+001  1.609275e+001 
3706250000  -3.942031e+001  1.842830e+001 
3709375000  -3.894059e+001  2.130803e+001 
3712500000  -3.748144e+001  2.157246e+001 
3715625000  -3.635061e+001  1.552471e+001 
3718750000  -3.572888e+001  1.227599e+001 
3721875000  -3.546223e+001  7.587132e+000 
3725000000  -3.540144e+001  1.999772e+000 
3728125000  -3.560806e+001  1.404382e+000 
3731250000  -3.483408e+001  1.002976e+000 
3734375000  -3.385672e+001  -4.723450e+000 
3737500000  -3.427133e+001  -1.200198e+001 
3740625000  -3.492829e+001  -1.561734e+001 
3743750000  -3.471147e+001  -1.742236e+001 
3746875000  -3.481081e+001  -1.968317e+001 
3750000000  -3.507171e+001  -2.104530e+001 
3753125000  -3.458406e+001  -2.095075e+001 
3756250000  -3.464948e+001  -2.193702e+001 
3759375000  -3.448662e+001  -2.288611e+001 
3762500000  -3.384929e+001  -2.715271e+001 
3765625000  -3.432427e+001  -2.918003e+001 
3768750000  -3.441784e+001  -2.772040e+001 
3771875000  -3.262553e+001  -2.911562e+001 
3775000000  -3.231874e+001  -3.731147e+001 
3778125000  -3.275968e+001  -3.895994e+001 
3781250000  -3.247944e+001  -4.173661e+001 
3784375000  -3.242853e+001  -4.321834e+001 
3787500000  -3.180245e+001  -4.699321e+001 
3790625000  -3.226565e+001  -5.280680e+001 
3793750000  -3.250033e+001  -5.310346e+001 
3796875000  -3.160474e+001  -5.448395e+001 
3800000000  -3.008039e+001  -5.825359e+001 
3803125000  -3.071185e+001  -6.478383e+001 
3806250000  -3.132735e+001  -6.781464e+001 
3809375000  -3.114831e+001  -6.834160e+001 
3812500000  -3.043723e+001  -7.373220e+001 
3815625000  -3.102048e+001  -8.057337e+001 
3818750000  -3.202802e+001  -8.294207e+001 
3821875000  -3.204263e+001  -7.485110e+001 
3825000000  -3.020058e+001  -6.988974e+001 
3828125000  -2.881943e+001  -8.384970e+001 
3831250000  -2.927536e+001  -9.774305e+001 
3834375000  -3.060582e+001  -9.860830e+001 
3837500000  -3.153939e+001  -9.385745e+001 
3840625000  -3.055957e+001  -9.457073e+001 
3843750000  -2.933692e+001  -1.041449e+002 
3846875000  -2.986440e+001  -1.121150e+002 
3850000000  -3.128295e+001  -1.062567e+002 
3853125000  -3.048202e+001  -1.039069e+002 
3856250000  -3.044015e+001  -1.086530e+002 
3859375000  -2.980865e+001  -1.130256e+002 
3862500000  -2.930225e+001  -1.200101e+002 
3865625000  -2.967164e+001  -1.243252e+002 
3868750000  -2.960917e+001  -1.251937e+002 
3871875000  -2.892222e+001  -1.277059e+002 
3875000000  -2.908120e+001  -1.365935e+002 
3878125000  -3.000420e+001  -1.393592e+002 
3881250000  -3.013518e+001  -1.358277e+002 
3884375000  -2.969916e+001  -1.405705e+002 
3887500000  -2.975827e+001  -1.441714e+002 
3890625000  -3.024712e+001  -1.469324e+002 
3893750000  -3.071560e+001  -1.480588e+002 
3896875000  -3.081265e+001  -1.480421e+002 
3900000000  -3.105873e+001  -1.482592e+002 
3903125000  -3.077844e+001  -1.505933e+002 
3906250000  -3.047967e+001  -1.511598e+002 
3909375000  -2.980118e+001  -1.542013e+002 
3912500000  -2.967030e+001  -1.608323e+002 
3915625000  -3.092475e+001  -1.605025e+002 
3918750000  -3.090005e+001  -1.591525e+002 
3921875000  -3.067527e+001  -1.607496e+002 
3925000000  -2.981895e+001  -1.610018e+002 
3928125000  -2.909175e+001  -1.666227e+002 
3931250000  -2.950686e+001  -1.702705e+002 
3934375000  -2.970320e+001  -1.707353e+002 
3937500000  -2.987449e+001  -1.707767e+002 
3940625000  -3.035941e+001  -1.707905e+002 
3943750000  -2.936608e+001  -1.695547e+002 
3946875000  -2.814378e+001  -1.750008e+002 
3950000000  -2.858021e+001  1.777124e+002 
3953125000  -2.952655e+001  1.779678e+002 
3956250000  -2.870203e+001  -1.796548e+002 
3959375000  -2.744193e+001  1.776086e+002 
3962500000  -2.688240e+001  1.733854e+002 
3965625000  -2.647436e+001  1.650460e+002 
3968750000  -2.742779e+001  1.577106e+002 
3971875000  -2.787278e+001  1.560338e+002 
3975000000  -2.717873e+001  1.544452e+002 
3978125000  -2.699156e+001  1.530436e+002 
3981250000  -2.672911e+001  1.490895e+002 
3984375000  -2.692802e+001  1.419261e+002 
3987500000  -2.747703e+001  1.402522e+002 
3990625000  -2.745736e+001  1.391578e+002 
3993750000  -2.769270e+001  1.362923e+002 
3996875000  -2.776997e+001  1.339540e+002 
4000000000  -2.779280e+001  1.318394e+002 
4003125000  -2.838790e+001  1.339266e+002 
4006250000  -2.701822e+001  1.343289e+002 
4009375000  -2.577706e+001  1.220172e+002 
4012500000  -2.685532e+001  1.151198e+002 
4015625000  -2.806461e+001  1.156414e+002 
4018750000  -2.827379e+001  1.180380e+002 
4021875000  -2.764438e+001  1.161898e+002 
4025000000  -2.724784e+001  1.119954e+002 
4028125000  -2.715093e+001  1.076656e+002 
4031250000  -2.762023e+001  1.044124e+002 
4034375000  -2.790693e+001  1.046547e+002 
4037500000  -2.739115e+001  1.064547e+002 
4040625000  -2.727141e+001  1.032214e+002 
4043750000  -2.763956e+001  1.027858e+002 
4046875000  -2.720558e+001  1.023327e+002 
4050000000  -2.670877e+001  9.618343e+001 
4053125000  -2.713144e+001  9.462215e+001 
4056250000  -2.773030e+001  9.831614e+001 
4059375000  -2.657395e+001  1.002455e+002 
4062500000  -2.513798e+001  9.591193e+001 
4065625000  -2.497719e+001  9.126436e+001 
4068750000  -2.473466e+001  8.660198e+001 
4071875000  -2.407850e+001  7.855959e+001 
4075000000  -2.441059e+001  7.218757e+001 
4078125000  -2.493521e+001  7.121571e+001 
4081250000  -2.442896e+001  6.879159e+001 
4084375000  -2.407187e+001  6.221200e+001 
4087500000  -2.437802e+001  5.592505e+001 
4090625000  -2.501624e+001  5.440852e+001 
4093750000  -2.487800e+001  5.524763e+001 
4096875000  -2.435931e+001  4.959966e+001 
4100000000  -2.505896e+001  4.229538e+001 
4103125000  -2.595419e+001  4.285071e+001 
4106250000  -2.588854e+001  4.762745e+001 
4109375000  -2.504763e+001  4.759538e+001 
4112500000  -2.443748e+001  4.103320e+001 
4115625000  -2.471836e+001  3.656543e+001 
4118750000  -2.486435e+001  3.351930e+001 
4121875000  -2.447592e+001  2.894071e+001 
4125000000  -2.479143e+001  2.391616e+001 
4128125000  -2.586188e+001  2.370501e+001 
4131250000  -2.559784e+001  3.203952e+001 
4134375000  -2.332174e+001  2.786373e+001 
4137500000  -2.307047e+001  9.524741e+000 
4140625000  -2.517126e+001  1.712887e+000 
4143750000  -2.652492e+001  6.546837e+000 
4146875000  -2.617234e+001  1.421733e+001 
4150000000  -2.523042e+001  1.137464e+001 
4153125000  -2.499737e+001  5.030461e+000 
4156250000  -2.588290e+001  2.049808e+000 
4159375000  -2.619845e+001  6.425626e+000 
4162500000  -2.506627e+001  1.071439e+001 
4165625000  -2.390932e+001  6.992979e+000 
4168750000  -2.325035e+001  -1.573905e-001 
4171875000  -2.322094e+001  -9.132864e+000 
4175000000  -2.381746e+001  -1.498846e+001 
4178125000  -2.445283e+001  -1.490072e+001 
4181250000  -2.435878e+001  -1.541950e+001 
4184375000  -2.417579e+001  -1.852312e+001 
4187500000  -2.420366e+001  -2.141415e+001 
4190625000  -2.403568e+001  -2.679569e+001 
4193750000  -2.475213e+001  -3.052452e+001 
4196875000  -2.546004e+001  -3.125662e+001 
4200000000  -2.625880e+001  -2.930138e+001 
4203125000  -2.646763e+001  -1.593338e+001 
4206250000  -2.308723e+001  -1.424676e+001 
4209375000  -2.188019e+001  -3.440723e+001 
4212500000  -2.372135e+001  -4.339783e+001 
4215625000  -2.479585e+001  -3.765207e+001 
4218750000  -2.343530e+001  -3.066293e+001 
4221875000  -2.116963e+001  -3.970865e+001 
4225000000  -2.237923e+001  -5.261266e+001 
4228125000  -2.311419e+001  -4.752102e+001 
4231250000  -2.158623e+001  -5.123802e+001 
4234375000  -2.145484e+001  -5.943427e+001 
4237500000  -2.107116e+001  -6.257696e+001 
4240625000  -2.101233e+001  -7.117168e+001 
4243750000  -2.200798e+001  -7.764831e+001 
4246875000  -2.285285e+001  -7.792012e+001 
4250000000  -2.295284e+001  -7.527735e+001 
4253125000  -2.238118e+001  -7.719234e+001 
4256250000  -2.271249e+001  -8.131157e+001 
4259375000  -2.243154e+001  -8.323486e+001 
4262500000  -2.242801e+001  -8.677928e+001 
4265625000  -2.263200e+001  -8.635849e+001 
4268750000  -2.176186e+001  -9.050745e+001 
4271875000  -2.151514e+001  -9.599976e+001 
4275000000  -2.089413e+001  -1.023032e+002 
4278125000  -2.146060e+001  -1.133798e+002 
4281250000  -2.328208e+001  -1.156626e+002 
4284375000  -2.295180e+001  -1.147163e+002 
4287500000  -2.370107e+001  -1.183101e+002 
4290625000  -2.501472e+001  -1.090057e+002 
4293750000  -2.301623e+001  -1.030588e+002 
4296875000  -2.169287e+001  -1.145698e+002 
4300000000  -2.247321e+001  -1.238141e+002 
4303125000  -2.358890e+001  -1.228729e+002 
4306250000  -2.306710e+001  -1.166429e+002 
4309375000  -2.160932e+001  -1.186143e+002 
4312500000  -2.146956e+001  -1.270258e+002 
4315625000  -2.168951e+001  -1.327905e+002 
4318750000  -2.198026e+001  -1.364299e+002 
4321875000  -2.214497e+001  -1.360350e+002 
4325000000  -2.157722e+001  -1.349355e+002 
4328125000  -2.109040e+001  -1.418103e+002 
4331250000  -2.102645e+001  -1.494993e+002 
4334375000  -2.141200e+001  -1.548377e+002 
4337500000  -2.218459e+001  -1.571231e+002 
4340625000  -2.279155e+001  -1.540277e+002 
4343750000  -2.224999e+001  -1.535216e+002 
4346875000  -2.184006e+001  -1.587957e+002 
4350000000  -2.186094e+001  -1.635067e+002 
4353125000  -2.184148e+001  -1.711938e+002 
4356250000  -2.349848e+001  -1.727070e+002 
4359375000  -2.426876e+001  -1.598474e+002 
4362500000  -2.170103e+001  -1.573501e+002 
4365625000  -1.998425e+001  -1.685594e+002 
4368750000  -2.061065e+001  1.790752e+002 
4371875000  -2.195012e+001  1.796102e+002 
4375000000  -2.163300e+001  -1.792093e+002 
4378125000  -2.096574e+001  1.748916e+002 
4381250000  -2.107994e+001  1.697457e+002 
4384375000  -2.095601e+001  1.651555e+002 
4387500000  -2.164742e+001  1.596651e+002 
4390625000  -2.267527e+001  1.603271e+002 
4393750000  -2.201348e+001  1.625207e+002 
4396875000  -2.138074e+001  1.604858e+002 
4400000000  -2.091040e+001  1.534362e+002 
4403125000  -2.138983e+001  1.459349e+002 
4406250000  -2.228255e+001  1.447265e+002 
4409375000  -2.221266e+001  1.424761e+002 
4412500000  -2.322952e+001  1.396793e+002 
4415625000  -2.369415e+001  1.443788e+002 
4418750000  -2.248095e+001  1.491208e+002 
