!Agilent Technologies,E8363B,MY43030201,A.06.04.32
!Agilent E8363B: A.06.04.32
!Date: Tuesday, November 11, 2014 20:48:45
!Correction: S21(Response(S21)) 
!S1P File: Measurement: S21:
# Hz S  dB   R 50
3000000000  -2.653179e+001  1.553352e+002 
3003125000  -2.788470e+001  1.508573e+002 
3006250000  -2.798160e+001  1.480188e+002 
3009375000  -2.833010e+001  1.530698e+002 
3012500000  -2.778409e+001  1.528796e+002 
3015625000  -2.682702e+001  1.458605e+002 
3018750000  -2.766991e+001  1.448022e+002 
3021875000  -2.643701e+001  1.463212e+002 
3025000000  -2.511262e+001  1.430009e+002 
3028125000  -2.417827e+001  1.383843e+002 
3031250000  -2.310499e+001  1.271812e+002 
3034375000  -2.274581e+001  1.140917e+002 
3037500000  -2.311042e+001  1.019494e+002 
3040625000  -2.440087e+001  9.703428e+001 
3043750000  -2.514035e+001  9.275709e+001 
3046875000  -2.520654e+001  8.645220e+001 
3050000000  -2.698394e+001  7.930271e+001 
3053125000  -2.711162e+001  8.565134e+001 
3056250000  -2.647169e+001  8.884384e+001 
3059375000  -2.670462e+001  8.833546e+001 
3062500000  -2.523826e+001  8.456013e+001 
3065625000  -2.498968e+001  7.906877e+001 
3068750000  -2.471782e+001  7.198780e+001 
3071875000  -2.466539e+001  6.910707e+001 
3075000000  -2.465793e+001  6.518460e+001 
3078125000  -2.435869e+001  6.087170e+001 
3081250000  -2.497765e+001  5.664116e+001 
3084375000  -2.425921e+001  5.299161e+001 
3087500000  -2.410518e+001  4.946197e+001 
3090625000  -2.382339e+001  3.987593e+001 
3093750000  -2.422720e+001  3.171128e+001 
3096875000  -2.551561e+001  2.566283e+001 
3100000000  -2.570465e+001  2.413593e+001 
3103125000  -2.604788e+001  2.571877e+001 
3106250000  -2.579354e+001  2.216111e+001 
3109375000  -2.602077e+001  1.860457e+001 
3112500000  -2.617671e+001  1.771148e+001 
3115625000  -2.592900e+001  1.336090e+001 
3118750000  -2.643090e+001  1.473147e+001 
3121875000  -2.576761e+001  6.753430e+000 
3125000000  -2.691038e+001  3.221232e+000 
3128125000  -2.814276e+001  1.095772e+001 
3131250000  -2.596907e+001  1.175461e+001 
3134375000  -2.460031e+001  -1.649586e+000 
3137500000  -2.528159e+001  -1.555519e+001 
3140625000  -2.688395e+001  -1.718826e+001 
3143750000  -2.791371e+001  -1.297829e+001 
3146875000  -2.750639e+001  -1.141954e+001 
3150000000  -2.649758e+001  -9.020856e+000 
3153125000  -2.647349e+001  -1.666072e+001 
3156250000  -2.745867e+001  -1.152270e+001 
3159375000  -2.595077e+001  -8.264486e+000 
3162500000  -2.387722e+001  -2.120153e+001 
3165625000  -2.475205e+001  -3.214509e+001 
3168750000  -2.521053e+001  -3.142478e+001 
3171875000  -2.426856e+001  -3.542509e+001 
3175000000  -2.487876e+001  -4.311043e+001 
3178125000  -2.469041e+001  -4.153004e+001 
3181250000  -2.349060e+001  -4.539206e+001 
3184375000  -2.271517e+001  -5.752680e+001 
3187500000  -2.373494e+001  -7.306491e+001 
3190625000  -2.659183e+001  -8.071482e+001 
3193750000  -2.718811e+001  -7.092189e+001 
3196875000  -2.677943e+001  -6.541196e+001 
3200000000  -2.593370e+001  -6.746813e+001 
3203125000  -2.501566e+001  -7.281989e+001 
3206250000  -2.532931e+001  -7.899992e+001 
3209375000  -2.484886e+001  -8.429727e+001 
3212500000  -2.496526e+001  -9.072880e+001 
3215625000  -2.512655e+001  -9.545215e+001 
3218750000  -2.583375e+001  -1.015144e+002 
3221875000  -2.684627e+001  -1.067492e+002 
3225000000  -2.647389e+001  -1.073290e+002 
3228125000  -2.676585e+001  -1.118952e+002 
3231250000  -2.749656e+001  -1.141472e+002 
3234375000  -2.735229e+001  -1.134127e+002 
3237500000  -2.743640e+001  -1.149498e+002 
3240625000  -2.708234e+001  -1.166481e+002 
3243750000  -2.671692e+001  -1.233218e+002 
3246875000  -2.718842e+001  -1.299033e+002 
3250000000  -2.767585e+001  -1.318251e+002 
3253125000  -2.780108e+001  -1.332550e+002 
3256250000  -2.766218e+001  -1.394109e+002 
3259375000  -2.800092e+001  -1.469663e+002 
3262500000  -2.919352e+001  -1.502706e+002 
3265625000  -2.991251e+001  -1.463774e+002 
3268750000  -2.995063e+001  -1.434329e+002 
3271875000  -2.963544e+001  -1.425164e+002 
3275000000  -2.853182e+001  -1.476932e+002 
3278125000  -2.903101e+001  -1.537567e+002 
3281250000  -2.934897e+001  -1.521818e+002 
3284375000  -2.891467e+001  -1.576961e+002 
3287500000  -2.902167e+001  -1.607148e+002 
3290625000  -2.945522e+001  -1.648400e+002 
3293750000  -2.914590e+001  -1.703006e+002 
3296875000  -3.013324e+001  -1.705098e+002 
3300000000  -3.005402e+001  -1.695183e+002 
3303125000  -2.889796e+001  -1.730971e+002 
3306250000  -2.870634e+001  -1.797685e+002 
3309375000  -2.848622e+001  1.751931e+002 
3312500000  -2.850907e+001  1.647271e+002 
3315625000  -2.949084e+001  1.568384e+002 
3318750000  -3.086776e+001  1.542679e+002 
3321875000  -3.195499e+001  1.541230e+002 
3325000000  -3.250614e+001  1.589279e+002 
3328125000  -3.251388e+001  1.610878e+002 
3331250000  -3.124006e+001  1.678077e+002 
3334375000  -2.873932e+001  1.593470e+002 
3337500000  -2.873946e+001  1.405105e+002 
3340625000  -3.001832e+001  1.295065e+002 
3343750000  -3.196395e+001  1.276199e+002 
3346875000  -3.256212e+001  1.292869e+002 
3350000000  -3.185452e+001  1.284460e+002 
3353125000  -3.203826e+001  1.236653e+002 
3356250000  -3.177060e+001  1.163190e+002 
3359375000  -3.253807e+001  1.084152e+002 
3362500000  -3.378031e+001  1.021004e+002 
3365625000  -3.451195e+001  1.009329e+002 
3368750000  -3.549552e+001  9.866311e+001 
3371875000  -3.579299e+001  9.584792e+001 
3375000000  -3.745309e+001  9.418145e+001 
3378125000  -3.851847e+001  9.355621e+001 
3381250000  -4.012180e+001  9.963152e+001 
3384375000  -3.916945e+001  1.208090e+002 
3387500000  -3.604359e+001  1.098323e+002 
3390625000  -3.761121e+001  8.954268e+001 
3393750000  -3.977764e+001  9.370747e+001 
3396875000  -3.871596e+001  9.678769e+001 
3400000000  -3.858955e+001  8.889394e+001 
3403125000  -3.969933e+001  8.390907e+001 
3406250000  -4.061866e+001  8.738213e+001 
3409375000  -4.123302e+001  8.365222e+001 
3412500000  -4.200734e+001  8.461327e+001 
3415625000  -4.291537e+001  9.008765e+001 
3418750000  -4.313424e+001  9.499099e+001 
3421875000  -4.374527e+001  9.968010e+001 
3425000000  -4.247045e+001  1.046316e+002 
3428125000  -4.175194e+001  1.032550e+002 
3431250000  -4.182189e+001  9.963088e+001 
3434375000  -4.150791e+001  9.752782e+001 
3437500000  -4.186917e+001  9.824119e+001 
3440625000  -4.193744e+001  9.732864e+001 
3443750000  -4.107694e+001  9.907955e+001 
3446875000  -3.993630e+001  9.418441e+001 
3450000000  -4.027604e+001  8.451275e+001 
3453125000  -4.014975e+001  7.701830e+001 
3456250000  -4.138618e+001  7.127975e+001 
3459375000  -4.242827e+001  7.405184e+001 
3462500000  -4.251873e+001  7.718178e+001 
3465625000  -4.262984e+001  7.084510e+001 
3468750000  -4.310097e+001  7.008742e+001 
3471875000  -4.309988e+001  6.812984e+001 
3475000000  -4.296569e+001  6.559776e+001 
3478125000  -4.366648e+001  5.996728e+001 
3481250000  -4.462493e+001  5.773145e+001 
3484375000  -4.660738e+001  6.554867e+001 
3487500000  -4.589772e+001  6.871592e+001 
3490625000  -4.526912e+001  6.478151e+001 
3493750000  -4.619300e+001  5.959950e+001 
3496875000  -4.716699e+001  6.435814e+001 
3500000000  -4.853348e+001  7.289948e+001 
3503125000  -4.836166e+001  7.382869e+001 
3506250000  -4.721730e+001  7.959710e+001 
3509375000  -4.721522e+001  7.385024e+001 
3512500000  -4.726756e+001  7.348188e+001 
3515625000  -4.794529e+001  7.820067e+001 
3518750000  -4.796648e+001  8.191058e+001 
3521875000  -4.789808e+001  9.005624e+001 
3525000000  -4.794333e+001  8.429091e+001 
3528125000  -4.784145e+001  9.848077e+001 
3531250000  -4.570919e+001  1.011363e+002 
3534375000  -4.490630e+001  9.106078e+001 
3537500000  -4.501476e+001  8.947083e+001 
3540625000  -4.529692e+001  8.778623e+001 
3543750000  -4.611759e+001  8.948718e+001 
3546875000  -4.516279e+001  1.032484e+002 
3550000000  -4.310719e+001  1.022805e+002 
3553125000  -4.130671e+001  8.798164e+001 
3556250000  -4.231084e+001  8.040581e+001 
3559375000  -4.197941e+001  8.383265e+001 
3562500000  -4.100101e+001  7.878973e+001 
3565625000  -4.183668e+001  7.095103e+001 
3568750000  -4.206033e+001  7.396537e+001 
3571875000  -4.177621e+001  7.309200e+001 
3575000000  -4.131572e+001  6.938227e+001 
3578125000  -4.134428e+001  6.439021e+001 
3581250000  -4.167772e+001  6.667921e+001 
3584375000  -4.086533e+001  6.512210e+001 
3587500000  -4.005804e+001  5.890462e+001 
3590625000  -4.053532e+001  5.071513e+001 
3593750000  -4.137683e+001  4.816525e+001 
3596875000  -4.148037e+001  5.596142e+001 
3600000000  -3.968919e+001  5.370964e+001 
3603125000  -3.996733e+001  4.238001e+001 
3606250000  -4.065857e+001  3.730413e+001 
3609375000  -4.109908e+001  3.637611e+001 
3612500000  -4.152945e+001  3.649108e+001 
3615625000  -4.140776e+001  3.494059e+001 
3618750000  -4.204770e+001  3.612096e+001 
3621875000  -4.149088e+001  3.513151e+001 
3625000000  -4.203902e+001  3.611414e+001 
3628125000  -4.211953e+001  3.529710e+001 
3631250000  -4.139000e+001  2.999557e+001 
3634375000  -4.266045e+001  3.149260e+001 
3637500000  -4.187155e+001  3.626386e+001 
3640625000  -4.080259e+001  3.867355e+001 
3643750000  -4.079849e+001  3.188318e+001 
3646875000  -4.111164e+001  2.725748e+001 
3650000000  -4.170582e+001  2.514389e+001 
3653125000  -4.156678e+001  2.562975e+001 
3656250000  -4.186602e+001  2.557897e+001 
3659375000  -4.197218e+001  2.765809e+001 
3662500000  -4.170310e+001  2.871437e+001 
3665625000  -4.122581e+001  2.652568e+001 
3668750000  -4.042809e+001  2.870356e+001 
3671875000  -3.939585e+001  2.353678e+001 
3675000000  -3.995292e+001  1.959263e+001 
3678125000  -4.057462e+001  2.024485e+001 
3681250000  -3.993795e+001  1.993812e+001 
3684375000  -3.970618e+001  1.960859e+001 
3687500000  -3.998289e+001  1.661092e+001 
3690625000  -3.986387e+001  1.405917e+001 
3693750000  -4.058487e+001  1.768411e+001 
3696875000  -4.041576e+001  2.042856e+001 
3700000000  -3.915401e+001  1.793022e+001 
3703125000  -3.896337e+001  1.451006e+001 
3706250000  -3.953714e+001  1.723524e+001 
3709375000  -3.889873e+001  2.083963e+001 
3712500000  -3.780955e+001  2.002042e+001 
3715625000  -3.662432e+001  1.403178e+001 
3718750000  -3.591318e+001  1.208651e+001 
3721875000  -3.548790e+001  7.039114e+000 
3725000000  -3.525673e+001  1.610305e+000 
3728125000  -3.558632e+001  2.404641e+000 
3731250000  -3.474941e+001  8.352381e-001 
3734375000  -3.394967e+001  -4.765859e+000 
3737500000  -3.423632e+001  -1.240765e+001 
3740625000  -3.494580e+001  -1.598163e+001 
3743750000  -3.477126e+001  -1.699946e+001 
3746875000  -3.475044e+001  -2.138533e+001 
3750000000  -3.493672e+001  -2.274169e+001 
3753125000  -3.474894e+001  -2.240931e+001 
3756250000  -3.465620e+001  -2.293007e+001 
3759375000  -3.443793e+001  -2.365192e+001 
3762500000  -3.382300e+001  -2.813436e+001 
3765625000  -3.431667e+001  -3.078234e+001 
3768750000  -3.428862e+001  -2.817013e+001 
3771875000  -3.262943e+001  -3.038368e+001 
3775000000  -3.228417e+001  -3.858398e+001 
3778125000  -3.250683e+001  -4.044141e+001 
3781250000  -3.235415e+001  -4.339495e+001 
3784375000  -3.240882e+001  -4.500753e+001 
3787500000  -3.172918e+001  -4.897210e+001 
3790625000  -3.228487e+001  -5.422816e+001 
3793750000  -3.243122e+001  -5.510526e+001 
3796875000  -3.162929e+001  -5.621574e+001 
3800000000  -3.002520e+001  -5.987649e+001 
3803125000  -3.085674e+001  -6.697308e+001 
3806250000  -3.148813e+001  -6.935936e+001 
3809375000  -3.114853e+001  -7.016190e+001 
3812500000  -3.049314e+001  -7.494219e+001 
3815625000  -3.114046e+001  -8.264486e+001 
3818750000  -3.208565e+001  -8.420970e+001 
3821875000  -3.217729e+001  -7.632832e+001 
3825000000  -3.023176e+001  -7.156905e+001 
3828125000  -2.881751e+001  -8.515283e+001 
3831250000  -2.939282e+001  -9.876730e+001 
3834375000  -3.082094e+001  -1.006096e+002 
3837500000  -3.165583e+001  -9.511044e+001 
3840625000  -3.063313e+001  -9.599788e+001 
3843750000  -2.939683e+001  -1.056827e+002 
3846875000  -3.007408e+001  -1.129092e+002 
3850000000  -3.134392e+001  -1.078657e+002 
3853125000  -3.052715e+001  -1.050830e+002 
3856250000  -3.048627e+001  -1.094015e+002 
3859375000  -2.983089e+001  -1.142700e+002 
3862500000  -2.940059e+001  -1.211391e+002 
3865625000  -2.961865e+001  -1.258746e+002 
3868750000  -2.967439e+001  -1.265014e+002 
3871875000  -2.898008e+001  -1.288142e+002 
3875000000  -2.905650e+001  -1.374224e+002 
3878125000  -3.001208e+001  -1.406514e+002 
3881250000  -3.014492e+001  -1.374110e+002 
3884375000  -2.961808e+001  -1.417863e+002 
3887500000  -2.972635e+001  -1.463040e+002 
3890625000  -3.029982e+001  -1.486879e+002 
3893750000  -3.059044e+001  -1.493408e+002 
3896875000  -3.072916e+001  -1.488268e+002 
3900000000  -3.088187e+001  -1.500773e+002 
3903125000  -3.070294e+001  -1.525657e+002 
3906250000  -3.045909e+001  -1.534711e+002 
3909375000  -2.967282e+001  -1.554806e+002 
3912500000  -2.964506e+001  -1.625286e+002 
3915625000  -3.088968e+001  -1.622544e+002 
3918750000  -3.097817e+001  -1.605257e+002 
3921875000  -3.058027e+001  -1.621513e+002 
3925000000  -2.974555e+001  -1.627329e+002 
3928125000  -2.909048e+001  -1.689081e+002 
3931250000  -2.953748e+001  -1.725454e+002 
3934375000  -2.984021e+001  -1.723956e+002 
3937500000  -2.990704e+001  -1.727207e+002 
3940625000  -3.038901e+001  -1.726672e+002 
3943750000  -2.944854e+001  -1.715645e+002 
3946875000  -2.821768e+001  -1.767088e+002 
3950000000  -2.867015e+001  1.749842e+002 
3953125000  -2.971487e+001  1.756467e+002 
3956250000  -2.889250e+001  1.787287e+002 
3959375000  -2.755891e+001  1.760751e+002 
3962500000  -2.699259e+001  1.718570e+002 
3965625000  -2.660747e+001  1.630839e+002 
3968750000  -2.747917e+001  1.564917e+002 
3971875000  -2.793818e+001  1.551110e+002 
3975000000  -2.726186e+001  1.533758e+002 
3978125000  -2.702367e+001  1.517216e+002 
3981250000  -2.680667e+001  1.472727e+002 
3984375000  -2.703613e+001  1.411862e+002 
3987500000  -2.750419e+001  1.387884e+002 
3990625000  -2.749606e+001  1.381154e+002 
3993750000  -2.774176e+001  1.349380e+002 
3996875000  -2.772702e+001  1.327478e+002 
4000000000  -2.777567e+001  1.307855e+002 
4003125000  -2.841184e+001  1.328477e+002 
4006250000  -2.705296e+001  1.330949e+002 
4009375000  -2.574083e+001  1.206434e+002 
4012500000  -2.680989e+001  1.137503e+002 
4015625000  -2.812759e+001  1.141336e+002 
4018750000  -2.830235e+001  1.163743e+002 
4021875000  -2.757647e+001  1.146061e+002 
4025000000  -2.730599e+001  1.101299e+002 
4028125000  -2.713104e+001  1.057384e+002 
4031250000  -2.764096e+001  1.024084e+002 
4034375000  -2.790591e+001  1.025144e+002 
4037500000  -2.742668e+001  1.049586e+002 
4040625000  -2.731121e+001  1.014300e+002 
4043750000  -2.764021e+001  1.004410e+002 
4046875000  -2.729844e+001  9.979577e+001 
4050000000  -2.670487e+001  9.454562e+001 
4053125000  -2.715683e+001  9.266625e+001 
4056250000  -2.781644e+001  9.634167e+001 
4059375000  -2.664586e+001  9.876476e+001 
4062500000  -2.523925e+001  9.410550e+001 
4065625000  -2.504603e+001  8.929196e+001 
4068750000  -2.486105e+001  8.464658e+001 
4071875000  -2.419714e+001  7.720315e+001 
4075000000  -2.450484e+001  7.071210e+001 
4078125000  -2.508832e+001  6.965466e+001 
4081250000  -2.463152e+001  6.720071e+001 
4084375000  -2.415898e+001  6.119534e+001 
4087500000  -2.451842e+001  5.469259e+001 
4090625000  -2.513267e+001  5.358487e+001 
4093750000  -2.493527e+001  5.434105e+001 
4096875000  -2.450331e+001  4.829710e+001 
4100000000  -2.518604e+001  4.154758e+001 
4103125000  -2.605095e+001  4.173290e+001 
4106250000  -2.593979e+001  4.652275e+001 
4109375000  -2.502522e+001  4.661777e+001 
4112500000  -2.450706e+001  3.986922e+001 
4115625000  -2.479316e+001  3.541311e+001 
4118750000  -2.496570e+001  3.258678e+001 
4121875000  -2.452076e+001  2.815938e+001 
4125000000  -2.484792e+001  2.296579e+001 
4128125000  -2.582888e+001  2.304516e+001 
4131250000  -2.564466e+001  3.069981e+001 
4134375000  -2.335159e+001  2.660993e+001 
4137500000  -2.302755e+001  8.096478e+000 
4140625000  -2.517884e+001  9.509793e-001 
4143750000  -2.648119e+001  5.229782e+000 
4146875000  -2.614205e+001  1.286228e+001 
4150000000  -2.523360e+001  9.895167e+000 
4153125000  -2.509478e+001  3.343768e+000 
4156250000  -2.591895e+001  5.691370e-001 
4159375000  -2.624666e+001  5.111551e+000 
4162500000  -2.510286e+001  9.102608e+000 
4165625000  -2.392731e+001  5.492474e+000 
4168750000  -2.336485e+001  -1.450393e+000 
4171875000  -2.331087e+001  -1.095730e+001 
4175000000  -2.388114e+001  -1.670657e+001 
4178125000  -2.448718e+001  -1.662604e+001 
4181250000  -2.434718e+001  -1.715104e+001 
4184375000  -2.422962e+001  -2.058662e+001 
4187500000  -2.431132e+001  -2.309150e+001 
4190625000  -2.411358e+001  -2.850673e+001 
4193750000  -2.484824e+001  -3.247649e+001 
4196875000  -2.553532e+001  -3.264836e+001 
4200000000  -2.637799e+001  -3.098851e+001 
4203125000  -2.648780e+001  -1.773636e+001 
4206250000  -2.323629e+001  -1.539691e+001 
4209375000  -2.195402e+001  -3.556177e+001 
4212500000  -2.381456e+001  -4.463528e+001 
4215625000  -2.486322e+001  -3.878053e+001 
4218750000  -2.361454e+001  -3.184996e+001 
4221875000  -2.122697e+001  -4.108881e+001 
4225000000  -2.239692e+001  -5.346886e+001 
4228125000  -2.316726e+001  -4.856458e+001 
4231250000  -2.161030e+001  -5.210527e+001 
4234375000  -2.154129e+001  -6.041939e+001 
4237500000  -2.112534e+001  -6.376714e+001 
4240625000  -2.111270e+001  -7.220352e+001 
4243750000  -2.203116e+001  -7.886263e+001 
4246875000  -2.294439e+001  -7.918851e+001 
4250000000  -2.299450e+001  -7.615534e+001 
4253125000  -2.243815e+001  -7.822781e+001 
4256250000  -2.268251e+001  -8.243625e+001 
4259375000  -2.243208e+001  -8.430515e+001 
4262500000  -2.244265e+001  -8.805387e+001 
4265625000  -2.262720e+001  -8.767646e+001 
4268750000  -2.174955e+001  -9.151622e+001 
4271875000  -2.153756e+001  -9.739043e+001 
4275000000  -2.088086e+001  -1.036513e+002 
4278125000  -2.147761e+001  -1.149207e+002 
4281250000  -2.326422e+001  -1.170368e+002 
4284375000  -2.299578e+001  -1.161754e+002 
4287500000  -2.368702e+001  -1.198460e+002 
4290625000  -2.499564e+001  -1.106311e+002 
4293750000  -2.302762e+001  -1.045760e+002 
4296875000  -2.168579e+001  -1.160865e+002 
4300000000  -2.250185e+001  -1.255163e+002 
4303125000  -2.363578e+001  -1.244159e+002 
4306250000  -2.309354e+001  -1.184177e+002 
4309375000  -2.167314e+001  -1.203232e+002 
4312500000  -2.156573e+001  -1.284196e+002 
4315625000  -2.179773e+001  -1.346425e+002 
4318750000  -2.207980e+001  -1.381368e+002 
4321875000  -2.226230e+001  -1.374845e+002 
4325000000  -2.169608e+001  -1.368327e+002 
4328125000  -2.119532e+001  -1.431647e+002 
4331250000  -2.114726e+001  -1.510536e+002 
4334375000  -2.154022e+001  -1.563130e+002 
4337500000  -2.236952e+001  -1.584294e+002 
4340625000  -2.292297e+001  -1.554108e+002 
4343750000  -2.239495e+001  -1.548192e+002 
4346875000  -2.199854e+001  -1.602386e+002 
4350000000  -2.197542e+001  -1.648509e+002 
4353125000  -2.200438e+001  -1.726032e+002 
4356250000  -2.366549e+001  -1.737961e+002 
4359375000  -2.445403e+001  -1.611344e+002 
4362500000  -2.179454e+001  -1.587051e+002 
4365625000  -2.012143e+001  -1.697847e+002 
4368750000  -2.077600e+001  1.783581e+002 
4371875000  -2.198895e+001  1.785355e+002 
4375000000  -2.170370e+001  1.798948e+002 
4378125000  -2.103832e+001  1.742474e+002 
4381250000  -2.122137e+001  1.688481e+002 
4384375000  -2.103470e+001  1.641946e+002 
4387500000  -2.172018e+001  1.583411e+002 
4390625000  -2.273564e+001  1.592863e+002 
4393750000  -2.206295e+001  1.613836e+002 
4396875000  -2.142669e+001  1.593313e+002 
4400000000  -2.091656e+001  1.523837e+002 
4403125000  -2.143560e+001  1.448708e+002 
4406250000  -2.232603e+001  1.432955e+002 
4409375000  -2.226402e+001  1.411063e+002 
4412500000  -2.328024e+001  1.384296e+002 
4415625000  -2.371475e+001  1.428509e+002 
4418750000  -2.253020e+001  1.475967e+002 
4421875000  -2.102452e+001  1.436499e+002 
