!Agilent Technologies,E8363B,MY43030201,A.06.04.32
!Agilent E8363B: A.06.04.32
!Date: Tuesday, November 11, 2014 20:53:04
!Correction: S21(Response(S21)) 
!S1P File: Measurement: S21:
# Hz S  dB   R 50
3000000000  -2.662129e+001  1.490916e+002 
3003125000  -2.805057e+001  1.445792e+002 
3006250000  -2.808130e+001  1.418509e+002 
3009375000  -2.846600e+001  1.468324e+002 
3012500000  -2.790574e+001  1.462523e+002 
3015625000  -2.695219e+001  1.389965e+002 
3018750000  -2.774908e+001  1.381924e+002 
3021875000  -2.655174e+001  1.395002e+002 
3025000000  -2.518620e+001  1.365470e+002 
3028125000  -2.422888e+001  1.312733e+002 
3031250000  -2.322057e+001  1.201107e+002 
3034375000  -2.285160e+001  1.071870e+002 
3037500000  -2.319930e+001  9.531029e+001 
3040625000  -2.457461e+001  9.011352e+001 
3043750000  -2.523913e+001  8.586398e+001 
3046875000  -2.534288e+001  7.948225e+001 
3050000000  -2.708555e+001  7.227717e+001 
3053125000  -2.725587e+001  7.899806e+001 
3056250000  -2.657216e+001  8.207178e+001 
3059375000  -2.682985e+001  8.145176e+001 
3062500000  -2.533386e+001  7.748672e+001 
3065625000  -2.516498e+001  7.203706e+001 
3068750000  -2.483988e+001  6.516404e+001 
3071875000  -2.480823e+001  6.201353e+001 
3075000000  -2.478081e+001  5.820015e+001 
3078125000  -2.449622e+001  5.368645e+001 
3081250000  -2.513924e+001  4.940512e+001 
3084375000  -2.442569e+001  4.590550e+001 
3087500000  -2.431495e+001  4.232706e+001 
3090625000  -2.402944e+001  3.264458e+001 
3093750000  -2.447923e+001  2.480372e+001 
3096875000  -2.573811e+001  1.876934e+001 
3100000000  -2.587901e+001  1.729056e+001 
3103125000  -2.626191e+001  1.905288e+001 
3106250000  -2.596546e+001  1.559307e+001 
3109375000  -2.627378e+001  1.186796e+001 
3112500000  -2.633491e+001  1.102009e+001 
3115625000  -2.618784e+001  6.897180e+000 
3118750000  -2.661753e+001  8.202898e+000 
3121875000  -2.599417e+001  1.242782e-001 
3125000000  -2.715638e+001  -3.261943e+000 
3128125000  -2.832362e+001  5.184588e+000 
3131250000  -2.618180e+001  5.524951e+000 
3134375000  -2.484089e+001  -8.172575e+000 
3137500000  -2.545259e+001  -2.136425e+001 
3140625000  -2.704654e+001  -2.351092e+001 
3143750000  -2.809700e+001  -1.963665e+001 
3146875000  -2.770852e+001  -1.742832e+001 
3150000000  -2.664541e+001  -1.520282e+001 
3153125000  -2.661028e+001  -2.272617e+001 
3156250000  -2.759582e+001  -1.756279e+001 
3159375000  -2.599270e+001  -1.457073e+001 
3162500000  -2.401532e+001  -2.761426e+001 
3165625000  -2.492047e+001  -3.849964e+001 
3168750000  -2.530517e+001  -3.765067e+001 
3171875000  -2.435981e+001  -4.216098e+001 
3175000000  -2.501574e+001  -4.986748e+001 
3178125000  -2.478625e+001  -4.821630e+001 
3181250000  -2.361526e+001  -5.217908e+001 
3184375000  -2.282128e+001  -6.426709e+001 
3187500000  -2.394838e+001  -7.965905e+001 
3190625000  -2.673702e+001  -8.707446e+001 
3193750000  -2.733335e+001  -7.770729e+001 
3196875000  -2.693242e+001  -7.223736e+001 
3200000000  -2.604154e+001  -7.390215e+001 
3203125000  -2.520630e+001  -7.989322e+001 
3206250000  -2.548413e+001  -8.596135e+001 
3209375000  -2.505226e+001  -9.114891e+001 
3212500000  -2.517415e+001  -9.779961e+001 
3215625000  -2.533523e+001  -1.014257e+002 
3218750000  -2.604483e+001  -1.081233e+002 
3221875000  -2.698962e+001  -1.131671e+002 
3225000000  -2.664230e+001  -1.137130e+002 
3228125000  -2.693489e+001  -1.183943e+002 
3231250000  -2.768533e+001  -1.209973e+002 
3234375000  -2.753484e+001  -1.197722e+002 
3237500000  -2.761299e+001  -1.214580e+002 
3240625000  -2.726048e+001  -1.233718e+002 
3243750000  -2.691313e+001  -1.301883e+002 
3246875000  -2.740272e+001  -1.361721e+002 
3250000000  -2.787356e+001  -1.381535e+002 
3253125000  -2.798046e+001  -1.400207e+002 
3256250000  -2.787976e+001  -1.458744e+002 
3259375000  -2.818818e+001  -1.536736e+002 
3262500000  -2.948578e+001  -1.563233e+002 
3265625000  -3.011670e+001  -1.529584e+002 
3268750000  -3.006113e+001  -1.502742e+002 
3271875000  -2.984640e+001  -1.491722e+002 
3275000000  -2.875547e+001  -1.543659e+002 
3278125000  -2.923176e+001  -1.605856e+002 
3281250000  -2.949444e+001  -1.587112e+002 
3284375000  -2.906203e+001  -1.645623e+002 
3287500000  -2.918605e+001  -1.674661e+002 
3290625000  -2.961289e+001  -1.719496e+002 
3293750000  -2.927324e+001  -1.776332e+002 
3296875000  -3.032679e+001  -1.774638e+002 
3300000000  -3.025458e+001  -1.759025e+002 
3303125000  -2.914219e+001  1.795536e+002 
3306250000  -2.894063e+001  1.729239e+002 
3309375000  -2.867029e+001  1.679755e+002 
3312500000  -2.875883e+001  1.575185e+002 
3315625000  -2.973256e+001  1.498920e+002 
3318750000  -3.111946e+001  1.475007e+002 
3321875000  -3.229159e+001  1.470854e+002 
3325000000  -3.296750e+001  1.524435e+002 
3328125000  -3.274962e+001  1.529563e+002 
3331250000  -3.162809e+001  1.608240e+002 
3334375000  -2.899358e+001  1.515060e+002 
3337500000  -2.911114e+001  1.328423e+002 
3340625000  -3.039751e+001  1.220905e+002 
3343750000  -3.244069e+001  1.210178e+002 
3346875000  -3.297956e+001  1.224993e+002 
3350000000  -3.234374e+001  1.208617e+002 
3353125000  -3.242963e+001  1.169798e+002 
3356250000  -3.220350e+001  1.092077e+002 
3359375000  -3.298111e+001  1.003145e+002 
3362500000  -3.444254e+001  9.510866e+001 
3365625000  -3.505743e+001  9.399286e+001 
3368750000  -3.606977e+001  9.257806e+001 
3371875000  -3.630428e+001  8.821074e+001 
3375000000  -3.805481e+001  8.623560e+001 
3378125000  -3.914945e+001  8.623862e+001 
3381250000  -4.052480e+001  9.392479e+001 
3384375000  -3.985050e+001  1.156195e+002 
3387500000  -3.666050e+001  1.010206e+002 
3390625000  -3.863474e+001  8.165245e+001 
3393750000  -4.023954e+001  8.616605e+001 
3396875000  -3.951595e+001  9.015647e+001 
3400000000  -3.944510e+001  8.292356e+001 
3403125000  -4.060106e+001  7.953612e+001 
3406250000  -4.132183e+001  8.238870e+001 
3409375000  -4.187902e+001  7.778648e+001 
3412500000  -4.296877e+001  7.896127e+001 
3415625000  -4.379531e+001  8.529626e+001 
3418750000  -4.421895e+001  8.947258e+001 
3421875000  -4.424377e+001  9.479656e+001 
3425000000  -4.353587e+001  9.735632e+001 
3428125000  -4.263332e+001  9.890500e+001 
3431250000  -4.229213e+001  9.381356e+001 
3434375000  -4.237161e+001  9.258057e+001 
3437500000  -4.301236e+001  9.110883e+001 
3440625000  -4.313190e+001  9.473464e+001 
3443750000  -4.181144e+001  9.765021e+001 
3446875000  -4.122321e+001  9.134748e+001 
3450000000  -4.094171e+001  8.266616e+001 
3453125000  -4.131496e+001  7.612122e+001 
3456250000  -4.237710e+001  7.046461e+001 
3459375000  -4.332721e+001  7.236210e+001 
3462500000  -4.329873e+001  7.437061e+001 
3465625000  -4.345474e+001  7.045821e+001 
3468750000  -4.368386e+001  6.770198e+001 
3471875000  -4.412619e+001  6.961639e+001 
3475000000  -4.390951e+001  6.564374e+001 
3478125000  -4.423136e+001  6.211226e+001 
3481250000  -4.550298e+001  5.792688e+001 
3484375000  -4.724621e+001  6.328494e+001 
3487500000  -4.652916e+001  6.669324e+001 
3490625000  -4.582370e+001  6.595079e+001 
3493750000  -4.648926e+001  6.199292e+001 
3496875000  -4.727131e+001  6.566112e+001 
3500000000  -4.871228e+001  7.076048e+001 
3503125000  -4.815560e+001  8.023293e+001 
3506250000  -4.725435e+001  7.878873e+001 
3509375000  -4.729840e+001  7.512971e+001 
3512500000  -4.775729e+001  7.535002e+001 
3515625000  -4.807848e+001  7.717696e+001 
3518750000  -4.831167e+001  8.388615e+001 
3521875000  -4.804809e+001  8.988835e+001 
3525000000  -4.844337e+001  8.952779e+001 
3528125000  -4.755883e+001  1.021352e+002 
3531250000  -4.587935e+001  1.014240e+002 
3534375000  -4.531509e+001  9.468522e+001 
3537500000  -4.467837e+001  9.034949e+001 
3540625000  -4.475179e+001  8.816134e+001 
3543750000  -4.572828e+001  9.078419e+001 
3546875000  -4.526348e+001  1.036236e+002 
3550000000  -4.227595e+001  1.068196e+002 
3553125000  -4.113207e+001  9.007069e+001 
3556250000  -4.156145e+001  8.238694e+001 
3559375000  -4.143276e+001  8.536170e+001 
3562500000  -4.012727e+001  7.866979e+001 
3565625000  -4.092367e+001  7.141267e+001 
3568750000  -4.080746e+001  7.448734e+001 
3571875000  -4.067687e+001  7.326347e+001 
3575000000  -4.004008e+001  6.837650e+001 
3578125000  -4.037211e+001  6.357525e+001 
3581250000  -4.036554e+001  6.253988e+001 
3584375000  -3.978709e+001  6.206422e+001 
3587500000  -3.892876e+001  5.521358e+001 
3590625000  -3.922140e+001  4.564288e+001 
3593750000  -4.026209e+001  4.419703e+001 
3596875000  -4.044758e+001  5.047920e+001 
3600000000  -3.872063e+001  4.760150e+001 
3603125000  -3.890319e+001  3.401151e+001 
3606250000  -3.956038e+001  3.016053e+001 
3609375000  -3.996722e+001  3.015816e+001 
3612500000  -4.056374e+001  2.757163e+001 
3615625000  -4.076513e+001  2.464259e+001 
3618750000  -4.125232e+001  2.717696e+001 
3621875000  -4.118550e+001  2.506328e+001 
3625000000  -4.131967e+001  2.377498e+001 
3628125000  -4.159074e+001  2.538754e+001 
3631250000  -4.110949e+001  2.011830e+001 
3634375000  -4.244221e+001  2.162975e+001 
3637500000  -4.215745e+001  2.857882e+001 
3640625000  -4.124152e+001  3.039687e+001 
3643750000  -4.072289e+001  2.485961e+001 
3646875000  -4.139097e+001  1.962930e+001 
3650000000  -4.181559e+001  1.950064e+001 
3653125000  -4.143002e+001  2.003112e+001 
3656250000  -4.185231e+001  2.015505e+001 
3659375000  -4.205617e+001  2.345980e+001 
3662500000  -4.083892e+001  2.221398e+001 
3665625000  -4.127608e+001  2.411158e+001 
3668750000  -4.014481e+001  2.730244e+001 
3671875000  -3.892797e+001  2.058806e+001 
3675000000  -3.946027e+001  1.449628e+001 
3678125000  -3.999231e+001  1.527513e+001 
3681250000  -3.933964e+001  1.639860e+001 
3684375000  -3.909560e+001  1.473198e+001 
3687500000  -3.927133e+001  1.169300e+001 
3690625000  -3.914033e+001  8.996656e+000 
3693750000  -3.966211e+001  1.166295e+001 
3696875000  -3.957001e+001  1.424984e+001 
3700000000  -3.848445e+001  1.113188e+001 
3703125000  -3.815328e+001  7.244981e+000 
3706250000  -3.893020e+001  8.141771e+000 
3709375000  -3.817735e+001  1.276225e+001 
3712500000  -3.722874e+001  1.176132e+001 
3715625000  -3.613733e+001  6.046090e+000 
3718750000  -3.548340e+001  2.360308e+000 
3721875000  -3.511358e+001  -2.470340e+000 
3725000000  -3.510771e+001  -7.511435e+000 
3728125000  -3.541111e+001  -9.416143e+000 
3731250000  -3.474916e+001  -9.578209e+000 
3734375000  -3.381478e+001  -1.527654e+001 
3737500000  -3.447744e+001  -2.192749e+001 
3740625000  -3.506720e+001  -2.395663e+001 
3743750000  -3.478642e+001  -2.636668e+001 
3746875000  -3.487877e+001  -2.938388e+001 
3750000000  -3.539277e+001  -2.986445e+001 
3753125000  -3.498491e+001  -2.889910e+001 
3756250000  -3.486438e+001  -3.038137e+001 
3759375000  -3.463757e+001  -3.094709e+001 
3762500000  -3.414928e+001  -3.425075e+001 
3765625000  -3.457738e+001  -3.653665e+001 
3768750000  -3.454619e+001  -3.433957e+001 
3771875000  -3.286638e+001  -3.535042e+001 
3775000000  -3.253627e+001  -4.296858e+001 
3778125000  -3.258407e+001  -4.528821e+001 
3781250000  -3.240519e+001  -4.768445e+001 
3784375000  -3.233086e+001  -4.923472e+001 
3787500000  -3.165237e+001  -5.326297e+001 
3790625000  -3.208313e+001  -5.914459e+001 
3793750000  -3.232098e+001  -6.015391e+001 
3796875000  -3.141943e+001  -6.085233e+001 
3800000000  -2.990803e+001  -6.428816e+001 
3803125000  -3.065555e+001  -7.127364e+001 
3806250000  -3.125174e+001  -7.444931e+001 
3809375000  -3.095782e+001  -7.514439e+001 
3812500000  -3.035746e+001  -8.048370e+001 
3815625000  -3.097491e+001  -8.705723e+001 
3818750000  -3.201161e+001  -8.811044e+001 
3821875000  -3.192632e+001  -8.028226e+001 
3825000000  -3.008807e+001  -7.564201e+001 
3828125000  -2.865986e+001  -8.932793e+001 
3831250000  -2.918753e+001  -1.038286e+002 
3834375000  -3.052796e+001  -1.050123e+002 
3837500000  -3.145810e+001  -9.992609e+001 
3840625000  -3.035215e+001  -1.012285e+002 
3843750000  -2.919624e+001  -1.103749e+002 
3846875000  -2.990568e+001  -1.179122e+002 
3850000000  -3.125211e+001  -1.118481e+002 
3853125000  -3.042776e+001  -1.091467e+002 
3856250000  -3.042834e+001  -1.141003e+002 
3859375000  -2.969699e+001  -1.184456e+002 
3862500000  -2.921382e+001  -1.257714e+002 
3865625000  -2.954417e+001  -1.307352e+002 
3868750000  -2.945813e+001  -1.312406e+002 
3871875000  -2.877802e+001  -1.335525e+002 
3875000000  -2.897049e+001  -1.421290e+002 
3878125000  -2.988106e+001  -1.444674e+002 
3881250000  -3.005123e+001  -1.414106e+002 
3884375000  -2.946262e+001  -1.461775e+002 
3887500000  -2.951685e+001  -1.503175e+002 
3890625000  -3.009415e+001  -1.526854e+002 
3893750000  -3.049996e+001  -1.538179e+002 
3896875000  -3.067947e+001  -1.529635e+002 
3900000000  -3.076973e+001  -1.532452e+002 
3903125000  -3.035098e+001  -1.563392e+002 
3906250000  -3.020236e+001  -1.562865e+002 
3909375000  -2.946977e+001  -1.592702e+002 
3912500000  -2.943904e+001  -1.666127e+002 
3915625000  -3.072195e+001  -1.653035e+002 
3918750000  -3.068718e+001  -1.639158e+002 
3921875000  -3.029174e+001  -1.649037e+002 
3925000000  -2.951765e+001  -1.662550e+002 
3928125000  -2.877891e+001  -1.718405e+002 
3931250000  -2.918364e+001  -1.763415e+002 
3934375000  -2.938976e+001  -1.763137e+002 
3937500000  -2.957472e+001  -1.770634e+002 
3940625000  -3.004395e+001  -1.763360e+002 
3943750000  -2.909727e+001  -1.749780e+002 
3946875000  -2.779056e+001  1.797037e+002 
3950000000  -2.832984e+001  1.717877e+002 
3953125000  -2.921701e+001  1.722574e+002 
3956250000  -2.835995e+001  1.745139e+002 
3959375000  -2.708501e+001  1.716507e+002 
3962500000  -2.653455e+001  1.673444e+002 
3965625000  -2.619069e+001  1.587995e+002 
3968750000  -2.705498e+001  1.520921e+002 
3971875000  -2.742974e+001  1.504860e+002 
3975000000  -2.685369e+001  1.482034e+002 
3978125000  -2.670265e+001  1.470392e+002 
3981250000  -2.640847e+001  1.427411e+002 
3984375000  -2.662036e+001  1.367337e+002 
3987500000  -2.722327e+001  1.344504e+002 
3990625000  -2.717950e+001  1.335265e+002 
3993750000  -2.737582e+001  1.305252e+002 
3996875000  -2.731872e+001  1.281481e+002 
4000000000  -2.748741e+001  1.261138e+002 
4003125000  -2.806715e+001  1.282405e+002 
4006250000  -2.669604e+001  1.286768e+002 
4009375000  -2.538936e+001  1.170210e+002 
4012500000  -2.642847e+001  1.100188e+002 
4015625000  -2.761950e+001  1.105731e+002 
4018750000  -2.778586e+001  1.126264e+002 
4021875000  -2.714454e+001  1.107800e+002 
4025000000  -2.675258e+001  1.062980e+002 
4028125000  -2.667124e+001  1.024391e+002 
4031250000  -2.709945e+001  9.902201e+001 
4034375000  -2.736331e+001  9.852858e+001 
4037500000  -2.681326e+001  1.001678e+002 
4040625000  -2.669046e+001  9.686435e+001 
4043750000  -2.709381e+001  9.663618e+001 
4046875000  -2.661784e+001  9.599368e+001 
4050000000  -2.603283e+001  9.047207e+001 
4053125000  -2.651140e+001  8.797903e+001 
4056250000  -2.706821e+001  9.210031e+001 
4059375000  -2.596465e+001  9.382156e+001 
4062500000  -2.461412e+001  8.954846e+001 
4065625000  -2.448080e+001  8.525063e+001 
4068750000  -2.416479e+001  8.072549e+001 
4071875000  -2.347274e+001  7.255455e+001 
4075000000  -2.384159e+001  6.613222e+001 
4078125000  -2.435359e+001  6.489848e+001 
4081250000  -2.386912e+001  6.245061e+001 
4084375000  -2.345438e+001  5.555676e+001 
4087500000  -2.381035e+001  4.937661e+001 
4090625000  -2.442666e+001  4.786721e+001 
4093750000  -2.430798e+001  4.862789e+001 
4096875000  -2.383603e+001  4.261597e+001 
4100000000  -2.455395e+001  3.605788e+001 
4103125000  -2.540118e+001  3.654607e+001 
4106250000  -2.523844e+001  4.113645e+001 
4109375000  -2.433795e+001  4.054331e+001 
4112500000  -2.385915e+001  3.419170e+001 
4115625000  -2.407553e+001  2.991985e+001 
4118750000  -2.423650e+001  2.688516e+001 
4121875000  -2.389968e+001  2.187598e+001 
4125000000  -2.430077e+001  1.740619e+001 
4128125000  -2.530503e+001  1.788408e+001 
4131250000  -2.493064e+001  2.608648e+001 
4134375000  -2.254860e+001  2.141545e+001 
4137500000  -2.234961e+001  2.349542e+000 
4140625000  -2.441631e+001  -4.719074e+000 
4143750000  -2.582865e+001  3.500974e-001 
4146875000  -2.531479e+001  7.872041e+000 
4150000000  -2.444767e+001  4.314913e+000 
4153125000  -2.427153e+001  -2.315064e+000 
4156250000  -2.514541e+001  -4.642084e+000 
4159375000  -2.542610e+001  -1.676923e-001 
4162500000  -2.432696e+001  4.088934e+000 
4165625000  -2.318645e+001  -2.235148e-001 
4168750000  -2.250016e+001  -7.350412e+000 
4171875000  -2.241275e+001  -1.675967e+001 
4175000000  -2.298135e+001  -2.219516e+001 
4178125000  -2.350351e+001  -2.276058e+001 
4181250000  -2.346173e+001  -2.342135e+001 
4184375000  -2.331857e+001  -2.688532e+001 
4187500000  -2.331576e+001  -2.969003e+001 
4190625000  -2.315336e+001  -3.526987e+001 
4193750000  -2.392232e+001  -3.937867e+001 
4196875000  -2.467280e+001  -3.943056e+001 
4200000000  -2.548557e+001  -3.700053e+001 
4203125000  -2.552501e+001  -2.380555e+001 
4206250000  -2.227353e+001  -2.268114e+001 
4209375000  -2.106096e+001  -4.322481e+001 
4212500000  -2.299084e+001  -5.182405e+001 
4215625000  -2.395753e+001  -4.481966e+001 
4218750000  -2.250147e+001  -3.824184e+001 
4221875000  -2.024995e+001  -4.818799e+001 
4225000000  -2.145217e+001  -6.110401e+001 
4228125000  -2.218523e+001  -5.658379e+001 
4231250000  -2.073795e+001  -5.990015e+001 
4234375000  -2.059953e+001  -6.823090e+001 
4237500000  -2.022078e+001  -7.188172e+001 
4240625000  -2.031143e+001  -8.037032e+001 
4243750000  -2.130213e+001  -8.639526e+001 
4246875000  -2.211051e+001  -8.647795e+001 
4250000000  -2.213059e+001  -8.362215e+001 
4253125000  -2.152996e+001  -8.587338e+001 
4256250000  -2.175171e+001  -8.993220e+001 
4259375000  -2.158294e+001  -9.220541e+001 
4262500000  -2.155573e+001  -9.594486e+001 
4265625000  -2.174280e+001  -9.567542e+001 
4268750000  -2.094925e+001  -9.930949e+001 
4271875000  -2.064554e+001  -1.048313e+002 
4275000000  -1.999577e+001  -1.112067e+002 
4278125000  -2.055201e+001  -1.227415e+002 
4281250000  -2.225380e+001  -1.252946e+002 
4284375000  -2.206425e+001  -1.247094e+002 
4287500000  -2.295408e+001  -1.284976e+002 
4290625000  -2.420292e+001  -1.183501e+002 
4293750000  -2.222168e+001  -1.124083e+002 
4296875000  -2.085180e+001  -1.237408e+002 
4300000000  -2.166179e+001  -1.332267e+002 
4303125000  -2.272371e+001  -1.317842e+002 
4306250000  -2.206898e+001  -1.265051e+002 
4309375000  -2.068829e+001  -1.288761e+002 
4312500000  -2.060255e+001  -1.378505e+002 
4315625000  -2.087167e+001  -1.435512e+002 
4318750000  -2.118160e+001  -1.466900e+002 
4321875000  -2.136212e+001  -1.462952e+002 
4325000000  -2.072919e+001  -1.460505e+002 
4328125000  -2.019096e+001  -1.526502e+002 
4331250000  -2.025131e+001  -1.607852e+002 
4334375000  -2.068211e+001  -1.656992e+002 
4337500000  -2.145307e+001  -1.677426e+002 
4340625000  -2.195261e+001  -1.650782e+002 
4343750000  -2.139710e+001  -1.644871e+002 
4346875000  -2.106131e+001  -1.696231e+002 
4350000000  -2.099466e+001  -1.746564e+002 
4353125000  -2.105004e+001  1.772421e+002 
4356250000  -2.275876e+001  1.757016e+002 
4359375000  -2.340750e+001  -1.706167e+002 
4362500000  -2.088150e+001  -1.688283e+002 
4365625000  -1.930322e+001  -1.799874e+002 
4368750000  -1.998976e+001  1.680462e+002 
4371875000  -2.110400e+001  1.684763e+002 
4375000000  -2.082137e+001  1.696041e+002 
4378125000  -2.022143e+001  1.639271e+002 
4381250000  -2.033015e+001  1.583368e+002 
4384375000  -2.017993e+001  1.539507e+002 
4387500000  -2.083081e+001  1.479335e+002 
4390625000  -2.184321e+001  1.485543e+002 
4393750000  -2.127906e+001  1.507569e+002 
4396875000  -2.063387e+001  1.485656e+002 
4400000000  -2.010950e+001  1.418577e+002 
4403125000  -2.062867e+001  1.340587e+002 
4406250000  -2.147057e+001  1.328859e+002 
4409375000  -2.144161e+001  1.304419e+002 
4412500000  -2.236594e+001  1.276275e+002 
4415625000  -2.285003e+001  1.323242e+002 
4418750000  -2.174017e+001  1.372440e+002 
