!Agilent Technologies,E8363B,MY43030201,A.06.04.32
!Agilent E8363B: A.06.04.32
!Date: Tuesday, November 11, 2014 20:47:36
!Correction: S21(Response(S21)) 
!S1P File: Measurement: S21:
# Hz S  dB   R 50
3000000000  -2.651582e+001  1.565656e+002 
3003125000  -2.792983e+001  1.524425e+002 
3006250000  -2.800090e+001  1.491915e+002 
3009375000  -2.832066e+001  1.545269e+002 
3012500000  -2.781382e+001  1.541898e+002 
3015625000  -2.680767e+001  1.470121e+002 
3018750000  -2.767629e+001  1.460055e+002 
3021875000  -2.645867e+001  1.474636e+002 
3025000000  -2.510799e+001  1.443786e+002 
3028125000  -2.416434e+001  1.395705e+002 
3031250000  -2.314796e+001  1.286381e+002 
3034375000  -2.272519e+001  1.156633e+002 
3037500000  -2.307831e+001  1.036552e+002 
3040625000  -2.442232e+001  9.849857e+001 
3043750000  -2.514787e+001  9.418043e+001 
3046875000  -2.519812e+001  8.770950e+001 
3050000000  -2.692870e+001  8.059531e+001 
3053125000  -2.715857e+001  8.722238e+001 
3056250000  -2.643053e+001  9.030068e+001 
3059375000  -2.669963e+001  9.000942e+001 
3062500000  -2.522895e+001  8.572021e+001 
3065625000  -2.500333e+001  8.074377e+001 
3068750000  -2.470737e+001  7.364547e+001 
3071875000  -2.463180e+001  7.056616e+001 
3075000000  -2.467224e+001  6.676604e+001 
3078125000  -2.437655e+001  6.216971e+001 
3081250000  -2.500839e+001  5.824948e+001 
3084375000  -2.425484e+001  5.459462e+001 
3087500000  -2.408591e+001  5.100767e+001 
3090625000  -2.381906e+001  4.138655e+001 
3093750000  -2.424920e+001  3.312659e+001 
3096875000  -2.555103e+001  2.714729e+001 
3100000000  -2.570545e+001  2.569025e+001 
3103125000  -2.606488e+001  2.739643e+001 
3106250000  -2.578919e+001  2.390285e+001 
3109375000  -2.605639e+001  2.016216e+001 
3112500000  -2.617365e+001  1.911093e+001 
3115625000  -2.595249e+001  1.489677e+001 
3118750000  -2.643086e+001  1.601899e+001 
3121875000  -2.577684e+001  8.218113e+000 
3125000000  -2.687318e+001  4.713384e+000 
3128125000  -2.811194e+001  1.235766e+001 
3131250000  -2.598792e+001  1.334433e+001 
3134375000  -2.461472e+001  -1.452368e-001 
3137500000  -2.526958e+001  -1.426533e+001 
3140625000  -2.691404e+001  -1.591021e+001 
3143750000  -2.791002e+001  -1.202192e+001 
3146875000  -2.750048e+001  -9.695688e+000 
3150000000  -2.651081e+001  -7.557631e+000 
3153125000  -2.645571e+001  -1.508822e+001 
3156250000  -2.743003e+001  -9.648269e+000 
3159375000  -2.591701e+001  -6.907523e+000 
3162500000  -2.385134e+001  -1.970235e+001 
3165625000  -2.480365e+001  -3.073055e+001 
3168750000  -2.525899e+001  -2.987664e+001 
3171875000  -2.426384e+001  -3.386815e+001 
3175000000  -2.488076e+001  -4.188491e+001 
3178125000  -2.467768e+001  -4.007948e+001 
3181250000  -2.347671e+001  -4.384755e+001 
3184375000  -2.268663e+001  -5.608699e+001 
3187500000  -2.375915e+001  -7.170684e+001 
3190625000  -2.656929e+001  -7.900536e+001 
3193750000  -2.720200e+001  -6.965616e+001 
3196875000  -2.675321e+001  -6.408560e+001 
3200000000  -2.591211e+001  -6.570242e+001 
3203125000  -2.504437e+001  -7.126797e+001 
3206250000  -2.528162e+001  -7.770036e+001 
3209375000  -2.483377e+001  -8.253092e+001 
3212500000  -2.493171e+001  -8.931609e+001 
3215625000  -2.509888e+001  -9.390715e+001 
3218750000  -2.584910e+001  -9.980600e+001 
3221875000  -2.684832e+001  -1.051472e+002 
3225000000  -2.646303e+001  -1.055634e+002 
3228125000  -2.675661e+001  -1.100279e+002 
3231250000  -2.748790e+001  -1.129225e+002 
3234375000  -2.740886e+001  -1.116217e+002 
3237500000  -2.738372e+001  -1.135489e+002 
3240625000  -2.708311e+001  -1.148457e+002 
3243750000  -2.669925e+001  -1.216439e+002 
3246875000  -2.720014e+001  -1.281789e+002 
3250000000  -2.765853e+001  -1.299931e+002 
3253125000  -2.780658e+001  -1.320714e+002 
3256250000  -2.768306e+001  -1.375842e+002 
3259375000  -2.800283e+001  -1.454492e+002 
3262500000  -2.924409e+001  -1.484762e+002 
3265625000  -2.991963e+001  -1.451384e+002 
3268750000  -2.988916e+001  -1.425552e+002 
3271875000  -2.968520e+001  -1.411486e+002 
3275000000  -2.858959e+001  -1.459154e+002 
3278125000  -2.905251e+001  -1.527455e+002 
3281250000  -2.931798e+001  -1.505923e+002 
3284375000  -2.888374e+001  -1.568824e+002 
3287500000  -2.905926e+001  -1.591659e+002 
3290625000  -2.946343e+001  -1.634661e+002 
3293750000  -2.914531e+001  -1.688146e+002 
3296875000  -3.013953e+001  -1.688951e+002 
3300000000  -3.014091e+001  -1.677392e+002 
3303125000  -2.896512e+001  -1.717701e+002 
3306250000  -2.866333e+001  -1.785443e+002 
3309375000  -2.852910e+001  1.768851e+002 
3312500000  -2.849449e+001  1.664450e+002 
3315625000  -2.949875e+001  1.581337e+002 
3318750000  -3.078793e+001  1.556451e+002 
3321875000  -3.205852e+001  1.557662e+002 
3325000000  -3.257810e+001  1.601149e+002 
3328125000  -3.257909e+001  1.623874e+002 
3331250000  -3.131508e+001  1.697345e+002 
3334375000  -2.868288e+001  1.604050e+002 
3337500000  -2.875478e+001  1.419301e+002 
3340625000  -3.009328e+001  1.310629e+002 
3343750000  -3.196350e+001  1.293110e+002 
3346875000  -3.260337e+001  1.307647e+002 
3350000000  -3.187303e+001  1.298901e+002 
3353125000  -3.199774e+001  1.253293e+002 
3356250000  -3.176543e+001  1.178077e+002 
3359375000  -3.258092e+001  1.094515e+002 
3362500000  -3.387553e+001  1.043972e+002 
3365625000  -3.454781e+001  1.027314e+002 
3368750000  -3.543911e+001  1.006860e+002 
3371875000  -3.581687e+001  9.759096e+001 
3375000000  -3.738488e+001  9.595260e+001 
3378125000  -3.852522e+001  9.422304e+001 
3381250000  -4.014854e+001  1.016470e+002 
3384375000  -3.932119e+001  1.231575e+002 
3387500000  -3.611900e+001  1.099084e+002 
3390625000  -3.792978e+001  9.092770e+001 
3393750000  -3.974872e+001  9.540874e+001 
3396875000  -3.895803e+001  9.896757e+001 
3400000000  -3.868451e+001  9.098877e+001 
3403125000  -3.976900e+001  8.753458e+001 
3406250000  -4.060289e+001  9.068317e+001 
3409375000  -4.105313e+001  8.445985e+001 
3412500000  -4.231199e+001  8.676668e+001 
3415625000  -4.317524e+001  9.120686e+001 
3418750000  -4.333557e+001  9.570010e+001 
3421875000  -4.358096e+001  1.021320e+002 
3425000000  -4.314129e+001  1.044982e+002 
3428125000  -4.177562e+001  1.058955e+002 
3431250000  -4.172709e+001  1.016794e+002 
3434375000  -4.150139e+001  9.768465e+001 
3437500000  -4.180424e+001  9.652434e+001 
3440625000  -4.237375e+001  9.994457e+001 
3443750000  -4.115695e+001  1.032857e+002 
3446875000  -4.027039e+001  9.696127e+001 
3450000000  -4.010282e+001  8.771897e+001 
3453125000  -4.029685e+001  7.922491e+001 
3456250000  -4.124142e+001  7.449327e+001 
3459375000  -4.229049e+001  7.622264e+001 
3462500000  -4.257444e+001  7.592907e+001 
3465625000  -4.259437e+001  7.416479e+001 
3468750000  -4.292754e+001  6.977261e+001 
3471875000  -4.313998e+001  7.181045e+001 
3475000000  -4.275116e+001  6.661925e+001 
3478125000  -4.400293e+001  6.295273e+001 
3481250000  -4.482669e+001  5.948901e+001 
3484375000  -4.631823e+001  6.548685e+001 
3487500000  -4.579435e+001  6.911168e+001 
3490625000  -4.549539e+001  6.688926e+001 
3493750000  -4.626217e+001  6.379490e+001 
3496875000  -4.701201e+001  6.395715e+001 
3500000000  -4.853853e+001  7.124091e+001 
3503125000  -4.881183e+001  8.041022e+001 
3506250000  -4.680698e+001  7.765500e+001 
3509375000  -4.764089e+001  7.606359e+001 
3512500000  -4.770733e+001  7.498028e+001 
3515625000  -4.816406e+001  7.911842e+001 
3518750000  -4.857837e+001  8.432744e+001 
3521875000  -4.755919e+001  8.915401e+001 
3525000000  -4.806767e+001  9.173667e+001 
3528125000  -4.769024e+001  1.000198e+002 
3531250000  -4.628989e+001  1.012212e+002 
3534375000  -4.473734e+001  9.392234e+001 
3537500000  -4.528884e+001  8.835118e+001 
3540625000  -4.526280e+001  9.016172e+001 
3543750000  -4.591984e+001  9.143481e+001 
3546875000  -4.566666e+001  1.048113e+002 
3550000000  -4.307525e+001  1.059971e+002 
3553125000  -4.162959e+001  8.945235e+001 
3556250000  -4.237881e+001  8.242244e+001 
3559375000  -4.237175e+001  8.551050e+001 
3562500000  -4.112109e+001  7.930881e+001 
3565625000  -4.188927e+001  7.054822e+001 
3568750000  -4.169483e+001  7.684405e+001 
3571875000  -4.142319e+001  7.651301e+001 
3575000000  -4.116151e+001  7.166193e+001 
3578125000  -4.167418e+001  6.662704e+001 
3581250000  -4.156963e+001  6.812734e+001 
3584375000  -4.092150e+001  6.630380e+001 
3587500000  -4.009771e+001  6.092155e+001 
3590625000  -4.041113e+001  5.152160e+001 
3593750000  -4.130102e+001  5.006584e+001 
3596875000  -4.143932e+001  5.794157e+001 
3600000000  -3.985757e+001  5.639826e+001 
3603125000  -4.012728e+001  4.377148e+001 
3606250000  -4.057593e+001  4.012333e+001 
3609375000  -4.098141e+001  3.971637e+001 
3612500000  -4.143116e+001  3.838825e+001 
3615625000  -4.158528e+001  3.625279e+001 
3618750000  -4.196921e+001  3.710813e+001 
3621875000  -4.146403e+001  3.730197e+001 
3625000000  -4.197227e+001  3.655121e+001 
3628125000  -4.170981e+001  3.698645e+001 
3631250000  -4.136749e+001  3.229321e+001 
3634375000  -4.253442e+001  3.495679e+001 
3637500000  -4.244159e+001  3.816941e+001 
3640625000  -4.113465e+001  4.095339e+001 
3643750000  -4.083618e+001  3.425356e+001 
3646875000  -4.107479e+001  2.808786e+001 
3650000000  -4.176682e+001  2.883220e+001 
3653125000  -4.146148e+001  2.773125e+001 
3656250000  -4.171379e+001  2.661940e+001 
3659375000  -4.212753e+001  3.091337e+001 
3662500000  -4.137408e+001  2.919711e+001 
3665625000  -4.151439e+001  3.014536e+001 
3668750000  -4.016872e+001  3.186205e+001 
3671875000  -3.923857e+001  2.713958e+001 
3675000000  -4.004346e+001  2.064127e+001 
3678125000  -4.031828e+001  2.293718e+001 
3681250000  -3.997239e+001  2.318246e+001 
3684375000  -3.975012e+001  2.022365e+001 
3687500000  -3.980848e+001  1.932096e+001 
3690625000  -3.984517e+001  1.588238e+001 
3693750000  -4.059695e+001  2.046752e+001 
3696875000  -4.011878e+001  2.280230e+001 
3700000000  -3.914100e+001  2.100323e+001 
3703125000  -3.898518e+001  1.754895e+001 
3706250000  -3.931508e+001  1.889611e+001 
3709375000  -3.880429e+001  2.249850e+001 
3712500000  -3.765825e+001  2.281844e+001 
3715625000  -3.649673e+001  1.761878e+001 
3718750000  -3.566263e+001  1.412066e+001 
3721875000  -3.520523e+001  8.389334e+000 
3725000000  -3.519336e+001  4.739236e+000 
3728125000  -3.554041e+001  3.080763e+000 
3731250000  -3.475786e+001  3.257364e+000 
3734375000  -3.371111e+001  -3.944493e+000 
3737500000  -3.424397e+001  -1.133773e+001 
3740625000  -3.481387e+001  -1.424232e+001 
3743750000  -3.457800e+001  -1.591872e+001 
3746875000  -3.465614e+001  -2.030836e+001 
3750000000  -3.497053e+001  -2.028841e+001 
3753125000  -3.458307e+001  -1.997309e+001 
3756250000  -3.451133e+001  -2.136399e+001 
3759375000  -3.439762e+001  -2.162728e+001 
3762500000  -3.371957e+001  -2.652165e+001 
3765625000  -3.418951e+001  -2.810619e+001 
3768750000  -3.420985e+001  -2.655449e+001 
3771875000  -3.243416e+001  -2.935660e+001 
3775000000  -3.226745e+001  -3.578155e+001 
3778125000  -3.250140e+001  -3.845200e+001 
3781250000  -3.237289e+001  -4.161713e+001 
3784375000  -3.235070e+001  -4.328653e+001 
3787500000  -3.171305e+001  -4.716127e+001 
3790625000  -3.228843e+001  -5.248834e+001 
3793750000  -3.241027e+001  -5.267388e+001 
3796875000  -3.149467e+001  -5.466932e+001 
3800000000  -3.003753e+001  -5.884625e+001 
3803125000  -3.075912e+001  -6.484745e+001 
3806250000  -3.141802e+001  -6.722526e+001 
3809375000  -3.110460e+001  -6.854039e+001 
3812500000  -3.049866e+001  -7.370499e+001 
3815625000  -3.098690e+001  -8.078119e+001 
3818750000  -3.192973e+001  -8.202280e+001 
3821875000  -3.211363e+001  -7.473547e+001 
3825000000  -3.020208e+001  -6.982738e+001 
3828125000  -2.889193e+001  -8.348886e+001 
3831250000  -2.943762e+001  -9.737382e+001 
3834375000  -3.064558e+001  -9.849187e+001 
3837500000  -3.157840e+001  -9.335556e+001 
3840625000  -3.053778e+001  -9.438120e+001 
3843750000  -2.934070e+001  -1.044258e+002 
3846875000  -2.998267e+001  -1.114582e+002 
3850000000  -3.125649e+001  -1.062695e+002 
3853125000  -3.042527e+001  -1.029151e+002 
3856250000  -3.037409e+001  -1.081119e+002 
3859375000  -2.978650e+001  -1.122235e+002 
3862500000  -2.929679e+001  -1.195014e+002 
3865625000  -2.953327e+001  -1.242866e+002 
3868750000  -2.956423e+001  -1.247309e+002 
3871875000  -2.892296e+001  -1.270731e+002 
3875000000  -2.900908e+001  -1.358745e+002 
3878125000  -2.993855e+001  -1.392321e+002 
3881250000  -3.008993e+001  -1.355277e+002 
3884375000  -2.958244e+001  -1.400504e+002 
3887500000  -2.969349e+001  -1.440729e+002 
3890625000  -3.011780e+001  -1.470085e+002 
3893750000  -3.055586e+001  -1.477227e+002 
3896875000  -3.071465e+001  -1.475858e+002 
3900000000  -3.103763e+001  -1.487133e+002 
3903125000  -3.055614e+001  -1.505345e+002 
3906250000  -3.037651e+001  -1.512592e+002 
3909375000  -2.965465e+001  -1.536247e+002 
3912500000  -2.973832e+001  -1.610977e+002 
3915625000  -3.089651e+001  -1.609363e+002 
3918750000  -3.091219e+001  -1.589457e+002 
3921875000  -3.057446e+001  -1.608160e+002 
3925000000  -2.983276e+001  -1.608087e+002 
3928125000  -2.909418e+001  -1.669320e+002 
3931250000  -2.946209e+001  -1.707506e+002 
3934375000  -2.972945e+001  -1.704857e+002 
3937500000  -2.991119e+001  -1.706825e+002 
3940625000  -3.036711e+001  -1.708802e+002 
3943750000  -2.942427e+001  -1.700471e+002 
3946875000  -2.824468e+001  -1.749420e+002 
3950000000  -2.864005e+001  1.773538e+002 
3953125000  -2.965613e+001  1.780715e+002 
3956250000  -2.884821e+001  -1.789498e+002 
3959375000  -2.745053e+001  1.778393e+002 
3962500000  -2.695856e+001  1.739351e+002 
3965625000  -2.656369e+001  1.648707e+002 
3968750000  -2.741756e+001  1.580949e+002 
3971875000  -2.794018e+001  1.572559e+002 
3975000000  -2.722520e+001  1.549296e+002 
3978125000  -2.701563e+001  1.539251e+002 
3981250000  -2.672750e+001  1.495699e+002 
3984375000  -2.697386e+001  1.429603e+002 
3987500000  -2.750676e+001  1.408770e+002 
3990625000  -2.748656e+001  1.400146e+002 
3993750000  -2.774458e+001  1.367913e+002 
3996875000  -2.766875e+001  1.344644e+002 
4000000000  -2.778784e+001  1.321982e+002 
4003125000  -2.837111e+001  1.344822e+002 
4006250000  -2.700694e+001  1.354613e+002 
4009375000  -2.571446e+001  1.226598e+002 
4012500000  -2.677296e+001  1.152513e+002 
4015625000  -2.803592e+001  1.158830e+002 
4018750000  -2.826774e+001  1.186502e+002 
4021875000  -2.760970e+001  1.165121e+002 
4025000000  -2.722400e+001  1.117042e+002 
4028125000  -2.711748e+001  1.080062e+002 
4031250000  -2.759733e+001  1.048866e+002 
4034375000  -2.790416e+001  1.041980e+002 
4037500000  -2.736697e+001  1.063478e+002 
4040625000  -2.724639e+001  1.029131e+002 
4043750000  -2.762544e+001  1.024398e+002 
4046875000  -2.721125e+001  1.024542e+002 
4050000000  -2.666025e+001  9.655500e+001 
4053125000  -2.716601e+001  9.430859e+001 
4056250000  -2.776445e+001  9.806435e+001 
4059375000  -2.665386e+001  1.002612e+002 
4062500000  -2.521099e+001  9.592984e+001 
4065625000  -2.504403e+001  9.150271e+001 
4068750000  -2.478606e+001  8.675488e+001 
4071875000  -2.414838e+001  7.926327e+001 
4075000000  -2.451542e+001  7.303015e+001 
4078125000  -2.507676e+001  7.174078e+001 
4081250000  -2.454402e+001  6.915134e+001 
4084375000  -2.419514e+001  6.311076e+001 
4087500000  -2.447466e+001  5.672759e+001 
4090625000  -2.510001e+001  5.539938e+001 
4093750000  -2.490703e+001  5.618336e+001 
4096875000  -2.444713e+001  5.035395e+001 
4100000000  -2.508383e+001  4.330148e+001 
4103125000  -2.598538e+001  4.363781e+001 
4106250000  -2.591166e+001  4.841408e+001 
4109375000  -2.501583e+001  4.825471e+001 
4112500000  -2.445412e+001  4.190308e+001 
4115625000  -2.468905e+001  3.776585e+001 
4118750000  -2.483934e+001  3.472407e+001 
4121875000  -2.449268e+001  3.024448e+001 
4125000000  -2.477707e+001  2.504417e+001 
4128125000  -2.578686e+001  2.492554e+001 
4131250000  -2.556970e+001  3.239163e+001 
4134375000  -2.324532e+001  2.893677e+001 
4137500000  -2.297422e+001  9.875594e+000 
4140625000  -2.520048e+001  2.596548e+000 
4143750000  -2.649726e+001  7.374862e+000 
4146875000  -2.607791e+001  1.479353e+001 
4150000000  -2.514159e+001  1.160764e+001 
4153125000  -2.497008e+001  5.382495e+000 
4156250000  -2.581985e+001  2.883382e+000 
4159375000  -2.615457e+001  6.702565e+000 
4162500000  -2.499611e+001  1.138601e+001 
4165625000  -2.382234e+001  7.398940e+000 
4168750000  -2.325582e+001  3.854495e-001 
4171875000  -2.326936e+001  -8.836190e+000 
4175000000  -2.381361e+001  -1.473790e+001 
4178125000  -2.443985e+001  -1.471885e+001 
4181250000  -2.436197e+001  -1.511949e+001 
4184375000  -2.417510e+001  -1.816737e+001 
4187500000  -2.418355e+001  -2.076454e+001 
4190625000  -2.402687e+001  -2.664986e+001 
4193750000  -2.478613e+001  -3.042509e+001 
4196875000  -2.547422e+001  -3.079685e+001 
4200000000  -2.627311e+001  -2.885240e+001 
4203125000  -2.643462e+001  -1.617270e+001 
4206250000  -2.314864e+001  -1.282913e+001 
4209375000  -2.189792e+001  -3.362251e+001 
4212500000  -2.378420e+001  -4.262603e+001 
4215625000  -2.479926e+001  -3.683517e+001 
4218750000  -2.348936e+001  -2.999671e+001 
4221875000  -2.116497e+001  -3.889155e+001 
4225000000  -2.239484e+001  -5.144263e+001 
4228125000  -2.313963e+001  -4.632660e+001 
4231250000  -2.150436e+001  -5.017851e+001 
4234375000  -2.143753e+001  -5.835789e+001 
4237500000  -2.104645e+001  -6.166865e+001 
4240625000  -2.100042e+001  -7.020508e+001 
4243750000  -2.195564e+001  -7.662167e+001 
4246875000  -2.283869e+001  -7.699342e+001 
4250000000  -2.291093e+001  -7.416053e+001 
4253125000  -2.234766e+001  -7.621751e+001 
4256250000  -2.261082e+001  -8.021634e+001 
4259375000  -2.234432e+001  -8.252706e+001 
4262500000  -2.231638e+001  -8.608640e+001 
4265625000  -2.256296e+001  -8.568978e+001 
4268750000  -2.171843e+001  -8.945594e+001 
4271875000  -2.143623e+001  -9.536575e+001 
4275000000  -2.082054e+001  -1.017961e+002 
4278125000  -2.135614e+001  -1.126320e+002 
4281250000  -2.318492e+001  -1.152584e+002 
4284375000  -2.292663e+001  -1.140539e+002 
4287500000  -2.364892e+001  -1.176958e+002 
4290625000  -2.490048e+001  -1.087568e+002 
4293750000  -2.300516e+001  -1.027898e+002 
4296875000  -2.162188e+001  -1.138127e+002 
4300000000  -2.242144e+001  -1.232872e+002 
4303125000  -2.350733e+001  -1.225351e+002 
4306250000  -2.301108e+001  -1.163810e+002 
4309375000  -2.157663e+001  -1.181248e+002 
4312500000  -2.140628e+001  -1.264630e+002 
4315625000  -2.167343e+001  -1.325715e+002 
4318750000  -2.190459e+001  -1.359085e+002 
4321875000  -2.206779e+001  -1.353745e+002 
4325000000  -2.147029e+001  -1.345728e+002 
4328125000  -2.097363e+001  -1.411221e+002 
4331250000  -2.094656e+001  -1.492021e+002 
4334375000  -2.133731e+001  -1.541494e+002 
4337500000  -2.207741e+001  -1.565206e+002 
4340625000  -2.268295e+001  -1.532915e+002 
4343750000  -2.219605e+001  -1.526277e+002 
4346875000  -2.180365e+001  -1.581097e+002 
4350000000  -2.175865e+001  -1.624802e+002 
4353125000  -2.175290e+001  -1.701274e+002 
4356250000  -2.344842e+001  -1.715546e+002 
4359375000  -2.420690e+001  -1.590270e+002 
4362500000  -2.163339e+001  -1.567348e+002 
4365625000  -1.994367e+001  -1.679334e+002 
4368750000  -2.053625e+001  -1.799015e+002 
4371875000  -2.171463e+001  -1.796167e+002 
4375000000  -2.145858e+001  -1.784588e+002 
4378125000  -2.082456e+001  1.760143e+002 
4381250000  -2.091227e+001  1.706484e+002 
4384375000  -2.073114e+001  1.664306e+002 
4387500000  -2.141698e+001  1.605322e+002 
4390625000  -2.251623e+001  1.611493e+002 
4393750000  -2.188009e+001  1.632394e+002 
4396875000  -2.118600e+001  1.611113e+002 
4400000000  -2.068133e+001  1.541828e+002 
4403125000  -2.116909e+001  1.467644e+002 
4406250000  -2.208398e+001  1.450634e+002 
4409375000  -2.202710e+001  1.430725e+002 
4412500000  -2.304317e+001  1.403954e+002 
4415625000  -2.347160e+001  1.447812e+002 
4418750000  -2.232697e+001  1.491996e+002 
