!Agilent Technologies,E8363B,MY43030201,A.06.04.32
!Agilent E8363B: A.06.04.32
!Date: Tuesday, November 11, 2014 20:53:21
!Correction: S21(Response(S21)) 
!S1P File: Measurement: S21:
# Hz S  dB   R 50
3000000000  -2.651944e+001  1.403554e+002 
3003125000  -2.792050e+001  1.359684e+002 
3006250000  -2.796782e+001  1.337949e+002 
3009375000  -2.837478e+001  1.393298e+002 
3012500000  -2.781519e+001  1.387035e+002 
3015625000  -2.688971e+001  1.322339e+002 
3018750000  -2.770011e+001  1.316686e+002 
3021875000  -2.640954e+001  1.331656e+002 
3025000000  -2.512916e+001  1.302573e+002 
3028125000  -2.422334e+001  1.254694e+002 
3031250000  -2.318063e+001  1.147374e+002 
3034375000  -2.282038e+001  1.020648e+002 
3037500000  -2.318101e+001  9.038943e+001 
3040625000  -2.449321e+001  8.537753e+001 
3043750000  -2.519123e+001  8.118534e+001 
3046875000  -2.531707e+001  7.496945e+001 
3050000000  -2.703048e+001  6.829745e+001 
3053125000  -2.709337e+001  7.472578e+001 
3056250000  -2.647639e+001  7.765700e+001 
3059375000  -2.671675e+001  7.771376e+001 
3062500000  -2.528937e+001  7.365362e+001 
3065625000  -2.504636e+001  6.827212e+001 
3068750000  -2.479045e+001  6.161553e+001 
3071875000  -2.473079e+001  5.874017e+001 
3075000000  -2.471242e+001  5.496656e+001 
3078125000  -2.448267e+001  5.057069e+001 
3081250000  -2.509085e+001  4.654390e+001 
3084375000  -2.438223e+001  4.297962e+001 
3087500000  -2.427490e+001  3.940866e+001 
3090625000  -2.398496e+001  2.980342e+001 
3093750000  -2.444921e+001  2.190650e+001 
3096875000  -2.569849e+001  1.631397e+001 
3100000000  -2.584949e+001  1.503318e+001 
3103125000  -2.626218e+001  1.642592e+001 
3106250000  -2.596058e+001  1.302591e+001 
3109375000  -2.619793e+001  9.781078e+000 
3112500000  -2.633151e+001  8.725690e+000 
3115625000  -2.615320e+001  4.838085e+000 
3118750000  -2.657812e+001  6.188355e+000 
3121875000  -2.593952e+001  -1.751699e+000 
3125000000  -2.711140e+001  -5.263644e+000 
3128125000  -2.835322e+001  3.143956e+000 
3131250000  -2.614976e+001  3.809210e+000 
3134375000  -2.481528e+001  -9.540646e+000 
3137500000  -2.543025e+001  -2.315212e+001 
3140625000  -2.698878e+001  -2.480481e+001 
3143750000  -2.801744e+001  -2.089030e+001 
3146875000  -2.764186e+001  -1.871676e+001 
3150000000  -2.661566e+001  -1.667661e+001 
3153125000  -2.654793e+001  -2.416261e+001 
3156250000  -2.758595e+001  -1.863647e+001 
3159375000  -2.592153e+001  -1.584179e+001 
3162500000  -2.389415e+001  -2.882655e+001 
3165625000  -2.485032e+001  -3.962650e+001 
3168750000  -2.521615e+001  -3.880520e+001 
3171875000  -2.429606e+001  -4.315926e+001 
3175000000  -2.493069e+001  -5.109297e+001 
3178125000  -2.469109e+001  -4.932649e+001 
3181250000  -2.353540e+001  -5.335289e+001 
3184375000  -2.276220e+001  -6.536575e+001 
3187500000  -2.387859e+001  -8.068465e+001 
3190625000  -2.663497e+001  -8.836003e+001 
3193750000  -2.722061e+001  -7.879233e+001 
3196875000  -2.683388e+001  -7.323344e+001 
3200000000  -2.594843e+001  -7.510172e+001 
3203125000  -2.511079e+001  -8.092251e+001 
3206250000  -2.541451e+001  -8.702625e+001 
3209375000  -2.495708e+001  -9.216219e+001 
3212500000  -2.514209e+001  -9.865771e+001 
3215625000  -2.524380e+001  -1.022013e+002 
3218750000  -2.596712e+001  -1.086289e+002 
3221875000  -2.692740e+001  -1.140701e+002 
3225000000  -2.656380e+001  -1.146166e+002 
3228125000  -2.690637e+001  -1.190968e+002 
3231250000  -2.761666e+001  -1.219042e+002 
3234375000  -2.748333e+001  -1.206050e+002 
3237500000  -2.755430e+001  -1.221234e+002 
3240625000  -2.722133e+001  -1.241660e+002 
3243750000  -2.688618e+001  -1.306400e+002 
3246875000  -2.736793e+001  -1.369022e+002 
3250000000  -2.777524e+001  -1.387408e+002 
3253125000  -2.792204e+001  -1.403681e+002 
3256250000  -2.771086e+001  -1.462471e+002 
3259375000  -2.808261e+001  -1.540001e+002 
3262500000  -2.934824e+001  -1.569732e+002 
3265625000  -3.001010e+001  -1.532887e+002 
3268750000  -2.995243e+001  -1.507945e+002 
3271875000  -2.974881e+001  -1.496660e+002 
3275000000  -2.867480e+001  -1.543663e+002 
3278125000  -2.912822e+001  -1.610696e+002 
3281250000  -2.938881e+001  -1.594562e+002 
3284375000  -2.897277e+001  -1.651819e+002 
3287500000  -2.910408e+001  -1.676003e+002 
3290625000  -2.952888e+001  -1.723608e+002 
3293750000  -2.920982e+001  -1.780014e+002 
3296875000  -3.024843e+001  -1.782865e+002 
3300000000  -3.011601e+001  -1.774202e+002 
3303125000  -2.904562e+001  1.792052e+002 
3306250000  -2.877300e+001  1.725132e+002 
3309375000  -2.854335e+001  1.671179e+002 
3312500000  -2.861454e+001  1.570150e+002 
3315625000  -2.967617e+001  1.491113e+002 
3318750000  -3.101250e+001  1.465274e+002 
3321875000  -3.220081e+001  1.467359e+002 
3325000000  -3.280620e+001  1.516800e+002 
3328125000  -3.257983e+001  1.536888e+002 
3331250000  -3.144625e+001  1.606958e+002 
3334375000  -2.881860e+001  1.509254e+002 
3337500000  -2.892422e+001  1.321587e+002 
3340625000  -3.036410e+001  1.220039e+002 
3343750000  -3.225786e+001  1.200960e+002 
3346875000  -3.281252e+001  1.220582e+002 
3350000000  -3.215544e+001  1.208354e+002 
3353125000  -3.233937e+001  1.158014e+002 
3356250000  -3.198447e+001  1.086712e+002 
3359375000  -3.290006e+001  1.006790e+002 
3362500000  -3.417845e+001  9.539473e+001 
3365625000  -3.480811e+001  9.323323e+001 
3368750000  -3.582924e+001  9.149416e+001 
3371875000  -3.623553e+001  8.923589e+001 
3375000000  -3.792089e+001  8.749847e+001 
3378125000  -3.895391e+001  8.621957e+001 
3381250000  -4.041392e+001  9.342453e+001 
3384375000  -3.991554e+001  1.159048e+002 
3387500000  -3.650060e+001  1.016788e+002 
3390625000  -3.833638e+001  8.238695e+001 
3393750000  -4.011581e+001  8.681094e+001 
3396875000  -3.921771e+001  8.986715e+001 
3400000000  -3.933183e+001  8.256709e+001 
3403125000  -4.015504e+001  7.721242e+001 
3406250000  -4.125802e+001  8.245890e+001 
3409375000  -4.168569e+001  7.708051e+001 
3412500000  -4.224371e+001  7.738026e+001 
3415625000  -4.330298e+001  8.294438e+001 
3418750000  -4.366067e+001  8.782335e+001 
3421875000  -4.392970e+001  9.383334e+001 
3425000000  -4.331079e+001  9.814307e+001 
3428125000  -4.224107e+001  9.726555e+001 
3431250000  -4.226163e+001  9.341266e+001 
3434375000  -4.199205e+001  9.152600e+001 
3437500000  -4.230663e+001  8.999005e+001 
3440625000  -4.280388e+001  9.206955e+001 
3443750000  -4.163127e+001  9.435063e+001 
3446875000  -4.036913e+001  9.039922e+001 
3450000000  -4.066077e+001  8.028758e+001 
3453125000  -4.061663e+001  7.457758e+001 
3456250000  -4.194622e+001  6.795225e+001 
3459375000  -4.285897e+001  7.164606e+001 
3462500000  -4.275881e+001  7.314166e+001 
3465625000  -4.316245e+001  6.702299e+001 
3468750000  -4.336927e+001  6.368373e+001 
3471875000  -4.335716e+001  6.557456e+001 
3475000000  -4.344178e+001  6.097174e+001 
3478125000  -4.388853e+001  5.618110e+001 
3481250000  -4.519715e+001  5.274783e+001 
3484375000  -4.666970e+001  6.048833e+001 
3487500000  -4.641204e+001  6.125322e+001 
3490625000  -4.581449e+001  5.921516e+001 
3493750000  -4.663469e+001  5.419749e+001 
3496875000  -4.835711e+001  5.490176e+001 
3500000000  -4.892713e+001  6.091942e+001 
3503125000  -4.852922e+001  7.311720e+001 
3506250000  -4.788771e+001  7.153897e+001 
3509375000  -4.803248e+001  6.866949e+001 
3512500000  -4.825223e+001  7.099282e+001 
3515625000  -4.870393e+001  7.381184e+001 
3518750000  -4.875413e+001  8.079573e+001 
3521875000  -4.805188e+001  8.647301e+001 
3525000000  -4.841019e+001  9.091683e+001 
3528125000  -4.838298e+001  1.043589e+002 
3531250000  -4.579571e+001  1.053340e+002 
3534375000  -4.496690e+001  9.207684e+001 
3537500000  -4.489717e+001  9.027744e+001 
3540625000  -4.553141e+001  8.772475e+001 
3543750000  -4.548421e+001  9.040955e+001 
3546875000  -4.553833e+001  1.043615e+002 
3550000000  -4.258232e+001  1.036061e+002 
3553125000  -4.081106e+001  8.796361e+001 
3556250000  -4.190580e+001  8.292400e+001 
3559375000  -4.153708e+001  8.408097e+001 
3562500000  -4.024339e+001  7.345499e+001 
3565625000  -4.101113e+001  6.837798e+001 
3568750000  -4.095838e+001  7.025552e+001 
3571875000  -4.091543e+001  7.038885e+001 
3575000000  -4.046578e+001  6.547198e+001 
3578125000  -4.073294e+001  6.142686e+001 
3581250000  -4.073069e+001  6.011663e+001 
3584375000  -4.015356e+001  5.856408e+001 
3587500000  -3.921440e+001  5.157955e+001 
3590625000  -3.970488e+001  4.179714e+001 
3593750000  -4.087236e+001  4.177074e+001 
3596875000  -4.108519e+001  4.719375e+001 
3600000000  -3.954661e+001  4.447082e+001 
3603125000  -3.971286e+001  3.190409e+001 
3606250000  -4.053798e+001  2.862375e+001 
3609375000  -4.091310e+001  2.743216e+001 
3612500000  -4.163019e+001  2.484766e+001 
3615625000  -4.171015e+001  2.374726e+001 
3618750000  -4.217973e+001  2.360963e+001 
3621875000  -4.215166e+001  2.444652e+001 
3625000000  -4.266489e+001  2.416194e+001 
3628125000  -4.294088e+001  2.593024e+001 
3631250000  -4.222436e+001  2.084280e+001 
3634375000  -4.351892e+001  2.463262e+001 
3637500000  -4.312984e+001  2.951233e+001 
3640625000  -4.204292e+001  3.315263e+001 
3643750000  -4.167117e+001  2.902629e+001 
3646875000  -4.225622e+001  2.529103e+001 
3650000000  -4.258397e+001  2.509323e+001 
3653125000  -4.225077e+001  2.697371e+001 
3656250000  -4.223744e+001  2.416311e+001 
3659375000  -4.259243e+001  2.890719e+001 
3662500000  -4.146137e+001  2.767640e+001 
3665625000  -4.181051e+001  2.938062e+001 
3668750000  -4.043217e+001  3.012870e+001 
3671875000  -3.913161e+001  2.604445e+001 
3675000000  -3.966564e+001  1.914446e+001 
3678125000  -3.994355e+001  2.116128e+001 
3681250000  -3.945580e+001  2.041141e+001 
3684375000  -3.928138e+001  1.886939e+001 
3687500000  -3.924611e+001  1.541258e+001 
3690625000  -3.927665e+001  1.249359e+001 
3693750000  -3.981304e+001  1.488954e+001 
3696875000  -3.956203e+001  1.596633e+001 
3700000000  -3.832375e+001  1.376075e+001 
3703125000  -3.830497e+001  1.038658e+001 
3706250000  -3.902868e+001  1.088546e+001 
3709375000  -3.826334e+001  1.528087e+001 
3712500000  -3.735758e+001  1.305664e+001 
3715625000  -3.613950e+001  7.502783e+000 
3718750000  -3.564380e+001  5.029902e+000 
3721875000  -3.529697e+001  -3.081310e-002 
3725000000  -3.529621e+001  -6.238367e+000 
3728125000  -3.556204e+001  -5.720636e+000 
3731250000  -3.479089e+001  -5.746051e+000 
3734375000  -3.391394e+001  -1.158120e+001 
3737500000  -3.440217e+001  -1.820338e+001 
3740625000  -3.507732e+001  -2.111252e+001 
3743750000  -3.490791e+001  -2.290436e+001 
3746875000  -3.473842e+001  -2.581371e+001 
3750000000  -3.512373e+001  -2.646560e+001 
3753125000  -3.485473e+001  -2.644010e+001 
3756250000  -3.456599e+001  -2.693796e+001 
3759375000  -3.447385e+001  -2.710530e+001 
3762500000  -3.383126e+001  -3.174553e+001 
3765625000  -3.432605e+001  -3.366026e+001 
3768750000  -3.429982e+001  -3.209576e+001 
3771875000  -3.252723e+001  -3.365081e+001 
3775000000  -3.227923e+001  -4.048911e+001 
3778125000  -3.256852e+001  -4.297600e+001 
3781250000  -3.227568e+001  -4.524357e+001 
3784375000  -3.214225e+001  -4.780883e+001 
3787500000  -3.155803e+001  -5.180094e+001 
3790625000  -3.197969e+001  -5.745238e+001 
3793750000  -3.220199e+001  -5.862819e+001 
3796875000  -3.120075e+001  -5.964944e+001 
3800000000  -2.966401e+001  -6.337428e+001 
3803125000  -3.030385e+001  -7.076768e+001 
3806250000  -3.099384e+001  -7.416550e+001 
3809375000  -3.073656e+001  -7.543186e+001 
3812500000  -3.003189e+001  -8.011990e+001 
3815625000  -3.064706e+001  -8.809224e+001 
3818750000  -3.165061e+001  -8.882905e+001 
3821875000  -3.184050e+001  -8.120316e+001 
3825000000  -2.983228e+001  -7.651300e+001 
3828125000  -2.850528e+001  -9.048753e+001 
3831250000  -2.901982e+001  -1.056977e+002 
3834375000  -3.042384e+001  -1.066505e+002 
3837500000  -3.129504e+001  -1.018137e+002 
3840625000  -3.025972e+001  -1.027976e+002 
3843750000  -2.924426e+001  -1.118997e+002 
3846875000  -2.992841e+001  -1.195589e+002 
3850000000  -3.114392e+001  -1.144776e+002 
3853125000  -3.047980e+001  -1.106219e+002 
3856250000  -3.047724e+001  -1.157010e+002 
3859375000  -2.984299e+001  -1.200494e+002 
3862500000  -2.939619e+001  -1.273432e+002 
3865625000  -2.963929e+001  -1.312731e+002 
3868750000  -2.980192e+001  -1.313044e+002 
3871875000  -2.903939e+001  -1.340764e+002 
3875000000  -2.914130e+001  -1.416100e+002 
3878125000  -3.020745e+001  -1.447693e+002 
3881250000  -3.025334e+001  -1.409207e+002 
3884375000  -2.968306e+001  -1.453048e+002 
3887500000  -2.982678e+001  -1.493241e+002 
3890625000  -3.030689e+001  -1.508725e+002 
3893750000  -3.064478e+001  -1.526528e+002 
3896875000  -3.061008e+001  -1.512210e+002 
3900000000  -3.083951e+001  -1.532247e+002 
3903125000  -3.056899e+001  -1.537900e+002 
3906250000  -3.025450e+001  -1.549661e+002 
3909375000  -2.944780e+001  -1.578265e+002 
3912500000  -2.939350e+001  -1.648666e+002 
3915625000  -3.062428e+001  -1.639411e+002 
3918750000  -3.055392e+001  -1.630073e+002 
3921875000  -3.019839e+001  -1.644313e+002 
3925000000  -2.925575e+001  -1.657611e+002 
3928125000  -2.856799e+001  -1.714816e+002 
3931250000  -2.898709e+001  -1.759158e+002 
3934375000  -2.917300e+001  -1.760246e+002 
3937500000  -2.929010e+001  -1.770292e+002 
3940625000  -2.980659e+001  -1.776988e+002 
3943750000  -2.886600e+001  -1.760794e+002 
3946875000  -2.759583e+001  1.787974e+002 
3950000000  -2.815825e+001  1.705117e+002 
3953125000  -2.915414e+001  1.708457e+002 
3956250000  -2.834657e+001  1.733397e+002 
3959375000  -2.696581e+001  1.700623e+002 
3962500000  -2.654447e+001  1.656686e+002 
3965625000  -2.619412e+001  1.572070e+002 
3968750000  -2.704517e+001  1.500249e+002 
3971875000  -2.759905e+001  1.484979e+002 
3975000000  -2.698850e+001  1.466228e+002 
3978125000  -2.683641e+001  1.453262e+002 
3981250000  -2.661237e+001  1.419728e+002 
3984375000  -2.685910e+001  1.356234e+002 
3987500000  -2.749691e+001  1.336386e+002 
3990625000  -2.738566e+001  1.330531e+002 
3993750000  -2.766149e+001  1.302424e+002 
3996875000  -2.763837e+001  1.277477e+002 
4000000000  -2.776227e+001  1.261348e+002 
4003125000  -2.835934e+001  1.290153e+002 
4006250000  -2.697051e+001  1.300503e+002 
4009375000  -2.565111e+001  1.183942e+002 
4012500000  -2.665427e+001  1.113626e+002 
4015625000  -2.779639e+001  1.121053e+002 
4018750000  -2.796533e+001  1.141370e+002 
4021875000  -2.722303e+001  1.129401e+002 
4025000000  -2.676986e+001  1.082337e+002 
4028125000  -2.674335e+001  1.043193e+002 
4031250000  -2.702093e+001  1.006766e+002 
4034375000  -2.721873e+001  1.005513e+002 
4037500000  -2.673489e+001  1.019857e+002 
4040625000  -2.661137e+001  9.872135e+001 
4043750000  -2.694363e+001  9.817189e+001 
4046875000  -2.640723e+001  9.732641e+001 
4050000000  -2.581000e+001  9.116615e+001 
4053125000  -2.627568e+001  8.843612e+001 
4056250000  -2.686766e+001  9.220724e+001 
4059375000  -2.571923e+001  9.369933e+001 
4062500000  -2.434045e+001  8.901814e+001 
4065625000  -2.422830e+001  8.463416e+001 
4068750000  -2.392153e+001  7.996410e+001 
4071875000  -2.324870e+001  7.184542e+001 
4075000000  -2.364197e+001  6.494172e+001 
4078125000  -2.422361e+001  6.351601e+001 
4081250000  -2.376629e+001  6.075465e+001 
4084375000  -2.338531e+001  5.385730e+001 
4087500000  -2.376931e+001  4.784051e+001 
4090625000  -2.442465e+001  4.624158e+001 
4093750000  -2.433956e+001  4.694658e+001 
4096875000  -2.391624e+001  4.133087e+001 
4100000000  -2.463264e+001  3.438890e+001 
4103125000  -2.556212e+001  3.511153e+001 
4106250000  -2.544542e+001  3.999960e+001 
4109375000  -2.454124e+001  3.973848e+001 
4112500000  -2.404191e+001  3.327694e+001 
4115625000  -2.432800e+001  2.902763e+001 
4118750000  -2.446486e+001  2.641505e+001 
4121875000  -2.416735e+001  2.188593e+001 
4125000000  -2.456493e+001  1.736977e+001 
4128125000  -2.551284e+001  1.851963e+001 
4131250000  -2.511843e+001  2.668490e+001 
4134375000  -2.278420e+001  2.227836e+001 
4137500000  -2.247239e+001  3.026476e+000 
4140625000  -2.464653e+001  -3.521561e+000 
4143750000  -2.596422e+001  1.898879e+000 
4146875000  -2.547680e+001  8.948488e+000 
4150000000  -2.448677e+001  5.638540e+000 
4153125000  -2.434365e+001  -5.412236e-001 
4156250000  -2.518215e+001  -2.938420e+000 
4159375000  -2.539043e+001  7.678161e-001 
4162500000  -2.418294e+001  5.337466e+000 
4165625000  -2.306775e+001  1.592349e+000 
4168750000  -2.238391e+001  -5.992459e+000 
4171875000  -2.222628e+001  -1.536612e+001 
4175000000  -2.279132e+001  -2.160647e+001 
4178125000  -2.335710e+001  -2.212807e+001 
4181250000  -2.324124e+001  -2.276165e+001 
4184375000  -2.309923e+001  -2.681089e+001 
4187500000  -2.312470e+001  -2.966494e+001 
4190625000  -2.296344e+001  -3.550473e+001 
4193750000  -2.376530e+001  -3.987407e+001 
4196875000  -2.457978e+001  -4.034669e+001 
4200000000  -2.536925e+001  -3.803943e+001 
4203125000  -2.537695e+001  -2.489129e+001 
4206250000  -2.213493e+001  -2.362271e+001 
4209375000  -2.098867e+001  -4.422110e+001 
4212500000  -2.298611e+001  -5.287291e+001 
4215625000  -2.391957e+001  -4.627157e+001 
4218750000  -2.253627e+001  -3.977785e+001 
4221875000  -2.027201e+001  -4.947063e+001 
4225000000  -2.153004e+001  -6.217992e+001 
4228125000  -2.229282e+001  -5.750512e+001 
4231250000  -2.082976e+001  -6.080119e+001 
4234375000  -2.074566e+001  -6.935437e+001 
4237500000  -2.033036e+001  -7.272526e+001 
4240625000  -2.045640e+001  -8.088801e+001 
4243750000  -2.149397e+001  -8.699292e+001 
4246875000  -2.231188e+001  -8.702879e+001 
4250000000  -2.237334e+001  -8.384808e+001 
4253125000  -2.172401e+001  -8.585967e+001 
4256250000  -2.197101e+001  -8.976715e+001 
4259375000  -2.175500e+001  -9.167806e+001 
4262500000  -2.177990e+001  -9.527547e+001 
4265625000  -2.188630e+001  -9.482593e+001 
4268750000  -2.106991e+001  -9.858067e+001 
4271875000  -2.077721e+001  -1.040739e+002 
4275000000  -2.011691e+001  -1.104004e+002 
4278125000  -2.061787e+001  -1.216872e+002 
4281250000  -2.231356e+001  -1.240238e+002 
4284375000  -2.211539e+001  -1.236371e+002 
4287500000  -2.293839e+001  -1.271620e+002 
4290625000  -2.413574e+001  -1.172453e+002 
4293750000  -2.218675e+001  -1.113896e+002 
4296875000  -2.075400e+001  -1.228575e+002 
4300000000  -2.153038e+001  -1.321317e+002 
4303125000  -2.248232e+001  -1.312313e+002 
4306250000  -2.188233e+001  -1.257784e+002 
4309375000  -2.049523e+001  -1.285378e+002 
4312500000  -2.043286e+001  -1.370552e+002 
4315625000  -2.065486e+001  -1.434856e+002 
4318750000  -2.099486e+001  -1.467889e+002 
4321875000  -2.113533e+001  -1.463875e+002 
4325000000  -2.051882e+001  -1.464993e+002 
4328125000  -2.006429e+001  -1.530115e+002 
4331250000  -2.006778e+001  -1.615703e+002 
4334375000  -2.055624e+001  -1.664896e+002 
4337500000  -2.134582e+001  -1.686186e+002 
4340625000  -2.184288e+001  -1.660752e+002 
4343750000  -2.136559e+001  -1.654990e+002 
4346875000  -2.100526e+001  -1.708840e+002 
4350000000  -2.091081e+001  -1.757187e+002 
4353125000  -2.101180e+001  1.764991e+002 
4356250000  -2.272919e+001  1.746995e+002 
4359375000  -2.340766e+001  -1.719661e+002 
4362500000  -2.087155e+001  -1.696421e+002 
4365625000  -1.938511e+001  1.786981e+002 
4368750000  -2.010580e+001  1.673637e+002 
4371875000  -2.119013e+001  1.674948e+002 
4375000000  -2.093200e+001  1.686914e+002 
4378125000  -2.037133e+001  1.633466e+002 
4381250000  -2.049694e+001  1.580437e+002 
4384375000  -2.030812e+001  1.535531e+002 
4387500000  -2.095383e+001  1.477343e+002 
4390625000  -2.197224e+001  1.484890e+002 
4393750000  -2.139888e+001  1.510869e+002 
4396875000  -2.075188e+001  1.490472e+002 
4400000000  -2.023204e+001  1.422567e+002 
4403125000  -2.073341e+001  1.346936e+002 
4406250000  -2.160131e+001  1.334552e+002 
4409375000  -2.150901e+001  1.314595e+002 
4412500000  -2.242014e+001  1.283286e+002 
4415625000  -2.283314e+001  1.330212e+002 
4418750000  -2.174400e+001  1.383317e+002 
