!Agilent Technologies,E8363B,MY43030201,A.06.04.32
!Agilent E8363B: A.06.04.32
!Date: Tuesday, November 11, 2014 20:49:32
!Correction: S21(Response(S21)) 
!S1P File: Measurement: S21:
# Hz S  dB   R 50
3000000000  -2.653080e+001  1.543594e+002 
3003125000  -2.790112e+001  1.498165e+002 
3006250000  -2.800399e+001  1.470926e+002 
3009375000  -2.837396e+001  1.519892e+002 
3012500000  -2.785616e+001  1.519173e+002 
3015625000  -2.682482e+001  1.446409e+002 
3018750000  -2.767864e+001  1.437234e+002 
3021875000  -2.645461e+001  1.450810e+002 
3025000000  -2.513947e+001  1.421458e+002 
3028125000  -2.414643e+001  1.372968e+002 
3031250000  -2.311054e+001  1.257546e+002 
3034375000  -2.275832e+001  1.131036e+002 
3037500000  -2.308049e+001  1.011128e+002 
3040625000  -2.439631e+001  9.604205e+001 
3043750000  -2.512482e+001  9.177436e+001 
3046875000  -2.523196e+001  8.535915e+001 
3050000000  -2.699197e+001  7.837476e+001 
3053125000  -2.710281e+001  8.494733e+001 
3056250000  -2.642270e+001  8.786844e+001 
3059375000  -2.670433e+001  8.767989e+001 
3062500000  -2.517811e+001  8.357124e+001 
3065625000  -2.498371e+001  7.814314e+001 
3068750000  -2.472528e+001  7.122990e+001 
3071875000  -2.464934e+001  6.806847e+001 
3075000000  -2.463894e+001  6.431989e+001 
3078125000  -2.432477e+001  5.978756e+001 
3081250000  -2.498867e+001  5.581123e+001 
3084375000  -2.424764e+001  5.190705e+001 
3087500000  -2.410498e+001  4.824148e+001 
3090625000  -2.383621e+001  3.882645e+001 
3093750000  -2.420972e+001  3.073339e+001 
3096875000  -2.554875e+001  2.442291e+001 
3100000000  -2.565590e+001  2.324073e+001 
3103125000  -2.606237e+001  2.476590e+001 
3106250000  -2.577203e+001  2.123555e+001 
3109375000  -2.602250e+001  1.764299e+001 
3112500000  -2.614355e+001  1.648453e+001 
3115625000  -2.591998e+001  1.241214e+001 
3118750000  -2.640016e+001  1.369360e+001 
3121875000  -2.574839e+001  5.580391e+000 
3125000000  -2.688692e+001  2.271719e+000 
3128125000  -2.811532e+001  1.017196e+001 
3131250000  -2.599305e+001  1.077554e+001 
3134375000  -2.461367e+001  -2.935024e+000 
3137500000  -2.525381e+001  -1.695980e+001 
3140625000  -2.691877e+001  -1.857293e+001 
3143750000  -2.790813e+001  -1.436618e+001 
3146875000  -2.752496e+001  -1.231068e+001 
3150000000  -2.649092e+001  -9.886150e+000 
3153125000  -2.642206e+001  -1.770012e+001 
3156250000  -2.745246e+001  -1.254697e+001 
3159375000  -2.589128e+001  -9.329704e+000 
3162500000  -2.383444e+001  -2.223774e+001 
3165625000  -2.476897e+001  -3.322131e+001 
3168750000  -2.517213e+001  -3.236555e+001 
3171875000  -2.423933e+001  -3.651661e+001 
3175000000  -2.487113e+001  -4.449163e+001 
3178125000  -2.467921e+001  -4.267598e+001 
3181250000  -2.347375e+001  -4.667178e+001 
3184375000  -2.268209e+001  -5.904858e+001 
3187500000  -2.378612e+001  -7.396748e+001 
3190625000  -2.657910e+001  -8.163758e+001 
3193750000  -2.719512e+001  -7.207147e+001 
3196875000  -2.673299e+001  -6.656542e+001 
3200000000  -2.587557e+001  -6.851894e+001 
3203125000  -2.499647e+001  -7.409518e+001 
3206250000  -2.529409e+001  -8.028662e+001 
3209375000  -2.481282e+001  -8.533028e+001 
3212500000  -2.496880e+001  -9.196436e+001 
3215625000  -2.511239e+001  -9.641572e+001 
3218750000  -2.584519e+001  -1.025825e+002 
3221875000  -2.684753e+001  -1.076539e+002 
3225000000  -2.642854e+001  -1.083606e+002 
3228125000  -2.670639e+001  -1.126822e+002 
3231250000  -2.749365e+001  -1.156035e+002 
3234375000  -2.735476e+001  -1.145067e+002 
3237500000  -2.737595e+001  -1.160184e+002 
3240625000  -2.706367e+001  -1.176259e+002 
3243750000  -2.667315e+001  -1.243320e+002 
3246875000  -2.715321e+001  -1.309086e+002 
3250000000  -2.760766e+001  -1.330255e+002 
3253125000  -2.777364e+001  -1.348028e+002 
3256250000  -2.767618e+001  -1.405465e+002 
3259375000  -2.800344e+001  -1.480018e+002 
3262500000  -2.920997e+001  -1.506858e+002 
3265625000  -2.992487e+001  -1.477099e+002 
3268750000  -2.987192e+001  -1.447775e+002 
3271875000  -2.968331e+001  -1.438875e+002 
3275000000  -2.856672e+001  -1.489586e+002 
3278125000  -2.895993e+001  -1.549176e+002 
3281250000  -2.928039e+001  -1.532356e+002 
3284375000  -2.887252e+001  -1.590270e+002 
3287500000  -2.895934e+001  -1.618269e+002 
3290625000  -2.945252e+001  -1.664822e+002 
3293750000  -2.916706e+001  -1.716969e+002 
3296875000  -3.015620e+001  -1.716819e+002 
3300000000  -3.006454e+001  -1.705129e+002 
3303125000  -2.886453e+001  -1.744897e+002 
3306250000  -2.864775e+001  1.787765e+002 
3309375000  -2.845916e+001  1.739160e+002 
3312500000  -2.849587e+001  1.637016e+002 
3315625000  -2.944586e+001  1.557105e+002 
3318750000  -3.080721e+001  1.529606e+002 
3321875000  -3.201327e+001  1.530581e+002 
3325000000  -3.262505e+001  1.590019e+002 
3328125000  -3.249877e+001  1.596310e+002 
3331250000  -3.125741e+001  1.662833e+002 
3334375000  -2.871089e+001  1.577572e+002 
3337500000  -2.874060e+001  1.389515e+002 
3340625000  -3.004873e+001  1.283715e+002 
3343750000  -3.193693e+001  1.273974e+002 
3346875000  -3.250200e+001  1.283020e+002 
3350000000  -3.194440e+001  1.272869e+002 
3353125000  -3.197906e+001  1.224143e+002 
3356250000  -3.164320e+001  1.155916e+002 
3359375000  -3.255463e+001  1.071539e+002 
3362500000  -3.384404e+001  1.012629e+002 
3365625000  -3.440818e+001  9.974605e+001 
3368750000  -3.540657e+001  9.781867e+001 
3371875000  -3.582963e+001  9.436113e+001 
3375000000  -3.739697e+001  9.381037e+001 
3378125000  -3.853860e+001  9.253889e+001 
3381250000  -4.006395e+001  1.001968e+002 
3384375000  -3.911563e+001  1.217755e+002 
3387500000  -3.594947e+001  1.076035e+002 
3390625000  -3.763016e+001  8.856140e+001 
3393750000  -3.973203e+001  9.314822e+001 
3396875000  -3.861515e+001  9.505700e+001 
3400000000  -3.850483e+001  8.799813e+001 
3403125000  -3.975886e+001  8.371735e+001 
3406250000  -4.033996e+001  8.696033e+001 
3409375000  -4.116187e+001  8.151693e+001 
3412500000  -4.191252e+001  8.361622e+001 
3415625000  -4.294620e+001  8.850093e+001 
3418750000  -4.320867e+001  9.241789e+001 
3421875000  -4.338666e+001  1.004185e+002 
3425000000  -4.270822e+001  1.014627e+002 
3428125000  -4.155533e+001  1.012785e+002 
3431250000  -4.178819e+001  9.867464e+001 
3434375000  -4.156505e+001  9.608699e+001 
3437500000  -4.190465e+001  9.290606e+001 
3440625000  -4.219753e+001  9.525501e+001 
3443750000  -4.112780e+001  9.965020e+001 
3446875000  -4.009967e+001  9.345879e+001 
3450000000  -3.992530e+001  8.577629e+001 
3453125000  -4.008349e+001  7.669671e+001 
3456250000  -4.130830e+001  7.200312e+001 
3459375000  -4.213309e+001  7.439345e+001 
3462500000  -4.234906e+001  7.464689e+001 
3465625000  -4.291221e+001  7.056211e+001 
3468750000  -4.302885e+001  6.762450e+001 
3471875000  -4.310066e+001  6.857888e+001 
3475000000  -4.278763e+001  6.322610e+001 
3478125000  -4.345690e+001  5.946853e+001 
3481250000  -4.475571e+001  5.739595e+001 
3484375000  -4.576780e+001  6.537904e+001 
3487500000  -4.584873e+001  6.757442e+001 
3490625000  -4.523056e+001  6.218016e+001 
3493750000  -4.578239e+001  5.959099e+001 
3496875000  -4.674343e+001  6.113772e+001 
3500000000  -4.817476e+001  6.808566e+001 
3503125000  -4.791704e+001  7.880357e+001 
3506250000  -4.684805e+001  7.526627e+001 
3509375000  -4.716609e+001  7.671131e+001 
3512500000  -4.721939e+001  7.084715e+001 
3515625000  -4.756458e+001  7.171608e+001 
3518750000  -4.791404e+001  8.115784e+001 
3521875000  -4.786221e+001  8.288699e+001 
3525000000  -4.820438e+001  8.712056e+001 
3528125000  -4.774286e+001  9.515785e+001 
3531250000  -4.587429e+001  9.408466e+001 
3534375000  -4.500335e+001  8.937961e+001 
3537500000  -4.534823e+001  8.409766e+001 
3540625000  -4.558458e+001  8.522946e+001 
3543750000  -4.599097e+001  8.953840e+001 
3546875000  -4.590399e+001  1.013153e+002 
3550000000  -4.300406e+001  1.030716e+002 
3553125000  -4.152967e+001  8.716290e+001 
3556250000  -4.217030e+001  8.007993e+001 
3559375000  -4.250026e+001  8.350027e+001 
3562500000  -4.099047e+001  7.608758e+001 
3565625000  -4.168882e+001  7.069191e+001 
3568750000  -4.189335e+001  7.212860e+001 
3571875000  -4.150283e+001  7.274179e+001 
3575000000  -4.089932e+001  6.811035e+001 
3578125000  -4.147722e+001  6.376887e+001 
3581250000  -4.148882e+001  6.356112e+001 
3584375000  -4.071018e+001  6.274219e+001 
3587500000  -3.987062e+001  5.851482e+001 
3590625000  -4.026194e+001  4.860804e+001 
3593750000  -4.141340e+001  4.687379e+001 
3596875000  -4.107983e+001  5.440674e+001 
3600000000  -3.975920e+001  5.319681e+001 
3603125000  -3.983354e+001  4.018029e+001 
3606250000  -4.033591e+001  3.675385e+001 
3609375000  -4.084099e+001  3.674205e+001 
3612500000  -4.132289e+001  3.412721e+001 
3615625000  -4.126971e+001  3.217662e+001 
3618750000  -4.176139e+001  3.407025e+001 
3621875000  -4.151478e+001  3.297887e+001 
3625000000  -4.167645e+001  3.077730e+001 
3628125000  -4.185917e+001  3.328624e+001 
3631250000  -4.149423e+001  2.915851e+001 
3634375000  -4.241681e+001  2.800336e+001 
3637500000  -4.196223e+001  3.437117e+001 
3640625000  -4.090068e+001  3.476918e+001 
3643750000  -4.077090e+001  2.889123e+001 
3646875000  -4.104879e+001  2.264500e+001 
3650000000  -4.162504e+001  2.353294e+001 
3653125000  -4.151817e+001  2.342339e+001 
3656250000  -4.178052e+001  2.279878e+001 
3659375000  -4.210478e+001  2.756821e+001 
3662500000  -4.124363e+001  2.380474e+001 
3665625000  -4.159291e+001  2.562658e+001 
3668750000  -4.044955e+001  2.705475e+001 
3671875000  -3.939540e+001  2.237905e+001 
3675000000  -3.988281e+001  1.636894e+001 
3678125000  -4.069077e+001  1.870186e+001 
3681250000  -4.015624e+001  1.760388e+001 
3684375000  -3.974192e+001  1.873307e+001 
3687500000  -4.008188e+001  1.533901e+001 
3690625000  -3.997437e+001  1.389192e+001 
3693750000  -4.034893e+001  1.566059e+001 
3696875000  -4.016657e+001  1.956549e+001 
3700000000  -3.924408e+001  1.664687e+001 
3703125000  -3.889421e+001  1.476030e+001 
3706250000  -3.948700e+001  1.534562e+001 
3709375000  -3.888411e+001  1.928508e+001 
3712500000  -3.762286e+001  1.911236e+001 
3715625000  -3.648764e+001  1.336827e+001 
3718750000  -3.577957e+001  1.050433e+001 
3721875000  -3.540926e+001  4.813422e+000 
3725000000  -3.528400e+001  3.228500e-001 
3728125000  -3.547952e+001  -1.138833e+000 
3731250000  -3.477104e+001  -1.526708e+000 
3734375000  -3.381431e+001  -7.440790e+000 
3737500000  -3.426744e+001  -1.396690e+001 
3740625000  -3.483236e+001  -1.726465e+001 
3743750000  -3.476650e+001  -2.043794e+001 
3746875000  -3.465331e+001  -2.364683e+001 
3750000000  -3.508406e+001  -2.455068e+001 
3753125000  -3.473888e+001  -2.432394e+001 
3756250000  -3.458310e+001  -2.577560e+001 
3759375000  -3.434037e+001  -2.557686e+001 
3762500000  -3.367830e+001  -3.087686e+001 
3765625000  -3.443222e+001  -3.232310e+001 
3768750000  -3.449262e+001  -3.046469e+001 
3771875000  -3.261698e+001  -3.275768e+001 
3775000000  -3.229463e+001  -4.097718e+001 
3778125000  -3.271305e+001  -4.157035e+001 
3781250000  -3.249610e+001  -4.545469e+001 
3784375000  -3.245230e+001  -4.708189e+001 
3787500000  -3.176847e+001  -5.087399e+001 
3790625000  -3.229677e+001  -5.629782e+001 
3793750000  -3.248780e+001  -5.682816e+001 
3796875000  -3.158016e+001  -5.798460e+001 
3800000000  -3.002930e+001  -6.158051e+001 
3803125000  -3.073687e+001  -6.879263e+001 
3806250000  -3.142472e+001  -7.102846e+001 
3809375000  -3.122172e+001  -7.236563e+001 
3812500000  -3.053985e+001  -7.673672e+001 
3815625000  -3.103935e+001  -8.431798e+001 
3818750000  -3.207157e+001  -8.519637e+001 
3821875000  -3.209645e+001  -7.742366e+001 
3825000000  -3.022856e+001  -7.249377e+001 
3828125000  -2.893399e+001  -8.669040e+001 
3831250000  -2.936923e+001  -1.005286e+002 
3834375000  -3.072127e+001  -1.024221e+002 
3837500000  -3.164441e+001  -9.673849e+001 
3840625000  -3.047797e+001  -9.745664e+001 
3843750000  -2.928858e+001  -1.074784e+002 
3846875000  -2.994028e+001  -1.151644e+002 
3850000000  -3.129578e+001  -1.100911e+002 
3853125000  -3.046081e+001  -1.067109e+002 
3856250000  -3.043872e+001  -1.116500e+002 
3859375000  -2.972784e+001  -1.159437e+002 
3862500000  -2.934154e+001  -1.231190e+002 
3865625000  -2.953960e+001  -1.277901e+002 
3868750000  -2.959220e+001  -1.287658e+002 
3871875000  -2.890802e+001  -1.311940e+002 
3875000000  -2.890620e+001  -1.400704e+002 
3878125000  -2.996446e+001  -1.429989e+002 
3881250000  -3.011849e+001  -1.398883e+002 
3884375000  -2.965902e+001  -1.442507e+002 
3887500000  -2.969043e+001  -1.484085e+002 
3890625000  -3.021354e+001  -1.503949e+002 
3893750000  -3.063815e+001  -1.518984e+002 
3896875000  -3.072502e+001  -1.518208e+002 
3900000000  -3.103173e+001  -1.522342e+002 
3903125000  -3.064659e+001  -1.540363e+002 
3906250000  -3.043139e+001  -1.552106e+002 
3909375000  -2.972816e+001  -1.577947e+002 
3912500000  -2.979959e+001  -1.641386e+002 
3915625000  -3.094249e+001  -1.643806e+002 
3918750000  -3.086532e+001  -1.633051e+002 
3921875000  -3.068156e+001  -1.647049e+002 
3925000000  -2.986343e+001  -1.648776e+002 
3928125000  -2.915042e+001  -1.704026e+002 
3931250000  -2.952052e+001  -1.743391e+002 
3934375000  -2.983583e+001  -1.747112e+002 
3937500000  -2.984666e+001  -1.748917e+002 
3940625000  -3.033715e+001  -1.748230e+002 
3943750000  -2.952011e+001  -1.730467e+002 
3946875000  -2.820531e+001  -1.790327e+002 
3950000000  -2.859930e+001  1.734157e+002 
3953125000  -2.964024e+001  1.739793e+002 
3956250000  -2.881834e+001  1.773476e+002 
3959375000  -2.744931e+001  1.740521e+002 
3962500000  -2.696001e+001  1.699875e+002 
3965625000  -2.656299e+001  1.611357e+002 
3968750000  -2.748385e+001  1.544584e+002 
3971875000  -2.784068e+001  1.530072e+002 
3975000000  -2.719681e+001  1.509522e+002 
3978125000  -2.699448e+001  1.494802e+002 
3981250000  -2.676108e+001  1.451802e+002 
3984375000  -2.698740e+001  1.389382e+002 
3987500000  -2.747419e+001  1.371248e+002 
3990625000  -2.750373e+001  1.359986e+002 
3993750000  -2.769291e+001  1.322969e+002 
3996875000  -2.766198e+001  1.301101e+002 
4000000000  -2.770222e+001  1.274983e+002 
4003125000  -2.836209e+001  1.302831e+002 
4006250000  -2.692186e+001  1.301674e+002 
4009375000  -2.576984e+001  1.182080e+002 
4012500000  -2.678939e+001  1.108806e+002 
4015625000  -2.805539e+001  1.113844e+002 
4018750000  -2.823742e+001  1.129650e+002 
4021875000  -2.762487e+001  1.120318e+002 
4025000000  -2.722278e+001  1.075515e+002 
4028125000  -2.725358e+001  1.031341e+002 
4031250000  -2.765595e+001  1.001480e+002 
4034375000  -2.799856e+001  9.984242e+001 
4037500000  -2.743654e+001  1.019538e+002 
4040625000  -2.732057e+001  9.870384e+001 
4043750000  -2.771998e+001  9.802222e+001 
4046875000  -2.727719e+001  9.789787e+001 
4050000000  -2.676137e+001  9.233134e+001 
4053125000  -2.727563e+001  8.993219e+001 
4056250000  -2.787284e+001  9.428470e+001 
4059375000  -2.658903e+001  9.637221e+001 
4062500000  -2.520966e+001  9.193262e+001 
4065625000  -2.507593e+001  8.707522e+001 
4068750000  -2.481115e+001  8.270640e+001 
4071875000  -2.415899e+001  7.492210e+001 
4075000000  -2.455185e+001  6.847078e+001 
4078125000  -2.512885e+001  6.688446e+001 
4081250000  -2.462620e+001  6.529700e+001 
4084375000  -2.415709e+001  5.862605e+001 
4087500000  -2.449624e+001  5.215431e+001 
4090625000  -2.512804e+001  5.085214e+001 
4093750000  -2.496232e+001  5.186526e+001 
4096875000  -2.452971e+001  4.604174e+001 
4100000000  -2.511811e+001  3.874088e+001 
4103125000  -2.606776e+001  3.920589e+001 
4106250000  -2.595584e+001  4.407751e+001 
4109375000  -2.506394e+001  4.365668e+001 
4112500000  -2.449074e+001  3.746642e+001 
4115625000  -2.480768e+001  3.258547e+001 
4118750000  -2.489337e+001  2.976757e+001 
4121875000  -2.455576e+001  2.527453e+001 
4125000000  -2.486326e+001  2.007401e+001 
4128125000  -2.586209e+001  2.012635e+001 
4131250000  -2.563291e+001  2.780426e+001 
4134375000  -2.331279e+001  2.386769e+001 
4137500000  -2.305932e+001  4.956127e+000 
4140625000  -2.520208e+001  -2.249266e+000 
4143750000  -2.661334e+001  2.333210e+000 
4146875000  -2.618217e+001  1.015134e+001 
4150000000  -2.529725e+001  6.885971e+000 
4153125000  -2.510740e+001  2.808690e-001 
4156250000  -2.596040e+001  -2.309122e+000 
4159375000  -2.632188e+001  2.237051e+000 
4162500000  -2.512156e+001  6.386854e+000 
4165625000  -2.400568e+001  2.450962e+000 
4168750000  -2.346114e+001  -4.725590e+000 
4171875000  -2.346498e+001  -1.366419e+001 
4175000000  -2.399249e+001  -1.950742e+001 
4178125000  -2.461230e+001  -1.962827e+001 
4181250000  -2.454250e+001  -1.982001e+001 
4184375000  -2.438552e+001  -2.321453e+001 
4187500000  -2.440634e+001  -2.576375e+001 
4190625000  -2.417636e+001  -3.124157e+001 
4193750000  -2.496032e+001  -3.515090e+001 
4196875000  -2.566829e+001  -3.529665e+001 
4200000000  -2.647652e+001  -3.322985e+001 
4203125000  -2.659531e+001  -2.027042e+001 
4206250000  -2.331862e+001  -1.842349e+001 
4209375000  -2.203681e+001  -3.856228e+001 
4212500000  -2.390567e+001  -4.748001e+001 
4215625000  -2.491103e+001  -4.179173e+001 
4218750000  -2.361991e+001  -3.435047e+001 
4221875000  -2.130265e+001  -4.376328e+001 
4225000000  -2.257685e+001  -5.650600e+001 
4228125000  -2.327187e+001  -5.104020e+001 
4231250000  -2.169283e+001  -5.500816e+001 
4234375000  -2.165363e+001  -6.321117e+001 
4237500000  -2.121518e+001  -6.648048e+001 
4240625000  -2.123539e+001  -7.503581e+001 
4243750000  -2.215800e+001  -8.163319e+001 
4246875000  -2.303601e+001  -8.206433e+001 
4250000000  -2.309209e+001  -7.911411e+001 
4253125000  -2.250237e+001  -8.114893e+001 
4256250000  -2.281280e+001  -8.535215e+001 
4259375000  -2.257660e+001  -8.722012e+001 
4262500000  -2.256686e+001  -9.098071e+001 
4265625000  -2.274142e+001  -9.063303e+001 
4268750000  -2.188814e+001  -9.460263e+001 
4271875000  -2.165575e+001  -1.004397e+002 
4275000000  -2.103332e+001  -1.069052e+002 
4278125000  -2.164083e+001  -1.178513e+002 
4281250000  -2.346144e+001  -1.202237e+002 
4284375000  -2.317478e+001  -1.193424e+002 
4287500000  -2.393914e+001  -1.225515e+002 
4290625000  -2.515784e+001  -1.130809e+002 
4293750000  -2.321976e+001  -1.075293e+002 
4296875000  -2.184824e+001  -1.187993e+002 
4300000000  -2.276023e+001  -1.282337e+002 
4303125000  -2.384461e+001  -1.273124e+002 
4306250000  -2.332866e+001  -1.213787e+002 
4309375000  -2.188992e+001  -1.229396e+002 
4312500000  -2.175228e+001  -1.311257e+002 
4315625000  -2.197721e+001  -1.372493e+002 
4318750000  -2.230669e+001  -1.402608e+002 
4321875000  -2.249139e+001  -1.399946e+002 
4325000000  -2.190293e+001  -1.392949e+002 
4328125000  -2.143955e+001  -1.457905e+002 
4331250000  -2.136040e+001  -1.535646e+002 
4334375000  -2.173861e+001  -1.583977e+002 
4337500000  -2.256045e+001  -1.607231e+002 
4340625000  -2.314839e+001  -1.577082e+002 
4343750000  -2.258384e+001  -1.570890e+002 
4346875000  -2.216196e+001  -1.626321e+002 
4350000000  -2.215227e+001  -1.673101e+002 
4353125000  -2.218651e+001  -1.748724e+002 
4356250000  -2.390585e+001  -1.762563e+002 
4359375000  -2.460483e+001  -1.631516e+002 
4362500000  -2.195668e+001  -1.606177e+002 
4365625000  -2.031379e+001  -1.722963e+002 
4368750000  -2.097285e+001  1.757256e+002 
4371875000  -2.222867e+001  1.761071e+002 
4375000000  -2.184746e+001  1.775687e+002 
4378125000  -2.119313e+001  1.718337e+002 
4381250000  -2.135519e+001  1.661224e+002 
4384375000  -2.121452e+001  1.617275e+002 
4387500000  -2.191127e+001  1.559725e+002 
4390625000  -2.298152e+001  1.565413e+002 
4393750000  -2.231447e+001  1.589896e+002 
4396875000  -2.161922e+001  1.567960e+002 
4400000000  -2.115006e+001  1.499069e+002 
4403125000  -2.170430e+001  1.423706e+002 
4406250000  -2.255256e+001  1.408195e+002 
4409375000  -2.250211e+001  1.386638e+002 
4412500000  -2.359403e+001  1.356613e+002 
4415625000  -2.395776e+001  1.406354e+002 
4418750000  -2.272597e+001  1.455226e+002 
