!Agilent Technologies,E8363B,MY43030201,A.06.04.32
!Agilent E8363B: A.06.04.32
!Date: Tuesday, November 11, 2014 20:44:22
!Correction: S21(Response(S21)) 
!S1P File: Measurement: S21:
# Hz S  dB   R 50
3000000000  -2.648950e+001  1.586988e+002 
3003125000  -2.785072e+001  1.543665e+002 
3006250000  -2.793800e+001  1.513461e+002 
3009375000  -2.825591e+001  1.561521e+002 
3012500000  -2.779003e+001  1.562111e+002 
3015625000  -2.679203e+001  1.491834e+002 
3018750000  -2.767230e+001  1.481187e+002 
3021875000  -2.641206e+001  1.497000e+002 
3025000000  -2.514577e+001  1.465201e+002 
3028125000  -2.413604e+001  1.419441e+002 
3031250000  -2.311156e+001  1.306767e+002 
3034375000  -2.274198e+001  1.179357e+002 
3037500000  -2.304842e+001  1.057925e+002 
3040625000  -2.435703e+001  1.007070e+002 
3043750000  -2.513407e+001  9.655258e+001 
3046875000  -2.517712e+001  8.998080e+001 
3050000000  -2.692690e+001  8.270204e+001 
3053125000  -2.715069e+001  8.944212e+001 
3056250000  -2.642118e+001  9.238072e+001 
3059375000  -2.667877e+001  9.177100e+001 
3062500000  -2.524297e+001  8.797950e+001 
3065625000  -2.502635e+001  8.262114e+001 
3068750000  -2.470789e+001  7.579168e+001 
3071875000  -2.464165e+001  7.262685e+001 
3075000000  -2.468292e+001  6.914440e+001 
3078125000  -2.434336e+001  6.438467e+001 
3081250000  -2.499331e+001  6.018343e+001 
3084375000  -2.428999e+001  5.670683e+001 
3087500000  -2.411936e+001  5.314723e+001 
3090625000  -2.381438e+001  4.354720e+001 
3093750000  -2.422877e+001  3.539713e+001 
3096875000  -2.554016e+001  2.916970e+001 
3100000000  -2.573545e+001  2.798517e+001 
3103125000  -2.605745e+001  2.952157e+001 
3106250000  -2.579247e+001  2.597156e+001 
3109375000  -2.603045e+001  2.227940e+001 
3112500000  -2.616727e+001  2.134604e+001 
3115625000  -2.594842e+001  1.717563e+001 
3118750000  -2.645273e+001  1.827944e+001 
3121875000  -2.582415e+001  1.047298e+001 
3125000000  -2.690571e+001  6.852406e+000 
3128125000  -2.818396e+001  1.476972e+001 
3131250000  -2.602509e+001  1.561636e+001 
3134375000  -2.462335e+001  2.192852e+000 
3137500000  -2.526684e+001  -1.185488e+001 
3140625000  -2.693744e+001  -1.392348e+001 
3143750000  -2.796191e+001  -9.015059e+000 
3146875000  -2.756024e+001  -7.376363e+000 
3150000000  -2.651502e+001  -4.990649e+000 
3153125000  -2.651806e+001  -1.302203e+001 
3156250000  -2.744426e+001  -7.770856e+000 
3159375000  -2.596415e+001  -4.362173e+000 
3162500000  -2.387953e+001  -1.731345e+001 
3165625000  -2.477596e+001  -2.830876e+001 
3168750000  -2.525248e+001  -2.761947e+001 
3171875000  -2.427924e+001  -3.160436e+001 
3175000000  -2.488609e+001  -3.931012e+001 
3178125000  -2.472752e+001  -3.779865e+001 
3181250000  -2.355984e+001  -4.127694e+001 
3184375000  -2.266834e+001  -5.388401e+001 
3187500000  -2.374804e+001  -6.929539e+001 
3190625000  -2.659131e+001  -7.712792e+001 
3193750000  -2.724266e+001  -6.722443e+001 
3196875000  -2.679536e+001  -6.193016e+001 
3200000000  -2.599844e+001  -6.343565e+001 
3203125000  -2.505035e+001  -6.890762e+001 
3206250000  -2.537882e+001  -7.523100e+001 
3209375000  -2.488795e+001  -8.029070e+001 
3212500000  -2.498185e+001  -8.738274e+001 
3215625000  -2.516333e+001  -9.173541e+001 
3218750000  -2.589356e+001  -9.797083e+001 
3221875000  -2.691024e+001  -1.027735e+002 
3225000000  -2.655673e+001  -1.033710e+002 
3228125000  -2.677072e+001  -1.075484e+002 
3231250000  -2.757893e+001  -1.107060e+002 
3234375000  -2.746304e+001  -1.095323e+002 
3237500000  -2.746571e+001  -1.112007e+002 
3240625000  -2.715539e+001  -1.126341e+002 
3243750000  -2.672206e+001  -1.192110e+002 
3246875000  -2.729644e+001  -1.258620e+002 
3250000000  -2.767323e+001  -1.278955e+002 
3253125000  -2.786854e+001  -1.298127e+002 
3256250000  -2.778061e+001  -1.354798e+002 
3259375000  -2.804481e+001  -1.433349e+002 
3262500000  -2.927080e+001  -1.460492e+002 
3265625000  -3.002950e+001  -1.428238e+002 
3268750000  -2.991551e+001  -1.403316e+002 
3271875000  -2.979010e+001  -1.387129e+002 
3275000000  -2.867110e+001  -1.433039e+002 
3278125000  -2.908623e+001  -1.498140e+002 
3281250000  -2.937499e+001  -1.481742e+002 
3284375000  -2.895433e+001  -1.541178e+002 
3287500000  -2.914942e+001  -1.571478e+002 
3290625000  -2.954431e+001  -1.611214e+002 
3293750000  -2.930196e+001  -1.668205e+002 
3296875000  -3.025084e+001  -1.668730e+002 
3300000000  -3.017611e+001  -1.659135e+002 
3303125000  -2.904653e+001  -1.694668e+002 
3306250000  -2.878146e+001  -1.761092e+002 
3309375000  -2.855055e+001  1.788322e+002 
3312500000  -2.856454e+001  1.685768e+002 
3315625000  -2.952443e+001  1.608587e+002 
3318750000  -3.083406e+001  1.583714e+002 
3321875000  -3.219573e+001  1.572830e+002 
3325000000  -3.274561e+001  1.619308e+002 
3328125000  -3.256228e+001  1.636937e+002 
3331250000  -3.135178e+001  1.718679e+002 
3334375000  -2.892055e+001  1.623578e+002 
3337500000  -2.884623e+001  1.445970e+002 
3340625000  -3.015867e+001  1.333917e+002 
3343750000  -3.207707e+001  1.317273e+002 
3346875000  -3.274833e+001  1.331300e+002 
3350000000  -3.211818e+001  1.325286e+002 
3353125000  -3.212878e+001  1.278750e+002 
3356250000  -3.185688e+001  1.199479e+002 
3359375000  -3.274155e+001  1.117031e+002 
3362500000  -3.413167e+001  1.063543e+002 
3365625000  -3.467302e+001  1.046902e+002 
3368750000  -3.566193e+001  1.034701e+002 
3371875000  -3.610762e+001  9.887892e+001 
3375000000  -3.755650e+001  9.789214e+001 
3378125000  -3.875103e+001  9.722175e+001 
3381250000  -4.010810e+001  1.042114e+002 
3384375000  -3.961480e+001  1.257437e+002 
3387500000  -3.647630e+001  1.115451e+002 
3390625000  -3.814912e+001  9.240221e+001 
3393750000  -3.986373e+001  9.607735e+001 
3396875000  -3.914327e+001  1.013318e+002 
3400000000  -3.912369e+001  9.419015e+001 
3403125000  -4.028483e+001  8.911817e+001 
3406250000  -4.103986e+001  9.080580e+001 
3409375000  -4.160630e+001  8.812478e+001 
3412500000  -4.243997e+001  9.074560e+001 
3415625000  -4.316597e+001  9.523745e+001 
3418750000  -4.356346e+001  9.845216e+001 
3421875000  -4.406412e+001  1.034054e+002 
3425000000  -4.309268e+001  1.077750e+002 
3428125000  -4.191787e+001  1.081883e+002 
3431250000  -4.234962e+001  1.051624e+002 
3434375000  -4.189778e+001  1.017387e+002 
3437500000  -4.223752e+001  9.992963e+001 
3440625000  -4.290358e+001  1.033898e+002 
3443750000  -4.142550e+001  1.041328e+002 
3446875000  -4.069677e+001  1.013097e+002 
3450000000  -4.022610e+001  9.219778e+001 
3453125000  -4.059256e+001  8.373827e+001 
3456250000  -4.161140e+001  7.820364e+001 
3459375000  -4.275198e+001  8.038486e+001 
3462500000  -4.315834e+001  8.124958e+001 
3465625000  -4.300728e+001  7.702737e+001 
3468750000  -4.320086e+001  7.404852e+001 
3471875000  -4.383966e+001  7.493621e+001 
3475000000  -4.335338e+001  7.159393e+001 
3478125000  -4.404351e+001  6.758525e+001 
3481250000  -4.504744e+001  6.462096e+001 
3484375000  -4.661611e+001  6.927138e+001 
3487500000  -4.673726e+001  7.529350e+001 
3490625000  -4.577235e+001  7.211061e+001 
3493750000  -4.699277e+001  6.742941e+001 
3496875000  -4.735938e+001  7.135294e+001 
3500000000  -4.928160e+001  7.880247e+001 
3503125000  -4.861942e+001  8.581709e+001 
3506250000  -4.728825e+001  8.439591e+001 
3509375000  -4.739762e+001  8.301230e+001 
3512500000  -4.833130e+001  7.830862e+001 
3515625000  -4.790396e+001  8.618761e+001 
3518750000  -4.866374e+001  9.119439e+001 
3521875000  -4.844097e+001  9.326422e+001 
3525000000  -4.868928e+001  9.353126e+001 
3528125000  -4.724927e+001  1.089483e+002 
3531250000  -4.587053e+001  1.054695e+002 
3534375000  -4.525023e+001  9.954441e+001 
3537500000  -4.481284e+001  9.485495e+001 
3540625000  -4.531076e+001  9.696757e+001 
3543750000  -4.590869e+001  9.844567e+001 
3546875000  -4.544278e+001  1.102026e+002 
3550000000  -4.301004e+001  1.124016e+002 
3553125000  -4.115848e+001  9.468848e+001 
3556250000  -4.268956e+001  8.756305e+001 
3559375000  -4.225198e+001  9.179631e+001 
3562500000  -4.103190e+001  8.325974e+001 
3565625000  -4.201366e+001  7.604784e+001 
3568750000  -4.178678e+001  8.144312e+001 
3571875000  -4.152637e+001  8.108479e+001 
3575000000  -4.118192e+001  7.530517e+001 
3578125000  -4.122879e+001  7.216766e+001 
3581250000  -4.171260e+001  7.311620e+001 
3584375000  -4.086110e+001  7.271513e+001 
3587500000  -4.004288e+001  6.510626e+001 
3590625000  -4.051991e+001  5.594105e+001 
3593750000  -4.126248e+001  5.517552e+001 
3596875000  -4.148466e+001  6.221301e+001 
3600000000  -3.995295e+001  5.851552e+001 
3603125000  -4.005549e+001  4.685250e+001 
3606250000  -4.069957e+001  4.417485e+001 
3609375000  -4.090736e+001  4.478498e+001 
3612500000  -4.142741e+001  4.152301e+001 
3615625000  -4.162238e+001  3.835356e+001 
3618750000  -4.202010e+001  4.202237e+001 
3621875000  -4.202277e+001  3.921333e+001 
3625000000  -4.195395e+001  4.059503e+001 
3628125000  -4.181568e+001  4.073341e+001 
3631250000  -4.159172e+001  3.494714e+001 
3634375000  -4.262646e+001  3.761250e+001 
3637500000  -4.240942e+001  4.232008e+001 
3640625000  -4.098339e+001  4.436356e+001 
3643750000  -4.069281e+001  3.533611e+001 
3646875000  -4.151749e+001  3.211871e+001 
3650000000  -4.169695e+001  3.103884e+001 
3653125000  -4.151845e+001  3.116908e+001 
3656250000  -4.191392e+001  3.092591e+001 
3659375000  -4.241235e+001  3.524308e+001 
3662500000  -4.129165e+001  3.213108e+001 
3665625000  -4.125067e+001  3.326222e+001 
3668750000  -4.046463e+001  3.534204e+001 
3671875000  -3.936620e+001  3.136531e+001 
3675000000  -3.978523e+001  2.530344e+001 
3678125000  -4.058690e+001  2.480099e+001 
3681250000  -3.987550e+001  2.667353e+001 
3684375000  -3.973663e+001  2.497998e+001 
3687500000  -3.981809e+001  2.438991e+001 
3690625000  -3.964524e+001  2.225356e+001 
3693750000  -4.035413e+001  2.345587e+001 
3696875000  -4.013625e+001  2.733346e+001 
3700000000  -3.910518e+001  2.583011e+001 
3703125000  -3.885547e+001  1.946599e+001 
3706250000  -3.951439e+001  2.416146e+001 
3709375000  -3.868678e+001  2.606385e+001 
3712500000  -3.762231e+001  2.604304e+001 
3715625000  -3.642908e+001  2.026704e+001 
3718750000  -3.567482e+001  1.774745e+001 
3721875000  -3.533936e+001  1.274740e+001 
3725000000  -3.522572e+001  6.948424e+000 
3728125000  -3.544833e+001  6.273548e+000 
3731250000  -3.479861e+001  5.931438e+000 
3734375000  -3.378082e+001  7.877777e-002 
3737500000  -3.420065e+001  -7.280462e+000 
3740625000  -3.478028e+001  -1.051676e+001 
3743750000  -3.473808e+001  -1.221337e+001 
3746875000  -3.463128e+001  -1.660047e+001 
3750000000  -3.483791e+001  -1.719845e+001 
3753125000  -3.463866e+001  -1.746495e+001 
3756250000  -3.454039e+001  -1.758225e+001 
3759375000  -3.424891e+001  -1.841049e+001 
3762500000  -3.367311e+001  -2.251513e+001 
3765625000  -3.418991e+001  -2.547274e+001 
3768750000  -3.428996e+001  -2.348188e+001 
3771875000  -3.259925e+001  -2.539886e+001 
3775000000  -3.226890e+001  -3.299922e+001 
3778125000  -3.249709e+001  -3.457882e+001 
3781250000  -3.241199e+001  -3.749462e+001 
3784375000  -3.224331e+001  -3.984889e+001 
3787500000  -3.168572e+001  -4.269064e+001 
3790625000  -3.215425e+001  -4.897903e+001 
3793750000  -3.237608e+001  -4.912203e+001 
3796875000  -3.151868e+001  -5.185286e+001 
3800000000  -3.006231e+001  -5.422938e+001 
3803125000  -3.076656e+001  -6.103170e+001 
3806250000  -3.131971e+001  -6.349948e+001 
3809375000  -3.099202e+001  -6.436665e+001 
3812500000  -3.040584e+001  -6.933665e+001 
3815625000  -3.097583e+001  -7.690231e+001 
3818750000  -3.187475e+001  -7.866569e+001 
3821875000  -3.198586e+001  -7.197449e+001 
3825000000  -3.017466e+001  -6.624203e+001 
3828125000  -2.883272e+001  -7.893089e+001 
3831250000  -2.929360e+001  -9.398975e+001 
3834375000  -3.056424e+001  -9.474577e+001 
3837500000  -3.143410e+001  -8.982250e+001 
3840625000  -3.053636e+001  -9.048265e+001 
3843750000  -2.936621e+001  -1.007532e+002 
3846875000  -2.995332e+001  -1.079624e+002 
3850000000  -3.132640e+001  -1.025094e+002 
3853125000  -3.045705e+001  -9.966510e+001 
3856250000  -3.047003e+001  -1.047359e+002 
3859375000  -2.987224e+001  -1.090958e+002 
3862500000  -2.936380e+001  -1.155968e+002 
3865625000  -2.957681e+001  -1.202575e+002 
3868750000  -2.959141e+001  -1.209131e+002 
3871875000  -2.894611e+001  -1.232817e+002 
3875000000  -2.898524e+001  -1.320404e+002 
3878125000  -2.994865e+001  -1.349721e+002 
3881250000  -3.015287e+001  -1.316389e+002 
3884375000  -2.957318e+001  -1.361014e+002 
3887500000  -2.968357e+001  -1.405464e+002 
3890625000  -3.026156e+001  -1.425254e+002 
3893750000  -3.062390e+001  -1.445851e+002 
3896875000  -3.074144e+001  -1.439108e+002 
3900000000  -3.094583e+001  -1.445307e+002 
3903125000  -3.074703e+001  -1.465049e+002 
3906250000  -3.040223e+001  -1.471688e+002 
3909375000  -2.970066e+001  -1.496940e+002 
3912500000  -2.970273e+001  -1.572021e+002 
3915625000  -3.078694e+001  -1.561956e+002 
3918750000  -3.091867e+001  -1.547005e+002 
3921875000  -3.049828e+001  -1.567377e+002 
3925000000  -2.981768e+001  -1.571396e+002 
3928125000  -2.906032e+001  -1.625733e+002 
3931250000  -2.944263e+001  -1.672618e+002 
3934375000  -2.963382e+001  -1.660016e+002 
3937500000  -2.982784e+001  -1.673476e+002 
3940625000  -3.031421e+001  -1.670616e+002 
3943750000  -2.944452e+001  -1.657587e+002 
3946875000  -2.817320e+001  -1.709314e+002 
3950000000  -2.857412e+001  -1.781908e+002 
3953125000  -2.954265e+001  -1.784863e+002 
3956250000  -2.880331e+001  -1.753255e+002 
3959375000  -2.744051e+001  -1.785829e+002 
3962500000  -2.691047e+001  1.779048e+002 
3965625000  -2.649119e+001  1.684918e+002 
3968750000  -2.742530e+001  1.617303e+002 
3971875000  -2.786399e+001  1.602248e+002 
3975000000  -2.718220e+001  1.585497e+002 
3978125000  -2.698012e+001  1.572351e+002 
3981250000  -2.664639e+001  1.527740e+002 
3984375000  -2.699941e+001  1.464694e+002 
3987500000  -2.748629e+001  1.445156e+002 
3990625000  -2.747721e+001  1.437320e+002 
3993750000  -2.766942e+001  1.403074e+002 
3996875000  -2.763900e+001  1.378005e+002 
4000000000  -2.770339e+001  1.361487e+002 
4003125000  -2.832761e+001  1.377258e+002 
4006250000  -2.696128e+001  1.385709e+002 
4009375000  -2.577431e+001  1.263503e+002 
4012500000  -2.674465e+001  1.193851e+002 
4015625000  -2.798118e+001  1.195453e+002 
4018750000  -2.823099e+001  1.221174e+002 
4021875000  -2.752086e+001  1.202654e+002 
4025000000  -2.719043e+001  1.152998e+002 
4028125000  -2.704264e+001  1.111650e+002 
4031250000  -2.757104e+001  1.087271e+002 
4034375000  -2.789776e+001  1.082623e+002 
4037500000  -2.742410e+001  1.103965e+002 
4040625000  -2.721944e+001  1.071426e+002 
4043750000  -2.755649e+001  1.065318e+002 
4046875000  -2.720592e+001  1.061331e+002 
4050000000  -2.665044e+001  1.003779e+002 
4053125000  -2.715880e+001  9.817020e+001 
4056250000  -2.775013e+001  1.018628e+002 
4059375000  -2.663272e+001  1.038362e+002 
4062500000  -2.515744e+001  9.974385e+001 
4065625000  -2.498390e+001  9.524439e+001 
4068750000  -2.467811e+001  9.040719e+001 
4071875000  -2.413791e+001  8.257874e+001 
4075000000  -2.445209e+001  7.642615e+001 
4078125000  -2.496385e+001  7.524101e+001 
4081250000  -2.450898e+001  7.304747e+001 
4084375000  -2.408504e+001  6.662968e+001 
4087500000  -2.437990e+001  6.045754e+001 
4090625000  -2.502862e+001  5.860166e+001 
4093750000  -2.485571e+001  5.972018e+001 
4096875000  -2.442375e+001  5.400591e+001 
4100000000  -2.506106e+001  4.684518e+001 
4103125000  -2.594377e+001  4.681686e+001 
4106250000  -2.591034e+001  5.178517e+001 
4109375000  -2.504326e+001  5.176432e+001 
4112500000  -2.444122e+001  4.532463e+001 
4115625000  -2.471619e+001  4.086443e+001 
4118750000  -2.485779e+001  3.768732e+001 
4121875000  -2.445843e+001  3.369553e+001 
4125000000  -2.479779e+001  2.821616e+001 
4128125000  -2.577744e+001  2.778046e+001 
4131250000  -2.556306e+001  3.563688e+001 
4134375000  -2.331461e+001  3.223963e+001 
4137500000  -2.296163e+001  1.407654e+001 
4140625000  -2.508017e+001  5.998433e+000 
4143750000  -2.649051e+001  1.073479e+001 
4146875000  -2.617466e+001  1.808316e+001 
4150000000  -2.518411e+001  1.518180e+001 
4153125000  -2.503026e+001  9.109499e+000 
4156250000  -2.581766e+001  6.527368e+000 
4159375000  -2.620486e+001  1.040869e+001 
4162500000  -2.501941e+001  1.474624e+001 
4165625000  -2.388059e+001  1.115986e+001 
4168750000  -2.330784e+001  3.878017e+000 
4171875000  -2.326841e+001  -5.436823e+000 
4175000000  -2.381142e+001  -1.103654e+001 
4178125000  -2.441900e+001  -1.121597e+001 
4181250000  -2.433934e+001  -1.150236e+001 
4184375000  -2.416094e+001  -1.477487e+001 
4187500000  -2.420858e+001  -1.744927e+001 
4190625000  -2.403016e+001  -2.272701e+001 
4193750000  -2.472977e+001  -2.660577e+001 
4196875000  -2.548190e+001  -2.725379e+001 
4200000000  -2.625809e+001  -2.567641e+001 
4203125000  -2.644541e+001  -1.250852e+001 
4206250000  -2.316785e+001  -9.824152e+000 
4209375000  -2.189052e+001  -2.998366e+001 
4212500000  -2.373737e+001  -3.953065e+001 
4215625000  -2.481524e+001  -3.362332e+001 
4218750000  -2.353799e+001  -2.679337e+001 
4221875000  -2.118480e+001  -3.550866e+001 
4225000000  -2.237326e+001  -4.834503e+001 
4228125000  -2.310231e+001  -4.340411e+001 
4231250000  -2.159567e+001  -4.649897e+001 
4234375000  -2.148369e+001  -5.494967e+001 
4237500000  -2.110770e+001  -5.840336e+001 
4240625000  -2.111818e+001  -6.668894e+001 
4243750000  -2.201941e+001  -7.290096e+001 
4246875000  -2.288044e+001  -7.366977e+001 
4250000000  -2.295485e+001  -7.066476e+001 
4253125000  -2.239647e+001  -7.284711e+001 
4256250000  -2.268038e+001  -7.693509e+001 
4259375000  -2.243197e+001  -7.883952e+001 
4262500000  -2.245910e+001  -8.257379e+001 
4265625000  -2.255871e+001  -8.215074e+001 
4268750000  -2.177061e+001  -8.610490e+001 
4271875000  -2.150210e+001  -9.146744e+001 
4275000000  -2.087176e+001  -9.785506e+001 
4278125000  -2.144113e+001  -1.091435e+002 
4281250000  -2.321830e+001  -1.115549e+002 
4284375000  -2.297042e+001  -1.108483e+002 
4287500000  -2.365296e+001  -1.141888e+002 
4290625000  -2.496637e+001  -1.051644e+002 
4293750000  -2.305752e+001  -9.934959e+001 
4296875000  -2.163791e+001  -1.102419e+002 
4300000000  -2.247628e+001  -1.192716e+002 
4303125000  -2.360202e+001  -1.189814e+002 
4306250000  -2.304887e+001  -1.127732e+002 
4309375000  -2.166193e+001  -1.141444e+002 
4312500000  -2.153070e+001  -1.224599e+002 
4315625000  -2.176011e+001  -1.287398e+002 
4318750000  -2.204908e+001  -1.320731e+002 
4321875000  -2.220839e+001  -1.318647e+002 
4325000000  -2.164497e+001  -1.313786e+002 
4328125000  -2.118060e+001  -1.375421e+002 
4331250000  -2.107583e+001  -1.453469e+002 
4334375000  -2.146801e+001  -1.501390e+002 
4337500000  -2.224363e+001  -1.528660e+002 
4340625000  -2.287178e+001  -1.499991e+002 
4343750000  -2.232655e+001  -1.493671e+002 
4346875000  -2.191382e+001  -1.545205e+002 
4350000000  -2.189188e+001  -1.590885e+002 
4353125000  -2.191700e+001  -1.666971e+002 
4356250000  -2.358464e+001  -1.684536e+002 
4359375000  -2.431684e+001  -1.557892e+002 
4362500000  -2.182281e+001  -1.531379e+002 
4365625000  -2.012296e+001  -1.639690e+002 
4368750000  -2.072350e+001  -1.762689e+002 
4371875000  -2.202868e+001  -1.761705e+002 
4375000000  -2.168638e+001  -1.745162e+002 
4378125000  -2.100565e+001  1.795795e+002 
4381250000  -2.118223e+001  1.743158e+002 
4384375000  -2.099083e+001  1.699089e+002 
4387500000  -2.168662e+001  1.642043e+002 
4390625000  -2.275800e+001  1.645814e+002 
4393750000  -2.208039e+001  1.668270e+002 
4396875000  -2.138099e+001  1.646657e+002 
4400000000  -2.092474e+001  1.580454e+002 
4403125000  -2.140128e+001  1.504058e+002 
4406250000  -2.233577e+001  1.490236e+002 
4409375000  -2.220296e+001  1.467423e+002 
4412500000  -2.328360e+001  1.441088e+002 
4415625000  -2.371075e+001  1.486700e+002 
4418750000  -2.252578e+001  1.532978e+002 
