!Agilent Technologies,E8363B,MY43030201,A.06.04.32
!Agilent E8363B: A.06.04.32
!Date: Tuesday, November 11, 2014 20:54:41
!Correction: S21(Response(S21)) 
!S1P File: Measurement: S21:
# Hz S  dB   R 50
3000000000  -2.663997e+001  1.503775e+002 
3003125000  -2.804524e+001  1.456050e+002 
3006250000  -2.810793e+001  1.428956e+002 
3009375000  -2.847772e+001  1.480988e+002 
3012500000  -2.790384e+001  1.473479e+002 
3015625000  -2.695556e+001  1.401319e+002 
3018750000  -2.782721e+001  1.398167e+002 
3021875000  -2.651349e+001  1.411365e+002 
3025000000  -2.522744e+001  1.377525e+002 
3028125000  -2.428344e+001  1.327431e+002 
3031250000  -2.322856e+001  1.217674e+002 
3034375000  -2.285511e+001  1.086238e+002 
3037500000  -2.322152e+001  9.661729e+001 
3040625000  -2.451508e+001  9.172570e+001 
3043750000  -2.523386e+001  8.723549e+001 
3046875000  -2.538210e+001  8.104012e+001 
3050000000  -2.707767e+001  7.421453e+001 
3053125000  -2.722623e+001  8.045483e+001 
3056250000  -2.656153e+001  8.348415e+001 
3059375000  -2.682679e+001  8.312891e+001 
3062500000  -2.537044e+001  7.898835e+001 
3065625000  -2.509077e+001  7.339070e+001 
3068750000  -2.481656e+001  6.665610e+001 
3071875000  -2.476030e+001  6.386375e+001 
3075000000  -2.472431e+001  6.002663e+001 
3078125000  -2.447148e+001  5.518445e+001 
3081250000  -2.508438e+001  5.100562e+001 
3084375000  -2.431764e+001  4.746467e+001 
3087500000  -2.421935e+001  4.379002e+001 
3090625000  -2.393048e+001  3.402575e+001 
3093750000  -2.439176e+001  2.614276e+001 
3096875000  -2.564486e+001  2.016236e+001 
3100000000  -2.574954e+001  1.867084e+001 
3103125000  -2.613523e+001  2.018548e+001 
3106250000  -2.585696e+001  1.654338e+001 
3109375000  -2.611404e+001  1.310042e+001 
3112500000  -2.624310e+001  1.204298e+001 
3115625000  -2.604972e+001  7.766689e+000 
3118750000  -2.650498e+001  9.034701e+000 
3121875000  -2.586065e+001  1.244328e+000 
3125000000  -2.710163e+001  -2.244113e+000 
3128125000  -2.826552e+001  5.744632e+000 
3131250000  -2.606224e+001  6.513473e+000 
3134375000  -2.472471e+001  -6.979138e+000 
3137500000  -2.534970e+001  -2.083973e+001 
3140625000  -2.695112e+001  -2.261715e+001 
3143750000  -2.796225e+001  -1.898981e+001 
3146875000  -2.753942e+001  -1.655124e+001 
3150000000  -2.655489e+001  -1.442042e+001 
3153125000  -2.659213e+001  -2.189488e+001 
3156250000  -2.751938e+001  -1.652546e+001 
3159375000  -2.591060e+001  -1.380686e+001 
3162500000  -2.389180e+001  -2.694679e+001 
3165625000  -2.482774e+001  -3.761700e+001 
3168750000  -2.522972e+001  -3.676527e+001 
3171875000  -2.427143e+001  -4.106383e+001 
3175000000  -2.492905e+001  -4.892754e+001 
3178125000  -2.466479e+001  -4.729276e+001 
3181250000  -2.352568e+001  -5.122586e+001 
3184375000  -2.274977e+001  -6.343224e+001 
3187500000  -2.386723e+001  -7.855510e+001 
3190625000  -2.665429e+001  -8.591228e+001 
3193750000  -2.719720e+001  -7.633201e+001 
3196875000  -2.679619e+001  -7.100675e+001 
3200000000  -2.586720e+001  -7.321393e+001 
3203125000  -2.505798e+001  -7.870890e+001 
3206250000  -2.535369e+001  -8.497891e+001 
3209375000  -2.489101e+001  -9.014710e+001 
3212500000  -2.502086e+001  -9.631671e+001 
3215625000  -2.515197e+001  -1.005377e+002 
3218750000  -2.587941e+001  -1.071681e+002 
3221875000  -2.681584e+001  -1.123193e+002 
3225000000  -2.644601e+001  -1.127254e+002 
3228125000  -2.680342e+001  -1.175147e+002 
3231250000  -2.754791e+001  -1.198930e+002 
3234375000  -2.740977e+001  -1.185965e+002 
3237500000  -2.744041e+001  -1.203909e+002 
3240625000  -2.711740e+001  -1.222500e+002 
3243750000  -2.671496e+001  -1.291149e+002 
3246875000  -2.719593e+001  -1.356008e+002 
3250000000  -2.766802e+001  -1.371862e+002 
3253125000  -2.778791e+001  -1.390542e+002 
3256250000  -2.769138e+001  -1.447476e+002 
3259375000  -2.793001e+001  -1.526630e+002 
3262500000  -2.928876e+001  -1.554879e+002 
3265625000  -2.989425e+001  -1.519401e+002 
3268750000  -2.990462e+001  -1.493154e+002 
3271875000  -2.961303e+001  -1.481075e+002 
3275000000  -2.853699e+001  -1.532641e+002 
3278125000  -2.901397e+001  -1.597717e+002 
3281250000  -2.935326e+001  -1.578843e+002 
3284375000  -2.889295e+001  -1.634068e+002 
3287500000  -2.901636e+001  -1.663560e+002 
3290625000  -2.939291e+001  -1.707316e+002 
3293750000  -2.911985e+001  -1.761857e+002 
3296875000  -3.013700e+001  -1.761266e+002 
3300000000  -3.001490e+001  -1.747820e+002 
3303125000  -2.884909e+001  -1.791128e+002 
3306250000  -2.861074e+001  1.746207e+002 
3309375000  -2.840440e+001  1.690046e+002 
3312500000  -2.847253e+001  1.587565e+002 
3315625000  -2.946549e+001  1.510162e+002 
3318750000  -3.086462e+001  1.483726e+002 
3321875000  -3.206935e+001  1.492710e+002 
3325000000  -3.240555e+001  1.539221e+002 
3328125000  -3.249231e+001  1.547877e+002 
3331250000  -3.117532e+001  1.623151e+002 
3334375000  -2.858045e+001  1.528662e+002 
3337500000  -2.863488e+001  1.342847e+002 
3340625000  -3.004163e+001  1.237876e+002 
3343750000  -3.201002e+001  1.218806e+002 
3346875000  -3.248954e+001  1.241677e+002 
3350000000  -3.177024e+001  1.224957e+002 
3353125000  -3.189498e+001  1.178055e+002 
3356250000  -3.164190e+001  1.102633e+002 
3359375000  -3.253744e+001  1.022218e+002 
3362500000  -3.376918e+001  9.639021e+001 
3365625000  -3.448227e+001  9.507340e+001 
3368750000  -3.537646e+001  9.276178e+001 
3371875000  -3.585497e+001  9.007568e+001 
3375000000  -3.727299e+001  8.871396e+001 
3378125000  -3.847036e+001  8.796452e+001 
3381250000  -3.992316e+001  9.640303e+001 
3384375000  -3.916995e+001  1.171932e+002 
3387500000  -3.566347e+001  1.029694e+002 
3390625000  -3.765937e+001  8.272976e+001 
3393750000  -3.942494e+001  8.861693e+001 
3396875000  -3.860301e+001  9.157162e+001 
3400000000  -3.855507e+001  8.390612e+001 
3403125000  -3.978593e+001  7.935789e+001 
3406250000  -4.043818e+001  8.185692e+001 
3409375000  -4.102342e+001  7.801550e+001 
3412500000  -4.190627e+001  7.786514e+001 
3415625000  -4.294798e+001  8.394840e+001 
3418750000  -4.331226e+001  8.641441e+001 
3421875000  -4.320419e+001  9.483084e+001 
3425000000  -4.271552e+001  9.721249e+001 
3428125000  -4.152576e+001  9.484805e+001 
3431250000  -4.152924e+001  9.168321e+001 
3434375000  -4.131415e+001  8.675158e+001 
3437500000  -4.178562e+001  8.699431e+001 
3440625000  -4.204484e+001  9.034501e+001 
3443750000  -4.078709e+001  9.189902e+001 
3446875000  -4.022236e+001  8.745459e+001 
3450000000  -3.996709e+001  7.766711e+001 
3453125000  -4.020664e+001  6.998064e+001 
3456250000  -4.159113e+001  6.593570e+001 
3459375000  -4.244154e+001  6.837991e+001 
3462500000  -4.262524e+001  6.692924e+001 
3465625000  -4.231489e+001  6.190485e+001 
3468750000  -4.283862e+001  5.940497e+001 
3471875000  -4.295013e+001  6.203807e+001 
3475000000  -4.277016e+001  5.759261e+001 
3478125000  -4.390363e+001  5.174561e+001 
3481250000  -4.526141e+001  5.051015e+001 
3484375000  -4.617110e+001  5.250589e+001 
3487500000  -4.599657e+001  5.718668e+001 
3490625000  -4.582661e+001  5.703434e+001 
3493750000  -4.613353e+001  5.358070e+001 
3496875000  -4.796029e+001  5.227913e+001 
3500000000  -4.918908e+001  6.216795e+001 
3503125000  -4.871324e+001  6.587037e+001 
3506250000  -4.741024e+001  6.939957e+001 
3509375000  -4.787613e+001  6.737449e+001 
3512500000  -4.784985e+001  6.517674e+001 
3515625000  -4.849188e+001  6.801915e+001 
3518750000  -4.854957e+001  7.364853e+001 
3521875000  -4.844722e+001  8.149039e+001 
3525000000  -4.847258e+001  8.061593e+001 
3528125000  -4.795766e+001  9.195569e+001 
3531250000  -4.606701e+001  9.502903e+001 
3534375000  -4.552310e+001  8.504613e+001 
3537500000  -4.517186e+001  8.184841e+001 
3540625000  -4.608511e+001  8.340618e+001 
3543750000  -4.581825e+001  8.722057e+001 
3546875000  -4.545771e+001  9.871782e+001 
3550000000  -4.283883e+001  1.007344e+002 
3553125000  -4.170140e+001  8.393520e+001 
3556250000  -4.244765e+001  7.821529e+001 
3559375000  -4.217294e+001  8.187781e+001 
3562500000  -4.111783e+001  7.277090e+001 
3565625000  -4.187765e+001  6.584207e+001 
3568750000  -4.187666e+001  6.960242e+001 
3571875000  -4.169751e+001  6.997543e+001 
3575000000  -4.110821e+001  6.626041e+001 
3578125000  -4.162223e+001  5.982930e+001 
3581250000  -4.182629e+001  6.167603e+001 
3584375000  -4.066954e+001  6.026781e+001 
3587500000  -4.001938e+001  5.302917e+001 
3590625000  -4.055161e+001  4.584079e+001 
3593750000  -4.146334e+001  4.533592e+001 
3596875000  -4.152086e+001  5.206000e+001 
3600000000  -3.991056e+001  5.037127e+001 
3603125000  -3.968340e+001  3.672000e+001 
3606250000  -4.046577e+001  3.402224e+001 
3609375000  -4.100127e+001  3.136344e+001 
3612500000  -4.157328e+001  3.036535e+001 
3615625000  -4.120837e+001  2.987181e+001 
3618750000  -4.179127e+001  3.149321e+001 
3621875000  -4.135077e+001  3.011635e+001 
3625000000  -4.159051e+001  2.874670e+001 
3628125000  -4.187291e+001  2.940285e+001 
3631250000  -4.108589e+001  2.608721e+001 
3634375000  -4.238079e+001  2.635154e+001 
3637500000  -4.198907e+001  3.276228e+001 
3640625000  -4.084219e+001  3.300953e+001 
3643750000  -4.046064e+001  2.747589e+001 
3646875000  -4.099176e+001  2.159808e+001 
3650000000  -4.124628e+001  2.034605e+001 
3653125000  -4.106149e+001  2.088143e+001 
3656250000  -4.151823e+001  1.899261e+001 
3659375000  -4.169805e+001  2.152578e+001 
3662500000  -4.110769e+001  2.020781e+001 
3665625000  -4.097663e+001  1.930207e+001 
3668750000  -4.008413e+001  2.496824e+001 
3671875000  -3.913014e+001  1.731931e+001 
3675000000  -3.938616e+001  1.215597e+001 
3678125000  -3.998299e+001  1.550200e+001 
3681250000  -3.959296e+001  1.531435e+001 
3684375000  -3.958051e+001  1.211636e+001 
3687500000  -3.931388e+001  1.137122e+001 
3690625000  -3.957787e+001  9.238830e+000 
3693750000  -4.001152e+001  1.240600e+001 
3696875000  -3.990139e+001  1.501183e+001 
3700000000  -3.879736e+001  1.164352e+001 
3703125000  -3.845139e+001  8.804811e+000 
3706250000  -3.915462e+001  1.083149e+001 
3709375000  -3.843476e+001  1.560604e+001 
3712500000  -3.738616e+001  1.477497e+001 
3715625000  -3.616155e+001  8.412541e+000 
3718750000  -3.564941e+001  4.699320e+000 
3721875000  -3.507056e+001  2.974912e-001 
3725000000  -3.512622e+001  -5.016045e+000 
3728125000  -3.522001e+001  -4.674977e+000 
3731250000  -3.454637e+001  -6.446589e+000 
3734375000  -3.359293e+001  -1.159969e+001 
3737500000  -3.412980e+001  -1.918300e+001 
3740625000  -3.467366e+001  -2.192879e+001 
3743750000  -3.438632e+001  -2.414198e+001 
3746875000  -3.445428e+001  -2.783575e+001 
3750000000  -3.475764e+001  -2.904976e+001 
3753125000  -3.443985e+001  -2.898662e+001 
3756250000  -3.432216e+001  -2.983999e+001 
3759375000  -3.395130e+001  -3.025397e+001 
3762500000  -3.346280e+001  -3.508087e+001 
3765625000  -3.400189e+001  -3.693839e+001 
3768750000  -3.403489e+001  -3.491468e+001 
3771875000  -3.228598e+001  -3.771004e+001 
3775000000  -3.205917e+001  -4.546228e+001 
3778125000  -3.246648e+001  -4.688644e+001 
3781250000  -3.220367e+001  -4.970195e+001 
3784375000  -3.215910e+001  -5.158982e+001 
3787500000  -3.158121e+001  -5.536878e+001 
3790625000  -3.207172e+001  -6.170493e+001 
3793750000  -3.227479e+001  -6.121208e+001 
3796875000  -3.139046e+001  -6.323262e+001 
3800000000  -2.981915e+001  -6.639784e+001 
3803125000  -3.052962e+001  -7.382950e+001 
3806250000  -3.125074e+001  -7.618614e+001 
3809375000  -3.095450e+001  -7.728210e+001 
3812500000  -3.030880e+001  -8.199350e+001 
3815625000  -3.097886e+001  -8.931548e+001 
3818750000  -3.190832e+001  -9.046137e+001 
3821875000  -3.189696e+001  -8.209418e+001 
3825000000  -3.001040e+001  -7.734137e+001 
3828125000  -2.860390e+001  -9.117464e+001 
3831250000  -2.915469e+001  -1.058928e+002 
3834375000  -3.053313e+001  -1.062286e+002 
3837500000  -3.140918e+001  -1.012108e+002 
3840625000  -3.031788e+001  -1.020672e+002 
3843750000  -2.906456e+001  -1.122339e+002 
3846875000  -2.983446e+001  -1.193691e+002 
3850000000  -3.109318e+001  -1.134998e+002 
3853125000  -3.025644e+001  -1.115348e+002 
3856250000  -3.022778e+001  -1.160941e+002 
3859375000  -2.959754e+001  -1.201807e+002 
3862500000  -2.907864e+001  -1.271853e+002 
3865625000  -2.935259e+001  -1.321548e+002 
3868750000  -2.936776e+001  -1.325004e+002 
3871875000  -2.859957e+001  -1.351929e+002 
3875000000  -2.881472e+001  -1.439518e+002 
3878125000  -2.980388e+001  -1.464382e+002 
3881250000  -2.982149e+001  -1.430761e+002 
3884375000  -2.925244e+001  -1.478753e+002 
3887500000  -2.936933e+001  -1.524647e+002 
3890625000  -2.998451e+001  -1.544741e+002 
3893750000  -3.035637e+001  -1.559554e+002 
3896875000  -3.044298e+001  -1.550435e+002 
3900000000  -3.062274e+001  -1.562208e+002 
3903125000  -3.033891e+001  -1.586350e+002 
3906250000  -2.997229e+001  -1.590625e+002 
3909375000  -2.929498e+001  -1.616867e+002 
3912500000  -2.932168e+001  -1.695645e+002 
3915625000  -3.064298e+001  -1.684924e+002 
3918750000  -3.057445e+001  -1.665389e+002 
3921875000  -3.026150e+001  -1.682804e+002 
3925000000  -2.945143e+001  -1.693213e+002 
3928125000  -2.879112e+001  -1.746498e+002 
3931250000  -2.920240e+001  -1.788098e+002 
3934375000  -2.942854e+001  -1.784176e+002 
3937500000  -2.952789e+001  -1.795084e+002 
3940625000  -3.001088e+001  -1.793153e+002 
3943750000  -2.911070e+001  -1.778310e+002 
3946875000  -2.783892e+001  1.773640e+002 
3950000000  -2.824247e+001  1.699010e+002 
3953125000  -2.922453e+001  1.706210e+002 
3956250000  -2.841175e+001  1.733777e+002 
3959375000  -2.703091e+001  1.699136e+002 
3962500000  -2.654169e+001  1.658706e+002 
3965625000  -2.616420e+001  1.568342e+002 
3968750000  -2.713935e+001  1.503129e+002 
3971875000  -2.749194e+001  1.484736e+002 
3975000000  -2.681476e+001  1.466227e+002 
3978125000  -2.664921e+001  1.454396e+002 
3981250000  -2.644546e+001  1.414245e+002 
3984375000  -2.660712e+001  1.352512e+002 
3987500000  -2.712365e+001  1.327799e+002 
3990625000  -2.707547e+001  1.316945e+002 
3993750000  -2.723200e+001  1.288491e+002 
3996875000  -2.722523e+001  1.267211e+002 
4000000000  -2.735254e+001  1.242368e+002 
4003125000  -2.792477e+001  1.261110e+002 
4006250000  -2.657378e+001  1.270728e+002 
4009375000  -2.523270e+001  1.148133e+002 
4012500000  -2.623639e+001  1.078517e+002 
4015625000  -2.749694e+001  1.080221e+002 
4018750000  -2.774415e+001  1.100855e+002 
4021875000  -2.706631e+001  1.087073e+002 
4025000000  -2.660381e+001  1.035783e+002 
4028125000  -2.658087e+001  9.960631e+001 
4031250000  -2.706141e+001  9.602370e+001 
4034375000  -2.733933e+001  9.585725e+001 
4037500000  -2.680127e+001  9.786682e+001 
4040625000  -2.677583e+001  9.454905e+001 
4043750000  -2.710390e+001  9.396972e+001 
4046875000  -2.660367e+001  9.392100e+001 
4050000000  -2.612881e+001  8.771455e+001 
4053125000  -2.662461e+001  8.551443e+001 
4056250000  -2.726453e+001  8.945513e+001 
4059375000  -2.608910e+001  9.148803e+001 
4062500000  -2.468189e+001  8.732541e+001 
4065625000  -2.458125e+001  8.293382e+001 
4068750000  -2.428272e+001  7.850369e+001 
4071875000  -2.353894e+001  7.070086e+001 
4075000000  -2.390088e+001  6.420138e+001 
4078125000  -2.440044e+001  6.314893e+001 
4081250000  -2.395610e+001  6.055988e+001 
4084375000  -2.354065e+001  5.386340e+001 
4087500000  -2.389423e+001  4.773953e+001 
4090625000  -2.451036e+001  4.639201e+001 
4093750000  -2.434165e+001  4.715825e+001 
4096875000  -2.387112e+001  4.132237e+001 
4100000000  -2.455480e+001  3.436777e+001 
4103125000  -2.540729e+001  3.520321e+001 
4106250000  -2.519009e+001  4.028654e+001 
4109375000  -2.432364e+001  3.914940e+001 
4112500000  -2.380986e+001  3.288214e+001 
4115625000  -2.407022e+001  2.829368e+001 
4118750000  -2.420711e+001  2.516418e+001 
4121875000  -2.385958e+001  2.052438e+001 
4125000000  -2.425461e+001  1.576304e+001 
4128125000  -2.523954e+001  1.655175e+001 
4131250000  -2.487738e+001  2.436401e+001 
4134375000  -2.247337e+001  1.951266e+001 
4137500000  -2.223653e+001  7.527630e-001 
4140625000  -2.441281e+001  -6.352458e+000 
4143750000  -2.575926e+001  -1.345889e+000 
4146875000  -2.523194e+001  5.585806e+000 
4150000000  -2.436089e+001  2.213982e+000 
4153125000  -2.426238e+001  -4.554401e+000 
4156250000  -2.508984e+001  -7.092088e+000 
4159375000  -2.544773e+001  -2.901141e+000 
4162500000  -2.428211e+001  1.018119e+000 
4165625000  -2.314572e+001  -2.348249e+000 
4168750000  -2.255632e+001  -9.660215e+000 
4171875000  -2.244443e+001  -1.884865e+001 
4175000000  -2.302239e+001  -2.504826e+001 
4178125000  -2.364683e+001  -2.538670e+001 
4181250000  -2.352495e+001  -2.571983e+001 
4184375000  -2.338667e+001  -2.914441e+001 
4187500000  -2.345869e+001  -3.163541e+001 
4190625000  -2.330843e+001  -3.719213e+001 
4193750000  -2.404851e+001  -4.146872e+001 
4196875000  -2.484741e+001  -4.136047e+001 
4200000000  -2.560671e+001  -3.894346e+001 
4203125000  -2.563349e+001  -2.553675e+001 
4206250000  -2.233078e+001  -2.433922e+001 
4209375000  -2.112835e+001  -4.494705e+001 
4212500000  -2.318024e+001  -5.345690e+001 
4215625000  -2.400308e+001  -4.653448e+001 
4218750000  -2.254267e+001  -4.000345e+001 
4221875000  -2.025589e+001  -4.974425e+001 
4225000000  -2.147377e+001  -6.258955e+001 
4228125000  -2.223762e+001  -5.783169e+001 
4231250000  -2.079571e+001  -6.106260e+001 
4234375000  -2.065220e+001  -6.975435e+001 
4237500000  -2.018802e+001  -7.313465e+001 
4240625000  -2.031948e+001  -8.175121e+001 
4243750000  -2.131309e+001  -8.783498e+001 
4246875000  -2.208534e+001  -8.802634e+001 
4250000000  -2.209348e+001  -8.539310e+001 
4253125000  -2.148576e+001  -8.726022e+001 
4256250000  -2.169364e+001  -9.157687e+001 
4259375000  -2.154895e+001  -9.357043e+001 
4262500000  -2.152607e+001  -9.748647e+001 
4265625000  -2.164453e+001  -9.743719e+001 
4268750000  -2.087796e+001  -1.013859e+002 
4271875000  -2.060185e+001  -1.068447e+002 
4275000000  -1.993572e+001  -1.132245e+002 
4278125000  -2.048789e+001  -1.250051e+002 
4281250000  -2.225209e+001  -1.273699e+002 
4284375000  -2.205595e+001  -1.268657e+002 
4287500000  -2.295248e+001  -1.304082e+002 
4290625000  -2.421058e+001  -1.207406e+002 
4293750000  -2.221940e+001  -1.149719e+002 
4296875000  -2.080256e+001  -1.263033e+002 
4300000000  -2.166754e+001  -1.352342e+002 
4303125000  -2.269173e+001  -1.338963e+002 
4306250000  -2.209051e+001  -1.283907e+002 
4309375000  -2.069152e+001  -1.309556e+002 
4312500000  -2.065259e+001  -1.396725e+002 
4315625000  -2.095257e+001  -1.456229e+002 
4318750000  -2.128248e+001  -1.487573e+002 
4321875000  -2.141947e+001  -1.480020e+002 
4325000000  -2.080947e+001  -1.478370e+002 
4328125000  -2.033555e+001  -1.544327e+002 
4331250000  -2.033763e+001  -1.625172e+002 
4334375000  -2.078752e+001  -1.672159e+002 
4337500000  -2.158292e+001  -1.693738e+002 
4340625000  -2.205696e+001  -1.663457e+002 
4343750000  -2.150325e+001  -1.658819e+002 
4346875000  -2.113982e+001  -1.710573e+002 
4350000000  -2.103165e+001  -1.759641e+002 
4353125000  -2.109995e+001  1.760670e+002 
4356250000  -2.283213e+001  1.749103e+002 
4359375000  -2.342642e+001  -1.720040e+002 
4362500000  -2.089126e+001  -1.699642e+002 
4365625000  -1.932552e+001  1.786496e+002 
4368750000  -1.999020e+001  1.668901e+002 
4371875000  -2.109565e+001  1.672130e+002 
4375000000  -2.081311e+001  1.684563e+002 
4378125000  -2.020326e+001  1.626114e+002 
4381250000  -2.033711e+001  1.572365e+002 
4384375000  -2.011009e+001  1.525885e+002 
4387500000  -2.076876e+001  1.467046e+002 
4390625000  -2.179101e+001  1.470410e+002 
4393750000  -2.124600e+001  1.493993e+002 
4396875000  -2.054738e+001  1.474324e+002 
4400000000  -2.007093e+001  1.406163e+002 
4403125000  -2.059756e+001  1.325341e+002 
4406250000  -2.149150e+001  1.313718e+002 
4409375000  -2.137144e+001  1.290298e+002 
4412500000  -2.232886e+001  1.256888e+002 
4415625000  -2.276575e+001  1.305778e+002 
4418750000  -2.169050e+001  1.354508e+002 
