!Agilent Technologies,E8363B,MY43030201,A.06.04.32
!Agilent E8363B: A.06.04.32
!Date: Tuesday, November 11, 2014 20:54:00
!Correction: S21(Response(S21)) 
!S1P File: Measurement: S21:
# Hz S  dB   R 50
3000000000  -2.663235e+001  1.511651e+002 
3003125000  -2.800856e+001  1.464216e+002 
3006250000  -2.805798e+001  1.438517e+002 
3009375000  -2.843229e+001  1.488186e+002 
3012500000  -2.785950e+001  1.481179e+002 
3015625000  -2.698243e+001  1.411978e+002 
3018750000  -2.778699e+001  1.401656e+002 
3021875000  -2.652240e+001  1.418732e+002 
3025000000  -2.524124e+001  1.384254e+002 
3028125000  -2.427932e+001  1.335549e+002 
3031250000  -2.320475e+001  1.223591e+002 
3034375000  -2.285535e+001  1.094437e+002 
3037500000  -2.320678e+001  9.756916e+001 
3040625000  -2.455423e+001  9.218385e+001 
3043750000  -2.521425e+001  8.793539e+001 
3046875000  -2.538342e+001  8.155301e+001 
3050000000  -2.711904e+001  7.469401e+001 
3053125000  -2.724170e+001  8.120171e+001 
3056250000  -2.653829e+001  8.449125e+001 
3059375000  -2.676767e+001  8.378111e+001 
3062500000  -2.529593e+001  8.003336e+001 
3065625000  -2.506566e+001  7.437102e+001 
3068750000  -2.479535e+001  6.726811e+001 
3071875000  -2.477090e+001  6.453918e+001 
3075000000  -2.472530e+001  6.060704e+001 
3078125000  -2.445617e+001  5.603713e+001 
3081250000  -2.508321e+001  5.194680e+001 
3084375000  -2.433366e+001  4.814142e+001 
3087500000  -2.421680e+001  4.447913e+001 
3090625000  -2.393316e+001  3.476826e+001 
3093750000  -2.437752e+001  2.686892e+001 
3096875000  -2.565437e+001  2.091189e+001 
3100000000  -2.578752e+001  1.937736e+001 
3103125000  -2.613607e+001  2.079866e+001 
3106250000  -2.590388e+001  1.746431e+001 
3109375000  -2.610725e+001  1.382193e+001 
3112500000  -2.625439e+001  1.268999e+001 
3115625000  -2.605924e+001  8.448000e+000 
3118750000  -2.651812e+001  9.843856e+000 
3121875000  -2.584272e+001  1.654163e+000 
3125000000  -2.707964e+001  -1.733291e+000 
3128125000  -2.826517e+001  6.366923e+000 
3131250000  -2.603595e+001  6.991039e+000 
3134375000  -2.470165e+001  -6.373188e+000 
3137500000  -2.531176e+001  -2.024694e+001 
3140625000  -2.691118e+001  -2.158340e+001 
3143750000  -2.798507e+001  -1.796899e+001 
3146875000  -2.758609e+001  -1.580412e+001 
3150000000  -2.657285e+001  -1.381660e+001 
3153125000  -2.657389e+001  -2.143961e+001 
3156250000  -2.750710e+001  -1.564637e+001 
3159375000  -2.589950e+001  -1.308108e+001 
3162500000  -2.392304e+001  -2.602207e+001 
3165625000  -2.482816e+001  -3.696855e+001 
3168750000  -2.524767e+001  -3.609084e+001 
3171875000  -2.425745e+001  -4.028561e+001 
3175000000  -2.491109e+001  -4.798933e+001 
3178125000  -2.468946e+001  -4.633706e+001 
3181250000  -2.350371e+001  -5.043824e+001 
3184375000  -2.275737e+001  -6.263187e+001 
3187500000  -2.383042e+001  -7.770792e+001 
3190625000  -2.664816e+001  -8.530317e+001 
3193750000  -2.718636e+001  -7.580293e+001 
3196875000  -2.679327e+001  -7.024252e+001 
3200000000  -2.590496e+001  -7.222133e+001 
3203125000  -2.506755e+001  -7.807522e+001 
3206250000  -2.534598e+001  -8.415260e+001 
3209375000  -2.490461e+001  -8.913573e+001 
3212500000  -2.505519e+001  -9.585957e+001 
3215625000  -2.518232e+001  -9.975090e+001 
3218750000  -2.590050e+001  -1.058500e+002 
3221875000  -2.682631e+001  -1.114232e+002 
3225000000  -2.644761e+001  -1.118885e+002 
3228125000  -2.679692e+001  -1.164974e+002 
3231250000  -2.755463e+001  -1.189942e+002 
3234375000  -2.738305e+001  -1.179397e+002 
3237500000  -2.742661e+001  -1.198412e+002 
3240625000  -2.708676e+001  -1.215374e+002 
3243750000  -2.674381e+001  -1.280425e+002 
3246875000  -2.725858e+001  -1.345631e+002 
3250000000  -2.767346e+001  -1.364503e+002 
3253125000  -2.779418e+001  -1.382473e+002 
3256250000  -2.765789e+001  -1.440395e+002 
3259375000  -2.799146e+001  -1.518680e+002 
3262500000  -2.923355e+001  -1.548645e+002 
3265625000  -2.995410e+001  -1.507604e+002 
3268750000  -2.990903e+001  -1.482375e+002 
3271875000  -2.964050e+001  -1.479436e+002 
3275000000  -2.854505e+001  -1.524387e+002 
3278125000  -2.906340e+001  -1.586617e+002 
3281250000  -2.926634e+001  -1.569619e+002 
3284375000  -2.886985e+001  -1.627170e+002 
3287500000  -2.903455e+001  -1.653659e+002 
3290625000  -2.940353e+001  -1.698641e+002 
3293750000  -2.911493e+001  -1.754622e+002 
3296875000  -3.016641e+001  -1.754399e+002 
3300000000  -3.004137e+001  -1.740641e+002 
3303125000  -2.892135e+001  -1.782567e+002 
3306250000  -2.868417e+001  1.754245e+002 
3309375000  -2.844279e+001  1.701797e+002 
3312500000  -2.849863e+001  1.597019e+002 
3315625000  -2.945386e+001  1.523321e+002 
3318750000  -3.084004e+001  1.496214e+002 
3321875000  -3.204909e+001  1.493477e+002 
3325000000  -3.257286e+001  1.543002e+002 
3328125000  -3.245087e+001  1.554556e+002 
3331250000  -3.119306e+001  1.635160e+002 
3334375000  -2.863530e+001  1.534966e+002 
3337500000  -2.869010e+001  1.351912e+002 
3340625000  -3.001236e+001  1.245340e+002 
3343750000  -3.203831e+001  1.231090e+002 
3346875000  -3.250780e+001  1.249825e+002 
3350000000  -3.188743e+001  1.231587e+002 
3353125000  -3.192828e+001  1.189979e+002 
3356250000  -3.166031e+001  1.118956e+002 
3359375000  -3.248074e+001  1.028403e+002 
3362500000  -3.381361e+001  9.747769e+001 
3365625000  -3.452701e+001  9.611274e+001 
3368750000  -3.543261e+001  9.435516e+001 
3371875000  -3.584346e+001  9.132898e+001 
3375000000  -3.738278e+001  9.011965e+001 
3378125000  -3.856643e+001  8.884077e+001 
3381250000  -3.994766e+001  9.617728e+001 
3384375000  -3.920208e+001  1.180380e+002 
3387500000  -3.596465e+001  1.035526e+002 
3390625000  -3.765350e+001  8.574247e+001 
3393750000  -3.941559e+001  8.984220e+001 
3396875000  -3.867652e+001  9.288496e+001 
3400000000  -3.853242e+001  8.521436e+001 
3403125000  -3.959850e+001  8.061164e+001 
3406250000  -4.045284e+001  8.228957e+001 
3409375000  -4.103900e+001  7.848523e+001 
3412500000  -4.170206e+001  7.992934e+001 
3415625000  -4.266232e+001  8.403850e+001 
3418750000  -4.290958e+001  8.909003e+001 
3421875000  -4.334169e+001  9.492982e+001 
3425000000  -4.245104e+001  9.721400e+001 
3428125000  -4.126032e+001  9.719399e+001 
3431250000  -4.153138e+001  9.476830e+001 
3434375000  -4.117573e+001  9.067480e+001 
3437500000  -4.157615e+001  8.832175e+001 
3440625000  -4.203379e+001  9.223878e+001 
3443750000  -4.080788e+001  9.229699e+001 
3446875000  -4.006771e+001  8.953840e+001 
3450000000  -3.987979e+001  7.870522e+001 
3453125000  -3.992702e+001  7.019648e+001 
3456250000  -4.125107e+001  6.664947e+001 
3459375000  -4.230508e+001  6.733583e+001 
3462500000  -4.248850e+001  6.884203e+001 
3465625000  -4.241054e+001  6.388163e+001 
3468750000  -4.288085e+001  6.253731e+001 
3471875000  -4.317652e+001  6.349129e+001 
3475000000  -4.321639e+001  5.899038e+001 
3478125000  -4.393200e+001  5.227867e+001 
3481250000  -4.480552e+001  5.203587e+001 
3484375000  -4.629559e+001  5.851550e+001 
3487500000  -4.566434e+001  5.648843e+001 
3490625000  -4.559761e+001  5.665671e+001 
3493750000  -4.611274e+001  5.323582e+001 
3496875000  -4.745034e+001  5.549802e+001 
3500000000  -4.891336e+001  6.140824e+001 
3503125000  -4.853418e+001  7.049252e+001 
3506250000  -4.713061e+001  7.114697e+001 
3509375000  -4.778268e+001  6.768201e+001 
3512500000  -4.791893e+001  6.599541e+001 
3515625000  -4.821719e+001  7.119540e+001 
3518750000  -4.873717e+001  7.674953e+001 
3521875000  -4.913370e+001  8.027755e+001 
3525000000  -4.878852e+001  8.101581e+001 
3528125000  -4.781836e+001  8.969088e+001 
3531250000  -4.596814e+001  9.590231e+001 
3534375000  -4.541526e+001  8.598304e+001 
3537500000  -4.550756e+001  8.342266e+001 
3540625000  -4.574707e+001  8.315676e+001 
3543750000  -4.619619e+001  8.770978e+001 
3546875000  -4.571572e+001  9.842971e+001 
3550000000  -4.333543e+001  1.024888e+002 
3553125000  -4.171029e+001  8.282906e+001 
3556250000  -4.273948e+001  7.708244e+001 
3559375000  -4.227747e+001  8.179594e+001 
3562500000  -4.099572e+001  7.318772e+001 
3565625000  -4.183049e+001  6.730678e+001 
3568750000  -4.184200e+001  6.920271e+001 
3571875000  -4.159099e+001  6.959175e+001 
3575000000  -4.106916e+001  6.399453e+001 
3578125000  -4.136396e+001  6.092717e+001 
3581250000  -4.140923e+001  6.398707e+001 
3584375000  -4.083178e+001  6.073966e+001 
3587500000  -4.014020e+001  5.578105e+001 
3590625000  -4.033462e+001  4.612758e+001 
3593750000  -4.111453e+001  4.584766e+001 
3596875000  -4.154939e+001  5.532849e+001 
3600000000  -3.968171e+001  5.034750e+001 
3603125000  -3.988191e+001  3.665512e+001 
3606250000  -4.056676e+001  3.514010e+001 
3609375000  -4.078535e+001  3.437801e+001 
3612500000  -4.119004e+001  3.348200e+001 
3615625000  -4.147464e+001  3.099251e+001 
3618750000  -4.191993e+001  3.177855e+001 
3621875000  -4.169199e+001  3.016603e+001 
3625000000  -4.152693e+001  2.946197e+001 
3628125000  -4.160867e+001  2.997895e+001 
3631250000  -4.150016e+001  2.436213e+001 
3634375000  -4.214165e+001  2.611067e+001 
3637500000  -4.173105e+001  3.235855e+001 
3640625000  -4.073646e+001  3.432231e+001 
3643750000  -4.044336e+001  2.860252e+001 
3646875000  -4.110808e+001  2.113692e+001 
3650000000  -4.133721e+001  2.222545e+001 
3653125000  -4.130797e+001  2.174236e+001 
3656250000  -4.142634e+001  1.911418e+001 
3659375000  -4.182526e+001  2.434224e+001 
3662500000  -4.108787e+001  2.238032e+001 
3665625000  -4.117892e+001  2.382573e+001 
3668750000  -3.978054e+001  2.526156e+001 
3671875000  -3.904627e+001  1.900510e+001 
3675000000  -3.949935e+001  1.298749e+001 
3678125000  -4.010297e+001  1.558979e+001 
3681250000  -3.960096e+001  1.561904e+001 
3684375000  -3.952155e+001  1.355107e+001 
3687500000  -3.927441e+001  1.256338e+001 
3690625000  -3.965394e+001  9.909856e+000 
3693750000  -3.998790e+001  1.180671e+001 
3696875000  -3.991536e+001  1.664957e+001 
3700000000  -3.880791e+001  1.277254e+001 
3703125000  -3.841454e+001  1.034991e+001 
3706250000  -3.927664e+001  1.189884e+001 
3709375000  -3.840402e+001  1.511719e+001 
3712500000  -3.728594e+001  1.450621e+001 
3715625000  -3.617365e+001  8.824116e+000 
3718750000  -3.542551e+001  5.904440e+000 
3721875000  -3.509512e+001  3.515777e-001 
3725000000  -3.503067e+001  -3.464192e+000 
3728125000  -3.531073e+001  -4.908267e+000 
3731250000  -3.438264e+001  -5.779595e+000 
3734375000  -3.355368e+001  -1.128299e+001 
3737500000  -3.414667e+001  -1.888626e+001 
3740625000  -3.456037e+001  -2.238144e+001 
3743750000  -3.441556e+001  -2.427243e+001 
3746875000  -3.436240e+001  -2.754694e+001 
3750000000  -3.480655e+001  -2.790499e+001 
3753125000  -3.427056e+001  -2.817811e+001 
3756250000  -3.423350e+001  -2.870873e+001 
3759375000  -3.412342e+001  -2.936434e+001 
3762500000  -3.356159e+001  -3.412907e+001 
3765625000  -3.405654e+001  -3.627689e+001 
3768750000  -3.404503e+001  -3.464920e+001 
3771875000  -3.233585e+001  -3.654578e+001 
3775000000  -3.212913e+001  -4.427085e+001 
3778125000  -3.242217e+001  -4.652253e+001 
3781250000  -3.228804e+001  -4.893702e+001 
3784375000  -3.216781e+001  -5.105536e+001 
3787500000  -3.154948e+001  -5.432074e+001 
3790625000  -3.197871e+001  -5.991611e+001 
3793750000  -3.224176e+001  -6.118839e+001 
3796875000  -3.130879e+001  -6.205156e+001 
3800000000  -2.973369e+001  -6.534082e+001 
3803125000  -3.049221e+001  -7.231687e+001 
3806250000  -3.123692e+001  -7.517031e+001 
3809375000  -3.092933e+001  -7.628313e+001 
3812500000  -3.020263e+001  -8.121149e+001 
3815625000  -3.086225e+001  -8.855246e+001 
3818750000  -3.191664e+001  -8.907568e+001 
3821875000  -3.198353e+001  -8.119250e+001 
3825000000  -2.995742e+001  -7.654576e+001 
3828125000  -2.857172e+001  -9.024551e+001 
3831250000  -2.910198e+001  -1.045399e+002 
3834375000  -3.048152e+001  -1.061340e+002 
3837500000  -3.140069e+001  -1.006075e+002 
3840625000  -3.025101e+001  -1.016208e+002 
3843750000  -2.913249e+001  -1.110631e+002 
3846875000  -2.979310e+001  -1.182839e+002 
3850000000  -3.104262e+001  -1.130660e+002 
3853125000  -3.028691e+001  -1.106114e+002 
3856250000  -3.030494e+001  -1.150231e+002 
3859375000  -2.951036e+001  -1.198561e+002 
3862500000  -2.907514e+001  -1.270756e+002 
3865625000  -2.938770e+001  -1.313506e+002 
3868750000  -2.941067e+001  -1.318202e+002 
3871875000  -2.868534e+001  -1.347088e+002 
3875000000  -2.878401e+001  -1.432808e+002 
3878125000  -2.976966e+001  -1.452879e+002 
3881250000  -2.988897e+001  -1.429288e+002 
3884375000  -2.932114e+001  -1.474910e+002 
3887500000  -2.934405e+001  -1.513789e+002 
3890625000  -2.994439e+001  -1.544108e+002 
3893750000  -3.037851e+001  -1.551890e+002 
3896875000  -3.046727e+001  -1.543874e+002 
3900000000  -3.074434e+001  -1.554451e+002 
3903125000  -3.051159e+001  -1.575257e+002 
3906250000  -3.015957e+001  -1.583049e+002 
3909375000  -2.941591e+001  -1.608347e+002 
3912500000  -2.949122e+001  -1.687921e+002 
3915625000  -3.068005e+001  -1.671109e+002 
3918750000  -3.071823e+001  -1.646751e+002 
3921875000  -3.025822e+001  -1.667863e+002 
3925000000  -2.945990e+001  -1.676866e+002 
3928125000  -2.879708e+001  -1.736711e+002 
3931250000  -2.921216e+001  -1.778100e+002 
3934375000  -2.942220e+001  -1.769621e+002 
3937500000  -2.960156e+001  -1.781116e+002 
3940625000  -3.005594e+001  -1.781029e+002 
3943750000  -2.910990e+001  -1.766627e+002 
3946875000  -2.784738e+001  1.778984e+002 
3950000000  -2.840234e+001  1.711024e+002 
3953125000  -2.919609e+001  1.712416e+002 
3956250000  -2.832330e+001  1.744036e+002 
3959375000  -2.705284e+001  1.708227e+002 
3962500000  -2.652311e+001  1.670237e+002 
3965625000  -2.615719e+001  1.580523e+002 
3968750000  -2.708439e+001  1.509921e+002 
3971875000  -2.743044e+001  1.492829e+002 
3975000000  -2.681862e+001  1.475976e+002 
3978125000  -2.664538e+001  1.464000e+002 
3981250000  -2.639092e+001  1.420101e+002 
3984375000  -2.659170e+001  1.359340e+002 
3987500000  -2.708090e+001  1.335577e+002 
3990625000  -2.709433e+001  1.328636e+002 
3993750000  -2.727931e+001  1.291134e+002 
3996875000  -2.728652e+001  1.268906e+002 
4000000000  -2.743527e+001  1.246703e+002 
4003125000  -2.797826e+001  1.270802e+002 
4006250000  -2.653453e+001  1.279164e+002 
4009375000  -2.529107e+001  1.156450e+002 
4012500000  -2.634120e+001  1.084401e+002 
4015625000  -2.761316e+001  1.087221e+002 
4018750000  -2.781495e+001  1.107146e+002 
4021875000  -2.714795e+001  1.092608e+002 
4025000000  -2.670120e+001  1.047381e+002 
4028125000  -2.666778e+001  1.007831e+002 
4031250000  -2.715360e+001  9.685923e+001 
4034375000  -2.738632e+001  9.696529e+001 
4037500000  -2.683906e+001  9.891019e+001 
4040625000  -2.680366e+001  9.555845e+001 
4043750000  -2.717306e+001  9.515061e+001 
4046875000  -2.670028e+001  9.463740e+001 
4050000000  -2.617332e+001  8.914219e+001 
4053125000  -2.665932e+001  8.663902e+001 
4056250000  -2.724311e+001  9.038071e+001 
4059375000  -2.609579e+001  9.263244e+001 
4062500000  -2.475330e+001  8.798643e+001 
4065625000  -2.458138e+001  8.431607e+001 
4068750000  -2.423595e+001  7.976350e+001 
4071875000  -2.356331e+001  7.164517e+001 
4075000000  -2.395049e+001  6.551624e+001 
4078125000  -2.444261e+001  6.400710e+001 
4081250000  -2.393102e+001  6.171768e+001 
4084375000  -2.361655e+001  5.498252e+001 
4087500000  -2.390053e+001  4.863579e+001 
4090625000  -2.453979e+001  4.715275e+001 
4093750000  -2.436656e+001  4.791521e+001 
4096875000  -2.391728e+001  4.236269e+001 
4100000000  -2.460596e+001  3.545773e+001 
4103125000  -2.546190e+001  3.606483e+001 
4106250000  -2.525060e+001  4.067104e+001 
4109375000  -2.432203e+001  4.004651e+001 
4112500000  -2.378495e+001  3.332298e+001 
4115625000  -2.407660e+001  2.901983e+001 
4118750000  -2.418083e+001  2.618072e+001 
4121875000  -2.390382e+001  2.126423e+001 
4125000000  -2.426013e+001  1.641343e+001 
4128125000  -2.526582e+001  1.726140e+001 
4131250000  -2.484286e+001  2.534301e+001 
4134375000  -2.250367e+001  2.046238e+001 
4137500000  -2.237998e+001  1.641466e+000 
4140625000  -2.444039e+001  -5.727268e+000 
4143750000  -2.584149e+001  -7.533721e-001 
4146875000  -2.530062e+001  6.402773e+000 
4150000000  -2.441857e+001  2.936722e+000 
4153125000  -2.425277e+001  -3.705777e+000 
4156250000  -2.515445e+001  -6.463227e+000 
4159375000  -2.546199e+001  -1.376320e+000 
4162500000  -2.437797e+001  2.307718e+000 
4165625000  -2.324146e+001  -9.081140e-001 
4168750000  -2.257921e+001  -8.172872e+000 
4171875000  -2.251587e+001  -1.782278e+001 
4175000000  -2.308598e+001  -2.344242e+001 
4178125000  -2.366023e+001  -2.420845e+001 
4181250000  -2.356822e+001  -2.463600e+001 
4184375000  -2.341539e+001  -2.775337e+001 
4187500000  -2.344657e+001  -3.067901e+001 
4190625000  -2.329219e+001  -3.628389e+001 
4193750000  -2.405470e+001  -3.998711e+001 
4196875000  -2.480828e+001  -4.010136e+001 
4200000000  -2.566766e+001  -3.783387e+001 
4203125000  -2.563379e+001  -2.440191e+001 
4206250000  -2.237378e+001  -2.283379e+001 
4209375000  -2.110699e+001  -4.376149e+001 
4212500000  -2.309847e+001  -5.224262e+001 
4215625000  -2.408193e+001  -4.533908e+001 
4218750000  -2.265624e+001  -3.859901e+001 
4221875000  -2.027914e+001  -4.833296e+001 
4225000000  -2.151184e+001  -6.154963e+001 
4228125000  -2.221688e+001  -5.670079e+001 
4231250000  -2.072531e+001  -6.048166e+001 
4234375000  -2.065508e+001  -6.839452e+001 
4237500000  -2.024413e+001  -7.221976e+001 
4240625000  -2.032402e+001  -8.090651e+001 
4243750000  -2.129146e+001  -8.702438e+001 
4246875000  -2.210810e+001  -8.682845e+001 
4250000000  -2.214631e+001  -8.426840e+001 
4253125000  -2.155086e+001  -8.653173e+001 
4256250000  -2.174848e+001  -9.046002e+001 
4259375000  -2.156646e+001  -9.272494e+001 
4262500000  -2.153375e+001  -9.673399e+001 
4265625000  -2.174432e+001  -9.618832e+001 
4268750000  -2.094725e+001  -1.000195e+002 
4271875000  -2.062154e+001  -1.057732e+002 
4275000000  -1.999858e+001  -1.124381e+002 
4278125000  -2.053042e+001  -1.240749e+002 
4281250000  -2.228927e+001  -1.260067e+002 
4284375000  -2.205087e+001  -1.257521e+002 
4287500000  -2.293673e+001  -1.296920e+002 
4290625000  -2.425050e+001  -1.194547e+002 
4293750000  -2.229624e+001  -1.135270e+002 
4296875000  -2.090355e+001  -1.250475e+002 
4300000000  -2.176631e+001  -1.339273e+002 
4303125000  -2.281764e+001  -1.328507e+002 
4306250000  -2.214958e+001  -1.273179e+002 
4309375000  -2.075067e+001  -1.299711e+002 
4312500000  -2.065135e+001  -1.383294e+002 
4315625000  -2.095781e+001  -1.439366e+002 
4318750000  -2.131066e+001  -1.472076e+002 
4321875000  -2.147668e+001  -1.465610e+002 
4325000000  -2.084933e+001  -1.465439e+002 
4328125000  -2.033272e+001  -1.528943e+002 
4331250000  -2.040051e+001  -1.609065e+002 
4334375000  -2.081553e+001  -1.656127e+002 
4337500000  -2.160452e+001  -1.680198e+002 
4340625000  -2.204908e+001  -1.652611e+002 
4343750000  -2.150667e+001  -1.645025e+002 
4346875000  -2.113099e+001  -1.698889e+002 
4350000000  -2.106378e+001  -1.746229e+002 
4353125000  -2.112129e+001  1.774574e+002 
4356250000  -2.283858e+001  1.757879e+002 
4359375000  -2.346815e+001  -1.708872e+002 
4362500000  -2.087275e+001  -1.686055e+002 
4365625000  -1.930615e+001  1.799570e+002 
4368750000  -2.006195e+001  1.682749e+002 
4371875000  -2.114811e+001  1.682683e+002 
4375000000  -2.085970e+001  1.691136e+002 
4378125000  -2.027333e+001  1.638958e+002 
4381250000  -2.034195e+001  1.582840e+002 
4384375000  -2.015084e+001  1.538299e+002 
4387500000  -2.080365e+001  1.475932e+002 
4390625000  -2.182070e+001  1.482729e+002 
4393750000  -2.127294e+001  1.505270e+002 
4396875000  -2.059892e+001  1.483225e+002 
4400000000  -2.009416e+001  1.414402e+002 
4403125000  -2.065028e+001  1.336607e+002 
4406250000  -2.146787e+001  1.324721e+002 
4409375000  -2.144734e+001  1.298049e+002 
4412500000  -2.236255e+001  1.268679e+002 
4415625000  -2.285407e+001  1.317329e+002 
4418750000  -2.173987e+001  1.368583e+002 
