!Agilent Technologies,E8363B,MY43030201,A.06.04.32
!Agilent E8363B: A.06.04.32
!Date: Tuesday, November 11, 2014 20:53:55
!Correction: S21(Response(S21)) 
!S1P File: Measurement: S21:
# Hz S  dB   R 50
3000000000  -2.664714e+001  1.511729e+002 
3003125000  -2.801780e+001  1.465288e+002 
3006250000  -2.809182e+001  1.438563e+002 
3009375000  -2.841953e+001  1.492883e+002 
3012500000  -2.788328e+001  1.484364e+002 
3015625000  -2.696829e+001  1.414036e+002 
3018750000  -2.779521e+001  1.408743e+002 
3021875000  -2.653692e+001  1.420419e+002 
3025000000  -2.521360e+001  1.387122e+002 
3028125000  -2.423708e+001  1.338022e+002 
3031250000  -2.319873e+001  1.225944e+002 
3034375000  -2.283075e+001  1.096018e+002 
3037500000  -2.319979e+001  9.788462e+001 
3040625000  -2.451327e+001  9.277806e+001 
3043750000  -2.523302e+001  8.835735e+001 
3046875000  -2.538036e+001  8.206842e+001 
3050000000  -2.709274e+001  7.519115e+001 
3053125000  -2.716018e+001  8.160604e+001 
3056250000  -2.656117e+001  8.449676e+001 
3059375000  -2.677391e+001  8.384292e+001 
3062500000  -2.528747e+001  8.040183e+001 
3065625000  -2.510028e+001  7.440652e+001 
3068750000  -2.477563e+001  6.754694e+001 
3071875000  -2.473003e+001  6.449533e+001 
3075000000  -2.470320e+001  6.074179e+001 
3078125000  -2.445004e+001  5.618560e+001 
3081250000  -2.509347e+001  5.202312e+001 
3084375000  -2.431107e+001  4.855917e+001 
3087500000  -2.418216e+001  4.485011e+001 
3090625000  -2.389189e+001  3.495849e+001 
3093750000  -2.435589e+001  2.715409e+001 
3096875000  -2.563815e+001  2.108019e+001 
3100000000  -2.571058e+001  1.967125e+001 
3103125000  -2.612809e+001  2.119660e+001 
3106250000  -2.584145e+001  1.776106e+001 
3109375000  -2.609938e+001  1.383707e+001 
3112500000  -2.621540e+001  1.301480e+001 
3115625000  -2.600692e+001  8.825179e+000 
3118750000  -2.651717e+001  9.999357e+000 
3121875000  -2.587123e+001  2.004258e+000 
3125000000  -2.706048e+001  -1.615612e+000 
3128125000  -2.822314e+001  6.836816e+000 
3131250000  -2.601883e+001  7.273437e+000 
3134375000  -2.468108e+001  -6.266875e+000 
3137500000  -2.533743e+001  -1.998597e+001 
3140625000  -2.694404e+001  -2.142812e+001 
3143750000  -2.793823e+001  -1.765802e+001 
3146875000  -2.752285e+001  -1.563341e+001 
3150000000  -2.652279e+001  -1.351605e+001 
3153125000  -2.651999e+001  -2.100593e+001 
3156250000  -2.751595e+001  -1.549018e+001 
3159375000  -2.586713e+001  -1.268477e+001 
3162500000  -2.389296e+001  -2.552604e+001 
3165625000  -2.482489e+001  -3.703223e+001 
3168750000  -2.522700e+001  -3.588301e+001 
3171875000  -2.425984e+001  -4.027271e+001 
3175000000  -2.492377e+001  -4.798825e+001 
3178125000  -2.467314e+001  -4.618268e+001 
3181250000  -2.352170e+001  -5.007444e+001 
3184375000  -2.272833e+001  -6.243736e+001 
3187500000  -2.382835e+001  -7.744183e+001 
3190625000  -2.660295e+001  -8.474917e+001 
3193750000  -2.715386e+001  -7.538297e+001 
3196875000  -2.678721e+001  -7.032656e+001 
3200000000  -2.588880e+001  -7.188852e+001 
3203125000  -2.501401e+001  -7.782641e+001 
3206250000  -2.533613e+001  -8.408413e+001 
3209375000  -2.488387e+001  -8.885848e+001 
3212500000  -2.501196e+001  -9.583396e+001 
3215625000  -2.517351e+001  -9.932600e+001 
3218750000  -2.584553e+001  -1.057729e+002 
3221875000  -2.677596e+001  -1.108195e+002 
3225000000  -2.640610e+001  -1.119670e+002 
3228125000  -2.676846e+001  -1.161423e+002 
3231250000  -2.751866e+001  -1.187019e+002 
3234375000  -2.738783e+001  -1.179193e+002 
3237500000  -2.743654e+001  -1.197070e+002 
3240625000  -2.704833e+001  -1.215470e+002 
3243750000  -2.667386e+001  -1.280016e+002 
3246875000  -2.722939e+001  -1.343353e+002 
3250000000  -2.767881e+001  -1.362325e+002 
3253125000  -2.776902e+001  -1.380625e+002 
3256250000  -2.759364e+001  -1.441604e+002 
3259375000  -2.794364e+001  -1.516151e+002 
3262500000  -2.924751e+001  -1.544240e+002 
3265625000  -2.986459e+001  -1.508163e+002 
3268750000  -2.987568e+001  -1.482027e+002 
3271875000  -2.965442e+001  -1.472293e+002 
3275000000  -2.848824e+001  -1.526221e+002 
3278125000  -2.900623e+001  -1.585457e+002 
3281250000  -2.929395e+001  -1.567933e+002 
3284375000  -2.885668e+001  -1.624668e+002 
3287500000  -2.902139e+001  -1.653578e+002 
3290625000  -2.938571e+001  -1.698607e+002 
3293750000  -2.904068e+001  -1.752858e+002 
3296875000  -3.014668e+001  -1.753470e+002 
3300000000  -3.001439e+001  -1.739913e+002 
3303125000  -2.888165e+001  -1.780334e+002 
3306250000  -2.866489e+001  1.755691e+002 
3309375000  -2.840859e+001  1.705019e+002 
3312500000  -2.840438e+001  1.599049e+002 
3315625000  -2.949209e+001  1.526190e+002 
3318750000  -3.082557e+001  1.499956e+002 
3321875000  -3.199325e+001  1.495426e+002 
3325000000  -3.259589e+001  1.544910e+002 
3328125000  -3.235791e+001  1.563569e+002 
3331250000  -3.112013e+001  1.638108e+002 
3334375000  -2.857002e+001  1.542493e+002 
3337500000  -2.861506e+001  1.352739e+002 
3340625000  -3.002676e+001  1.244453e+002 
3343750000  -3.195124e+001  1.235014e+002 
3346875000  -3.246782e+001  1.248082e+002 
3350000000  -3.186419e+001  1.231237e+002 
3353125000  -3.198779e+001  1.188992e+002 
3356250000  -3.169480e+001  1.112313e+002 
3359375000  -3.258176e+001  1.030366e+002 
3362500000  -3.386038e+001  9.735448e+001 
3365625000  -3.450772e+001  9.574909e+001 
3368750000  -3.535399e+001  9.491012e+001 
3371875000  -3.586972e+001  9.063126e+001 
3375000000  -3.734316e+001  8.842975e+001 
3378125000  -3.827248e+001  8.819254e+001 
3381250000  -4.005719e+001  9.643217e+001 
3384375000  -3.912956e+001  1.174165e+002 
3387500000  -3.607298e+001  1.035986e+002 
3390625000  -3.773384e+001  8.423077e+001 
3393750000  -3.975310e+001  8.865742e+001 
3396875000  -3.859710e+001  9.218829e+001 
3400000000  -3.863549e+001  8.558875e+001 
3403125000  -3.972580e+001  7.970887e+001 
3406250000  -4.040248e+001  8.164130e+001 
3409375000  -4.111391e+001  7.802453e+001 
3412500000  -4.182702e+001  8.025735e+001 
3415625000  -4.268556e+001  8.415443e+001 
3418750000  -4.325709e+001  8.643942e+001 
3421875000  -4.350723e+001  9.619775e+001 
3425000000  -4.256323e+001  9.741660e+001 
3428125000  -4.151510e+001  9.626401e+001 
3431250000  -4.179869e+001  9.394740e+001 
3434375000  -4.147306e+001  9.045377e+001 
3437500000  -4.211731e+001  8.653892e+001 
3440625000  -4.222523e+001  9.279974e+001 
3443750000  -4.071597e+001  9.478783e+001 
3446875000  -3.992812e+001  8.817997e+001 
3450000000  -4.002061e+001  7.856701e+001 
3453125000  -4.008802e+001  7.038394e+001 
3456250000  -4.145756e+001  6.530736e+001 
3459375000  -4.249387e+001  6.904993e+001 
3462500000  -4.234908e+001  6.883376e+001 
3465625000  -4.276885e+001  6.394983e+001 
3468750000  -4.293875e+001  6.174128e+001 
3471875000  -4.295929e+001  6.088467e+001 
3475000000  -4.281798e+001  5.820093e+001 
3478125000  -4.361974e+001  5.280731e+001 
3481250000  -4.491660e+001  5.101762e+001 
3484375000  -4.665467e+001  5.780447e+001 
3487500000  -4.626041e+001  5.817790e+001 
3490625000  -4.576443e+001  5.870174e+001 
3493750000  -4.631475e+001  5.145901e+001 
3496875000  -4.719310e+001  5.446950e+001 
3500000000  -4.916575e+001  6.234179e+001 
3503125000  -4.855589e+001  6.707572e+001 
3506250000  -4.759725e+001  7.261649e+001 
3509375000  -4.774939e+001  6.701623e+001 
3512500000  -4.800628e+001  6.534768e+001 
3515625000  -4.855644e+001  6.846867e+001 
3518750000  -4.915711e+001  7.466541e+001 
3521875000  -4.805779e+001  7.867251e+001 
3525000000  -4.843309e+001  8.658620e+001 
3528125000  -4.805291e+001  9.358686e+001 
3531250000  -4.652670e+001  9.241628e+001 
3534375000  -4.547729e+001  8.657219e+001 
3537500000  -4.510069e+001  8.380624e+001 
3540625000  -4.623278e+001  8.349883e+001 
3543750000  -4.614742e+001  8.473558e+001 
3546875000  -4.528582e+001  1.005080e+002 
3550000000  -4.301853e+001  1.008481e+002 
3553125000  -4.158654e+001  8.464997e+001 
3556250000  -4.255000e+001  7.878368e+001 
3559375000  -4.217916e+001  8.289795e+001 
3562500000  -4.095300e+001  7.374648e+001 
3565625000  -4.189504e+001  6.755717e+001 
3568750000  -4.172599e+001  6.914365e+001 
3571875000  -4.171476e+001  7.042295e+001 
3575000000  -4.120084e+001  6.657445e+001 
3578125000  -4.176226e+001  6.222484e+001 
3581250000  -4.130410e+001  6.188781e+001 
3584375000  -4.089291e+001  6.157078e+001 
3587500000  -4.003789e+001  5.581997e+001 
3590625000  -4.013271e+001  4.724619e+001 
3593750000  -4.148008e+001  4.439922e+001 
3596875000  -4.147930e+001  5.372380e+001 
3600000000  -3.982169e+001  4.912589e+001 
3603125000  -3.979428e+001  3.836242e+001 
3606250000  -4.047747e+001  3.478090e+001 
3609375000  -4.094796e+001  3.413366e+001 
3612500000  -4.153587e+001  3.078303e+001 
3615625000  -4.127882e+001  2.928172e+001 
3618750000  -4.185160e+001  3.238014e+001 
3621875000  -4.151443e+001  3.151225e+001 
3625000000  -4.171505e+001  3.119921e+001 
3628125000  -4.191793e+001  3.085543e+001 
3631250000  -4.114814e+001  2.432322e+001 
3634375000  -4.221469e+001  2.775230e+001 
3637500000  -4.211256e+001  3.243207e+001 
3640625000  -4.091073e+001  3.589469e+001 
3643750000  -4.073690e+001  2.761207e+001 
3646875000  -4.109097e+001  2.274776e+001 
3650000000  -4.178942e+001  2.139654e+001 
3653125000  -4.113972e+001  2.319073e+001 
3656250000  -4.158931e+001  2.124559e+001 
3659375000  -4.197421e+001  2.564354e+001 
3662500000  -4.114028e+001  2.293760e+001 
3665625000  -4.129766e+001  2.334928e+001 
3668750000  -4.013475e+001  2.656127e+001 
3671875000  -3.895308e+001  2.055151e+001 
3675000000  -3.953035e+001  1.493890e+001 
3678125000  -4.003636e+001  1.442182e+001 
3681250000  -3.976160e+001  1.522705e+001 
3684375000  -3.937726e+001  1.456561e+001 
3687500000  -3.974277e+001  1.245514e+001 
3690625000  -3.960303e+001  1.008779e+001 
3693750000  -4.004728e+001  1.152328e+001 
3696875000  -3.980425e+001  1.585709e+001 
3700000000  -3.877158e+001  1.262684e+001 
3703125000  -3.855690e+001  1.070977e+001 
3706250000  -3.917227e+001  1.235676e+001 
3709375000  -3.849117e+001  1.518616e+001 
3712500000  -3.729439e+001  1.561958e+001 
3715625000  -3.628420e+001  9.537678e+000 
3718750000  -3.561572e+001  6.379395e+000 
3721875000  -3.509405e+001  8.924324e-001 
3725000000  -3.509374e+001  -3.672980e+000 
3728125000  -3.519675e+001  -4.918425e+000 
3731250000  -3.457322e+001  -5.495227e+000 
3734375000  -3.357442e+001  -1.126410e+001 
3737500000  -3.405705e+001  -1.782210e+001 
3740625000  -3.482208e+001  -2.106844e+001 
3743750000  -3.439479e+001  -2.424643e+001 
3746875000  -3.451358e+001  -2.687810e+001 
3750000000  -3.472995e+001  -2.758520e+001 
3753125000  -3.439278e+001  -2.880959e+001 
3756250000  -3.432981e+001  -2.928775e+001 
3759375000  -3.402516e+001  -2.975756e+001 
3762500000  -3.352401e+001  -3.388939e+001 
3765625000  -3.409845e+001  -3.595237e+001 
3768750000  -3.412377e+001  -3.445343e+001 
3771875000  -3.242727e+001  -3.649305e+001 
3775000000  -3.216770e+001  -4.444835e+001 
3778125000  -3.247357e+001  -4.517205e+001 
3781250000  -3.229818e+001  -4.923192e+001 
3784375000  -3.219103e+001  -5.019740e+001 
3787500000  -3.150575e+001  -5.463521e+001 
3790625000  -3.212165e+001  -6.021995e+001 
3793750000  -3.223689e+001  -6.028977e+001 
3796875000  -3.130026e+001  -6.102103e+001 
3800000000  -2.983394e+001  -6.526353e+001 
3803125000  -3.053764e+001  -7.199242e+001 
3806250000  -3.123241e+001  -7.449320e+001 
3809375000  -3.099454e+001  -7.576152e+001 
3812500000  -3.031691e+001  -8.044249e+001 
3815625000  -3.090249e+001  -8.769418e+001 
3818750000  -3.189675e+001  -8.991399e+001 
3821875000  -3.201752e+001  -8.105988e+001 
3825000000  -2.994736e+001  -7.595217e+001 
3828125000  -2.867237e+001  -9.012228e+001 
3831250000  -2.911744e+001  -1.041530e+002 
3834375000  -3.051287e+001  -1.058769e+002 
3837500000  -3.144602e+001  -1.003970e+002 
3840625000  -3.030802e+001  -1.011993e+002 
3843750000  -2.914632e+001  -1.113751e+002 
3846875000  -2.983270e+001  -1.183894e+002 
3850000000  -3.118151e+001  -1.130512e+002 
3853125000  -3.030349e+001  -1.096882e+002 
3856250000  -3.028278e+001  -1.146727e+002 
3859375000  -2.957119e+001  -1.189358e+002 
3862500000  -2.914166e+001  -1.263279e+002 
3865625000  -2.934433e+001  -1.315262e+002 
3868750000  -2.934987e+001  -1.319538e+002 
3871875000  -2.864401e+001  -1.343402e+002 
3875000000  -2.884181e+001  -1.427154e+002 
3878125000  -2.986500e+001  -1.454486e+002 
3881250000  -2.991956e+001  -1.420228e+002 
3884375000  -2.930046e+001  -1.468109e+002 
3887500000  -2.948012e+001  -1.515098e+002 
3890625000  -3.000804e+001  -1.535871e+002 
3893750000  -3.039671e+001  -1.544171e+002 
3896875000  -3.050197e+001  -1.539271e+002 
3900000000  -3.069160e+001  -1.554326e+002 
3903125000  -3.039472e+001  -1.572480e+002 
3906250000  -3.007009e+001  -1.580663e+002 
3909375000  -2.938883e+001  -1.597458e+002 
3912500000  -2.945942e+001  -1.684424e+002 
3915625000  -3.058024e+001  -1.668043e+002 
3918750000  -3.064375e+001  -1.649641e+002 
3921875000  -3.028233e+001  -1.668093e+002 
3925000000  -2.946293e+001  -1.674611e+002 
3928125000  -2.877362e+001  -1.733971e+002 
3931250000  -2.917594e+001  -1.771024e+002 
3934375000  -2.943948e+001  -1.772140e+002 
3937500000  -2.952718e+001  -1.786186e+002 
3940625000  -3.006150e+001  -1.778036e+002 
3943750000  -2.915308e+001  -1.759458e+002 
3946875000  -2.788559e+001  1.781837e+002 
3950000000  -2.833640e+001  1.712415e+002 
3953125000  -2.927120e+001  1.714476e+002 
3956250000  -2.833617e+001  1.738793e+002 
3959375000  -2.701595e+001  1.710699e+002 
3962500000  -2.658133e+001  1.673578e+002 
3965625000  -2.622984e+001  1.578759e+002 
3968750000  -2.708394e+001  1.514891e+002 
3971875000  -2.748474e+001  1.495692e+002 
3975000000  -2.685263e+001  1.473775e+002 
3978125000  -2.666537e+001  1.463036e+002 
3981250000  -2.643517e+001  1.421923e+002 
3984375000  -2.660549e+001  1.359799e+002 
3987500000  -2.719724e+001  1.339696e+002 
3990625000  -2.711207e+001  1.325835e+002 
3993750000  -2.730990e+001  1.294807e+002 
3996875000  -2.727947e+001  1.268732e+002 
4000000000  -2.734789e+001  1.250845e+002 
4003125000  -2.798809e+001  1.275042e+002 
4006250000  -2.660756e+001  1.280710e+002 
4009375000  -2.528729e+001  1.160313e+002 
4012500000  -2.635024e+001  1.088670e+002 
4015625000  -2.762180e+001  1.090874e+002 
4018750000  -2.779903e+001  1.111427e+002 
4021875000  -2.707748e+001  1.097784e+002 
4025000000  -2.666719e+001  1.050217e+002 
4028125000  -2.665255e+001  1.008342e+002 
4031250000  -2.708987e+001  9.769291e+001 
4034375000  -2.734276e+001  9.735047e+001 
4037500000  -2.690086e+001  9.918388e+001 
4040625000  -2.682539e+001  9.542485e+001 
4043750000  -2.713127e+001  9.559616e+001 
4046875000  -2.668694e+001  9.502443e+001 
4050000000  -2.613056e+001  8.959073e+001 
4053125000  -2.660225e+001  8.699928e+001 
4056250000  -2.723383e+001  9.086632e+001 
4059375000  -2.607050e+001  9.294788e+001 
4062500000  -2.471190e+001  8.833514e+001 
4065625000  -2.457830e+001  8.421452e+001 
4068750000  -2.425006e+001  7.964997e+001 
4071875000  -2.353209e+001  7.201449e+001 
4075000000  -2.389802e+001  6.546573e+001 
4078125000  -2.443490e+001  6.420818e+001 
4081250000  -2.393519e+001  6.156618e+001 
4084375000  -2.358330e+001  5.496722e+001 
4087500000  -2.390532e+001  4.860929e+001 
4090625000  -2.452245e+001  4.730233e+001 
4093750000  -2.436951e+001  4.837251e+001 
4096875000  -2.388313e+001  4.244047e+001 
4100000000  -2.457924e+001  3.575660e+001 
4103125000  -2.541957e+001  3.630598e+001 
4106250000  -2.525180e+001  4.113111e+001 
4109375000  -2.437398e+001  4.049112e+001 
4112500000  -2.380483e+001  3.343219e+001 
4115625000  -2.407145e+001  2.959805e+001 
4118750000  -2.421875e+001  2.634128e+001 
4121875000  -2.389687e+001  2.174947e+001 
4125000000  -2.429768e+001  1.678425e+001 
4128125000  -2.528108e+001  1.732282e+001 
4131250000  -2.489347e+001  2.544459e+001 
4134375000  -2.250876e+001  2.054855e+001 
4137500000  -2.229705e+001  1.860568e+000 
4140625000  -2.446899e+001  -5.651812e+000 
4143750000  -2.577890e+001  -4.081880e-001 
4146875000  -2.532821e+001  6.765231e+000 
4150000000  -2.442874e+001  3.192763e+000 
4153125000  -2.423920e+001  -3.075284e+000 
4156250000  -2.515585e+001  -6.212687e+000 
4159375000  -2.545702e+001  -1.285069e+000 
4162500000  -2.437709e+001  2.662544e+000 
4165625000  -2.318629e+001  -1.122518e+000 
4168750000  -2.255331e+001  -8.051619e+000 
4171875000  -2.248684e+001  -1.746506e+001 
4175000000  -2.307838e+001  -2.339380e+001 
4178125000  -2.365870e+001  -2.367399e+001 
4181250000  -2.354203e+001  -2.426384e+001 
4184375000  -2.337156e+001  -2.776396e+001 
4187500000  -2.345048e+001  -3.061633e+001 
4190625000  -2.327963e+001  -3.607948e+001 
4193750000  -2.403504e+001  -3.990729e+001 
4196875000  -2.480818e+001  -3.994476e+001 
4200000000  -2.562105e+001  -3.779312e+001 
4203125000  -2.563429e+001  -2.462145e+001 
4206250000  -2.233947e+001  -2.309532e+001 
4209375000  -2.113518e+001  -4.367506e+001 
4212500000  -2.311524e+001  -5.215168e+001 
4215625000  -2.404172e+001  -4.544983e+001 
4218750000  -2.259836e+001  -3.847747e+001 
4221875000  -2.029181e+001  -4.848833e+001 
4225000000  -2.150883e+001  -6.153184e+001 
4228125000  -2.225992e+001  -5.653154e+001 
4231250000  -2.077795e+001  -6.015201e+001 
4234375000  -2.064599e+001  -6.841002e+001 
4237500000  -2.020108e+001  -7.199070e+001 
4240625000  -2.030441e+001  -8.065447e+001 
4243750000  -2.132621e+001  -8.679153e+001 
4246875000  -2.214365e+001  -8.670364e+001 
4250000000  -2.214454e+001  -8.424261e+001 
4253125000  -2.153928e+001  -8.623681e+001 
4256250000  -2.172728e+001  -9.053529e+001 
4259375000  -2.153193e+001  -9.257845e+001 
4262500000  -2.159660e+001  -9.660708e+001 
4265625000  -2.174463e+001  -9.633714e+001 
4268750000  -2.092692e+001  -9.997504e+001 
4271875000  -2.062390e+001  -1.051227e+002 
4275000000  -1.994249e+001  -1.121365e+002 
4278125000  -2.050693e+001  -1.240966e+002 
4281250000  -2.226425e+001  -1.259474e+002 
4284375000  -2.204676e+001  -1.256359e+002 
4287500000  -2.293646e+001  -1.291886e+002 
4290625000  -2.419627e+001  -1.192271e+002 
4293750000  -2.227790e+001  -1.136004e+002 
4296875000  -2.085425e+001  -1.248489e+002 
4300000000  -2.169559e+001  -1.338349e+002 
4303125000  -2.271911e+001  -1.328770e+002 
4306250000  -2.212239e+001  -1.270888e+002 
4309375000  -2.076080e+001  -1.297887e+002 
4312500000  -2.067875e+001  -1.381717e+002 
4315625000  -2.092934e+001  -1.442312e+002 
4318750000  -2.129495e+001  -1.469809e+002 
4321875000  -2.143282e+001  -1.466655e+002 
4325000000  -2.082190e+001  -1.463718e+002 
4328125000  -2.026929e+001  -1.531965e+002 
4331250000  -2.031674e+001  -1.609098e+002 
4334375000  -2.078348e+001  -1.656963e+002 
4337500000  -2.154883e+001  -1.679661e+002 
4340625000  -2.206150e+001  -1.650295e+002 
4343750000  -2.144900e+001  -1.643811e+002 
4346875000  -2.111226e+001  -1.698967e+002 
4350000000  -2.105410e+001  -1.745378e+002 
4353125000  -2.110985e+001  1.772604e+002 
4356250000  -2.281861e+001  1.760721e+002 
4359375000  -2.343756e+001  -1.707939e+002 
4362500000  -2.084386e+001  -1.689586e+002 
4365625000  -1.928325e+001  1.797527e+002 
4368750000  -2.000073e+001  1.681182e+002 
4371875000  -2.113289e+001  1.682364e+002 
4375000000  -2.084381e+001  1.693828e+002 
4378125000  -2.022408e+001  1.638727e+002 
4381250000  -2.034239e+001  1.584667e+002 
4384375000  -2.012877e+001  1.536425e+002 
4387500000  -2.083395e+001  1.475056e+002 
4390625000  -2.183016e+001  1.483382e+002 
4393750000  -2.125268e+001  1.507231e+002 
4396875000  -2.059467e+001  1.484310e+002 
4400000000  -2.010947e+001  1.417464e+002 
4403125000  -2.062331e+001  1.336865e+002 
4406250000  -2.149147e+001  1.326184e+002 
4409375000  -2.143258e+001  1.300483e+002 
4412500000  -2.236286e+001  1.272831e+002 
4415625000  -2.280786e+001  1.317573e+002 
4418750000  -2.174939e+001  1.367697e+002 
