!Agilent Technologies,E8363B,MY43030201,A.06.04.32
!Agilent E8363B: A.06.04.32
!Date: Tuesday, November 11, 2014 20:51:52
!Correction: S21(Response(S21)) 
!S1P File: Measurement: S21:
# Hz S  dB   R 50
3000000000  -2.652569e+001  1.520147e+002 
3003125000  -2.793849e+001  1.471364e+002 
3006250000  -2.795643e+001  1.447318e+002 
3009375000  -2.834555e+001  1.497411e+002 
3012500000  -2.778334e+001  1.491219e+002 
3015625000  -2.687805e+001  1.422299e+002 
3018750000  -2.767850e+001  1.415190e+002 
3021875000  -2.643445e+001  1.428157e+002 
3025000000  -2.509645e+001  1.394745e+002 
3028125000  -2.416637e+001  1.345443e+002 
3031250000  -2.309865e+001  1.236620e+002 
3034375000  -2.274974e+001  1.104102e+002 
3037500000  -2.314847e+001  9.853241e+001 
3040625000  -2.445094e+001  9.339984e+001 
3043750000  -2.517786e+001  8.924612e+001 
3046875000  -2.529844e+001  8.279581e+001 
3050000000  -2.700366e+001  7.614337e+001 
3053125000  -2.713576e+001  8.247146e+001 
3056250000  -2.643957e+001  8.580011e+001 
3059375000  -2.668361e+001  8.519845e+001 
3062500000  -2.518892e+001  8.143898e+001 
3065625000  -2.499637e+001  7.565015e+001 
3068750000  -2.471913e+001  6.848664e+001 
3071875000  -2.466264e+001  6.552227e+001 
3075000000  -2.460753e+001  6.198690e+001 
3078125000  -2.432396e+001  5.737708e+001 
3081250000  -2.499241e+001  5.298646e+001 
3084375000  -2.423238e+001  4.950078e+001 
3087500000  -2.409708e+001  4.591861e+001 
3090625000  -2.382345e+001  3.609674e+001 
3093750000  -2.425146e+001  2.841277e+001 
3096875000  -2.560054e+001  2.203713e+001 
3100000000  -2.567754e+001  2.080317e+001 
3103125000  -2.605462e+001  2.239130e+001 
3106250000  -2.576460e+001  1.873514e+001 
3109375000  -2.602391e+001  1.520109e+001 
3112500000  -2.617751e+001  1.423069e+001 
3115625000  -2.594205e+001  9.699430e+000 
3118750000  -2.644279e+001  1.115935e+001 
3121875000  -2.575497e+001  3.019707e+000 
3125000000  -2.695379e+001  -3.621483e-001 
3128125000  -2.819767e+001  8.113384e+000 
3131250000  -2.594646e+001  8.299670e+000 
3134375000  -2.463559e+001  -5.577262e+000 
3137500000  -2.525089e+001  -1.910280e+001 
3140625000  -2.693410e+001  -2.112107e+001 
3143750000  -2.796622e+001  -1.651610e+001 
3146875000  -2.751096e+001  -1.462900e+001 
3150000000  -2.648052e+001  -1.247715e+001 
3153125000  -2.648890e+001  -2.030938e+001 
3156250000  -2.746129e+001  -1.478292e+001 
3159375000  -2.589758e+001  -1.186954e+001 
3162500000  -2.383080e+001  -2.488290e+001 
3165625000  -2.482557e+001  -3.583168e+001 
3168750000  -2.519502e+001  -3.491251e+001 
3171875000  -2.426709e+001  -3.909819e+001 
3175000000  -2.487673e+001  -4.675116e+001 
3178125000  -2.467889e+001  -4.522273e+001 
3181250000  -2.349079e+001  -4.914645e+001 
3184375000  -2.268157e+001  -6.133578e+001 
3187500000  -2.384856e+001  -7.638056e+001 
3190625000  -2.659949e+001  -8.395219e+001 
3193750000  -2.715691e+001  -7.433585e+001 
3196875000  -2.677662e+001  -6.890410e+001 
3200000000  -2.585642e+001  -7.080506e+001 
3203125000  -2.499041e+001  -7.661185e+001 
3206250000  -2.532525e+001  -8.276014e+001 
3209375000  -2.482754e+001  -8.785191e+001 
3212500000  -2.496654e+001  -9.439120e+001 
3215625000  -2.512902e+001  -9.867114e+001 
3218750000  -2.585446e+001  -1.051309e+002 
3221875000  -2.683631e+001  -1.099819e+002 
3225000000  -2.643181e+001  -1.106525e+002 
3228125000  -2.674273e+001  -1.152985e+002 
3231250000  -2.751849e+001  -1.178043e+002 
3234375000  -2.732520e+001  -1.168554e+002 
3237500000  -2.737272e+001  -1.186508e+002 
3240625000  -2.703502e+001  -1.201510e+002 
3243750000  -2.670046e+001  -1.265745e+002 
3246875000  -2.717469e+001  -1.333700e+002 
3250000000  -2.763368e+001  -1.353310e+002 
3253125000  -2.776073e+001  -1.367810e+002 
3256250000  -2.767868e+001  -1.429252e+002 
3259375000  -2.796086e+001  -1.501213e+002 
3262500000  -2.923333e+001  -1.534037e+002 
3265625000  -2.989140e+001  -1.496939e+002 
3268750000  -2.983563e+001  -1.472873e+002 
3271875000  -2.961902e+001  -1.458909e+002 
3275000000  -2.852201e+001  -1.513336e+002 
3278125000  -2.903470e+001  -1.574923e+002 
3281250000  -2.928247e+001  -1.553111e+002 
3284375000  -2.884862e+001  -1.616660e+002 
3287500000  -2.900710e+001  -1.641315e+002 
3290625000  -2.943754e+001  -1.685397e+002 
3293750000  -2.917543e+001  -1.742702e+002 
3296875000  -3.013260e+001  -1.738203e+002 
3300000000  -3.004484e+001  -1.725640e+002 
3303125000  -2.888149e+001  -1.770372e+002 
3306250000  -2.865958e+001  1.767145e+002 
3309375000  -2.844167e+001  1.713945e+002 
3312500000  -2.846059e+001  1.613178e+002 
3315625000  -2.947098e+001  1.537453e+002 
3318750000  -3.083178e+001  1.509363e+002 
3321875000  -3.207524e+001  1.512895e+002 
3325000000  -3.247752e+001  1.559818e+002 
3328125000  -3.234721e+001  1.571367e+002 
3331250000  -3.122583e+001  1.647840e+002 
3334375000  -2.860081e+001  1.554655e+002 
3337500000  -2.864239e+001  1.367806e+002 
3340625000  -3.000567e+001  1.262039e+002 
3343750000  -3.191746e+001  1.246305e+002 
3346875000  -3.244717e+001  1.261634e+002 
3350000000  -3.187774e+001  1.252630e+002 
3353125000  -3.190544e+001  1.207151e+002 
3356250000  -3.165607e+001  1.129547e+002 
3359375000  -3.249026e+001  1.046718e+002 
3362500000  -3.379112e+001  9.909007e+001 
3365625000  -3.436535e+001  9.761065e+001 
3368750000  -3.538067e+001  9.634746e+001 
3371875000  -3.573791e+001  9.169114e+001 
3375000000  -3.730650e+001  9.102106e+001 
3378125000  -3.837239e+001  9.096757e+001 
3381250000  -4.006178e+001  9.800067e+001 
3384375000  -3.908707e+001  1.188344e+002 
3387500000  -3.579897e+001  1.058272e+002 
3390625000  -3.778979e+001  8.674677e+001 
3393750000  -3.950529e+001  8.958968e+001 
3396875000  -3.859985e+001  9.492429e+001 
3400000000  -3.851504e+001  8.619147e+001 
3403125000  -3.958184e+001  8.165181e+001 
3406250000  -4.025077e+001  8.461150e+001 
3409375000  -4.079940e+001  8.007731e+001 
3412500000  -4.184357e+001  8.120712e+001 
3415625000  -4.252899e+001  8.624335e+001 
3418750000  -4.282003e+001  9.034955e+001 
3421875000  -4.343512e+001  9.643922e+001 
3425000000  -4.241888e+001  9.992575e+001 
3428125000  -4.142988e+001  9.903156e+001 
3431250000  -4.135093e+001  9.577519e+001 
3434375000  -4.117242e+001  9.335617e+001 
3437500000  -4.168607e+001  9.131937e+001 
3440625000  -4.202607e+001  9.391867e+001 
3443750000  -4.065167e+001  9.620457e+001 
3446875000  -3.974342e+001  8.958504e+001 
3450000000  -3.958649e+001  8.252844e+001 
3453125000  -3.983517e+001  7.267129e+001 
3456250000  -4.109040e+001  6.897414e+001 
3459375000  -4.230122e+001  7.040361e+001 
3462500000  -4.220457e+001  7.228554e+001 
3465625000  -4.228924e+001  6.695718e+001 
3468750000  -4.228626e+001  6.309656e+001 
3471875000  -4.254753e+001  6.424951e+001 
3475000000  -4.272149e+001  6.045029e+001 
3478125000  -4.343514e+001  5.383182e+001 
3481250000  -4.442171e+001  5.443650e+001 
3484375000  -4.623946e+001  5.832779e+001 
3487500000  -4.576249e+001  6.123233e+001 
3490625000  -4.529099e+001  5.893067e+001 
3493750000  -4.611037e+001  5.524400e+001 
3496875000  -4.732611e+001  5.778538e+001 
3500000000  -4.776051e+001  6.401575e+001 
3503125000  -4.742191e+001  7.042259e+001 
3506250000  -4.695579e+001  7.109935e+001 
3509375000  -4.703586e+001  6.586604e+001 
3512500000  -4.775715e+001  6.440752e+001 
3515625000  -4.784040e+001  6.963826e+001 
3518750000  -4.867719e+001  7.530156e+001 
3521875000  -4.787309e+001  7.899905e+001 
3525000000  -4.802303e+001  7.790273e+001 
3528125000  -4.778443e+001  9.131946e+001 
3531250000  -4.612017e+001  9.079099e+001 
3534375000  -4.514849e+001  8.419277e+001 
3537500000  -4.556517e+001  7.973440e+001 
3540625000  -4.544220e+001  8.008625e+001 
3543750000  -4.622515e+001  8.522643e+001 
3546875000  -4.585567e+001  1.001399e+002 
3550000000  -4.311357e+001  9.751723e+001 
3553125000  -4.168763e+001  8.251612e+001 
3556250000  -4.266852e+001  7.880197e+001 
3559375000  -4.247499e+001  7.841194e+001 
3562500000  -4.088432e+001  7.319003e+001 
3565625000  -4.219817e+001  6.623124e+001 
3568750000  -4.204609e+001  6.866920e+001 
3571875000  -4.173201e+001  6.993300e+001 
3575000000  -4.121384e+001  6.543998e+001 
3578125000  -4.189838e+001  6.037212e+001 
3581250000  -4.145538e+001  6.110034e+001 
3584375000  -4.109615e+001  6.138265e+001 
3587500000  -3.998657e+001  5.535431e+001 
3590625000  -4.062312e+001  4.628606e+001 
3593750000  -4.147491e+001  4.382518e+001 
3596875000  -4.155167e+001  5.275309e+001 
3600000000  -3.998306e+001  4.865321e+001 
3603125000  -4.020630e+001  3.776244e+001 
3606250000  -4.050417e+001  3.435849e+001 
3609375000  -4.095061e+001  3.323001e+001 
3612500000  -4.165829e+001  3.179354e+001 
3615625000  -4.162674e+001  3.096965e+001 
3618750000  -4.225406e+001  3.252773e+001 
3621875000  -4.137741e+001  3.021616e+001 
3625000000  -4.179427e+001  3.197668e+001 
3628125000  -4.181572e+001  3.143804e+001 
3631250000  -4.135649e+001  2.653271e+001 
3634375000  -4.219482e+001  2.708262e+001 
3637500000  -4.202103e+001  3.094897e+001 
3640625000  -4.094142e+001  3.573289e+001 
3643750000  -4.041487e+001  2.837185e+001 
3646875000  -4.123374e+001  2.257795e+001 
3650000000  -4.162422e+001  2.303308e+001 
3653125000  -4.130929e+001  2.142235e+001 
3656250000  -4.163306e+001  2.063169e+001 
3659375000  -4.202555e+001  2.469571e+001 
3662500000  -4.110242e+001  2.440028e+001 
3665625000  -4.121417e+001  2.279572e+001 
3668750000  -4.022049e+001  2.370299e+001 
3671875000  -3.928778e+001  2.027978e+001 
3675000000  -3.971845e+001  1.462595e+001 
3678125000  -4.036140e+001  1.687342e+001 
3681250000  -3.962260e+001  1.698778e+001 
3684375000  -3.961993e+001  1.422998e+001 
3687500000  -3.967785e+001  1.330346e+001 
3690625000  -3.977127e+001  9.733833e+000 
3693750000  -4.031740e+001  1.285276e+001 
3696875000  -4.002430e+001  1.597667e+001 
3700000000  -3.894439e+001  1.443081e+001 
3703125000  -3.868292e+001  1.308496e+001 
3706250000  -3.939933e+001  1.164557e+001 
3709375000  -3.881862e+001  1.607335e+001 
3712500000  -3.741439e+001  1.471942e+001 
3715625000  -3.625748e+001  9.082234e+000 
3718750000  -3.572103e+001  7.806778e+000 
3721875000  -3.521666e+001  2.388866e+000 
3725000000  -3.523909e+001  -2.521321e+000 
3728125000  -3.545568e+001  -3.532767e+000 
3731250000  -3.468155e+001  -4.541874e+000 
3734375000  -3.358586e+001  -1.024095e+001 
3737500000  -3.423989e+001  -1.767964e+001 
3740625000  -3.479299e+001  -1.962946e+001 
3743750000  -3.457991e+001  -2.300388e+001 
3746875000  -3.432208e+001  -2.580241e+001 
3750000000  -3.489295e+001  -2.730838e+001 
3753125000  -3.438714e+001  -2.880639e+001 
3756250000  -3.434094e+001  -2.789786e+001 
3759375000  -3.424562e+001  -2.940835e+001 
3762500000  -3.357783e+001  -3.427216e+001 
3765625000  -3.417722e+001  -3.542768e+001 
3768750000  -3.420051e+001  -3.405919e+001 
3771875000  -3.248904e+001  -3.629907e+001 
3775000000  -3.209581e+001  -4.393156e+001 
3778125000  -3.247675e+001  -4.575203e+001 
3781250000  -3.230827e+001  -4.857911e+001 
3784375000  -3.226092e+001  -5.038478e+001 
3787500000  -3.160636e+001  -5.495116e+001 
3790625000  -3.214697e+001  -6.053680e+001 
3793750000  -3.232560e+001  -6.083350e+001 
3796875000  -3.142539e+001  -6.205139e+001 
3800000000  -2.991826e+001  -6.536638e+001 
3803125000  -3.064911e+001  -7.270716e+001 
3806250000  -3.126438e+001  -7.492524e+001 
3809375000  -3.097536e+001  -7.579568e+001 
3812500000  -3.035109e+001  -8.115263e+001 
3815625000  -3.095500e+001  -8.898180e+001 
3818750000  -3.189011e+001  -9.007972e+001 
3821875000  -3.194130e+001  -8.200597e+001 
3825000000  -3.014740e+001  -7.724934e+001 
3828125000  -2.878780e+001  -9.014771e+001 
3831250000  -2.930381e+001  -1.047628e+002 
3834375000  -3.065620e+001  -1.058688e+002 
3837500000  -3.159327e+001  -1.009329e+002 
3840625000  -3.045111e+001  -1.009192e+002 
3843750000  -2.919796e+001  -1.106322e+002 
3846875000  -2.986609e+001  -1.185610e+002 
3850000000  -3.115250e+001  -1.136510e+002 
3853125000  -3.048162e+001  -1.100605e+002 
3856250000  -3.033909e+001  -1.155690e+002 
3859375000  -2.968050e+001  -1.203055e+002 
3862500000  -2.923900e+001  -1.269097e+002 
3865625000  -2.946710e+001  -1.319171e+002 
3868750000  -2.943447e+001  -1.320643e+002 
3871875000  -2.882022e+001  -1.344413e+002 
3875000000  -2.894426e+001  -1.430934e+002 
3878125000  -2.998206e+001  -1.463411e+002 
3881250000  -3.004116e+001  -1.429185e+002 
3884375000  -2.943524e+001  -1.478053e+002 
3887500000  -2.968104e+001  -1.522158e+002 
3890625000  -3.020986e+001  -1.541908e+002 
3893750000  -3.055554e+001  -1.552811e+002 
3896875000  -3.064957e+001  -1.554793e+002 
3900000000  -3.092134e+001  -1.561431e+002 
3903125000  -3.059233e+001  -1.583251e+002 
3906250000  -3.025141e+001  -1.592630e+002 
3909375000  -2.966730e+001  -1.618398e+002 
3912500000  -2.967696e+001  -1.691276e+002 
3915625000  -3.083713e+001  -1.684925e+002 
3918750000  -3.089458e+001  -1.666736e+002 
3921875000  -3.061341e+001  -1.681539e+002 
3925000000  -2.977331e+001  -1.693148e+002 
3928125000  -2.913413e+001  -1.746935e+002 
3931250000  -2.951839e+001  -1.790395e+002 
3934375000  -2.983549e+001  -1.787672e+002 
3937500000  -2.996399e+001  -1.794082e+002 
3940625000  -3.045081e+001  -1.791222e+002 
3943750000  -2.943549e+001  -1.772319e+002 
3946875000  -2.817049e+001  1.771295e+002 
3950000000  -2.871487e+001  1.697331e+002 
3953125000  -2.961254e+001  1.699281e+002 
3956250000  -2.883068e+001  1.731472e+002 
3959375000  -2.749568e+001  1.704828e+002 
3962500000  -2.699776e+001  1.659560e+002 
3965625000  -2.660810e+001  1.572378e+002 
3968750000  -2.758075e+001  1.507738e+002 
3971875000  -2.791864e+001  1.494066e+002 
3975000000  -2.719641e+001  1.475615e+002 
3978125000  -2.703478e+001  1.457854e+002 
3981250000  -2.674630e+001  1.416413e+002 
3984375000  -2.699450e+001  1.351411e+002 
3987500000  -2.751681e+001  1.331087e+002 
3990625000  -2.749327e+001  1.324039e+002 
3993750000  -2.770997e+001  1.289769e+002 
3996875000  -2.767562e+001  1.267710e+002 
4000000000  -2.775904e+001  1.247052e+002 
4003125000  -2.829697e+001  1.264966e+002 
4006250000  -2.698535e+001  1.269556e+002 
4009375000  -2.570547e+001  1.146237e+002 
4012500000  -2.681726e+001  1.077945e+002 
4015625000  -2.808154e+001  1.077306e+002 
4018750000  -2.829967e+001  1.102068e+002 
4021875000  -2.753485e+001  1.087645e+002 
4025000000  -2.720108e+001  1.040102e+002 
4028125000  -2.714999e+001  9.982053e+001 
4031250000  -2.762806e+001  9.636157e+001 
4034375000  -2.791242e+001  9.608450e+001 
4037500000  -2.739017e+001  9.847646e+001 
4040625000  -2.733772e+001  9.483084e+001 
4043750000  -2.767128e+001  9.441418e+001 
4046875000  -2.728925e+001  9.392460e+001 
4050000000  -2.678347e+001  8.895298e+001 
4053125000  -2.727640e+001  8.667625e+001 
4056250000  -2.787670e+001  9.071159e+001 
4059375000  -2.663393e+001  9.240977e+001 
4062500000  -2.526038e+001  8.821202e+001 
4065625000  -2.513714e+001  8.353567e+001 
4068750000  -2.485030e+001  7.907326e+001 
4071875000  -2.424975e+001  7.120795e+001 
4075000000  -2.451200e+001  6.478106e+001 
4078125000  -2.515036e+001  6.373423e+001 
4081250000  -2.458026e+001  6.168018e+001 
4084375000  -2.424797e+001  5.517102e+001 
4087500000  -2.457844e+001  4.902520e+001 
4090625000  -2.515223e+001  4.781424e+001 
4093750000  -2.496561e+001  4.869727e+001 
4096875000  -2.452978e+001  4.252610e+001 
4100000000  -2.516782e+001  3.556794e+001 
4103125000  -2.604241e+001  3.649750e+001 
4106250000  -2.594456e+001  4.107031e+001 
4109375000  -2.506613e+001  4.062970e+001 
4112500000  -2.444859e+001  3.382730e+001 
4115625000  -2.482327e+001  2.974600e+001 
4118750000  -2.490134e+001  2.648731e+001 
4121875000  -2.451966e+001  2.214289e+001 
4125000000  -2.484599e+001  1.703562e+001 
4128125000  -2.585521e+001  1.707675e+001 
4131250000  -2.560014e+001  2.526196e+001 
4134375000  -2.328702e+001  2.047560e+001 
4137500000  -2.306880e+001  1.800452e+000 
4140625000  -2.520362e+001  -5.015588e+000 
4143750000  -2.647375e+001  -5.848979e-001 
4146875000  -2.615079e+001  6.940223e+000 
4150000000  -2.516999e+001  3.433214e+000 
4153125000  -2.504480e+001  -2.897518e+000 
4156250000  -2.594726e+001  -5.228733e+000 
4159375000  -2.621375e+001  -1.068459e+000 
4162500000  -2.502780e+001  3.378368e+000 
4165625000  -2.390459e+001  -8.232110e-001 
4168750000  -2.335708e+001  -8.068645e+000 
4171875000  -2.333269e+001  -1.728502e+001 
4175000000  -2.394120e+001  -2.306141e+001 
4178125000  -2.453323e+001  -2.298038e+001 
4181250000  -2.440535e+001  -2.335443e+001 
4184375000  -2.430430e+001  -2.640682e+001 
4187500000  -2.433433e+001  -2.934064e+001 
4190625000  -2.415166e+001  -3.472657e+001 
4193750000  -2.496224e+001  -3.845815e+001 
4196875000  -2.566703e+001  -3.879259e+001 
4200000000  -2.654991e+001  -3.654506e+001 
4203125000  -2.661516e+001  -2.324626e+001 
4206250000  -2.317279e+001  -2.157242e+001 
4209375000  -2.199745e+001  -4.186003e+001 
4212500000  -2.388555e+001  -5.071848e+001 
4215625000  -2.489107e+001  -4.446453e+001 
4218750000  -2.358319e+001  -3.776377e+001 
4221875000  -2.129103e+001  -4.712566e+001 
4225000000  -2.250567e+001  -5.906787e+001 
4228125000  -2.319485e+001  -5.407121e+001 
4231250000  -2.164808e+001  -5.799488e+001 
4234375000  -2.152663e+001  -6.656027e+001 
4237500000  -2.114398e+001  -6.946986e+001 
4240625000  -2.114849e+001  -7.829772e+001 
4243750000  -2.204834e+001  -8.504208e+001 
4246875000  -2.292825e+001  -8.513615e+001 
4250000000  -2.301404e+001  -8.233243e+001 
4253125000  -2.241737e+001  -8.405370e+001 
4256250000  -2.273469e+001  -8.829086e+001 
4259375000  -2.242333e+001  -9.043330e+001 
4262500000  -2.248422e+001  -9.417590e+001 
4265625000  -2.262173e+001  -9.369611e+001 
4268750000  -2.176362e+001  -9.782204e+001 
4271875000  -2.149987e+001  -1.037514e+002 
4275000000  -2.090293e+001  -1.101239e+002 
4278125000  -2.154047e+001  -1.212173e+002 
4281250000  -2.333166e+001  -1.231817e+002 
4284375000  -2.302425e+001  -1.226348e+002 
4287500000  -2.380620e+001  -1.260921e+002 
4290625000  -2.506190e+001  -1.162333e+002 
4293750000  -2.307992e+001  -1.109438e+002 
4296875000  -2.171020e+001  -1.224425e+002 
4300000000  -2.257630e+001  -1.316650e+002 
4303125000  -2.375141e+001  -1.304801e+002 
4306250000  -2.310283e+001  -1.242051e+002 
4309375000  -2.173337e+001  -1.262899e+002 
4312500000  -2.162862e+001  -1.346785e+002 
4315625000  -2.180927e+001  -1.408825e+002 
4318750000  -2.219200e+001  -1.442429e+002 
4321875000  -2.236624e+001  -1.435281e+002 
4325000000  -2.177287e+001  -1.430743e+002 
4328125000  -2.125550e+001  -1.493162e+002 
4331250000  -2.122488e+001  -1.572609e+002 
4334375000  -2.162571e+001  -1.622457e+002 
4337500000  -2.248505e+001  -1.642994e+002 
4340625000  -2.301333e+001  -1.613869e+002 
4343750000  -2.242795e+001  -1.606529e+002 
4346875000  -2.202540e+001  -1.660597e+002 
4350000000  -2.204962e+001  -1.709859e+002 
4353125000  -2.206010e+001  -1.782068e+002 
4356250000  -2.381676e+001  -1.794844e+002 
4359375000  -2.447372e+001  -1.659037e+002 
4362500000  -2.177190e+001  -1.641297e+002 
4365625000  -2.014394e+001  -1.761164e+002 
4368750000  -2.082786e+001  1.723823e+002 
4371875000  -2.201623e+001  1.729409e+002 
4375000000  -2.170219e+001  1.741393e+002 
4378125000  -2.105904e+001  1.679952e+002 
4381250000  -2.123870e+001  1.626082e+002 
4384375000  -2.105971e+001  1.581569e+002 
4387500000  -2.178624e+001  1.521825e+002 
4390625000  -2.277660e+001  1.532142e+002 
4393750000  -2.211814e+001  1.555407e+002 
4396875000  -2.141715e+001  1.533118e+002 
4400000000  -2.094319e+001  1.459894e+002 
4403125000  -2.151811e+001  1.388793e+002 
4406250000  -2.240338e+001  1.372254e+002 
4409375000  -2.233487e+001  1.350935e+002 
4412500000  -2.339543e+001  1.322062e+002 
4415625000  -2.375683e+001  1.372047e+002 
4418750000  -2.252890e+001  1.417285e+002 
