!Agilent Technologies,E8363B,MY43030201,A.06.04.32
!Agilent E8363B: A.06.04.32
!Date: Tuesday, November 11, 2014 20:58:30
!Correction: S21(Response(S21)) 
!S1P File: Measurement: S21:
# Hz S  dB   R 50
3000000000  -2.652023e+001  1.467204e+002 
3003125000  -2.793145e+001  1.419620e+002 
3006250000  -2.799711e+001  1.395058e+002 
3009375000  -2.836826e+001  1.447479e+002 
3012500000  -2.776095e+001  1.438063e+002 
3015625000  -2.686142e+001  1.369840e+002 
3018750000  -2.769317e+001  1.363781e+002 
3021875000  -2.642548e+001  1.375903e+002 
3025000000  -2.510795e+001  1.344716e+002 
3028125000  -2.413028e+001  1.292680e+002 
3031250000  -2.308805e+001  1.179505e+002 
3034375000  -2.275161e+001  1.049341e+002 
3037500000  -2.314024e+001  9.327233e+001 
3040625000  -2.446897e+001  8.824207e+001 
3043750000  -2.515134e+001  8.372715e+001 
3046875000  -2.534226e+001  7.768838e+001 
3050000000  -2.704906e+001  7.085654e+001 
3053125000  -2.706087e+001  7.737370e+001 
3056250000  -2.648685e+001  8.039734e+001 
3059375000  -2.668812e+001  8.005587e+001 
3062500000  -2.517046e+001  7.624229e+001 
3065625000  -2.493908e+001  7.017139e+001 
3068750000  -2.468740e+001  6.342451e+001 
3071875000  -2.464216e+001  6.050798e+001 
3075000000  -2.454974e+001  5.656497e+001 
3078125000  -2.431544e+001  5.199109e+001 
3081250000  -2.495490e+001  4.766106e+001 
3084375000  -2.417953e+001  4.409007e+001 
3087500000  -2.412744e+001  4.028460e+001 
3090625000  -2.377567e+001  3.050061e+001 
3093750000  -2.429487e+001  2.256279e+001 
3096875000  -2.556072e+001  1.683767e+001 
3100000000  -2.565195e+001  1.548645e+001 
3103125000  -2.603864e+001  1.673572e+001 
3106250000  -2.576369e+001  1.327040e+001 
3109375000  -2.597734e+001  9.537072e+000 
3112500000  -2.612058e+001  8.402821e+000 
3115625000  -2.593342e+001  4.531666e+000 
3118750000  -2.639297e+001  5.467952e+000 
3121875000  -2.574045e+001  -2.531681e+000 
3125000000  -2.699807e+001  -5.848855e+000 
3128125000  -2.811634e+001  2.372520e+000 
3131250000  -2.586847e+001  2.844285e+000 
3134375000  -2.462731e+001  -1.126128e+001 
3137500000  -2.531563e+001  -2.445352e+001 
3140625000  -2.689390e+001  -2.619783e+001 
3143750000  -2.788390e+001  -2.244561e+001 
3146875000  -2.746589e+001  -2.038497e+001 
3150000000  -2.646994e+001  -1.802110e+001 
3153125000  -2.641874e+001  -2.585987e+001 
3156250000  -2.747631e+001  -2.030850e+001 
3159375000  -2.583142e+001  -1.745596e+001 
3162500000  -2.382275e+001  -3.041704e+001 
3165625000  -2.477483e+001  -4.131815e+001 
3168750000  -2.515726e+001  -4.011181e+001 
3171875000  -2.421203e+001  -4.442058e+001 
3175000000  -2.486226e+001  -5.240788e+001 
3178125000  -2.461324e+001  -5.069540e+001 
3181250000  -2.346309e+001  -5.494239e+001 
3184375000  -2.273346e+001  -6.696825e+001 
3187500000  -2.385881e+001  -8.192104e+001 
3190625000  -2.663632e+001  -8.940735e+001 
3193750000  -2.716304e+001  -7.961809e+001 
3196875000  -2.674585e+001  -7.440819e+001 
3200000000  -2.579708e+001  -7.637270e+001 
3203125000  -2.499092e+001  -8.200095e+001 
3206250000  -2.528559e+001  -8.853706e+001 
3209375000  -2.482035e+001  -9.360683e+001 
3212500000  -2.497770e+001  -1.002277e+002 
3215625000  -2.507706e+001  -1.039784e+002 
3218750000  -2.586398e+001  -1.103446e+002 
3221875000  -2.680007e+001  -1.154297e+002 
3225000000  -2.640022e+001  -1.160588e+002 
3228125000  -2.674350e+001  -1.209329e+002 
3231250000  -2.753711e+001  -1.234908e+002 
3234375000  -2.729974e+001  -1.223023e+002 
3237500000  -2.733990e+001  -1.239043e+002 
3240625000  -2.700482e+001  -1.257128e+002 
3243750000  -2.668249e+001  -1.325147e+002 
3246875000  -2.717897e+001  -1.388665e+002 
3250000000  -2.763457e+001  -1.407455e+002 
3253125000  -2.781008e+001  -1.424211e+002 
3256250000  -2.764503e+001  -1.487763e+002 
3259375000  -2.802473e+001  -1.559359e+002 
3262500000  -2.925393e+001  -1.589624e+002 
3265625000  -2.986413e+001  -1.549382e+002 
3268750000  -2.982051e+001  -1.526919e+002 
3271875000  -2.957163e+001  -1.514140e+002 
3275000000  -2.854076e+001  -1.567877e+002 
3278125000  -2.902547e+001  -1.631160e+002 
3281250000  -2.932686e+001  -1.607667e+002 
3284375000  -2.881896e+001  -1.669281e+002 
3287500000  -2.901748e+001  -1.699481e+002 
3290625000  -2.939621e+001  -1.741824e+002 
3293750000  -2.909005e+001  -1.793175e+002 
3296875000  -3.019603e+001  -1.793674e+002 
3300000000  -2.997632e+001  -1.784140e+002 
3303125000  -2.889593e+001  1.776252e+002 
3306250000  -2.862676e+001  1.711582e+002 
3309375000  -2.837423e+001  1.656816e+002 
3312500000  -2.847191e+001  1.555134e+002 
3315625000  -2.947481e+001  1.476519e+002 
3318750000  -3.082610e+001  1.454963e+002 
3321875000  -3.209204e+001  1.450382e+002 
3325000000  -3.258915e+001  1.511583e+002 
3328125000  -3.245339e+001  1.519474e+002 
3331250000  -3.117475e+001  1.593936e+002 
3334375000  -2.849304e+001  1.496309e+002 
3337500000  -2.863562e+001  1.309128e+002 
3340625000  -3.004858e+001  1.201496e+002 
3343750000  -3.201334e+001  1.191329e+002 
3346875000  -3.240810e+001  1.209560e+002 
3350000000  -3.176481e+001  1.198336e+002 
3353125000  -3.195263e+001  1.153881e+002 
3356250000  -3.159229e+001  1.072985e+002 
3359375000  -3.260363e+001  9.906726e+001 
3362500000  -3.375961e+001  9.370633e+001 
3365625000  -3.441023e+001  9.231195e+001 
3368750000  -3.537448e+001  9.003049e+001 
3371875000  -3.575652e+001  8.688686e+001 
3375000000  -3.729405e+001  8.578285e+001 
3378125000  -3.847057e+001  8.551784e+001 
3381250000  -4.006069e+001  9.343021e+001 
3384375000  -3.895389e+001  1.137004e+002 
3387500000  -3.576599e+001  1.000687e+002 
3390625000  -3.756968e+001  7.999023e+001 
3393750000  -3.927404e+001  8.631406e+001 
3396875000  -3.839931e+001  9.021006e+001 
3400000000  -3.838387e+001  8.130701e+001 
3403125000  -3.953383e+001  7.599254e+001 
3406250000  -4.053690e+001  8.042160e+001 
3409375000  -4.073895e+001  7.552906e+001 
3412500000  -4.168502e+001  7.661717e+001 
3415625000  -4.253892e+001  8.150195e+001 
3418750000  -4.300746e+001  8.395641e+001 
3421875000  -4.301401e+001  9.069572e+001 
3425000000  -4.209285e+001  9.678993e+001 
3428125000  -4.128584e+001  9.359789e+001 
3431250000  -4.130173e+001  9.073999e+001 
3434375000  -4.089339e+001  8.697263e+001 
3437500000  -4.162901e+001  8.432507e+001 
3440625000  -4.182760e+001  8.917049e+001 
3443750000  -4.058651e+001  9.037635e+001 
3446875000  -3.951677e+001  8.452106e+001 
3450000000  -3.958094e+001  7.601255e+001 
3453125000  -3.985290e+001  6.774160e+001 
3456250000  -4.103370e+001  6.152034e+001 
3459375000  -4.181515e+001  6.360065e+001 
3462500000  -4.194135e+001  6.558965e+001 
3465625000  -4.204364e+001  6.153217e+001 
3468750000  -4.237786e+001  5.831560e+001 
3471875000  -4.265542e+001  5.836682e+001 
3475000000  -4.299744e+001  5.459789e+001 
3478125000  -4.306082e+001  4.787429e+001 
3481250000  -4.445262e+001  4.719550e+001 
3484375000  -4.584371e+001  5.228734e+001 
3487500000  -4.537656e+001  5.639193e+001 
3490625000  -4.507660e+001  5.446467e+001 
3493750000  -4.555192e+001  4.894781e+001 
3496875000  -4.645810e+001  5.218294e+001 
3500000000  -4.786218e+001  5.988348e+001 
3503125000  -4.770977e+001  6.038397e+001 
3506250000  -4.632697e+001  6.322234e+001 
3509375000  -4.669311e+001  5.990971e+001 
3512500000  -4.700857e+001  5.794357e+001 
3515625000  -4.756210e+001  6.116558e+001 
3518750000  -4.794318e+001  6.773813e+001 
3521875000  -4.758141e+001  7.068763e+001 
3525000000  -4.791265e+001  7.503951e+001 
3528125000  -4.767832e+001  8.583234e+001 
3531250000  -4.540246e+001  8.581902e+001 
3534375000  -4.497844e+001  7.834448e+001 
3537500000  -4.521106e+001  7.453319e+001 
3540625000  -4.596822e+001  7.519805e+001 
3543750000  -4.601068e+001  7.805033e+001 
3546875000  -4.553584e+001  9.003129e+001 
3550000000  -4.298529e+001  9.287443e+001 
3553125000  -4.139051e+001  7.565666e+001 
3556250000  -4.209443e+001  7.180817e+001 
3559375000  -4.217418e+001  7.356791e+001 
3562500000  -4.099014e+001  6.613326e+001 
3565625000  -4.177049e+001  5.966102e+001 
3568750000  -4.201193e+001  6.286104e+001 
3571875000  -4.176711e+001  6.183177e+001 
3575000000  -4.105886e+001  5.833972e+001 
3578125000  -4.166935e+001  5.357498e+001 
3581250000  -4.160406e+001  5.449411e+001 
3584375000  -4.048994e+001  5.689234e+001 
3587500000  -3.994806e+001  4.738863e+001 
3590625000  -4.012317e+001  3.788093e+001 
3593750000  -4.127182e+001  3.614657e+001 
3596875000  -4.150166e+001  4.624628e+001 
3600000000  -3.981583e+001  4.369790e+001 
3603125000  -3.993898e+001  2.985389e+001 
3606250000  -4.037231e+001  2.842705e+001 
3609375000  -4.083583e+001  2.560674e+001 
3612500000  -4.131556e+001  2.466673e+001 
3615625000  -4.145631e+001  2.287366e+001 
3618750000  -4.197062e+001  2.423086e+001 
3621875000  -4.149016e+001  2.297903e+001 
3625000000  -4.146770e+001  2.372768e+001 
3628125000  -4.163568e+001  2.466501e+001 
3631250000  -4.143045e+001  1.906358e+001 
3634375000  -4.233963e+001  1.980500e+001 
3637500000  -4.208135e+001  2.553097e+001 
3640625000  -4.080536e+001  2.481291e+001 
3643750000  -4.043951e+001  1.916325e+001 
3646875000  -4.105471e+001  1.486110e+001 
3650000000  -4.137479e+001  1.473726e+001 
3653125000  -4.135916e+001  1.374542e+001 
3656250000  -4.162078e+001  1.477300e+001 
3659375000  -4.196964e+001  1.637542e+001 
3662500000  -4.116692e+001  1.428884e+001 
3665625000  -4.108942e+001  1.510383e+001 
3668750000  -4.019834e+001  1.616060e+001 
3671875000  -3.926191e+001  1.231771e+001 
3675000000  -3.962582e+001  6.030779e+000 
3678125000  -4.049921e+001  7.645651e+000 
3681250000  -3.971557e+001  8.164949e+000 
3684375000  -3.957513e+001  7.888045e+000 
3687500000  -3.975377e+001  5.443913e+000 
3690625000  -3.970440e+001  1.683291e+000 
3693750000  -4.038356e+001  5.567160e+000 
3696875000  -4.010006e+001  9.218949e+000 
3700000000  -3.890868e+001  7.898288e+000 
3703125000  -3.875677e+001  3.806776e+000 
3706250000  -3.938136e+001  5.704474e+000 
3709375000  -3.858732e+001  8.560519e+000 
3712500000  -3.746951e+001  7.765831e+000 
3715625000  -3.637230e+001  1.833310e+000 
3718750000  -3.572816e+001  -2.022180e-001 
3721875000  -3.528685e+001  -5.841054e+000 
3725000000  -3.523534e+001  -1.114111e+001 
3728125000  -3.541182e+001  -1.134221e+001 
3731250000  -3.470579e+001  -1.179159e+001 
3734375000  -3.375014e+001  -1.777211e+001 
3737500000  -3.424749e+001  -2.616516e+001 
3740625000  -3.482245e+001  -2.729268e+001 
3743750000  -3.451126e+001  -2.997041e+001 
3746875000  -3.452878e+001  -3.396883e+001 
3750000000  -3.506768e+001  -3.473255e+001 
3753125000  -3.443378e+001  -3.534553e+001 
3756250000  -3.444692e+001  -3.653997e+001 
3759375000  -3.437296e+001  -3.661637e+001 
3762500000  -3.372466e+001  -4.086997e+001 
3765625000  -3.425946e+001  -4.319597e+001 
3768750000  -3.428541e+001  -4.059549e+001 
3771875000  -3.252948e+001  -4.279104e+001 
3775000000  -3.213879e+001  -5.122858e+001 
3778125000  -3.259777e+001  -5.314517e+001 
3781250000  -3.237881e+001  -5.617623e+001 
3784375000  -3.229919e+001  -5.778654e+001 
3787500000  -3.175017e+001  -6.192105e+001 
3790625000  -3.226556e+001  -6.758208e+001 
3793750000  -3.232526e+001  -6.699204e+001 
3796875000  -3.144944e+001  -6.888905e+001 
3800000000  -2.989950e+001  -7.242958e+001 
3803125000  -3.077461e+001  -7.990677e+001 
3806250000  -3.143139e+001  -8.155295e+001 
3809375000  -3.110520e+001  -8.266672e+001 
3812500000  -3.043225e+001  -8.805083e+001 
3815625000  -3.107802e+001  -9.571803e+001 
3818750000  -3.212645e+001  -9.620333e+001 
3821875000  -3.213985e+001  -8.706187e+001 
3825000000  -3.015864e+001  -8.330516e+001 
3828125000  -2.884400e+001  -9.765002e+001 
3831250000  -2.930509e+001  -1.115825e+002 
3834375000  -3.067834e+001  -1.126681e+002 
3837500000  -3.153700e+001  -1.072902e+002 
3840625000  -3.030200e+001  -1.082806e+002 
3843750000  -2.926520e+001  -1.187549e+002 
3846875000  -3.000045e+001  -1.258494e+002 
3850000000  -3.127264e+001  -1.191269e+002 
3853125000  -3.045295e+001  -1.175111e+002 
3856250000  -3.035255e+001  -1.229089e+002 
3859375000  -2.956151e+001  -1.268815e+002 
3862500000  -2.916397e+001  -1.340384e+002 
3865625000  -2.946501e+001  -1.387225e+002 
3868750000  -2.954212e+001  -1.396228e+002 
3871875000  -2.877195e+001  -1.426382e+002 
3875000000  -2.892809e+001  -1.509487e+002 
3878125000  -3.006829e+001  -1.538141e+002 
3881250000  -3.002040e+001  -1.504811e+002 
3884375000  -2.951875e+001  -1.553465e+002 
3887500000  -2.970075e+001  -1.589896e+002 
3890625000  -3.021248e+001  -1.621275e+002 
3893750000  -3.057363e+001  -1.633991e+002 
3896875000  -3.084926e+001  -1.622634e+002 
3900000000  -3.100154e+001  -1.631380e+002 
3903125000  -3.066730e+001  -1.648813e+002 
3906250000  -3.042223e+001  -1.662157e+002 
3909375000  -2.964918e+001  -1.696128e+002 
3912500000  -2.974177e+001  -1.763994e+002 
3915625000  -3.094311e+001  -1.754181e+002 
3918750000  -3.097573e+001  -1.747020e+002 
3921875000  -3.062908e+001  -1.756269e+002 
3925000000  -2.976308e+001  -1.765207e+002 
3928125000  -2.908768e+001  1.783531e+002 
3931250000  -2.961916e+001  1.738018e+002 
3934375000  -2.982456e+001  1.746920e+002 
3937500000  -2.997357e+001  1.738432e+002 
3940625000  -3.050951e+001  1.743658e+002 
3943750000  -2.942380e+001  1.761957e+002 
3946875000  -2.823210e+001  1.700759e+002 
3950000000  -2.878134e+001  1.625919e+002 
3953125000  -2.970338e+001  1.633152e+002 
3956250000  -2.876457e+001  1.660153e+002 
3959375000  -2.745996e+001  1.634509e+002 
3962500000  -2.693284e+001  1.587291e+002 
3965625000  -2.664896e+001  1.503323e+002 
3968750000  -2.755089e+001  1.438748e+002 
3971875000  -2.789808e+001  1.423170e+002 
3975000000  -2.722017e+001  1.402718e+002 
3978125000  -2.701381e+001  1.385198e+002 
3981250000  -2.683306e+001  1.342686e+002 
3984375000  -2.704463e+001  1.283194e+002 
3987500000  -2.760055e+001  1.259989e+002 
3990625000  -2.758301e+001  1.252424e+002 
3993750000  -2.778421e+001  1.219000e+002 
3996875000  -2.767991e+001  1.197088e+002 
4000000000  -2.785187e+001  1.173435e+002 
4003125000  -2.836347e+001  1.197235e+002 
4006250000  -2.692418e+001  1.200882e+002 
4009375000  -2.577221e+001  1.075022e+002 
4012500000  -2.689304e+001  1.001260e+002 
4015625000  -2.818573e+001  1.009414e+002 
4018750000  -2.828155e+001  1.030178e+002 
4021875000  -2.760782e+001  1.006893e+002 
4025000000  -2.730106e+001  9.650155e+001 
4028125000  -2.721342e+001  9.242571e+001 
4031250000  -2.776716e+001  8.918530e+001 
4034375000  -2.796540e+001  8.896755e+001 
4037500000  -2.750303e+001  9.094965e+001 
4040625000  -2.744098e+001  8.746120e+001 
4043750000  -2.779329e+001  8.740591e+001 
4046875000  -2.733319e+001  8.700732e+001 
4050000000  -2.680762e+001  8.128747e+001 
4053125000  -2.730291e+001  7.988644e+001 
4056250000  -2.792977e+001  8.360276e+001 
4059375000  -2.669094e+001  8.570484e+001 
4062500000  -2.528127e+001  8.093065e+001 
4065625000  -2.515529e+001  7.663531e+001 
4068750000  -2.483545e+001  7.204836e+001 
4071875000  -2.422334e+001  6.429149e+001 
4075000000  -2.457732e+001  5.779379e+001 
4078125000  -2.514229e+001  5.699358e+001 
4081250000  -2.464165e+001  5.471149e+001 
4084375000  -2.418477e+001  4.802626e+001 
4087500000  -2.458205e+001  4.186880e+001 
4090625000  -2.520082e+001  4.061115e+001 
4093750000  -2.497080e+001  4.137764e+001 
4096875000  -2.456193e+001  3.533722e+001 
4100000000  -2.526751e+001  2.806053e+001 
4103125000  -2.608642e+001  2.952501e+001 
4106250000  -2.595992e+001  3.430727e+001 
4109375000  -2.505343e+001  3.344012e+001 
4112500000  -2.446790e+001  2.653087e+001 
4115625000  -2.483788e+001  2.249301e+001 
4118750000  -2.484900e+001  1.981155e+001 
4121875000  -2.448713e+001  1.459721e+001 
4125000000  -2.487043e+001  9.709816e+000 
4128125000  -2.594529e+001  9.930026e+000 
4131250000  -2.557003e+001  1.795979e+001 
4134375000  -2.321703e+001  1.341592e+001 
4137500000  -2.308306e+001  -5.580561e+000 
4140625000  -2.523345e+001  -1.259168e+001 
4143750000  -2.656189e+001  -6.969557e+000 
4146875000  -2.617779e+001  -7.845680e-002 
4150000000  -2.517520e+001  -3.255496e+000 
4153125000  -2.507100e+001  -1.031886e+001 
4156250000  -2.599779e+001  -1.258410e+001 
4159375000  -2.620040e+001  -8.198021e+000 
4162500000  -2.507625e+001  -3.999312e+000 
4165625000  -2.395535e+001  -8.217260e+000 
4168750000  -2.334454e+001  -1.491616e+001 
4171875000  -2.333254e+001  -2.444617e+001 
4175000000  -2.401846e+001  -2.981527e+001 
4178125000  -2.456678e+001  -2.959504e+001 
4181250000  -2.440467e+001  -3.056413e+001 
4184375000  -2.428061e+001  -3.388005e+001 
4187500000  -2.436876e+001  -3.664782e+001 
4190625000  -2.416678e+001  -4.190754e+001 
4193750000  -2.497837e+001  -4.567214e+001 
4196875000  -2.572957e+001  -4.586159e+001 
4200000000  -2.661273e+001  -4.287255e+001 
4203125000  -2.654881e+001  -2.959752e+001 
4206250000  -2.310528e+001  -2.857380e+001 
4209375000  -2.198040e+001  -4.924509e+001 
4212500000  -2.395477e+001  -5.778389e+001 
4215625000  -2.490262e+001  -5.130636e+001 
4218750000  -2.356656e+001  -4.471911e+001 
4221875000  -2.123314e+001  -5.395254e+001 
4225000000  -2.251145e+001  -6.612206e+001 
4228125000  -2.309282e+001  -6.134025e+001 
4231250000  -2.154935e+001  -6.523612e+001 
4234375000  -2.149888e+001  -7.368391e+001 
4237500000  -2.108805e+001  -7.674679e+001 
4240625000  -2.108343e+001  -8.558102e+001 
4243750000  -2.208070e+001  -9.221115e+001 
4246875000  -2.298403e+001  -9.243075e+001 
4250000000  -2.298802e+001  -8.927426e+001 
4253125000  -2.239915e+001  -9.125121e+001 
4256250000  -2.268724e+001  -9.533987e+001 
4259375000  -2.243904e+001  -9.772427e+001 
4262500000  -2.246024e+001  -1.011881e+002 
4265625000  -2.257897e+001  -1.009289e+002 
4268750000  -2.170848e+001  -1.050080e+002 
4271875000  -2.147081e+001  -1.107096e+002 
4275000000  -2.089405e+001  -1.174247e+002 
4278125000  -2.152402e+001  -1.282991e+002 
4281250000  -2.327764e+001  -1.302144e+002 
4284375000  -2.293424e+001  -1.296424e+002 
4287500000  -2.380523e+001  -1.330634e+002 
4290625000  -2.499885e+001  -1.234981e+002 
4293750000  -2.301118e+001  -1.180617e+002 
4296875000  -2.168685e+001  -1.296336e+002 
4300000000  -2.258650e+001  -1.386572e+002 
4303125000  -2.368842e+001  -1.375307e+002 
4306250000  -2.304209e+001  -1.314492e+002 
4309375000  -2.168098e+001  -1.335951e+002 
4312500000  -2.156618e+001  -1.422512e+002 
4315625000  -2.176385e+001  -1.486010e+002 
4318750000  -2.214431e+001  -1.515363e+002 
4321875000  -2.228073e+001  -1.509142e+002 
4325000000  -2.173441e+001  -1.503484e+002 
4328125000  -2.117505e+001  -1.566022e+002 
4331250000  -2.114119e+001  -1.648588e+002 
4334375000  -2.160329e+001  -1.697363e+002 
4337500000  -2.246093e+001  -1.718245e+002 
4340625000  -2.298385e+001  -1.680874e+002 
4343750000  -2.234571e+001  -1.680399e+002 
4346875000  -2.199235e+001  -1.737693e+002 
4350000000  -2.197692e+001  -1.785399e+002 
4353125000  -2.207986e+001  1.741450e+002 
4356250000  -2.390816e+001  1.733702e+002 
4359375000  -2.433357e+001  -1.725449e+002 
4362500000  -2.153065e+001  -1.715393e+002 
4365625000  -2.003837e+001  1.763098e+002 
4368750000  -2.079967e+001  1.648295e+002 
4371875000  -2.200168e+001  1.654305e+002 
4375000000  -2.159176e+001  1.665376e+002 
4378125000  -2.099810e+001  1.607589e+002 
4381250000  -2.114404e+001  1.550178e+002 
4384375000  -2.097830e+001  1.504266e+002 
4387500000  -2.172507e+001  1.448950e+002 
4390625000  -2.269842e+001  1.458684e+002 
4393750000  -2.203994e+001  1.479011e+002 
4396875000  -2.140668e+001  1.456566e+002 
4400000000  -2.085799e+001  1.383643e+002 
4403125000  -2.144736e+001  1.309209e+002 
4406250000  -2.230096e+001  1.296685e+002 
4409375000  -2.227456e+001  1.272019e+002 
4412500000  -2.328643e+001  1.246813e+002 
4415625000  -2.366365e+001  1.296540e+002 
4418750000  -2.244523e+001  1.343122e+002 
