!Agilent Technologies,E8363B,MY43030201,A.06.04.32
!Agilent E8363B: A.06.04.32
!Date: Tuesday, November 11, 2014 20:47:58
!Correction: S21(Response(S21)) 
!S1P File: Measurement: S21:
# Hz S  dB   R 50
3000000000  -2.651443e+001  1.556096e+002 
3003125000  -2.791617e+001  1.512156e+002 
3006250000  -2.792400e+001  1.484072e+002 
3009375000  -2.828752e+001  1.532754e+002 
3012500000  -2.780337e+001  1.533118e+002 
3015625000  -2.682700e+001  1.459786e+002 
3018750000  -2.766899e+001  1.449271e+002 
3021875000  -2.644848e+001  1.462071e+002 
3025000000  -2.511722e+001  1.434422e+002 
3028125000  -2.415784e+001  1.384254e+002 
3031250000  -2.313144e+001  1.274008e+002 
3034375000  -2.274842e+001  1.144429e+002 
3037500000  -2.306750e+001  1.024206e+002 
3040625000  -2.441571e+001  9.726624e+001 
3043750000  -2.515579e+001  9.325780e+001 
3046875000  -2.524624e+001  8.660301e+001 
3050000000  -2.697629e+001  7.977999e+001 
3053125000  -2.713640e+001  8.629465e+001 
3056250000  -2.642642e+001  8.935022e+001 
3059375000  -2.669216e+001  8.877729e+001 
3062500000  -2.523400e+001  8.472754e+001 
3065625000  -2.500720e+001  7.959059e+001 
3068750000  -2.469856e+001  7.246322e+001 
3071875000  -2.467433e+001  6.939642e+001 
3075000000  -2.464280e+001  6.565681e+001 
3078125000  -2.435517e+001  6.122353e+001 
3081250000  -2.500712e+001  5.683757e+001 
3084375000  -2.425585e+001  5.326796e+001 
3087500000  -2.412664e+001  4.990765e+001 
3090625000  -2.385317e+001  4.013626e+001 
3093750000  -2.426856e+001  3.224385e+001 
3096875000  -2.557246e+001  2.605933e+001 
3100000000  -2.571978e+001  2.475310e+001 
3103125000  -2.608068e+001  2.623751e+001 
3106250000  -2.583752e+001  2.264342e+001 
3109375000  -2.604538e+001  1.920178e+001 
3112500000  -2.618074e+001  1.828649e+001 
3115625000  -2.595013e+001  1.366286e+001 
3118750000  -2.650132e+001  1.512110e+001 
3121875000  -2.581810e+001  7.468356e+000 
3125000000  -2.693079e+001  3.492895e+000 
3128125000  -2.813977e+001  1.156837e+001 
3131250000  -2.599156e+001  1.249546e+001 
3134375000  -2.467368e+001  -1.097393e+000 
3137500000  -2.528651e+001  -1.515881e+001 
3140625000  -2.696961e+001  -1.687264e+001 
3143750000  -2.792141e+001  -1.245763e+001 
3146875000  -2.752311e+001  -1.062291e+001 
3150000000  -2.653265e+001  -8.119379e+000 
3153125000  -2.650356e+001  -1.615550e+001 
3156250000  -2.743165e+001  -1.065356e+001 
3159375000  -2.591875e+001  -7.646539e+000 
3162500000  -2.391774e+001  -2.054160e+001 
3165625000  -2.482027e+001  -3.168720e+001 
3168750000  -2.523498e+001  -3.089556e+001 
3171875000  -2.425524e+001  -3.489819e+001 
3175000000  -2.489392e+001  -4.277742e+001 
3178125000  -2.471998e+001  -4.112313e+001 
3181250000  -2.354270e+001  -4.489073e+001 
3184375000  -2.269996e+001  -5.716456e+001 
3187500000  -2.378110e+001  -7.262786e+001 
3190625000  -2.662488e+001  -8.007230e+001 
3193750000  -2.723454e+001  -7.064349e+001 
3196875000  -2.682116e+001  -6.482074e+001 
3200000000  -2.597200e+001  -6.654906e+001 
3203125000  -2.509328e+001  -7.230177e+001 
3206250000  -2.534858e+001  -7.851462e+001 
3209375000  -2.485933e+001  -8.373918e+001 
3212500000  -2.494315e+001  -9.034157e+001 
3215625000  -2.514129e+001  -9.489149e+001 
3218750000  -2.589757e+001  -1.007470e+002 
3221875000  -2.691891e+001  -1.058961e+002 
3225000000  -2.649734e+001  -1.064774e+002 
3228125000  -2.680608e+001  -1.112201e+002 
3231250000  -2.754988e+001  -1.137209e+002 
3234375000  -2.746844e+001  -1.125250e+002 
3237500000  -2.747264e+001  -1.143956e+002 
3240625000  -2.716517e+001  -1.159730e+002 
3243750000  -2.675063e+001  -1.227088e+002 
3246875000  -2.721991e+001  -1.291835e+002 
3250000000  -2.773937e+001  -1.311560e+002 
3253125000  -2.785904e+001  -1.328621e+002 
3256250000  -2.772063e+001  -1.385406e+002 
3259375000  -2.805834e+001  -1.463902e+002 
3262500000  -2.931438e+001  -1.492059e+002 
3265625000  -3.004482e+001  -1.460807e+002 
3268750000  -2.996500e+001  -1.434312e+002 
3271875000  -2.974658e+001  -1.421088e+002 
3275000000  -2.859324e+001  -1.469534e+002 
3278125000  -2.908239e+001  -1.531644e+002 
3281250000  -2.941904e+001  -1.514920e+002 
3284375000  -2.894213e+001  -1.574236e+002 
3287500000  -2.915092e+001  -1.602950e+002 
3290625000  -2.953504e+001  -1.641008e+002 
3293750000  -2.924112e+001  -1.699382e+002 
3296875000  -3.020602e+001  -1.701120e+002 
3300000000  -3.018996e+001  -1.687953e+002 
3303125000  -2.901863e+001  -1.723725e+002 
3306250000  -2.879019e+001  -1.794519e+002 
3309375000  -2.854404e+001  1.756000e+002 
3312500000  -2.857989e+001  1.649631e+002 
3315625000  -2.954527e+001  1.571859e+002 
3318750000  -3.090318e+001  1.544745e+002 
3321875000  -3.215661e+001  1.540264e+002 
3325000000  -3.267660e+001  1.594339e+002 
3328125000  -3.261669e+001  1.613375e+002 
3331250000  -3.149124e+001  1.686553e+002 
3334375000  -2.875609e+001  1.592741e+002 
3337500000  -2.884650e+001  1.404482e+002 
3340625000  -3.013310e+001  1.301072e+002 
3343750000  -3.215499e+001  1.285063e+002 
3346875000  -3.271756e+001  1.293656e+002 
3350000000  -3.205378e+001  1.286380e+002 
3353125000  -3.216193e+001  1.246236e+002 
3356250000  -3.186508e+001  1.165739e+002 
3359375000  -3.270148e+001  1.085726e+002 
3362500000  -3.400862e+001  1.031563e+002 
3365625000  -3.454080e+001  1.015559e+002 
3368750000  -3.567451e+001  1.000848e+002 
3371875000  -3.596791e+001  9.632493e+001 
3375000000  -3.765333e+001  9.552229e+001 
3378125000  -3.872349e+001  9.450947e+001 
3381250000  -4.016748e+001  1.016996e+002 
3384375000  -3.958704e+001  1.227314e+002 
3387500000  -3.642536e+001  1.104290e+002 
3390625000  -3.819481e+001  9.122496e+001 
3393750000  -3.982545e+001  9.354427e+001 
3396875000  -3.902845e+001  9.786501e+001 
3400000000  -3.909572e+001  8.987275e+001 
3403125000  -3.989136e+001  8.670152e+001 
3406250000  -4.090367e+001  8.837713e+001 
3409375000  -4.129055e+001  8.584893e+001 
3412500000  -4.235595e+001  8.686308e+001 
3415625000  -4.335662e+001  9.193707e+001 
3418750000  -4.353726e+001  9.514160e+001 
3421875000  -4.383054e+001  1.043804e+002 
3425000000  -4.286826e+001  1.050285e+002 
3428125000  -4.185805e+001  1.060999e+002 
3431250000  -4.189326e+001  1.023333e+002 
3434375000  -4.167801e+001  9.755860e+001 
3437500000  -4.218037e+001  9.632314e+001 
3440625000  -4.251643e+001  1.002220e+002 
3443750000  -4.119516e+001  1.021064e+002 
3446875000  -4.042372e+001  9.700335e+001 
3450000000  -4.034251e+001  8.909191e+001 
3453125000  -4.070750e+001  8.068327e+001 
3456250000  -4.191138e+001  7.561804e+001 
3459375000  -4.247614e+001  7.738847e+001 
3462500000  -4.261822e+001  7.879108e+001 
3465625000  -4.282907e+001  7.389008e+001 
3468750000  -4.335494e+001  7.102123e+001 
3471875000  -4.347767e+001  7.402369e+001 
3475000000  -4.316080e+001  6.885786e+001 
3478125000  -4.383455e+001  6.516940e+001 
3481250000  -4.490617e+001  6.342369e+001 
3484375000  -4.638246e+001  6.967050e+001 
3487500000  -4.582304e+001  7.193147e+001 
3490625000  -4.556523e+001  6.960021e+001 
3493750000  -4.635984e+001  6.573061e+001 
3496875000  -4.685737e+001  7.020095e+001 
3500000000  -4.782553e+001  7.644982e+001 
3503125000  -4.777721e+001  8.457244e+001 
3506250000  -4.697916e+001  7.749000e+001 
3509375000  -4.701184e+001  8.046627e+001 
3512500000  -4.693821e+001  7.813652e+001 
3515625000  -4.752156e+001  7.662075e+001 
3518750000  -4.829731e+001  8.340893e+001 
3521875000  -4.805904e+001  8.923318e+001 
3525000000  -4.785485e+001  8.887611e+001 
3528125000  -4.737967e+001  1.009201e+002 
3531250000  -4.564436e+001  1.003091e+002 
3534375000  -4.524340e+001  9.225137e+001 
3537500000  -4.463118e+001  9.097406e+001 
3540625000  -4.541303e+001  8.987803e+001 
3543750000  -4.561265e+001  9.084153e+001 
3546875000  -4.549152e+001  1.064472e+002 
3550000000  -4.271772e+001  1.079571e+002 
3553125000  -4.111285e+001  9.212029e+001 
3556250000  -4.219458e+001  8.575307e+001 
3559375000  -4.192377e+001  8.701311e+001 
3562500000  -4.089684e+001  8.067597e+001 
3565625000  -4.160774e+001  7.509708e+001 
3568750000  -4.157960e+001  7.757295e+001 
3571875000  -4.156659e+001  7.741212e+001 
3575000000  -4.084622e+001  7.230576e+001 
3578125000  -4.125294e+001  6.724260e+001 
3581250000  -4.131448e+001  6.877028e+001 
3584375000  -4.054805e+001  6.753623e+001 
3587500000  -3.948953e+001  6.126355e+001 
3590625000  -4.007921e+001  5.198136e+001 
3593750000  -4.105915e+001  4.966735e+001 
3596875000  -4.104925e+001  5.820565e+001 
3600000000  -3.932032e+001  5.523737e+001 
3603125000  -3.947261e+001  4.373587e+001 
3606250000  -4.051537e+001  3.940334e+001 
3609375000  -4.054962e+001  3.891292e+001 
3612500000  -4.119017e+001  3.609445e+001 
3615625000  -4.138145e+001  3.484154e+001 
3618750000  -4.168639e+001  3.528426e+001 
3621875000  -4.131539e+001  3.469983e+001 
3625000000  -4.145673e+001  3.460794e+001 
3628125000  -4.171578e+001  3.454572e+001 
3631250000  -4.132401e+001  2.841635e+001 
3634375000  -4.249483e+001  3.074176e+001 
3637500000  -4.213765e+001  3.746853e+001 
3640625000  -4.082561e+001  3.743332e+001 
3643750000  -4.075135e+001  3.207271e+001 
3646875000  -4.123995e+001  2.663611e+001 
3650000000  -4.204764e+001  2.608338e+001 
3653125000  -4.136072e+001  2.613939e+001 
3656250000  -4.166779e+001  2.444838e+001 
3659375000  -4.226789e+001  2.849898e+001 
3662500000  -4.111617e+001  2.895364e+001 
3665625000  -4.158191e+001  2.877112e+001 
3668750000  -4.045856e+001  3.046379e+001 
3671875000  -3.930116e+001  2.685497e+001 
3675000000  -3.984038e+001  2.127466e+001 
3678125000  -4.033076e+001  2.190231e+001 
3681250000  -3.973309e+001  2.363492e+001 
3684375000  -3.965929e+001  1.985521e+001 
3687500000  -3.958740e+001  1.896327e+001 
3690625000  -3.980501e+001  1.637727e+001 
3693750000  -4.034901e+001  1.946259e+001 
3696875000  -4.012301e+001  2.129487e+001 
3700000000  -3.885528e+001  2.114191e+001 
3703125000  -3.865286e+001  1.618287e+001 
3706250000  -3.923018e+001  1.807563e+001 
3709375000  -3.857781e+001  2.139228e+001 
3712500000  -3.746542e+001  1.968851e+001 
3715625000  -3.635957e+001  1.556962e+001 
3718750000  -3.570157e+001  1.205199e+001 
3721875000  -3.522283e+001  6.749480e+000 
3725000000  -3.528529e+001  1.559317e+000 
3728125000  -3.535501e+001  8.662527e-001 
3731250000  -3.461815e+001  7.907125e-001 
3734375000  -3.363225e+001  -5.573559e+000 
3737500000  -3.422098e+001  -1.297380e+001 
3740625000  -3.478101e+001  -1.598081e+001 
3743750000  -3.476506e+001  -1.728083e+001 
3746875000  -3.471542e+001  -2.115345e+001 
3750000000  -3.505535e+001  -2.201116e+001 
3753125000  -3.467101e+001  -2.194533e+001 
3756250000  -3.457332e+001  -2.288921e+001 
3759375000  -3.441624e+001  -2.287099e+001 
3762500000  -3.386987e+001  -2.732415e+001 
3765625000  -3.421592e+001  -3.010811e+001 
3768750000  -3.444925e+001  -2.819195e+001 
3771875000  -3.272942e+001  -2.956573e+001 
3775000000  -3.228516e+001  -3.812125e+001 
3778125000  -3.277089e+001  -3.902673e+001 
3781250000  -3.253574e+001  -4.179099e+001 
3784375000  -3.240100e+001  -4.385022e+001 
3787500000  -3.173748e+001  -4.704909e+001 
3790625000  -3.229555e+001  -5.328600e+001 
3793750000  -3.246275e+001  -5.341477e+001 
3796875000  -3.159546e+001  -5.524953e+001 
3800000000  -3.004575e+001  -5.851893e+001 
3803125000  -3.079596e+001  -6.508830e+001 
3806250000  -3.136902e+001  -6.742748e+001 
3809375000  -3.111594e+001  -6.909886e+001 
3812500000  -3.044198e+001  -7.304465e+001 
3815625000  -3.094690e+001  -8.093007e+001 
3818750000  -3.188110e+001  -8.318528e+001 
3821875000  -3.198461e+001  -7.479332e+001 
3825000000  -3.019760e+001  -6.999136e+001 
3828125000  -2.881937e+001  -8.345548e+001 
3831250000  -2.927453e+001  -9.805297e+001 
3834375000  -3.062652e+001  -9.920740e+001 
3837500000  -3.152034e+001  -9.395675e+001 
3840625000  -3.052075e+001  -9.513800e+001 
3843750000  -2.923748e+001  -1.040112e+002 
3846875000  -2.988113e+001  -1.119308e+002 
3850000000  -3.123848e+001  -1.068218e+002 
3853125000  -3.035708e+001  -1.045447e+002 
3856250000  -3.047693e+001  -1.088858e+002 
3859375000  -2.974082e+001  -1.137797e+002 
3862500000  -2.934814e+001  -1.205418e+002 
3865625000  -2.958689e+001  -1.253130e+002 
3868750000  -2.959747e+001  -1.259008e+002 
3871875000  -2.890463e+001  -1.278890e+002 
3875000000  -2.897335e+001  -1.370889e+002 
3878125000  -3.003575e+001  -1.397695e+002 
3881250000  -3.011848e+001  -1.370391e+002 
3884375000  -2.963785e+001  -1.407702e+002 
3887500000  -2.975451e+001  -1.451065e+002 
3890625000  -3.018961e+001  -1.476322e+002 
3893750000  -3.067366e+001  -1.483472e+002 
3896875000  -3.084560e+001  -1.479681e+002 
3900000000  -3.111496e+001  -1.491174e+002 
3903125000  -3.075264e+001  -1.508894e+002 
3906250000  -3.045917e+001  -1.520675e+002 
3909375000  -2.974821e+001  -1.543580e+002 
3912500000  -2.975070e+001  -1.613459e+002 
3915625000  -3.094821e+001  -1.606481e+002 
3918750000  -3.096891e+001  -1.588971e+002 
3921875000  -3.064505e+001  -1.612328e+002 
3925000000  -2.983438e+001  -1.614078e+002 
3928125000  -2.901664e+001  -1.666335e+002 
3931250000  -2.948869e+001  -1.709926e+002 
3934375000  -2.967399e+001  -1.704480e+002 
3937500000  -2.979322e+001  -1.714716e+002 
3940625000  -3.025650e+001  -1.713145e+002 
3943750000  -2.934613e+001  -1.697966e+002 
3946875000  -2.818498e+001  -1.752296e+002 
3950000000  -2.862321e+001  1.770540e+002 
3953125000  -2.946782e+001  1.773215e+002 
3956250000  -2.881665e+001  -1.799229e+002 
3959375000  -2.736841e+001  1.771333e+002 
3962500000  -2.683800e+001  1.726351e+002 
3965625000  -2.648676e+001  1.637090e+002 
3968750000  -2.739572e+001  1.575662e+002 
3971875000  -2.784573e+001  1.559630e+002 
3975000000  -2.720159e+001  1.541696e+002 
3978125000  -2.699167e+001  1.524901e+002 
3981250000  -2.677142e+001  1.481476e+002 
3984375000  -2.693768e+001  1.421455e+002 
3987500000  -2.749430e+001  1.395115e+002 
3990625000  -2.754679e+001  1.386967e+002 
3993750000  -2.761436e+001  1.356907e+002 
3996875000  -2.773863e+001  1.336226e+002 
4000000000  -2.777457e+001  1.312441e+002 
4003125000  -2.827775e+001  1.333249e+002 
4006250000  -2.698878e+001  1.336681e+002 
4009375000  -2.580664e+001  1.216097e+002 
4012500000  -2.687088e+001  1.144219e+002 
4015625000  -2.806943e+001  1.150080e+002 
4018750000  -2.827508e+001  1.175858e+002 
4021875000  -2.759683e+001  1.162024e+002 
4025000000  -2.723636e+001  1.105005e+002 
4028125000  -2.714637e+001  1.073915e+002 
4031250000  -2.770385e+001  1.041174e+002 
4034375000  -2.793209e+001  1.037082e+002 
4037500000  -2.744740e+001  1.057230e+002 
4040625000  -2.730957e+001  1.023817e+002 
4043750000  -2.768876e+001  1.021420e+002 
4046875000  -2.729212e+001  1.016405e+002 
4050000000  -2.666649e+001  9.629060e+001 
4053125000  -2.712596e+001  9.399355e+001 
4056250000  -2.766956e+001  9.816157e+001 
4059375000  -2.650277e+001  1.000736e+002 
4062500000  -2.518129e+001  9.537755e+001 
4065625000  -2.500602e+001  9.069009e+001 
4068750000  -2.474155e+001  8.634122e+001 
4071875000  -2.410283e+001  7.847478e+001 
4075000000  -2.446725e+001  7.205273e+001 
4078125000  -2.500418e+001  7.094282e+001 
4081250000  -2.444750e+001  6.874544e+001 
4084375000  -2.403647e+001  6.229585e+001 
4087500000  -2.442097e+001  5.568677e+001 
4090625000  -2.503044e+001  5.420286e+001 
4093750000  -2.483414e+001  5.514701e+001 
4096875000  -2.442744e+001  4.932351e+001 
4100000000  -2.506827e+001  4.202197e+001 
4103125000  -2.596391e+001  4.255782e+001 
4106250000  -2.586546e+001  4.731981e+001 
4109375000  -2.496833e+001  4.689061e+001 
4112500000  -2.443095e+001  4.039860e+001 
4115625000  -2.472271e+001  3.633228e+001 
4118750000  -2.487310e+001  3.306636e+001 
4121875000  -2.446405e+001  2.868552e+001 
4125000000  -2.476864e+001  2.372632e+001 
4128125000  -2.584330e+001  2.336360e+001 
4131250000  -2.562094e+001  3.126477e+001 
4134375000  -2.331211e+001  2.731458e+001 
4137500000  -2.301685e+001  8.754221e+000 
4140625000  -2.516350e+001  1.475488e+000 
4143750000  -2.650862e+001  6.331604e+000 
4146875000  -2.618702e+001  1.361152e+001 
4150000000  -2.523718e+001  1.118453e+001 
4153125000  -2.501800e+001  4.569369e+000 
4156250000  -2.585451e+001  1.588088e+000 
4159375000  -2.614211e+001  6.289702e+000 
4162500000  -2.509172e+001  1.015068e+001 
4165625000  -2.389859e+001  6.297065e+000 
4168750000  -2.335080e+001  -6.480649e-002 
4171875000  -2.331726e+001  -9.591629e+000 
4175000000  -2.379553e+001  -1.548656e+001 
4178125000  -2.447413e+001  -1.560195e+001 
4181250000  -2.434091e+001  -1.605124e+001 
4184375000  -2.420715e+001  -1.901323e+001 
4187500000  -2.424826e+001  -2.162387e+001 
4190625000  -2.403825e+001  -2.744137e+001 
4193750000  -2.475312e+001  -3.102029e+001 
4196875000  -2.548382e+001  -3.170032e+001 
4200000000  -2.631442e+001  -2.961742e+001 
4203125000  -2.648472e+001  -1.654051e+001 
4206250000  -2.311654e+001  -1.449781e+001 
4209375000  -2.186628e+001  -3.480971e+001 
4212500000  -2.371646e+001  -4.381157e+001 
4215625000  -2.477312e+001  -3.805998e+001 
4218750000  -2.348831e+001  -3.088465e+001 
4221875000  -2.115829e+001  -4.001845e+001 
4225000000  -2.237387e+001  -5.281659e+001 
4228125000  -2.314522e+001  -4.789131e+001 
4231250000  -2.152366e+001  -5.123838e+001 
4234375000  -2.147788e+001  -5.982478e+001 
4237500000  -2.106706e+001  -6.252641e+001 
4240625000  -2.106597e+001  -7.123860e+001 
4243750000  -2.200231e+001  -7.814450e+001 
4246875000  -2.291073e+001  -7.823843e+001 
4250000000  -2.297491e+001  -7.531658e+001 
4253125000  -2.237373e+001  -7.733036e+001 
4256250000  -2.265682e+001  -8.154269e+001 
4259375000  -2.242861e+001  -8.327488e+001 
4262500000  -2.242250e+001  -8.699100e+001 
4265625000  -2.260850e+001  -8.708876e+001 
4268750000  -2.175599e+001  -9.086315e+001 
4271875000  -2.151493e+001  -9.627147e+001 
4275000000  -2.092303e+001  -1.026954e+002 
4278125000  -2.142219e+001  -1.141351e+002 
4281250000  -2.324858e+001  -1.158580e+002 
4284375000  -2.298646e+001  -1.151187e+002 
4287500000  -2.373386e+001  -1.186994e+002 
4290625000  -2.505723e+001  -1.094784e+002 
4293750000  -2.305948e+001  -1.037095e+002 
4296875000  -2.167968e+001  -1.150215e+002 
4300000000  -2.251151e+001  -1.242288e+002 
4303125000  -2.361850e+001  -1.230153e+002 
4306250000  -2.310717e+001  -1.171554e+002 
4309375000  -2.168319e+001  -1.189920e+002 
4312500000  -2.154191e+001  -1.270621e+002 
4315625000  -2.176536e+001  -1.332461e+002 
4318750000  -2.207880e+001  -1.366594e+002 
4321875000  -2.225251e+001  -1.363395e+002 
4325000000  -2.163064e+001  -1.354811e+002 
4328125000  -2.115463e+001  -1.419383e+002 
4331250000  -2.110304e+001  -1.498969e+002 
4334375000  -2.148508e+001  -1.550451e+002 
4337500000  -2.228769e+001  -1.573297e+002 
4340625000  -2.289886e+001  -1.543832e+002 
4343750000  -2.234704e+001  -1.535498e+002 
4346875000  -2.189975e+001  -1.588798e+002 
4350000000  -2.195993e+001  -1.636048e+002 
4353125000  -2.193634e+001  -1.714314e+002 
4356250000  -2.360604e+001  -1.728284e+002 
4359375000  -2.438828e+001  -1.601146e+002 
4362500000  -2.175172e+001  -1.575808e+002 
4365625000  -2.003764e+001  -1.690631e+002 
4368750000  -2.071311e+001  1.789056e+002 
4371875000  -2.195323e+001  1.793297e+002 
4375000000  -2.164099e+001  -1.792017e+002 
4378125000  -2.100646e+001  1.750210e+002 
4381250000  -2.116943e+001  1.695522e+002 
4384375000  -2.096861e+001  1.651523e+002 
4387500000  -2.171179e+001  1.592212e+002 
4390625000  -2.274700e+001  1.598619e+002 
4393750000  -2.210310e+001  1.622113e+002 
4396875000  -2.139007e+001  1.601474e+002 
4400000000  -2.091912e+001  1.531706e+002 
4403125000  -2.145242e+001  1.456109e+002 
4406250000  -2.231655e+001  1.444679e+002 
4409375000  -2.225163e+001  1.421954e+002 
4412500000  -2.331178e+001  1.391462e+002 
4415625000  -2.373545e+001  1.441156e+002 
4418750000  -2.255559e+001  1.489271e+002 
