!Agilent Technologies,E8363B,MY43030201,A.06.04.32
!Agilent E8363B: A.06.04.32
!Date: Tuesday, November 11, 2014 20:43:44
!Correction: S21(Response(S21)) 
!S1P File: Measurement: S21:
# Hz S  dB   R 50
3000000000  -2.663395e+001  1.591861e+002 
3003125000  -2.794633e+001  1.544538e+002 
3006250000  -2.807740e+001  1.515167e+002 
3009375000  -2.838938e+001  1.565139e+002 
3012500000  -2.790708e+001  1.564757e+002 
3015625000  -2.687203e+001  1.495075e+002 
3018750000  -2.775798e+001  1.483172e+002 
3021875000  -2.654089e+001  1.495026e+002 
3025000000  -2.522792e+001  1.465206e+002 
3028125000  -2.426526e+001  1.418222e+002 
3031250000  -2.323998e+001  1.307784e+002 
3034375000  -2.282869e+001  1.180868e+002 
3037500000  -2.311923e+001  1.060557e+002 
3040625000  -2.445911e+001  1.006856e+002 
3043750000  -2.519387e+001  9.651322e+001 
3046875000  -2.528314e+001  8.997163e+001 
3050000000  -2.703794e+001  8.271632e+001 
3053125000  -2.720153e+001  8.911755e+001 
3056250000  -2.651169e+001  9.241135e+001 
3059375000  -2.683451e+001  9.196480e+001 
3062500000  -2.534413e+001  8.808373e+001 
3065625000  -2.509365e+001  8.281913e+001 
3068750000  -2.482700e+001  7.574683e+001 
3071875000  -2.477642e+001  7.244669e+001 
3075000000  -2.478975e+001  6.891318e+001 
3078125000  -2.447164e+001  6.448856e+001 
3081250000  -2.511018e+001  6.037021e+001 
3084375000  -2.441778e+001  5.672060e+001 
3087500000  -2.427749e+001  5.324451e+001 
3090625000  -2.399548e+001  4.386759e+001 
3093750000  -2.432040e+001  3.571110e+001 
3096875000  -2.565557e+001  2.935052e+001 
3100000000  -2.585423e+001  2.795182e+001 
3103125000  -2.620269e+001  2.972509e+001 
3106250000  -2.592688e+001  2.597038e+001 
3109375000  -2.613920e+001  2.240571e+001 
3112500000  -2.633330e+001  2.174038e+001 
3115625000  -2.607048e+001  1.727840e+001 
3118750000  -2.657082e+001  1.865075e+001 
3121875000  -2.591771e+001  1.080643e+001 
3125000000  -2.700217e+001  7.031450e+000 
3128125000  -2.830714e+001  1.498480e+001 
3131250000  -2.617617e+001  1.612291e+001 
3134375000  -2.477164e+001  2.589497e+000 
3137500000  -2.538814e+001  -1.129140e+001 
3140625000  -2.701221e+001  -1.338075e+001 
3143750000  -2.800685e+001  -8.703434e+000 
3146875000  -2.766873e+001  -7.253919e+000 
3150000000  -2.665136e+001  -4.578288e+000 
3153125000  -2.652520e+001  -1.222232e+001 
3156250000  -2.756200e+001  -7.375602e+000 
3159375000  -2.606055e+001  -4.222986e+000 
3162500000  -2.398566e+001  -1.696777e+001 
3165625000  -2.485066e+001  -2.791980e+001 
3168750000  -2.529697e+001  -2.710752e+001 
3171875000  -2.433574e+001  -3.146116e+001 
3175000000  -2.495183e+001  -3.915202e+001 
3178125000  -2.481204e+001  -3.745482e+001 
3181250000  -2.359998e+001  -4.115295e+001 
3184375000  -2.273311e+001  -5.332146e+001 
3187500000  -2.381074e+001  -6.905936e+001 
3190625000  -2.665930e+001  -7.712844e+001 
3193750000  -2.734684e+001  -6.740615e+001 
3196875000  -2.689855e+001  -6.188469e+001 
3200000000  -2.605312e+001  -6.352671e+001 
3203125000  -2.514803e+001  -6.897791e+001 
3206250000  -2.542901e+001  -7.504151e+001 
3209375000  -2.500734e+001  -8.012525e+001 
3212500000  -2.508204e+001  -8.707856e+001 
3215625000  -2.524084e+001  -9.131386e+001 
3218750000  -2.591814e+001  -9.749448e+001 
3221875000  -2.701835e+001  -1.028348e+002 
3225000000  -2.663608e+001  -1.031768e+002 
3228125000  -2.686040e+001  -1.074535e+002 
3231250000  -2.765488e+001  -1.106983e+002 
3234375000  -2.753405e+001  -1.093587e+002 
3237500000  -2.755380e+001  -1.110474e+002 
3240625000  -2.724083e+001  -1.123683e+002 
3243750000  -2.686517e+001  -1.190358e+002 
3246875000  -2.736101e+001  -1.260648e+002 
3250000000  -2.778868e+001  -1.272680e+002 
3253125000  -2.789765e+001  -1.295827e+002 
3256250000  -2.779729e+001  -1.351896e+002 
3259375000  -2.810369e+001  -1.430389e+002 
3262500000  -2.935291e+001  -1.456947e+002 
3265625000  -3.008415e+001  -1.430423e+002 
3268750000  -3.007292e+001  -1.400448e+002 
3271875000  -2.990075e+001  -1.385450e+002 
3275000000  -2.873016e+001  -1.434012e+002 
3278125000  -2.918626e+001  -1.500271e+002 
3281250000  -2.946648e+001  -1.478284e+002 
3284375000  -2.907581e+001  -1.537535e+002 
3287500000  -2.921210e+001  -1.570352e+002 
3290625000  -2.962107e+001  -1.607707e+002 
3293750000  -2.928247e+001  -1.668435e+002 
3296875000  -3.025476e+001  -1.668703e+002 
3300000000  -3.025449e+001  -1.652021e+002 
3303125000  -2.914205e+001  -1.695790e+002 
3306250000  -2.882099e+001  -1.759619e+002 
3309375000  -2.863794e+001  1.789910e+002 
3312500000  -2.864868e+001  1.688237e+002 
3315625000  -2.959105e+001  1.606581e+002 
3318750000  -3.093631e+001  1.583533e+002 
3321875000  -3.211886e+001  1.578772e+002 
3325000000  -3.274530e+001  1.621261e+002 
3328125000  -3.273290e+001  1.643733e+002 
3331250000  -3.152180e+001  1.714170e+002 
3334375000  -2.897016e+001  1.625028e+002 
3337500000  -2.896146e+001  1.443885e+002 
3340625000  -3.023949e+001  1.332779e+002 
3343750000  -3.225875e+001  1.317088e+002 
3346875000  -3.276828e+001  1.325187e+002 
3350000000  -3.222815e+001  1.317003e+002 
3353125000  -3.237380e+001  1.278359e+002 
3356250000  -3.200845e+001  1.200236e+002 
3359375000  -3.282519e+001  1.117667e+002 
3362500000  -3.412838e+001  1.059227e+002 
3365625000  -3.491023e+001  1.041967e+002 
3368750000  -3.579465e+001  1.028207e+002 
3371875000  -3.605506e+001  9.890759e+001 
3375000000  -3.764579e+001  9.662930e+001 
3378125000  -3.882486e+001  9.685534e+001 
3381250000  -4.031352e+001  1.031422e+002 
3384375000  -3.960387e+001  1.244032e+002 
3387500000  -3.670296e+001  1.112804e+002 
3390625000  -3.816732e+001  9.301910e+001 
3393750000  -4.010602e+001  9.691041e+001 
3396875000  -3.925648e+001  9.998928e+001 
3400000000  -3.926979e+001  9.332854e+001 
3403125000  -4.032840e+001  8.894992e+001 
3406250000  -4.108796e+001  9.165501e+001 
3409375000  -4.194146e+001  8.656142e+001 
3412500000  -4.257509e+001  8.904752e+001 
3415625000  -4.381590e+001  9.506997e+001 
3418750000  -4.420803e+001  9.719305e+001 
3421875000  -4.440032e+001  1.051673e+002 
3425000000  -4.357370e+001  1.075992e+002 
3428125000  -4.248615e+001  1.084077e+002 
3431250000  -4.253484e+001  1.038150e+002 
3434375000  -4.227579e+001  9.991497e+001 
3437500000  -4.271983e+001  1.001568e+002 
3440625000  -4.313889e+001  1.033040e+002 
3443750000  -4.177269e+001  1.044130e+002 
3446875000  -4.100065e+001  9.914998e+001 
3450000000  -4.074006e+001  9.038766e+001 
3453125000  -4.101426e+001  8.454152e+001 
3456250000  -4.227001e+001  7.868253e+001 
3459375000  -4.295797e+001  8.086451e+001 
3462500000  -4.331433e+001  8.158331e+001 
3465625000  -4.350415e+001  7.816301e+001 
3468750000  -4.354090e+001  7.306390e+001 
3471875000  -4.388883e+001  7.579801e+001 
3475000000  -4.382615e+001  7.218152e+001 
3478125000  -4.477986e+001  6.815335e+001 
3481250000  -4.554403e+001  6.474863e+001 
3484375000  -4.725217e+001  6.814762e+001 
3487500000  -4.691153e+001  7.415901e+001 
3490625000  -4.658465e+001  7.168996e+001 
3493750000  -4.726321e+001  7.000071e+001 
3496875000  -4.800243e+001  7.151342e+001 
3500000000  -4.920764e+001  8.258665e+001 
3503125000  -4.903522e+001  8.864717e+001 
3506250000  -4.826790e+001  9.046401e+001 
3509375000  -4.809219e+001  8.692403e+001 
3512500000  -4.825440e+001  8.752358e+001 
3515625000  -4.863605e+001  8.878751e+001 
3518750000  -4.892299e+001  9.824969e+001 
3521875000  -4.782268e+001  1.025911e+002 
3525000000  -4.851637e+001  1.026404e+002 
3528125000  -4.777168e+001  1.114563e+002 
3531250000  -4.596914e+001  1.115098e+002 
3534375000  -4.514319e+001  1.037058e+002 
3537500000  -4.509578e+001  1.001500e+002 
3540625000  -4.525656e+001  9.888416e+001 
3543750000  -4.594024e+001  1.012699e+002 
3546875000  -4.583604e+001  1.133383e+002 
3550000000  -4.313963e+001  1.164927e+002 
3553125000  -4.129885e+001  1.005947e+002 
3556250000  -4.207226e+001  9.379899e+001 
3559375000  -4.210078e+001  9.567162e+001 
3562500000  -4.058754e+001  8.835469e+001 
3565625000  -4.153353e+001  8.152975e+001 
3568750000  -4.164439e+001  8.422977e+001 
3571875000  -4.141314e+001  8.407491e+001 
3575000000  -4.083622e+001  7.850369e+001 
3578125000  -4.126132e+001  7.370963e+001 
3581250000  -4.145854e+001  7.514152e+001 
3584375000  -4.039934e+001  7.350258e+001 
3587500000  -3.949411e+001  6.785892e+001 
3590625000  -3.978782e+001  5.941000e+001 
3593750000  -4.107559e+001  5.656728e+001 
3596875000  -4.120298e+001  6.508717e+001 
3600000000  -3.959883e+001  6.195047e+001 
3603125000  -3.959977e+001  5.030177e+001 
3606250000  -4.034859e+001  4.527574e+001 
3609375000  -4.080996e+001  4.402792e+001 
3612500000  -4.121766e+001  4.574820e+001 
3615625000  -4.108696e+001  4.163073e+001 
3618750000  -4.182070e+001  4.372949e+001 
3621875000  -4.159016e+001  4.286560e+001 
3625000000  -4.158543e+001  3.951083e+001 
3628125000  -4.163442e+001  4.429869e+001 
3631250000  -4.140900e+001  3.641262e+001 
3634375000  -4.244208e+001  3.765083e+001 
3637500000  -4.232028e+001  4.519161e+001 
3640625000  -4.103176e+001  4.519981e+001 
3643750000  -4.077567e+001  3.871152e+001 
3646875000  -4.122699e+001  3.511882e+001 
3650000000  -4.189164e+001  3.437138e+001 
3653125000  -4.152174e+001  3.388972e+001 
3656250000  -4.165184e+001  3.400149e+001 
3659375000  -4.182988e+001  3.602531e+001 
3662500000  -4.143617e+001  3.729029e+001 
3665625000  -4.130680e+001  3.474426e+001 
3668750000  -4.027366e+001  3.739402e+001 
3671875000  -3.920164e+001  3.325294e+001 
3675000000  -3.993233e+001  2.850885e+001 
3678125000  -4.005919e+001  2.984251e+001 
3681250000  -3.967002e+001  2.971159e+001 
3684375000  -3.949226e+001  2.639325e+001 
3687500000  -3.957950e+001  2.575551e+001 
3690625000  -3.927639e+001  2.214554e+001 
3693750000  -4.006633e+001  2.670060e+001 
3696875000  -3.987281e+001  2.858274e+001 
3700000000  -3.855671e+001  2.660607e+001 
3703125000  -3.835762e+001  2.157603e+001 
3706250000  -3.918210e+001  2.432169e+001 
3709375000  -3.854645e+001  2.698562e+001 
3712500000  -3.723856e+001  2.674291e+001 
3715625000  -3.635020e+001  1.971617e+001 
3718750000  -3.556767e+001  1.787979e+001 
3721875000  -3.521807e+001  1.319043e+001 
3725000000  -3.509135e+001  7.127923e+000 
3728125000  -3.534367e+001  7.121826e+000 
3731250000  -3.474548e+001  7.053360e+000 
3734375000  -3.374498e+001  5.915803e-001 
3737500000  -3.420312e+001  -6.144670e+000 
3740625000  -3.496837e+001  -9.555127e+000 
3743750000  -3.465332e+001  -1.157185e+001 
3746875000  -3.469712e+001  -1.418952e+001 
3750000000  -3.501702e+001  -1.624618e+001 
3753125000  -3.461536e+001  -1.507682e+001 
3756250000  -3.452552e+001  -1.615639e+001 
3759375000  -3.441391e+001  -1.674006e+001 
3762500000  -3.373110e+001  -1.998739e+001 
3765625000  -3.405278e+001  -2.290137e+001 
3768750000  -3.433008e+001  -2.138592e+001 
3771875000  -3.265215e+001  -2.353795e+001 
3775000000  -3.233374e+001  -3.074389e+001 
3778125000  -3.256807e+001  -3.211979e+001 
3781250000  -3.231306e+001  -3.450189e+001 
3784375000  -3.232229e+001  -3.688082e+001 
3787500000  -3.176698e+001  -4.114344e+001 
3790625000  -3.212575e+001  -4.695900e+001 
3793750000  -3.239434e+001  -4.696449e+001 
3796875000  -3.149087e+001  -4.796272e+001 
3800000000  -3.003373e+001  -5.196234e+001 
3803125000  -3.062329e+001  -5.842256e+001 
3806250000  -3.116716e+001  -6.089240e+001 
3809375000  -3.107881e+001  -6.258039e+001 
3812500000  -3.030413e+001  -6.766782e+001 
3815625000  -3.080360e+001  -7.428307e+001 
3818750000  -3.179091e+001  -7.553867e+001 
3821875000  -3.195639e+001  -6.848338e+001 
3825000000  -3.016015e+001  -6.304882e+001 
3828125000  -2.865038e+001  -7.606335e+001 
3831250000  -2.921572e+001  -9.041587e+001 
3834375000  -3.051986e+001  -9.276331e+001 
3837500000  -3.132895e+001  -8.750621e+001 
3840625000  -3.040557e+001  -8.823380e+001 
3843750000  -2.927636e+001  -9.825878e+001 
3846875000  -2.990992e+001  -1.049632e+002 
3850000000  -3.116693e+001  -1.000522e+002 
3853125000  -3.035110e+001  -9.742043e+001 
3856250000  -3.044101e+001  -1.025001e+002 
3859375000  -2.965759e+001  -1.063120e+002 
3862500000  -2.932336e+001  -1.132951e+002 
3865625000  -2.947971e+001  -1.176871e+002 
3868750000  -2.955550e+001  -1.186109e+002 
3871875000  -2.881285e+001  -1.207048e+002 
3875000000  -2.893830e+001  -1.287403e+002 
3878125000  -2.993317e+001  -1.319240e+002 
3881250000  -3.003917e+001  -1.286317e+002 
3884375000  -2.956512e+001  -1.332490e+002 
3887500000  -2.951106e+001  -1.369150e+002 
3890625000  -3.007059e+001  -1.393922e+002 
3893750000  -3.056380e+001  -1.406882e+002 
3896875000  -3.063297e+001  -1.401381e+002 
3900000000  -3.094407e+001  -1.414357e+002 
3903125000  -3.046267e+001  -1.424416e+002 
3906250000  -3.036224e+001  -1.440319e+002 
3909375000  -2.956445e+001  -1.461202e+002 
3912500000  -2.941365e+001  -1.535798e+002 
3915625000  -3.067145e+001  -1.531450e+002 
3918750000  -3.065240e+001  -1.513174e+002 
3921875000  -3.035066e+001  -1.526800e+002 
3925000000  -2.949918e+001  -1.527343e+002 
3928125000  -2.882940e+001  -1.588867e+002 
3931250000  -2.914576e+001  -1.631624e+002 
3934375000  -2.932194e+001  -1.625959e+002 
3937500000  -2.939302e+001  -1.638966e+002 
3940625000  -3.001062e+001  -1.639037e+002 
3943750000  -2.913846e+001  -1.622120e+002 
3946875000  -2.775685e+001  -1.677026e+002 
3950000000  -2.819099e+001  -1.747335e+002 
3953125000  -2.922345e+001  -1.746550e+002 
3956250000  -2.833169e+001  -1.720696e+002 
3959375000  -2.694907e+001  -1.759741e+002 
3962500000  -2.657517e+001  -1.793403e+002 
3965625000  -2.616859e+001  1.717441e+002 
3968750000  -2.706483e+001  1.649395e+002 
3971875000  -2.749220e+001  1.634168e+002 
3975000000  -2.696282e+001  1.614722e+002 
3978125000  -2.667446e+001  1.599380e+002 
3981250000  -2.639693e+001  1.561166e+002 
3984375000  -2.663400e+001  1.495734e+002 
3987500000  -2.712887e+001  1.474253e+002 
3990625000  -2.719574e+001  1.466846e+002 
3993750000  -2.732197e+001  1.435234e+002 
3996875000  -2.733068e+001  1.406933e+002 
4000000000  -2.736927e+001  1.390452e+002 
4003125000  -2.805815e+001  1.414634e+002 
4006250000  -2.667520e+001  1.421254e+002 
4009375000  -2.545485e+001  1.301755e+002 
4012500000  -2.633489e+001  1.228559e+002 
4015625000  -2.750533e+001  1.232449e+002 
4018750000  -2.785033e+001  1.256434e+002 
4021875000  -2.717088e+001  1.246465e+002 
4025000000  -2.674203e+001  1.195115e+002 
4028125000  -2.666021e+001  1.154980e+002 
4031250000  -2.705413e+001  1.123265e+002 
4034375000  -2.729673e+001  1.118492e+002 
4037500000  -2.680886e+001  1.135571e+002 
4040625000  -2.670469e+001  1.102362e+002 
4043750000  -2.704300e+001  1.103419e+002 
4046875000  -2.655899e+001  1.094491e+002 
4050000000  -2.599288e+001  1.037237e+002 
4053125000  -2.642329e+001  1.007099e+002 
4056250000  -2.706672e+001  1.044944e+002 
4059375000  -2.605731e+001  1.068738e+002 
4062500000  -2.460364e+001  1.024991e+002 
4065625000  -2.441611e+001  9.816849e+001 
4068750000  -2.414596e+001  9.370848e+001 
4071875000  -2.350616e+001  8.569273e+001 
4075000000  -2.379680e+001  7.906679e+001 
4078125000  -2.430507e+001  7.758279e+001 
4081250000  -2.388420e+001  7.523689e+001 
4084375000  -2.345771e+001  6.861222e+001 
4087500000  -2.375852e+001  6.226513e+001 
4090625000  -2.436627e+001  6.051069e+001 
4093750000  -2.431154e+001  6.140172e+001 
4096875000  -2.383079e+001  5.605932e+001 
4100000000  -2.444464e+001  4.923190e+001 
4103125000  -2.528450e+001  4.904417e+001 
4106250000  -2.529036e+001  5.419326e+001 
4109375000  -2.440863e+001  5.359655e+001 
4112500000  -2.382991e+001  4.717425e+001 
4115625000  -2.408651e+001  4.261805e+001 
4118750000  -2.427213e+001  3.997150e+001 
4121875000  -2.396512e+001  3.535702e+001 
4125000000  -2.426082e+001  3.056340e+001 
4128125000  -2.521559e+001  3.070013e+001 
4131250000  -2.495533e+001  3.899829e+001 
4134375000  -2.263911e+001  3.479740e+001 
4137500000  -2.235047e+001  1.598851e+001 
4140625000  -2.440698e+001  8.760116e+000 
4143750000  -2.577016e+001  1.295531e+001 
4146875000  -2.538583e+001  2.025109e+001 
4150000000  -2.450005e+001  1.750461e+001 
4153125000  -2.430784e+001  1.137473e+001 
4156250000  -2.512447e+001  8.377870e+000 
4159375000  -2.545706e+001  1.258756e+001 
4162500000  -2.430382e+001  1.690343e+001 
4165625000  -2.321520e+001  1.314062e+001 
4168750000  -2.250453e+001  6.427882e+000 
4171875000  -2.241098e+001  -3.117492e+000 
4175000000  -2.295531e+001  -9.096745e+000 
4178125000  -2.349582e+001  -9.964627e+000 
4181250000  -2.347221e+001  -1.013148e+001 
4184375000  -2.329693e+001  -1.336522e+001 
4187500000  -2.336913e+001  -1.612275e+001 
4190625000  -2.316645e+001  -2.149523e+001 
4193750000  -2.386240e+001  -2.563957e+001 
4196875000  -2.466593e+001  -2.589075e+001 
4200000000  -2.538800e+001  -2.411255e+001 
4203125000  -2.550788e+001  -1.192503e+001 
4206250000  -2.237536e+001  -9.351777e+000 
4209375000  -2.111212e+001  -2.977906e+001 
4212500000  -2.294489e+001  -3.847009e+001 
4215625000  -2.398795e+001  -3.224437e+001 
4218750000  -2.261290e+001  -2.520908e+001 
4221875000  -2.025413e+001  -3.477750e+001 
4225000000  -2.144156e+001  -4.816031e+001 
4228125000  -2.228129e+001  -4.312491e+001 
4231250000  -2.081941e+001  -4.656963e+001 
4234375000  -2.065329e+001  -5.506522e+001 
4237500000  -2.028993e+001  -5.841401e+001 
4240625000  -2.035900e+001  -6.680414e+001 
4243750000  -2.133390e+001  -7.287267e+001 
4246875000  -2.214128e+001  -7.280914e+001 
4250000000  -2.218996e+001  -7.047124e+001 
4253125000  -2.156953e+001  -7.243914e+001 
4256250000  -2.175854e+001  -7.654060e+001 
4259375000  -2.163316e+001  -7.834525e+001 
4262500000  -2.162694e+001  -8.249367e+001 
4265625000  -2.178523e+001  -8.224256e+001 
4268750000  -2.106057e+001  -8.590947e+001 
4271875000  -2.075352e+001  -9.092045e+001 
4275000000  -2.003751e+001  -9.728040e+001 
4278125000  -2.051014e+001  -1.089861e+002 
4281250000  -2.229000e+001  -1.113932e+002 
4284375000  -2.208535e+001  -1.109833e+002 
4287500000  -2.283289e+001  -1.148064e+002 
4290625000  -2.421126e+001  -1.054104e+002 
4293750000  -2.232204e+001  -9.878111e+001 
4296875000  -2.086654e+001  -1.101967e+002 
4300000000  -2.163577e+001  -1.192499e+002 
4303125000  -2.270395e+001  -1.187452e+002 
4306250000  -2.217939e+001  -1.129522e+002 
4309375000  -2.074134e+001  -1.151519e+002 
4312500000  -2.066097e+001  -1.235290e+002 
4315625000  -2.096766e+001  -1.292912e+002 
4318750000  -2.118226e+001  -1.327346e+002 
4321875000  -2.134249e+001  -1.326617e+002 
4325000000  -2.074699e+001  -1.324171e+002 
4328125000  -2.027261e+001  -1.387902e+002 
4331250000  -2.030925e+001  -1.468290e+002 
4334375000  -2.068943e+001  -1.513224e+002 
4337500000  -2.140134e+001  -1.539865e+002 
4340625000  -2.194657e+001  -1.513599e+002 
4343750000  -2.148529e+001  -1.507692e+002 
4346875000  -2.110606e+001  -1.557455e+002 
4350000000  -2.098335e+001  -1.601544e+002 
4353125000  -2.099860e+001  -1.681913e+002 
4356250000  -2.259795e+001  -1.703636e+002 
4359375000  -2.336642e+001  -1.585217e+002 
4362500000  -2.106357e+001  -1.556237e+002 
4365625000  -1.941031e+001  -1.661535e+002 
4368750000  -2.001533e+001  -1.781651e+002 
4371875000  -2.115008e+001  -1.782905e+002 
4375000000  -2.090480e+001  -1.766297e+002 
4378125000  -2.032510e+001  1.778601e+002 
4381250000  -2.039516e+001  1.724990e+002 
4384375000  -2.023219e+001  1.682906e+002 
4387500000  -2.082241e+001  1.619991e+002 
4390625000  -2.187544e+001  1.623915e+002 
4393750000  -2.133521e+001  1.649901e+002 
4396875000  -2.069694e+001  1.627050e+002 
4400000000  -2.021065e+001  1.561342e+002 
4403125000  -2.065802e+001  1.483104e+002 
4406250000  -2.154016e+001  1.470277e+002 
4409375000  -2.143461e+001  1.447679e+002 
4412500000  -2.239139e+001  1.416191e+002 
4415625000  -2.286612e+001  1.460095e+002 
4418750000  -2.186366e+001  1.509923e+002 
