!Agilent Technologies,E8363B,MY43030201,A.06.04.32
!Agilent E8363B: A.06.04.32
!Date: Tuesday, November 11, 2014 20:50:15
!Correction: S21(Response(S21)) 
!S1P File: Measurement: S21:
# Hz S  dB   R 50
3000000000  -2.655607e+001  1.526769e+002 
3003125000  -2.791255e+001  1.482590e+002 
3006250000  -2.800981e+001  1.456001e+002 
3009375000  -2.831315e+001  1.505023e+002 
3012500000  -2.777622e+001  1.501519e+002 
3015625000  -2.684641e+001  1.432980e+002 
3018750000  -2.768838e+001  1.419645e+002 
3021875000  -2.644952e+001  1.437011e+002 
3025000000  -2.513052e+001  1.406679e+002 
3028125000  -2.415922e+001  1.357108e+002 
3031250000  -2.312130e+001  1.242684e+002 
3034375000  -2.277525e+001  1.114106e+002 
3037500000  -2.312842e+001  9.935355e+001 
3040625000  -2.445089e+001  9.452243e+001 
3043750000  -2.517351e+001  9.014468e+001 
3046875000  -2.528537e+001  8.366427e+001 
3050000000  -2.702398e+001  7.661171e+001 
3053125000  -2.714132e+001  8.339453e+001 
3056250000  -2.647192e+001  8.645586e+001 
3059375000  -2.671406e+001  8.590339e+001 
3062500000  -2.524314e+001  8.178668e+001 
3065625000  -2.501464e+001  7.649395e+001 
3068750000  -2.473120e+001  6.940419e+001 
3071875000  -2.466525e+001  6.670724e+001 
3075000000  -2.466164e+001  6.264064e+001 
3078125000  -2.435564e+001  5.816071e+001 
3081250000  -2.501102e+001  5.384121e+001 
3084375000  -2.426007e+001  5.021117e+001 
3087500000  -2.412422e+001  4.671611e+001 
3090625000  -2.383849e+001  3.697850e+001 
3093750000  -2.429958e+001  2.904607e+001 
3096875000  -2.555259e+001  2.289685e+001 
3100000000  -2.571355e+001  2.141096e+001 
3103125000  -2.610031e+001  2.298070e+001 
3106250000  -2.581476e+001  1.958703e+001 
3109375000  -2.606238e+001  1.622686e+001 
3112500000  -2.620971e+001  1.505615e+001 
3115625000  -2.599705e+001  1.082207e+001 
3118750000  -2.649635e+001  1.186047e+001 
3121875000  -2.581976e+001  4.062520e+000 
3125000000  -2.694931e+001  4.016109e-001 
3128125000  -2.816958e+001  8.455400e+000 
3131250000  -2.596629e+001  9.171147e+000 
3134375000  -2.464543e+001  -4.328109e+000 
3137500000  -2.534887e+001  -1.802699e+001 
3140625000  -2.697180e+001  -1.996983e+001 
3143750000  -2.797141e+001  -1.622113e+001 
3146875000  -2.752581e+001  -1.362076e+001 
3150000000  -2.656463e+001  -1.164687e+001 
3153125000  -2.652787e+001  -1.936529e+001 
3156250000  -2.750622e+001  -1.380102e+001 
3159375000  -2.590210e+001  -1.094701e+001 
3162500000  -2.389398e+001  -2.385922e+001 
3165625000  -2.480990e+001  -3.493769e+001 
3168750000  -2.520206e+001  -3.368236e+001 
3171875000  -2.424206e+001  -3.816681e+001 
3175000000  -2.490669e+001  -4.591184e+001 
3178125000  -2.470382e+001  -4.417186e+001 
3181250000  -2.348502e+001  -4.828353e+001 
3184375000  -2.272806e+001  -6.063514e+001 
3187500000  -2.381213e+001  -7.572041e+001 
3190625000  -2.660075e+001  -8.308787e+001 
3193750000  -2.725341e+001  -7.376609e+001 
3196875000  -2.677743e+001  -6.791636e+001 
3200000000  -2.591168e+001  -6.967648e+001 
3203125000  -2.505339e+001  -7.572569e+001 
3206250000  -2.535735e+001  -8.185822e+001 
3209375000  -2.488283e+001  -8.700811e+001 
3212500000  -2.497677e+001  -9.352798e+001 
3215625000  -2.514520e+001  -9.766168e+001 
3218750000  -2.591912e+001  -1.039662e+002 
3221875000  -2.691578e+001  -1.091327e+002 
3225000000  -2.648618e+001  -1.097475e+002 
3228125000  -2.681197e+001  -1.143062e+002 
3231250000  -2.752133e+001  -1.171362e+002 
3234375000  -2.742908e+001  -1.161462e+002 
3237500000  -2.745243e+001  -1.174471e+002 
3240625000  -2.711167e+001  -1.194246e+002 
3243750000  -2.671755e+001  -1.258315e+002 
3246875000  -2.723760e+001  -1.326325e+002 
3250000000  -2.768719e+001  -1.343651e+002 
3253125000  -2.783268e+001  -1.360824e+002 
3256250000  -2.773441e+001  -1.418665e+002 
3259375000  -2.804894e+001  -1.496283e+002 
3262500000  -2.927150e+001  -1.524919e+002 
3265625000  -2.996257e+001  -1.493439e+002 
3268750000  -2.992283e+001  -1.463632e+002 
3271875000  -2.970895e+001  -1.452130e+002 
3275000000  -2.860366e+001  -1.502146e+002 
3278125000  -2.907510e+001  -1.565107e+002 
3281250000  -2.935651e+001  -1.547580e+002 
3284375000  -2.890616e+001  -1.606547e+002 
3287500000  -2.911936e+001  -1.634306e+002 
3290625000  -2.949242e+001  -1.675593e+002 
3293750000  -2.918197e+001  -1.733350e+002 
3296875000  -3.016137e+001  -1.729781e+002 
3300000000  -3.007681e+001  -1.718002e+002 
3303125000  -2.893701e+001  -1.759676e+002 
3306250000  -2.872646e+001  1.774396e+002 
3309375000  -2.849511e+001  1.722218e+002 
3312500000  -2.856664e+001  1.618117e+002 
3315625000  -2.957668e+001  1.543810e+002 
3318750000  -3.095234e+001  1.514048e+002 
3321875000  -3.218962e+001  1.512051e+002 
3325000000  -3.266452e+001  1.562679e+002 
3328125000  -3.257802e+001  1.580476e+002 
3331250000  -3.131546e+001  1.654623e+002 
3334375000  -2.874054e+001  1.555567e+002 
3337500000  -2.881231e+001  1.375924e+002 
3340625000  -3.013673e+001  1.264437e+002 
3343750000  -3.211695e+001  1.254488e+002 
3346875000  -3.255907e+001  1.267913e+002 
3350000000  -3.205379e+001  1.255325e+002 
3353125000  -3.209932e+001  1.215447e+002 
3356250000  -3.180621e+001  1.138788e+002 
3359375000  -3.268665e+001  1.053056e+002 
3362500000  -3.403969e+001  9.972729e+001 
3365625000  -3.456494e+001  9.814085e+001 
3368750000  -3.549165e+001  9.673312e+001 
3371875000  -3.597467e+001  9.333069e+001 
3375000000  -3.749512e+001  9.107259e+001 
3378125000  -3.873445e+001  9.174579e+001 
3381250000  -4.020238e+001  9.847207e+001 
3384375000  -3.932003e+001  1.201997e+002 
3387500000  -3.613964e+001  1.059853e+002 
3390625000  -3.781919e+001  8.775269e+001 
3393750000  -3.977179e+001  9.169366e+001 
3396875000  -3.893250e+001  9.488614e+001 
3400000000  -3.896847e+001  8.817338e+001 
3403125000  -3.991054e+001  8.273296e+001 
3406250000  -4.086735e+001  8.677718e+001 
3409375000  -4.119829e+001  8.071718e+001 
3412500000  -4.205907e+001  8.370853e+001 
3415625000  -4.300183e+001  8.730071e+001 
3418750000  -4.333518e+001  9.225236e+001 
3421875000  -4.353667e+001  9.709711e+001 
3425000000  -4.299809e+001  1.013321e+002 
3428125000  -4.185034e+001  1.011541e+002 
3431250000  -4.178049e+001  9.700568e+001 
3434375000  -4.137854e+001  9.404176e+001 
3437500000  -4.194003e+001  9.383334e+001 
3440625000  -4.219994e+001  9.553452e+001 
3443750000  -4.120455e+001  9.799084e+001 
3446875000  -4.012880e+001  9.399728e+001 
3450000000  -4.029282e+001  8.530547e+001 
3453125000  -4.042590e+001  7.510226e+001 
3456250000  -4.168253e+001  7.061651e+001 
3459375000  -4.235844e+001  7.403193e+001 
3462500000  -4.254807e+001  7.373376e+001 
3465625000  -4.268007e+001  7.101427e+001 
3468750000  -4.316518e+001  6.697186e+001 
3471875000  -4.293845e+001  6.482243e+001 
3475000000  -4.318496e+001  6.429146e+001 
3478125000  -4.401783e+001  5.953617e+001 
3481250000  -4.513248e+001  5.874407e+001 
3484375000  -4.616809e+001  6.484639e+001 
3487500000  -4.588137e+001  6.587741e+001 
3490625000  -4.537220e+001  6.410660e+001 
3493750000  -4.620698e+001  6.243727e+001 
3496875000  -4.702504e+001  6.114960e+001 
3500000000  -4.786756e+001  6.957526e+001 
3503125000  -4.796348e+001  7.420905e+001 
3506250000  -4.615675e+001  7.289054e+001 
3509375000  -4.692055e+001  7.562483e+001 
3512500000  -4.721056e+001  7.076157e+001 
3515625000  -4.780779e+001  6.948338e+001 
3518750000  -4.803915e+001  7.884600e+001 
3521875000  -4.784269e+001  8.458675e+001 
3525000000  -4.855114e+001  8.333513e+001 
3528125000  -4.750296e+001  9.675164e+001 
3531250000  -4.571583e+001  9.618873e+001 
3534375000  -4.489431e+001  8.588427e+001 
3537500000  -4.503403e+001  8.462839e+001 
3540625000  -4.551018e+001  8.524068e+001 
3543750000  -4.599400e+001  8.633366e+001 
3546875000  -4.494874e+001  9.816721e+001 
3550000000  -4.301835e+001  1.042582e+002 
3553125000  -4.152338e+001  8.645914e+001 
3556250000  -4.229190e+001  7.834856e+001 
3559375000  -4.208638e+001  8.363311e+001 
3562500000  -4.083801e+001  7.642189e+001 
3565625000  -4.173981e+001  6.936613e+001 
3568750000  -4.190186e+001  7.274778e+001 
3571875000  -4.137825e+001  7.343423e+001 
3575000000  -4.101948e+001  6.698521e+001 
3578125000  -4.131492e+001  6.308210e+001 
3581250000  -4.128384e+001  6.437437e+001 
3584375000  -4.048694e+001  6.114497e+001 
3587500000  -3.963069e+001  5.696119e+001 
3590625000  -4.022243e+001  4.566541e+001 
3593750000  -4.114666e+001  4.701437e+001 
3596875000  -4.113910e+001  5.424723e+001 
3600000000  -3.928131e+001  5.077982e+001 
3603125000  -3.961392e+001  3.783410e+001 
3606250000  -4.029440e+001  3.575991e+001 
3609375000  -4.078355e+001  3.313201e+001 
3612500000  -4.104116e+001  3.004607e+001 
3615625000  -4.105676e+001  2.942252e+001 
3618750000  -4.188780e+001  3.028488e+001 
3621875000  -4.144995e+001  3.027362e+001 
3625000000  -4.171485e+001  2.958822e+001 
3628125000  -4.177127e+001  2.929044e+001 
3631250000  -4.110420e+001  2.642215e+001 
3634375000  -4.251961e+001  2.691471e+001 
3637500000  -4.209704e+001  3.282522e+001 
3640625000  -4.112578e+001  3.330245e+001 
3643750000  -4.060146e+001  2.646607e+001 
3646875000  -4.136452e+001  2.206421e+001 
3650000000  -4.173956e+001  2.106898e+001 
3653125000  -4.148092e+001  2.114422e+001 
3656250000  -4.185027e+001  2.093847e+001 
3659375000  -4.207386e+001  2.464882e+001 
3662500000  -4.156059e+001  2.316658e+001 
3665625000  -4.154075e+001  2.357054e+001 
3668750000  -4.045642e+001  2.630688e+001 
3671875000  -3.964169e+001  2.092607e+001 
3675000000  -3.997580e+001  1.533263e+001 
3678125000  -4.052430e+001  1.863644e+001 
3681250000  -3.988414e+001  1.827925e+001 
3684375000  -3.973158e+001  1.528010e+001 
3687500000  -3.994723e+001  1.360489e+001 
3690625000  -3.979125e+001  1.166472e+001 
3693750000  -4.071798e+001  1.345304e+001 
3696875000  -4.029546e+001  1.757317e+001 
3700000000  -3.914946e+001  1.550049e+001 
3703125000  -3.886585e+001  1.249660e+001 
3706250000  -3.945848e+001  1.411474e+001 
3709375000  -3.867645e+001  1.657362e+001 
3712500000  -3.755139e+001  1.730819e+001 
3715625000  -3.659268e+001  1.087621e+001 
3718750000  -3.576609e+001  8.588080e+000 
3721875000  -3.542627e+001  2.495423e+000 
3725000000  -3.530927e+001  -2.288649e+000 
3728125000  -3.554869e+001  -2.223285e+000 
3731250000  -3.485942e+001  -3.318983e+000 
3734375000  -3.389864e+001  -9.446145e+000 
3737500000  -3.448500e+001  -1.609584e+001 
3740625000  -3.510435e+001  -1.989403e+001 
3743750000  -3.477007e+001  -2.271963e+001 
3746875000  -3.472409e+001  -2.622902e+001 
3750000000  -3.517785e+001  -2.599470e+001 
3753125000  -3.479092e+001  -2.561082e+001 
3756250000  -3.478181e+001  -2.689652e+001 
3759375000  -3.460034e+001  -2.778709e+001 
3762500000  -3.398851e+001  -3.146532e+001 
3765625000  -3.443085e+001  -3.312572e+001 
3768750000  -3.456353e+001  -3.210143e+001 
3771875000  -3.281918e+001  -3.397942e+001 
3775000000  -3.252000e+001  -4.143473e+001 
3778125000  -3.284761e+001  -4.393069e+001 
3781250000  -3.264458e+001  -4.604095e+001 
3784375000  -3.252761e+001  -4.746787e+001 
3787500000  -3.192422e+001  -5.130986e+001 
3790625000  -3.238879e+001  -5.724112e+001 
3793750000  -3.262006e+001  -5.770588e+001 
3796875000  -3.160451e+001  -5.911482e+001 
3800000000  -3.018071e+001  -6.258910e+001 
3803125000  -3.079240e+001  -6.970152e+001 
3806250000  -3.144546e+001  -7.217630e+001 
3809375000  -3.124978e+001  -7.239858e+001 
3812500000  -3.044239e+001  -7.778652e+001 
3815625000  -3.114702e+001  -8.538925e+001 
3818750000  -3.206484e+001  -8.647182e+001 
3821875000  -3.215187e+001  -7.825600e+001 
3825000000  -3.031335e+001  -7.342440e+001 
3828125000  -2.892139e+001  -8.796262e+001 
3831250000  -2.939355e+001  -1.017600e+002 
3834375000  -3.075811e+001  -1.034407e+002 
3837500000  -3.169645e+001  -9.768340e+001 
3840625000  -3.060650e+001  -9.937694e+001 
3843750000  -2.934506e+001  -1.084307e+002 
3846875000  -3.002029e+001  -1.163949e+002 
3850000000  -3.127925e+001  -1.108234e+002 
3853125000  -3.061011e+001  -1.084616e+002 
3856250000  -3.043622e+001  -1.134539e+002 
3859375000  -2.987690e+001  -1.182451e+002 
3862500000  -2.945297e+001  -1.247868e+002 
3865625000  -2.966046e+001  -1.293777e+002 
3868750000  -2.969389e+001  -1.299760e+002 
3871875000  -2.897546e+001  -1.326993e+002 
3875000000  -2.913002e+001  -1.410716e+002 
3878125000  -3.015171e+001  -1.441685e+002 
3881250000  -3.031869e+001  -1.402480e+002 
3884375000  -2.967340e+001  -1.447567e+002 
3887500000  -2.985400e+001  -1.492312e+002 
3890625000  -3.039448e+001  -1.512433e+002 
3893750000  -3.083136e+001  -1.526043e+002 
3896875000  -3.088510e+001  -1.521092e+002 
3900000000  -3.106600e+001  -1.534678e+002 
3903125000  -3.077876e+001  -1.549076e+002 
3906250000  -3.053658e+001  -1.558397e+002 
3909375000  -2.974886e+001  -1.584431e+002 
3912500000  -2.988230e+001  -1.655501e+002 
3915625000  -3.097769e+001  -1.642918e+002 
3918750000  -3.102348e+001  -1.631497e+002 
3921875000  -3.065682e+001  -1.645924e+002 
3925000000  -2.993176e+001  -1.648854e+002 
3928125000  -2.914170e+001  -1.708817e+002 
3931250000  -2.957374e+001  -1.745046e+002 
3934375000  -2.979346e+001  -1.742055e+002 
3937500000  -2.990707e+001  -1.758795e+002 
3940625000  -3.044049e+001  -1.753763e+002 
3943750000  -2.947944e+001  -1.741293e+002 
3946875000  -2.821147e+001  -1.794248e+002 
3950000000  -2.863502e+001  1.737286e+002 
3953125000  -2.958085e+001  1.738471e+002 
3956250000  -2.889641e+001  1.763552e+002 
3959375000  -2.745278e+001  1.735082e+002 
3962500000  -2.691083e+001  1.697509e+002 
3965625000  -2.658360e+001  1.605229e+002 
3968750000  -2.750558e+001  1.535336e+002 
3971875000  -2.784930e+001  1.520302e+002 
3975000000  -2.718555e+001  1.502093e+002 
3978125000  -2.700266e+001  1.487307e+002 
3981250000  -2.682011e+001  1.442402e+002 
3984375000  -2.699449e+001  1.381843e+002 
3987500000  -2.755592e+001  1.357855e+002 
3990625000  -2.753294e+001  1.352695e+002 
3993750000  -2.772854e+001  1.320865e+002 
3996875000  -2.776163e+001  1.293798e+002 
4000000000  -2.783139e+001  1.272122e+002 
4003125000  -2.842081e+001  1.293552e+002 
4006250000  -2.709610e+001  1.297413e+002 
4009375000  -2.584921e+001  1.180548e+002 
4012500000  -2.690974e+001  1.105855e+002 
4015625000  -2.813357e+001  1.110349e+002 
4018750000  -2.839418e+001  1.136116e+002 
4021875000  -2.769478e+001  1.121021e+002 
4025000000  -2.728012e+001  1.074512e+002 
4028125000  -2.723932e+001  1.033563e+002 
4031250000  -2.766754e+001  1.005143e+002 
4034375000  -2.796761e+001  1.004938e+002 
4037500000  -2.741249e+001  1.025622e+002 
4040625000  -2.730102e+001  9.902337e+001 
4043750000  -2.765285e+001  9.882604e+001 
4046875000  -2.719578e+001  9.823012e+001 
4050000000  -2.670386e+001  9.285629e+001 
4053125000  -2.714322e+001  9.077828e+001 
4056250000  -2.781469e+001  9.418044e+001 
4059375000  -2.661711e+001  9.652940e+001 
4062500000  -2.515157e+001  9.157053e+001 
4065625000  -2.499020e+001  8.698001e+001 
4068750000  -2.470493e+001  8.260770e+001 
4071875000  -2.406266e+001  7.479166e+001 
4075000000  -2.441995e+001  6.807648e+001 
4078125000  -2.502231e+001  6.719711e+001 
4081250000  -2.444205e+001  6.483013e+001 
4084375000  -2.404612e+001  5.832441e+001 
4087500000  -2.442645e+001  5.178049e+001 
4090625000  -2.500117e+001  5.051489e+001 
4093750000  -2.487113e+001  5.139193e+001 
4096875000  -2.442702e+001  4.541266e+001 
4100000000  -2.503995e+001  3.836381e+001 
4103125000  -2.594150e+001  3.887333e+001 
4106250000  -2.583020e+001  4.339605e+001 
4109375000  -2.496318e+001  4.330477e+001 
4112500000  -2.445658e+001  3.663623e+001 
4115625000  -2.473010e+001  3.262665e+001 
4118750000  -2.485573e+001  2.936118e+001 
4121875000  -2.448544e+001  2.469297e+001 
4125000000  -2.484411e+001  1.985586e+001 
4128125000  -2.582825e+001  1.974750e+001 
4131250000  -2.559890e+001  2.781739e+001 
4134375000  -2.325629e+001  2.334325e+001 
4137500000  -2.299744e+001  4.870404e+000 
4140625000  -2.518563e+001  -2.207021e+000 
4143750000  -2.645611e+001  2.494714e+000 
4146875000  -2.615817e+001  1.021592e+001 
4150000000  -2.523180e+001  6.845695e+000 
4153125000  -2.500466e+001  8.674193e-001 
4156250000  -2.589808e+001  -1.928462e+000 
4159375000  -2.616998e+001  2.272801e+000 
4162500000  -2.501009e+001  6.604270e+000 
4165625000  -2.391029e+001  3.058911e+000 
4168750000  -2.328980e+001  -4.487886e+000 
4171875000  -2.322222e+001  -1.355274e+001 
4175000000  -2.380847e+001  -1.934381e+001 
4178125000  -2.442119e+001  -1.917157e+001 
4181250000  -2.427097e+001  -1.966272e+001 
4184375000  -2.411337e+001  -2.282122e+001 
4187500000  -2.415004e+001  -2.575241e+001 
4190625000  -2.396935e+001  -3.153157e+001 
4193750000  -2.474215e+001  -3.501405e+001 
4196875000  -2.550092e+001  -3.560648e+001 
4200000000  -2.627901e+001  -3.302240e+001 
4203125000  -2.632390e+001  -2.019926e+001 
4206250000  -2.303183e+001  -1.811615e+001 
4209375000  -2.180074e+001  -3.900827e+001 
4212500000  -2.366874e+001  -4.775470e+001 
4215625000  -2.471301e+001  -4.168201e+001 
4218750000  -2.341337e+001  -3.481852e+001 
4221875000  -2.106255e+001  -4.401317e+001 
4225000000  -2.230397e+001  -5.659134e+001 
4228125000  -2.304614e+001  -5.182384e+001 
4231250000  -2.148108e+001  -5.543052e+001 
4234375000  -2.138174e+001  -6.375840e+001 
4237500000  -2.097374e+001  -6.709032e+001 
4240625000  -2.096970e+001  -7.551470e+001 
4243750000  -2.194235e+001  -8.267711e+001 
4246875000  -2.279664e+001  -8.247954e+001 
4250000000  -2.287824e+001  -7.957197e+001 
4253125000  -2.228059e+001  -8.147292e+001 
4256250000  -2.256432e+001  -8.563108e+001 
4259375000  -2.233041e+001  -8.762331e+001 
4262500000  -2.235191e+001  -9.116776e+001 
4265625000  -2.253789e+001  -9.097274e+001 
4268750000  -2.170954e+001  -9.504627e+001 
4271875000  -2.148027e+001  -1.005382e+002 
4275000000  -2.080132e+001  -1.069720e+002 
4278125000  -2.140355e+001  -1.181214e+002 
4281250000  -2.318076e+001  -1.202333e+002 
4284375000  -2.292176e+001  -1.192305e+002 
4287500000  -2.365500e+001  -1.228907e+002 
4290625000  -2.494448e+001  -1.136738e+002 
4293750000  -2.296709e+001  -1.080225e+002 
4296875000  -2.159083e+001  -1.194323e+002 
4300000000  -2.246241e+001  -1.284723e+002 
4303125000  -2.357119e+001  -1.270663e+002 
4306250000  -2.299132e+001  -1.208606e+002 
4309375000  -2.154333e+001  -1.232168e+002 
4312500000  -2.143424e+001  -1.315824e+002 
4315625000  -2.164864e+001  -1.378948e+002 
4318750000  -2.196637e+001  -1.411414e+002 
4321875000  -2.212253e+001  -1.405716e+002 
4325000000  -2.155270e+001  -1.402050e+002 
4328125000  -2.103044e+001  -1.462544e+002 
4331250000  -2.095556e+001  -1.543263e+002 
4334375000  -2.139867e+001  -1.596842e+002 
4337500000  -2.218514e+001  -1.617555e+002 
4340625000  -2.274598e+001  -1.584695e+002 
4343750000  -2.216411e+001  -1.582265e+002 
4346875000  -2.181812e+001  -1.635947e+002 
4350000000  -2.179863e+001  -1.683717e+002 
4353125000  -2.181093e+001  -1.758708e+002 
4356250000  -2.354233e+001  -1.773243e+002 
4359375000  -2.418008e+001  -1.639709e+002 
4362500000  -2.150966e+001  -1.622095e+002 
4365625000  -1.992801e+001  -1.734457e+002 
4368750000  -2.061842e+001  1.741967e+002 
4371875000  -2.182745e+001  1.749522e+002 
4375000000  -2.148880e+001  1.762361e+002 
4378125000  -2.087394e+001  1.701407e+002 
4381250000  -2.101734e+001  1.649579e+002 
4384375000  -2.089576e+001  1.604532e+002 
4387500000  -2.157349e+001  1.543491e+002 
4390625000  -2.256791e+001  1.556227e+002 
4393750000  -2.197330e+001  1.571599e+002 
4396875000  -2.133511e+001  1.550050e+002 
4400000000  -2.081067e+001  1.484443e+002 
4403125000  -2.135761e+001  1.408455e+002 
4406250000  -2.219683e+001  1.395584e+002 
4409375000  -2.214522e+001  1.372230e+002 
4412500000  -2.318966e+001  1.347219e+002 
4415625000  -2.358641e+001  1.391114e+002 
4418750000  -2.241015e+001  1.441436e+002 
