!Agilent Technologies,E8363B,MY43030201,A.06.04.32
!Agilent E8363B: A.06.04.32
!Date: Tuesday, November 11, 2014 20:50:31
!Correction: S21(Response(S21)) 
!S1P File: Measurement: S21:
# Hz S  dB   R 50
3000000000  -2.654412e+001  1.538723e+002 
3003125000  -2.794798e+001  1.492695e+002 
3006250000  -2.793400e+001  1.466774e+002 
3009375000  -2.835800e+001  1.515712e+002 
3012500000  -2.786878e+001  1.511431e+002 
3015625000  -2.686509e+001  1.443412e+002 
3018750000  -2.773743e+001  1.433409e+002 
3021875000  -2.642524e+001  1.445859e+002 
3025000000  -2.515193e+001  1.415844e+002 
3028125000  -2.415680e+001  1.366697e+002 
3031250000  -2.313688e+001  1.256092e+002 
3034375000  -2.275259e+001  1.122923e+002 
3037500000  -2.314169e+001  1.005307e+002 
3040625000  -2.448034e+001  9.546392e+001 
3043750000  -2.517754e+001  9.119775e+001 
3046875000  -2.533854e+001  8.501907e+001 
3050000000  -2.698564e+001  7.814093e+001 
3053125000  -2.713605e+001  8.421177e+001 
3056250000  -2.644365e+001  8.739162e+001 
3059375000  -2.668320e+001  8.698218e+001 
3062500000  -2.520906e+001  8.313342e+001 
3065625000  -2.498597e+001  7.758274e+001 
3068750000  -2.469479e+001  7.046164e+001 
3071875000  -2.462944e+001  6.764766e+001 
3075000000  -2.459375e+001  6.376353e+001 
3078125000  -2.433527e+001  5.931097e+001 
3081250000  -2.499439e+001  5.499470e+001 
3084375000  -2.420924e+001  5.137968e+001 
3087500000  -2.408126e+001  4.777731e+001 
3090625000  -2.378434e+001  3.792876e+001 
3093750000  -2.420932e+001  3.020759e+001 
3096875000  -2.550279e+001  2.396147e+001 
3100000000  -2.564799e+001  2.260970e+001 
3103125000  -2.603045e+001  2.410747e+001 
3106250000  -2.574493e+001  2.052192e+001 
3109375000  -2.598783e+001  1.680418e+001 
3112500000  -2.611239e+001  1.583757e+001 
3115625000  -2.585834e+001  1.172775e+001 
3118750000  -2.637306e+001  1.280033e+001 
3121875000  -2.571346e+001  4.798868e+000 
3125000000  -2.687411e+001  1.369727e+000 
3128125000  -2.805926e+001  9.211125e+000 
3131250000  -2.589867e+001  9.793294e+000 
3134375000  -2.458731e+001  -3.723086e+000 
3137500000  -2.521461e+001  -1.734678e+001 
3140625000  -2.687491e+001  -1.909941e+001 
3143750000  -2.786974e+001  -1.499165e+001 
3146875000  -2.745290e+001  -1.274945e+001 
3150000000  -2.646184e+001  -1.105151e+001 
3153125000  -2.639381e+001  -1.886755e+001 
3156250000  -2.747809e+001  -1.324788e+001 
3159375000  -2.585104e+001  -1.023736e+001 
3162500000  -2.379323e+001  -2.312542e+001 
3165625000  -2.476511e+001  -3.437358e+001 
3168750000  -2.513201e+001  -3.326369e+001 
3171875000  -2.418520e+001  -3.743276e+001 
3175000000  -2.483697e+001  -4.522992e+001 
3178125000  -2.462610e+001  -4.343891e+001 
3181250000  -2.345658e+001  -4.762241e+001 
3184375000  -2.264606e+001  -5.971690e+001 
3187500000  -2.376093e+001  -7.476033e+001 
3190625000  -2.656186e+001  -8.210349e+001 
3193750000  -2.711635e+001  -7.257945e+001 
3196875000  -2.670255e+001  -6.723351e+001 
3200000000  -2.581236e+001  -6.896276e+001 
3203125000  -2.494974e+001  -7.474439e+001 
3206250000  -2.522910e+001  -8.113586e+001 
3209375000  -2.477718e+001  -8.598620e+001 
3212500000  -2.491290e+001  -9.298061e+001 
3215625000  -2.501768e+001  -9.693037e+001 
3218750000  -2.575800e+001  -1.031869e+002 
3221875000  -2.673272e+001  -1.082563e+002 
3225000000  -2.638718e+001  -1.090235e+002 
3228125000  -2.667725e+001  -1.134729e+002 
3231250000  -2.740691e+001  -1.163079e+002 
3234375000  -2.727579e+001  -1.151322e+002 
3237500000  -2.730531e+001  -1.166612e+002 
3240625000  -2.696324e+001  -1.185139e+002 
3243750000  -2.655214e+001  -1.252122e+002 
3246875000  -2.706042e+001  -1.319096e+002 
3250000000  -2.752190e+001  -1.335475e+002 
3253125000  -2.770276e+001  -1.354042e+002 
3256250000  -2.754149e+001  -1.412920e+002 
3259375000  -2.784411e+001  -1.490144e+002 
3262500000  -2.914616e+001  -1.521059e+002 
3265625000  -2.989779e+001  -1.482282e+002 
3268750000  -2.980732e+001  -1.455241e+002 
3271875000  -2.954482e+001  -1.442941e+002 
3275000000  -2.844941e+001  -1.498504e+002 
3278125000  -2.892064e+001  -1.561807e+002 
3281250000  -2.927132e+001  -1.545070e+002 
3284375000  -2.872632e+001  -1.598586e+002 
3287500000  -2.892543e+001  -1.624530e+002 
3290625000  -2.934524e+001  -1.669972e+002 
3293750000  -2.904077e+001  -1.723255e+002 
3296875000  -3.001846e+001  -1.725717e+002 
3300000000  -2.992997e+001  -1.714799e+002 
3303125000  -2.874590e+001  -1.752786e+002 
3306250000  -2.860365e+001  1.774006e+002 
3309375000  -2.836666e+001  1.726363e+002 
3312500000  -2.838592e+001  1.618417e+002 
3315625000  -2.945461e+001  1.544198e+002 
3318750000  -3.079148e+001  1.519879e+002 
3321875000  -3.207586e+001  1.518006e+002 
3325000000  -3.260825e+001  1.570923e+002 
3328125000  -3.229768e+001  1.588707e+002 
3331250000  -3.112531e+001  1.659835e+002 
3334375000  -2.858175e+001  1.558925e+002 
3337500000  -2.860844e+001  1.378917e+002 
3340625000  -2.993521e+001  1.265239e+002 
3343750000  -3.197149e+001  1.257292e+002 
3346875000  -3.242070e+001  1.278231e+002 
3350000000  -3.182212e+001  1.259966e+002 
3353125000  -3.187747e+001  1.217934e+002 
3356250000  -3.158035e+001  1.139339e+002 
3359375000  -3.249114e+001  1.061464e+002 
3362500000  -3.368783e+001  1.000197e+002 
3365625000  -3.437056e+001  9.840183e+001 
3368750000  -3.531770e+001  9.667791e+001 
3371875000  -3.569434e+001  9.337152e+001 
3375000000  -3.723515e+001  9.112617e+001 
3378125000  -3.834713e+001  9.161527e+001 
3381250000  -3.993723e+001  9.815722e+001 
3384375000  -3.907175e+001  1.199311e+002 
3387500000  -3.571164e+001  1.062430e+002 
3390625000  -3.780161e+001  8.640304e+001 
3393750000  -3.926032e+001  9.186441e+001 
3396875000  -3.853425e+001  9.350598e+001 
3400000000  -3.858893e+001  8.624150e+001 
3403125000  -3.948765e+001  8.204738e+001 
3406250000  -4.027878e+001  8.484933e+001 
3409375000  -4.110587e+001  8.052784e+001 
3412500000  -4.176119e+001  8.102833e+001 
3415625000  -4.269630e+001  8.635538e+001 
3418750000  -4.296301e+001  8.966698e+001 
3421875000  -4.308035e+001  9.678078e+001 
3425000000  -4.255307e+001  9.979300e+001 
3428125000  -4.157158e+001  9.775579e+001 
3431250000  -4.150960e+001  9.572083e+001 
3434375000  -4.123255e+001  9.142317e+001 
3437500000  -4.177374e+001  9.025739e+001 
3440625000  -4.202113e+001  9.283006e+001 
3443750000  -4.060246e+001  9.622897e+001 
3446875000  -3.982922e+001  9.074364e+001 
3450000000  -3.955646e+001  8.211382e+001 
3453125000  -3.988996e+001  7.391852e+001 
3456250000  -4.118688e+001  6.877189e+001 
3459375000  -4.206015e+001  7.164343e+001 
3462500000  -4.208330e+001  7.173180e+001 
3465625000  -4.234395e+001  6.619309e+001 
3468750000  -4.289422e+001  6.293866e+001 
3471875000  -4.290326e+001  6.517362e+001 
3475000000  -4.273343e+001  6.362752e+001 
3478125000  -4.356605e+001  5.532406e+001 
3481250000  -4.449635e+001  5.353483e+001 
3484375000  -4.613235e+001  5.808669e+001 
3487500000  -4.557097e+001  6.124193e+001 
3490625000  -4.522197e+001  5.881497e+001 
3493750000  -4.571362e+001  5.450179e+001 
3496875000  -4.699525e+001  5.797514e+001 
3500000000  -4.835416e+001  6.453198e+001 
3503125000  -4.762744e+001  7.265332e+001 
3506250000  -4.696013e+001  7.029560e+001 
3509375000  -4.709756e+001  6.871568e+001 
3512500000  -4.781045e+001  6.797538e+001 
3515625000  -4.796473e+001  6.982115e+001 
3518750000  -4.863094e+001  7.686121e+001 
3521875000  -4.781268e+001  7.731507e+001 
3525000000  -4.867895e+001  8.315662e+001 
3528125000  -4.769312e+001  9.300449e+001 
3531250000  -4.591264e+001  9.314575e+001 
3534375000  -4.572826e+001  8.493183e+001 
3537500000  -4.516616e+001  8.109065e+001 
3540625000  -4.573253e+001  8.494278e+001 
3543750000  -4.594281e+001  8.663829e+001 
3546875000  -4.545462e+001  1.002244e+002 
3550000000  -4.315532e+001  9.942620e+001 
3553125000  -4.153246e+001  8.238985e+001 
3556250000  -4.257783e+001  7.765587e+001 
3559375000  -4.269111e+001  8.091736e+001 
3562500000  -4.105730e+001  7.346873e+001 
3565625000  -4.233385e+001  6.730785e+001 
3568750000  -4.220701e+001  6.971159e+001 
3571875000  -4.151868e+001  7.093603e+001 
3575000000  -4.136721e+001  6.411597e+001 
3578125000  -4.176827e+001  6.020485e+001 
3581250000  -4.186223e+001  5.975390e+001 
3584375000  -4.133455e+001  6.167959e+001 
3587500000  -4.022586e+001  5.487641e+001 
3590625000  -4.048668e+001  4.617052e+001 
3593750000  -4.167527e+001  4.491030e+001 
3596875000  -4.171907e+001  5.431251e+001 
3600000000  -3.992542e+001  4.944332e+001 
3603125000  -4.017247e+001  3.645205e+001 
3606250000  -4.090780e+001  3.656045e+001 
3609375000  -4.136744e+001  3.494942e+001 
3612500000  -4.184852e+001  3.376745e+001 
3615625000  -4.172675e+001  3.176630e+001 
3618750000  -4.212019e+001  3.163849e+001 
3621875000  -4.168585e+001  3.269255e+001 
3625000000  -4.198177e+001  3.203216e+001 
3628125000  -4.198356e+001  3.079155e+001 
3631250000  -4.130795e+001  2.526281e+001 
3634375000  -4.231670e+001  2.788524e+001 
3637500000  -4.215878e+001  3.139171e+001 
3640625000  -4.092181e+001  3.340975e+001 
3643750000  -4.081628e+001  2.851670e+001 
3646875000  -4.128049e+001  2.211408e+001 
3650000000  -4.135566e+001  2.167277e+001 
3653125000  -4.143089e+001  2.350516e+001 
3656250000  -4.182058e+001  1.927763e+001 
3659375000  -4.195885e+001  2.360348e+001 
3662500000  -4.132959e+001  2.385241e+001 
3665625000  -4.131325e+001  2.215536e+001 
3668750000  -4.010608e+001  2.457224e+001 
3671875000  -3.956971e+001  2.000400e+001 
3675000000  -3.985898e+001  1.328084e+001 
3678125000  -4.034992e+001  1.587716e+001 
3681250000  -4.026077e+001  1.688915e+001 
3684375000  -3.993285e+001  1.478256e+001 
3687500000  -4.010316e+001  1.356579e+001 
3690625000  -3.998349e+001  1.112864e+001 
3693750000  -4.068730e+001  1.374135e+001 
3696875000  -4.046732e+001  1.711669e+001 
3700000000  -3.921087e+001  1.522812e+001 
3703125000  -3.897216e+001  1.237938e+001 
3706250000  -3.964491e+001  1.507373e+001 
3709375000  -3.891538e+001  1.742589e+001 
3712500000  -3.781152e+001  1.809404e+001 
3715625000  -3.684957e+001  1.098252e+001 
3718750000  -3.607818e+001  8.895824e+000 
3721875000  -3.557024e+001  2.747187e+000 
3725000000  -3.550354e+001  -1.314843e+000 
3728125000  -3.550007e+001  -1.757988e+000 
3731250000  -3.475843e+001  -2.322732e+000 
3734375000  -3.400800e+001  -9.213935e+000 
3737500000  -3.436681e+001  -1.614745e+001 
3740625000  -3.502141e+001  -1.891449e+001 
3743750000  -3.487917e+001  -2.145406e+001 
3746875000  -3.467891e+001  -2.387422e+001 
3750000000  -3.507026e+001  -2.517516e+001 
3753125000  -3.468964e+001  -2.577599e+001 
3756250000  -3.454212e+001  -2.591679e+001 
3759375000  -3.442990e+001  -2.793369e+001 
3762500000  -3.376718e+001  -3.121772e+001 
3765625000  -3.428228e+001  -3.497814e+001 
3768750000  -3.442160e+001  -3.149380e+001 
3771875000  -3.264025e+001  -3.393519e+001 
3775000000  -3.221032e+001  -4.189396e+001 
3778125000  -3.262209e+001  -4.402785e+001 
3781250000  -3.252478e+001  -4.681285e+001 
3784375000  -3.240223e+001  -4.920287e+001 
3787500000  -3.172733e+001  -5.216758e+001 
3790625000  -3.236811e+001  -5.826751e+001 
3793750000  -3.256305e+001  -5.841022e+001 
3796875000  -3.162800e+001  -6.029533e+001 
3800000000  -3.009928e+001  -6.368171e+001 
3803125000  -3.079893e+001  -7.045670e+001 
3806250000  -3.151717e+001  -7.352504e+001 
3809375000  -3.124753e+001  -7.431950e+001 
3812500000  -3.055834e+001  -7.883636e+001 
3815625000  -3.115806e+001  -8.640952e+001 
3818750000  -3.212014e+001  -8.718235e+001 
3821875000  -3.227538e+001  -7.965621e+001 
3825000000  -3.031683e+001  -7.464960e+001 
3828125000  -2.898801e+001  -8.851134e+001 
3831250000  -2.944518e+001  -1.028385e+002 
3834375000  -3.079149e+001  -1.037304e+002 
3837500000  -3.165521e+001  -9.850944e+001 
3840625000  -3.055928e+001  -9.891025e+001 
3843750000  -2.938631e+001  -1.093582e+002 
3846875000  -3.010695e+001  -1.163160e+002 
3850000000  -3.132713e+001  -1.109236e+002 
3853125000  -3.058200e+001  -1.084895e+002 
3856250000  -3.044434e+001  -1.130438e+002 
3859375000  -2.987681e+001  -1.176378e+002 
3862500000  -2.937873e+001  -1.249961e+002 
3865625000  -2.955960e+001  -1.293191e+002 
3868750000  -2.963860e+001  -1.297243e+002 
3871875000  -2.897057e+001  -1.328189e+002 
3875000000  -2.906749e+001  -1.413709e+002 
3878125000  -3.005129e+001  -1.439192e+002 
3881250000  -3.018948e+001  -1.405318e+002 
3884375000  -2.964982e+001  -1.452836e+002 
3887500000  -2.972701e+001  -1.502403e+002 
3890625000  -3.025718e+001  -1.525136e+002 
3893750000  -3.069574e+001  -1.536474e+002 
3896875000  -3.081101e+001  -1.525205e+002 
3900000000  -3.100719e+001  -1.537738e+002 
3903125000  -3.062387e+001  -1.560063e+002 
3906250000  -3.038522e+001  -1.576440e+002 
3909375000  -2.966649e+001  -1.595484e+002 
3912500000  -2.973452e+001  -1.667293e+002 
3915625000  -3.098545e+001  -1.659451e+002 
3918750000  -3.100288e+001  -1.643932e+002 
3921875000  -3.069747e+001  -1.657509e+002 
3925000000  -2.986889e+001  -1.669490e+002 
3928125000  -2.916846e+001  -1.722882e+002 
3931250000  -2.957747e+001  -1.762680e+002 
3934375000  -2.984258e+001  -1.761189e+002 
3937500000  -2.999842e+001  -1.763641e+002 
3940625000  -3.051825e+001  -1.767229e+002 
3943750000  -2.957630e+001  -1.746811e+002 
3946875000  -2.833975e+001  1.796934e+002 
3950000000  -2.884162e+001  1.723233e+002 
3953125000  -2.981553e+001  1.730878e+002 
3956250000  -2.893251e+001  1.754009e+002 
3959375000  -2.755905e+001  1.726755e+002 
3962500000  -2.704924e+001  1.685568e+002 
3965625000  -2.664725e+001  1.594931e+002 
3968750000  -2.760892e+001  1.533510e+002 
3971875000  -2.794234e+001  1.516418e+002 
3975000000  -2.728294e+001  1.497460e+002 
3978125000  -2.716509e+001  1.486202e+002 
3981250000  -2.679832e+001  1.440381e+002 
3984375000  -2.708601e+001  1.381548e+002 
3987500000  -2.757436e+001  1.357684e+002 
3990625000  -2.757372e+001  1.344365e+002 
3993750000  -2.773655e+001  1.318428e+002 
3996875000  -2.772103e+001  1.294822e+002 
4000000000  -2.779734e+001  1.271292e+002 
4003125000  -2.838951e+001  1.290193e+002 
4006250000  -2.698478e+001  1.293627e+002 
4009375000  -2.578271e+001  1.174863e+002 
4012500000  -2.683323e+001  1.102401e+002 
4015625000  -2.803248e+001  1.105667e+002 
4018750000  -2.822859e+001  1.129058e+002 
4021875000  -2.760235e+001  1.109171e+002 
4025000000  -2.726227e+001  1.065628e+002 
4028125000  -2.718618e+001  1.024242e+002 
4031250000  -2.765841e+001  9.894011e+001 
4034375000  -2.796054e+001  9.915627e+001 
4037500000  -2.742307e+001  1.009906e+002 
4040625000  -2.735294e+001  9.719148e+001 
4043750000  -2.767579e+001  9.710435e+001 
4046875000  -2.725820e+001  9.637437e+001 
4050000000  -2.674693e+001  9.113816e+001 
4053125000  -2.731695e+001  8.866244e+001 
4056250000  -2.789009e+001  9.300975e+001 
4059375000  -2.661282e+001  9.485210e+001 
4062500000  -2.531284e+001  9.044946e+001 
4065625000  -2.518989e+001  8.621073e+001 
4068750000  -2.489707e+001  8.142711e+001 
4071875000  -2.425966e+001  7.366431e+001 
4075000000  -2.461827e+001  6.754752e+001 
4078125000  -2.513213e+001  6.655818e+001 
4081250000  -2.459766e+001  6.432146e+001 
4084375000  -2.424016e+001  5.758095e+001 
4087500000  -2.453919e+001  5.130081e+001 
4090625000  -2.512252e+001  5.025518e+001 
4093750000  -2.493764e+001  5.092782e+001 
4096875000  -2.450386e+001  4.510369e+001 
4100000000  -2.520929e+001  3.824602e+001 
4103125000  -2.608640e+001  3.872979e+001 
4106250000  -2.592491e+001  4.373951e+001 
4109375000  -2.504503e+001  4.312425e+001 
4112500000  -2.445773e+001  3.644878e+001 
4115625000  -2.478736e+001  3.191553e+001 
4118750000  -2.485473e+001  2.934304e+001 
4121875000  -2.444618e+001  2.478249e+001 
4125000000  -2.479696e+001  1.955816e+001 
4128125000  -2.582195e+001  1.927345e+001 
4131250000  -2.559680e+001  2.740509e+001 
4134375000  -2.319674e+001  2.291072e+001 
4137500000  -2.294924e+001  4.431885e+000 
4140625000  -2.516248e+001  -2.631035e+000 
4143750000  -2.646873e+001  1.707913e+000 
4146875000  -2.607122e+001  9.546016e+000 
4150000000  -2.510978e+001  6.256433e+000 
4153125000  -2.494361e+001  -3.728013e-001 
4156250000  -2.593417e+001  -3.115876e+000 
4159375000  -2.615536e+001  1.286009e+000 
4162500000  -2.495347e+001  5.326040e+000 
4165625000  -2.391473e+001  1.314695e+000 
4168750000  -2.327469e+001  -5.530489e+000 
4171875000  -2.329545e+001  -1.477742e+001 
4175000000  -2.387126e+001  -2.060945e+001 
4178125000  -2.449890e+001  -2.063995e+001 
4181250000  -2.436175e+001  -2.100858e+001 
4184375000  -2.421923e+001  -2.414307e+001 
4187500000  -2.427685e+001  -2.696972e+001 
4190625000  -2.411793e+001  -3.210014e+001 
4193750000  -2.486078e+001  -3.585212e+001 
4196875000  -2.561101e+001  -3.632947e+001 
4200000000  -2.647044e+001  -3.400676e+001 
4203125000  -2.650736e+001  -2.037885e+001 
4206250000  -2.315943e+001  -1.898490e+001 
4209375000  -2.191691e+001  -3.949890e+001 
4212500000  -2.382548e+001  -4.854893e+001 
4215625000  -2.486417e+001  -4.201801e+001 
4218750000  -2.356572e+001  -3.567701e+001 
4221875000  -2.120278e+001  -4.422781e+001 
4225000000  -2.240947e+001  -5.678878e+001 
4228125000  -2.312862e+001  -5.174185e+001 
4231250000  -2.150428e+001  -5.553139e+001 
4234375000  -2.147989e+001  -6.389863e+001 
4237500000  -2.102567e+001  -6.725875e+001 
4240625000  -2.103140e+001  -7.565077e+001 
4243750000  -2.198027e+001  -8.246330e+001 
4246875000  -2.286110e+001  -8.267344e+001 
4250000000  -2.292065e+001  -8.002166e+001 
4253125000  -2.233724e+001  -8.173484e+001 
4256250000  -2.259268e+001  -8.570860e+001 
4259375000  -2.237177e+001  -8.780362e+001 
4262500000  -2.239631e+001  -9.167290e+001 
4265625000  -2.253126e+001  -9.132528e+001 
4268750000  -2.166102e+001  -9.526400e+001 
4271875000  -2.142455e+001  -1.008336e+002 
4275000000  -2.077691e+001  -1.073924e+002 
4278125000  -2.138093e+001  -1.185019e+002 
4281250000  -2.317391e+001  -1.209073e+002 
4284375000  -2.288382e+001  -1.200968e+002 
4287500000  -2.366656e+001  -1.237347e+002 
4290625000  -2.493092e+001  -1.144973e+002 
4293750000  -2.299671e+001  -1.089008e+002 
4296875000  -2.164577e+001  -1.197512e+002 
4300000000  -2.247803e+001  -1.292537e+002 
4303125000  -2.357239e+001  -1.285248e+002 
4306250000  -2.302484e+001  -1.221802e+002 
4309375000  -2.162177e+001  -1.241553e+002 
4312500000  -2.150275e+001  -1.326817e+002 
4315625000  -2.172987e+001  -1.389351e+002 
4318750000  -2.206095e+001  -1.421850e+002 
4321875000  -2.221534e+001  -1.414731e+002 
4325000000  -2.164140e+001  -1.408437e+002 
4328125000  -2.115574e+001  -1.472050e+002 
4331250000  -2.109760e+001  -1.552493e+002 
4334375000  -2.150764e+001  -1.601958e+002 
4337500000  -2.238155e+001  -1.622898e+002 
4340625000  -2.286866e+001  -1.588598e+002 
4343750000  -2.233748e+001  -1.584061e+002 
4346875000  -2.193609e+001  -1.639564e+002 
4350000000  -2.189301e+001  -1.687696e+002 
4353125000  -2.194944e+001  -1.763434e+002 
4356250000  -2.367088e+001  -1.769998e+002 
4359375000  -2.431831e+001  -1.641476e+002 
4362500000  -2.166216e+001  -1.618029e+002 
4365625000  -2.003741e+001  -1.739008e+002 
4368750000  -2.068309e+001  1.743754e+002 
4371875000  -2.193986e+001  1.749767e+002 
4375000000  -2.156590e+001  1.758889e+002 
4378125000  -2.091351e+001  1.702259e+002 
4381250000  -2.106500e+001  1.646228e+002 
4384375000  -2.088297e+001  1.602818e+002 
4387500000  -2.159974e+001  1.543782e+002 
4390625000  -2.260659e+001  1.552127e+002 
4393750000  -2.196799e+001  1.575267e+002 
4396875000  -2.131679e+001  1.551521e+002 
4400000000  -2.077824e+001  1.481942e+002 
4403125000  -2.134531e+001  1.404586e+002 
4406250000  -2.218274e+001  1.393224e+002 
4409375000  -2.215982e+001  1.371897e+002 
4412500000  -2.318108e+001  1.343246e+002 
4415625000  -2.357280e+001  1.390844e+002 
4418750000  -2.241981e+001  1.434675e+002 
