!Agilent Technologies,E8363B,MY43030201,A.06.04.32
!Agilent E8363B: A.06.04.32
!Date: Tuesday, November 11, 2014 20:56:22
!Correction: S21(Response(S21)) 
!S1P File: Measurement: S21:
# Hz S  dB   R 50
3000000000  -2.649547e+001  1.480128e+002 
3003125000  -2.789789e+001  1.433131e+002 
3006250000  -2.794961e+001  1.408101e+002 
3009375000  -2.832699e+001  1.456461e+002 
3012500000  -2.776136e+001  1.453161e+002 
3015625000  -2.682930e+001  1.382546e+002 
3018750000  -2.765966e+001  1.375005e+002 
3021875000  -2.639788e+001  1.389515e+002 
3025000000  -2.508729e+001  1.357422e+002 
3028125000  -2.411603e+001  1.304658e+002 
3031250000  -2.308866e+001  1.193154e+002 
3034375000  -2.274179e+001  1.061376e+002 
3037500000  -2.311794e+001  9.445260e+001 
3040625000  -2.446941e+001  8.949339e+001 
3043750000  -2.517169e+001  8.512400e+001 
3046875000  -2.526159e+001  7.884383e+001 
3050000000  -2.694708e+001  7.190971e+001 
3053125000  -2.708457e+001  7.845517e+001 
3056250000  -2.644917e+001  8.145065e+001 
3059375000  -2.663736e+001  8.120951e+001 
3062500000  -2.516401e+001  7.756327e+001 
3065625000  -2.495008e+001  7.150694e+001 
3068750000  -2.465714e+001  6.453685e+001 
3071875000  -2.464105e+001  6.172925e+001 
3075000000  -2.457683e+001  5.790477e+001 
3078125000  -2.433377e+001  5.320737e+001 
3081250000  -2.496562e+001  4.916900e+001 
3084375000  -2.419491e+001  4.540929e+001 
3087500000  -2.411712e+001  4.172905e+001 
3090625000  -2.379716e+001  3.188499e+001 
3093750000  -2.429370e+001  2.398539e+001 
3096875000  -2.554994e+001  1.809091e+001 
3100000000  -2.566195e+001  1.678907e+001 
3103125000  -2.602959e+001  1.799285e+001 
3106250000  -2.576362e+001  1.439584e+001 
3109375000  -2.602088e+001  1.097892e+001 
3112500000  -2.615225e+001  1.001186e+001 
3115625000  -2.594522e+001  5.974675e+000 
3118750000  -2.644412e+001  7.163218e+000 
3121875000  -2.571513e+001  -1.121067e+000 
3125000000  -2.697322e+001  -4.389717e+000 
3128125000  -2.817568e+001  3.521135e+000 
3131250000  -2.591838e+001  4.295166e+000 
3134375000  -2.464558e+001  -9.564306e+000 
3137500000  -2.531699e+001  -2.301688e+001 
3140625000  -2.686227e+001  -2.463333e+001 
3143750000  -2.789512e+001  -2.114840e+001 
3146875000  -2.749766e+001  -1.870331e+001 
3150000000  -2.648462e+001  -1.680998e+001 
3153125000  -2.648172e+001  -2.435450e+001 
3156250000  -2.750995e+001  -1.861690e+001 
3159375000  -2.584805e+001  -1.588076e+001 
3162500000  -2.382629e+001  -2.877733e+001 
3165625000  -2.477453e+001  -3.982721e+001 
3168750000  -2.518001e+001  -3.867719e+001 
3171875000  -2.422177e+001  -4.317547e+001 
3175000000  -2.490708e+001  -5.085914e+001 
3178125000  -2.465879e+001  -4.903982e+001 
3181250000  -2.347646e+001  -5.345887e+001 
3184375000  -2.275172e+001  -6.549310e+001 
3187500000  -2.385880e+001  -8.063304e+001 
3190625000  -2.658309e+001  -8.778390e+001 
3193750000  -2.716697e+001  -7.846822e+001 
3196875000  -2.673608e+001  -7.308418e+001 
3200000000  -2.584956e+001  -7.500851e+001 
3203125000  -2.499058e+001  -8.079030e+001 
3206250000  -2.529943e+001  -8.686754e+001 
3209375000  -2.483615e+001  -9.219440e+001 
3212500000  -2.499189e+001  -9.861098e+001 
3215625000  -2.512009e+001  -1.025018e+002 
3218750000  -2.586564e+001  -1.089182e+002 
3221875000  -2.679095e+001  -1.140985e+002 
3225000000  -2.641629e+001  -1.147576e+002 
3228125000  -2.678531e+001  -1.193758e+002 
3231250000  -2.755395e+001  -1.216919e+002 
3234375000  -2.733574e+001  -1.208335e+002 
3237500000  -2.742104e+001  -1.225447e+002 
3240625000  -2.702994e+001  -1.243845e+002 
3243750000  -2.668617e+001  -1.310246e+002 
3246875000  -2.718439e+001  -1.374753e+002 
3250000000  -2.766669e+001  -1.395499e+002 
3253125000  -2.785523e+001  -1.408729e+002 
3256250000  -2.765783e+001  -1.467692e+002 
3259375000  -2.797942e+001  -1.547695e+002 
3262500000  -2.925799e+001  -1.573050e+002 
3265625000  -2.996719e+001  -1.537610e+002 
3268750000  -2.986256e+001  -1.512657e+002 
3271875000  -2.959048e+001  -1.502521e+002 
3275000000  -2.859959e+001  -1.557876e+002 
3278125000  -2.903586e+001  -1.612736e+002 
3281250000  -2.934768e+001  -1.596403e+002 
3284375000  -2.890442e+001  -1.653972e+002 
3287500000  -2.901154e+001  -1.681114e+002 
3290625000  -2.939022e+001  -1.730681e+002 
3293750000  -2.911905e+001  -1.780176e+002 
3296875000  -3.022455e+001  -1.780086e+002 
3300000000  -3.002319e+001  -1.768009e+002 
3303125000  -2.889726e+001  1.788141e+002 
3306250000  -2.863657e+001  1.721122e+002 
3309375000  -2.839090e+001  1.673974e+002 
3312500000  -2.846983e+001  1.567260e+002 
3315625000  -2.948311e+001  1.490395e+002 
3318750000  -3.082375e+001  1.467316e+002 
3321875000  -3.205349e+001  1.469468e+002 
3325000000  -3.253314e+001  1.511242e+002 
3328125000  -3.250731e+001  1.542296e+002 
3331250000  -3.118804e+001  1.614754e+002 
3334375000  -2.860257e+001  1.512507e+002 
3337500000  -2.868746e+001  1.325342e+002 
3340625000  -3.007799e+001  1.218069e+002 
3343750000  -3.202939e+001  1.204638e+002 
3346875000  -3.247118e+001  1.221244e+002 
3350000000  -3.192756e+001  1.207465e+002 
3353125000  -3.201015e+001  1.162619e+002 
3356250000  -3.164643e+001  1.086296e+002 
3359375000  -3.253621e+001  1.002748e+002 
3362500000  -3.387787e+001  9.495842e+001 
3365625000  -3.446988e+001  9.353214e+001 
3368750000  -3.534537e+001  9.225920e+001 
3371875000  -3.582399e+001  8.858784e+001 
3375000000  -3.742813e+001  8.603443e+001 
3378125000  -3.834203e+001  8.766827e+001 
3381250000  -4.002887e+001  9.557633e+001 
3384375000  -3.915094e+001  1.159289e+002 
3387500000  -3.608384e+001  1.015112e+002 
3390625000  -3.787295e+001  8.185609e+001 
3393750000  -3.953115e+001  8.606249e+001 
3396875000  -3.864121e+001  8.905865e+001 
3400000000  -3.864043e+001  8.306321e+001 
3403125000  -3.964968e+001  7.840402e+001 
3406250000  -4.052402e+001  8.044196e+001 
3409375000  -4.128537e+001  7.643129e+001 
3412500000  -4.211246e+001  7.856746e+001 
3415625000  -4.285033e+001  8.324174e+001 
3418750000  -4.324767e+001  8.881763e+001 
3421875000  -4.334257e+001  9.456092e+001 
3425000000  -4.246467e+001  9.525629e+001 
3428125000  -4.164434e+001  9.675372e+001 
3431250000  -4.133345e+001  9.005470e+001 
3434375000  -4.107058e+001  8.941266e+001 
3437500000  -4.193430e+001  8.792522e+001 
3440625000  -4.192257e+001  9.057533e+001 
3443750000  -4.086103e+001  9.196280e+001 
3446875000  -3.989684e+001  8.729210e+001 
3450000000  -3.973473e+001  7.835879e+001 
3453125000  -3.996407e+001  6.933016e+001 
3456250000  -4.113950e+001  6.350739e+001 
3459375000  -4.204773e+001  6.580106e+001 
3462500000  -4.231759e+001  6.806581e+001 
3465625000  -4.212557e+001  6.238091e+001 
3468750000  -4.253316e+001  6.157905e+001 
3471875000  -4.268404e+001  6.184027e+001 
3475000000  -4.262481e+001  5.768615e+001 
3478125000  -4.330005e+001  5.062083e+001 
3481250000  -4.423867e+001  4.971252e+001 
3484375000  -4.618618e+001  5.737138e+001 
3487500000  -4.589883e+001  5.635408e+001 
3490625000  -4.520895e+001  5.350127e+001 
3493750000  -4.579997e+001  5.358229e+001 
3496875000  -4.652414e+001  5.284235e+001 
3500000000  -4.770993e+001  6.254792e+001 
3503125000  -4.789425e+001  6.549433e+001 
3506250000  -4.623416e+001  6.840395e+001 
3509375000  -4.646510e+001  6.201719e+001 
3512500000  -4.728883e+001  6.064022e+001 
3515625000  -4.802410e+001  6.410506e+001 
3518750000  -4.782334e+001  7.229237e+001 
3521875000  -4.763874e+001  7.315528e+001 
3525000000  -4.845744e+001  7.786333e+001 
3528125000  -4.758964e+001  9.090982e+001 
3531250000  -4.548895e+001  8.872853e+001 
3534375000  -4.517076e+001  7.909194e+001 
3537500000  -4.509038e+001  7.712852e+001 
3540625000  -4.605573e+001  7.688675e+001 
3543750000  -4.576369e+001  8.281100e+001 
3546875000  -4.557370e+001  9.423041e+001 
3550000000  -4.273775e+001  9.412447e+001 
3553125000  -4.145966e+001  7.894670e+001 
3556250000  -4.263248e+001  7.199542e+001 
3559375000  -4.227827e+001  7.584846e+001 
3562500000  -4.097541e+001  6.657684e+001 
3565625000  -4.156831e+001  6.123571e+001 
3568750000  -4.183973e+001  6.562971e+001 
3571875000  -4.152291e+001  6.441277e+001 
3575000000  -4.090547e+001  6.045207e+001 
3578125000  -4.126097e+001  5.622110e+001 
3581250000  -4.164930e+001  5.683310e+001 
3584375000  -4.051387e+001  5.644865e+001 
3587500000  -3.997172e+001  5.039346e+001 
3590625000  -4.049385e+001  4.053962e+001 
3593750000  -4.118547e+001  3.798306e+001 
3596875000  -4.146498e+001  4.943661e+001 
3600000000  -3.966209e+001  4.539677e+001 
3603125000  -3.979984e+001  3.220699e+001 
3606250000  -4.037575e+001  2.886274e+001 
3609375000  -4.074095e+001  2.869185e+001 
3612500000  -4.139157e+001  2.690194e+001 
3615625000  -4.132049e+001  2.508260e+001 
3618750000  -4.193530e+001  2.733846e+001 
3621875000  -4.148435e+001  2.547870e+001 
3625000000  -4.135426e+001  2.492692e+001 
3628125000  -4.171495e+001  2.528362e+001 
3631250000  -4.143520e+001  2.029261e+001 
3634375000  -4.255563e+001  2.170474e+001 
3637500000  -4.193442e+001  2.668755e+001 
3640625000  -4.092129e+001  2.767303e+001 
3643750000  -4.052463e+001  2.298502e+001 
3646875000  -4.115738e+001  1.747116e+001 
3650000000  -4.159858e+001  1.588639e+001 
3653125000  -4.114450e+001  1.631637e+001 
3656250000  -4.136338e+001  1.543785e+001 
3659375000  -4.186292e+001  1.926084e+001 
3662500000  -4.110383e+001  1.769963e+001 
3665625000  -4.136485e+001  1.705027e+001 
3668750000  -4.035193e+001  1.904802e+001 
3671875000  -3.902423e+001  1.470356e+001 
3675000000  -3.980822e+001  8.873392e+000 
3678125000  -4.005461e+001  1.038264e+001 
3681250000  -3.970707e+001  1.129789e+001 
3684375000  -3.951819e+001  9.759665e+000 
3687500000  -3.983006e+001  7.351954e+000 
3690625000  -3.974665e+001  5.518042e+000 
3693750000  -4.033464e+001  8.326355e+000 
3696875000  -3.997195e+001  1.138037e+001 
3700000000  -3.882285e+001  9.012364e+000 
3703125000  -3.879967e+001  6.322498e+000 
3706250000  -3.920746e+001  5.774312e+000 
3709375000  -3.881050e+001  9.567370e+000 
3712500000  -3.738152e+001  1.091959e+001 
3715625000  -3.630189e+001  4.688981e+000 
3718750000  -3.564868e+001  1.094863e+000 
3721875000  -3.517841e+001  -3.408300e+000 
3725000000  -3.522198e+001  -8.355936e+000 
3728125000  -3.536669e+001  -8.723493e+000 
3731250000  -3.479538e+001  -9.809229e+000 
3734375000  -3.369242e+001  -1.644909e+001 
3737500000  -3.412343e+001  -2.279287e+001 
3740625000  -3.485401e+001  -2.671774e+001 
3743750000  -3.458948e+001  -2.833504e+001 
3746875000  -3.442574e+001  -3.175867e+001 
3750000000  -3.485790e+001  -3.238935e+001 
3753125000  -3.449094e+001  -3.353216e+001 
3756250000  -3.458277e+001  -3.399313e+001 
3759375000  -3.419356e+001  -3.405072e+001 
3762500000  -3.372954e+001  -3.823722e+001 
3765625000  -3.422000e+001  -4.094733e+001 
3768750000  -3.428862e+001  -3.926533e+001 
3771875000  -3.244934e+001  -4.109508e+001 
3775000000  -3.221555e+001  -4.904124e+001 
3778125000  -3.259803e+001  -5.081683e+001 
3781250000  -3.243989e+001  -5.358317e+001 
3784375000  -3.229226e+001  -5.491876e+001 
3787500000  -3.166317e+001  -5.900108e+001 
3790625000  -3.230503e+001  -6.522013e+001 
3793750000  -3.236743e+001  -6.583990e+001 
3796875000  -3.150167e+001  -6.696609e+001 
3800000000  -2.990578e+001  -7.027767e+001 
3803125000  -3.062257e+001  -7.736964e+001 
3806250000  -3.133511e+001  -7.972605e+001 
3809375000  -3.103614e+001  -8.082457e+001 
3812500000  -3.037879e+001  -8.535204e+001 
3815625000  -3.101946e+001  -9.280283e+001 
3818750000  -3.198872e+001  -9.400588e+001 
3821875000  -3.221759e+001  -8.536221e+001 
3825000000  -3.011897e+001  -8.137161e+001 
3828125000  -2.872168e+001  -9.563117e+001 
3831250000  -2.927104e+001  -1.092159e+002 
3834375000  -3.066165e+001  -1.105077e+002 
3837500000  -3.154559e+001  -1.047327e+002 
3840625000  -3.039684e+001  -1.062517e+002 
3843750000  -2.928932e+001  -1.163144e+002 
3846875000  -2.996360e+001  -1.230631e+002 
3850000000  -3.129904e+001  -1.180403e+002 
3853125000  -3.045533e+001  -1.157930e+002 
3856250000  -3.047390e+001  -1.202577e+002 
3859375000  -2.970747e+001  -1.246557e+002 
3862500000  -2.926343e+001  -1.320454e+002 
3865625000  -2.954538e+001  -1.365492e+002 
3868750000  -2.952803e+001  -1.370800e+002 
3871875000  -2.885810e+001  -1.400326e+002 
3875000000  -2.894308e+001  -1.485436e+002 
3878125000  -3.001772e+001  -1.512294e+002 
3881250000  -3.016315e+001  -1.484028e+002 
3884375000  -2.957893e+001  -1.522730e+002 
3887500000  -2.969296e+001  -1.570793e+002 
3890625000  -3.032785e+001  -1.591671e+002 
3893750000  -3.056279e+001  -1.603531e+002 
3896875000  -3.081019e+001  -1.603932e+002 
3900000000  -3.099750e+001  -1.610015e+002 
3903125000  -3.065993e+001  -1.625457e+002 
3906250000  -3.038819e+001  -1.639798e+002 
3909375000  -2.958693e+001  -1.659748e+002 
3912500000  -2.982109e+001  -1.738535e+002 
3915625000  -3.087519e+001  -1.726434e+002 
3918750000  -3.096612e+001  -1.711084e+002 
3921875000  -3.069344e+001  -1.732983e+002 
3925000000  -2.983800e+001  -1.733463e+002 
3928125000  -2.905529e+001  -1.796270e+002 
3931250000  -2.953894e+001  1.763372e+002 
3934375000  -2.981942e+001  1.770851e+002 
3937500000  -2.990294e+001  1.771565e+002 
3940625000  -3.040923e+001  1.769843e+002 
3943750000  -2.945096e+001  1.780768e+002 
3946875000  -2.821185e+001  1.723378e+002 
3950000000  -2.875692e+001  1.653181e+002 
3953125000  -2.968572e+001  1.663970e+002 
3956250000  -2.878819e+001  1.685908e+002 
3959375000  -2.742211e+001  1.661520e+002 
3962500000  -2.691867e+001  1.610877e+002 
3965625000  -2.662168e+001  1.527235e+002 
3968750000  -2.751091e+001  1.459046e+002 
3971875000  -2.785047e+001  1.442393e+002 
3975000000  -2.720331e+001  1.423806e+002 
3978125000  -2.708520e+001  1.409394e+002 
3981250000  -2.683440e+001  1.363175e+002 
3984375000  -2.710047e+001  1.301690e+002 
3987500000  -2.751381e+001  1.282685e+002 
3990625000  -2.753355e+001  1.273095e+002 
3993750000  -2.779042e+001  1.240463e+002 
3996875000  -2.771524e+001  1.220377e+002 
4000000000  -2.779872e+001  1.198168e+002 
4003125000  -2.835949e+001  1.224463e+002 
4006250000  -2.699668e+001  1.221010e+002 
4009375000  -2.579743e+001  1.098909e+002 
4012500000  -2.690063e+001  1.030843e+002 
4015625000  -2.815108e+001  1.036529e+002 
4018750000  -2.832682e+001  1.058601e+002 
4021875000  -2.769216e+001  1.043300e+002 
4025000000  -2.723941e+001  9.922861e+001 
4028125000  -2.722862e+001  9.579513e+001 
4031250000  -2.776089e+001  9.179901e+001 
4034375000  -2.799599e+001  9.219199e+001 
4037500000  -2.745939e+001  9.420117e+001 
4040625000  -2.737763e+001  9.070913e+001 
4043750000  -2.768550e+001  8.998474e+001 
4046875000  -2.727110e+001  9.014121e+001 
4050000000  -2.671590e+001  8.454761e+001 
4053125000  -2.722871e+001  8.267799e+001 
4056250000  -2.782623e+001  8.655277e+001 
4059375000  -2.655782e+001  8.886192e+001 
4062500000  -2.522582e+001  8.387836e+001 
4065625000  -2.503788e+001  7.918825e+001 
4068750000  -2.476798e+001  7.478555e+001 
4071875000  -2.416697e+001  6.649599e+001 
4075000000  -2.448583e+001  6.052063e+001 
4078125000  -2.506156e+001  5.951616e+001 
4081250000  -2.455335e+001  5.724224e+001 
4084375000  -2.414761e+001  5.058685e+001 
4087500000  -2.445732e+001  4.402937e+001 
4090625000  -2.513190e+001  4.310756e+001 
4093750000  -2.491072e+001  4.387147e+001 
4096875000  -2.443927e+001  3.796748e+001 
4100000000  -2.517853e+001  3.083381e+001 
4103125000  -2.604783e+001  3.153312e+001 
4106250000  -2.590150e+001  3.657109e+001 
4109375000  -2.505105e+001  3.587687e+001 
4112500000  -2.446880e+001  2.919964e+001 
4115625000  -2.475524e+001  2.504358e+001 
4118750000  -2.485506e+001  2.219537e+001 
4121875000  -2.445711e+001  1.742479e+001 
4125000000  -2.487683e+001  1.231082e+001 
4128125000  -2.590073e+001  1.287530e+001 
4131250000  -2.556243e+001  2.069647e+001 
4134375000  -2.325371e+001  1.621157e+001 
4137500000  -2.303844e+001  -2.638403e+000 
4140625000  -2.517598e+001  -1.002884e+001 
4143750000  -2.655505e+001  -4.356253e+000 
4146875000  -2.613229e+001  2.655547e+000 
4150000000  -2.522753e+001  -9.054474e-001 
4153125000  -2.499847e+001  -7.146430e+000 
4156250000  -2.592142e+001  -9.822894e+000 
4159375000  -2.614923e+001  -5.350012e+000 
4162500000  -2.501875e+001  -6.794435e-001 
4165625000  -2.384050e+001  -4.871809e+000 
4168750000  -2.329271e+001  -1.244039e+001 
4171875000  -2.326487e+001  -2.156870e+001 
4175000000  -2.386544e+001  -2.694849e+001 
4178125000  -2.448016e+001  -2.697963e+001 
4181250000  -2.433895e+001  -2.749121e+001 
4184375000  -2.417687e+001  -3.114559e+001 
4187500000  -2.425523e+001  -3.363288e+001 
4190625000  -2.401502e+001  -3.912767e+001 
4193750000  -2.484427e+001  -4.292052e+001 
4196875000  -2.557029e+001  -4.312852e+001 
4200000000  -2.642227e+001  -4.053494e+001 
4203125000  -2.641432e+001  -2.715470e+001 
4206250000  -2.297057e+001  -2.593429e+001 
4209375000  -2.189355e+001  -4.664472e+001 
4212500000  -2.377971e+001  -5.529838e+001 
4215625000  -2.483402e+001  -4.891224e+001 
4218750000  -2.342720e+001  -4.216456e+001 
4221875000  -2.115176e+001  -5.139943e+001 
4225000000  -2.238929e+001  -6.414360e+001 
4228125000  -2.306556e+001  -5.909377e+001 
4231250000  -2.148272e+001  -6.273495e+001 
4234375000  -2.138299e+001  -7.111423e+001 
4237500000  -2.096697e+001  -7.422092e+001 
4240625000  -2.100370e+001  -8.326373e+001 
4243750000  -2.198365e+001  -8.983694e+001 
4246875000  -2.292496e+001  -8.985349e+001 
4250000000  -2.291073e+001  -8.698111e+001 
4253125000  -2.237212e+001  -8.869321e+001 
4256250000  -2.263675e+001  -9.289334e+001 
4259375000  -2.235366e+001  -9.491352e+001 
4262500000  -2.234011e+001  -9.876081e+001 
4265625000  -2.253300e+001  -9.829133e+001 
4268750000  -2.167124e+001  -1.024268e+002 
4271875000  -2.140033e+001  -1.081274e+002 
4275000000  -2.078368e+001  -1.146007e+002 
4278125000  -2.142084e+001  -1.255370e+002 
4281250000  -2.319012e+001  -1.276889e+002 
4284375000  -2.287426e+001  -1.275887e+002 
4287500000  -2.373344e+001  -1.307079e+002 
4290625000  -2.492446e+001  -1.207466e+002 
4293750000  -2.296137e+001  -1.156879e+002 
4296875000  -2.159882e+001  -1.269257e+002 
4300000000  -2.245722e+001  -1.361540e+002 
4303125000  -2.362157e+001  -1.345554e+002 
4306250000  -2.292918e+001  -1.287627e+002 
4309375000  -2.155182e+001  -1.309451e+002 
4312500000  -2.140912e+001  -1.393640e+002 
4315625000  -2.166437e+001  -1.458217e+002 
4318750000  -2.197347e+001  -1.488330e+002 
4321875000  -2.217331e+001  -1.483512e+002 
4325000000  -2.156172e+001  -1.477017e+002 
4328125000  -2.104987e+001  -1.541590e+002 
4331250000  -2.098164e+001  -1.624152e+002 
4334375000  -2.146398e+001  -1.674276e+002 
4337500000  -2.228649e+001  -1.695241e+002 
4340625000  -2.281579e+001  -1.661053e+002 
4343750000  -2.221112e+001  -1.654764e+002 
4346875000  -2.185457e+001  -1.712948e+002 
4350000000  -2.182060e+001  -1.760936e+002 
4353125000  -2.192301e+001  1.764696e+002 
4356250000  -2.371164e+001  1.753030e+002 
4359375000  -2.430739e+001  -1.707416e+002 
4362500000  -2.149937e+001  -1.691588e+002 
4365625000  -1.994688e+001  1.784471e+002 
4368750000  -2.067064e+001  1.668771e+002 
4371875000  -2.184507e+001  1.677383e+002 
4375000000  -2.150748e+001  1.684483e+002 
4378125000  -2.085803e+001  1.625945e+002 
4381250000  -2.104450e+001  1.573895e+002 
4384375000  -2.084729e+001  1.525990e+002 
4387500000  -2.162715e+001  1.470336e+002 
4390625000  -2.262568e+001  1.478878e+002 
4393750000  -2.193506e+001  1.499188e+002 
4396875000  -2.128345e+001  1.478752e+002 
4400000000  -2.077490e+001  1.409527e+002 
4403125000  -2.138702e+001  1.333387e+002 
4406250000  -2.217445e+001  1.322327e+002 
4409375000  -2.213661e+001  1.296892e+002 
4412500000  -2.320828e+001  1.270693e+002 
4415625000  -2.358448e+001  1.318400e+002 
4418750000  -2.234218e+001  1.367121e+002 
