!Agilent Technologies,E8363B,MY43030201,A.06.04.32
!Agilent E8363B: A.06.04.32
!Date: Tuesday, November 11, 2014 20:57:50
!Correction: S21(Response(S21)) 
!S1P File: Measurement: S21:
# Hz S  dB   R 50
3000000000  -2.649179e+001  1.467569e+002 
3003125000  -2.792162e+001  1.422512e+002 
3006250000  -2.792751e+001  1.396180e+002 
3009375000  -2.829341e+001  1.449078e+002 
3012500000  -2.775818e+001  1.441081e+002 
3015625000  -2.682186e+001  1.373032e+002 
3018750000  -2.769545e+001  1.365294e+002 
3021875000  -2.636394e+001  1.380193e+002 
3025000000  -2.506249e+001  1.348495e+002 
3028125000  -2.411336e+001  1.295288e+002 
3031250000  -2.305847e+001  1.182969e+002 
3034375000  -2.272416e+001  1.051200e+002 
3037500000  -2.310357e+001  9.334637e+001 
3040625000  -2.444515e+001  8.843816e+001 
3043750000  -2.516268e+001  8.428101e+001 
3046875000  -2.527611e+001  7.770407e+001 
3050000000  -2.698018e+001  7.099991e+001 
3053125000  -2.705620e+001  7.740941e+001 
3056250000  -2.643306e+001  8.065456e+001 
3059375000  -2.665806e+001  8.008441e+001 
3062500000  -2.516647e+001  7.658400e+001 
3065625000  -2.493256e+001  7.029990e+001 
3068750000  -2.466234e+001  6.343027e+001 
3071875000  -2.457280e+001  6.064375e+001 
3075000000  -2.454406e+001  5.670826e+001 
3078125000  -2.430847e+001  5.223319e+001 
3081250000  -2.493592e+001  4.786828e+001 
3084375000  -2.418371e+001  4.423779e+001 
3087500000  -2.408674e+001  4.061061e+001 
3090625000  -2.379021e+001  3.081294e+001 
3093750000  -2.428856e+001  2.292342e+001 
3096875000  -2.554713e+001  1.693290e+001 
3100000000  -2.561575e+001  1.578384e+001 
3103125000  -2.602709e+001  1.684592e+001 
3106250000  -2.575495e+001  1.342466e+001 
3109375000  -2.597808e+001  9.938809e+000 
3112500000  -2.612117e+001  8.757986e+000 
3115625000  -2.593260e+001  4.742459e+000 
3118750000  -2.639476e+001  6.051085e+000 
3121875000  -2.575339e+001  -2.527266e+000 
3125000000  -2.697453e+001  -5.241143e+000 
3128125000  -2.811537e+001  2.735981e+000 
3131250000  -2.591104e+001  3.085479e+000 
3134375000  -2.462713e+001  -1.117106e+001 
3137500000  -2.533825e+001  -2.445075e+001 
3140625000  -2.688063e+001  -2.542714e+001 
3143750000  -2.790185e+001  -2.208184e+001 
3146875000  -2.748592e+001  -1.977883e+001 
3150000000  -2.647209e+001  -1.735699e+001 
3153125000  -2.647447e+001  -2.569412e+001 
3156250000  -2.750040e+001  -1.980835e+001 
3159375000  -2.582259e+001  -1.715782e+001 
3162500000  -2.384127e+001  -3.005246e+001 
3165625000  -2.481116e+001  -4.097696e+001 
3168750000  -2.516637e+001  -3.973757e+001 
3171875000  -2.424490e+001  -4.425694e+001 
3175000000  -2.486126e+001  -5.202948e+001 
3178125000  -2.462357e+001  -5.015091e+001 
3181250000  -2.348141e+001  -5.475725e+001 
3184375000  -2.272404e+001  -6.672559e+001 
3187500000  -2.386162e+001  -8.164749e+001 
3190625000  -2.654658e+001  -8.871078e+001 
3193750000  -2.712310e+001  -7.947349e+001 
3196875000  -2.672406e+001  -7.415687e+001 
3200000000  -2.581931e+001  -7.594711e+001 
3203125000  -2.495014e+001  -8.185435e+001 
3206250000  -2.530940e+001  -8.794273e+001 
3209375000  -2.480845e+001  -9.307224e+001 
3212500000  -2.498322e+001  -9.986272e+001 
3215625000  -2.506093e+001  -1.034873e+002 
3218750000  -2.589100e+001  -1.101233e+002 
3221875000  -2.681008e+001  -1.152902e+002 
3225000000  -2.639061e+001  -1.157778e+002 
3228125000  -2.675293e+001  -1.203969e+002 
3231250000  -2.753107e+001  -1.228830e+002 
3234375000  -2.730678e+001  -1.221807e+002 
3237500000  -2.732400e+001  -1.238973e+002 
3240625000  -2.703575e+001  -1.256175e+002 
3243750000  -2.667530e+001  -1.320558e+002 
3246875000  -2.717432e+001  -1.385956e+002 
3250000000  -2.766361e+001  -1.407462e+002 
3253125000  -2.782185e+001  -1.422959e+002 
3256250000  -2.768850e+001  -1.481318e+002 
3259375000  -2.792969e+001  -1.555865e+002 
3262500000  -2.922430e+001  -1.586046e+002 
3265625000  -2.990042e+001  -1.550894e+002 
3268750000  -2.988127e+001  -1.521967e+002 
3271875000  -2.959025e+001  -1.512281e+002 
3275000000  -2.856592e+001  -1.564378e+002 
3278125000  -2.901049e+001  -1.627608e+002 
3281250000  -2.929475e+001  -1.606405e+002 
3284375000  -2.883565e+001  -1.662117e+002 
3287500000  -2.900693e+001  -1.690093e+002 
3290625000  -2.942646e+001  -1.740349e+002 
3293750000  -2.909828e+001  -1.791726e+002 
3296875000  -3.009529e+001  -1.791628e+002 
3300000000  -3.004833e+001  -1.783522e+002 
3303125000  -2.885612e+001  1.782769e+002 
3306250000  -2.860596e+001  1.715309e+002 
3309375000  -2.842479e+001  1.662089e+002 
3312500000  -2.846605e+001  1.558279e+002 
3315625000  -2.954864e+001  1.480719e+002 
3318750000  -3.084742e+001  1.457363e+002 
3321875000  -3.216768e+001  1.458916e+002 
3325000000  -3.252148e+001  1.504150e+002 
3328125000  -3.249487e+001  1.523255e+002 
3331250000  -3.111935e+001  1.602067e+002 
3334375000  -2.859606e+001  1.503311e+002 
3337500000  -2.860214e+001  1.315003e+002 
3340625000  -3.004600e+001  1.205022e+002 
3343750000  -3.197912e+001  1.203558e+002 
3346875000  -3.241867e+001  1.213209e+002 
3350000000  -3.175806e+001  1.202432e+002 
3353125000  -3.188770e+001  1.149535e+002 
3356250000  -3.159428e+001  1.074606e+002 
3359375000  -3.259546e+001  9.938785e+001 
3362500000  -3.378189e+001  9.424836e+001 
3365625000  -3.441463e+001  9.214156e+001 
3368750000  -3.534121e+001  9.074721e+001 
3371875000  -3.575420e+001  8.775713e+001 
3375000000  -3.738288e+001  8.525227e+001 
3378125000  -3.848540e+001  8.534457e+001 
3381250000  -4.016658e+001  9.354845e+001 
3384375000  -3.916710e+001  1.136544e+002 
3387500000  -3.591220e+001  9.950854e+001 
3390625000  -3.773557e+001  8.179642e+001 
3393750000  -3.933304e+001  8.410345e+001 
3396875000  -3.872544e+001  8.875188e+001 
3400000000  -3.858343e+001  8.132065e+001 
3403125000  -3.952400e+001  7.628048e+001 
3406250000  -4.032499e+001  7.922205e+001 
3409375000  -4.103921e+001  7.539638e+001 
3412500000  -4.201479e+001  7.652589e+001 
3415625000  -4.273890e+001  8.194901e+001 
3418750000  -4.321007e+001  8.543967e+001 
3421875000  -4.315324e+001  9.269899e+001 
3425000000  -4.239505e+001  9.635253e+001 
3428125000  -4.142421e+001  9.595677e+001 
3431250000  -4.146709e+001  9.114866e+001 
3434375000  -4.116521e+001  8.704783e+001 
3437500000  -4.164431e+001  8.580044e+001 
3440625000  -4.196924e+001  8.929298e+001 
3443750000  -4.064920e+001  9.114521e+001 
3446875000  -3.969622e+001  8.514813e+001 
3450000000  -3.964764e+001  7.684250e+001 
3453125000  -3.989423e+001  6.769984e+001 
3456250000  -4.098958e+001  6.321508e+001 
3459375000  -4.185686e+001  6.429712e+001 
3462500000  -4.212890e+001  6.664796e+001 
3465625000  -4.199605e+001  6.222050e+001 
3468750000  -4.274705e+001  5.973246e+001 
3471875000  -4.242936e+001  5.823078e+001 
3475000000  -4.228863e+001  5.487816e+001 
3478125000  -4.317828e+001  4.942258e+001 
3481250000  -4.443080e+001  4.767867e+001 
3484375000  -4.601235e+001  5.159664e+001 
3487500000  -4.549380e+001  5.775820e+001 
3490625000  -4.498743e+001  5.111435e+001 
3493750000  -4.613961e+001  4.981922e+001 
3496875000  -4.688518e+001  5.333804e+001 
3500000000  -4.795099e+001  5.808004e+001 
3503125000  -4.753971e+001  6.283971e+001 
3506250000  -4.698828e+001  6.361338e+001 
3509375000  -4.697315e+001  6.096984e+001 
3512500000  -4.737102e+001  5.735986e+001 
3515625000  -4.779160e+001  6.385950e+001 
3518750000  -4.879599e+001  6.845097e+001 
3521875000  -4.763983e+001  7.504644e+001 
3525000000  -4.818213e+001  7.455733e+001 
3528125000  -4.767734e+001  8.691585e+001 
3531250000  -4.551867e+001  8.797872e+001 
3534375000  -4.513517e+001  7.782046e+001 
3537500000  -4.482051e+001  7.711174e+001 
3540625000  -4.564814e+001  7.621268e+001 
3543750000  -4.604591e+001  7.936426e+001 
3546875000  -4.538356e+001  8.927218e+001 
3550000000  -4.266164e+001  9.432497e+001 
3553125000  -4.120633e+001  7.664042e+001 
3556250000  -4.243398e+001  7.103971e+001 
3559375000  -4.218773e+001  7.340791e+001 
3562500000  -4.081800e+001  6.599622e+001 
3565625000  -4.182734e+001  5.856213e+001 
3568750000  -4.171137e+001  6.368137e+001 
3571875000  -4.149856e+001  6.056665e+001 
3575000000  -4.132457e+001  5.673170e+001 
3578125000  -4.147461e+001  5.437692e+001 
3581250000  -4.191055e+001  5.467313e+001 
3584375000  -4.087924e+001  5.433451e+001 
3587500000  -3.997016e+001  4.666547e+001 
3590625000  -4.038809e+001  3.801545e+001 
3593750000  -4.173643e+001  3.789925e+001 
3596875000  -4.150088e+001  4.739268e+001 
3600000000  -3.990042e+001  4.295995e+001 
3603125000  -3.985302e+001  3.038940e+001 
3606250000  -4.059539e+001  2.730446e+001 
3609375000  -4.118908e+001  2.717136e+001 
3612500000  -4.139388e+001  2.532428e+001 
3615625000  -4.167559e+001  2.268434e+001 
3618750000  -4.225305e+001  2.699862e+001 
3621875000  -4.162525e+001  2.388611e+001 
3625000000  -4.204525e+001  2.539809e+001 
3628125000  -4.209224e+001  2.488446e+001 
3631250000  -4.125603e+001  2.083272e+001 
3634375000  -4.236869e+001  2.234016e+001 
3637500000  -4.222770e+001  2.755447e+001 
3640625000  -4.110050e+001  2.888268e+001 
3643750000  -4.057969e+001  2.142987e+001 
3646875000  -4.105587e+001  1.412598e+001 
3650000000  -4.156489e+001  1.584400e+001 
3653125000  -4.120771e+001  1.566886e+001 
3656250000  -4.130086e+001  1.475401e+001 
3659375000  -4.163952e+001  1.587948e+001 
3662500000  -4.097908e+001  1.651676e+001 
3665625000  -4.122250e+001  1.546950e+001 
3668750000  -4.015337e+001  1.867527e+001 
3671875000  -3.917274e+001  1.212164e+001 
3675000000  -3.952661e+001  5.782636e+000 
3678125000  -4.033810e+001  8.564747e+000 
3681250000  -3.983458e+001  9.384881e+000 
3684375000  -3.979691e+001  7.054294e+000 
3687500000  -3.975710e+001  5.870636e+000 
3690625000  -3.965298e+001  3.904674e+000 
3693750000  -4.046319e+001  6.054948e+000 
3696875000  -4.020254e+001  8.517872e+000 
3700000000  -3.886673e+001  8.594847e+000 
3703125000  -3.896533e+001  3.939948e+000 
3706250000  -3.957847e+001  6.073071e+000 
3709375000  -3.889613e+001  9.516132e+000 
3712500000  -3.761369e+001  8.992800e+000 
3715625000  -3.652735e+001  3.127111e+000 
3718750000  -3.585053e+001  5.546277e-001 
3721875000  -3.539991e+001  -4.159563e+000 
3725000000  -3.538729e+001  -9.812573e+000 
3728125000  -3.548372e+001  -1.001159e+001 
3731250000  -3.473554e+001  -1.042769e+001 
3734375000  -3.373884e+001  -1.598430e+001 
3737500000  -3.430532e+001  -2.334722e+001 
3740625000  -3.473170e+001  -2.589619e+001 
3743750000  -3.452042e+001  -2.878308e+001 
3746875000  -3.455798e+001  -3.208752e+001 
3750000000  -3.500850e+001  -3.355225e+001 
3753125000  -3.455876e+001  -3.302090e+001 
3756250000  -3.440948e+001  -3.437116e+001 
3759375000  -3.429606e+001  -3.534568e+001 
3762500000  -3.370280e+001  -3.884048e+001 
3765625000  -3.409715e+001  -4.171250e+001 
3768750000  -3.430984e+001  -4.005330e+001 
3771875000  -3.238649e+001  -4.177589e+001 
3775000000  -3.221560e+001  -4.997043e+001 
3778125000  -3.255725e+001  -5.193089e+001 
3781250000  -3.236700e+001  -5.427888e+001 
3784375000  -3.226837e+001  -5.665428e+001 
3787500000  -3.164418e+001  -6.021014e+001 
3790625000  -3.221311e+001  -6.633939e+001 
3793750000  -3.234263e+001  -6.666280e+001 
3796875000  -3.144691e+001  -6.785171e+001 
3800000000  -2.990738e+001  -7.146839e+001 
3803125000  -3.071095e+001  -7.895952e+001 
3806250000  -3.142593e+001  -8.048928e+001 
3809375000  -3.108215e+001  -8.234385e+001 
3812500000  -3.039522e+001  -8.670211e+001 
3815625000  -3.106440e+001  -9.449396e+001 
3818750000  -3.212806e+001  -9.637497e+001 
3821875000  -3.211549e+001  -8.710319e+001 
3825000000  -3.020758e+001  -8.266941e+001 
3828125000  -2.873901e+001  -9.720061e+001 
3831250000  -2.932691e+001  -1.115228e+002 
3834375000  -3.074590e+001  -1.117430e+002 
3837500000  -3.165336e+001  -1.062740e+002 
3840625000  -3.046617e+001  -1.079903e+002 
3843750000  -2.928395e+001  -1.172670e+002 
3846875000  -3.009548e+001  -1.249491e+002 
3850000000  -3.138656e+001  -1.191550e+002 
3853125000  -3.049811e+001  -1.165538e+002 
3856250000  -3.048621e+001  -1.216005e+002 
3859375000  -2.971263e+001  -1.256624e+002 
3862500000  -2.927351e+001  -1.334074e+002 
3865625000  -2.959597e+001  -1.374997e+002 
3868750000  -2.953062e+001  -1.378230e+002 
3871875000  -2.884507e+001  -1.408402e+002 
3875000000  -2.897440e+001  -1.494167e+002 
3878125000  -2.998629e+001  -1.522322e+002 
3881250000  -3.013128e+001  -1.485301e+002 
3884375000  -2.958755e+001  -1.540376e+002 
3887500000  -2.978028e+001  -1.577054e+002 
3890625000  -3.013803e+001  -1.604290e+002 
3893750000  -3.065681e+001  -1.613524e+002 
3896875000  -3.075829e+001  -1.615519e+002 
3900000000  -3.100220e+001  -1.621596e+002 
3903125000  -3.064036e+001  -1.640524e+002 
3906250000  -3.034530e+001  -1.650386e+002 
3909375000  -2.960554e+001  -1.677263e+002 
3912500000  -2.971506e+001  -1.755138e+002 
3915625000  -3.089369e+001  -1.743563e+002 
3918750000  -3.090750e+001  -1.731770e+002 
3921875000  -3.060564e+001  -1.745715e+002 
3925000000  -2.981372e+001  -1.754555e+002 
3928125000  -2.909243e+001  1.792399e+002 
3931250000  -2.959709e+001  1.747499e+002 
3934375000  -2.979377e+001  1.755695e+002 
3937500000  -2.993679e+001  1.742478e+002 
3940625000  -3.042729e+001  1.746547e+002 
3943750000  -2.951062e+001  1.767679e+002 
3946875000  -2.831433e+001  1.711911e+002 
3950000000  -2.876394e+001  1.634936e+002 
3953125000  -2.976029e+001  1.641348e+002 
3956250000  -2.889469e+001  1.671015e+002 
3959375000  -2.752475e+001  1.638376e+002 
3962500000  -2.703247e+001  1.596763e+002 
3965625000  -2.668357e+001  1.513450e+002 
3968750000  -2.762935e+001  1.447583e+002 
3971875000  -2.789711e+001  1.425444e+002 
3975000000  -2.727001e+001  1.409329e+002 
3978125000  -2.718157e+001  1.399886e+002 
3981250000  -2.685106e+001  1.356317e+002 
3984375000  -2.708213e+001  1.293909e+002 
3987500000  -2.762307e+001  1.273138e+002 
3990625000  -2.760803e+001  1.262900e+002 
3993750000  -2.781338e+001  1.234737e+002 
3996875000  -2.774071e+001  1.204920e+002 
4000000000  -2.794345e+001  1.185228e+002 
4003125000  -2.840431e+001  1.210339e+002 
4006250000  -2.702898e+001  1.210597e+002 
4009375000  -2.582352e+001  1.092264e+002 
4012500000  -2.694027e+001  1.015569e+002 
4015625000  -2.817255e+001  1.022894e+002 
4018750000  -2.830957e+001  1.048744e+002 
4021875000  -2.755546e+001  1.031015e+002 
4025000000  -2.724520e+001  9.809074e+001 
4028125000  -2.723116e+001  9.372314e+001 
4031250000  -2.771262e+001  9.077434e+001 
4034375000  -2.793848e+001  9.086341e+001 
4037500000  -2.746364e+001  9.250993e+001 
4040625000  -2.735921e+001  8.902067e+001 
4043750000  -2.774726e+001  8.921039e+001 
4046875000  -2.729314e+001  8.849067e+001 
4050000000  -2.678119e+001  8.265590e+001 
4053125000  -2.726080e+001  8.103979e+001 
4056250000  -2.783887e+001  8.489861e+001 
4059375000  -2.662641e+001  8.722287e+001 
4062500000  -2.524445e+001  8.205972e+001 
4065625000  -2.515839e+001  7.791641e+001 
4068750000  -2.488304e+001  7.298552e+001 
4071875000  -2.422076e+001  6.519082e+001 
4075000000  -2.461013e+001  5.904003e+001 
4078125000  -2.515858e+001  5.810409e+001 
4081250000  -2.462276e+001  5.568137e+001 
4084375000  -2.424750e+001  4.884632e+001 
4087500000  -2.459382e+001  4.267296e+001 
4090625000  -2.524867e+001  4.167689e+001 
4093750000  -2.497376e+001  4.237015e+001 
4096875000  -2.456299e+001  3.646204e+001 
4100000000  -2.526559e+001  2.967967e+001 
4103125000  -2.613700e+001  3.064182e+001 
4106250000  -2.599774e+001  3.550466e+001 
4109375000  -2.504669e+001  3.471861e+001 
4112500000  -2.454973e+001  2.822088e+001 
4115625000  -2.485599e+001  2.409836e+001 
4118750000  -2.490738e+001  2.103738e+001 
4121875000  -2.455720e+001  1.624628e+001 
4125000000  -2.491539e+001  1.114732e+001 
4128125000  -2.593230e+001  1.111328e+001 
4131250000  -2.560570e+001  1.979709e+001 
4134375000  -2.325056e+001  1.478924e+001 
4137500000  -2.312030e+001  -4.378670e+000 
4140625000  -2.524718e+001  -1.094486e+001 
4143750000  -2.656023e+001  -5.668779e+000 
4146875000  -2.612664e+001  1.650960e+000 
4150000000  -2.515988e+001  -1.792072e+000 
4153125000  -2.501133e+001  -8.314870e+000 
4156250000  -2.590936e+001  -1.107728e+001 
4159375000  -2.621760e+001  -6.812367e+000 
4162500000  -2.504320e+001  -2.390911e+000 
4165625000  -2.386157e+001  -6.614021e+000 
4168750000  -2.332758e+001  -1.390562e+001 
4171875000  -2.330728e+001  -2.310921e+001 
4175000000  -2.389346e+001  -2.856808e+001 
4178125000  -2.446115e+001  -2.797583e+001 
4181250000  -2.430885e+001  -2.883311e+001 
4184375000  -2.419547e+001  -3.211824e+001 
4187500000  -2.422171e+001  -3.506257e+001 
4190625000  -2.408430e+001  -4.054552e+001 
4193750000  -2.492058e+001  -4.427695e+001 
4196875000  -2.560298e+001  -4.465322e+001 
4200000000  -2.650977e+001  -4.245663e+001 
4203125000  -2.646152e+001  -2.833077e+001 
4206250000  -2.304244e+001  -2.764111e+001 
4209375000  -2.190095e+001  -4.817810e+001 
4212500000  -2.382409e+001  -5.689613e+001 
4215625000  -2.483307e+001  -5.048562e+001 
4218750000  -2.348188e+001  -4.381504e+001 
4221875000  -2.118497e+001  -5.300517e+001 
4225000000  -2.246282e+001  -6.530631e+001 
4228125000  -2.309835e+001  -6.031538e+001 
4231250000  -2.154810e+001  -6.422091e+001 
4234375000  -2.147108e+001  -7.266272e+001 
4237500000  -2.102805e+001  -7.575671e+001 
4240625000  -2.105948e+001  -8.437707e+001 
4243750000  -2.205742e+001  -9.088838e+001 
4246875000  -2.293897e+001  -9.111256e+001 
4250000000  -2.298612e+001  -8.817422e+001 
4253125000  -2.242450e+001  -9.005627e+001 
4256250000  -2.268452e+001  -9.407098e+001 
4259375000  -2.240746e+001  -9.625343e+001 
4262500000  -2.246148e+001  -9.960065e+001 
4265625000  -2.257771e+001  -9.966870e+001 
4268750000  -2.168631e+001  -1.034903e+002 
4271875000  -2.141701e+001  -1.092702e+002 
4275000000  -2.083228e+001  -1.160118e+002 
4278125000  -2.151382e+001  -1.269825e+002 
4281250000  -2.325668e+001  -1.289869e+002 
4284375000  -2.291455e+001  -1.283961e+002 
4287500000  -2.373670e+001  -1.316142e+002 
4290625000  -2.493270e+001  -1.222537e+002 
4293750000  -2.297950e+001  -1.165530e+002 
4296875000  -2.155533e+001  -1.280865e+002 
4300000000  -2.243570e+001  -1.374465e+002 
4303125000  -2.361141e+001  -1.360014e+002 
4306250000  -2.293728e+001  -1.302302e+002 
4309375000  -2.154824e+001  -1.324236e+002 
4312500000  -2.142764e+001  -1.409187e+002 
4315625000  -2.165983e+001  -1.470000e+002 
4318750000  -2.199291e+001  -1.505220e+002 
4321875000  -2.217512e+001  -1.499174e+002 
4325000000  -2.161990e+001  -1.491392e+002 
4328125000  -2.108724e+001  -1.556336e+002 
4331250000  -2.103721e+001  -1.639056e+002 
4334375000  -2.148075e+001  -1.690468e+002 
4337500000  -2.235030e+001  -1.709282e+002 
4340625000  -2.286339e+001  -1.677651e+002 
4343750000  -2.228024e+001  -1.671696e+002 
4346875000  -2.188358e+001  -1.729530e+002 
4350000000  -2.194788e+001  -1.774941e+002 
4353125000  -2.201395e+001  1.746574e+002 
4356250000  -2.377966e+001  1.740302e+002 
4359375000  -2.430275e+001  -1.719306e+002 
4362500000  -2.153987e+001  -1.703459e+002 
4365625000  -1.999871e+001  1.771312e+002 
4368750000  -2.078633e+001  1.654116e+002 
4371875000  -2.194330e+001  1.664196e+002 
4375000000  -2.157312e+001  1.675081e+002 
4378125000  -2.092180e+001  1.613116e+002 
4381250000  -2.113066e+001  1.560847e+002 
4384375000  -2.092061e+001  1.515543e+002 
4387500000  -2.169866e+001  1.458425e+002 
4390625000  -2.268395e+001  1.463620e+002 
4393750000  -2.204122e+001  1.489529e+002 
4396875000  -2.134443e+001  1.464950e+002 
4400000000  -2.081689e+001  1.396896e+002 
4403125000  -2.139762e+001  1.318657e+002 
4406250000  -2.228508e+001  1.309793e+002 
4409375000  -2.221880e+001  1.285821e+002 
4412500000  -2.321108e+001  1.257910e+002 
4415625000  -2.364534e+001  1.308851e+002 
4418750000  -2.235447e+001  1.354220e+002 
