!Agilent Technologies,E8363B,MY43030201,A.06.04.32
!Agilent E8363B: A.06.04.32
!Date: Tuesday, November 11, 2014 20:53:33
!Correction: S21(Response(S21)) 
!S1P File: Measurement: S21:
# Hz S  dB   R 50
3000000000  -2.657789e+001  1.495700e+002 
3003125000  -2.797449e+001  1.449644e+002 
3006250000  -2.797822e+001  1.422584e+002 
3009375000  -2.837649e+001  1.474232e+002 
3012500000  -2.784751e+001  1.467099e+002 
3015625000  -2.689785e+001  1.399444e+002 
3018750000  -2.773237e+001  1.390841e+002 
3021875000  -2.645454e+001  1.403263e+002 
3025000000  -2.519928e+001  1.371936e+002 
3028125000  -2.421306e+001  1.322379e+002 
3031250000  -2.317116e+001  1.210631e+002 
3034375000  -2.279625e+001  1.080060e+002 
3037500000  -2.315916e+001  9.593230e+001 
3040625000  -2.449712e+001  9.085344e+001 
3043750000  -2.522103e+001  8.646646e+001 
3046875000  -2.535782e+001  8.022993e+001 
3050000000  -2.705128e+001  7.329500e+001 
3053125000  -2.715625e+001  7.968384e+001 
3056250000  -2.653486e+001  8.272438e+001 
3059375000  -2.673296e+001  8.238817e+001 
3062500000  -2.530102e+001  7.839826e+001 
3065625000  -2.505715e+001  7.284059e+001 
3068750000  -2.479451e+001  6.570306e+001 
3071875000  -2.477468e+001  6.269145e+001 
3075000000  -2.471915e+001  5.905011e+001 
3078125000  -2.444351e+001  5.461063e+001 
3081250000  -2.510081e+001  5.039723e+001 
3084375000  -2.432946e+001  4.681643e+001 
3087500000  -2.424295e+001  4.304846e+001 
3090625000  -2.392017e+001  3.342149e+001 
3093750000  -2.438785e+001  2.563477e+001 
3096875000  -2.566399e+001  1.965502e+001 
3100000000  -2.583830e+001  1.807307e+001 
3103125000  -2.621253e+001  1.953949e+001 
3106250000  -2.590439e+001  1.603747e+001 
3109375000  -2.617015e+001  1.274899e+001 
3112500000  -2.627361e+001  1.156288e+001 
3115625000  -2.610304e+001  7.485439e+000 
3118750000  -2.654901e+001  8.970549e+000 
3121875000  -2.592656e+001  5.830038e-001 
3125000000  -2.708758e+001  -2.840457e+000 
3128125000  -2.829564e+001  5.377103e+000 
3131250000  -2.609981e+001  6.090476e+000 
3134375000  -2.473757e+001  -7.660818e+000 
3137500000  -2.539644e+001  -2.123966e+001 
3140625000  -2.699678e+001  -2.290488e+001 
3143750000  -2.800158e+001  -1.901153e+001 
3146875000  -2.759536e+001  -1.707133e+001 
3150000000  -2.660437e+001  -1.463868e+001 
3153125000  -2.659423e+001  -2.227521e+001 
3156250000  -2.750566e+001  -1.665599e+001 
3159375000  -2.595991e+001  -1.418282e+001 
3162500000  -2.391795e+001  -2.678057e+001 
3165625000  -2.488697e+001  -3.803074e+001 
3168750000  -2.524396e+001  -3.718127e+001 
3171875000  -2.429147e+001  -4.142948e+001 
3175000000  -2.496437e+001  -4.908605e+001 
3178125000  -2.475618e+001  -4.747271e+001 
3181250000  -2.354812e+001  -5.157412e+001 
3184375000  -2.276708e+001  -6.361198e+001 
3187500000  -2.386158e+001  -7.887938e+001 
3190625000  -2.665312e+001  -8.649927e+001 
3193750000  -2.728991e+001  -7.682397e+001 
3196875000  -2.685181e+001  -7.162188e+001 
3200000000  -2.595968e+001  -7.349921e+001 
3203125000  -2.512092e+001  -7.924367e+001 
3206250000  -2.542498e+001  -8.558701e+001 
3209375000  -2.493486e+001  -9.051269e+001 
3212500000  -2.508376e+001  -9.700272e+001 
3215625000  -2.524177e+001  -1.010418e+002 
3218750000  -2.595355e+001  -1.072276e+002 
3221875000  -2.689805e+001  -1.125049e+002 
3225000000  -2.655616e+001  -1.131772e+002 
3228125000  -2.689227e+001  -1.178613e+002 
3231250000  -2.764681e+001  -1.204986e+002 
3234375000  -2.749449e+001  -1.192933e+002 
3237500000  -2.753563e+001  -1.209066e+002 
3240625000  -2.722400e+001  -1.223640e+002 
3243750000  -2.686105e+001  -1.293217e+002 
3246875000  -2.733600e+001  -1.355766e+002 
3250000000  -2.776886e+001  -1.375597e+002 
3253125000  -2.792887e+001  -1.389018e+002 
3256250000  -2.779930e+001  -1.449431e+002 
3259375000  -2.811268e+001  -1.527991e+002 
3262500000  -2.935113e+001  -1.557492e+002 
3265625000  -3.007050e+001  -1.521920e+002 
3268750000  -2.998259e+001  -1.496815e+002 
3271875000  -2.976093e+001  -1.486382e+002 
3275000000  -2.866404e+001  -1.532286e+002 
3278125000  -2.908590e+001  -1.597079e+002 
3281250000  -2.945770e+001  -1.578587e+002 
3284375000  -2.904594e+001  -1.639768e+002 
3287500000  -2.912448e+001  -1.666088e+002 
3290625000  -2.960416e+001  -1.713489e+002 
3293750000  -2.931688e+001  -1.769240e+002 
3296875000  -3.029787e+001  -1.771711e+002 
3300000000  -3.020063e+001  -1.760692e+002 
3303125000  -2.904957e+001  -1.797872e+002 
3306250000  -2.885762e+001  1.733978e+002 
3309375000  -2.864067e+001  1.681246e+002 
3312500000  -2.869604e+001  1.579221e+002 
3315625000  -2.969916e+001  1.502184e+002 
3318750000  -3.106833e+001  1.476638e+002 
3321875000  -3.229192e+001  1.473416e+002 
3325000000  -3.270091e+001  1.525761e+002 
3328125000  -3.270885e+001  1.539751e+002 
3331250000  -3.144586e+001  1.617079e+002 
3334375000  -2.889389e+001  1.514706e+002 
3337500000  -2.895403e+001  1.337283e+002 
3340625000  -3.033231e+001  1.226759e+002 
3343750000  -3.230953e+001  1.211574e+002 
3346875000  -3.278420e+001  1.225897e+002 
3350000000  -3.212895e+001  1.217316e+002 
3353125000  -3.228405e+001  1.171027e+002 
3356250000  -3.205214e+001  1.085261e+002 
3359375000  -3.282590e+001  1.009457e+002 
3362500000  -3.423747e+001  9.574630e+001 
3365625000  -3.484903e+001  9.407683e+001 
3368750000  -3.581929e+001  9.257804e+001 
3371875000  -3.640179e+001  8.836043e+001 
3375000000  -3.799748e+001  8.666431e+001 
3378125000  -3.888377e+001  8.641353e+001 
3381250000  -4.046087e+001  9.371549e+001 
3384375000  -3.985555e+001  1.153804e+002 
3387500000  -3.659690e+001  1.020196e+002 
3390625000  -3.842806e+001  8.326190e+001 
3393750000  -4.027096e+001  8.752148e+001 
3396875000  -3.932489e+001  8.986943e+001 
3400000000  -3.916091e+001  8.314072e+001 
3403125000  -4.026773e+001  7.793470e+001 
3406250000  -4.146572e+001  8.355917e+001 
3409375000  -4.176421e+001  7.745045e+001 
3412500000  -4.260199e+001  8.026101e+001 
3415625000  -4.327500e+001  8.526688e+001 
3418750000  -4.400209e+001  8.890959e+001 
3421875000  -4.440646e+001  9.745322e+001 
3425000000  -4.356916e+001  1.017351e+002 
3428125000  -4.241550e+001  9.883301e+001 
3431250000  -4.256998e+001  9.414786e+001 
3434375000  -4.196612e+001  9.395818e+001 
3437500000  -4.262094e+001  9.030681e+001 
3440625000  -4.266790e+001  9.113504e+001 
3443750000  -4.149273e+001  9.650703e+001 
3446875000  -4.051651e+001  9.302004e+001 
3450000000  -4.038867e+001  8.431706e+001 
3453125000  -4.098606e+001  7.460925e+001 
3456250000  -4.215995e+001  6.919968e+001 
3459375000  -4.288840e+001  7.265219e+001 
3462500000  -4.346497e+001  7.389423e+001 
3465625000  -4.295092e+001  6.712808e+001 
3468750000  -4.371486e+001  6.684007e+001 
3471875000  -4.361453e+001  6.775466e+001 
3475000000  -4.326240e+001  6.308150e+001 
3478125000  -4.406762e+001  5.900202e+001 
3481250000  -4.545190e+001  5.540780e+001 
3484375000  -4.673058e+001  6.346582e+001 
3487500000  -4.692909e+001  6.564120e+001 
3490625000  -4.634666e+001  6.202898e+001 
3493750000  -4.683484e+001  6.044099e+001 
3496875000  -4.780042e+001  6.471548e+001 
3500000000  -4.887099e+001  6.998239e+001 
3503125000  -4.885542e+001  7.465945e+001 
3506250000  -4.686210e+001  7.956519e+001 
3509375000  -4.711568e+001  7.707868e+001 
3512500000  -4.816601e+001  7.361030e+001 
3515625000  -4.778149e+001  7.608186e+001 
3518750000  -4.858357e+001  8.641308e+001 
3521875000  -4.788977e+001  8.779409e+001 
3525000000  -4.817588e+001  9.009048e+001 
3528125000  -4.746479e+001  1.018649e+002 
3531250000  -4.540443e+001  1.027133e+002 
3534375000  -4.492431e+001  8.997188e+001 
3537500000  -4.461856e+001  8.871587e+001 
3540625000  -4.561106e+001  8.743978e+001 
3543750000  -4.567408e+001  9.108852e+001 
3546875000  -4.498044e+001  1.022546e+002 
3550000000  -4.218575e+001  1.048290e+002 
3553125000  -4.082011e+001  8.829436e+001 
3556250000  -4.217812e+001  8.045252e+001 
3559375000  -4.160289e+001  8.479293e+001 
3562500000  -4.016455e+001  7.619308e+001 
3565625000  -4.135871e+001  7.029637e+001 
3568750000  -4.111670e+001  7.194881e+001 
3571875000  -4.077867e+001  7.112677e+001 
3575000000  -4.028044e+001  6.637991e+001 
3578125000  -4.067291e+001  6.238697e+001 
3581250000  -4.100005e+001  6.205917e+001 
3584375000  -3.985046e+001  6.006451e+001 
3587500000  -3.937548e+001  5.456372e+001 
3590625000  -3.959215e+001  4.644450e+001 
3593750000  -4.068208e+001  4.422847e+001 
3596875000  -4.092901e+001  5.142248e+001 
3600000000  -3.914581e+001  4.822663e+001 
3603125000  -3.947068e+001  3.508041e+001 
3606250000  -4.010661e+001  3.240401e+001 
3609375000  -4.034842e+001  3.274038e+001 
3612500000  -4.099164e+001  2.931474e+001 
3615625000  -4.137864e+001  2.764277e+001 
3618750000  -4.159978e+001  2.968582e+001 
3621875000  -4.148493e+001  2.910224e+001 
3625000000  -4.180600e+001  2.811436e+001 
3628125000  -4.174508e+001  2.764727e+001 
3631250000  -4.146615e+001  2.289544e+001 
3634375000  -4.252375e+001  2.439892e+001 
3637500000  -4.206026e+001  3.130379e+001 
3640625000  -4.122137e+001  3.111782e+001 
3643750000  -4.079483e+001  2.712864e+001 
3646875000  -4.128716e+001  2.238959e+001 
3650000000  -4.161434e+001  2.148242e+001 
3653125000  -4.147430e+001  2.145317e+001 
3656250000  -4.185084e+001  2.089380e+001 
3659375000  -4.207758e+001  2.491260e+001 
3662500000  -4.113613e+001  2.386527e+001 
3665625000  -4.130805e+001  2.516002e+001 
3668750000  -4.014091e+001  2.597033e+001 
3671875000  -3.905292e+001  2.096012e+001 
3675000000  -3.953185e+001  1.508535e+001 
3678125000  -4.013158e+001  1.528659e+001 
3681250000  -3.948322e+001  1.818484e+001 
3684375000  -3.929221e+001  1.510748e+001 
3687500000  -3.941948e+001  1.333085e+001 
3690625000  -3.933467e+001  9.394947e+000 
3693750000  -4.002027e+001  1.227725e+001 
3696875000  -3.970012e+001  1.416424e+001 
3700000000  -3.846163e+001  1.219742e+001 
3703125000  -3.850897e+001  9.200665e+000 
3706250000  -3.917955e+001  1.072664e+001 
3709375000  -3.844471e+001  1.375578e+001 
3712500000  -3.727402e+001  1.398184e+001 
3715625000  -3.621135e+001  6.896406e+000 
3718750000  -3.558590e+001  5.394926e+000 
3721875000  -3.518871e+001  -1.241622e+000 
3725000000  -3.524096e+001  -5.537615e+000 
3728125000  -3.545718e+001  -5.120470e+000 
3731250000  -3.485236e+001  -7.168081e+000 
3734375000  -3.382087e+001  -1.244506e+001 
3737500000  -3.432557e+001  -1.866565e+001 
3740625000  -3.504836e+001  -2.214408e+001 
3743750000  -3.473011e+001  -2.373580e+001 
3746875000  -3.472243e+001  -2.640783e+001 
3750000000  -3.517172e+001  -2.797222e+001 
3753125000  -3.480590e+001  -2.820366e+001 
3756250000  -3.472382e+001  -2.806737e+001 
3759375000  -3.448629e+001  -2.908086e+001 
3762500000  -3.381661e+001  -3.301975e+001 
3765625000  -3.437384e+001  -3.527713e+001 
3768750000  -3.438010e+001  -3.333979e+001 
3771875000  -3.261098e+001  -3.522779e+001 
3775000000  -3.241555e+001  -4.320109e+001 
3778125000  -3.267761e+001  -4.447271e+001 
3781250000  -3.238974e+001  -4.705803e+001 
3784375000  -3.238182e+001  -4.876952e+001 
3787500000  -3.160026e+001  -5.195247e+001 
3790625000  -3.211671e+001  -5.868015e+001 
3793750000  -3.247704e+001  -5.837809e+001 
3796875000  -3.138203e+001  -5.981330e+001 
3800000000  -2.975276e+001  -6.340323e+001 
3803125000  -3.062619e+001  -7.169043e+001 
3806250000  -3.124706e+001  -7.339424e+001 
3809375000  -3.096169e+001  -7.493667e+001 
3812500000  -3.024338e+001  -7.956724e+001 
3815625000  -3.091241e+001  -8.719975e+001 
3818750000  -3.185691e+001  -8.861245e+001 
3821875000  -3.192046e+001  -8.009454e+001 
3825000000  -2.998880e+001  -7.609214e+001 
3828125000  -2.862432e+001  -8.945500e+001 
3831250000  -2.912238e+001  -1.042773e+002 
3834375000  -3.049771e+001  -1.049812e+002 
3837500000  -3.142399e+001  -1.003421e+002 
3840625000  -3.033423e+001  -1.009212e+002 
3843750000  -2.922410e+001  -1.111442e+002 
3846875000  -2.990013e+001  -1.176487e+002 
3850000000  -3.118696e+001  -1.127875e+002 
3853125000  -3.040456e+001  -1.102518e+002 
3856250000  -3.047423e+001  -1.146023e+002 
3859375000  -2.974693e+001  -1.188717e+002 
3862500000  -2.923271e+001  -1.262211e+002 
3865625000  -2.963571e+001  -1.305439e+002 
3868750000  -2.965968e+001  -1.311656e+002 
3871875000  -2.887418e+001  -1.335819e+002 
3875000000  -2.902145e+001  -1.421674e+002 
3878125000  -3.001947e+001  -1.448706e+002 
3881250000  -3.012263e+001  -1.413056e+002 
3884375000  -2.951789e+001  -1.456398e+002 
3887500000  -2.967117e+001  -1.500247e+002 
3890625000  -3.014817e+001  -1.520681e+002 
3893750000  -3.061999e+001  -1.530973e+002 
3896875000  -3.069537e+001  -1.523790e+002 
3900000000  -3.083582e+001  -1.531319e+002 
3903125000  -3.056079e+001  -1.549332e+002 
3906250000  -3.015149e+001  -1.555808e+002 
3909375000  -2.942150e+001  -1.581321e+002 
3912500000  -2.947671e+001  -1.654034e+002 
3915625000  -3.063490e+001  -1.655872e+002 
3918750000  -3.059820e+001  -1.628086e+002 
3921875000  -3.031339e+001  -1.648345e+002 
3925000000  -2.937962e+001  -1.660746e+002 
3928125000  -2.866079e+001  -1.717769e+002 
3931250000  -2.904425e+001  -1.755023e+002 
3934375000  -2.928012e+001  -1.753456e+002 
3937500000  -2.940978e+001  -1.770621e+002 
3940625000  -2.989415e+001  -1.766068e+002 
3943750000  -2.895448e+001  -1.756538e+002 
3946875000  -2.777679e+001  1.788820e+002 
3950000000  -2.822148e+001  1.715390e+002 
3953125000  -2.912162e+001  1.722038e+002 
3956250000  -2.831252e+001  1.747512e+002 
3959375000  -2.694094e+001  1.710394e+002 
3962500000  -2.647854e+001  1.666017e+002 
3965625000  -2.617080e+001  1.579897e+002 
3968750000  -2.711308e+001  1.513801e+002 
3971875000  -2.749889e+001  1.490779e+002 
3975000000  -2.691364e+001  1.472278e+002 
3978125000  -2.673152e+001  1.464050e+002 
3981250000  -2.647658e+001  1.426290e+002 
3984375000  -2.668553e+001  1.362983e+002 
3987500000  -2.727563e+001  1.342466e+002 
3990625000  -2.723412e+001  1.331718e+002 
3993750000  -2.745305e+001  1.306881e+002 
3996875000  -2.747630e+001  1.279986e+002 
4000000000  -2.755738e+001  1.260747e+002 
4003125000  -2.817024e+001  1.284391e+002 
4006250000  -2.675515e+001  1.290023e+002 
4009375000  -2.548728e+001  1.172529e+002 
4012500000  -2.654163e+001  1.102934e+002 
4015625000  -2.768974e+001  1.108493e+002 
4018750000  -2.789582e+001  1.128826e+002 
4021875000  -2.723239e+001  1.117915e+002 
4025000000  -2.679756e+001  1.069519e+002 
4028125000  -2.668592e+001  1.031457e+002 
4031250000  -2.711729e+001  9.958659e+001 
4034375000  -2.731347e+001  9.959979e+001 
4037500000  -2.678528e+001  1.012094e+002 
4040625000  -2.671494e+001  9.784990e+001 
4043750000  -2.705066e+001  9.723269e+001 
4046875000  -2.648936e+001  9.684024e+001 
4050000000  -2.599038e+001  9.093530e+001 
4053125000  -2.645545e+001  8.806689e+001 
4056250000  -2.709400e+001  9.209950e+001 
4059375000  -2.583606e+001  9.397128e+001 
4062500000  -2.452573e+001  8.921782e+001 
4065625000  -2.438242e+001  8.512504e+001 
4068750000  -2.406593e+001  8.051775e+001 
4071875000  -2.339093e+001  7.233540e+001 
4075000000  -2.374874e+001  6.569433e+001 
4078125000  -2.427154e+001  6.409402e+001 
4081250000  -2.377429e+001  6.171014e+001 
4084375000  -2.343227e+001  5.482558e+001 
4087500000  -2.378751e+001  4.856030e+001 
4090625000  -2.439197e+001  4.737921e+001 
4093750000  -2.428668e+001  4.778612e+001 
4096875000  -2.385695e+001  4.205647e+001 
4100000000  -2.451400e+001  3.511993e+001 
4103125000  -2.543162e+001  3.597457e+001 
4106250000  -2.527271e+001  4.079268e+001 
4109375000  -2.439180e+001  4.012187e+001 
4112500000  -2.389165e+001  3.315796e+001 
4115625000  -2.419202e+001  2.938615e+001 
4118750000  -2.434536e+001  2.638621e+001 
4121875000  -2.399944e+001  2.168132e+001 
4125000000  -2.439402e+001  1.710143e+001 
4128125000  -2.535064e+001  1.793118e+001 
4131250000  -2.501031e+001  2.601575e+001 
4134375000  -2.266418e+001  2.174133e+001 
4137500000  -2.240588e+001  2.660495e+000 
4140625000  -2.451200e+001  -4.601214e+000 
4143750000  -2.589081e+001  8.311008e-001 
4146875000  -2.537207e+001  8.112584e+000 
4150000000  -2.445838e+001  4.947991e+000 
4153125000  -2.428189e+001  -1.422674e+000 
4156250000  -2.513875e+001  -4.341001e+000 
4159375000  -2.547648e+001  1.631320e-001 
4162500000  -2.434706e+001  4.332944e+000 
4165625000  -2.319963e+001  5.902787e-001 
4168750000  -2.242446e+001  -6.821662e+000 
4171875000  -2.233631e+001  -1.599234e+001 
4175000000  -2.291131e+001  -2.213736e+001 
4178125000  -2.349769e+001  -2.228797e+001 
4181250000  -2.333228e+001  -2.321358e+001 
4184375000  -2.322085e+001  -2.685839e+001 
4187500000  -2.326294e+001  -2.941892e+001 
4190625000  -2.309613e+001  -3.540260e+001 
4193750000  -2.385084e+001  -3.922407e+001 
4196875000  -2.466474e+001  -3.975932e+001 
4200000000  -2.541040e+001  -3.756153e+001 
4203125000  -2.543128e+001  -2.448708e+001 
4206250000  -2.217478e+001  -2.319615e+001 
4209375000  -2.102361e+001  -4.365323e+001 
4212500000  -2.297897e+001  -5.226677e+001 
4215625000  -2.394193e+001  -4.540894e+001 
4218750000  -2.248220e+001  -3.884563e+001 
4221875000  -2.021270e+001  -4.864159e+001 
4225000000  -2.144317e+001  -6.173324e+001 
4228125000  -2.223620e+001  -5.692622e+001 
4231250000  -2.075836e+001  -6.041883e+001 
4234375000  -2.062269e+001  -6.873055e+001 
4237500000  -2.028636e+001  -7.221365e+001 
4240625000  -2.038193e+001  -8.073115e+001 
4243750000  -2.135096e+001  -8.683028e+001 
4246875000  -2.221914e+001  -8.668320e+001 
4250000000  -2.221340e+001  -8.405071e+001 
4253125000  -2.161675e+001  -8.600368e+001 
4256250000  -2.182383e+001  -9.038394e+001 
4259375000  -2.165838e+001  -9.233654e+001 
4262500000  -2.162965e+001  -9.593069e+001 
4265625000  -2.181214e+001  -9.554333e+001 
4268750000  -2.099629e+001  -9.919216e+001 
4271875000  -2.069251e+001  -1.046054e+002 
4275000000  -2.002946e+001  -1.111617e+002 
4278125000  -2.055626e+001  -1.225491e+002 
4281250000  -2.231871e+001  -1.249313e+002 
4284375000  -2.209005e+001  -1.243831e+002 
4287500000  -2.294453e+001  -1.281374e+002 
4290625000  -2.418307e+001  -1.178663e+002 
4293750000  -2.225280e+001  -1.119815e+002 
4296875000  -2.085117e+001  -1.234030e+002 
4300000000  -2.163969e+001  -1.327647e+002 
4303125000  -2.263205e+001  -1.311525e+002 
4306250000  -2.197442e+001  -1.261830e+002 
4309375000  -2.057303e+001  -1.287083e+002 
4312500000  -2.052400e+001  -1.371823e+002 
4315625000  -2.077703e+001  -1.433263e+002 
4318750000  -2.110206e+001  -1.465349e+002 
4321875000  -2.126520e+001  -1.460715e+002 
4325000000  -2.066015e+001  -1.462076e+002 
4328125000  -2.016399e+001  -1.528601e+002 
4331250000  -2.018679e+001  -1.609437e+002 
4334375000  -2.064266e+001  -1.656249e+002 
4337500000  -2.141655e+001  -1.681418e+002 
4340625000  -2.189150e+001  -1.655174e+002 
4343750000  -2.135847e+001  -1.649350e+002 
4346875000  -2.099991e+001  -1.701904e+002 
4350000000  -2.090553e+001  -1.750652e+002 
4353125000  -2.103258e+001  1.767911e+002 
4356250000  -2.275813e+001  1.754137e+002 
4359375000  -2.342774e+001  -1.711136e+002 
4362500000  -2.084197e+001  -1.692648e+002 
4365625000  -1.928850e+001  1.792432e+002 
4368750000  -2.000138e+001  1.676577e+002 
4371875000  -2.112852e+001  1.679361e+002 
4375000000  -2.086475e+001  1.692539e+002 
4378125000  -2.022392e+001  1.634194e+002 
4381250000  -2.036557e+001  1.581534e+002 
4384375000  -2.019349e+001  1.535710e+002 
4387500000  -2.088535e+001  1.477874e+002 
4390625000  -2.191814e+001  1.482993e+002 
4393750000  -2.134591e+001  1.507742e+002 
4396875000  -2.067913e+001  1.487639e+002 
4400000000  -2.018830e+001  1.418666e+002 
4403125000  -2.068867e+001  1.342125e+002 
4406250000  -2.154499e+001  1.330627e+002 
4409375000  -2.144271e+001  1.306056e+002 
4412500000  -2.239293e+001  1.278454e+002 
4415625000  -2.286583e+001  1.326087e+002 
4418750000  -2.174202e+001  1.377343e+002 
