!Agilent Technologies,E8363B,MY43030201,A.06.04.32
!Agilent E8363B: A.06.04.32
!Date: Tuesday, November 11, 2014 20:44:21
!Correction: S21(Response(S21)) 
!S1P File: Measurement: S21:
# Hz S  dB   R 50
3000000000  -2.650237e+001  1.588382e+002 
3003125000  -2.781933e+001  1.547587e+002 
3006250000  -2.791893e+001  1.515169e+002 
3009375000  -2.822246e+001  1.568166e+002 
3012500000  -2.778839e+001  1.566565e+002 
3015625000  -2.675671e+001  1.495178e+002 
3018750000  -2.761901e+001  1.486453e+002 
3021875000  -2.639720e+001  1.496760e+002 
3025000000  -2.510355e+001  1.465394e+002 
3028125000  -2.415123e+001  1.420994e+002 
3031250000  -2.308984e+001  1.308626e+002 
3034375000  -2.272760e+001  1.179571e+002 
3037500000  -2.301324e+001  1.059866e+002 
3040625000  -2.435516e+001  1.009358e+002 
3043750000  -2.509243e+001  9.665781e+001 
3046875000  -2.516673e+001  9.019992e+001 
3050000000  -2.692313e+001  8.310245e+001 
3053125000  -2.712136e+001  8.946638e+001 
3056250000  -2.638749e+001  9.282668e+001 
3059375000  -2.670580e+001  9.224127e+001 
3062500000  -2.522091e+001  8.832280e+001 
3065625000  -2.499791e+001  8.286782e+001 
3068750000  -2.470966e+001  7.596732e+001 
3071875000  -2.466316e+001  7.282819e+001 
3075000000  -2.466234e+001  6.940513e+001 
3078125000  -2.433492e+001  6.480665e+001 
3081250000  -2.500514e+001  6.067025e+001 
3084375000  -2.426391e+001  5.680025e+001 
3087500000  -2.412523e+001  5.336989e+001 
3090625000  -2.383996e+001  4.395794e+001 
3093750000  -2.418408e+001  3.577740e+001 
3096875000  -2.550445e+001  2.954041e+001 
3100000000  -2.567799e+001  2.797145e+001 
3103125000  -2.604510e+001  2.964734e+001 
3106250000  -2.578360e+001  2.608517e+001 
3109375000  -2.601764e+001  2.259125e+001 
3112500000  -2.615972e+001  2.177402e+001 
3115625000  -2.592055e+001  1.742741e+001 
3118750000  -2.642968e+001  1.863550e+001 
3121875000  -2.579547e+001  1.070513e+001 
3125000000  -2.684169e+001  7.000726e+000 
3128125000  -2.816618e+001  1.467866e+001 
3131250000  -2.603269e+001  1.584707e+001 
3134375000  -2.463272e+001  2.431020e+000 
3137500000  -2.526495e+001  -1.184977e+001 
3140625000  -2.692221e+001  -1.371187e+001 
3143750000  -2.791965e+001  -8.925410e+000 
3146875000  -2.756291e+001  -7.337912e+000 
3150000000  -2.652550e+001  -4.764438e+000 
3153125000  -2.644903e+001  -1.247355e+001 
3156250000  -2.745212e+001  -7.883196e+000 
3159375000  -2.599273e+001  -4.348540e+000 
3162500000  -2.390856e+001  -1.716689e+001 
3165625000  -2.477418e+001  -2.799824e+001 
3168750000  -2.522665e+001  -2.730368e+001 
3171875000  -2.426680e+001  -3.155371e+001 
3175000000  -2.487545e+001  -3.924251e+001 
3178125000  -2.469046e+001  -3.757397e+001 
3181250000  -2.353569e+001  -4.122470e+001 
3184375000  -2.268568e+001  -5.343405e+001 
3187500000  -2.375875e+001  -6.897530e+001 
3190625000  -2.660828e+001  -7.675000e+001 
3193750000  -2.720613e+001  -6.721968e+001 
3196875000  -2.678756e+001  -6.139627e+001 
3200000000  -2.598961e+001  -6.320526e+001 
3203125000  -2.506773e+001  -6.876682e+001 
3206250000  -2.532341e+001  -7.523187e+001 
3209375000  -2.487337e+001  -8.032037e+001 
3212500000  -2.495871e+001  -8.692156e+001 
3215625000  -2.511034e+001  -9.132398e+001 
3218750000  -2.586390e+001  -9.760708e+001 
3221875000  -2.691299e+001  -1.027362e+002 
3225000000  -2.651646e+001  -1.030480e+002 
3228125000  -2.678196e+001  -1.076374e+002 
3231250000  -2.755378e+001  -1.108854e+002 
3234375000  -2.744833e+001  -1.096661e+002 
3237500000  -2.746370e+001  -1.111971e+002 
3240625000  -2.713492e+001  -1.125500e+002 
3243750000  -2.679898e+001  -1.191604e+002 
3246875000  -2.725517e+001  -1.261402e+002 
3250000000  -2.769276e+001  -1.277177e+002 
3253125000  -2.781133e+001  -1.292433e+002 
3256250000  -2.772932e+001  -1.352911e+002 
3259375000  -2.802035e+001  -1.429180e+002 
3262500000  -2.928677e+001  -1.461668e+002 
3265625000  -3.001044e+001  -1.425435e+002 
3268750000  -2.992080e+001  -1.401440e+002 
3271875000  -2.978832e+001  -1.389064e+002 
3275000000  -2.863387e+001  -1.433550e+002 
3278125000  -2.905734e+001  -1.501524e+002 
3281250000  -2.941818e+001  -1.481792e+002 
3284375000  -2.893784e+001  -1.535318e+002 
3287500000  -2.912558e+001  -1.568004e+002 
3290625000  -2.950010e+001  -1.607536e+002 
3293750000  -2.927179e+001  -1.666287e+002 
3296875000  -3.019880e+001  -1.665898e+002 
3300000000  -3.019740e+001  -1.655125e+002 
3303125000  -2.901482e+001  -1.690835e+002 
3306250000  -2.876949e+001  -1.757267e+002 
3309375000  -2.847868e+001  1.795320e+002 
3312500000  -2.856165e+001  1.687232e+002 
3315625000  -2.950522e+001  1.612142e+002 
3318750000  -3.086352e+001  1.585531e+002 
3321875000  -3.215757e+001  1.576739e+002 
3325000000  -3.267951e+001  1.634739e+002 
3328125000  -3.264247e+001  1.640988e+002 
3331250000  -3.140344e+001  1.722458e+002 
3334375000  -2.880156e+001  1.629059e+002 
3337500000  -2.883801e+001  1.450209e+002 
3340625000  -3.012806e+001  1.333224e+002 
3343750000  -3.203362e+001  1.317253e+002 
3346875000  -3.275488e+001  1.333019e+002 
3350000000  -3.196578e+001  1.321903e+002 
3353125000  -3.208665e+001  1.278462e+002 
3356250000  -3.188081e+001  1.207623e+002 
3359375000  -3.264841e+001  1.120272e+002 
3362500000  -3.395473e+001  1.063877e+002 
3365625000  -3.466264e+001  1.041984e+002 
3368750000  -3.545420e+001  1.032113e+002 
3371875000  -3.592204e+001  9.968207e+001 
3375000000  -3.750227e+001  9.775517e+001 
3378125000  -3.863621e+001  9.739744e+001 
3381250000  -4.014727e+001  1.041977e+002 
3384375000  -3.915367e+001  1.260925e+002 
3387500000  -3.628267e+001  1.123462e+002 
3390625000  -3.801674e+001  9.310426e+001 
3393750000  -3.986685e+001  9.715667e+001 
3396875000  -3.889724e+001  1.003272e+002 
3400000000  -3.889016e+001  9.296468e+001 
3403125000  -3.993264e+001  8.799270e+001 
3406250000  -4.068394e+001  9.181887e+001 
3409375000  -4.154853e+001  8.774081e+001 
3412500000  -4.244674e+001  8.835166e+001 
3415625000  -4.343866e+001  9.361322e+001 
3418750000  -4.354907e+001  9.849786e+001 
3421875000  -4.341500e+001  1.059730e+002 
3425000000  -4.306769e+001  1.092969e+002 
3428125000  -4.221778e+001  1.073387e+002 
3431250000  -4.204565e+001  1.043752e+002 
3434375000  -4.183772e+001  1.011154e+002 
3437500000  -4.230298e+001  9.972945e+001 
3440625000  -4.273159e+001  1.025939e+002 
3443750000  -4.115539e+001  1.063423e+002 
3446875000  -4.046044e+001  1.008695e+002 
3450000000  -4.014541e+001  9.029064e+001 
3453125000  -4.062495e+001  8.321329e+001 
3456250000  -4.172887e+001  7.696891e+001 
3459375000  -4.250724e+001  8.075821e+001 
3462500000  -4.276151e+001  7.981311e+001 
3465625000  -4.282964e+001  7.573080e+001 
3468750000  -4.306821e+001  7.349320e+001 
3471875000  -4.334770e+001  7.355084e+001 
3475000000  -4.319667e+001  6.946686e+001 
3478125000  -4.396093e+001  6.531216e+001 
3481250000  -4.492596e+001  6.198872e+001 
3484375000  -4.674190e+001  6.859988e+001 
3487500000  -4.613988e+001  7.137319e+001 
3490625000  -4.593518e+001  6.922202e+001 
3493750000  -4.689773e+001  6.651231e+001 
3496875000  -4.771088e+001  6.966531e+001 
3500000000  -4.867632e+001  7.724065e+001 
3503125000  -4.895772e+001  8.369530e+001 
3506250000  -4.731983e+001  8.504597e+001 
3509375000  -4.796596e+001  8.286826e+001 
3512500000  -4.781147e+001  7.995504e+001 
3515625000  -4.879615e+001  8.695054e+001 
3518750000  -4.852349e+001  9.078934e+001 
3521875000  -4.766500e+001  9.387127e+001 
3525000000  -4.849153e+001  9.514149e+001 
3528125000  -4.760304e+001  1.070852e+002 
3531250000  -4.608358e+001  1.075894e+002 
3534375000  -4.529695e+001  9.600690e+001 
3537500000  -4.505378e+001  9.346256e+001 
3540625000  -4.553119e+001  9.368166e+001 
3543750000  -4.608526e+001  9.496928e+001 
3546875000  -4.578040e+001  1.084226e+002 
3550000000  -4.310036e+001  1.102407e+002 
3553125000  -4.152293e+001  9.472853e+001 
3556250000  -4.250613e+001  8.872426e+001 
3559375000  -4.215556e+001  9.247298e+001 
3562500000  -4.120267e+001  8.223196e+001 
3565625000  -4.193227e+001  7.692838e+001 
3568750000  -4.172927e+001  8.030855e+001 
3571875000  -4.158303e+001  8.016234e+001 
3575000000  -4.116035e+001  7.441882e+001 
3578125000  -4.175819e+001  7.147340e+001 
3581250000  -4.181221e+001  7.068661e+001 
3584375000  -4.105119e+001  7.183444e+001 
3587500000  -4.005323e+001  6.591292e+001 
3590625000  -4.022594e+001  5.684113e+001 
3593750000  -4.142543e+001  5.535707e+001 
3596875000  -4.150691e+001  6.276385e+001 
3600000000  -3.989609e+001  6.015548e+001 
3603125000  -4.010785e+001  4.781009e+001 
3606250000  -4.068179e+001  4.429146e+001 
3609375000  -4.094327e+001  4.494117e+001 
3612500000  -4.155150e+001  4.240739e+001 
3615625000  -4.144477e+001  3.993462e+001 
3618750000  -4.183911e+001  4.373703e+001 
3621875000  -4.173708e+001  4.024990e+001 
3625000000  -4.176189e+001  3.982164e+001 
3628125000  -4.194388e+001  4.140252e+001 
3631250000  -4.158492e+001  3.664262e+001 
3634375000  -4.255742e+001  3.567751e+001 
3637500000  -4.218460e+001  4.122119e+001 
3640625000  -4.096340e+001  4.505999e+001 
3643750000  -4.068087e+001  3.819951e+001 
3646875000  -4.122840e+001  3.186817e+001 
3650000000  -4.196270e+001  3.343840e+001 
3653125000  -4.171146e+001  3.148483e+001 
3656250000  -4.155033e+001  3.101886e+001 
3659375000  -4.204331e+001  3.457469e+001 
3662500000  -4.116470e+001  3.459985e+001 
3665625000  -4.138137e+001  3.317115e+001 
3668750000  -4.037896e+001  3.579902e+001 
3671875000  -3.939238e+001  3.134034e+001 
3675000000  -3.958021e+001  2.444472e+001 
3678125000  -4.035368e+001  2.556739e+001 
3681250000  -4.004163e+001  2.707866e+001 
3684375000  -3.962847e+001  2.453677e+001 
3687500000  -3.980230e+001  2.411868e+001 
3690625000  -3.963665e+001  2.160955e+001 
3693750000  -4.035667e+001  2.367954e+001 
3696875000  -4.018160e+001  2.757488e+001 
3700000000  -3.891640e+001  2.433902e+001 
3703125000  -3.889179e+001  2.161039e+001 
3706250000  -3.934979e+001  2.329822e+001 
3709375000  -3.870784e+001  2.764994e+001 
3712500000  -3.758089e+001  2.696766e+001 
3715625000  -3.648854e+001  1.995857e+001 
3718750000  -3.581561e+001  1.848643e+001 
3721875000  -3.532944e+001  1.226560e+001 
3725000000  -3.518174e+001  7.933584e+000 
3728125000  -3.541026e+001  7.703137e+000 
3731250000  -3.468938e+001  6.617004e+000 
3734375000  -3.367579e+001  7.804479e-002 
3737500000  -3.417064e+001  -6.851183e+000 
3740625000  -3.484058e+001  -1.008229e+001 
3743750000  -3.467679e+001  -1.141894e+001 
3746875000  -3.447814e+001  -1.559823e+001 
3750000000  -3.492732e+001  -1.694169e+001 
3753125000  -3.461644e+001  -1.683812e+001 
3756250000  -3.452324e+001  -1.732459e+001 
3759375000  -3.421421e+001  -1.837817e+001 
3762500000  -3.367317e+001  -2.250502e+001 
3765625000  -3.413959e+001  -2.481767e+001 
3768750000  -3.430977e+001  -2.221193e+001 
3771875000  -3.251327e+001  -2.505356e+001 
3775000000  -3.228598e+001  -3.256234e+001 
3778125000  -3.248809e+001  -3.448278e+001 
3781250000  -3.227777e+001  -3.778834e+001 
3784375000  -3.223741e+001  -3.930441e+001 
3787500000  -3.163964e+001  -4.303848e+001 
3790625000  -3.218316e+001  -4.878551e+001 
3793750000  -3.236660e+001  -4.951074e+001 
3796875000  -3.150530e+001  -5.087063e+001 
3800000000  -2.996679e+001  -5.478484e+001 
3803125000  -3.053464e+001  -6.148274e+001 
3806250000  -3.135735e+001  -6.415703e+001 
3809375000  -3.113070e+001  -6.496648e+001 
3812500000  -3.043085e+001  -6.946719e+001 
3815625000  -3.101902e+001  -7.673187e+001 
3818750000  -3.191470e+001  -7.894873e+001 
3821875000  -3.204446e+001  -7.061485e+001 
3825000000  -3.026945e+001  -6.577697e+001 
3828125000  -2.882450e+001  -7.932112e+001 
3831250000  -2.930983e+001  -9.357848e+001 
3834375000  -3.056095e+001  -9.484193e+001 
3837500000  -3.145595e+001  -8.977367e+001 
3840625000  -3.047616e+001  -9.058648e+001 
3843750000  -2.939675e+001  -1.000444e+002 
3846875000  -2.992570e+001  -1.077263e+002 
3850000000  -3.124123e+001  -1.025444e+002 
3853125000  -3.046149e+001  -9.984010e+001 
3856250000  -3.046723e+001  -1.046362e+002 
3859375000  -2.977115e+001  -1.087394e+002 
3862500000  -2.934544e+001  -1.156818e+002 
3865625000  -2.955165e+001  -1.204766e+002 
3868750000  -2.954366e+001  -1.208445e+002 
3871875000  -2.885530e+001  -1.231831e+002 
3875000000  -2.899177e+001  -1.318042e+002 
3878125000  -2.989633e+001  -1.352769e+002 
3881250000  -3.009562e+001  -1.314985e+002 
3884375000  -2.959132e+001  -1.363486e+002 
3887500000  -2.968947e+001  -1.402289e+002 
3890625000  -3.019676e+001  -1.424074e+002 
3893750000  -3.058804e+001  -1.440540e+002 
3896875000  -3.068193e+001  -1.440523e+002 
3900000000  -3.102621e+001  -1.453559e+002 
3903125000  -3.063288e+001  -1.470506e+002 
3906250000  -3.039348e+001  -1.475564e+002 
3909375000  -2.965327e+001  -1.494859e+002 
3912500000  -2.968959e+001  -1.566481e+002 
3915625000  -3.085062e+001  -1.569008e+002 
3918750000  -3.079264e+001  -1.549010e+002 
3921875000  -3.057169e+001  -1.571313e+002 
3925000000  -2.975114e+001  -1.572021e+002 
3928125000  -2.909450e+001  -1.623668e+002 
3931250000  -2.947890e+001  -1.667695e+002 
3934375000  -2.967955e+001  -1.664456e+002 
3937500000  -2.983032e+001  -1.675423e+002 
3940625000  -3.026535e+001  -1.675089e+002 
3943750000  -2.943937e+001  -1.660813e+002 
3946875000  -2.813898e+001  -1.712607e+002 
3950000000  -2.857367e+001  -1.789413e+002 
3953125000  -2.960040e+001  -1.786089e+002 
3956250000  -2.874558e+001  -1.755089e+002 
3959375000  -2.743240e+001  -1.789132e+002 
3962500000  -2.697017e+001  1.775562e+002 
3965625000  -2.651329e+001  1.689641e+002 
3968750000  -2.746019e+001  1.617639e+002 
3971875000  -2.794645e+001  1.606945e+002 
3975000000  -2.726211e+001  1.585584e+002 
3978125000  -2.701072e+001  1.573360e+002 
3981250000  -2.676138e+001  1.533141e+002 
3984375000  -2.694705e+001  1.469498e+002 
3987500000  -2.749594e+001  1.447504e+002 
3990625000  -2.742496e+001  1.435669e+002 
3993750000  -2.769111e+001  1.404908e+002 
3996875000  -2.764859e+001  1.381575e+002 
4000000000  -2.772953e+001  1.359992e+002 
4003125000  -2.829721e+001  1.384039e+002 
4006250000  -2.703819e+001  1.392640e+002 
4009375000  -2.569145e+001  1.264954e+002 
4012500000  -2.675138e+001  1.193321e+002 
4015625000  -2.802128e+001  1.195448e+002 
4018750000  -2.825394e+001  1.222748e+002 
4021875000  -2.759239e+001  1.206527e+002 
4025000000  -2.714396e+001  1.154898e+002 
4028125000  -2.710484e+001  1.118945e+002 
4031250000  -2.753501e+001  1.082868e+002 
4034375000  -2.785432e+001  1.084660e+002 
4037500000  -2.735785e+001  1.102259e+002 
4040625000  -2.726925e+001  1.067797e+002 
4043750000  -2.765306e+001  1.066548e+002 
4046875000  -2.720329e+001  1.059530e+002 
4050000000  -2.663210e+001  1.004734e+002 
4053125000  -2.712291e+001  9.797341e+001 
4056250000  -2.776646e+001  1.016819e+002 
4059375000  -2.659947e+001  1.038597e+002 
4062500000  -2.516786e+001  9.937455e+001 
4065625000  -2.497865e+001  9.530325e+001 
4068750000  -2.475417e+001  9.042390e+001 
4071875000  -2.409377e+001  8.286750e+001 
4075000000  -2.444787e+001  7.635500e+001 
4078125000  -2.501337e+001  7.502081e+001 
4081250000  -2.449838e+001  7.301593e+001 
4084375000  -2.409867e+001  6.658189e+001 
4087500000  -2.439562e+001  6.021791e+001 
4090625000  -2.505857e+001  5.899379e+001 
4093750000  -2.491551e+001  5.974631e+001 
4096875000  -2.444867e+001  5.411260e+001 
4100000000  -2.507441e+001  4.678513e+001 
4103125000  -2.596090e+001  4.720159e+001 
4106250000  -2.587437e+001  5.179316e+001 
4109375000  -2.505132e+001  5.179153e+001 
4112500000  -2.443247e+001  4.510451e+001 
4115625000  -2.467911e+001  4.125903e+001 
4118750000  -2.488185e+001  3.808297e+001 
4121875000  -2.448631e+001  3.351845e+001 
4125000000  -2.478535e+001  2.854471e+001 
4128125000  -2.577494e+001  2.786469e+001 
4131250000  -2.556291e+001  3.615742e+001 
4134375000  -2.327986e+001  3.252950e+001 
4137500000  -2.299076e+001  1.405457e+001 
4140625000  -2.508650e+001  6.538332e+000 
4143750000  -2.645686e+001  1.117139e+001 
4146875000  -2.610085e+001  1.842998e+001 
4150000000  -2.520543e+001  1.536584e+001 
4153125000  -2.499378e+001  9.167325e+000 
4156250000  -2.583961e+001  6.323415e+000 
4159375000  -2.618135e+001  1.044251e+001 
4162500000  -2.498756e+001  1.473265e+001 
4165625000  -2.386105e+001  1.125145e+001 
4168750000  -2.323751e+001  4.245515e+000 
4171875000  -2.327935e+001  -4.977412e+000 
4175000000  -2.385521e+001  -1.126717e+001 
4178125000  -2.446965e+001  -1.119092e+001 
4181250000  -2.438933e+001  -1.136850e+001 
4184375000  -2.417735e+001  -1.476161e+001 
4187500000  -2.424816e+001  -1.715812e+001 
4190625000  -2.405502e+001  -2.258954e+001 
4193750000  -2.480575e+001  -2.651040e+001 
4196875000  -2.545008e+001  -2.722885e+001 
4200000000  -2.627669e+001  -2.526908e+001 
4203125000  -2.639175e+001  -1.272696e+001 
4206250000  -2.319699e+001  -1.027238e+001 
4209375000  -2.187424e+001  -2.971461e+001 
4212500000  -2.374273e+001  -3.899724e+001 
4215625000  -2.478300e+001  -3.360873e+001 
4218750000  -2.352280e+001  -2.630608e+001 
4221875000  -2.121249e+001  -3.531718e+001 
4225000000  -2.237061e+001  -4.824316e+001 
4228125000  -2.312799e+001  -4.328833e+001 
4231250000  -2.158435e+001  -4.693821e+001 
4234375000  -2.152238e+001  -5.485810e+001 
4237500000  -2.111203e+001  -5.827895e+001 
4240625000  -2.108181e+001  -6.627838e+001 
4243750000  -2.202175e+001  -7.331593e+001 
4246875000  -2.288172e+001  -7.352852e+001 
4250000000  -2.291428e+001  -7.064698e+001 
4253125000  -2.233648e+001  -7.260025e+001 
4256250000  -2.268586e+001  -7.663754e+001 
4259375000  -2.240746e+001  -7.849745e+001 
4262500000  -2.240019e+001  -8.250622e+001 
4265625000  -2.260863e+001  -8.218371e+001 
4268750000  -2.175623e+001  -8.595419e+001 
4271875000  -2.151134e+001  -9.133940e+001 
4275000000  -2.088686e+001  -9.770396e+001 
4278125000  -2.141084e+001  -1.088821e+002 
4281250000  -2.317615e+001  -1.114038e+002 
4284375000  -2.295473e+001  -1.102000e+002 
4287500000  -2.365770e+001  -1.139779e+002 
4290625000  -2.491924e+001  -1.052968e+002 
4293750000  -2.307872e+001  -9.896487e+001 
4296875000  -2.163308e+001  -1.099470e+002 
4300000000  -2.243161e+001  -1.195267e+002 
4303125000  -2.359582e+001  -1.186378e+002 
4306250000  -2.311499e+001  -1.125767e+002 
4309375000  -2.167504e+001  -1.145525e+002 
4312500000  -2.152229e+001  -1.226632e+002 
4315625000  -2.172451e+001  -1.285573e+002 
4318750000  -2.203687e+001  -1.319544e+002 
4321875000  -2.219545e+001  -1.319240e+002 
4325000000  -2.164731e+001  -1.311752e+002 
4328125000  -2.120106e+001  -1.373312e+002 
4331250000  -2.111290e+001  -1.453627e+002 
4334375000  -2.146560e+001  -1.503208e+002 
4337500000  -2.224538e+001  -1.528340e+002 
4340625000  -2.287679e+001  -1.497130e+002 
4343750000  -2.233063e+001  -1.492485e+002 
4346875000  -2.190442e+001  -1.544430e+002 
4350000000  -2.194925e+001  -1.587000e+002 
4353125000  -2.188398e+001  -1.665345e+002 
4356250000  -2.353397e+001  -1.682975e+002 
4359375000  -2.434261e+001  -1.557702e+002 
4362500000  -2.179180e+001  -1.527572e+002 
4365625000  -2.007016e+001  -1.640627e+002 
4368750000  -2.070074e+001  -1.761161e+002 
4371875000  -2.198438e+001  -1.759176e+002 
4375000000  -2.169794e+001  -1.745187e+002 
4378125000  -2.102339e+001  1.796295e+002 
4381250000  -2.113421e+001  1.742931e+002 
4384375000  -2.097106e+001  1.699270e+002 
4387500000  -2.165043e+001  1.644664e+002 
4390625000  -2.274105e+001  1.647670e+002 
4393750000  -2.209061e+001  1.670722e+002 
4396875000  -2.140613e+001  1.651139e+002 
4400000000  -2.087802e+001  1.580917e+002 
4403125000  -2.140266e+001  1.503661e+002 
4406250000  -2.233089e+001  1.489804e+002 
4409375000  -2.222687e+001  1.468785e+002 
4412500000  -2.323857e+001  1.443139e+002 
4415625000  -2.369461e+001  1.485584e+002 
4418750000  -2.251948e+001  1.536688e+002 
