!Agilent Technologies,E8363B,MY43030201,A.06.04.32
!Agilent E8363B: A.06.04.32
!Date: Tuesday, November 11, 2014 20:56:05
!Correction: S21(Response(S21)) 
!S1P File: Measurement: S21:
# Hz S  dB   R 50
3000000000  -2.648966e+001  1.477495e+002 
3003125000  -2.790218e+001  1.430830e+002 
3006250000  -2.792002e+001  1.406012e+002 
3009375000  -2.833691e+001  1.453481e+002 
3012500000  -2.773063e+001  1.447451e+002 
3015625000  -2.678667e+001  1.380042e+002 
3018750000  -2.766014e+001  1.373879e+002 
3021875000  -2.633883e+001  1.387303e+002 
3025000000  -2.502160e+001  1.354960e+002 
3028125000  -2.410043e+001  1.305061e+002 
3031250000  -2.306018e+001  1.190604e+002 
3034375000  -2.271583e+001  1.058777e+002 
3037500000  -2.309684e+001  9.425122e+001 
3040625000  -2.443530e+001  8.913490e+001 
3043750000  -2.509869e+001  8.465947e+001 
3046875000  -2.531107e+001  7.841792e+001 
3050000000  -2.696394e+001  7.184390e+001 
3053125000  -2.704752e+001  7.839616e+001 
3056250000  -2.645966e+001  8.128135e+001 
3059375000  -2.662439e+001  8.104574e+001 
3062500000  -2.518563e+001  7.689027e+001 
3065625000  -2.493412e+001  7.113924e+001 
3068750000  -2.465844e+001  6.429193e+001 
3071875000  -2.461976e+001  6.137259e+001 
3075000000  -2.457675e+001  5.749931e+001 
3078125000  -2.432246e+001  5.307919e+001 
3081250000  -2.496642e+001  4.890661e+001 
3084375000  -2.420454e+001  4.512077e+001 
3087500000  -2.411327e+001  4.149826e+001 
3090625000  -2.378917e+001  3.151017e+001 
3093750000  -2.429650e+001  2.369223e+001 
3096875000  -2.554114e+001  1.791476e+001 
3100000000  -2.564197e+001  1.669972e+001 
3103125000  -2.603563e+001  1.760156e+001 
3106250000  -2.579109e+001  1.439178e+001 
3109375000  -2.602083e+001  1.071835e+001 
3112500000  -2.612939e+001  9.671266e+000 
3115625000  -2.594605e+001  5.633665e+000 
3118750000  -2.645767e+001  6.920432e+000 
3121875000  -2.573664e+001  -1.376052e+000 
3125000000  -2.698215e+001  -4.744435e+000 
3128125000  -2.817936e+001  3.416564e+000 
3131250000  -2.591595e+001  3.898707e+000 
3134375000  -2.463726e+001  -9.808106e+000 
3137500000  -2.530689e+001  -2.332956e+001 
3140625000  -2.689007e+001  -2.480062e+001 
3143750000  -2.790751e+001  -2.127027e+001 
3146875000  -2.751309e+001  -1.888573e+001 
3150000000  -2.652116e+001  -1.685011e+001 
3153125000  -2.652879e+001  -2.452273e+001 
3156250000  -2.745875e+001  -1.893559e+001 
3159375000  -2.588158e+001  -1.604658e+001 
3162500000  -2.386086e+001  -2.902736e+001 
3165625000  -2.481048e+001  -4.008475e+001 
3168750000  -2.514648e+001  -3.893648e+001 
3171875000  -2.425623e+001  -4.320197e+001 
3175000000  -2.490802e+001  -5.114755e+001 
3178125000  -2.466763e+001  -4.939064e+001 
3181250000  -2.347905e+001  -5.347180e+001 
3184375000  -2.270748e+001  -6.583542e+001 
3187500000  -2.387058e+001  -8.070125e+001 
3190625000  -2.662008e+001  -8.792612e+001 
3193750000  -2.713532e+001  -7.841506e+001 
3196875000  -2.675301e+001  -7.308370e+001 
3200000000  -2.585142e+001  -7.498343e+001 
3203125000  -2.502375e+001  -8.091302e+001 
3206250000  -2.531867e+001  -8.716826e+001 
3209375000  -2.484312e+001  -9.232433e+001 
3212500000  -2.498969e+001  -9.911047e+001 
3215625000  -2.511375e+001  -1.025928e+002 
3218750000  -2.588215e+001  -1.091566e+002 
3221875000  -2.682870e+001  -1.142560e+002 
3225000000  -2.644987e+001  -1.148077e+002 
3228125000  -2.680825e+001  -1.196289e+002 
3231250000  -2.756072e+001  -1.218647e+002 
3234375000  -2.735028e+001  -1.211515e+002 
3237500000  -2.743016e+001  -1.224429e+002 
3240625000  -2.705811e+001  -1.246303e+002 
3243750000  -2.674721e+001  -1.312806e+002 
3246875000  -2.720712e+001  -1.377670e+002 
3250000000  -2.770475e+001  -1.394416e+002 
3253125000  -2.782519e+001  -1.409293e+002 
3256250000  -2.772191e+001  -1.471814e+002 
3259375000  -2.802396e+001  -1.548745e+002 
3262500000  -2.932897e+001  -1.574200e+002 
3265625000  -2.992878e+001  -1.540827e+002 
3268750000  -2.994082e+001  -1.514860e+002 
3271875000  -2.963168e+001  -1.500862e+002 
3275000000  -2.863768e+001  -1.556526e+002 
3278125000  -2.909770e+001  -1.619205e+002 
3281250000  -2.929316e+001  -1.595689e+002 
3284375000  -2.889981e+001  -1.657809e+002 
3287500000  -2.910844e+001  -1.680866e+002 
3290625000  -2.942588e+001  -1.725097e+002 
3293750000  -2.920432e+001  -1.782444e+002 
3296875000  -3.016906e+001  -1.783120e+002 
3300000000  -3.007799e+001  -1.769590e+002 
3303125000  -2.891300e+001  1.790393e+002 
3306250000  -2.869829e+001  1.723867e+002 
3309375000  -2.845731e+001  1.675769e+002 
3312500000  -2.852473e+001  1.569145e+002 
3315625000  -2.951560e+001  1.495653e+002 
3318750000  -3.087150e+001  1.469774e+002 
3321875000  -3.210864e+001  1.468978e+002 
3325000000  -3.267368e+001  1.523443e+002 
3328125000  -3.244889e+001  1.537163e+002 
3331250000  -3.119043e+001  1.615807e+002 
3334375000  -2.859097e+001  1.506333e+002 
3337500000  -2.870297e+001  1.322357e+002 
3340625000  -3.012323e+001  1.215492e+002 
3343750000  -3.197647e+001  1.205711e+002 
3346875000  -3.248734e+001  1.222586e+002 
3350000000  -3.186204e+001  1.206829e+002 
3353125000  -3.188212e+001  1.160045e+002 
3356250000  -3.160918e+001  1.085068e+002 
3359375000  -3.260069e+001  1.003325e+002 
3362500000  -3.390582e+001  9.416216e+001 
3365625000  -3.447183e+001  9.298353e+001 
3368750000  -3.538926e+001  9.169949e+001 
3371875000  -3.584371e+001  8.869131e+001 
3375000000  -3.735442e+001  8.628850e+001 
3378125000  -3.863736e+001  8.615944e+001 
3381250000  -4.014098e+001  9.377004e+001 
3384375000  -3.925475e+001  1.148184e+002 
3387500000  -3.600932e+001  1.006809e+002 
3390625000  -3.783690e+001  8.284564e+001 
3393750000  -3.956405e+001  8.707980e+001 
3396875000  -3.887567e+001  8.931614e+001 
3400000000  -3.882276e+001  8.222095e+001 
3403125000  -3.970021e+001  7.758504e+001 
3406250000  -4.052924e+001  8.041257e+001 
3409375000  -4.133836e+001  7.484145e+001 
3412500000  -4.213058e+001  7.699020e+001 
3415625000  -4.284590e+001  8.263444e+001 
3418750000  -4.300672e+001  8.637378e+001 
3421875000  -4.364911e+001  9.393742e+001 
3425000000  -4.280620e+001  9.796004e+001 
3428125000  -4.159684e+001  9.689108e+001 
3431250000  -4.147233e+001  9.201757e+001 
3434375000  -4.128141e+001  8.899122e+001 
3437500000  -4.168208e+001  8.930684e+001 
3440625000  -4.209522e+001  9.208524e+001 
3443750000  -4.075079e+001  9.349321e+001 
3446875000  -4.001703e+001  8.810317e+001 
3450000000  -3.949940e+001  7.841016e+001 
3453125000  -3.998430e+001  6.986053e+001 
3456250000  -4.119178e+001  6.447256e+001 
3459375000  -4.214535e+001  6.732819e+001 
3462500000  -4.201741e+001  6.747086e+001 
3465625000  -4.216411e+001  6.261599e+001 
3468750000  -4.271486e+001  6.010735e+001 
3471875000  -4.256038e+001  6.106680e+001 
3475000000  -4.273141e+001  5.758947e+001 
3478125000  -4.359312e+001  5.045350e+001 
3481250000  -4.459690e+001  4.926402e+001 
3484375000  -4.610416e+001  5.484013e+001 
3487500000  -4.549334e+001  5.756240e+001 
3490625000  -4.505461e+001  5.573619e+001 
3493750000  -4.599113e+001  5.189864e+001 
3496875000  -4.689211e+001  5.382184e+001 
3500000000  -4.857756e+001  6.134402e+001 
3503125000  -4.799028e+001  7.211174e+001 
3506250000  -4.734451e+001  6.497897e+001 
3509375000  -4.749549e+001  6.715571e+001 
3512500000  -4.770757e+001  6.440312e+001 
3515625000  -4.812178e+001  6.710133e+001 
3518750000  -4.864244e+001  7.477516e+001 
3521875000  -4.822934e+001  8.167902e+001 
3525000000  -4.854690e+001  7.858071e+001 
3528125000  -4.804164e+001  8.894967e+001 
3531250000  -4.604384e+001  9.101691e+001 
3534375000  -4.485860e+001  8.257599e+001 
3537500000  -4.488548e+001  7.869379e+001 
3540625000  -4.539226e+001  7.858057e+001 
3543750000  -4.624520e+001  8.260551e+001 
3546875000  -4.540375e+001  9.510001e+001 
3550000000  -4.249015e+001  9.650798e+001 
3553125000  -4.113049e+001  7.927214e+001 
3556250000  -4.207878e+001  7.265233e+001 
3559375000  -4.214230e+001  7.679292e+001 
3562500000  -4.086723e+001  6.927141e+001 
3565625000  -4.174368e+001  6.074483e+001 
3568750000  -4.184880e+001  6.506759e+001 
3571875000  -4.175236e+001  6.601731e+001 
3575000000  -4.108670e+001  6.134583e+001 
3578125000  -4.156913e+001  5.497520e+001 
3581250000  -4.173810e+001  5.633960e+001 
3584375000  -4.082335e+001  5.473535e+001 
3587500000  -3.987238e+001  4.909917e+001 
3590625000  -4.040883e+001  4.144850e+001 
3593750000  -4.190895e+001  3.963472e+001 
3596875000  -4.156591e+001  4.801964e+001 
3600000000  -3.990866e+001  4.438335e+001 
3603125000  -4.015743e+001  3.169987e+001 
3606250000  -4.093252e+001  3.023606e+001 
3609375000  -4.107757e+001  2.826772e+001 
3612500000  -4.158482e+001  2.816332e+001 
3615625000  -4.162226e+001  2.565875e+001 
3618750000  -4.210704e+001  2.737651e+001 
3621875000  -4.194318e+001  2.735662e+001 
3625000000  -4.180078e+001  2.718628e+001 
3628125000  -4.201261e+001  2.762756e+001 
3631250000  -4.156767e+001  2.286155e+001 
3634375000  -4.241688e+001  2.352775e+001 
3637500000  -4.215709e+001  3.043410e+001 
3640625000  -4.080710e+001  3.009958e+001 
3643750000  -4.066029e+001  2.532095e+001 
3646875000  -4.107698e+001  1.820256e+001 
3650000000  -4.143561e+001  1.987950e+001 
3653125000  -4.111578e+001  1.863594e+001 
3656250000  -4.154295e+001  1.824903e+001 
3659375000  -4.184540e+001  2.026621e+001 
3662500000  -4.117525e+001  1.874312e+001 
3665625000  -4.093891e+001  1.839704e+001 
3668750000  -3.998957e+001  2.120159e+001 
3671875000  -3.903800e+001  1.707427e+001 
3675000000  -3.966440e+001  9.975315e+000 
3678125000  -4.025824e+001  1.061776e+001 
3681250000  -3.971732e+001  1.205341e+001 
3684375000  -3.961248e+001  8.785646e+000 
3687500000  -3.970594e+001  6.632361e+000 
3690625000  -3.975294e+001  6.852605e+000 
3693750000  -4.041736e+001  6.691208e+000 
3696875000  -4.017736e+001  1.135665e+001 
3700000000  -3.902620e+001  9.183239e+000 
3703125000  -3.861178e+001  5.184805e+000 
3706250000  -3.944381e+001  8.477127e+000 
3709375000  -3.883168e+001  1.092813e+001 
3712500000  -3.758035e+001  1.153058e+001 
3715625000  -3.646917e+001  6.130860e+000 
3718750000  -3.576340e+001  2.380128e+000 
3721875000  -3.541201e+001  -3.189505e+000 
3725000000  -3.531560e+001  -8.061573e+000 
3728125000  -3.543209e+001  -8.002685e+000 
3731250000  -3.485892e+001  -8.326093e+000 
3734375000  -3.381905e+001  -1.450025e+001 
3737500000  -3.433834e+001  -2.162054e+001 
3740625000  -3.491359e+001  -2.557579e+001 
3743750000  -3.459201e+001  -2.686508e+001 
3746875000  -3.454867e+001  -2.987958e+001 
3750000000  -3.493287e+001  -3.097240e+001 
3753125000  -3.448974e+001  -3.116937e+001 
3756250000  -3.451015e+001  -3.186482e+001 
3759375000  -3.424060e+001  -3.336645e+001 
3762500000  -3.369700e+001  -3.695738e+001 
3765625000  -3.419794e+001  -3.910162e+001 
3768750000  -3.427880e+001  -3.721058e+001 
3771875000  -3.243256e+001  -4.056701e+001 
3775000000  -3.228441e+001  -4.730540e+001 
3778125000  -3.252780e+001  -4.972832e+001 
3781250000  -3.230928e+001  -5.274567e+001 
3784375000  -3.222205e+001  -5.389506e+001 
3787500000  -3.155603e+001  -5.799306e+001 
3790625000  -3.216106e+001  -6.429400e+001 
3793750000  -3.232922e+001  -6.452736e+001 
3796875000  -3.153339e+001  -6.636222e+001 
3800000000  -2.991242e+001  -6.899211e+001 
3803125000  -3.076080e+001  -7.651996e+001 
3806250000  -3.142317e+001  -7.845147e+001 
3809375000  -3.109992e+001  -8.036429e+001 
3812500000  -3.039380e+001  -8.490263e+001 
3815625000  -3.100002e+001  -9.246307e+001 
3818750000  -3.203266e+001  -9.430438e+001 
3821875000  -3.216835e+001  -8.472504e+001 
3825000000  -3.020783e+001  -8.052535e+001 
3828125000  -2.885196e+001  -9.507603e+001 
3831250000  -2.943032e+001  -1.090749e+002 
3834375000  -3.074825e+001  -1.103149e+002 
3837500000  -3.159089e+001  -1.043962e+002 
3840625000  -3.042500e+001  -1.059036e+002 
3843750000  -2.931168e+001  -1.159870e+002 
3846875000  -3.002056e+001  -1.234777e+002 
3850000000  -3.136680e+001  -1.174540e+002 
3853125000  -3.045192e+001  -1.152206e+002 
3856250000  -3.037080e+001  -1.196327e+002 
3859375000  -2.974181e+001  -1.239639e+002 
3862500000  -2.931433e+001  -1.313726e+002 
3865625000  -2.966680e+001  -1.363714e+002 
3868750000  -2.966030e+001  -1.366575e+002 
3871875000  -2.889424e+001  -1.392310e+002 
3875000000  -2.908965e+001  -1.479547e+002 
3878125000  -3.010176e+001  -1.501207e+002 
3881250000  -3.022796e+001  -1.470944e+002 
3884375000  -2.974082e+001  -1.519640e+002 
3887500000  -2.983717e+001  -1.558856e+002 
3890625000  -3.039917e+001  -1.583043e+002 
3893750000  -3.076659e+001  -1.592293e+002 
3896875000  -3.091226e+001  -1.583829e+002 
3900000000  -3.105885e+001  -1.601852e+002 
3903125000  -3.062914e+001  -1.618204e+002 
3906250000  -3.048216e+001  -1.621798e+002 
3909375000  -2.964934e+001  -1.639528e+002 
3912500000  -2.974577e+001  -1.721200e+002 
3915625000  -3.095568e+001  -1.714585e+002 
3918750000  -3.097488e+001  -1.695432e+002 
3921875000  -3.061396e+001  -1.713472e+002 
3925000000  -2.973914e+001  -1.721354e+002 
3928125000  -2.904050e+001  -1.780227e+002 
3931250000  -2.948721e+001  1.782991e+002 
3934375000  -2.971609e+001  1.783546e+002 
3937500000  -2.999549e+001  1.777163e+002 
3940625000  -3.034421e+001  1.774490e+002 
3943750000  -2.936287e+001  1.792464e+002 
3946875000  -2.819162e+001  1.733421e+002 
3950000000  -2.867708e+001  1.654673e+002 
3953125000  -2.957495e+001  1.665344e+002 
3956250000  -2.868597e+001  1.693228e+002 
3959375000  -2.748895e+001  1.659495e+002 
3962500000  -2.686743e+001  1.619909e+002 
3965625000  -2.658323e+001  1.526794e+002 
3968750000  -2.750496e+001  1.465508e+002 
3971875000  -2.787326e+001  1.447282e+002 
3975000000  -2.715466e+001  1.429851e+002 
3978125000  -2.706116e+001  1.412857e+002 
3981250000  -2.689037e+001  1.369709e+002 
3984375000  -2.710043e+001  1.306846e+002 
3987500000  -2.758229e+001  1.291841e+002 
3990625000  -2.761460e+001  1.281538e+002 
3993750000  -2.782837e+001  1.250071e+002 
3996875000  -2.778874e+001  1.222760e+002 
4000000000  -2.795881e+001  1.205133e+002 
4003125000  -2.850255e+001  1.231252e+002 
4006250000  -2.711153e+001  1.236858e+002 
4009375000  -2.590719e+001  1.110154e+002 
4012500000  -2.697493e+001  1.043422e+002 
4015625000  -2.824511e+001  1.045988e+002 
4018750000  -2.835349e+001  1.075018e+002 
4021875000  -2.766395e+001  1.059476e+002 
4025000000  -2.726440e+001  1.009755e+002 
4028125000  -2.721311e+001  9.704111e+001 
4031250000  -2.772501e+001  9.388687e+001 
4034375000  -2.790372e+001  9.395499e+001 
4037500000  -2.744383e+001  9.592071e+001 
4040625000  -2.731873e+001  9.230528e+001 
4043750000  -2.762000e+001  9.184029e+001 
4046875000  -2.722498e+001  9.155299e+001 
4050000000  -2.666686e+001  8.593141e+001 
4053125000  -2.714408e+001  8.388756e+001 
4056250000  -2.772641e+001  8.812074e+001 
4059375000  -2.641330e+001  8.952324e+001 
4062500000  -2.501504e+001  8.473783e+001 
4065625000  -2.499893e+001  8.000762e+001 
4068750000  -2.469159e+001  7.540210e+001 
4071875000  -2.402104e+001  6.782014e+001 
4075000000  -2.438706e+001  6.105121e+001 
4078125000  -2.498361e+001  6.035368e+001 
4081250000  -2.443454e+001  5.775342e+001 
4084375000  -2.403025e+001  5.094452e+001 
4087500000  -2.439567e+001  4.470597e+001 
4090625000  -2.501823e+001  4.332311e+001 
4093750000  -2.482618e+001  4.437489e+001 
4096875000  -2.438193e+001  3.820420e+001 
4100000000  -2.514098e+001  3.156215e+001 
4103125000  -2.604512e+001  3.217636e+001 
4106250000  -2.588863e+001  3.700515e+001 
4109375000  -2.495535e+001  3.636187e+001 
4112500000  -2.446109e+001  2.995909e+001 
4115625000  -2.479305e+001  2.558491e+001 
4118750000  -2.484745e+001  2.293029e+001 
4121875000  -2.451780e+001  1.802845e+001 
4125000000  -2.488345e+001  1.296132e+001 
4128125000  -2.596736e+001  1.364931e+001 
4131250000  -2.560278e+001  2.160268e+001 
4134375000  -2.321363e+001  1.719566e+001 
4137500000  -2.306845e+001  -1.716926e+000 
4140625000  -2.519052e+001  -8.481559e+000 
4143750000  -2.654159e+001  -3.453331e+000 
4146875000  -2.608715e+001  4.372637e+000 
4150000000  -2.510880e+001  7.810494e-001 
4153125000  -2.496354e+001  -5.632645e+000 
4156250000  -2.579580e+001  -8.385976e+000 
4159375000  -2.608584e+001  -3.704651e+000 
4162500000  -2.496040e+001  5.833331e-001 
4165625000  -2.377797e+001  -3.550247e+000 
4168750000  -2.314261e+001  -1.069774e+001 
4171875000  -2.316677e+001  -1.999703e+001 
4175000000  -2.373036e+001  -2.575592e+001 
4178125000  -2.430198e+001  -2.530046e+001 
4181250000  -2.417098e+001  -2.662525e+001 
4184375000  -2.400691e+001  -3.000876e+001 
4187500000  -2.406303e+001  -3.260044e+001 
4190625000  -2.386158e+001  -3.809838e+001 
4193750000  -2.468831e+001  -4.208732e+001 
4196875000  -2.538058e+001  -4.243498e+001 
4200000000  -2.626113e+001  -4.011325e+001 
4203125000  -2.625809e+001  -2.663259e+001 
4206250000  -2.286678e+001  -2.521209e+001 
4209375000  -2.173672e+001  -4.614308e+001 
4212500000  -2.367040e+001  -5.475059e+001 
4215625000  -2.466626e+001  -4.844804e+001 
4218750000  -2.331357e+001  -4.188525e+001 
4221875000  -2.100319e+001  -5.095082e+001 
4225000000  -2.229925e+001  -6.337133e+001 
4228125000  -2.292368e+001  -5.864701e+001 
4231250000  -2.138326e+001  -6.216544e+001 
4234375000  -2.131701e+001  -7.066805e+001 
4237500000  -2.089341e+001  -7.390043e+001 
4240625000  -2.092068e+001  -8.264588e+001 
4243750000  -2.193169e+001  -8.933871e+001 
4246875000  -2.284126e+001  -8.940899e+001 
4250000000  -2.284893e+001  -8.649445e+001 
4253125000  -2.225936e+001  -8.820062e+001 
4256250000  -2.254265e+001  -9.221039e+001 
4259375000  -2.228056e+001  -9.428823e+001 
4262500000  -2.228755e+001  -9.793331e+001 
4265625000  -2.247156e+001  -9.769145e+001 
4268750000  -2.159752e+001  -1.018784e+002 
4271875000  -2.134060e+001  -1.074870e+002 
4275000000  -2.068778e+001  -1.135389e+002 
4278125000  -2.133553e+001  -1.247579e+002 
4281250000  -2.307830e+001  -1.267420e+002 
4284375000  -2.276946e+001  -1.262112e+002 
4287500000  -2.357997e+001  -1.295507e+002 
4290625000  -2.481168e+001  -1.202028e+002 
4293750000  -2.283062e+001  -1.146770e+002 
4296875000  -2.143670e+001  -1.259533e+002 
4300000000  -2.228318e+001  -1.352074e+002 
4303125000  -2.341810e+001  -1.339597e+002 
4306250000  -2.272626e+001  -1.279168e+002 
4309375000  -2.137905e+001  -1.302184e+002 
4312500000  -2.125711e+001  -1.386682e+002 
4315625000  -2.144634e+001  -1.449564e+002 
4318750000  -2.177989e+001  -1.484636e+002 
4321875000  -2.197664e+001  -1.477223e+002 
4325000000  -2.133981e+001  -1.475170e+002 
4328125000  -2.085310e+001  -1.538492e+002 
4331250000  -2.080359e+001  -1.620876e+002 
4334375000  -2.126003e+001  -1.673476e+002 
4337500000  -2.211062e+001  -1.691478e+002 
4340625000  -2.264292e+001  -1.660500e+002 
4343750000  -2.202464e+001  -1.658003e+002 
4346875000  -2.166039e+001  -1.712782e+002 
4350000000  -2.168076e+001  -1.759274e+002 
4353125000  -2.171963e+001  1.762800e+002 
4356250000  -2.350817e+001  1.754551e+002 
4359375000  -2.404719e+001  -1.712558e+002 
4362500000  -2.132693e+001  -1.696286e+002 
4365625000  -1.985289e+001  1.784114e+002 
4368750000  -2.057961e+001  1.665294e+002 
4371875000  -2.173720e+001  1.676153e+002 
4375000000  -2.137380e+001  1.685921e+002 
4378125000  -2.079403e+001  1.629122e+002 
4381250000  -2.095377e+001  1.573384e+002 
4384375000  -2.077722e+001  1.529867e+002 
4387500000  -2.150057e+001  1.470899e+002 
4390625000  -2.250064e+001  1.480371e+002 
4393750000  -2.186432e+001  1.500125e+002 
4396875000  -2.117788e+001  1.480763e+002 
4400000000  -2.071033e+001  1.409763e+002 
4403125000  -2.125527e+001  1.336721e+002 
4406250000  -2.211803e+001  1.323725e+002 
4409375000  -2.208286e+001  1.299941e+002 
4412500000  -2.309798e+001  1.276968e+002 
4415625000  -2.342827e+001  1.323863e+002 
4418750000  -2.225705e+001  1.369653e+002 
