!Agilent Technologies,E8363B,MY43030201,A.06.04.32
!Agilent E8363B: A.06.04.32
!Date: Tuesday, November 11, 2014 20:44:48
!Correction: S21(Response(S21)) 
!S1P File: Measurement: S21:
# Hz S  dB   R 50
3000000000  -2.646699e+001  1.581422e+002 
3003125000  -2.787418e+001  1.539650e+002 
3006250000  -2.787411e+001  1.509533e+002 
3009375000  -2.820095e+001  1.558642e+002 
3012500000  -2.780299e+001  1.558741e+002 
3015625000  -2.680228e+001  1.486696e+002 
3018750000  -2.764648e+001  1.478123e+002 
3021875000  -2.640982e+001  1.489240e+002 
3025000000  -2.511578e+001  1.460628e+002 
3028125000  -2.415470e+001  1.415675e+002 
3031250000  -2.308578e+001  1.303036e+002 
3034375000  -2.273115e+001  1.172899e+002 
3037500000  -2.303525e+001  1.052215e+002 
3040625000  -2.433524e+001  1.001659e+002 
3043750000  -2.510829e+001  9.587541e+001 
3046875000  -2.518451e+001  8.927769e+001 
3050000000  -2.696189e+001  8.217861e+001 
3053125000  -2.715907e+001  8.883755e+001 
3056250000  -2.641275e+001  9.181632e+001 
3059375000  -2.671400e+001  9.155504e+001 
3062500000  -2.523459e+001  8.749580e+001 
3065625000  -2.501551e+001  8.212064e+001 
3068750000  -2.474824e+001  7.522563e+001 
3071875000  -2.463513e+001  7.197050e+001 
3075000000  -2.466605e+001  6.845943e+001 
3078125000  -2.437233e+001  6.402977e+001 
3081250000  -2.500892e+001  5.980220e+001 
3084375000  -2.427544e+001  5.608312e+001 
3087500000  -2.413246e+001  5.271325e+001 
3090625000  -2.386218e+001  4.316843e+001 
3093750000  -2.423837e+001  3.501883e+001 
3096875000  -2.554140e+001  2.879235e+001 
3100000000  -2.575006e+001  2.750236e+001 
3103125000  -2.606007e+001  2.904133e+001 
3106250000  -2.583730e+001  2.541002e+001 
3109375000  -2.605627e+001  2.177946e+001 
3112500000  -2.617246e+001  2.101075e+001 
3115625000  -2.595062e+001  1.661826e+001 
3118750000  -2.644592e+001  1.777124e+001 
3121875000  -2.581824e+001  1.019315e+001 
3125000000  -2.690177e+001  6.285150e+000 
3128125000  -2.817518e+001  1.420834e+001 
3131250000  -2.604213e+001  1.521112e+001 
3134375000  -2.466523e+001  1.929174e+000 
3137500000  -2.529792e+001  -1.214756e+001 
3140625000  -2.697842e+001  -1.417251e+001 
3143750000  -2.797659e+001  -9.623143e+000 
3146875000  -2.758528e+001  -7.995012e+000 
3150000000  -2.653075e+001  -5.579374e+000 
3153125000  -2.649320e+001  -1.333882e+001 
3156250000  -2.747956e+001  -8.090923e+000 
3159375000  -2.602925e+001  -5.250449e+000 
3162500000  -2.391382e+001  -1.767008e+001 
3165625000  -2.479700e+001  -2.841722e+001 
3168750000  -2.528395e+001  -2.788218e+001 
3171875000  -2.432781e+001  -3.212280e+001 
3175000000  -2.489936e+001  -4.007180e+001 
3178125000  -2.473796e+001  -3.836845e+001 
3181250000  -2.355820e+001  -4.173438e+001 
3184375000  -2.268496e+001  -5.439223e+001 
3187500000  -2.377616e+001  -6.972433e+001 
3190625000  -2.665325e+001  -7.738489e+001 
3193750000  -2.725051e+001  -6.758523e+001 
3196875000  -2.680412e+001  -6.189429e+001 
3200000000  -2.598898e+001  -6.409505e+001 
3203125000  -2.507239e+001  -6.942789e+001 
3206250000  -2.536259e+001  -7.558239e+001 
3209375000  -2.489702e+001  -8.087455e+001 
3212500000  -2.502137e+001  -8.743303e+001 
3215625000  -2.518050e+001  -9.198461e+001 
3218750000  -2.590367e+001  -9.814842e+001 
3221875000  -2.694060e+001  -1.031567e+002 
3225000000  -2.654472e+001  -1.037325e+002 
3228125000  -2.679509e+001  -1.081978e+002 
3231250000  -2.759690e+001  -1.114530e+002 
3234375000  -2.746222e+001  -1.102452e+002 
3237500000  -2.747589e+001  -1.116147e+002 
3240625000  -2.717591e+001  -1.134190e+002 
3243750000  -2.680180e+001  -1.197501e+002 
3246875000  -2.725468e+001  -1.266450e+002 
3250000000  -2.771184e+001  -1.283335e+002 
3253125000  -2.785183e+001  -1.298635e+002 
3256250000  -2.778094e+001  -1.360246e+002 
3259375000  -2.807114e+001  -1.434021e+002 
3262500000  -2.929832e+001  -1.464039e+002 
3265625000  -3.000869e+001  -1.430834e+002 
3268750000  -3.000564e+001  -1.406328e+002 
3271875000  -2.980986e+001  -1.391509e+002 
3275000000  -2.866546e+001  -1.438842e+002 
3278125000  -2.915908e+001  -1.505235e+002 
3281250000  -2.946221e+001  -1.488686e+002 
3284375000  -2.904524e+001  -1.545391e+002 
3287500000  -2.913631e+001  -1.572859e+002 
3290625000  -2.964687e+001  -1.617043e+002 
3293750000  -2.930187e+001  -1.670918e+002 
3296875000  -3.026496e+001  -1.669690e+002 
3300000000  -3.023334e+001  -1.662466e+002 
3303125000  -2.904033e+001  -1.695717e+002 
3306250000  -2.885880e+001  -1.763977e+002 
3309375000  -2.861234e+001  1.784074e+002 
3312500000  -2.862924e+001  1.682703e+002 
3315625000  -2.960976e+001  1.602568e+002 
3318750000  -3.098798e+001  1.575465e+002 
3321875000  -3.226022e+001  1.573909e+002 
3325000000  -3.266118e+001  1.615404e+002 
3328125000  -3.272604e+001  1.635426e+002 
3331250000  -3.154180e+001  1.713910e+002 
3334375000  -2.888770e+001  1.618828e+002 
3337500000  -2.891357e+001  1.438631e+002 
3340625000  -3.025767e+001  1.329216e+002 
3343750000  -3.212930e+001  1.311158e+002 
3346875000  -3.272202e+001  1.330111e+002 
3350000000  -3.204045e+001  1.314407e+002 
3353125000  -3.220841e+001  1.275758e+002 
3356250000  -3.193562e+001  1.196236e+002 
3359375000  -3.273003e+001  1.112216e+002 
3362500000  -3.413942e+001  1.057190e+002 
3365625000  -3.477057e+001  1.041105e+002 
3368750000  -3.581933e+001  1.025814e+002 
3371875000  -3.596648e+001  9.871455e+001 
3375000000  -3.741982e+001  9.749908e+001 
3378125000  -3.868736e+001  9.606248e+001 
3381250000  -4.025647e+001  1.044472e+002 
3384375000  -3.957618e+001  1.234937e+002 
3387500000  -3.635195e+001  1.112568e+002 
3390625000  -3.821608e+001  9.160078e+001 
3393750000  -4.010099e+001  9.608238e+001 
3396875000  -3.933760e+001  1.003278e+002 
3400000000  -3.922149e+001  9.405198e+001 
3403125000  -4.045459e+001  8.929666e+001 
3406250000  -4.103642e+001  9.414642e+001 
3409375000  -4.197370e+001  8.521708e+001 
3412500000  -4.266553e+001  8.878664e+001 
3415625000  -4.348140e+001  9.368185e+001 
3418750000  -4.393290e+001  9.880214e+001 
3421875000  -4.403793e+001  1.058910e+002 
3425000000  -4.356365e+001  1.096087e+002 
3428125000  -4.214803e+001  1.067259e+002 
3431250000  -4.242432e+001  1.059082e+002 
3434375000  -4.183099e+001  1.026018e+002 
3437500000  -4.237932e+001  9.929308e+001 
3440625000  -4.274594e+001  1.033548e+002 
3443750000  -4.149794e+001  1.063965e+002 
3446875000  -4.072020e+001  1.011495e+002 
3450000000  -4.025140e+001  9.179980e+001 
3453125000  -4.045471e+001  8.283685e+001 
3456250000  -4.171950e+001  7.900156e+001 
3459375000  -4.246512e+001  8.142812e+001 
3462500000  -4.316536e+001  8.288042e+001 
3465625000  -4.286232e+001  7.713261e+001 
3468750000  -4.330376e+001  7.449598e+001 
3471875000  -4.344727e+001  7.558489e+001 
3475000000  -4.348812e+001  7.123396e+001 
3478125000  -4.415117e+001  6.647482e+001 
3481250000  -4.511734e+001  6.781601e+001 
3484375000  -4.648968e+001  7.143413e+001 
3487500000  -4.619323e+001  7.463171e+001 
3490625000  -4.570953e+001  7.275003e+001 
3493750000  -4.653766e+001  7.049016e+001 
3496875000  -4.770624e+001  7.292150e+001 
3500000000  -4.874390e+001  8.099799e+001 
3503125000  -4.831695e+001  8.471925e+001 
3506250000  -4.690483e+001  8.468777e+001 
3509375000  -4.752235e+001  8.396612e+001 
3512500000  -4.745852e+001  8.405339e+001 
3515625000  -4.775696e+001  8.103355e+001 
3518750000  -4.854597e+001  9.043595e+001 
3521875000  -4.798517e+001  9.609502e+001 
3525000000  -4.744967e+001  9.260517e+001 
3528125000  -4.779436e+001  1.068230e+002 
3531250000  -4.625407e+001  1.043445e+002 
3534375000  -4.492163e+001  9.762695e+001 
3537500000  -4.501697e+001  9.487812e+001 
3540625000  -4.525579e+001  9.509766e+001 
3543750000  -4.588041e+001  9.560612e+001 
3546875000  -4.524721e+001  1.087151e+002 
3550000000  -4.294207e+001  1.114356e+002 
3553125000  -4.150559e+001  9.518148e+001 
3556250000  -4.216776e+001  8.803643e+001 
3559375000  -4.231522e+001  9.154247e+001 
3562500000  -4.098091e+001  8.469733e+001 
3565625000  -4.172589e+001  7.797329e+001 
3568750000  -4.178649e+001  8.138489e+001 
3571875000  -4.137698e+001  8.049706e+001 
3575000000  -4.085527e+001  7.473114e+001 
3578125000  -4.135324e+001  7.084325e+001 
3581250000  -4.134072e+001  7.205358e+001 
3584375000  -4.028654e+001  7.119645e+001 
3587500000  -3.976250e+001  6.497182e+001 
3590625000  -4.021157e+001  5.525352e+001 
3593750000  -4.115950e+001  5.338694e+001 
3596875000  -4.105249e+001  6.356843e+001 
3600000000  -3.949899e+001  5.821383e+001 
3603125000  -3.964639e+001  4.590179e+001 
3606250000  -4.061314e+001  4.292126e+001 
3609375000  -4.082544e+001  4.397082e+001 
3612500000  -4.139299e+001  4.148648e+001 
3615625000  -4.118049e+001  3.987970e+001 
3618750000  -4.205594e+001  4.040614e+001 
3621875000  -4.161217e+001  4.026294e+001 
3625000000  -4.184779e+001  4.028631e+001 
3628125000  -4.196566e+001  4.048336e+001 
3631250000  -4.154852e+001  3.416204e+001 
3634375000  -4.264790e+001  3.552483e+001 
3637500000  -4.237889e+001  4.134498e+001 
3640625000  -4.099195e+001  4.334406e+001 
3643750000  -4.100883e+001  3.929101e+001 
3646875000  -4.143180e+001  3.276383e+001 
3650000000  -4.193376e+001  3.109349e+001 
3653125000  -4.143520e+001  3.089606e+001 
3656250000  -4.165515e+001  3.080320e+001 
3659375000  -4.197742e+001  3.495886e+001 
3662500000  -4.139963e+001  3.383312e+001 
3665625000  -4.155856e+001  3.239889e+001 
3668750000  -4.038449e+001  3.523252e+001 
3671875000  -3.920728e+001  2.859645e+001 
3675000000  -3.979647e+001  2.549500e+001 
3678125000  -4.038407e+001  2.721576e+001 
3681250000  -4.003637e+001  2.708387e+001 
3684375000  -3.971088e+001  2.548902e+001 
3687500000  -3.955699e+001  2.403960e+001 
3690625000  -3.959527e+001  2.083841e+001 
3693750000  -4.023000e+001  2.321972e+001 
3696875000  -4.005941e+001  2.568025e+001 
3700000000  -3.874880e+001  2.429354e+001 
3703125000  -3.873734e+001  2.180983e+001 
3706250000  -3.936026e+001  2.236888e+001 
3709375000  -3.866846e+001  2.656887e+001 
3712500000  -3.754617e+001  2.481981e+001 
3715625000  -3.633451e+001  1.917113e+001 
3718750000  -3.569812e+001  1.756707e+001 
3721875000  -3.529483e+001  1.092321e+001 
3725000000  -3.530454e+001  6.992538e+000 
3728125000  -3.562606e+001  5.182242e+000 
3731250000  -3.471318e+001  6.257766e+000 
3734375000  -3.379473e+001  -1.072814e+000 
3737500000  -3.407952e+001  -8.081706e+000 
3740625000  -3.494035e+001  -1.088426e+001 
3743750000  -3.469577e+001  -1.311966e+001 
3746875000  -3.461867e+001  -1.673195e+001 
3750000000  -3.496883e+001  -1.786357e+001 
3753125000  -3.469905e+001  -1.784115e+001 
3756250000  -3.453122e+001  -1.861127e+001 
3759375000  -3.439584e+001  -1.805996e+001 
3762500000  -3.384670e+001  -2.284717e+001 
3765625000  -3.431211e+001  -2.591863e+001 
3768750000  -3.424692e+001  -2.375094e+001 
3771875000  -3.272655e+001  -2.473486e+001 
3775000000  -3.234120e+001  -3.304846e+001 
3778125000  -3.275663e+001  -3.517746e+001 
3781250000  -3.246637e+001  -3.729157e+001 
3784375000  -3.239890e+001  -3.989999e+001 
3787500000  -3.171625e+001  -4.287110e+001 
3790625000  -3.219566e+001  -4.904045e+001 
3793750000  -3.246950e+001  -4.905290e+001 
3796875000  -3.159088e+001  -5.068813e+001 
3800000000  -3.000351e+001  -5.450134e+001 
3803125000  -3.069715e+001  -6.104459e+001 
3806250000  -3.133949e+001  -6.316456e+001 
3809375000  -3.112621e+001  -6.442152e+001 
3812500000  -3.040370e+001  -6.946314e+001 
3815625000  -3.091577e+001  -7.679773e+001 
3818750000  -3.191994e+001  -7.920885e+001 
3821875000  -3.201881e+001  -7.096872e+001 
3825000000  -3.018299e+001  -6.640188e+001 
3828125000  -2.887200e+001  -7.905758e+001 
3831250000  -2.931202e+001  -9.358236e+001 
3834375000  -3.058999e+001  -9.489991e+001 
3837500000  -3.155514e+001  -9.029116e+001 
3840625000  -3.055732e+001  -9.072723e+001 
3843750000  -2.932686e+001  -1.004331e+002 
3846875000  -2.993666e+001  -1.085591e+002 
3850000000  -3.129100e+001  -1.031909e+002 
3853125000  -3.053200e+001  -9.973970e+001 
3856250000  -3.038043e+001  -1.046139e+002 
3859375000  -2.981764e+001  -1.091111e+002 
3862500000  -2.927462e+001  -1.162708e+002 
3865625000  -2.950532e+001  -1.209521e+002 
3868750000  -2.961363e+001  -1.212951e+002 
3871875000  -2.906265e+001  -1.239889e+002 
3875000000  -2.896901e+001  -1.325317e+002 
3878125000  -2.999806e+001  -1.349040e+002 
3881250000  -3.016086e+001  -1.321541e+002 
3884375000  -2.967074e+001  -1.365878e+002 
3887500000  -2.977116e+001  -1.404038e+002 
3890625000  -3.031509e+001  -1.423686e+002 
3893750000  -3.071574e+001  -1.444384e+002 
3896875000  -3.072626e+001  -1.430746e+002 
3900000000  -3.102208e+001  -1.442610e+002 
3903125000  -3.065240e+001  -1.465707e+002 
3906250000  -3.045978e+001  -1.475059e+002 
3909375000  -2.969707e+001  -1.493591e+002 
3912500000  -2.965807e+001  -1.568720e+002 
3915625000  -3.086563e+001  -1.562370e+002 
3918750000  -3.088140e+001  -1.549902e+002 
3921875000  -3.055681e+001  -1.563150e+002 
3925000000  -2.976601e+001  -1.563059e+002 
3928125000  -2.908023e+001  -1.623134e+002 
3931250000  -2.941494e+001  -1.662541e+002 
3934375000  -2.959936e+001  -1.664484e+002 
3937500000  -2.980636e+001  -1.667777e+002 
3940625000  -3.024301e+001  -1.673741e+002 
3943750000  -2.938611e+001  -1.660370e+002 
3946875000  -2.814483e+001  -1.710411e+002 
3950000000  -2.844455e+001  -1.788085e+002 
3953125000  -2.941688e+001  -1.784721e+002 
3956250000  -2.876524e+001  -1.759030e+002 
3959375000  -2.734225e+001  -1.792860e+002 
3962500000  -2.688826e+001  1.774680e+002 
3965625000  -2.642563e+001  1.681962e+002 
3968750000  -2.739231e+001  1.614498e+002 
3971875000  -2.783402e+001  1.602778e+002 
3975000000  -2.721427e+001  1.581348e+002 
3978125000  -2.697245e+001  1.567961e+002 
3981250000  -2.668727e+001  1.525975e+002 
3984375000  -2.699450e+001  1.462972e+002 
3987500000  -2.748742e+001  1.442114e+002 
3990625000  -2.747805e+001  1.432612e+002 
3993750000  -2.772752e+001  1.397623e+002 
3996875000  -2.767956e+001  1.376280e+002 
4000000000  -2.776253e+001  1.355585e+002 
4003125000  -2.831458e+001  1.377218e+002 
4006250000  -2.702116e+001  1.380879e+002 
4009375000  -2.582073e+001  1.265113e+002 
4012500000  -2.678569e+001  1.191446e+002 
4015625000  -2.804944e+001  1.192422e+002 
4018750000  -2.829684e+001  1.214265e+002 
4021875000  -2.761589e+001  1.203435e+002 
4025000000  -2.721617e+001  1.156547e+002 
4028125000  -2.714912e+001  1.120857e+002 
4031250000  -2.759550e+001  1.087246e+002 
4034375000  -2.788259e+001  1.085632e+002 
4037500000  -2.734962e+001  1.102448e+002 
4040625000  -2.724940e+001  1.070644e+002 
4043750000  -2.757553e+001  1.065379e+002 
4046875000  -2.715323e+001  1.062772e+002 
4050000000  -2.652601e+001  1.004316e+002 
4053125000  -2.703202e+001  9.847861e+001 
4056250000  -2.768509e+001  1.022263e+002 
4059375000  -2.648857e+001  1.040375e+002 
4062500000  -2.511269e+001  9.967078e+001 
4065625000  -2.491903e+001  9.462496e+001 
4068750000  -2.468237e+001  9.041315e+001 
4071875000  -2.404873e+001  8.242643e+001 
4075000000  -2.438176e+001  7.619809e+001 
4078125000  -2.492084e+001  7.490805e+001 
4081250000  -2.445615e+001  7.250538e+001 
4084375000  -2.402079e+001  6.633578e+001 
4087500000  -2.434923e+001  5.976200e+001 
4090625000  -2.495312e+001  5.843726e+001 
4093750000  -2.482258e+001  5.918703e+001 
4096875000  -2.441273e+001  5.324011e+001 
4100000000  -2.503077e+001  4.618306e+001 
4103125000  -2.593303e+001  4.696404e+001 
4106250000  -2.587690e+001  5.166537e+001 
4109375000  -2.499571e+001  5.104144e+001 
4112500000  -2.436537e+001  4.476595e+001 
4115625000  -2.470423e+001  4.022912e+001 
4118750000  -2.487754e+001  3.738789e+001 
4121875000  -2.453187e+001  3.312749e+001 
4125000000  -2.477720e+001  2.793103e+001 
4128125000  -2.580119e+001  2.746254e+001 
4131250000  -2.566271e+001  3.566900e+001 
4134375000  -2.333744e+001  3.187298e+001 
4137500000  -2.301660e+001  1.366096e+001 
4140625000  -2.512210e+001  5.817962e+000 
4143750000  -2.655375e+001  1.044355e+001 
4146875000  -2.617443e+001  1.790767e+001 
4150000000  -2.521830e+001  1.542523e+001 
4153125000  -2.502310e+001  9.140474e+000 
4156250000  -2.584299e+001  6.206303e+000 
4159375000  -2.619174e+001  1.049938e+001 
4162500000  -2.505572e+001  1.460297e+001 
4165625000  -2.391503e+001  1.113399e+001 
4168750000  -2.326522e+001  3.884108e+000 
4171875000  -2.324025e+001  -4.976630e+000 
4175000000  -2.382363e+001  -1.064370e+001 
4178125000  -2.439028e+001  -1.130383e+001 
4181250000  -2.429062e+001  -1.177282e+001 
4184375000  -2.412603e+001  -1.479618e+001 
4187500000  -2.416990e+001  -1.749346e+001 
4190625000  -2.395560e+001  -2.253887e+001 
4193750000  -2.469613e+001  -2.669670e+001 
4196875000  -2.542393e+001  -2.757090e+001 
4200000000  -2.624981e+001  -2.547058e+001 
4203125000  -2.641130e+001  -1.283418e+001 
4206250000  -2.311213e+001  -1.030648e+001 
4209375000  -2.182808e+001  -3.070840e+001 
4212500000  -2.368169e+001  -3.961283e+001 
4215625000  -2.475905e+001  -3.377228e+001 
4218750000  -2.349818e+001  -2.710868e+001 
4221875000  -2.114778e+001  -3.567371e+001 
4225000000  -2.233384e+001  -4.873648e+001 
4228125000  -2.308885e+001  -4.375875e+001 
4231250000  -2.152860e+001  -4.729748e+001 
4234375000  -2.147995e+001  -5.555116e+001 
4237500000  -2.106590e+001  -5.878522e+001 
4240625000  -2.105072e+001  -6.714112e+001 
4243750000  -2.201019e+001  -7.376814e+001 
4246875000  -2.291124e+001  -7.392302e+001 
4250000000  -2.299068e+001  -7.140919e+001 
4253125000  -2.239365e+001  -7.311847e+001 
4256250000  -2.267722e+001  -7.727874e+001 
4259375000  -2.242900e+001  -7.952702e+001 
4262500000  -2.245787e+001  -8.286295e+001 
4265625000  -2.262566e+001  -8.273692e+001 
4268750000  -2.179652e+001  -8.642547e+001 
4271875000  -2.153526e+001  -9.174065e+001 
4275000000  -2.090987e+001  -9.838071e+001 
4278125000  -2.144191e+001  -1.095141e+002 
4281250000  -2.324478e+001  -1.116699e+002 
4284375000  -2.298030e+001  -1.108526e+002 
4287500000  -2.369632e+001  -1.147400e+002 
4290625000  -2.501456e+001  -1.052933e+002 
4293750000  -2.306083e+001  -9.919595e+001 
4296875000  -2.166240e+001  -1.101926e+002 
4300000000  -2.242330e+001  -1.197211e+002 
4303125000  -2.356390e+001  -1.189371e+002 
4306250000  -2.309322e+001  -1.129496e+002 
4309375000  -2.165705e+001  -1.144043e+002 
4312500000  -2.149204e+001  -1.231203e+002 
4315625000  -2.171734e+001  -1.288552e+002 
4318750000  -2.199201e+001  -1.321956e+002 
4321875000  -2.221028e+001  -1.322199e+002 
4325000000  -2.161173e+001  -1.312242e+002 
4328125000  -2.111976e+001  -1.376757e+002 
4331250000  -2.103939e+001  -1.455384e+002 
4334375000  -2.144843e+001  -1.506867e+002 
4337500000  -2.217673e+001  -1.529870e+002 
4340625000  -2.280851e+001  -1.502525e+002 
4343750000  -2.227236e+001  -1.497918e+002 
4346875000  -2.187753e+001  -1.547722e+002 
4350000000  -2.185630e+001  -1.596061e+002 
4353125000  -2.190990e+001  -1.672768e+002 
4356250000  -2.352610e+001  -1.688710e+002 
4359375000  -2.430713e+001  -1.565881e+002 
4362500000  -2.176316e+001  -1.536309e+002 
4365625000  -2.008918e+001  -1.648185e+002 
4368750000  -2.071666e+001  -1.767915e+002 
4371875000  -2.196891e+001  -1.768510e+002 
4375000000  -2.166093e+001  -1.753188e+002 
4378125000  -2.105228e+001  1.788321e+002 
4381250000  -2.117870e+001  1.735878e+002 
4384375000  -2.099146e+001  1.691443e+002 
4387500000  -2.168729e+001  1.635348e+002 
4390625000  -2.275602e+001  1.640056e+002 
4393750000  -2.212100e+001  1.663298e+002 
4396875000  -2.142117e+001  1.642995e+002 
4400000000  -2.093722e+001  1.575738e+002 
4403125000  -2.145558e+001  1.501542e+002 
4406250000  -2.232463e+001  1.483841e+002 
4409375000  -2.226204e+001  1.464891e+002 
4412500000  -2.328772e+001  1.434335e+002 
4415625000  -2.370629e+001  1.484524e+002 
4418750000  -2.257121e+001  1.531408e+002 
