!Agilent Technologies,E8363B,MY43030201,A.06.04.32
!Agilent E8363B: A.06.04.32
!Date: Tuesday, November 11, 2014 20:58:31
!Correction: S21(Response(S21)) 
!S1P File: Measurement: S21:
# Hz S  dB   R 50
3000000000  -2.653729e+001  1.465322e+002 
3003125000  -2.795013e+001  1.418885e+002 
3006250000  -2.797480e+001  1.395983e+002 
3009375000  -2.835813e+001  1.446535e+002 
3012500000  -2.774811e+001  1.436421e+002 
3015625000  -2.684347e+001  1.368972e+002 
3018750000  -2.768932e+001  1.358201e+002 
3021875000  -2.642081e+001  1.375264e+002 
3025000000  -2.510481e+001  1.343534e+002 
3028125000  -2.414885e+001  1.290108e+002 
3031250000  -2.310095e+001  1.179000e+002 
3034375000  -2.274769e+001  1.047282e+002 
3037500000  -2.313543e+001  9.295495e+001 
3040625000  -2.445378e+001  8.812822e+001 
3043750000  -2.516904e+001  8.348399e+001 
3046875000  -2.532649e+001  7.738035e+001 
3050000000  -2.700562e+001  7.069665e+001 
3053125000  -2.707438e+001  7.737225e+001 
3056250000  -2.650151e+001  8.043503e+001 
3059375000  -2.662961e+001  7.983672e+001 
3062500000  -2.516480e+001  7.572000e+001 
3065625000  -2.495578e+001  7.015658e+001 
3068750000  -2.466517e+001  6.298054e+001 
3071875000  -2.461079e+001  6.033936e+001 
3075000000  -2.457101e+001  5.628923e+001 
3078125000  -2.431674e+001  5.194842e+001 
3081250000  -2.496241e+001  4.752303e+001 
3084375000  -2.418576e+001  4.388792e+001 
3087500000  -2.413321e+001  4.016622e+001 
3090625000  -2.375471e+001  3.027409e+001 
3093750000  -2.431225e+001  2.247838e+001 
3096875000  -2.556235e+001  1.663802e+001 
3100000000  -2.565572e+001  1.541450e+001 
3103125000  -2.603874e+001  1.653156e+001 
3106250000  -2.576790e+001  1.305783e+001 
3109375000  -2.600335e+001  9.548337e+000 
3112500000  -2.612187e+001  8.411016e+000 
3115625000  -2.593895e+001  4.371121e+000 
3118750000  -2.640437e+001  5.592316e+000 
3121875000  -2.575987e+001  -2.622248e+000 
3125000000  -2.695363e+001  -5.791636e+000 
3128125000  -2.810804e+001  2.589837e+000 
3131250000  -2.587056e+001  2.390743e+000 
3134375000  -2.461736e+001  -1.125867e+001 
3137500000  -2.527711e+001  -2.483633e+001 
3140625000  -2.689399e+001  -2.630964e+001 
3143750000  -2.794309e+001  -2.252822e+001 
3146875000  -2.747490e+001  -2.027345e+001 
3150000000  -2.648021e+001  -1.811658e+001 
3153125000  -2.646320e+001  -2.568567e+001 
3156250000  -2.744901e+001  -2.001493e+001 
3159375000  -2.586063e+001  -1.741542e+001 
3162500000  -2.382318e+001  -3.048988e+001 
3165625000  -2.480766e+001  -4.133407e+001 
3168750000  -2.516281e+001  -4.031681e+001 
3171875000  -2.420839e+001  -4.486505e+001 
3175000000  -2.485159e+001  -5.263110e+001 
3178125000  -2.461571e+001  -5.066743e+001 
3181250000  -2.347965e+001  -5.516322e+001 
3184375000  -2.274520e+001  -6.705318e+001 
3187500000  -2.387366e+001  -8.218832e+001 
3190625000  -2.653492e+001  -8.944870e+001 
3193750000  -2.713958e+001  -7.992320e+001 
3196875000  -2.673688e+001  -7.455132e+001 
3200000000  -2.582448e+001  -7.647255e+001 
3203125000  -2.499442e+001  -8.225699e+001 
3206250000  -2.529727e+001  -8.846402e+001 
3209375000  -2.481466e+001  -9.365993e+001 
3212500000  -2.496271e+001  -1.003587e+002 
3215625000  -2.508467e+001  -1.039891e+002 
3218750000  -2.586268e+001  -1.103564e+002 
3221875000  -2.682278e+001  -1.154943e+002 
3225000000  -2.637348e+001  -1.161821e+002 
3228125000  -2.674127e+001  -1.210426e+002 
3231250000  -2.750946e+001  -1.231520e+002 
3234375000  -2.728258e+001  -1.222202e+002 
3237500000  -2.735640e+001  -1.240801e+002 
3240625000  -2.699750e+001  -1.260050e+002 
3243750000  -2.670130e+001  -1.324710e+002 
3246875000  -2.716593e+001  -1.390474e+002 
3250000000  -2.764703e+001  -1.408293e+002 
3253125000  -2.775825e+001  -1.422829e+002 
3256250000  -2.768565e+001  -1.482986e+002 
3259375000  -2.793918e+001  -1.562322e+002 
3262500000  -2.922150e+001  -1.587350e+002 
3265625000  -2.987653e+001  -1.553779e+002 
3268750000  -2.986067e+001  -1.526800e+002 
3271875000  -2.957101e+001  -1.518919e+002 
3275000000  -2.849378e+001  -1.569765e+002 
3278125000  -2.902723e+001  -1.630221e+002 
3281250000  -2.927126e+001  -1.611539e+002 
3284375000  -2.885765e+001  -1.672866e+002 
3287500000  -2.903882e+001  -1.694586e+002 
3290625000  -2.936489e+001  -1.742316e+002 
3293750000  -2.910927e+001  -1.796446e+002 
3296875000  -3.016108e+001  -1.794602e+002 
3300000000  -2.997124e+001  -1.783374e+002 
3303125000  -2.885708e+001  1.773920e+002 
3306250000  -2.867781e+001  1.708696e+002 
3309375000  -2.835521e+001  1.657824e+002 
3312500000  -2.846830e+001  1.552735e+002 
3315625000  -2.946457e+001  1.473121e+002 
3318750000  -3.083760e+001  1.452471e+002 
3321875000  -3.199862e+001  1.457021e+002 
3325000000  -3.256269e+001  1.501213e+002 
3328125000  -3.231500e+001  1.521171e+002 
3331250000  -3.107133e+001  1.593599e+002 
3334375000  -2.852848e+001  1.499709e+002 
3337500000  -2.860678e+001  1.307505e+002 
3340625000  -3.002360e+001  1.200907e+002 
3343750000  -3.196652e+001  1.190085e+002 
3346875000  -3.240712e+001  1.206811e+002 
3350000000  -3.178587e+001  1.190105e+002 
3353125000  -3.188745e+001  1.146940e+002 
3356250000  -3.159383e+001  1.074185e+002 
3359375000  -3.257537e+001  9.891345e+001 
3362500000  -3.378077e+001  9.366479e+001 
3365625000  -3.442644e+001  9.189031e+001 
3368750000  -3.528666e+001  9.024234e+001 
3371875000  -3.580528e+001  8.757890e+001 
3375000000  -3.724083e+001  8.515658e+001 
3378125000  -3.832594e+001  8.424858e+001 
3381250000  -3.987561e+001  9.335173e+001 
3384375000  -3.898363e+001  1.143332e+002 
3387500000  -3.577965e+001  9.984472e+001 
3390625000  -3.778885e+001  8.024961e+001 
3393750000  -3.938028e+001  8.613921e+001 
3396875000  -3.868916e+001  8.835793e+001 
3400000000  -3.841303e+001  8.101203e+001 
3403125000  -3.960078e+001  7.634985e+001 
3406250000  -4.040517e+001  7.982426e+001 
3409375000  -4.073814e+001  7.459721e+001 
3412500000  -4.182122e+001  7.731635e+001 
3415625000  -4.244214e+001  8.141916e+001 
3418750000  -4.293997e+001  8.593739e+001 
3421875000  -4.294122e+001  9.161749e+001 
3425000000  -4.223520e+001  9.408889e+001 
3428125000  -4.151045e+001  9.356750e+001 
3431250000  -4.112575e+001  9.059480e+001 
3434375000  -4.096429e+001  8.687431e+001 
3437500000  -4.173555e+001  8.609867e+001 
3440625000  -4.194170e+001  8.879434e+001 
3443750000  -4.044707e+001  9.098277e+001 
3446875000  -3.965050e+001  8.571053e+001 
3450000000  -3.949100e+001  7.625375e+001 
3453125000  -3.975086e+001  6.746233e+001 
3456250000  -4.099225e+001  6.050447e+001 
3459375000  -4.209113e+001  6.425919e+001 
3462500000  -4.222738e+001  6.762281e+001 
3465625000  -4.202214e+001  5.976417e+001 
3468750000  -4.240908e+001  5.796745e+001 
3471875000  -4.256088e+001  5.799236e+001 
3475000000  -4.212166e+001  5.460423e+001 
3478125000  -4.320443e+001  4.855592e+001 
3481250000  -4.431145e+001  4.713695e+001 
3484375000  -4.562054e+001  5.411455e+001 
3487500000  -4.507463e+001  5.617939e+001 
3490625000  -4.513851e+001  5.293350e+001 
3493750000  -4.548426e+001  5.007148e+001 
3496875000  -4.667432e+001  5.458692e+001 
3500000000  -4.796354e+001  5.769874e+001 
3503125000  -4.752669e+001  6.573571e+001 
3506250000  -4.619761e+001  6.556548e+001 
3509375000  -4.621688e+001  6.022127e+001 
3512500000  -4.700296e+001  6.110319e+001 
3515625000  -4.767211e+001  6.270709e+001 
3518750000  -4.782627e+001  6.935512e+001 
3521875000  -4.818458e+001  7.282614e+001 
3525000000  -4.792754e+001  6.951360e+001 
3528125000  -4.724729e+001  8.634463e+001 
3531250000  -4.598519e+001  8.453812e+001 
3534375000  -4.518228e+001  7.808862e+001 
3537500000  -4.498886e+001  7.340804e+001 
3540625000  -4.553514e+001  7.441461e+001 
3543750000  -4.577321e+001  7.852829e+001 
3546875000  -4.543371e+001  8.965718e+001 
3550000000  -4.308459e+001  9.148818e+001 
3553125000  -4.148429e+001  7.488032e+001 
3556250000  -4.228861e+001  7.086604e+001 
3559375000  -4.203687e+001  7.141451e+001 
3562500000  -4.097242e+001  6.563041e+001 
3565625000  -4.175002e+001  5.832927e+001 
3568750000  -4.161999e+001  6.242154e+001 
3571875000  -4.164913e+001  6.253963e+001 
3575000000  -4.136856e+001  5.865096e+001 
3578125000  -4.142443e+001  5.293259e+001 
3581250000  -4.173049e+001  5.316773e+001 
3584375000  -4.080444e+001  5.281005e+001 
3587500000  -3.985092e+001  4.625004e+001 
3590625000  -4.043731e+001  3.785289e+001 
3593750000  -4.144188e+001  3.738380e+001 
3596875000  -4.106469e+001  4.478192e+001 
3600000000  -3.981002e+001  4.242394e+001 
3603125000  -3.968159e+001  3.059778e+001 
3606250000  -4.069217e+001  2.631032e+001 
3609375000  -4.088431e+001  2.670450e+001 
3612500000  -4.138529e+001  2.487161e+001 
3615625000  -4.138448e+001  2.272122e+001 
3618750000  -4.208865e+001  2.388425e+001 
3621875000  -4.134939e+001  2.366118e+001 
3625000000  -4.179787e+001  2.298160e+001 
3628125000  -4.169965e+001  2.254136e+001 
3631250000  -4.124664e+001  1.714766e+001 
3634375000  -4.249506e+001  2.063115e+001 
3637500000  -4.178529e+001  2.413059e+001 
3640625000  -4.113670e+001  2.569257e+001 
3643750000  -4.052897e+001  1.911979e+001 
3646875000  -4.114758e+001  1.361853e+001 
3650000000  -4.166346e+001  1.387752e+001 
3653125000  -4.131499e+001  1.513188e+001 
3656250000  -4.166312e+001  1.334097e+001 
3659375000  -4.191898e+001  1.576086e+001 
3662500000  -4.119639e+001  1.339965e+001 
3665625000  -4.135215e+001  1.619281e+001 
3668750000  -4.009276e+001  1.751647e+001 
3671875000  -3.954777e+001  1.278519e+001 
3675000000  -3.995738e+001  5.355097e+000 
3678125000  -4.035849e+001  8.241495e+000 
3681250000  -3.987479e+001  7.733729e+000 
3684375000  -3.935677e+001  6.137715e+000 
3687500000  -3.965571e+001  5.160114e+000 
3690625000  -3.983696e+001  2.896073e+000 
3693750000  -4.033530e+001  4.822325e+000 
3696875000  -4.012259e+001  9.109068e+000 
3700000000  -3.882441e+001  5.930991e+000 
3703125000  -3.870107e+001  4.326117e+000 
3706250000  -3.942953e+001  5.551357e+000 
3709375000  -3.877296e+001  6.621653e+000 
3712500000  -3.743019e+001  8.491167e+000 
3715625000  -3.658595e+001  2.312973e+000 
3718750000  -3.568367e+001  -4.337593e-001 
3721875000  -3.536432e+001  -5.844909e+000 
3725000000  -3.533776e+001  -1.019676e+001 
3728125000  -3.537402e+001  -1.092805e+001 
3731250000  -3.462503e+001  -1.181942e+001 
3734375000  -3.380729e+001  -1.775664e+001 
3737500000  -3.425665e+001  -2.564516e+001 
3740625000  -3.481722e+001  -2.927706e+001 
3743750000  -3.456860e+001  -3.104897e+001 
3746875000  -3.458233e+001  -3.353188e+001 
3750000000  -3.506278e+001  -3.406727e+001 
3753125000  -3.462550e+001  -3.452404e+001 
3756250000  -3.445515e+001  -3.560771e+001 
3759375000  -3.435250e+001  -3.624345e+001 
3762500000  -3.370889e+001  -4.076580e+001 
3765625000  -3.421254e+001  -4.232888e+001 
3768750000  -3.429423e+001  -4.070775e+001 
3771875000  -3.243802e+001  -4.304552e+001 
3775000000  -3.222897e+001  -5.117374e+001 
3778125000  -3.255683e+001  -5.273513e+001 
3781250000  -3.236223e+001  -5.575578e+001 
3784375000  -3.236039e+001  -5.730238e+001 
3787500000  -3.170183e+001  -6.130175e+001 
3790625000  -3.226086e+001  -6.774757e+001 
3793750000  -3.234587e+001  -6.777316e+001 
3796875000  -3.147448e+001  -6.894512e+001 
3800000000  -2.988543e+001  -7.256716e+001 
3803125000  -3.071191e+001  -7.982147e+001 
3806250000  -3.131375e+001  -8.149715e+001 
3809375000  -3.105339e+001  -8.351676e+001 
3812500000  -3.044279e+001  -8.778622e+001 
3815625000  -3.104453e+001  -9.554900e+001 
3818750000  -3.206181e+001  -9.687401e+001 
3821875000  -3.212109e+001  -8.790919e+001 
3825000000  -3.015698e+001  -8.334238e+001 
3828125000  -2.881119e+001  -9.769315e+001 
3831250000  -2.936051e+001  -1.117297e+002 
3834375000  -3.077258e+001  -1.124957e+002 
3837500000  -3.157003e+001  -1.070817e+002 
3840625000  -3.044851e+001  -1.084093e+002 
3843750000  -2.929009e+001  -1.185083e+002 
3846875000  -3.005211e+001  -1.263942e+002 
3850000000  -3.129829e+001  -1.198471e+002 
3853125000  -3.047938e+001  -1.173124e+002 
3856250000  -3.034628e+001  -1.221718e+002 
3859375000  -2.971045e+001  -1.273708e+002 
3862500000  -2.911473e+001  -1.342578e+002 
3865625000  -2.952328e+001  -1.386905e+002 
3868750000  -2.957799e+001  -1.389362e+002 
3871875000  -2.889322e+001  -1.421631e+002 
3875000000  -2.899053e+001  -1.509404e+002 
3878125000  -2.998399e+001  -1.533543e+002 
3881250000  -3.010737e+001  -1.505596e+002 
3884375000  -2.959482e+001  -1.549113e+002 
3887500000  -2.966889e+001  -1.591193e+002 
3890625000  -3.024226e+001  -1.619041e+002 
3893750000  -3.079928e+001  -1.630305e+002 
3896875000  -3.079546e+001  -1.621808e+002 
3900000000  -3.100690e+001  -1.635210e+002 
3903125000  -3.070573e+001  -1.657035e+002 
3906250000  -3.032608e+001  -1.660689e+002 
3909375000  -2.965678e+001  -1.689986e+002 
3912500000  -2.973055e+001  -1.763268e+002 
3915625000  -3.097952e+001  -1.750372e+002 
3918750000  -3.097072e+001  -1.737233e+002 
3921875000  -3.062542e+001  -1.750714e+002 
3925000000  -2.979170e+001  -1.765182e+002 
3928125000  -2.907576e+001  1.776724e+002 
3931250000  -2.955076e+001  1.742203e+002 
3934375000  -2.985830e+001  1.745169e+002 
3937500000  -3.002737e+001  1.736031e+002 
3940625000  -3.042189e+001  1.741205e+002 
3943750000  -2.945667e+001  1.759635e+002 
3946875000  -2.833795e+001  1.702629e+002 
3950000000  -2.886162e+001  1.626807e+002 
3953125000  -2.979123e+001  1.634802e+002 
3956250000  -2.876318e+001  1.661317e+002 
3959375000  -2.744556e+001  1.632503e+002 
3962500000  -2.700837e+001  1.590846e+002 
3965625000  -2.668750e+001  1.499945e+002 
3968750000  -2.760181e+001  1.434613e+002 
3971875000  -2.791814e+001  1.422298e+002 
3975000000  -2.726370e+001  1.402091e+002 
3978125000  -2.707035e+001  1.389368e+002 
3981250000  -2.684548e+001  1.340870e+002 
3984375000  -2.708215e+001  1.281337e+002 
3987500000  -2.757487e+001  1.262376e+002 
3990625000  -2.755132e+001  1.253407e+002 
3993750000  -2.780111e+001  1.218906e+002 
3996875000  -2.774302e+001  1.195220e+002 
4000000000  -2.783831e+001  1.176719e+002 
4003125000  -2.841295e+001  1.199199e+002 
4006250000  -2.697540e+001  1.199314e+002 
4009375000  -2.578183e+001  1.073030e+002 
4012500000  -2.687292e+001  1.003200e+002 
4015625000  -2.816232e+001  1.009185e+002 
4018750000  -2.831238e+001  1.033517e+002 
4021875000  -2.768729e+001  1.015211e+002 
4025000000  -2.725105e+001  9.646946e+001 
4028125000  -2.717986e+001  9.306536e+001 
4031250000  -2.776556e+001  8.932640e+001 
4034375000  -2.796616e+001  8.939441e+001 
4037500000  -2.752988e+001  9.159009e+001 
4040625000  -2.740307e+001  8.795415e+001 
4043750000  -2.779024e+001  8.738538e+001 
4046875000  -2.734753e+001  8.705254e+001 
4050000000  -2.685073e+001  8.129591e+001 
4053125000  -2.730953e+001  7.965836e+001 
4056250000  -2.788534e+001  8.389867e+001 
4059375000  -2.662453e+001  8.586687e+001 
4062500000  -2.528705e+001  8.125520e+001 
4065625000  -2.517470e+001  7.671738e+001 
4068750000  -2.482455e+001  7.168678e+001 
4071875000  -2.425044e+001  6.417838e+001 
4075000000  -2.457655e+001  5.785685e+001 
4078125000  -2.516790e+001  5.700435e+001 
4081250000  -2.463569e+001  5.440275e+001 
4084375000  -2.424073e+001  4.802386e+001 
4087500000  -2.458155e+001  4.183217e+001 
4090625000  -2.521550e+001  4.088517e+001 
4093750000  -2.496053e+001  4.149742e+001 
4096875000  -2.454656e+001  3.552082e+001 
4100000000  -2.523567e+001  2.829696e+001 
4103125000  -2.613205e+001  2.964213e+001 
4106250000  -2.594018e+001  3.435958e+001 
4109375000  -2.511501e+001  3.359336e+001 
4112500000  -2.449285e+001  2.704103e+001 
4115625000  -2.482445e+001  2.256197e+001 
4118750000  -2.493318e+001  1.973777e+001 
4121875000  -2.449110e+001  1.498321e+001 
4125000000  -2.492919e+001  9.923765e+000 
4128125000  -2.595245e+001  1.014228e+001 
4131250000  -2.557259e+001  1.809343e+001 
4134375000  -2.327621e+001  1.345285e+001 
4137500000  -2.311716e+001  -5.144790e+000 
4140625000  -2.523062e+001  -1.256272e+001 
4143750000  -2.660920e+001  -6.882560e+000 
4146875000  -2.608714e+001  5.210215e-001 
4150000000  -2.519506e+001  -3.292801e+000 
4153125000  -2.504161e+001  -9.781682e+000 
4156250000  -2.595446e+001  -1.252801e+001 
4159375000  -2.624201e+001  -7.508604e+000 
4162500000  -2.506220e+001  -3.419406e+000 
4165625000  -2.390863e+001  -7.950732e+000 
4168750000  -2.333487e+001  -1.493272e+001 
4171875000  -2.334401e+001  -2.406788e+001 
4175000000  -2.394047e+001  -2.997363e+001 
4178125000  -2.459710e+001  -3.006911e+001 
4181250000  -2.440307e+001  -3.046448e+001 
4184375000  -2.424731e+001  -3.373516e+001 
4187500000  -2.430502e+001  -3.647839e+001 
4190625000  -2.412520e+001  -4.188042e+001 
4193750000  -2.494361e+001  -4.555184e+001 
4196875000  -2.567876e+001  -4.583661e+001 
4200000000  -2.661722e+001  -4.319184e+001 
4203125000  -2.650831e+001  -2.901593e+001 
4206250000  -2.311020e+001  -2.842903e+001 
4209375000  -2.199390e+001  -4.937122e+001 
4212500000  -2.393415e+001  -5.799815e+001 
4215625000  -2.492591e+001  -5.159385e+001 
4218750000  -2.355002e+001  -4.503640e+001 
4221875000  -2.130087e+001  -5.385339e+001 
4225000000  -2.250975e+001  -6.637344e+001 
4228125000  -2.316567e+001  -6.131442e+001 
4231250000  -2.159486e+001  -6.503352e+001 
4234375000  -2.152162e+001  -7.362610e+001 
4237500000  -2.110287e+001  -7.680184e+001 
4240625000  -2.106070e+001  -8.528563e+001 
4243750000  -2.207118e+001  -9.212949e+001 
4246875000  -2.298985e+001  -9.238955e+001 
4250000000  -2.303202e+001  -8.934929e+001 
4253125000  -2.239572e+001  -9.125376e+001 
4256250000  -2.274059e+001  -9.541523e+001 
4259375000  -2.242897e+001  -9.738040e+001 
4262500000  -2.249448e+001  -1.009780e+002 
4265625000  -2.262938e+001  -1.006412e+002 
4268750000  -2.172741e+001  -1.050272e+002 
4271875000  -2.144402e+001  -1.107488e+002 
4275000000  -2.084999e+001  -1.174434e+002 
4278125000  -2.152255e+001  -1.282927e+002 
4281250000  -2.333052e+001  -1.303530e+002 
4284375000  -2.299881e+001  -1.296787e+002 
4287500000  -2.384319e+001  -1.333783e+002 
4290625000  -2.501008e+001  -1.234210e+002 
4293750000  -2.304785e+001  -1.179720e+002 
4296875000  -2.171002e+001  -1.295958e+002 
4300000000  -2.254282e+001  -1.387706e+002 
4303125000  -2.366949e+001  -1.372285e+002 
4306250000  -2.302323e+001  -1.313252e+002 
4309375000  -2.166409e+001  -1.337007e+002 
4312500000  -2.155188e+001  -1.421055e+002 
4315625000  -2.177787e+001  -1.482855e+002 
4318750000  -2.212596e+001  -1.515827e+002 
4321875000  -2.228035e+001  -1.505525e+002 
4325000000  -2.173165e+001  -1.500094e+002 
4328125000  -2.121832e+001  -1.567544e+002 
4331250000  -2.112772e+001  -1.648030e+002 
4334375000  -2.159557e+001  -1.698201e+002 
4337500000  -2.241382e+001  -1.719217e+002 
4340625000  -2.296961e+001  -1.683319e+002 
4343750000  -2.233539e+001  -1.680399e+002 
4346875000  -2.197181e+001  -1.737786e+002 
4350000000  -2.198320e+001  -1.785830e+002 
4353125000  -2.208572e+001  1.738200e+002 
4356250000  -2.388368e+001  1.732443e+002 
4359375000  -2.440196e+001  -1.729615e+002 
4362500000  -2.161896e+001  -1.712813e+002 
4365625000  -2.007631e+001  1.762273e+002 
4368750000  -2.083281e+001  1.646424e+002 
4371875000  -2.197483e+001  1.656072e+002 
4375000000  -2.162324e+001  1.664183e+002 
4378125000  -2.098894e+001  1.605431e+002 
4381250000  -2.115639e+001  1.549167e+002 
4384375000  -2.099565e+001  1.504986e+002 
4387500000  -2.174667e+001  1.447038e+002 
4390625000  -2.273466e+001  1.457472e+002 
4393750000  -2.204994e+001  1.479408e+002 
4396875000  -2.138857e+001  1.457074e+002 
4400000000  -2.086501e+001  1.385740e+002 
4403125000  -2.145970e+001  1.307273e+002 
4406250000  -2.231623e+001  1.297833e+002 
4409375000  -2.230563e+001  1.274653e+002 
4412500000  -2.337149e+001  1.248119e+002 
4415625000  -2.368071e+001  1.297848e+002 
4418750000  -2.243465e+001  1.341785e+002 
