!Agilent Technologies,E8363B,MY43030201,A.06.04.32
!Agilent E8363B: A.06.04.32
!Date: Tuesday, November 11, 2014 20:47:46
!Correction: S21(Response(S21)) 
!S1P File: Measurement: S21:
# Hz S  dB   R 50
3000000000  -2.649949e+001  1.560973e+002 
3003125000  -2.788439e+001  1.514527e+002 
3006250000  -2.795344e+001  1.489364e+002 
3009375000  -2.827507e+001  1.539625e+002 
3012500000  -2.779030e+001  1.536418e+002 
3015625000  -2.683085e+001  1.466372e+002 
3018750000  -2.765675e+001  1.456996e+002 
3021875000  -2.638616e+001  1.467211e+002 
3025000000  -2.511560e+001  1.438677e+002 
3028125000  -2.414676e+001  1.392373e+002 
3031250000  -2.312011e+001  1.279833e+002 
3034375000  -2.275213e+001  1.149502e+002 
3037500000  -2.306018e+001  1.031326e+002 
3040625000  -2.441051e+001  9.788360e+001 
3043750000  -2.514324e+001  9.359494e+001 
3046875000  -2.521831e+001  8.726348e+001 
3050000000  -2.695476e+001  8.014655e+001 
3053125000  -2.712353e+001  8.679393e+001 
3056250000  -2.638127e+001  8.950634e+001 
3059375000  -2.666893e+001  8.942171e+001 
3062500000  -2.522556e+001  8.551894e+001 
3065625000  -2.501629e+001  7.983641e+001 
3068750000  -2.474814e+001  7.296416e+001 
3071875000  -2.465223e+001  6.997252e+001 
3075000000  -2.462984e+001  6.637587e+001 
3078125000  -2.434683e+001  6.172334e+001 
3081250000  -2.497314e+001  5.743986e+001 
3084375000  -2.424496e+001  5.384080e+001 
3087500000  -2.412170e+001  5.048034e+001 
3090625000  -2.383644e+001  4.092357e+001 
3093750000  -2.423065e+001  3.279011e+001 
3096875000  -2.555459e+001  2.657777e+001 
3100000000  -2.568748e+001  2.519304e+001 
3103125000  -2.605458e+001  2.673462e+001 
3106250000  -2.579632e+001  2.299969e+001 
3109375000  -2.602757e+001  1.938890e+001 
3112500000  -2.614359e+001  1.871555e+001 
3115625000  -2.596695e+001  1.435008e+001 
3118750000  -2.648070e+001  1.577908e+001 
3121875000  -2.576789e+001  7.606379e+000 
3125000000  -2.691229e+001  4.052351e+000 
3128125000  -2.822134e+001  1.200318e+001 
3131250000  -2.600334e+001  1.300991e+001 
3134375000  -2.461631e+001  -6.435447e-001 
3137500000  -2.526564e+001  -1.468577e+001 
3140625000  -2.692993e+001  -1.662370e+001 
3143750000  -2.794114e+001  -1.190057e+001 
3146875000  -2.758739e+001  -1.025294e+001 
3150000000  -2.648132e+001  -7.730546e+000 
3153125000  -2.646820e+001  -1.563383e+001 
3156250000  -2.744229e+001  -1.043952e+001 
3159375000  -2.594045e+001  -7.368246e+000 
3162500000  -2.389643e+001  -1.999095e+001 
3165625000  -2.479828e+001  -3.109369e+001 
3168750000  -2.519128e+001  -3.032336e+001 
3171875000  -2.426763e+001  -3.432300e+001 
3175000000  -2.488464e+001  -4.223211e+001 
3178125000  -2.469326e+001  -4.051801e+001 
3181250000  -2.347935e+001  -4.441327e+001 
3184375000  -2.267432e+001  -5.675568e+001 
3187500000  -2.376801e+001  -7.192878e+001 
3190625000  -2.661361e+001  -8.002653e+001 
3193750000  -2.723634e+001  -6.999035e+001 
3196875000  -2.678505e+001  -6.444453e+001 
3200000000  -2.592586e+001  -6.619554e+001 
3203125000  -2.504333e+001  -7.175954e+001 
3206250000  -2.534188e+001  -7.810715e+001 
3209375000  -2.484185e+001  -8.307344e+001 
3212500000  -2.494694e+001  -8.975159e+001 
3215625000  -2.509970e+001  -9.398529e+001 
3218750000  -2.581385e+001  -1.004674e+002 
3221875000  -2.684562e+001  -1.053391e+002 
3225000000  -2.649715e+001  -1.060182e+002 
3228125000  -2.679478e+001  -1.103662e+002 
3231250000  -2.751773e+001  -1.133324e+002 
3234375000  -2.738835e+001  -1.120335e+002 
3237500000  -2.744227e+001  -1.138299e+002 
3240625000  -2.711477e+001  -1.155514e+002 
3243750000  -2.673254e+001  -1.220449e+002 
3246875000  -2.723156e+001  -1.288121e+002 
3250000000  -2.764088e+001  -1.305172e+002 
3253125000  -2.781994e+001  -1.322903e+002 
3256250000  -2.770674e+001  -1.380560e+002 
3259375000  -2.800481e+001  -1.459056e+002 
3262500000  -2.923470e+001  -1.488833e+002 
3265625000  -2.993756e+001  -1.454633e+002 
3268750000  -2.990647e+001  -1.432581e+002 
3271875000  -2.971574e+001  -1.411990e+002 
3275000000  -2.864114e+001  -1.461024e+002 
3278125000  -2.907944e+001  -1.529555e+002 
3281250000  -2.933090e+001  -1.509477e+002 
3284375000  -2.892006e+001  -1.569974e+002 
3287500000  -2.904882e+001  -1.596337e+002 
3290625000  -2.951255e+001  -1.637364e+002 
3293750000  -2.922052e+001  -1.693330e+002 
3296875000  -3.016059e+001  -1.694518e+002 
3300000000  -3.012374e+001  -1.685437e+002 
3303125000  -2.895069e+001  -1.724043e+002 
3306250000  -2.873292e+001  -1.788015e+002 
3309375000  -2.851214e+001  1.762271e+002 
3312500000  -2.858522e+001  1.659151e+002 
3315625000  -2.948659e+001  1.578879e+002 
3318750000  -3.083847e+001  1.552257e+002 
3321875000  -3.206157e+001  1.546078e+002 
3325000000  -3.267213e+001  1.597349e+002 
3328125000  -3.248313e+001  1.618192e+002 
3331250000  -3.136328e+001  1.692111e+002 
3334375000  -2.876628e+001  1.600294e+002 
3337500000  -2.878982e+001  1.414397e+002 
3340625000  -3.008915e+001  1.303797e+002 
3343750000  -3.203746e+001  1.287307e+002 
3346875000  -3.260750e+001  1.306414e+002 
3350000000  -3.198795e+001  1.295232e+002 
3353125000  -3.211187e+001  1.251824e+002 
3356250000  -3.175949e+001  1.170201e+002 
3359375000  -3.261189e+001  1.086911e+002 
3362500000  -3.393372e+001  1.033856e+002 
3365625000  -3.463228e+001  1.016012e+002 
3368750000  -3.556635e+001  1.002528e+002 
3371875000  -3.595463e+001  9.705444e+001 
3375000000  -3.739825e+001  9.524014e+001 
3378125000  -3.866161e+001  9.475523e+001 
3381250000  -4.015363e+001  1.024957e+002 
3384375000  -3.931479e+001  1.245291e+002 
3387500000  -3.614024e+001  1.093721e+002 
3390625000  -3.793431e+001  8.937421e+001 
3393750000  -3.975702e+001  9.549474e+001 
3396875000  -3.906158e+001  9.728912e+001 
3400000000  -3.897106e+001  9.011131e+001 
3403125000  -4.020467e+001  8.589234e+001 
3406250000  -4.071916e+001  8.937157e+001 
3409375000  -4.163846e+001  8.556259e+001 
3412500000  -4.225189e+001  8.610989e+001 
3415625000  -4.334185e+001  9.164536e+001 
3418750000  -4.363592e+001  9.445959e+001 
3421875000  -4.366002e+001  1.026523e+002 
3425000000  -4.276077e+001  1.055491e+002 
3428125000  -4.201862e+001  1.047765e+002 
3431250000  -4.174619e+001  1.017010e+002 
3434375000  -4.143104e+001  9.831810e+001 
3437500000  -4.213064e+001  9.609996e+001 
3440625000  -4.245713e+001  9.896324e+001 
3443750000  -4.112867e+001  1.030389e+002 
3446875000  -4.008184e+001  9.734948e+001 
3450000000  -4.018428e+001  8.699133e+001 
3453125000  -4.042054e+001  7.896650e+001 
3456250000  -4.151871e+001  7.553815e+001 
3459375000  -4.248532e+001  7.507664e+001 
3462500000  -4.257873e+001  7.651611e+001 
3465625000  -4.255942e+001  7.284815e+001 
3468750000  -4.301994e+001  7.063298e+001 
3471875000  -4.330980e+001  7.000956e+001 
3475000000  -4.301822e+001  6.959553e+001 
3478125000  -4.372042e+001  6.343783e+001 
3481250000  -4.508556e+001  6.197145e+001 
3484375000  -4.608629e+001  6.707127e+001 
3487500000  -4.629380e+001  6.942719e+001 
3490625000  -4.569477e+001  6.602643e+001 
3493750000  -4.630700e+001  6.455255e+001 
3496875000  -4.713087e+001  6.368764e+001 
3500000000  -4.867736e+001  7.265533e+001 
3503125000  -4.825312e+001  7.441419e+001 
3506250000  -4.677677e+001  7.862476e+001 
3509375000  -4.719952e+001  7.796593e+001 
3512500000  -4.794580e+001  7.718614e+001 
3515625000  -4.796111e+001  7.873859e+001 
3518750000  -4.860362e+001  8.358401e+001 
3521875000  -4.764365e+001  9.215473e+001 
3525000000  -4.763509e+001  9.324038e+001 
3528125000  -4.740219e+001  1.002661e+002 
3531250000  -4.574062e+001  1.016094e+002 
3534375000  -4.527980e+001  9.355638e+001 
3537500000  -4.504147e+001  8.831153e+001 
3540625000  -4.536585e+001  9.271165e+001 
3543750000  -4.602757e+001  9.250860e+001 
3546875000  -4.541333e+001  1.033817e+002 
3550000000  -4.266024e+001  1.073402e+002 
3553125000  -4.141008e+001  9.058327e+001 
3556250000  -4.223861e+001  8.419123e+001 
3559375000  -4.222007e+001  8.704555e+001 
3562500000  -4.095767e+001  7.746739e+001 
3565625000  -4.178674e+001  7.324751e+001 
3568750000  -4.178524e+001  7.593677e+001 
3571875000  -4.159520e+001  7.620879e+001 
3575000000  -4.086605e+001  7.039574e+001 
3578125000  -4.132914e+001  6.734100e+001 
3581250000  -4.173786e+001  6.723685e+001 
3584375000  -4.046348e+001  6.621720e+001 
3587500000  -4.008139e+001  6.030072e+001 
3590625000  -4.044903e+001  5.232818e+001 
3593750000  -4.155704e+001  5.066226e+001 
3596875000  -4.123717e+001  5.763726e+001 
3600000000  -3.980217e+001  5.450823e+001 
3603125000  -4.019691e+001  4.330064e+001 
3606250000  -4.048092e+001  3.914456e+001 
3609375000  -4.087926e+001  3.900768e+001 
3612500000  -4.162267e+001  3.705124e+001 
3615625000  -4.140588e+001  3.434385e+001 
3618750000  -4.192687e+001  3.583027e+001 
3621875000  -4.153198e+001  3.480661e+001 
3625000000  -4.205226e+001  3.735289e+001 
3628125000  -4.196965e+001  3.883310e+001 
3631250000  -4.144676e+001  3.098372e+001 
3634375000  -4.256097e+001  3.231118e+001 
3637500000  -4.251683e+001  3.768087e+001 
3640625000  -4.109789e+001  3.786003e+001 
3643750000  -4.084252e+001  3.334297e+001 
3646875000  -4.120503e+001  2.847767e+001 
3650000000  -4.182681e+001  2.700300e+001 
3653125000  -4.147102e+001  2.567508e+001 
3656250000  -4.155487e+001  2.622126e+001 
3659375000  -4.222946e+001  3.098357e+001 
3662500000  -4.126439e+001  2.879304e+001 
3665625000  -4.140072e+001  2.908985e+001 
3668750000  -4.030638e+001  3.043621e+001 
3671875000  -3.946382e+001  2.665684e+001 
3675000000  -3.989607e+001  2.073974e+001 
3678125000  -4.082109e+001  2.373388e+001 
3681250000  -4.008386e+001  2.245925e+001 
3684375000  -3.981844e+001  2.041772e+001 
3687500000  -4.004622e+001  1.988870e+001 
3690625000  -3.988618e+001  1.605125e+001 
3693750000  -4.044522e+001  2.014473e+001 
3696875000  -4.018472e+001  2.321391e+001 
3700000000  -3.907413e+001  2.095281e+001 
3703125000  -3.899325e+001  1.785921e+001 
3706250000  -3.925701e+001  1.814307e+001 
3709375000  -3.882392e+001  2.118265e+001 
3712500000  -3.757549e+001  2.307345e+001 
3715625000  -3.640806e+001  1.611610e+001 
3718750000  -3.576262e+001  1.346828e+001 
3721875000  -3.539751e+001  8.531873e+000 
3725000000  -3.537329e+001  3.771024e+000 
3728125000  -3.549475e+001  2.613593e+000 
3731250000  -3.497171e+001  2.181507e+000 
3734375000  -3.382062e+001  -3.774749e+000 
3737500000  -3.429247e+001  -1.046948e+001 
3740625000  -3.499219e+001  -1.384579e+001 
3743750000  -3.477089e+001  -1.581230e+001 
3746875000  -3.462745e+001  -1.970360e+001 
3750000000  -3.495586e+001  -1.945726e+001 
3753125000  -3.459603e+001  -2.054668e+001 
3756250000  -3.454491e+001  -2.108940e+001 
3759375000  -3.433635e+001  -2.211311e+001 
3762500000  -3.367380e+001  -2.535667e+001 
3765625000  -3.410564e+001  -2.870257e+001 
3768750000  -3.426820e+001  -2.670819e+001 
3771875000  -3.259834e+001  -2.882214e+001 
3775000000  -3.232784e+001  -3.684004e+001 
3778125000  -3.258209e+001  -3.826608e+001 
3781250000  -3.242312e+001  -4.155991e+001 
3784375000  -3.232232e+001  -4.329662e+001 
3787500000  -3.177706e+001  -4.686885e+001 
3790625000  -3.227870e+001  -5.282575e+001 
3793750000  -3.251722e+001  -5.340878e+001 
3796875000  -3.148332e+001  -5.504839e+001 
3800000000  -3.005613e+001  -5.837368e+001 
3803125000  -3.073769e+001  -6.505856e+001 
3806250000  -3.129785e+001  -6.710276e+001 
3809375000  -3.113405e+001  -6.857536e+001 
3812500000  -3.041212e+001  -7.339869e+001 
3815625000  -3.098263e+001  -8.050629e+001 
3818750000  -3.192165e+001  -8.275060e+001 
3821875000  -3.203290e+001  -7.414066e+001 
3825000000  -3.023322e+001  -6.967152e+001 
3828125000  -2.893897e+001  -8.281202e+001 
3831250000  -2.933376e+001  -9.762727e+001 
3834375000  -3.075139e+001  -9.875354e+001 
3837500000  -3.168918e+001  -9.376542e+001 
3840625000  -3.055572e+001  -9.423994e+001 
3843750000  -2.935603e+001  -1.040017e+002 
3846875000  -3.002685e+001  -1.116703e+002 
3850000000  -3.135475e+001  -1.063549e+002 
3853125000  -3.053387e+001  -1.036905e+002 
3856250000  -3.047050e+001  -1.079412e+002 
3859375000  -2.980319e+001  -1.127882e+002 
3862500000  -2.941166e+001  -1.191496e+002 
3865625000  -2.960052e+001  -1.246990e+002 
3868750000  -2.959183e+001  -1.246857e+002 
3871875000  -2.893323e+001  -1.270432e+002 
3875000000  -2.905967e+001  -1.359483e+002 
3878125000  -3.004366e+001  -1.392535e+002 
3881250000  -3.012679e+001  -1.356940e+002 
3884375000  -2.959744e+001  -1.400955e+002 
3887500000  -2.966714e+001  -1.440225e+002 
3890625000  -3.028553e+001  -1.463805e+002 
3893750000  -3.065717e+001  -1.476917e+002 
3896875000  -3.078246e+001  -1.473188e+002 
3900000000  -3.105407e+001  -1.482860e+002 
3903125000  -3.065002e+001  -1.511084e+002 
3906250000  -3.038960e+001  -1.510169e+002 
3909375000  -2.973343e+001  -1.533289e+002 
3912500000  -2.959825e+001  -1.611472e+002 
3915625000  -3.094655e+001  -1.605068e+002 
3918750000  -3.093970e+001  -1.586951e+002 
3921875000  -3.058108e+001  -1.604960e+002 
3925000000  -2.979755e+001  -1.607888e+002 
3928125000  -2.911303e+001  -1.668522e+002 
3931250000  -2.948228e+001  -1.713682e+002 
3934375000  -2.979632e+001  -1.708122e+002 
3937500000  -2.986145e+001  -1.714479e+002 
3940625000  -3.036087e+001  -1.708985e+002 
3943750000  -2.946758e+001  -1.699342e+002 
3946875000  -2.820150e+001  -1.750310e+002 
3950000000  -2.864750e+001  1.775046e+002 
3953125000  -2.965200e+001  1.774226e+002 
3956250000  -2.887153e+001  -1.796985e+002 
3959375000  -2.743854e+001  1.772929e+002 
3962500000  -2.703071e+001  1.739147e+002 
3965625000  -2.663122e+001  1.647351e+002 
3968750000  -2.753502e+001  1.580646e+002 
3971875000  -2.791283e+001  1.567354e+002 
3975000000  -2.724720e+001  1.545117e+002 
3978125000  -2.701405e+001  1.533837e+002 
3981250000  -2.677534e+001  1.489280e+002 
3984375000  -2.700473e+001  1.428602e+002 
3987500000  -2.753139e+001  1.407615e+002 
3990625000  -2.754700e+001  1.401732e+002 
3993750000  -2.776621e+001  1.367113e+002 
3996875000  -2.762049e+001  1.340378e+002 
4000000000  -2.774390e+001  1.323626e+002 
4003125000  -2.836522e+001  1.342097e+002 
4006250000  -2.701906e+001  1.345304e+002 
4009375000  -2.576484e+001  1.225223e+002 
4012500000  -2.675772e+001  1.151002e+002 
4015625000  -2.803225e+001  1.159745e+002 
4018750000  -2.827220e+001  1.178622e+002 
4021875000  -2.758138e+001  1.161508e+002 
4025000000  -2.720165e+001  1.115639e+002 
4028125000  -2.718938e+001  1.077921e+002 
4031250000  -2.756601e+001  1.049055e+002 
4034375000  -2.786720e+001  1.043043e+002 
4037500000  -2.738395e+001  1.059863e+002 
4040625000  -2.727881e+001  1.027644e+002 
4043750000  -2.765749e+001  1.023887e+002 
4046875000  -2.721082e+001  1.019077e+002 
4050000000  -2.668057e+001  9.625488e+001 
4053125000  -2.713963e+001  9.412826e+001 
4056250000  -2.778362e+001  9.801598e+001 
4059375000  -2.664854e+001  1.002126e+002 
4062500000  -2.522826e+001  9.571612e+001 
4065625000  -2.501808e+001  9.132873e+001 
4068750000  -2.477598e+001  8.660120e+001 
4071875000  -2.420119e+001  7.862196e+001 
4075000000  -2.453405e+001  7.247091e+001 
4078125000  -2.507281e+001  7.150325e+001 
4081250000  -2.456475e+001  6.898249e+001 
4084375000  -2.412982e+001  6.248530e+001 
4087500000  -2.451958e+001  5.645840e+001 
4090625000  -2.509394e+001  5.530419e+001 
4093750000  -2.495698e+001  5.595489e+001 
4096875000  -2.447732e+001  5.016056e+001 
4100000000  -2.516729e+001  4.325071e+001 
4103125000  -2.609926e+001  4.369445e+001 
4106250000  -2.593807e+001  4.850835e+001 
4109375000  -2.511960e+001  4.808765e+001 
4112500000  -2.452554e+001  4.143805e+001 
4115625000  -2.478596e+001  3.712989e+001 
4118750000  -2.490202e+001  3.430547e+001 
4121875000  -2.450466e+001  3.013966e+001 
4125000000  -2.484064e+001  2.471266e+001 
4128125000  -2.585613e+001  2.471764e+001 
4131250000  -2.558618e+001  3.263840e+001 
4134375000  -2.330499e+001  2.869706e+001 
4137500000  -2.299526e+001  9.810690e+000 
4140625000  -2.515810e+001  2.320628e+000 
4143750000  -2.649231e+001  7.249015e+000 
4146875000  -2.621465e+001  1.441102e+001 
4150000000  -2.524700e+001  1.174881e+001 
4153125000  -2.503760e+001  5.296460e+000 
4156250000  -2.587787e+001  2.556952e+000 
4159375000  -2.617071e+001  6.938946e+000 
4162500000  -2.501218e+001  1.109414e+001 
4165625000  -2.391424e+001  7.070056e+000 
4168750000  -2.331776e+001  4.362965e-002 
4171875000  -2.327368e+001  -8.885113e+000 
4175000000  -2.382391e+001  -1.488283e+001 
4178125000  -2.448635e+001  -1.499450e+001 
4181250000  -2.437337e+001  -1.528421e+001 
4184375000  -2.420280e+001  -1.844465e+001 
4187500000  -2.427084e+001  -2.128029e+001 
4190625000  -2.407268e+001  -2.656157e+001 
4193750000  -2.482913e+001  -3.075976e+001 
4196875000  -2.550922e+001  -3.120359e+001 
4200000000  -2.635653e+001  -2.879555e+001 
4203125000  -2.651168e+001  -1.633635e+001 
4206250000  -2.319025e+001  -1.392695e+001 
4209375000  -2.193744e+001  -3.374559e+001 
4212500000  -2.381026e+001  -4.282607e+001 
4215625000  -2.481841e+001  -3.743577e+001 
4218750000  -2.357684e+001  -3.041244e+001 
4221875000  -2.119149e+001  -3.911068e+001 
4225000000  -2.243693e+001  -5.184792e+001 
4228125000  -2.313947e+001  -4.689236e+001 
4231250000  -2.157261e+001  -5.025249e+001 
4234375000  -2.151872e+001  -5.854288e+001 
4237500000  -2.111935e+001  -6.201161e+001 
4240625000  -2.108028e+001  -7.044077e+001 
4243750000  -2.205223e+001  -7.687868e+001 
4246875000  -2.290361e+001  -7.731400e+001 
4250000000  -2.300742e+001  -7.446184e+001 
4253125000  -2.236745e+001  -7.641624e+001 
4256250000  -2.266362e+001  -8.040544e+001 
4259375000  -2.237318e+001  -8.250970e+001 
4262500000  -2.242774e+001  -8.609407e+001 
4265625000  -2.260327e+001  -8.601070e+001 
4268750000  -2.175719e+001  -8.972698e+001 
4271875000  -2.150488e+001  -9.521336e+001 
4275000000  -2.087378e+001  -1.017760e+002 
4278125000  -2.141515e+001  -1.129245e+002 
4281250000  -2.321626e+001  -1.151285e+002 
4284375000  -2.293446e+001  -1.142999e+002 
4287500000  -2.366608e+001  -1.181750e+002 
4290625000  -2.503128e+001  -1.085899e+002 
4293750000  -2.300373e+001  -1.028182e+002 
4296875000  -2.164684e+001  -1.144161e+002 
4300000000  -2.242253e+001  -1.235203e+002 
4303125000  -2.360781e+001  -1.222706e+002 
4306250000  -2.303379e+001  -1.166760e+002 
4309375000  -2.163460e+001  -1.181143e+002 
4312500000  -2.151202e+001  -1.266207e+002 
4315625000  -2.169676e+001  -1.326483e+002 
4318750000  -2.200578e+001  -1.362289e+002 
4321875000  -2.219741e+001  -1.356304e+002 
4325000000  -2.165917e+001  -1.351754e+002 
4328125000  -2.114758e+001  -1.414236e+002 
4331250000  -2.105919e+001  -1.495461e+002 
4334375000  -2.147318e+001  -1.544824e+002 
4337500000  -2.227268e+001  -1.564610e+002 
4340625000  -2.289461e+001  -1.536665e+002 
4343750000  -2.227908e+001  -1.531156e+002 
4346875000  -2.190923e+001  -1.584392e+002 
4350000000  -2.194099e+001  -1.628088e+002 
4353125000  -2.192862e+001  -1.705842e+002 
4356250000  -2.356512e+001  -1.720628e+002 
4359375000  -2.433189e+001  -1.595848e+002 
4362500000  -2.175833e+001  -1.569274e+002 
4365625000  -2.002512e+001  -1.678562e+002 
4368750000  -2.070391e+001  1.799124e+002 
4371875000  -2.196688e+001  -1.794659e+002 
4375000000  -2.165303e+001  -1.781850e+002 
4378125000  -2.100774e+001  1.759710e+002 
4381250000  -2.113299e+001  1.703857e+002 
4384375000  -2.095081e+001  1.660168e+002 
4387500000  -2.161685e+001  1.602910e+002 
4390625000  -2.266892e+001  1.608804e+002 
4393750000  -2.203734e+001  1.630194e+002 
4396875000  -2.135841e+001  1.611148e+002 
4400000000  -2.081154e+001  1.543406e+002 
4403125000  -2.139707e+001  1.467196e+002 
4406250000  -2.223887e+001  1.452889e+002 
4409375000  -2.220614e+001  1.429624e+002 
4412500000  -2.319789e+001  1.402452e+002 
4415625000  -2.365320e+001  1.449899e+002 
4418750000  -2.245580e+001  1.494428e+002 
