!Agilent Technologies,E8363B,MY43030201,A.06.04.32
!Agilent E8363B: A.06.04.32
!Date: Tuesday, November 11, 2014 20:53:17
!Correction: S21(Response(S21)) 
!S1P File: Measurement: S21:
# Hz S  dB   R 50
3000000000  -2.652409e+001  1.480010e+002 
3003125000  -2.796854e+001  1.432448e+002 
3006250000  -2.799545e+001  1.410141e+002 
3009375000  -2.838283e+001  1.459959e+002 
3012500000  -2.781281e+001  1.452351e+002 
3015625000  -2.686009e+001  1.381724e+002 
3018750000  -2.770131e+001  1.374663e+002 
3021875000  -2.640878e+001  1.387537e+002 
3025000000  -2.513244e+001  1.356517e+002 
3028125000  -2.417013e+001  1.304818e+002 
3031250000  -2.314412e+001  1.192065e+002 
3034375000  -2.276605e+001  1.064154e+002 
3037500000  -2.313199e+001  9.448392e+001 
3040625000  -2.445887e+001  8.958937e+001 
3043750000  -2.518794e+001  8.492327e+001 
3046875000  -2.530816e+001  7.868238e+001 
3050000000  -2.697744e+001  7.174770e+001 
3053125000  -2.712257e+001  7.808228e+001 
3056250000  -2.650260e+001  8.127953e+001 
3059375000  -2.674936e+001  8.098972e+001 
3062500000  -2.528479e+001  7.691259e+001 
3065625000  -2.505151e+001  7.156970e+001 
3068750000  -2.476141e+001  6.423959e+001 
3071875000  -2.473956e+001  6.163434e+001 
3075000000  -2.469147e+001  5.762041e+001 
3078125000  -2.448389e+001  5.301370e+001 
3081250000  -2.507095e+001  4.893533e+001 
3084375000  -2.433405e+001  4.536308e+001 
3087500000  -2.424008e+001  4.167624e+001 
3090625000  -2.397090e+001  3.226778e+001 
3093750000  -2.441308e+001  2.420843e+001 
3096875000  -2.568788e+001  1.839624e+001 
3100000000  -2.582581e+001  1.695104e+001 
3103125000  -2.619597e+001  1.837848e+001 
3106250000  -2.592330e+001  1.506954e+001 
3109375000  -2.618253e+001  1.155548e+001 
3112500000  -2.628452e+001  1.017487e+001 
3115625000  -2.609365e+001  6.370422e+000 
3118750000  -2.658822e+001  7.767457e+000 
3121875000  -2.593172e+001  -2.949775e-001 
3125000000  -2.711819e+001  -3.577127e+000 
3128125000  -2.832364e+001  4.562509e+000 
3131250000  -2.613193e+001  5.081706e+000 
3134375000  -2.474008e+001  -8.521731e+000 
3137500000  -2.542426e+001  -2.212407e+001 
3140625000  -2.700350e+001  -2.378294e+001 
3143750000  -2.799131e+001  -1.999283e+001 
3146875000  -2.763986e+001  -1.764414e+001 
3150000000  -2.657904e+001  -1.581319e+001 
3153125000  -2.655078e+001  -2.352412e+001 
3156250000  -2.753542e+001  -1.778580e+001 
3159375000  -2.596969e+001  -1.524470e+001 
3162500000  -2.392982e+001  -2.807311e+001 
3165625000  -2.485138e+001  -3.868243e+001 
3168750000  -2.527223e+001  -3.821377e+001 
3171875000  -2.432953e+001  -4.245304e+001 
3175000000  -2.496514e+001  -5.024541e+001 
3178125000  -2.474273e+001  -4.857899e+001 
3181250000  -2.359795e+001  -5.257132e+001 
3184375000  -2.277204e+001  -6.474134e+001 
3187500000  -2.387944e+001  -8.017738e+001 
3190625000  -2.665383e+001  -8.747860e+001 
3193750000  -2.729516e+001  -7.809884e+001 
3196875000  -2.685560e+001  -7.230537e+001 
3200000000  -2.600165e+001  -7.441309e+001 
3203125000  -2.514968e+001  -8.021857e+001 
3206250000  -2.544477e+001  -8.653281e+001 
3209375000  -2.499444e+001  -9.153381e+001 
3212500000  -2.514764e+001  -9.791942e+001 
3215625000  -2.525256e+001  -1.021595e+002 
3218750000  -2.602002e+001  -1.084097e+002 
3221875000  -2.701752e+001  -1.137065e+002 
3225000000  -2.666517e+001  -1.141214e+002 
3228125000  -2.693610e+001  -1.190482e+002 
3231250000  -2.770868e+001  -1.214161e+002 
3234375000  -2.756891e+001  -1.200387e+002 
3237500000  -2.754549e+001  -1.215752e+002 
3240625000  -2.725714e+001  -1.237654e+002 
3243750000  -2.685691e+001  -1.303139e+002 
3246875000  -2.740109e+001  -1.367452e+002 
3250000000  -2.783508e+001  -1.386409e+002 
3253125000  -2.798590e+001  -1.401996e+002 
3256250000  -2.786813e+001  -1.459048e+002 
3259375000  -2.816221e+001  -1.537950e+002 
3262500000  -2.941906e+001  -1.568804e+002 
3265625000  -3.010462e+001  -1.530161e+002 
3268750000  -3.007341e+001  -1.503696e+002 
3271875000  -2.979031e+001  -1.492573e+002 
3275000000  -2.876180e+001  -1.544609e+002 
3278125000  -2.925162e+001  -1.610558e+002 
3281250000  -2.948097e+001  -1.592328e+002 
3284375000  -2.907507e+001  -1.650108e+002 
3287500000  -2.924111e+001  -1.677456e+002 
3290625000  -2.961305e+001  -1.723257e+002 
3293750000  -2.934714e+001  -1.778546e+002 
3296875000  -3.035514e+001  -1.776778e+002 
3300000000  -3.030281e+001  -1.765672e+002 
3303125000  -2.915930e+001  1.793536e+002 
3306250000  -2.894316e+001  1.728203e+002 
3309375000  -2.871762e+001  1.678773e+002 
3312500000  -2.871199e+001  1.572155e+002 
3315625000  -2.976397e+001  1.497231e+002 
3318750000  -3.107110e+001  1.467717e+002 
3321875000  -3.231610e+001  1.469111e+002 
3325000000  -3.280145e+001  1.516423e+002 
3328125000  -3.265171e+001  1.532000e+002 
3331250000  -3.150280e+001  1.611641e+002 
3334375000  -2.902642e+001  1.500752e+002 
3337500000  -2.919032e+001  1.313508e+002 
3340625000  -3.051395e+001  1.206771e+002 
3343750000  -3.248333e+001  1.199037e+002 
3346875000  -3.304469e+001  1.212032e+002 
3350000000  -3.252040e+001  1.198789e+002 
3353125000  -3.251557e+001  1.153354e+002 
3356250000  -3.232450e+001  1.073913e+002 
3359375000  -3.311554e+001  9.901930e+001 
3362500000  -3.445422e+001  9.367377e+001 
3365625000  -3.511470e+001  9.186712e+001 
3368750000  -3.611009e+001  9.038550e+001 
3371875000  -3.653474e+001  8.732410e+001 
3375000000  -3.816615e+001  8.557915e+001 
3378125000  -3.922307e+001  8.566116e+001 
3381250000  -4.081884e+001  9.325035e+001 
3384375000  -3.999402e+001  1.125979e+002 
3387500000  -3.706569e+001  1.008719e+002 
3390625000  -3.890950e+001  8.037011e+001 
3393750000  -4.056268e+001  8.653102e+001 
3396875000  -3.993846e+001  9.002596e+001 
3400000000  -4.002491e+001  8.224417e+001 
3403125000  -4.083218e+001  7.740477e+001 
3406250000  -4.172912e+001  8.015996e+001 
3409375000  -4.261243e+001  7.464169e+001 
3412500000  -4.351535e+001  7.915498e+001 
3415625000  -4.442712e+001  8.531261e+001 
3418750000  -4.449511e+001  9.011774e+001 
3421875000  -4.485181e+001  9.808469e+001 
3425000000  -4.385759e+001  1.018511e+002 
3428125000  -4.306631e+001  1.027066e+002 
3431250000  -4.282597e+001  9.656879e+001 
3434375000  -4.250800e+001  9.414531e+001 
3437500000  -4.263160e+001  9.232610e+001 
3440625000  -4.316211e+001  9.527528e+001 
3443750000  -4.164458e+001  9.860512e+001 
3446875000  -4.087381e+001  9.307922e+001 
3450000000  -4.086100e+001  8.468180e+001 
3453125000  -4.088707e+001  7.528922e+001 
3456250000  -4.217717e+001  7.072355e+001 
3459375000  -4.300468e+001  7.231915e+001 
3462500000  -4.291666e+001  7.305891e+001 
3465625000  -4.322944e+001  6.800742e+001 
3468750000  -4.350818e+001  6.725404e+001 
3471875000  -4.373964e+001  6.721298e+001 
3475000000  -4.350721e+001  6.130238e+001 
3478125000  -4.408426e+001  5.698291e+001 
3481250000  -4.534450e+001  5.569174e+001 
3484375000  -4.726966e+001  6.019979e+001 
3487500000  -4.677649e+001  6.291217e+001 
3490625000  -4.651665e+001  6.331432e+001 
3493750000  -4.670806e+001  5.729434e+001 
3496875000  -4.818999e+001  6.278947e+001 
3500000000  -4.896959e+001  6.935309e+001 
3503125000  -4.899479e+001  8.011626e+001 
3506250000  -4.755978e+001  8.064317e+001 
3509375000  -4.820953e+001  7.747586e+001 
3512500000  -4.848942e+001  7.860527e+001 
3515625000  -4.871122e+001  8.162287e+001 
3518750000  -4.867417e+001  8.559415e+001 
3521875000  -4.798922e+001  9.557119e+001 
3525000000  -4.809938e+001  9.027200e+001 
3528125000  -4.741821e+001  1.026446e+002 
3531250000  -4.562659e+001  1.033841e+002 
3534375000  -4.437501e+001  9.521281e+001 
3537500000  -4.432345e+001  8.918793e+001 
3540625000  -4.447418e+001  8.890801e+001 
3543750000  -4.530446e+001  9.154630e+001 
3546875000  -4.438514e+001  1.048494e+002 
3550000000  -4.209050e+001  1.045374e+002 
3553125000  -4.038033e+001  8.806545e+001 
3556250000  -4.142749e+001  8.138911e+001 
3559375000  -4.110609e+001  8.173421e+001 
3562500000  -3.985315e+001  7.406317e+001 
3565625000  -4.083031e+001  6.579766e+001 
3568750000  -4.083551e+001  6.966122e+001 
3571875000  -4.048919e+001  6.903202e+001 
3575000000  -3.998347e+001  6.378288e+001 
3578125000  -4.050562e+001  5.706857e+001 
3581250000  -4.047664e+001  5.660751e+001 
3584375000  -4.000706e+001  5.568441e+001 
3587500000  -3.902306e+001  4.871216e+001 
3590625000  -3.965628e+001  3.965186e+001 
3593750000  -4.059396e+001  3.804661e+001 
3596875000  -4.086901e+001  4.618332e+001 
3600000000  -3.918446e+001  4.398822e+001 
3603125000  -3.969941e+001  2.907435e+001 
3606250000  -4.045832e+001  2.684783e+001 
3609375000  -4.112601e+001  2.515476e+001 
3612500000  -4.148983e+001  2.237428e+001 
3615625000  -4.175346e+001  2.233877e+001 
3618750000  -4.255833e+001  2.263168e+001 
3621875000  -4.225584e+001  2.350827e+001 
3625000000  -4.285963e+001  2.486271e+001 
3628125000  -4.286219e+001  2.518479e+001 
3631250000  -4.241052e+001  2.193729e+001 
3634375000  -4.331598e+001  2.223234e+001 
3637500000  -4.328864e+001  2.993545e+001 
3640625000  -4.179662e+001  3.241194e+001 
3643750000  -4.166191e+001  2.873902e+001 
3646875000  -4.203608e+001  2.484463e+001 
3650000000  -4.270982e+001  2.390185e+001 
3653125000  -4.215082e+001  2.471777e+001 
3656250000  -4.231985e+001  2.432153e+001 
3659375000  -4.249161e+001  2.833522e+001 
3662500000  -4.184518e+001  2.758553e+001 
3665625000  -4.163730e+001  2.732143e+001 
3668750000  -4.033352e+001  2.957070e+001 
3671875000  -3.912859e+001  2.336860e+001 
3675000000  -3.988675e+001  1.784989e+001 
3678125000  -4.017776e+001  1.794182e+001 
3681250000  -3.952992e+001  1.763459e+001 
3684375000  -3.926996e+001  1.566694e+001 
3687500000  -3.948666e+001  1.438522e+001 
3690625000  -3.946240e+001  1.060960e+001 
3693750000  -4.008432e+001  1.333054e+001 
3696875000  -3.988044e+001  1.527861e+001 
3700000000  -3.879528e+001  1.238086e+001 
3703125000  -3.852664e+001  9.168540e+000 
3706250000  -3.937623e+001  1.040136e+001 
3709375000  -3.876979e+001  1.333144e+001 
3712500000  -3.770835e+001  1.354540e+001 
3715625000  -3.657005e+001  8.100875e+000 
3718750000  -3.585178e+001  5.499841e+000 
3721875000  -3.572451e+001  3.272859e-001 
3725000000  -3.565519e+001  -4.616160e+000 
3728125000  -3.589051e+001  -4.374033e+000 
3731250000  -3.516967e+001  -5.937644e+000 
3734375000  -3.425735e+001  -1.108660e+001 
3737500000  -3.482629e+001  -1.735314e+001 
3740625000  -3.541356e+001  -1.973483e+001 
3743750000  -3.509137e+001  -2.120113e+001 
3746875000  -3.504817e+001  -2.496355e+001 
3750000000  -3.535355e+001  -2.484801e+001 
3753125000  -3.493141e+001  -2.412855e+001 
3756250000  -3.485057e+001  -2.527799e+001 
3759375000  -3.453267e+001  -2.575527e+001 
3762500000  -3.399430e+001  -2.964925e+001 
3765625000  -3.439535e+001  -3.231750e+001 
3768750000  -3.463833e+001  -3.019032e+001 
3771875000  -3.257312e+001  -3.249479e+001 
3775000000  -3.230945e+001  -3.983754e+001 
3778125000  -3.262898e+001  -4.173511e+001 
3781250000  -3.237255e+001  -4.480009e+001 
3784375000  -3.208351e+001  -4.658453e+001 
3787500000  -3.135979e+001  -5.048437e+001 
3790625000  -3.190495e+001  -5.742027e+001 
3793750000  -3.211936e+001  -5.743855e+001 
3796875000  -3.117710e+001  -5.932235e+001 
3800000000  -2.960264e+001  -6.293125e+001 
3803125000  -3.032763e+001  -7.052879e+001 
3806250000  -3.105615e+001  -7.371390e+001 
3809375000  -3.081029e+001  -7.508987e+001 
3812500000  -3.008466e+001  -8.003770e+001 
3815625000  -3.070193e+001  -8.819766e+001 
3818750000  -3.173875e+001  -8.926122e+001 
3821875000  -3.177604e+001  -8.099664e+001 
3825000000  -2.992163e+001  -7.637852e+001 
3828125000  -2.855661e+001  -9.062281e+001 
3831250000  -2.911082e+001  -1.054340e+002 
3834375000  -3.054466e+001  -1.065400e+002 
3837500000  -3.139943e+001  -1.016122e+002 
3840625000  -3.047143e+001  -1.018400e+002 
3843750000  -2.933755e+001  -1.125110e+002 
3846875000  -3.009621e+001  -1.192757e+002 
3850000000  -3.138513e+001  -1.134920e+002 
3853125000  -3.059414e+001  -1.109249e+002 
3856250000  -3.065801e+001  -1.149798e+002 
3859375000  -2.996070e+001  -1.196758e+002 
3862500000  -2.952552e+001  -1.257949e+002 
3865625000  -2.985301e+001  -1.301014e+002 
3868750000  -2.983293e+001  -1.305211e+002 
3871875000  -2.915999e+001  -1.327060e+002 
3875000000  -2.922163e+001  -1.410199e+002 
3878125000  -3.022482e+001  -1.429786e+002 
3881250000  -3.034133e+001  -1.399455e+002 
3884375000  -2.966907e+001  -1.445360e+002 
3887500000  -2.978046e+001  -1.480060e+002 
3890625000  -3.029288e+001  -1.496606e+002 
3893750000  -3.059796e+001  -1.515168e+002 
3896875000  -3.070472e+001  -1.504768e+002 
3900000000  -3.083673e+001  -1.510999e+002 
3903125000  -3.050169e+001  -1.533195e+002 
3906250000  -3.007125e+001  -1.543271e+002 
3909375000  -2.939595e+001  -1.567475e+002 
3912500000  -2.935516e+001  -1.649983e+002 
3915625000  -3.047208e+001  -1.642805e+002 
3918750000  -3.043441e+001  -1.631676e+002 
3921875000  -3.006968e+001  -1.641495e+002 
3925000000  -2.923422e+001  -1.657563e+002 
3928125000  -2.844049e+001  -1.718360e+002 
3931250000  -2.890931e+001  -1.765178e+002 
3934375000  -2.915690e+001  -1.764311e+002 
3937500000  -2.925382e+001  -1.779270e+002 
3940625000  -2.974828e+001  -1.783321e+002 
3943750000  -2.888112e+001  -1.768010e+002 
3946875000  -2.769279e+001  1.774925e+002 
3950000000  -2.824229e+001  1.700651e+002 
3953125000  -2.920544e+001  1.702701e+002 
3956250000  -2.837606e+001  1.730500e+002 
3959375000  -2.709176e+001  1.695614e+002 
3962500000  -2.668908e+001  1.648120e+002 
3965625000  -2.638803e+001  1.566388e+002 
3968750000  -2.731863e+001  1.498520e+002 
3971875000  -2.781483e+001  1.486746e+002 
3975000000  -2.726506e+001  1.464480e+002 
3978125000  -2.704738e+001  1.458875e+002 
3981250000  -2.685464e+001  1.418250e+002 
3984375000  -2.703266e+001  1.359154e+002 
3987500000  -2.764551e+001  1.341935e+002 
3990625000  -2.762688e+001  1.336618e+002 
3993750000  -2.784860e+001  1.312167e+002 
3996875000  -2.779243e+001  1.291579e+002 
4000000000  -2.788632e+001  1.276256e+002 
4003125000  -2.848969e+001  1.304061e+002 
4006250000  -2.709047e+001  1.312394e+002 
4009375000  -2.570824e+001  1.195381e+002 
4012500000  -2.669605e+001  1.127426e+002 
4015625000  -2.787006e+001  1.130035e+002 
4018750000  -2.803102e+001  1.157171e+002 
4021875000  -2.722082e+001  1.139870e+002 
4025000000  -2.674144e+001  1.091786e+002 
4028125000  -2.666869e+001  1.050447e+002 
4031250000  -2.699346e+001  1.017813e+002 
4034375000  -2.717269e+001  1.011599e+002 
4037500000  -2.665019e+001  1.027433e+002 
4040625000  -2.648029e+001  9.917637e+001 
4043750000  -2.683766e+001  9.865463e+001 
4046875000  -2.627509e+001  9.746146e+001 
4050000000  -2.571953e+001  9.140403e+001 
4053125000  -2.627282e+001  8.839309e+001 
4056250000  -2.687723e+001  9.235052e+001 
4059375000  -2.575012e+001  9.363818e+001 
4062500000  -2.438736e+001  8.902813e+001 
4065625000  -2.429215e+001  8.442143e+001 
4068750000  -2.398814e+001  7.948219e+001 
4071875000  -2.332767e+001  7.101067e+001 
4075000000  -2.372165e+001  6.451840e+001 
4078125000  -2.429156e+001  6.303762e+001 
4081250000  -2.386752e+001  6.053147e+001 
4084375000  -2.357088e+001  5.372292e+001 
4087500000  -2.390501e+001  4.719824e+001 
4090625000  -2.457558e+001  4.602762e+001 
4093750000  -2.451084e+001  4.707259e+001 
4096875000  -2.409937e+001  4.128188e+001 
4100000000  -2.478560e+001  3.490828e+001 
4103125000  -2.566413e+001  3.565432e+001 
4106250000  -2.554855e+001  4.078358e+001 
4109375000  -2.469356e+001  3.999614e+001 
4112500000  -2.420213e+001  3.413000e+001 
4115625000  -2.452049e+001  2.999294e+001 
4118750000  -2.465738e+001  2.749992e+001 
4121875000  -2.434136e+001  2.304003e+001 
4125000000  -2.464466e+001  1.863129e+001 
4128125000  -2.566820e+001  1.999942e+001 
4131250000  -2.519354e+001  2.813067e+001 
4134375000  -2.284791e+001  2.377468e+001 
4137500000  -2.261245e+001  4.788541e+000 
4140625000  -2.473124e+001  -1.979566e+000 
4143750000  -2.602369e+001  3.026186e+000 
4146875000  -2.542588e+001  1.028092e+001 
4150000000  -2.453019e+001  7.328655e+000 
4153125000  -2.429608e+001  3.950755e-001 
4156250000  -2.512674e+001  -2.131738e+000 
4159375000  -2.540493e+001  2.021845e+000 
4162500000  -2.413271e+001  6.041793e+000 
4165625000  -2.299980e+001  1.938441e+000 
4168750000  -2.229450e+001  -5.372765e+000 
4171875000  -2.218991e+001  -1.502316e+001 
4175000000  -2.273485e+001  -2.127470e+001 
4178125000  -2.330579e+001  -2.198108e+001 
4181250000  -2.321243e+001  -2.300463e+001 
4184375000  -2.304320e+001  -2.674780e+001 
4187500000  -2.310904e+001  -2.995899e+001 
4190625000  -2.295657e+001  -3.563107e+001 
4193750000  -2.377700e+001  -3.998290e+001 
4196875000  -2.456710e+001  -4.023037e+001 
4200000000  -2.535800e+001  -3.814952e+001 
4203125000  -2.541501e+001  -2.518181e+001 
4206250000  -2.223381e+001  -2.382376e+001 
4209375000  -2.109020e+001  -4.455510e+001 
4212500000  -2.305792e+001  -5.316478e+001 
4215625000  -2.404104e+001  -4.608669e+001 
4218750000  -2.261745e+001  -3.982658e+001 
4221875000  -2.038741e+001  -4.957380e+001 
4225000000  -2.167565e+001  -6.232989e+001 
4228125000  -2.240098e+001  -5.737343e+001 
4231250000  -2.100898e+001  -6.051311e+001 
4234375000  -2.090083e+001  -6.883128e+001 
4237500000  -2.052511e+001  -7.213157e+001 
4240625000  -2.060124e+001  -8.047681e+001 
4243750000  -2.162768e+001  -8.644823e+001 
4246875000  -2.240815e+001  -8.597322e+001 
4250000000  -2.245118e+001  -8.279484e+001 
4253125000  -2.187516e+001  -8.484763e+001 
4256250000  -2.205898e+001  -8.867058e+001 
4259375000  -2.185020e+001  -9.041320e+001 
4262500000  -2.186288e+001  -9.399600e+001 
4265625000  -2.195115e+001  -9.337721e+001 
4268750000  -2.110417e+001  -9.718796e+001 
4271875000  -2.073249e+001  -1.022704e+002 
4275000000  -2.010425e+001  -1.089721e+002 
4278125000  -2.055933e+001  -1.204357e+002 
4281250000  -2.221841e+001  -1.226491e+002 
4284375000  -2.205240e+001  -1.228297e+002 
4287500000  -2.284630e+001  -1.261617e+002 
4290625000  -2.409443e+001  -1.161789e+002 
4293750000  -2.209670e+001  -1.102875e+002 
4296875000  -2.062451e+001  -1.221032e+002 
4300000000  -2.142978e+001  -1.313989e+002 
4303125000  -2.244698e+001  -1.304254e+002 
4306250000  -2.176364e+001  -1.252708e+002 
4309375000  -2.039574e+001  -1.280372e+002 
4312500000  -2.031471e+001  -1.366885e+002 
4315625000  -2.062928e+001  -1.432391e+002 
4318750000  -2.090876e+001  -1.467022e+002 
4321875000  -2.108313e+001  -1.465472e+002 
4325000000  -2.048556e+001  -1.466973e+002 
4328125000  -2.001561e+001  -1.535080e+002 
4331250000  -2.008445e+001  -1.617708e+002 
4334375000  -2.050779e+001  -1.668524e+002 
4337500000  -2.134962e+001  -1.689408e+002 
4340625000  -2.186156e+001  -1.662220e+002 
4343750000  -2.140860e+001  -1.659037e+002 
4346875000  -2.104951e+001  -1.711478e+002 
4350000000  -2.098380e+001  -1.758016e+002 
4353125000  -2.108757e+001  1.762199e+002 
4356250000  -2.289988e+001  1.746519e+002 
4359375000  -2.357008e+001  -1.722034e+002 
4362500000  -2.105457e+001  -1.693604e+002 
4365625000  -1.948439e+001  1.788593e+002 
4368750000  -2.016565e+001  1.674388e+002 
4371875000  -2.134312e+001  1.679560e+002 
4375000000  -2.107545e+001  1.694337e+002 
4378125000  -2.048355e+001  1.640215e+002 
4381250000  -2.060921e+001  1.587782e+002 
4384375000  -2.042255e+001  1.543784e+002 
4387500000  -2.106775e+001  1.487305e+002 
4390625000  -2.211775e+001  1.495019e+002 
4393750000  -2.148173e+001  1.520947e+002 
4396875000  -2.084773e+001  1.499381e+002 
4400000000  -2.032933e+001  1.436085e+002 
4403125000  -2.076327e+001  1.360698e+002 
4406250000  -2.159626e+001  1.349450e+002 
4409375000  -2.150393e+001  1.323208e+002 
4412500000  -2.239382e+001  1.296561e+002 
4415625000  -2.282702e+001  1.342498e+002 
4418750000  -2.169695e+001  1.392890e+002 
4421875000  -2.025255e+001  1.354669e+002 
