!Agilent Technologies,E8363B,MY43030201,A.06.04.32
!Agilent E8363B: A.06.04.32
!Date: Tuesday, November 11, 2014 20:55:24
!Correction: S21(Response(S21)) 
!S1P File: Measurement: S21:
# Hz S  dB   R 50
3000000000  -2.648472e+001  1.487426e+002 
3003125000  -2.790575e+001  1.435222e+002 
3006250000  -2.795912e+001  1.417914e+002 
3009375000  -2.832047e+001  1.466133e+002 
3012500000  -2.781614e+001  1.458279e+002 
3015625000  -2.682542e+001  1.389563e+002 
3018750000  -2.770590e+001  1.382386e+002 
3021875000  -2.638935e+001  1.395096e+002 
3025000000  -2.511567e+001  1.366257e+002 
3028125000  -2.414350e+001  1.313643e+002 
3031250000  -2.307828e+001  1.201396e+002 
3034375000  -2.273543e+001  1.070485e+002 
3037500000  -2.312284e+001  9.498817e+001 
3040625000  -2.443743e+001  9.022198e+001 
3043750000  -2.513927e+001  8.560819e+001 
3046875000  -2.529074e+001  7.970932e+001 
3050000000  -2.702199e+001  7.291911e+001 
3053125000  -2.707577e+001  7.908997e+001 
3056250000  -2.645676e+001  8.227644e+001 
3059375000  -2.666104e+001  8.174342e+001 
3062500000  -2.519053e+001  7.821905e+001 
3065625000  -2.494185e+001  7.221941e+001 
3068750000  -2.466969e+001  6.524047e+001 
3071875000  -2.461289e+001  6.248584e+001 
3075000000  -2.460743e+001  5.833695e+001 
3078125000  -2.429367e+001  5.398498e+001 
3081250000  -2.498593e+001  4.960781e+001 
3084375000  -2.419737e+001  4.622594e+001 
3087500000  -2.411135e+001  4.243234e+001 
3090625000  -2.380854e+001  3.253354e+001 
3093750000  -2.428708e+001  2.467757e+001 
3096875000  -2.554059e+001  1.892211e+001 
3100000000  -2.568631e+001  1.758574e+001 
3103125000  -2.607269e+001  1.886088e+001 
3106250000  -2.575570e+001  1.511438e+001 
3109375000  -2.600446e+001  1.187977e+001 
3112500000  -2.615281e+001  1.037582e+001 
3115625000  -2.597691e+001  6.584757e+000 
3118750000  -2.643708e+001  7.636368e+000 
3121875000  -2.576086e+001  -3.593848e-001 
3125000000  -2.698672e+001  -3.710887e+000 
3128125000  -2.818398e+001  4.337255e+000 
3131250000  -2.593902e+001  4.763630e+000 
3134375000  -2.463677e+001  -8.803856e+000 
3137500000  -2.528105e+001  -2.235386e+001 
3140625000  -2.688256e+001  -2.384294e+001 
3143750000  -2.793064e+001  -2.003868e+001 
3146875000  -2.747756e+001  -1.776284e+001 
3150000000  -2.647031e+001  -1.604897e+001 
3153125000  -2.645735e+001  -2.368828e+001 
3156250000  -2.749463e+001  -1.802532e+001 
3159375000  -2.586046e+001  -1.529293e+001 
3162500000  -2.388411e+001  -2.831281e+001 
3165625000  -2.479736e+001  -3.912547e+001 
3168750000  -2.515755e+001  -3.822920e+001 
3171875000  -2.421624e+001  -4.221278e+001 
3175000000  -2.489116e+001  -5.019351e+001 
3178125000  -2.465290e+001  -4.852258e+001 
3181250000  -2.348435e+001  -5.262535e+001 
3184375000  -2.269414e+001  -6.494997e+001 
3187500000  -2.383584e+001  -7.976658e+001 
3190625000  -2.660909e+001  -8.744465e+001 
3193750000  -2.716452e+001  -7.754775e+001 
3196875000  -2.677779e+001  -7.219674e+001 
3200000000  -2.585640e+001  -7.441642e+001 
3203125000  -2.501858e+001  -7.968439e+001 
3206250000  -2.531535e+001  -8.624281e+001 
3209375000  -2.480923e+001  -9.125356e+001 
3212500000  -2.499279e+001  -9.780461e+001 
3215625000  -2.511575e+001  -1.019741e+002 
3218750000  -2.589160e+001  -1.085250e+002 
3221875000  -2.679846e+001  -1.133828e+002 
3225000000  -2.643543e+001  -1.136911e+002 
3228125000  -2.674996e+001  -1.187285e+002 
3231250000  -2.750021e+001  -1.211263e+002 
3234375000  -2.732384e+001  -1.201634e+002 
3237500000  -2.738628e+001  -1.220290e+002 
3240625000  -2.702333e+001  -1.237487e+002 
3243750000  -2.671046e+001  -1.302909e+002 
3246875000  -2.713444e+001  -1.368504e+002 
3250000000  -2.762888e+001  -1.386616e+002 
3253125000  -2.782054e+001  -1.399445e+002 
3256250000  -2.766831e+001  -1.460456e+002 
3259375000  -2.796854e+001  -1.537110e+002 
3262500000  -2.921198e+001  -1.564159e+002 
3265625000  -2.993121e+001  -1.530158e+002 
3268750000  -2.986722e+001  -1.503638e+002 
3271875000  -2.963342e+001  -1.492954e+002 
3275000000  -2.854492e+001  -1.544779e+002 
3278125000  -2.901190e+001  -1.605195e+002 
3281250000  -2.928834e+001  -1.591197e+002 
3284375000  -2.880837e+001  -1.646619e+002 
3287500000  -2.900405e+001  -1.676274e+002 
3290625000  -2.944587e+001  -1.722417e+002 
3293750000  -2.910910e+001  -1.772369e+002 
3296875000  -3.021148e+001  -1.770901e+002 
3300000000  -3.004058e+001  -1.763771e+002 
3303125000  -2.886635e+001  -1.799061e+002 
3306250000  -2.865578e+001  1.733296e+002 
3309375000  -2.838121e+001  1.681508e+002 
3312500000  -2.851138e+001  1.575050e+002 
3315625000  -2.943880e+001  1.498858e+002 
3318750000  -3.089871e+001  1.470562e+002 
3321875000  -3.206048e+001  1.470200e+002 
3325000000  -3.253868e+001  1.532067e+002 
3328125000  -3.237537e+001  1.546397e+002 
3331250000  -3.109894e+001  1.620838e+002 
3334375000  -2.849763e+001  1.518816e+002 
3337500000  -2.865874e+001  1.334355e+002 
3340625000  -3.009014e+001  1.223903e+002 
3343750000  -3.194515e+001  1.210055e+002 
3346875000  -3.254977e+001  1.232223e+002 
3350000000  -3.177683e+001  1.221277e+002 
3353125000  -3.197336e+001  1.174759e+002 
3356250000  -3.167061e+001  1.091913e+002 
3359375000  -3.245991e+001  1.012405e+002 
3362500000  -3.378489e+001  9.558033e+001 
3365625000  -3.440184e+001  9.474044e+001 
3368750000  -3.533305e+001  9.293414e+001 
3371875000  -3.575440e+001  8.930229e+001 
3375000000  -3.735744e+001  8.771152e+001 
3378125000  -3.826957e+001  8.687701e+001 
3381250000  -3.989959e+001  9.446901e+001 
3384375000  -3.898707e+001  1.160722e+002 
3387500000  -3.569451e+001  1.022249e+002 
3390625000  -3.773820e+001  8.359361e+001 
3393750000  -3.948947e+001  8.766524e+001 
3396875000  -3.871543e+001  9.160662e+001 
3400000000  -3.858563e+001  8.354372e+001 
3403125000  -3.940302e+001  7.985853e+001 
3406250000  -4.057644e+001  8.200607e+001 
3409375000  -4.101741e+001  7.718864e+001 
3412500000  -4.196773e+001  8.004091e+001 
3415625000  -4.247661e+001  8.324216e+001 
3418750000  -4.287955e+001  8.677468e+001 
3421875000  -4.311610e+001  9.526228e+001 
3425000000  -4.210436e+001  9.578148e+001 
3428125000  -4.142074e+001  9.628578e+001 
3431250000  -4.134986e+001  9.179818e+001 
3434375000  -4.116211e+001  8.928710e+001 
3437500000  -4.157369e+001  8.585174e+001 
3440625000  -4.172499e+001  9.285620e+001 
3443750000  -4.043999e+001  9.306931e+001 
3446875000  -3.980024e+001  8.729899e+001 
3450000000  -3.943634e+001  7.838919e+001 
3453125000  -3.984290e+001  6.970721e+001 
3456250000  -4.099990e+001  6.508745e+001 
3459375000  -4.215137e+001  6.662002e+001 
3462500000  -4.219216e+001  6.845140e+001 
3465625000  -4.211338e+001  6.303989e+001 
3468750000  -4.255025e+001  5.995070e+001 
3471875000  -4.265910e+001  6.262760e+001 
3475000000  -4.254850e+001  5.623848e+001 
3478125000  -4.296563e+001  5.061294e+001 
3481250000  -4.472640e+001  5.030793e+001 
3484375000  -4.559710e+001  5.678834e+001 
3487500000  -4.541648e+001  5.990335e+001 
3490625000  -4.522379e+001  5.672842e+001 
3493750000  -4.599244e+001  5.383195e+001 
3496875000  -4.694377e+001  5.563395e+001 
3500000000  -4.784549e+001  5.903910e+001 
3503125000  -4.759063e+001  6.648367e+001 
3506250000  -4.659012e+001  6.733848e+001 
3509375000  -4.641527e+001  6.065241e+001 
3512500000  -4.729432e+001  6.105226e+001 
3515625000  -4.828947e+001  6.598920e+001 
3518750000  -4.860473e+001  7.063084e+001 
3521875000  -4.782396e+001  7.848171e+001 
3525000000  -4.815259e+001  7.373038e+001 
3528125000  -4.771243e+001  8.817799e+001 
3531250000  -4.621796e+001  8.820954e+001 
3534375000  -4.540389e+001  8.124932e+001 
3537500000  -4.531771e+001  7.590398e+001 
3540625000  -4.576296e+001  7.502731e+001 
3543750000  -4.608498e+001  7.996835e+001 
3546875000  -4.555124e+001  9.252990e+001 
3550000000  -4.309498e+001  9.549837e+001 
3553125000  -4.166777e+001  7.934858e+001 
3556250000  -4.287197e+001  7.181297e+001 
3559375000  -4.234082e+001  7.417905e+001 
3562500000  -4.092523e+001  6.664721e+001 
3565625000  -4.201897e+001  6.010984e+001 
3568750000  -4.215350e+001  6.389904e+001 
3571875000  -4.200227e+001  6.606709e+001 
3575000000  -4.122068e+001  5.887021e+001 
3578125000  -4.162791e+001  5.675941e+001 
3581250000  -4.172497e+001  5.810538e+001 
3584375000  -4.069930e+001  5.524446e+001 
3587500000  -4.000641e+001  5.107532e+001 
3590625000  -4.059988e+001  4.094694e+001 
3593750000  -4.141445e+001  4.057241e+001 
3596875000  -4.158796e+001  4.921330e+001 
3600000000  -3.967128e+001  4.619187e+001 
3603125000  -4.006806e+001  3.120598e+001 
3606250000  -4.061470e+001  2.974690e+001 
3609375000  -4.102162e+001  2.950857e+001 
3612500000  -4.151107e+001  2.882450e+001 
3615625000  -4.164217e+001  2.538583e+001 
3618750000  -4.193789e+001  2.812614e+001 
3621875000  -4.159483e+001  2.580142e+001 
3625000000  -4.185453e+001  2.664126e+001 
3628125000  -4.167369e+001  2.749304e+001 
3631250000  -4.134635e+001  2.056351e+001 
3634375000  -4.244518e+001  2.242260e+001 
3637500000  -4.240530e+001  2.840607e+001 
3640625000  -4.094798e+001  2.841105e+001 
3643750000  -4.050822e+001  2.407165e+001 
3646875000  -4.106323e+001  1.864311e+001 
3650000000  -4.176906e+001  1.956699e+001 
3653125000  -4.127735e+001  1.783561e+001 
3656250000  -4.140950e+001  1.568798e+001 
3659375000  -4.190809e+001  2.024038e+001 
3662500000  -4.119749e+001  1.973103e+001 
3665625000  -4.141194e+001  1.969773e+001 
3668750000  -4.025914e+001  1.935858e+001 
3671875000  -3.917591e+001  1.434610e+001 
3675000000  -3.969043e+001  1.022404e+001 
3678125000  -4.037004e+001  1.139973e+001 
3681250000  -3.984423e+001  1.363870e+001 
3684375000  -3.954342e+001  9.448490e+000 
3687500000  -3.970789e+001  8.688391e+000 
3690625000  -3.974345e+001  7.030465e+000 
3693750000  -4.028210e+001  9.239705e+000 
3696875000  -4.019381e+001  1.180636e+001 
3700000000  -3.899470e+001  1.053652e+001 
3703125000  -3.871144e+001  5.335968e+000 
3706250000  -3.926687e+001  8.758186e+000 
3709375000  -3.877312e+001  1.218895e+001 
3712500000  -3.751133e+001  1.153480e+001 
3715625000  -3.640424e+001  5.737982e+000 
3718750000  -3.569040e+001  3.993907e+000 
3721875000  -3.530727e+001  -2.342097e+000 
3725000000  -3.515104e+001  -7.385458e+000 
3728125000  -3.535440e+001  -8.035903e+000 
3731250000  -3.466685e+001  -8.176281e+000 
3734375000  -3.379520e+001  -1.429347e+001 
3737500000  -3.425109e+001  -2.249799e+001 
3740625000  -3.479424e+001  -2.522222e+001 
3743750000  -3.451162e+001  -2.666882e+001 
3746875000  -3.453685e+001  -3.051391e+001 
3750000000  -3.491106e+001  -3.139731e+001 
3753125000  -3.451334e+001  -3.158426e+001 
3756250000  -3.453800e+001  -3.257775e+001 
3759375000  -3.414832e+001  -3.366279e+001 
3762500000  -3.377714e+001  -3.751026e+001 
3765625000  -3.413468e+001  -3.965091e+001 
3768750000  -3.430505e+001  -3.709383e+001 
3771875000  -3.237979e+001  -3.962247e+001 
3775000000  -3.229887e+001  -4.793215e+001 
3778125000  -3.253434e+001  -5.005330e+001 
3781250000  -3.228745e+001  -5.267149e+001 
3784375000  -3.218015e+001  -5.450674e+001 
3787500000  -3.167240e+001  -5.834248e+001 
3790625000  -3.218570e+001  -6.378139e+001 
3793750000  -3.233927e+001  -6.452754e+001 
3796875000  -3.142747e+001  -6.585271e+001 
3800000000  -2.984904e+001  -6.952291e+001 
3803125000  -3.073839e+001  -7.653219e+001 
3806250000  -3.137429e+001  -7.884382e+001 
3809375000  -3.102552e+001  -8.026788e+001 
3812500000  -3.042636e+001  -8.514138e+001 
3815625000  -3.104359e+001  -9.211224e+001 
3818750000  -3.196644e+001  -9.344823e+001 
3821875000  -3.209507e+001  -8.495189e+001 
3825000000  -3.002158e+001  -8.085580e+001 
3828125000  -2.875370e+001  -9.460595e+001 
3831250000  -2.924999e+001  -1.090949e+002 
3834375000  -3.073605e+001  -1.093605e+002 
3837500000  -3.149543e+001  -1.045322e+002 
3840625000  -3.049965e+001  -1.055591e+002 
3843750000  -2.919697e+001  -1.155732e+002 
3846875000  -2.999248e+001  -1.225795e+002 
3850000000  -3.117370e+001  -1.167514e+002 
3853125000  -3.039094e+001  -1.145999e+002 
3856250000  -3.044103e+001  -1.186379e+002 
3859375000  -2.967171e+001  -1.240099e+002 
3862500000  -2.925970e+001  -1.309940e+002 
3865625000  -2.956209e+001  -1.357117e+002 
3868750000  -2.953164e+001  -1.359375e+002 
3871875000  -2.878856e+001  -1.388906e+002 
3875000000  -2.897266e+001  -1.480579e+002 
3878125000  -2.993750e+001  -1.501417e+002 
3881250000  -3.002196e+001  -1.468853e+002 
3884375000  -2.949755e+001  -1.518638e+002 
3887500000  -2.966548e+001  -1.557093e+002 
3890625000  -3.022235e+001  -1.590611e+002 
3893750000  -3.060001e+001  -1.597164e+002 
3896875000  -3.068894e+001  -1.589553e+002 
3900000000  -3.102801e+001  -1.606684e+002 
3903125000  -3.060185e+001  -1.618320e+002 
3906250000  -3.038380e+001  -1.626857e+002 
3909375000  -2.967101e+001  -1.659176e+002 
3912500000  -2.968020e+001  -1.733074e+002 
3915625000  -3.081419e+001  -1.720823e+002 
3918750000  -3.091489e+001  -1.711369e+002 
3921875000  -3.054205e+001  -1.728071e+002 
3925000000  -2.972869e+001  -1.728597e+002 
3928125000  -2.911357e+001  -1.785399e+002 
3931250000  -2.954362e+001  1.771167e+002 
3934375000  -2.979933e+001  1.777169e+002 
3937500000  -3.000763e+001  1.769827e+002 
3940625000  -3.043577e+001  1.770492e+002 
3943750000  -2.943597e+001  1.788522e+002 
3946875000  -2.822165e+001  1.731894e+002 
3950000000  -2.874926e+001  1.655528e+002 
3953125000  -2.971203e+001  1.665430e+002 
3956250000  -2.874419e+001  1.693971e+002 
3959375000  -2.738289e+001  1.663844e+002 
3962500000  -2.694335e+001  1.619747e+002 
3965625000  -2.666135e+001  1.530506e+002 
3968750000  -2.751936e+001  1.462803e+002 
3971875000  -2.794348e+001  1.454370e+002 
3975000000  -2.720901e+001  1.434755e+002 
3978125000  -2.705486e+001  1.417895e+002 
3981250000  -2.683002e+001  1.371648e+002 
3984375000  -2.704443e+001  1.312263e+002 
3987500000  -2.756048e+001  1.288676e+002 
3990625000  -2.755410e+001  1.284112e+002 
3993750000  -2.775084e+001  1.249963e+002 
3996875000  -2.773806e+001  1.227894e+002 
4000000000  -2.780230e+001  1.203035e+002 
4003125000  -2.835364e+001  1.226807e+002 
4006250000  -2.692014e+001  1.228482e+002 
4009375000  -2.577943e+001  1.107378e+002 
4012500000  -2.688649e+001  1.033755e+002 
4015625000  -2.813208e+001  1.043953e+002 
4018750000  -2.831951e+001  1.063382e+002 
4021875000  -2.755547e+001  1.046172e+002 
4025000000  -2.730860e+001  1.000834e+002 
4028125000  -2.716875e+001  9.618176e+001 
4031250000  -2.771623e+001  9.239731e+001 
4034375000  -2.799530e+001  9.259446e+001 
4037500000  -2.743518e+001  9.446664e+001 
4040625000  -2.743034e+001  9.073450e+001 
4043750000  -2.775787e+001  9.082595e+001 
4046875000  -2.730267e+001  9.040338e+001 
4050000000  -2.682351e+001  8.469083e+001 
4053125000  -2.724556e+001  8.242531e+001 
4056250000  -2.785643e+001  8.715688e+001 
4059375000  -2.659734e+001  8.903051e+001 
4062500000  -2.524536e+001  8.423225e+001 
4065625000  -2.511882e+001  7.964842e+001 
4068750000  -2.488427e+001  7.510682e+001 
4071875000  -2.419907e+001  6.729967e+001 
4075000000  -2.460340e+001  6.097885e+001 
4078125000  -2.515333e+001  6.014212e+001 
4081250000  -2.455412e+001  5.780613e+001 
4084375000  -2.422021e+001  5.091053e+001 
4087500000  -2.455658e+001  4.491718e+001 
4090625000  -2.515742e+001  4.381692e+001 
4093750000  -2.494613e+001  4.458762e+001 
4096875000  -2.452561e+001  3.858766e+001 
4100000000  -2.522438e+001  3.174035e+001 
4103125000  -2.605123e+001  3.228681e+001 
4106250000  -2.598649e+001  3.723327e+001 
4109375000  -2.504300e+001  3.699852e+001 
4112500000  -2.447833e+001  3.004121e+001 
4115625000  -2.481506e+001  2.565149e+001 
4118750000  -2.486846e+001  2.303490e+001 
4121875000  -2.451199e+001  1.825879e+001 
4125000000  -2.486773e+001  1.285230e+001 
4128125000  -2.594399e+001  1.318409e+001 
4131250000  -2.559946e+001  2.115529e+001 
4134375000  -2.324617e+001  1.671805e+001 
4137500000  -2.307274e+001  -2.078606e+000 
4140625000  -2.524116e+001  -9.262856e+000 
4143750000  -2.656168e+001  -4.024991e+000 
4146875000  -2.608155e+001  3.540000e+000 
4150000000  -2.514598e+001  -9.299668e-003 
4153125000  -2.501657e+001  -6.618075e+000 
4156250000  -2.591945e+001  -9.209330e+000 
4159375000  -2.617526e+001  -4.648685e+000 
4162500000  -2.503079e+001  -5.474411e-001 
4165625000  -2.394112e+001  -4.652415e+000 
4168750000  -2.329292e+001  -1.159777e+001 
4171875000  -2.329394e+001  -2.111896e+001 
4175000000  -2.390550e+001  -2.635271e+001 
4178125000  -2.450580e+001  -2.624905e+001 
4181250000  -2.435041e+001  -2.706134e+001 
4184375000  -2.422524e+001  -3.031361e+001 
4187500000  -2.426922e+001  -3.299192e+001 
4190625000  -2.411690e+001  -3.832476e+001 
4193750000  -2.489713e+001  -4.203293e+001 
4196875000  -2.563022e+001  -4.258551e+001 
4200000000  -2.651537e+001  -3.974974e+001 
4203125000  -2.648047e+001  -2.638044e+001 
4206250000  -2.305927e+001  -2.504859e+001 
4209375000  -2.192045e+001  -4.575195e+001 
4212500000  -2.383821e+001  -5.448777e+001 
4215625000  -2.486991e+001  -4.841570e+001 
4218750000  -2.346982e+001  -4.163454e+001 
4221875000  -2.118831e+001  -5.048389e+001 
4225000000  -2.244492e+001  -6.303763e+001 
4228125000  -2.312541e+001  -5.829539e+001 
4231250000  -2.152837e+001  -6.174872e+001 
4234375000  -2.144182e+001  -7.018959e+001 
4237500000  -2.100910e+001  -7.337703e+001 
4240625000  -2.104802e+001  -8.208317e+001 
4243750000  -2.201805e+001  -8.905877e+001 
4246875000  -2.288233e+001  -8.899355e+001 
4250000000  -2.294025e+001  -8.602341e+001 
4253125000  -2.238003e+001  -8.829576e+001 
4256250000  -2.266129e+001  -9.201176e+001 
4259375000  -2.236754e+001  -9.393042e+001 
4262500000  -2.240979e+001  -9.766801e+001 
4265625000  -2.257350e+001  -9.741675e+001 
4268750000  -2.168074e+001  -1.019430e+002 
4271875000  -2.142708e+001  -1.073132e+002 
4275000000  -2.083241e+001  -1.142143e+002 
4278125000  -2.141933e+001  -1.251257e+002 
4281250000  -2.321013e+001  -1.268842e+002 
4284375000  -2.289779e+001  -1.264755e+002 
4287500000  -2.373524e+001  -1.300500e+002 
4290625000  -2.492544e+001  -1.201683e+002 
4293750000  -2.296358e+001  -1.145828e+002 
4296875000  -2.160520e+001  -1.261674e+002 
4300000000  -2.249696e+001  -1.354020e+002 
4303125000  -2.360740e+001  -1.338674e+002 
4306250000  -2.291887e+001  -1.279946e+002 
4309375000  -2.154506e+001  -1.300235e+002 
4312500000  -2.146304e+001  -1.386113e+002 
4315625000  -2.167842e+001  -1.448678e+002 
4318750000  -2.202539e+001  -1.480956e+002 
4321875000  -2.216187e+001  -1.476295e+002 
4325000000  -2.153525e+001  -1.468989e+002 
4328125000  -2.105392e+001  -1.533943e+002 
4331250000  -2.101459e+001  -1.613248e+002 
4334375000  -2.148178e+001  -1.665553e+002 
4337500000  -2.229197e+001  -1.682471e+002 
4340625000  -2.283308e+001  -1.648250e+002 
4343750000  -2.222081e+001  -1.648555e+002 
4346875000  -2.189638e+001  -1.705093e+002 
4350000000  -2.184273e+001  -1.749119e+002 
4353125000  -2.189375e+001  1.770691e+002 
4356250000  -2.366840e+001  1.767173e+002 
4359375000  -2.426966e+001  -1.698027e+002 
4362500000  -2.156847e+001  -1.682131e+002 
4365625000  -1.990644e+001  1.795302e+002 
4368750000  -2.064258e+001  1.678287e+002 
4371875000  -2.183343e+001  1.687315e+002 
4375000000  -2.144864e+001  1.698252e+002 
4378125000  -2.085663e+001  1.638516e+002 
4381250000  -2.101213e+001  1.585917e+002 
4384375000  -2.083423e+001  1.539495e+002 
4387500000  -2.153415e+001  1.482177e+002 
4390625000  -2.259959e+001  1.489934e+002 
4393750000  -2.192445e+001  1.510339e+002 
4396875000  -2.125072e+001  1.488137e+002 
4400000000  -2.069351e+001  1.417380e+002 
4403125000  -2.129947e+001  1.343912e+002 
4406250000  -2.216598e+001  1.329698e+002 
4409375000  -2.213621e+001  1.306545e+002 
4412500000  -2.318054e+001  1.278960e+002 
4415625000  -2.352701e+001  1.328515e+002 
4418750000  -2.231686e+001  1.374648e+002 
