!Agilent Technologies,E8363B,MY43030201,A.06.04.32
!Agilent E8363B: A.06.04.32
!Date: Tuesday, November 11, 2014 20:49:03
!Correction: S21(Response(S21)) 
!S1P File: Measurement: S21:
# Hz S  dB   R 50
3000000000  -2.652864e+001  1.548036e+002 
3003125000  -2.792087e+001  1.503794e+002 
3006250000  -2.794377e+001  1.475715e+002 
3009375000  -2.832240e+001  1.525625e+002 
3012500000  -2.780221e+001  1.520596e+002 
3015625000  -2.684948e+001  1.454394e+002 
3018750000  -2.767565e+001  1.443000e+002 
3021875000  -2.642528e+001  1.458828e+002 
3025000000  -2.512279e+001  1.426431e+002 
3028125000  -2.414344e+001  1.378242e+002 
3031250000  -2.311714e+001  1.266766e+002 
3034375000  -2.274947e+001  1.136603e+002 
3037500000  -2.309172e+001  1.015849e+002 
3040625000  -2.445088e+001  9.659115e+001 
3043750000  -2.511004e+001  9.227423e+001 
3046875000  -2.522333e+001  8.582951e+001 
3050000000  -2.698288e+001  7.890054e+001 
3053125000  -2.713705e+001  8.526247e+001 
3056250000  -2.646791e+001  8.842876e+001 
3059375000  -2.669743e+001  8.815585e+001 
3062500000  -2.523701e+001  8.414811e+001 
3065625000  -2.502151e+001  7.848312e+001 
3068750000  -2.469593e+001  7.162331e+001 
3071875000  -2.466849e+001  6.876315e+001 
3075000000  -2.465479e+001  6.495055e+001 
3078125000  -2.437186e+001  6.036596e+001 
3081250000  -2.499010e+001  5.636943e+001 
3084375000  -2.424995e+001  5.253714e+001 
3087500000  -2.411802e+001  4.900444e+001 
3090625000  -2.384799e+001  3.934397e+001 
3093750000  -2.423706e+001  3.113008e+001 
3096875000  -2.556563e+001  2.515001e+001 
3100000000  -2.566778e+001  2.369881e+001 
3103125000  -2.607462e+001  2.511993e+001 
3106250000  -2.579900e+001  2.170537e+001 
3109375000  -2.600570e+001  1.808121e+001 
3112500000  -2.614985e+001  1.710066e+001 
3115625000  -2.594409e+001  1.278492e+001 
3118750000  -2.642229e+001  1.427113e+001 
3121875000  -2.579862e+001  5.990475e+000 
3125000000  -2.692764e+001  2.770620e+000 
3128125000  -2.813993e+001  1.047851e+001 
3131250000  -2.599500e+001  1.109244e+001 
3134375000  -2.464077e+001  -2.249390e+000 
3137500000  -2.528423e+001  -1.611213e+001 
3140625000  -2.689642e+001  -1.775226e+001 
3143750000  -2.792915e+001  -1.370625e+001 
3146875000  -2.748171e+001  -1.169205e+001 
3150000000  -2.647765e+001  -9.261020e+000 
3153125000  -2.645946e+001  -1.705044e+001 
3156250000  -2.746825e+001  -1.186358e+001 
3159375000  -2.592727e+001  -9.048127e+000 
3162500000  -2.387216e+001  -2.171227e+001 
3165625000  -2.478510e+001  -3.262175e+001 
3168750000  -2.519703e+001  -3.177022e+001 
3171875000  -2.426311e+001  -3.588702e+001 
3175000000  -2.487997e+001  -4.361454e+001 
3178125000  -2.469397e+001  -4.211674e+001 
3181250000  -2.350169e+001  -4.607459e+001 
3184375000  -2.269465e+001  -5.823749e+001 
3187500000  -2.377787e+001  -7.365372e+001 
3190625000  -2.659737e+001  -8.117405e+001 
3193750000  -2.717355e+001  -7.140888e+001 
3196875000  -2.678528e+001  -6.610418e+001 
3200000000  -2.595352e+001  -6.793996e+001 
3203125000  -2.502330e+001  -7.342954e+001 
3206250000  -2.529831e+001  -7.969482e+001 
3209375000  -2.485336e+001  -8.464545e+001 
3212500000  -2.494717e+001  -9.136007e+001 
3215625000  -2.510161e+001  -9.580824e+001 
3218750000  -2.586175e+001  -1.019070e+002 
3221875000  -2.687101e+001  -1.070145e+002 
3225000000  -2.648683e+001  -1.074958e+002 
3228125000  -2.671872e+001  -1.119699e+002 
3231250000  -2.751864e+001  -1.149334e+002 
3234375000  -2.741036e+001  -1.140051e+002 
3237500000  -2.743463e+001  -1.153123e+002 
3240625000  -2.707865e+001  -1.170200e+002 
3243750000  -2.671623e+001  -1.236822e+002 
3246875000  -2.718053e+001  -1.302478e+002 
3250000000  -2.764640e+001  -1.322461e+002 
3253125000  -2.782650e+001  -1.337155e+002 
3256250000  -2.765596e+001  -1.396261e+002 
3259375000  -2.796158e+001  -1.472483e+002 
3262500000  -2.925619e+001  -1.502133e+002 
3265625000  -2.991426e+001  -1.465812e+002 
3268750000  -2.996852e+001  -1.443375e+002 
3271875000  -2.968979e+001  -1.434108e+002 
3275000000  -2.857263e+001  -1.481424e+002 
3278125000  -2.902382e+001  -1.544630e+002 
3281250000  -2.936547e+001  -1.523085e+002 
3284375000  -2.888765e+001  -1.585765e+002 
3287500000  -2.902257e+001  -1.613562e+002 
3290625000  -2.942887e+001  -1.654970e+002 
3293750000  -2.919023e+001  -1.710099e+002 
3296875000  -3.011394e+001  -1.714792e+002 
3300000000  -3.013934e+001  -1.699205e+002 
3303125000  -2.890475e+001  -1.741655e+002 
3306250000  -2.867898e+001  1.794970e+002 
3309375000  -2.853340e+001  1.748203e+002 
3312500000  -2.848745e+001  1.647100e+002 
3315625000  -2.948268e+001  1.563075e+002 
3318750000  -3.090355e+001  1.537853e+002 
3321875000  -3.198693e+001  1.538169e+002 
3325000000  -3.262040e+001  1.583520e+002 
3328125000  -3.254801e+001  1.597536e+002 
3331250000  -3.130644e+001  1.676552e+002 
3334375000  -2.868669e+001  1.579864e+002 
3337500000  -2.878492e+001  1.400710e+002 
3340625000  -3.014457e+001  1.286760e+002 
3343750000  -3.208944e+001  1.276332e+002 
3346875000  -3.258986e+001  1.287543e+002 
3350000000  -3.192447e+001  1.279243e+002 
3353125000  -3.208730e+001  1.233122e+002 
3356250000  -3.175709e+001  1.157379e+002 
3359375000  -3.261531e+001  1.072487e+002 
3362500000  -3.389505e+001  1.020024e+002 
3365625000  -3.453364e+001  1.001302e+002 
3368750000  -3.556662e+001  9.850782e+001 
3371875000  -3.580453e+001  9.575191e+001 
3375000000  -3.734772e+001  9.296284e+001 
3378125000  -3.847336e+001  9.212632e+001 
3381250000  -4.013956e+001  9.875214e+001 
3384375000  -3.951607e+001  1.217313e+002 
3387500000  -3.607714e+001  1.089235e+002 
3390625000  -3.798611e+001  8.692997e+001 
3393750000  -3.970509e+001  9.314672e+001 
3396875000  -3.894578e+001  9.668833e+001 
3400000000  -3.876977e+001  8.923029e+001 
3403125000  -3.979429e+001  8.521999e+001 
3406250000  -4.062478e+001  8.725754e+001 
3409375000  -4.151653e+001  8.615149e+001 
3412500000  -4.226323e+001  8.403013e+001 
3415625000  -4.303299e+001  8.968768e+001 
3418750000  -4.341092e+001  9.345930e+001 
3421875000  -4.345885e+001  1.016926e+002 
3425000000  -4.311313e+001  1.030959e+002 
3428125000  -4.198205e+001  1.026089e+002 
3431250000  -4.171525e+001  9.895865e+001 
3434375000  -4.149353e+001  9.593842e+001 
3437500000  -4.189963e+001  9.563296e+001 
3440625000  -4.247367e+001  9.694906e+001 
3443750000  -4.103452e+001  9.918231e+001 
3446875000  -4.017066e+001  9.539630e+001 
3450000000  -4.009372e+001  8.534074e+001 
3453125000  -4.023888e+001  7.716245e+001 
3456250000  -4.138070e+001  7.195169e+001 
3459375000  -4.260727e+001  7.619564e+001 
3462500000  -4.236106e+001  7.505489e+001 
3465625000  -4.262593e+001  7.266360e+001 
3468750000  -4.290813e+001  7.024866e+001 
3471875000  -4.310147e+001  7.116397e+001 
3475000000  -4.283918e+001  6.602100e+001 
3478125000  -4.383573e+001  6.080784e+001 
3481250000  -4.478980e+001  5.986690e+001 
3484375000  -4.618602e+001  6.553535e+001 
3487500000  -4.577336e+001  6.794321e+001 
3490625000  -4.537008e+001  6.567458e+001 
3493750000  -4.603447e+001  6.173818e+001 
3496875000  -4.702881e+001  6.390014e+001 
3500000000  -4.810869e+001  7.046706e+001 
3503125000  -4.756725e+001  7.660855e+001 
3506250000  -4.659627e+001  7.409351e+001 
3509375000  -4.701839e+001  7.494994e+001 
3512500000  -4.735833e+001  7.231551e+001 
3515625000  -4.808577e+001  7.645500e+001 
3518750000  -4.830387e+001  8.023029e+001 
3521875000  -4.782845e+001  8.353769e+001 
3525000000  -4.794617e+001  8.655244e+001 
3528125000  -4.739888e+001  9.899176e+001 
3531250000  -4.579750e+001  9.890385e+001 
3534375000  -4.515447e+001  8.848602e+001 
3537500000  -4.514410e+001  8.632046e+001 
3540625000  -4.540145e+001  8.706923e+001 
3543750000  -4.573186e+001  9.243730e+001 
3546875000  -4.517624e+001  1.017464e+002 
3550000000  -4.275005e+001  1.023687e+002 
3553125000  -4.143560e+001  8.849145e+001 
3556250000  -4.252315e+001  8.233313e+001 
3559375000  -4.221421e+001  8.573723e+001 
3562500000  -4.103115e+001  7.693206e+001 
3565625000  -4.184091e+001  7.035218e+001 
3568750000  -4.157830e+001  7.394441e+001 
3571875000  -4.143457e+001  7.380717e+001 
3575000000  -4.113874e+001  6.903657e+001 
3578125000  -4.164451e+001  6.501789e+001 
3581250000  -4.145081e+001  6.421094e+001 
3584375000  -4.052995e+001  6.543102e+001 
3587500000  -3.973056e+001  6.010519e+001 
3590625000  -4.031070e+001  5.014159e+001 
3593750000  -4.147448e+001  4.879158e+001 
3596875000  -4.130676e+001  5.527233e+001 
3600000000  -3.961981e+001  5.266299e+001 
3603125000  -3.988263e+001  4.084696e+001 
3606250000  -4.050051e+001  3.859699e+001 
3609375000  -4.087343e+001  3.647203e+001 
3612500000  -4.122990e+001  3.531638e+001 
3615625000  -4.115808e+001  3.316211e+001 
3618750000  -4.198351e+001  3.391891e+001 
3621875000  -4.160105e+001  3.278056e+001 
3625000000  -4.150783e+001  3.176107e+001 
3628125000  -4.173209e+001  3.288937e+001 
3631250000  -4.129855e+001  2.908429e+001 
3634375000  -4.248151e+001  3.084050e+001 
3637500000  -4.196886e+001  3.517092e+001 
3640625000  -4.099566e+001  3.696994e+001 
3643750000  -4.084763e+001  3.086817e+001 
3646875000  -4.113394e+001  2.489050e+001 
3650000000  -4.185967e+001  2.461103e+001 
3653125000  -4.139144e+001  2.418948e+001 
3656250000  -4.167134e+001  2.383393e+001 
3659375000  -4.209911e+001  2.743102e+001 
3662500000  -4.126480e+001  2.588388e+001 
3665625000  -4.129089e+001  2.681241e+001 
3668750000  -4.024915e+001  2.973864e+001 
3671875000  -3.942468e+001  2.442033e+001 
3675000000  -3.989569e+001  1.781709e+001 
3678125000  -4.044530e+001  1.918711e+001 
3681250000  -3.990692e+001  2.054682e+001 
3684375000  -3.978410e+001  1.792108e+001 
3687500000  -3.986843e+001  1.790754e+001 
3690625000  -3.987749e+001  1.360363e+001 
3693750000  -4.032269e+001  1.736597e+001 
3696875000  -4.047370e+001  1.960885e+001 
3700000000  -3.901102e+001  1.746282e+001 
3703125000  -3.902139e+001  1.556284e+001 
3706250000  -3.926985e+001  1.639196e+001 
3709375000  -3.857469e+001  1.920525e+001 
3712500000  -3.762201e+001  1.930596e+001 
3715625000  -3.638937e+001  1.319807e+001 
3718750000  -3.575974e+001  1.170411e+001 
3721875000  -3.520837e+001  6.079846e+000 
3725000000  -3.525764e+001  7.620263e-001 
3728125000  -3.555750e+001  -5.383047e-001 
3731250000  -3.466573e+001  2.256581e-002 
3734375000  -3.383078e+001  -6.496476e+000 
3737500000  -3.433632e+001  -1.391322e+001 
3740625000  -3.506534e+001  -1.685022e+001 
3743750000  -3.487666e+001  -1.871053e+001 
3746875000  -3.454407e+001  -2.210975e+001 
3750000000  -3.500185e+001  -2.314720e+001 
3753125000  -3.473022e+001  -2.312524e+001 
3756250000  -3.472279e+001  -2.418494e+001 
3759375000  -3.441521e+001  -2.510882e+001 
3762500000  -3.379905e+001  -2.912498e+001 
3765625000  -3.420605e+001  -3.193523e+001 
3768750000  -3.438988e+001  -2.974353e+001 
3771875000  -3.251791e+001  -3.177270e+001 
3775000000  -3.237817e+001  -3.975917e+001 
3778125000  -3.267781e+001  -4.154657e+001 
3781250000  -3.244314e+001  -4.458939e+001 
3784375000  -3.244661e+001  -4.530357e+001 
3787500000  -3.173288e+001  -4.939129e+001 
3790625000  -3.222140e+001  -5.491148e+001 
3793750000  -3.238866e+001  -5.532019e+001 
3796875000  -3.157325e+001  -5.720782e+001 
3800000000  -3.007020e+001  -6.050922e+001 
3803125000  -3.083672e+001  -6.701676e+001 
3806250000  -3.141822e+001  -6.984302e+001 
3809375000  -3.112889e+001  -7.053219e+001 
3812500000  -3.042253e+001  -7.562252e+001 
3815625000  -3.106058e+001  -8.319351e+001 
3818750000  -3.205434e+001  -8.449551e+001 
3821875000  -3.208828e+001  -7.608932e+001 
3825000000  -3.024537e+001  -7.210990e+001 
3828125000  -2.891490e+001  -8.518101e+001 
3831250000  -2.932940e+001  -9.964378e+001 
3834375000  -3.067206e+001  -1.005200e+002 
3837500000  -3.153484e+001  -9.587082e+001 
3840625000  -3.059548e+001  -9.650891e+001 
3843750000  -2.924642e+001  -1.065051e+002 
3846875000  -2.996427e+001  -1.141221e+002 
3850000000  -3.128021e+001  -1.079811e+002 
3853125000  -3.044364e+001  -1.059591e+002 
3856250000  -3.040792e+001  -1.100860e+002 
3859375000  -2.981836e+001  -1.148660e+002 
3862500000  -2.927759e+001  -1.222053e+002 
3865625000  -2.960028e+001  -1.268553e+002 
3868750000  -2.954125e+001  -1.279406e+002 
3871875000  -2.891092e+001  -1.300331e+002 
3875000000  -2.907799e+001  -1.386611e+002 
3878125000  -2.998656e+001  -1.410391e+002 
3881250000  -3.019638e+001  -1.385808e+002 
3884375000  -2.959776e+001  -1.430542e+002 
3887500000  -2.979333e+001  -1.468408e+002 
3890625000  -3.033945e+001  -1.494223e+002 
3893750000  -3.064024e+001  -1.511046e+002 
3896875000  -3.076909e+001  -1.500270e+002 
3900000000  -3.104666e+001  -1.515433e+002 
3903125000  -3.067241e+001  -1.527762e+002 
3906250000  -3.043891e+001  -1.539000e+002 
3909375000  -2.970443e+001  -1.558676e+002 
3912500000  -2.968704e+001  -1.633839e+002 
3915625000  -3.102355e+001  -1.632662e+002 
3918750000  -3.099395e+001  -1.613684e+002 
3921875000  -3.060323e+001  -1.627824e+002 
3925000000  -2.986333e+001  -1.638856e+002 
3928125000  -2.912335e+001  -1.689630e+002 
3931250000  -2.961700e+001  -1.732808e+002 
3934375000  -2.980416e+001  -1.729072e+002 
3937500000  -2.991218e+001  -1.734069e+002 
3940625000  -3.033331e+001  -1.731974e+002 
3943750000  -2.949902e+001  -1.722908e+002 
3946875000  -2.820601e+001  -1.774152e+002 
3950000000  -2.862427e+001  1.750248e+002 
3953125000  -2.975031e+001  1.749747e+002 
3956250000  -2.889578e+001  1.781395e+002 
3959375000  -2.746570e+001  1.749555e+002 
3962500000  -2.694228e+001  1.710009e+002 
3965625000  -2.657191e+001  1.626603e+002 
3968750000  -2.746804e+001  1.556684e+002 
3971875000  -2.784200e+001  1.540228e+002 
3975000000  -2.719266e+001  1.524979e+002 
3978125000  -2.705774e+001  1.510886e+002 
3981250000  -2.675405e+001  1.466288e+002 
3984375000  -2.703845e+001  1.405287e+002 
3987500000  -2.754021e+001  1.382332e+002 
3990625000  -2.756041e+001  1.374315e+002 
3993750000  -2.777572e+001  1.339766e+002 
3996875000  -2.769593e+001  1.313268e+002 
4000000000  -2.777991e+001  1.299493e+002 
4003125000  -2.837897e+001  1.317717e+002 
4006250000  -2.700496e+001  1.313055e+002 
4009375000  -2.575325e+001  1.196397e+002 
4012500000  -2.679698e+001  1.126574e+002 
4015625000  -2.804242e+001  1.125764e+002 
4018750000  -2.827638e+001  1.155087e+002 
4021875000  -2.762453e+001  1.138140e+002 
4025000000  -2.723245e+001  1.089435e+002 
4028125000  -2.721195e+001  1.051860e+002 
4031250000  -2.772958e+001  1.018388e+002 
4034375000  -2.796282e+001  1.015112e+002 
4037500000  -2.743693e+001  1.035970e+002 
4040625000  -2.736282e+001  1.000927e+002 
4043750000  -2.770982e+001  9.965205e+001 
4046875000  -2.725591e+001  9.958458e+001 
4050000000  -2.676712e+001  9.417965e+001 
4053125000  -2.713877e+001  9.163193e+001 
4056250000  -2.780881e+001  9.510472e+001 
4059375000  -2.668942e+001  9.761031e+001 
4062500000  -2.518024e+001  9.319245e+001 
4065625000  -2.505689e+001  8.849934e+001 
4068750000  -2.482152e+001  8.402146e+001 
4071875000  -2.415099e+001  7.641186e+001 
4075000000  -2.447593e+001  6.985405e+001 
4078125000  -2.505677e+001  6.868034e+001 
4081250000  -2.459937e+001  6.643215e+001 
4084375000  -2.412308e+001  6.016872e+001 
4087500000  -2.451011e+001  5.366094e+001 
4090625000  -2.506182e+001  5.225236e+001 
4093750000  -2.491356e+001  5.305341e+001 
4096875000  -2.450233e+001  4.712711e+001 
4100000000  -2.515472e+001  4.022414e+001 
4103125000  -2.598408e+001  4.066652e+001 
4106250000  -2.588662e+001  4.567566e+001 
4109375000  -2.506506e+001  4.479293e+001 
4112500000  -2.449735e+001  3.854963e+001 
4115625000  -2.479000e+001  3.426176e+001 
4118750000  -2.489354e+001  3.137998e+001 
4121875000  -2.453209e+001  2.687301e+001 
4125000000  -2.484239e+001  2.175194e+001 
4128125000  -2.581460e+001  2.144186e+001 
4131250000  -2.559574e+001  2.926575e+001 
4134375000  -2.332703e+001  2.527667e+001 
4137500000  -2.310823e+001  6.587372e+000 
4140625000  -2.522922e+001  -6.902927e-001 
4143750000  -2.653879e+001  4.021908e+000 
4146875000  -2.621285e+001  1.145215e+001 
4150000000  -2.524282e+001  8.669479e+000 
4153125000  -2.507630e+001  2.082712e+000 
4156250000  -2.594212e+001  -5.075032e-001 
4159375000  -2.624725e+001  3.910853e+000 
4162500000  -2.511116e+001  8.293784e+000 
4165625000  -2.398222e+001  4.168995e+000 
4168750000  -2.335557e+001  -3.232160e+000 
4171875000  -2.339112e+001  -1.218355e+001 
4175000000  -2.391781e+001  -1.758299e+001 
4178125000  -2.456077e+001  -1.783325e+001 
4181250000  -2.444482e+001  -1.820224e+001 
4184375000  -2.427499e+001  -2.160905e+001 
4187500000  -2.435743e+001  -2.433964e+001 
4190625000  -2.414054e+001  -2.970746e+001 
4193750000  -2.491343e+001  -3.328943e+001 
4196875000  -2.558629e+001  -3.370751e+001 
4200000000  -2.642858e+001  -3.187550e+001 
4203125000  -2.652133e+001  -1.911855e+001 
4206250000  -2.321460e+001  -1.667193e+001 
4209375000  -2.196196e+001  -3.697874e+001 
4212500000  -2.381332e+001  -4.607996e+001 
4215625000  -2.488075e+001  -3.985923e+001 
4218750000  -2.360548e+001  -3.350461e+001 
4221875000  -2.128658e+001  -4.218575e+001 
4225000000  -2.248667e+001  -5.495620e+001 
4228125000  -2.321411e+001  -4.977987e+001 
4231250000  -2.165350e+001  -5.313673e+001 
4234375000  -2.153781e+001  -6.176458e+001 
4237500000  -2.117138e+001  -6.500442e+001 
4240625000  -2.113556e+001  -7.331600e+001 
4243750000  -2.210213e+001  -8.024900e+001 
4246875000  -2.295915e+001  -8.035161e+001 
4250000000  -2.303830e+001  -7.751740e+001 
4253125000  -2.244924e+001  -7.972334e+001 
4256250000  -2.276236e+001  -8.368356e+001 
4259375000  -2.250025e+001  -8.575356e+001 
4262500000  -2.250069e+001  -8.932423e+001 
4265625000  -2.268409e+001  -8.904623e+001 
4268750000  -2.179938e+001  -9.303226e+001 
4271875000  -2.160839e+001  -9.866476e+001 
4275000000  -2.096640e+001  -1.049869e+002 
4278125000  -2.157086e+001  -1.160840e+002 
4281250000  -2.336995e+001  -1.185680e+002 
4284375000  -2.308451e+001  -1.175118e+002 
4287500000  -2.380689e+001  -1.208341e+002 
4290625000  -2.512539e+001  -1.117639e+002 
4293750000  -2.317550e+001  -1.059884e+002 
4296875000  -2.177464e+001  -1.173262e+002 
4300000000  -2.257191e+001  -1.263312e+002 
4303125000  -2.367317e+001  -1.254892e+002 
4306250000  -2.318641e+001  -1.197092e+002 
4309375000  -2.178433e+001  -1.214229e+002 
4312500000  -2.166381e+001  -1.293215e+002 
4315625000  -2.183134e+001  -1.355220e+002 
4318750000  -2.216881e+001  -1.388878e+002 
4321875000  -2.235188e+001  -1.385808e+002 
4325000000  -2.177507e+001  -1.378348e+002 
4328125000  -2.127017e+001  -1.440870e+002 
4331250000  -2.121881e+001  -1.523455e+002 
4334375000  -2.164724e+001  -1.569841e+002 
4337500000  -2.244936e+001  -1.593880e+002 
4340625000  -2.302696e+001  -1.563019e+002 
4343750000  -2.247191e+001  -1.557157e+002 
4346875000  -2.202753e+001  -1.612641e+002 
4350000000  -2.203964e+001  -1.657985e+002 
4353125000  -2.207899e+001  -1.735015e+002 
4356250000  -2.378501e+001  -1.749865e+002 
4359375000  -2.447088e+001  -1.618932e+002 
4362500000  -2.182529e+001  -1.594064e+002 
4365625000  -2.021847e+001  -1.708548e+002 
4368750000  -2.086078e+001  1.770650e+002 
4371875000  -2.204889e+001  1.774736e+002 
4375000000  -2.174080e+001  1.788164e+002 
4378125000  -2.110817e+001  1.729459e+002 
4381250000  -2.126058e+001  1.677252e+002 
4384375000  -2.108466e+001  1.631941e+002 
4387500000  -2.176879e+001  1.575655e+002 
4390625000  -2.286853e+001  1.578093e+002 
4393750000  -2.219165e+001  1.603443e+002 
4396875000  -2.152519e+001  1.579552e+002 
4400000000  -2.102119e+001  1.514332e+002 
4403125000  -2.154317e+001  1.434724e+002 
4406250000  -2.240768e+001  1.420527e+002 
4409375000  -2.236016e+001  1.399312e+002 
4412500000  -2.340494e+001  1.370820e+002 
4415625000  -2.381448e+001  1.420226e+002 
4418750000  -2.261646e+001  1.468287e+002 
