!Agilent Technologies,E8363B,MY43030201,A.06.04.32
!Agilent E8363B: A.06.04.32
!Date: Tuesday, November 11, 2014 20:55:02
!Correction: S21(Response(S21)) 
!S1P File: Measurement: S21:
# Hz S  dB   R 50
3000000000  -2.659742e+001  1.500813e+002 
3003125000  -2.803675e+001  1.450231e+002 
3006250000  -2.806102e+001  1.427494e+002 
3009375000  -2.841775e+001  1.478768e+002 
3012500000  -2.786433e+001  1.471019e+002 
3015625000  -2.695210e+001  1.399766e+002 
3018750000  -2.779637e+001  1.393840e+002 
3021875000  -2.651712e+001  1.406224e+002 
3025000000  -2.520599e+001  1.373216e+002 
3028125000  -2.427765e+001  1.323144e+002 
3031250000  -2.317890e+001  1.211591e+002 
3034375000  -2.284193e+001  1.080873e+002 
3037500000  -2.321961e+001  9.621884e+001 
3040625000  -2.450612e+001  9.126275e+001 
3043750000  -2.523168e+001  8.664792e+001 
3046875000  -2.536071e+001  8.026177e+001 
3050000000  -2.707858e+001  7.346712e+001 
3053125000  -2.719568e+001  7.989485e+001 
3056250000  -2.659496e+001  8.305775e+001 
3059375000  -2.679399e+001  8.263484e+001 
3062500000  -2.527942e+001  7.881008e+001 
3065625000  -2.512227e+001  7.286031e+001 
3068750000  -2.478185e+001  6.599371e+001 
3071875000  -2.476725e+001  6.326817e+001 
3075000000  -2.472742e+001  5.920770e+001 
3078125000  -2.443367e+001  5.476369e+001 
3081250000  -2.510288e+001  5.048862e+001 
3084375000  -2.429494e+001  4.691943e+001 
3087500000  -2.420355e+001  4.324257e+001 
3090625000  -2.391807e+001  3.349046e+001 
3093750000  -2.437330e+001  2.554976e+001 
3096875000  -2.561875e+001  1.969196e+001 
3100000000  -2.576350e+001  1.814888e+001 
3103125000  -2.612727e+001  1.955704e+001 
3106250000  -2.583859e+001  1.597331e+001 
3109375000  -2.613478e+001  1.246736e+001 
3112500000  -2.623622e+001  1.144236e+001 
3115625000  -2.602573e+001  7.301457e+000 
3118750000  -2.652194e+001  8.572319e+000 
3121875000  -2.584682e+001  4.117494e-001 
3125000000  -2.703656e+001  -3.042048e+000 
3128125000  -2.827791e+001  5.486483e+000 
3131250000  -2.602953e+001  5.842194e+000 
3134375000  -2.469453e+001  -7.682903e+000 
3137500000  -2.536835e+001  -2.159965e+001 
3140625000  -2.695253e+001  -2.275424e+001 
3143750000  -2.794054e+001  -1.962747e+001 
3146875000  -2.754939e+001  -1.701607e+001 
3150000000  -2.658685e+001  -1.515724e+001 
3153125000  -2.653636e+001  -2.289495e+001 
3156250000  -2.750913e+001  -1.707063e+001 
3159375000  -2.588423e+001  -1.431124e+001 
3162500000  -2.388017e+001  -2.731870e+001 
3165625000  -2.483576e+001  -3.837985e+001 
3168750000  -2.519134e+001  -3.728232e+001 
3171875000  -2.427379e+001  -4.176495e+001 
3175000000  -2.491790e+001  -4.950347e+001 
3178125000  -2.470872e+001  -4.770396e+001 
3181250000  -2.350957e+001  -5.180727e+001 
3184375000  -2.273916e+001  -6.399976e+001 
3187500000  -2.388302e+001  -7.924631e+001 
3190625000  -2.661113e+001  -8.674670e+001 
3193750000  -2.716461e+001  -7.707621e+001 
3196875000  -2.676408e+001  -7.173614e+001 
3200000000  -2.589601e+001  -7.349876e+001 
3203125000  -2.504051e+001  -7.946451e+001 
3206250000  -2.534370e+001  -8.540410e+001 
3209375000  -2.488519e+001  -9.068752e+001 
3212500000  -2.506911e+001  -9.720879e+001 
3215625000  -2.514811e+001  -1.010908e+002 
3218750000  -2.590792e+001  -1.078025e+002 
3221875000  -2.684748e+001  -1.126350e+002 
3225000000  -2.646323e+001  -1.132665e+002 
3228125000  -2.678789e+001  -1.179332e+002 
3231250000  -2.753990e+001  -1.205477e+002 
3234375000  -2.739545e+001  -1.194045e+002 
3237500000  -2.740840e+001  -1.209983e+002 
3240625000  -2.706846e+001  -1.229312e+002 
3243750000  -2.672525e+001  -1.295274e+002 
3246875000  -2.720853e+001  -1.361844e+002 
3250000000  -2.767190e+001  -1.380375e+002 
3253125000  -2.782399e+001  -1.395001e+002 
3256250000  -2.765019e+001  -1.457840e+002 
3259375000  -2.798670e+001  -1.532826e+002 
3262500000  -2.925838e+001  -1.561072e+002 
3265625000  -2.996083e+001  -1.524020e+002 
3268750000  -2.986168e+001  -1.497397e+002 
3271875000  -2.961269e+001  -1.486055e+002 
3275000000  -2.857951e+001  -1.542148e+002 
3278125000  -2.902076e+001  -1.601928e+002 
3281250000  -2.931099e+001  -1.582914e+002 
3284375000  -2.886396e+001  -1.639119e+002 
3287500000  -2.900066e+001  -1.667146e+002 
3290625000  -2.940628e+001  -1.712949e+002 
3293750000  -2.914000e+001  -1.769286e+002 
3296875000  -3.010564e+001  -1.768048e+002 
3300000000  -3.003526e+001  -1.756232e+002 
3303125000  -2.882924e+001  1.798506e+002 
3306250000  -2.865143e+001  1.735634e+002 
3309375000  -2.839990e+001  1.684544e+002 
3312500000  -2.846025e+001  1.582751e+002 
3315625000  -2.948612e+001  1.508249e+002 
3318750000  -3.081423e+001  1.477499e+002 
3321875000  -3.200613e+001  1.478629e+002 
3325000000  -3.258373e+001  1.521023e+002 
3328125000  -3.249035e+001  1.544482e+002 
3331250000  -3.111655e+001  1.617832e+002 
3334375000  -2.857221e+001  1.520432e+002 
3337500000  -2.866319e+001  1.341169e+002 
3340625000  -3.005105e+001  1.224560e+002 
3343750000  -3.200840e+001  1.217741e+002 
3346875000  -3.245887e+001  1.232059e+002 
3350000000  -3.184558e+001  1.217645e+002 
3353125000  -3.193607e+001  1.177564e+002 
3356250000  -3.157054e+001  1.093256e+002 
3359375000  -3.247166e+001  1.009929e+002 
3362500000  -3.380191e+001  9.577349e+001 
3365625000  -3.439941e+001  9.444234e+001 
3368750000  -3.540014e+001  9.269686e+001 
3371875000  -3.579776e+001  8.892437e+001 
3375000000  -3.731334e+001  8.693200e+001 
3378125000  -3.852652e+001  8.751471e+001 
3381250000  -3.992238e+001  9.360707e+001 
3384375000  -3.896610e+001  1.158382e+002 
3387500000  -3.594917e+001  1.017321e+002 
3390625000  -3.769542e+001  8.218250e+001 
3393750000  -3.949530e+001  8.621029e+001 
3396875000  -3.855818e+001  9.002624e+001 
3400000000  -3.855393e+001  8.252496e+001 
3403125000  -3.969146e+001  7.857870e+001 
3406250000  -4.035705e+001  7.886536e+001 
3409375000  -4.094260e+001  7.594933e+001 
3412500000  -4.187132e+001  7.693780e+001 
3415625000  -4.265625e+001  8.243469e+001 
3418750000  -4.320675e+001  8.811711e+001 
3421875000  -4.361048e+001  9.184732e+001 
3425000000  -4.245692e+001  9.645404e+001 
3428125000  -4.144934e+001  9.550244e+001 
3431250000  -4.138635e+001  9.025282e+001 
3434375000  -4.130192e+001  8.908743e+001 
3437500000  -4.179431e+001  8.674316e+001 
3440625000  -4.202734e+001  9.057008e+001 
3443750000  -4.077966e+001  9.227192e+001 
3446875000  -4.002372e+001  8.566616e+001 
3450000000  -3.976240e+001  7.830143e+001 
3453125000  -4.008120e+001  6.898485e+001 
3456250000  -4.136038e+001  6.350026e+001 
3459375000  -4.232636e+001  6.610425e+001 
3462500000  -4.247703e+001  6.638781e+001 
3465625000  -4.248941e+001  6.007756e+001 
3468750000  -4.315415e+001  5.990403e+001 
3471875000  -4.328021e+001  6.119254e+001 
3475000000  -4.305811e+001  5.482195e+001 
3478125000  -4.378672e+001  4.954454e+001 
3481250000  -4.467692e+001  5.117133e+001 
3484375000  -4.647348e+001  5.471134e+001 
3487500000  -4.627644e+001  5.901798e+001 
3490625000  -4.537122e+001  5.401452e+001 
3493750000  -4.634140e+001  4.961728e+001 
3496875000  -4.792412e+001  5.438013e+001 
3500000000  -4.862701e+001  5.917209e+001 
3503125000  -4.913458e+001  6.438744e+001 
3506250000  -4.759216e+001  6.855638e+001 
3509375000  -4.761084e+001  6.368098e+001 
3512500000  -4.834999e+001  6.604742e+001 
3515625000  -4.892167e+001  7.126509e+001 
3518750000  -4.939342e+001  7.739472e+001 
3521875000  -4.900047e+001  8.192062e+001 
3525000000  -4.878976e+001  8.202654e+001 
3528125000  -4.778252e+001  9.429958e+001 
3531250000  -4.594019e+001  9.223203e+001 
3534375000  -4.514481e+001  8.660740e+001 
3537500000  -4.522683e+001  7.939607e+001 
3540625000  -4.580680e+001  8.239132e+001 
3543750000  -4.589436e+001  8.851443e+001 
3546875000  -4.554169e+001  9.474351e+001 
3550000000  -4.295038e+001  1.001801e+002 
3553125000  -4.134585e+001  8.246088e+001 
3556250000  -4.264996e+001  7.718611e+001 
3559375000  -4.192411e+001  7.861105e+001 
3562500000  -4.102761e+001  7.163838e+001 
3565625000  -4.175993e+001  6.531647e+001 
3568750000  -4.194792e+001  6.806694e+001 
3571875000  -4.138736e+001  6.924395e+001 
3575000000  -4.122966e+001  6.261071e+001 
3578125000  -4.142123e+001  5.833223e+001 
3581250000  -4.162589e+001  6.086071e+001 
3584375000  -4.093661e+001  5.861972e+001 
3587500000  -4.017321e+001  5.361637e+001 
3590625000  -4.028579e+001  4.358897e+001 
3593750000  -4.130862e+001  4.360732e+001 
3596875000  -4.141839e+001  5.211312e+001 
3600000000  -3.986453e+001  4.761823e+001 
3603125000  -4.000409e+001  3.425275e+001 
3606250000  -4.024894e+001  3.196560e+001 
3609375000  -4.110429e+001  3.184496e+001 
3612500000  -4.147548e+001  3.141798e+001 
3615625000  -4.155298e+001  2.878642e+001 
3618750000  -4.187034e+001  3.029779e+001 
3621875000  -4.148030e+001  2.934360e+001 
3625000000  -4.174261e+001  2.929049e+001 
3628125000  -4.173598e+001  3.046721e+001 
3631250000  -4.139765e+001  2.522457e+001 
3634375000  -4.257255e+001  2.597986e+001 
3637500000  -4.220114e+001  3.138262e+001 
3640625000  -4.083213e+001  3.253169e+001 
3643750000  -4.054713e+001  2.648674e+001 
3646875000  -4.087888e+001  2.131435e+001 
3650000000  -4.128614e+001  2.025882e+001 
3653125000  -4.120812e+001  1.925627e+001 
3656250000  -4.145216e+001  1.721636e+001 
3659375000  -4.190444e+001  2.352617e+001 
3662500000  -4.084117e+001  1.885876e+001 
3665625000  -4.098770e+001  2.213560e+001 
3668750000  -4.004462e+001  2.297866e+001 
3671875000  -3.910402e+001  1.661102e+001 
3675000000  -3.954969e+001  1.236500e+001 
3678125000  -4.025544e+001  1.327410e+001 
3681250000  -3.970151e+001  1.215641e+001 
3684375000  -3.956494e+001  1.152509e+001 
3687500000  -3.952576e+001  9.924498e+000 
3690625000  -3.934961e+001  8.781614e+000 
3693750000  -4.048002e+001  1.027283e+001 
3696875000  -3.998942e+001  1.431992e+001 
3700000000  -3.890696e+001  1.163411e+001 
3703125000  -3.863749e+001  7.988613e+000 
3706250000  -3.927801e+001  9.834309e+000 
3709375000  -3.877216e+001  1.317624e+001 
3712500000  -3.765531e+001  1.292903e+001 
3715625000  -3.632458e+001  7.293275e+000 
3718750000  -3.567081e+001  5.482452e+000 
3721875000  -3.530645e+001  -8.053350e-002 
3725000000  -3.529917e+001  -6.377792e+000 
3728125000  -3.538173e+001  -6.337687e+000 
3731250000  -3.485782e+001  -6.284138e+000 
3734375000  -3.364049e+001  -1.206590e+001 
3737500000  -3.426155e+001  -1.854285e+001 
3740625000  -3.467074e+001  -2.249072e+001 
3743750000  -3.464429e+001  -2.393808e+001 
3746875000  -3.447546e+001  -2.744781e+001 
3750000000  -3.482703e+001  -2.821066e+001 
3753125000  -3.450501e+001  -3.031268e+001 
3756250000  -3.444641e+001  -2.949323e+001 
3759375000  -3.417865e+001  -3.120773e+001 
3762500000  -3.366164e+001  -3.462668e+001 
3765625000  -3.411743e+001  -3.860991e+001 
3768750000  -3.414950e+001  -3.586953e+001 
3771875000  -3.240921e+001  -3.809876e+001 
3775000000  -3.225073e+001  -4.572293e+001 
3778125000  -3.248602e+001  -4.751806e+001 
3781250000  -3.225404e+001  -5.016510e+001 
3784375000  -3.219030e+001  -5.199228e+001 
3787500000  -3.159024e+001  -5.475872e+001 
3790625000  -3.216072e+001  -6.167935e+001 
3793750000  -3.229339e+001  -6.178809e+001 
3796875000  -3.143457e+001  -6.339730e+001 
3800000000  -2.985027e+001  -6.625687e+001 
3803125000  -3.046845e+001  -7.374821e+001 
3806250000  -3.125867e+001  -7.594588e+001 
3809375000  -3.104061e+001  -7.774065e+001 
3812500000  -3.036478e+001  -8.271377e+001 
3815625000  -3.106580e+001  -9.002383e+001 
3818750000  -3.198895e+001  -9.070814e+001 
3821875000  -3.203203e+001  -8.255676e+001 
3825000000  -3.004206e+001  -7.744786e+001 
3828125000  -2.866089e+001  -9.152008e+001 
3831250000  -2.922449e+001  -1.059999e+002 
3834375000  -3.050043e+001  -1.064854e+002 
3837500000  -3.146333e+001  -1.020940e+002 
3840625000  -3.044711e+001  -1.028268e+002 
3843750000  -2.922186e+001  -1.127205e+002 
3846875000  -2.989965e+001  -1.197358e+002 
3850000000  -3.114189e+001  -1.144452e+002 
3853125000  -3.044550e+001  -1.113871e+002 
3856250000  -3.037388e+001  -1.165028e+002 
3859375000  -2.968806e+001  -1.207339e+002 
3862500000  -2.910417e+001  -1.275048e+002 
3865625000  -2.944771e+001  -1.320107e+002 
3868750000  -2.945233e+001  -1.323985e+002 
3871875000  -2.874327e+001  -1.355815e+002 
3875000000  -2.885414e+001  -1.437528e+002 
3878125000  -2.982820e+001  -1.466206e+002 
3881250000  -2.992562e+001  -1.433434e+002 
3884375000  -2.933348e+001  -1.480660e+002 
3887500000  -2.944911e+001  -1.523087e+002 
3890625000  -3.001307e+001  -1.549366e+002 
3893750000  -3.043196e+001  -1.566331e+002 
3896875000  -3.044547e+001  -1.546514e+002 
3900000000  -3.081756e+001  -1.564423e+002 
3903125000  -3.040662e+001  -1.589617e+002 
3906250000  -3.009858e+001  -1.592820e+002 
3909375000  -2.932598e+001  -1.618566e+002 
3912500000  -2.942271e+001  -1.693537e+002 
3915625000  -3.072015e+001  -1.684909e+002 
3918750000  -3.072169e+001  -1.668252e+002 
3921875000  -3.027323e+001  -1.682907e+002 
3925000000  -2.938374e+001  -1.692722e+002 
3928125000  -2.876415e+001  -1.750102e+002 
3931250000  -2.929117e+001  -1.794344e+002 
3934375000  -2.948929e+001  -1.790299e+002 
3937500000  -2.957649e+001  -1.794379e+002 
3940625000  -3.006801e+001  -1.793300e+002 
3943750000  -2.913050e+001  -1.778607e+002 
3946875000  -2.793860e+001  1.765130e+002 
3950000000  -2.844383e+001  1.689330e+002 
3953125000  -2.931950e+001  1.698974e+002 
3956250000  -2.851320e+001  1.731294e+002 
3959375000  -2.715162e+001  1.692132e+002 
3962500000  -2.668357e+001  1.653755e+002 
3965625000  -2.631820e+001  1.563994e+002 
3968750000  -2.716258e+001  1.501425e+002 
3971875000  -2.754990e+001  1.484278e+002 
3975000000  -2.695280e+001  1.465058e+002 
3978125000  -2.673216e+001  1.447880e+002 
3981250000  -2.648299e+001  1.413934e+002 
3984375000  -2.670212e+001  1.347675e+002 
3987500000  -2.723102e+001  1.330969e+002 
3990625000  -2.712868e+001  1.317191e+002 
3993750000  -2.738349e+001  1.285502e+002 
3996875000  -2.729977e+001  1.258023e+002 
4000000000  -2.743181e+001  1.244700e+002 
4003125000  -2.799590e+001  1.261386e+002 
4006250000  -2.659375e+001  1.268610e+002 
4009375000  -2.536367e+001  1.148679e+002 
4012500000  -2.637920e+001  1.074348e+002 
4015625000  -2.760642e+001  1.078073e+002 
4018750000  -2.780613e+001  1.098845e+002 
4021875000  -2.708329e+001  1.083146e+002 
4025000000  -2.667871e+001  1.038003e+002 
4028125000  -2.664568e+001  9.935416e+001 
4031250000  -2.706665e+001  9.627767e+001 
4034375000  -2.731617e+001  9.617488e+001 
4037500000  -2.682122e+001  9.744731e+001 
4040625000  -2.678755e+001  9.404349e+001 
4043750000  -2.713792e+001  9.369846e+001 
4046875000  -2.664517e+001  9.337206e+001 
4050000000  -2.610179e+001  8.761842e+001 
4053125000  -2.655780e+001  8.531106e+001 
4056250000  -2.722317e+001  8.910748e+001 
4059375000  -2.612082e+001  9.158553e+001 
4062500000  -2.474700e+001  8.692970e+001 
4065625000  -2.461484e+001  8.262181e+001 
4068750000  -2.428531e+001  7.825231e+001 
4071875000  -2.358610e+001  7.031322e+001 
4075000000  -2.396687e+001  6.396314e+001 
4078125000  -2.446506e+001  6.259729e+001 
4081250000  -2.398314e+001  6.005558e+001 
4084375000  -2.356087e+001  5.346592e+001 
4087500000  -2.390702e+001  4.739149e+001 
4090625000  -2.452555e+001  4.598716e+001 
4093750000  -2.442366e+001  4.658804e+001 
4096875000  -2.393585e+001  4.085817e+001 
4100000000  -2.458662e+001  3.431427e+001 
4103125000  -2.543273e+001  3.492138e+001 
4106250000  -2.528584e+001  3.979154e+001 
4109375000  -2.441111e+001  3.877000e+001 
4112500000  -2.385701e+001  3.253529e+001 
4115625000  -2.414940e+001  2.788716e+001 
4118750000  -2.425224e+001  2.498837e+001 
4121875000  -2.390354e+001  2.045584e+001 
4125000000  -2.429977e+001  1.533283e+001 
4128125000  -2.527461e+001  1.637203e+001 
4131250000  -2.487901e+001  2.409546e+001 
4134375000  -2.254088e+001  1.942248e+001 
4137500000  -2.231637e+001  6.443935e-001 
4140625000  -2.446749e+001  -7.131152e+000 
4143750000  -2.581558e+001  -1.415535e+000 
4146875000  -2.533639e+001  5.544912e+000 
4150000000  -2.440386e+001  1.778690e+000 
4153125000  -2.424658e+001  -4.742714e+000 
4156250000  -2.513903e+001  -7.319233e+000 
4159375000  -2.541987e+001  -2.834497e+000 
4162500000  -2.429043e+001  1.559850e+000 
4165625000  -2.313560e+001  -2.949155e+000 
4168750000  -2.252992e+001  -9.792582e+000 
4171875000  -2.242572e+001  -1.909667e+001 
4175000000  -2.301077e+001  -2.512943e+001 
4178125000  -2.362037e+001  -2.561929e+001 
4181250000  -2.352327e+001  -2.623661e+001 
4184375000  -2.336601e+001  -2.949405e+001 
4187500000  -2.342646e+001  -3.223267e+001 
4190625000  -2.331271e+001  -3.785087e+001 
4193750000  -2.410392e+001  -4.174236e+001 
4196875000  -2.483322e+001  -4.185746e+001 
4200000000  -2.567570e+001  -3.906458e+001 
4203125000  -2.557765e+001  -2.603768e+001 
4206250000  -2.234658e+001  -2.485312e+001 
4209375000  -2.117961e+001  -4.529727e+001 
4212500000  -2.309193e+001  -5.369236e+001 
4215625000  -2.408767e+001  -4.683043e+001 
4218750000  -2.266400e+001  -4.030679e+001 
4221875000  -2.031283e+001  -4.970455e+001 
4225000000  -2.150712e+001  -6.286666e+001 
4228125000  -2.229722e+001  -5.805993e+001 
4231250000  -2.079552e+001  -6.154588e+001 
4234375000  -2.068095e+001  -6.992266e+001 
4237500000  -2.027514e+001  -7.370802e+001 
4240625000  -2.030702e+001  -8.205956e+001 
4243750000  -2.132235e+001  -8.820287e+001 
4246875000  -2.213081e+001  -8.817171e+001 
4250000000  -2.213977e+001  -8.552703e+001 
4253125000  -2.154366e+001  -8.745996e+001 
4256250000  -2.174537e+001  -9.202496e+001 
4259375000  -2.150918e+001  -9.391445e+001 
4262500000  -2.157464e+001  -9.780335e+001 
4265625000  -2.172122e+001  -9.772871e+001 
4268750000  -2.091233e+001  -1.014974e+002 
4271875000  -2.059437e+001  -1.068193e+002 
4275000000  -1.993014e+001  -1.133421e+002 
4278125000  -2.048792e+001  -1.252325e+002 
4281250000  -2.222185e+001  -1.273885e+002 
4284375000  -2.202952e+001  -1.271285e+002 
4287500000  -2.293784e+001  -1.308963e+002 
4290625000  -2.417840e+001  -1.205313e+002 
4293750000  -2.221235e+001  -1.147307e+002 
4296875000  -2.081370e+001  -1.263723e+002 
4300000000  -2.170215e+001  -1.354852e+002 
4303125000  -2.268910e+001  -1.341750e+002 
4306250000  -2.202315e+001  -1.288236e+002 
4309375000  -2.070526e+001  -1.314034e+002 
4312500000  -2.063123e+001  -1.398079e+002 
4315625000  -2.093575e+001  -1.459328e+002 
4318750000  -2.127114e+001  -1.490909e+002 
4321875000  -2.140396e+001  -1.487250e+002 
4325000000  -2.077809e+001  -1.483447e+002 
4328125000  -2.029089e+001  -1.549377e+002 
4331250000  -2.031885e+001  -1.626712e+002 
4334375000  -2.076358e+001  -1.677378e+002 
4337500000  -2.154223e+001  -1.698438e+002 
4340625000  -2.203603e+001  -1.669492e+002 
4343750000  -2.149100e+001  -1.666501e+002 
4346875000  -2.108032e+001  -1.715395e+002 
4350000000  -2.099853e+001  -1.764062e+002 
4353125000  -2.107780e+001  1.756595e+002 
4356250000  -2.287153e+001  1.742930e+002 
4359375000  -2.344854e+001  -1.723186e+002 
4362500000  -2.082567e+001  -1.704227e+002 
4365625000  -1.929713e+001  1.779770e+002 
4368750000  -2.002369e+001  1.661848e+002 
4371875000  -2.114001e+001  1.668604e+002 
4375000000  -2.083993e+001  1.679668e+002 
4378125000  -2.024946e+001  1.622207e+002 
4381250000  -2.029962e+001  1.569120e+002 
4384375000  -2.014477e+001  1.522118e+002 
4387500000  -2.080735e+001  1.462294e+002 
4390625000  -2.184120e+001  1.466612e+002 
4393750000  -2.124406e+001  1.489826e+002 
4396875000  -2.058904e+001  1.468582e+002 
4400000000  -2.013289e+001  1.400422e+002 
4403125000  -2.060007e+001  1.321841e+002 
4406250000  -2.145852e+001  1.307823e+002 
4409375000  -2.140855e+001  1.282799e+002 
4412500000  -2.233539e+001  1.253415e+002 
4415625000  -2.279108e+001  1.300788e+002 
4418750000  -2.170818e+001  1.351368e+002 
