!Agilent Technologies,E8363B,MY43030201,A.06.04.32
!Agilent E8363B: A.06.04.32
!Date: Tuesday, November 11, 2014 20:52:59
!Correction: S21(Response(S21)) 
!S1P File: Measurement: S21:
# Hz S  dB   R 50
3000000000  -2.650097e+001  1.491472e+002 
3003125000  -2.793280e+001  1.444585e+002 
3006250000  -2.796056e+001  1.420353e+002 
3009375000  -2.835964e+001  1.471770e+002 
3012500000  -2.776010e+001  1.464155e+002 
3015625000  -2.684739e+001  1.394961e+002 
3018750000  -2.770056e+001  1.383481e+002 
3021875000  -2.640070e+001  1.401101e+002 
3025000000  -2.511605e+001  1.367027e+002 
3028125000  -2.413864e+001  1.318363e+002 
3031250000  -2.310660e+001  1.205934e+002 
3034375000  -2.275446e+001  1.075536e+002 
3037500000  -2.311038e+001  9.570907e+001 
3040625000  -2.444523e+001  9.065144e+001 
3043750000  -2.514937e+001  8.619752e+001 
3046875000  -2.528321e+001  7.999319e+001 
3050000000  -2.699153e+001  7.310859e+001 
3053125000  -2.711005e+001  7.959877e+001 
3056250000  -2.643616e+001  8.279600e+001 
3059375000  -2.669187e+001  8.206661e+001 
3062500000  -2.523281e+001  7.834599e+001 
3065625000  -2.501663e+001  7.241948e+001 
3068750000  -2.473005e+001  6.549518e+001 
3071875000  -2.465903e+001  6.279378e+001 
3075000000  -2.463474e+001  5.883066e+001 
3078125000  -2.440837e+001  5.454306e+001 
3081250000  -2.502342e+001  5.021631e+001 
3084375000  -2.426977e+001  4.654827e+001 
3087500000  -2.415112e+001  4.279567e+001 
3090625000  -2.387337e+001  3.323909e+001 
3093750000  -2.433778e+001  2.526037e+001 
3096875000  -2.559616e+001  1.940720e+001 
3100000000  -2.574815e+001  1.818811e+001 
3103125000  -2.611293e+001  1.924644e+001 
3106250000  -2.585431e+001  1.598944e+001 
3109375000  -2.610038e+001  1.253579e+001 
3112500000  -2.623196e+001  1.135727e+001 
3115625000  -2.605039e+001  6.991910e+000 
3118750000  -2.650588e+001  8.522668e+000 
3121875000  -2.584361e+001  3.838625e-001 
3125000000  -2.704476e+001  -2.863971e+000 
3128125000  -2.822974e+001  4.991727e+000 
3131250000  -2.603358e+001  5.829940e+000 
3134375000  -2.470947e+001  -7.920496e+000 
3137500000  -2.536981e+001  -2.163807e+001 
3140625000  -2.698729e+001  -2.314953e+001 
3143750000  -2.802556e+001  -1.902337e+001 
3146875000  -2.761049e+001  -1.692008e+001 
3150000000  -2.657348e+001  -1.504749e+001 
3153125000  -2.656639e+001  -2.282303e+001 
3156250000  -2.750626e+001  -1.713627e+001 
3159375000  -2.594552e+001  -1.418224e+001 
3162500000  -2.390009e+001  -2.730407e+001 
3165625000  -2.487383e+001  -3.825319e+001 
3168750000  -2.524921e+001  -3.727953e+001 
3171875000  -2.428698e+001  -4.148245e+001 
3175000000  -2.493492e+001  -4.897891e+001 
3178125000  -2.469987e+001  -4.759307e+001 
3181250000  -2.356543e+001  -5.189981e+001 
3184375000  -2.279728e+001  -6.371375e+001 
3187500000  -2.390284e+001  -7.896735e+001 
3190625000  -2.663807e+001  -8.627873e+001 
3193750000  -2.727195e+001  -7.684715e+001 
3196875000  -2.685852e+001  -7.149245e+001 
3200000000  -2.597375e+001  -7.336829e+001 
3203125000  -2.511919e+001  -7.915031e+001 
3206250000  -2.541660e+001  -8.541468e+001 
3209375000  -2.497656e+001  -9.063209e+001 
3212500000  -2.510750e+001  -9.726915e+001 
3215625000  -2.522731e+001  -1.012279e+002 
3218750000  -2.599340e+001  -1.074591e+002 
3221875000  -2.697407e+001  -1.125805e+002 
3225000000  -2.656516e+001  -1.133901e+002 
3228125000  -2.688269e+001  -1.177509e+002 
3231250000  -2.762664e+001  -1.206835e+002 
3234375000  -2.751704e+001  -1.193420e+002 
3237500000  -2.753575e+001  -1.209899e+002 
3240625000  -2.717608e+001  -1.227740e+002 
3243750000  -2.686186e+001  -1.293500e+002 
3246875000  -2.734925e+001  -1.360095e+002 
3250000000  -2.784324e+001  -1.378493e+002 
3253125000  -2.799583e+001  -1.395630e+002 
3256250000  -2.780012e+001  -1.454948e+002 
3259375000  -2.812284e+001  -1.527199e+002 
3262500000  -2.941097e+001  -1.555105e+002 
3265625000  -3.009970e+001  -1.521530e+002 
3268750000  -3.001962e+001  -1.496693e+002 
3271875000  -2.974850e+001  -1.483448e+002 
3275000000  -2.873218e+001  -1.535749e+002 
3278125000  -2.918435e+001  -1.597852e+002 
3281250000  -2.945752e+001  -1.579926e+002 
3284375000  -2.905137e+001  -1.639080e+002 
3287500000  -2.920412e+001  -1.666143e+002 
3290625000  -2.961863e+001  -1.710588e+002 
3293750000  -2.928564e+001  -1.766956e+002 
3296875000  -3.035248e+001  -1.763120e+002 
3300000000  -3.019892e+001  -1.756445e+002 
3303125000  -2.904517e+001  -1.794195e+002 
3306250000  -2.885023e+001  1.740833e+002 
3309375000  -2.862383e+001  1.691638e+002 
3312500000  -2.862859e+001  1.585629e+002 
3315625000  -2.965589e+001  1.507958e+002 
3318750000  -3.103709e+001  1.481985e+002 
3321875000  -3.235678e+001  1.486596e+002 
3325000000  -3.288306e+001  1.534570e+002 
3328125000  -3.270280e+001  1.546600e+002 
3331250000  -3.138808e+001  1.620516e+002 
3334375000  -2.879441e+001  1.524692e+002 
3337500000  -2.893900e+001  1.336630e+002 
3340625000  -3.028012e+001  1.230540e+002 
3343750000  -3.232648e+001  1.219061e+002 
3346875000  -3.276481e+001  1.234308e+002 
3350000000  -3.217268e+001  1.224881e+002 
3353125000  -3.233496e+001  1.178824e+002 
3356250000  -3.197932e+001  1.096959e+002 
3359375000  -3.288301e+001  1.015398e+002 
3362500000  -3.418079e+001  9.591749e+001 
3365625000  -3.482822e+001  9.503578e+001 
3368750000  -3.585658e+001  9.261247e+001 
3371875000  -3.615087e+001  8.894145e+001 
3375000000  -3.783638e+001  8.781039e+001 
3378125000  -3.894944e+001  8.733382e+001 
3381250000  -4.047211e+001  9.504474e+001 
3384375000  -3.964365e+001  1.172652e+002 
3387500000  -3.644720e+001  1.027998e+002 
3390625000  -3.839140e+001  8.343137e+001 
3393750000  -4.001634e+001  8.827370e+001 
3396875000  -3.951234e+001  9.164480e+001 
3400000000  -3.935378e+001  8.431939e+001 
3403125000  -4.037339e+001  8.108813e+001 
3406250000  -4.109161e+001  8.312799e+001 
3409375000  -4.185410e+001  7.749780e+001 
3412500000  -4.258955e+001  7.970785e+001 
3415625000  -4.361967e+001  8.482442e+001 
3418750000  -4.379433e+001  8.849806e+001 
3421875000  -4.425063e+001  9.651134e+001 
3425000000  -4.320141e+001  9.902027e+001 
3428125000  -4.200377e+001  1.007681e+002 
3431250000  -4.200845e+001  9.615558e+001 
3434375000  -4.171614e+001  9.334339e+001 
3437500000  -4.239874e+001  9.150288e+001 
3440625000  -4.264331e+001  9.567071e+001 
3443750000  -4.131208e+001  9.749078e+001 
3446875000  -4.043787e+001  9.333160e+001 
3450000000  -4.016366e+001  8.208617e+001 
3453125000  -4.042605e+001  7.482486e+001 
3456250000  -4.209199e+001  6.952437e+001 
3459375000  -4.288961e+001  7.247103e+001 
3462500000  -4.285003e+001  7.309449e+001 
3465625000  -4.263013e+001  6.829547e+001 
3468750000  -4.332948e+001  6.640067e+001 
3471875000  -4.330635e+001  6.742878e+001 
3475000000  -4.325873e+001  6.270037e+001 
3478125000  -4.396701e+001  5.736240e+001 
3481250000  -4.524160e+001  5.612186e+001 
3484375000  -4.628125e+001  6.125705e+001 
3487500000  -4.590905e+001  6.777100e+001 
3490625000  -4.555548e+001  6.293624e+001 
3493750000  -4.617756e+001  6.049480e+001 
3496875000  -4.707628e+001  6.122586e+001 
3500000000  -4.832552e+001  7.151585e+001 
3503125000  -4.833074e+001  7.735503e+001 
3506250000  -4.663429e+001  7.690583e+001 
3509375000  -4.740203e+001  7.375520e+001 
3512500000  -4.755984e+001  7.215784e+001 
3515625000  -4.756699e+001  7.797246e+001 
3518750000  -4.794029e+001  8.016668e+001 
3521875000  -4.782133e+001  8.666485e+001 
3525000000  -4.829257e+001  8.609319e+001 
3528125000  -4.748734e+001  1.002564e+002 
3531250000  -4.519010e+001  9.521227e+001 
3534375000  -4.454352e+001  8.813970e+001 
3537500000  -4.454721e+001  8.619720e+001 
3540625000  -4.527904e+001  8.611217e+001 
3543750000  -4.563757e+001  8.588885e+001 
3546875000  -4.484355e+001  9.956230e+001 
3550000000  -4.260030e+001  1.012566e+002 
3553125000  -4.112127e+001  8.394571e+001 
3556250000  -4.206220e+001  7.974510e+001 
3559375000  -4.155009e+001  8.224997e+001 
3562500000  -4.050350e+001  7.514824e+001 
3565625000  -4.114728e+001  6.736329e+001 
3568750000  -4.146615e+001  6.959615e+001 
3571875000  -4.127794e+001  6.899880e+001 
3575000000  -4.067397e+001  6.598882e+001 
3578125000  -4.107141e+001  5.979347e+001 
3581250000  -4.124453e+001  6.140642e+001 
3584375000  -4.040978e+001  5.890298e+001 
3587500000  -3.949207e+001  5.218092e+001 
3590625000  -3.991499e+001  4.464375e+001 
3593750000  -4.093130e+001  4.248755e+001 
3596875000  -4.125045e+001  5.086842e+001 
3600000000  -3.935889e+001  4.705519e+001 
3603125000  -3.970263e+001  3.420825e+001 
3606250000  -4.028918e+001  3.151295e+001 
3609375000  -4.062836e+001  3.052108e+001 
3612500000  -4.126551e+001  3.049157e+001 
3615625000  -4.136491e+001  2.710005e+001 
3618750000  -4.195119e+001  2.851220e+001 
3621875000  -4.134256e+001  2.783401e+001 
3625000000  -4.168207e+001  2.786090e+001 
3628125000  -4.184751e+001  2.938731e+001 
3631250000  -4.136978e+001  2.340397e+001 
3634375000  -4.210529e+001  2.449631e+001 
3637500000  -4.197962e+001  3.124278e+001 
3640625000  -4.113102e+001  3.072076e+001 
3643750000  -4.066475e+001  2.540899e+001 
3646875000  -4.115802e+001  2.163461e+001 
3650000000  -4.183951e+001  2.094488e+001 
3653125000  -4.145862e+001  2.036223e+001 
3656250000  -4.194622e+001  1.743651e+001 
3659375000  -4.200354e+001  2.146185e+001 
3662500000  -4.122475e+001  2.263630e+001 
3665625000  -4.122675e+001  2.221630e+001 
3668750000  -4.007362e+001  2.238677e+001 
3671875000  -3.914875e+001  1.829218e+001 
3675000000  -3.974110e+001  1.364374e+001 
3678125000  -4.027482e+001  1.487427e+001 
3681250000  -3.963496e+001  1.559836e+001 
3684375000  -3.942554e+001  1.255322e+001 
3687500000  -3.954031e+001  1.030964e+001 
3690625000  -3.944118e+001  8.509027e+000 
3693750000  -4.011011e+001  1.186596e+001 
3696875000  -3.983140e+001  1.521224e+001 
3700000000  -3.864209e+001  1.131454e+001 
3703125000  -3.872309e+001  8.967724e+000 
3706250000  -3.950110e+001  9.862219e+000 
3709375000  -3.859318e+001  1.373285e+001 
3712500000  -3.741352e+001  1.210937e+001 
3715625000  -3.636877e+001  7.034240e+000 
3718750000  -3.564946e+001  4.657215e+000 
3721875000  -3.523339e+001  -1.500775e+000 
3725000000  -3.525233e+001  -5.823995e+000 
3728125000  -3.553534e+001  -6.180383e+000 
3731250000  -3.490029e+001  -6.797338e+000 
3734375000  -3.391508e+001  -1.191830e+001 
3737500000  -3.430920e+001  -1.925106e+001 
3740625000  -3.511105e+001  -2.323591e+001 
3743750000  -3.483514e+001  -2.448019e+001 
3746875000  -3.487062e+001  -2.832075e+001 
3750000000  -3.514239e+001  -2.879083e+001 
3753125000  -3.472694e+001  -2.875781e+001 
3756250000  -3.467696e+001  -3.003499e+001 
3759375000  -3.446615e+001  -2.983615e+001 
3762500000  -3.400855e+001  -3.360609e+001 
3765625000  -3.435833e+001  -3.638087e+001 
3768750000  -3.443401e+001  -3.442618e+001 
3771875000  -3.263601e+001  -3.637611e+001 
3775000000  -3.238121e+001  -4.435331e+001 
3778125000  -3.267854e+001  -4.646900e+001 
3781250000  -3.254021e+001  -4.903184e+001 
3784375000  -3.235195e+001  -5.092894e+001 
3787500000  -3.177444e+001  -5.458480e+001 
3790625000  -3.229235e+001  -6.005546e+001 
3793750000  -3.238571e+001  -6.070752e+001 
3796875000  -3.157994e+001  -6.211394e+001 
3800000000  -2.993763e+001  -6.529173e+001 
3803125000  -3.073407e+001  -7.211413e+001 
3806250000  -3.134644e+001  -7.543591e+001 
3809375000  -3.111953e+001  -7.622150e+001 
3812500000  -3.049829e+001  -8.142250e+001 
3815625000  -3.101893e+001  -8.840765e+001 
3818750000  -3.203788e+001  -8.999583e+001 
3821875000  -3.211119e+001  -8.181625e+001 
3825000000  -3.012543e+001  -7.754914e+001 
3828125000  -2.881692e+001  -9.109286e+001 
3831250000  -2.938402e+001  -1.053826e+002 
3834375000  -3.075101e+001  -1.070439e+002 
3837500000  -3.161489e+001  -1.012384e+002 
3840625000  -3.048291e+001  -1.022759e+002 
3843750000  -2.935196e+001  -1.125344e+002 
3846875000  -3.003843e+001  -1.195814e+002 
3850000000  -3.133210e+001  -1.144723e+002 
3853125000  -3.054446e+001  -1.106889e+002 
3856250000  -3.050584e+001  -1.155006e+002 
3859375000  -2.984719e+001  -1.201887e+002 
3862500000  -2.933330e+001  -1.276600e+002 
3865625000  -2.968330e+001  -1.318654e+002 
3868750000  -2.970944e+001  -1.323972e+002 
3871875000  -2.899224e+001  -1.350909e+002 
3875000000  -2.912172e+001  -1.442888e+002 
3878125000  -3.016004e+001  -1.464374e+002 
3881250000  -3.025445e+001  -1.431292e+002 
3884375000  -2.966841e+001  -1.480629e+002 
3887500000  -2.981881e+001  -1.519290e+002 
3890625000  -3.038894e+001  -1.540490e+002 
3893750000  -3.075430e+001  -1.550727e+002 
3896875000  -3.089290e+001  -1.549175e+002 
3900000000  -3.114708e+001  -1.553609e+002 
3903125000  -3.064287e+001  -1.577822e+002 
3906250000  -3.041810e+001  -1.579426e+002 
3909375000  -2.972676e+001  -1.607516e+002 
3912500000  -2.974858e+001  -1.680937e+002 
3915625000  -3.092974e+001  -1.668591e+002 
3918750000  -3.093742e+001  -1.660542e+002 
3921875000  -3.064357e+001  -1.673755e+002 
3925000000  -2.970571e+001  -1.685104e+002 
3928125000  -2.904679e+001  -1.739548e+002 
3931250000  -2.940010e+001  -1.775352e+002 
3934375000  -2.976966e+001  -1.774701e+002 
3937500000  -2.989171e+001  -1.784199e+002 
3940625000  -3.026860e+001  -1.787025e+002 
3943750000  -2.926466e+001  -1.769746e+002 
3946875000  -2.809253e+001  1.772497e+002 
3950000000  -2.864441e+001  1.696338e+002 
3953125000  -2.956747e+001  1.704852e+002 
3956250000  -2.876793e+001  1.730322e+002 
3959375000  -2.737297e+001  1.700481e+002 
3962500000  -2.691881e+001  1.661501e+002 
3965625000  -2.661103e+001  1.568456e+002 
3968750000  -2.749460e+001  1.500683e+002 
3971875000  -2.784511e+001  1.490169e+002 
3975000000  -2.720202e+001  1.473042e+002 
3978125000  -2.707772e+001  1.454731e+002 
3981250000  -2.679080e+001  1.409259e+002 
3984375000  -2.707488e+001  1.348775e+002 
3987500000  -2.761183e+001  1.332814e+002 
3990625000  -2.760416e+001  1.319404e+002 
3993750000  -2.779635e+001  1.287204e+002 
3996875000  -2.781213e+001  1.266342e+002 
4000000000  -2.793562e+001  1.243883e+002 
4003125000  -2.852955e+001  1.264321e+002 
4006250000  -2.704351e+001  1.269807e+002 
4009375000  -2.584032e+001  1.153405e+002 
4012500000  -2.688304e+001  1.082720e+002 
4015625000  -2.820087e+001  1.087811e+002 
4018750000  -2.835844e+001  1.109977e+002 
4021875000  -2.763546e+001  1.098024e+002 
4025000000  -2.731588e+001  1.052696e+002 
4028125000  -2.718464e+001  1.011277e+002 
4031250000  -2.764431e+001  9.765222e+001 
4034375000  -2.788437e+001  9.806321e+001 
4037500000  -2.733595e+001  9.949084e+001 
4040625000  -2.715399e+001  9.646420e+001 
4043750000  -2.757187e+001  9.621817e+001 
4046875000  -2.710910e+001  9.519347e+001 
4050000000  -2.656124e+001  8.964328e+001 
4053125000  -2.707537e+001  8.749505e+001 
4056250000  -2.764540e+001  9.141449e+001 
4059375000  -2.644748e+001  9.375216e+001 
4062500000  -2.503955e+001  8.837898e+001 
4065625000  -2.492057e+001  8.375887e+001 
4068750000  -2.467393e+001  7.951431e+001 
4071875000  -2.396737e+001  7.144965e+001 
4075000000  -2.433407e+001  6.504758e+001 
4078125000  -2.490120e+001  6.381384e+001 
4081250000  -2.437521e+001  6.133099e+001 
4084375000  -2.398888e+001  5.445727e+001 
4087500000  -2.431631e+001  4.854821e+001 
4090625000  -2.499524e+001  4.727991e+001 
4093750000  -2.482556e+001  4.794165e+001 
4096875000  -2.439917e+001  4.190888e+001 
4100000000  -2.509788e+001  3.504246e+001 
4103125000  -2.600955e+001  3.582772e+001 
4106250000  -2.584916e+001  4.097347e+001 
4109375000  -2.497291e+001  4.033508e+001 
4112500000  -2.441295e+001  3.328261e+001 
4115625000  -2.474202e+001  2.947581e+001 
4118750000  -2.486457e+001  2.663806e+001 
4121875000  -2.444416e+001  2.197599e+001 
4125000000  -2.484981e+001  1.707773e+001 
4128125000  -2.582153e+001  1.737983e+001 
4131250000  -2.559656e+001  2.581149e+001 
4134375000  -2.321270e+001  2.120398e+001 
4137500000  -2.299852e+001  2.306479e+000 
4140625000  -2.512347e+001  -4.513595e+000 
4143750000  -2.650158e+001  2.233986e-001 
4146875000  -2.600419e+001  8.004552e+000 
4150000000  -2.510263e+001  4.712533e+000 
4153125000  -2.492043e+001  -1.698090e+000 
4156250000  -2.577631e+001  -4.497694e+000 
4159375000  -2.602502e+001  1.617046e-001 
4162500000  -2.485889e+001  4.755589e+000 
4165625000  -2.368931e+001  4.480447e-001 
4168750000  -2.304544e+001  -6.686071e+000 
4171875000  -2.300649e+001  -1.597949e+001 
4175000000  -2.358172e+001  -2.144582e+001 
4178125000  -2.421504e+001  -2.173901e+001 
4181250000  -2.401733e+001  -2.264641e+001 
4184375000  -2.384958e+001  -2.571453e+001 
4187500000  -2.391470e+001  -2.877592e+001 
4190625000  -2.373271e+001  -3.437196e+001 
4193750000  -2.453492e+001  -3.833999e+001 
4196875000  -2.527356e+001  -3.869639e+001 
4200000000  -2.613552e+001  -3.638147e+001 
4203125000  -2.609599e+001  -2.301299e+001 
4206250000  -2.280351e+001  -2.174333e+001 
4209375000  -2.166156e+001  -4.247065e+001 
4212500000  -2.357495e+001  -5.138297e+001 
4215625000  -2.462379e+001  -4.478177e+001 
4218750000  -2.327273e+001  -3.827635e+001 
4221875000  -2.093556e+001  -4.732623e+001 
4225000000  -2.218699e+001  -5.985920e+001 
4228125000  -2.286784e+001  -5.491211e+001 
4231250000  -2.137145e+001  -5.886308e+001 
4234375000  -2.126053e+001  -6.704931e+001 
4237500000  -2.085258e+001  -7.047133e+001 
4240625000  -2.089304e+001  -7.913087e+001 
4243750000  -2.186586e+001  -8.548692e+001 
4246875000  -2.273493e+001  -8.525539e+001 
4250000000  -2.277520e+001  -8.259440e+001 
4253125000  -2.214834e+001  -8.440184e+001 
4256250000  -2.244648e+001  -8.832786e+001 
4259375000  -2.220301e+001  -9.031178e+001 
4262500000  -2.224685e+001  -9.387286e+001 
4265625000  -2.237629e+001  -9.328881e+001 
4268750000  -2.155533e+001  -9.789616e+001 
4271875000  -2.124556e+001  -1.033333e+002 
4275000000  -2.060191e+001  -1.096537e+002 
4278125000  -2.120851e+001  -1.207779e+002 
4281250000  -2.296967e+001  -1.228456e+002 
4284375000  -2.267010e+001  -1.223662e+002 
4287500000  -2.347205e+001  -1.258348e+002 
4290625000  -2.476331e+001  -1.164613e+002 
4293750000  -2.275529e+001  -1.106459e+002 
4296875000  -2.133744e+001  -1.223800e+002 
4300000000  -2.218806e+001  -1.317298e+002 
4303125000  -2.326171e+001  -1.300178e+002 
4306250000  -2.262734e+001  -1.241321e+002 
4309375000  -2.122053e+001  -1.266579e+002 
4312500000  -2.113387e+001  -1.350567e+002 
4315625000  -2.137115e+001  -1.413975e+002 
4318750000  -2.170418e+001  -1.447496e+002 
4321875000  -2.179556e+001  -1.442589e+002 
4325000000  -2.122371e+001  -1.439297e+002 
4328125000  -2.075288e+001  -1.503026e+002 
4331250000  -2.069740e+001  -1.583993e+002 
4334375000  -2.116662e+001  -1.637514e+002 
4337500000  -2.194612e+001  -1.656853e+002 
4340625000  -2.251641e+001  -1.625732e+002 
4343750000  -2.196064e+001  -1.619941e+002 
4346875000  -2.160966e+001  -1.675258e+002 
4350000000  -2.158511e+001  -1.723770e+002 
4353125000  -2.164326e+001  -1.799059e+002 
4356250000  -2.337865e+001  1.791350e+002 
4359375000  -2.399632e+001  -1.674993e+002 
4362500000  -2.133541e+001  -1.659163e+002 
4365625000  -1.975860e+001  -1.777460e+002 
4368750000  -2.043748e+001  1.704796e+002 
4371875000  -2.164744e+001  1.711104e+002 
4375000000  -2.132272e+001  1.721853e+002 
4378125000  -2.069533e+001  1.665238e+002 
4381250000  -2.086095e+001  1.610172e+002 
4384375000  -2.068789e+001  1.564900e+002 
4387500000  -2.141416e+001  1.510338e+002 
4390625000  -2.241422e+001  1.518158e+002 
4393750000  -2.178518e+001  1.536627e+002 
4396875000  -2.107155e+001  1.515571e+002 
4400000000  -2.061483e+001  1.447568e+002 
4403125000  -2.116961e+001  1.370459e+002 
4406250000  -2.199057e+001  1.361229e+002 
4409375000  -2.196809e+001  1.337849e+002 
4412500000  -2.294070e+001  1.312711e+002 
4415625000  -2.338384e+001  1.359908e+002 
4418750000  -2.218219e+001  1.404492e+002 
