!Agilent Technologies,E8363B,MY43030201,A.06.04.32
!Agilent E8363B: A.06.04.32
!Date: Tuesday, November 11, 2014 20:48:43
!Correction: S21(Response(S21)) 
!S1P File: Measurement: S21:
# Hz S  dB   R 50
3000000000  -2.652016e+001  1.552032e+002 
3003125000  -2.790298e+001  1.506268e+002 
3006250000  -2.796615e+001  1.478541e+002 
3009375000  -2.830232e+001  1.528420e+002 
3012500000  -2.782496e+001  1.526275e+002 
3015625000  -2.685218e+001  1.454603e+002 
3018750000  -2.771097e+001  1.444465e+002 
3021875000  -2.642462e+001  1.460405e+002 
3025000000  -2.514785e+001  1.429455e+002 
3028125000  -2.416350e+001  1.379785e+002 
3031250000  -2.315594e+001  1.269174e+002 
3034375000  -2.276016e+001  1.139555e+002 
3037500000  -2.307954e+001  1.019718e+002 
3040625000  -2.444161e+001  9.689888e+001 
3043750000  -2.514553e+001  9.268925e+001 
3046875000  -2.520890e+001  8.619744e+001 
3050000000  -2.698646e+001  7.933447e+001 
3053125000  -2.713264e+001  8.544837e+001 
3056250000  -2.644741e+001  8.879175e+001 
3059375000  -2.670554e+001  8.837598e+001 
3062500000  -2.522223e+001  8.448695e+001 
3065625000  -2.497530e+001  7.897389e+001 
3068750000  -2.472688e+001  7.190383e+001 
3071875000  -2.468895e+001  6.885777e+001 
3075000000  -2.466957e+001  6.501639e+001 
3078125000  -2.437437e+001  6.072917e+001 
3081250000  -2.499562e+001  5.639484e+001 
3084375000  -2.423892e+001  5.262146e+001 
3087500000  -2.412844e+001  4.919061e+001 
3090625000  -2.384902e+001  3.947347e+001 
3093750000  -2.423024e+001  3.164369e+001 
3096875000  -2.556953e+001  2.544616e+001 
3100000000  -2.573605e+001  2.404733e+001 
3103125000  -2.607379e+001  2.548425e+001 
3106250000  -2.580897e+001  2.217807e+001 
3109375000  -2.602935e+001  1.834327e+001 
3112500000  -2.615448e+001  1.770187e+001 
3115625000  -2.594174e+001  1.319303e+001 
3118750000  -2.645149e+001  1.454317e+001 
3121875000  -2.576610e+001  6.706382e+000 
3125000000  -2.694294e+001  3.157086e+000 
3128125000  -2.816376e+001  1.084465e+001 
3131250000  -2.600722e+001  1.171522e+001 
3134375000  -2.463041e+001  -1.547089e+000 
3137500000  -2.527790e+001  -1.581756e+001 
3140625000  -2.690025e+001  -1.732171e+001 
3143750000  -2.793989e+001  -1.345115e+001 
3146875000  -2.751405e+001  -1.151838e+001 
3150000000  -2.652243e+001  -9.103632e+000 
3153125000  -2.650228e+001  -1.664724e+001 
3156250000  -2.741545e+001  -1.167424e+001 
3159375000  -2.596582e+001  -8.493637e+000 
3162500000  -2.390148e+001  -2.118799e+001 
3165625000  -2.476720e+001  -3.229897e+001 
3168750000  -2.519018e+001  -3.164351e+001 
3171875000  -2.427737e+001  -3.552157e+001 
3175000000  -2.492158e+001  -4.337418e+001 
3178125000  -2.467950e+001  -4.177130e+001 
3181250000  -2.350250e+001  -4.548581e+001 
3184375000  -2.267619e+001  -5.790656e+001 
3187500000  -2.377590e+001  -7.329528e+001 
3190625000  -2.662401e+001  -8.054974e+001 
3193750000  -2.720384e+001  -7.135419e+001 
3196875000  -2.676040e+001  -6.549383e+001 
3200000000  -2.590970e+001  -6.716261e+001 
3203125000  -2.501648e+001  -7.302055e+001 
3206250000  -2.530816e+001  -7.934366e+001 
3209375000  -2.485552e+001  -8.421281e+001 
3212500000  -2.495341e+001  -9.116450e+001 
3215625000  -2.512911e+001  -9.556000e+001 
3218750000  -2.587651e+001  -1.016250e+002 
3221875000  -2.686552e+001  -1.064897e+002 
3225000000  -2.648120e+001  -1.072038e+002 
3228125000  -2.680700e+001  -1.116407e+002 
3231250000  -2.752451e+001  -1.145215e+002 
3234375000  -2.741195e+001  -1.133923e+002 
3237500000  -2.743947e+001  -1.149398e+002 
3240625000  -2.712029e+001  -1.168136e+002 
3243750000  -2.674608e+001  -1.234539e+002 
3246875000  -2.722252e+001  -1.301832e+002 
3250000000  -2.769038e+001  -1.318786e+002 
3253125000  -2.780179e+001  -1.333530e+002 
3256250000  -2.768885e+001  -1.392742e+002 
3259375000  -2.800242e+001  -1.468431e+002 
3262500000  -2.925228e+001  -1.495803e+002 
3265625000  -2.990083e+001  -1.467912e+002 
3268750000  -2.997249e+001  -1.440733e+002 
3271875000  -2.972743e+001  -1.427107e+002 
3275000000  -2.864110e+001  -1.473848e+002 
3278125000  -2.901474e+001  -1.540534e+002 
3281250000  -2.937010e+001  -1.521622e+002 
3284375000  -2.889376e+001  -1.582145e+002 
3287500000  -2.909623e+001  -1.608041e+002 
3290625000  -2.952771e+001  -1.650632e+002 
3293750000  -2.917769e+001  -1.707822e+002 
3296875000  -3.011866e+001  -1.706008e+002 
3300000000  -3.012876e+001  -1.694483e+002 
3303125000  -2.895009e+001  -1.733192e+002 
3306250000  -2.879298e+001  -1.798431e+002 
3309375000  -2.848708e+001  1.751374e+002 
3312500000  -2.849645e+001  1.649684e+002 
3315625000  -2.952578e+001  1.567123e+002 
3318750000  -3.088837e+001  1.534876e+002 
3321875000  -3.205778e+001  1.539903e+002 
3325000000  -3.258962e+001  1.588112e+002 
3328125000  -3.251749e+001  1.602689e+002 
3331250000  -3.132052e+001  1.680183e+002 
3334375000  -2.875824e+001  1.589167e+002 
3337500000  -2.876394e+001  1.401549e+002 
3340625000  -3.014404e+001  1.292992e+002 
3343750000  -3.209685e+001  1.276586e+002 
3346875000  -3.265401e+001  1.293157e+002 
3350000000  -3.200549e+001  1.285302e+002 
3353125000  -3.207938e+001  1.236440e+002 
3356250000  -3.179265e+001  1.160335e+002 
3359375000  -3.265934e+001  1.080723e+002 
3362500000  -3.401931e+001  1.029381e+002 
3365625000  -3.455988e+001  1.004395e+002 
3368750000  -3.552364e+001  9.883418e+001 
3371875000  -3.607835e+001  9.568054e+001 
3375000000  -3.753805e+001  9.356755e+001 
3378125000  -3.862135e+001  9.324398e+001 
3381250000  -4.004198e+001  1.015359e+002 
3384375000  -3.930043e+001  1.220431e+002 
3387500000  -3.632568e+001  1.087324e+002 
3390625000  -3.801188e+001  9.009506e+001 
3393750000  -3.984488e+001  9.327692e+001 
3396875000  -3.884201e+001  9.617181e+001 
3400000000  -3.895755e+001  8.969152e+001 
3403125000  -4.009922e+001  8.480090e+001 
3406250000  -4.073065e+001  8.846743e+001 
3409375000  -4.144493e+001  8.400645e+001 
3412500000  -4.207922e+001  8.479439e+001 
3415625000  -4.315734e+001  8.864098e+001 
3418750000  -4.332764e+001  9.324061e+001 
3421875000  -4.362452e+001  1.011731e+002 
3425000000  -4.281889e+001  1.027834e+002 
3428125000  -4.190188e+001  1.038624e+002 
3431250000  -4.183294e+001  1.013599e+002 
3434375000  -4.168908e+001  9.737356e+001 
3437500000  -4.218497e+001  9.572915e+001 
3440625000  -4.217172e+001  9.899445e+001 
3443750000  -4.119950e+001  1.004604e+002 
3446875000  -4.028458e+001  9.617818e+001 
3450000000  -4.011584e+001  8.662180e+001 
3453125000  -4.046710e+001  7.837623e+001 
3456250000  -4.155650e+001  7.228936e+001 
3459375000  -4.240297e+001  7.530661e+001 
3462500000  -4.266959e+001  7.571176e+001 
3465625000  -4.279443e+001  7.223920e+001 
3468750000  -4.301161e+001  6.904461e+001 
3471875000  -4.345705e+001  6.988399e+001 
3475000000  -4.304747e+001  6.596769e+001 
3478125000  -4.377465e+001  6.098569e+001 
3481250000  -4.476128e+001  5.935883e+001 
3484375000  -4.668589e+001  6.481023e+001 
3487500000  -4.539631e+001  6.813514e+001 
3490625000  -4.534416e+001  6.518809e+001 
3493750000  -4.602369e+001  6.162119e+001 
3496875000  -4.698586e+001  6.616718e+001 
3500000000  -4.778873e+001  7.510442e+001 
3503125000  -4.799529e+001  7.876084e+001 
3506250000  -4.665860e+001  7.598503e+001 
3509375000  -4.674626e+001  7.716728e+001 
3512500000  -4.724227e+001  7.561752e+001 
3515625000  -4.772218e+001  7.856229e+001 
3518750000  -4.863033e+001  8.114692e+001 
3521875000  -4.768203e+001  8.568694e+001 
3525000000  -4.764024e+001  8.723132e+001 
3528125000  -4.795440e+001  9.844875e+001 
3531250000  -4.569233e+001  9.801659e+001 
3534375000  -4.513913e+001  9.043301e+001 
3537500000  -4.521833e+001  9.012846e+001 
3540625000  -4.517804e+001  8.843814e+001 
3543750000  -4.584820e+001  9.266501e+001 
3546875000  -4.574272e+001  1.003947e+002 
3550000000  -4.279347e+001  1.037797e+002 
3553125000  -4.159081e+001  8.989024e+001 
3556250000  -4.231924e+001  8.153963e+001 
3559375000  -4.218125e+001  8.477879e+001 
3562500000  -4.085463e+001  7.984071e+001 
3565625000  -4.176275e+001  7.187904e+001 
3568750000  -4.171384e+001  7.294171e+001 
3571875000  -4.144551e+001  7.459579e+001 
3575000000  -4.105465e+001  7.030682e+001 
3578125000  -4.141872e+001  6.676620e+001 
3581250000  -4.139666e+001  6.741013e+001 
3584375000  -4.053609e+001  6.570687e+001 
3587500000  -3.972329e+001  5.978185e+001 
3590625000  -4.021169e+001  5.046020e+001 
3593750000  -4.112124e+001  4.870729e+001 
3596875000  -4.131215e+001  5.771050e+001 
3600000000  -3.963845e+001  5.457258e+001 
3603125000  -3.975394e+001  4.208597e+001 
3606250000  -4.028005e+001  3.728177e+001 
3609375000  -4.089566e+001  3.640256e+001 
3612500000  -4.138694e+001  3.538924e+001 
3615625000  -4.122884e+001  3.520722e+001 
3618750000  -4.189254e+001  3.657321e+001 
3621875000  -4.139108e+001  3.434027e+001 
3625000000  -4.166367e+001  3.355478e+001 
3628125000  -4.162218e+001  3.307238e+001 
3631250000  -4.152231e+001  2.887820e+001 
3634375000  -4.233363e+001  3.102247e+001 
3637500000  -4.203225e+001  3.437727e+001 
3640625000  -4.086585e+001  3.659674e+001 
3643750000  -4.047808e+001  3.037502e+001 
3646875000  -4.132843e+001  2.554063e+001 
3650000000  -4.182920e+001  2.368050e+001 
3653125000  -4.161974e+001  2.568998e+001 
3656250000  -4.179689e+001  2.434189e+001 
3659375000  -4.221330e+001  2.861907e+001 
3662500000  -4.132646e+001  2.637504e+001 
3665625000  -4.129862e+001  2.641541e+001 
3668750000  -4.024598e+001  2.946578e+001 
3671875000  -3.940400e+001  2.461063e+001 
3675000000  -3.987156e+001  1.833041e+001 
3678125000  -4.046055e+001  2.007871e+001 
3681250000  -3.975084e+001  2.112917e+001 
3684375000  -3.979296e+001  1.947223e+001 
3687500000  -3.996653e+001  1.764943e+001 
3690625000  -3.966578e+001  1.519771e+001 
3693750000  -4.034986e+001  1.780902e+001 
3696875000  -4.007825e+001  2.103783e+001 
3700000000  -3.901385e+001  1.923150e+001 
3703125000  -3.869783e+001  1.538292e+001 
3706250000  -3.929238e+001  1.620174e+001 
3709375000  -3.880611e+001  2.007460e+001 
3712500000  -3.759479e+001  1.873641e+001 
3715625000  -3.637573e+001  1.362812e+001 
3718750000  -3.598556e+001  1.036996e+001 
3721875000  -3.531240e+001  6.455456e+000 
3725000000  -3.533839e+001  2.140514e+000 
3728125000  -3.541728e+001  5.694820e-001 
3731250000  -3.489465e+001  -7.803233e-001 
3734375000  -3.371915e+001  -6.566636e+000 
3737500000  -3.417794e+001  -1.302945e+001 
3740625000  -3.492417e+001  -1.682836e+001 
3743750000  -3.477062e+001  -1.839055e+001 
3746875000  -3.468692e+001  -2.199796e+001 
3750000000  -3.511205e+001  -2.265191e+001 
3753125000  -3.487226e+001  -2.314940e+001 
3756250000  -3.463997e+001  -2.362685e+001 
3759375000  -3.433492e+001  -2.395674e+001 
3762500000  -3.384082e+001  -2.858576e+001 
3765625000  -3.430400e+001  -3.086038e+001 
3768750000  -3.447759e+001  -2.832195e+001 
3771875000  -3.260083e+001  -3.117799e+001 
3775000000  -3.241733e+001  -3.856347e+001 
3778125000  -3.269094e+001  -4.046598e+001 
3781250000  -3.247691e+001  -4.287049e+001 
3784375000  -3.242887e+001  -4.509194e+001 
3787500000  -3.187035e+001  -4.913194e+001 
3790625000  -3.236172e+001  -5.444231e+001 
3793750000  -3.248982e+001  -5.518048e+001 
3796875000  -3.155314e+001  -5.636686e+001 
3800000000  -3.008732e+001  -5.965194e+001 
3803125000  -3.071588e+001  -6.686784e+001 
3806250000  -3.144329e+001  -6.894081e+001 
3809375000  -3.117219e+001  -7.009607e+001 
3812500000  -3.050447e+001  -7.480865e+001 
3815625000  -3.098346e+001  -8.237341e+001 
3818750000  -3.202963e+001  -8.403809e+001 
3821875000  -3.211068e+001  -7.553295e+001 
3825000000  -3.026821e+001  -7.071342e+001 
3828125000  -2.886033e+001  -8.537223e+001 
3831250000  -2.931676e+001  -9.908120e+001 
3834375000  -3.063696e+001  -1.004104e+002 
3837500000  -3.160826e+001  -9.509420e+001 
3840625000  -3.049777e+001  -9.601143e+001 
3843750000  -2.934307e+001  -1.059084e+002 
3846875000  -2.993747e+001  -1.132547e+002 
3850000000  -3.132302e+001  -1.069254e+002 
3853125000  -3.050579e+001  -1.048196e+002 
3856250000  -3.036265e+001  -1.099301e+002 
3859375000  -2.988922e+001  -1.143824e+002 
3862500000  -2.929204e+001  -1.213224e+002 
3865625000  -2.964396e+001  -1.261041e+002 
3868750000  -2.959031e+001  -1.267070e+002 
3871875000  -2.898085e+001  -1.294775e+002 
3875000000  -2.900136e+001  -1.377216e+002 
3878125000  -2.999940e+001  -1.408242e+002 
3881250000  -3.015666e+001  -1.380533e+002 
3884375000  -2.965327e+001  -1.424076e+002 
3887500000  -2.978046e+001  -1.466040e+002 
3890625000  -3.035441e+001  -1.485332e+002 
3893750000  -3.076059e+001  -1.502825e+002 
3896875000  -3.080614e+001  -1.494038e+002 
3900000000  -3.105315e+001  -1.501943e+002 
3903125000  -3.069408e+001  -1.521801e+002 
3906250000  -3.051762e+001  -1.534621e+002 
3909375000  -2.976447e+001  -1.552462e+002 
3912500000  -2.980949e+001  -1.626024e+002 
3915625000  -3.095081e+001  -1.622351e+002 
3918750000  -3.103468e+001  -1.602245e+002 
3921875000  -3.068190e+001  -1.619599e+002 
3925000000  -2.983860e+001  -1.627502e+002 
3928125000  -2.911200e+001  -1.686411e+002 
3931250000  -2.956703e+001  -1.717692e+002 
3934375000  -2.978894e+001  -1.719740e+002 
3937500000  -2.994817e+001  -1.724644e+002 
3940625000  -3.037942e+001  -1.728531e+002 
3943750000  -2.943153e+001  -1.717473e+002 
3946875000  -2.824800e+001  -1.764261e+002 
3950000000  -2.868644e+001  1.755531e+002 
3953125000  -2.952895e+001  1.759724e+002 
3956250000  -2.885037e+001  1.789141e+002 
3959375000  -2.745385e+001  1.759393e+002 
3962500000  -2.689853e+001  1.719858e+002 
3965625000  -2.664130e+001  1.633768e+002 
3968750000  -2.749861e+001  1.563301e+002 
3971875000  -2.793660e+001  1.547750e+002 
3975000000  -2.722378e+001  1.532231e+002 
3978125000  -2.703873e+001  1.511674e+002 
3981250000  -2.676280e+001  1.471853e+002 
3984375000  -2.700876e+001  1.406732e+002 
3987500000  -2.749525e+001  1.390661e+002 
3990625000  -2.756056e+001  1.380777e+002 
3993750000  -2.777875e+001  1.348615e+002 
3996875000  -2.772871e+001  1.322994e+002 
4000000000  -2.774836e+001  1.302782e+002 
4003125000  -2.835335e+001  1.323955e+002 
4006250000  -2.698685e+001  1.326731e+002 
4009375000  -2.578471e+001  1.206503e+002 
4012500000  -2.683636e+001  1.134516e+002 
4015625000  -2.807177e+001  1.142298e+002 
4018750000  -2.829114e+001  1.159118e+002 
4021875000  -2.765784e+001  1.145231e+002 
4025000000  -2.726723e+001  1.097707e+002 
4028125000  -2.719899e+001  1.058526e+002 
4031250000  -2.768817e+001  1.027489e+002 
4034375000  -2.792668e+001  1.026406e+002 
4037500000  -2.740792e+001  1.047185e+002 
4040625000  -2.730137e+001  1.012594e+002 
4043750000  -2.770760e+001  1.010198e+002 
4046875000  -2.722976e+001  1.006412e+002 
4050000000  -2.670456e+001  9.501692e+001 
4053125000  -2.713297e+001  9.270263e+001 
4056250000  -2.785372e+001  9.687734e+001 
4059375000  -2.661960e+001  9.872540e+001 
4062500000  -2.521921e+001  9.428147e+001 
4065625000  -2.500451e+001  8.955610e+001 
4068750000  -2.474607e+001  8.519209e+001 
4071875000  -2.412928e+001  7.714451e+001 
4075000000  -2.444027e+001  7.075468e+001 
4078125000  -2.500533e+001  6.965421e+001 
4081250000  -2.453294e+001  6.737746e+001 
4084375000  -2.411945e+001  6.069317e+001 
4087500000  -2.441627e+001  5.455597e+001 
4090625000  -2.503551e+001  5.340148e+001 
4093750000  -2.492117e+001  5.421843e+001 
4096875000  -2.443765e+001  4.837377e+001 
4100000000  -2.510175e+001  4.121553e+001 
4103125000  -2.603296e+001  4.186385e+001 
4106250000  -2.588448e+001  4.629480e+001 
4109375000  -2.503247e+001  4.564126e+001 
4112500000  -2.447160e+001  3.981104e+001 
4115625000  -2.475064e+001  3.501744e+001 
4118750000  -2.485574e+001  3.268969e+001 
4121875000  -2.451755e+001  2.766555e+001 
4125000000  -2.481913e+001  2.252954e+001 
4128125000  -2.585603e+001  2.227399e+001 
4131250000  -2.563156e+001  3.046954e+001 
4134375000  -2.331018e+001  2.654549e+001 
4137500000  -2.306590e+001  7.847596e+000 
4140625000  -2.520685e+001  4.700909e-001 
4143750000  -2.652941e+001  5.600475e+000 
4146875000  -2.617721e+001  1.268173e+001 
4150000000  -2.523875e+001  9.644203e+000 
4153125000  -2.502959e+001  3.242249e+000 
4156250000  -2.591421e+001  7.433758e-001 
4159375000  -2.620154e+001  4.930395e+000 
4162500000  -2.511634e+001  9.514128e+000 
4165625000  -2.394777e+001  5.571022e+000 
4168750000  -2.336334e+001  -1.871441e+000 
4171875000  -2.329539e+001  -1.072034e+001 
4175000000  -2.390484e+001  -1.652413e+001 
4178125000  -2.450916e+001  -1.704144e+001 
4181250000  -2.438692e+001  -1.711678e+001 
4184375000  -2.421814e+001  -2.022469e+001 
4187500000  -2.425746e+001  -2.305772e+001 
4190625000  -2.408622e+001  -2.859974e+001 
4193750000  -2.482310e+001  -3.237848e+001 
4196875000  -2.554717e+001  -3.261018e+001 
4200000000  -2.629845e+001  -3.072250e+001 
4203125000  -2.651251e+001  -1.773736e+001 
4206250000  -2.313582e+001  -1.557845e+001 
4209375000  -2.191265e+001  -3.609322e+001 
4212500000  -2.374990e+001  -4.495810e+001 
4215625000  -2.482162e+001  -3.885271e+001 
4218750000  -2.353587e+001  -3.217942e+001 
4221875000  -2.121235e+001  -4.081093e+001 
4225000000  -2.237677e+001  -5.383371e+001 
4228125000  -2.315271e+001  -4.882678e+001 
4231250000  -2.162014e+001  -5.243760e+001 
4234375000  -2.150396e+001  -6.084283e+001 
4237500000  -2.110286e+001  -6.387827e+001 
4240625000  -2.106314e+001  -7.264855e+001 
4243750000  -2.199937e+001  -7.937859e+001 
4246875000  -2.292023e+001  -7.939677e+001 
4250000000  -2.299295e+001  -7.686151e+001 
4253125000  -2.239879e+001  -7.844102e+001 
4256250000  -2.268309e+001  -8.252455e+001 
4259375000  -2.240056e+001  -8.458895e+001 
4262500000  -2.248148e+001  -8.844483e+001 
4265625000  -2.263297e+001  -8.808600e+001 
4268750000  -2.181648e+001  -9.178336e+001 
4271875000  -2.151588e+001  -9.721302e+001 
4275000000  -2.088267e+001  -1.039266e+002 
4278125000  -2.147984e+001  -1.147450e+002 
4281250000  -2.327099e+001  -1.170269e+002 
4284375000  -2.303976e+001  -1.164603e+002 
4287500000  -2.367997e+001  -1.199868e+002 
4290625000  -2.501606e+001  -1.105870e+002 
4293750000  -2.311031e+001  -1.049593e+002 
4296875000  -2.167430e+001  -1.163449e+002 
4300000000  -2.248816e+001  -1.253946e+002 
4303125000  -2.362196e+001  -1.243414e+002 
4306250000  -2.312718e+001  -1.182140e+002 
4309375000  -2.169954e+001  -1.202871e+002 
4312500000  -2.158093e+001  -1.284854e+002 
4315625000  -2.176490e+001  -1.347373e+002 
4318750000  -2.205688e+001  -1.380595e+002 
4321875000  -2.227894e+001  -1.375594e+002 
4325000000  -2.168146e+001  -1.368041e+002 
4328125000  -2.115165e+001  -1.431985e+002 
4331250000  -2.112372e+001  -1.511265e+002 
4334375000  -2.149278e+001  -1.562153e+002 
4337500000  -2.232370e+001  -1.585960e+002 
4340625000  -2.288842e+001  -1.556289e+002 
4343750000  -2.231239e+001  -1.550205e+002 
4346875000  -2.191386e+001  -1.603034e+002 
4350000000  -2.192805e+001  -1.650326e+002 
4353125000  -2.194284e+001  -1.723963e+002 
4356250000  -2.363199e+001  -1.741517e+002 
4359375000  -2.437090e+001  -1.611405e+002 
4362500000  -2.174420e+001  -1.587355e+002 
4365625000  -2.004621e+001  -1.703094e+002 
4368750000  -2.072126e+001  1.777020e+002 
4371875000  -2.197241e+001  1.783836e+002 
4375000000  -2.165777e+001  1.795259e+002 
4378125000  -2.098995e+001  1.736866e+002 
4381250000  -2.116169e+001  1.683314e+002 
4384375000  -2.103235e+001  1.638732e+002 
4387500000  -2.169874e+001  1.581392e+002 
4390625000  -2.270980e+001  1.588178e+002 
4393750000  -2.208568e+001  1.610090e+002 
4396875000  -2.139446e+001  1.589481e+002 
4400000000  -2.092177e+001  1.520998e+002 
4403125000  -2.146819e+001  1.443825e+002 
4406250000  -2.232148e+001  1.431742e+002 
4409375000  -2.223406e+001  1.408109e+002 
4412500000  -2.328607e+001  1.380384e+002 
4415625000  -2.371006e+001  1.426739e+002 
4418750000  -2.249433e+001  1.474969e+002 
4421875000  -2.109659e+001  1.436625e+002 
