!Agilent Technologies,E8363B,MY43030201,A.06.04.32
!Agilent E8363B: A.06.04.32
!Date: Tuesday, November 11, 2014 20:46:20
!Correction: S21(Response(S21)) 
!S1P File: Measurement: S21:
# Hz S  dB   R 50
3000000000  -2.642384e+001  1.548334e+002 
3003125000  -2.789135e+001  1.501352e+002 
3006250000  -2.790380e+001  1.475715e+002 
3009375000  -2.820187e+001  1.525211e+002 
3012500000  -2.772408e+001  1.522813e+002 
3015625000  -2.673527e+001  1.453155e+002 
3018750000  -2.760716e+001  1.442016e+002 
3021875000  -2.636604e+001  1.458044e+002 
3025000000  -2.506938e+001  1.426376e+002 
3028125000  -2.410152e+001  1.378307e+002 
3031250000  -2.304924e+001  1.265279e+002 
3034375000  -2.268092e+001  1.139102e+002 
3037500000  -2.300813e+001  1.016264e+002 
3040625000  -2.434553e+001  9.643221e+001 
3043750000  -2.507612e+001  9.239726e+001 
3046875000  -2.516717e+001  8.580927e+001 
3050000000  -2.692090e+001  7.884866e+001 
3053125000  -2.710422e+001  8.528933e+001 
3056250000  -2.640858e+001  8.836012e+001 
3059375000  -2.670968e+001  8.814681e+001 
3062500000  -2.523653e+001  8.398149e+001 
3065625000  -2.500343e+001  7.885252e+001 
3068750000  -2.470846e+001  7.150892e+001 
3071875000  -2.468469e+001  6.831755e+001 
3075000000  -2.469029e+001  6.479196e+001 
3078125000  -2.439052e+001  6.054462e+001 
3081250000  -2.502550e+001  5.639212e+001 
3084375000  -2.429722e+001  5.277666e+001 
3087500000  -2.415892e+001  4.913728e+001 
3090625000  -2.389184e+001  3.976450e+001 
3093750000  -2.427426e+001  3.154607e+001 
3096875000  -2.563323e+001  2.528536e+001 
3100000000  -2.578544e+001  2.406877e+001 
3103125000  -2.614370e+001  2.569837e+001 
3106250000  -2.590504e+001  2.210508e+001 
3109375000  -2.612621e+001  1.864337e+001 
3112500000  -2.625788e+001  1.786977e+001 
3115625000  -2.602690e+001  1.359685e+001 
3118750000  -2.652821e+001  1.491570e+001 
3121875000  -2.587131e+001  7.212747e+000 
3125000000  -2.699032e+001  3.628299e+000 
3128125000  -2.823223e+001  1.117194e+001 
3131250000  -2.609413e+001  1.218611e+001 
3134375000  -2.471510e+001  -1.039927e+000 
3137500000  -2.533972e+001  -1.554423e+001 
3140625000  -2.698318e+001  -1.729735e+001 
3143750000  -2.799512e+001  -1.269675e+001 
3146875000  -2.761013e+001  -1.063692e+001 
3150000000  -2.658189e+001  -8.337911e+000 
3153125000  -2.652570e+001  -1.634780e+001 
3156250000  -2.749793e+001  -1.112066e+001 
3159375000  -2.602075e+001  -7.934726e+000 
3162500000  -2.395729e+001  -2.074602e+001 
3165625000  -2.484651e+001  -3.170804e+001 
3168750000  -2.529637e+001  -3.096505e+001 
3171875000  -2.435049e+001  -3.491498e+001 
3175000000  -2.489902e+001  -4.279055e+001 
3178125000  -2.475859e+001  -4.117558e+001 
3181250000  -2.359084e+001  -4.484914e+001 
3184375000  -2.278016e+001  -5.728593e+001 
3187500000  -2.382514e+001  -7.260397e+001 
3190625000  -2.665772e+001  -8.053789e+001 
3193750000  -2.729777e+001  -7.072285e+001 
3196875000  -2.688035e+001  -6.530764e+001 
3200000000  -2.610354e+001  -6.709521e+001 
3203125000  -2.516945e+001  -7.250719e+001 
3206250000  -2.543194e+001  -7.881344e+001 
3209375000  -2.497326e+001  -8.398262e+001 
3212500000  -2.509306e+001  -9.057220e+001 
3215625000  -2.525421e+001  -9.524004e+001 
3218750000  -2.600414e+001  -1.014773e+002 
3221875000  -2.703589e+001  -1.062655e+002 
3225000000  -2.663654e+001  -1.066150e+002 
3228125000  -2.694818e+001  -1.112276e+002 
3231250000  -2.772855e+001  -1.141725e+002 
3234375000  -2.759669e+001  -1.129673e+002 
3237500000  -2.763829e+001  -1.146625e+002 
3240625000  -2.735825e+001  -1.163571e+002 
3243750000  -2.688496e+001  -1.229647e+002 
3246875000  -2.744358e+001  -1.295867e+002 
3250000000  -2.787419e+001  -1.314777e+002 
3253125000  -2.804343e+001  -1.329845e+002 
3256250000  -2.792300e+001  -1.386750e+002 
3259375000  -2.822305e+001  -1.463689e+002 
3262500000  -2.947477e+001  -1.493229e+002 
3265625000  -3.017743e+001  -1.459477e+002 
3268750000  -3.012377e+001  -1.433220e+002 
3271875000  -2.997588e+001  -1.423600e+002 
3275000000  -2.884156e+001  -1.471308e+002 
3278125000  -2.929381e+001  -1.533024e+002 
3281250000  -2.956104e+001  -1.520184e+002 
3284375000  -2.918044e+001  -1.578522e+002 
3287500000  -2.928832e+001  -1.602507e+002 
3290625000  -2.968957e+001  -1.643750e+002 
3293750000  -2.945627e+001  -1.698523e+002 
3296875000  -3.042060e+001  -1.702216e+002 
3300000000  -3.039040e+001  -1.690393e+002 
3303125000  -2.931468e+001  -1.734315e+002 
3306250000  -2.898326e+001  -1.799444e+002 
3309375000  -2.880280e+001  1.755221e+002 
3312500000  -2.886588e+001  1.651259e+002 
3315625000  -2.978054e+001  1.567820e+002 
3318750000  -3.114763e+001  1.542624e+002 
3321875000  -3.237405e+001  1.542641e+002 
3325000000  -3.305729e+001  1.583040e+002 
3328125000  -3.292601e+001  1.602517e+002 
3331250000  -3.172108e+001  1.680771e+002 
3334375000  -2.914977e+001  1.587976e+002 
3337500000  -2.922875e+001  1.404754e+002 
3340625000  -3.046035e+001  1.293774e+002 
3343750000  -3.254403e+001  1.274771e+002 
3346875000  -3.310159e+001  1.291424e+002 
3350000000  -3.248539e+001  1.282509e+002 
3353125000  -3.255563e+001  1.241244e+002 
3356250000  -3.235666e+001  1.165851e+002 
3359375000  -3.317245e+001  1.082174e+002 
3362500000  -3.448140e+001  1.020818e+002 
3365625000  -3.519521e+001  1.011479e+002 
3368750000  -3.616793e+001  9.966066e+001 
3371875000  -3.646217e+001  9.601266e+001 
3375000000  -3.822742e+001  9.399684e+001 
3378125000  -3.930647e+001  9.386594e+001 
3381250000  -4.081607e+001  9.896204e+001 
3384375000  -4.038146e+001  1.213269e+002 
3387500000  -3.700978e+001  1.078544e+002 
3390625000  -3.886473e+001  8.946012e+001 
3393750000  -4.058971e+001  9.388644e+001 
3396875000  -4.018752e+001  9.707809e+001 
3400000000  -4.013892e+001  9.103610e+001 
3403125000  -4.102732e+001  8.571476e+001 
3406250000  -4.198244e+001  9.025977e+001 
3409375000  -4.277060e+001  8.432209e+001 
3412500000  -4.337405e+001  8.789967e+001 
3415625000  -4.425219e+001  9.310181e+001 
3418750000  -4.470502e+001  9.800063e+001 
3421875000  -4.477987e+001  1.050286e+002 
3425000000  -4.392608e+001  1.092733e+002 
3428125000  -4.320684e+001  1.105806e+002 
3431250000  -4.312098e+001  1.071320e+002 
3434375000  -4.270462e+001  1.036103e+002 
3437500000  -4.295776e+001  1.046982e+002 
3440625000  -4.323212e+001  1.060821e+002 
3443750000  -4.206910e+001  1.093509e+002 
3446875000  -4.110200e+001  1.035477e+002 
3450000000  -4.082264e+001  9.465262e+001 
3453125000  -4.126747e+001  8.599339e+001 
3456250000  -4.243301e+001  7.996252e+001 
3459375000  -4.305070e+001  8.495944e+001 
3462500000  -4.322939e+001  8.726143e+001 
3465625000  -4.336185e+001  8.267855e+001 
3468750000  -4.385404e+001  7.934142e+001 
3471875000  -4.413668e+001  8.055367e+001 
3475000000  -4.334442e+001  7.781658e+001 
3478125000  -4.441378e+001  7.291107e+001 
3481250000  -4.531508e+001  7.029189e+001 
3484375000  -4.662737e+001  7.392673e+001 
3487500000  -4.649332e+001  8.152584e+001 
3490625000  -4.608599e+001  7.751442e+001 
3493750000  -4.674589e+001  7.453197e+001 
3496875000  -4.710260e+001  7.596052e+001 
3500000000  -4.863105e+001  8.638985e+001 
3503125000  -4.815209e+001  9.059782e+001 
3506250000  -4.710614e+001  9.052412e+001 
3509375000  -4.642708e+001  8.914487e+001 
3512500000  -4.763335e+001  8.810297e+001 
3515625000  -4.734298e+001  9.128992e+001 
3518750000  -4.782192e+001  9.350558e+001 
3521875000  -4.744608e+001  9.466024e+001 
3525000000  -4.701701e+001  9.847966e+001 
3528125000  -4.696464e+001  1.087837e+002 
3531250000  -4.496949e+001  1.077472e+002 
3534375000  -4.453844e+001  1.004032e+002 
3537500000  -4.395848e+001  9.601028e+001 
3540625000  -4.436084e+001  9.526653e+001 
3543750000  -4.493621e+001  9.799517e+001 
3546875000  -4.454679e+001  1.063923e+002 
3550000000  -4.197775e+001  1.106450e+002 
3553125000  -4.052458e+001  9.553257e+001 
3556250000  -4.146725e+001  9.013979e+001 
3559375000  -4.135424e+001  9.171496e+001 
3562500000  -4.006919e+001  8.454789e+001 
3565625000  -4.060360e+001  7.641957e+001 
3568750000  -4.068226e+001  7.992535e+001 
3571875000  -4.077515e+001  7.885320e+001 
3575000000  -4.001931e+001  7.485786e+001 
3578125000  -4.053195e+001  6.809646e+001 
3581250000  -4.074062e+001  6.780119e+001 
3584375000  -3.960792e+001  6.785335e+001 
3587500000  -3.916079e+001  6.118525e+001 
3590625000  -3.931390e+001  5.264573e+001 
3593750000  -4.047872e+001  4.987320e+001 
3596875000  -4.062268e+001  5.894168e+001 
3600000000  -3.913231e+001  5.437872e+001 
3603125000  -3.938572e+001  4.049843e+001 
3606250000  -4.006784e+001  3.659465e+001 
3609375000  -4.053772e+001  3.638426e+001 
3612500000  -4.063948e+001  3.488487e+001 
3615625000  -4.091143e+001  3.193589e+001 
3618750000  -4.194588e+001  3.245788e+001 
3621875000  -4.135116e+001  3.399606e+001 
3625000000  -4.190892e+001  3.195678e+001 
3628125000  -4.166988e+001  3.216361e+001 
3631250000  -4.166752e+001  2.691672e+001 
3634375000  -4.273969e+001  3.147826e+001 
3637500000  -4.245189e+001  3.588312e+001 
3640625000  -4.120510e+001  4.000345e+001 
3643750000  -4.104590e+001  3.321872e+001 
3646875000  -4.149292e+001  2.846226e+001 
3650000000  -4.188792e+001  2.784819e+001 
3653125000  -4.178169e+001  2.913336e+001 
3656250000  -4.179515e+001  2.895005e+001 
3659375000  -4.253612e+001  3.083015e+001 
3662500000  -4.171012e+001  3.096172e+001 
3665625000  -4.154530e+001  3.045884e+001 
3668750000  -4.037569e+001  3.388519e+001 
3671875000  -3.950304e+001  2.882338e+001 
3675000000  -3.997232e+001  2.193126e+001 
3678125000  -4.021021e+001  2.271184e+001 
3681250000  -3.977320e+001  2.488952e+001 
3684375000  -3.963285e+001  2.136680e+001 
3687500000  -3.966776e+001  2.155058e+001 
3690625000  -3.953367e+001  1.908028e+001 
3693750000  -4.016267e+001  1.975123e+001 
3696875000  -3.974348e+001  2.187619e+001 
3700000000  -3.882599e+001  2.104919e+001 
3703125000  -3.854032e+001  1.629473e+001 
3706250000  -3.931482e+001  1.890095e+001 
3709375000  -3.861651e+001  2.189239e+001 
3712500000  -3.752147e+001  2.147453e+001 
3715625000  -3.658871e+001  1.514177e+001 
3718750000  -3.581960e+001  1.209973e+001 
3721875000  -3.554900e+001  7.407407e+000 
3725000000  -3.531379e+001  3.082826e+000 
3728125000  -3.566356e+001  1.907551e+000 
3731250000  -3.509662e+001  1.461731e+000 
3734375000  -3.399344e+001  -3.931918e+000 
3737500000  -3.450455e+001  -1.059379e+001 
3740625000  -3.518044e+001  -1.483841e+001 
3743750000  -3.497948e+001  -1.591336e+001 
3746875000  -3.504026e+001  -1.877032e+001 
3750000000  -3.548238e+001  -1.951666e+001 
3753125000  -3.519328e+001  -1.944311e+001 
3756250000  -3.497601e+001  -2.020067e+001 
3759375000  -3.478105e+001  -2.050787e+001 
3762500000  -3.423232e+001  -2.345064e+001 
3765625000  -3.453220e+001  -2.671428e+001 
3768750000  -3.449730e+001  -2.442269e+001 
3771875000  -3.299372e+001  -2.592744e+001 
3775000000  -3.262554e+001  -3.418382e+001 
3778125000  -3.283106e+001  -3.542512e+001 
3781250000  -3.257647e+001  -3.832667e+001 
3784375000  -3.260709e+001  -3.995346e+001 
3787500000  -3.189048e+001  -4.383636e+001 
3790625000  -3.237064e+001  -4.912495e+001 
3793750000  -3.253732e+001  -4.978479e+001 
3796875000  -3.155241e+001  -5.033652e+001 
3800000000  -3.007177e+001  -5.553187e+001 
3803125000  -3.074615e+001  -6.178577e+001 
3806250000  -3.140182e+001  -6.456124e+001 
3809375000  -3.098594e+001  -6.625130e+001 
3812500000  -3.039059e+001  -7.126192e+001 
3815625000  -3.089414e+001  -7.828388e+001 
3818750000  -3.189441e+001  -7.990211e+001 
3821875000  -3.215644e+001  -7.301904e+001 
3825000000  -3.030625e+001  -6.764818e+001 
3828125000  -2.881267e+001  -8.169125e+001 
3831250000  -2.936435e+001  -9.577974e+001 
3834375000  -3.061259e+001  -9.665629e+001 
3837500000  -3.155249e+001  -9.172247e+001 
3840625000  -3.052381e+001  -9.304647e+001 
3843750000  -2.940310e+001  -1.027731e+002 
3846875000  -3.000712e+001  -1.105102e+002 
3850000000  -3.131238e+001  -1.047901e+002 
3853125000  -3.055219e+001  -1.021350e+002 
3856250000  -3.058191e+001  -1.067576e+002 
3859375000  -3.002655e+001  -1.114142e+002 
3862500000  -2.952424e+001  -1.180108e+002 
3865625000  -2.968647e+001  -1.228643e+002 
3868750000  -2.982867e+001  -1.232284e+002 
3871875000  -2.912080e+001  -1.255722e+002 
3875000000  -2.929007e+001  -1.334811e+002 
3878125000  -3.016423e+001  -1.371303e+002 
3881250000  -3.045395e+001  -1.333490e+002 
3884375000  -2.984468e+001  -1.373825e+002 
3887500000  -2.991739e+001  -1.413627e+002 
3890625000  -3.039433e+001  -1.436229e+002 
3893750000  -3.081404e+001  -1.450279e+002 
3896875000  -3.090822e+001  -1.441068e+002 
3900000000  -3.109728e+001  -1.448888e+002 
3903125000  -3.077885e+001  -1.469061e+002 
3906250000  -3.045646e+001  -1.480100e+002 
3909375000  -2.973414e+001  -1.500432e+002 
3912500000  -2.969543e+001  -1.573382e+002 
3915625000  -3.082491e+001  -1.567935e+002 
3918750000  -3.085140e+001  -1.548570e+002 
3921875000  -3.045640e+001  -1.573092e+002 
3925000000  -2.963378e+001  -1.578896e+002 
3928125000  -2.892684e+001  -1.638126e+002 
3931250000  -2.930460e+001  -1.679909e+002 
3934375000  -2.956878e+001  -1.678963e+002 
3937500000  -2.965266e+001  -1.686280e+002 
3940625000  -3.014575e+001  -1.690588e+002 
3943750000  -2.927088e+001  -1.676438e+002 
3946875000  -2.793697e+001  -1.726486e+002 
3950000000  -2.847825e+001  1.792813e+002 
3953125000  -2.944900e+001  1.791739e+002 
3956250000  -2.867552e+001  -1.784537e+002 
3959375000  -2.738820e+001  1.788466e+002 
3962500000  -2.686071e+001  1.745412e+002 
3965625000  -2.644490e+001  1.660974e+002 
3968750000  -2.744011e+001  1.590651e+002 
3971875000  -2.788260e+001  1.575749e+002 
3975000000  -2.722066e+001  1.561140e+002 
3978125000  -2.706521e+001  1.545177e+002 
3981250000  -2.687730e+001  1.504848e+002 
3984375000  -2.707951e+001  1.437994e+002 
3987500000  -2.767065e+001  1.421960e+002 
3990625000  -2.765173e+001  1.410072e+002 
3993750000  -2.787732e+001  1.385051e+002 
3996875000  -2.782410e+001  1.361398e+002 
4000000000  -2.792615e+001  1.338388e+002 
4003125000  -2.852152e+001  1.360550e+002 
4006250000  -2.722000e+001  1.369299e+002 
4009375000  -2.595499e+001  1.253707e+002 
4012500000  -2.693759e+001  1.182988e+002 
4015625000  -2.813833e+001  1.187950e+002 
4018750000  -2.838983e+001  1.212582e+002 
4021875000  -2.765715e+001  1.197215e+002 
4025000000  -2.731393e+001  1.147298e+002 
4028125000  -2.717178e+001  1.110293e+002 
4031250000  -2.756936e+001  1.076630e+002 
4034375000  -2.784300e+001  1.080115e+002 
4037500000  -2.730533e+001  1.095733e+002 
4040625000  -2.718172e+001  1.060197e+002 
4043750000  -2.750398e+001  1.056648e+002 
4046875000  -2.707484e+001  1.051634e+002 
4050000000  -2.654219e+001  9.930301e+001 
4053125000  -2.692624e+001  9.675640e+001 
4056250000  -2.754202e+001  1.007339e+002 
4059375000  -2.645221e+001  1.022904e+002 
4062500000  -2.493468e+001  9.782721e+001 
4065625000  -2.481535e+001  9.275961e+001 
4068750000  -2.459784e+001  8.789398e+001 
4071875000  -2.390601e+001  7.979550e+001 
4075000000  -2.429469e+001  7.363322e+001 
4078125000  -2.490769e+001  7.219723e+001 
4081250000  -2.439746e+001  6.996947e+001 
4084375000  -2.400661e+001  6.362449e+001 
4087500000  -2.437404e+001  5.685298e+001 
4090625000  -2.504196e+001  5.549733e+001 
4093750000  -2.490224e+001  5.655458e+001 
4096875000  -2.447263e+001  5.067419e+001 
4100000000  -2.508308e+001  4.374837e+001 
4103125000  -2.607430e+001  4.435355e+001 
4106250000  -2.600454e+001  4.917524e+001 
4109375000  -2.514100e+001  4.895666e+001 
4112500000  -2.460410e+001  4.250190e+001 
4115625000  -2.487613e+001  3.812271e+001 
4118750000  -2.502252e+001  3.538743e+001 
4121875000  -2.466314e+001  3.104666e+001 
4125000000  -2.494980e+001  2.637709e+001 
4128125000  -2.599207e+001  2.582574e+001 
4131250000  -2.574096e+001  3.409421e+001 
4134375000  -2.340753e+001  3.068281e+001 
4137500000  -2.321145e+001  1.162880e+001 
4140625000  -2.530157e+001  4.538108e+000 
4143750000  -2.666148e+001  9.359356e+000 
4146875000  -2.623911e+001  1.691136e+001 
4150000000  -2.533527e+001  1.399813e+001 
4153125000  -2.509118e+001  7.955620e+000 
4156250000  -2.597080e+001  5.566772e+000 
4159375000  -2.624802e+001  9.612428e+000 
4162500000  -2.503928e+001  1.357684e+001 
4165625000  -2.390722e+001  1.012696e+001 
4168750000  -2.324695e+001  2.880070e+000 
4171875000  -2.328111e+001  -6.630511e+000 
4175000000  -2.377688e+001  -1.213481e+001 
4178125000  -2.435569e+001  -1.247356e+001 
4181250000  -2.425122e+001  -1.318216e+001 
4184375000  -2.407211e+001  -1.655860e+001 
4187500000  -2.412620e+001  -1.922315e+001 
4190625000  -2.394155e+001  -2.466243e+001 
4193750000  -2.465589e+001  -2.892170e+001 
4196875000  -2.534624e+001  -2.909949e+001 
4200000000  -2.626049e+001  -2.755569e+001 
4203125000  -2.635576e+001  -1.519665e+001 
4206250000  -2.306178e+001  -1.249455e+001 
4209375000  -2.180046e+001  -3.292305e+001 
4212500000  -2.369871e+001  -4.218848e+001 
4215625000  -2.474502e+001  -3.651582e+001 
4218750000  -2.352815e+001  -2.978350e+001 
4221875000  -2.120869e+001  -3.841047e+001 
4225000000  -2.238265e+001  -5.101000e+001 
4228125000  -2.320824e+001  -4.612525e+001 
4231250000  -2.169696e+001  -4.972330e+001 
4234375000  -2.163876e+001  -5.820935e+001 
4237500000  -2.121677e+001  -6.115862e+001 
4240625000  -2.119799e+001  -6.910517e+001 
4243750000  -2.216559e+001  -7.590490e+001 
4246875000  -2.307657e+001  -7.634899e+001 
4250000000  -2.314129e+001  -7.322037e+001 
4253125000  -2.255059e+001  -7.492002e+001 
4256250000  -2.285438e+001  -7.931443e+001 
4259375000  -2.263389e+001  -8.090073e+001 
4262500000  -2.260299e+001  -8.418605e+001 
4265625000  -2.279827e+001  -8.410543e+001 
4268750000  -2.192385e+001  -8.757625e+001 
4271875000  -2.162671e+001  -9.300467e+001 
4275000000  -2.099680e+001  -9.953239e+001 
4278125000  -2.154800e+001  -1.105333e+002 
4281250000  -2.336065e+001  -1.125830e+002 
4284375000  -2.311373e+001  -1.115806e+002 
4287500000  -2.373054e+001  -1.152904e+002 
4290625000  -2.501364e+001  -1.061394e+002 
4293750000  -2.308743e+001  -1.003359e+002 
4296875000  -2.169945e+001  -1.114841e+002 
4300000000  -2.245663e+001  -1.208224e+002 
4303125000  -2.357670e+001  -1.202587e+002 
4306250000  -2.305288e+001  -1.142033e+002 
4309375000  -2.158444e+001  -1.160403e+002 
4312500000  -2.148739e+001  -1.240105e+002 
4315625000  -2.164994e+001  -1.306386e+002 
4318750000  -2.197068e+001  -1.340245e+002 
4321875000  -2.216932e+001  -1.341274e+002 
4325000000  -2.157555e+001  -1.334068e+002 
4328125000  -2.106520e+001  -1.396311e+002 
4331250000  -2.101461e+001  -1.478793e+002 
4334375000  -2.142196e+001  -1.532361e+002 
4337500000  -2.223472e+001  -1.555315e+002 
4340625000  -2.284764e+001  -1.524628e+002 
4343750000  -2.227920e+001  -1.520602e+002 
4346875000  -2.193690e+001  -1.573398e+002 
4350000000  -2.197186e+001  -1.619728e+002 
4353125000  -2.194926e+001  -1.698132e+002 
4356250000  -2.366391e+001  -1.714307e+002 
4359375000  -2.444305e+001  -1.589974e+002 
4362500000  -2.186114e+001  -1.560485e+002 
4365625000  -2.018449e+001  -1.671854e+002 
4368750000  -2.086111e+001  -1.789329e+002 
4371875000  -2.211533e+001  -1.785060e+002 
4375000000  -2.181694e+001  -1.770629e+002 
4378125000  -2.113695e+001  1.769762e+002 
4381250000  -2.132870e+001  1.717894e+002 
4384375000  -2.116819e+001  1.673611e+002 
4387500000  -2.186505e+001  1.617451e+002 
4390625000  -2.291251e+001  1.623903e+002 
4393750000  -2.225572e+001  1.648434e+002 
4396875000  -2.159108e+001  1.628603e+002 
4400000000  -2.101785e+001  1.561136e+002 
4403125000  -2.160559e+001  1.486593e+002 
4406250000  -2.244142e+001  1.473705e+002 
4409375000  -2.241445e+001  1.453887e+002 
4412500000  -2.340518e+001  1.425090e+002 
4415625000  -2.382698e+001  1.471848e+002 
4418750000  -2.264119e+001  1.519523e+002 
