!Agilent Technologies,E8363B,MY43030201,A.06.04.32
!Agilent E8363B: A.06.04.32
!Date: Tuesday, November 11, 2014 20:58:07
!Correction: S21(Response(S21)) 
!S1P File: Measurement: S21:
# Hz S  dB   R 50
3000000000  -2.654852e+001  1.469061e+002 
3003125000  -2.793839e+001  1.422685e+002 
3006250000  -2.795557e+001  1.398053e+002 
3009375000  -2.834719e+001  1.449522e+002 
3012500000  -2.773084e+001  1.441825e+002 
3015625000  -2.686020e+001  1.373747e+002 
3018750000  -2.770841e+001  1.369548e+002 
3021875000  -2.637751e+001  1.379365e+002 
3025000000  -2.507234e+001  1.348832e+002 
3028125000  -2.413655e+001  1.294856e+002 
3031250000  -2.308738e+001  1.183653e+002 
3034375000  -2.275565e+001  1.051885e+002 
3037500000  -2.312939e+001  9.345033e+001 
3040625000  -2.446257e+001  8.847589e+001 
3043750000  -2.514294e+001  8.421353e+001 
3046875000  -2.530017e+001  7.773550e+001 
3050000000  -2.699664e+001  7.117278e+001 
3053125000  -2.709654e+001  7.781519e+001 
3056250000  -2.643631e+001  8.066702e+001 
3059375000  -2.661684e+001  7.994025e+001 
3062500000  -2.515189e+001  7.638412e+001 
3065625000  -2.493375e+001  7.031674e+001 
3068750000  -2.465130e+001  6.366367e+001 
3071875000  -2.463210e+001  6.075544e+001 
3075000000  -2.455203e+001  5.657751e+001 
3078125000  -2.431071e+001  5.225731e+001 
3081250000  -2.494802e+001  4.796442e+001 
3084375000  -2.418104e+001  4.434586e+001 
3087500000  -2.410059e+001  4.059295e+001 
3090625000  -2.380782e+001  3.058672e+001 
3093750000  -2.426222e+001  2.301486e+001 
3096875000  -2.551923e+001  1.703044e+001 
3100000000  -2.563138e+001  1.583855e+001 
3103125000  -2.605661e+001  1.685974e+001 
3106250000  -2.575797e+001  1.344724e+001 
3109375000  -2.599874e+001  1.008290e+001 
3112500000  -2.612044e+001  8.736419e+000 
3115625000  -2.593323e+001  4.666411e+000 
3118750000  -2.642300e+001  5.882334e+000 
3121875000  -2.572740e+001  -2.164119e+000 
3125000000  -2.701189e+001  -5.411661e+000 
3128125000  -2.811209e+001  2.814556e+000 
3131250000  -2.588491e+001  3.145662e+000 
3134375000  -2.463092e+001  -1.093515e+001 
3137500000  -2.530655e+001  -2.418748e+001 
3140625000  -2.690512e+001  -2.569924e+001 
3143750000  -2.789421e+001  -2.190703e+001 
3146875000  -2.748298e+001  -1.972350e+001 
3150000000  -2.647734e+001  -1.766695e+001 
3153125000  -2.644263e+001  -2.571650e+001 
3156250000  -2.743162e+001  -1.972137e+001 
3159375000  -2.579833e+001  -1.711672e+001 
3162500000  -2.381712e+001  -3.009312e+001 
3165625000  -2.479122e+001  -4.089824e+001 
3168750000  -2.515323e+001  -3.999770e+001 
3171875000  -2.423749e+001  -4.429568e+001 
3175000000  -2.485293e+001  -5.214806e+001 
3178125000  -2.460314e+001  -5.044744e+001 
3181250000  -2.345055e+001  -5.455444e+001 
3184375000  -2.270339e+001  -6.664126e+001 
3187500000  -2.383751e+001  -8.165010e+001 
3190625000  -2.657449e+001  -8.898212e+001 
3193750000  -2.715530e+001  -7.951086e+001 
3196875000  -2.671438e+001  -7.405570e+001 
3200000000  -2.580148e+001  -7.613090e+001 
3203125000  -2.499288e+001  -8.191492e+001 
3206250000  -2.530241e+001  -8.801785e+001 
3209375000  -2.479200e+001  -9.321899e+001 
3212500000  -2.499342e+001  -1.000940e+002 
3215625000  -2.509621e+001  -1.036781e+002 
3218750000  -2.588110e+001  -1.101488e+002 
3221875000  -2.682210e+001  -1.151375e+002 
3225000000  -2.636358e+001  -1.158147e+002 
3228125000  -2.677012e+001  -1.206779e+002 
3231250000  -2.751983e+001  -1.227518e+002 
3234375000  -2.733907e+001  -1.220369e+002 
3237500000  -2.736022e+001  -1.235651e+002 
3240625000  -2.700743e+001  -1.255621e+002 
3243750000  -2.670879e+001  -1.321775e+002 
3246875000  -2.712460e+001  -1.385577e+002 
3250000000  -2.761149e+001  -1.405590e+002 
3253125000  -2.779004e+001  -1.422144e+002 
3256250000  -2.761695e+001  -1.484706e+002 
3259375000  -2.794051e+001  -1.556234e+002 
3262500000  -2.923289e+001  -1.582915e+002 
3265625000  -2.986253e+001  -1.551681e+002 
3268750000  -2.984219e+001  -1.522029e+002 
3271875000  -2.960400e+001  -1.517569e+002 
3275000000  -2.844558e+001  -1.568331e+002 
3278125000  -2.903661e+001  -1.626467e+002 
3281250000  -2.929538e+001  -1.611219e+002 
3284375000  -2.879573e+001  -1.666060e+002 
3287500000  -2.896467e+001  -1.695018e+002 
3290625000  -2.937175e+001  -1.738902e+002 
3293750000  -2.905608e+001  -1.795046e+002 
3296875000  -3.008686e+001  -1.793377e+002 
3300000000  -3.002728e+001  -1.784657e+002 
3303125000  -2.883158e+001  1.779850e+002 
3306250000  -2.860630e+001  1.713721e+002 
3309375000  -2.840874e+001  1.658514e+002 
3312500000  -2.844939e+001  1.557160e+002 
3315625000  -2.944007e+001  1.480810e+002 
3318750000  -3.082136e+001  1.454620e+002 
3321875000  -3.200186e+001  1.454951e+002 
3325000000  -3.257162e+001  1.518425e+002 
3328125000  -3.240125e+001  1.519970e+002 
3331250000  -3.116004e+001  1.598281e+002 
3334375000  -2.844591e+001  1.500085e+002 
3337500000  -2.863781e+001  1.311675e+002 
3340625000  -2.997185e+001  1.205561e+002 
3343750000  -3.198042e+001  1.193066e+002 
3346875000  -3.237521e+001  1.212078e+002 
3350000000  -3.179590e+001  1.201312e+002 
3353125000  -3.186219e+001  1.152431e+002 
3356250000  -3.163748e+001  1.078966e+002 
3359375000  -3.249021e+001  9.918513e+001 
3362500000  -3.384662e+001  9.405304e+001 
3365625000  -3.437664e+001  9.230946e+001 
3368750000  -3.536625e+001  9.084634e+001 
3371875000  -3.570673e+001  8.717827e+001 
3375000000  -3.730989e+001  8.510039e+001 
3378125000  -3.835222e+001  8.510728e+001 
3381250000  -3.997844e+001  9.488576e+001 
3384375000  -3.892856e+001  1.142085e+002 
3387500000  -3.582353e+001  1.004404e+002 
3390625000  -3.782505e+001  8.152934e+001 
3393750000  -3.945719e+001  8.460255e+001 
3396875000  -3.834450e+001  8.923406e+001 
3400000000  -3.849711e+001  8.117777e+001 
3403125000  -3.939619e+001  7.756618e+001 
3406250000  -4.041086e+001  7.946665e+001 
3409375000  -4.092016e+001  7.516049e+001 
3412500000  -4.183167e+001  7.689694e+001 
3415625000  -4.255115e+001  8.093121e+001 
3418750000  -4.308393e+001  8.550376e+001 
3421875000  -4.309663e+001  9.140711e+001 
3425000000  -4.216651e+001  9.606010e+001 
3428125000  -4.127430e+001  9.340481e+001 
3431250000  -4.138438e+001  9.026788e+001 
3434375000  -4.096966e+001  8.727142e+001 
3437500000  -4.163851e+001  8.437331e+001 
3440625000  -4.198537e+001  8.888044e+001 
3443750000  -4.058957e+001  9.136166e+001 
3446875000  -3.969627e+001  8.584593e+001 
3450000000  -3.943325e+001  7.586394e+001 
3453125000  -3.979129e+001  6.731532e+001 
3456250000  -4.097448e+001  6.174366e+001 
3459375000  -4.211279e+001  6.454676e+001 
3462500000  -4.206270e+001  6.487128e+001 
3465625000  -4.201358e+001  6.098956e+001 
3468750000  -4.242952e+001  6.055075e+001 
3471875000  -4.237700e+001  5.940581e+001 
3475000000  -4.228967e+001  5.430579e+001 
3478125000  -4.322410e+001  4.894197e+001 
3481250000  -4.440593e+001  4.894797e+001 
3484375000  -4.604681e+001  5.214978e+001 
3487500000  -4.528012e+001  5.546564e+001 
3490625000  -4.505165e+001  5.338887e+001 
3493750000  -4.561220e+001  4.983452e+001 
3496875000  -4.685527e+001  5.066017e+001 
3500000000  -4.788355e+001  5.953482e+001 
3503125000  -4.703229e+001  6.156043e+001 
3506250000  -4.647700e+001  6.330282e+001 
3509375000  -4.672269e+001  5.893507e+001 
3512500000  -4.725089e+001  5.938360e+001 
3515625000  -4.780109e+001  6.561198e+001 
3518750000  -4.833861e+001  6.928699e+001 
3521875000  -4.772877e+001  7.479743e+001 
3525000000  -4.765183e+001  7.591404e+001 
3528125000  -4.750098e+001  8.710294e+001 
3531250000  -4.552499e+001  8.643941e+001 
3534375000  -4.494052e+001  7.591982e+001 
3537500000  -4.536213e+001  7.440150e+001 
3540625000  -4.571961e+001  7.532257e+001 
3543750000  -4.561959e+001  7.804723e+001 
3546875000  -4.554151e+001  9.064806e+001 
3550000000  -4.269403e+001  9.138802e+001 
3553125000  -4.151873e+001  7.547974e+001 
3556250000  -4.248783e+001  7.304710e+001 
3559375000  -4.216290e+001  7.275199e+001 
3562500000  -4.110978e+001  6.505199e+001 
3565625000  -4.174151e+001  6.032714e+001 
3568750000  -4.192384e+001  6.147581e+001 
3571875000  -4.163661e+001  6.293745e+001 
3575000000  -4.136956e+001  5.716522e+001 
3578125000  -4.176589e+001  5.593040e+001 
3581250000  -4.176091e+001  5.507613e+001 
3584375000  -4.087919e+001  5.419319e+001 
3587500000  -4.002464e+001  4.757387e+001 
3590625000  -4.047564e+001  3.854658e+001 
3593750000  -4.165618e+001  3.707330e+001 
3596875000  -4.139936e+001  4.769777e+001 
3600000000  -3.978022e+001  4.278509e+001 
3603125000  -3.984589e+001  3.120857e+001 
3606250000  -4.057458e+001  2.690058e+001 
3609375000  -4.117563e+001  2.652739e+001 
3612500000  -4.130991e+001  2.571706e+001 
3615625000  -4.147042e+001  2.304776e+001 
3618750000  -4.193980e+001  2.764079e+001 
3621875000  -4.135424e+001  2.442430e+001 
3625000000  -4.180572e+001  2.319303e+001 
3628125000  -4.173515e+001  2.427936e+001 
3631250000  -4.131280e+001  2.005860e+001 
3634375000  -4.246278e+001  2.070815e+001 
3637500000  -4.199859e+001  2.639336e+001 
3640625000  -4.104392e+001  2.675290e+001 
3643750000  -4.041294e+001  2.088502e+001 
3646875000  -4.115401e+001  1.614024e+001 
3650000000  -4.175887e+001  1.621222e+001 
3653125000  -4.130173e+001  1.505964e+001 
3656250000  -4.183929e+001  1.288548e+001 
3659375000  -4.178482e+001  1.693634e+001 
3662500000  -4.090754e+001  1.658692e+001 
3665625000  -4.147114e+001  1.549617e+001 
3668750000  -3.980796e+001  1.750293e+001 
3671875000  -3.913168e+001  1.147745e+001 
3675000000  -3.973117e+001  6.270925e+000 
3678125000  -4.028281e+001  8.617315e+000 
3681250000  -3.964890e+001  9.248726e+000 
3684375000  -3.954334e+001  5.476462e+000 
3687500000  -3.955958e+001  4.778199e+000 
3690625000  -3.983745e+001  2.598823e+000 
3693750000  -4.028662e+001  6.137018e+000 
3696875000  -4.001545e+001  8.381988e+000 
3700000000  -3.899447e+001  6.925567e+000 
3703125000  -3.879170e+001  3.237706e+000 
3706250000  -3.962924e+001  6.112369e+000 
3709375000  -3.861168e+001  9.588950e+000 
3712500000  -3.729174e+001  8.642503e+000 
3715625000  -3.635537e+001  2.833936e+000 
3718750000  -3.578620e+001  -2.819692e-001 
3721875000  -3.533679e+001  -5.651386e+000 
3725000000  -3.517177e+001  -9.243882e+000 
3728125000  -3.528753e+001  -1.110681e+001 
3731250000  -3.473286e+001  -1.108590e+001 
3734375000  -3.376255e+001  -1.687840e+001 
3737500000  -3.417355e+001  -2.401842e+001 
3740625000  -3.482257e+001  -2.724770e+001 
3743750000  -3.457614e+001  -2.955319e+001 
3746875000  -3.457708e+001  -3.360835e+001 
3750000000  -3.494808e+001  -3.391771e+001 
3753125000  -3.439854e+001  -3.415482e+001 
3756250000  -3.436663e+001  -3.435139e+001 
3759375000  -3.422141e+001  -3.569775e+001 
3762500000  -3.365429e+001  -4.001703e+001 
3765625000  -3.428020e+001  -4.204022e+001 
3768750000  -3.427691e+001  -4.048635e+001 
3771875000  -3.243725e+001  -4.286507e+001 
3775000000  -3.222113e+001  -5.072568e+001 
3778125000  -3.260370e+001  -5.311918e+001 
3781250000  -3.236515e+001  -5.550169e+001 
3784375000  -3.231028e+001  -5.697092e+001 
3787500000  -3.170364e+001  -6.072775e+001 
3790625000  -3.221965e+001  -6.631020e+001 
3793750000  -3.243006e+001  -6.730872e+001 
3796875000  -3.146456e+001  -6.848138e+001 
3800000000  -2.984585e+001  -7.229005e+001 
3803125000  -3.074297e+001  -7.944439e+001 
3806250000  -3.146494e+001  -8.110699e+001 
3809375000  -3.110962e+001  -8.242079e+001 
3812500000  -3.043583e+001  -8.766254e+001 
3815625000  -3.106358e+001  -9.468307e+001 
3818750000  -3.213730e+001  -9.650011e+001 
3821875000  -3.212223e+001  -8.767117e+001 
3825000000  -3.007388e+001  -8.337139e+001 
3828125000  -2.875612e+001  -9.750184e+001 
3831250000  -2.927864e+001  -1.111832e+002 
3834375000  -3.067539e+001  -1.121416e+002 
3837500000  -3.155630e+001  -1.073623e+002 
3840625000  -3.049257e+001  -1.077423e+002 
3843750000  -2.915915e+001  -1.181711e+002 
3846875000  -3.001562e+001  -1.253990e+002 
3850000000  -3.132906e+001  -1.200512e+002 
3853125000  -3.049587e+001  -1.173180e+002 
3856250000  -3.040185e+001  -1.215075e+002 
3859375000  -2.970822e+001  -1.267023e+002 
3862500000  -2.933178e+001  -1.340048e+002 
3865625000  -2.950352e+001  -1.388162e+002 
3868750000  -2.959322e+001  -1.389390e+002 
3871875000  -2.884914e+001  -1.422747e+002 
3875000000  -2.904527e+001  -1.508920e+002 
3878125000  -3.007610e+001  -1.529530e+002 
3881250000  -3.016727e+001  -1.500108e+002 
3884375000  -2.959871e+001  -1.548742e+002 
3887500000  -2.975584e+001  -1.585011e+002 
3890625000  -3.028071e+001  -1.612601e+002 
3893750000  -3.073621e+001  -1.620810e+002 
3896875000  -3.074300e+001  -1.617051e+002 
3900000000  -3.117197e+001  -1.625308e+002 
3903125000  -3.068856e+001  -1.647444e+002 
3906250000  -3.036686e+001  -1.654454e+002 
3909375000  -2.970366e+001  -1.678752e+002 
3912500000  -2.983253e+001  -1.756776e+002 
3915625000  -3.099855e+001  -1.745388e+002 
3918750000  -3.099280e+001  -1.727659e+002 
3921875000  -3.063707e+001  -1.743249e+002 
3925000000  -2.980872e+001  -1.750672e+002 
3928125000  -2.911389e+001  1.787712e+002 
3931250000  -2.960950e+001  1.750968e+002 
3934375000  -2.987348e+001  1.753179e+002 
3937500000  -2.996983e+001  1.749996e+002 
3940625000  -3.036287e+001  1.744850e+002 
3943750000  -2.942880e+001  1.766104e+002 
3946875000  -2.820644e+001  1.710061e+002 
3950000000  -2.877054e+001  1.631701e+002 
3953125000  -2.964943e+001  1.640451e+002 
3956250000  -2.883223e+001  1.667269e+002 
3959375000  -2.741236e+001  1.638331e+002 
3962500000  -2.694185e+001  1.590790e+002 
3965625000  -2.660501e+001  1.503267e+002 
3968750000  -2.749767e+001  1.441698e+002 
3971875000  -2.789761e+001  1.423218e+002 
3975000000  -2.722528e+001  1.406378e+002 
3978125000  -2.698746e+001  1.392500e+002 
3981250000  -2.679645e+001  1.345987e+002 
3984375000  -2.705746e+001  1.282765e+002 
3987500000  -2.751461e+001  1.266205e+002 
3990625000  -2.754274e+001  1.256096e+002 
3993750000  -2.783629e+001  1.222251e+002 
3996875000  -2.769441e+001  1.199450e+002 
4000000000  -2.790322e+001  1.176345e+002 
4003125000  -2.852351e+001  1.201544e+002 
4006250000  -2.705569e+001  1.202499e+002 
4009375000  -2.584843e+001  1.084859e+002 
4012500000  -2.694544e+001  1.011812e+002 
4015625000  -2.821561e+001  1.016117e+002 
4018750000  -2.832170e+001  1.041122e+002 
4021875000  -2.770349e+001  1.020895e+002 
4025000000  -2.735822e+001  9.732259e+001 
4028125000  -2.726340e+001  9.341081e+001 
4031250000  -2.764274e+001  9.039312e+001 
4034375000  -2.798805e+001  9.059344e+001 
4037500000  -2.743051e+001  9.237848e+001 
4040625000  -2.740317e+001  8.911186e+001 
4043750000  -2.775412e+001  8.868252e+001 
4046875000  -2.730654e+001  8.832614e+001 
4050000000  -2.681960e+001  8.315413e+001 
4053125000  -2.721419e+001  8.069464e+001 
4056250000  -2.787624e+001  8.491102e+001 
4059375000  -2.655813e+001  8.656664e+001 
4062500000  -2.519131e+001  8.200378e+001 
4065625000  -2.508232e+001  7.736066e+001 
4068750000  -2.478368e+001  7.297617e+001 
4071875000  -2.412052e+001  6.516296e+001 
4075000000  -2.453770e+001  5.854917e+001 
4078125000  -2.508349e+001  5.768607e+001 
4081250000  -2.454399e+001  5.512503e+001 
4084375000  -2.412358e+001  4.849489e+001 
4087500000  -2.453664e+001  4.197848e+001 
4090625000  -2.514568e+001  4.114377e+001 
4093750000  -2.487243e+001  4.195285e+001 
4096875000  -2.449074e+001  3.560446e+001 
4100000000  -2.516495e+001  2.906984e+001 
4103125000  -2.606083e+001  2.949773e+001 
4106250000  -2.593430e+001  3.462550e+001 
4109375000  -2.503290e+001  3.410364e+001 
4112500000  -2.446459e+001  2.710605e+001 
4115625000  -2.483417e+001  2.286073e+001 
4118750000  -2.490139e+001  2.000770e+001 
4121875000  -2.451592e+001  1.518837e+001 
4125000000  -2.492875e+001  9.987550e+000 
4128125000  -2.594498e+001  1.070861e+001 
4131250000  -2.560511e+001  1.845345e+001 
4134375000  -2.323293e+001  1.398803e+001 
4137500000  -2.312123e+001  -4.967956e+000 
4140625000  -2.525812e+001  -1.192091e+001 
4143750000  -2.657443e+001  -6.482462e+000 
4146875000  -2.614594e+001  7.435027e-001 
4150000000  -2.520218e+001  -2.539116e+000 
4153125000  -2.501536e+001  -9.207004e+000 
4156250000  -2.597069e+001  -1.186108e+001 
4159375000  -2.622910e+001  -7.114132e+000 
4162500000  -2.505531e+001  -2.596349e+000 
4165625000  -2.390756e+001  -6.945937e+000 
4168750000  -2.333345e+001  -1.441297e+001 
4171875000  -2.331960e+001  -2.356600e+001 
4175000000  -2.392386e+001  -2.923852e+001 
4178125000  -2.452273e+001  -2.896775e+001 
4181250000  -2.433213e+001  -2.964357e+001 
4184375000  -2.421565e+001  -3.309693e+001 
4187500000  -2.427337e+001  -3.565268e+001 
4190625000  -2.409641e+001  -4.126701e+001 
4193750000  -2.488490e+001  -4.483677e+001 
4196875000  -2.559318e+001  -4.535091e+001 
4200000000  -2.649389e+001  -4.261350e+001 
4203125000  -2.647137e+001  -2.907078e+001 
4206250000  -2.304520e+001  -2.822035e+001 
4209375000  -2.186152e+001  -4.870381e+001 
4212500000  -2.379906e+001  -5.745252e+001 
4215625000  -2.482750e+001  -5.098665e+001 
4218750000  -2.343773e+001  -4.469050e+001 
4221875000  -2.119227e+001  -5.340266e+001 
4225000000  -2.245573e+001  -6.566468e+001 
4228125000  -2.311874e+001  -6.127741e+001 
4231250000  -2.149619e+001  -6.474825e+001 
4234375000  -2.146428e+001  -7.306729e+001 
4237500000  -2.103091e+001  -7.637032e+001 
4240625000  -2.106667e+001  -8.529119e+001 
4243750000  -2.203841e+001  -9.205949e+001 
4246875000  -2.293974e+001  -9.206149e+001 
4250000000  -2.297778e+001  -8.903113e+001 
4253125000  -2.243700e+001  -9.095242e+001 
4256250000  -2.269386e+001  -9.492645e+001 
4259375000  -2.242097e+001  -9.686822e+001 
4262500000  -2.244905e+001  -1.007143e+002 
4265625000  -2.260706e+001  -1.002249e+002 
4268750000  -2.168867e+001  -1.045984e+002 
4271875000  -2.144752e+001  -1.103247e+002 
4275000000  -2.088310e+001  -1.166980e+002 
4278125000  -2.150961e+001  -1.279544e+002 
4281250000  -2.333813e+001  -1.297287e+002 
4284375000  -2.298149e+001  -1.291672e+002 
4287500000  -2.378517e+001  -1.323637e+002 
4290625000  -2.498865e+001  -1.228512e+002 
4293750000  -2.297103e+001  -1.174668e+002 
4296875000  -2.166940e+001  -1.287065e+002 
4300000000  -2.251124e+001  -1.378246e+002 
4303125000  -2.364178e+001  -1.368300e+002 
4306250000  -2.297004e+001  -1.307760e+002 
4309375000  -2.159203e+001  -1.330126e+002 
4312500000  -2.149337e+001  -1.413737e+002 
4315625000  -2.170727e+001  -1.476321e+002 
4318750000  -2.204406e+001  -1.507989e+002 
4321875000  -2.221150e+001  -1.501488e+002 
4325000000  -2.162024e+001  -1.494711e+002 
4328125000  -2.112954e+001  -1.560676e+002 
4331250000  -2.106673e+001  -1.641680e+002 
4334375000  -2.150827e+001  -1.692438e+002 
4337500000  -2.235747e+001  -1.713835e+002 
4340625000  -2.293685e+001  -1.678916e+002 
4343750000  -2.229325e+001  -1.675947e+002 
4346875000  -2.189974e+001  -1.732868e+002 
4350000000  -2.192554e+001  -1.783243e+002 
4353125000  -2.201090e+001  1.742535e+002 
4356250000  -2.376219e+001  1.735993e+002 
4359375000  -2.430957e+001  -1.726803e+002 
4362500000  -2.154867e+001  -1.708886e+002 
4365625000  -1.999469e+001  1.768093e+002 
4368750000  -2.076376e+001  1.649582e+002 
4371875000  -2.194620e+001  1.657885e+002 
4375000000  -2.158224e+001  1.665751e+002 
4378125000  -2.094424e+001  1.607632e+002 
4381250000  -2.110524e+001  1.554891e+002 
4384375000  -2.092168e+001  1.509040e+002 
4387500000  -2.170018e+001  1.452008e+002 
4390625000  -2.269295e+001  1.458393e+002 
4393750000  -2.203941e+001  1.480437e+002 
4396875000  -2.131858e+001  1.457369e+002 
4400000000  -2.083768e+001  1.390329e+002 
4403125000  -2.142983e+001  1.312049e+002 
4406250000  -2.228186e+001  1.301831e+002 
4409375000  -2.224789e+001  1.276881e+002 
4412500000  -2.331225e+001  1.249531e+002 
4415625000  -2.361256e+001  1.303276e+002 
4418750000  -2.240808e+001  1.348426e+002 
