!Agilent Technologies,E8363B,MY43030201,A.06.04.32
!Agilent E8363B: A.06.04.32
!Date: Tuesday, November 11, 2014 20:54:12
!Correction: S21(Response(S21)) 
!S1P File: Measurement: S21:
# Hz S  dB   R 50
3000000000  -2.664380e+001  1.510710e+002 
3003125000  -2.802342e+001  1.464545e+002 
3006250000  -2.807948e+001  1.437907e+002 
3009375000  -2.842048e+001  1.489257e+002 
3012500000  -2.784395e+001  1.484650e+002 
3015625000  -2.693439e+001  1.412142e+002 
3018750000  -2.778191e+001  1.405105e+002 
3021875000  -2.650087e+001  1.418180e+002 
3025000000  -2.522496e+001  1.386833e+002 
3028125000  -2.426773e+001  1.335954e+002 
3031250000  -2.321639e+001  1.224586e+002 
3034375000  -2.283223e+001  1.093387e+002 
3037500000  -2.320079e+001  9.750965e+001 
3040625000  -2.453294e+001  9.260046e+001 
3043750000  -2.521062e+001  8.819117e+001 
3046875000  -2.534888e+001  8.181691e+001 
3050000000  -2.707131e+001  7.478123e+001 
3053125000  -2.716475e+001  8.150066e+001 
3056250000  -2.656750e+001  8.442280e+001 
3059375000  -2.679510e+001  8.373547e+001 
3062500000  -2.531224e+001  8.005273e+001 
3065625000  -2.506142e+001  7.430423e+001 
3068750000  -2.473697e+001  6.733107e+001 
3071875000  -2.472913e+001  6.452706e+001 
3075000000  -2.469885e+001  6.058967e+001 
3078125000  -2.443264e+001  5.614868e+001 
3081250000  -2.505302e+001  5.193501e+001 
3084375000  -2.429822e+001  4.809671e+001 
3087500000  -2.419628e+001  4.472670e+001 
3090625000  -2.389509e+001  3.484386e+001 
3093750000  -2.434122e+001  2.700567e+001 
3096875000  -2.561378e+001  2.107235e+001 
3100000000  -2.575300e+001  1.969903e+001 
3103125000  -2.610404e+001  2.089568e+001 
3106250000  -2.582189e+001  1.727446e+001 
3109375000  -2.612222e+001  1.388103e+001 
3112500000  -2.623854e+001  1.299251e+001 
3115625000  -2.600203e+001  8.596143e+000 
3118750000  -2.651576e+001  1.016437e+001 
3121875000  -2.584591e+001  1.670995e+000 
3125000000  -2.703796e+001  -1.531657e+000 
3128125000  -2.824395e+001  6.641430e+000 
3131250000  -2.601769e+001  7.094988e+000 
3134375000  -2.468243e+001  -6.404550e+000 
3137500000  -2.532203e+001  -2.020673e+001 
3140625000  -2.695617e+001  -2.192766e+001 
3143750000  -2.793349e+001  -1.790453e+001 
3146875000  -2.757319e+001  -1.602822e+001 
3150000000  -2.650806e+001  -1.386273e+001 
3153125000  -2.650461e+001  -2.129700e+001 
3156250000  -2.755576e+001  -1.558846e+001 
3159375000  -2.590637e+001  -1.310193e+001 
3162500000  -2.388002e+001  -2.603478e+001 
3165625000  -2.479098e+001  -3.696003e+001 
3168750000  -2.522144e+001  -3.590181e+001 
3171875000  -2.426959e+001  -4.028265e+001 
3175000000  -2.490981e+001  -4.806416e+001 
3178125000  -2.467061e+001  -4.646497e+001 
3181250000  -2.351237e+001  -5.037872e+001 
3184375000  -2.270991e+001  -6.249348e+001 
3187500000  -2.384812e+001  -7.792061e+001 
3190625000  -2.656279e+001  -8.542840e+001 
3193750000  -2.719465e+001  -7.559312e+001 
3196875000  -2.675104e+001  -7.028454e+001 
3200000000  -2.590469e+001  -7.247563e+001 
3203125000  -2.500995e+001  -7.802444e+001 
3206250000  -2.534177e+001  -8.433964e+001 
3209375000  -2.488096e+001  -8.934299e+001 
3212500000  -2.500872e+001  -9.570322e+001 
3215625000  -2.509886e+001  -9.961990e+001 
3218750000  -2.588659e+001  -1.060969e+002 
3221875000  -2.680915e+001  -1.115322e+002 
3225000000  -2.644429e+001  -1.118962e+002 
3228125000  -2.676008e+001  -1.164802e+002 
3231250000  -2.750586e+001  -1.189388e+002 
3234375000  -2.737896e+001  -1.179367e+002 
3237500000  -2.738692e+001  -1.196371e+002 
3240625000  -2.707993e+001  -1.217362e+002 
3243750000  -2.665952e+001  -1.280443e+002 
3246875000  -2.716472e+001  -1.345906e+002 
3250000000  -2.764515e+001  -1.365830e+002 
3253125000  -2.780237e+001  -1.381232e+002 
3256250000  -2.766413e+001  -1.441302e+002 
3259375000  -2.789439e+001  -1.516196e+002 
3262500000  -2.924145e+001  -1.548257e+002 
3265625000  -2.986106e+001  -1.512720e+002 
3268750000  -2.986502e+001  -1.484835e+002 
3271875000  -2.955335e+001  -1.474536e+002 
3275000000  -2.856010e+001  -1.523447e+002 
3278125000  -2.903322e+001  -1.585785e+002 
3281250000  -2.927314e+001  -1.570859e+002 
3284375000  -2.884413e+001  -1.627906e+002 
3287500000  -2.900898e+001  -1.656345e+002 
3290625000  -2.938295e+001  -1.699036e+002 
3293750000  -2.911584e+001  -1.756142e+002 
3296875000  -3.013568e+001  -1.754818e+002 
3300000000  -2.995813e+001  -1.743191e+002 
3303125000  -2.887380e+001  -1.783574e+002 
3306250000  -2.863908e+001  1.749886e+002 
3309375000  -2.840626e+001  1.702296e+002 
3312500000  -2.846659e+001  1.597359e+002 
3315625000  -2.946584e+001  1.521773e+002 
3318750000  -3.078607e+001  1.493026e+002 
3321875000  -3.198120e+001  1.497003e+002 
3325000000  -3.255828e+001  1.543251e+002 
3328125000  -3.237020e+001  1.562785e+002 
3331250000  -3.121150e+001  1.629986e+002 
3334375000  -2.854572e+001  1.536630e+002 
3337500000  -2.859953e+001  1.353611e+002 
3340625000  -2.992852e+001  1.247826e+002 
3343750000  -3.195711e+001  1.231375e+002 
3346875000  -3.244062e+001  1.245799e+002 
3350000000  -3.178644e+001  1.232729e+002 
3353125000  -3.184796e+001  1.193042e+002 
3356250000  -3.163415e+001  1.111400e+002 
3359375000  -3.251534e+001  1.024910e+002 
3362500000  -3.374240e+001  9.707485e+001 
3365625000  -3.434332e+001  9.587266e+001 
3368750000  -3.528694e+001  9.444572e+001 
3371875000  -3.562026e+001  9.038518e+001 
3375000000  -3.727913e+001  8.937137e+001 
3378125000  -3.831504e+001  8.803965e+001 
3381250000  -3.985153e+001  9.734525e+001 
3384375000  -3.907902e+001  1.176693e+002 
3387500000  -3.577810e+001  1.024240e+002 
3390625000  -3.745623e+001  8.335924e+001 
3393750000  -3.927336e+001  8.833467e+001 
3396875000  -3.845201e+001  9.212478e+001 
3400000000  -3.851541e+001  8.399432e+001 
3403125000  -3.965862e+001  7.914606e+001 
3406250000  -4.016528e+001  8.403381e+001 
3409375000  -4.083854e+001  7.776571e+001 
3412500000  -4.169352e+001  7.960680e+001 
3415625000  -4.267305e+001  8.316391e+001 
3418750000  -4.308316e+001  8.652810e+001 
3421875000  -4.321327e+001  9.573453e+001 
3425000000  -4.255236e+001  9.719765e+001 
3428125000  -4.127057e+001  9.621542e+001 
3431250000  -4.141415e+001  9.315253e+001 
3434375000  -4.108510e+001  8.843764e+001 
3437500000  -4.183349e+001  8.920818e+001 
3440625000  -4.191510e+001  9.098995e+001 
3443750000  -4.087198e+001  9.317847e+001 
3446875000  -4.000134e+001  8.724646e+001 
3450000000  -3.982989e+001  7.794985e+001 
3453125000  -4.003654e+001  6.917920e+001 
3456250000  -4.124871e+001  6.426433e+001 
3459375000  -4.218460e+001  6.722822e+001 
3462500000  -4.226706e+001  6.666376e+001 
3465625000  -4.252032e+001  6.320031e+001 
3468750000  -4.300554e+001  5.995808e+001 
3471875000  -4.273423e+001  6.237570e+001 
3475000000  -4.250133e+001  5.743168e+001 
3478125000  -4.354176e+001  5.106178e+001 
3481250000  -4.461012e+001  5.127765e+001 
3484375000  -4.595884e+001  5.255916e+001 
3487500000  -4.598837e+001  5.793636e+001 
3490625000  -4.572228e+001  5.422441e+001 
3493750000  -4.622864e+001  5.148034e+001 
3496875000  -4.719243e+001  5.335892e+001 
3500000000  -4.878013e+001  6.243137e+001 
3503125000  -4.832615e+001  6.417693e+001 
3506250000  -4.734056e+001  6.797243e+001 
3509375000  -4.754983e+001  6.682367e+001 
3512500000  -4.814557e+001  6.560678e+001 
3515625000  -4.835201e+001  7.137810e+001 
3518750000  -4.918012e+001  7.946074e+001 
3521875000  -4.901567e+001  8.092667e+001 
3525000000  -4.873539e+001  8.297163e+001 
3528125000  -4.810431e+001  9.478095e+001 
3531250000  -4.625834e+001  9.408543e+001 
3534375000  -4.542995e+001  8.703323e+001 
3537500000  -4.516683e+001  8.186710e+001 
3540625000  -4.565169e+001  8.210778e+001 
3543750000  -4.619500e+001  8.819524e+001 
3546875000  -4.605619e+001  9.862628e+001 
3550000000  -4.312836e+001  1.001545e+002 
3553125000  -4.142153e+001  8.390842e+001 
3556250000  -4.255330e+001  7.759202e+001 
3559375000  -4.228816e+001  8.123313e+001 
3562500000  -4.114137e+001  7.273045e+001 
3565625000  -4.193632e+001  6.547832e+001 
3568750000  -4.196651e+001  6.886243e+001 
3571875000  -4.197922e+001  6.863665e+001 
3575000000  -4.137204e+001  6.282012e+001 
3578125000  -4.184567e+001  5.932207e+001 
3581250000  -4.191120e+001  5.951279e+001 
3584375000  -4.108570e+001  6.013953e+001 
3587500000  -4.028142e+001  5.321497e+001 
3590625000  -4.065757e+001  4.540469e+001 
3593750000  -4.178802e+001  4.336611e+001 
3596875000  -4.174570e+001  5.276325e+001 
3600000000  -4.006377e+001  4.933991e+001 
3603125000  -4.018599e+001  3.769845e+001 
3606250000  -4.077523e+001  3.394533e+001 
3609375000  -4.120383e+001  3.444084e+001 
3612500000  -4.162693e+001  3.268452e+001 
3615625000  -4.185326e+001  3.120010e+001 
3618750000  -4.188997e+001  3.195900e+001 
3621875000  -4.180453e+001  3.200556e+001 
3625000000  -4.199652e+001  3.110204e+001 
3628125000  -4.222979e+001  3.036864e+001 
3631250000  -4.149186e+001  2.883996e+001 
3634375000  -4.250726e+001  2.842205e+001 
3637500000  -4.200354e+001  3.477646e+001 
3640625000  -4.111371e+001  3.605186e+001 
3643750000  -4.053237e+001  2.993762e+001 
3646875000  -4.075125e+001  2.361633e+001 
3650000000  -4.149837e+001  2.301738e+001 
3653125000  -4.123083e+001  2.330061e+001 
3656250000  -4.144672e+001  2.152848e+001 
3659375000  -4.196323e+001  2.449205e+001 
3662500000  -4.117538e+001  2.347147e+001 
3665625000  -4.098777e+001  2.114241e+001 
3668750000  -3.994048e+001  2.590385e+001 
3671875000  -3.924730e+001  1.775242e+001 
3675000000  -3.943965e+001  1.390800e+001 
3678125000  -4.013831e+001  1.311942e+001 
3681250000  -3.963102e+001  1.633297e+001 
3684375000  -3.938832e+001  1.446680e+001 
3687500000  -3.955088e+001  1.181341e+001 
3690625000  -3.956998e+001  8.457089e+000 
3693750000  -4.021646e+001  1.233142e+001 
3696875000  -3.999964e+001  1.560661e+001 
3700000000  -3.876451e+001  1.178440e+001 
3703125000  -3.877702e+001  8.581663e+000 
3706250000  -3.932695e+001  1.325073e+001 
3709375000  -3.865472e+001  1.618733e+001 
3712500000  -3.736974e+001  1.501956e+001 
3715625000  -3.622472e+001  9.836424e+000 
3718750000  -3.569629e+001  6.584778e+000 
3721875000  -3.523967e+001  2.911420e+000 
3725000000  -3.523651e+001  -3.069950e+000 
3728125000  -3.524977e+001  -3.659011e+000 
3731250000  -3.468210e+001  -4.475743e+000 
3734375000  -3.363866e+001  -1.072300e+001 
3737500000  -3.412439e+001  -1.747383e+001 
3740625000  -3.473281e+001  -2.043971e+001 
3743750000  -3.441031e+001  -2.274815e+001 
3746875000  -3.442627e+001  -2.712323e+001 
3750000000  -3.474099e+001  -2.696897e+001 
3753125000  -3.437203e+001  -2.753091e+001 
3756250000  -3.426137e+001  -2.860688e+001 
3759375000  -3.411970e+001  -2.860764e+001 
3762500000  -3.350323e+001  -3.216917e+001 
3765625000  -3.398352e+001  -3.521041e+001 
3768750000  -3.402235e+001  -3.380331e+001 
3771875000  -3.236166e+001  -3.615893e+001 
3775000000  -3.203458e+001  -4.434211e+001 
3778125000  -3.243894e+001  -4.558427e+001 
3781250000  -3.214390e+001  -4.879538e+001 
3784375000  -3.211057e+001  -5.074994e+001 
3787500000  -3.143059e+001  -5.471404e+001 
3790625000  -3.193787e+001  -6.057193e+001 
3793750000  -3.223868e+001  -6.059995e+001 
3796875000  -3.134242e+001  -6.192266e+001 
3800000000  -2.972411e+001  -6.549814e+001 
3803125000  -3.058527e+001  -7.258633e+001 
3806250000  -3.114348e+001  -7.548712e+001 
3809375000  -3.093937e+001  -7.618076e+001 
3812500000  -3.028675e+001  -8.082362e+001 
3815625000  -3.091488e+001  -8.868019e+001 
3818750000  -3.190361e+001  -9.016825e+001 
3821875000  -3.190262e+001  -8.026453e+001 
3825000000  -3.000469e+001  -7.630234e+001 
3828125000  -2.864035e+001  -9.047368e+001 
3831250000  -2.916524e+001  -1.045226e+002 
3834375000  -3.047939e+001  -1.056550e+002 
3837500000  -3.134860e+001  -1.001747e+002 
3840625000  -3.038645e+001  -1.013008e+002 
3843750000  -2.918149e+001  -1.109880e+002 
3846875000  -2.985038e+001  -1.179571e+002 
3850000000  -3.115577e+001  -1.128424e+002 
3853125000  -3.034965e+001  -1.097525e+002 
3856250000  -3.020727e+001  -1.147220e+002 
3859375000  -2.960161e+001  -1.192473e+002 
3862500000  -2.911608e+001  -1.263205e+002 
3865625000  -2.941281e+001  -1.307647e+002 
3868750000  -2.932536e+001  -1.314624e+002 
3871875000  -2.870057e+001  -1.348459e+002 
3875000000  -2.876634e+001  -1.426675e+002 
3878125000  -2.982220e+001  -1.449438e+002 
3881250000  -2.993304e+001  -1.418769e+002 
3884375000  -2.924561e+001  -1.469313e+002 
3887500000  -2.940228e+001  -1.510782e+002 
3890625000  -2.987047e+001  -1.535448e+002 
3893750000  -3.035802e+001  -1.543567e+002 
3896875000  -3.040499e+001  -1.540959e+002 
3900000000  -3.057720e+001  -1.552478e+002 
3903125000  -3.034675e+001  -1.576657e+002 
3906250000  -3.001148e+001  -1.582633e+002 
3909375000  -2.936509e+001  -1.606917e+002 
3912500000  -2.936611e+001  -1.687199e+002 
3915625000  -3.061432e+001  -1.680050e+002 
3918750000  -3.071163e+001  -1.662623e+002 
3921875000  -3.026641e+001  -1.674704e+002 
3925000000  -2.946528e+001  -1.681288e+002 
3928125000  -2.872587e+001  -1.741130e+002 
3931250000  -2.922068e+001  -1.781256e+002 
3934375000  -2.946169e+001  -1.778858e+002 
3937500000  -2.955452e+001  -1.786405e+002 
3940625000  -3.010423e+001  -1.788175e+002 
3943750000  -2.917982e+001  -1.768708e+002 
3946875000  -2.787532e+001  1.776120e+002 
3950000000  -2.840378e+001  1.705646e+002 
3953125000  -2.927963e+001  1.711162e+002 
3956250000  -2.844631e+001  1.737805e+002 
3959375000  -2.704243e+001  1.705764e+002 
3962500000  -2.665729e+001  1.662924e+002 
3965625000  -2.628938e+001  1.576519e+002 
3968750000  -2.716129e+001  1.510138e+002 
3971875000  -2.748455e+001  1.492839e+002 
3975000000  -2.689026e+001  1.477361e+002 
3978125000  -2.672299e+001  1.464625e+002 
3981250000  -2.645883e+001  1.422551e+002 
3984375000  -2.666860e+001  1.360052e+002 
3987500000  -2.718781e+001  1.339537e+002 
3990625000  -2.715952e+001  1.332932e+002 
3993750000  -2.735952e+001  1.298504e+002 
3996875000  -2.725268e+001  1.273168e+002 
4000000000  -2.741035e+001  1.256892e+002 
4003125000  -2.799465e+001  1.275751e+002 
4006250000  -2.659312e+001  1.280712e+002 
4009375000  -2.526279e+001  1.158067e+002 
4012500000  -2.635092e+001  1.087495e+002 
4015625000  -2.756429e+001  1.089578e+002 
4018750000  -2.779114e+001  1.112174e+002 
4021875000  -2.706810e+001  1.094816e+002 
4025000000  -2.666982e+001  1.046311e+002 
4028125000  -2.663182e+001  1.005304e+002 
4031250000  -2.697890e+001  9.699310e+001 
4034375000  -2.730406e+001  9.710616e+001 
4037500000  -2.685104e+001  9.814759e+001 
4040625000  -2.675711e+001  9.503269e+001 
4043750000  -2.712008e+001  9.491818e+001 
4046875000  -2.667144e+001  9.444441e+001 
4050000000  -2.611686e+001  8.859921e+001 
4053125000  -2.669735e+001  8.660999e+001 
4056250000  -2.724689e+001  9.041858e+001 
4059375000  -2.614081e+001  9.247876e+001 
4062500000  -2.476760e+001  8.770907e+001 
4065625000  -2.463146e+001  8.367681e+001 
4068750000  -2.429696e+001  7.936101e+001 
4071875000  -2.363231e+001  7.189310e+001 
4075000000  -2.398428e+001  6.506091e+001 
4078125000  -2.447251e+001  6.381969e+001 
4081250000  -2.401211e+001  6.145906e+001 
4084375000  -2.365913e+001  5.480576e+001 
4087500000  -2.398001e+001  4.868269e+001 
4090625000  -2.457701e+001  4.750017e+001 
4093750000  -2.439576e+001  4.809544e+001 
4096875000  -2.393152e+001  4.252563e+001 
4100000000  -2.460179e+001  3.545620e+001 
4103125000  -2.546374e+001  3.631078e+001 
4106250000  -2.531730e+001  4.108257e+001 
4109375000  -2.437359e+001  4.034438e+001 
4112500000  -2.384149e+001  3.383260e+001 
4115625000  -2.416415e+001  2.921684e+001 
4118750000  -2.423532e+001  2.627623e+001 
4121875000  -2.393330e+001  2.147064e+001 
4125000000  -2.426469e+001  1.687459e+001 
4128125000  -2.526893e+001  1.737664e+001 
4131250000  -2.493867e+001  2.559775e+001 
4134375000  -2.252217e+001  2.070944e+001 
4137500000  -2.227075e+001  1.738526e+000 
4140625000  -2.444531e+001  -5.647197e+000 
4143750000  -2.579609e+001  -3.410026e-001 
4146875000  -2.530606e+001  6.820349e+000 
4150000000  -2.436324e+001  3.531817e+000 
4153125000  -2.423834e+001  -3.363254e+000 
4156250000  -2.513964e+001  -5.912609e+000 
4159375000  -2.540122e+001  -1.854664e+000 
4162500000  -2.435174e+001  2.605104e+000 
4165625000  -2.320770e+001  -1.259778e+000 
4168750000  -2.251816e+001  -8.659618e+000 
4171875000  -2.244255e+001  -1.787399e+001 
4175000000  -2.306952e+001  -2.394076e+001 
4178125000  -2.362993e+001  -2.403646e+001 
4181250000  -2.360055e+001  -2.464829e+001 
4184375000  -2.340105e+001  -2.809247e+001 
4187500000  -2.343451e+001  -3.088871e+001 
4190625000  -2.332661e+001  -3.638658e+001 
4193750000  -2.407959e+001  -4.030083e+001 
4196875000  -2.485895e+001  -4.036938e+001 
4200000000  -2.568060e+001  -3.806474e+001 
4203125000  -2.567525e+001  -2.481955e+001 
4206250000  -2.238775e+001  -2.310894e+001 
4209375000  -2.122604e+001  -4.368603e+001 
4212500000  -2.312581e+001  -5.246830e+001 
4215625000  -2.412105e+001  -4.546574e+001 
4218750000  -2.263500e+001  -3.854084e+001 
4221875000  -2.034838e+001  -4.848939e+001 
4225000000  -2.154445e+001  -6.125674e+001 
4228125000  -2.228324e+001  -5.671300e+001 
4231250000  -2.082851e+001  -5.989258e+001 
4234375000  -2.065166e+001  -6.821495e+001 
4237500000  -2.028682e+001  -7.205412e+001 
4240625000  -2.037150e+001  -8.039654e+001 
4243750000  -2.133797e+001  -8.680788e+001 
4246875000  -2.213436e+001  -8.654859e+001 
4250000000  -2.218246e+001  -8.407728e+001 
4253125000  -2.153676e+001  -8.604797e+001 
4256250000  -2.175682e+001  -9.045955e+001 
4259375000  -2.153613e+001  -9.227821e+001 
4262500000  -2.157753e+001  -9.620942e+001 
4265625000  -2.168049e+001  -9.589620e+001 
4268750000  -2.089859e+001  -9.959946e+001 
4271875000  -2.059616e+001  -1.056599e+002 
4275000000  -1.998229e+001  -1.119749e+002 
4278125000  -2.048911e+001  -1.235240e+002 
4281250000  -2.223656e+001  -1.259272e+002 
4284375000  -2.205255e+001  -1.254769e+002 
4287500000  -2.290338e+001  -1.291767e+002 
4290625000  -2.422233e+001  -1.193257e+002 
4293750000  -2.222529e+001  -1.133878e+002 
4296875000  -2.081974e+001  -1.248437e+002 
4300000000  -2.172158e+001  -1.339729e+002 
4303125000  -2.272766e+001  -1.328360e+002 
4306250000  -2.202815e+001  -1.274181e+002 
4309375000  -2.075743e+001  -1.297920e+002 
4312500000  -2.068215e+001  -1.384278e+002 
4315625000  -2.098405e+001  -1.442768e+002 
4318750000  -2.130125e+001  -1.475472e+002 
4321875000  -2.147446e+001  -1.466579e+002 
4325000000  -2.084946e+001  -1.469136e+002 
4328125000  -2.034532e+001  -1.535660e+002 
4331250000  -2.035993e+001  -1.613642e+002 
4334375000  -2.084107e+001  -1.659024e+002 
4337500000  -2.160592e+001  -1.682316e+002 
4340625000  -2.206494e+001  -1.654825e+002 
4343750000  -2.151952e+001  -1.647150e+002 
4346875000  -2.118019e+001  -1.701466e+002 
4350000000  -2.104536e+001  -1.744839e+002 
4353125000  -2.114017e+001  1.772968e+002 
4356250000  -2.288788e+001  1.758641e+002 
4359375000  -2.345828e+001  -1.707448e+002 
4362500000  -2.089610e+001  -1.690272e+002 
4365625000  -1.935244e+001  1.798843e+002 
4368750000  -2.004158e+001  1.681230e+002 
4371875000  -2.114782e+001  1.684485e+002 
4375000000  -2.084413e+001  1.696262e+002 
4378125000  -2.023376e+001  1.638044e+002 
4381250000  -2.038955e+001  1.583036e+002 
4384375000  -2.016408e+001  1.539327e+002 
4387500000  -2.080219e+001  1.477083e+002 
4390625000  -2.184017e+001  1.485620e+002 
4393750000  -2.129319e+001  1.508238e+002 
4396875000  -2.059703e+001  1.485806e+002 
4400000000  -2.007494e+001  1.416315e+002 
4403125000  -2.059096e+001  1.340017e+002 
4406250000  -2.146727e+001  1.324035e+002 
4409375000  -2.140704e+001  1.299570e+002 
4412500000  -2.235646e+001  1.270269e+002 
4415625000  -2.276534e+001  1.317921e+002 
4418750000  -2.169266e+001  1.367964e+002 
