!Agilent Technologies,E8363B,MY43030201,A.06.04.32
!Agilent E8363B: A.06.04.32
!Date: Tuesday, November 11, 2014 20:52:26
!Correction: S21(Response(S21)) 
!S1P File: Measurement: S21:
# Hz S  dB   R 50
3000000000  -2.652815e+001  1.514482e+002 
3003125000  -2.796025e+001  1.469186e+002 
3006250000  -2.797749e+001  1.442320e+002 
3009375000  -2.839154e+001  1.492573e+002 
3012500000  -2.780920e+001  1.486617e+002 
3015625000  -2.683706e+001  1.418603e+002 
3018750000  -2.772691e+001  1.410187e+002 
3021875000  -2.647320e+001  1.422043e+002 
3025000000  -2.513069e+001  1.393652e+002 
3028125000  -2.413758e+001  1.341319e+002 
3031250000  -2.312715e+001  1.229585e+002 
3034375000  -2.277999e+001  1.101457e+002 
3037500000  -2.311883e+001  9.794924e+001 
3040625000  -2.447097e+001  9.312759e+001 
3043750000  -2.517370e+001  8.874498e+001 
3046875000  -2.527770e+001  8.233303e+001 
3050000000  -2.699938e+001  7.560161e+001 
3053125000  -2.713099e+001  8.214169e+001 
3056250000  -2.655398e+001  8.527003e+001 
3059375000  -2.668507e+001  8.481162e+001 
3062500000  -2.524041e+001  8.067782e+001 
3065625000  -2.499754e+001  7.527567e+001 
3068750000  -2.472406e+001  6.828495e+001 
3071875000  -2.465003e+001  6.527412e+001 
3075000000  -2.462958e+001  6.150442e+001 
3078125000  -2.435776e+001  5.677288e+001 
3081250000  -2.501238e+001  5.269814e+001 
3084375000  -2.425183e+001  4.894672e+001 
3087500000  -2.412689e+001  4.542425e+001 
3090625000  -2.381555e+001  3.560715e+001 
3093750000  -2.426632e+001  2.766800e+001 
3096875000  -2.557563e+001  2.158629e+001 
3100000000  -2.565300e+001  2.023963e+001 
3103125000  -2.607107e+001  2.165755e+001 
3106250000  -2.576196e+001  1.808104e+001 
3109375000  -2.601033e+001  1.468682e+001 
3112500000  -2.614693e+001  1.364394e+001 
3115625000  -2.592781e+001  9.645441e+000 
3118750000  -2.641108e+001  1.063512e+001 
3121875000  -2.572794e+001  2.426201e+000 
3125000000  -2.694473e+001  -9.517978e-001 
3128125000  -2.814307e+001  7.292583e+000 
3131250000  -2.595889e+001  7.745699e+000 
3134375000  -2.460762e+001  -6.342994e+000 
3137500000  -2.528447e+001  -1.968273e+001 
3140625000  -2.687617e+001  -2.127437e+001 
3143750000  -2.790822e+001  -1.714332e+001 
3146875000  -2.749468e+001  -1.539323e+001 
3150000000  -2.648206e+001  -1.296821e+001 
3153125000  -2.647202e+001  -2.079627e+001 
3156250000  -2.746372e+001  -1.546332e+001 
3159375000  -2.587430e+001  -1.233511e+001 
3162500000  -2.386902e+001  -2.534954e+001 
3165625000  -2.480831e+001  -3.634126e+001 
3168750000  -2.520548e+001  -3.521706e+001 
3171875000  -2.423866e+001  -3.952676e+001 
3175000000  -2.486841e+001  -4.734517e+001 
3178125000  -2.463569e+001  -4.549929e+001 
3181250000  -2.349993e+001  -4.969284e+001 
3184375000  -2.270129e+001  -6.184568e+001 
3187500000  -2.380002e+001  -7.727757e+001 
3190625000  -2.655627e+001  -8.448673e+001 
3193750000  -2.714696e+001  -7.462573e+001 
3196875000  -2.677515e+001  -6.930427e+001 
3200000000  -2.584256e+001  -7.145015e+001 
3203125000  -2.499093e+001  -7.725198e+001 
3206250000  -2.532538e+001  -8.337795e+001 
3209375000  -2.483600e+001  -8.871367e+001 
3212500000  -2.493165e+001  -9.512200e+001 
3215625000  -2.509752e+001  -9.906729e+001 
3218750000  -2.585056e+001  -1.056635e+002 
3221875000  -2.682424e+001  -1.104020e+002 
3225000000  -2.642623e+001  -1.111875e+002 
3228125000  -2.673263e+001  -1.157373e+002 
3231250000  -2.747434e+001  -1.183159e+002 
3234375000  -2.737558e+001  -1.173145e+002 
3237500000  -2.738690e+001  -1.190519e+002 
3240625000  -2.704537e+001  -1.208393e+002 
3243750000  -2.666425e+001  -1.273106e+002 
3246875000  -2.716928e+001  -1.339518e+002 
3250000000  -2.762014e+001  -1.357832e+002 
3253125000  -2.779232e+001  -1.371300e+002 
3256250000  -2.765864e+001  -1.432726e+002 
3259375000  -2.796799e+001  -1.508967e+002 
3262500000  -2.923095e+001  -1.540129e+002 
3265625000  -2.991178e+001  -1.505348e+002 
3268750000  -2.982154e+001  -1.477157e+002 
3271875000  -2.966239e+001  -1.468230e+002 
3275000000  -2.852400e+001  -1.519426e+002 
3278125000  -2.901445e+001  -1.580285e+002 
3281250000  -2.928189e+001  -1.561506e+002 
3284375000  -2.884879e+001  -1.618632e+002 
3287500000  -2.907409e+001  -1.646250e+002 
3290625000  -2.948353e+001  -1.692651e+002 
3293750000  -2.909526e+001  -1.746383e+002 
3296875000  -3.013787e+001  -1.749341e+002 
3300000000  -3.002411e+001  -1.734959e+002 
3303125000  -2.886284e+001  -1.776470e+002 
3306250000  -2.863518e+001  1.760975e+002 
3309375000  -2.841042e+001  1.709212e+002 
3312500000  -2.843367e+001  1.605905e+002 
3315625000  -2.950065e+001  1.529464e+002 
3318750000  -3.082196e+001  1.504006e+002 
3321875000  -3.194969e+001  1.503240e+002 
3325000000  -3.259246e+001  1.552517e+002 
3328125000  -3.245404e+001  1.565627e+002 
3331250000  -3.121257e+001  1.646293e+002 
3334375000  -2.860894e+001  1.544520e+002 
3337500000  -2.865262e+001  1.362117e+002 
3340625000  -3.004502e+001  1.247297e+002 
3343750000  -3.203468e+001  1.242169e+002 
3346875000  -3.245312e+001  1.253449e+002 
3350000000  -3.182659e+001  1.244036e+002 
3353125000  -3.195752e+001  1.205595e+002 
3356250000  -3.169931e+001  1.122428e+002 
3359375000  -3.251784e+001  1.037845e+002 
3362500000  -3.370816e+001  9.845111e+001 
3365625000  -3.455802e+001  9.666314e+001 
3368750000  -3.537536e+001  9.534549e+001 
3371875000  -3.569036e+001  9.187585e+001 
3375000000  -3.722642e+001  9.010535e+001 
3378125000  -3.839085e+001  8.983105e+001 
3381250000  -4.009741e+001  9.755081e+001 
3384375000  -3.927299e+001  1.185061e+002 
3387500000  -3.600426e+001  1.049489e+002 
3390625000  -3.765213e+001  8.616963e+001 
3393750000  -3.939440e+001  9.126906e+001 
3396875000  -3.870413e+001  9.299505e+001 
3400000000  -3.841266e+001  8.615324e+001 
3403125000  -3.940604e+001  8.123561e+001 
3406250000  -4.028210e+001  8.511681e+001 
3409375000  -4.103561e+001  7.857822e+001 
3412500000  -4.191328e+001  8.103867e+001 
3415625000  -4.287148e+001  8.499290e+001 
3418750000  -4.307421e+001  8.917858e+001 
3421875000  -4.317867e+001  9.588373e+001 
3425000000  -4.217642e+001  9.833389e+001 
3428125000  -4.124737e+001  9.874808e+001 
3431250000  -4.167064e+001  9.413136e+001 
3434375000  -4.105466e+001  9.145193e+001 
3437500000  -4.173365e+001  9.023011e+001 
3440625000  -4.204460e+001  9.330682e+001 
3443750000  -4.065990e+001  9.539499e+001 
3446875000  -3.983582e+001  8.929963e+001 
3450000000  -3.998773e+001  8.031511e+001 
3453125000  -3.994534e+001  7.222890e+001 
3456250000  -4.096143e+001  6.560926e+001 
3459375000  -4.231826e+001  6.957792e+001 
3462500000  -4.213134e+001  7.158179e+001 
3465625000  -4.246586e+001  6.649418e+001 
3468750000  -4.263446e+001  6.274122e+001 
3471875000  -4.260161e+001  6.445561e+001 
3475000000  -4.268116e+001  5.888942e+001 
3478125000  -4.331736e+001  5.444392e+001 
3481250000  -4.432627e+001  5.359121e+001 
3484375000  -4.559316e+001  5.874326e+001 
3487500000  -4.594019e+001  6.267522e+001 
3490625000  -4.513762e+001  5.949868e+001 
3493750000  -4.589179e+001  5.373774e+001 
3496875000  -4.696938e+001  5.649078e+001 
3500000000  -4.787156e+001  6.551798e+001 
3503125000  -4.813810e+001  6.809831e+001 
3506250000  -4.669133e+001  6.961830e+001 
3509375000  -4.648643e+001  6.893014e+001 
3512500000  -4.780058e+001  6.637649e+001 
3515625000  -4.732933e+001  6.936999e+001 
3518750000  -4.821203e+001  7.047906e+001 
3521875000  -4.799814e+001  7.674715e+001 
3525000000  -4.840303e+001  7.903680e+001 
3528125000  -4.775226e+001  8.944553e+001 
3531250000  -4.609558e+001  9.217698e+001 
3534375000  -4.569165e+001  8.460403e+001 
3537500000  -4.546078e+001  8.158581e+001 
3540625000  -4.582744e+001  7.966755e+001 
3543750000  -4.641230e+001  8.613384e+001 
3546875000  -4.583864e+001  9.776738e+001 
3550000000  -4.300615e+001  9.755716e+001 
3553125000  -4.177585e+001  8.238780e+001 
3556250000  -4.285001e+001  7.745072e+001 
3559375000  -4.245136e+001  7.925195e+001 
3562500000  -4.103634e+001  7.083782e+001 
3565625000  -4.187467e+001  6.605759e+001 
3568750000  -4.208821e+001  7.014630e+001 
3571875000  -4.169091e+001  7.159007e+001 
3575000000  -4.128010e+001  6.371235e+001 
3578125000  -4.154483e+001  5.931068e+001 
3581250000  -4.169185e+001  6.173003e+001 
3584375000  -4.106041e+001  5.879959e+001 
3587500000  -3.994548e+001  5.388779e+001 
3590625000  -4.052541e+001  4.478665e+001 
3593750000  -4.153605e+001  4.406495e+001 
3596875000  -4.159043e+001  5.071580e+001 
3600000000  -3.995415e+001  4.973462e+001 
3603125000  -3.990647e+001  3.677759e+001 
3606250000  -4.066748e+001  3.279836e+001 
3609375000  -4.125420e+001  3.187047e+001 
3612500000  -4.133636e+001  3.107793e+001 
3615625000  -4.156192e+001  2.940101e+001 
3618750000  -4.204984e+001  3.235602e+001 
3621875000  -4.152297e+001  3.014441e+001 
3625000000  -4.157253e+001  3.111373e+001 
3628125000  -4.183596e+001  2.971627e+001 
3631250000  -4.136597e+001  2.398478e+001 
3634375000  -4.248330e+001  2.555831e+001 
3637500000  -4.192816e+001  3.309186e+001 
3640625000  -4.076612e+001  3.178850e+001 
3643750000  -4.050143e+001  2.837783e+001 
3646875000  -4.087714e+001  2.027920e+001 
3650000000  -4.161324e+001  2.036227e+001 
3653125000  -4.125991e+001  2.151373e+001 
3656250000  -4.158424e+001  1.904661e+001 
3659375000  -4.212756e+001  2.293133e+001 
3662500000  -4.138749e+001  2.117891e+001 
3665625000  -4.146339e+001  2.147833e+001 
3668750000  -4.023103e+001  2.418044e+001 
3671875000  -3.920775e+001  1.957596e+001 
3675000000  -3.983088e+001  1.129958e+001 
3678125000  -4.045556e+001  1.374484e+001 
3681250000  -3.999977e+001  1.398882e+001 
3684375000  -3.968973e+001  1.339209e+001 
3687500000  -3.970452e+001  1.197252e+001 
3690625000  -3.992891e+001  9.016120e+000 
3693750000  -4.031950e+001  1.336753e+001 
3696875000  -4.010006e+001  1.477209e+001 
3700000000  -3.870975e+001  1.430976e+001 
3703125000  -3.878943e+001  9.354543e+000 
3706250000  -3.935179e+001  1.126800e+001 
3709375000  -3.861023e+001  1.456846e+001 
3712500000  -3.732473e+001  1.477368e+001 
3715625000  -3.630691e+001  7.988032e+000 
3718750000  -3.556840e+001  6.795739e+000 
3721875000  -3.515767e+001  5.434235e-001 
3725000000  -3.511538e+001  -3.989334e+000 
3728125000  -3.536127e+001  -4.962045e+000 
3731250000  -3.462881e+001  -5.215783e+000 
3734375000  -3.366556e+001  -1.185597e+001 
3737500000  -3.425481e+001  -1.840218e+001 
3740625000  -3.485529e+001  -2.232651e+001 
3743750000  -3.445679e+001  -2.382693e+001 
3746875000  -3.445974e+001  -2.767107e+001 
3750000000  -3.488293e+001  -2.820073e+001 
3753125000  -3.442438e+001  -2.850807e+001 
3756250000  -3.451535e+001  -3.027869e+001 
3759375000  -3.426654e+001  -3.025809e+001 
3762500000  -3.362193e+001  -3.423980e+001 
3765625000  -3.412216e+001  -3.753405e+001 
3768750000  -3.414428e+001  -3.434995e+001 
3771875000  -3.242893e+001  -3.825333e+001 
3775000000  -3.230389e+001  -4.503343e+001 
3778125000  -3.250713e+001  -4.699971e+001 
3781250000  -3.226047e+001  -4.952748e+001 
3784375000  -3.233276e+001  -5.178584e+001 
3787500000  -3.163286e+001  -5.538922e+001 
3790625000  -3.212178e+001  -6.093152e+001 
3793750000  -3.231301e+001  -6.102926e+001 
3796875000  -3.149652e+001  -6.269403e+001 
3800000000  -2.988383e+001  -6.652830e+001 
3803125000  -3.068616e+001  -7.395718e+001 
3806250000  -3.133387e+001  -7.596354e+001 
3809375000  -3.107018e+001  -7.694573e+001 
3812500000  -3.041215e+001  -8.141367e+001 
3815625000  -3.112200e+001  -8.929015e+001 
3818750000  -3.189036e+001  -9.001234e+001 
3821875000  -3.207829e+001  -8.135428e+001 
3825000000  -3.010722e+001  -7.794382e+001 
3828125000  -2.878105e+001  -9.146942e+001 
3831250000  -2.931541e+001  -1.057936e+002 
3834375000  -3.066568e+001  -1.069617e+002 
3837500000  -3.153904e+001  -1.014478e+002 
3840625000  -3.034011e+001  -1.020046e+002 
3843750000  -2.923626e+001  -1.121598e+002 
3846875000  -2.996404e+001  -1.196232e+002 
3850000000  -3.112477e+001  -1.137299e+002 
3853125000  -3.035007e+001  -1.118151e+002 
3856250000  -3.042011e+001  -1.162503e+002 
3859375000  -2.968831e+001  -1.205782e+002 
3862500000  -2.921778e+001  -1.281109e+002 
3865625000  -2.951150e+001  -1.326984e+002 
3868750000  -2.949723e+001  -1.333186e+002 
3871875000  -2.882116e+001  -1.356583e+002 
3875000000  -2.890159e+001  -1.451099e+002 
3878125000  -2.988428e+001  -1.476414e+002 
3881250000  -2.995127e+001  -1.448854e+002 
3884375000  -2.942687e+001  -1.490746e+002 
3887500000  -2.961098e+001  -1.533098e+002 
3890625000  -3.021183e+001  -1.559042e+002 
3893750000  -3.057693e+001  -1.574106e+002 
3896875000  -3.067346e+001  -1.567820e+002 
3900000000  -3.085358e+001  -1.571450e+002 
3903125000  -3.050540e+001  -1.597995e+002 
3906250000  -3.034673e+001  -1.604644e+002 
3909375000  -2.957374e+001  -1.626281e+002 
3912500000  -2.969295e+001  -1.704734e+002 
3915625000  -3.096278e+001  -1.697401e+002 
3918750000  -3.090086e+001  -1.675371e+002 
3921875000  -3.054561e+001  -1.691754e+002 
3925000000  -2.978213e+001  -1.697626e+002 
3928125000  -2.906142e+001  -1.758478e+002 
3931250000  -2.955700e+001  -1.795027e+002 
3934375000  -2.977290e+001  -1.796791e+002 
3937500000  -2.994620e+001  1.797421e+002 
3940625000  -3.037329e+001  1.798944e+002 
3943750000  -2.939786e+001  -1.785768e+002 
3946875000  -2.820476e+001  1.762222e+002 
3950000000  -2.870927e+001  1.690221e+002 
3953125000  -2.969200e+001  1.691842e+002 
3956250000  -2.883319e+001  1.723392e+002 
3959375000  -2.745971e+001  1.691975e+002 
3962500000  -2.692254e+001  1.648709e+002 
3965625000  -2.656869e+001  1.563588e+002 
3968750000  -2.745717e+001  1.496778e+002 
3971875000  -2.787807e+001  1.484168e+002 
3975000000  -2.717667e+001  1.461582e+002 
3978125000  -2.701241e+001  1.448251e+002 
3981250000  -2.671420e+001  1.405378e+002 
3984375000  -2.693108e+001  1.343126e+002 
3987500000  -2.748676e+001  1.319772e+002 
3990625000  -2.754075e+001  1.311720e+002 
3993750000  -2.769934e+001  1.281588e+002 
3996875000  -2.761130e+001  1.254612e+002 
4000000000  -2.777198e+001  1.235838e+002 
4003125000  -2.833339e+001  1.255080e+002 
4006250000  -2.690941e+001  1.257717e+002 
4009375000  -2.566978e+001  1.132339e+002 
4012500000  -2.680585e+001  1.062916e+002 
4015625000  -2.812019e+001  1.065416e+002 
4018750000  -2.822090e+001  1.092221e+002 
4021875000  -2.759531e+001  1.069078e+002 
4025000000  -2.719474e+001  1.024087e+002 
4028125000  -2.716652e+001  9.831840e+001 
4031250000  -2.767940e+001  9.499713e+001 
4034375000  -2.796648e+001  9.526929e+001 
4037500000  -2.744457e+001  9.700210e+001 
4040625000  -2.736136e+001  9.349548e+001 
4043750000  -2.763472e+001  9.345720e+001 
4046875000  -2.727549e+001  9.266157e+001 
4050000000  -2.679061e+001  8.702459e+001 
4053125000  -2.730282e+001  8.512655e+001 
4056250000  -2.797296e+001  8.941865e+001 
4059375000  -2.663201e+001  9.096239e+001 
4062500000  -2.525253e+001  8.718451e+001 
4065625000  -2.511170e+001  8.217332e+001 
4068750000  -2.485097e+001  7.776444e+001 
4071875000  -2.424697e+001  6.980510e+001 
4075000000  -2.459333e+001  6.341193e+001 
4078125000  -2.515520e+001  6.279737e+001 
4081250000  -2.458996e+001  6.040635e+001 
4084375000  -2.423486e+001  5.348119e+001 
4087500000  -2.457644e+001  4.747832e+001 
4090625000  -2.515545e+001  4.628164e+001 
4093750000  -2.495789e+001  4.708825e+001 
4096875000  -2.451030e+001  4.137580e+001 
4100000000  -2.519100e+001  3.414941e+001 
4103125000  -2.607498e+001  3.491749e+001 
4106250000  -2.589771e+001  3.969891e+001 
4109375000  -2.504756e+001  3.917074e+001 
4112500000  -2.449971e+001  3.249820e+001 
4115625000  -2.478665e+001  2.825334e+001 
4118750000  -2.485978e+001  2.497369e+001 
4121875000  -2.447586e+001  2.066499e+001 
4125000000  -2.484394e+001  1.553789e+001 
4128125000  -2.586430e+001  1.529202e+001 
4131250000  -2.555946e+001  2.346709e+001 
4134375000  -2.326943e+001  1.872496e+001 
4137500000  -2.306424e+001  2.325364e-001 
4140625000  -2.521366e+001  -6.951886e+000 
4143750000  -2.656503e+001  -2.050742e+000 
4146875000  -2.616294e+001  5.087755e+000 
4150000000  -2.525271e+001  2.014657e+000 
4153125000  -2.510334e+001  -4.351635e+000 
4156250000  -2.599604e+001  -7.121267e+000 
4159375000  -2.629899e+001  -2.717827e+000 
4162500000  -2.512785e+001  1.602237e+000 
4165625000  -2.401128e+001  -2.456797e+000 
4168750000  -2.339016e+001  -9.722068e+000 
4171875000  -2.343506e+001  -1.882897e+001 
4175000000  -2.403885e+001  -2.454975e+001 
4178125000  -2.461805e+001  -2.465361e+001 
4181250000  -2.449211e+001  -2.501053e+001 
4184375000  -2.439050e+001  -2.795832e+001 
4187500000  -2.441180e+001  -3.077938e+001 
4190625000  -2.423617e+001  -3.610493e+001 
4193750000  -2.507225e+001  -4.002208e+001 
4196875000  -2.578390e+001  -4.014018e+001 
4200000000  -2.659737e+001  -3.794150e+001 
4203125000  -2.666350e+001  -2.460582e+001 
4206250000  -2.326041e+001  -2.278788e+001 
4209375000  -2.204423e+001  -4.316925e+001 
4212500000  -2.399997e+001  -5.225144e+001 
4215625000  -2.498904e+001  -4.612342e+001 
4218750000  -2.360988e+001  -3.958540e+001 
4221875000  -2.136004e+001  -4.825661e+001 
4225000000  -2.257453e+001  -6.090006e+001 
4228125000  -2.326578e+001  -5.537337e+001 
4231250000  -2.167543e+001  -5.933673e+001 
4234375000  -2.163680e+001  -6.800122e+001 
4237500000  -2.119981e+001  -7.102183e+001 
4240625000  -2.119457e+001  -7.946719e+001 
4243750000  -2.216602e+001  -8.640692e+001 
4246875000  -2.304147e+001  -8.665596e+001 
4250000000  -2.308386e+001  -8.369916e+001 
4253125000  -2.250404e+001  -8.559409e+001 
4256250000  -2.279459e+001  -8.979715e+001 
4259375000  -2.253853e+001  -9.189334e+001 
4262500000  -2.256508e+001  -9.533811e+001 
4265625000  -2.275034e+001  -9.537497e+001 
4268750000  -2.180402e+001  -9.952180e+001 
4271875000  -2.162529e+001  -1.052467e+002 
4275000000  -2.099376e+001  -1.115336e+002 
4278125000  -2.168375e+001  -1.226363e+002 
4281250000  -2.341702e+001  -1.249070e+002 
4284375000  -2.315371e+001  -1.240021e+002 
4287500000  -2.393946e+001  -1.274502e+002 
4290625000  -2.514735e+001  -1.178823e+002 
4293750000  -2.319069e+001  -1.126137e+002 
4296875000  -2.185264e+001  -1.239557e+002 
4300000000  -2.268764e+001  -1.331232e+002 
4303125000  -2.382721e+001  -1.316736e+002 
4306250000  -2.325350e+001  -1.256551e+002 
4309375000  -2.193251e+001  -1.274590e+002 
4312500000  -2.175353e+001  -1.361089e+002 
4315625000  -2.198033e+001  -1.420543e+002 
4318750000  -2.230527e+001  -1.454809e+002 
4321875000  -2.248758e+001  -1.449642e+002 
4325000000  -2.193114e+001  -1.441119e+002 
4328125000  -2.144089e+001  -1.505115e+002 
4331250000  -2.134033e+001  -1.585307e+002 
4334375000  -2.175447e+001  -1.635409e+002 
4337500000  -2.262951e+001  -1.657805e+002 
4340625000  -2.320625e+001  -1.622623e+002 
4343750000  -2.254423e+001  -1.618913e+002 
4346875000  -2.213435e+001  -1.676726e+002 
4350000000  -2.219925e+001  -1.722337e+002 
4353125000  -2.225919e+001  -1.797517e+002 
4356250000  -2.400272e+001  1.792673e+002 
4359375000  -2.466632e+001  -1.672238e+002 
4362500000  -2.188278e+001  -1.648232e+002 
4365625000  -2.024452e+001  -1.770821e+002 
4368750000  -2.094666e+001  1.708180e+002 
4371875000  -2.220464e+001  1.716232e+002 
4375000000  -2.186642e+001  1.727093e+002 
4378125000  -2.118525e+001  1.668170e+002 
4381250000  -2.136366e+001  1.612968e+002 
4384375000  -2.114785e+001  1.568866e+002 
4387500000  -2.192618e+001  1.510314e+002 
4390625000  -2.292719e+001  1.517418e+002 
4393750000  -2.222970e+001  1.542762e+002 
4396875000  -2.159337e+001  1.519112e+002 
4400000000  -2.109904e+001  1.450320e+002 
4403125000  -2.166738e+001  1.374400e+002 
4406250000  -2.255131e+001  1.357979e+002 
4409375000  -2.249840e+001  1.338777e+002 
4412500000  -2.352451e+001  1.309186e+002 
4415625000  -2.390767e+001  1.357707e+002 
4418750000  -2.264793e+001  1.408271e+002 
