!Agilent Technologies,E8363B,MY43030201,A.06.04.32
!Agilent E8363B: A.06.04.32
!Date: Tuesday, November 11, 2014 20:58:49
!Correction: S21(Response(S21)) 
!S1P File: Measurement: S21:
# Hz S  dB   R 50
3000000000  -2.651208e+001  1.462767e+002 
3003125000  -2.793127e+001  1.416083e+002 
3006250000  -2.798010e+001  1.392646e+002 
3009375000  -2.835091e+001  1.440754e+002 
3012500000  -2.771113e+001  1.435301e+002 
3015625000  -2.683774e+001  1.363436e+002 
3018750000  -2.765570e+001  1.358301e+002 
3021875000  -2.639020e+001  1.370420e+002 
3025000000  -2.510174e+001  1.340208e+002 
3028125000  -2.414199e+001  1.287306e+002 
3031250000  -2.309546e+001  1.175103e+002 
3034375000  -2.272676e+001  1.043332e+002 
3037500000  -2.313897e+001  9.263324e+001 
3040625000  -2.445837e+001  8.767295e+001 
3043750000  -2.511502e+001  8.312087e+001 
3046875000  -2.536394e+001  7.711843e+001 
3050000000  -2.700908e+001  7.008011e+001 
3053125000  -2.709936e+001  7.697272e+001 
3056250000  -2.644984e+001  7.993873e+001 
3059375000  -2.668792e+001  7.943008e+001 
3062500000  -2.516636e+001  7.537569e+001 
3065625000  -2.492945e+001  6.950523e+001 
3068750000  -2.466700e+001  6.282215e+001 
3071875000  -2.461347e+001  5.995941e+001 
3075000000  -2.461699e+001  5.568843e+001 
3078125000  -2.434046e+001  5.122963e+001 
3081250000  -2.495867e+001  4.719200e+001 
3084375000  -2.418575e+001  4.348391e+001 
3087500000  -2.410844e+001  3.976098e+001 
3090625000  -2.379347e+001  2.984609e+001 
3093750000  -2.431984e+001  2.209116e+001 
3096875000  -2.556986e+001  1.615072e+001 
3100000000  -2.568602e+001  1.487752e+001 
3103125000  -2.602991e+001  1.610642e+001 
3106250000  -2.576063e+001  1.272498e+001 
3109375000  -2.602053e+001  9.011701e+000 
3112500000  -2.614547e+001  7.829825e+000 
3115625000  -2.596246e+001  4.057859e+000 
3118750000  -2.640284e+001  5.145926e+000 
3121875000  -2.576517e+001  -3.137346e+000 
3125000000  -2.703077e+001  -6.093787e+000 
3128125000  -2.813045e+001  2.088682e+000 
3131250000  -2.589693e+001  2.048078e+000 
3134375000  -2.465921e+001  -1.170299e+001 
3137500000  -2.530718e+001  -2.476877e+001 
3140625000  -2.688847e+001  -2.604449e+001 
3143750000  -2.790081e+001  -2.285921e+001 
3146875000  -2.745321e+001  -2.046196e+001 
3150000000  -2.643927e+001  -1.834686e+001 
3153125000  -2.647733e+001  -2.640428e+001 
3156250000  -2.745893e+001  -2.060868e+001 
3159375000  -2.587016e+001  -1.811493e+001 
3162500000  -2.382536e+001  -3.115573e+001 
3165625000  -2.478662e+001  -4.174300e+001 
3168750000  -2.512567e+001  -4.054214e+001 
3171875000  -2.423408e+001  -4.538459e+001 
3175000000  -2.484456e+001  -5.292643e+001 
3178125000  -2.462731e+001  -5.117032e+001 
3181250000  -2.346118e+001  -5.551204e+001 
3184375000  -2.274795e+001  -6.759784e+001 
3187500000  -2.390062e+001  -8.249295e+001 
3190625000  -2.664681e+001  -8.976577e+001 
3193750000  -2.714629e+001  -8.005086e+001 
3196875000  -2.673350e+001  -7.478523e+001 
3200000000  -2.580090e+001  -7.682803e+001 
3203125000  -2.499080e+001  -8.276580e+001 
3206250000  -2.532461e+001  -8.912524e+001 
3209375000  -2.481549e+001  -9.403029e+001 
3212500000  -2.502753e+001  -1.008849e+002 
3215625000  -2.510619e+001  -1.044042e+002 
3218750000  -2.588811e+001  -1.111223e+002 
3221875000  -2.681450e+001  -1.162787e+002 
3225000000  -2.643749e+001  -1.165198e+002 
3228125000  -2.673694e+001  -1.214851e+002 
3231250000  -2.748631e+001  -1.238960e+002 
3234375000  -2.735086e+001  -1.225927e+002 
3237500000  -2.737476e+001  -1.244767e+002 
3240625000  -2.702028e+001  -1.261305e+002 
3243750000  -2.665599e+001  -1.330119e+002 
3246875000  -2.718846e+001  -1.395133e+002 
3250000000  -2.767085e+001  -1.412985e+002 
3253125000  -2.781278e+001  -1.429186e+002 
3256250000  -2.772186e+001  -1.489135e+002 
3259375000  -2.792005e+001  -1.566262e+002 
3262500000  -2.921469e+001  -1.592410e+002 
3265625000  -2.988947e+001  -1.556382e+002 
3268750000  -2.990231e+001  -1.530679e+002 
3271875000  -2.955598e+001  -1.522038e+002 
3275000000  -2.853884e+001  -1.574026e+002 
3278125000  -2.901075e+001  -1.635738e+002 
3281250000  -2.930999e+001  -1.614071e+002 
3284375000  -2.884434e+001  -1.672225e+002 
3287500000  -2.899701e+001  -1.702122e+002 
3290625000  -2.942507e+001  -1.748054e+002 
3293750000  -2.910217e+001  1.799792e+002 
3296875000  -3.016210e+001  1.797129e+002 
3300000000  -3.004868e+001  -1.791699e+002 
3303125000  -2.883368e+001  1.774250e+002 
3306250000  -2.863801e+001  1.706366e+002 
3309375000  -2.838343e+001  1.651399e+002 
3312500000  -2.847829e+001  1.547823e+002 
3315625000  -2.954938e+001  1.468743e+002 
3318750000  -3.093352e+001  1.450531e+002 
3321875000  -3.210027e+001  1.445435e+002 
3325000000  -3.259175e+001  1.497401e+002 
3328125000  -3.241065e+001  1.518041e+002 
3331250000  -3.102982e+001  1.590170e+002 
3334375000  -2.854963e+001  1.492833e+002 
3337500000  -2.863399e+001  1.303233e+002 
3340625000  -3.004495e+001  1.196691e+002 
3343750000  -3.207956e+001  1.187356e+002 
3346875000  -3.244003e+001  1.199833e+002 
3350000000  -3.184657e+001  1.193737e+002 
3353125000  -3.196816e+001  1.146656e+002 
3356250000  -3.167783e+001  1.069142e+002 
3359375000  -3.250498e+001  9.873579e+001 
3362500000  -3.378424e+001  9.314219e+001 
3365625000  -3.444174e+001  9.161379e+001 
3368750000  -3.540623e+001  8.928703e+001 
3371875000  -3.586214e+001  8.680313e+001 
3375000000  -3.732976e+001  8.533326e+001 
3378125000  -3.850949e+001  8.525603e+001 
3381250000  -3.998292e+001  9.245768e+001 
3384375000  -3.908866e+001  1.151596e+002 
3387500000  -3.559557e+001  9.977459e+001 
3390625000  -3.764658e+001  7.999429e+001 
3393750000  -3.928938e+001  8.420611e+001 
3396875000  -3.872860e+001  8.784792e+001 
3400000000  -3.848100e+001  8.030703e+001 
3403125000  -3.966326e+001  7.659980e+001 
3406250000  -4.059629e+001  7.871897e+001 
3409375000  -4.079959e+001  7.527918e+001 
3412500000  -4.187466e+001  7.670725e+001 
3415625000  -4.265487e+001  8.134069e+001 
3418750000  -4.305799e+001  8.503053e+001 
3421875000  -4.311433e+001  8.970148e+001 
3425000000  -4.239573e+001  9.299381e+001 
3428125000  -4.135515e+001  9.263052e+001 
3431250000  -4.126382e+001  9.025011e+001 
3434375000  -4.133745e+001  8.567776e+001 
3437500000  -4.159776e+001  8.559889e+001 
3440625000  -4.187780e+001  8.706826e+001 
3443750000  -4.075031e+001  9.022254e+001 
3446875000  -3.969347e+001  8.506776e+001 
3450000000  -3.974494e+001  7.485031e+001 
3453125000  -3.985249e+001  6.741360e+001 
3456250000  -4.113564e+001  6.232598e+001 
3459375000  -4.211461e+001  6.353258e+001 
3462500000  -4.207997e+001  6.444358e+001 
3465625000  -4.216271e+001  6.181728e+001 
3468750000  -4.270760e+001  5.910585e+001 
3471875000  -4.300414e+001  5.948057e+001 
3475000000  -4.241600e+001  5.350017e+001 
3478125000  -4.313469e+001  4.873864e+001 
3481250000  -4.443183e+001  4.871386e+001 
3484375000  -4.599409e+001  5.186616e+001 
3487500000  -4.530765e+001  5.418375e+001 
3490625000  -4.476305e+001  5.274143e+001 
3493750000  -4.587325e+001  4.848516e+001 
3496875000  -4.668137e+001  5.238698e+001 
3500000000  -4.786816e+001  6.017725e+001 
3503125000  -4.758186e+001  6.305002e+001 
3506250000  -4.641805e+001  6.432455e+001 
3509375000  -4.639265e+001  6.179274e+001 
3512500000  -4.708444e+001  6.112358e+001 
3515625000  -4.758286e+001  6.071532e+001 
3518750000  -4.796432e+001  6.980257e+001 
3521875000  -4.797111e+001  6.879082e+001 
3525000000  -4.835077e+001  7.114967e+001 
3528125000  -4.810571e+001  8.444926e+001 
3531250000  -4.574060e+001  8.491217e+001 
3534375000  -4.481504e+001  7.798266e+001 
3537500000  -4.500989e+001  7.331598e+001 
3540625000  -4.599347e+001  7.497260e+001 
3543750000  -4.544982e+001  7.941933e+001 
3546875000  -4.531230e+001  9.302319e+001 
3550000000  -4.272983e+001  9.200990e+001 
3553125000  -4.126297e+001  7.692487e+001 
3556250000  -4.240844e+001  7.078462e+001 
3559375000  -4.232795e+001  7.271629e+001 
3562500000  -4.112704e+001  6.556397e+001 
3565625000  -4.192156e+001  5.808429e+001 
3568750000  -4.163548e+001  6.168269e+001 
3571875000  -4.161955e+001  6.235725e+001 
3575000000  -4.073075e+001  5.717507e+001 
3578125000  -4.140580e+001  5.493777e+001 
3581250000  -4.132274e+001  5.478190e+001 
3584375000  -4.053684e+001  5.320389e+001 
3587500000  -3.981094e+001  4.543931e+001 
3590625000  -4.001178e+001  3.892766e+001 
3593750000  -4.107557e+001  3.766534e+001 
3596875000  -4.138496e+001  4.513610e+001 
3600000000  -3.956856e+001  4.272980e+001 
3603125000  -3.994279e+001  2.866366e+001 
3606250000  -4.061227e+001  2.502441e+001 
3609375000  -4.098302e+001  2.644511e+001 
3612500000  -4.158723e+001  2.611292e+001 
3615625000  -4.140460e+001  2.262294e+001 
3618750000  -4.182891e+001  2.419571e+001 
3621875000  -4.127576e+001  2.333268e+001 
3625000000  -4.179254e+001  2.393194e+001 
3628125000  -4.194659e+001  2.258154e+001 
3631250000  -4.135223e+001  1.801092e+001 
3634375000  -4.226319e+001  1.924204e+001 
3637500000  -4.187763e+001  2.432420e+001 
3640625000  -4.112098e+001  2.580258e+001 
3643750000  -4.054331e+001  2.041601e+001 
3646875000  -4.117099e+001  1.358681e+001 
3650000000  -4.121820e+001  1.244501e+001 
3653125000  -4.146207e+001  1.274188e+001 
3656250000  -4.153479e+001  1.206240e+001 
3659375000  -4.189283e+001  1.607238e+001 
3662500000  -4.098601e+001  1.348372e+001 
3665625000  -4.119078e+001  1.480238e+001 
3668750000  -3.996803e+001  1.698297e+001 
3671875000  -3.929100e+001  1.194908e+001 
3675000000  -3.984107e+001  5.497859e+000 
3678125000  -4.026275e+001  6.583427e+000 
3681250000  -3.973325e+001  6.266491e+000 
3684375000  -3.968739e+001  6.446511e+000 
3687500000  -3.977479e+001  4.530652e+000 
3690625000  -3.961809e+001  3.401970e+000 
3693750000  -4.042328e+001  4.069233e+000 
3696875000  -4.020678e+001  7.283706e+000 
3700000000  -3.891214e+001  6.403768e+000 
3703125000  -3.880840e+001  4.063779e+000 
3706250000  -3.942834e+001  4.376252e+000 
3709375000  -3.876629e+001  7.854391e+000 
3712500000  -3.738250e+001  8.262696e+000 
3715625000  -3.639326e+001  1.503574e+000 
3718750000  -3.574397e+001  2.136950e-001 
3721875000  -3.544400e+001  -6.632200e+000 
3725000000  -3.534843e+001  -1.151358e+001 
3728125000  -3.538223e+001  -1.189131e+001 
3731250000  -3.465579e+001  -1.226519e+001 
3734375000  -3.377362e+001  -1.920614e+001 
3737500000  -3.431411e+001  -2.578593e+001 
3740625000  -3.493916e+001  -2.838908e+001 
3743750000  -3.463686e+001  -3.063296e+001 
3746875000  -3.463816e+001  -3.378035e+001 
3750000000  -3.502909e+001  -3.536210e+001 
3753125000  -3.467165e+001  -3.538129e+001 
3756250000  -3.460276e+001  -3.648243e+001 
3759375000  -3.428725e+001  -3.654600e+001 
3762500000  -3.367080e+001  -4.125683e+001 
3765625000  -3.423595e+001  -4.385802e+001 
3768750000  -3.421370e+001  -4.102459e+001 
3771875000  -3.251397e+001  -4.312884e+001 
3775000000  -3.230980e+001  -5.148293e+001 
3778125000  -3.265828e+001  -5.350158e+001 
3781250000  -3.239965e+001  -5.695143e+001 
3784375000  -3.231733e+001  -5.840030e+001 
3787500000  -3.160810e+001  -6.115155e+001 
3790625000  -3.225724e+001  -6.758176e+001 
3793750000  -3.243800e+001  -6.814874e+001 
3796875000  -3.161837e+001  -6.992282e+001 
3800000000  -2.997725e+001  -7.336172e+001 
3803125000  -3.067886e+001  -8.019608e+001 
3806250000  -3.146778e+001  -8.221587e+001 
3809375000  -3.106927e+001  -8.328359e+001 
3812500000  -3.049123e+001  -8.849507e+001 
3815625000  -3.106938e+001  -9.574480e+001 
3818750000  -3.206255e+001  -9.712296e+001 
3821875000  -3.208667e+001  -8.772231e+001 
3825000000  -3.020920e+001  -8.404184e+001 
3828125000  -2.878766e+001  -9.790639e+001 
3831250000  -2.943804e+001  -1.123593e+002 
3834375000  -3.085657e+001  -1.133119e+002 
3837500000  -3.158127e+001  -1.071922e+002 
3840625000  -3.048726e+001  -1.087949e+002 
3843750000  -2.935062e+001  -1.193117e+002 
3846875000  -3.006688e+001  -1.258031e+002 
3850000000  -3.136850e+001  -1.201044e+002 
3853125000  -3.053285e+001  -1.168319e+002 
3856250000  -3.036877e+001  -1.223720e+002 
3859375000  -2.970944e+001  -1.274057e+002 
3862500000  -2.929380e+001  -1.349833e+002 
3865625000  -2.959277e+001  -1.391146e+002 
3868750000  -2.952057e+001  -1.394607e+002 
3871875000  -2.885329e+001  -1.425926e+002 
3875000000  -2.901477e+001  -1.512758e+002 
3878125000  -2.997581e+001  -1.539532e+002 
3881250000  -3.013193e+001  -1.506485e+002 
3884375000  -2.954986e+001  -1.555765e+002 
3887500000  -2.977476e+001  -1.594112e+002 
3890625000  -3.030742e+001  -1.620465e+002 
3893750000  -3.068087e+001  -1.630887e+002 
3896875000  -3.083654e+001  -1.622019e+002 
3900000000  -3.113639e+001  -1.637110e+002 
3903125000  -3.067738e+001  -1.656159e+002 
3906250000  -3.040097e+001  -1.667630e+002 
3909375000  -2.961883e+001  -1.686638e+002 
3912500000  -2.972499e+001  -1.763996e+002 
3915625000  -3.102727e+001  -1.752272e+002 
3918750000  -3.099332e+001  -1.736849e+002 
3921875000  -3.063245e+001  -1.749966e+002 
3925000000  -2.976265e+001  -1.757939e+002 
3928125000  -2.912186e+001  1.778722e+002 
3931250000  -2.957114e+001  1.737312e+002 
3934375000  -2.986511e+001  1.739593e+002 
3937500000  -2.996698e+001  1.738317e+002 
3940625000  -3.042285e+001  1.744872e+002 
3943750000  -2.950614e+001  1.755508e+002 
3946875000  -2.830204e+001  1.696138e+002 
3950000000  -2.882892e+001  1.619024e+002 
3953125000  -2.970081e+001  1.627324e+002 
3956250000  -2.884926e+001  1.665380e+002 
3959375000  -2.744995e+001  1.632846e+002 
3962500000  -2.694191e+001  1.588671e+002 
3965625000  -2.667819e+001  1.497234e+002 
3968750000  -2.756061e+001  1.431279e+002 
3971875000  -2.794080e+001  1.416992e+002 
3975000000  -2.725118e+001  1.401827e+002 
3978125000  -2.705907e+001  1.381853e+002 
3981250000  -2.685819e+001  1.338141e+002 
3984375000  -2.711614e+001  1.276154e+002 
3987500000  -2.764840e+001  1.255038e+002 
3990625000  -2.765292e+001  1.249966e+002 
3993750000  -2.782719e+001  1.219240e+002 
3996875000  -2.772653e+001  1.189652e+002 
4000000000  -2.792684e+001  1.171080e+002 
4003125000  -2.847698e+001  1.192808e+002 
4006250000  -2.704991e+001  1.199423e+002 
4009375000  -2.578404e+001  1.073339e+002 
4012500000  -2.692580e+001  1.001861e+002 
4015625000  -2.820385e+001  1.005986e+002 
4018750000  -2.830112e+001  1.033335e+002 
4021875000  -2.767755e+001  1.009169e+002 
4025000000  -2.730801e+001  9.675990e+001 
4028125000  -2.722176e+001  9.254523e+001 
4031250000  -2.769533e+001  8.984257e+001 
4034375000  -2.796522e+001  8.931606e+001 
4037500000  -2.742018e+001  9.152678e+001 
4040625000  -2.744631e+001  8.803162e+001 
4043750000  -2.774043e+001  8.727303e+001 
4046875000  -2.733056e+001  8.691799e+001 
4050000000  -2.685026e+001  8.160105e+001 
4053125000  -2.730237e+001  7.975819e+001 
4056250000  -2.793358e+001  8.387996e+001 
4059375000  -2.654890e+001  8.569540e+001 
4062500000  -2.524876e+001  8.066547e+001 
4065625000  -2.512659e+001  7.657369e+001 
4068750000  -2.482641e+001  7.191116e+001 
4071875000  -2.418042e+001  6.373742e+001 
4075000000  -2.464047e+001  5.736824e+001 
4078125000  -2.513770e+001  5.681170e+001 
4081250000  -2.459842e+001  5.432999e+001 
4084375000  -2.419168e+001  4.781072e+001 
4087500000  -2.459285e+001  4.145052e+001 
4090625000  -2.522135e+001  4.046688e+001 
4093750000  -2.494897e+001  4.112813e+001 
4096875000  -2.453019e+001  3.515784e+001 
4100000000  -2.525539e+001  2.823944e+001 
4103125000  -2.614739e+001  2.905864e+001 
4106250000  -2.596808e+001  3.370300e+001 
4109375000  -2.508183e+001  3.327734e+001 
4112500000  -2.447237e+001  2.650929e+001 
4115625000  -2.485654e+001  2.218287e+001 
4118750000  -2.492185e+001  1.949754e+001 
4121875000  -2.452469e+001  1.461686e+001 
4125000000  -2.489854e+001  9.580156e+000 
4128125000  -2.596479e+001  9.995868e+000 
4131250000  -2.561035e+001  1.817178e+001 
4134375000  -2.326390e+001  1.327602e+001 
4137500000  -2.314962e+001  -5.558199e+000 
4140625000  -2.529952e+001  -1.259538e+001 
4143750000  -2.658634e+001  -7.090073e+000 
4146875000  -2.612520e+001  1.137804e-001 
4150000000  -2.516765e+001  -3.451229e+000 
4153125000  -2.504714e+001  -1.006809e+001 
4156250000  -2.597271e+001  -1.218680e+001 
4159375000  -2.623591e+001  -8.310964e+000 
4162500000  -2.506989e+001  -3.895490e+000 
4165625000  -2.392220e+001  -8.312372e+000 
4168750000  -2.337743e+001  -1.529217e+001 
4171875000  -2.335099e+001  -2.436090e+001 
4175000000  -2.395719e+001  -3.004470e+001 
4178125000  -2.458275e+001  -3.015444e+001 
4181250000  -2.440071e+001  -3.070349e+001 
4184375000  -2.426648e+001  -3.388678e+001 
4187500000  -2.432571e+001  -3.660674e+001 
4190625000  -2.414755e+001  -4.193858e+001 
4193750000  -2.499095e+001  -4.567725e+001 
4196875000  -2.569363e+001  -4.628769e+001 
4200000000  -2.659259e+001  -4.380968e+001 
4203125000  -2.653740e+001  -2.973275e+001 
4206250000  -2.309381e+001  -2.898429e+001 
4209375000  -2.195338e+001  -4.956815e+001 
4212500000  -2.386788e+001  -5.818121e+001 
4215625000  -2.491246e+001  -5.176371e+001 
4218750000  -2.351729e+001  -4.507936e+001 
4221875000  -2.120031e+001  -5.442705e+001 
4225000000  -2.248139e+001  -6.650185e+001 
4228125000  -2.307882e+001  -6.174256e+001 
4231250000  -2.153944e+001  -6.550732e+001 
4234375000  -2.148652e+001  -7.432301e+001 
4237500000  -2.109687e+001  -7.696014e+001 
4240625000  -2.109188e+001  -8.590606e+001 
4243750000  -2.207251e+001  -9.258837e+001 
4246875000  -2.297746e+001  -9.253127e+001 
4250000000  -2.303250e+001  -8.998329e+001 
4253125000  -2.241007e+001  -9.189331e+001 
4256250000  -2.273675e+001  -9.553273e+001 
4259375000  -2.242057e+001  -9.772089e+001 
4262500000  -2.244662e+001  -1.013682e+002 
4265625000  -2.259320e+001  -1.015916e+002 
4268750000  -2.170535e+001  -1.053330e+002 
4271875000  -2.147742e+001  -1.111983e+002 
4275000000  -2.087452e+001  -1.173847e+002 
4278125000  -2.151705e+001  -1.289338e+002 
4281250000  -2.330116e+001  -1.307575e+002 
4284375000  -2.297700e+001  -1.300031e+002 
4287500000  -2.384023e+001  -1.335957e+002 
4290625000  -2.498260e+001  -1.234194e+002 
4293750000  -2.299646e+001  -1.183223e+002 
4296875000  -2.173081e+001  -1.298355e+002 
4300000000  -2.254462e+001  -1.392356e+002 
4303125000  -2.368175e+001  -1.374075e+002 
4306250000  -2.296748e+001  -1.318443e+002 
4309375000  -2.162704e+001  -1.341187e+002 
4312500000  -2.151435e+001  -1.422493e+002 
4315625000  -2.171577e+001  -1.489611e+002 
4318750000  -2.210528e+001  -1.518584e+002 
4321875000  -2.227130e+001  -1.511304e+002 
4325000000  -2.170067e+001  -1.506456e+002 
4328125000  -2.115459e+001  -1.569211e+002 
4331250000  -2.113136e+001  -1.652765e+002 
4334375000  -2.157486e+001  -1.702086e+002 
4337500000  -2.244795e+001  -1.722417e+002 
4340625000  -2.297847e+001  -1.687538e+002 
4343750000  -2.234007e+001  -1.684261e+002 
4346875000  -2.194339e+001  -1.740164e+002 
4350000000  -2.197681e+001  -1.790807e+002 
4353125000  -2.203571e+001  1.735865e+002 
4356250000  -2.384702e+001  1.728157e+002 
4359375000  -2.433376e+001  -1.735924e+002 
4362500000  -2.156027e+001  -1.716785e+002 
4365625000  -1.999283e+001  1.755732e+002 
4368750000  -2.077864e+001  1.640625e+002 
4371875000  -2.197795e+001  1.651251e+002 
4375000000  -2.158675e+001  1.659259e+002 
4378125000  -2.096049e+001  1.599597e+002 
4381250000  -2.114436e+001  1.547646e+002 
4384375000  -2.094930e+001  1.500364e+002 
4387500000  -2.172481e+001  1.444196e+002 
4390625000  -2.271156e+001  1.450802e+002 
4393750000  -2.203102e+001  1.472840e+002 
4396875000  -2.141346e+001  1.451177e+002 
4400000000  -2.083434e+001  1.381848e+002 
4403125000  -2.146796e+001  1.305113e+002 
4406250000  -2.230826e+001  1.292719e+002 
4409375000  -2.226545e+001  1.269695e+002 
4412500000  -2.330525e+001  1.243935e+002 
4415625000  -2.362884e+001  1.295761e+002 
4418750000  -2.244083e+001  1.339223e+002 
4421875000  -2.105900e+001  1.296738e+002 
