!Agilent Technologies,E8363B,MY43030201,A.06.04.32
!Agilent E8363B: A.06.04.32
!Date: Tuesday, November 11, 2014 20:48:22
!Correction: S21(Response(S21)) 
!S1P File: Measurement: S21:
# Hz S  dB   R 50
3000000000  -2.646812e+001  1.559211e+002 
3003125000  -2.786460e+001  1.513321e+002 
3006250000  -2.792864e+001  1.488494e+002 
3009375000  -2.825618e+001  1.536343e+002 
3012500000  -2.778547e+001  1.535977e+002 
3015625000  -2.679474e+001  1.463102e+002 
3018750000  -2.762788e+001  1.454056e+002 
3021875000  -2.637704e+001  1.468270e+002 
3025000000  -2.508422e+001  1.438619e+002 
3028125000  -2.412259e+001  1.389046e+002 
3031250000  -2.304984e+001  1.277885e+002 
3034375000  -2.274558e+001  1.148724e+002 
3037500000  -2.306318e+001  1.029352e+002 
3040625000  -2.436689e+001  9.772762e+001 
3043750000  -2.512370e+001  9.354836e+001 
3046875000  -2.520556e+001  8.731085e+001 
3050000000  -2.693140e+001  7.993904e+001 
3053125000  -2.710253e+001  8.653918e+001 
3056250000  -2.642625e+001  8.955540e+001 
3059375000  -2.669740e+001  8.906537e+001 
3062500000  -2.522511e+001  8.552966e+001 
3065625000  -2.495993e+001  7.959917e+001 
3068750000  -2.467218e+001  7.276007e+001 
3071875000  -2.462219e+001  6.958871e+001 
3075000000  -2.461096e+001  6.616706e+001 
3078125000  -2.434789e+001  6.151988e+001 
3081250000  -2.494906e+001  5.747063e+001 
3084375000  -2.419859e+001  5.365717e+001 
3087500000  -2.409099e+001  5.006989e+001 
3090625000  -2.380186e+001  4.053423e+001 
3093750000  -2.419986e+001  3.251046e+001 
3096875000  -2.551730e+001  2.630369e+001 
3100000000  -2.563868e+001  2.504818e+001 
3103125000  -2.601388e+001  2.624678e+001 
3106250000  -2.578313e+001  2.282599e+001 
3109375000  -2.600666e+001  1.948902e+001 
3112500000  -2.612034e+001  1.832004e+001 
3115625000  -2.590189e+001  1.407165e+001 
3118750000  -2.640718e+001  1.531532e+001 
3121875000  -2.574424e+001  7.490903e+000 
3125000000  -2.688229e+001  3.966427e+000 
3128125000  -2.813972e+001  1.148243e+001 
3131250000  -2.592830e+001  1.231662e+001 
3134375000  -2.456239e+001  -1.063130e+000 
3137500000  -2.525335e+001  -1.499849e+001 
3140625000  -2.690460e+001  -1.672321e+001 
3143750000  -2.790469e+001  -1.232214e+001 
3146875000  -2.750601e+001  -1.070527e+001 
3150000000  -2.649153e+001  -8.435443e+000 
3153125000  -2.648105e+001  -1.600400e+001 
3156250000  -2.745724e+001  -1.073650e+001 
3159375000  -2.590900e+001  -7.465111e+000 
3162500000  -2.384496e+001  -2.041261e+001 
3165625000  -2.471806e+001  -3.140196e+001 
3168750000  -2.520465e+001  -3.083184e+001 
3171875000  -2.421327e+001  -3.473074e+001 
3175000000  -2.484257e+001  -4.240517e+001 
3178125000  -2.468089e+001  -4.065934e+001 
3181250000  -2.350258e+001  -4.464123e+001 
3184375000  -2.265054e+001  -5.700397e+001 
3187500000  -2.377734e+001  -7.245470e+001 
3190625000  -2.651187e+001  -7.987873e+001 
3193750000  -2.719030e+001  -7.009321e+001 
3196875000  -2.676602e+001  -6.461723e+001 
3200000000  -2.589411e+001  -6.646970e+001 
3203125000  -2.501302e+001  -7.237814e+001 
3206250000  -2.528710e+001  -7.849778e+001 
3209375000  -2.481454e+001  -8.353225e+001 
3212500000  -2.493258e+001  -9.031387e+001 
3215625000  -2.510534e+001  -9.451421e+001 
3218750000  -2.583534e+001  -1.005914e+002 
3221875000  -2.684943e+001  -1.056576e+002 
3225000000  -2.643864e+001  -1.060802e+002 
3228125000  -2.670498e+001  -1.110471e+002 
3231250000  -2.752381e+001  -1.138419e+002 
3234375000  -2.736758e+001  -1.125672e+002 
3237500000  -2.740007e+001  -1.144268e+002 
3240625000  -2.705450e+001  -1.160187e+002 
3243750000  -2.667596e+001  -1.225236e+002 
3246875000  -2.719193e+001  -1.291737e+002 
3250000000  -2.761313e+001  -1.311348e+002 
3253125000  -2.779070e+001  -1.325759e+002 
3256250000  -2.766788e+001  -1.385538e+002 
3259375000  -2.794932e+001  -1.461943e+002 
3262500000  -2.926124e+001  -1.490467e+002 
3265625000  -2.991949e+001  -1.456434e+002 
3268750000  -2.989643e+001  -1.431778e+002 
3271875000  -2.967805e+001  -1.420915e+002 
3275000000  -2.855754e+001  -1.468279e+002 
3278125000  -2.903091e+001  -1.534298e+002 
3281250000  -2.934708e+001  -1.511615e+002 
3284375000  -2.887886e+001  -1.573073e+002 
3287500000  -2.900951e+001  -1.597909e+002 
3290625000  -2.947481e+001  -1.642177e+002 
3293750000  -2.916431e+001  -1.697909e+002 
3296875000  -3.008346e+001  -1.697437e+002 
3300000000  -3.008627e+001  -1.684787e+002 
3303125000  -2.900449e+001  -1.738272e+002 
3306250000  -2.877777e+001  1.798375e+002 
3309375000  -2.859446e+001  1.746602e+002 
3312500000  -2.858717e+001  1.645209e+002 
3315625000  -2.960138e+001  1.566248e+002 
3318750000  -3.099758e+001  1.532527e+002 
3321875000  -3.219992e+001  1.535826e+002 
3325000000  -3.285616e+001  1.579988e+002 
3328125000  -3.268356e+001  1.597727e+002 
3331250000  -3.145183e+001  1.679300e+002 
3334375000  -2.883585e+001  1.582517e+002 
3337500000  -2.894168e+001  1.399984e+002 
3340625000  -3.029910e+001  1.287030e+002 
3343750000  -3.222528e+001  1.274300e+002 
3346875000  -3.278238e+001  1.289103e+002 
3350000000  -3.217183e+001  1.277047e+002 
3353125000  -3.217244e+001  1.235269e+002 
3356250000  -3.190329e+001  1.159263e+002 
3359375000  -3.281617e+001  1.075888e+002 
3362500000  -3.404369e+001  1.018102e+002 
3365625000  -3.475684e+001  1.004611e+002 
3368750000  -3.573988e+001  9.827007e+001 
3371875000  -3.614189e+001  9.544034e+001 
3375000000  -3.771104e+001  9.388399e+001 
3378125000  -3.889595e+001  9.278270e+001 
3381250000  -4.038769e+001  1.000815e+002 
3384375000  -3.956641e+001  1.222186e+002 
3387500000  -3.627221e+001  1.091470e+002 
3390625000  -3.804129e+001  8.947803e+001 
3393750000  -4.006540e+001  9.382529e+001 
3396875000  -3.926056e+001  9.735128e+001 
3400000000  -3.932658e+001  9.041422e+001 
3403125000  -4.034823e+001  8.536836e+001 
3406250000  -4.080445e+001  8.844846e+001 
3409375000  -4.166327e+001  8.313078e+001 
3412500000  -4.252267e+001  8.589326e+001 
3415625000  -4.359154e+001  8.975640e+001 
3418750000  -4.429019e+001  9.647404e+001 
3421875000  -4.374953e+001  1.036076e+002 
3425000000  -4.318005e+001  1.051821e+002 
3428125000  -4.212651e+001  1.048366e+002 
3431250000  -4.219045e+001  9.994112e+001 
3434375000  -4.214994e+001  9.963707e+001 
3437500000  -4.239454e+001  9.702637e+001 
3440625000  -4.251523e+001  1.010997e+002 
3443750000  -4.155645e+001  1.015974e+002 
3446875000  -4.039481e+001  9.753469e+001 
3450000000  -4.007909e+001  8.800356e+001 
3453125000  -4.065846e+001  8.023409e+001 
3456250000  -4.174049e+001  7.522964e+001 
3459375000  -4.251437e+001  7.810281e+001 
3462500000  -4.294254e+001  7.892174e+001 
3465625000  -4.299432e+001  7.511987e+001 
3468750000  -4.344869e+001  7.075455e+001 
3471875000  -4.344393e+001  7.353987e+001 
3475000000  -4.344213e+001  6.808619e+001 
3478125000  -4.390557e+001  6.383789e+001 
3481250000  -4.534005e+001  6.181518e+001 
3484375000  -4.659976e+001  6.976105e+001 
3487500000  -4.632029e+001  7.043167e+001 
3490625000  -4.624476e+001  7.180967e+001 
3493750000  -4.650579e+001  6.394476e+001 
3496875000  -4.729956e+001  6.817991e+001 
3500000000  -4.854737e+001  7.646774e+001 
3503125000  -4.802433e+001  7.675874e+001 
3506250000  -4.717311e+001  8.037357e+001 
3509375000  -4.687484e+001  8.210445e+001 
3512500000  -4.746596e+001  7.741047e+001 
3515625000  -4.760067e+001  8.270493e+001 
3518750000  -4.778532e+001  8.605197e+001 
3521875000  -4.780953e+001  8.953688e+001 
3525000000  -4.803994e+001  8.699065e+001 
3528125000  -4.749075e+001  1.040765e+002 
3531250000  -4.529441e+001  1.030654e+002 
3534375000  -4.485051e+001  9.509219e+001 
3537500000  -4.461732e+001  8.987801e+001 
3540625000  -4.526543e+001  9.132070e+001 
3543750000  -4.584527e+001  9.234681e+001 
3546875000  -4.516347e+001  1.068607e+002 
3550000000  -4.263778e+001  1.080369e+002 
3553125000  -4.107936e+001  9.136206e+001 
3556250000  -4.213255e+001  8.679107e+001 
3559375000  -4.179584e+001  8.769373e+001 
3562500000  -4.059968e+001  8.136642e+001 
3565625000  -4.142495e+001  7.383941e+001 
3568750000  -4.126710e+001  7.761880e+001 
3571875000  -4.121441e+001  7.638221e+001 
3575000000  -4.064975e+001  7.117359e+001 
3578125000  -4.100355e+001  6.701528e+001 
3581250000  -4.124104e+001  6.882139e+001 
3584375000  -4.036168e+001  6.631433e+001 
3587500000  -3.944644e+001  5.953596e+001 
3590625000  -3.998405e+001  5.016624e+001 
3593750000  -4.072470e+001  4.919095e+001 
3596875000  -4.099474e+001  5.805481e+001 
3600000000  -3.939436e+001  5.374504e+001 
3603125000  -3.957470e+001  4.240485e+001 
3606250000  -4.017162e+001  3.735337e+001 
3609375000  -4.075539e+001  3.764257e+001 
3612500000  -4.108027e+001  3.506156e+001 
3615625000  -4.144196e+001  3.435627e+001 
3618750000  -4.188646e+001  3.334934e+001 
3621875000  -4.169074e+001  3.427702e+001 
3625000000  -4.180952e+001  3.335985e+001 
3628125000  -4.175351e+001  3.500543e+001 
3631250000  -4.130754e+001  2.965555e+001 
3634375000  -4.256743e+001  2.832948e+001 
3637500000  -4.232397e+001  3.417541e+001 
3640625000  -4.109008e+001  3.723174e+001 
3643750000  -4.100295e+001  3.132025e+001 
3646875000  -4.146475e+001  2.512627e+001 
3650000000  -4.179970e+001  2.674964e+001 
3653125000  -4.169662e+001  2.481890e+001 
3656250000  -4.156261e+001  2.459584e+001 
3659375000  -4.210802e+001  3.000318e+001 
3662500000  -4.145478e+001  2.820311e+001 
3665625000  -4.139978e+001  2.758352e+001 
3668750000  -4.041161e+001  3.200468e+001 
3671875000  -3.954076e+001  2.533681e+001 
3675000000  -3.974317e+001  1.954986e+001 
3678125000  -4.053996e+001  2.123228e+001 
3681250000  -3.973717e+001  2.273048e+001 
3684375000  -3.949369e+001  1.979481e+001 
3687500000  -3.976683e+001  1.886765e+001 
3690625000  -3.958781e+001  1.705261e+001 
3693750000  -4.025175e+001  1.820326e+001 
3696875000  -4.009936e+001  2.165516e+001 
3700000000  -3.909117e+001  1.822050e+001 
3703125000  -3.876162e+001  1.566166e+001 
3706250000  -3.938367e+001  1.662841e+001 
3709375000  -3.873612e+001  1.990694e+001 
3712500000  -3.747563e+001  2.038863e+001 
3715625000  -3.629806e+001  1.437590e+001 
3718750000  -3.572125e+001  1.151735e+001 
3721875000  -3.528105e+001  7.424564e+000 
3725000000  -3.529283e+001  1.070069e+000 
3728125000  -3.554637e+001  1.171631e+000 
3731250000  -3.472919e+001  3.594495e-001 
3734375000  -3.376425e+001  -5.933614e+000 
3737500000  -3.436225e+001  -1.351449e+001 
3740625000  -3.502135e+001  -1.599148e+001 
3743750000  -3.478240e+001  -1.904867e+001 
3746875000  -3.487887e+001  -2.111342e+001 
3750000000  -3.506056e+001  -2.208743e+001 
3753125000  -3.467485e+001  -2.312207e+001 
3756250000  -3.468441e+001  -2.264380e+001 
3759375000  -3.445977e+001  -2.333610e+001 
3762500000  -3.396572e+001  -2.733985e+001 
3765625000  -3.437022e+001  -3.027478e+001 
3768750000  -3.449068e+001  -2.719675e+001 
3771875000  -3.265744e+001  -2.977556e+001 
3775000000  -3.241729e+001  -3.768209e+001 
3778125000  -3.278055e+001  -3.906259e+001 
3781250000  -3.251803e+001  -4.210178e+001 
3784375000  -3.253244e+001  -4.412276e+001 
3787500000  -3.180221e+001  -4.701273e+001 
3790625000  -3.234533e+001  -5.275369e+001 
3793750000  -3.242282e+001  -5.321072e+001 
3796875000  -3.156834e+001  -5.509285e+001 
3800000000  -3.003215e+001  -5.832801e+001 
3803125000  -3.079560e+001  -6.532253e+001 
3806250000  -3.139640e+001  -6.741291e+001 
3809375000  -3.106052e+001  -6.949842e+001 
3812500000  -3.044543e+001  -7.370157e+001 
3815625000  -3.098160e+001  -8.107636e+001 
3818750000  -3.192365e+001  -8.263673e+001 
3821875000  -3.211740e+001  -7.491293e+001 
3825000000  -3.016261e+001  -7.057078e+001 
3828125000  -2.893337e+001  -8.388828e+001 
3831250000  -2.929188e+001  -9.817416e+001 
3834375000  -3.069196e+001  -9.891135e+001 
3837500000  -3.150279e+001  -9.451393e+001 
3840625000  -3.051959e+001  -9.552367e+001 
3843750000  -2.927843e+001  -1.047048e+002 
3846875000  -3.001941e+001  -1.124820e+002 
3850000000  -3.128416e+001  -1.081570e+002 
3853125000  -3.046566e+001  -1.045887e+002 
3856250000  -3.035431e+001  -1.092719e+002 
3859375000  -2.984866e+001  -1.135252e+002 
3862500000  -2.934524e+001  -1.208818e+002 
3865625000  -2.958151e+001  -1.256579e+002 
3868750000  -2.966842e+001  -1.254678e+002 
3871875000  -2.890848e+001  -1.284830e+002 
3875000000  -2.909827e+001  -1.367899e+002 
3878125000  -3.001898e+001  -1.400159e+002 
3881250000  -3.030355e+001  -1.363140e+002 
3884375000  -2.971378e+001  -1.409737e+002 
3887500000  -2.977532e+001  -1.452250e+002 
3890625000  -3.035552e+001  -1.471523e+002 
3893750000  -3.073150e+001  -1.486324e+002 
3896875000  -3.086234e+001  -1.475913e+002 
3900000000  -3.100419e+001  -1.483964e+002 
3903125000  -3.069227e+001  -1.506161e+002 
3906250000  -3.046932e+001  -1.516111e+002 
3909375000  -2.981352e+001  -1.538150e+002 
3912500000  -2.967530e+001  -1.611459e+002 
3915625000  -3.090578e+001  -1.606436e+002 
3918750000  -3.099970e+001  -1.579031e+002 
3921875000  -3.057070e+001  -1.604310e+002 
3925000000  -2.985009e+001  -1.612386e+002 
3928125000  -2.907390e+001  -1.671418e+002 
3931250000  -2.946628e+001  -1.704482e+002 
3934375000  -2.973676e+001  -1.700771e+002 
3937500000  -2.984683e+001  -1.716807e+002 
3940625000  -3.021863e+001  -1.710604e+002 
3943750000  -2.933646e+001  -1.701218e+002 
3946875000  -2.815298e+001  -1.751763e+002 
3950000000  -2.855417e+001  1.767085e+002 
3953125000  -2.956341e+001  1.772767e+002 
3956250000  -2.867312e+001  1.796676e+002 
3959375000  -2.744722e+001  1.765683e+002 
3962500000  -2.689808e+001  1.731168e+002 
3965625000  -2.649184e+001  1.639642e+002 
3968750000  -2.739350e+001  1.570080e+002 
3971875000  -2.783409e+001  1.557906e+002 
3975000000  -2.718143e+001  1.535437e+002 
3978125000  -2.697210e+001  1.523705e+002 
3981250000  -2.675123e+001  1.481628e+002 
3984375000  -2.698388e+001  1.419118e+002 
3987500000  -2.757725e+001  1.391579e+002 
3990625000  -2.750843e+001  1.388999e+002 
3993750000  -2.777641e+001  1.357060e+002 
3996875000  -2.774025e+001  1.336133e+002 
4000000000  -2.784070e+001  1.312475e+002 
4003125000  -2.843571e+001  1.331974e+002 
4006250000  -2.707264e+001  1.337963e+002 
4009375000  -2.585461e+001  1.219028e+002 
4012500000  -2.687385e+001  1.146815e+002 
4015625000  -2.812893e+001  1.151356e+002 
4018750000  -2.830354e+001  1.180251e+002 
4021875000  -2.772615e+001  1.162543e+002 
4025000000  -2.720042e+001  1.116075e+002 
4028125000  -2.720198e+001  1.075048e+002 
4031250000  -2.763898e+001  1.038992e+002 
4034375000  -2.793021e+001  1.042922e+002 
4037500000  -2.734586e+001  1.063717e+002 
4040625000  -2.724805e+001  1.030081e+002 
4043750000  -2.758192e+001  1.027253e+002 
4046875000  -2.718946e+001  1.021947e+002 
4050000000  -2.662741e+001  9.699453e+001 
4053125000  -2.711300e+001  9.405132e+001 
4056250000  -2.767975e+001  9.822906e+001 
4059375000  -2.650463e+001  1.004056e+002 
4062500000  -2.506487e+001  9.567529e+001 
4065625000  -2.491350e+001  9.084951e+001 
4068750000  -2.465828e+001  8.626218e+001 
4071875000  -2.405622e+001  7.829369e+001 
4075000000  -2.434459e+001  7.209209e+001 
4078125000  -2.489396e+001  7.079901e+001 
4081250000  -2.435111e+001  6.835118e+001 
4084375000  -2.400369e+001  6.162107e+001 
4087500000  -2.433513e+001  5.536617e+001 
4090625000  -2.497038e+001  5.430469e+001 
4093750000  -2.483020e+001  5.504330e+001 
4096875000  -2.436741e+001  4.905199e+001 
4100000000  -2.506164e+001  4.183183e+001 
4103125000  -2.590753e+001  4.208978e+001 
4106250000  -2.584982e+001  4.720894e+001 
4109375000  -2.500136e+001  4.709015e+001 
4112500000  -2.444124e+001  4.041100e+001 
4115625000  -2.470279e+001  3.633770e+001 
4118750000  -2.481577e+001  3.308487e+001 
4121875000  -2.447585e+001  2.853639e+001 
4125000000  -2.476961e+001  2.362679e+001 
4128125000  -2.586081e+001  2.373890e+001 
4131250000  -2.559475e+001  3.160960e+001 
4134375000  -2.332592e+001  2.760493e+001 
4137500000  -2.303703e+001  9.018499e+000 
4140625000  -2.511423e+001  1.610148e+000 
4143750000  -2.653684e+001  6.334730e+000 
4146875000  -2.616223e+001  1.430821e+001 
4150000000  -2.519735e+001  1.108807e+001 
4153125000  -2.495658e+001  4.453249e+000 
4156250000  -2.587303e+001  2.301932e+000 
4159375000  -2.615517e+001  6.537872e+000 
4162500000  -2.501330e+001  1.035823e+001 
4165625000  -2.385924e+001  6.610295e+000 
4168750000  -2.325607e+001  -6.519184e-002 
4171875000  -2.320449e+001  -9.417560e+000 
4175000000  -2.377628e+001  -1.492855e+001 
4178125000  -2.436447e+001  -1.528283e+001 
4181250000  -2.423013e+001  -1.597851e+001 
4184375000  -2.406861e+001  -1.905724e+001 
4187500000  -2.407265e+001  -2.157161e+001 
4190625000  -2.391814e+001  -2.719640e+001 
4193750000  -2.464582e+001  -3.122680e+001 
4196875000  -2.533566e+001  -3.165540e+001 
4200000000  -2.618901e+001  -2.963675e+001 
4203125000  -2.634101e+001  -1.659311e+001 
4206250000  -2.298653e+001  -1.462153e+001 
4209375000  -2.177230e+001  -3.494597e+001 
4212500000  -2.366231e+001  -4.417731e+001 
4215625000  -2.470550e+001  -3.810181e+001 
4218750000  -2.338564e+001  -3.125685e+001 
4221875000  -2.108036e+001  -4.022750e+001 
4225000000  -2.229799e+001  -5.280597e+001 
4228125000  -2.303016e+001  -4.803629e+001 
4231250000  -2.146724e+001  -5.175420e+001 
4234375000  -2.137726e+001  -6.006602e+001 
4237500000  -2.095595e+001  -6.327406e+001 
4240625000  -2.103297e+001  -7.193580e+001 
4243750000  -2.198439e+001  -7.845210e+001 
4246875000  -2.282211e+001  -7.874492e+001 
4250000000  -2.289423e+001  -7.568468e+001 
4253125000  -2.233990e+001  -7.759772e+001 
4256250000  -2.262544e+001  -8.157257e+001 
4259375000  -2.236588e+001  -8.362753e+001 
4262500000  -2.239191e+001  -8.784837e+001 
4265625000  -2.254030e+001  -8.708322e+001 
4268750000  -2.170025e+001  -9.069200e+001 
4271875000  -2.144624e+001  -9.651271e+001 
4275000000  -2.084333e+001  -1.025749e+002 
4278125000  -2.137676e+001  -1.138352e+002 
4281250000  -2.318599e+001  -1.159982e+002 
4284375000  -2.289343e+001  -1.153875e+002 
4287500000  -2.358536e+001  -1.188375e+002 
4290625000  -2.491090e+001  -1.095609e+002 
4293750000  -2.298380e+001  -1.034440e+002 
4296875000  -2.157323e+001  -1.149706e+002 
4300000000  -2.241392e+001  -1.242190e+002 
4303125000  -2.349079e+001  -1.228247e+002 
4306250000  -2.293054e+001  -1.168315e+002 
4309375000  -2.154100e+001  -1.191210e+002 
4312500000  -2.138431e+001  -1.274689e+002 
4315625000  -2.161973e+001  -1.332253e+002 
4318750000  -2.190209e+001  -1.368620e+002 
4321875000  -2.209271e+001  -1.366809e+002 
4325000000  -2.151905e+001  -1.359778e+002 
4328125000  -2.099134e+001  -1.423463e+002 
4331250000  -2.094300e+001  -1.504174e+002 
4334375000  -2.134176e+001  -1.555609e+002 
4337500000  -2.214746e+001  -1.575760e+002 
4340625000  -2.272849e+001  -1.547201e+002 
4343750000  -2.216729e+001  -1.544724e+002 
4346875000  -2.179184e+001  -1.596997e+002 
4350000000  -2.177688e+001  -1.644112e+002 
4353125000  -2.177526e+001  -1.719099e+002 
4356250000  -2.344145e+001  -1.733784e+002 
4359375000  -2.412706e+001  -1.606274e+002 
4362500000  -2.165682e+001  -1.583124e+002 
4365625000  -1.996719e+001  -1.698167e+002 
4368750000  -2.061542e+001  1.782688e+002 
4371875000  -2.179249e+001  1.785963e+002 
4375000000  -2.153649e+001  -1.798762e+002 
4378125000  -2.092040e+001  1.743125e+002 
4381250000  -2.106319e+001  1.688780e+002 
4384375000  -2.088330e+001  1.643059e+002 
4387500000  -2.156519e+001  1.586563e+002 
4390625000  -2.262361e+001  1.593472e+002 
4393750000  -2.197415e+001  1.616152e+002 
4396875000  -2.128974e+001  1.595527e+002 
4400000000  -2.078364e+001  1.526879e+002 
4403125000  -2.135065e+001  1.451832e+002 
4406250000  -2.223145e+001  1.439361e+002 
4409375000  -2.216560e+001  1.415410e+002 
4412500000  -2.314813e+001  1.388512e+002 
4415625000  -2.360565e+001  1.434015e+002 
4418750000  -2.243655e+001  1.484399e+002 
4421875000  -2.098244e+001  1.445235e+002 
