!Agilent Technologies,E8363B,MY43030201,A.06.04.32
!Agilent E8363B: A.06.04.32
!Date: Tuesday, November 11, 2014 20:45:37
!Correction: S21(Response(S21)) 
!S1P File: Measurement: S21:
# Hz S  dB   R 50
3000000000  -2.650886e+001  1.587379e+002 
3003125000  -2.787174e+001  1.545335e+002 
3006250000  -2.794511e+001  1.517607e+002 
3009375000  -2.825443e+001  1.561857e+002 
3012500000  -2.782355e+001  1.564752e+002 
3015625000  -2.677282e+001  1.492150e+002 
3018750000  -2.767506e+001  1.483428e+002 
3021875000  -2.646460e+001  1.498119e+002 
3025000000  -2.519077e+001  1.465854e+002 
3028125000  -2.417354e+001  1.418904e+002 
3031250000  -2.313755e+001  1.308904e+002 
3034375000  -2.277111e+001  1.180709e+002 
3037500000  -2.305281e+001  1.059317e+002 
3040625000  -2.441574e+001  1.007947e+002 
3043750000  -2.514372e+001  9.659532e+001 
3046875000  -2.519233e+001  9.022237e+001 
3050000000  -2.695975e+001  8.279178e+001 
3053125000  -2.715183e+001  8.931161e+001 
3056250000  -2.641886e+001  9.249947e+001 
3059375000  -2.676858e+001  9.231823e+001 
3062500000  -2.526289e+001  8.837128e+001 
3065625000  -2.500548e+001  8.293981e+001 
3068750000  -2.473959e+001  7.589975e+001 
3071875000  -2.465293e+001  7.302380e+001 
3075000000  -2.466704e+001  6.921545e+001 
3078125000  -2.435421e+001  6.455248e+001 
3081250000  -2.498159e+001  6.062687e+001 
3084375000  -2.424956e+001  5.683556e+001 
3087500000  -2.411463e+001  5.336068e+001 
3090625000  -2.384370e+001  4.366340e+001 
3093750000  -2.418405e+001  3.554016e+001 
3096875000  -2.551907e+001  2.940035e+001 
3100000000  -2.565581e+001  2.822398e+001 
3103125000  -2.602102e+001  2.946132e+001 
3106250000  -2.581431e+001  2.602080e+001 
3109375000  -2.599733e+001  2.253187e+001 
3112500000  -2.616090e+001  2.148890e+001 
3115625000  -2.591099e+001  1.720289e+001 
3118750000  -2.640100e+001  1.835763e+001 
3121875000  -2.575955e+001  1.048023e+001 
3125000000  -2.687090e+001  6.809205e+000 
3128125000  -2.810864e+001  1.455475e+001 
3131250000  -2.599255e+001  1.556960e+001 
3134375000  -2.457820e+001  2.205600e+000 
3137500000  -2.525456e+001  -1.211643e+001 
3140625000  -2.689981e+001  -1.374340e+001 
3143750000  -2.787429e+001  -9.347781e+000 
3146875000  -2.752450e+001  -7.589512e+000 
3150000000  -2.651106e+001  -5.294455e+000 
3153125000  -2.643831e+001  -1.309796e+001 
3156250000  -2.739053e+001  -7.754696e+000 
3159375000  -2.593006e+001  -4.578835e+000 
3162500000  -2.384719e+001  -1.740502e+001 
3165625000  -2.473557e+001  -2.850705e+001 
3168750000  -2.519930e+001  -2.768372e+001 
3171875000  -2.427652e+001  -3.147965e+001 
3175000000  -2.485382e+001  -3.936853e+001 
3178125000  -2.468975e+001  -3.789749e+001 
3181250000  -2.348977e+001  -4.154440e+001 
3184375000  -2.266483e+001  -5.388298e+001 
3187500000  -2.372082e+001  -6.929443e+001 
3190625000  -2.652653e+001  -7.695537e+001 
3193750000  -2.720332e+001  -6.739626e+001 
3196875000  -2.681904e+001  -6.196606e+001 
3200000000  -2.592959e+001  -6.348339e+001 
3203125000  -2.501933e+001  -6.909295e+001 
3206250000  -2.531924e+001  -7.532362e+001 
3209375000  -2.483436e+001  -8.044677e+001 
3212500000  -2.492302e+001  -8.714681e+001 
3215625000  -2.509077e+001  -9.170666e+001 
3218750000  -2.584132e+001  -9.751581e+001 
3221875000  -2.684640e+001  -1.024397e+002 
3225000000  -2.646253e+001  -1.033747e+002 
3228125000  -2.670648e+001  -1.076672e+002 
3231250000  -2.748396e+001  -1.107737e+002 
3234375000  -2.739060e+001  -1.095992e+002 
3237500000  -2.741101e+001  -1.110248e+002 
3240625000  -2.708489e+001  -1.128365e+002 
3243750000  -2.667831e+001  -1.194822e+002 
3246875000  -2.717465e+001  -1.259265e+002 
3250000000  -2.764536e+001  -1.279051e+002 
3253125000  -2.768372e+001  -1.294798e+002 
3256250000  -2.765494e+001  -1.353981e+002 
3259375000  -2.797008e+001  -1.429871e+002 
3262500000  -2.919122e+001  -1.462660e+002 
3265625000  -2.990844e+001  -1.427530e+002 
3268750000  -2.984371e+001  -1.397734e+002 
3271875000  -2.971507e+001  -1.388641e+002 
3275000000  -2.856514e+001  -1.435839e+002 
3278125000  -2.899976e+001  -1.500085e+002 
3281250000  -2.927439e+001  -1.483292e+002 
3284375000  -2.887924e+001  -1.539799e+002 
3287500000  -2.901677e+001  -1.573724e+002 
3290625000  -2.947497e+001  -1.612137e+002 
3293750000  -2.918859e+001  -1.670035e+002 
3296875000  -3.013515e+001  -1.669507e+002 
3300000000  -3.014548e+001  -1.658223e+002 
3303125000  -2.898391e+001  -1.696941e+002 
3306250000  -2.872735e+001  -1.763259e+002 
3309375000  -2.849419e+001  1.786144e+002 
3312500000  -2.848494e+001  1.687139e+002 
3315625000  -2.947426e+001  1.603072e+002 
3318750000  -3.081174e+001  1.573727e+002 
3321875000  -3.210011e+001  1.578918e+002 
3325000000  -3.270535e+001  1.624741e+002 
3328125000  -3.257300e+001  1.636822e+002 
3331250000  -3.138122e+001  1.709743e+002 
3334375000  -2.877808e+001  1.622809e+002 
3337500000  -2.877859e+001  1.440078e+002 
3340625000  -3.008442e+001  1.331702e+002 
3343750000  -3.201134e+001  1.316943e+002 
3346875000  -3.265002e+001  1.334301e+002 
3350000000  -3.201508e+001  1.324411e+002 
3353125000  -3.214565e+001  1.276208e+002 
3356250000  -3.177649e+001  1.200928e+002 
3359375000  -3.260400e+001  1.120607e+002 
3362500000  -3.391494e+001  1.061265e+002 
3365625000  -3.449290e+001  1.048657e+002 
3368750000  -3.559413e+001  1.028985e+002 
3371875000  -3.582526e+001  9.936157e+001 
3375000000  -3.746040e+001  9.803322e+001 
3378125000  -3.843188e+001  9.781584e+001 
3381250000  -4.009398e+001  1.044344e+002 
3384375000  -3.959222e+001  1.253550e+002 
3387500000  -3.593761e+001  1.115089e+002 
3390625000  -3.791836e+001  9.109563e+001 
3393750000  -3.967519e+001  9.561310e+001 
3396875000  -3.891890e+001  1.000389e+002 
3400000000  -3.870873e+001  9.327969e+001 
3403125000  -4.003819e+001  8.879565e+001 
3406250000  -4.047088e+001  9.138957e+001 
3409375000  -4.126279e+001  8.706966e+001 
3412500000  -4.227747e+001  8.930146e+001 
3415625000  -4.300673e+001  9.151837e+001 
3418750000  -4.334334e+001  9.622549e+001 
3421875000  -4.365052e+001  1.030595e+002 
3425000000  -4.298102e+001  1.090616e+002 
3428125000  -4.206553e+001  1.074756e+002 
3431250000  -4.180208e+001  1.019907e+002 
3434375000  -4.172568e+001  1.001199e+002 
3437500000  -4.208635e+001  9.776541e+001 
3440625000  -4.226707e+001  1.021968e+002 
3443750000  -4.083800e+001  1.044514e+002 
3446875000  -4.026274e+001  9.951156e+001 
3450000000  -4.012542e+001  9.161456e+001 
3453125000  -4.044711e+001  8.245035e+001 
3456250000  -4.155945e+001  7.607294e+001 
3459375000  -4.264399e+001  7.859132e+001 
3462500000  -4.246675e+001  7.867594e+001 
3465625000  -4.272755e+001  7.587939e+001 
3468750000  -4.313295e+001  7.213745e+001 
3471875000  -4.322452e+001  7.234338e+001 
3475000000  -4.324617e+001  6.947903e+001 
3478125000  -4.373048e+001  6.385703e+001 
3481250000  -4.513746e+001  6.279869e+001 
3484375000  -4.632797e+001  6.775172e+001 
3487500000  -4.587914e+001  6.899667e+001 
3490625000  -4.542965e+001  6.859751e+001 
3493750000  -4.615324e+001  6.338137e+001 
3496875000  -4.733614e+001  6.667612e+001 
3500000000  -4.853457e+001  7.055048e+001 
3503125000  -4.838441e+001  7.834561e+001 
3506250000  -4.668159e+001  8.172793e+001 
3509375000  -4.759272e+001  8.117599e+001 
3512500000  -4.738188e+001  7.894965e+001 
3515625000  -4.795398e+001  8.038386e+001 
3518750000  -4.839346e+001  8.547639e+001 
3521875000  -4.779449e+001  8.849657e+001 
3525000000  -4.808863e+001  8.957540e+001 
3528125000  -4.805829e+001  1.041420e+002 
3531250000  -4.580085e+001  1.022725e+002 
3534375000  -4.521638e+001  9.649185e+001 
3537500000  -4.515956e+001  9.326492e+001 
3540625000  -4.548899e+001  9.436362e+001 
3543750000  -4.605055e+001  9.310114e+001 
3546875000  -4.523726e+001  1.066621e+002 
3550000000  -4.298142e+001  1.092670e+002 
3553125000  -4.152050e+001  9.464387e+001 
3556250000  -4.269474e+001  8.561260e+001 
3559375000  -4.223078e+001  8.995338e+001 
3562500000  -4.113948e+001  8.172055e+001 
3565625000  -4.202002e+001  7.720087e+001 
3568750000  -4.201123e+001  7.812607e+001 
3571875000  -4.155059e+001  7.818695e+001 
3575000000  -4.108771e+001  7.398829e+001 
3578125000  -4.170425e+001  7.104689e+001 
3581250000  -4.155698e+001  6.971976e+001 
3584375000  -4.063729e+001  6.947771e+001 
3587500000  -4.021608e+001  6.452161e+001 
3590625000  -4.039636e+001  5.568538e+001 
3593750000  -4.127818e+001  5.396160e+001 
3596875000  -4.162299e+001  6.156184e+001 
3600000000  -4.004050e+001  5.968469e+001 
3603125000  -3.991397e+001  4.600583e+001 
3606250000  -4.056628e+001  4.197169e+001 
3609375000  -4.094675e+001  4.356622e+001 
3612500000  -4.148325e+001  4.140781e+001 
3615625000  -4.150822e+001  3.967468e+001 
3618750000  -4.201142e+001  4.099751e+001 
3621875000  -4.150978e+001  3.891243e+001 
3625000000  -4.154234e+001  3.790625e+001 
3628125000  -4.201790e+001  3.997443e+001 
3631250000  -4.127310e+001  3.364781e+001 
3634375000  -4.236078e+001  3.567389e+001 
3637500000  -4.206662e+001  4.132849e+001 
3640625000  -4.096109e+001  4.326366e+001 
3643750000  -4.080699e+001  3.768341e+001 
3646875000  -4.128813e+001  3.145604e+001 
3650000000  -4.171773e+001  3.012559e+001 
3653125000  -4.143779e+001  3.068031e+001 
3656250000  -4.160832e+001  2.814992e+001 
3659375000  -4.224244e+001  3.228043e+001 
3662500000  -4.126665e+001  3.156558e+001 
3665625000  -4.144711e+001  3.141320e+001 
3668750000  -4.025336e+001  3.493300e+001 
3671875000  -3.926898e+001  3.169519e+001 
3675000000  -3.988136e+001  2.283331e+001 
3678125000  -4.016251e+001  2.629206e+001 
3681250000  -3.970311e+001  2.669935e+001 
3684375000  -3.965006e+001  2.375432e+001 
3687500000  -3.979211e+001  2.315704e+001 
3690625000  -4.001371e+001  2.020361e+001 
3693750000  -4.038280e+001  2.302563e+001 
3696875000  -3.997445e+001  2.643366e+001 
3700000000  -3.890808e+001  2.382691e+001 
3703125000  -3.872556e+001  2.102641e+001 
3706250000  -3.942317e+001  2.187876e+001 
3709375000  -3.860103e+001  2.492939e+001 
3712500000  -3.732664e+001  2.662286e+001 
3715625000  -3.653236e+001  1.885396e+001 
3718750000  -3.577541e+001  1.774649e+001 
3721875000  -3.514869e+001  1.049604e+001 
3725000000  -3.514598e+001  6.337893e+000 
3728125000  -3.545043e+001  6.166309e+000 
3731250000  -3.478444e+001  4.897305e+000 
3734375000  -3.371571e+001  -6.146414e-001 
3737500000  -3.409354e+001  -8.760869e+000 
3740625000  -3.473076e+001  -1.196779e+001 
3743750000  -3.466479e+001  -1.469808e+001 
3746875000  -3.448776e+001  -1.743208e+001 
3750000000  -3.502110e+001  -1.775815e+001 
3753125000  -3.449532e+001  -1.857862e+001 
3756250000  -3.446307e+001  -1.962013e+001 
3759375000  -3.434748e+001  -1.975414e+001 
3762500000  -3.375782e+001  -2.409021e+001 
3765625000  -3.416141e+001  -2.665453e+001 
3768750000  -3.426145e+001  -2.420815e+001 
3771875000  -3.252436e+001  -2.623792e+001 
3775000000  -3.218642e+001  -3.411943e+001 
3778125000  -3.264280e+001  -3.618563e+001 
3781250000  -3.238398e+001  -3.880526e+001 
3784375000  -3.233827e+001  -4.119296e+001 
3787500000  -3.161179e+001  -4.464170e+001 
3790625000  -3.215320e+001  -5.064369e+001 
3793750000  -3.234019e+001  -5.080510e+001 
3796875000  -3.157156e+001  -5.228606e+001 
3800000000  -2.999427e+001  -5.559734e+001 
3803125000  -3.065943e+001  -6.226873e+001 
3806250000  -3.123917e+001  -6.539541e+001 
3809375000  -3.107970e+001  -6.568102e+001 
3812500000  -3.044814e+001  -7.094939e+001 
3815625000  -3.102323e+001  -7.795303e+001 
3818750000  -3.190848e+001  -8.004338e+001 
3821875000  -3.200050e+001  -7.225977e+001 
3825000000  -3.018944e+001  -6.699039e+001 
3828125000  -2.888816e+001  -8.006274e+001 
3831250000  -2.920939e+001  -9.422541e+001 
3834375000  -3.053941e+001  -9.690012e+001 
3837500000  -3.150853e+001  -9.053758e+001 
3840625000  -3.046408e+001  -9.189270e+001 
3843750000  -2.923306e+001  -1.013994e+002 
3846875000  -2.992089e+001  -1.096957e+002 
3850000000  -3.121171e+001  -1.038741e+002 
3853125000  -3.050596e+001  -1.011035e+002 
3856250000  -3.033220e+001  -1.055214e+002 
3859375000  -2.974096e+001  -1.099641e+002 
3862500000  -2.926151e+001  -1.171757e+002 
3865625000  -2.947194e+001  -1.215600e+002 
3868750000  -2.957421e+001  -1.227034e+002 
3871875000  -2.879627e+001  -1.249548e+002 
3875000000  -2.889915e+001  -1.337034e+002 
3878125000  -2.987186e+001  -1.366507e+002 
3881250000  -3.002999e+001  -1.338396e+002 
3884375000  -2.949741e+001  -1.374989e+002 
3887500000  -2.963792e+001  -1.419149e+002 
3890625000  -3.016947e+001  -1.441837e+002 
3893750000  -3.056486e+001  -1.460535e+002 
3896875000  -3.067387e+001  -1.458829e+002 
3900000000  -3.113412e+001  -1.465554e+002 
3903125000  -3.052710e+001  -1.485321e+002 
3906250000  -3.034512e+001  -1.486570e+002 
3909375000  -2.963518e+001  -1.510556e+002 
3912500000  -2.960162e+001  -1.587290e+002 
3915625000  -3.077825e+001  -1.583133e+002 
3918750000  -3.091457e+001  -1.566039e+002 
3921875000  -3.059228e+001  -1.587843e+002 
3925000000  -2.973763e+001  -1.584239e+002 
3928125000  -2.904531e+001  -1.641478e+002 
3931250000  -2.948107e+001  -1.682920e+002 
3934375000  -2.976392e+001  -1.675626e+002 
3937500000  -2.983754e+001  -1.682445e+002 
3940625000  -3.026046e+001  -1.688361e+002 
3943750000  -2.948144e+001  -1.668817e+002 
3946875000  -2.811986e+001  -1.722091e+002 
3950000000  -2.862903e+001  -1.797666e+002 
3953125000  -2.954858e+001  -1.797330e+002 
3956250000  -2.889240e+001  -1.773266e+002 
3959375000  -2.741770e+001  -1.798975e+002 
3962500000  -2.691678e+001  1.763746e+002 
3965625000  -2.653985e+001  1.678847e+002 
3968750000  -2.743068e+001  1.610711e+002 
3971875000  -2.787227e+001  1.593296e+002 
3975000000  -2.718642e+001  1.571365e+002 
3978125000  -2.698489e+001  1.560376e+002 
3981250000  -2.666204e+001  1.515385e+002 
3984375000  -2.691380e+001  1.450999e+002 
3987500000  -2.737525e+001  1.430173e+002 
3990625000  -2.740175e+001  1.418409e+002 
3993750000  -2.764504e+001  1.391051e+002 
3996875000  -2.764727e+001  1.362263e+002 
4000000000  -2.766986e+001  1.344233e+002 
4003125000  -2.829706e+001  1.365342e+002 
4006250000  -2.697507e+001  1.366931e+002 
4009375000  -2.574189e+001  1.244744e+002 
4012500000  -2.679109e+001  1.174122e+002 
4015625000  -2.797282e+001  1.176544e+002 
4018750000  -2.822551e+001  1.201524e+002 
4021875000  -2.756407e+001  1.186981e+002 
4025000000  -2.720525e+001  1.138570e+002 
4028125000  -2.709762e+001  1.098116e+002 
4031250000  -2.755601e+001  1.066113e+002 
4034375000  -2.787700e+001  1.064393e+002 
4037500000  -2.738140e+001  1.084383e+002 
4040625000  -2.725752e+001  1.048830e+002 
4043750000  -2.763212e+001  1.040835e+002 
4046875000  -2.726084e+001  1.045283e+002 
4050000000  -2.669499e+001  9.839670e+001 
4053125000  -2.712295e+001  9.655108e+001 
4056250000  -2.771614e+001  9.985639e+001 
4059375000  -2.663171e+001  1.025520e+002 
4062500000  -2.521549e+001  9.834251e+001 
4065625000  -2.500169e+001  9.364021e+001 
4068750000  -2.476229e+001  8.911971e+001 
4071875000  -2.414197e+001  8.118193e+001 
4075000000  -2.444043e+001  7.504839e+001 
4078125000  -2.499929e+001  7.368874e+001 
4081250000  -2.453272e+001  7.136175e+001 
4084375000  -2.412415e+001  6.506522e+001 
4087500000  -2.448807e+001  5.888564e+001 
4090625000  -2.502291e+001  5.756246e+001 
4093750000  -2.490582e+001  5.773243e+001 
4096875000  -2.444819e+001  5.290758e+001 
4100000000  -2.508066e+001  4.542161e+001 
4103125000  -2.593340e+001  4.572570e+001 
4106250000  -2.585343e+001  5.026435e+001 
4109375000  -2.504280e+001  5.005585e+001 
4112500000  -2.442696e+001  4.383662e+001 
4115625000  -2.473245e+001  3.929956e+001 
4118750000  -2.483794e+001  3.659570e+001 
4121875000  -2.446456e+001  3.181682e+001 
4125000000  -2.475594e+001  2.697107e+001 
4128125000  -2.581990e+001  2.642143e+001 
4131250000  -2.553906e+001  3.442760e+001 
4134375000  -2.325312e+001  3.053585e+001 
4137500000  -2.298662e+001  1.212015e+001 
4140625000  -2.515281e+001  4.180224e+000 
4143750000  -2.639181e+001  9.325685e+000 
4146875000  -2.610157e+001  1.593040e+001 
4150000000  -2.523174e+001  1.340736e+001 
4153125000  -2.506174e+001  7.419154e+000 
4156250000  -2.587596e+001  4.466229e+000 
4159375000  -2.619525e+001  8.736125e+000 
4162500000  -2.508673e+001  1.318186e+001 
4165625000  -2.396062e+001  9.205004e+000 
4168750000  -2.333917e+001  2.309244e+000 
4171875000  -2.331609e+001  -6.994849e+000 
4175000000  -2.386614e+001  -1.263235e+001 
4178125000  -2.457055e+001  -1.269470e+001 
4181250000  -2.443609e+001  -1.320382e+001 
4184375000  -2.424462e+001  -1.630210e+001 
4187500000  -2.427537e+001  -1.892590e+001 
4190625000  -2.409552e+001  -2.426313e+001 
4193750000  -2.484057e+001  -2.820862e+001 
4196875000  -2.555858e+001  -2.841812e+001 
4200000000  -2.635304e+001  -2.696675e+001 
4203125000  -2.652120e+001  -1.393579e+001 
4206250000  -2.324070e+001  -1.134720e+001 
4209375000  -2.197723e+001  -3.155678e+001 
4212500000  -2.380795e+001  -4.072738e+001 
4215625000  -2.479584e+001  -3.516108e+001 
4218750000  -2.359903e+001  -2.781523e+001 
4221875000  -2.121828e+001  -3.661178e+001 
4225000000  -2.240720e+001  -4.956374e+001 
4228125000  -2.321083e+001  -4.437783e+001 
4231250000  -2.163138e+001  -4.813671e+001 
4234375000  -2.152129e+001  -5.649739e+001 
4237500000  -2.110547e+001  -5.973721e+001 
4240625000  -2.110984e+001  -6.789484e+001 
4243750000  -2.206427e+001  -7.474387e+001 
4246875000  -2.287877e+001  -7.511073e+001 
4250000000  -2.301701e+001  -7.231589e+001 
4253125000  -2.237381e+001  -7.423100e+001 
4256250000  -2.268306e+001  -7.820903e+001 
4259375000  -2.247512e+001  -8.041314e+001 
4262500000  -2.245434e+001  -8.396906e+001 
4265625000  -2.261700e+001  -8.387115e+001 
4268750000  -2.180219e+001  -8.762428e+001 
4271875000  -2.149473e+001  -9.323151e+001 
4275000000  -2.091545e+001  -9.946815e+001 
4278125000  -2.146044e+001  -1.108191e+002 
4281250000  -2.325293e+001  -1.130803e+002 
4284375000  -2.302750e+001  -1.121814e+002 
4287500000  -2.375156e+001  -1.160038e+002 
4290625000  -2.502584e+001  -1.067190e+002 
4293750000  -2.312065e+001  -1.006627e+002 
4296875000  -2.172515e+001  -1.120139e+002 
4300000000  -2.254658e+001  -1.213641e+002 
4303125000  -2.368403e+001  -1.205587e+002 
4306250000  -2.317003e+001  -1.142050e+002 
4309375000  -2.176316e+001  -1.157312e+002 
4312500000  -2.160002e+001  -1.242906e+002 
4315625000  -2.182419e+001  -1.300773e+002 
4318750000  -2.210277e+001  -1.338753e+002 
4321875000  -2.230838e+001  -1.332619e+002 
4325000000  -2.174563e+001  -1.324900e+002 
4328125000  -2.124484e+001  -1.387613e+002 
4331250000  -2.119797e+001  -1.467148e+002 
4334375000  -2.161239e+001  -1.516132e+002 
4337500000  -2.238217e+001  -1.541335e+002 
4340625000  -2.294472e+001  -1.510514e+002 
4343750000  -2.241462e+001  -1.503523e+002 
4346875000  -2.203765e+001  -1.556692e+002 
4350000000  -2.198753e+001  -1.601858e+002 
4353125000  -2.202342e+001  -1.679690e+002 
4356250000  -2.367666e+001  -1.693496e+002 
4359375000  -2.439509e+001  -1.575667e+002 
4362500000  -2.186412e+001  -1.540377e+002 
4365625000  -2.014302e+001  -1.656442e+002 
4368750000  -2.076500e+001  -1.773816e+002 
4371875000  -2.204904e+001  -1.775074e+002 
4375000000  -2.171308e+001  -1.757541e+002 
4378125000  -2.106409e+001  1.784495e+002 
4381250000  -2.123232e+001  1.728854e+002 
4384375000  -2.102666e+001  1.683997e+002 
4387500000  -2.171755e+001  1.628908e+002 
4390625000  -2.278275e+001  1.632927e+002 
4393750000  -2.214843e+001  1.655542e+002 
4396875000  -2.141182e+001  1.635006e+002 
4400000000  -2.097155e+001  1.564495e+002 
4403125000  -2.148446e+001  1.489978e+002 
4406250000  -2.236307e+001  1.475906e+002 
4409375000  -2.231358e+001  1.452343e+002 
4412500000  -2.332480e+001  1.426617e+002 
4415625000  -2.377623e+001  1.472933e+002 
4418750000  -2.259088e+001  1.518394e+002 
