!Agilent Technologies,E8363B,MY43030201,A.06.04.32
!Agilent E8363B: A.06.04.32
!Date: Tuesday, November 11, 2014 20:47:18
!Correction: S21(Response(S21)) 
!S1P File: Measurement: S21:
# Hz S  dB   R 50
3000000000  -2.664986e+001  1.580632e+002 
3003125000  -2.800507e+001  1.538463e+002 
3006250000  -2.806992e+001  1.505538e+002 
3009375000  -2.837299e+001  1.556900e+002 
3012500000  -2.791753e+001  1.553952e+002 
3015625000  -2.692868e+001  1.482942e+002 
3018750000  -2.776196e+001  1.473207e+002 
3021875000  -2.653140e+001  1.487429e+002 
3025000000  -2.522664e+001  1.455477e+002 
3028125000  -2.430727e+001  1.408897e+002 
3031250000  -2.323746e+001  1.296204e+002 
3034375000  -2.284424e+001  1.168666e+002 
3037500000  -2.316656e+001  1.047352e+002 
3040625000  -2.451570e+001  9.957043e+001 
3043750000  -2.523774e+001  9.550695e+001 
3046875000  -2.533455e+001  8.886591e+001 
3050000000  -2.705405e+001  8.179583e+001 
3053125000  -2.722856e+001  8.808985e+001 
3056250000  -2.651878e+001  9.098163e+001 
3059375000  -2.683636e+001  9.098215e+001 
3062500000  -2.537183e+001  8.694508e+001 
3065625000  -2.511386e+001  8.148207e+001 
3068750000  -2.487325e+001  7.451797e+001 
3071875000  -2.473479e+001  7.140218e+001 
3075000000  -2.477655e+001  6.799515e+001 
3078125000  -2.447539e+001  6.319105e+001 
3081250000  -2.510493e+001  5.907564e+001 
3084375000  -2.435074e+001  5.540715e+001 
3087500000  -2.421640e+001  5.196090e+001 
3090625000  -2.392885e+001  4.247742e+001 
3093750000  -2.431944e+001  3.444778e+001 
3096875000  -2.563387e+001  2.794032e+001 
3100000000  -2.576595e+001  2.659533e+001 
3103125000  -2.613875e+001  2.826913e+001 
3106250000  -2.582977e+001  2.461926e+001 
3109375000  -2.612087e+001  2.112597e+001 
3112500000  -2.624473e+001  2.011386e+001 
3115625000  -2.603369e+001  1.599694e+001 
3118750000  -2.649161e+001  1.707109e+001 
3121875000  -2.586215e+001  9.462468e+000 
3125000000  -2.695546e+001  5.720315e+000 
3128125000  -2.828491e+001  1.361060e+001 
3131250000  -2.613304e+001  1.448710e+001 
3134375000  -2.466277e+001  1.491839e+000 
3137500000  -2.528046e+001  -1.295729e+001 
3140625000  -2.695488e+001  -1.522691e+001 
3143750000  -2.800221e+001  -1.069041e+001 
3146875000  -2.756842e+001  -8.721106e+000 
3150000000  -2.659222e+001  -6.307806e+000 
3153125000  -2.655167e+001  -1.400225e+001 
3156250000  -2.752378e+001  -8.741667e+000 
3159375000  -2.596918e+001  -5.763331e+000 
3162500000  -2.391895e+001  -1.848163e+001 
3165625000  -2.480321e+001  -2.947820e+001 
3168750000  -2.521335e+001  -2.888741e+001 
3171875000  -2.429610e+001  -3.277039e+001 
3175000000  -2.490754e+001  -4.086416e+001 
3178125000  -2.474230e+001  -3.901546e+001 
3181250000  -2.351790e+001  -4.281819e+001 
3184375000  -2.268823e+001  -5.510453e+001 
3187500000  -2.373618e+001  -7.051895e+001 
3190625000  -2.654008e+001  -7.822272e+001 
3193750000  -2.725142e+001  -6.867056e+001 
3196875000  -2.676804e+001  -6.327958e+001 
3200000000  -2.598148e+001  -6.487863e+001 
3203125000  -2.508892e+001  -7.045069e+001 
3206250000  -2.534426e+001  -7.658040e+001 
3209375000  -2.489247e+001  -8.155992e+001 
3212500000  -2.498600e+001  -8.834903e+001 
3215625000  -2.508167e+001  -9.279300e+001 
3218750000  -2.583976e+001  -9.871076e+001 
3221875000  -2.684560e+001  -1.041422e+002 
3225000000  -2.648103e+001  -1.045301e+002 
3228125000  -2.678341e+001  -1.090281e+002 
3231250000  -2.754729e+001  -1.118515e+002 
3234375000  -2.740837e+001  -1.109138e+002 
3237500000  -2.742928e+001  -1.123439e+002 
3240625000  -2.708016e+001  -1.141076e+002 
3243750000  -2.672052e+001  -1.204122e+002 
3246875000  -2.722395e+001  -1.269282e+002 
3250000000  -2.763048e+001  -1.290204e+002 
3253125000  -2.778980e+001  -1.311630e+002 
3256250000  -2.764887e+001  -1.368624e+002 
3259375000  -2.799583e+001  -1.443576e+002 
3262500000  -2.917727e+001  -1.473998e+002 
3265625000  -2.992940e+001  -1.444649e+002 
3268750000  -2.986300e+001  -1.416375e+002 
3271875000  -2.971329e+001  -1.399382e+002 
3275000000  -2.858518e+001  -1.452950e+002 
3278125000  -2.900670e+001  -1.513533e+002 
3281250000  -2.932361e+001  -1.495407e+002 
3284375000  -2.888567e+001  -1.558734e+002 
3287500000  -2.900964e+001  -1.584604e+002 
3290625000  -2.938622e+001  -1.628147e+002 
3293750000  -2.914430e+001  -1.686085e+002 
3296875000  -3.014305e+001  -1.683285e+002 
3300000000  -3.009137e+001  -1.669714e+002 
3303125000  -2.889613e+001  -1.711763e+002 
3306250000  -2.870661e+001  -1.777220e+002 
3309375000  -2.845216e+001  1.775379e+002 
3312500000  -2.846330e+001  1.674126e+002 
3315625000  -2.946023e+001  1.593202e+002 
3318750000  -3.081664e+001  1.564184e+002 
3321875000  -3.202503e+001  1.558763e+002 
3325000000  -3.260542e+001  1.603301e+002 
3328125000  -3.256705e+001  1.628424e+002 
3331250000  -3.130994e+001  1.697214e+002 
3334375000  -2.875689e+001  1.609341e+002 
3337500000  -2.875524e+001  1.424438e+002 
3340625000  -3.002901e+001  1.316245e+002 
3343750000  -3.195241e+001  1.299568e+002 
3346875000  -3.252460e+001  1.314536e+002 
3350000000  -3.195530e+001  1.306056e+002 
3353125000  -3.201015e+001  1.267055e+002 
3356250000  -3.171605e+001  1.183279e+002 
3359375000  -3.259065e+001  1.101921e+002 
3362500000  -3.380262e+001  1.045027e+002 
3365625000  -3.452972e+001  1.027461e+002 
3368750000  -3.535810e+001  1.014732e+002 
3371875000  -3.571921e+001  9.805674e+001 
3375000000  -3.747282e+001  9.594950e+001 
3378125000  -3.845451e+001  9.613702e+001 
3381250000  -4.009620e+001  1.024193e+002 
3384375000  -3.938748e+001  1.229615e+002 
3387500000  -3.595108e+001  1.108175e+002 
3390625000  -3.774703e+001  9.052428e+001 
3393750000  -3.942254e+001  9.564128e+001 
3396875000  -3.867832e+001  9.884381e+001 
3400000000  -3.878381e+001  9.198222e+001 
3403125000  -3.956257e+001  8.758216e+001 
3406250000  -4.042185e+001  8.973645e+001 
3409375000  -4.113429e+001  8.375375e+001 
3412500000  -4.199792e+001  8.697129e+001 
3415625000  -4.279066e+001  9.014674e+001 
3418750000  -4.330376e+001  9.541141e+001 
3421875000  -4.362670e+001  1.022607e+002 
3425000000  -4.295451e+001  1.042990e+002 
3428125000  -4.170411e+001  1.048127e+002 
3431250000  -4.181232e+001  1.011312e+002 
3434375000  -4.165678e+001  9.600447e+001 
3437500000  -4.203659e+001  9.469378e+001 
3440625000  -4.251400e+001  9.821729e+001 
3443750000  -4.134239e+001  1.011164e+002 
3446875000  -4.051173e+001  9.573251e+001 
3450000000  -4.034909e+001  8.650538e+001 
3453125000  -4.049888e+001  7.612614e+001 
3456250000  -4.163082e+001  7.423577e+001 
3459375000  -4.249411e+001  7.632249e+001 
3462500000  -4.293040e+001  7.673287e+001 
3465625000  -4.293916e+001  7.359697e+001 
3468750000  -4.301815e+001  6.843483e+001 
3471875000  -4.362033e+001  7.005511e+001 
3475000000  -4.356366e+001  6.486983e+001 
3478125000  -4.395614e+001  5.899338e+001 
3481250000  -4.551211e+001  5.974429e+001 
3484375000  -4.673248e+001  6.687984e+001 
3487500000  -4.687642e+001  6.806470e+001 
3490625000  -4.606399e+001  6.607874e+001 
3493750000  -4.681350e+001  6.419193e+001 
3496875000  -4.779303e+001  6.578348e+001 
3500000000  -4.886765e+001  7.698387e+001 
3503125000  -4.951354e+001  7.860542e+001 
3506250000  -4.776435e+001  8.221066e+001 
3509375000  -4.782503e+001  7.688727e+001 
3512500000  -4.843868e+001  7.680574e+001 
3515625000  -4.860923e+001  7.932764e+001 
3518750000  -4.889731e+001  8.631190e+001 
3521875000  -4.855457e+001  9.215392e+001 
3525000000  -4.824027e+001  9.275261e+001 
3528125000  -4.839197e+001  1.053387e+002 
3531250000  -4.620972e+001  1.047934e+002 
3534375000  -4.583661e+001  9.878709e+001 
3537500000  -4.530416e+001  9.339941e+001 
3540625000  -4.592770e+001  9.505917e+001 
3543750000  -4.616704e+001  9.574913e+001 
3546875000  -4.559969e+001  1.073287e+002 
3550000000  -4.302032e+001  1.135869e+002 
3553125000  -4.153620e+001  9.358020e+001 
3556250000  -4.253823e+001  8.632241e+001 
3559375000  -4.234626e+001  8.888879e+001 
3562500000  -4.120701e+001  8.344917e+001 
3565625000  -4.191895e+001  7.696837e+001 
3568750000  -4.220258e+001  7.986188e+001 
3571875000  -4.176207e+001  7.850533e+001 
3575000000  -4.093752e+001  7.547717e+001 
3578125000  -4.142831e+001  7.046909e+001 
3581250000  -4.172713e+001  7.135662e+001 
3584375000  -4.063438e+001  7.182630e+001 
3587500000  -3.997806e+001  6.421829e+001 
3590625000  -4.021345e+001  5.580563e+001 
3593750000  -4.147665e+001  5.441677e+001 
3596875000  -4.154152e+001  6.220641e+001 
3600000000  -3.933904e+001  5.926031e+001 
3603125000  -3.988396e+001  4.704316e+001 
3606250000  -4.058868e+001  4.192779e+001 
3609375000  -4.097807e+001  4.226004e+001 
3612500000  -4.147815e+001  4.256201e+001 
3615625000  -4.146848e+001  3.846318e+001 
3618750000  -4.184605e+001  4.101766e+001 
3621875000  -4.142169e+001  3.953035e+001 
3625000000  -4.168732e+001  4.097055e+001 
3628125000  -4.151910e+001  3.962241e+001 
3631250000  -4.131875e+001  3.517143e+001 
3634375000  -4.234042e+001  3.536518e+001 
3637500000  -4.235544e+001  3.983000e+001 
3640625000  -4.106792e+001  4.128681e+001 
3643750000  -4.072457e+001  3.567984e+001 
3646875000  -4.134488e+001  3.023184e+001 
3650000000  -4.151082e+001  3.020533e+001 
3653125000  -4.115781e+001  3.085615e+001 
3656250000  -4.172054e+001  2.799619e+001 
3659375000  -4.179523e+001  3.179222e+001 
3662500000  -4.120853e+001  3.070406e+001 
3665625000  -4.128969e+001  3.089686e+001 
3668750000  -4.007609e+001  3.519639e+001 
3671875000  -3.897297e+001  2.955206e+001 
3675000000  -3.954641e+001  2.336335e+001 
3678125000  -4.033030e+001  2.471598e+001 
3681250000  -3.967181e+001  2.600224e+001 
3684375000  -3.943511e+001  2.356271e+001 
3687500000  -3.973857e+001  2.134876e+001 
3690625000  -3.957986e+001  1.901282e+001 
3693750000  -3.995862e+001  2.118056e+001 
3696875000  -3.991714e+001  2.529289e+001 
3700000000  -3.881581e+001  2.181404e+001 
3703125000  -3.853373e+001  1.951937e+001 
3706250000  -3.923732e+001  2.211811e+001 
3709375000  -3.866304e+001  2.405015e+001 
3712500000  -3.730434e+001  2.419529e+001 
3715625000  -3.622821e+001  1.789931e+001 
3718750000  -3.555695e+001  1.457543e+001 
3721875000  -3.519211e+001  9.616740e+000 
3725000000  -3.511045e+001  5.568234e+000 
3728125000  -3.531956e+001  3.904884e+000 
3731250000  -3.460565e+001  4.177967e+000 
3734375000  -3.358861e+001  -2.555954e+000 
3737500000  -3.410643e+001  -9.287511e+000 
3740625000  -3.460116e+001  -1.174547e+001 
3743750000  -3.439374e+001  -1.453481e+001 
3746875000  -3.451883e+001  -1.764686e+001 
3750000000  -3.479985e+001  -1.901924e+001 
3753125000  -3.441983e+001  -1.907725e+001 
3756250000  -3.425736e+001  -1.954746e+001 
3759375000  -3.418478e+001  -2.041089e+001 
3762500000  -3.358499e+001  -2.475199e+001 
3765625000  -3.395982e+001  -2.694230e+001 
3768750000  -3.413011e+001  -2.436401e+001 
3771875000  -3.254005e+001  -2.700459e+001 
3775000000  -3.209388e+001  -3.533607e+001 
3778125000  -3.250063e+001  -3.630206e+001 
3781250000  -3.215691e+001  -3.919961e+001 
3784375000  -3.213369e+001  -4.052408e+001 
3787500000  -3.155877e+001  -4.400634e+001 
3790625000  -3.214503e+001  -5.035911e+001 
3793750000  -3.234366e+001  -5.100120e+001 
3796875000  -3.150100e+001  -5.237359e+001 
3800000000  -2.986031e+001  -5.579762e+001 
3803125000  -3.061627e+001  -6.287030e+001 
3806250000  -3.110050e+001  -6.518090e+001 
3809375000  -3.103063e+001  -6.585490e+001 
3812500000  -3.029104e+001  -7.145114e+001 
3815625000  -3.087114e+001  -7.812228e+001 
3818750000  -3.187272e+001  -8.000655e+001 
3821875000  -3.199923e+001  -7.154292e+001 
3825000000  -3.009905e+001  -6.736452e+001 
3828125000  -2.865800e+001  -8.046735e+001 
3831250000  -2.919415e+001  -9.424120e+001 
3834375000  -3.046095e+001  -9.576774e+001 
3837500000  -3.133773e+001  -9.166584e+001 
3840625000  -3.034162e+001  -9.216200e+001 
3843750000  -2.922317e+001  -1.012861e+002 
3846875000  -2.981863e+001  -1.086777e+002 
3850000000  -3.101589e+001  -1.040385e+002 
3853125000  -3.035591e+001  -1.009713e+002 
3856250000  -3.032819e+001  -1.055497e+002 
3859375000  -2.967089e+001  -1.098055e+002 
3862500000  -2.918892e+001  -1.165916e+002 
3865625000  -2.945447e+001  -1.215395e+002 
3868750000  -2.946503e+001  -1.218478e+002 
3871875000  -2.873652e+001  -1.245801e+002 
3875000000  -2.881071e+001  -1.334271e+002 
3878125000  -2.983870e+001  -1.359157e+002 
3881250000  -2.993768e+001  -1.328011e+002 
3884375000  -2.930899e+001  -1.369352e+002 
3887500000  -2.933469e+001  -1.415310e+002 
3890625000  -2.995839e+001  -1.438704e+002 
3893750000  -3.031818e+001  -1.451942e+002 
3896875000  -3.047392e+001  -1.445733e+002 
3900000000  -3.078101e+001  -1.458742e+002 
3903125000  -3.044627e+001  -1.479365e+002 
3906250000  -3.016639e+001  -1.487928e+002 
3909375000  -2.945681e+001  -1.512178e+002 
3912500000  -2.937053e+001  -1.579070e+002 
3915625000  -3.052426e+001  -1.573399e+002 
3918750000  -3.065765e+001  -1.558462e+002 
3921875000  -3.027629e+001  -1.575764e+002 
3925000000  -2.953005e+001  -1.575769e+002 
3928125000  -2.870398e+001  -1.633052e+002 
3931250000  -2.917713e+001  -1.674600e+002 
3934375000  -2.942289e+001  -1.672489e+002 
3937500000  -2.952014e+001  -1.680037e+002 
3940625000  -3.000994e+001  -1.681694e+002 
3943750000  -2.913571e+001  -1.665678e+002 
3946875000  -2.790227e+001  -1.711982e+002 
3950000000  -2.829799e+001  -1.788366e+002 
3953125000  -2.911928e+001  -1.791877e+002 
3956250000  -2.829460e+001  -1.763028e+002 
3959375000  -2.697391e+001  -1.797538e+002 
3962500000  -2.659734e+001  1.762345e+002 
3965625000  -2.619830e+001  1.680470e+002 
3968750000  -2.697923e+001  1.614431e+002 
3971875000  -2.744416e+001  1.595396e+002 
3975000000  -2.679873e+001  1.576948e+002 
3978125000  -2.660926e+001  1.563732e+002 
3981250000  -2.634288e+001  1.520632e+002 
3984375000  -2.652315e+001  1.458615e+002 
3987500000  -2.705764e+001  1.435120e+002 
3990625000  -2.699408e+001  1.427567e+002 
3993750000  -2.717963e+001  1.396549e+002 
3996875000  -2.726760e+001  1.368695e+002 
4000000000  -2.732929e+001  1.347562e+002 
4003125000  -2.787437e+001  1.373357e+002 
4006250000  -2.660387e+001  1.374820e+002 
4009375000  -2.529775e+001  1.258812e+002 
4012500000  -2.628393e+001  1.186623e+002 
4015625000  -2.744783e+001  1.185846e+002 
4018750000  -2.777545e+001  1.209056e+002 
4021875000  -2.714332e+001  1.195687e+002 
4025000000  -2.665066e+001  1.145285e+002 
4028125000  -2.660529e+001  1.105295e+002 
4031250000  -2.706635e+001  1.072595e+002 
4034375000  -2.727814e+001  1.071578e+002 
4037500000  -2.681255e+001  1.086892e+002 
4040625000  -2.672371e+001  1.050506e+002 
4043750000  -2.704808e+001  1.049328e+002 
4046875000  -2.663454e+001  1.047737e+002 
4050000000  -2.606560e+001  9.865862e+001 
4053125000  -2.651746e+001  9.591648e+001 
4056250000  -2.716167e+001  9.962757e+001 
4059375000  -2.605457e+001  1.022590e+002 
4062500000  -2.471459e+001  9.790419e+001 
4065625000  -2.455965e+001  9.387447e+001 
4068750000  -2.421810e+001  8.974082e+001 
4071875000  -2.351229e+001  8.167722e+001 
4075000000  -2.383583e+001  7.520972e+001 
4078125000  -2.434443e+001  7.391982e+001 
4081250000  -2.393713e+001  7.179959e+001 
4084375000  -2.351266e+001  6.476476e+001 
4087500000  -2.378545e+001  5.884292e+001 
4090625000  -2.439778e+001  5.698361e+001 
4093750000  -2.427032e+001  5.804458e+001 
4096875000  -2.381569e+001  5.227731e+001 
4100000000  -2.441512e+001  4.538553e+001 
4103125000  -2.530466e+001  4.563668e+001 
4106250000  -2.520842e+001  5.030490e+001 
4109375000  -2.433797e+001  4.987233e+001 
4112500000  -2.379969e+001  4.319563e+001 
4115625000  -2.399331e+001  3.910365e+001 
4118750000  -2.414903e+001  3.595084e+001 
4121875000  -2.383768e+001  3.091536e+001 
4125000000  -2.415891e+001  2.642052e+001 
4128125000  -2.511109e+001  2.669530e+001 
4131250000  -2.486816e+001  3.470813e+001 
4134375000  -2.251535e+001  3.039665e+001 
4137500000  -2.219191e+001  1.178690e+001 
4140625000  -2.433773e+001  4.070804e+000 
4143750000  -2.577644e+001  8.421399e+000 
4146875000  -2.531385e+001  1.592099e+001 
4150000000  -2.442532e+001  1.270916e+001 
4153125000  -2.425057e+001  6.515395e+000 
4156250000  -2.506358e+001  3.768754e+000 
4159375000  -2.543815e+001  7.662595e+000 
4162500000  -2.430227e+001  1.199152e+001 
4165625000  -2.321511e+001  8.104245e+000 
4168750000  -2.250937e+001  1.299973e+000 
4171875000  -2.243707e+001  -7.730509e+000 
4175000000  -2.302534e+001  -1.390036e+001 
4178125000  -2.359623e+001  -1.452315e+001 
4181250000  -2.357633e+001  -1.486626e+001 
4184375000  -2.337335e+001  -1.816335e+001 
4187500000  -2.340894e+001  -2.085169e+001 
4190625000  -2.330046e+001  -2.598448e+001 
4193750000  -2.395599e+001  -2.993211e+001 
4196875000  -2.470532e+001  -3.031539e+001 
4200000000  -2.546345e+001  -2.799609e+001 
4203125000  -2.560736e+001  -1.524227e+001 
4206250000  -2.242304e+001  -1.299478e+001 
4209375000  -2.118266e+001  -3.328408e+001 
4212500000  -2.304406e+001  -4.239175e+001 
4215625000  -2.400876e+001  -3.579529e+001 
4218750000  -2.264746e+001  -2.898194e+001 
4221875000  -2.024664e+001  -3.884291e+001 
4225000000  -2.143723e+001  -5.197661e+001 
4228125000  -2.224720e+001  -4.702443e+001 
4231250000  -2.077876e+001  -5.055420e+001 
4234375000  -2.063566e+001  -5.855833e+001 
4237500000  -2.026345e+001  -6.239598e+001 
4240625000  -2.029990e+001  -7.077946e+001 
4243750000  -2.126439e+001  -7.688445e+001 
4246875000  -2.209983e+001  -7.714638e+001 
4250000000  -2.214585e+001  -7.434167e+001 
4253125000  -2.147018e+001  -7.653610e+001 
4256250000  -2.171530e+001  -8.081104e+001 
4259375000  -2.156794e+001  -8.309063e+001 
4262500000  -2.156423e+001  -8.698151e+001 
4265625000  -2.165842e+001  -8.661204e+001 
4268750000  -2.098717e+001  -9.042276e+001 
4271875000  -2.060571e+001  -9.562270e+001 
4275000000  -1.998903e+001  -1.021323e+002 
4278125000  -2.047433e+001  -1.136115e+002 
4281250000  -2.221021e+001  -1.163531e+002 
4284375000  -2.211810e+001  -1.157847e+002 
4287500000  -2.287016e+001  -1.195917e+002 
4290625000  -2.422891e+001  -1.097754e+002 
4293750000  -2.229638e+001  -1.036478e+002 
4296875000  -2.088657e+001  -1.148180e+002 
4300000000  -2.168851e+001  -1.240900e+002 
4303125000  -2.269515e+001  -1.232742e+002 
4306250000  -2.220336e+001  -1.175623e+002 
4309375000  -2.078546e+001  -1.197462e+002 
4312500000  -2.072654e+001  -1.281250e+002 
4315625000  -2.101483e+001  -1.338240e+002 
4318750000  -2.128259e+001  -1.372965e+002 
4321875000  -2.145098e+001  -1.369984e+002 
4325000000  -2.082357e+001  -1.364824e+002 
4328125000  -2.036998e+001  -1.429014e+002 
4331250000  -2.037231e+001  -1.509967e+002 
4334375000  -2.076355e+001  -1.555817e+002 
4337500000  -2.150052e+001  -1.580173e+002 
4340625000  -2.201469e+001  -1.553344e+002 
4343750000  -2.154704e+001  -1.547775e+002 
4346875000  -2.114612e+001  -1.596461e+002 
4350000000  -2.105032e+001  -1.639907e+002 
4353125000  -2.099483e+001  -1.722685e+002 
4356250000  -2.263412e+001  -1.742208e+002 
4359375000  -2.345087e+001  -1.615532e+002 
4362500000  -2.102029e+001  -1.590175e+002 
4365625000  -1.935111e+001  -1.700852e+002 
4368750000  -1.994587e+001  1.780294e+002 
4371875000  -2.112717e+001  1.781196e+002 
4375000000  -2.085399e+001  1.795987e+002 
4378125000  -2.024991e+001  1.741189e+002 
4381250000  -2.035994e+001  1.684536e+002 
4384375000  -2.016368e+001  1.639248e+002 
4387500000  -2.074816e+001  1.577216e+002 
4390625000  -2.182841e+001  1.582296e+002 
4393750000  -2.127360e+001  1.606841e+002 
4396875000  -2.062137e+001  1.584632e+002 
4400000000  -2.012909e+001  1.517555e+002 
4403125000  -2.061103e+001  1.439085e+002 
4406250000  -2.145863e+001  1.424944e+002 
4409375000  -2.139013e+001  1.402532e+002 
4412500000  -2.233360e+001  1.369066e+002 
4415625000  -2.282180e+001  1.414940e+002 
4418750000  -2.178951e+001  1.467980e+002 
