!Agilent Technologies,E8363B,MY43030201,A.06.04.32
!Agilent E8363B: A.06.04.32
!Date: Tuesday, November 11, 2014 20:45:21
!Correction: S21(Response(S21)) 
!S1P File: Measurement: S21:
# Hz S  dB   R 50
3000000000  -2.649687e+001  1.588221e+002 
3003125000  -2.787328e+001  1.546203e+002 
3006250000  -2.791238e+001  1.516936e+002 
3009375000  -2.829148e+001  1.568874e+002 
3012500000  -2.778341e+001  1.566397e+002 
3015625000  -2.679603e+001  1.497206e+002 
3018750000  -2.766045e+001  1.484135e+002 
3021875000  -2.638146e+001  1.498448e+002 
3025000000  -2.517327e+001  1.468974e+002 
3028125000  -2.415252e+001  1.424571e+002 
3031250000  -2.312775e+001  1.310892e+002 
3034375000  -2.276009e+001  1.182440e+002 
3037500000  -2.307326e+001  1.061705e+002 
3040625000  -2.441716e+001  1.009706e+002 
3043750000  -2.510211e+001  9.691938e+001 
3046875000  -2.516776e+001  9.035197e+001 
3050000000  -2.697551e+001  8.308937e+001 
3053125000  -2.716210e+001  8.940791e+001 
3056250000  -2.639945e+001  9.275574e+001 
3059375000  -2.665595e+001  9.231421e+001 
3062500000  -2.522706e+001  8.865673e+001 
3065625000  -2.499667e+001  8.283274e+001 
3068750000  -2.473375e+001  7.601076e+001 
3071875000  -2.463989e+001  7.301632e+001 
3075000000  -2.463461e+001  6.957809e+001 
3078125000  -2.434303e+001  6.492043e+001 
3081250000  -2.496868e+001  6.062504e+001 
3084375000  -2.425718e+001  5.711640e+001 
3087500000  -2.410206e+001  5.369971e+001 
3090625000  -2.382933e+001  4.391440e+001 
3093750000  -2.420471e+001  3.586493e+001 
3096875000  -2.550864e+001  2.956012e+001 
3100000000  -2.567076e+001  2.834913e+001 
3103125000  -2.602379e+001  2.969776e+001 
3106250000  -2.576838e+001  2.613133e+001 
3109375000  -2.602375e+001  2.263148e+001 
3112500000  -2.612776e+001  2.179646e+001 
3115625000  -2.589763e+001  1.742842e+001 
3118750000  -2.640651e+001  1.853153e+001 
3121875000  -2.575850e+001  1.068456e+001 
3125000000  -2.682909e+001  6.931314e+000 
3128125000  -2.810781e+001  1.477108e+001 
3131250000  -2.595828e+001  1.594963e+001 
3134375000  -2.457267e+001  2.393104e+000 
3137500000  -2.522515e+001  -1.186884e+001 
3140625000  -2.687359e+001  -1.343054e+001 
3143750000  -2.788000e+001  -9.273493e+000 
3146875000  -2.755135e+001  -7.260229e+000 
3150000000  -2.648507e+001  -5.005509e+000 
3153125000  -2.643730e+001  -1.279773e+001 
3156250000  -2.740713e+001  -7.821723e+000 
3159375000  -2.593088e+001  -4.491544e+000 
3162500000  -2.386425e+001  -1.726790e+001 
3165625000  -2.478275e+001  -2.827984e+001 
3168750000  -2.520141e+001  -2.725718e+001 
3171875000  -2.425801e+001  -3.144192e+001 
3175000000  -2.484361e+001  -3.890561e+001 
3178125000  -2.470595e+001  -3.749467e+001 
3181250000  -2.349869e+001  -4.119372e+001 
3184375000  -2.267780e+001  -5.342444e+001 
3187500000  -2.373425e+001  -6.899111e+001 
3190625000  -2.660060e+001  -7.662070e+001 
3193750000  -2.722183e+001  -6.699932e+001 
3196875000  -2.673047e+001  -6.148729e+001 
3200000000  -2.593059e+001  -6.321969e+001 
3203125000  -2.500585e+001  -6.853071e+001 
3206250000  -2.527778e+001  -7.508662e+001 
3209375000  -2.484184e+001  -8.019495e+001 
3212500000  -2.491052e+001  -8.660483e+001 
3215625000  -2.507738e+001  -9.140199e+001 
3218750000  -2.584975e+001  -9.737313e+001 
3221875000  -2.682673e+001  -1.023832e+002 
3225000000  -2.645977e+001  -1.029881e+002 
3228125000  -2.669421e+001  -1.074388e+002 
3231250000  -2.748703e+001  -1.105617e+002 
3234375000  -2.736935e+001  -1.095012e+002 
3237500000  -2.739938e+001  -1.110155e+002 
3240625000  -2.708621e+001  -1.125352e+002 
3243750000  -2.669024e+001  -1.192515e+002 
3246875000  -2.716492e+001  -1.258004e+002 
3250000000  -2.764252e+001  -1.275764e+002 
3253125000  -2.778498e+001  -1.295064e+002 
3256250000  -2.767432e+001  -1.354092e+002 
3259375000  -2.795077e+001  -1.428258e+002 
3262500000  -2.924062e+001  -1.458818e+002 
3265625000  -2.988625e+001  -1.428785e+002 
3268750000  -2.989608e+001  -1.403575e+002 
3271875000  -2.964471e+001  -1.383864e+002 
3275000000  -2.856886e+001  -1.435164e+002 
3278125000  -2.899520e+001  -1.501019e+002 
3281250000  -2.929524e+001  -1.480305e+002 
3284375000  -2.888493e+001  -1.540441e+002 
3287500000  -2.905676e+001  -1.568988e+002 
3290625000  -2.942732e+001  -1.608291e+002 
3293750000  -2.917497e+001  -1.663129e+002 
3296875000  -3.012938e+001  -1.663080e+002 
3300000000  -3.007002e+001  -1.654173e+002 
3303125000  -2.894295e+001  -1.690552e+002 
3306250000  -2.867368e+001  -1.755161e+002 
3309375000  -2.844100e+001  1.793027e+002 
3312500000  -2.851962e+001  1.691648e+002 
3315625000  -2.941203e+001  1.613080e+002 
3318750000  -3.078968e+001  1.585421e+002 
3321875000  -3.213062e+001  1.585475e+002 
3325000000  -3.264677e+001  1.620935e+002 
3328125000  -3.262846e+001  1.643730e+002 
3331250000  -3.141257e+001  1.707188e+002 
3334375000  -2.877226e+001  1.620693e+002 
3337500000  -2.880846e+001  1.441269e+002 
3340625000  -3.013934e+001  1.330295e+002 
3343750000  -3.206860e+001  1.314919e+002 
3346875000  -3.268769e+001  1.330786e+002 
3350000000  -3.206448e+001  1.315918e+002 
3353125000  -3.218469e+001  1.276691e+002 
3356250000  -3.182654e+001  1.202477e+002 
3359375000  -3.269687e+001  1.110620e+002 
3362500000  -3.409669e+001  1.056498e+002 
3365625000  -3.456455e+001  1.042269e+002 
3368750000  -3.559215e+001  1.026782e+002 
3371875000  -3.595795e+001  9.916698e+001 
3375000000  -3.751718e+001  9.736944e+001 
3378125000  -3.853867e+001  9.754967e+001 
3381250000  -4.028682e+001  1.043176e+002 
3384375000  -3.955676e+001  1.248748e+002 
3387500000  -3.634770e+001  1.115640e+002 
3390625000  -3.811689e+001  9.256881e+001 
3393750000  -3.995439e+001  9.663995e+001 
3396875000  -3.910692e+001  1.001098e+002 
3400000000  -3.894877e+001  9.347790e+001 
3403125000  -3.998247e+001  8.785827e+001 
3406250000  -4.082877e+001  9.077492e+001 
3409375000  -4.161196e+001  8.761980e+001 
3412500000  -4.243398e+001  8.956740e+001 
3415625000  -4.339254e+001  9.378500e+001 
3418750000  -4.350536e+001  9.668658e+001 
3421875000  -4.398427e+001  1.051940e+002 
3425000000  -4.312320e+001  1.071982e+002 
3428125000  -4.212400e+001  1.064115e+002 
3431250000  -4.201672e+001  1.046444e+002 
3434375000  -4.184167e+001  1.017799e+002 
3437500000  -4.197834e+001  9.810442e+001 
3440625000  -4.269588e+001  1.025637e+002 
3443750000  -4.150265e+001  1.044977e+002 
3446875000  -4.045792e+001  1.007653e+002 
3450000000  -4.016715e+001  9.070892e+001 
3453125000  -4.042501e+001  8.271908e+001 
3456250000  -4.156433e+001  7.733633e+001 
3459375000  -4.283009e+001  7.885213e+001 
3462500000  -4.299663e+001  8.135415e+001 
3465625000  -4.303881e+001  7.758252e+001 
3468750000  -4.349476e+001  7.341865e+001 
3471875000  -4.334991e+001  7.537424e+001 
3475000000  -4.310189e+001  7.200342e+001 
3478125000  -4.387827e+001  6.510796e+001 
3481250000  -4.511071e+001  6.616499e+001 
3484375000  -4.669032e+001  6.934716e+001 
3487500000  -4.649829e+001  7.182612e+001 
3490625000  -4.558664e+001  7.141937e+001 
3493750000  -4.630788e+001  6.714786e+001 
3496875000  -4.742311e+001  6.685794e+001 
3500000000  -4.898714e+001  7.607153e+001 
3503125000  -4.841879e+001  8.152801e+001 
3506250000  -4.778994e+001  8.307522e+001 
3509375000  -4.702924e+001  8.018545e+001 
3512500000  -4.715111e+001  7.838088e+001 
3515625000  -4.773192e+001  8.310705e+001 
3518750000  -4.819566e+001  8.877323e+001 
3521875000  -4.838085e+001  9.191746e+001 
3525000000  -4.852792e+001  9.154426e+001 
3528125000  -4.775149e+001  1.067806e+002 
3531250000  -4.570493e+001  1.040171e+002 
3534375000  -4.501109e+001  9.563702e+001 
3537500000  -4.511608e+001  9.374622e+001 
3540625000  -4.571331e+001  9.394582e+001 
3543750000  -4.616106e+001  9.487491e+001 
3546875000  -4.533197e+001  1.067075e+002 
3550000000  -4.280407e+001  1.102665e+002 
3553125000  -4.122188e+001  9.374310e+001 
3556250000  -4.238977e+001  8.758422e+001 
3559375000  -4.208621e+001  9.182434e+001 
3562500000  -4.078457e+001  8.364898e+001 
3565625000  -4.137693e+001  7.523860e+001 
3568750000  -4.206916e+001  7.989186e+001 
3571875000  -4.175280e+001  8.018690e+001 
3575000000  -4.086235e+001  7.430437e+001 
3578125000  -4.138008e+001  7.104575e+001 
3581250000  -4.145227e+001  7.031387e+001 
3584375000  -4.073292e+001  7.077790e+001 
3587500000  -3.981188e+001  6.279977e+001 
3590625000  -4.015790e+001  5.602562e+001 
3593750000  -4.121929e+001  5.349407e+001 
3596875000  -4.121949e+001  6.208120e+001 
3600000000  -4.004514e+001  5.935251e+001 
3603125000  -4.010884e+001  4.694024e+001 
3606250000  -4.051654e+001  4.361128e+001 
3609375000  -4.095383e+001  4.324954e+001 
3612500000  -4.158761e+001  4.288431e+001 
3615625000  -4.128444e+001  3.848275e+001 
3618750000  -4.221148e+001  4.035179e+001 
3621875000  -4.151960e+001  4.251773e+001 
3625000000  -4.172303e+001  3.995729e+001 
3628125000  -4.189665e+001  4.086343e+001 
3631250000  -4.142097e+001  3.464946e+001 
3634375000  -4.245263e+001  3.649870e+001 
3637500000  -4.207297e+001  4.227382e+001 
3640625000  -4.100339e+001  4.250042e+001 
3643750000  -4.098580e+001  3.772534e+001 
3646875000  -4.117996e+001  3.132788e+001 
3650000000  -4.154248e+001  3.051322e+001 
3653125000  -4.152145e+001  3.305959e+001 
3656250000  -4.179212e+001  2.939558e+001 
3659375000  -4.193770e+001  3.357580e+001 
3662500000  -4.118113e+001  3.353214e+001 
3665625000  -4.152525e+001  3.107153e+001 
3668750000  -4.047562e+001  3.597454e+001 
3671875000  -3.924740e+001  2.943002e+001 
3675000000  -3.986049e+001  2.418051e+001 
3678125000  -4.043971e+001  2.373649e+001 
3681250000  -3.985826e+001  2.586865e+001 
3684375000  -3.968923e+001  2.437683e+001 
3687500000  -3.971187e+001  2.316448e+001 
3690625000  -3.978167e+001  1.957725e+001 
3693750000  -4.027787e+001  2.370892e+001 
3696875000  -4.014180e+001  2.662636e+001 
3700000000  -3.882987e+001  2.401308e+001 
3703125000  -3.893407e+001  2.089717e+001 
3706250000  -3.940610e+001  2.136739e+001 
3709375000  -3.885670e+001  2.619839e+001 
3712500000  -3.751022e+001  2.532188e+001 
3715625000  -3.651514e+001  1.840949e+001 
3718750000  -3.569910e+001  1.751510e+001 
3721875000  -3.529250e+001  1.138124e+001 
3725000000  -3.521296e+001  5.996788e+000 
3728125000  -3.549032e+001  5.992352e+000 
3731250000  -3.468708e+001  5.253587e+000 
3734375000  -3.377713e+001  -1.529109e+000 
3737500000  -3.418102e+001  -7.514419e+000 
3740625000  -3.490451e+001  -1.128994e+001 
3743750000  -3.471840e+001  -1.314667e+001 
3746875000  -3.466055e+001  -1.699526e+001 
3750000000  -3.496802e+001  -1.726245e+001 
3753125000  -3.464074e+001  -1.733672e+001 
3756250000  -3.452695e+001  -1.872073e+001 
3759375000  -3.436374e+001  -1.822757e+001 
3762500000  -3.380587e+001  -2.281504e+001 
3765625000  -3.410485e+001  -2.588209e+001 
3768750000  -3.428092e+001  -2.401235e+001 
3771875000  -3.258670e+001  -2.584469e+001 
3775000000  -3.227596e+001  -3.371712e+001 
3778125000  -3.258817e+001  -3.537799e+001 
3781250000  -3.243783e+001  -3.809377e+001 
3784375000  -3.242179e+001  -4.004216e+001 
3787500000  -3.172059e+001  -4.376311e+001 
3790625000  -3.214058e+001  -4.967464e+001 
3793750000  -3.247007e+001  -5.038332e+001 
3796875000  -3.155337e+001  -5.194011e+001 
3800000000  -3.007704e+001  -5.553069e+001 
3803125000  -3.078277e+001  -6.175516e+001 
3806250000  -3.131867e+001  -6.399583e+001 
3809375000  -3.111707e+001  -6.542526e+001 
3812500000  -3.042166e+001  -7.019676e+001 
3815625000  -3.103940e+001  -7.745243e+001 
3818750000  -3.190810e+001  -7.912641e+001 
3821875000  -3.213332e+001  -7.139133e+001 
3825000000  -3.020738e+001  -6.675779e+001 
3828125000  -2.889957e+001  -7.964828e+001 
3831250000  -2.925214e+001  -9.371955e+001 
3834375000  -3.068639e+001  -9.534022e+001 
3837500000  -3.147826e+001  -9.000002e+001 
3840625000  -3.051723e+001  -9.093185e+001 
3843750000  -2.926661e+001  -1.005533e+002 
3846875000  -2.998600e+001  -1.083217e+002 
3850000000  -3.119996e+001  -1.028594e+002 
3853125000  -3.048327e+001  -1.003268e+002 
3856250000  -3.041709e+001  -1.052344e+002 
3859375000  -2.981438e+001  -1.093456e+002 
3862500000  -2.931161e+001  -1.163988e+002 
3865625000  -2.952139e+001  -1.211915e+002 
3868750000  -2.959540e+001  -1.219626e+002 
3871875000  -2.890534e+001  -1.239636e+002 
3875000000  -2.906620e+001  -1.325638e+002 
3878125000  -3.001992e+001  -1.356757e+002 
3881250000  -3.015517e+001  -1.324089e+002 
3884375000  -2.961679e+001  -1.373122e+002 
3887500000  -2.969641e+001  -1.411713e+002 
3890625000  -3.029328e+001  -1.433919e+002 
3893750000  -3.062182e+001  -1.449639e+002 
3896875000  -3.078061e+001  -1.447648e+002 
3900000000  -3.094893e+001  -1.451672e+002 
3903125000  -3.065145e+001  -1.470760e+002 
3906250000  -3.040252e+001  -1.483508e+002 
3909375000  -2.977755e+001  -1.507871e+002 
3912500000  -2.957334e+001  -1.572632e+002 
3915625000  -3.083701e+001  -1.568829e+002 
3918750000  -3.091192e+001  -1.552266e+002 
3921875000  -3.058351e+001  -1.574082e+002 
3925000000  -2.973950e+001  -1.574452e+002 
3928125000  -2.906252e+001  -1.630900e+002 
3931250000  -2.942260e+001  -1.671242e+002 
3934375000  -2.972400e+001  -1.674914e+002 
3937500000  -2.985386e+001  -1.678328e+002 
3940625000  -3.032532e+001  -1.680033e+002 
3943750000  -2.939648e+001  -1.657805e+002 
3946875000  -2.815738e+001  -1.716638e+002 
3950000000  -2.856782e+001  -1.794721e+002 
3953125000  -2.960332e+001  -1.787030e+002 
3956250000  -2.886608e+001  -1.760846e+002 
3959375000  -2.747413e+001  -1.791932e+002 
3962500000  -2.690121e+001  1.767724e+002 
3965625000  -2.651032e+001  1.686625e+002 
3968750000  -2.745426e+001  1.617603e+002 
3971875000  -2.785869e+001  1.601986e+002 
3975000000  -2.716975e+001  1.583488e+002 
3978125000  -2.699265e+001  1.566910e+002 
3981250000  -2.676428e+001  1.520387e+002 
3984375000  -2.692792e+001  1.459780e+002 
3987500000  -2.742303e+001  1.440938e+002 
3990625000  -2.749713e+001  1.429751e+002 
3993750000  -2.765515e+001  1.395453e+002 
3996875000  -2.765487e+001  1.375636e+002 
4000000000  -2.769121e+001  1.352307e+002 
4003125000  -2.832518e+001  1.375622e+002 
4006250000  -2.704476e+001  1.380594e+002 
4009375000  -2.580038e+001  1.257470e+002 
4012500000  -2.674193e+001  1.186767e+002 
4015625000  -2.797075e+001  1.189224e+002 
4018750000  -2.824811e+001  1.214194e+002 
4021875000  -2.759966e+001  1.201270e+002 
4025000000  -2.720219e+001  1.151502e+002 
4028125000  -2.711358e+001  1.114432e+002 
4031250000  -2.760111e+001  1.079080e+002 
4034375000  -2.791670e+001  1.079508e+002 
4037500000  -2.732877e+001  1.098791e+002 
4040625000  -2.724845e+001  1.064760e+002 
4043750000  -2.763831e+001  1.058444e+002 
4046875000  -2.718076e+001  1.055844e+002 
4050000000  -2.662546e+001  9.972244e+001 
4053125000  -2.710205e+001  9.718362e+001 
4056250000  -2.769783e+001  1.015778e+002 
4059375000  -2.655394e+001  1.035628e+002 
4062500000  -2.519067e+001  9.924424e+001 
4065625000  -2.498749e+001  9.469460e+001 
4068750000  -2.466628e+001  8.971444e+001 
4071875000  -2.409882e+001  8.221619e+001 
4075000000  -2.444823e+001  7.573095e+001 
4078125000  -2.499122e+001  7.463567e+001 
4081250000  -2.453437e+001  7.218793e+001 
4084375000  -2.404151e+001  6.582168e+001 
4087500000  -2.437096e+001  5.944424e+001 
4090625000  -2.501139e+001  5.835947e+001 
4093750000  -2.489062e+001  5.914472e+001 
4096875000  -2.440771e+001  5.345670e+001 
4100000000  -2.502921e+001  4.658241e+001 
4103125000  -2.593532e+001  4.697997e+001 
4106250000  -2.589858e+001  5.127504e+001 
4109375000  -2.504893e+001  5.120897e+001 
4112500000  -2.440608e+001  4.465018e+001 
4115625000  -2.474215e+001  4.020693e+001 
4118750000  -2.486022e+001  3.738972e+001 
4121875000  -2.443578e+001  3.307303e+001 
4125000000  -2.474846e+001  2.805612e+001 
4128125000  -2.579309e+001  2.766208e+001 
4131250000  -2.553527e+001  3.550788e+001 
4134375000  -2.328325e+001  3.175907e+001 
4137500000  -2.295821e+001  1.323476e+001 
4140625000  -2.509470e+001  5.610210e+000 
4143750000  -2.643937e+001  1.048104e+001 
4146875000  -2.606022e+001  1.785540e+001 
4150000000  -2.517943e+001  1.493082e+001 
4153125000  -2.496532e+001  8.585043e+000 
4156250000  -2.579953e+001  5.800771e+000 
4159375000  -2.614149e+001  1.006975e+001 
4162500000  -2.500321e+001  1.435735e+001 
4165625000  -2.391124e+001  1.063264e+001 
4168750000  -2.324397e+001  3.598727e+000 
4171875000  -2.322517e+001  -5.604083e+000 
4175000000  -2.378100e+001  -1.145416e+001 
4178125000  -2.441788e+001  -1.174232e+001 
4181250000  -2.430283e+001  -1.206579e+001 
4184375000  -2.414795e+001  -1.505305e+001 
4187500000  -2.419106e+001  -1.819854e+001 
4190625000  -2.398743e+001  -2.325632e+001 
4193750000  -2.474763e+001  -2.713835e+001 
4196875000  -2.540428e+001  -2.748461e+001 
4200000000  -2.629173e+001  -2.594914e+001 
4203125000  -2.643956e+001  -1.331364e+001 
4206250000  -2.315197e+001  -1.035750e+001 
4209375000  -2.186967e+001  -3.069077e+001 
4212500000  -2.374409e+001  -3.995465e+001 
4215625000  -2.474076e+001  -3.398301e+001 
4218750000  -2.352634e+001  -2.722025e+001 
4221875000  -2.112038e+001  -3.573687e+001 
4225000000  -2.233073e+001  -4.883773e+001 
4228125000  -2.310089e+001  -4.381065e+001 
4231250000  -2.154990e+001  -4.733575e+001 
4234375000  -2.144884e+001  -5.540501e+001 
4237500000  -2.103769e+001  -5.899113e+001 
4240625000  -2.102504e+001  -6.722061e+001 
4243750000  -2.197442e+001  -7.398064e+001 
4246875000  -2.283971e+001  -7.428795e+001 
4250000000  -2.292694e+001  -7.142375e+001 
4253125000  -2.235969e+001  -7.336555e+001 
4256250000  -2.265350e+001  -7.747526e+001 
4259375000  -2.237800e+001  -7.934697e+001 
4262500000  -2.239536e+001  -8.345531e+001 
4265625000  -2.257766e+001  -8.257369e+001 
4268750000  -2.173130e+001  -8.680180e+001 
4271875000  -2.146560e+001  -9.209620e+001 
4275000000  -2.084014e+001  -9.833130e+001 
4278125000  -2.141598e+001  -1.093994e+002 
4281250000  -2.322368e+001  -1.119086e+002 
4284375000  -2.292997e+001  -1.111381e+002 
4287500000  -2.363978e+001  -1.147278e+002 
4290625000  -2.494700e+001  -1.056868e+002 
4293750000  -2.302059e+001  -9.965952e+001 
4296875000  -2.161907e+001  -1.108990e+002 
4300000000  -2.239436e+001  -1.201598e+002 
4303125000  -2.356125e+001  -1.191499e+002 
4306250000  -2.304085e+001  -1.134501e+002 
4309375000  -2.162563e+001  -1.149011e+002 
4312500000  -2.151743e+001  -1.233370e+002 
4315625000  -2.166591e+001  -1.294110e+002 
4318750000  -2.198750e+001  -1.326895e+002 
4321875000  -2.215731e+001  -1.323130e+002 
4325000000  -2.159427e+001  -1.317102e+002 
4328125000  -2.111015e+001  -1.380820e+002 
4331250000  -2.107484e+001  -1.461506e+002 
4334375000  -2.146943e+001  -1.511891e+002 
4337500000  -2.220654e+001  -1.533333e+002 
4340625000  -2.275661e+001  -1.504770e+002 
4343750000  -2.227842e+001  -1.497855e+002 
4346875000  -2.186223e+001  -1.549470e+002 
4350000000  -2.186507e+001  -1.598789e+002 
4353125000  -2.185201e+001  -1.675914e+002 
4356250000  -2.352029e+001  -1.690021e+002 
4359375000  -2.425736e+001  -1.560738e+002 
4362500000  -2.172057e+001  -1.542211e+002 
4365625000  -2.008281e+001  -1.650773e+002 
4368750000  -2.066386e+001  -1.771884e+002 
4371875000  -2.193260e+001  -1.767884e+002 
4375000000  -2.162955e+001  -1.754383e+002 
4378125000  -2.096426e+001  1.790891e+002 
4381250000  -2.114932e+001  1.735235e+002 
4384375000  -2.094429e+001  1.690697e+002 
4387500000  -2.160802e+001  1.634218e+002 
4390625000  -2.271581e+001  1.638876e+002 
4393750000  -2.201587e+001  1.661846e+002 
4396875000  -2.137167e+001  1.640918e+002 
4400000000  -2.084555e+001  1.572257e+002 
4403125000  -2.138370e+001  1.496960e+002 
4406250000  -2.227644e+001  1.482785e+002 
4409375000  -2.219832e+001  1.462411e+002 
4412500000  -2.316969e+001  1.433622e+002 
4415625000  -2.364957e+001  1.477105e+002 
4418750000  -2.247172e+001  1.525653e+002 
