!Agilent Technologies,E8363B,MY43030201,A.06.04.32
!Agilent E8363B: A.06.04.32
!Date: Tuesday, November 11, 2014 20:44:55
!Correction: S21(Response(S21)) 
!S1P File: Measurement: S21:
# Hz S  dB   R 50
3000000000  -2.647462e+001  1.584270e+002 
3003125000  -2.786970e+001  1.540700e+002 
3006250000  -2.795209e+001  1.511149e+002 
3009375000  -2.826575e+001  1.563405e+002 
3012500000  -2.783053e+001  1.559755e+002 
3015625000  -2.679164e+001  1.489762e+002 
3018750000  -2.765555e+001  1.478072e+002 
3021875000  -2.646021e+001  1.491076e+002 
3025000000  -2.514415e+001  1.463659e+002 
3028125000  -2.416869e+001  1.417522e+002 
3031250000  -2.312949e+001  1.305489e+002 
3034375000  -2.272650e+001  1.175343e+002 
3037500000  -2.306649e+001  1.054092e+002 
3040625000  -2.438652e+001  1.003192e+002 
3043750000  -2.513045e+001  9.618948e+001 
3046875000  -2.520301e+001  8.960795e+001 
3050000000  -2.697726e+001  8.244643e+001 
3053125000  -2.711645e+001  8.912110e+001 
3056250000  -2.644864e+001  9.209948e+001 
3059375000  -2.669576e+001  9.206073e+001 
3062500000  -2.526627e+001  8.797527e+001 
3065625000  -2.499641e+001  8.244540e+001 
3068750000  -2.475670e+001  7.555637e+001 
3071875000  -2.464927e+001  7.234924e+001 
3075000000  -2.466946e+001  6.879082e+001 
3078125000  -2.438047e+001  6.431585e+001 
3081250000  -2.501127e+001  6.023399e+001 
3084375000  -2.426216e+001  5.633615e+001 
3087500000  -2.412806e+001  5.310696e+001 
3090625000  -2.383901e+001  4.343005e+001 
3093750000  -2.419958e+001  3.519843e+001 
3096875000  -2.557008e+001  2.884192e+001 
3100000000  -2.568742e+001  2.775567e+001 
3103125000  -2.605694e+001  2.926521e+001 
3106250000  -2.581903e+001  2.572544e+001 
3109375000  -2.607013e+001  2.229129e+001 
3112500000  -2.615706e+001  2.139836e+001 
3115625000  -2.595785e+001  1.702027e+001 
3118750000  -2.645295e+001  1.804037e+001 
3121875000  -2.580581e+001  1.037518e+001 
3125000000  -2.689763e+001  6.552887e+000 
3128125000  -2.817361e+001  1.444362e+001 
3131250000  -2.602173e+001  1.529879e+001 
3134375000  -2.465286e+001  2.059784e+000 
3137500000  -2.527461e+001  -1.218053e+001 
3140625000  -2.693879e+001  -1.371829e+001 
3143750000  -2.792886e+001  -9.470642e+000 
3146875000  -2.753895e+001  -7.883716e+000 
3150000000  -2.651057e+001  -5.119817e+000 
3153125000  -2.652830e+001  -1.316193e+001 
3156250000  -2.744644e+001  -7.828881e+000 
3159375000  -2.597967e+001  -4.926792e+000 
3162500000  -2.393211e+001  -1.760361e+001 
3165625000  -2.478943e+001  -2.837887e+001 
3168750000  -2.527681e+001  -2.781544e+001 
3171875000  -2.426785e+001  -3.182229e+001 
3175000000  -2.492022e+001  -3.955383e+001 
3178125000  -2.474663e+001  -3.806152e+001 
3181250000  -2.351727e+001  -4.170021e+001 
3184375000  -2.268533e+001  -5.412169e+001 
3187500000  -2.374664e+001  -6.971078e+001 
3190625000  -2.661633e+001  -7.774144e+001 
3193750000  -2.722660e+001  -6.746162e+001 
3196875000  -2.686862e+001  -6.200190e+001 
3200000000  -2.597103e+001  -6.365843e+001 
3203125000  -2.507582e+001  -6.922588e+001 
3206250000  -2.538932e+001  -7.553156e+001 
3209375000  -2.490469e+001  -8.048839e+001 
3212500000  -2.495119e+001  -8.713614e+001 
3215625000  -2.514997e+001  -9.206653e+001 
3218750000  -2.587125e+001  -9.811980e+001 
3221875000  -2.694818e+001  -1.029422e+002 
3225000000  -2.656018e+001  -1.033216e+002 
3228125000  -2.679703e+001  -1.077065e+002 
3231250000  -2.755482e+001  -1.109632e+002 
3234375000  -2.744931e+001  -1.099681e+002 
3237500000  -2.749342e+001  -1.115874e+002 
3240625000  -2.713838e+001  -1.133125e+002 
3243750000  -2.673553e+001  -1.194696e+002 
3246875000  -2.724959e+001  -1.262777e+002 
3250000000  -2.768272e+001  -1.282419e+002 
3253125000  -2.786139e+001  -1.298635e+002 
3256250000  -2.776423e+001  -1.357772e+002 
3259375000  -2.800394e+001  -1.428713e+002 
3262500000  -2.932234e+001  -1.460361e+002 
3265625000  -3.001803e+001  -1.428125e+002 
3268750000  -2.996795e+001  -1.403419e+002 
3271875000  -2.979067e+001  -1.392359e+002 
3275000000  -2.867450e+001  -1.438505e+002 
3278125000  -2.908800e+001  -1.502570e+002 
3281250000  -2.941688e+001  -1.485405e+002 
3284375000  -2.902851e+001  -1.546928e+002 
3287500000  -2.911947e+001  -1.571207e+002 
3290625000  -2.961613e+001  -1.609693e+002 
3293750000  -2.926234e+001  -1.669597e+002 
3296875000  -3.022120e+001  -1.672775e+002 
3300000000  -3.021803e+001  -1.656932e+002 
3303125000  -2.896380e+001  -1.694824e+002 
3306250000  -2.879237e+001  -1.763183e+002 
3309375000  -2.860952e+001  1.786110e+002 
3312500000  -2.860482e+001  1.688919e+002 
3315625000  -2.955324e+001  1.608196e+002 
3318750000  -3.091689e+001  1.580900e+002 
3321875000  -3.213939e+001  1.572947e+002 
3325000000  -3.267060e+001  1.620509e+002 
3328125000  -3.265879e+001  1.636511e+002 
3331250000  -3.140981e+001  1.715556e+002 
3334375000  -2.890240e+001  1.618918e+002 
3337500000  -2.888941e+001  1.442997e+002 
3340625000  -3.014835e+001  1.331669e+002 
3343750000  -3.214444e+001  1.313531e+002 
3346875000  -3.274995e+001  1.332477e+002 
3350000000  -3.207793e+001  1.319214e+002 
3353125000  -3.215819e+001  1.277723e+002 
3356250000  -3.186022e+001  1.197101e+002 
3359375000  -3.271937e+001  1.117133e+002 
3362500000  -3.406118e+001  1.061211e+002 
3365625000  -3.467468e+001  1.050031e+002 
3368750000  -3.570353e+001  1.032707e+002 
3371875000  -3.607609e+001  9.918987e+001 
3375000000  -3.765601e+001  9.900370e+001 
3378125000  -3.859942e+001  9.650549e+001 
3381250000  -4.005313e+001  1.046319e+002 
3384375000  -3.962950e+001  1.248448e+002 
3387500000  -3.624088e+001  1.120741e+002 
3390625000  -3.810098e+001  9.363194e+001 
3393750000  -4.010377e+001  9.698280e+001 
3396875000  -3.921788e+001  1.006390e+002 
3400000000  -3.911715e+001  9.368137e+001 
3403125000  -4.010702e+001  8.944749e+001 
3406250000  -4.087254e+001  9.138435e+001 
3409375000  -4.146949e+001  8.626473e+001 
3412500000  -4.237500e+001  9.130710e+001 
3415625000  -4.296819e+001  9.358635e+001 
3418750000  -4.350588e+001  9.662119e+001 
3421875000  -4.396613e+001  1.061354e+002 
3425000000  -4.298883e+001  1.081223e+002 
3428125000  -4.207806e+001  1.071966e+002 
3431250000  -4.227204e+001  1.024805e+002 
3434375000  -4.186035e+001  1.019616e+002 
3437500000  -4.230420e+001  9.982866e+001 
3440625000  -4.249261e+001  1.012510e+002 
3443750000  -4.170248e+001  1.055721e+002 
3446875000  -4.069016e+001  9.922372e+001 
3450000000  -4.004863e+001  9.145891e+001 
3453125000  -4.064903e+001  8.227846e+001 
3456250000  -4.192526e+001  7.890478e+001 
3459375000  -4.268455e+001  7.912800e+001 
3462500000  -4.279688e+001  8.177574e+001 
3465625000  -4.312446e+001  7.678014e+001 
3468750000  -4.340197e+001  7.474374e+001 
3471875000  -4.317783e+001  7.719856e+001 
3475000000  -4.305958e+001  7.070764e+001 
3478125000  -4.411521e+001  6.661951e+001 
3481250000  -4.488802e+001  6.729858e+001 
3484375000  -4.663390e+001  6.938072e+001 
3487500000  -4.642228e+001  7.301137e+001 
3490625000  -4.555191e+001  7.252321e+001 
3493750000  -4.646368e+001  7.098097e+001 
3496875000  -4.688260e+001  7.358662e+001 
3500000000  -4.826797e+001  7.632410e+001 
3503125000  -4.844395e+001  7.837237e+001 
3506250000  -4.704035e+001  8.548182e+001 
3509375000  -4.714774e+001  8.351277e+001 
3512500000  -4.800545e+001  7.855839e+001 
3515625000  -4.810218e+001  8.042316e+001 
3518750000  -4.840548e+001  8.921667e+001 
3521875000  -4.772645e+001  9.426256e+001 
3525000000  -4.851180e+001  9.350619e+001 
3528125000  -4.850628e+001  1.042328e+002 
3531250000  -4.582223e+001  1.064575e+002 
3534375000  -4.494061e+001  9.342233e+001 
3537500000  -4.491097e+001  9.448759e+001 
3540625000  -4.581645e+001  9.302998e+001 
3543750000  -4.599743e+001  9.748228e+001 
3546875000  -4.528142e+001  1.083558e+002 
3550000000  -4.316747e+001  1.106785e+002 
3553125000  -4.157096e+001  9.455959e+001 
3556250000  -4.243179e+001  8.833910e+001 
3559375000  -4.206481e+001  9.215193e+001 
3562500000  -4.107487e+001  8.402978e+001 
3565625000  -4.189997e+001  7.823609e+001 
3568750000  -4.185330e+001  7.978121e+001 
3571875000  -4.142361e+001  8.034747e+001 
3575000000  -4.093266e+001  7.610683e+001 
3578125000  -4.141326e+001  7.230762e+001 
3581250000  -4.142301e+001  7.176398e+001 
3584375000  -4.043114e+001  7.114307e+001 
3587500000  -4.022306e+001  6.529912e+001 
3590625000  -4.031393e+001  5.810879e+001 
3593750000  -4.120557e+001  5.447679e+001 
3596875000  -4.124063e+001  6.214722e+001 
3600000000  -3.975401e+001  5.947027e+001 
3603125000  -3.979549e+001  4.763267e+001 
3606250000  -4.047525e+001  4.437644e+001 
3609375000  -4.085419e+001  4.168472e+001 
3612500000  -4.141310e+001  4.184925e+001 
3615625000  -4.132652e+001  3.802823e+001 
3618750000  -4.173854e+001  4.207077e+001 
3621875000  -4.165826e+001  3.854172e+001 
3625000000  -4.169517e+001  3.947940e+001 
3628125000  -4.194308e+001  3.839854e+001 
3631250000  -4.130422e+001  3.299763e+001 
3634375000  -4.262727e+001  3.597913e+001 
3637500000  -4.237664e+001  4.088686e+001 
3640625000  -4.117763e+001  4.186521e+001 
3643750000  -4.079671e+001  3.823949e+001 
3646875000  -4.100591e+001  3.150255e+001 
3650000000  -4.180617e+001  2.944635e+001 
3653125000  -4.149455e+001  3.031188e+001 
3656250000  -4.206509e+001  2.896288e+001 
3659375000  -4.204446e+001  3.394170e+001 
3662500000  -4.162145e+001  3.192151e+001 
3665625000  -4.167238e+001  3.345760e+001 
3668750000  -4.037700e+001  3.518944e+001 
3671875000  -3.932172e+001  3.020458e+001 
3675000000  -3.989620e+001  2.438365e+001 
3678125000  -4.052174e+001  2.690641e+001 
3681250000  -3.976970e+001  2.723744e+001 
3684375000  -3.957621e+001  2.388727e+001 
3687500000  -3.979148e+001  2.459212e+001 
3690625000  -3.959810e+001  2.249988e+001 
3693750000  -4.022196e+001  2.249254e+001 
3696875000  -4.022786e+001  2.599055e+001 
3700000000  -3.899685e+001  2.471350e+001 
3703125000  -3.879608e+001  2.139364e+001 
3706250000  -3.938147e+001  2.253032e+001 
3709375000  -3.863316e+001  2.454839e+001 
3712500000  -3.742438e+001  2.540569e+001 
3715625000  -3.637754e+001  2.033743e+001 
3718750000  -3.557933e+001  1.642070e+001 
3721875000  -3.525639e+001  1.175556e+001 
3725000000  -3.515543e+001  7.335959e+000 
3728125000  -3.520712e+001  6.239689e+000 
3731250000  -3.474125e+001  5.413397e+000 
3734375000  -3.365134e+001  -9.306716e-001 
3737500000  -3.415113e+001  -8.781685e+000 
3740625000  -3.487989e+001  -1.113706e+001 
3743750000  -3.456732e+001  -1.341610e+001 
3746875000  -3.466485e+001  -1.680474e+001 
3750000000  -3.499736e+001  -1.736324e+001 
3753125000  -3.442331e+001  -1.771758e+001 
3756250000  -3.441302e+001  -1.809915e+001 
3759375000  -3.429150e+001  -1.933526e+001 
3762500000  -3.373986e+001  -2.294074e+001 
3765625000  -3.406165e+001  -2.541882e+001 
3768750000  -3.438924e+001  -2.415496e+001 
3771875000  -3.268145e+001  -2.542800e+001 
3775000000  -3.229230e+001  -3.391729e+001 
3778125000  -3.254544e+001  -3.465976e+001 
3781250000  -3.242970e+001  -3.845989e+001 
3784375000  -3.229716e+001  -4.023306e+001 
3787500000  -3.169340e+001  -4.327471e+001 
3790625000  -3.227418e+001  -4.901981e+001 
3793750000  -3.236166e+001  -5.002615e+001 
3796875000  -3.161881e+001  -5.158392e+001 
3800000000  -3.010363e+001  -5.460631e+001 
3803125000  -3.059568e+001  -6.165858e+001 
3806250000  -3.124923e+001  -6.415389e+001 
3809375000  -3.114349e+001  -6.517432e+001 
3812500000  -3.043986e+001  -6.942281e+001 
3815625000  -3.089379e+001  -7.765672e+001 
3818750000  -3.192631e+001  -7.934485e+001 
3821875000  -3.209170e+001  -7.072852e+001 
3825000000  -3.026070e+001  -6.555137e+001 
3828125000  -2.877351e+001  -7.978033e+001 
3831250000  -2.922569e+001  -9.401407e+001 
3834375000  -3.062090e+001  -9.522321e+001 
3837500000  -3.142467e+001  -8.962536e+001 
3840625000  -3.043624e+001  -9.076332e+001 
3843750000  -2.921856e+001  -1.010458e+002 
3846875000  -2.991086e+001  -1.079384e+002 
3850000000  -3.120784e+001  -1.029411e+002 
3853125000  -3.039458e+001  -1.003154e+002 
3856250000  -3.032346e+001  -1.049635e+002 
3859375000  -2.981673e+001  -1.093038e+002 
3862500000  -2.928214e+001  -1.160966e+002 
3865625000  -2.955134e+001  -1.216017e+002 
3868750000  -2.960364e+001  -1.212786e+002 
3871875000  -2.887570e+001  -1.238857e+002 
3875000000  -2.899567e+001  -1.324986e+002 
3878125000  -2.991917e+001  -1.352715e+002 
3881250000  -3.004053e+001  -1.326235e+002 
3884375000  -2.959723e+001  -1.369536e+002 
3887500000  -2.968887e+001  -1.414321e+002 
3890625000  -3.027684e+001  -1.435202e+002 
3893750000  -3.059410e+001  -1.449049e+002 
3896875000  -3.071875e+001  -1.448160e+002 
3900000000  -3.107986e+001  -1.454695e+002 
3903125000  -3.068423e+001  -1.471967e+002 
3906250000  -3.036322e+001  -1.490480e+002 
3909375000  -2.977524e+001  -1.506091e+002 
3912500000  -2.961749e+001  -1.573358e+002 
3915625000  -3.076420e+001  -1.569781e+002 
3918750000  -3.086334e+001  -1.551360e+002 
3921875000  -3.057157e+001  -1.571888e+002 
3925000000  -2.978898e+001  -1.575193e+002 
3928125000  -2.908704e+001  -1.627033e+002 
3931250000  -2.949047e+001  -1.669704e+002 
3934375000  -2.964050e+001  -1.668699e+002 
3937500000  -2.982793e+001  -1.674396e+002 
3940625000  -3.019746e+001  -1.679053e+002 
3943750000  -2.940520e+001  -1.661178e+002 
3946875000  -2.818375e+001  -1.712648e+002 
3950000000  -2.856787e+001  -1.790506e+002 
3953125000  -2.949505e+001  -1.783446e+002 
3956250000  -2.869609e+001  -1.760918e+002 
3959375000  -2.743531e+001  -1.789838e+002 
3962500000  -2.685905e+001  1.768848e+002 
3965625000  -2.644426e+001  1.680070e+002 
3968750000  -2.737931e+001  1.612998e+002 
3971875000  -2.784532e+001  1.602446e+002 
3975000000  -2.709433e+001  1.582195e+002 
3978125000  -2.689602e+001  1.565215e+002 
3981250000  -2.670000e+001  1.526682e+002 
3984375000  -2.693432e+001  1.461566e+002 
3987500000  -2.745721e+001  1.439972e+002 
3990625000  -2.747365e+001  1.427492e+002 
3993750000  -2.763714e+001  1.398768e+002 
3996875000  -2.769503e+001  1.371741e+002 
4000000000  -2.768185e+001  1.352617e+002 
4003125000  -2.829447e+001  1.378155e+002 
4006250000  -2.696522e+001  1.376432e+002 
4009375000  -2.575543e+001  1.258048e+002 
4012500000  -2.677491e+001  1.190055e+002 
4015625000  -2.798354e+001  1.188004e+002 
4018750000  -2.827855e+001  1.207984e+002 
4021875000  -2.761247e+001  1.197109e+002 
4025000000  -2.717741e+001  1.148756e+002 
4028125000  -2.713299e+001  1.110867e+002 
4031250000  -2.754361e+001  1.077138e+002 
4034375000  -2.789304e+001  1.076016e+002 
4037500000  -2.730913e+001  1.099530e+002 
4040625000  -2.721499e+001  1.064148e+002 
4043750000  -2.755951e+001  1.059696e+002 
4046875000  -2.717425e+001  1.058179e+002 
4050000000  -2.665126e+001  1.003705e+002 
4053125000  -2.706120e+001  9.760714e+001 
4056250000  -2.768439e+001  1.016353e+002 
4059375000  -2.658485e+001  1.037547e+002 
4062500000  -2.514713e+001  9.906158e+001 
4065625000  -2.498430e+001  9.467770e+001 
4068750000  -2.470403e+001  8.996733e+001 
4071875000  -2.407375e+001  8.244787e+001 
4075000000  -2.443608e+001  7.592118e+001 
4078125000  -2.497688e+001  7.463110e+001 
4081250000  -2.452560e+001  7.259963e+001 
4084375000  -2.405845e+001  6.619682e+001 
4087500000  -2.438097e+001  5.956988e+001 
4090625000  -2.499445e+001  5.800792e+001 
4093750000  -2.488067e+001  5.900808e+001 
4096875000  -2.439450e+001  5.333262e+001 
4100000000  -2.503740e+001  4.643805e+001 
4103125000  -2.589763e+001  4.647581e+001 
4106250000  -2.585822e+001  5.128703e+001 
4109375000  -2.498330e+001  5.116528e+001 
4112500000  -2.444581e+001  4.448994e+001 
4115625000  -2.470147e+001  4.036208e+001 
4118750000  -2.486812e+001  3.709201e+001 
4121875000  -2.447464e+001  3.278711e+001 
4125000000  -2.471453e+001  2.776843e+001 
4128125000  -2.578157e+001  2.777312e+001 
4131250000  -2.559474e+001  3.523572e+001 
4134375000  -2.332331e+001  3.165978e+001 
4137500000  -2.298115e+001  1.321239e+001 
4140625000  -2.513557e+001  5.510361e+000 
4143750000  -2.648947e+001  9.981374e+000 
4146875000  -2.611487e+001  1.736567e+001 
4150000000  -2.523584e+001  1.515372e+001 
4153125000  -2.495835e+001  8.520972e+000 
4156250000  -2.583721e+001  5.760553e+000 
4159375000  -2.623059e+001  9.902042e+000 
4162500000  -2.504613e+001  1.437005e+001 
4165625000  -2.395829e+001  1.076340e+001 
4168750000  -2.329711e+001  3.646293e+000 
4171875000  -2.327757e+001  -5.521817e+000 
4175000000  -2.378359e+001  -1.145569e+001 
4178125000  -2.449887e+001  -1.156140e+001 
4181250000  -2.435067e+001  -1.212236e+001 
4184375000  -2.420368e+001  -1.520715e+001 
4187500000  -2.422194e+001  -1.799115e+001 
4190625000  -2.400026e+001  -2.317271e+001 
4193750000  -2.474691e+001  -2.715181e+001 
4196875000  -2.544829e+001  -2.756067e+001 
4200000000  -2.620391e+001  -2.583522e+001 
4203125000  -2.648899e+001  -1.297073e+001 
4206250000  -2.318601e+001  -1.037736e+001 
4209375000  -2.186884e+001  -3.045800e+001 
4212500000  -2.373323e+001  -3.973372e+001 
4215625000  -2.478118e+001  -3.408774e+001 
4218750000  -2.352233e+001  -2.708002e+001 
4221875000  -2.120497e+001  -3.569775e+001 
4225000000  -2.234779e+001  -4.893485e+001 
4228125000  -2.309380e+001  -4.365846e+001 
4231250000  -2.154481e+001  -4.712779e+001 
4234375000  -2.146921e+001  -5.543809e+001 
4237500000  -2.106925e+001  -5.866597e+001 
4240625000  -2.103414e+001  -6.713386e+001 
4243750000  -2.199213e+001  -7.388600e+001 
4246875000  -2.285048e+001  -7.405411e+001 
4250000000  -2.294939e+001  -7.143677e+001 
4253125000  -2.236687e+001  -7.320715e+001 
4256250000  -2.259854e+001  -7.727819e+001 
4259375000  -2.244000e+001  -7.946413e+001 
4262500000  -2.246336e+001  -8.304356e+001 
4265625000  -2.260600e+001  -8.275177e+001 
4268750000  -2.179525e+001  -8.667553e+001 
4271875000  -2.151439e+001  -9.219558e+001 
4275000000  -2.088968e+001  -9.848924e+001 
4278125000  -2.142898e+001  -1.096841e+002 
4281250000  -2.319301e+001  -1.117696e+002 
4284375000  -2.297201e+001  -1.110598e+002 
4287500000  -2.369945e+001  -1.146109e+002 
4290625000  -2.500004e+001  -1.056581e+002 
4293750000  -2.309084e+001  -9.938986e+001 
4296875000  -2.162799e+001  -1.107371e+002 
4300000000  -2.245111e+001  -1.202466e+002 
4303125000  -2.356884e+001  -1.191218e+002 
4306250000  -2.310579e+001  -1.131008e+002 
4309375000  -2.164728e+001  -1.146794e+002 
4312500000  -2.156683e+001  -1.232158e+002 
4315625000  -2.174224e+001  -1.291301e+002 
4318750000  -2.200258e+001  -1.325821e+002 
4321875000  -2.220052e+001  -1.323523e+002 
4325000000  -2.166186e+001  -1.315806e+002 
4328125000  -2.119933e+001  -1.376528e+002 
4331250000  -2.109752e+001  -1.455842e+002 
4334375000  -2.150980e+001  -1.507991e+002 
4337500000  -2.227130e+001  -1.531749e+002 
4340625000  -2.282774e+001  -1.501425e+002 
4343750000  -2.231042e+001  -1.496773e+002 
4346875000  -2.193409e+001  -1.547362e+002 
4350000000  -2.190781e+001  -1.595203e+002 
4353125000  -2.187874e+001  -1.671819e+002 
4356250000  -2.354313e+001  -1.686372e+002 
4359375000  -2.428662e+001  -1.562848e+002 
4362500000  -2.179179e+001  -1.539375e+002 
4365625000  -2.005066e+001  -1.644052e+002 
4368750000  -2.070448e+001  -1.767553e+002 
4371875000  -2.194824e+001  -1.764819e+002 
4375000000  -2.163474e+001  -1.749185e+002 
4378125000  -2.100911e+001  1.791133e+002 
4381250000  -2.116720e+001  1.737715e+002 
4384375000  -2.098830e+001  1.694659e+002 
4387500000  -2.165513e+001  1.633995e+002 
4390625000  -2.271323e+001  1.642784e+002 
4393750000  -2.207188e+001  1.664413e+002 
4396875000  -2.139851e+001  1.641965e+002 
4400000000  -2.089626e+001  1.576153e+002 
4403125000  -2.143290e+001  1.500214e+002 
4406250000  -2.228205e+001  1.485367e+002 
4409375000  -2.227164e+001  1.464748e+002 
4412500000  -2.326776e+001  1.436143e+002 
4415625000  -2.370035e+001  1.480811e+002 
4418750000  -2.256659e+001  1.529122e+002 
