!Agilent Technologies,E8363B,MY43030201,A.06.04.32
!Agilent E8363B: A.06.04.32
!Date: Tuesday, November 11, 2014 20:49:31
!Correction: S21(Response(S21)) 
!S1P File: Measurement: S21:
# Hz S  dB   R 50
3000000000  -2.654155e+001  1.542931e+002 
3003125000  -2.792316e+001  1.497563e+002 
3006250000  -2.797486e+001  1.470932e+002 
3009375000  -2.832258e+001  1.521122e+002 
3012500000  -2.778244e+001  1.516614e+002 
3015625000  -2.682002e+001  1.446380e+002 
3018750000  -2.770303e+001  1.436401e+002 
3021875000  -2.642428e+001  1.453272e+002 
3025000000  -2.515512e+001  1.420545e+002 
3028125000  -2.418858e+001  1.371138e+002 
3031250000  -2.311204e+001  1.260802e+002 
3034375000  -2.275466e+001  1.130606e+002 
3037500000  -2.309033e+001  1.010014e+002 
3040625000  -2.444038e+001  9.587881e+001 
3043750000  -2.514430e+001  9.147768e+001 
3046875000  -2.522497e+001  8.513631e+001 
3050000000  -2.699326e+001  7.822117e+001 
3053125000  -2.714039e+001  8.489212e+001 
3056250000  -2.644376e+001  8.782303e+001 
3059375000  -2.671451e+001  8.732861e+001 
3062500000  -2.523206e+001  8.351466e+001 
3065625000  -2.501254e+001  7.800489e+001 
3068750000  -2.470835e+001  7.101704e+001 
3071875000  -2.464970e+001  6.792662e+001 
3075000000  -2.465646e+001  6.424181e+001 
3078125000  -2.438648e+001  5.961460e+001 
3081250000  -2.497805e+001  5.558034e+001 
3084375000  -2.423649e+001  5.174670e+001 
3087500000  -2.412389e+001  4.834769e+001 
3090625000  -2.381524e+001  3.871244e+001 
3093750000  -2.422415e+001  3.062475e+001 
3096875000  -2.554287e+001  2.433872e+001 
3100000000  -2.563919e+001  2.309525e+001 
3103125000  -2.608338e+001  2.485366e+001 
3106250000  -2.577555e+001  2.087391e+001 
3109375000  -2.604040e+001  1.743943e+001 
3112500000  -2.616328e+001  1.669939e+001 
3115625000  -2.593420e+001  1.214557e+001 
3118750000  -2.647901e+001  1.355799e+001 
3121875000  -2.576138e+001  5.449684e+000 
3125000000  -2.692682e+001  2.056597e+000 
3128125000  -2.816525e+001  1.002590e+001 
3131250000  -2.596753e+001  1.062286e+001 
3134375000  -2.464753e+001  -2.937235e+000 
3137500000  -2.526590e+001  -1.683318e+001 
3140625000  -2.687854e+001  -1.851550e+001 
3143750000  -2.791518e+001  -1.433306e+001 
3146875000  -2.753447e+001  -1.221166e+001 
3150000000  -2.646740e+001  -1.029912e+001 
3153125000  -2.644173e+001  -1.788847e+001 
3156250000  -2.742242e+001  -1.246599e+001 
3159375000  -2.592517e+001  -9.350644e+000 
3162500000  -2.384454e+001  -2.212928e+001 
3165625000  -2.476681e+001  -3.325494e+001 
3168750000  -2.520513e+001  -3.229440e+001 
3171875000  -2.423769e+001  -3.674294e+001 
3175000000  -2.487798e+001  -4.450584e+001 
3178125000  -2.468301e+001  -4.284489e+001 
3181250000  -2.349571e+001  -4.677214e+001 
3184375000  -2.268705e+001  -5.899105e+001 
3187500000  -2.378395e+001  -7.417945e+001 
3190625000  -2.664155e+001  -8.146965e+001 
3193750000  -2.722407e+001  -7.192047e+001 
3196875000  -2.676573e+001  -6.665279e+001 
3200000000  -2.590440e+001  -6.846145e+001 
3203125000  -2.499344e+001  -7.419260e+001 
3206250000  -2.531271e+001  -8.018972e+001 
3209375000  -2.482941e+001  -8.549365e+001 
3212500000  -2.495942e+001  -9.211360e+001 
3215625000  -2.514035e+001  -9.634974e+001 
3218750000  -2.592330e+001  -1.024506e+002 
3221875000  -2.687030e+001  -1.078152e+002 
3225000000  -2.645430e+001  -1.084321e+002 
3228125000  -2.676244e+001  -1.127115e+002 
3231250000  -2.750512e+001  -1.152968e+002 
3234375000  -2.741515e+001  -1.146213e+002 
3237500000  -2.743395e+001  -1.160595e+002 
3240625000  -2.705601e+001  -1.178215e+002 
3243750000  -2.667586e+001  -1.244690e+002 
3246875000  -2.717230e+001  -1.308804e+002 
3250000000  -2.765777e+001  -1.329439e+002 
3253125000  -2.781932e+001  -1.343260e+002 
3256250000  -2.765552e+001  -1.404313e+002 
3259375000  -2.799550e+001  -1.479727e+002 
3262500000  -2.924344e+001  -1.512804e+002 
3265625000  -2.993056e+001  -1.476850e+002 
3268750000  -2.987375e+001  -1.450614e+002 
3271875000  -2.964165e+001  -1.438688e+002 
3275000000  -2.856176e+001  -1.486854e+002 
3278125000  -2.905629e+001  -1.553140e+002 
3281250000  -2.931430e+001  -1.533388e+002 
3284375000  -2.891356e+001  -1.593513e+002 
3287500000  -2.909857e+001  -1.617267e+002 
3290625000  -2.944331e+001  -1.662879e+002 
3293750000  -2.917240e+001  -1.715455e+002 
3296875000  -3.018500e+001  -1.716532e+002 
3300000000  -3.006163e+001  -1.707023e+002 
3303125000  -2.892243e+001  -1.746782e+002 
3306250000  -2.865305e+001  1.788811e+002 
3309375000  -2.847761e+001  1.739339e+002 
3312500000  -2.848776e+001  1.635335e+002 
3315625000  -2.945217e+001  1.557904e+002 
3318750000  -3.079516e+001  1.531901e+002 
3321875000  -3.202006e+001  1.525417e+002 
3325000000  -3.274614e+001  1.570730e+002 
3328125000  -3.254696e+001  1.592499e+002 
3331250000  -3.134058e+001  1.671560e+002 
3334375000  -2.871876e+001  1.578142e+002 
3337500000  -2.875197e+001  1.388897e+002 
3340625000  -3.011589e+001  1.280023e+002 
3343750000  -3.206758e+001  1.264790e+002 
3346875000  -3.258322e+001  1.287304e+002 
3350000000  -3.191499e+001  1.274298e+002 
3353125000  -3.204202e+001  1.227352e+002 
3356250000  -3.174518e+001  1.147332e+002 
3359375000  -3.266605e+001  1.069370e+002 
3362500000  -3.396741e+001  1.013190e+002 
3365625000  -3.449326e+001  9.971324e+001 
3368750000  -3.554074e+001  9.816718e+001 
3371875000  -3.592942e+001  9.545511e+001 
3375000000  -3.755457e+001  9.288428e+001 
3378125000  -3.850756e+001  9.083194e+001 
3381250000  -3.997851e+001  9.973331e+001 
3384375000  -3.932529e+001  1.219187e+002 
3387500000  -3.608016e+001  1.084316e+002 
3390625000  -3.783039e+001  8.837582e+001 
3393750000  -3.972559e+001  9.263976e+001 
3396875000  -3.885682e+001  9.610011e+001 
3400000000  -3.889305e+001  8.874259e+001 
3403125000  -3.979532e+001  8.393835e+001 
3406250000  -4.053895e+001  8.795168e+001 
3409375000  -4.130963e+001  8.367628e+001 
3412500000  -4.217677e+001  8.373209e+001 
3415625000  -4.297275e+001  8.854606e+001 
3418750000  -4.327397e+001  9.348434e+001 
3421875000  -4.383061e+001  9.888613e+001 
3425000000  -4.273751e+001  1.029966e+002 
3428125000  -4.191818e+001  1.032762e+002 
3431250000  -4.180228e+001  9.755990e+001 
3434375000  -4.155070e+001  9.386948e+001 
3437500000  -4.213674e+001  9.313540e+001 
3440625000  -4.234676e+001  9.651975e+001 
3443750000  -4.091966e+001  9.968764e+001 
3446875000  -4.033985e+001  9.375314e+001 
3450000000  -4.017989e+001  8.461974e+001 
3453125000  -4.022695e+001  7.537125e+001 
3456250000  -4.127039e+001  7.275667e+001 
3459375000  -4.233867e+001  7.322105e+001 
3462500000  -4.256977e+001  7.445953e+001 
3465625000  -4.261732e+001  7.173508e+001 
3468750000  -4.311345e+001  6.947180e+001 
3471875000  -4.325143e+001  6.956622e+001 
3475000000  -4.318367e+001  6.585472e+001 
3478125000  -4.382143e+001  5.878164e+001 
3481250000  -4.474277e+001  5.946569e+001 
3484375000  -4.606147e+001  6.399987e+001 
3487500000  -4.595176e+001  6.511807e+001 
3490625000  -4.539996e+001  6.397519e+001 
3493750000  -4.611403e+001  6.171423e+001 
3496875000  -4.708772e+001  6.253792e+001 
3500000000  -4.809771e+001  7.041304e+001 
3503125000  -4.792628e+001  7.725781e+001 
3506250000  -4.691729e+001  7.583938e+001 
3509375000  -4.692493e+001  7.424311e+001 
3512500000  -4.768967e+001  7.668879e+001 
3515625000  -4.754232e+001  7.517617e+001 
3518750000  -4.764518e+001  8.188372e+001 
3521875000  -4.781708e+001  8.651958e+001 
3525000000  -4.773878e+001  8.206021e+001 
3528125000  -4.773887e+001  9.560297e+001 
3531250000  -4.574745e+001  9.746449e+001 
3534375000  -4.539720e+001  8.916985e+001 
3537500000  -4.520818e+001  8.854429e+001 
3540625000  -4.553341e+001  8.802180e+001 
3543750000  -4.607800e+001  8.962153e+001 
3546875000  -4.561089e+001  1.009929e+002 
3550000000  -4.304090e+001  1.035971e+002 
3553125000  -4.140728e+001  8.856480e+001 
3556250000  -4.271514e+001  8.206206e+001 
3559375000  -4.227076e+001  8.472945e+001 
3562500000  -4.077267e+001  7.863737e+001 
3565625000  -4.161026e+001  7.004544e+001 
3568750000  -4.182721e+001  7.269359e+001 
3571875000  -4.145307e+001  7.499329e+001 
3575000000  -4.092942e+001  6.873608e+001 
3578125000  -4.146402e+001  6.461224e+001 
3581250000  -4.134178e+001  6.621181e+001 
3584375000  -4.050539e+001  6.445514e+001 
3587500000  -3.975181e+001  5.821367e+001 
3590625000  -3.988734e+001  4.929803e+001 
3593750000  -4.114417e+001  4.853582e+001 
3596875000  -4.118254e+001  5.629344e+001 
3600000000  -3.964523e+001  5.278547e+001 
3603125000  -3.979557e+001  3.906420e+001 
3606250000  -4.048475e+001  3.728827e+001 
3609375000  -4.072815e+001  3.633813e+001 
3612500000  -4.121229e+001  3.453714e+001 
3615625000  -4.138241e+001  3.073269e+001 
3618750000  -4.185904e+001  3.416328e+001 
3621875000  -4.139003e+001  3.291047e+001 
3625000000  -4.154414e+001  3.268478e+001 
3628125000  -4.153413e+001  3.168585e+001 
3631250000  -4.125704e+001  2.609000e+001 
3634375000  -4.223865e+001  2.805638e+001 
3637500000  -4.221680e+001  3.435220e+001 
3640625000  -4.094695e+001  3.413673e+001 
3643750000  -4.069321e+001  2.821277e+001 
3646875000  -4.131957e+001  2.228668e+001 
3650000000  -4.169506e+001  2.314536e+001 
3653125000  -4.160761e+001  2.256567e+001 
3656250000  -4.175207e+001  2.212766e+001 
3659375000  -4.219621e+001  2.509529e+001 
3662500000  -4.142893e+001  2.405501e+001 
3665625000  -4.148360e+001  2.488680e+001 
3668750000  -4.026505e+001  2.648155e+001 
3671875000  -3.938574e+001  2.201291e+001 
3675000000  -4.008122e+001  1.723781e+001 
3678125000  -4.042138e+001  1.765940e+001 
3681250000  -3.985155e+001  1.866058e+001 
3684375000  -3.992393e+001  1.635947e+001 
3687500000  -3.993219e+001  1.593518e+001 
3690625000  -3.992262e+001  1.337877e+001 
3693750000  -4.029412e+001  1.489369e+001 
3696875000  -4.030937e+001  1.950399e+001 
3700000000  -3.894600e+001  1.644776e+001 
3703125000  -3.894816e+001  1.440405e+001 
3706250000  -3.949610e+001  1.552936e+001 
3709375000  -3.850283e+001  1.912571e+001 
3712500000  -3.764872e+001  1.811011e+001 
3715625000  -3.641238e+001  1.258465e+001 
3718750000  -3.572339e+001  1.030352e+001 
3721875000  -3.539015e+001  4.632111e+000 
3725000000  -3.528091e+001  2.577124e-001 
3728125000  -3.556303e+001  -1.376460e+000 
3731250000  -3.485936e+001  -1.073181e+000 
3734375000  -3.386091e+001  -7.698845e+000 
3737500000  -3.418771e+001  -1.585081e+001 
3740625000  -3.502044e+001  -1.841033e+001 
3743750000  -3.473145e+001  -2.057937e+001 
3746875000  -3.465266e+001  -2.351555e+001 
3750000000  -3.497441e+001  -2.377371e+001 
3753125000  -3.472345e+001  -2.494867e+001 
3756250000  -3.462415e+001  -2.574958e+001 
3759375000  -3.442796e+001  -2.628057e+001 
3762500000  -3.380871e+001  -3.033527e+001 
3765625000  -3.436663e+001  -3.288874e+001 
3768750000  -3.460234e+001  -2.989066e+001 
3771875000  -3.264006e+001  -3.303499e+001 
3775000000  -3.241022e+001  -4.001495e+001 
3778125000  -3.278854e+001  -4.195525e+001 
3781250000  -3.254496e+001  -4.530653e+001 
3784375000  -3.244735e+001  -4.735698e+001 
3787500000  -3.177021e+001  -5.070956e+001 
3790625000  -3.233787e+001  -5.618256e+001 
3793750000  -3.246711e+001  -5.630254e+001 
3796875000  -3.160861e+001  -5.786290e+001 
3800000000  -3.008823e+001  -6.158511e+001 
3803125000  -3.080514e+001  -6.861932e+001 
3806250000  -3.140363e+001  -7.053113e+001 
3809375000  -3.116002e+001  -7.223535e+001 
3812500000  -3.050377e+001  -7.681657e+001 
3815625000  -3.102492e+001  -8.434789e+001 
3818750000  -3.198057e+001  -8.547628e+001 
3821875000  -3.211522e+001  -7.757124e+001 
3825000000  -3.027910e+001  -7.302812e+001 
3828125000  -2.878173e+001  -8.630978e+001 
3831250000  -2.931294e+001  -1.003506e+002 
3834375000  -3.060294e+001  -1.018035e+002 
3837500000  -3.153203e+001  -9.730726e+001 
3840625000  -3.050830e+001  -9.773141e+001 
3843750000  -2.929505e+001  -1.076844e+002 
3846875000  -2.999344e+001  -1.152846e+002 
3850000000  -3.125106e+001  -1.094203e+002 
3853125000  -3.050225e+001  -1.071787e+002 
3856250000  -3.042879e+001  -1.114838e+002 
3859375000  -2.978114e+001  -1.161720e+002 
3862500000  -2.925888e+001  -1.237493e+002 
3865625000  -2.950157e+001  -1.282425e+002 
3868750000  -2.961107e+001  -1.291335e+002 
3871875000  -2.879326e+001  -1.310584e+002 
3875000000  -2.898285e+001  -1.400932e+002 
3878125000  -2.996133e+001  -1.433325e+002 
3881250000  -3.009006e+001  -1.396914e+002 
3884375000  -2.958565e+001  -1.446818e+002 
3887500000  -2.969498e+001  -1.481223e+002 
3890625000  -3.024697e+001  -1.510088e+002 
3893750000  -3.070370e+001  -1.525432e+002 
3896875000  -3.084308e+001  -1.510245e+002 
3900000000  -3.111673e+001  -1.522988e+002 
3903125000  -3.064522e+001  -1.547693e+002 
3906250000  -3.044405e+001  -1.551418e+002 
3909375000  -2.975316e+001  -1.574119e+002 
3912500000  -2.976363e+001  -1.648475e+002 
3915625000  -3.098281e+001  -1.643038e+002 
3918750000  -3.090690e+001  -1.627742e+002 
3921875000  -3.051778e+001  -1.641576e+002 
3925000000  -2.982141e+001  -1.644608e+002 
3928125000  -2.914357e+001  -1.705669e+002 
3931250000  -2.958848e+001  -1.741365e+002 
3934375000  -2.980990e+001  -1.742133e+002 
3937500000  -2.990179e+001  -1.747975e+002 
3940625000  -3.035374e+001  -1.745022e+002 
3943750000  -2.941625e+001  -1.732128e+002 
3946875000  -2.820034e+001  -1.787276e+002 
3950000000  -2.862175e+001  1.737690e+002 
3953125000  -2.959830e+001  1.742087e+002 
3956250000  -2.876727e+001  1.766425e+002 
3959375000  -2.745955e+001  1.741445e+002 
3962500000  -2.693755e+001  1.696383e+002 
3965625000  -2.648093e+001  1.608316e+002 
3968750000  -2.750261e+001  1.544554e+002 
3971875000  -2.785889e+001  1.528096e+002 
3975000000  -2.718943e+001  1.509322e+002 
3978125000  -2.698803e+001  1.498659e+002 
3981250000  -2.673913e+001  1.449237e+002 
3984375000  -2.695037e+001  1.387017e+002 
3987500000  -2.750105e+001  1.367204e+002 
3990625000  -2.747598e+001  1.354358e+002 
3993750000  -2.771002e+001  1.321909e+002 
3996875000  -2.766702e+001  1.300047e+002 
4000000000  -2.774647e+001  1.280269e+002 
4003125000  -2.837592e+001  1.299347e+002 
4006250000  -2.691716e+001  1.304129e+002 
4009375000  -2.577772e+001  1.180685e+002 
4012500000  -2.686060e+001  1.110055e+002 
4015625000  -2.805989e+001  1.115179e+002 
4018750000  -2.828170e+001  1.140653e+002 
4021875000  -2.761015e+001  1.123772e+002 
4025000000  -2.725859e+001  1.074409e+002 
4028125000  -2.725363e+001  1.034579e+002 
4031250000  -2.764863e+001  1.003409e+002 
4034375000  -2.795612e+001  1.003585e+002 
4037500000  -2.743231e+001  1.022707e+002 
4040625000  -2.734813e+001  9.887934e+001 
4043750000  -2.766449e+001  9.837088e+001 
4046875000  -2.726566e+001  9.762656e+001 
4050000000  -2.680964e+001  9.276830e+001 
4053125000  -2.723609e+001  9.031986e+001 
4056250000  -2.784426e+001  9.451619e+001 
4059375000  -2.664989e+001  9.639937e+001 
4062500000  -2.527181e+001  9.216923e+001 
4065625000  -2.501697e+001  8.770479e+001 
4068750000  -2.473588e+001  8.291914e+001 
4071875000  -2.418607e+001  7.463764e+001 
4075000000  -2.452208e+001  6.825264e+001 
4078125000  -2.507557e+001  6.745047e+001 
4081250000  -2.458651e+001  6.502723e+001 
4084375000  -2.412804e+001  5.875148e+001 
4087500000  -2.448830e+001  5.201894e+001 
4090625000  -2.509598e+001  5.116692e+001 
4093750000  -2.490213e+001  5.158441e+001 
4096875000  -2.443898e+001  4.588197e+001 
4100000000  -2.516467e+001  3.875611e+001 
4103125000  -2.598494e+001  3.922453e+001 
4106250000  -2.587782e+001  4.395102e+001 
4109375000  -2.506369e+001  4.347182e+001 
4112500000  -2.447610e+001  3.681490e+001 
4115625000  -2.478682e+001  3.261338e+001 
4118750000  -2.486253e+001  2.978566e+001 
4121875000  -2.454128e+001  2.548344e+001 
4125000000  -2.487778e+001  1.992622e+001 
4128125000  -2.583293e+001  1.984592e+001 
4131250000  -2.563776e+001  2.806176e+001 
4134375000  -2.329628e+001  2.358847e+001 
4137500000  -2.306142e+001  4.920917e+000 
4140625000  -2.523143e+001  -2.533068e+000 
4143750000  -2.659707e+001  2.502700e+000 
4146875000  -2.618405e+001  9.611330e+000 
4150000000  -2.527607e+001  6.905541e+000 
4153125000  -2.513565e+001  2.679822e-001 
4156250000  -2.598245e+001  -2.669061e+000 
4159375000  -2.634334e+001  2.215375e+000 
4162500000  -2.514807e+001  6.669545e+000 
4165625000  -2.404786e+001  2.418652e+000 
4168750000  -2.341048e+001  -4.436130e+000 
4171875000  -2.343861e+001  -1.407311e+001 
4175000000  -2.400644e+001  -1.954221e+001 
4178125000  -2.461354e+001  -1.953930e+001 
4181250000  -2.449215e+001  -1.977900e+001 
4184375000  -2.434688e+001  -2.319411e+001 
4187500000  -2.436811e+001  -2.559302e+001 
4190625000  -2.415557e+001  -3.103601e+001 
4193750000  -2.497670e+001  -3.481705e+001 
4196875000  -2.562608e+001  -3.531837e+001 
4200000000  -2.649607e+001  -3.311333e+001 
4203125000  -2.659450e+001  -2.049891e+001 
4206250000  -2.324222e+001  -1.799517e+001 
4209375000  -2.202791e+001  -3.806968e+001 
4212500000  -2.382705e+001  -4.749178e+001 
4215625000  -2.486250e+001  -4.204263e+001 
4218750000  -2.359694e+001  -3.460405e+001 
4221875000  -2.128902e+001  -4.399203e+001 
4225000000  -2.251911e+001  -5.642406e+001 
4228125000  -2.327214e+001  -5.127210e+001 
4231250000  -2.163816e+001  -5.457888e+001 
4234375000  -2.160631e+001  -6.354042e+001 
4237500000  -2.122600e+001  -6.682949e+001 
4240625000  -2.117469e+001  -7.499397e+001 
4243750000  -2.212304e+001  -8.174112e+001 
4246875000  -2.299270e+001  -8.207072e+001 
4250000000  -2.309629e+001  -7.930455e+001 
4253125000  -2.252324e+001  -8.147945e+001 
4256250000  -2.277553e+001  -8.543129e+001 
4259375000  -2.258605e+001  -8.710706e+001 
4262500000  -2.259477e+001  -9.110277e+001 
4265625000  -2.274661e+001  -9.052711e+001 
4268750000  -2.188482e+001  -9.474488e+001 
4271875000  -2.165190e+001  -1.003507e+002 
4275000000  -2.105168e+001  -1.067748e+002 
4278125000  -2.164723e+001  -1.179141e+002 
4281250000  -2.345895e+001  -1.201765e+002 
4284375000  -2.317955e+001  -1.189040e+002 
4287500000  -2.394501e+001  -1.224503e+002 
4290625000  -2.519440e+001  -1.131681e+002 
4293750000  -2.317137e+001  -1.072105e+002 
4296875000  -2.187020e+001  -1.189223e+002 
4300000000  -2.266591e+001  -1.280217e+002 
4303125000  -2.387174e+001  -1.270165e+002 
4306250000  -2.328258e+001  -1.210202e+002 
4309375000  -2.184991e+001  -1.228660e+002 
4312500000  -2.176090e+001  -1.309530e+002 
4315625000  -2.199815e+001  -1.372512e+002 
4318750000  -2.228132e+001  -1.403021e+002 
4321875000  -2.248020e+001  -1.401241e+002 
4325000000  -2.187968e+001  -1.392990e+002 
4328125000  -2.138330e+001  -1.455101e+002 
4331250000  -2.132442e+001  -1.534393e+002 
4334375000  -2.172102e+001  -1.583418e+002 
4337500000  -2.251119e+001  -1.609352e+002 
4340625000  -2.310850e+001  -1.577625e+002 
4343750000  -2.255917e+001  -1.573083e+002 
4346875000  -2.213585e+001  -1.628530e+002 
4350000000  -2.214894e+001  -1.672352e+002 
4353125000  -2.217334e+001  -1.748966e+002 
4356250000  -2.388208e+001  -1.760957e+002 
4359375000  -2.458015e+001  -1.633031e+002 
4362500000  -2.187398e+001  -1.605691e+002 
4365625000  -2.025903e+001  -1.722110e+002 
4368750000  -2.092448e+001  1.755735e+002 
4371875000  -2.215078e+001  1.761407e+002 
4375000000  -2.188285e+001  1.772308e+002 
4378125000  -2.118150e+001  1.717212e+002 
4381250000  -2.138306e+001  1.659936e+002 
4384375000  -2.120798e+001  1.616217e+002 
4387500000  -2.192434e+001  1.556761e+002 
4390625000  -2.297961e+001  1.564861e+002 
4393750000  -2.229255e+001  1.588305e+002 
4396875000  -2.163434e+001  1.568273e+002 
4400000000  -2.111083e+001  1.496885e+002 
4403125000  -2.168581e+001  1.422793e+002 
4406250000  -2.255962e+001  1.406945e+002 
4409375000  -2.253089e+001  1.386719e+002 
4412500000  -2.355930e+001  1.356985e+002 
4415625000  -2.394400e+001  1.406742e+002 
4418750000  -2.275216e+001  1.454621e+002 
