!Agilent Technologies,E8363B,MY43030201,A.06.04.32
!Agilent E8363B: A.06.04.32
!Date: Tuesday, November 11, 2014 20:56:11
!Correction: S21(Response(S21)) 
!S1P File: Measurement: S21:
# Hz S  dB   R 50
3000000000  -2.647567e+001  1.479043e+002 
3003125000  -2.788983e+001  1.430315e+002 
3006250000  -2.793897e+001  1.406236e+002 
3009375000  -2.833855e+001  1.461441e+002 
3012500000  -2.774970e+001  1.452124e+002 
3015625000  -2.684064e+001  1.381066e+002 
3018750000  -2.769211e+001  1.375218e+002 
3021875000  -2.636255e+001  1.388010e+002 
3025000000  -2.504878e+001  1.357554e+002 
3028125000  -2.409712e+001  1.304059e+002 
3031250000  -2.306889e+001  1.192999e+002 
3034375000  -2.272689e+001  1.062488e+002 
3037500000  -2.312702e+001  9.422713e+001 
3040625000  -2.448278e+001  8.951559e+001 
3043750000  -2.515440e+001  8.532124e+001 
3046875000  -2.529188e+001  7.904698e+001 
3050000000  -2.702441e+001  7.192401e+001 
3053125000  -2.708598e+001  7.862808e+001 
3056250000  -2.642652e+001  8.168570e+001 
3059375000  -2.667304e+001  8.107469e+001 
3062500000  -2.515828e+001  7.733221e+001 
3065625000  -2.496790e+001  7.144244e+001 
3068750000  -2.466254e+001  6.453152e+001 
3071875000  -2.466301e+001  6.180698e+001 
3075000000  -2.458865e+001  5.770587e+001 
3078125000  -2.432849e+001  5.306304e+001 
3081250000  -2.496689e+001  4.893131e+001 
3084375000  -2.417407e+001  4.517197e+001 
3087500000  -2.409462e+001  4.173743e+001 
3090625000  -2.378420e+001  3.180061e+001 
3093750000  -2.427787e+001  2.406966e+001 
3096875000  -2.555962e+001  1.808493e+001 
3100000000  -2.566401e+001  1.681921e+001 
3103125000  -2.604316e+001  1.794415e+001 
3106250000  -2.572718e+001  1.453515e+001 
3109375000  -2.600051e+001  1.089533e+001 
3112500000  -2.614288e+001  9.955369e+000 
3115625000  -2.594430e+001  5.732136e+000 
3118750000  -2.643197e+001  7.097243e+000 
3121875000  -2.572641e+001  -1.092505e+000 
3125000000  -2.695156e+001  -4.364257e+000 
3128125000  -2.814430e+001  3.570709e+000 
3131250000  -2.593197e+001  4.312173e+000 
3134375000  -2.463338e+001  -9.640003e+000 
3137500000  -2.528462e+001  -2.337583e+001 
3140625000  -2.689240e+001  -2.494423e+001 
3143750000  -2.791071e+001  -2.082403e+001 
3146875000  -2.751485e+001  -1.878391e+001 
3150000000  -2.647528e+001  -1.660066e+001 
3153125000  -2.643029e+001  -2.442642e+001 
3156250000  -2.747519e+001  -1.868002e+001 
3159375000  -2.585126e+001  -1.603142e+001 
3162500000  -2.385389e+001  -2.880832e+001 
3165625000  -2.478448e+001  -3.981956e+001 
3168750000  -2.516335e+001  -3.874043e+001 
3171875000  -2.423322e+001  -4.310890e+001 
3175000000  -2.485184e+001  -5.095562e+001 
3178125000  -2.464181e+001  -4.917941e+001 
3181250000  -2.346872e+001  -5.350767e+001 
3184375000  -2.273641e+001  -6.535441e+001 
3187500000  -2.386915e+001  -8.069743e+001 
3190625000  -2.660947e+001  -8.798968e+001 
3193750000  -2.711354e+001  -7.839731e+001 
3196875000  -2.671207e+001  -7.274779e+001 
3200000000  -2.584075e+001  -7.484679e+001 
3203125000  -2.499686e+001  -8.067944e+001 
3206250000  -2.528571e+001  -8.707017e+001 
3209375000  -2.482194e+001  -9.213361e+001 
3212500000  -2.497262e+001  -9.866743e+001 
3215625000  -2.510963e+001  -1.025971e+002 
3218750000  -2.587749e+001  -1.087756e+002 
3221875000  -2.685809e+001  -1.142213e+002 
3225000000  -2.641608e+001  -1.147674e+002 
3228125000  -2.677714e+001  -1.194563e+002 
3231250000  -2.753237e+001  -1.219758e+002 
3234375000  -2.733861e+001  -1.208195e+002 
3237500000  -2.738486e+001  -1.227226e+002 
3240625000  -2.702637e+001  -1.244707e+002 
3243750000  -2.670168e+001  -1.309154e+002 
3246875000  -2.719528e+001  -1.375400e+002 
3250000000  -2.765128e+001  -1.397876e+002 
3253125000  -2.779309e+001  -1.410097e+002 
3256250000  -2.764823e+001  -1.467995e+002 
3259375000  -2.798435e+001  -1.548466e+002 
3262500000  -2.926093e+001  -1.575095e+002 
3265625000  -2.988627e+001  -1.535663e+002 
3268750000  -2.987757e+001  -1.513617e+002 
3271875000  -2.960598e+001  -1.502796e+002 
3275000000  -2.854989e+001  -1.553257e+002 
3278125000  -2.907006e+001  -1.615323e+002 
3281250000  -2.931991e+001  -1.596196e+002 
3284375000  -2.883463e+001  -1.654812e+002 
3287500000  -2.901271e+001  -1.677507e+002 
3290625000  -2.939050e+001  -1.727882e+002 
3293750000  -2.907819e+001  -1.781879e+002 
3296875000  -3.015354e+001  -1.779253e+002 
3300000000  -3.001618e+001  -1.768168e+002 
3303125000  -2.883304e+001  1.792078e+002 
3306250000  -2.863228e+001  1.725892e+002 
3309375000  -2.839079e+001  1.673732e+002 
3312500000  -2.853007e+001  1.569381e+002 
3315625000  -2.953059e+001  1.493860e+002 
3318750000  -3.084595e+001  1.465598e+002 
3321875000  -3.210115e+001  1.465152e+002 
3325000000  -3.263005e+001  1.522036e+002 
3328125000  -3.240761e+001  1.538124e+002 
3331250000  -3.116555e+001  1.604863e+002 
3334375000  -2.852288e+001  1.514038e+002 
3337500000  -2.863898e+001  1.325748e+002 
3340625000  -3.003965e+001  1.219562e+002 
3343750000  -3.204132e+001  1.209140e+002 
3346875000  -3.266476e+001  1.211076e+002 
3350000000  -3.206717e+001  1.195881e+002 
3353125000  -3.224008e+001  1.154153e+002 
3356250000  -3.189431e+001  1.076361e+002 
3359375000  -3.277111e+001  9.907854e+001 
3362500000  -3.407545e+001  9.400032e+001 
3365625000  -3.477378e+001  9.200775e+001 
3368750000  -3.579444e+001  9.034844e+001 
3371875000  -3.624517e+001  8.712920e+001 
3375000000  -3.773193e+001  8.553032e+001 
3378125000  -3.902137e+001  8.507136e+001 
3381250000  -4.051653e+001  9.402831e+001 
3384375000  -3.940660e+001  1.143707e+002 
3387500000  -3.635791e+001  1.011535e+002 
3390625000  -3.820235e+001  8.216988e+001 
3393750000  -3.998487e+001  8.572231e+001 
3396875000  -3.910129e+001  9.013833e+001 
3400000000  -3.912850e+001  8.276751e+001 
3403125000  -4.006077e+001  7.841882e+001 
3406250000  -4.087038e+001  8.247137e+001 
3409375000  -4.133867e+001  7.745861e+001 
3412500000  -4.260273e+001  7.712372e+001 
3415625000  -4.310013e+001  8.357825e+001 
3418750000  -4.363029e+001  8.754135e+001 
3421875000  -4.374992e+001  9.413926e+001 
3425000000  -4.279810e+001  9.800310e+001 
3428125000  -4.194464e+001  9.637128e+001 
3431250000  -4.182299e+001  9.431012e+001 
3434375000  -4.132883e+001  8.952297e+001 
3437500000  -4.195662e+001  8.939507e+001 
3440625000  -4.239090e+001  9.194378e+001 
3443750000  -4.111257e+001  9.407661e+001 
3446875000  -4.017801e+001  8.908732e+001 
3450000000  -4.013876e+001  8.090298e+001 
3453125000  -4.057387e+001  7.114735e+001 
3456250000  -4.159391e+001  6.684402e+001 
3459375000  -4.240563e+001  6.863872e+001 
3462500000  -4.253114e+001  6.990649e+001 
3465625000  -4.277464e+001  6.526163e+001 
3468750000  -4.281701e+001  6.220082e+001 
3471875000  -4.306119e+001  6.417903e+001 
3475000000  -4.317476e+001  5.952574e+001 
3478125000  -4.352050e+001  5.393934e+001 
3481250000  -4.495397e+001  5.481382e+001 
3484375000  -4.613677e+001  5.719001e+001 
3487500000  -4.567353e+001  6.287583e+001 
3490625000  -4.569634e+001  6.043153e+001 
3493750000  -4.601762e+001  5.730401e+001 
3496875000  -4.692825e+001  6.331778e+001 
3500000000  -4.818783e+001  6.299388e+001 
3503125000  -4.789322e+001  7.570805e+001 
3506250000  -4.650489e+001  7.021369e+001 
3509375000  -4.667197e+001  6.559364e+001 
3512500000  -4.761557e+001  6.742416e+001 
3515625000  -4.728325e+001  6.686170e+001 
3518750000  -4.843130e+001  7.648637e+001 
3521875000  -4.775499e+001  8.088543e+001 
3525000000  -4.800078e+001  7.905885e+001 
3528125000  -4.704461e+001  9.269437e+001 
3531250000  -4.555551e+001  8.945292e+001 
3534375000  -4.495485e+001  8.298370e+001 
3537500000  -4.500997e+001  7.834476e+001 
3540625000  -4.528142e+001  7.956010e+001 
3543750000  -4.574474e+001  8.660213e+001 
3546875000  -4.513195e+001  9.547363e+001 
3550000000  -4.232286e+001  9.752401e+001 
3553125000  -4.129440e+001  8.164701e+001 
3556250000  -4.233197e+001  7.543886e+001 
3559375000  -4.169643e+001  7.915087e+001 
3562500000  -4.059513e+001  7.024356e+001 
3565625000  -4.141579e+001  6.455247e+001 
3568750000  -4.127259e+001  6.683706e+001 
3571875000  -4.121638e+001  6.643105e+001 
3575000000  -4.057447e+001  6.111953e+001 
3578125000  -4.086456e+001  5.821066e+001 
3581250000  -4.108425e+001  5.764190e+001 
3584375000  -4.007967e+001  5.759519e+001 
3587500000  -3.941130e+001  5.071457e+001 
3590625000  -3.993511e+001  4.133363e+001 
3593750000  -4.095124e+001  3.974290e+001 
3596875000  -4.114554e+001  5.006939e+001 
3600000000  -3.932713e+001  4.539033e+001 
3603125000  -3.940771e+001  3.057493e+001 
3606250000  -4.024856e+001  2.760600e+001 
3609375000  -4.031982e+001  2.813235e+001 
3612500000  -4.091559e+001  2.401678e+001 
3615625000  -4.072375e+001  2.276841e+001 
3618750000  -4.147654e+001  2.519388e+001 
3621875000  -4.088678e+001  2.433971e+001 
3625000000  -4.147834e+001  2.181138e+001 
3628125000  -4.152501e+001  2.293675e+001 
3631250000  -4.130970e+001  1.970139e+001 
3634375000  -4.241463e+001  1.879405e+001 
3637500000  -4.189508e+001  2.506450e+001 
3640625000  -4.113931e+001  2.730704e+001 
3643750000  -4.070940e+001  2.120497e+001 
3646875000  -4.128923e+001  1.638628e+001 
3650000000  -4.170037e+001  1.696084e+001 
3653125000  -4.153621e+001  1.546556e+001 
3656250000  -4.180927e+001  1.645906e+001 
3659375000  -4.174712e+001  1.844729e+001 
3662500000  -4.103561e+001  1.715202e+001 
3665625000  -4.125558e+001  1.816382e+001 
3668750000  -4.024708e+001  2.069815e+001 
3671875000  -3.925355e+001  1.570955e+001 
3675000000  -3.967143e+001  1.048258e+001 
3678125000  -4.008398e+001  1.174698e+001 
3681250000  -3.953841e+001  1.132827e+001 
3684375000  -3.945588e+001  8.985469e+000 
3687500000  -3.933433e+001  7.008161e+000 
3690625000  -3.951256e+001  5.452479e+000 
3693750000  -4.006102e+001  8.447747e+000 
3696875000  -3.978295e+001  1.106938e+001 
3700000000  -3.870267e+001  8.296600e+000 
3703125000  -3.861189e+001  4.495720e+000 
3706250000  -3.951799e+001  6.773514e+000 
3709375000  -3.864776e+001  1.056206e+001 
3712500000  -3.716792e+001  9.026751e+000 
3715625000  -3.618940e+001  3.516167e+000 
3718750000  -3.547305e+001  4.446561e-001 
3721875000  -3.519745e+001  -5.282967e+000 
3725000000  -3.516153e+001  -9.677457e+000 
3728125000  -3.543346e+001  -1.012244e+001 
3731250000  -3.461294e+001  -1.101126e+001 
3734375000  -3.383789e+001  -1.736769e+001 
3737500000  -3.432610e+001  -2.463217e+001 
3740625000  -3.494356e+001  -2.714686e+001 
3743750000  -3.468459e+001  -2.901225e+001 
3746875000  -3.471125e+001  -3.228694e+001 
3750000000  -3.501083e+001  -3.244744e+001 
3753125000  -3.479298e+001  -3.320040e+001 
3756250000  -3.462554e+001  -3.431213e+001 
3759375000  -3.448642e+001  -3.505290e+001 
3762500000  -3.393713e+001  -3.800359e+001 
3765625000  -3.438205e+001  -4.083289e+001 
3768750000  -3.443238e+001  -3.921711e+001 
3771875000  -3.268311e+001  -4.160620e+001 
3775000000  -3.245839e+001  -4.786126e+001 
3778125000  -3.272371e+001  -5.079804e+001 
3781250000  -3.252322e+001  -5.284338e+001 
3784375000  -3.244452e+001  -5.477719e+001 
3787500000  -3.173653e+001  -5.839622e+001 
3790625000  -3.229322e+001  -6.410299e+001 
3793750000  -3.232136e+001  -6.469749e+001 
3796875000  -3.155746e+001  -6.615387e+001 
3800000000  -2.992568e+001  -6.900626e+001 
3803125000  -3.071489e+001  -7.650287e+001 
3806250000  -3.139257e+001  -7.877716e+001 
3809375000  -3.103880e+001  -8.060829e+001 
3812500000  -3.040210e+001  -8.515160e+001 
3815625000  -3.104255e+001  -9.250769e+001 
3818750000  -3.201604e+001  -9.425998e+001 
3821875000  -3.211395e+001  -8.566551e+001 
3825000000  -3.010746e+001  -8.126669e+001 
3828125000  -2.872186e+001  -9.524382e+001 
3831250000  -2.935215e+001  -1.091601e+002 
3834375000  -3.074501e+001  -1.106581e+002 
3837500000  -3.151374e+001  -1.054084e+002 
3840625000  -3.044830e+001  -1.062016e+002 
3843750000  -2.927048e+001  -1.170270e+002 
3846875000  -3.004686e+001  -1.240317e+002 
3850000000  -3.129763e+001  -1.179429e+002 
3853125000  -3.044080e+001  -1.150298e+002 
3856250000  -3.046191e+001  -1.204583e+002 
3859375000  -2.967998e+001  -1.251623e+002 
3862500000  -2.930909e+001  -1.319145e+002 
3865625000  -2.961003e+001  -1.367773e+002 
3868750000  -2.963822e+001  -1.369133e+002 
3871875000  -2.891855e+001  -1.397169e+002 
3875000000  -2.908053e+001  -1.485281e+002 
3878125000  -3.007435e+001  -1.503741e+002 
3881250000  -3.022861e+001  -1.478155e+002 
3884375000  -2.969251e+001  -1.524169e+002 
3887500000  -2.981261e+001  -1.565840e+002 
3890625000  -3.029344e+001  -1.587624e+002 
3893750000  -3.079296e+001  -1.600704e+002 
3896875000  -3.093606e+001  -1.589854e+002 
3900000000  -3.123137e+001  -1.602650e+002 
3903125000  -3.078746e+001  -1.617773e+002 
3906250000  -3.046187e+001  -1.626645e+002 
3909375000  -2.973167e+001  -1.656740e+002 
3912500000  -2.977885e+001  -1.732529e+002 
3915625000  -3.089941e+001  -1.719186e+002 
3918750000  -3.101145e+001  -1.696525e+002 
3921875000  -3.064141e+001  -1.721279e+002 
3925000000  -2.982190e+001  -1.723265e+002 
3928125000  -2.911662e+001  -1.780111e+002 
3931250000  -2.950845e+001  1.775963e+002 
3934375000  -2.975070e+001  1.779408e+002 
3937500000  -2.989386e+001  1.772784e+002 
3940625000  -3.031352e+001  1.775347e+002 
3943750000  -2.938419e+001  1.784937e+002 
3946875000  -2.814333e+001  1.731493e+002 
3950000000  -2.870061e+001  1.656715e+002 
3953125000  -2.956417e+001  1.659734e+002 
3956250000  -2.864673e+001  1.689015e+002 
3959375000  -2.741955e+001  1.654388e+002 
3962500000  -2.686790e+001  1.614700e+002 
3965625000  -2.655585e+001  1.526698e+002 
3968750000  -2.746190e+001  1.458100e+002 
3971875000  -2.784550e+001  1.443259e+002 
3975000000  -2.721055e+001  1.422219e+002 
3978125000  -2.705153e+001  1.409827e+002 
3981250000  -2.680337e+001  1.362619e+002 
3984375000  -2.703632e+001  1.303288e+002 
3987500000  -2.760924e+001  1.275969e+002 
3990625000  -2.749674e+001  1.270949e+002 
3993750000  -2.790036e+001  1.242141e+002 
3996875000  -2.780135e+001  1.219340e+002 
4000000000  -2.791252e+001  1.199541e+002 
4003125000  -2.841054e+001  1.221667e+002 
4006250000  -2.711530e+001  1.225664e+002 
4009375000  -2.588158e+001  1.101997e+002 
4012500000  -2.701841e+001  1.038292e+002 
4015625000  -2.823123e+001  1.042429e+002 
4018750000  -2.840702e+001  1.064788e+002 
4021875000  -2.773810e+001  1.054475e+002 
4025000000  -2.729453e+001  1.006795e+002 
4028125000  -2.731594e+001  9.626654e+001 
4031250000  -2.768207e+001  9.346083e+001 
4034375000  -2.793179e+001  9.327747e+001 
4037500000  -2.742213e+001  9.528017e+001 
4040625000  -2.734310e+001  9.179132e+001 
4043750000  -2.763432e+001  9.180129e+001 
4046875000  -2.717414e+001  9.109831e+001 
4050000000  -2.677628e+001  8.509173e+001 
4053125000  -2.712503e+001  8.339200e+001 
4056250000  -2.769704e+001  8.713654e+001 
4059375000  -2.642463e+001  8.929330e+001 
4062500000  -2.510387e+001  8.410763e+001 
4065625000  -2.497245e+001  7.966494e+001 
4068750000  -2.465038e+001  7.485764e+001 
4071875000  -2.402472e+001  6.686621e+001 
4075000000  -2.439384e+001  6.062257e+001 
4078125000  -2.495804e+001  5.963884e+001 
4081250000  -2.442722e+001  5.724701e+001 
4084375000  -2.401902e+001  5.047368e+001 
4087500000  -2.441790e+001  4.424389e+001 
4090625000  -2.501584e+001  4.282382e+001 
4093750000  -2.481511e+001  4.363855e+001 
4096875000  -2.440224e+001  3.740778e+001 
4100000000  -2.513061e+001  3.061757e+001 
4103125000  -2.601204e+001  3.131590e+001 
4106250000  -2.588044e+001  3.626738e+001 
4109375000  -2.499482e+001  3.552427e+001 
4112500000  -2.445232e+001  2.893109e+001 
4115625000  -2.479011e+001  2.481615e+001 
4118750000  -2.486864e+001  2.219099e+001 
4121875000  -2.446127e+001  1.711284e+001 
4125000000  -2.491556e+001  1.225361e+001 
4128125000  -2.592369e+001  1.264990e+001 
4131250000  -2.562911e+001  2.101735e+001 
4134375000  -2.328682e+001  1.628560e+001 
4137500000  -2.313141e+001  -2.483081e+000 
4140625000  -2.527323e+001  -9.316216e+000 
4143750000  -2.654734e+001  -3.858441e+000 
4146875000  -2.610381e+001  3.398942e+000 
4150000000  -2.522669e+001  -1.435346e-001 
4153125000  -2.502785e+001  -6.655401e+000 
4156250000  -2.594045e+001  -9.142721e+000 
4159375000  -2.620049e+001  -4.582356e+000 
4162500000  -2.497215e+001  -2.773919e-001 
4165625000  -2.384351e+001  -4.156462e+000 
4168750000  -2.327405e+001  -1.167407e+001 
4171875000  -2.318446e+001  -2.063660e+001 
4175000000  -2.379765e+001  -2.671941e+001 
4178125000  -2.444456e+001  -2.664584e+001 
4181250000  -2.423121e+001  -2.704743e+001 
4184375000  -2.405263e+001  -3.012909e+001 
4187500000  -2.409503e+001  -3.316685e+001 
4190625000  -2.396504e+001  -3.860509e+001 
4193750000  -2.476085e+001  -4.269986e+001 
4196875000  -2.547596e+001  -4.299403e+001 
4200000000  -2.634766e+001  -4.052042e+001 
4203125000  -2.637122e+001  -2.714252e+001 
4206250000  -2.291544e+001  -2.580602e+001 
4209375000  -2.178018e+001  -4.661608e+001 
4212500000  -2.373129e+001  -5.557462e+001 
4215625000  -2.469613e+001  -4.912378e+001 
4218750000  -2.337944e+001  -4.227221e+001 
4221875000  -2.108657e+001  -5.173689e+001 
4225000000  -2.232445e+001  -6.413235e+001 
4228125000  -2.303572e+001  -5.921739e+001 
4231250000  -2.147274e+001  -6.310152e+001 
4234375000  -2.140206e+001  -7.154263e+001 
4237500000  -2.098266e+001  -7.477627e+001 
4240625000  -2.099240e+001  -8.332981e+001 
4243750000  -2.197616e+001  -9.005928e+001 
4246875000  -2.288653e+001  -8.984151e+001 
4250000000  -2.295150e+001  -8.702899e+001 
4253125000  -2.238700e+001  -8.885452e+001 
4256250000  -2.267314e+001  -9.275713e+001 
4259375000  -2.235357e+001  -9.515414e+001 
4262500000  -2.241492e+001  -9.853722e+001 
4265625000  -2.258292e+001  -9.840585e+001 
4268750000  -2.169196e+001  -1.023992e+002 
4271875000  -2.139807e+001  -1.081668e+002 
4275000000  -2.080844e+001  -1.145148e+002 
4278125000  -2.146160e+001  -1.255308e+002 
4281250000  -2.321097e+001  -1.275695e+002 
4284375000  -2.292118e+001  -1.266349e+002 
4287500000  -2.372616e+001  -1.303372e+002 
4290625000  -2.495851e+001  -1.202520e+002 
4293750000  -2.291807e+001  -1.152089e+002 
4296875000  -2.156855e+001  -1.264247e+002 
4300000000  -2.238419e+001  -1.356830e+002 
4303125000  -2.355999e+001  -1.341699e+002 
4306250000  -2.286612e+001  -1.284689e+002 
4309375000  -2.147889e+001  -1.305271e+002 
4312500000  -2.134274e+001  -1.390264e+002 
4315625000  -2.158252e+001  -1.454710e+002 
4318750000  -2.193870e+001  -1.486915e+002 
4321875000  -2.209622e+001  -1.480395e+002 
4325000000  -2.145803e+001  -1.475302e+002 
4328125000  -2.099202e+001  -1.541925e+002 
4331250000  -2.089701e+001  -1.621088e+002 
4334375000  -2.134700e+001  -1.677054e+002 
4337500000  -2.219818e+001  -1.695002e+002 
4340625000  -2.274756e+001  -1.660313e+002 
4343750000  -2.213508e+001  -1.656759e+002 
4346875000  -2.177209e+001  -1.715308e+002 
4350000000  -2.180622e+001  -1.765030e+002 
4353125000  -2.181974e+001  1.759208e+002 
4356250000  -2.364802e+001  1.751820e+002 
4359375000  -2.417385e+001  -1.711783e+002 
4362500000  -2.147020e+001  -1.694560e+002 
4365625000  -1.991074e+001  1.783007e+002 
4368750000  -2.067757e+001  1.664941e+002 
4371875000  -2.186187e+001  1.673270e+002 
4375000000  -2.144396e+001  1.682799e+002 
4378125000  -2.089075e+001  1.625376e+002 
4381250000  -2.104550e+001  1.573281e+002 
4384375000  -2.085093e+001  1.522554e+002 
4387500000  -2.158591e+001  1.468813e+002 
4390625000  -2.267703e+001  1.477431e+002 
4393750000  -2.195374e+001  1.496890e+002 
4396875000  -2.133397e+001  1.476436e+002 
4400000000  -2.078966e+001  1.408433e+002 
4403125000  -2.139706e+001  1.333381e+002 
4406250000  -2.223460e+001  1.321198e+002 
4409375000  -2.222921e+001  1.298477e+002 
4412500000  -2.324477e+001  1.272943e+002 
4415625000  -2.358752e+001  1.322412e+002 
4418750000  -2.235816e+001  1.368365e+002 
