!Agilent Technologies,E8363B,MY43030201,A.06.04.32
!Agilent E8363B: A.06.04.32
!Date: Tuesday, November 11, 2014 20:46:55
!Correction: S21(Response(S21)) 
!S1P File: Measurement: S21:
# Hz S  dB   R 50
3000000000  -2.647349e+001  1.557635e+002 
3003125000  -2.783314e+001  1.512242e+002 
3006250000  -2.790013e+001  1.484954e+002 
3009375000  -2.827067e+001  1.531479e+002 
3012500000  -2.777892e+001  1.533595e+002 
3015625000  -2.676845e+001  1.461929e+002 
3018750000  -2.764512e+001  1.453822e+002 
3021875000  -2.637614e+001  1.467479e+002 
3025000000  -2.506810e+001  1.436849e+002 
3028125000  -2.413015e+001  1.386769e+002 
3031250000  -2.309101e+001  1.275402e+002 
3034375000  -2.272128e+001  1.146636e+002 
3037500000  -2.301177e+001  1.026359e+002 
3040625000  -2.432064e+001  9.734336e+001 
3043750000  -2.507027e+001  9.314998e+001 
3046875000  -2.517395e+001  8.676164e+001 
3050000000  -2.691993e+001  7.976638e+001 
3053125000  -2.712389e+001  8.596221e+001 
3056250000  -2.637991e+001  8.946178e+001 
3059375000  -2.667010e+001  8.909698e+001 
3062500000  -2.520379e+001  8.501228e+001 
3065625000  -2.500621e+001  7.945110e+001 
3068750000  -2.470117e+001  7.269310e+001 
3071875000  -2.464246e+001  6.954971e+001 
3075000000  -2.463683e+001  6.576863e+001 
3078125000  -2.433798e+001  6.138997e+001 
3081250000  -2.500266e+001  5.730128e+001 
3084375000  -2.428074e+001  5.372181e+001 
3087500000  -2.413052e+001  5.001771e+001 
3090625000  -2.382677e+001  4.066073e+001 
3093750000  -2.424840e+001  3.245699e+001 
3096875000  -2.555624e+001  2.607932e+001 
3100000000  -2.572850e+001  2.474128e+001 
3103125000  -2.610609e+001  2.624754e+001 
3106250000  -2.582002e+001  2.287758e+001 
3109375000  -2.612757e+001  1.922629e+001 
3112500000  -2.621113e+001  1.868914e+001 
3115625000  -2.601467e+001  1.418398e+001 
3118750000  -2.648549e+001  1.535684e+001 
3121875000  -2.581311e+001  7.634257e+000 
3125000000  -2.692999e+001  3.859677e+000 
3128125000  -2.818259e+001  1.192493e+001 
3131250000  -2.607026e+001  1.293286e+001 
3134375000  -2.465634e+001  -7.762969e-001 
3137500000  -2.529753e+001  -1.495771e+001 
3140625000  -2.696752e+001  -1.640119e+001 
3143750000  -2.798825e+001  -1.206832e+001 
3146875000  -2.755583e+001  -1.035004e+001 
3150000000  -2.655848e+001  -7.889517e+000 
3153125000  -2.654922e+001  -1.577240e+001 
3156250000  -2.751851e+001  -1.046127e+001 
3159375000  -2.597749e+001  -7.543075e+000 
3162500000  -2.390188e+001  -1.993629e+001 
3165625000  -2.482681e+001  -3.091111e+001 
3168750000  -2.524545e+001  -3.044200e+001 
3171875000  -2.428837e+001  -3.431553e+001 
3175000000  -2.490561e+001  -4.221944e+001 
3178125000  -2.470305e+001  -4.052035e+001 
3181250000  -2.354050e+001  -4.442632e+001 
3184375000  -2.272030e+001  -5.676835e+001 
3187500000  -2.380184e+001  -7.189040e+001 
3190625000  -2.664580e+001  -7.957412e+001 
3193750000  -2.725493e+001  -7.028516e+001 
3196875000  -2.682901e+001  -6.447698e+001 
3200000000  -2.599148e+001  -6.648853e+001 
3203125000  -2.510928e+001  -7.192165e+001 
3206250000  -2.537319e+001  -7.824478e+001 
3209375000  -2.490092e+001  -8.322918e+001 
3212500000  -2.500551e+001  -8.985118e+001 
3215625000  -2.518682e+001  -9.437601e+001 
3218750000  -2.595259e+001  -1.005885e+002 
3221875000  -2.695667e+001  -1.058032e+002 
3225000000  -2.656164e+001  -1.060499e+002 
3228125000  -2.682252e+001  -1.105267e+002 
3231250000  -2.763920e+001  -1.135869e+002 
3234375000  -2.751384e+001  -1.124576e+002 
3237500000  -2.754100e+001  -1.137481e+002 
3240625000  -2.718991e+001  -1.156057e+002 
3243750000  -2.683809e+001  -1.223035e+002 
3246875000  -2.730942e+001  -1.290152e+002 
3250000000  -2.775171e+001  -1.307977e+002 
3253125000  -2.791684e+001  -1.322900e+002 
3256250000  -2.784384e+001  -1.379904e+002 
3259375000  -2.808630e+001  -1.458575e+002 
3262500000  -2.935991e+001  -1.486747e+002 
3265625000  -3.006647e+001  -1.452795e+002 
3268750000  -3.001559e+001  -1.428111e+002 
3271875000  -2.986541e+001  -1.415527e+002 
3275000000  -2.873305e+001  -1.463544e+002 
3278125000  -2.911345e+001  -1.529244e+002 
3281250000  -2.947623e+001  -1.511009e+002 
3284375000  -2.903312e+001  -1.568521e+002 
3287500000  -2.925706e+001  -1.598576e+002 
3290625000  -2.962004e+001  -1.637145e+002 
3293750000  -2.933055e+001  -1.694638e+002 
3296875000  -3.028911e+001  -1.694286e+002 
3300000000  -3.025132e+001  -1.683515e+002 
3303125000  -2.908195e+001  -1.723270e+002 
3306250000  -2.886441e+001  -1.788970e+002 
3309375000  -2.869699e+001  1.764152e+002 
3312500000  -2.866953e+001  1.660315e+002 
3315625000  -2.966670e+001  1.579035e+002 
3318750000  -3.101208e+001  1.551562e+002 
3321875000  -3.217147e+001  1.543767e+002 
3325000000  -3.278940e+001  1.599544e+002 
3328125000  -3.272523e+001  1.614746e+002 
3331250000  -3.149628e+001  1.685861e+002 
3334375000  -2.888764e+001  1.595810e+002 
3337500000  -2.900832e+001  1.416184e+002 
3340625000  -3.023910e+001  1.305511e+002 
3343750000  -3.224147e+001  1.288075e+002 
3346875000  -3.283471e+001  1.301385e+002 
3350000000  -3.221324e+001  1.290359e+002 
3353125000  -3.234669e+001  1.249484e+002 
3356250000  -3.201936e+001  1.172233e+002 
3359375000  -3.294812e+001  1.091315e+002 
3362500000  -3.425983e+001  1.029920e+002 
3365625000  -3.478504e+001  1.011959e+002 
3368750000  -3.585522e+001  1.002176e+002 
3371875000  -3.619744e+001  9.668533e+001 
3375000000  -3.767988e+001  9.541192e+001 
3378125000  -3.895318e+001  9.444525e+001 
3381250000  -4.030185e+001  1.000935e+002 
3384375000  -3.982101e+001  1.221823e+002 
3387500000  -3.644526e+001  1.093824e+002 
3390625000  -3.834567e+001  9.078958e+001 
3393750000  -4.023853e+001  9.574578e+001 
3396875000  -3.940302e+001  9.942717e+001 
3400000000  -3.934655e+001  9.092621e+001 
3403125000  -4.032662e+001  8.703195e+001 
3406250000  -4.120296e+001  9.056609e+001 
3409375000  -4.183934e+001  8.595511e+001 
3412500000  -4.283510e+001  8.671069e+001 
3415625000  -4.394124e+001  9.236290e+001 
3418750000  -4.388084e+001  9.627993e+001 
3421875000  -4.420618e+001  1.034965e+002 
3425000000  -4.356253e+001  1.083328e+002 
3428125000  -4.229617e+001  1.086249e+002 
3431250000  -4.240247e+001  1.042973e+002 
3434375000  -4.199676e+001  1.006448e+002 
3437500000  -4.266655e+001  9.981809e+001 
3440625000  -4.280631e+001  1.025035e+002 
3443750000  -4.155673e+001  1.041634e+002 
3446875000  -4.055953e+001  9.962734e+001 
3450000000  -4.024809e+001  9.136871e+001 
3453125000  -4.069747e+001  8.193947e+001 
3456250000  -4.180539e+001  7.832611e+001 
3459375000  -4.289853e+001  8.048798e+001 
3462500000  -4.266393e+001  8.142883e+001 
3465625000  -4.308143e+001  7.683776e+001 
3468750000  -4.343470e+001  7.392639e+001 
3471875000  -4.352742e+001  7.418330e+001 
3475000000  -4.325073e+001  7.174054e+001 
3478125000  -4.433884e+001  6.385840e+001 
3481250000  -4.529071e+001  6.524400e+001 
3484375000  -4.716026e+001  6.930172e+001 
3487500000  -4.639329e+001  7.160423e+001 
3490625000  -4.599693e+001  7.127664e+001 
3493750000  -4.661889e+001  6.566231e+001 
3496875000  -4.783836e+001  7.098734e+001 
3500000000  -4.900163e+001  7.881191e+001 
3503125000  -4.767322e+001  8.452560e+001 
3506250000  -4.727766e+001  8.301897e+001 
3509375000  -4.720990e+001  8.191463e+001 
3512500000  -4.806240e+001  8.032484e+001 
3515625000  -4.794317e+001  8.585749e+001 
3518750000  -4.801582e+001  9.160806e+001 
3521875000  -4.789725e+001  9.264462e+001 
3525000000  -4.736213e+001  9.337361e+001 
3528125000  -4.734712e+001  1.041042e+002 
3531250000  -4.521484e+001  1.045296e+002 
3534375000  -4.483265e+001  9.727026e+001 
3537500000  -4.488242e+001  9.244588e+001 
3540625000  -4.532281e+001  9.237868e+001 
3543750000  -4.557325e+001  9.653690e+001 
3546875000  -4.477653e+001  1.043554e+002 
3550000000  -4.255842e+001  1.071944e+002 
3553125000  -4.131423e+001  9.340616e+001 
3556250000  -4.204971e+001  8.716617e+001 
3559375000  -4.189457e+001  8.795267e+001 
3562500000  -4.036468e+001  8.275175e+001 
3565625000  -4.119680e+001  7.443078e+001 
3568750000  -4.139104e+001  7.780304e+001 
3571875000  -4.128817e+001  7.711386e+001 
3575000000  -4.085931e+001  7.324484e+001 
3578125000  -4.105932e+001  6.870171e+001 
3581250000  -4.150480e+001  6.833721e+001 
3584375000  -4.035658e+001  6.859427e+001 
3587500000  -3.958622e+001  6.113219e+001 
3590625000  -3.997607e+001  5.282483e+001 
3593750000  -4.121042e+001  5.079781e+001 
3596875000  -4.132521e+001  6.026163e+001 
3600000000  -3.971963e+001  5.520440e+001 
3603125000  -3.948497e+001  4.317233e+001 
3606250000  -4.042503e+001  3.974285e+001 
3609375000  -4.053932e+001  3.784689e+001 
3612500000  -4.157200e+001  3.810688e+001 
3615625000  -4.148085e+001  3.550086e+001 
3618750000  -4.219473e+001  3.881162e+001 
3621875000  -4.174755e+001  3.670351e+001 
3625000000  -4.194450e+001  3.552766e+001 
3628125000  -4.209998e+001  3.618827e+001 
3631250000  -4.167731e+001  3.185438e+001 
3634375000  -4.264848e+001  3.385667e+001 
3637500000  -4.240396e+001  3.907141e+001 
3640625000  -4.118532e+001  3.912589e+001 
3643750000  -4.078425e+001  3.475760e+001 
3646875000  -4.122163e+001  2.821546e+001 
3650000000  -4.193739e+001  2.837208e+001 
3653125000  -4.148378e+001  2.867844e+001 
3656250000  -4.179698e+001  2.780736e+001 
3659375000  -4.222770e+001  3.158318e+001 
3662500000  -4.133069e+001  3.214985e+001 
3665625000  -4.135603e+001  3.114108e+001 
3668750000  -4.046810e+001  3.253032e+001 
3671875000  -3.944247e+001  2.956428e+001 
3675000000  -3.972754e+001  2.132022e+001 
3678125000  -4.039274e+001  2.278034e+001 
3681250000  -3.988261e+001  2.424687e+001 
3684375000  -3.951340e+001  2.212653e+001 
3687500000  -3.973139e+001  2.092924e+001 
3690625000  -3.964568e+001  1.749978e+001 
3693750000  -4.023354e+001  2.031159e+001 
3696875000  -4.015883e+001  2.311588e+001 
3700000000  -3.903175e+001  2.050822e+001 
3703125000  -3.896091e+001  1.856309e+001 
3706250000  -3.934896e+001  2.030306e+001 
3709375000  -3.865598e+001  2.213340e+001 
3712500000  -3.758380e+001  2.347125e+001 
3715625000  -3.647350e+001  1.647284e+001 
3718750000  -3.578906e+001  1.414146e+001 
3721875000  -3.530379e+001  9.109749e+000 
3725000000  -3.538097e+001  4.687117e+000 
3728125000  -3.543853e+001  3.354568e+000 
3731250000  -3.476068e+001  1.790843e+000 
3734375000  -3.400473e+001  -3.476393e+000 
3737500000  -3.434067e+001  -1.015256e+001 
3740625000  -3.489840e+001  -1.333065e+001 
3743750000  -3.481332e+001  -1.507882e+001 
3746875000  -3.473844e+001  -1.886557e+001 
3750000000  -3.512656e+001  -1.886921e+001 
3753125000  -3.472029e+001  -2.006393e+001 
3756250000  -3.473357e+001  -2.032732e+001 
3759375000  -3.448540e+001  -1.989277e+001 
3762500000  -3.383482e+001  -2.451164e+001 
3765625000  -3.432817e+001  -2.749367e+001 
3768750000  -3.443630e+001  -2.515755e+001 
3771875000  -3.264208e+001  -2.684585e+001 
3775000000  -3.242545e+001  -3.472727e+001 
3778125000  -3.262362e+001  -3.683600e+001 
3781250000  -3.239655e+001  -3.974644e+001 
3784375000  -3.238328e+001  -4.134497e+001 
3787500000  -3.170363e+001  -4.539912e+001 
3790625000  -3.228930e+001  -5.110369e+001 
3793750000  -3.237093e+001  -5.130028e+001 
3796875000  -3.159465e+001  -5.292255e+001 
3800000000  -2.994393e+001  -5.658947e+001 
3803125000  -3.073431e+001  -6.314468e+001 
3806250000  -3.136435e+001  -6.624921e+001 
3809375000  -3.111508e+001  -6.737766e+001 
3812500000  -3.042713e+001  -7.178460e+001 
3815625000  -3.095458e+001  -7.933154e+001 
3818750000  -3.190169e+001  -8.148155e+001 
3821875000  -3.210083e+001  -7.326028e+001 
3825000000  -3.023557e+001  -6.808023e+001 
3828125000  -2.889847e+001  -8.221709e+001 
3831250000  -2.931799e+001  -9.619684e+001 
3834375000  -3.067405e+001  -9.728062e+001 
3837500000  -3.155570e+001  -9.221370e+001 
3840625000  -3.056703e+001  -9.320080e+001 
3843750000  -2.936865e+001  -1.030829e+002 
3846875000  -2.996101e+001  -1.105951e+002 
3850000000  -3.132623e+001  -1.049303e+002 
3853125000  -3.053782e+001  -1.018770e+002 
3856250000  -3.045366e+001  -1.070898e+002 
3859375000  -2.982260e+001  -1.112677e+002 
3862500000  -2.940523e+001  -1.185540e+002 
3865625000  -2.960688e+001  -1.228217e+002 
3868750000  -2.968653e+001  -1.234585e+002 
3871875000  -2.894316e+001  -1.257513e+002 
3875000000  -2.902295e+001  -1.347410e+002 
3878125000  -3.007096e+001  -1.374301e+002 
3881250000  -3.018763e+001  -1.342335e+002 
3884375000  -2.963529e+001  -1.388538e+002 
3887500000  -2.974689e+001  -1.431464e+002 
3890625000  -3.028642e+001  -1.450482e+002 
3893750000  -3.066639e+001  -1.462811e+002 
3896875000  -3.076355e+001  -1.453819e+002 
3900000000  -3.096135e+001  -1.472728e+002 
3903125000  -3.070946e+001  -1.490083e+002 
3906250000  -3.039129e+001  -1.497202e+002 
3909375000  -2.971372e+001  -1.516481e+002 
3912500000  -2.957319e+001  -1.589747e+002 
3915625000  -3.085951e+001  -1.589869e+002 
3918750000  -3.079228e+001  -1.567187e+002 
3921875000  -3.048438e+001  -1.588784e+002 
3925000000  -2.981370e+001  -1.594071e+002 
3928125000  -2.900468e+001  -1.651297e+002 
3931250000  -2.944762e+001  -1.689152e+002 
3934375000  -2.958640e+001  -1.691906e+002 
3937500000  -2.975385e+001  -1.701656e+002 
3940625000  -3.021008e+001  -1.696690e+002 
3943750000  -2.941970e+001  -1.683961e+002 
3946875000  -2.811500e+001  -1.737610e+002 
3950000000  -2.860019e+001  1.783151e+002 
3953125000  -2.955675e+001  1.787166e+002 
3956250000  -2.868668e+001  -1.786859e+002 
3959375000  -2.738970e+001  1.781097e+002 
3962500000  -2.688471e+001  1.742462e+002 
3965625000  -2.654380e+001  1.655234e+002 
3968750000  -2.745535e+001  1.589535e+002 
3971875000  -2.794931e+001  1.573827e+002 
3975000000  -2.723437e+001  1.553921e+002 
3978125000  -2.698191e+001  1.542292e+002 
3981250000  -2.682414e+001  1.499884e+002 
3984375000  -2.704049e+001  1.440776e+002 
3987500000  -2.750845e+001  1.414724e+002 
3990625000  -2.755090e+001  1.403146e+002 
3993750000  -2.774448e+001  1.373751e+002 
3996875000  -2.776603e+001  1.354455e+002 
4000000000  -2.786420e+001  1.334054e+002 
4003125000  -2.852360e+001  1.353920e+002 
4006250000  -2.701838e+001  1.359588e+002 
4009375000  -2.582281e+001  1.241218e+002 
4012500000  -2.682320e+001  1.165545e+002 
4015625000  -2.806724e+001  1.171036e+002 
4018750000  -2.828136e+001  1.196836e+002 
4021875000  -2.764509e+001  1.179406e+002 
4025000000  -2.728815e+001  1.132090e+002 
4028125000  -2.717123e+001  1.093666e+002 
4031250000  -2.762553e+001  1.061432e+002 
4034375000  -2.786977e+001  1.061072e+002 
4037500000  -2.727901e+001  1.079870e+002 
4040625000  -2.724856e+001  1.045069e+002 
4043750000  -2.758097e+001  1.037493e+002 
4046875000  -2.716488e+001  1.034364e+002 
4050000000  -2.662847e+001  9.795595e+001 
4053125000  -2.708428e+001  9.552658e+001 
4056250000  -2.771457e+001  9.899317e+001 
4059375000  -2.662912e+001  1.012222e+002 
4062500000  -2.515398e+001  9.721632e+001 
4065625000  -2.497767e+001  9.213027e+001 
4068750000  -2.470792e+001  8.723671e+001 
4071875000  -2.409314e+001  7.973742e+001 
4075000000  -2.443472e+001  7.325025e+001 
4078125000  -2.504478e+001  7.233795e+001 
4081250000  -2.450713e+001  6.975722e+001 
4084375000  -2.412422e+001  6.371416e+001 
4087500000  -2.445844e+001  5.702570e+001 
4090625000  -2.510385e+001  5.568541e+001 
4093750000  -2.492585e+001  5.654417e+001 
4096875000  -2.448690e+001  5.093869e+001 
4100000000  -2.520109e+001  4.353657e+001 
4103125000  -2.605058e+001  4.416364e+001 
4106250000  -2.593867e+001  4.915781e+001 
4109375000  -2.512432e+001  4.891655e+001 
4112500000  -2.454982e+001  4.213836e+001 
4115625000  -2.483137e+001  3.787993e+001 
4118750000  -2.497331e+001  3.515328e+001 
4121875000  -2.458706e+001  3.082761e+001 
4125000000  -2.490018e+001  2.556382e+001 
4128125000  -2.590262e+001  2.542328e+001 
4131250000  -2.570551e+001  3.384319e+001 
4134375000  -2.340218e+001  2.964146e+001 
4137500000  -2.311595e+001  1.091220e+001 
4140625000  -2.524891e+001  3.089345e+000 
4143750000  -2.653202e+001  8.197085e+000 
4146875000  -2.624174e+001  1.590334e+001 
4150000000  -2.526898e+001  1.331572e+001 
4153125000  -2.502241e+001  6.785032e+000 
4156250000  -2.594823e+001  3.942223e+000 
4159375000  -2.623737e+001  8.063087e+000 
4162500000  -2.508410e+001  1.266531e+001 
4165625000  -2.393427e+001  8.254040e+000 
4168750000  -2.325547e+001  1.546608e+000 
4171875000  -2.327164e+001  -7.551547e+000 
4175000000  -2.386038e+001  -1.348551e+001 
4178125000  -2.446758e+001  -1.353221e+001 
4181250000  -2.432239e+001  -1.404851e+001 
4184375000  -2.418535e+001  -1.752493e+001 
4187500000  -2.424220e+001  -2.008466e+001 
4190625000  -2.400612e+001  -2.554087e+001 
4193750000  -2.479955e+001  -2.926945e+001 
4196875000  -2.546453e+001  -2.990206e+001 
4200000000  -2.629816e+001  -2.812119e+001 
4203125000  -2.647540e+001  -1.554055e+001 
4206250000  -2.317803e+001  -1.302257e+001 
4209375000  -2.192966e+001  -3.281031e+001 
4212500000  -2.380103e+001  -4.220061e+001 
4215625000  -2.484947e+001  -3.634967e+001 
4218750000  -2.359177e+001  -2.937661e+001 
4221875000  -2.129715e+001  -3.836732e+001 
4225000000  -2.246614e+001  -5.126571e+001 
4228125000  -2.321146e+001  -4.613534e+001 
4231250000  -2.166207e+001  -4.963176e+001 
4234375000  -2.157230e+001  -5.787852e+001 
4237500000  -2.117684e+001  -6.126353e+001 
4240625000  -2.117803e+001  -6.960081e+001 
4243750000  -2.209765e+001  -7.608134e+001 
4246875000  -2.299969e+001  -7.657535e+001 
4250000000  -2.310126e+001  -7.320953e+001 
4253125000  -2.248228e+001  -7.537012e+001 
4256250000  -2.278404e+001  -7.957568e+001 
4259375000  -2.256997e+001  -8.139526e+001 
4262500000  -2.256788e+001  -8.474249e+001 
4265625000  -2.270500e+001  -8.461102e+001 
4268750000  -2.185564e+001  -8.852168e+001 
4271875000  -2.158516e+001  -9.407603e+001 
4275000000  -2.095863e+001  -1.000562e+002 
4278125000  -2.153837e+001  -1.115155e+002 
4281250000  -2.332106e+001  -1.141334e+002 
4284375000  -2.305525e+001  -1.128911e+002 
4287500000  -2.379523e+001  -1.164594e+002 
4290625000  -2.503404e+001  -1.070953e+002 
4293750000  -2.310067e+001  -1.011489e+002 
4296875000  -2.167599e+001  -1.126393e+002 
4300000000  -2.249805e+001  -1.222785e+002 
4303125000  -2.362126e+001  -1.212981e+002 
4306250000  -2.313728e+001  -1.151265e+002 
4309375000  -2.168487e+001  -1.170210e+002 
4312500000  -2.157880e+001  -1.255748e+002 
4315625000  -2.177111e+001  -1.314237e+002 
4318750000  -2.207865e+001  -1.348616e+002 
4321875000  -2.221447e+001  -1.344698e+002 
4325000000  -2.167307e+001  -1.340163e+002 
4328125000  -2.119961e+001  -1.402825e+002 
4331250000  -2.113725e+001  -1.483670e+002 
4334375000  -2.151921e+001  -1.534804e+002 
4337500000  -2.232156e+001  -1.558321e+002 
4340625000  -2.290992e+001  -1.529440e+002 
4343750000  -2.238477e+001  -1.524445e+002 
4346875000  -2.199288e+001  -1.572040e+002 
4350000000  -2.198104e+001  -1.621510e+002 
4353125000  -2.201214e+001  -1.699529e+002 
4356250000  -2.368789e+001  -1.714487e+002 
4359375000  -2.451324e+001  -1.581837e+002 
4362500000  -2.187618e+001  -1.560081e+002 
4365625000  -2.018365e+001  -1.671572e+002 
4368750000  -2.083930e+001  -1.793794e+002 
4371875000  -2.212752e+001  -1.789968e+002 
4375000000  -2.179605e+001  -1.774351e+002 
4378125000  -2.112455e+001  1.766859e+002 
4381250000  -2.131271e+001  1.714653e+002 
4384375000  -2.112682e+001  1.671159e+002 
4387500000  -2.182294e+001  1.613858e+002 
4390625000  -2.287639e+001  1.619189e+002 
4393750000  -2.219765e+001  1.644238e+002 
4396875000  -2.150645e+001  1.620045e+002 
4400000000  -2.101311e+001  1.554949e+002 
4403125000  -2.157913e+001  1.480269e+002 
4406250000  -2.244294e+001  1.465386e+002 
4409375000  -2.237895e+001  1.443015e+002 
4412500000  -2.339075e+001  1.413705e+002 
4415625000  -2.380729e+001  1.461786e+002 
4418750000  -2.262149e+001  1.510051e+002 
