!Agilent Technologies,E8363B,MY43030201,A.06.04.32
!Agilent E8363B: A.06.04.32
!Date: Tuesday, November 11, 2014 20:51:15
!Correction: S21(Response(S21)) 
!S1P File: Measurement: S21:
# Hz S  dB   R 50
3000000000  -2.650278e+001  1.520466e+002 
3003125000  -2.792466e+001  1.475835e+002 
3006250000  -2.791633e+001  1.448143e+002 
3009375000  -2.830857e+001  1.497364e+002 
3012500000  -2.779017e+001  1.494895e+002 
3015625000  -2.686504e+001  1.423737e+002 
3018750000  -2.767559e+001  1.417984e+002 
3021875000  -2.643052e+001  1.428947e+002 
3025000000  -2.512980e+001  1.398994e+002 
3028125000  -2.415846e+001  1.350325e+002 
3031250000  -2.310737e+001  1.239241e+002 
3034375000  -2.276929e+001  1.108029e+002 
3037500000  -2.313405e+001  9.888698e+001 
3040625000  -2.446044e+001  9.390911e+001 
3043750000  -2.515905e+001  8.944917e+001 
3046875000  -2.527013e+001  8.322607e+001 
3050000000  -2.700908e+001  7.613392e+001 
3053125000  -2.715131e+001  8.303187e+001 
3056250000  -2.643266e+001  8.591181e+001 
3059375000  -2.670549e+001  8.557418e+001 
3062500000  -2.519788e+001  8.165128e+001 
3065625000  -2.497935e+001  7.570078e+001 
3068750000  -2.472213e+001  6.911237e+001 
3071875000  -2.464928e+001  6.604926e+001 
3075000000  -2.462873e+001  6.213152e+001 
3078125000  -2.435912e+001  5.765858e+001 
3081250000  -2.499963e+001  5.337541e+001 
3084375000  -2.421816e+001  4.978560e+001 
3087500000  -2.412228e+001  4.616177e+001 
3090625000  -2.380778e+001  3.619286e+001 
3093750000  -2.428811e+001  2.839931e+001 
3096875000  -2.557941e+001  2.262488e+001 
3100000000  -2.569815e+001  2.111775e+001 
3103125000  -2.604663e+001  2.249250e+001 
3106250000  -2.580608e+001  1.901522e+001 
3109375000  -2.605101e+001  1.548870e+001 
3112500000  -2.617723e+001  1.450150e+001 
3115625000  -2.593420e+001  1.022064e+001 
3118750000  -2.644951e+001  1.148799e+001 
3121875000  -2.578400e+001  3.553814e+000 
3125000000  -2.691768e+001  3.473915e-001 
3128125000  -2.818354e+001  7.777833e+000 
3131250000  -2.595166e+001  8.452164e+000 
3134375000  -2.464729e+001  -5.187088e+000 
3137500000  -2.527067e+001  -1.870977e+001 
3140625000  -2.691810e+001  -2.024533e+001 
3143750000  -2.793116e+001  -1.640395e+001 
3146875000  -2.755624e+001  -1.435680e+001 
3150000000  -2.651229e+001  -1.214502e+001 
3153125000  -2.647283e+001  -1.981317e+001 
3156250000  -2.749214e+001  -1.425091e+001 
3159375000  -2.594736e+001  -1.151792e+001 
3162500000  -2.385704e+001  -2.450798e+001 
3165625000  -2.476538e+001  -3.553492e+001 
3168750000  -2.519493e+001  -3.456997e+001 
3171875000  -2.422663e+001  -3.879415e+001 
3175000000  -2.487123e+001  -4.670556e+001 
3178125000  -2.466920e+001  -4.479224e+001 
3181250000  -2.349132e+001  -4.893811e+001 
3184375000  -2.272176e+001  -6.130668e+001 
3187500000  -2.384154e+001  -7.621162e+001 
3190625000  -2.659814e+001  -8.355627e+001 
3193750000  -2.719963e+001  -7.406271e+001 
3196875000  -2.676797e+001  -6.842570e+001 
3200000000  -2.588708e+001  -7.035358e+001 
3203125000  -2.503913e+001  -7.614589e+001 
3206250000  -2.534572e+001  -8.247138e+001 
3209375000  -2.486551e+001  -8.750497e+001 
3212500000  -2.498842e+001  -9.423943e+001 
3215625000  -2.513281e+001  -9.841284e+001 
3218750000  -2.589876e+001  -1.049283e+002 
3221875000  -2.685465e+001  -1.096807e+002 
3225000000  -2.647056e+001  -1.103967e+002 
3228125000  -2.677631e+001  -1.148438e+002 
3231250000  -2.753418e+001  -1.173315e+002 
3234375000  -2.737590e+001  -1.161469e+002 
3237500000  -2.741544e+001  -1.180762e+002 
3240625000  -2.709308e+001  -1.198238e+002 
3243750000  -2.673794e+001  -1.265089e+002 
3246875000  -2.718324e+001  -1.327781e+002 
3250000000  -2.767177e+001  -1.347830e+002 
3253125000  -2.783127e+001  -1.364095e+002 
3256250000  -2.763473e+001  -1.424863e+002 
3259375000  -2.795777e+001  -1.499295e+002 
3262500000  -2.928083e+001  -1.532038e+002 
3265625000  -2.993868e+001  -1.491295e+002 
3268750000  -2.987639e+001  -1.471054e+002 
3271875000  -2.965684e+001  -1.458793e+002 
3275000000  -2.861185e+001  -1.509009e+002 
3278125000  -2.903065e+001  -1.572558e+002 
3281250000  -2.940148e+001  -1.556474e+002 
3284375000  -2.889876e+001  -1.611806e+002 
3287500000  -2.906770e+001  -1.639050e+002 
3290625000  -2.944131e+001  -1.684345e+002 
3293750000  -2.919083e+001  -1.738525e+002 
3296875000  -3.018515e+001  -1.738376e+002 
3300000000  -3.005962e+001  -1.727425e+002 
3303125000  -2.894370e+001  -1.768125e+002 
3306250000  -2.874733e+001  1.763049e+002 
3309375000  -2.848193e+001  1.713523e+002 
3312500000  -2.852045e+001  1.612559e+002 
3315625000  -2.956030e+001  1.533946e+002 
3318750000  -3.093793e+001  1.503583e+002 
3321875000  -3.215714e+001  1.502961e+002 
3325000000  -3.274548e+001  1.556047e+002 
3328125000  -3.254370e+001  1.579144e+002 
3331250000  -3.132722e+001  1.656447e+002 
3334375000  -2.876945e+001  1.550238e+002 
3337500000  -2.877832e+001  1.368731e+002 
3340625000  -3.012633e+001  1.257398e+002 
3343750000  -3.210806e+001  1.242807e+002 
3346875000  -3.259786e+001  1.265520e+002 
3350000000  -3.198730e+001  1.253513e+002 
3353125000  -3.203392e+001  1.204286e+002 
3356250000  -3.183313e+001  1.126755e+002 
3359375000  -3.264305e+001  1.043593e+002 
3362500000  -3.398401e+001  9.886780e+001 
3365625000  -3.459602e+001  9.726298e+001 
3368750000  -3.558153e+001  9.592600e+001 
3371875000  -3.603565e+001  9.189180e+001 
3375000000  -3.754767e+001  9.054321e+001 
3378125000  -3.866698e+001  9.040441e+001 
3381250000  -4.050855e+001  9.777458e+001 
3384375000  -3.937281e+001  1.185564e+002 
3387500000  -3.597253e+001  1.051240e+002 
3390625000  -3.789788e+001  8.499086e+001 
3393750000  -3.971943e+001  9.037705e+001 
3396875000  -3.881858e+001  9.399506e+001 
3400000000  -3.862563e+001  8.720135e+001 
3403125000  -3.996730e+001  8.225261e+001 
3406250000  -4.088239e+001  8.606651e+001 
3409375000  -4.127729e+001  8.132676e+001 
3412500000  -4.202680e+001  8.257991e+001 
3415625000  -4.303520e+001  8.730440e+001 
3418750000  -4.299681e+001  9.110316e+001 
3421875000  -4.391192e+001  9.822155e+001 
3425000000  -4.274035e+001  1.018555e+002 
3428125000  -4.163749e+001  1.016689e+002 
3431250000  -4.178549e+001  9.634701e+001 
3434375000  -4.143181e+001  9.308355e+001 
3437500000  -4.180941e+001  9.052508e+001 
3440625000  -4.215718e+001  9.450217e+001 
3443750000  -4.092805e+001  9.748567e+001 
3446875000  -4.001224e+001  9.323546e+001 
3450000000  -3.989590e+001  8.406814e+001 
3453125000  -4.026682e+001  7.437011e+001 
3456250000  -4.138025e+001  7.035018e+001 
3459375000  -4.215274e+001  7.158603e+001 
3462500000  -4.266741e+001  7.200201e+001 
3465625000  -4.241142e+001  6.847712e+001 
3468750000  -4.297430e+001  6.761213e+001 
3471875000  -4.297889e+001  6.772602e+001 
3475000000  -4.287318e+001  6.251548e+001 
3478125000  -4.368659e+001  5.604952e+001 
3481250000  -4.481650e+001  5.610585e+001 
3484375000  -4.623022e+001  6.304786e+001 
3487500000  -4.574240e+001  6.508207e+001 
3490625000  -4.536179e+001  6.210315e+001 
3493750000  -4.585822e+001  5.733307e+001 
3496875000  -4.732062e+001  5.883429e+001 
3500000000  -4.814027e+001  7.146252e+001 
3503125000  -4.858935e+001  7.405961e+001 
3506250000  -4.681603e+001  7.300469e+001 
3509375000  -4.685110e+001  7.120377e+001 
3512500000  -4.766038e+001  6.950963e+001 
3515625000  -4.736680e+001  7.172203e+001 
3518750000  -4.796450e+001  7.976542e+001 
3521875000  -4.771953e+001  8.162100e+001 
3525000000  -4.874582e+001  8.493446e+001 
3528125000  -4.804223e+001  9.685976e+001 
3531250000  -4.562210e+001  9.463699e+001 
3534375000  -4.534507e+001  8.706591e+001 
3537500000  -4.490224e+001  8.427137e+001 
3540625000  -4.533153e+001  8.337135e+001 
3543750000  -4.582751e+001  8.806744e+001 
3546875000  -4.541854e+001  9.906944e+001 
3550000000  -4.285857e+001  1.014279e+002 
3553125000  -4.148140e+001  8.758100e+001 
3556250000  -4.260516e+001  7.823785e+001 
3559375000  -4.206733e+001  8.276809e+001 
3562500000  -4.067849e+001  7.322107e+001 
3565625000  -4.175313e+001  6.680260e+001 
3568750000  -4.181253e+001  7.292539e+001 
3571875000  -4.176286e+001  7.116839e+001 
3575000000  -4.108301e+001  6.600681e+001 
3578125000  -4.149280e+001  6.159476e+001 
3581250000  -4.145631e+001  6.216360e+001 
3584375000  -4.054244e+001  6.181610e+001 
3587500000  -3.997268e+001  5.540990e+001 
3590625000  -4.020089e+001  4.787096e+001 
3593750000  -4.129465e+001  4.533191e+001 
3596875000  -4.145512e+001  5.334046e+001 
3600000000  -3.983755e+001  4.969869e+001 
3603125000  -3.992332e+001  3.837970e+001 
3606250000  -4.079322e+001  3.467735e+001 
3609375000  -4.079139e+001  3.388828e+001 
3612500000  -4.128094e+001  3.278239e+001 
3615625000  -4.146234e+001  2.952987e+001 
3618750000  -4.233942e+001  3.302437e+001 
3621875000  -4.124095e+001  3.053687e+001 
3625000000  -4.173515e+001  3.014938e+001 
3628125000  -4.162247e+001  3.259818e+001 
3631250000  -4.123101e+001  2.624681e+001 
3634375000  -4.261164e+001  2.833283e+001 
3637500000  -4.206633e+001  3.274951e+001 
3640625000  -4.087016e+001  3.503351e+001 
3643750000  -4.072672e+001  2.824215e+001 
3646875000  -4.084596e+001  2.343370e+001 
3650000000  -4.158689e+001  2.341182e+001 
3653125000  -4.123956e+001  2.160060e+001 
3656250000  -4.172362e+001  2.166216e+001 
3659375000  -4.194528e+001  2.482255e+001 
3662500000  -4.104113e+001  2.310607e+001 
3665625000  -4.119517e+001  2.417301e+001 
3668750000  -4.024006e+001  2.555325e+001 
3671875000  -3.909434e+001  2.152188e+001 
3675000000  -3.971692e+001  1.408238e+001 
3678125000  -4.029449e+001  1.717414e+001 
3681250000  -3.969690e+001  1.671997e+001 
3684375000  -3.961895e+001  1.474767e+001 
3687500000  -3.960179e+001  1.357519e+001 
3690625000  -3.957502e+001  1.144846e+001 
3693750000  -4.020911e+001  1.377425e+001 
3696875000  -4.000584e+001  1.602236e+001 
3700000000  -3.882402e+001  1.541080e+001 
3703125000  -3.857683e+001  1.275461e+001 
3706250000  -3.931217e+001  1.294885e+001 
3709375000  -3.871878e+001  1.610053e+001 
3712500000  -3.737731e+001  1.621902e+001 
3715625000  -3.636068e+001  1.026414e+001 
3718750000  -3.547124e+001  7.397392e+000 
3721875000  -3.517655e+001  2.171762e+000 
3725000000  -3.505760e+001  -2.697670e+000 
3728125000  -3.534529e+001  -3.125864e+000 
3731250000  -3.469785e+001  -4.188492e+000 
3734375000  -3.361814e+001  -1.030487e+001 
3737500000  -3.420182e+001  -1.728373e+001 
3740625000  -3.480935e+001  -2.076453e+001 
3743750000  -3.454547e+001  -2.312240e+001 
3746875000  -3.443389e+001  -2.640016e+001 
3750000000  -3.499908e+001  -2.703981e+001 
3753125000  -3.451558e+001  -2.708435e+001 
3756250000  -3.444621e+001  -2.815765e+001 
3759375000  -3.424113e+001  -2.800280e+001 
3762500000  -3.372477e+001  -3.292825e+001 
3765625000  -3.408241e+001  -3.535564e+001 
3768750000  -3.428867e+001  -3.358324e+001 
3771875000  -3.255130e+001  -3.543121e+001 
3775000000  -3.214835e+001  -4.246976e+001 
3778125000  -3.251801e+001  -4.489132e+001 
3781250000  -3.232592e+001  -4.700391e+001 
3784375000  -3.240035e+001  -4.981773e+001 
3787500000  -3.166076e+001  -5.328848e+001 
3790625000  -3.229143e+001  -5.937903e+001 
3793750000  -3.241534e+001  -5.941579e+001 
3796875000  -3.145273e+001  -6.089418e+001 
3800000000  -2.993025e+001  -6.472894e+001 
3803125000  -3.060287e+001  -7.116431e+001 
3806250000  -3.126303e+001  -7.394279e+001 
3809375000  -3.109237e+001  -7.541248e+001 
3812500000  -3.035069e+001  -8.012460e+001 
3815625000  -3.086503e+001  -8.719740e+001 
3818750000  -3.192283e+001  -8.892472e+001 
3821875000  -3.212736e+001  -8.046133e+001 
3825000000  -3.019733e+001  -7.586909e+001 
3828125000  -2.880292e+001  -8.943641e+001 
3831250000  -2.923061e+001  -1.036257e+002 
3834375000  -3.070773e+001  -1.047881e+002 
3837500000  -3.149942e+001  -1.000974e+002 
3840625000  -3.039345e+001  -1.007211e+002 
3843750000  -2.922315e+001  -1.105730e+002 
3846875000  -2.995125e+001  -1.177952e+002 
3850000000  -3.132392e+001  -1.126426e+002 
3853125000  -3.044885e+001  -1.096324e+002 
3856250000  -3.032892e+001  -1.139245e+002 
3859375000  -2.963012e+001  -1.189747e+002 
3862500000  -2.918995e+001  -1.263051e+002 
3865625000  -2.950731e+001  -1.313266e+002 
3868750000  -2.951885e+001  -1.314444e+002 
3871875000  -2.878634e+001  -1.342294e+002 
3875000000  -2.897713e+001  -1.428082e+002 
3878125000  -3.001214e+001  -1.459825e+002 
3881250000  -3.017402e+001  -1.420980e+002 
3884375000  -2.953874e+001  -1.469116e+002 
3887500000  -2.962647e+001  -1.512998e+002 
3890625000  -3.020285e+001  -1.535748e+002 
3893750000  -3.068595e+001  -1.545280e+002 
3896875000  -3.066125e+001  -1.541408e+002 
3900000000  -3.091896e+001  -1.550535e+002 
3903125000  -3.063347e+001  -1.572558e+002 
3906250000  -3.037515e+001  -1.577769e+002 
3909375000  -2.970635e+001  -1.605088e+002 
3912500000  -2.969833e+001  -1.679610e+002 
3915625000  -3.089286e+001  -1.667018e+002 
3918750000  -3.090107e+001  -1.654726e+002 
3921875000  -3.057342e+001  -1.671500e+002 
3925000000  -2.980752e+001  -1.675670e+002 
3928125000  -2.912509e+001  -1.733123e+002 
3931250000  -2.948808e+001  -1.773510e+002 
3934375000  -2.977145e+001  -1.770766e+002 
3937500000  -2.994506e+001  -1.780878e+002 
3940625000  -3.038373e+001  -1.774771e+002 
3943750000  -2.947507e+001  -1.758898e+002 
3946875000  -2.813480e+001  1.779634e+002 
3950000000  -2.868422e+001  1.709580e+002 
3953125000  -2.952909e+001  1.716028e+002 
3956250000  -2.876428e+001  1.745517e+002 
3959375000  -2.738497e+001  1.713174e+002 
3962500000  -2.690500e+001  1.670414e+002 
3965625000  -2.659415e+001  1.585602e+002 
3968750000  -2.753875e+001  1.515467e+002 
3971875000  -2.786578e+001  1.501349e+002 
3975000000  -2.719682e+001  1.483255e+002 
3978125000  -2.704604e+001  1.467620e+002 
3981250000  -2.676690e+001  1.424223e+002 
3984375000  -2.703960e+001  1.359264e+002 
3987500000  -2.752224e+001  1.339313e+002 
3990625000  -2.747872e+001  1.330532e+002 
3993750000  -2.776563e+001  1.299774e+002 
3996875000  -2.765245e+001  1.273713e+002 
4000000000  -2.772185e+001  1.252941e+002 
4003125000  -2.843782e+001  1.278056e+002 
4006250000  -2.697073e+001  1.281776e+002 
4009375000  -2.578577e+001  1.156315e+002 
4012500000  -2.684692e+001  1.084813e+002 
4015625000  -2.811845e+001  1.091920e+002 
4018750000  -2.825624e+001  1.111104e+002 
4021875000  -2.756914e+001  1.099715e+002 
4025000000  -2.726332e+001  1.050614e+002 
4028125000  -2.720226e+001  1.012779e+002 
4031250000  -2.766486e+001  9.808744e+001 
4034375000  -2.794042e+001  9.782088e+001 
4037500000  -2.740531e+001  9.981805e+001 
4040625000  -2.735689e+001  9.639686e+001 
4043750000  -2.767508e+001  9.593814e+001 
4046875000  -2.717638e+001  9.536520e+001 
4050000000  -2.673134e+001  8.962347e+001 
4053125000  -2.720872e+001  8.765939e+001 
4056250000  -2.775762e+001  9.174497e+001 
4059375000  -2.659049e+001  9.349892e+001 
4062500000  -2.519033e+001  8.930770e+001 
4065625000  -2.506030e+001  8.436112e+001 
4068750000  -2.476763e+001  8.022875e+001 
4071875000  -2.413827e+001  7.229091e+001 
4075000000  -2.452904e+001  6.585646e+001 
4078125000  -2.509918e+001  6.506628e+001 
4081250000  -2.453164e+001  6.267466e+001 
4084375000  -2.410483e+001  5.646977e+001 
4087500000  -2.451348e+001  4.992094e+001 
4090625000  -2.509077e+001  4.861055e+001 
4093750000  -2.490123e+001  4.958560e+001 
4096875000  -2.450149e+001  4.346771e+001 
4100000000  -2.515627e+001  3.636458e+001 
4103125000  -2.602617e+001  3.690673e+001 
4106250000  -2.593474e+001  4.172443e+001 
4109375000  -2.502842e+001  4.163206e+001 
4112500000  -2.445974e+001  3.483613e+001 
4115625000  -2.476272e+001  3.044842e+001 
4118750000  -2.491190e+001  2.767805e+001 
4121875000  -2.453807e+001  2.319631e+001 
4125000000  -2.483840e+001  1.822075e+001 
4128125000  -2.588708e+001  1.799845e+001 
4131250000  -2.556332e+001  2.610970e+001 
4134375000  -2.328282e+001  2.151028e+001 
4137500000  -2.304404e+001  3.006027e+000 
4140625000  -2.519744e+001  -4.353536e+000 
4143750000  -2.647942e+001  6.303439e-001 
4146875000  -2.614201e+001  7.959874e+000 
4150000000  -2.518048e+001  4.866930e+000 
4153125000  -2.499790e+001  -1.353915e+000 
4156250000  -2.590583e+001  -3.884263e+000 
4159375000  -2.614046e+001  1.806692e-001 
4162500000  -2.501318e+001  4.460106e+000 
4165625000  -2.388231e+001  2.205096e-001 
4168750000  -2.328568e+001  -6.855663e+000 
4171875000  -2.327888e+001  -1.612020e+001 
4175000000  -2.389126e+001  -2.158788e+001 
4178125000  -2.450072e+001  -2.144773e+001 
4181250000  -2.436543e+001  -2.191354e+001 
4184375000  -2.424728e+001  -2.525141e+001 
4187500000  -2.427446e+001  -2.809932e+001 
4190625000  -2.403914e+001  -3.340884e+001 
4193750000  -2.483768e+001  -3.727417e+001 
4196875000  -2.556510e+001  -3.754783e+001 
4200000000  -2.639448e+001  -3.560099e+001 
4203125000  -2.644254e+001  -2.206380e+001 
4206250000  -2.313911e+001  -2.029629e+001 
4209375000  -2.191686e+001  -4.097866e+001 
4212500000  -2.383357e+001  -4.984202e+001 
4215625000  -2.480683e+001  -4.373755e+001 
4218750000  -2.352322e+001  -3.676919e+001 
4221875000  -2.119930e+001  -4.596457e+001 
4225000000  -2.243151e+001  -5.856813e+001 
4228125000  -2.316873e+001  -5.327821e+001 
4231250000  -2.156734e+001  -5.724871e+001 
4234375000  -2.149002e+001  -6.545621e+001 
4237500000  -2.107379e+001  -6.893681e+001 
4240625000  -2.107625e+001  -7.733474e+001 
4243750000  -2.200074e+001  -8.410060e+001 
4246875000  -2.289623e+001  -8.403204e+001 
4250000000  -2.296220e+001  -8.117451e+001 
4253125000  -2.236298e+001  -8.329332e+001 
4256250000  -2.266777e+001  -8.713937e+001 
4259375000  -2.236971e+001  -8.920941e+001 
4262500000  -2.243673e+001  -9.320255e+001 
4265625000  -2.259593e+001  -9.251519e+001 
4268750000  -2.174831e+001  -9.690262e+001 
4271875000  -2.147613e+001  -1.023472e+002 
4275000000  -2.087712e+001  -1.088375e+002 
4278125000  -2.144303e+001  -1.198942e+002 
4281250000  -2.328223e+001  -1.221396e+002 
4284375000  -2.297140e+001  -1.213124e+002 
4287500000  -2.374436e+001  -1.249936e+002 
4290625000  -2.500022e+001  -1.152029e+002 
4293750000  -2.299927e+001  -1.098016e+002 
4296875000  -2.165148e+001  -1.215389e+002 
4300000000  -2.246192e+001  -1.302659e+002 
4303125000  -2.365426e+001  -1.292062e+002 
4306250000  -2.304459e+001  -1.232124e+002 
4309375000  -2.164589e+001  -1.252503e+002 
4312500000  -2.152500e+001  -1.335477e+002 
4315625000  -2.175289e+001  -1.400587e+002 
4318750000  -2.203346e+001  -1.431389e+002 
4321875000  -2.223591e+001  -1.424772e+002 
4325000000  -2.164942e+001  -1.416477e+002 
4328125000  -2.115776e+001  -1.483316e+002 
4331250000  -2.111385e+001  -1.561382e+002 
4334375000  -2.152147e+001  -1.612285e+002 
4337500000  -2.234096e+001  -1.637376e+002 
4340625000  -2.292697e+001  -1.604581e+002 
4343750000  -2.229238e+001  -1.597291e+002 
4346875000  -2.190728e+001  -1.652393e+002 
4350000000  -2.197387e+001  -1.701486e+002 
4353125000  -2.198024e+001  -1.773811e+002 
4356250000  -2.369490e+001  -1.787744e+002 
4359375000  -2.435028e+001  -1.652606e+002 
4362500000  -2.161599e+001  -1.631223e+002 
4365625000  -2.001950e+001  -1.751308e+002 
4368750000  -2.074777e+001  1.730178e+002 
4371875000  -2.195147e+001  1.735507e+002 
4375000000  -2.157686e+001  1.746723e+002 
4378125000  -2.099594e+001  1.685105e+002 
4381250000  -2.118149e+001  1.634454e+002 
4384375000  -2.098285e+001  1.590534e+002 
4387500000  -2.170848e+001  1.533365e+002 
4390625000  -2.270142e+001  1.541268e+002 
4393750000  -2.202137e+001  1.562804e+002 
4396875000  -2.138007e+001  1.541704e+002 
4400000000  -2.086411e+001  1.470124e+002 
4403125000  -2.142486e+001  1.393920e+002 
4406250000  -2.225741e+001  1.383154e+002 
4409375000  -2.222388e+001  1.358424e+002 
4412500000  -2.326439e+001  1.329677e+002 
4415625000  -2.364508e+001  1.380550e+002 
4418750000  -2.247973e+001  1.426835e+002 
