!Agilent Technologies,E8363B,MY43030201,A.06.04.32
!Agilent E8363B: A.06.04.32
!Date: Tuesday, November 11, 2014 20:51:18
!Correction: S21(Response(S21)) 
!S1P File: Measurement: S21:
# Hz S  dB   R 50
3000000000  -2.654558e+001  1.518040e+002 
3003125000  -2.790380e+001  1.474599e+002 
3006250000  -2.797063e+001  1.447309e+002 
3009375000  -2.832646e+001  1.499725e+002 
3012500000  -2.780437e+001  1.493443e+002 
3015625000  -2.683283e+001  1.423057e+002 
3018750000  -2.768231e+001  1.417025e+002 
3021875000  -2.643639e+001  1.428339e+002 
3025000000  -2.512914e+001  1.398197e+002 
3028125000  -2.417336e+001  1.346384e+002 
3031250000  -2.310660e+001  1.234992e+002 
3034375000  -2.275494e+001  1.106290e+002 
3037500000  -2.311561e+001  9.867589e+001 
3040625000  -2.444177e+001  9.359541e+001 
3043750000  -2.516443e+001  8.948686e+001 
3046875000  -2.527298e+001  8.290968e+001 
3050000000  -2.701431e+001  7.614147e+001 
3053125000  -2.715451e+001  8.256339e+001 
3056250000  -2.649139e+001  8.565845e+001 
3059375000  -2.671240e+001  8.529961e+001 
3062500000  -2.524707e+001  8.101411e+001 
3065625000  -2.501159e+001  7.560049e+001 
3068750000  -2.469013e+001  6.877232e+001 
3071875000  -2.466046e+001  6.569115e+001 
3075000000  -2.460473e+001  6.193836e+001 
3078125000  -2.437093e+001  5.752530e+001 
3081250000  -2.500875e+001  5.326379e+001 
3084375000  -2.426088e+001  4.963300e+001 
3087500000  -2.411922e+001  4.594727e+001 
3090625000  -2.383743e+001  3.619077e+001 
3093750000  -2.429528e+001  2.853024e+001 
3096875000  -2.557685e+001  2.229150e+001 
3100000000  -2.569945e+001  2.100452e+001 
3103125000  -2.606361e+001  2.248821e+001 
3106250000  -2.582382e+001  1.881624e+001 
3109375000  -2.602926e+001  1.549214e+001 
3112500000  -2.616409e+001  1.423749e+001 
3115625000  -2.592036e+001  1.016699e+001 
3118750000  -2.645344e+001  1.114090e+001 
3121875000  -2.579616e+001  3.327517e+000 
3125000000  -2.699507e+001  -1.084692e-001 
3128125000  -2.818901e+001  8.104589e+000 
3131250000  -2.594693e+001  8.275809e+000 
3134375000  -2.462849e+001  -5.283089e+000 
3137500000  -2.528605e+001  -1.885025e+001 
3140625000  -2.689091e+001  -2.047113e+001 
3143750000  -2.797329e+001  -1.672037e+001 
3146875000  -2.754080e+001  -1.448495e+001 
3150000000  -2.648921e+001  -1.216222e+001 
3153125000  -2.646917e+001  -2.013752e+001 
3156250000  -2.744992e+001  -1.435858e+001 
3159375000  -2.593317e+001  -1.175641e+001 
3162500000  -2.388711e+001  -2.471168e+001 
3165625000  -2.481353e+001  -3.572368e+001 
3168750000  -2.519114e+001  -3.433862e+001 
3171875000  -2.424053e+001  -3.882852e+001 
3175000000  -2.485586e+001  -4.650921e+001 
3178125000  -2.467844e+001  -4.495342e+001 
3181250000  -2.348171e+001  -4.907587e+001 
3184375000  -2.271719e+001  -6.132029e+001 
3187500000  -2.381482e+001  -7.640940e+001 
3190625000  -2.660424e+001  -8.371002e+001 
3193750000  -2.720528e+001  -7.414510e+001 
3196875000  -2.675787e+001  -6.852627e+001 
3200000000  -2.589011e+001  -7.037417e+001 
3203125000  -2.506698e+001  -7.627409e+001 
3206250000  -2.534808e+001  -8.282002e+001 
3209375000  -2.484292e+001  -8.755586e+001 
3212500000  -2.497836e+001  -9.428391e+001 
3215625000  -2.513258e+001  -9.859899e+001 
3218750000  -2.587651e+001  -1.047403e+002 
3221875000  -2.691279e+001  -1.097411e+002 
3225000000  -2.647245e+001  -1.102687e+002 
3228125000  -2.680502e+001  -1.150973e+002 
3231250000  -2.755455e+001  -1.176660e+002 
3234375000  -2.741498e+001  -1.167755e+002 
3237500000  -2.739782e+001  -1.183918e+002 
3240625000  -2.707904e+001  -1.202073e+002 
3243750000  -2.671337e+001  -1.267631e+002 
3246875000  -2.722295e+001  -1.330285e+002 
3250000000  -2.766007e+001  -1.350524e+002 
3253125000  -2.781191e+001  -1.370202e+002 
3256250000  -2.768231e+001  -1.427776e+002 
3259375000  -2.800837e+001  -1.502187e+002 
3262500000  -2.927227e+001  -1.532772e+002 
3265625000  -2.995702e+001  -1.498266e+002 
3268750000  -2.993606e+001  -1.473763e+002 
3271875000  -2.966818e+001  -1.457482e+002 
3275000000  -2.856722e+001  -1.508577e+002 
3278125000  -2.906260e+001  -1.571934e+002 
3281250000  -2.934270e+001  -1.553158e+002 
3284375000  -2.887179e+001  -1.615531e+002 
3287500000  -2.907776e+001  -1.638903e+002 
3290625000  -2.949537e+001  -1.685692e+002 
3293750000  -2.918084e+001  -1.737433e+002 
3296875000  -3.019565e+001  -1.738948e+002 
3300000000  -3.006027e+001  -1.724591e+002 
3303125000  -2.894967e+001  -1.768120e+002 
3306250000  -2.865630e+001  1.769646e+002 
3309375000  -2.845206e+001  1.718251e+002 
3312500000  -2.851529e+001  1.614608e+002 
3315625000  -2.948898e+001  1.536934e+002 
3318750000  -3.087946e+001  1.507284e+002 
3321875000  -3.203281e+001  1.512476e+002 
3325000000  -3.265109e+001  1.561648e+002 
3328125000  -3.241705e+001  1.576274e+002 
3331250000  -3.130502e+001  1.652713e+002 
3334375000  -2.870269e+001  1.555667e+002 
3337500000  -2.877736e+001  1.370932e+002 
3340625000  -3.011052e+001  1.259708e+002 
3343750000  -3.208233e+001  1.247890e+002 
3346875000  -3.262182e+001  1.265099e+002 
3350000000  -3.189997e+001  1.252585e+002 
3353125000  -3.202359e+001  1.210055e+002 
3356250000  -3.180141e+001  1.131499e+002 
3359375000  -3.261784e+001  1.042480e+002 
3362500000  -3.388444e+001  9.921332e+001 
3365625000  -3.461383e+001  9.790121e+001 
3368750000  -3.538948e+001  9.633588e+001 
3371875000  -3.596110e+001  9.297163e+001 
3375000000  -3.747937e+001  9.054544e+001 
3378125000  -3.855476e+001  9.033088e+001 
3381250000  -4.000134e+001  9.769209e+001 
3384375000  -3.921316e+001  1.187853e+002 
3387500000  -3.605424e+001  1.048595e+002 
3390625000  -3.774047e+001  8.627919e+001 
3393750000  -3.967078e+001  9.245470e+001 
3396875000  -3.873628e+001  9.436931e+001 
3400000000  -3.878435e+001  8.716583e+001 
3403125000  -3.985627e+001  8.246930e+001 
3406250000  -4.063468e+001  8.597411e+001 
3409375000  -4.133710e+001  8.100433e+001 
3412500000  -4.230690e+001  8.145377e+001 
3415625000  -4.274907e+001  8.832242e+001 
3418750000  -4.339044e+001  9.058614e+001 
3421875000  -4.330349e+001  9.841250e+001 
3425000000  -4.301942e+001  1.011284e+002 
3428125000  -4.164186e+001  9.859831e+001 
3431250000  -4.157988e+001  9.714661e+001 
3434375000  -4.136002e+001  9.193280e+001 
3437500000  -4.166698e+001  9.248505e+001 
3440625000  -4.256575e+001  9.564108e+001 
3443750000  -4.105660e+001  9.730116e+001 
3446875000  -4.011507e+001  9.251713e+001 
3450000000  -3.973902e+001  8.106030e+001 
3453125000  -3.993956e+001  7.309976e+001 
3456250000  -4.140296e+001  6.878860e+001 
3459375000  -4.235304e+001  7.047787e+001 
3462500000  -4.208234e+001  7.323759e+001 
3465625000  -4.233815e+001  6.919954e+001 
3468750000  -4.269076e+001  6.640839e+001 
3471875000  -4.280414e+001  6.724478e+001 
3475000000  -4.284184e+001  6.337001e+001 
3478125000  -4.337225e+001  5.627117e+001 
3481250000  -4.462210e+001  5.646267e+001 
3484375000  -4.577782e+001  6.070745e+001 
3487500000  -4.604467e+001  6.197456e+001 
3490625000  -4.523200e+001  6.186857e+001 
3493750000  -4.568181e+001  5.807368e+001 
3496875000  -4.663114e+001  6.089091e+001 
3500000000  -4.761507e+001  6.825613e+001 
3503125000  -4.802802e+001  7.223244e+001 
3506250000  -4.653653e+001  7.139639e+001 
3509375000  -4.727708e+001  7.245141e+001 
3512500000  -4.731901e+001  6.665797e+001 
3515625000  -4.761950e+001  7.269021e+001 
3518750000  -4.844148e+001  7.642252e+001 
3521875000  -4.800839e+001  7.948880e+001 
3525000000  -4.835032e+001  8.169771e+001 
3528125000  -4.758312e+001  9.410042e+001 
3531250000  -4.577505e+001  9.483575e+001 
3534375000  -4.509726e+001  8.751471e+001 
3537500000  -4.551341e+001  8.214097e+001 
3540625000  -4.540751e+001  8.172413e+001 
3543750000  -4.594339e+001  8.626272e+001 
3546875000  -4.532381e+001  9.656654e+001 
3550000000  -4.290308e+001  1.018962e+002 
3553125000  -4.129668e+001  8.557669e+001 
3556250000  -4.244952e+001  7.845672e+001 
3559375000  -4.230467e+001  8.111941e+001 
3562500000  -4.111443e+001  7.303704e+001 
3565625000  -4.193874e+001  6.776431e+001 
3568750000  -4.188078e+001  7.032185e+001 
3571875000  -4.168430e+001  7.026346e+001 
3575000000  -4.109559e+001  6.644424e+001 
3578125000  -4.148458e+001  6.004417e+001 
3581250000  -4.152865e+001  6.192597e+001 
3584375000  -4.072736e+001  6.104363e+001 
3587500000  -3.996956e+001  5.479068e+001 
3590625000  -4.042892e+001  4.747882e+001 
3593750000  -4.126276e+001  4.590092e+001 
3596875000  -4.153509e+001  5.385643e+001 
3600000000  -3.970814e+001  5.115219e+001 
3603125000  -3.983382e+001  3.875763e+001 
3606250000  -4.038979e+001  3.465335e+001 
3609375000  -4.112416e+001  3.381998e+001 
3612500000  -4.122456e+001  3.364471e+001 
3615625000  -4.138834e+001  3.048659e+001 
3618750000  -4.184359e+001  3.210975e+001 
3621875000  -4.156838e+001  3.013628e+001 
3625000000  -4.176667e+001  3.043399e+001 
3628125000  -4.184326e+001  3.077840e+001 
3631250000  -4.103209e+001  2.580719e+001 
3634375000  -4.220955e+001  2.671227e+001 
3637500000  -4.205624e+001  3.451629e+001 
3640625000  -4.088045e+001  3.472357e+001 
3643750000  -4.055576e+001  3.010293e+001 
3646875000  -4.099393e+001  2.434786e+001 
3650000000  -4.155715e+001  2.246157e+001 
3653125000  -4.101372e+001  2.194191e+001 
3656250000  -4.144274e+001  2.078613e+001 
3659375000  -4.198679e+001  2.452596e+001 
3662500000  -4.118217e+001  2.288788e+001 
3665625000  -4.110493e+001  2.499553e+001 
3668750000  -4.015171e+001  2.524888e+001 
3671875000  -3.917524e+001  2.066406e+001 
3675000000  -3.961562e+001  1.420769e+001 
3678125000  -4.009315e+001  1.662366e+001 
3681250000  -3.986568e+001  1.647551e+001 
3684375000  -3.946426e+001  1.447735e+001 
3687500000  -3.962530e+001  1.475801e+001 
3690625000  -3.972923e+001  1.121224e+001 
3693750000  -4.011555e+001  1.402123e+001 
3696875000  -3.998890e+001  1.543898e+001 
3700000000  -3.870526e+001  1.454443e+001 
3703125000  -3.872785e+001  1.081626e+001 
3706250000  -3.921371e+001  1.257810e+001 
3709375000  -3.863297e+001  1.711281e+001 
3712500000  -3.747795e+001  1.668489e+001 
3715625000  -3.632438e+001  1.007560e+001 
3718750000  -3.568539e+001  8.078213e+000 
3721875000  -3.518696e+001  1.791040e+000 
3725000000  -3.516420e+001  -2.836018e+000 
3728125000  -3.535280e+001  -2.732159e+000 
3731250000  -3.462258e+001  -4.207264e+000 
3734375000  -3.364304e+001  -9.924653e+000 
3737500000  -3.407949e+001  -1.802237e+001 
3740625000  -3.479390e+001  -2.037483e+001 
3743750000  -3.450606e+001  -2.225561e+001 
3746875000  -3.462450e+001  -2.632012e+001 
3750000000  -3.481104e+001  -2.683560e+001 
3753125000  -3.452878e+001  -2.810478e+001 
3756250000  -3.447120e+001  -2.814306e+001 
3759375000  -3.425790e+001  -2.870004e+001 
3762500000  -3.348236e+001  -3.244471e+001 
3765625000  -3.410252e+001  -3.574130e+001 
3768750000  -3.423764e+001  -3.322403e+001 
3771875000  -3.247154e+001  -3.545433e+001 
3775000000  -3.219805e+001  -4.334266e+001 
3778125000  -3.249407e+001  -4.479322e+001 
3781250000  -3.229039e+001  -4.806576e+001 
3784375000  -3.228847e+001  -5.028309e+001 
3787500000  -3.161626e+001  -5.370498e+001 
3790625000  -3.217224e+001  -5.937946e+001 
3793750000  -3.231590e+001  -5.973796e+001 
3796875000  -3.140405e+001  -6.114304e+001 
3800000000  -2.996899e+001  -6.477145e+001 
3803125000  -3.069984e+001  -7.157243e+001 
3806250000  -3.129104e+001  -7.425459e+001 
3809375000  -3.095403e+001  -7.503171e+001 
3812500000  -3.033906e+001  -8.002434e+001 
3815625000  -3.090898e+001  -8.736967e+001 
3818750000  -3.196189e+001  -8.869722e+001 
3821875000  -3.207755e+001  -8.047160e+001 
3825000000  -3.008121e+001  -7.605067e+001 
3828125000  -2.874254e+001  -8.953996e+001 
3831250000  -2.920326e+001  -1.045918e+002 
3834375000  -3.064208e+001  -1.053229e+002 
3837500000  -3.158231e+001  -9.969151e+001 
3840625000  -3.050995e+001  -1.007844e+002 
3843750000  -2.918752e+001  -1.111310e+002 
3846875000  -2.994508e+001  -1.185087e+002 
3850000000  -3.116738e+001  -1.126762e+002 
3853125000  -3.046687e+001  -1.097718e+002 
3856250000  -3.033361e+001  -1.147839e+002 
3859375000  -2.963670e+001  -1.192225e+002 
3862500000  -2.919745e+001  -1.261085e+002 
3865625000  -2.952753e+001  -1.307886e+002 
3868750000  -2.953201e+001  -1.318980e+002 
3871875000  -2.876251e+001  -1.341992e+002 
3875000000  -2.891022e+001  -1.430603e+002 
3878125000  -2.996780e+001  -1.452164e+002 
3881250000  -3.002347e+001  -1.426076e+002 
3884375000  -2.949890e+001  -1.469535e+002 
3887500000  -2.960534e+001  -1.513088e+002 
3890625000  -3.009229e+001  -1.536615e+002 
3893750000  -3.059582e+001  -1.551373e+002 
3896875000  -3.074626e+001  -1.539229e+002 
3900000000  -3.097984e+001  -1.549678e+002 
3903125000  -3.053261e+001  -1.574338e+002 
3906250000  -3.037402e+001  -1.581877e+002 
3909375000  -2.970263e+001  -1.600007e+002 
3912500000  -2.964716e+001  -1.683646e+002 
3915625000  -3.089296e+001  -1.673883e+002 
3918750000  -3.094598e+001  -1.659036e+002 
3921875000  -3.059698e+001  -1.673149e+002 
3925000000  -2.979204e+001  -1.678745e+002 
3928125000  -2.916820e+001  -1.736571e+002 
3931250000  -2.957101e+001  -1.778658e+002 
3934375000  -2.982300e+001  -1.776147e+002 
3937500000  -2.990380e+001  -1.780205e+002 
3940625000  -3.033209e+001  -1.778437e+002 
3943750000  -2.943084e+001  -1.762398e+002 
3946875000  -2.819431e+001  1.784384e+002 
3950000000  -2.867870e+001  1.701803e+002 
3953125000  -2.967002e+001  1.712536e+002 
3956250000  -2.878786e+001  1.740490e+002 
3959375000  -2.737198e+001  1.710387e+002 
3962500000  -2.692589e+001  1.666998e+002 
3965625000  -2.652178e+001  1.581480e+002 
3968750000  -2.753244e+001  1.511847e+002 
3971875000  -2.790507e+001  1.498631e+002 
3975000000  -2.720682e+001  1.479342e+002 
3978125000  -2.699023e+001  1.465551e+002 
3981250000  -2.677429e+001  1.422626e+002 
3984375000  -2.700500e+001  1.363650e+002 
3987500000  -2.747860e+001  1.335642e+002 
3990625000  -2.748724e+001  1.330273e+002 
3993750000  -2.774748e+001  1.296147e+002 
3996875000  -2.764962e+001  1.275548e+002 
4000000000  -2.777912e+001  1.249860e+002 
4003125000  -2.840004e+001  1.272749e+002 
4006250000  -2.694561e+001  1.280050e+002 
4009375000  -2.574535e+001  1.153625e+002 
4012500000  -2.685846e+001  1.078600e+002 
4015625000  -2.812273e+001  1.086796e+002 
4018750000  -2.828677e+001  1.111290e+002 
4021875000  -2.761535e+001  1.091524e+002 
4025000000  -2.717993e+001  1.047426e+002 
4028125000  -2.717580e+001  1.006548e+002 
4031250000  -2.766207e+001  9.765189e+001 
4034375000  -2.788734e+001  9.779438e+001 
4037500000  -2.739425e+001  9.907788e+001 
4040625000  -2.731948e+001  9.591667e+001 
4043750000  -2.767657e+001  9.531694e+001 
4046875000  -2.719643e+001  9.527980e+001 
4050000000  -2.674394e+001  8.961824e+001 
4053125000  -2.724020e+001  8.780887e+001 
4056250000  -2.788079e+001  9.124589e+001 
4059375000  -2.663451e+001  9.384108e+001 
4062500000  -2.520832e+001  8.924590e+001 
4065625000  -2.506614e+001  8.456505e+001 
4068750000  -2.479366e+001  7.984464e+001 
4071875000  -2.418831e+001  7.217085e+001 
4075000000  -2.449000e+001  6.569305e+001 
4078125000  -2.505304e+001  6.474110e+001 
4081250000  -2.458985e+001  6.263855e+001 
4084375000  -2.414834e+001  5.583659e+001 
4087500000  -2.448377e+001  4.946430e+001 
4090625000  -2.507174e+001  4.833951e+001 
4093750000  -2.492671e+001  4.917514e+001 
4096875000  -2.449092e+001  4.366343e+001 
4100000000  -2.515498e+001  3.646484e+001 
4103125000  -2.600127e+001  3.694645e+001 
4106250000  -2.589717e+001  4.166817e+001 
4109375000  -2.500412e+001  4.117092e+001 
4112500000  -2.444028e+001  3.472286e+001 
4115625000  -2.478609e+001  3.042840e+001 
4118750000  -2.488132e+001  2.723313e+001 
4121875000  -2.444597e+001  2.252870e+001 
4125000000  -2.483461e+001  1.772229e+001 
4128125000  -2.588294e+001  1.754857e+001 
4131250000  -2.557028e+001  2.640921e+001 
4134375000  -2.331366e+001  2.132984e+001 
4137500000  -2.306201e+001  2.718017e+000 
4140625000  -2.518908e+001  -4.556681e+000 
4143750000  -2.650670e+001  1.839986e-001 
4146875000  -2.610175e+001  7.755884e+000 
4150000000  -2.519679e+001  4.556772e+000 
4153125000  -2.503149e+001  -2.265710e+000 
4156250000  -2.591978e+001  -4.412859e+000 
4159375000  -2.622898e+001  -2.463548e-001 
4162500000  -2.503075e+001  3.953901e+000 
4165625000  -2.394807e+001  1.721387e-001 
4168750000  -2.332611e+001  -7.018312e+000 
4171875000  -2.332240e+001  -1.608598e+001 
4175000000  -2.392321e+001  -2.169077e+001 
4178125000  -2.454118e+001  -2.202572e+001 
4181250000  -2.441311e+001  -2.228845e+001 
4184375000  -2.426542e+001  -2.573687e+001 
4187500000  -2.428760e+001  -2.840524e+001 
4190625000  -2.409019e+001  -3.372534e+001 
4193750000  -2.488763e+001  -3.775203e+001 
4196875000  -2.558754e+001  -3.794466e+001 
4200000000  -2.645694e+001  -3.583387e+001 
4203125000  -2.649619e+001  -2.210100e+001 
4206250000  -2.314323e+001  -2.093225e+001 
4209375000  -2.191359e+001  -4.090482e+001 
4212500000  -2.384442e+001  -5.003109e+001 
4215625000  -2.485537e+001  -4.405845e+001 
4218750000  -2.352240e+001  -3.689316e+001 
4221875000  -2.117200e+001  -4.608405e+001 
4225000000  -2.247623e+001  -5.885418e+001 
4228125000  -2.312769e+001  -5.409083e+001 
4231250000  -2.159942e+001  -5.717819e+001 
4234375000  -2.146847e+001  -6.569879e+001 
4237500000  -2.108208e+001  -6.900377e+001 
4240625000  -2.107924e+001  -7.755929e+001 
4243750000  -2.200954e+001  -8.415779e+001 
4246875000  -2.291660e+001  -8.453770e+001 
4250000000  -2.296552e+001  -8.161906e+001 
4253125000  -2.240675e+001  -8.329697e+001 
4256250000  -2.267934e+001  -8.740691e+001 
4259375000  -2.245730e+001  -8.960669e+001 
4262500000  -2.245687e+001  -9.332381e+001 
4265625000  -2.261837e+001  -9.305093e+001 
4268750000  -2.173242e+001  -9.695817e+001 
4271875000  -2.148747e+001  -1.027136e+002 
4275000000  -2.087696e+001  -1.090006e+002 
4278125000  -2.146969e+001  -1.202339e+002 
4281250000  -2.328761e+001  -1.220922e+002 
4284375000  -2.300174e+001  -1.216297e+002 
4287500000  -2.374239e+001  -1.250886e+002 
4290625000  -2.499510e+001  -1.153942e+002 
4293750000  -2.306010e+001  -1.098290e+002 
4296875000  -2.170028e+001  -1.214746e+002 
4300000000  -2.255116e+001  -1.307005e+002 
4303125000  -2.366331e+001  -1.294840e+002 
4306250000  -2.306197e+001  -1.234284e+002 
4309375000  -2.168150e+001  -1.254866e+002 
4312500000  -2.154224e+001  -1.339279e+002 
4315625000  -2.178082e+001  -1.398418e+002 
4318750000  -2.211522e+001  -1.431746e+002 
4321875000  -2.225585e+001  -1.425138e+002 
4325000000  -2.168834e+001  -1.419291e+002 
4328125000  -2.117766e+001  -1.481638e+002 
4331250000  -2.115060e+001  -1.563688e+002 
4334375000  -2.155151e+001  -1.614622e+002 
4337500000  -2.237866e+001  -1.638368e+002 
4340625000  -2.296100e+001  -1.603152e+002 
4343750000  -2.232513e+001  -1.599317e+002 
4346875000  -2.195178e+001  -1.654291e+002 
4350000000  -2.199309e+001  -1.700988e+002 
4353125000  -2.200765e+001  -1.779295e+002 
4356250000  -2.376523e+001  -1.788392e+002 
4359375000  -2.433828e+001  -1.658149e+002 
4362500000  -2.164346e+001  -1.632885e+002 
4365625000  -2.005805e+001  -1.754988e+002 
4368750000  -2.078319e+001  1.726766e+002 
4371875000  -2.197811e+001  1.735586e+002 
4375000000  -2.163375e+001  1.746987e+002 
4378125000  -2.098562e+001  1.686900e+002 
4381250000  -2.113624e+001  1.631564e+002 
4384375000  -2.098329e+001  1.587219e+002 
4387500000  -2.172188e+001  1.532350e+002 
4390625000  -2.273973e+001  1.539223e+002 
4393750000  -2.205932e+001  1.560805e+002 
4396875000  -2.139189e+001  1.538496e+002 
4400000000  -2.087427e+001  1.468188e+002 
4403125000  -2.146420e+001  1.392356e+002 
4406250000  -2.230202e+001  1.380319e+002 
4409375000  -2.228027e+001  1.357477e+002 
4412500000  -2.331831e+001  1.332012e+002 
4415625000  -2.373568e+001  1.378568e+002 
4418750000  -2.250146e+001  1.424071e+002 
