!Agilent Technologies,E8363B,MY43030201,A.06.04.32
!Agilent E8363B: A.06.04.32
!Date: Tuesday, November 11, 2014 20:57:06
!Correction: S21(Response(S21)) 
!S1P File: Measurement: S21:
# Hz S  dB   R 50
3000000000  -2.652579e+001  1.476807e+002 
3003125000  -2.795962e+001  1.429728e+002 
3006250000  -2.796982e+001  1.407172e+002 
3009375000  -2.837111e+001  1.460683e+002 
3012500000  -2.781291e+001  1.451219e+002 
3015625000  -2.688177e+001  1.382552e+002 
3018750000  -2.772005e+001  1.373244e+002 
3021875000  -2.638725e+001  1.386167e+002 
3025000000  -2.510657e+001  1.354798e+002 
3028125000  -2.411189e+001  1.302979e+002 
3031250000  -2.310867e+001  1.190426e+002 
3034375000  -2.275738e+001  1.059902e+002 
3037500000  -2.315444e+001  9.423519e+001 
3040625000  -2.445480e+001  8.918990e+001 
3043750000  -2.517975e+001  8.478662e+001 
3046875000  -2.527983e+001  7.869346e+001 
3050000000  -2.701499e+001  7.202550e+001 
3053125000  -2.713542e+001  7.840179e+001 
3056250000  -2.648837e+001  8.142734e+001 
3059375000  -2.669113e+001  8.089668e+001 
3062500000  -2.516102e+001  7.716277e+001 
3065625000  -2.497955e+001  7.144054e+001 
3068750000  -2.468802e+001  6.443889e+001 
3071875000  -2.463226e+001  6.163964e+001 
3075000000  -2.456228e+001  5.766483e+001 
3078125000  -2.430817e+001  5.288304e+001 
3081250000  -2.495639e+001  4.880627e+001 
3084375000  -2.418876e+001  4.515794e+001 
3087500000  -2.408542e+001  4.152353e+001 
3090625000  -2.379317e+001  3.158795e+001 
3093750000  -2.429370e+001  2.384160e+001 
3096875000  -2.553802e+001  1.777290e+001 
3100000000  -2.567358e+001  1.669593e+001 
3103125000  -2.605173e+001  1.790230e+001 
3106250000  -2.576690e+001  1.417939e+001 
3109375000  -2.599830e+001  1.091969e+001 
3112500000  -2.613336e+001  9.606513e+000 
3115625000  -2.592130e+001  5.420827e+000 
3118750000  -2.642038e+001  6.979807e+000 
3121875000  -2.569029e+001  -1.442854e+000 
3125000000  -2.697271e+001  -4.855736e+000 
3128125000  -2.817554e+001  3.421991e+000 
3131250000  -2.586727e+001  3.665395e+000 
3134375000  -2.460166e+001  -9.837543e+000 
3137500000  -2.526240e+001  -2.350628e+001 
3140625000  -2.684224e+001  -2.491626e+001 
3143750000  -2.789547e+001  -2.120023e+001 
3146875000  -2.747713e+001  -1.876090e+001 
3150000000  -2.649060e+001  -1.691678e+001 
3153125000  -2.645272e+001  -2.459322e+001 
3156250000  -2.748095e+001  -1.911986e+001 
3159375000  -2.584187e+001  -1.654254e+001 
3162500000  -2.381966e+001  -2.930800e+001 
3165625000  -2.478840e+001  -4.005388e+001 
3168750000  -2.512566e+001  -3.913091e+001 
3171875000  -2.420142e+001  -4.338047e+001 
3175000000  -2.487428e+001  -5.112985e+001 
3178125000  -2.462871e+001  -4.943527e+001 
3181250000  -2.345962e+001  -5.381805e+001 
3184375000  -2.270421e+001  -6.581598e+001 
3187500000  -2.382711e+001  -8.113042e+001 
3190625000  -2.659851e+001  -8.848038e+001 
3193750000  -2.714951e+001  -7.876633e+001 
3196875000  -2.674780e+001  -7.340622e+001 
3200000000  -2.581361e+001  -7.519666e+001 
3203125000  -2.495720e+001  -8.105299e+001 
3206250000  -2.527157e+001  -8.730067e+001 
3209375000  -2.481298e+001  -9.243744e+001 
3212500000  -2.494443e+001  -9.918610e+001 
3215625000  -2.510540e+001  -1.030005e+002 
3218750000  -2.583270e+001  -1.096343e+002 
3221875000  -2.675992e+001  -1.146280e+002 
3225000000  -2.639931e+001  -1.151765e+002 
3228125000  -2.673788e+001  -1.198075e+002 
3231250000  -2.746703e+001  -1.219898e+002 
3234375000  -2.732664e+001  -1.211396e+002 
3237500000  -2.734217e+001  -1.229128e+002 
3240625000  -2.698490e+001  -1.245107e+002 
3243750000  -2.671238e+001  -1.313474e+002 
3246875000  -2.718213e+001  -1.379115e+002 
3250000000  -2.760919e+001  -1.396452e+002 
3253125000  -2.780110e+001  -1.412298e+002 
3256250000  -2.763608e+001  -1.475919e+002 
3259375000  -2.793138e+001  -1.548892e+002 
3262500000  -2.921738e+001  -1.573923e+002 
3265625000  -2.985891e+001  -1.537299e+002 
3268750000  -2.983183e+001  -1.513523e+002 
3271875000  -2.955254e+001  -1.504987e+002 
3275000000  -2.851613e+001  -1.555550e+002 
3278125000  -2.898418e+001  -1.620527e+002 
3281250000  -2.928477e+001  -1.601529e+002 
3284375000  -2.881599e+001  -1.658369e+002 
3287500000  -2.895861e+001  -1.685086e+002 
3290625000  -2.938171e+001  -1.729666e+002 
3293750000  -2.908722e+001  -1.784984e+002 
3296875000  -3.017367e+001  -1.785588e+002 
3300000000  -3.002314e+001  -1.770171e+002 
3303125000  -2.884527e+001  1.788907e+002 
3306250000  -2.861393e+001  1.719632e+002 
3309375000  -2.837604e+001  1.669690e+002 
3312500000  -2.846353e+001  1.562231e+002 
3315625000  -2.948265e+001  1.487839e+002 
3318750000  -3.084695e+001  1.465769e+002 
3321875000  -3.203810e+001  1.467675e+002 
3325000000  -3.267122e+001  1.518457e+002 
3328125000  -3.228511e+001  1.532735e+002 
3331250000  -3.108019e+001  1.608138e+002 
3334375000  -2.850979e+001  1.508068e+002 
3337500000  -2.860520e+001  1.320288e+002 
3340625000  -3.000462e+001  1.212597e+002 
3343750000  -3.199495e+001  1.201598e+002 
3346875000  -3.236133e+001  1.220685e+002 
3350000000  -3.172485e+001  1.209095e+002 
3353125000  -3.195174e+001  1.164774e+002 
3356250000  -3.148835e+001  1.083706e+002 
3359375000  -3.245748e+001  1.002172e+002 
3362500000  -3.371265e+001  9.521792e+001 
3365625000  -3.435326e+001  9.375695e+001 
3368750000  -3.531281e+001  9.235494e+001 
3371875000  -3.583010e+001  8.861547e+001 
3375000000  -3.736024e+001  8.587849e+001 
3378125000  -3.841180e+001  8.614606e+001 
3381250000  -4.013760e+001  9.342971e+001 
3384375000  -3.899412e+001  1.154412e+002 
3387500000  -3.566450e+001  1.008391e+002 
3390625000  -3.776358e+001  8.128469e+001 
3393750000  -3.943670e+001  8.561209e+001 
3396875000  -3.860500e+001  9.013622e+001 
3400000000  -3.858508e+001  8.184077e+001 
3403125000  -3.949223e+001  7.826041e+001 
3406250000  -4.039714e+001  8.029920e+001 
3409375000  -4.073663e+001  7.653284e+001 
3412500000  -4.174055e+001  7.817043e+001 
3415625000  -4.256240e+001  8.206052e+001 
3418750000  -4.294434e+001  8.532272e+001 
3421875000  -4.310374e+001  9.245676e+001 
3425000000  -4.207898e+001  9.571919e+001 
3428125000  -4.126239e+001  9.465475e+001 
3431250000  -4.126964e+001  9.143158e+001 
3434375000  -4.103269e+001  8.854651e+001 
3437500000  -4.150401e+001  8.645516e+001 
3440625000  -4.185509e+001  8.979387e+001 
3443750000  -4.047738e+001  9.032810e+001 
3446875000  -3.962531e+001  8.590863e+001 
3450000000  -3.958513e+001  7.673025e+001 
3453125000  -3.977758e+001  6.710902e+001 
3456250000  -4.116631e+001  6.403777e+001 
3459375000  -4.190279e+001  6.559041e+001 
3462500000  -4.214002e+001  6.532685e+001 
3465625000  -4.220713e+001  6.118053e+001 
3468750000  -4.260499e+001  6.088005e+001 
3471875000  -4.283969e+001  6.009910e+001 
3475000000  -4.249453e+001  5.538070e+001 
3478125000  -4.301599e+001  5.020395e+001 
3481250000  -4.423085e+001  4.792759e+001 
3484375000  -4.592296e+001  5.385754e+001 
3487500000  -4.568265e+001  5.582766e+001 
3490625000  -4.484316e+001  5.495282e+001 
3493750000  -4.563957e+001  4.874587e+001 
3496875000  -4.663658e+001  5.038372e+001 
3500000000  -4.767670e+001  5.836387e+001 
3503125000  -4.744232e+001  6.435210e+001 
3506250000  -4.652786e+001  6.550507e+001 
3509375000  -4.675954e+001  5.856783e+001 
3512500000  -4.747808e+001  6.075795e+001 
3515625000  -4.813015e+001  6.451869e+001 
3518750000  -4.822548e+001  6.835571e+001 
3521875000  -4.783906e+001  7.562672e+001 
3525000000  -4.852590e+001  7.505069e+001 
3528125000  -4.797247e+001  8.793388e+001 
3531250000  -4.590971e+001  8.356734e+001 
3534375000  -4.529527e+001  7.822616e+001 
3537500000  -4.521143e+001  7.686423e+001 
3540625000  -4.540508e+001  7.540481e+001 
3543750000  -4.604969e+001  8.077357e+001 
3546875000  -4.564009e+001  9.123310e+001 
3550000000  -4.279350e+001  9.383779e+001 
3553125000  -4.154856e+001  7.675957e+001 
3556250000  -4.239814e+001  7.194599e+001 
3559375000  -4.219984e+001  7.504314e+001 
3562500000  -4.098068e+001  6.630637e+001 
3565625000  -4.197158e+001  5.995267e+001 
3568750000  -4.196299e+001  6.460168e+001 
3571875000  -4.180154e+001  6.359902e+001 
3575000000  -4.100172e+001  5.713651e+001 
3578125000  -4.158440e+001  5.445147e+001 
3581250000  -4.172567e+001  5.680735e+001 
3584375000  -4.097194e+001  5.379473e+001 
3587500000  -3.990467e+001  4.744819e+001 
3590625000  -4.040185e+001  4.022200e+001 
3593750000  -4.147233e+001  4.019794e+001 
3596875000  -4.136760e+001  4.887668e+001 
3600000000  -3.991728e+001  4.384905e+001 
3603125000  -4.016605e+001  3.104268e+001 
3606250000  -4.060269e+001  2.852391e+001 
3609375000  -4.108832e+001  2.752744e+001 
3612500000  -4.131362e+001  2.745122e+001 
3615625000  -4.141927e+001  2.452431e+001 
3618750000  -4.197991e+001  2.834802e+001 
3621875000  -4.143760e+001  2.416775e+001 
3625000000  -4.186816e+001  2.542448e+001 
3628125000  -4.148093e+001  2.371280e+001 
3631250000  -4.133323e+001  2.104142e+001 
3634375000  -4.235094e+001  2.248270e+001 
3637500000  -4.191591e+001  2.658760e+001 
3640625000  -4.085039e+001  2.867708e+001 
3643750000  -4.068720e+001  2.118813e+001 
3646875000  -4.118720e+001  1.596199e+001 
3650000000  -4.160296e+001  1.613008e+001 
3653125000  -4.127245e+001  1.472236e+001 
3656250000  -4.149994e+001  1.399613e+001 
3659375000  -4.195892e+001  1.901352e+001 
3662500000  -4.125684e+001  1.684905e+001 
3665625000  -4.120400e+001  1.782257e+001 
3668750000  -4.017276e+001  1.914824e+001 
3671875000  -3.929327e+001  1.245809e+001 
3675000000  -3.970791e+001  8.014200e+000 
3678125000  -4.024367e+001  9.257463e+000 
3681250000  -3.980767e+001  9.588364e+000 
3684375000  -3.959193e+001  6.193594e+000 
3687500000  -3.977335e+001  7.157932e+000 
3690625000  -3.966088e+001  4.619518e+000 
3693750000  -4.049521e+001  6.029191e+000 
3696875000  -3.997564e+001  9.810319e+000 
3700000000  -3.899267e+001  7.518106e+000 
3703125000  -3.875555e+001  5.307157e+000 
3706250000  -3.956533e+001  7.830767e+000 
3709375000  -3.868287e+001  9.571091e+000 
3712500000  -3.742157e+001  9.664193e+000 
3715625000  -3.649301e+001  4.276367e+000 
3718750000  -3.575924e+001  1.176320e+000 
3721875000  -3.518597e+001  -3.668910e+000 
3725000000  -3.511404e+001  -8.391346e+000 
3728125000  -3.534846e+001  -9.965982e+000 
3731250000  -3.465138e+001  -1.049423e+001 
3734375000  -3.380659e+001  -1.598807e+001 
3737500000  -3.426467e+001  -2.412457e+001 
3740625000  -3.477800e+001  -2.722724e+001 
3743750000  -3.444742e+001  -2.828297e+001 
3746875000  -3.449350e+001  -3.229374e+001 
3750000000  -3.482998e+001  -3.354003e+001 
3753125000  -3.449860e+001  -3.301953e+001 
3756250000  -3.442618e+001  -3.434446e+001 
3759375000  -3.423293e+001  -3.481217e+001 
3762500000  -3.373516e+001  -3.882731e+001 
3765625000  -3.416415e+001  -4.185884e+001 
3768750000  -3.417411e+001  -3.897088e+001 
3771875000  -3.239864e+001  -4.203020e+001 
3775000000  -3.215166e+001  -4.993088e+001 
3778125000  -3.252490e+001  -5.154643e+001 
3781250000  -3.237126e+001  -5.477446e+001 
3784375000  -3.228474e+001  -5.705168e+001 
3787500000  -3.171844e+001  -6.025362e+001 
3790625000  -3.225606e+001  -6.573389e+001 
3793750000  -3.237334e+001  -6.593222e+001 
3796875000  -3.143895e+001  -6.706184e+001 
3800000000  -2.990492e+001  -7.131192e+001 
3803125000  -3.064232e+001  -7.817564e+001 
3806250000  -3.139763e+001  -8.090439e+001 
3809375000  -3.103805e+001  -8.157311e+001 
3812500000  -3.041835e+001  -8.669878e+001 
3815625000  -3.107179e+001  -9.396042e+001 
3818750000  -3.203902e+001  -9.491518e+001 
3821875000  -3.215667e+001  -8.630652e+001 
3825000000  -3.020037e+001  -8.227534e+001 
3828125000  -2.876619e+001  -9.652710e+001 
3831250000  -2.928425e+001  -1.104233e+002 
3834375000  -3.074149e+001  -1.111432e+002 
3837500000  -3.159353e+001  -1.060503e+002 
3840625000  -3.035428e+001  -1.070446e+002 
3843750000  -2.939238e+001  -1.168227e+002 
3846875000  -3.000510e+001  -1.243722e+002 
3850000000  -3.129605e+001  -1.184811e+002 
3853125000  -3.048520e+001  -1.159879e+002 
3856250000  -3.030527e+001  -1.207877e+002 
3859375000  -2.960904e+001  -1.255546e+002 
3862500000  -2.921277e+001  -1.328651e+002 
3865625000  -2.948483e+001  -1.369654e+002 
3868750000  -2.951226e+001  -1.378522e+002 
3871875000  -2.877911e+001  -1.410898e+002 
3875000000  -2.902077e+001  -1.495300e+002 
3878125000  -2.996979e+001  -1.518805e+002 
3881250000  -3.008701e+001  -1.488499e+002 
3884375000  -2.955584e+001  -1.539352e+002 
3887500000  -2.963396e+001  -1.576184e+002 
3890625000  -3.020874e+001  -1.605351e+002 
3893750000  -3.062784e+001  -1.615268e+002 
3896875000  -3.074860e+001  -1.608369e+002 
3900000000  -3.100520e+001  -1.622007e+002 
3903125000  -3.073093e+001  -1.636605e+002 
3906250000  -3.029686e+001  -1.647636e+002 
3909375000  -2.960201e+001  -1.672685e+002 
3912500000  -2.971864e+001  -1.743712e+002 
3915625000  -3.091314e+001  -1.740886e+002 
3918750000  -3.099485e+001  -1.722139e+002 
3921875000  -3.063773e+001  -1.737501e+002 
3925000000  -2.973039e+001  -1.748810e+002 
3928125000  -2.912053e+001  1.796660e+002 
3931250000  -2.958991e+001  1.756512e+002 
3934375000  -2.978900e+001  1.761592e+002 
3937500000  -3.004894e+001  1.754792e+002 
3940625000  -3.041756e+001  1.752493e+002 
3943750000  -2.945568e+001  1.767561e+002 
3946875000  -2.823163e+001  1.717662e+002 
3950000000  -2.886201e+001  1.638741e+002 
3953125000  -2.974789e+001  1.654026e+002 
3956250000  -2.886932e+001  1.684333e+002 
3959375000  -2.751063e+001  1.646486e+002 
3962500000  -2.700994e+001  1.601817e+002 
3965625000  -2.667212e+001  1.519279e+002 
3968750000  -2.753045e+001  1.452559e+002 
3971875000  -2.787278e+001  1.433439e+002 
3975000000  -2.725483e+001  1.417563e+002 
3978125000  -2.705340e+001  1.402586e+002 
3981250000  -2.678270e+001  1.361064e+002 
3984375000  -2.701671e+001  1.296484e+002 
3987500000  -2.757812e+001  1.275365e+002 
3990625000  -2.758772e+001  1.264941e+002 
3993750000  -2.780467e+001  1.235212e+002 
3996875000  -2.770951e+001  1.210896e+002 
4000000000  -2.780382e+001  1.195941e+002 
4003125000  -2.841257e+001  1.211462e+002 
4006250000  -2.701250e+001  1.212228e+002 
4009375000  -2.578303e+001  1.092259e+002 
4012500000  -2.689383e+001  1.014748e+002 
4015625000  -2.809188e+001  1.021535e+002 
4018750000  -2.832438e+001  1.049003e+002 
4021875000  -2.763655e+001  1.029223e+002 
4025000000  -2.727007e+001  9.835493e+001 
4028125000  -2.721456e+001  9.421553e+001 
4031250000  -2.772776e+001  9.111342e+001 
4034375000  -2.792003e+001  9.104271e+001 
4037500000  -2.746122e+001  9.315269e+001 
4040625000  -2.740806e+001  8.937549e+001 
4043750000  -2.775678e+001  8.934579e+001 
4046875000  -2.730557e+001  8.876956e+001 
4050000000  -2.677293e+001  8.286044e+001 
4053125000  -2.725370e+001  8.128313e+001 
4056250000  -2.790031e+001  8.574690e+001 
4059375000  -2.656561e+001  8.722746e+001 
4062500000  -2.526863e+001  8.256533e+001 
4065625000  -2.511526e+001  7.809930e+001 
4068750000  -2.484496e+001  7.387643e+001 
4071875000  -2.420177e+001  6.571974e+001 
4075000000  -2.458635e+001  5.962475e+001 
4078125000  -2.516195e+001  5.858706e+001 
4081250000  -2.453984e+001  5.631311e+001 
4084375000  -2.422895e+001  4.957763e+001 
4087500000  -2.449981e+001  4.356266e+001 
4090625000  -2.514273e+001  4.238322e+001 
4093750000  -2.494335e+001  4.329881e+001 
4096875000  -2.449904e+001  3.710810e+001 
4100000000  -2.523758e+001  2.999555e+001 
4103125000  -2.607981e+001  3.113474e+001 
4106250000  -2.590955e+001  3.596761e+001 
4109375000  -2.504141e+001  3.522899e+001 
4112500000  -2.447186e+001  2.833022e+001 
4115625000  -2.480135e+001  2.420206e+001 
4118750000  -2.486411e+001  2.135742e+001 
4121875000  -2.447112e+001  1.684658e+001 
4125000000  -2.488778e+001  1.129983e+001 
4128125000  -2.587508e+001  1.179573e+001 
4131250000  -2.560281e+001  1.968472e+001 
4134375000  -2.322166e+001  1.537074e+001 
4137500000  -2.301625e+001  -3.448467e+000 
4140625000  -2.520936e+001  -1.089738e+001 
4143750000  -2.651084e+001  -5.691142e+000 
4146875000  -2.611468e+001  1.790168e+000 
4150000000  -2.516005e+001  -1.552838e+000 
4153125000  -2.498995e+001  -8.381859e+000 
4156250000  -2.593179e+001  -1.090063e+001 
4159375000  -2.616491e+001  -6.304626e+000 
4162500000  -2.506220e+001  -1.938836e+000 
4165625000  -2.387189e+001  -6.109524e+000 
4168750000  -2.334033e+001  -1.341848e+001 
4171875000  -2.331497e+001  -2.240846e+001 
4175000000  -2.388424e+001  -2.840448e+001 
4178125000  -2.450108e+001  -2.789115e+001 
4181250000  -2.435861e+001  -2.850559e+001 
4184375000  -2.421438e+001  -3.194184e+001 
4187500000  -2.426579e+001  -3.481504e+001 
4190625000  -2.410871e+001  -4.029832e+001 
4193750000  -2.492443e+001  -4.386346e+001 
4196875000  -2.560321e+001  -4.436820e+001 
4200000000  -2.650275e+001  -4.181939e+001 
4203125000  -2.647435e+001  -2.792141e+001 
4206250000  -2.303971e+001  -2.676339e+001 
4209375000  -2.186207e+001  -4.742650e+001 
4212500000  -2.382160e+001  -5.641962e+001 
4215625000  -2.483018e+001  -4.982316e+001 
4218750000  -2.341993e+001  -4.321923e+001 
4221875000  -2.118943e+001  -5.239853e+001 
4225000000  -2.246466e+001  -6.467265e+001 
4228125000  -2.307841e+001  -5.999115e+001 
4231250000  -2.149299e+001  -6.374687e+001 
4234375000  -2.144063e+001  -7.229492e+001 
4237500000  -2.100642e+001  -7.537795e+001 
4240625000  -2.102736e+001  -8.407428e+001 
4243750000  -2.202469e+001  -9.080505e+001 
4246875000  -2.288786e+001  -9.075948e+001 
4250000000  -2.289739e+001  -8.835856e+001 
4253125000  -2.241149e+001  -9.005025e+001 
4256250000  -2.262456e+001  -9.381273e+001 
4259375000  -2.232796e+001  -9.635046e+001 
4262500000  -2.242281e+001  -9.975916e+001 
4265625000  -2.254435e+001  -9.945216e+001 
4268750000  -2.166460e+001  -1.036566e+002 
4271875000  -2.138984e+001  -1.094367e+002 
4275000000  -2.082774e+001  -1.161892e+002 
4278125000  -2.145786e+001  -1.269005e+002 
4281250000  -2.325758e+001  -1.288748e+002 
4284375000  -2.297216e+001  -1.282610e+002 
4287500000  -2.374034e+001  -1.317753e+002 
4290625000  -2.497602e+001  -1.220946e+002 
4293750000  -2.300955e+001  -1.164084e+002 
4296875000  -2.163111e+001  -1.280853e+002 
4300000000  -2.249422e+001  -1.371336e+002 
4303125000  -2.366148e+001  -1.360177e+002 
4306250000  -2.291436e+001  -1.298403e+002 
4309375000  -2.158865e+001  -1.323810e+002 
4312500000  -2.148466e+001  -1.404347e+002 
4315625000  -2.171416e+001  -1.467180e+002 
4318750000  -2.203727e+001  -1.500147e+002 
4321875000  -2.219047e+001  -1.492309e+002 
4325000000  -2.162082e+001  -1.485810e+002 
4328125000  -2.110433e+001  -1.552051e+002 
4331250000  -2.104799e+001  -1.631757e+002 
4334375000  -2.149008e+001  -1.682434e+002 
4337500000  -2.233629e+001  -1.703884e+002 
4340625000  -2.288191e+001  -1.669603e+002 
4343750000  -2.224684e+001  -1.665382e+002 
4346875000  -2.188264e+001  -1.723284e+002 
4350000000  -2.188213e+001  -1.770408e+002 
4353125000  -2.194447e+001  1.754361e+002 
4356250000  -2.379852e+001  1.746863e+002 
4359375000  -2.426761e+001  -1.718224e+002 
4362500000  -2.149679e+001  -1.699440e+002 
4365625000  -1.993940e+001  1.778296e+002 
4368750000  -2.067397e+001  1.661487e+002 
4371875000  -2.183777e+001  1.669992e+002 
4375000000  -2.154799e+001  1.677112e+002 
4378125000  -2.090191e+001  1.617978e+002 
4381250000  -2.104907e+001  1.565073e+002 
4384375000  -2.085605e+001  1.518511e+002 
4387500000  -2.164069e+001  1.463231e+002 
4390625000  -2.260804e+001  1.470305e+002 
4393750000  -2.194547e+001  1.491051e+002 
4396875000  -2.129279e+001  1.464508e+002 
4400000000  -2.077592e+001  1.399718e+002 
4403125000  -2.140496e+001  1.323892e+002 
4406250000  -2.223447e+001  1.310338e+002 
4409375000  -2.221878e+001  1.286295e+002 
4412500000  -2.325171e+001  1.260201e+002 
4415625000  -2.358140e+001  1.311421e+002 
4418750000  -2.237123e+001  1.357745e+002 
