!Agilent Technologies,E8363B,MY43030201,A.06.04.32
!Agilent E8363B: A.06.04.32
!Date: Tuesday, November 11, 2014 20:51:30
!Correction: S21(Response(S21)) 
!S1P File: Measurement: S21:
# Hz S  dB   R 50
3000000000  -2.651112e+001  1.515108e+002 
3003125000  -2.794962e+001  1.470391e+002 
3006250000  -2.796523e+001  1.444867e+002 
3009375000  -2.834885e+001  1.495472e+002 
3012500000  -2.776108e+001  1.488329e+002 
3015625000  -2.686409e+001  1.419936e+002 
3018750000  -2.770840e+001  1.410260e+002 
3021875000  -2.643295e+001  1.426028e+002 
3025000000  -2.512899e+001  1.392130e+002 
3028125000  -2.415521e+001  1.343394e+002 
3031250000  -2.308102e+001  1.232038e+002 
3034375000  -2.273553e+001  1.101704e+002 
3037500000  -2.314506e+001  9.819700e+001 
3040625000  -2.445296e+001  9.321445e+001 
3043750000  -2.513369e+001  8.872293e+001 
3046875000  -2.525866e+001  8.261260e+001 
3050000000  -2.700210e+001  7.596685e+001 
3053125000  -2.718561e+001  8.176530e+001 
3056250000  -2.643586e+001  8.500521e+001 
3059375000  -2.668757e+001  8.474613e+001 
3062500000  -2.518985e+001  8.093625e+001 
3065625000  -2.502904e+001  7.545827e+001 
3068750000  -2.474196e+001  6.824863e+001 
3071875000  -2.466732e+001  6.530072e+001 
3075000000  -2.462436e+001  6.153968e+001 
3078125000  -2.436540e+001  5.704776e+001 
3081250000  -2.501413e+001  5.270068e+001 
3084375000  -2.424166e+001  4.899178e+001 
3087500000  -2.412835e+001  4.546806e+001 
3090625000  -2.385659e+001  3.580229e+001 
3093750000  -2.429189e+001  2.781384e+001 
3096875000  -2.555569e+001  2.172858e+001 
3100000000  -2.570621e+001  2.065844e+001 
3103125000  -2.608614e+001  2.187656e+001 
3106250000  -2.581033e+001  1.845546e+001 
3109375000  -2.603162e+001  1.486838e+001 
3112500000  -2.618059e+001  1.375325e+001 
3115625000  -2.595422e+001  9.716676e+000 
3118750000  -2.643340e+001  1.095004e+001 
3121875000  -2.578726e+001  2.815475e+000 
3125000000  -2.694984e+001  -6.272603e-001 
3128125000  -2.817338e+001  7.515354e+000 
3131250000  -2.596800e+001  7.924423e+000 
3134375000  -2.467062e+001  -5.792256e+000 
3137500000  -2.527418e+001  -1.921633e+001 
3140625000  -2.691520e+001  -2.113147e+001 
3143750000  -2.792317e+001  -1.717207e+001 
3146875000  -2.754870e+001  -1.516115e+001 
3150000000  -2.652407e+001  -1.235247e+001 
3153125000  -2.647471e+001  -2.044113e+001 
3156250000  -2.749203e+001  -1.488878e+001 
3159375000  -2.597046e+001  -1.208748e+001 
3162500000  -2.389899e+001  -2.496556e+001 
3165625000  -2.482027e+001  -3.596273e+001 
3168750000  -2.517727e+001  -3.482703e+001 
3171875000  -2.428795e+001  -3.911049e+001 
3175000000  -2.490270e+001  -4.702314e+001 
3178125000  -2.470434e+001  -4.527622e+001 
3181250000  -2.351890e+001  -4.930237e+001 
3184375000  -2.273394e+001  -6.152299e+001 
3187500000  -2.385929e+001  -7.687585e+001 
3190625000  -2.661194e+001  -8.422534e+001 
3193750000  -2.722578e+001  -7.474920e+001 
3196875000  -2.679113e+001  -6.926163e+001 
3200000000  -2.594989e+001  -7.099500e+001 
3203125000  -2.505683e+001  -7.681571e+001 
3206250000  -2.535481e+001  -8.298102e+001 
3209375000  -2.486617e+001  -8.797884e+001 
3212500000  -2.499621e+001  -9.461970e+001 
3215625000  -2.513971e+001  -9.879778e+001 
3218750000  -2.589764e+001  -1.052350e+002 
3221875000  -2.688985e+001  -1.101627e+002 
3225000000  -2.647686e+001  -1.108140e+002 
3228125000  -2.683496e+001  -1.155333e+002 
3231250000  -2.755654e+001  -1.179669e+002 
3234375000  -2.740516e+001  -1.171563e+002 
3237500000  -2.749560e+001  -1.185634e+002 
3240625000  -2.710627e+001  -1.204127e+002 
3243750000  -2.672577e+001  -1.270871e+002 
3246875000  -2.724377e+001  -1.337989e+002 
3250000000  -2.764764e+001  -1.355651e+002 
3253125000  -2.787064e+001  -1.371448e+002 
3256250000  -2.769034e+001  -1.429087e+002 
3259375000  -2.800482e+001  -1.504621e+002 
3262500000  -2.930876e+001  -1.535234e+002 
3265625000  -2.994954e+001  -1.499129e+002 
3268750000  -3.000534e+001  -1.476199e+002 
3271875000  -2.969421e+001  -1.465812e+002 
3275000000  -2.868338e+001  -1.510782e+002 
3278125000  -2.913970e+001  -1.578394e+002 
3281250000  -2.933199e+001  -1.554463e+002 
3284375000  -2.895498e+001  -1.615368e+002 
3287500000  -2.908022e+001  -1.644247e+002 
3290625000  -2.953036e+001  -1.684985e+002 
3293750000  -2.918382e+001  -1.745558e+002 
3296875000  -3.021249e+001  -1.742578e+002 
3300000000  -3.011678e+001  -1.729137e+002 
3303125000  -2.893414e+001  -1.766620e+002 
3306250000  -2.869089e+001  1.761545e+002 
3309375000  -2.848055e+001  1.712684e+002 
3312500000  -2.849646e+001  1.610497e+002 
3315625000  -2.959483e+001  1.531165e+002 
3318750000  -3.091187e+001  1.504140e+002 
3321875000  -3.217572e+001  1.507314e+002 
3325000000  -3.273493e+001  1.560101e+002 
3328125000  -3.250133e+001  1.569099e+002 
3331250000  -3.129399e+001  1.649018e+002 
3334375000  -2.867627e+001  1.550927e+002 
3337500000  -2.882615e+001  1.367070e+002 
3340625000  -3.013274e+001  1.257751e+002 
3343750000  -3.203393e+001  1.244545e+002 
3346875000  -3.267228e+001  1.254745e+002 
3350000000  -3.196787e+001  1.250785e+002 
3353125000  -3.202111e+001  1.201660e+002 
3356250000  -3.184356e+001  1.124116e+002 
3359375000  -3.268528e+001  1.040899e+002 
3362500000  -3.398387e+001  9.856967e+001 
3365625000  -3.462012e+001  9.706875e+001 
3368750000  -3.564640e+001  9.604996e+001 
3371875000  -3.603760e+001  9.270614e+001 
3375000000  -3.751567e+001  9.024897e+001 
3378125000  -3.859854e+001  9.063253e+001 
3381250000  -4.003980e+001  9.809545e+001 
3384375000  -3.929591e+001  1.193067e+002 
3387500000  -3.607548e+001  1.050067e+002 
3390625000  -3.797158e+001  8.639819e+001 
3393750000  -3.989034e+001  8.973543e+001 
3396875000  -3.893801e+001  9.331632e+001 
3400000000  -3.890108e+001  8.628596e+001 
3403125000  -3.982959e+001  8.301081e+001 
3406250000  -4.063251e+001  8.535374e+001 
3409375000  -4.132412e+001  7.967324e+001 
3412500000  -4.205886e+001  8.264820e+001 
3415625000  -4.273536e+001  8.730592e+001 
3418750000  -4.352716e+001  9.116779e+001 
3421875000  -4.360287e+001  9.881895e+001 
3425000000  -4.284043e+001  9.959372e+001 
3428125000  -4.189018e+001  9.931884e+001 
3431250000  -4.172732e+001  9.710813e+001 
3434375000  -4.134455e+001  9.436149e+001 
3437500000  -4.206753e+001  9.320292e+001 
3440625000  -4.236969e+001  9.446296e+001 
3443750000  -4.082484e+001  9.543170e+001 
3446875000  -3.982983e+001  9.265635e+001 
3450000000  -3.996667e+001  8.313470e+001 
3453125000  -4.012383e+001  7.416661e+001 
3456250000  -4.159256e+001  6.970102e+001 
3459375000  -4.251334e+001  7.238130e+001 
3462500000  -4.240143e+001  7.183794e+001 
3465625000  -4.252594e+001  6.953172e+001 
3468750000  -4.313956e+001  6.646487e+001 
3471875000  -4.334003e+001  6.742623e+001 
3475000000  -4.306540e+001  6.396186e+001 
3478125000  -4.337812e+001  5.715667e+001 
3481250000  -4.452279e+001  5.611818e+001 
3484375000  -4.636302e+001  5.910541e+001 
3487500000  -4.604020e+001  6.443230e+001 
3490625000  -4.536342e+001  6.130949e+001 
3493750000  -4.596626e+001  5.841536e+001 
3496875000  -4.735037e+001  6.020110e+001 
3500000000  -4.776958e+001  6.669197e+001 
3503125000  -4.792929e+001  7.369221e+001 
3506250000  -4.678958e+001  7.669477e+001 
3509375000  -4.665804e+001  6.859885e+001 
3512500000  -4.719476e+001  7.048402e+001 
3515625000  -4.777048e+001  6.937031e+001 
3518750000  -4.858331e+001  7.769496e+001 
3521875000  -4.800487e+001  8.220499e+001 
3525000000  -4.806084e+001  8.280148e+001 
3528125000  -4.716211e+001  9.482153e+001 
3531250000  -4.574891e+001  9.416515e+001 
3534375000  -4.505311e+001  8.861956e+001 
3537500000  -4.476526e+001  8.448683e+001 
3540625000  -4.547416e+001  8.278463e+001 
3543750000  -4.597915e+001  8.739804e+001 
3546875000  -4.540187e+001  1.005923e+002 
3550000000  -4.283170e+001  1.008152e+002 
3553125000  -4.160272e+001  8.518716e+001 
3556250000  -4.254522e+001  8.006326e+001 
3559375000  -4.206799e+001  8.087400e+001 
3562500000  -4.089421e+001  7.458068e+001 
3565625000  -4.158615e+001  6.766302e+001 
3568750000  -4.169529e+001  7.153351e+001 
3571875000  -4.169469e+001  7.043671e+001 
3575000000  -4.091803e+001  6.675248e+001 
3578125000  -4.136653e+001  6.109172e+001 
3581250000  -4.175218e+001  6.120884e+001 
3584375000  -4.043666e+001  6.310546e+001 
3587500000  -3.980462e+001  5.525649e+001 
3590625000  -4.015270e+001  4.711846e+001 
3593750000  -4.112271e+001  4.456249e+001 
3596875000  -4.114633e+001  5.286073e+001 
3600000000  -3.965583e+001  4.927724e+001 
3603125000  -4.011893e+001  3.565982e+001 
3606250000  -4.034323e+001  3.396786e+001 
3609375000  -4.086072e+001  3.371918e+001 
3612500000  -4.138237e+001  3.283161e+001 
3615625000  -4.126990e+001  3.062385e+001 
3618750000  -4.178140e+001  3.145234e+001 
3621875000  -4.117239e+001  2.895475e+001 
3625000000  -4.175535e+001  3.135863e+001 
3628125000  -4.171126e+001  2.911772e+001 
3631250000  -4.129741e+001  2.526613e+001 
3634375000  -4.245055e+001  2.611239e+001 
3637500000  -4.192433e+001  3.231439e+001 
3640625000  -4.106598e+001  3.355122e+001 
3643750000  -4.045729e+001  2.643332e+001 
3646875000  -4.088849e+001  2.195391e+001 
3650000000  -4.183554e+001  2.090765e+001 
3653125000  -4.142361e+001  2.209949e+001 
3656250000  -4.145058e+001  1.937234e+001 
3659375000  -4.216390e+001  2.631230e+001 
3662500000  -4.135582e+001  2.406973e+001 
3665625000  -4.133807e+001  2.173434e+001 
3668750000  -4.023709e+001  2.549515e+001 
3671875000  -3.890810e+001  1.944575e+001 
3675000000  -3.989653e+001  1.450467e+001 
3678125000  -4.033455e+001  1.619998e+001 
3681250000  -3.973036e+001  1.744612e+001 
3684375000  -3.952527e+001  1.569476e+001 
3687500000  -3.968482e+001  1.365938e+001 
3690625000  -3.960253e+001  1.168023e+001 
3693750000  -4.016603e+001  1.431642e+001 
3696875000  -4.009323e+001  1.712044e+001 
3700000000  -3.859860e+001  1.482815e+001 
3703125000  -3.874556e+001  1.142363e+001 
3706250000  -3.938484e+001  1.236596e+001 
3709375000  -3.866106e+001  1.733731e+001 
3712500000  -3.743702e+001  1.472803e+001 
3715625000  -3.620686e+001  8.867465e+000 
3718750000  -3.559389e+001  6.625970e+000 
3721875000  -3.511218e+001  8.155517e-001 
3725000000  -3.513707e+001  -3.199487e+000 
3728125000  -3.529829e+001  -4.447599e+000 
3731250000  -3.463264e+001  -5.106203e+000 
3734375000  -3.356996e+001  -1.103459e+001 
3737500000  -3.421471e+001  -1.826159e+001 
3740625000  -3.459608e+001  -2.165882e+001 
3743750000  -3.458216e+001  -2.309977e+001 
3746875000  -3.446957e+001  -2.681289e+001 
3750000000  -3.490799e+001  -2.675914e+001 
3753125000  -3.458966e+001  -2.772593e+001 
3756250000  -3.453172e+001  -2.908125e+001 
3759375000  -3.432235e+001  -2.916910e+001 
3762500000  -3.376001e+001  -3.344174e+001 
3765625000  -3.426587e+001  -3.550229e+001 
3768750000  -3.434714e+001  -3.396248e+001 
3771875000  -3.250023e+001  -3.600058e+001 
3775000000  -3.230513e+001  -4.394718e+001 
3778125000  -3.256733e+001  -4.535633e+001 
3781250000  -3.235936e+001  -4.857001e+001 
3784375000  -3.232764e+001  -5.022073e+001 
3787500000  -3.167842e+001  -5.364867e+001 
3790625000  -3.212922e+001  -5.996770e+001 
3793750000  -3.235935e+001  -6.002749e+001 
3796875000  -3.146007e+001  -6.121325e+001 
3800000000  -2.994412e+001  -6.475756e+001 
3803125000  -3.065547e+001  -7.165305e+001 
3806250000  -3.130284e+001  -7.422791e+001 
3809375000  -3.109223e+001  -7.513282e+001 
3812500000  -3.043200e+001  -8.027931e+001 
3815625000  -3.097992e+001  -8.726711e+001 
3818750000  -3.198710e+001  -8.892670e+001 
3821875000  -3.202667e+001  -8.080231e+001 
3825000000  -3.012424e+001  -7.578971e+001 
3828125000  -2.878272e+001  -8.986451e+001 
3831250000  -2.930505e+001  -1.046270e+002 
3834375000  -3.054646e+001  -1.054751e+002 
3837500000  -3.149581e+001  -1.001412e+002 
3840625000  -3.039997e+001  -1.007872e+002 
3843750000  -2.924691e+001  -1.113088e+002 
3846875000  -2.997229e+001  -1.183907e+002 
3850000000  -3.126962e+001  -1.126416e+002 
3853125000  -3.034605e+001  -1.094316e+002 
3856250000  -3.036364e+001  -1.150860e+002 
3859375000  -2.966859e+001  -1.197585e+002 
3862500000  -2.927265e+001  -1.269849e+002 
3865625000  -2.948362e+001  -1.311951e+002 
3868750000  -2.954361e+001  -1.319433e+002 
3871875000  -2.884262e+001  -1.349202e+002 
3875000000  -2.895940e+001  -1.430308e+002 
3878125000  -2.992561e+001  -1.458868e+002 
3881250000  -3.003632e+001  -1.431069e+002 
3884375000  -2.950410e+001  -1.475637e+002 
3887500000  -2.969694e+001  -1.514101e+002 
3890625000  -3.027479e+001  -1.543849e+002 
3893750000  -3.062403e+001  -1.556751e+002 
3896875000  -3.075110e+001  -1.543441e+002 
3900000000  -3.101692e+001  -1.557244e+002 
3903125000  -3.072036e+001  -1.572446e+002 
3906250000  -3.032969e+001  -1.584181e+002 
3909375000  -2.967238e+001  -1.605150e+002 
3912500000  -2.976152e+001  -1.685594e+002 
3915625000  -3.089410e+001  -1.675550e+002 
3918750000  -3.097513e+001  -1.653412e+002 
3921875000  -3.060160e+001  -1.675121e+002 
3925000000  -2.973112e+001  -1.684513e+002 
3928125000  -2.902289e+001  -1.736226e+002 
3931250000  -2.946425e+001  -1.776408e+002 
3934375000  -2.972000e+001  -1.773750e+002 
3937500000  -2.989791e+001  -1.773798e+002 
3940625000  -3.036146e+001  -1.779917e+002 
3943750000  -2.937679e+001  -1.765843e+002 
3946875000  -2.812164e+001  1.778454e+002 
3950000000  -2.856145e+001  1.704453e+002 
3953125000  -2.957546e+001  1.707667e+002 
3956250000  -2.876987e+001  1.738376e+002 
3959375000  -2.740702e+001  1.706766e+002 
3962500000  -2.687056e+001  1.666258e+002 
3965625000  -2.652623e+001  1.573452e+002 
3968750000  -2.748020e+001  1.508569e+002 
3971875000  -2.778149e+001  1.498434e+002 
3975000000  -2.715763e+001  1.477093e+002 
3978125000  -2.707721e+001  1.463767e+002 
3981250000  -2.673137e+001  1.416696e+002 
3984375000  -2.693033e+001  1.353198e+002 
3987500000  -2.751687e+001  1.329573e+002 
3990625000  -2.749585e+001  1.321483e+002 
3993750000  -2.774883e+001  1.295343e+002 
3996875000  -2.761542e+001  1.268490e+002 
4000000000  -2.781370e+001  1.246246e+002 
4003125000  -2.840481e+001  1.268396e+002 
4006250000  -2.698132e+001  1.276209e+002 
4009375000  -2.578087e+001  1.153616e+002 
4012500000  -2.685914e+001  1.082024e+002 
4015625000  -2.809021e+001  1.082668e+002 
4018750000  -2.828185e+001  1.109279e+002 
4021875000  -2.766912e+001  1.092983e+002 
4025000000  -2.727282e+001  1.044763e+002 
4028125000  -2.722433e+001  1.005620e+002 
4031250000  -2.763483e+001  9.755662e+001 
4034375000  -2.796611e+001  9.686839e+001 
4037500000  -2.746187e+001  9.943153e+001 
4040625000  -2.731411e+001  9.554282e+001 
4043750000  -2.768484e+001  9.524581e+001 
4046875000  -2.723411e+001  9.493138e+001 
4050000000  -2.676427e+001  8.941407e+001 
4053125000  -2.719304e+001  8.724574e+001 
4056250000  -2.781543e+001  9.117696e+001 
4059375000  -2.654005e+001  9.366434e+001 
4062500000  -2.514564e+001  8.883679e+001 
4065625000  -2.506384e+001  8.429923e+001 
4068750000  -2.475056e+001  7.948779e+001 
4071875000  -2.412206e+001  7.144453e+001 
4075000000  -2.447549e+001  6.541458e+001 
4078125000  -2.508112e+001  6.433032e+001 
4081250000  -2.453556e+001  6.200793e+001 
4084375000  -2.415180e+001  5.548700e+001 
4087500000  -2.447396e+001  4.891853e+001 
4090625000  -2.505943e+001  4.779430e+001 
4093750000  -2.492058e+001  4.871384e+001 
4096875000  -2.448059e+001  4.287844e+001 
4100000000  -2.516132e+001  3.562639e+001 
4103125000  -2.602507e+001  3.624160e+001 
4106250000  -2.590009e+001  4.133852e+001 
4109375000  -2.502275e+001  4.070541e+001 
4112500000  -2.449458e+001  3.393437e+001 
4115625000  -2.483331e+001  2.919107e+001 
4118750000  -2.492952e+001  2.691883e+001 
4121875000  -2.451111e+001  2.239713e+001 
4125000000  -2.486037e+001  1.704147e+001 
4128125000  -2.587269e+001  1.698232e+001 
4131250000  -2.562609e+001  2.540143e+001 
4134375000  -2.326408e+001  2.063940e+001 
4137500000  -2.307248e+001  2.155373e+000 
4140625000  -2.522334e+001  -5.159636e+000 
4143750000  -2.654171e+001  -2.239091e-001 
4146875000  -2.614661e+001  7.059573e+000 
4150000000  -2.526156e+001  4.159975e+000 
4153125000  -2.506829e+001  -2.397541e+000 
4156250000  -2.597551e+001  -5.020106e+000 
4159375000  -2.623875e+001  -6.422594e-001 
4162500000  -2.512113e+001  3.869209e+000 
4165625000  -2.397014e+001  -2.635294e-001 
4168750000  -2.337044e+001  -7.241654e+000 
4171875000  -2.340771e+001  -1.653225e+001 
4175000000  -2.395337e+001  -2.256567e+001 
4178125000  -2.453914e+001  -2.181342e+001 
4181250000  -2.443446e+001  -2.273991e+001 
4184375000  -2.429289e+001  -2.607701e+001 
4187500000  -2.429998e+001  -2.861160e+001 
4190625000  -2.413069e+001  -3.416320e+001 
4193750000  -2.491034e+001  -3.797716e+001 
4196875000  -2.559846e+001  -3.839045e+001 
4200000000  -2.640230e+001  -3.604437e+001 
4203125000  -2.648196e+001  -2.297326e+001 
4206250000  -2.312923e+001  -2.072122e+001 
4209375000  -2.193611e+001  -4.156324e+001 
4212500000  -2.384582e+001  -5.077453e+001 
4215625000  -2.485068e+001  -4.430264e+001 
4218750000  -2.355559e+001  -3.776431e+001 
4221875000  -2.126402e+001  -4.672769e+001 
4225000000  -2.247728e+001  -5.948543e+001 
4228125000  -2.314305e+001  -5.438166e+001 
4231250000  -2.158353e+001  -5.799844e+001 
4234375000  -2.150637e+001  -6.629953e+001 
4237500000  -2.110568e+001  -6.959480e+001 
4240625000  -2.114206e+001  -7.808386e+001 
4243750000  -2.209586e+001  -8.492811e+001 
4246875000  -2.295413e+001  -8.506692e+001 
4250000000  -2.302742e+001  -8.211929e+001 
4253125000  -2.244230e+001  -8.425266e+001 
4256250000  -2.272658e+001  -8.834497e+001 
4259375000  -2.249838e+001  -9.014894e+001 
4262500000  -2.249871e+001  -9.391888e+001 
4265625000  -2.265677e+001  -9.331252e+001 
4268750000  -2.178426e+001  -9.770496e+001 
4271875000  -2.155853e+001  -1.029460e+002 
4275000000  -2.094143e+001  -1.097378e+002 
4278125000  -2.155416e+001  -1.207343e+002 
4281250000  -2.336905e+001  -1.228160e+002 
4284375000  -2.305329e+001  -1.222100e+002 
4287500000  -2.384712e+001  -1.253273e+002 
4290625000  -2.504688e+001  -1.156940e+002 
4293750000  -2.303836e+001  -1.106410e+002 
4296875000  -2.173882e+001  -1.216432e+002 
4300000000  -2.258719e+001  -1.306962e+002 
4303125000  -2.370317e+001  -1.298507e+002 
4306250000  -2.315301e+001  -1.234974e+002 
4309375000  -2.174030e+001  -1.259882e+002 
4312500000  -2.160231e+001  -1.340586e+002 
4315625000  -2.180220e+001  -1.401859e+002 
4318750000  -2.212326e+001  -1.436108e+002 
4321875000  -2.230805e+001  -1.431155e+002 
4325000000  -2.176869e+001  -1.424535e+002 
4328125000  -2.126621e+001  -1.487210e+002 
4331250000  -2.117332e+001  -1.568484e+002 
4334375000  -2.159599e+001  -1.617953e+002 
4337500000  -2.241086e+001  -1.638994e+002 
4340625000  -2.301283e+001  -1.605300e+002 
4343750000  -2.236554e+001  -1.605253e+002 
4346875000  -2.197838e+001  -1.658047e+002 
4350000000  -2.203520e+001  -1.706174e+002 
4353125000  -2.202018e+001  -1.782302e+002 
4356250000  -2.381608e+001  -1.793175e+002 
4359375000  -2.443640e+001  -1.658713e+002 
4362500000  -2.177118e+001  -1.639771e+002 
4365625000  -2.011284e+001  -1.757142e+002 
4368750000  -2.081683e+001  1.721850e+002 
4371875000  -2.205606e+001  1.728834e+002 
4375000000  -2.169568e+001  1.742576e+002 
4378125000  -2.105471e+001  1.680555e+002 
4381250000  -2.123197e+001  1.628078e+002 
4384375000  -2.107577e+001  1.584296e+002 
4387500000  -2.180584e+001  1.525106e+002 
4390625000  -2.282365e+001  1.533635e+002 
4393750000  -2.214059e+001  1.555800e+002 
4396875000  -2.144403e+001  1.531379e+002 
4400000000  -2.094850e+001  1.463743e+002 
4403125000  -2.156660e+001  1.388950e+002 
4406250000  -2.240274e+001  1.374507e+002 
4409375000  -2.237620e+001  1.352934e+002 
4412500000  -2.340140e+001  1.324530e+002 
4415625000  -2.378498e+001  1.373985e+002 
4418750000  -2.259692e+001  1.420661e+002 
