!Agilent Technologies,E8363B,MY43030201,A.06.04.32
!Agilent E8363B: A.06.04.32
!Date: Tuesday, November 11, 2014 20:49:26
!Correction: S21(Response(S21)) 
!S1P File: Measurement: S21:
# Hz S  dB   R 50
3000000000  -2.651537e+001  1.548000e+002 
3003125000  -2.791493e+001  1.501195e+002 
3006250000  -2.797234e+001  1.474749e+002 
3009375000  -2.833883e+001  1.524032e+002 
3012500000  -2.780204e+001  1.521501e+002 
3015625000  -2.682417e+001  1.452094e+002 
3018750000  -2.767509e+001  1.441568e+002 
3021875000  -2.646258e+001  1.456428e+002 
3025000000  -2.514548e+001  1.425062e+002 
3028125000  -2.414199e+001  1.375454e+002 
3031250000  -2.313026e+001  1.262710e+002 
3034375000  -2.276587e+001  1.133998e+002 
3037500000  -2.308957e+001  1.014152e+002 
3040625000  -2.442505e+001  9.647939e+001 
3043750000  -2.513739e+001  9.197895e+001 
3046875000  -2.523868e+001  8.554906e+001 
3050000000  -2.698343e+001  7.866656e+001 
3053125000  -2.710620e+001  8.544196e+001 
3056250000  -2.645008e+001  8.816934e+001 
3059375000  -2.671928e+001  8.776878e+001 
3062500000  -2.521232e+001  8.397784e+001 
3065625000  -2.500180e+001  7.844678e+001 
3068750000  -2.472305e+001  7.136837e+001 
3071875000  -2.464903e+001  6.851248e+001 
3075000000  -2.464965e+001  6.458481e+001 
3078125000  -2.433507e+001  6.020080e+001 
3081250000  -2.499229e+001  5.590762e+001 
3084375000  -2.422509e+001  5.231440e+001 
3087500000  -2.412400e+001  4.879561e+001 
3090625000  -2.383073e+001  3.907159e+001 
3093750000  -2.420827e+001  3.100357e+001 
3096875000  -2.554527e+001  2.484576e+001 
3100000000  -2.568872e+001  2.362195e+001 
3103125000  -2.604577e+001  2.497944e+001 
3106250000  -2.578216e+001  2.161019e+001 
3109375000  -2.601556e+001  1.806172e+001 
3112500000  -2.612628e+001  1.705070e+001 
3115625000  -2.591701e+001  1.282424e+001 
3118750000  -2.638060e+001  1.393037e+001 
3121875000  -2.575659e+001  5.956962e+000 
3125000000  -2.689363e+001  2.553356e+000 
3128125000  -2.812703e+001  1.040881e+001 
3131250000  -2.595341e+001  1.105404e+001 
3134375000  -2.459001e+001  -2.704597e+000 
3137500000  -2.526400e+001  -1.623025e+001 
3140625000  -2.692667e+001  -1.812177e+001 
3143750000  -2.788303e+001  -1.402562e+001 
3146875000  -2.751652e+001  -1.217272e+001 
3150000000  -2.647857e+001  -9.649626e+000 
3153125000  -2.646022e+001  -1.772197e+001 
3156250000  -2.741080e+001  -1.218391e+001 
3159375000  -2.588183e+001  -9.351547e+000 
3162500000  -2.383783e+001  -2.187396e+001 
3165625000  -2.479535e+001  -3.310131e+001 
3168750000  -2.518052e+001  -3.207082e+001 
3171875000  -2.424052e+001  -3.620858e+001 
3175000000  -2.487558e+001  -4.405663e+001 
3178125000  -2.467047e+001  -4.229346e+001 
3181250000  -2.347168e+001  -4.627917e+001 
3184375000  -2.265311e+001  -5.845725e+001 
3187500000  -2.376843e+001  -7.387898e+001 
3190625000  -2.658204e+001  -8.158804e+001 
3193750000  -2.720452e+001  -7.177177e+001 
3196875000  -2.673312e+001  -6.610538e+001 
3200000000  -2.587535e+001  -6.809418e+001 
3203125000  -2.499788e+001  -7.355412e+001 
3206250000  -2.526474e+001  -7.999541e+001 
3209375000  -2.482139e+001  -8.494550e+001 
3212500000  -2.490952e+001  -9.149673e+001 
3215625000  -2.507172e+001  -9.578844e+001 
3218750000  -2.584581e+001  -1.022463e+002 
3221875000  -2.678556e+001  -1.074014e+002 
3225000000  -2.644866e+001  -1.079204e+002 
3228125000  -2.673963e+001  -1.123778e+002 
3231250000  -2.745930e+001  -1.151037e+002 
3234375000  -2.732736e+001  -1.141772e+002 
3237500000  -2.737298e+001  -1.156953e+002 
3240625000  -2.704791e+001  -1.174775e+002 
3243750000  -2.666728e+001  -1.240144e+002 
3246875000  -2.715426e+001  -1.305949e+002 
3250000000  -2.759754e+001  -1.325956e+002 
3253125000  -2.772316e+001  -1.342516e+002 
3256250000  -2.768718e+001  -1.401520e+002 
3259375000  -2.797391e+001  -1.475531e+002 
3262500000  -2.917949e+001  -1.508823e+002 
3265625000  -2.990795e+001  -1.470955e+002 
3268750000  -2.983083e+001  -1.447179e+002 
3271875000  -2.965638e+001  -1.435589e+002 
3275000000  -2.852724e+001  -1.485754e+002 
3278125000  -2.901790e+001  -1.547037e+002 
3281250000  -2.924289e+001  -1.531943e+002 
3284375000  -2.884462e+001  -1.588891e+002 
3287500000  -2.904326e+001  -1.618787e+002 
3290625000  -2.945495e+001  -1.658661e+002 
3293750000  -2.912114e+001  -1.714535e+002 
3296875000  -3.010642e+001  -1.713896e+002 
3300000000  -3.002511e+001  -1.701787e+002 
3303125000  -2.894024e+001  -1.741425e+002 
3306250000  -2.869309e+001  1.795194e+002 
3309375000  -2.840414e+001  1.740936e+002 
3312500000  -2.850146e+001  1.637046e+002 
3315625000  -2.950508e+001  1.560826e+002 
3318750000  -3.072907e+001  1.535490e+002 
3321875000  -3.212153e+001  1.531094e+002 
3325000000  -3.265211e+001  1.584122e+002 
3328125000  -3.251038e+001  1.599489e+002 
3331250000  -3.125218e+001  1.673514e+002 
3334375000  -2.862724e+001  1.579393e+002 
3337500000  -2.869246e+001  1.396239e+002 
3340625000  -3.002821e+001  1.286496e+002 
3343750000  -3.195935e+001  1.270005e+002 
3346875000  -3.253315e+001  1.288896e+002 
3350000000  -3.180276e+001  1.281981e+002 
3353125000  -3.192934e+001  1.229355e+002 
3356250000  -3.164782e+001  1.157610e+002 
3359375000  -3.258284e+001  1.071428e+002 
3362500000  -3.380963e+001  1.015965e+002 
3365625000  -3.450629e+001  9.995123e+001 
3368750000  -3.542546e+001  9.910286e+001 
3371875000  -3.574877e+001  9.458818e+001 
3375000000  -3.721324e+001  9.356647e+001 
3378125000  -3.834142e+001  9.225309e+001 
3381250000  -4.001547e+001  9.853704e+001 
3384375000  -3.925801e+001  1.212983e+002 
3387500000  -3.584054e+001  1.067494e+002 
3390625000  -3.756889e+001  8.867271e+001 
3393750000  -3.949614e+001  9.377555e+001 
3396875000  -3.878945e+001  9.602858e+001 
3400000000  -3.857670e+001  8.927547e+001 
3403125000  -3.965173e+001  8.377026e+001 
3406250000  -4.065790e+001  8.663693e+001 
3409375000  -4.112141e+001  8.159873e+001 
3412500000  -4.197468e+001  8.439133e+001 
3415625000  -4.253754e+001  9.013324e+001 
3418750000  -4.325505e+001  9.062389e+001 
3421875000  -4.310336e+001  9.817829e+001 
3425000000  -4.264178e+001  1.021565e+002 
3428125000  -4.150620e+001  1.019567e+002 
3431250000  -4.180490e+001  9.748619e+001 
3434375000  -4.157696e+001  9.457417e+001 
3437500000  -4.204238e+001  9.342582e+001 
3440625000  -4.207751e+001  9.616007e+001 
3443750000  -4.095174e+001  9.855845e+001 
3446875000  -4.006788e+001  9.362696e+001 
3450000000  -3.992746e+001  8.417931e+001 
3453125000  -4.006353e+001  7.600627e+001 
3456250000  -4.143152e+001  7.137650e+001 
3459375000  -4.210774e+001  7.197515e+001 
3462500000  -4.220300e+001  7.463365e+001 
3465625000  -4.238335e+001  6.912642e+001 
3468750000  -4.281809e+001  6.742477e+001 
3471875000  -4.297052e+001  7.068343e+001 
3475000000  -4.280158e+001  6.392931e+001 
3478125000  -4.349270e+001  5.814274e+001 
3481250000  -4.487123e+001  5.954842e+001 
3484375000  -4.595895e+001  6.391658e+001 
3487500000  -4.571877e+001  6.568869e+001 
3490625000  -4.508497e+001  6.509733e+001 
3493750000  -4.604281e+001  6.226028e+001 
3496875000  -4.712459e+001  6.044990e+001 
3500000000  -4.825863e+001  6.934439e+001 
3503125000  -4.814811e+001  7.497279e+001 
3506250000  -4.681050e+001  7.372043e+001 
3509375000  -4.704362e+001  7.139951e+001 
3512500000  -4.733363e+001  7.102701e+001 
3515625000  -4.749572e+001  7.513000e+001 
3518750000  -4.830338e+001  7.931004e+001 
3521875000  -4.743957e+001  8.104888e+001 
3525000000  -4.794266e+001  8.290904e+001 
3528125000  -4.729984e+001  9.464690e+001 
3531250000  -4.611954e+001  9.690215e+001 
3534375000  -4.560757e+001  8.969956e+001 
3537500000  -4.514397e+001  8.627797e+001 
3540625000  -4.543958e+001  8.566743e+001 
3543750000  -4.646915e+001  8.790656e+001 
3546875000  -4.557867e+001  1.010614e+002 
3550000000  -4.321335e+001  1.018581e+002 
3553125000  -4.169419e+001  8.737399e+001 
3556250000  -4.260070e+001  8.025814e+001 
3559375000  -4.226460e+001  8.276749e+001 
3562500000  -4.091808e+001  7.651377e+001 
3565625000  -4.170679e+001  7.033688e+001 
3568750000  -4.197001e+001  7.306746e+001 
3571875000  -4.151984e+001  7.305959e+001 
3575000000  -4.106268e+001  6.966521e+001 
3578125000  -4.154855e+001  6.424558e+001 
3581250000  -4.148708e+001  6.420458e+001 
3584375000  -4.079794e+001  6.463710e+001 
3587500000  -3.978176e+001  5.699436e+001 
3590625000  -4.035259e+001  4.924059e+001 
3593750000  -4.138951e+001  4.794847e+001 
3596875000  -4.147208e+001  5.694447e+001 
3600000000  -3.986622e+001  5.375643e+001 
3603125000  -3.987024e+001  4.104519e+001 
3606250000  -4.050672e+001  3.622736e+001 
3609375000  -4.084984e+001  3.626832e+001 
3612500000  -4.143279e+001  3.517321e+001 
3615625000  -4.151142e+001  3.261509e+001 
3618750000  -4.187653e+001  3.326548e+001 
3621875000  -4.166469e+001  3.255334e+001 
3625000000  -4.176779e+001  3.277755e+001 
3628125000  -4.177853e+001  3.381674e+001 
3631250000  -4.139871e+001  2.719457e+001 
3634375000  -4.264574e+001  2.873630e+001 
3637500000  -4.203894e+001  3.342835e+001 
3640625000  -4.091602e+001  3.459267e+001 
3643750000  -4.071468e+001  2.858808e+001 
3646875000  -4.108811e+001  2.374543e+001 
3650000000  -4.178278e+001  2.398026e+001 
3653125000  -4.142706e+001  2.248258e+001 
3656250000  -4.158701e+001  2.382750e+001 
3659375000  -4.205960e+001  2.527881e+001 
3662500000  -4.141559e+001  2.542369e+001 
3665625000  -4.150874e+001  2.453282e+001 
3668750000  -4.034876e+001  2.752385e+001 
3671875000  -3.932711e+001  2.434044e+001 
3675000000  -4.009137e+001  1.656909e+001 
3678125000  -4.051731e+001  1.829202e+001 
3681250000  -3.998597e+001  1.926869e+001 
3684375000  -3.959098e+001  1.661500e+001 
3687500000  -4.006675e+001  1.597219e+001 
3690625000  -3.988456e+001  1.451625e+001 
3693750000  -4.016211e+001  1.614734e+001 
3696875000  -4.035942e+001  1.970684e+001 
3700000000  -3.913104e+001  1.668833e+001 
3703125000  -3.908295e+001  1.475160e+001 
3706250000  -3.947185e+001  1.458854e+001 
3709375000  -3.862082e+001  1.914318e+001 
3712500000  -3.753536e+001  1.867835e+001 
3715625000  -3.662368e+001  1.276748e+001 
3718750000  -3.581107e+001  1.002376e+001 
3721875000  -3.527255e+001  5.250587e+000 
3725000000  -3.541898e+001  -4.251034e-001 
3728125000  -3.550102e+001  -1.287376e-001 
3731250000  -3.484253e+001  -1.320795e+000 
3734375000  -3.378187e+001  -7.683618e+000 
3737500000  -3.414466e+001  -1.455489e+001 
3740625000  -3.483484e+001  -1.757297e+001 
3743750000  -3.464051e+001  -2.023798e+001 
3746875000  -3.452436e+001  -2.362531e+001 
3750000000  -3.496011e+001  -2.426089e+001 
3753125000  -3.459894e+001  -2.437118e+001 
3756250000  -3.453064e+001  -2.552726e+001 
3759375000  -3.437515e+001  -2.569238e+001 
3762500000  -3.376533e+001  -3.008272e+001 
3765625000  -3.422595e+001  -3.228578e+001 
3768750000  -3.434913e+001  -3.064586e+001 
3771875000  -3.260132e+001  -3.258865e+001 
3775000000  -3.223467e+001  -4.074544e+001 
3778125000  -3.258631e+001  -4.202572e+001 
3781250000  -3.253463e+001  -4.519315e+001 
3784375000  -3.241147e+001  -4.652102e+001 
3787500000  -3.165248e+001  -5.068921e+001 
3790625000  -3.231385e+001  -5.624969e+001 
3793750000  -3.239920e+001  -5.665736e+001 
3796875000  -3.158746e+001  -5.832784e+001 
3800000000  -3.001995e+001  -6.156997e+001 
3803125000  -3.080619e+001  -6.853917e+001 
3806250000  -3.137455e+001  -7.036427e+001 
3809375000  -3.107637e+001  -7.202763e+001 
3812500000  -3.048979e+001  -7.657244e+001 
3815625000  -3.111320e+001  -8.417839e+001 
3818750000  -3.208995e+001  -8.575535e+001 
3821875000  -3.212488e+001  -7.740956e+001 
3825000000  -3.014224e+001  -7.284336e+001 
3828125000  -2.893036e+001  -8.646555e+001 
3831250000  -2.932689e+001  -1.009442e+002 
3834375000  -3.066636e+001  -1.014898e+002 
3837500000  -3.157006e+001  -9.643750e+001 
3840625000  -3.045844e+001  -9.764999e+001 
3843750000  -2.935670e+001  -1.073456e+002 
3846875000  -2.999618e+001  -1.146670e+002 
3850000000  -3.129775e+001  -1.093443e+002 
3853125000  -3.040261e+001  -1.066949e+002 
3856250000  -3.038899e+001  -1.112979e+002 
3859375000  -2.968868e+001  -1.158794e+002 
3862500000  -2.933349e+001  -1.235030e+002 
3865625000  -2.956093e+001  -1.278392e+002 
3868750000  -2.954185e+001  -1.280203e+002 
3871875000  -2.882947e+001  -1.311394e+002 
3875000000  -2.901575e+001  -1.397829e+002 
3878125000  -2.994327e+001  -1.425319e+002 
3881250000  -3.005222e+001  -1.392424e+002 
3884375000  -2.958842e+001  -1.438883e+002 
3887500000  -2.966514e+001  -1.482094e+002 
3890625000  -3.022139e+001  -1.508591e+002 
3893750000  -3.069202e+001  -1.516510e+002 
3896875000  -3.078369e+001  -1.509448e+002 
3900000000  -3.100787e+001  -1.514421e+002 
3903125000  -3.068061e+001  -1.541718e+002 
3906250000  -3.047219e+001  -1.549131e+002 
3909375000  -2.963508e+001  -1.578125e+002 
3912500000  -2.973162e+001  -1.646377e+002 
3915625000  -3.096771e+001  -1.638725e+002 
3918750000  -3.094667e+001  -1.628925e+002 
3921875000  -3.059141e+001  -1.643424e+002 
3925000000  -2.982396e+001  -1.648265e+002 
3928125000  -2.909134e+001  -1.705521e+002 
3931250000  -2.955031e+001  -1.743001e+002 
3934375000  -2.980170e+001  -1.745655e+002 
3937500000  -2.989493e+001  -1.749093e+002 
3940625000  -3.042344e+001  -1.748089e+002 
3943750000  -2.949982e+001  -1.733081e+002 
3946875000  -2.818301e+001  -1.784889e+002 
3950000000  -2.860563e+001  1.741743e+002 
3953125000  -2.956795e+001  1.738703e+002 
3956250000  -2.888939e+001  1.770798e+002 
3959375000  -2.750763e+001  1.740578e+002 
3962500000  -2.699049e+001  1.701189e+002 
3965625000  -2.657574e+001  1.610193e+002 
3968750000  -2.750180e+001  1.546926e+002 
3971875000  -2.789551e+001  1.530420e+002 
3975000000  -2.711904e+001  1.513360e+002 
3978125000  -2.697660e+001  1.502035e+002 
3981250000  -2.671941e+001  1.455290e+002 
3984375000  -2.697313e+001  1.391137e+002 
3987500000  -2.754278e+001  1.368037e+002 
3990625000  -2.750290e+001  1.361166e+002 
3993750000  -2.767772e+001  1.329512e+002 
3996875000  -2.762389e+001  1.304527e+002 
4000000000  -2.777045e+001  1.280348e+002 
4003125000  -2.829248e+001  1.303955e+002 
4006250000  -2.696126e+001  1.305844e+002 
4009375000  -2.574604e+001  1.186070e+002 
4012500000  -2.676192e+001  1.109772e+002 
4015625000  -2.802000e+001  1.114542e+002 
4018750000  -2.830137e+001  1.137278e+002 
4021875000  -2.757720e+001  1.124397e+002 
4025000000  -2.722985e+001  1.076215e+002 
4028125000  -2.718035e+001  1.037743e+002 
4031250000  -2.766264e+001  1.002072e+002 
4034375000  -2.799257e+001  1.002914e+002 
4037500000  -2.744361e+001  1.020694e+002 
4040625000  -2.731913e+001  9.870903e+001 
4043750000  -2.773296e+001  9.782237e+001 
4046875000  -2.725474e+001  9.807513e+001 
4050000000  -2.674966e+001  9.278571e+001 
4053125000  -2.724553e+001  9.036686e+001 
4056250000  -2.782904e+001  9.446708e+001 
4059375000  -2.668769e+001  9.688713e+001 
4062500000  -2.528754e+001  9.229476e+001 
4065625000  -2.511248e+001  8.733025e+001 
4068750000  -2.484438e+001  8.265166e+001 
4071875000  -2.420107e+001  7.481161e+001 
4075000000  -2.452491e+001  6.882780e+001 
4078125000  -2.512690e+001  6.764411e+001 
4081250000  -2.459309e+001  6.529704e+001 
4084375000  -2.419320e+001  5.877753e+001 
4087500000  -2.451274e+001  5.247054e+001 
4090625000  -2.511439e+001  5.121085e+001 
4093750000  -2.496204e+001  5.220313e+001 
4096875000  -2.452811e+001  4.605391e+001 
4100000000  -2.516393e+001  3.898142e+001 
4103125000  -2.605671e+001  3.925434e+001 
4106250000  -2.590368e+001  4.435439e+001 
4109375000  -2.508570e+001  4.412463e+001 
4112500000  -2.449455e+001  3.740531e+001 
4115625000  -2.481643e+001  3.333125e+001 
4118750000  -2.493678e+001  2.983357e+001 
4121875000  -2.449495e+001  2.550633e+001 
4125000000  -2.483633e+001  2.061489e+001 
4128125000  -2.590513e+001  2.017131e+001 
4131250000  -2.565608e+001  2.818759e+001 
4134375000  -2.330992e+001  2.391281e+001 
4137500000  -2.306904e+001  5.117961e+000 
4140625000  -2.526214e+001  -2.132838e+000 
4143750000  -2.656543e+001  2.728708e+000 
4146875000  -2.618221e+001  1.001754e+001 
4150000000  -2.525524e+001  7.317679e+000 
4153125000  -2.511256e+001  8.640524e-001 
4156250000  -2.602108e+001  -2.101538e+000 
4159375000  -2.631151e+001  2.539811e+000 
4162500000  -2.514469e+001  6.519399e+000 
4165625000  -2.401133e+001  2.442437e+000 
4168750000  -2.344349e+001  -4.321445e+000 
4171875000  -2.341756e+001  -1.349942e+001 
4175000000  -2.401954e+001  -1.939248e+001 
4178125000  -2.463153e+001  -1.938929e+001 
4181250000  -2.447373e+001  -1.992682e+001 
4184375000  -2.432544e+001  -2.301690e+001 
4187500000  -2.441107e+001  -2.565560e+001 
4190625000  -2.421267e+001  -3.085365e+001 
4193750000  -2.494734e+001  -3.465792e+001 
4196875000  -2.571319e+001  -3.471316e+001 
4200000000  -2.653012e+001  -3.296025e+001 
4203125000  -2.661471e+001  -2.007684e+001 
4206250000  -2.330046e+001  -1.783654e+001 
4209375000  -2.203990e+001  -3.824359e+001 
4212500000  -2.388378e+001  -4.713474e+001 
4215625000  -2.490820e+001  -4.117458e+001 
4218750000  -2.362313e+001  -3.459114e+001 
4221875000  -2.133241e+001  -4.346282e+001 
4225000000  -2.257475e+001  -5.602112e+001 
4228125000  -2.329100e+001  -5.112018e+001 
4231250000  -2.169832e+001  -5.439531e+001 
4234375000  -2.168954e+001  -6.303069e+001 
4237500000  -2.120214e+001  -6.594864e+001 
4240625000  -2.118278e+001  -7.456590e+001 
4243750000  -2.215026e+001  -8.149055e+001 
4246875000  -2.303087e+001  -8.155045e+001 
4250000000  -2.311353e+001  -7.875766e+001 
4253125000  -2.250273e+001  -8.082436e+001 
4256250000  -2.278902e+001  -8.513301e+001 
4259375000  -2.253975e+001  -8.706970e+001 
4262500000  -2.254562e+001  -9.055939e+001 
4265625000  -2.275628e+001  -9.037064e+001 
4268750000  -2.186118e+001  -9.440871e+001 
4271875000  -2.162398e+001  -9.999102e+001 
4275000000  -2.102363e+001  -1.064403e+002 
4278125000  -2.163118e+001  -1.175419e+002 
4281250000  -2.348474e+001  -1.197217e+002 
4284375000  -2.313803e+001  -1.185772e+002 
4287500000  -2.390259e+001  -1.224732e+002 
4290625000  -2.514701e+001  -1.129666e+002 
4293750000  -2.322469e+001  -1.073110e+002 
4296875000  -2.189209e+001  -1.184305e+002 
4300000000  -2.266401e+001  -1.280005e+002 
4303125000  -2.384051e+001  -1.270206e+002 
4306250000  -2.326402e+001  -1.208567e+002 
4309375000  -2.188961e+001  -1.224955e+002 
4312500000  -2.172814e+001  -1.308066e+002 
4315625000  -2.197496e+001  -1.367898e+002 
4318750000  -2.228709e+001  -1.402850e+002 
4321875000  -2.245953e+001  -1.399536e+002 
4325000000  -2.188243e+001  -1.393623e+002 
4328125000  -2.142867e+001  -1.454092e+002 
4331250000  -2.130345e+001  -1.531512e+002 
4334375000  -2.175496e+001  -1.582314e+002 
4337500000  -2.256805e+001  -1.604241e+002 
4340625000  -2.313548e+001  -1.576285e+002 
4343750000  -2.254720e+001  -1.568686e+002 
4346875000  -2.211610e+001  -1.623975e+002 
4350000000  -2.219006e+001  -1.668061e+002 
4353125000  -2.216825e+001  -1.746044e+002 
4356250000  -2.393741e+001  -1.759822e+002 
4359375000  -2.456590e+001  -1.626541e+002 
4362500000  -2.196931e+001  -1.604041e+002 
4365625000  -2.027502e+001  -1.719145e+002 
4368750000  -2.090556e+001  1.763704e+002 
4371875000  -2.216189e+001  1.767561e+002 
4375000000  -2.183907e+001  1.776996e+002 
4378125000  -2.118163e+001  1.718486e+002 
4381250000  -2.136268e+001  1.667108e+002 
4384375000  -2.116952e+001  1.619034e+002 
4387500000  -2.193701e+001  1.563329e+002 
4390625000  -2.296558e+001  1.567692e+002 
4393750000  -2.227067e+001  1.593237e+002 
4396875000  -2.161293e+001  1.568576e+002 
4400000000  -2.107554e+001  1.503653e+002 
4403125000  -2.166350e+001  1.425353e+002 
4406250000  -2.251997e+001  1.411868e+002 
4409375000  -2.248591e+001  1.388945e+002 
4412500000  -2.352264e+001  1.358620e+002 
4415625000  -2.401966e+001  1.409926e+002 
4418750000  -2.272168e+001  1.459455e+002 
