!Agilent Technologies,E8363B,MY43030201,A.06.04.32
!Agilent E8363B: A.06.04.32
!Date: Tuesday, November 11, 2014 20:45:11
!Correction: S21(Response(S21)) 
!S1P File: Measurement: S21:
# Hz S  dB   R 50
3000000000  -2.647407e+001  1.588236e+002 
3003125000  -2.787882e+001  1.543255e+002 
3006250000  -2.793959e+001  1.513980e+002 
3009375000  -2.828690e+001  1.565108e+002 
3012500000  -2.779656e+001  1.564667e+002 
3015625000  -2.683778e+001  1.492909e+002 
3018750000  -2.765894e+001  1.483204e+002 
3021875000  -2.640171e+001  1.495585e+002 
3025000000  -2.514032e+001  1.466348e+002 
3028125000  -2.416286e+001  1.420522e+002 
3031250000  -2.313309e+001  1.307287e+002 
3034375000  -2.272848e+001  1.179902e+002 
3037500000  -2.303596e+001  1.059660e+002 
3040625000  -2.439368e+001  1.007519e+002 
3043750000  -2.510199e+001  9.648127e+001 
3046875000  -2.516394e+001  9.008386e+001 
3050000000  -2.699895e+001  8.309992e+001 
3053125000  -2.715434e+001  8.920414e+001 
3056250000  -2.647184e+001  9.240217e+001 
3059375000  -2.670918e+001  9.232514e+001 
3062500000  -2.528116e+001  8.828565e+001 
3065625000  -2.503073e+001  8.277637e+001 
3068750000  -2.474261e+001  7.578770e+001 
3071875000  -2.466974e+001  7.263215e+001 
3075000000  -2.465638e+001  6.920496e+001 
3078125000  -2.436577e+001  6.447813e+001 
3081250000  -2.499796e+001  6.052847e+001 
3084375000  -2.426526e+001  5.680080e+001 
3087500000  -2.410822e+001  5.338581e+001 
3090625000  -2.384043e+001  4.381471e+001 
3093750000  -2.418490e+001  3.561345e+001 
3096875000  -2.554414e+001  2.947285e+001 
3100000000  -2.566577e+001  2.800162e+001 
3103125000  -2.604044e+001  2.971050e+001 
3106250000  -2.581063e+001  2.615617e+001 
3109375000  -2.602192e+001  2.223699e+001 
3112500000  -2.614356e+001  2.174533e+001 
3115625000  -2.593018e+001  1.711310e+001 
3118750000  -2.646585e+001  1.853808e+001 
3121875000  -2.578187e+001  1.067964e+001 
3125000000  -2.687450e+001  7.011471e+000 
3128125000  -2.815740e+001  1.461287e+001 
3131250000  -2.597986e+001  1.548035e+001 
3134375000  -2.462998e+001  2.061707e+000 
3137500000  -2.527774e+001  -1.193843e+001 
3140625000  -2.683007e+001  -1.398619e+001 
3143750000  -2.793513e+001  -9.179888e+000 
3146875000  -2.756182e+001  -7.645031e+000 
3150000000  -2.651456e+001  -5.205131e+000 
3153125000  -2.645977e+001  -1.291863e+001 
3156250000  -2.744356e+001  -7.915564e+000 
3159375000  -2.596040e+001  -4.472582e+000 
3162500000  -2.389275e+001  -1.713731e+001 
3165625000  -2.474841e+001  -2.824562e+001 
3168750000  -2.524645e+001  -2.758335e+001 
3171875000  -2.426558e+001  -3.167576e+001 
3175000000  -2.487042e+001  -3.936304e+001 
3178125000  -2.473270e+001  -3.773941e+001 
3181250000  -2.349794e+001  -4.132491e+001 
3184375000  -2.268895e+001  -5.383473e+001 
3187500000  -2.376230e+001  -6.905056e+001 
3190625000  -2.660612e+001  -7.683720e+001 
3193750000  -2.728770e+001  -6.749144e+001 
3196875000  -2.680284e+001  -6.153515e+001 
3200000000  -2.596190e+001  -6.335432e+001 
3203125000  -2.506799e+001  -6.905740e+001 
3206250000  -2.531234e+001  -7.530460e+001 
3209375000  -2.488917e+001  -8.012756e+001 
3212500000  -2.492616e+001  -8.709816e+001 
3215625000  -2.509018e+001  -9.188356e+001 
3218750000  -2.585260e+001  -9.776110e+001 
3221875000  -2.686528e+001  -1.028873e+002 
3225000000  -2.649066e+001  -1.031046e+002 
3228125000  -2.678063e+001  -1.078058e+002 
3231250000  -2.746758e+001  -1.104864e+002 
3234375000  -2.742036e+001  -1.094478e+002 
3237500000  -2.747651e+001  -1.112681e+002 
3240625000  -2.712894e+001  -1.126277e+002 
3243750000  -2.670241e+001  -1.194193e+002 
3246875000  -2.720226e+001  -1.258151e+002 
3250000000  -2.767742e+001  -1.276968e+002 
3253125000  -2.781293e+001  -1.294552e+002 
3256250000  -2.767246e+001  -1.354477e+002 
3259375000  -2.798108e+001  -1.429192e+002 
3262500000  -2.926668e+001  -1.456155e+002 
3265625000  -2.996813e+001  -1.429343e+002 
3268750000  -2.989004e+001  -1.403717e+002 
3271875000  -2.972838e+001  -1.388670e+002 
3275000000  -2.864495e+001  -1.435171e+002 
3278125000  -2.904498e+001  -1.500423e+002 
3281250000  -2.929712e+001  -1.482831e+002 
3284375000  -2.895451e+001  -1.541440e+002 
3287500000  -2.908857e+001  -1.573626e+002 
3290625000  -2.947783e+001  -1.610768e+002 
3293750000  -2.918424e+001  -1.665615e+002 
3296875000  -3.015773e+001  -1.667539e+002 
3300000000  -3.013850e+001  -1.654955e+002 
3303125000  -2.895878e+001  -1.693078e+002 
3306250000  -2.877811e+001  -1.763306e+002 
3309375000  -2.848778e+001  1.790491e+002 
3312500000  -2.851350e+001  1.689917e+002 
3315625000  -2.949183e+001  1.609029e+002 
3318750000  -3.079927e+001  1.577247e+002 
3321875000  -3.202263e+001  1.579349e+002 
3325000000  -3.260968e+001  1.626419e+002 
3328125000  -3.256961e+001  1.643418e+002 
3331250000  -3.135454e+001  1.720968e+002 
3334375000  -2.879846e+001  1.631736e+002 
3337500000  -2.878166e+001  1.445902e+002 
3340625000  -3.010944e+001  1.330926e+002 
3343750000  -3.201274e+001  1.314328e+002 
3346875000  -3.269952e+001  1.333386e+002 
3350000000  -3.200161e+001  1.322916e+002 
3353125000  -3.210866e+001  1.279836e+002 
3356250000  -3.182626e+001  1.204981e+002 
3359375000  -3.260962e+001  1.123287e+002 
3362500000  -3.391225e+001  1.067036e+002 
3365625000  -3.453746e+001  1.052912e+002 
3368750000  -3.554924e+001  1.035707e+002 
3371875000  -3.586225e+001  9.928944e+001 
3375000000  -3.739426e+001  9.759129e+001 
3378125000  -3.862722e+001  9.725197e+001 
3381250000  -4.004646e+001  1.044821e+002 
3384375000  -3.937840e+001  1.254551e+002 
3387500000  -3.618783e+001  1.131164e+002 
3390625000  -3.792088e+001  9.169785e+001 
3393750000  -3.968047e+001  9.901654e+001 
3396875000  -3.891727e+001  1.013439e+002 
3400000000  -3.888116e+001  9.541826e+001 
3403125000  -3.988595e+001  8.980688e+001 
3406250000  -4.057173e+001  9.161102e+001 
3409375000  -4.122657e+001  8.747172e+001 
3412500000  -4.217841e+001  8.877166e+001 
3415625000  -4.289988e+001  9.262243e+001 
3418750000  -4.329666e+001  9.684142e+001 
3421875000  -4.359805e+001  1.047423e+002 
3425000000  -4.276879e+001  1.079996e+002 
3428125000  -4.190821e+001  1.064018e+002 
3431250000  -4.189042e+001  1.042045e+002 
3434375000  -4.133676e+001  9.922083e+001 
3437500000  -4.192739e+001  9.946814e+001 
3440625000  -4.218803e+001  9.979391e+001 
3443750000  -4.121006e+001  1.051441e+002 
3446875000  -4.034474e+001  1.005939e+002 
3450000000  -3.995258e+001  9.039980e+001 
3453125000  -4.025785e+001  8.289232e+001 
3456250000  -4.161089e+001  7.720727e+001 
3459375000  -4.276047e+001  7.983288e+001 
3462500000  -4.276700e+001  7.927502e+001 
3465625000  -4.291184e+001  7.495759e+001 
3468750000  -4.294712e+001  7.271949e+001 
3471875000  -4.347198e+001  7.246446e+001 
3475000000  -4.305666e+001  6.935813e+001 
3478125000  -4.394958e+001  6.342673e+001 
3481250000  -4.489775e+001  6.474366e+001 
3484375000  -4.687838e+001  6.948923e+001 
3487500000  -4.633910e+001  7.265973e+001 
3490625000  -4.556347e+001  6.819583e+001 
3493750000  -4.636000e+001  6.502767e+001 
3496875000  -4.731018e+001  7.002911e+001 
3500000000  -4.843427e+001  7.401332e+001 
3503125000  -4.807523e+001  8.046845e+001 
3506250000  -4.714123e+001  8.347170e+001 
3509375000  -4.721469e+001  8.090193e+001 
3512500000  -4.751548e+001  7.870798e+001 
3515625000  -4.774347e+001  8.062955e+001 
3518750000  -4.895274e+001  8.262221e+001 
3521875000  -4.821654e+001  9.281428e+001 
3525000000  -4.833739e+001  9.126819e+001 
3528125000  -4.785311e+001  1.024965e+002 
3531250000  -4.581569e+001  1.031746e+002 
3534375000  -4.550232e+001  9.493238e+001 
3537500000  -4.552192e+001  9.170540e+001 
3540625000  -4.574143e+001  9.212284e+001 
3543750000  -4.615242e+001  9.816380e+001 
3546875000  -4.565498e+001  1.087432e+002 
3550000000  -4.307184e+001  1.101072e+002 
3553125000  -4.159462e+001  9.392304e+001 
3556250000  -4.267696e+001  8.847932e+001 
3559375000  -4.225663e+001  9.108717e+001 
3562500000  -4.114363e+001  8.283173e+001 
3565625000  -4.168547e+001  7.762864e+001 
3568750000  -4.180126e+001  8.035088e+001 
3571875000  -4.164368e+001  7.954350e+001 
3575000000  -4.129901e+001  7.590369e+001 
3578125000  -4.152905e+001  7.067528e+001 
3581250000  -4.179436e+001  7.218327e+001 
3584375000  -4.090594e+001  7.014726e+001 
3587500000  -4.017741e+001  6.432501e+001 
3590625000  -4.030621e+001  5.446548e+001 
3593750000  -4.146434e+001  5.314955e+001 
3596875000  -4.158165e+001  6.236923e+001 
3600000000  -3.994062e+001  5.959445e+001 
3603125000  -3.994756e+001  4.663927e+001 
3606250000  -4.074192e+001  4.340202e+001 
3609375000  -4.113844e+001  4.422929e+001 
3612500000  -4.138803e+001  4.194487e+001 
3615625000  -4.133263e+001  3.902860e+001 
3618750000  -4.197675e+001  4.009804e+001 
3621875000  -4.152210e+001  4.106261e+001 
3625000000  -4.191366e+001  3.927413e+001 
3628125000  -4.216520e+001  3.932203e+001 
3631250000  -4.157570e+001  3.518642e+001 
3634375000  -4.263408e+001  3.657502e+001 
3637500000  -4.209898e+001  4.097376e+001 
3640625000  -4.114152e+001  4.450035e+001 
3643750000  -4.050600e+001  3.704753e+001 
3646875000  -4.129261e+001  3.038605e+001 
3650000000  -4.169453e+001  3.018324e+001 
3653125000  -4.181945e+001  3.146793e+001 
3656250000  -4.149737e+001  2.878381e+001 
3659375000  -4.176754e+001  3.171168e+001 
3662500000  -4.146328e+001  3.220769e+001 
3665625000  -4.150567e+001  3.241047e+001 
3668750000  -4.044466e+001  3.622265e+001 
3671875000  -3.946733e+001  2.893942e+001 
3675000000  -3.987674e+001  2.416324e+001 
3678125000  -4.064484e+001  2.556677e+001 
3681250000  -4.000406e+001  2.667532e+001 
3684375000  -3.966173e+001  2.480734e+001 
3687500000  -3.981506e+001  2.428684e+001 
3690625000  -3.972934e+001  2.127368e+001 
3693750000  -4.045186e+001  2.256075e+001 
3696875000  -4.024686e+001  2.588518e+001 
3700000000  -3.909758e+001  2.414508e+001 
3703125000  -3.882439e+001  2.162130e+001 
3706250000  -3.950677e+001  2.252161e+001 
3709375000  -3.885811e+001  2.548657e+001 
3712500000  -3.733096e+001  2.587519e+001 
3715625000  -3.645007e+001  1.952314e+001 
3718750000  -3.575129e+001  1.734026e+001 
3721875000  -3.523292e+001  1.242516e+001 
3725000000  -3.513684e+001  7.527936e+000 
3728125000  -3.546561e+001  6.006798e+000 
3731250000  -3.467163e+001  5.952618e+000 
3734375000  -3.362474e+001  -3.998223e-001 
3737500000  -3.411635e+001  -8.167186e+000 
3740625000  -3.487958e+001  -1.080666e+001 
3743750000  -3.472571e+001  -1.292602e+001 
3746875000  -3.449592e+001  -1.671838e+001 
3750000000  -3.497421e+001  -1.704753e+001 
3753125000  -3.463146e+001  -1.770459e+001 
3756250000  -3.431118e+001  -1.847187e+001 
3759375000  -3.421689e+001  -1.907703e+001 
3762500000  -3.371864e+001  -2.311339e+001 
3765625000  -3.416212e+001  -2.596263e+001 
3768750000  -3.424034e+001  -2.387162e+001 
3771875000  -3.248912e+001  -2.627697e+001 
3775000000  -3.218229e+001  -3.379219e+001 
3778125000  -3.249705e+001  -3.559868e+001 
3781250000  -3.227202e+001  -3.847141e+001 
3784375000  -3.231946e+001  -4.005946e+001 
3787500000  -3.154345e+001  -4.409212e+001 
3790625000  -3.215477e+001  -4.991180e+001 
3793750000  -3.232078e+001  -5.007661e+001 
3796875000  -3.143369e+001  -5.202922e+001 
3800000000  -2.996511e+001  -5.534468e+001 
3803125000  -3.058079e+001  -6.243498e+001 
3806250000  -3.127564e+001  -6.428239e+001 
3809375000  -3.107312e+001  -6.562925e+001 
3812500000  -3.026243e+001  -7.018433e+001 
3815625000  -3.092976e+001  -7.859818e+001 
3818750000  -3.199999e+001  -7.958145e+001 
3821875000  -3.208704e+001  -7.234708e+001 
3825000000  -3.023138e+001  -6.651318e+001 
3828125000  -2.881519e+001  -7.987262e+001 
3831250000  -2.927542e+001  -9.436975e+001 
3834375000  -3.059445e+001  -9.553230e+001 
3837500000  -3.156039e+001  -9.039201e+001 
3840625000  -3.046437e+001  -9.113144e+001 
3843750000  -2.929708e+001  -1.010527e+002 
3846875000  -2.991936e+001  -1.086870e+002 
3850000000  -3.119709e+001  -1.032833e+002 
3853125000  -3.040898e+001  -1.006129e+002 
3856250000  -3.037409e+001  -1.053844e+002 
3859375000  -2.973247e+001  -1.094694e+002 
3862500000  -2.920245e+001  -1.164051e+002 
3865625000  -2.951810e+001  -1.218042e+002 
3868750000  -2.961430e+001  -1.219590e+002 
3871875000  -2.889587e+001  -1.247036e+002 
3875000000  -2.888963e+001  -1.329204e+002 
3878125000  -2.990224e+001  -1.361166e+002 
3881250000  -3.007537e+001  -1.331160e+002 
3884375000  -2.950550e+001  -1.372136e+002 
3887500000  -2.962700e+001  -1.416585e+002 
3890625000  -3.019564e+001  -1.443098e+002 
3893750000  -3.056066e+001  -1.457583e+002 
3896875000  -3.069887e+001  -1.452294e+002 
3900000000  -3.091448e+001  -1.456364e+002 
3903125000  -3.061934e+001  -1.481261e+002 
3906250000  -3.038807e+001  -1.489440e+002 
3909375000  -2.963127e+001  -1.506258e+002 
3912500000  -2.959367e+001  -1.582956e+002 
3915625000  -3.084754e+001  -1.576556e+002 
3918750000  -3.090140e+001  -1.563669e+002 
3921875000  -3.050403e+001  -1.580930e+002 
3925000000  -2.978632e+001  -1.578365e+002 
3928125000  -2.908323e+001  -1.639817e+002 
3931250000  -2.944150e+001  -1.679702e+002 
3934375000  -2.967901e+001  -1.673723e+002 
3937500000  -2.982053e+001  -1.687900e+002 
3940625000  -3.034009e+001  -1.681382e+002 
3943750000  -2.940273e+001  -1.664032e+002 
3946875000  -2.818142e+001  -1.722220e+002 
3950000000  -2.853614e+001  -1.798185e+002 
3953125000  -2.955774e+001  -1.794284e+002 
3956250000  -2.874296e+001  -1.760964e+002 
3959375000  -2.736932e+001  -1.799116e+002 
3962500000  -2.689764e+001  1.766349e+002 
3965625000  -2.645623e+001  1.674812e+002 
3968750000  -2.738268e+001  1.610576e+002 
3971875000  -2.781619e+001  1.596541e+002 
3975000000  -2.721191e+001  1.579699e+002 
3978125000  -2.697964e+001  1.563376e+002 
3981250000  -2.670753e+001  1.518329e+002 
3984375000  -2.691993e+001  1.459652e+002 
3987500000  -2.745328e+001  1.433503e+002 
3990625000  -2.741139e+001  1.425392e+002 
3993750000  -2.763875e+001  1.392151e+002 
3996875000  -2.761065e+001  1.368168e+002 
4000000000  -2.766773e+001  1.347436e+002 
4003125000  -2.822706e+001  1.365048e+002 
4006250000  -2.691439e+001  1.371875e+002 
4009375000  -2.568568e+001  1.251944e+002 
4012500000  -2.673636e+001  1.181446e+002 
4015625000  -2.794896e+001  1.181541e+002 
4018750000  -2.826202e+001  1.199608e+002 
4021875000  -2.748578e+001  1.186109e+002 
4025000000  -2.717444e+001  1.141788e+002 
4028125000  -2.713136e+001  1.095611e+002 
4031250000  -2.765015e+001  1.069526e+002 
4034375000  -2.789689e+001  1.063319e+002 
4037500000  -2.738646e+001  1.086062e+002 
4040625000  -2.724371e+001  1.051993e+002 
4043750000  -2.767245e+001  1.048700e+002 
4046875000  -2.723602e+001  1.043997e+002 
4050000000  -2.671399e+001  9.874561e+001 
4053125000  -2.717303e+001  9.666904e+001 
4056250000  -2.780283e+001  1.003032e+002 
4059375000  -2.664467e+001  1.026444e+002 
4062500000  -2.523347e+001  9.859122e+001 
4065625000  -2.502253e+001  9.374322e+001 
4068750000  -2.475642e+001  8.915849e+001 
4071875000  -2.417803e+001  8.136621e+001 
4075000000  -2.448380e+001  7.514992e+001 
4078125000  -2.505169e+001  7.416323e+001 
4081250000  -2.457035e+001  7.179543e+001 
4084375000  -2.417883e+001  6.566452e+001 
4087500000  -2.449778e+001  5.929692e+001 
4090625000  -2.507118e+001  5.771384e+001 
4093750000  -2.489328e+001  5.863818e+001 
4096875000  -2.447776e+001  5.279865e+001 
4100000000  -2.506913e+001  4.579469e+001 
4103125000  -2.598589e+001  4.634829e+001 
4106250000  -2.585639e+001  5.094796e+001 
4109375000  -2.503260e+001  5.076572e+001 
4112500000  -2.448136e+001  4.404041e+001 
4115625000  -2.475283e+001  3.970392e+001 
4118750000  -2.489326e+001  3.669285e+001 
4121875000  -2.450235e+001  3.256278e+001 
4125000000  -2.472954e+001  2.718080e+001 
4128125000  -2.577920e+001  2.681243e+001 
4131250000  -2.558965e+001  3.482397e+001 
4134375000  -2.329174e+001  3.089025e+001 
4137500000  -2.300416e+001  1.220834e+001 
4140625000  -2.511292e+001  4.765922e+000 
4143750000  -2.647082e+001  9.558915e+000 
4146875000  -2.611281e+001  1.683719e+001 
4150000000  -2.522856e+001  1.419311e+001 
4153125000  -2.504156e+001  7.544671e+000 
4156250000  -2.592605e+001  4.660213e+000 
4159375000  -2.619382e+001  9.080450e+000 
4162500000  -2.508877e+001  1.328022e+001 
4165625000  -2.395549e+001  9.339202e+000 
4168750000  -2.336541e+001  2.461024e+000 
4171875000  -2.332737e+001  -6.810802e+000 
4175000000  -2.391542e+001  -1.237956e+001 
4178125000  -2.448512e+001  -1.276252e+001 
4181250000  -2.442740e+001  -1.318276e+001 
4184375000  -2.427624e+001  -1.623433e+001 
4187500000  -2.430158e+001  -1.886385e+001 
4190625000  -2.408999e+001  -2.396045e+001 
4193750000  -2.490546e+001  -2.772876e+001 
4196875000  -2.560925e+001  -2.837145e+001 
4200000000  -2.635614e+001  -2.614253e+001 
4203125000  -2.661077e+001  -1.364516e+001 
4206250000  -2.331187e+001  -1.113548e+001 
4209375000  -2.195516e+001  -3.098541e+001 
4212500000  -2.383252e+001  -3.997839e+001 
4215625000  -2.488006e+001  -3.440142e+001 
4218750000  -2.365108e+001  -2.770562e+001 
4221875000  -2.127697e+001  -3.638972e+001 
4225000000  -2.247011e+001  -4.956912e+001 
4228125000  -2.320946e+001  -4.444611e+001 
4231250000  -2.164292e+001  -4.762814e+001 
4234375000  -2.155875e+001  -5.602104e+001 
4237500000  -2.114922e+001  -5.930765e+001 
4240625000  -2.114095e+001  -6.758212e+001 
4243750000  -2.207832e+001  -7.432126e+001 
4246875000  -2.294571e+001  -7.473165e+001 
4250000000  -2.305262e+001  -7.190639e+001 
4253125000  -2.241878e+001  -7.375784e+001 
4256250000  -2.270361e+001  -7.796541e+001 
4259375000  -2.249891e+001  -8.001040e+001 
4262500000  -2.246173e+001  -8.381989e+001 
4265625000  -2.269112e+001  -8.311983e+001 
4268750000  -2.184696e+001  -8.734344e+001 
4271875000  -2.156874e+001  -9.288622e+001 
4275000000  -2.089589e+001  -9.906680e+001 
4278125000  -2.148026e+001  -1.104253e+002 
4281250000  -2.327390e+001  -1.127259e+002 
4284375000  -2.308923e+001  -1.119604e+002 
4287500000  -2.372099e+001  -1.155626e+002 
4290625000  -2.505859e+001  -1.066894e+002 
4293750000  -2.316858e+001  -1.003028e+002 
4296875000  -2.177304e+001  -1.117137e+002 
4300000000  -2.256781e+001  -1.207628e+002 
4303125000  -2.369864e+001  -1.198133e+002 
4306250000  -2.324049e+001  -1.143411e+002 
4309375000  -2.180209e+001  -1.154296e+002 
4312500000  -2.164148e+001  -1.239960e+002 
4315625000  -2.187063e+001  -1.300233e+002 
4318750000  -2.214615e+001  -1.333923e+002 
4321875000  -2.234119e+001  -1.329639e+002 
4325000000  -2.177300e+001  -1.322452e+002 
4328125000  -2.129267e+001  -1.383889e+002 
4331250000  -2.122803e+001  -1.461720e+002 
4334375000  -2.162308e+001  -1.510581e+002 
4337500000  -2.239859e+001  -1.536331e+002 
4340625000  -2.295642e+001  -1.507117e+002 
4343750000  -2.245213e+001  -1.497743e+002 
4346875000  -2.208125e+001  -1.551797e+002 
4350000000  -2.203487e+001  -1.599282e+002 
4353125000  -2.205802e+001  -1.673288e+002 
4356250000  -2.367415e+001  -1.691952e+002 
4359375000  -2.446004e+001  -1.566647e+002 
4362500000  -2.192617e+001  -1.536449e+002 
4365625000  -2.018065e+001  -1.651924e+002 
4368750000  -2.080486e+001  -1.769802e+002 
4371875000  -2.206443e+001  -1.767335e+002 
4375000000  -2.175239e+001  -1.754010e+002 
4378125000  -2.110692e+001  1.789296e+002 
4381250000  -2.125304e+001  1.735429e+002 
4384375000  -2.108329e+001  1.691824e+002 
4387500000  -2.174595e+001  1.633381e+002 
4390625000  -2.279118e+001  1.636382e+002 
4393750000  -2.207984e+001  1.662854e+002 
4396875000  -2.147200e+001  1.639121e+002 
4400000000  -2.097327e+001  1.573462e+002 
4403125000  -2.148963e+001  1.496704e+002 
4406250000  -2.235623e+001  1.481835e+002 
4409375000  -2.232647e+001  1.458880e+002 
4412500000  -2.333367e+001  1.432560e+002 
4415625000  -2.377874e+001  1.476442e+002 
4418750000  -2.260585e+001  1.525057e+002 
