!Agilent Technologies,E8363B,MY43030201,A.06.04.32
!Agilent E8363B: A.06.04.32
!Date: Tuesday, November 11, 2014 20:51:27
!Correction: S21(Response(S21)) 
!S1P File: Measurement: S21:
# Hz S  dB   R 50
3000000000  -2.652835e+001  1.518691e+002 
3003125000  -2.792576e+001  1.472361e+002 
3006250000  -2.797575e+001  1.445681e+002 
3009375000  -2.833613e+001  1.497763e+002 
3012500000  -2.781751e+001  1.492900e+002 
3015625000  -2.685144e+001  1.421544e+002 
3018750000  -2.770860e+001  1.413344e+002 
3021875000  -2.644371e+001  1.428830e+002 
3025000000  -2.513402e+001  1.396929e+002 
3028125000  -2.414731e+001  1.345003e+002 
3031250000  -2.310665e+001  1.232629e+002 
3034375000  -2.275888e+001  1.103444e+002 
3037500000  -2.313078e+001  9.850037e+001 
3040625000  -2.444377e+001  9.335780e+001 
3043750000  -2.514286e+001  8.893829e+001 
3046875000  -2.527622e+001  8.269624e+001 
3050000000  -2.702864e+001  7.593102e+001 
3053125000  -2.710825e+001  8.256905e+001 
3056250000  -2.647575e+001  8.539545e+001 
3059375000  -2.668805e+001  8.508640e+001 
3062500000  -2.522120e+001  8.148130e+001 
3065625000  -2.502584e+001  7.550545e+001 
3068750000  -2.469583e+001  6.852705e+001 
3071875000  -2.467766e+001  6.567714e+001 
3075000000  -2.460817e+001  6.178756e+001 
3078125000  -2.436590e+001  5.725957e+001 
3081250000  -2.501724e+001  5.299670e+001 
3084375000  -2.424000e+001  4.951394e+001 
3087500000  -2.410677e+001  4.568061e+001 
3090625000  -2.381299e+001  3.604354e+001 
3093750000  -2.426919e+001  2.833164e+001 
3096875000  -2.559103e+001  2.218773e+001 
3100000000  -2.567167e+001  2.077696e+001 
3103125000  -2.610530e+001  2.212404e+001 
3106250000  -2.580571e+001  1.861314e+001 
3109375000  -2.602716e+001  1.508372e+001 
3112500000  -2.619731e+001  1.396707e+001 
3115625000  -2.599818e+001  1.005076e+001 
3118750000  -2.644460e+001  1.102652e+001 
3121875000  -2.576125e+001  3.127089e+000 
3125000000  -2.694453e+001  -3.072374e-001 
3128125000  -2.817240e+001  7.848086e+000 
3131250000  -2.594501e+001  8.016960e+000 
3134375000  -2.462115e+001  -5.537344e+000 
3137500000  -2.527282e+001  -1.894689e+001 
3140625000  -2.691654e+001  -2.064812e+001 
3143750000  -2.796529e+001  -1.654402e+001 
3146875000  -2.749247e+001  -1.434166e+001 
3150000000  -2.649375e+001  -1.244611e+001 
3153125000  -2.653812e+001  -2.022862e+001 
3156250000  -2.746160e+001  -1.497168e+001 
3159375000  -2.590382e+001  -1.180600e+001 
3162500000  -2.388672e+001  -2.471118e+001 
3165625000  -2.484051e+001  -3.564804e+001 
3168750000  -2.521039e+001  -3.494798e+001 
3171875000  -2.425402e+001  -3.895615e+001 
3175000000  -2.489750e+001  -4.660212e+001 
3178125000  -2.469658e+001  -4.489697e+001 
3181250000  -2.352746e+001  -4.898097e+001 
3184375000  -2.272493e+001  -6.143576e+001 
3187500000  -2.382965e+001  -7.659476e+001 
3190625000  -2.659981e+001  -8.410995e+001 
3193750000  -2.722926e+001  -7.436106e+001 
3196875000  -2.679420e+001  -6.899397e+001 
3200000000  -2.591546e+001  -7.076881e+001 
3203125000  -2.503680e+001  -7.649656e+001 
3206250000  -2.534312e+001  -8.279551e+001 
3209375000  -2.485852e+001  -8.792380e+001 
3212500000  -2.498384e+001  -9.442515e+001 
3215625000  -2.513932e+001  -9.873782e+001 
3218750000  -2.592184e+001  -1.047281e+002 
3221875000  -2.683539e+001  -1.099738e+002 
3225000000  -2.646821e+001  -1.105085e+002 
3228125000  -2.679381e+001  -1.151278e+002 
3231250000  -2.749300e+001  -1.176065e+002 
3234375000  -2.740775e+001  -1.167425e+002 
3237500000  -2.744345e+001  -1.184233e+002 
3240625000  -2.707529e+001  -1.203140e+002 
3243750000  -2.672576e+001  -1.268457e+002 
3246875000  -2.717718e+001  -1.332558e+002 
3250000000  -2.770600e+001  -1.352452e+002 
3253125000  -2.786685e+001  -1.369459e+002 
3256250000  -2.766770e+001  -1.427068e+002 
3259375000  -2.801244e+001  -1.507570e+002 
3262500000  -2.927147e+001  -1.531995e+002 
3265625000  -2.991806e+001  -1.496716e+002 
3268750000  -2.993047e+001  -1.469530e+002 
3271875000  -2.966789e+001  -1.461314e+002 
3275000000  -2.855923e+001  -1.509248e+002 
3278125000  -2.907752e+001  -1.574626e+002 
3281250000  -2.935446e+001  -1.550875e+002 
3284375000  -2.893357e+001  -1.611680e+002 
3287500000  -2.908717e+001  -1.640833e+002 
3290625000  -2.949158e+001  -1.687022e+002 
3293750000  -2.917856e+001  -1.740892e+002 
3296875000  -3.014914e+001  -1.739546e+002 
3300000000  -3.008845e+001  -1.730402e+002 
3303125000  -2.892752e+001  -1.766734e+002 
3306250000  -2.872652e+001  1.766861e+002 
3309375000  -2.847099e+001  1.718090e+002 
3312500000  -2.849870e+001  1.614449e+002 
3315625000  -2.949762e+001  1.533858e+002 
3318750000  -3.089755e+001  1.509321e+002 
3321875000  -3.212672e+001  1.504237e+002 
3325000000  -3.264938e+001  1.560813e+002 
3328125000  -3.251683e+001  1.575722e+002 
3331250000  -3.132252e+001  1.649153e+002 
3334375000  -2.871284e+001  1.553324e+002 
3337500000  -2.874107e+001  1.369635e+002 
3340625000  -3.012389e+001  1.260359e+002 
3343750000  -3.211522e+001  1.246175e+002 
3346875000  -3.257288e+001  1.261441e+002 
3350000000  -3.192833e+001  1.250524e+002 
3353125000  -3.208606e+001  1.203746e+002 
3356250000  -3.173407e+001  1.131802e+002 
3359375000  -3.256995e+001  1.045468e+002 
3362500000  -3.385411e+001  9.886529e+001 
3365625000  -3.457598e+001  9.741179e+001 
3368750000  -3.554059e+001  9.533772e+001 
3371875000  -3.588873e+001  9.187783e+001 
3375000000  -3.745864e+001  9.052920e+001 
3378125000  -3.839382e+001  8.970190e+001 
3381250000  -3.990186e+001  9.847191e+001 
3384375000  -3.923844e+001  1.179422e+002 
3387500000  -3.625303e+001  1.060951e+002 
3390625000  -3.787198e+001  8.776108e+001 
3393750000  -3.961262e+001  9.045385e+001 
3396875000  -3.873248e+001  9.350040e+001 
3400000000  -3.873956e+001  8.646111e+001 
3403125000  -3.994982e+001  8.105949e+001 
3406250000  -4.059034e+001  8.593654e+001 
3409375000  -4.112110e+001  8.143932e+001 
3412500000  -4.199170e+001  8.246973e+001 
3415625000  -4.285489e+001  8.664685e+001 
3418750000  -4.311760e+001  9.049199e+001 
3421875000  -4.336945e+001  9.883929e+001 
3425000000  -4.248203e+001  1.002674e+002 
3428125000  -4.175766e+001  9.988830e+001 
3431250000  -4.150472e+001  9.642580e+001 
3434375000  -4.140665e+001  9.313418e+001 
3437500000  -4.177388e+001  9.163386e+001 
3440625000  -4.218901e+001  9.402767e+001 
3443750000  -4.114148e+001  9.713892e+001 
3446875000  -3.985771e+001  9.307269e+001 
3450000000  -3.973628e+001  8.340486e+001 
3453125000  -4.014945e+001  7.398465e+001 
3456250000  -4.124341e+001  6.774666e+001 
3459375000  -4.215978e+001  7.114021e+001 
3462500000  -4.257894e+001  7.124999e+001 
3465625000  -4.224210e+001  6.963265e+001 
3468750000  -4.273660e+001  6.412413e+001 
3471875000  -4.277189e+001  6.652685e+001 
3475000000  -4.260865e+001  6.233517e+001 
3478125000  -4.356986e+001  5.812860e+001 
3481250000  -4.444800e+001  5.491997e+001 
3484375000  -4.614814e+001  6.120468e+001 
3487500000  -4.578920e+001  6.473175e+001 
3490625000  -4.512235e+001  6.112339e+001 
3493750000  -4.600126e+001  5.604042e+001 
3496875000  -4.646612e+001  5.965556e+001 
3500000000  -4.795488e+001  6.558398e+001 
3503125000  -4.802671e+001  7.227166e+001 
3506250000  -4.690071e+001  7.221549e+001 
3509375000  -4.683304e+001  7.107278e+001 
3512500000  -4.736268e+001  6.452627e+001 
3515625000  -4.744185e+001  7.137535e+001 
3518750000  -4.797708e+001  7.961914e+001 
3521875000  -4.810809e+001  8.148506e+001 
3525000000  -4.818584e+001  7.992380e+001 
3528125000  -4.741611e+001  9.223499e+001 
3531250000  -4.566814e+001  9.394395e+001 
3534375000  -4.520721e+001  8.681805e+001 
3537500000  -4.501163e+001  8.166612e+001 
3540625000  -4.532456e+001  8.262647e+001 
3543750000  -4.601949e+001  8.406803e+001 
3546875000  -4.525610e+001  9.744388e+001 
3550000000  -4.299797e+001  1.006629e+002 
3553125000  -4.167235e+001  8.539077e+001 
3556250000  -4.270293e+001  7.841372e+001 
3559375000  -4.197027e+001  8.181304e+001 
3562500000  -4.081381e+001  7.351473e+001 
3565625000  -4.170470e+001  6.720787e+001 
3568750000  -4.177917e+001  7.184637e+001 
3571875000  -4.179480e+001  7.153269e+001 
3575000000  -4.119119e+001  6.637438e+001 
3578125000  -4.150019e+001  6.128732e+001 
3581250000  -4.167924e+001  6.377098e+001 
3584375000  -4.081969e+001  6.084647e+001 
3587500000  -3.987219e+001  5.552602e+001 
3590625000  -4.027743e+001  4.571493e+001 
3593750000  -4.145595e+001  4.577104e+001 
3596875000  -4.128930e+001  5.499146e+001 
3600000000  -3.957688e+001  5.092316e+001 
3603125000  -3.986341e+001  3.695800e+001 
3606250000  -4.067206e+001  3.467601e+001 
3609375000  -4.092035e+001  3.419426e+001 
3612500000  -4.124571e+001  3.266730e+001 
3615625000  -4.148885e+001  3.010317e+001 
3618750000  -4.195039e+001  3.319143e+001 
3621875000  -4.144262e+001  3.090049e+001 
3625000000  -4.165629e+001  3.113915e+001 
3628125000  -4.136530e+001  3.191397e+001 
3631250000  -4.125375e+001  2.550055e+001 
3634375000  -4.230174e+001  2.747243e+001 
3637500000  -4.196201e+001  3.287528e+001 
3640625000  -4.090497e+001  3.471949e+001 
3643750000  -4.078745e+001  2.871380e+001 
3646875000  -4.097667e+001  2.347128e+001 
3650000000  -4.165742e+001  2.306530e+001 
3653125000  -4.162602e+001  2.111218e+001 
3656250000  -4.166225e+001  2.119450e+001 
3659375000  -4.193454e+001  2.406972e+001 
3662500000  -4.113031e+001  2.326449e+001 
3665625000  -4.122806e+001  2.351525e+001 
3668750000  -4.021145e+001  2.616504e+001 
3671875000  -3.921632e+001  2.008438e+001 
3675000000  -3.962398e+001  1.400684e+001 
3678125000  -4.024421e+001  1.679309e+001 
3681250000  -3.977246e+001  1.640181e+001 
3684375000  -3.973990e+001  1.498799e+001 
3687500000  -3.969709e+001  1.355551e+001 
3690625000  -3.945393e+001  1.104720e+001 
3693750000  -4.032213e+001  1.273035e+001 
3696875000  -3.971766e+001  1.602335e+001 
3700000000  -3.878019e+001  1.389820e+001 
3703125000  -3.870844e+001  1.147407e+001 
3706250000  -3.937859e+001  1.292663e+001 
3709375000  -3.852777e+001  1.593868e+001 
3712500000  -3.754258e+001  1.737523e+001 
3715625000  -3.624863e+001  8.933571e+000 
3718750000  -3.560308e+001  7.172094e+000 
3721875000  -3.529845e+001  1.926717e+000 
3725000000  -3.515145e+001  -2.298432e+000 
3728125000  -3.533013e+001  -4.017000e+000 
3731250000  -3.461416e+001  -4.441584e+000 
3734375000  -3.371571e+001  -1.027008e+001 
3737500000  -3.417013e+001  -1.787086e+001 
3740625000  -3.462498e+001  -2.048419e+001 
3743750000  -3.448213e+001  -2.281047e+001 
3746875000  -3.451200e+001  -2.588139e+001 
3750000000  -3.492483e+001  -2.587311e+001 
3753125000  -3.442021e+001  -2.733903e+001 
3756250000  -3.450923e+001  -2.865471e+001 
3759375000  -3.425998e+001  -2.885925e+001 
3762500000  -3.368835e+001  -3.268832e+001 
3765625000  -3.422710e+001  -3.611219e+001 
3768750000  -3.424235e+001  -3.328217e+001 
3771875000  -3.252827e+001  -3.604038e+001 
3775000000  -3.224916e+001  -4.333854e+001 
3778125000  -3.249745e+001  -4.528622e+001 
3781250000  -3.237682e+001  -4.839867e+001 
3784375000  -3.229798e+001  -5.026731e+001 
3787500000  -3.163589e+001  -5.425045e+001 
3790625000  -3.218611e+001  -5.936173e+001 
3793750000  -3.228787e+001  -6.055071e+001 
3796875000  -3.142781e+001  -6.098280e+001 
3800000000  -2.995131e+001  -6.455844e+001 
3803125000  -3.066853e+001  -7.163596e+001 
3806250000  -3.130494e+001  -7.443017e+001 
3809375000  -3.103332e+001  -7.548183e+001 
3812500000  -3.036541e+001  -8.021892e+001 
3815625000  -3.095127e+001  -8.743148e+001 
3818750000  -3.193535e+001  -8.952641e+001 
3821875000  -3.206182e+001  -7.991113e+001 
3825000000  -3.016183e+001  -7.609750e+001 
3828125000  -2.872640e+001  -8.979768e+001 
3831250000  -2.925839e+001  -1.039585e+002 
3834375000  -3.065620e+001  -1.052411e+002 
3837500000  -3.158161e+001  -9.991950e+001 
3840625000  -3.037937e+001  -1.013674e+002 
3843750000  -2.925604e+001  -1.107986e+002 
3846875000  -2.993533e+001  -1.178024e+002 
3850000000  -3.126427e+001  -1.121671e+002 
3853125000  -3.034674e+001  -1.105787e+002 
3856250000  -3.026527e+001  -1.150064e+002 
3859375000  -2.966592e+001  -1.194101e+002 
3862500000  -2.919482e+001  -1.268113e+002 
3865625000  -2.950811e+001  -1.311062e+002 
3868750000  -2.950480e+001  -1.318084e+002 
3871875000  -2.879135e+001  -1.346547e+002 
3875000000  -2.890117e+001  -1.437478e+002 
3878125000  -2.996712e+001  -1.457189e+002 
3881250000  -3.005944e+001  -1.426356e+002 
3884375000  -2.953133e+001  -1.471050e+002 
3887500000  -2.970352e+001  -1.515482e+002 
3890625000  -3.019965e+001  -1.537251e+002 
3893750000  -3.057037e+001  -1.556057e+002 
3896875000  -3.076232e+001  -1.547499e+002 
3900000000  -3.090803e+001  -1.556050e+002 
3903125000  -3.066496e+001  -1.572389e+002 
3906250000  -3.039135e+001  -1.587470e+002 
3909375000  -2.960138e+001  -1.613048e+002 
3912500000  -2.972079e+001  -1.685283e+002 
3915625000  -3.090530e+001  -1.675368e+002 
3918750000  -3.086273e+001  -1.661128e+002 
3921875000  -3.048341e+001  -1.674560e+002 
3925000000  -2.977343e+001  -1.678491e+002 
3928125000  -2.907815e+001  -1.738338e+002 
3931250000  -2.954316e+001  -1.775042e+002 
3934375000  -2.976005e+001  -1.778141e+002 
3937500000  -2.997686e+001  -1.782329e+002 
3940625000  -3.037418e+001  -1.782736e+002 
3943750000  -2.939852e+001  -1.765207e+002 
3946875000  -2.822564e+001  1.775846e+002 
3950000000  -2.866270e+001  1.703537e+002 
3953125000  -2.961550e+001  1.709813e+002 
3956250000  -2.878619e+001  1.736016e+002 
3959375000  -2.741314e+001  1.709787e+002 
3962500000  -2.692528e+001  1.671481e+002 
3965625000  -2.662393e+001  1.575788e+002 
3968750000  -2.753818e+001  1.516244e+002 
3971875000  -2.785209e+001  1.493400e+002 
3975000000  -2.724679e+001  1.478486e+002 
3978125000  -2.695168e+001  1.466893e+002 
3981250000  -2.674038e+001  1.418524e+002 
3984375000  -2.694599e+001  1.358152e+002 
3987500000  -2.753662e+001  1.337386e+002 
3990625000  -2.751187e+001  1.323974e+002 
3993750000  -2.772976e+001  1.295547e+002 
3996875000  -2.770324e+001  1.267903e+002 
4000000000  -2.776515e+001  1.254342e+002 
4003125000  -2.833367e+001  1.272033e+002 
4006250000  -2.695502e+001  1.275163e+002 
4009375000  -2.576195e+001  1.149019e+002 
4012500000  -2.684792e+001  1.079013e+002 
4015625000  -2.802728e+001  1.079250e+002 
4018750000  -2.825845e+001  1.101356e+002 
4021875000  -2.755838e+001  1.090283e+002 
4025000000  -2.716379e+001  1.042489e+002 
4028125000  -2.716060e+001  1.003073e+002 
4031250000  -2.770229e+001  9.700673e+001 
4034375000  -2.795237e+001  9.719636e+001 
4037500000  -2.742457e+001  9.895394e+001 
4040625000  -2.733987e+001  9.534799e+001 
4043750000  -2.768034e+001  9.466303e+001 
4046875000  -2.726247e+001  9.483588e+001 
4050000000  -2.671922e+001  8.910275e+001 
4053125000  -2.721977e+001  8.750320e+001 
4056250000  -2.780294e+001  9.119823e+001 
4059375000  -2.666551e+001  9.341693e+001 
4062500000  -2.523985e+001  8.889283e+001 
4065625000  -2.507678e+001  8.435052e+001 
4068750000  -2.483292e+001  7.939611e+001 
4071875000  -2.418177e+001  7.158485e+001 
4075000000  -2.451895e+001  6.521178e+001 
4078125000  -2.506153e+001  6.414398e+001 
4081250000  -2.456076e+001  6.184799e+001 
4084375000  -2.416066e+001  5.550410e+001 
4087500000  -2.452376e+001  4.919861e+001 
4090625000  -2.514886e+001  4.781003e+001 
4093750000  -2.493817e+001  4.892301e+001 
4096875000  -2.447228e+001  4.299026e+001 
4100000000  -2.516948e+001  3.574712e+001 
4103125000  -2.602810e+001  3.643832e+001 
4106250000  -2.590997e+001  4.137523e+001 
4109375000  -2.505475e+001  4.090931e+001 
4112500000  -2.448682e+001  3.417234e+001 
4115625000  -2.474693e+001  3.004584e+001 
4118750000  -2.490389e+001  2.687967e+001 
4121875000  -2.450796e+001  2.227666e+001 
4125000000  -2.485222e+001  1.705000e+001 
4128125000  -2.590777e+001  1.726799e+001 
4131250000  -2.563232e+001  2.536323e+001 
4134375000  -2.324953e+001  2.077143e+001 
4137500000  -2.304760e+001  2.128415e+000 
4140625000  -2.517270e+001  -5.012148e+000 
4143750000  -2.656561e+001  -3.115956e-001 
4146875000  -2.616352e+001  7.260827e+000 
4150000000  -2.520793e+001  4.032374e+000 
4153125000  -2.502591e+001  -2.352625e+000 
4156250000  -2.595634e+001  -4.931810e+000 
4159375000  -2.619553e+001  -6.575223e-001 
4162500000  -2.502839e+001  3.688390e+000 
4165625000  -2.396566e+001  -3.839397e-001 
4168750000  -2.334462e+001  -7.336129e+000 
4171875000  -2.338866e+001  -1.647463e+001 
4175000000  -2.391551e+001  -2.239254e+001 
4178125000  -2.454783e+001  -2.254525e+001 
4181250000  -2.439756e+001  -2.300729e+001 
4184375000  -2.424908e+001  -2.581351e+001 
4187500000  -2.431317e+001  -2.882336e+001 
4190625000  -2.413582e+001  -3.408180e+001 
4193750000  -2.493653e+001  -3.785351e+001 
4196875000  -2.560455e+001  -3.810649e+001 
4200000000  -2.646275e+001  -3.618686e+001 
4203125000  -2.658538e+001  -2.267612e+001 
4206250000  -2.313769e+001  -2.102029e+001 
4209375000  -2.200449e+001  -4.148837e+001 
4212500000  -2.385896e+001  -5.055968e+001 
4215625000  -2.486620e+001  -4.435339e+001 
4218750000  -2.358274e+001  -3.756535e+001 
4221875000  -2.126094e+001  -4.651888e+001 
4225000000  -2.254273e+001  -5.922095e+001 
4228125000  -2.319597e+001  -5.435939e+001 
4231250000  -2.166109e+001  -5.759703e+001 
4234375000  -2.153778e+001  -6.593564e+001 
4237500000  -2.113583e+001  -6.936612e+001 
4240625000  -2.114343e+001  -7.762971e+001 
4243750000  -2.206300e+001  -8.437131e+001 
4246875000  -2.300390e+001  -8.470856e+001 
4250000000  -2.305841e+001  -8.218255e+001 
4253125000  -2.245566e+001  -8.379137e+001 
4256250000  -2.271751e+001  -8.810979e+001 
4259375000  -2.250668e+001  -9.013219e+001 
4262500000  -2.248857e+001  -9.370123e+001 
4265625000  -2.264870e+001  -9.334740e+001 
4268750000  -2.182613e+001  -9.744646e+001 
4271875000  -2.154767e+001  -1.029703e+002 
4275000000  -2.095717e+001  -1.096249e+002 
4278125000  -2.151421e+001  -1.207452e+002 
4281250000  -2.336742e+001  -1.227162e+002 
4284375000  -2.303185e+001  -1.218353e+002 
4287500000  -2.384478e+001  -1.255461e+002 
4290625000  -2.510797e+001  -1.157661e+002 
4293750000  -2.311741e+001  -1.103584e+002 
4296875000  -2.175980e+001  -1.218541e+002 
4300000000  -2.262461e+001  -1.309442e+002 
4303125000  -2.373979e+001  -1.301644e+002 
4306250000  -2.311489e+001  -1.239276e+002 
4309375000  -2.173367e+001  -1.258682e+002 
4312500000  -2.163346e+001  -1.339976e+002 
4315625000  -2.185612e+001  -1.403945e+002 
4318750000  -2.216373e+001  -1.435007e+002 
4321875000  -2.235146e+001  -1.430346e+002 
4325000000  -2.174689e+001  -1.421767e+002 
4328125000  -2.127995e+001  -1.485074e+002 
4331250000  -2.119978e+001  -1.568951e+002 
4334375000  -2.161881e+001  -1.617730e+002 
4337500000  -2.245000e+001  -1.641301e+002 
4340625000  -2.303799e+001  -1.610029e+002 
4343750000  -2.242776e+001  -1.602522e+002 
4346875000  -2.198906e+001  -1.657695e+002 
4350000000  -2.202715e+001  -1.705325e+002 
4353125000  -2.210263e+001  -1.781889e+002 
4356250000  -2.383592e+001  -1.793145e+002 
4359375000  -2.450489e+001  -1.659917e+002 
4362500000  -2.173812e+001  -1.634046e+002 
4365625000  -2.015055e+001  -1.755423e+002 
4368750000  -2.080471e+001  1.724785e+002 
4371875000  -2.207838e+001  1.732162e+002 
4375000000  -2.175938e+001  1.741926e+002 
4378125000  -2.105125e+001  1.683132e+002 
4381250000  -2.125933e+001  1.630949e+002 
4384375000  -2.104357e+001  1.586085e+002 
4387500000  -2.178797e+001  1.530527e+002 
4390625000  -2.283573e+001  1.535441e+002 
4393750000  -2.211207e+001  1.559227e+002 
4396875000  -2.147670e+001  1.534700e+002 
4400000000  -2.094820e+001  1.466541e+002 
4403125000  -2.154213e+001  1.391177e+002 
4406250000  -2.237363e+001  1.377722e+002 
4409375000  -2.232693e+001  1.353138e+002 
4412500000  -2.338471e+001  1.329577e+002 
4415625000  -2.378614e+001  1.378530e+002 
4418750000  -2.253933e+001  1.423919e+002 
