!Agilent Technologies,E8363B,MY43030201,A.06.04.32
!Agilent E8363B: A.06.04.32
!Date: Tuesday, November 11, 2014 20:49:34
!Correction: S21(Response(S21)) 
!S1P File: Measurement: S21:
# Hz S  dB   R 50
3000000000  -2.652388e+001  1.536903e+002 
3003125000  -2.794862e+001  1.493817e+002 
3006250000  -2.793333e+001  1.464507e+002 
3009375000  -2.829557e+001  1.513562e+002 
3012500000  -2.778928e+001  1.513579e+002 
3015625000  -2.683231e+001  1.442200e+002 
3018750000  -2.765173e+001  1.432968e+002 
3021875000  -2.644588e+001  1.450755e+002 
3025000000  -2.514395e+001  1.415962e+002 
3028125000  -2.415158e+001  1.368906e+002 
3031250000  -2.313069e+001  1.255458e+002 
3034375000  -2.274008e+001  1.124745e+002 
3037500000  -2.308353e+001  1.005920e+002 
3040625000  -2.444072e+001  9.533649e+001 
3043750000  -2.515462e+001  9.113530e+001 
3046875000  -2.524922e+001  8.488663e+001 
3050000000  -2.699800e+001  7.809021e+001 
3053125000  -2.713469e+001  8.438276e+001 
3056250000  -2.643854e+001  8.744798e+001 
3059375000  -2.670543e+001  8.709008e+001 
3062500000  -2.520753e+001  8.328706e+001 
3065625000  -2.501162e+001  7.767696e+001 
3068750000  -2.469043e+001  7.065378e+001 
3071875000  -2.463998e+001  6.757977e+001 
3075000000  -2.463935e+001  6.395198e+001 
3078125000  -2.435370e+001  5.933022e+001 
3081250000  -2.498013e+001  5.503668e+001 
3084375000  -2.426614e+001  5.158065e+001 
3087500000  -2.414789e+001  4.787388e+001 
3090625000  -2.382568e+001  3.818269e+001 
3093750000  -2.423768e+001  3.017522e+001 
3096875000  -2.555881e+001  2.399376e+001 
3100000000  -2.570309e+001  2.268836e+001 
3103125000  -2.608276e+001  2.392552e+001 
3106250000  -2.579782e+001  2.081810e+001 
3109375000  -2.602571e+001  1.718718e+001 
3112500000  -2.617564e+001  1.610823e+001 
3115625000  -2.595964e+001  1.202531e+001 
3118750000  -2.644353e+001  1.328243e+001 
3121875000  -2.576762e+001  5.108453e+000 
3125000000  -2.688980e+001  1.747465e+000 
3128125000  -2.812324e+001  9.857855e+000 
3131250000  -2.594724e+001  1.022363e+001 
3134375000  -2.464027e+001  -3.182372e+000 
3137500000  -2.527769e+001  -1.682376e+001 
3140625000  -2.694818e+001  -1.856335e+001 
3143750000  -2.791503e+001  -1.485876e+001 
3146875000  -2.748600e+001  -1.269812e+001 
3150000000  -2.652164e+001  -1.023553e+001 
3153125000  -2.645881e+001  -1.811841e+001 
3156250000  -2.747424e+001  -1.290980e+001 
3159375000  -2.593365e+001  -9.469093e+000 
3162500000  -2.388216e+001  -2.243612e+001 
3165625000  -2.478463e+001  -3.366998e+001 
3168750000  -2.521758e+001  -3.280421e+001 
3171875000  -2.424743e+001  -3.686942e+001 
3175000000  -2.490755e+001  -4.465052e+001 
3178125000  -2.466788e+001  -4.306713e+001 
3181250000  -2.350672e+001  -4.703962e+001 
3184375000  -2.269978e+001  -5.937884e+001 
3187500000  -2.377399e+001  -7.430499e+001 
3190625000  -2.660444e+001  -8.175751e+001 
3193750000  -2.722344e+001  -7.259348e+001 
3196875000  -2.678373e+001  -6.706570e+001 
3200000000  -2.590118e+001  -6.872595e+001 
3203125000  -2.502770e+001  -7.456462e+001 
3206250000  -2.530324e+001  -8.095181e+001 
3209375000  -2.486403e+001  -8.582645e+001 
3212500000  -2.497947e+001  -9.248265e+001 
3215625000  -2.510877e+001  -9.682240e+001 
3218750000  -2.584850e+001  -1.028210e+002 
3221875000  -2.683324e+001  -1.077810e+002 
3225000000  -2.648541e+001  -1.086189e+002 
3228125000  -2.678964e+001  -1.128824e+002 
3231250000  -2.753157e+001  -1.156944e+002 
3234375000  -2.742502e+001  -1.150290e+002 
3237500000  -2.740940e+001  -1.164711e+002 
3240625000  -2.709708e+001  -1.180233e+002 
3243750000  -2.672422e+001  -1.248643e+002 
3246875000  -2.722926e+001  -1.315131e+002 
3250000000  -2.767002e+001  -1.330644e+002 
3253125000  -2.786730e+001  -1.349509e+002 
3256250000  -2.767014e+001  -1.406462e+002 
3259375000  -2.803910e+001  -1.485726e+002 
3262500000  -2.926049e+001  -1.514937e+002 
3265625000  -2.995222e+001  -1.478050e+002 
3268750000  -2.992478e+001  -1.451426e+002 
3271875000  -2.969912e+001  -1.440790e+002 
3275000000  -2.863957e+001  -1.487234e+002 
3278125000  -2.905558e+001  -1.554175e+002 
3281250000  -2.929765e+001  -1.537255e+002 
3284375000  -2.886693e+001  -1.595213e+002 
3287500000  -2.905661e+001  -1.621104e+002 
3290625000  -2.951372e+001  -1.665943e+002 
3293750000  -2.917023e+001  -1.719885e+002 
3296875000  -3.019064e+001  -1.719360e+002 
3300000000  -3.009336e+001  -1.709187e+002 
3303125000  -2.896409e+001  -1.750227e+002 
3306250000  -2.866325e+001  1.783341e+002 
3309375000  -2.850524e+001  1.734376e+002 
3312500000  -2.851856e+001  1.633235e+002 
3315625000  -2.950864e+001  1.552884e+002 
3318750000  -3.081555e+001  1.525461e+002 
3321875000  -3.220297e+001  1.525974e+002 
3325000000  -3.270169e+001  1.573580e+002 
3328125000  -3.239375e+001  1.591545e+002 
3331250000  -3.134072e+001  1.664995e+002 
3334375000  -2.872392e+001  1.571316e+002 
3337500000  -2.876222e+001  1.389779e+002 
3340625000  -3.009876e+001  1.279674e+002 
3343750000  -3.206262e+001  1.265407e+002 
3346875000  -3.267602e+001  1.275471e+002 
3350000000  -3.198506e+001  1.267305e+002 
3353125000  -3.200046e+001  1.224032e+002 
3356250000  -3.178242e+001  1.146890e+002 
3359375000  -3.268354e+001  1.059649e+002 
3362500000  -3.389332e+001  1.009582e+002 
3365625000  -3.462473e+001  9.958363e+001 
3368750000  -3.565068e+001  9.744627e+001 
3371875000  -3.599873e+001  9.410137e+001 
3375000000  -3.741565e+001  9.206264e+001 
3378125000  -3.861115e+001  9.138844e+001 
3381250000  -4.005793e+001  9.856243e+001 
3384375000  -3.937203e+001  1.193485e+002 
3387500000  -3.614312e+001  1.071610e+002 
3390625000  -3.802156e+001  8.867926e+001 
3393750000  -3.978221e+001  9.116417e+001 
3396875000  -3.892067e+001  9.464776e+001 
3400000000  -3.871526e+001  8.945222e+001 
3403125000  -3.983224e+001  8.422736e+001 
3406250000  -4.073270e+001  8.731749e+001 
3409375000  -4.122042e+001  8.033463e+001 
3412500000  -4.221797e+001  8.373813e+001 
3415625000  -4.293790e+001  8.907226e+001 
3418750000  -4.351432e+001  9.181205e+001 
3421875000  -4.382003e+001  9.901019e+001 
3425000000  -4.264539e+001  1.029382e+002 
3428125000  -4.198332e+001  1.023544e+002 
3431250000  -4.167922e+001  9.923183e+001 
3434375000  -4.147888e+001  9.436339e+001 
3437500000  -4.199197e+001  9.370483e+001 
3440625000  -4.241397e+001  9.708576e+001 
3443750000  -4.116727e+001  9.928189e+001 
3446875000  -4.028449e+001  9.406773e+001 
3450000000  -4.006291e+001  8.593710e+001 
3453125000  -4.036966e+001  7.594096e+001 
3456250000  -4.165166e+001  7.261768e+001 
3459375000  -4.249730e+001  7.536493e+001 
3462500000  -4.251105e+001  7.440580e+001 
3465625000  -4.244380e+001  7.164072e+001 
3468750000  -4.322410e+001  7.092412e+001 
3471875000  -4.324540e+001  6.950198e+001 
3475000000  -4.307618e+001  6.448516e+001 
3478125000  -4.378380e+001  6.039835e+001 
3481250000  -4.483629e+001  5.811672e+001 
3484375000  -4.605347e+001  6.666778e+001 
3487500000  -4.608435e+001  6.945232e+001 
3490625000  -4.582251e+001  6.560384e+001 
3493750000  -4.634405e+001  6.226405e+001 
3496875000  -4.708228e+001  6.368311e+001 
3500000000  -4.836139e+001  7.393475e+001 
3503125000  -4.785270e+001  7.652209e+001 
3506250000  -4.678691e+001  7.677068e+001 
3509375000  -4.695833e+001  7.481293e+001 
3512500000  -4.714925e+001  7.319279e+001 
3515625000  -4.763785e+001  7.287095e+001 
3518750000  -4.791891e+001  8.051383e+001 
3521875000  -4.735692e+001  8.559348e+001 
3525000000  -4.877168e+001  8.568163e+001 
3528125000  -4.781550e+001  9.858458e+001 
3531250000  -4.576855e+001  9.884811e+001 
3534375000  -4.503821e+001  8.786096e+001 
3537500000  -4.486008e+001  8.833881e+001 
3540625000  -4.533074e+001  8.416503e+001 
3543750000  -4.619225e+001  9.086420e+001 
3546875000  -4.496966e+001  1.005925e+002 
3550000000  -4.276379e+001  1.036278e+002 
3553125000  -4.140708e+001  8.784653e+001 
3556250000  -4.248928e+001  8.300862e+001 
3559375000  -4.191164e+001  8.417921e+001 
3562500000  -4.065836e+001  7.663656e+001 
3565625000  -4.152939e+001  7.085102e+001 
3568750000  -4.158448e+001  7.435947e+001 
3571875000  -4.152517e+001  7.384132e+001 
3575000000  -4.096291e+001  6.839964e+001 
3578125000  -4.113426e+001  6.326863e+001 
3581250000  -4.129679e+001  6.418961e+001 
3584375000  -4.049815e+001  6.411588e+001 
3587500000  -3.979465e+001  5.590982e+001 
3590625000  -4.012199e+001  4.928343e+001 
3593750000  -4.101292e+001  4.814973e+001 
3596875000  -4.091153e+001  5.572311e+001 
3600000000  -3.959219e+001  5.275090e+001 
3603125000  -3.952941e+001  3.870246e+001 
3606250000  -4.025206e+001  3.561550e+001 
3609375000  -4.075101e+001  3.528887e+001 
3612500000  -4.096012e+001  3.389977e+001 
3615625000  -4.114086e+001  3.116260e+001 
3618750000  -4.190614e+001  3.249458e+001 
3621875000  -4.151601e+001  3.207898e+001 
3625000000  -4.149052e+001  3.166292e+001 
3628125000  -4.165197e+001  3.387136e+001 
3631250000  -4.135361e+001  2.695185e+001 
3634375000  -4.260526e+001  2.801235e+001 
3637500000  -4.189523e+001  3.299716e+001 
3640625000  -4.091361e+001  3.415577e+001 
3643750000  -4.071889e+001  2.969919e+001 
3646875000  -4.141604e+001  2.339628e+001 
3650000000  -4.170132e+001  2.269238e+001 
3653125000  -4.159059e+001  2.247164e+001 
3656250000  -4.194997e+001  2.075878e+001 
3659375000  -4.188579e+001  2.708343e+001 
3662500000  -4.136254e+001  2.579587e+001 
3665625000  -4.156086e+001  2.301511e+001 
3668750000  -4.045997e+001  2.752324e+001 
3671875000  -3.948088e+001  2.204156e+001 
3675000000  -3.995220e+001  1.594538e+001 
3678125000  -4.045977e+001  1.883991e+001 
3681250000  -3.990109e+001  1.705516e+001 
3684375000  -3.978611e+001  1.666363e+001 
3687500000  -3.991220e+001  1.578092e+001 
3690625000  -3.996232e+001  1.246970e+001 
3693750000  -4.040589e+001  1.545577e+001 
3696875000  -4.027123e+001  1.956441e+001 
3700000000  -3.887105e+001  1.798817e+001 
3703125000  -3.897900e+001  1.229354e+001 
3706250000  -3.951529e+001  1.520135e+001 
3709375000  -3.894461e+001  1.938714e+001 
3712500000  -3.768139e+001  1.754786e+001 
3715625000  -3.649250e+001  1.226651e+001 
3718750000  -3.580871e+001  1.008477e+001 
3721875000  -3.533601e+001  3.509493e+000 
3725000000  -3.532492e+001  -1.058008e+000 
3728125000  -3.554261e+001  -1.761855e+000 
3731250000  -3.480465e+001  -2.355922e+000 
3734375000  -3.376669e+001  -7.844571e+000 
3737500000  -3.420533e+001  -1.574042e+001 
3740625000  -3.495905e+001  -1.851357e+001 
3743750000  -3.473215e+001  -2.054139e+001 
3746875000  -3.461105e+001  -2.356926e+001 
3750000000  -3.518433e+001  -2.447692e+001 
3753125000  -3.478048e+001  -2.502143e+001 
3756250000  -3.466383e+001  -2.512432e+001 
3759375000  -3.447787e+001  -2.544901e+001 
3762500000  -3.394930e+001  -3.005058e+001 
3765625000  -3.430344e+001  -3.264472e+001 
3768750000  -3.445149e+001  -3.047491e+001 
3771875000  -3.263602e+001  -3.242871e+001 
3775000000  -3.245752e+001  -4.014539e+001 
3778125000  -3.278783e+001  -4.194729e+001 
3781250000  -3.251550e+001  -4.486274e+001 
3784375000  -3.256918e+001  -4.646989e+001 
3787500000  -3.176486e+001  -5.001764e+001 
3790625000  -3.243926e+001  -5.615868e+001 
3793750000  -3.243740e+001  -5.661203e+001 
3796875000  -3.161358e+001  -5.783084e+001 
3800000000  -3.009105e+001  -6.159792e+001 
3803125000  -3.078697e+001  -6.830304e+001 
3806250000  -3.138346e+001  -7.090733e+001 
3809375000  -3.115772e+001  -7.153842e+001 
3812500000  -3.048538e+001  -7.703485e+001 
3815625000  -3.116030e+001  -8.438615e+001 
3818750000  -3.200459e+001  -8.549792e+001 
3821875000  -3.218756e+001  -7.745462e+001 
3825000000  -3.023094e+001  -7.309709e+001 
3828125000  -2.890094e+001  -8.671526e+001 
3831250000  -2.938877e+001  -1.010341e+002 
3834375000  -3.071591e+001  -1.020913e+002 
3837500000  -3.163063e+001  -9.711425e+001 
3840625000  -3.051919e+001  -9.750533e+001 
3843750000  -2.931676e+001  -1.074120e+002 
3846875000  -2.996684e+001  -1.145909e+002 
3850000000  -3.128620e+001  -1.098775e+002 
3853125000  -3.055659e+001  -1.071074e+002 
3856250000  -3.040955e+001  -1.117892e+002 
3859375000  -2.983073e+001  -1.161879e+002 
3862500000  -2.934366e+001  -1.235535e+002 
3865625000  -2.959848e+001  -1.284051e+002 
3868750000  -2.963805e+001  -1.287043e+002 
3871875000  -2.894832e+001  -1.311629e+002 
3875000000  -2.905021e+001  -1.401420e+002 
3878125000  -3.003694e+001  -1.428017e+002 
3881250000  -3.022018e+001  -1.394019e+002 
3884375000  -2.967522e+001  -1.438269e+002 
3887500000  -2.979925e+001  -1.483023e+002 
3890625000  -3.036771e+001  -1.510403e+002 
3893750000  -3.071213e+001  -1.523122e+002 
3896875000  -3.079554e+001  -1.509837e+002 
3900000000  -3.096941e+001  -1.519736e+002 
3903125000  -3.073996e+001  -1.545453e+002 
3906250000  -3.046545e+001  -1.547236e+002 
3909375000  -2.979176e+001  -1.572040e+002 
3912500000  -2.977439e+001  -1.645758e+002 
3915625000  -3.099519e+001  -1.639235e+002 
3918750000  -3.102518e+001  -1.621394e+002 
3921875000  -3.061441e+001  -1.636979e+002 
3925000000  -2.987481e+001  -1.640789e+002 
3928125000  -2.908116e+001  -1.698284e+002 
3931250000  -2.942781e+001  -1.745585e+002 
3934375000  -2.979102e+001  -1.744558e+002 
3937500000  -2.989801e+001  -1.752019e+002 
3940625000  -3.041381e+001  -1.743913e+002 
3943750000  -2.943170e+001  -1.730550e+002 
3946875000  -2.816220e+001  -1.781463e+002 
3950000000  -2.868334e+001  1.735069e+002 
3953125000  -2.964769e+001  1.747209e+002 
3956250000  -2.886435e+001  1.768064e+002 
3959375000  -2.748990e+001  1.735749e+002 
3962500000  -2.696657e+001  1.701814e+002 
3965625000  -2.652497e+001  1.606358e+002 
3968750000  -2.749422e+001  1.539036e+002 
3971875000  -2.782867e+001  1.529162e+002 
3975000000  -2.720448e+001  1.506639e+002 
3978125000  -2.703573e+001  1.496286e+002 
3981250000  -2.678931e+001  1.446667e+002 
3984375000  -2.704220e+001  1.387564e+002 
3987500000  -2.756214e+001  1.367118e+002 
3990625000  -2.756782e+001  1.355084e+002 
3993750000  -2.778998e+001  1.317828e+002 
3996875000  -2.772542e+001  1.304068e+002 
4000000000  -2.779798e+001  1.277597e+002 
4003125000  -2.835638e+001  1.300769e+002 
4006250000  -2.700296e+001  1.309848e+002 
4009375000  -2.580520e+001  1.187209e+002 
4012500000  -2.677061e+001  1.113473e+002 
4015625000  -2.817584e+001  1.116106e+002 
4018750000  -2.825622e+001  1.143496e+002 
4021875000  -2.764624e+001  1.124230e+002 
4025000000  -2.728379e+001  1.076300e+002 
4028125000  -2.721352e+001  1.034485e+002 
4031250000  -2.769172e+001  1.006050e+002 
4034375000  -2.800561e+001  1.004928e+002 
4037500000  -2.743606e+001  1.023880e+002 
4040625000  -2.736418e+001  9.914516e+001 
4043750000  -2.763362e+001  9.867629e+001 
4046875000  -2.719853e+001  9.828603e+001 
4050000000  -2.674578e+001  9.228875e+001 
4053125000  -2.723227e+001  9.041637e+001 
4056250000  -2.779761e+001  9.477013e+001 
4059375000  -2.661029e+001  9.646122e+001 
4062500000  -2.525493e+001  9.180402e+001 
4065625000  -2.500744e+001  8.741035e+001 
4068750000  -2.482081e+001  8.278699e+001 
4071875000  -2.416903e+001  7.507832e+001 
4075000000  -2.451671e+001  6.835649e+001 
4078125000  -2.505130e+001  6.727178e+001 
4081250000  -2.453581e+001  6.487756e+001 
4084375000  -2.417647e+001  5.858046e+001 
4087500000  -2.448905e+001  5.200312e+001 
4090625000  -2.504715e+001  5.088731e+001 
4093750000  -2.494320e+001  5.175176e+001 
4096875000  -2.451254e+001  4.609113e+001 
4100000000  -2.514876e+001  3.879932e+001 
4103125000  -2.602839e+001  3.903969e+001 
4106250000  -2.595405e+001  4.399987e+001 
4109375000  -2.507589e+001  4.359915e+001 
4112500000  -2.452402e+001  3.706200e+001 
4115625000  -2.484348e+001  3.246156e+001 
4118750000  -2.490665e+001  2.985306e+001 
4121875000  -2.455864e+001  2.540950e+001 
4125000000  -2.484174e+001  2.006060e+001 
4128125000  -2.584913e+001  2.019429e+001 
4131250000  -2.567514e+001  2.799889e+001 
4134375000  -2.335322e+001  2.392979e+001 
4137500000  -2.315399e+001  5.122843e+000 
4140625000  -2.525753e+001  -1.875842e+000 
4143750000  -2.658988e+001  2.672225e+000 
4146875000  -2.622715e+001  1.020351e+001 
4150000000  -2.526955e+001  6.849174e+000 
4153125000  -2.517884e+001  8.502445e-001 
4156250000  -2.600310e+001  -2.051243e+000 
4159375000  -2.627002e+001  2.031486e+000 
4162500000  -2.517109e+001  6.731188e+000 
4165625000  -2.400260e+001  2.758780e+000 
4168750000  -2.340039e+001  -4.569066e+000 
4171875000  -2.340042e+001  -1.349265e+001 
4175000000  -2.400504e+001  -1.948129e+001 
4178125000  -2.463971e+001  -1.949179e+001 
4181250000  -2.446311e+001  -1.993325e+001 
4184375000  -2.431291e+001  -2.291895e+001 
4187500000  -2.438474e+001  -2.542723e+001 
4190625000  -2.415957e+001  -3.095064e+001 
4193750000  -2.496737e+001  -3.484631e+001 
4196875000  -2.563431e+001  -3.536987e+001 
4200000000  -2.641321e+001  -3.305764e+001 
4203125000  -2.656581e+001  -2.042795e+001 
4206250000  -2.325320e+001  -1.790920e+001 
4209375000  -2.202223e+001  -3.820708e+001 
4212500000  -2.384315e+001  -4.760958e+001 
4215625000  -2.489302e+001  -4.156578e+001 
4218750000  -2.369225e+001  -3.478082e+001 
4221875000  -2.132708e+001  -4.391393e+001 
4225000000  -2.255618e+001  -5.621069e+001 
4228125000  -2.324821e+001  -5.114724e+001 
4231250000  -2.168134e+001  -5.509399e+001 
4234375000  -2.163272e+001  -6.292340e+001 
4237500000  -2.122759e+001  -6.664468e+001 
4240625000  -2.119089e+001  -7.495943e+001 
4243750000  -2.212338e+001  -8.165190e+001 
4246875000  -2.299971e+001  -8.180173e+001 
4250000000  -2.312126e+001  -7.939903e+001 
4253125000  -2.251401e+001  -8.097031e+001 
4256250000  -2.284127e+001  -8.534966e+001 
4259375000  -2.257463e+001  -8.707124e+001 
4262500000  -2.260353e+001  -9.068514e+001 
4265625000  -2.277524e+001  -9.064697e+001 
4268750000  -2.191730e+001  -9.461964e+001 
4271875000  -2.165405e+001  -1.001013e+002 
4275000000  -2.107456e+001  -1.065473e+002 
4278125000  -2.165022e+001  -1.177652e+002 
4281250000  -2.343239e+001  -1.198716e+002 
4284375000  -2.315496e+001  -1.188617e+002 
4287500000  -2.390856e+001  -1.224531e+002 
4290625000  -2.515369e+001  -1.131556e+002 
4293750000  -2.321637e+001  -1.070773e+002 
4296875000  -2.183079e+001  -1.187082e+002 
4300000000  -2.268227e+001  -1.277311e+002 
4303125000  -2.379373e+001  -1.269311e+002 
4306250000  -2.328025e+001  -1.207358e+002 
4309375000  -2.188490e+001  -1.227228e+002 
4312500000  -2.171539e+001  -1.308305e+002 
4315625000  -2.193023e+001  -1.369472e+002 
4318750000  -2.223867e+001  -1.405179e+002 
4321875000  -2.241438e+001  -1.396950e+002 
4325000000  -2.186159e+001  -1.389789e+002 
4328125000  -2.138279e+001  -1.455172e+002 
4331250000  -2.128010e+001  -1.535327e+002 
4334375000  -2.171269e+001  -1.583117e+002 
4337500000  -2.253490e+001  -1.608685e+002 
4340625000  -2.309205e+001  -1.579137e+002 
4343750000  -2.254027e+001  -1.572387e+002 
4346875000  -2.213926e+001  -1.629558e+002 
4350000000  -2.214417e+001  -1.677786e+002 
4353125000  -2.214795e+001  -1.750596e+002 
4356250000  -2.390105e+001  -1.767021e+002 
4359375000  -2.457801e+001  -1.632491e+002 
4362500000  -2.194289e+001  -1.606666e+002 
4365625000  -2.022644e+001  -1.723720e+002 
4368750000  -2.095595e+001  1.754876e+002 
4371875000  -2.219785e+001  1.759770e+002 
4375000000  -2.189660e+001  1.773354e+002 
4378125000  -2.120622e+001  1.715609e+002 
4381250000  -2.136613e+001  1.662636e+002 
4384375000  -2.118261e+001  1.617721e+002 
4387500000  -2.194324e+001  1.556138e+002 
4390625000  -2.298352e+001  1.563920e+002 
4393750000  -2.228972e+001  1.587588e+002 
4396875000  -2.164602e+001  1.567458e+002 
4400000000  -2.112854e+001  1.500633e+002 
4403125000  -2.171474e+001  1.421743e+002 
4406250000  -2.259251e+001  1.408472e+002 
4409375000  -2.249951e+001  1.387368e+002 
4412500000  -2.362378e+001  1.357139e+002 
4415625000  -2.397101e+001  1.408413e+002 
4418750000  -2.271779e+001  1.458605e+002 
