!Agilent Technologies,E8363B,MY43030201,A.06.04.32
!Agilent E8363B: A.06.04.32
!Date: Tuesday, November 11, 2014 20:54:06
!Correction: S21(Response(S21)) 
!S1P File: Measurement: S21:
# Hz S  dB   R 50
3000000000  -2.662114e+001  1.507037e+002 
3003125000  -2.804756e+001  1.461233e+002 
3006250000  -2.806809e+001  1.438016e+002 
3009375000  -2.847131e+001  1.486137e+002 
3012500000  -2.786771e+001  1.477466e+002 
3015625000  -2.696375e+001  1.408545e+002 
3018750000  -2.779003e+001  1.403905e+002 
3021875000  -2.651626e+001  1.414278e+002 
3025000000  -2.522308e+001  1.382287e+002 
3028125000  -2.424930e+001  1.333298e+002 
3031250000  -2.319973e+001  1.220759e+002 
3034375000  -2.283374e+001  1.090237e+002 
3037500000  -2.320401e+001  9.715833e+001 
3040625000  -2.453243e+001  9.202418e+001 
3043750000  -2.523105e+001  8.771357e+001 
3046875000  -2.535073e+001  8.146154e+001 
3050000000  -2.706223e+001  7.439332e+001 
3053125000  -2.720375e+001  8.071647e+001 
3056250000  -2.657959e+001  8.402457e+001 
3059375000  -2.681403e+001  8.329789e+001 
3062500000  -2.533644e+001  7.960226e+001 
3065625000  -2.507272e+001  7.392382e+001 
3068750000  -2.479400e+001  6.711491e+001 
3071875000  -2.475902e+001  6.397916e+001 
3075000000  -2.473158e+001  6.015592e+001 
3078125000  -2.444018e+001  5.566108e+001 
3081250000  -2.508025e+001  5.139514e+001 
3084375000  -2.433615e+001  4.772629e+001 
3087500000  -2.424481e+001  4.417078e+001 
3090625000  -2.394980e+001  3.449182e+001 
3093750000  -2.438679e+001  2.659545e+001 
3096875000  -2.563726e+001  2.062493e+001 
3100000000  -2.578778e+001  1.937660e+001 
3103125000  -2.615222e+001  2.063564e+001 
3106250000  -2.591845e+001  1.725248e+001 
3109375000  -2.614052e+001  1.336848e+001 
3112500000  -2.625422e+001  1.242381e+001 
3115625000  -2.601508e+001  8.349789e+000 
3118750000  -2.654512e+001  9.811787e+000 
3121875000  -2.586905e+001  1.412155e+000 
3125000000  -2.710673e+001  -1.893541e+000 
3128125000  -2.826723e+001  6.386911e+000 
3131250000  -2.607295e+001  7.152394e+000 
3134375000  -2.469143e+001  -6.695283e+000 
3137500000  -2.535298e+001  -2.031996e+001 
3140625000  -2.700213e+001  -2.197061e+001 
3143750000  -2.800578e+001  -1.825080e+001 
3146875000  -2.758731e+001  -1.599112e+001 
3150000000  -2.656301e+001  -1.426057e+001 
3153125000  -2.655104e+001  -2.160477e+001 
3156250000  -2.753821e+001  -1.583157e+001 
3159375000  -2.592636e+001  -1.335270e+001 
3162500000  -2.388663e+001  -2.611627e+001 
3165625000  -2.484964e+001  -3.709453e+001 
3168750000  -2.518787e+001  -3.627221e+001 
3171875000  -2.429504e+001  -4.057643e+001 
3175000000  -2.492431e+001  -4.815846e+001 
3178125000  -2.471470e+001  -4.662931e+001 
3181250000  -2.353993e+001  -5.070255e+001 
3184375000  -2.273954e+001  -6.304921e+001 
3187500000  -2.384956e+001  -7.792374e+001 
3190625000  -2.663299e+001  -8.551142e+001 
3193750000  -2.723790e+001  -7.586002e+001 
3196875000  -2.680567e+001  -7.064559e+001 
3200000000  -2.591951e+001  -7.271840e+001 
3203125000  -2.506783e+001  -7.833775e+001 
3206250000  -2.537754e+001  -8.457710e+001 
3209375000  -2.491830e+001  -8.948122e+001 
3212500000  -2.507085e+001  -9.590663e+001 
3215625000  -2.515133e+001  -1.000461e+002 
3218750000  -2.589084e+001  -1.062029e+002 
3221875000  -2.686397e+001  -1.114647e+002 
3225000000  -2.645220e+001  -1.121051e+002 
3228125000  -2.684389e+001  -1.168559e+002 
3231250000  -2.752545e+001  -1.191491e+002 
3234375000  -2.742812e+001  -1.181891e+002 
3237500000  -2.743196e+001  -1.199049e+002 
3240625000  -2.709623e+001  -1.218655e+002 
3243750000  -2.675899e+001  -1.282026e+002 
3246875000  -2.726055e+001  -1.348044e+002 
3250000000  -2.767840e+001  -1.367032e+002 
3253125000  -2.781454e+001  -1.386181e+002 
3256250000  -2.767698e+001  -1.446835e+002 
3259375000  -2.797684e+001  -1.519864e+002 
3262500000  -2.928575e+001  -1.548754e+002 
3265625000  -2.993109e+001  -1.516691e+002 
3268750000  -2.992761e+001  -1.485432e+002 
3271875000  -2.961970e+001  -1.478160e+002 
3275000000  -2.860390e+001  -1.527143e+002 
3278125000  -2.905756e+001  -1.592475e+002 
3281250000  -2.931948e+001  -1.571066e+002 
3284375000  -2.891150e+001  -1.634255e+002 
3287500000  -2.904046e+001  -1.657672e+002 
3290625000  -2.942567e+001  -1.699967e+002 
3293750000  -2.912119e+001  -1.757818e+002 
3296875000  -3.016052e+001  -1.758637e+002 
3300000000  -3.003173e+001  -1.745778e+002 
3303125000  -2.894341e+001  -1.785151e+002 
3306250000  -2.874588e+001  1.749250e+002 
3309375000  -2.844464e+001  1.698065e+002 
3312500000  -2.856536e+001  1.595851e+002 
3315625000  -2.950302e+001  1.515914e+002 
3318750000  -3.089080e+001  1.491309e+002 
3321875000  -3.214194e+001  1.490712e+002 
3325000000  -3.258269e+001  1.544368e+002 
3328125000  -3.246661e+001  1.557579e+002 
3331250000  -3.125064e+001  1.628222e+002 
3334375000  -2.866883e+001  1.533657e+002 
3337500000  -2.871011e+001  1.347975e+002 
3340625000  -3.011918e+001  1.238252e+002 
3343750000  -3.208223e+001  1.228657e+002 
3346875000  -3.254382e+001  1.241318e+002 
3350000000  -3.192730e+001  1.230610e+002 
3353125000  -3.210664e+001  1.189847e+002 
3356250000  -3.177872e+001  1.110424e+002 
3359375000  -3.260035e+001  1.023602e+002 
3362500000  -3.394114e+001  9.742746e+001 
3365625000  -3.449011e+001  9.550037e+001 
3368750000  -3.545896e+001  9.363805e+001 
3371875000  -3.593237e+001  9.102423e+001 
3375000000  -3.726818e+001  8.887876e+001 
3378125000  -3.858381e+001  8.837579e+001 
3381250000  -4.002624e+001  9.592599e+001 
3384375000  -3.917295e+001  1.177764e+002 
3387500000  -3.619180e+001  1.032526e+002 
3390625000  -3.780745e+001  8.473399e+001 
3393750000  -3.969357e+001  8.897749e+001 
3396875000  -3.869163e+001  9.261654e+001 
3400000000  -3.876493e+001  8.593954e+001 
3403125000  -3.962768e+001  8.007846e+001 
3406250000  -4.038828e+001  8.118741e+001 
3409375000  -4.103409e+001  7.784760e+001 
3412500000  -4.184971e+001  7.874910e+001 
3415625000  -4.269926e+001  8.415125e+001 
3418750000  -4.326300e+001  8.880119e+001 
3421875000  -4.368710e+001  9.505355e+001 
3425000000  -4.271608e+001  9.828641e+001 
3428125000  -4.139742e+001  9.826055e+001 
3431250000  -4.176916e+001  9.268344e+001 
3434375000  -4.136252e+001  9.095046e+001 
3437500000  -4.178009e+001  8.846598e+001 
3440625000  -4.214483e+001  8.861539e+001 
3443750000  -4.101941e+001  9.379755e+001 
3446875000  -4.018837e+001  8.800746e+001 
3450000000  -4.003113e+001  7.975370e+001 
3453125000  -4.042724e+001  7.101905e+001 
3456250000  -4.160704e+001  6.521882e+001 
3459375000  -4.252625e+001  6.856537e+001 
3462500000  -4.264955e+001  6.995206e+001 
3465625000  -4.259866e+001  6.450565e+001 
3468750000  -4.325856e+001  6.427072e+001 
3471875000  -4.320909e+001  6.212146e+001 
3475000000  -4.299779e+001  5.893663e+001 
3478125000  -4.371067e+001  5.295194e+001 
3481250000  -4.503147e+001  5.427395e+001 
3484375000  -4.622950e+001  5.724947e+001 
3487500000  -4.563770e+001  6.113886e+001 
3490625000  -4.579909e+001  5.743481e+001 
3493750000  -4.649702e+001  5.570347e+001 
3496875000  -4.754683e+001  5.803283e+001 
3500000000  -4.843138e+001  6.372923e+001 
3503125000  -4.817194e+001  6.924267e+001 
3506250000  -4.716038e+001  7.094137e+001 
3509375000  -4.756504e+001  7.157055e+001 
3512500000  -4.805099e+001  7.134170e+001 
3515625000  -4.819994e+001  7.105811e+001 
3518750000  -4.878548e+001  7.672121e+001 
3521875000  -4.841919e+001  8.403053e+001 
3525000000  -4.813543e+001  8.347505e+001 
3528125000  -4.765096e+001  9.626929e+001 
3531250000  -4.623260e+001  9.414242e+001 
3534375000  -4.535826e+001  8.584054e+001 
3537500000  -4.496608e+001  8.303634e+001 
3540625000  -4.556404e+001  8.406172e+001 
3543750000  -4.624903e+001  8.498835e+001 
3546875000  -4.549738e+001  1.011499e+002 
3550000000  -4.301226e+001  1.035246e+002 
3553125000  -4.176054e+001  8.653041e+001 
3556250000  -4.232819e+001  8.061394e+001 
3559375000  -4.220303e+001  8.146606e+001 
3562500000  -4.088348e+001  7.455088e+001 
3565625000  -4.159227e+001  6.699449e+001 
3568750000  -4.205202e+001  7.240464e+001 
3571875000  -4.162148e+001  7.115861e+001 
3575000000  -4.104208e+001  6.599293e+001 
3578125000  -4.149208e+001  6.204657e+001 
3581250000  -4.180107e+001  6.358112e+001 
3584375000  -4.060114e+001  6.258798e+001 
3587500000  -3.981993e+001  5.474206e+001 
3590625000  -4.027511e+001  4.471079e+001 
3593750000  -4.114682e+001  4.624600e+001 
3596875000  -4.092831e+001  5.453462e+001 
3600000000  -3.961773e+001  4.917549e+001 
3603125000  -3.996631e+001  3.653555e+001 
3606250000  -4.054394e+001  3.452642e+001 
3609375000  -4.046478e+001  3.272424e+001 
3612500000  -4.104369e+001  3.192113e+001 
3615625000  -4.128939e+001  3.004464e+001 
3618750000  -4.174292e+001  3.246245e+001 
3621875000  -4.137497e+001  3.105524e+001 
3625000000  -4.164111e+001  3.130939e+001 
3628125000  -4.139416e+001  3.035151e+001 
3631250000  -4.119245e+001  2.500213e+001 
3634375000  -4.246095e+001  2.581336e+001 
3637500000  -4.183139e+001  3.306032e+001 
3640625000  -4.090713e+001  3.232859e+001 
3643750000  -4.056216e+001  2.694284e+001 
3646875000  -4.098592e+001  2.245678e+001 
3650000000  -4.126373e+001  2.095275e+001 
3653125000  -4.111883e+001  2.119992e+001 
3656250000  -4.180340e+001  1.957985e+001 
3659375000  -4.189503e+001  2.321402e+001 
3662500000  -4.087845e+001  2.101640e+001 
3665625000  -4.104056e+001  2.244267e+001 
3668750000  -4.008337e+001  2.468644e+001 
3671875000  -3.903456e+001  1.950717e+001 
3675000000  -3.954452e+001  1.488385e+001 
3678125000  -4.014785e+001  1.615604e+001 
3681250000  -3.938859e+001  1.563720e+001 
3684375000  -3.937638e+001  1.402604e+001 
3687500000  -3.946074e+001  1.321424e+001 
3690625000  -3.931900e+001  9.507166e+000 
3693750000  -4.006200e+001  1.120459e+001 
3696875000  -3.984212e+001  1.640784e+001 
3700000000  -3.843922e+001  1.341334e+001 
3703125000  -3.862051e+001  9.992863e+000 
3706250000  -3.924651e+001  1.105991e+001 
3709375000  -3.856495e+001  1.430665e+001 
3712500000  -3.708731e+001  1.613597e+001 
3715625000  -3.614083e+001  7.825252e+000 
3718750000  -3.543785e+001  6.008347e+000 
3721875000  -3.513263e+001  -3.379772e-002 
3725000000  -3.494839e+001  -4.615155e+000 
3728125000  -3.520358e+001  -5.223855e+000 
3731250000  -3.455373e+001  -5.475914e+000 
3734375000  -3.352293e+001  -1.183035e+001 
3737500000  -3.409215e+001  -1.904928e+001 
3740625000  -3.452983e+001  -2.222028e+001 
3743750000  -3.442839e+001  -2.348126e+001 
3746875000  -3.440326e+001  -2.707066e+001 
3750000000  -3.466929e+001  -2.779770e+001 
3753125000  -3.451000e+001  -2.860889e+001 
3756250000  -3.434824e+001  -2.903893e+001 
3759375000  -3.421614e+001  -2.997611e+001 
3762500000  -3.364486e+001  -3.401240e+001 
3765625000  -3.404744e+001  -3.744698e+001 
3768750000  -3.417413e+001  -3.500950e+001 
3771875000  -3.240959e+001  -3.660756e+001 
3775000000  -3.223914e+001  -4.481218e+001 
3778125000  -3.242632e+001  -4.669078e+001 
3781250000  -3.231667e+001  -4.910779e+001 
3784375000  -3.212485e+001  -5.101138e+001 
3787500000  -3.154789e+001  -5.454902e+001 
3790625000  -3.210299e+001  -6.004462e+001 
3793750000  -3.221781e+001  -6.088560e+001 
3796875000  -3.136696e+001  -6.175855e+001 
3800000000  -2.977620e+001  -6.543338e+001 
3803125000  -3.051967e+001  -7.296674e+001 
3806250000  -3.127871e+001  -7.522473e+001 
3809375000  -3.091678e+001  -7.599577e+001 
3812500000  -3.026518e+001  -8.096197e+001 
3815625000  -3.083839e+001  -8.793388e+001 
3818750000  -3.195783e+001  -9.003254e+001 
3821875000  -3.185689e+001  -8.093819e+001 
3825000000  -3.000927e+001  -7.687540e+001 
3828125000  -2.855954e+001  -9.023804e+001 
3831250000  -2.903733e+001  -1.042045e+002 
3834375000  -3.051170e+001  -1.055492e+002 
3837500000  -3.137011e+001  -1.006239e+002 
3840625000  -3.023534e+001  -1.015751e+002 
3843750000  -2.916596e+001  -1.118480e+002 
3846875000  -2.982258e+001  -1.189605e+002 
3850000000  -3.100181e+001  -1.133610e+002 
3853125000  -3.030457e+001  -1.102158e+002 
3856250000  -3.026744e+001  -1.154129e+002 
3859375000  -2.953201e+001  -1.200067e+002 
3862500000  -2.914348e+001  -1.269264e+002 
3865625000  -2.938935e+001  -1.314278e+002 
3868750000  -2.935348e+001  -1.314240e+002 
3871875000  -2.861953e+001  -1.346609e+002 
3875000000  -2.873042e+001  -1.434725e+002 
3878125000  -2.975700e+001  -1.457170e+002 
3881250000  -2.986049e+001  -1.426330e+002 
3884375000  -2.929074e+001  -1.472782e+002 
3887500000  -2.943559e+001  -1.517261e+002 
3890625000  -3.000980e+001  -1.538289e+002 
3893750000  -3.045776e+001  -1.554559e+002 
3896875000  -3.047755e+001  -1.539170e+002 
3900000000  -3.075515e+001  -1.555530e+002 
3903125000  -3.033080e+001  -1.567498e+002 
3906250000  -3.013361e+001  -1.584451e+002 
3909375000  -2.940385e+001  -1.608972e+002 
3912500000  -2.937437e+001  -1.683885e+002 
3915625000  -3.058898e+001  -1.672945e+002 
3918750000  -3.060140e+001  -1.653739e+002 
3921875000  -3.025920e+001  -1.669005e+002 
3925000000  -2.940144e+001  -1.678294e+002 
3928125000  -2.877176e+001  -1.732654e+002 
3931250000  -2.909443e+001  -1.775450e+002 
3934375000  -2.939952e+001  -1.770708e+002 
3937500000  -2.946050e+001  -1.783244e+002 
3940625000  -3.001715e+001  -1.778288e+002 
3943750000  -2.906545e+001  -1.766970e+002 
3946875000  -2.780798e+001  1.781750e+002 
3950000000  -2.827951e+001  1.709219e+002 
3953125000  -2.927355e+001  1.713499e+002 
3956250000  -2.829892e+001  1.734420e+002 
3959375000  -2.698277e+001  1.706765e+002 
3962500000  -2.650254e+001  1.663346e+002 
3965625000  -2.613795e+001  1.576492e+002 
3968750000  -2.705741e+001  1.509072e+002 
3971875000  -2.745809e+001  1.497342e+002 
3975000000  -2.680575e+001  1.475521e+002 
3978125000  -2.666174e+001  1.459197e+002 
3981250000  -2.635825e+001  1.416078e+002 
3984375000  -2.655482e+001  1.356504e+002 
3987500000  -2.708460e+001  1.338808e+002 
3990625000  -2.709805e+001  1.325825e+002 
3993750000  -2.732806e+001  1.296976e+002 
3996875000  -2.725471e+001  1.268077e+002 
4000000000  -2.737597e+001  1.248110e+002 
4003125000  -2.797968e+001  1.270301e+002 
4006250000  -2.661319e+001  1.271526e+002 
4009375000  -2.527922e+001  1.155592e+002 
4012500000  -2.630634e+001  1.085377e+002 
4015625000  -2.758939e+001  1.089540e+002 
4018750000  -2.774338e+001  1.104411e+002 
4021875000  -2.713090e+001  1.092384e+002 
4025000000  -2.667456e+001  1.044965e+002 
4028125000  -2.660644e+001  1.006224e+002 
4031250000  -2.712659e+001  9.703639e+001 
4034375000  -2.736738e+001  9.744107e+001 
4037500000  -2.683095e+001  9.885323e+001 
4040625000  -2.680370e+001  9.503646e+001 
4043750000  -2.713418e+001  9.532922e+001 
4046875000  -2.663311e+001  9.501075e+001 
4050000000  -2.614464e+001  8.878607e+001 
4053125000  -2.656908e+001  8.666126e+001 
4056250000  -2.719020e+001  9.067411e+001 
4059375000  -2.600039e+001  9.262338e+001 
4062500000  -2.472787e+001  8.822894e+001 
4065625000  -2.453597e+001  8.392995e+001 
4068750000  -2.420495e+001  7.987167e+001 
4071875000  -2.353561e+001  7.147732e+001 
4075000000  -2.386917e+001  6.522400e+001 
4078125000  -2.440495e+001  6.403317e+001 
4081250000  -2.390130e+001  6.140133e+001 
4084375000  -2.352236e+001  5.475378e+001 
4087500000  -2.387071e+001  4.845984e+001 
4090625000  -2.444910e+001  4.722703e+001 
4093750000  -2.429759e+001  4.808628e+001 
4096875000  -2.384348e+001  4.226637e+001 
4100000000  -2.453679e+001  3.520587e+001 
4103125000  -2.536155e+001  3.589398e+001 
4106250000  -2.515712e+001  4.048943e+001 
4109375000  -2.430852e+001  3.966140e+001 
4112500000  -2.377612e+001  3.305428e+001 
4115625000  -2.406264e+001  2.877677e+001 
4118750000  -2.421979e+001  2.593349e+001 
4121875000  -2.388486e+001  2.112564e+001 
4125000000  -2.421807e+001  1.636101e+001 
4128125000  -2.522228e+001  1.681598e+001 
4131250000  -2.485640e+001  2.514502e+001 
4134375000  -2.248687e+001  2.018342e+001 
4137500000  -2.229597e+001  1.355725e+000 
4140625000  -2.441863e+001  -6.019521e+000 
4143750000  -2.577789e+001  -5.180609e-001 
4146875000  -2.538382e+001  6.389983e+000 
4150000000  -2.437698e+001  2.667194e+000 
4153125000  -2.427596e+001  -3.167956e+000 
4156250000  -2.514065e+001  -6.129257e+000 
4159375000  -2.547680e+001  -1.757016e+000 
4162500000  -2.432318e+001  2.397774e+000 
4165625000  -2.317179e+001  -1.725926e+000 
4168750000  -2.257598e+001  -8.548272e+000 
4171875000  -2.241276e+001  -1.796742e+001 
4175000000  -2.299264e+001  -2.369389e+001 
4178125000  -2.366449e+001  -2.400968e+001 
4181250000  -2.354979e+001  -2.444588e+001 
4184375000  -2.340774e+001  -2.801388e+001 
4187500000  -2.337382e+001  -3.088254e+001 
4190625000  -2.327617e+001  -3.626690e+001 
4193750000  -2.402445e+001  -4.022099e+001 
4196875000  -2.475420e+001  -4.027890e+001 
4200000000  -2.555248e+001  -3.798487e+001 
4203125000  -2.558405e+001  -2.477747e+001 
4206250000  -2.229107e+001  -2.320704e+001 
4209375000  -2.115433e+001  -4.373468e+001 
4212500000  -2.307690e+001  -5.246116e+001 
4215625000  -2.398869e+001  -4.566128e+001 
4218750000  -2.262284e+001  -3.911641e+001 
4221875000  -2.027111e+001  -4.890834e+001 
4225000000  -2.149912e+001  -6.157503e+001 
4228125000  -2.222825e+001  -5.671929e+001 
4231250000  -2.073728e+001  -6.041183e+001 
4234375000  -2.064035e+001  -6.901578e+001 
4237500000  -2.022943e+001  -7.256091e+001 
4240625000  -2.029490e+001  -8.097128e+001 
4243750000  -2.128525e+001  -8.727227e+001 
4246875000  -2.209230e+001  -8.722694e+001 
4250000000  -2.213686e+001  -8.442525e+001 
4253125000  -2.152036e+001  -8.652921e+001 
4256250000  -2.174492e+001  -9.079481e+001 
4259375000  -2.157270e+001  -9.294163e+001 
4262500000  -2.154412e+001  -9.679013e+001 
4265625000  -2.170800e+001  -9.665112e+001 
4268750000  -2.092395e+001  -1.005571e+002 
4271875000  -2.060608e+001  -1.057917e+002 
4275000000  -1.996119e+001  -1.123657e+002 
4278125000  -2.051552e+001  -1.242787e+002 
4281250000  -2.224539e+001  -1.263754e+002 
4284375000  -2.202248e+001  -1.258442e+002 
4287500000  -2.292080e+001  -1.295075e+002 
4290625000  -2.427443e+001  -1.198133e+002 
4293750000  -2.226616e+001  -1.136491e+002 
4296875000  -2.085016e+001  -1.248928e+002 
4300000000  -2.170976e+001  -1.341457e+002 
4303125000  -2.274686e+001  -1.327835e+002 
4306250000  -2.207388e+001  -1.275308e+002 
4309375000  -2.075308e+001  -1.298683e+002 
4312500000  -2.067306e+001  -1.384650e+002 
4315625000  -2.095492e+001  -1.443517e+002 
4318750000  -2.127495e+001  -1.474408e+002 
4321875000  -2.143369e+001  -1.469846e+002 
4325000000  -2.081135e+001  -1.467166e+002 
4328125000  -2.031327e+001  -1.533860e+002 
4331250000  -2.029945e+001  -1.614147e+002 
4334375000  -2.075830e+001  -1.661091e+002 
4337500000  -2.156239e+001  -1.684927e+002 
4340625000  -2.201055e+001  -1.653372e+002 
4343750000  -2.148329e+001  -1.649962e+002 
4346875000  -2.113051e+001  -1.699480e+002 
4350000000  -2.102635e+001  -1.750039e+002 
4353125000  -2.104701e+001  1.770059e+002 
4356250000  -2.275187e+001  1.757360e+002 
4359375000  -2.346227e+001  -1.710482e+002 
4362500000  -2.087639e+001  -1.690807e+002 
4365625000  -1.930556e+001  1.793745e+002 
4368750000  -1.998320e+001  1.675460e+002 
4371875000  -2.107948e+001  1.680138e+002 
4375000000  -2.081553e+001  1.690953e+002 
4378125000  -2.021343e+001  1.634022e+002 
4381250000  -2.029570e+001  1.581207e+002 
4384375000  -2.014461e+001  1.534325e+002 
4387500000  -2.080205e+001  1.473136e+002 
4390625000  -2.180989e+001  1.479325e+002 
4393750000  -2.125865e+001  1.501712e+002 
4396875000  -2.060625e+001  1.480495e+002 
4400000000  -2.011306e+001  1.412373e+002 
4403125000  -2.063109e+001  1.333930e+002 
4406250000  -2.143538e+001  1.320974e+002 
4409375000  -2.142810e+001  1.297028e+002 
4412500000  -2.236644e+001  1.266315e+002 
4415625000  -2.284003e+001  1.316935e+002 
4418750000  -2.177491e+001  1.365343e+002 
