!Agilent Technologies,E8363B,MY43030201,A.06.04.32
!Agilent E8363B: A.06.04.32
!Date: Tuesday, November 11, 2014 20:57:05
!Correction: S21(Response(S21)) 
!S1P File: Measurement: S21:
# Hz S  dB   R 50
3000000000  -2.651262e+001  1.477895e+002 
3003125000  -2.797205e+001  1.430113e+002 
3006250000  -2.798592e+001  1.407501e+002 
3009375000  -2.838245e+001  1.457536e+002 
3012500000  -2.777391e+001  1.450832e+002 
3015625000  -2.686885e+001  1.383062e+002 
3018750000  -2.769530e+001  1.374487e+002 
3021875000  -2.639981e+001  1.387751e+002 
3025000000  -2.507663e+001  1.356416e+002 
3028125000  -2.414868e+001  1.303725e+002 
3031250000  -2.310572e+001  1.193186e+002 
3034375000  -2.276429e+001  1.061134e+002 
3037500000  -2.314656e+001  9.424416e+001 
3040625000  -2.447016e+001  8.935019e+001 
3043750000  -2.510728e+001  8.490343e+001 
3046875000  -2.534072e+001  7.865208e+001 
3050000000  -2.697314e+001  7.212821e+001 
3053125000  -2.712609e+001  7.835260e+001 
3056250000  -2.648011e+001  8.143147e+001 
3059375000  -2.667462e+001  8.089989e+001 
3062500000  -2.521171e+001  7.721423e+001 
3065625000  -2.493590e+001  7.161509e+001 
3068750000  -2.465347e+001  6.443555e+001 
3071875000  -2.464897e+001  6.168402e+001 
3075000000  -2.457968e+001  5.763129e+001 
3078125000  -2.435025e+001  5.300201e+001 
3081250000  -2.496404e+001  4.897702e+001 
3084375000  -2.417271e+001  4.509397e+001 
3087500000  -2.409200e+001  4.154337e+001 
3090625000  -2.378817e+001  3.159326e+001 
3093750000  -2.427948e+001  2.400900e+001 
3096875000  -2.554371e+001  1.787007e+001 
3100000000  -2.563927e+001  1.667820e+001 
3103125000  -2.601417e+001  1.792152e+001 
3106250000  -2.575967e+001  1.416332e+001 
3109375000  -2.598163e+001  1.084281e+001 
3112500000  -2.612607e+001  9.674741e+000 
3115625000  -2.593912e+001  5.619845e+000 
3118750000  -2.639671e+001  6.747364e+000 
3121875000  -2.575380e+001  -1.297443e+000 
3125000000  -2.698698e+001  -4.753364e+000 
3128125000  -2.811713e+001  3.723721e+000 
3131250000  -2.590909e+001  4.048687e+000 
3134375000  -2.458266e+001  -9.820532e+000 
3137500000  -2.527040e+001  -2.336807e+001 
3140625000  -2.690004e+001  -2.484455e+001 
3143750000  -2.787298e+001  -2.108853e+001 
3146875000  -2.746773e+001  -1.884169e+001 
3150000000  -2.646535e+001  -1.705559e+001 
3153125000  -2.648855e+001  -2.458588e+001 
3156250000  -2.743614e+001  -1.902620e+001 
3159375000  -2.583002e+001  -1.631628e+001 
3162500000  -2.384764e+001  -2.925901e+001 
3165625000  -2.478154e+001  -4.010551e+001 
3168750000  -2.515780e+001  -3.896252e+001 
3171875000  -2.422894e+001  -4.332196e+001 
3175000000  -2.484303e+001  -5.117761e+001 
3178125000  -2.464903e+001  -4.945550e+001 
3181250000  -2.347678e+001  -5.372253e+001 
3184375000  -2.269489e+001  -6.565826e+001 
3187500000  -2.385967e+001  -8.100218e+001 
3190625000  -2.655802e+001  -8.793858e+001 
3193750000  -2.710402e+001  -7.872820e+001 
3196875000  -2.673538e+001  -7.320339e+001 
3200000000  -2.580597e+001  -7.538764e+001 
3203125000  -2.499464e+001  -8.106304e+001 
3206250000  -2.531981e+001  -8.718378e+001 
3209375000  -2.481117e+001  -9.241876e+001 
3212500000  -2.496194e+001  -9.906573e+001 
3215625000  -2.508878e+001  -1.026864e+002 
3218750000  -2.583140e+001  -1.093615e+002 
3221875000  -2.680933e+001  -1.142060e+002 
3225000000  -2.638090e+001  -1.150493e+002 
3228125000  -2.670768e+001  -1.196274e+002 
3231250000  -2.745525e+001  -1.220802e+002 
3234375000  -2.731926e+001  -1.210807e+002 
3237500000  -2.738194e+001  -1.229078e+002 
3240625000  -2.700019e+001  -1.244072e+002 
3243750000  -2.669277e+001  -1.314022e+002 
3246875000  -2.714936e+001  -1.374570e+002 
3250000000  -2.762596e+001  -1.397563e+002 
3253125000  -2.777786e+001  -1.411421e+002 
3256250000  -2.762571e+001  -1.472128e+002 
3259375000  -2.795730e+001  -1.548074e+002 
3262500000  -2.919828e+001  -1.575180e+002 
3265625000  -2.989314e+001  -1.539978e+002 
3268750000  -2.981394e+001  -1.516145e+002 
3271875000  -2.957211e+001  -1.504990e+002 
3275000000  -2.851861e+001  -1.559480e+002 
3278125000  -2.898691e+001  -1.615395e+002 
3281250000  -2.927901e+001  -1.598877e+002 
3284375000  -2.879112e+001  -1.656243e+002 
3287500000  -2.898236e+001  -1.683380e+002 
3290625000  -2.936778e+001  -1.728989e+002 
3293750000  -2.911643e+001  -1.784632e+002 
3296875000  -3.007199e+001  -1.782129e+002 
3300000000  -2.998483e+001  -1.770897e+002 
3303125000  -2.883518e+001  1.787361e+002 
3306250000  -2.859330e+001  1.721812e+002 
3309375000  -2.833805e+001  1.672065e+002 
3312500000  -2.845427e+001  1.564857e+002 
3315625000  -2.948904e+001  1.489396e+002 
3318750000  -3.083732e+001  1.465988e+002 
3321875000  -3.203006e+001  1.467405e+002 
3325000000  -3.259962e+001  1.522189e+002 
3328125000  -3.240526e+001  1.530173e+002 
3331250000  -3.115152e+001  1.610305e+002 
3334375000  -2.847036e+001  1.507027e+002 
3337500000  -2.861650e+001  1.326426e+002 
3340625000  -2.992851e+001  1.212604e+002 
3343750000  -3.194500e+001  1.202191e+002 
3346875000  -3.243695e+001  1.223788e+002 
3350000000  -3.179079e+001  1.209976e+002 
3353125000  -3.190161e+001  1.165846e+002 
3356250000  -3.157479e+001  1.086182e+002 
3359375000  -3.241879e+001  1.001486e+002 
3362500000  -3.374968e+001  9.481770e+001 
3365625000  -3.435993e+001  9.400069e+001 
3368750000  -3.535041e+001  9.237907e+001 
3371875000  -3.562124e+001  8.852787e+001 
3375000000  -3.723434e+001  8.644737e+001 
3378125000  -3.838174e+001  8.612898e+001 
3381250000  -4.001555e+001  9.402348e+001 
3384375000  -3.880773e+001  1.170790e+002 
3387500000  -3.578023e+001  1.020483e+002 
3390625000  -3.753485e+001  8.244550e+001 
3393750000  -3.944496e+001  8.646851e+001 
3396875000  -3.850968e+001  9.054240e+001 
3400000000  -3.840271e+001  8.348564e+001 
3403125000  -3.942048e+001  7.782077e+001 
3406250000  -4.025325e+001  8.001241e+001 
3409375000  -4.068488e+001  7.618700e+001 
3412500000  -4.151156e+001  7.601537e+001 
3415625000  -4.260959e+001  8.147594e+001 
3418750000  -4.292446e+001  8.474596e+001 
3421875000  -4.288833e+001  9.241925e+001 
3425000000  -4.226495e+001  9.580560e+001 
3428125000  -4.127336e+001  9.428250e+001 
3431250000  -4.119039e+001  9.136479e+001 
3434375000  -4.091991e+001  8.698683e+001 
3437500000  -4.155001e+001  8.510583e+001 
3440625000  -4.166549e+001  8.971819e+001 
3443750000  -4.028526e+001  9.123727e+001 
3446875000  -3.964915e+001  8.651968e+001 
3450000000  -3.943386e+001  7.687849e+001 
3453125000  -3.968419e+001  6.898254e+001 
3456250000  -4.097178e+001  6.338341e+001 
3459375000  -4.207559e+001  6.426464e+001 
3462500000  -4.209253e+001  6.713924e+001 
3465625000  -4.198376e+001  6.089850e+001 
3468750000  -4.230222e+001  5.783583e+001 
3471875000  -4.237496e+001  6.018103e+001 
3475000000  -4.251441e+001  5.507322e+001 
3478125000  -4.322205e+001  5.047831e+001 
3481250000  -4.410875e+001  4.787599e+001 
3484375000  -4.568417e+001  5.444997e+001 
3487500000  -4.523451e+001  5.445739e+001 
3490625000  -4.473374e+001  5.277547e+001 
3493750000  -4.537923e+001  5.016648e+001 
3496875000  -4.671210e+001  5.066569e+001 
3500000000  -4.789188e+001  5.827383e+001 
3503125000  -4.735830e+001  6.060397e+001 
3506250000  -4.636556e+001  6.046074e+001 
3509375000  -4.671754e+001  5.824587e+001 
3512500000  -4.706075e+001  5.945839e+001 
3515625000  -4.744328e+001  6.160699e+001 
3518750000  -4.812971e+001  6.680410e+001 
3521875000  -4.755481e+001  7.335142e+001 
3525000000  -4.850263e+001  7.541779e+001 
3528125000  -4.711859e+001  8.416171e+001 
3531250000  -4.618433e+001  8.806529e+001 
3534375000  -4.473161e+001  7.737654e+001 
3537500000  -4.496815e+001  7.393192e+001 
3540625000  -4.566774e+001  7.601532e+001 
3543750000  -4.625105e+001  7.858064e+001 
3546875000  -4.522025e+001  9.106026e+001 
3550000000  -4.294694e+001  9.430343e+001 
3553125000  -4.152677e+001  7.534158e+001 
3556250000  -4.270363e+001  7.039301e+001 
3559375000  -4.220929e+001  7.367068e+001 
3562500000  -4.098015e+001  6.681631e+001 
3565625000  -4.202333e+001  6.023510e+001 
3568750000  -4.192824e+001  6.472701e+001 
3571875000  -4.209695e+001  6.369425e+001 
3575000000  -4.125314e+001  5.988991e+001 
3578125000  -4.148794e+001  5.543584e+001 
3581250000  -4.179093e+001  5.385968e+001 
3584375000  -4.106905e+001  5.438488e+001 
3587500000  -3.992229e+001  4.885369e+001 
3590625000  -4.054483e+001  3.992105e+001 
3593750000  -4.163950e+001  3.861464e+001 
3596875000  -4.142967e+001  4.642918e+001 
3600000000  -3.983854e+001  4.450931e+001 
3603125000  -3.998201e+001  3.094696e+001 
3606250000  -4.050692e+001  2.947301e+001 
3609375000  -4.109062e+001  2.824470e+001 
3612500000  -4.155623e+001  2.569970e+001 
3615625000  -4.148759e+001  2.454381e+001 
3618750000  -4.227214e+001  2.596048e+001 
3621875000  -4.190737e+001  2.644725e+001 
3625000000  -4.160676e+001  2.426720e+001 
3628125000  -4.186237e+001  2.641388e+001 
3631250000  -4.143895e+001  2.004127e+001 
3634375000  -4.267548e+001  2.189081e+001 
3637500000  -4.193323e+001  2.705854e+001 
3640625000  -4.094593e+001  2.875238e+001 
3643750000  -4.073787e+001  2.360321e+001 
3646875000  -4.090959e+001  1.643750e+001 
3650000000  -4.158254e+001  1.464297e+001 
3653125000  -4.147201e+001  1.557088e+001 
3656250000  -4.164919e+001  1.415815e+001 
3659375000  -4.181134e+001  1.890659e+001 
3662500000  -4.116278e+001  1.655756e+001 
3665625000  -4.131474e+001  1.596321e+001 
3668750000  -4.004660e+001  1.996585e+001 
3671875000  -3.917759e+001  1.352731e+001 
3675000000  -3.988298e+001  8.356798e+000 
3678125000  -4.031241e+001  7.542389e+000 
3681250000  -3.966811e+001  9.301247e+000 
3684375000  -3.939127e+001  8.005992e+000 
3687500000  -3.986581e+001  5.984725e+000 
3690625000  -3.980650e+001  3.793240e+000 
3693750000  -4.048009e+001  6.921030e+000 
3696875000  -4.012210e+001  1.026153e+001 
3700000000  -3.883987e+001  7.617502e+000 
3703125000  -3.888871e+001  4.878208e+000 
3706250000  -3.948200e+001  7.121033e+000 
3709375000  -3.861158e+001  1.031091e+001 
3712500000  -3.741404e+001  9.584707e+000 
3715625000  -3.647831e+001  3.711811e+000 
3718750000  -3.577303e+001  1.824630e+000 
3721875000  -3.527384e+001  -4.561281e+000 
3725000000  -3.514453e+001  -7.876700e+000 
3728125000  -3.530720e+001  -9.571027e+000 
3731250000  -3.463168e+001  -1.083327e+001 
3734375000  -3.363681e+001  -1.613517e+001 
3737500000  -3.419801e+001  -2.334138e+001 
3740625000  -3.482985e+001  -2.745337e+001 
3743750000  -3.461335e+001  -2.819959e+001 
3746875000  -3.466342e+001  -3.178320e+001 
3750000000  -3.488814e+001  -3.301070e+001 
3753125000  -3.447785e+001  -3.431174e+001 
3756250000  -3.453133e+001  -3.464832e+001 
3759375000  -3.427482e+001  -3.401754e+001 
3762500000  -3.368132e+001  -3.938624e+001 
3765625000  -3.415418e+001  -4.126974e+001 
3768750000  -3.414756e+001  -3.937840e+001 
3771875000  -3.234053e+001  -4.184706e+001 
3775000000  -3.221729e+001  -5.004811e+001 
3778125000  -3.258369e+001  -5.203415e+001 
3781250000  -3.231453e+001  -5.402085e+001 
3784375000  -3.231553e+001  -5.716766e+001 
3787500000  -3.158294e+001  -5.960497e+001 
3790625000  -3.224128e+001  -6.601218e+001 
3793750000  -3.237741e+001  -6.639305e+001 
3796875000  -3.149547e+001  -6.754121e+001 
3800000000  -2.987577e+001  -7.143147e+001 
3803125000  -3.067661e+001  -7.803599e+001 
3806250000  -3.134520e+001  -8.061077e+001 
3809375000  -3.103882e+001  -8.159276e+001 
3812500000  -3.042593e+001  -8.652031e+001 
3815625000  -3.099774e+001  -9.468102e+001 
3818750000  -3.203071e+001  -9.541539e+001 
3821875000  -3.206712e+001  -8.679542e+001 
3825000000  -3.008121e+001  -8.193015e+001 
3828125000  -2.873095e+001  -9.618925e+001 
3831250000  -2.939483e+001  -1.101028e+002 
3834375000  -3.071936e+001  -1.114889e+002 
3837500000  -3.158098e+001  -1.055834e+002 
3840625000  -3.039976e+001  -1.068316e+002 
3843750000  -2.932969e+001  -1.169969e+002 
3846875000  -2.989227e+001  -1.246692e+002 
3850000000  -3.132383e+001  -1.179722e+002 
3853125000  -3.050693e+001  -1.154910e+002 
3856250000  -3.039131e+001  -1.198458e+002 
3859375000  -2.966917e+001  -1.256315e+002 
3862500000  -2.924507e+001  -1.327290e+002 
3865625000  -2.953470e+001  -1.374979e+002 
3868750000  -2.957126e+001  -1.377373e+002 
3871875000  -2.880916e+001  -1.407966e+002 
3875000000  -2.894202e+001  -1.492993e+002 
3878125000  -2.997537e+001  -1.515543e+002 
3881250000  -3.004883e+001  -1.488116e+002 
3884375000  -2.949671e+001  -1.536467e+002 
3887500000  -2.972327e+001  -1.577341e+002 
3890625000  -3.017592e+001  -1.596814e+002 
3893750000  -3.061676e+001  -1.613415e+002 
3896875000  -3.074558e+001  -1.599432e+002 
3900000000  -3.099456e+001  -1.616866e+002 
3903125000  -3.047931e+001  -1.636485e+002 
3906250000  -3.040031e+001  -1.644418e+002 
3909375000  -2.962721e+001  -1.678578e+002 
3912500000  -2.968484e+001  -1.747902e+002 
3915625000  -3.093388e+001  -1.737441e+002 
3918750000  -3.101144e+001  -1.715936e+002 
3921875000  -3.057915e+001  -1.738411e+002 
3925000000  -2.973238e+001  -1.746727e+002 
3928125000  -2.911973e+001  1.795441e+002 
3931250000  -2.959361e+001  1.759277e+002 
3934375000  -2.983739e+001  1.764066e+002 
3937500000  -3.001713e+001  1.758158e+002 
3940625000  -3.047809e+001  1.755122e+002 
3943750000  -2.943441e+001  1.771769e+002 
3946875000  -2.828901e+001  1.719584e+002 
3950000000  -2.880552e+001  1.640229e+002 
3953125000  -2.978891e+001  1.651443e+002 
3956250000  -2.887874e+001  1.680473e+002 
3959375000  -2.753296e+001  1.643548e+002 
3962500000  -2.698590e+001  1.603053e+002 
3965625000  -2.664889e+001  1.509026e+002 
3968750000  -2.762005e+001  1.452808e+002 
3971875000  -2.782724e+001  1.434221e+002 
3975000000  -2.725490e+001  1.416785e+002 
3978125000  -2.706831e+001  1.403277e+002 
3981250000  -2.683625e+001  1.358968e+002 
3984375000  -2.702291e+001  1.299572e+002 
3987500000  -2.756997e+001  1.277963e+002 
3990625000  -2.752944e+001  1.267427e+002 
3993750000  -2.774082e+001  1.234579e+002 
3996875000  -2.770727e+001  1.211147e+002 
4000000000  -2.779186e+001  1.189947e+002 
4003125000  -2.837942e+001  1.210529e+002 
4006250000  -2.701240e+001  1.217579e+002 
4009375000  -2.577003e+001  1.091405e+002 
4012500000  -2.688070e+001  1.021694e+002 
4015625000  -2.811115e+001  1.025054e+002 
4018750000  -2.827224e+001  1.050189e+002 
4021875000  -2.757246e+001  1.029930e+002 
4025000000  -2.723218e+001  9.799774e+001 
4028125000  -2.718252e+001  9.442103e+001 
4031250000  -2.769577e+001  9.124931e+001 
4034375000  -2.795350e+001  9.109589e+001 
4037500000  -2.739719e+001  9.295844e+001 
4040625000  -2.731541e+001  8.943662e+001 
4043750000  -2.776754e+001  8.909444e+001 
4046875000  -2.732995e+001  8.864382e+001 
4050000000  -2.682199e+001  8.310843e+001 
4053125000  -2.732319e+001  8.139362e+001 
4056250000  -2.795973e+001  8.545979e+001 
4059375000  -2.666406e+001  8.711100e+001 
4062500000  -2.532328e+001  8.280310e+001 
4065625000  -2.513849e+001  7.798670e+001 
4068750000  -2.484354e+001  7.360583e+001 
4071875000  -2.423679e+001  6.602551e+001 
4075000000  -2.458166e+001  5.931599e+001 
4078125000  -2.517202e+001  5.868686e+001 
4081250000  -2.463939e+001  5.626577e+001 
4084375000  -2.421942e+001  4.974931e+001 
4087500000  -2.458642e+001  4.340506e+001 
4090625000  -2.514155e+001  4.240567e+001 
4093750000  -2.493055e+001  4.287486e+001 
4096875000  -2.454506e+001  3.703065e+001 
4100000000  -2.524252e+001  3.009633e+001 
4103125000  -2.613732e+001  3.084720e+001 
4106250000  -2.594827e+001  3.575452e+001 
4109375000  -2.501350e+001  3.535499e+001 
4112500000  -2.448632e+001  2.826369e+001 
4115625000  -2.481992e+001  2.428648e+001 
4118750000  -2.493305e+001  2.143958e+001 
4121875000  -2.445117e+001  1.691580e+001 
4125000000  -2.485314e+001  1.138688e+001 
4128125000  -2.592120e+001  1.164976e+001 
4131250000  -2.552019e+001  1.978376e+001 
4134375000  -2.323513e+001  1.525149e+001 
4137500000  -2.306241e+001  -3.874877e+000 
4140625000  -2.526548e+001  -1.100645e+001 
4143750000  -2.647769e+001  -5.390383e+000 
4146875000  -2.607076e+001  1.670720e+000 
4150000000  -2.516236e+001  -1.760342e+000 
4153125000  -2.499405e+001  -8.506599e+000 
4156250000  -2.591732e+001  -1.103788e+001 
4159375000  -2.615383e+001  -6.412359e+000 
4162500000  -2.498991e+001  -2.087184e+000 
4165625000  -2.388643e+001  -6.468766e+000 
4168750000  -2.335032e+001  -1.375285e+001 
4171875000  -2.331729e+001  -2.272094e+001 
4175000000  -2.388787e+001  -2.842799e+001 
4178125000  -2.455485e+001  -2.821109e+001 
4181250000  -2.434742e+001  -2.894536e+001 
4184375000  -2.424478e+001  -3.218399e+001 
4187500000  -2.427518e+001  -3.469970e+001 
4190625000  -2.411325e+001  -4.005007e+001 
4193750000  -2.490817e+001  -4.410072e+001 
4196875000  -2.565469e+001  -4.448002e+001 
4200000000  -2.652962e+001  -4.165673e+001 
4203125000  -2.647862e+001  -2.818310e+001 
4206250000  -2.301992e+001  -2.665924e+001 
4209375000  -2.197741e+001  -4.737152e+001 
4212500000  -2.388947e+001  -5.624059e+001 
4215625000  -2.489054e+001  -4.988179e+001 
4218750000  -2.350985e+001  -4.268719e+001 
4221875000  -2.122395e+001  -5.236993e+001 
4225000000  -2.244703e+001  -6.471642e+001 
4228125000  -2.311384e+001  -5.972445e+001 
4231250000  -2.152606e+001  -6.331931e+001 
4234375000  -2.143503e+001  -7.210791e+001 
4237500000  -2.103564e+001  -7.518363e+001 
4240625000  -2.105997e+001  -8.369209e+001 
4243750000  -2.203119e+001  -9.044893e+001 
4246875000  -2.292873e+001  -9.046191e+001 
4250000000  -2.298762e+001  -8.780182e+001 
4253125000  -2.234508e+001  -8.952645e+001 
4256250000  -2.265855e+001  -9.366158e+001 
4259375000  -2.239822e+001  -9.568197e+001 
4262500000  -2.242553e+001  -9.968999e+001 
4265625000  -2.254703e+001  -9.913109e+001 
4268750000  -2.165937e+001  -1.034295e+002 
4271875000  -2.143237e+001  -1.090309e+002 
4275000000  -2.079761e+001  -1.156509e+002 
4278125000  -2.142850e+001  -1.268697e+002 
4281250000  -2.324898e+001  -1.287169e+002 
4284375000  -2.294269e+001  -1.281800e+002 
4287500000  -2.375451e+001  -1.320074e+002 
4290625000  -2.494856e+001  -1.221662e+002 
4293750000  -2.294794e+001  -1.167280e+002 
4296875000  -2.165859e+001  -1.279308e+002 
4300000000  -2.249599e+001  -1.373777e+002 
4303125000  -2.361406e+001  -1.357811e+002 
4306250000  -2.293967e+001  -1.298239e+002 
4309375000  -2.158694e+001  -1.320632e+002 
4312500000  -2.151455e+001  -1.404921e+002 
4315625000  -2.173865e+001  -1.467156e+002 
4318750000  -2.207842e+001  -1.499623e+002 
4321875000  -2.220075e+001  -1.492761e+002 
4325000000  -2.167070e+001  -1.484448e+002 
4328125000  -2.114728e+001  -1.550049e+002 
4331250000  -2.105552e+001  -1.631971e+002 
4334375000  -2.152557e+001  -1.683196e+002 
4337500000  -2.239668e+001  -1.703209e+002 
4340625000  -2.294209e+001  -1.669634e+002 
4343750000  -2.230169e+001  -1.664249e+002 
4346875000  -2.194298e+001  -1.719890e+002 
4350000000  -2.195854e+001  -1.768319e+002 
4353125000  -2.194510e+001  1.758294e+002 
4356250000  -2.378236e+001  1.748344e+002 
4359375000  -2.434374e+001  -1.714577e+002 
4362500000  -2.154391e+001  -1.700471e+002 
4365625000  -1.996557e+001  1.782653e+002 
4368750000  -2.068711e+001  1.661992e+002 
4371875000  -2.186327e+001  1.671836e+002 
4375000000  -2.155636e+001  1.679873e+002 
4378125000  -2.089061e+001  1.622177e+002 
4381250000  -2.106748e+001  1.566186e+002 
4384375000  -2.088648e+001  1.520592e+002 
4387500000  -2.166979e+001  1.464347e+002 
4390625000  -2.267601e+001  1.474112e+002 
4393750000  -2.195680e+001  1.492830e+002 
4396875000  -2.130850e+001  1.471728e+002 
4400000000  -2.077493e+001  1.400551e+002 
4403125000  -2.137753e+001  1.327018e+002 
4406250000  -2.224259e+001  1.315121e+002 
4409375000  -2.220707e+001  1.287745e+002 
4412500000  -2.322534e+001  1.260008e+002 
4415625000  -2.359860e+001  1.311843e+002 
4418750000  -2.237784e+001  1.356382e+002 
