!Agilent Technologies,E8363B,MY43030201,A.06.04.32
!Agilent E8363B: A.06.04.32
!Date: Tuesday, November 11, 2014 20:44:16
!Correction: S21(Response(S21)) 
!S1P File: Measurement: S21:
# Hz S  dB   R 50
3000000000  -2.650061e+001  1.588192e+002 
3003125000  -2.784859e+001  1.548725e+002 
3006250000  -2.793447e+001  1.514537e+002 
3009375000  -2.828556e+001  1.564781e+002 
3012500000  -2.780396e+001  1.565889e+002 
3015625000  -2.680264e+001  1.494437e+002 
3018750000  -2.764711e+001  1.482032e+002 
3021875000  -2.641839e+001  1.496382e+002 
3025000000  -2.513037e+001  1.468195e+002 
3028125000  -2.416228e+001  1.422123e+002 
3031250000  -2.311581e+001  1.308858e+002 
3034375000  -2.274197e+001  1.179094e+002 
3037500000  -2.303152e+001  1.058292e+002 
3040625000  -2.436777e+001  1.008511e+002 
3043750000  -2.514435e+001  9.660097e+001 
3046875000  -2.518834e+001  9.018197e+001 
3050000000  -2.693802e+001  8.295695e+001 
3053125000  -2.712178e+001  8.928295e+001 
3056250000  -2.642491e+001  9.254942e+001 
3059375000  -2.670412e+001  9.230921e+001 
3062500000  -2.522051e+001  8.819012e+001 
3065625000  -2.502675e+001  8.296993e+001 
3068750000  -2.472270e+001  7.592545e+001 
3071875000  -2.467398e+001  7.262447e+001 
3075000000  -2.467077e+001  6.933762e+001 
3078125000  -2.438936e+001  6.453160e+001 
3081250000  -2.497477e+001  6.046564e+001 
3084375000  -2.428830e+001  5.704528e+001 
3087500000  -2.412473e+001  5.338607e+001 
3090625000  -2.383204e+001  4.377034e+001 
3093750000  -2.423425e+001  3.554840e+001 
3096875000  -2.558862e+001  2.930779e+001 
3100000000  -2.571528e+001  2.802450e+001 
3103125000  -2.608713e+001  2.950077e+001 
3106250000  -2.579327e+001  2.597701e+001 
3109375000  -2.605708e+001  2.244839e+001 
3112500000  -2.618186e+001  2.196826e+001 
3115625000  -2.593512e+001  1.706774e+001 
3118750000  -2.647763e+001  1.856196e+001 
3121875000  -2.581041e+001  1.085590e+001 
3125000000  -2.686969e+001  6.848917e+000 
3128125000  -2.810711e+001  1.482203e+001 
3131250000  -2.599576e+001  1.586880e+001 
3134375000  -2.460389e+001  2.599268e+000 
3137500000  -2.524160e+001  -1.162993e+001 
3140625000  -2.691836e+001  -1.355142e+001 
3143750000  -2.790725e+001  -9.079320e+000 
3146875000  -2.756487e+001  -7.455785e+000 
3150000000  -2.655320e+001  -5.032545e+000 
3153125000  -2.646420e+001  -1.290005e+001 
3156250000  -2.750527e+001  -7.538245e+000 
3159375000  -2.601016e+001  -4.126010e+000 
3162500000  -2.389591e+001  -1.718683e+001 
3165625000  -2.478435e+001  -2.810993e+001 
3168750000  -2.524639e+001  -2.748643e+001 
3171875000  -2.427318e+001  -3.139341e+001 
3175000000  -2.488723e+001  -3.912313e+001 
3178125000  -2.473796e+001  -3.772656e+001 
3181250000  -2.352987e+001  -4.124506e+001 
3184375000  -2.270925e+001  -5.382420e+001 
3187500000  -2.377019e+001  -6.899520e+001 
3190625000  -2.659307e+001  -7.676929e+001 
3193750000  -2.724650e+001  -6.723278e+001 
3196875000  -2.679044e+001  -6.152827e+001 
3200000000  -2.600855e+001  -6.332862e+001 
3203125000  -2.508112e+001  -6.892858e+001 
3206250000  -2.534371e+001  -7.482510e+001 
3209375000  -2.488011e+001  -7.994762e+001 
3212500000  -2.495767e+001  -8.667898e+001 
3215625000  -2.511654e+001  -9.156817e+001 
3218750000  -2.592660e+001  -9.737577e+001 
3221875000  -2.690539e+001  -1.026445e+002 
3225000000  -2.651407e+001  -1.031164e+002 
3228125000  -2.678720e+001  -1.075505e+002 
3231250000  -2.756934e+001  -1.106224e+002 
3234375000  -2.743081e+001  -1.094247e+002 
3237500000  -2.748178e+001  -1.109859e+002 
3240625000  -2.715237e+001  -1.125465e+002 
3243750000  -2.678120e+001  -1.190860e+002 
3246875000  -2.729233e+001  -1.258722e+002 
3250000000  -2.767119e+001  -1.278415e+002 
3253125000  -2.788619e+001  -1.292738e+002 
3256250000  -2.773171e+001  -1.350946e+002 
3259375000  -2.801759e+001  -1.427629e+002 
3262500000  -2.927639e+001  -1.458032e+002 
3265625000  -3.000425e+001  -1.427052e+002 
3268750000  -2.996653e+001  -1.399588e+002 
3271875000  -2.979530e+001  -1.391417e+002 
3275000000  -2.866261e+001  -1.434268e+002 
3278125000  -2.912910e+001  -1.502374e+002 
3281250000  -2.939505e+001  -1.478517e+002 
3284375000  -2.896619e+001  -1.542047e+002 
3287500000  -2.912492e+001  -1.567957e+002 
3290625000  -2.955846e+001  -1.610856e+002 
3293750000  -2.923633e+001  -1.667096e+002 
3296875000  -3.018729e+001  -1.670659e+002 
3300000000  -3.015714e+001  -1.655061e+002 
3303125000  -2.897050e+001  -1.692186e+002 
3306250000  -2.874494e+001  -1.757933e+002 
3309375000  -2.855339e+001  1.792971e+002 
3312500000  -2.854379e+001  1.692478e+002 
3315625000  -2.954105e+001  1.612320e+002 
3318750000  -3.095528e+001  1.579865e+002 
3321875000  -3.216791e+001  1.584303e+002 
3325000000  -3.259811e+001  1.621803e+002 
3328125000  -3.256371e+001  1.642776e+002 
3331250000  -3.131505e+001  1.719633e+002 
3334375000  -2.877008e+001  1.628457e+002 
3337500000  -2.882444e+001  1.450269e+002 
3340625000  -3.015693e+001  1.336629e+002 
3343750000  -3.211093e+001  1.318518e+002 
3346875000  -3.261238e+001  1.335262e+002 
3350000000  -3.194092e+001  1.323475e+002 
3353125000  -3.209608e+001  1.283557e+002 
3356250000  -3.180765e+001  1.205620e+002 
3359375000  -3.269108e+001  1.117488e+002 
3362500000  -3.399362e+001  1.065024e+002 
3365625000  -3.460638e+001  1.050592e+002 
3368750000  -3.554633e+001  1.030169e+002 
3371875000  -3.595686e+001  9.989909e+001 
3375000000  -3.745551e+001  9.745695e+001 
3378125000  -3.862612e+001  9.767829e+001 
3381250000  -3.991103e+001  1.039442e+002 
3384375000  -3.959156e+001  1.260937e+002 
3387500000  -3.628524e+001  1.125268e+002 
3390625000  -3.795035e+001  9.405603e+001 
3393750000  -3.976777e+001  9.684099e+001 
3396875000  -3.905118e+001  1.013781e+002 
3400000000  -3.890832e+001  9.333929e+001 
3403125000  -3.977364e+001  9.093945e+001 
3406250000  -4.076138e+001  9.073434e+001 
3409375000  -4.134079e+001  8.574247e+001 
3412500000  -4.240173e+001  8.887057e+001 
3415625000  -4.324660e+001  9.376466e+001 
3418750000  -4.338517e+001  9.704626e+001 
3421875000  -4.386455e+001  1.049633e+002 
3425000000  -4.324393e+001  1.075217e+002 
3428125000  -4.216550e+001  1.086820e+002 
3431250000  -4.217737e+001  1.031609e+002 
3434375000  -4.166626e+001  1.024325e+002 
3437500000  -4.205886e+001  9.924076e+001 
3440625000  -4.258720e+001  1.033444e+002 
3443750000  -4.146552e+001  1.038790e+002 
3446875000  -4.032807e+001  9.968732e+001 
3450000000  -4.021406e+001  8.893798e+001 
3453125000  -4.051218e+001  8.218912e+001 
3456250000  -4.141917e+001  7.676505e+001 
3459375000  -4.269878e+001  7.951244e+001 
3462500000  -4.327851e+001  7.983803e+001 
3465625000  -4.276169e+001  7.663498e+001 
3468750000  -4.311277e+001  7.240752e+001 
3471875000  -4.296934e+001  7.505230e+001 
3475000000  -4.313280e+001  7.019853e+001 
3478125000  -4.389954e+001  6.333503e+001 
3481250000  -4.531946e+001  6.444297e+001 
3484375000  -4.671183e+001  6.957195e+001 
3487500000  -4.614822e+001  7.267419e+001 
3490625000  -4.564329e+001  7.294819e+001 
3493750000  -4.672068e+001  6.463654e+001 
3496875000  -4.767765e+001  7.056013e+001 
3500000000  -4.914202e+001  7.615922e+001 
3503125000  -4.918347e+001  8.162514e+001 
3506250000  -4.739314e+001  8.520129e+001 
3509375000  -4.763716e+001  8.320066e+001 
3512500000  -4.767702e+001  8.045268e+001 
3515625000  -4.812155e+001  8.541510e+001 
3518750000  -4.853171e+001  9.112794e+001 
3521875000  -4.817065e+001  9.155839e+001 
3525000000  -4.822572e+001  9.775493e+001 
3528125000  -4.758762e+001  1.053367e+002 
3531250000  -4.569311e+001  1.063124e+002 
3534375000  -4.484959e+001  9.725900e+001 
3537500000  -4.507145e+001  9.450420e+001 
3540625000  -4.576340e+001  9.438667e+001 
3543750000  -4.579793e+001  9.614098e+001 
3546875000  -4.572562e+001  1.087764e+002 
3550000000  -4.311396e+001  1.101642e+002 
3553125000  -4.188889e+001  9.511784e+001 
3556250000  -4.204149e+001  8.826112e+001 
3559375000  -4.220938e+001  9.021193e+001 
3562500000  -4.112832e+001  8.350780e+001 
3565625000  -4.205135e+001  7.520403e+001 
3568750000  -4.182894e+001  7.806998e+001 
3571875000  -4.176545e+001  7.987979e+001 
3575000000  -4.110584e+001  7.499686e+001 
3578125000  -4.140764e+001  7.126561e+001 
3581250000  -4.183797e+001  7.064809e+001 
3584375000  -4.058571e+001  7.170872e+001 
3587500000  -4.018935e+001  6.482048e+001 
3590625000  -4.043809e+001  5.564945e+001 
3593750000  -4.139771e+001  5.392858e+001 
3596875000  -4.138326e+001  6.210117e+001 
3600000000  -4.000687e+001  5.915994e+001 
3603125000  -4.029337e+001  4.696778e+001 
3606250000  -4.081399e+001  4.261578e+001 
3609375000  -4.113256e+001  4.333306e+001 
3612500000  -4.164471e+001  4.149307e+001 
3615625000  -4.172300e+001  4.065817e+001 
3618750000  -4.237526e+001  4.324342e+001 
3621875000  -4.170352e+001  4.109382e+001 
3625000000  -4.189902e+001  4.118151e+001 
3628125000  -4.203041e+001  4.058926e+001 
3631250000  -4.138659e+001  3.658364e+001 
3634375000  -4.250314e+001  3.813783e+001 
3637500000  -4.224704e+001  4.370039e+001 
3640625000  -4.102938e+001  4.364309e+001 
3643750000  -4.059048e+001  3.892911e+001 
3646875000  -4.109937e+001  3.261044e+001 
3650000000  -4.175143e+001  3.092241e+001 
3653125000  -4.135194e+001  3.268851e+001 
3656250000  -4.167324e+001  2.972902e+001 
3659375000  -4.216821e+001  3.439719e+001 
3662500000  -4.118348e+001  3.329214e+001 
3665625000  -4.124704e+001  3.169429e+001 
3668750000  -4.026209e+001  3.772906e+001 
3671875000  -3.943480e+001  3.036077e+001 
3675000000  -3.988722e+001  2.390308e+001 
3678125000  -4.029977e+001  2.530130e+001 
3681250000  -3.968226e+001  2.769865e+001 
3684375000  -3.985906e+001  2.574901e+001 
3687500000  -3.995355e+001  2.370307e+001 
3690625000  -3.973978e+001  2.119618e+001 
3693750000  -4.030948e+001  2.299980e+001 
3696875000  -4.016338e+001  2.618723e+001 
3700000000  -3.911990e+001  2.463224e+001 
3703125000  -3.883578e+001  2.208797e+001 
3706250000  -3.936813e+001  2.393174e+001 
3709375000  -3.866663e+001  2.669505e+001 
3712500000  -3.742735e+001  2.612014e+001 
3715625000  -3.636464e+001  2.198188e+001 
3718750000  -3.579496e+001  1.898787e+001 
3721875000  -3.519447e+001  1.224661e+001 
3725000000  -3.527238e+001  8.558024e+000 
3728125000  -3.532266e+001  6.950250e+000 
3731250000  -3.469688e+001  7.004524e+000 
3734375000  -3.373075e+001  4.517088e-001 
3737500000  -3.424139e+001  -7.077888e+000 
3740625000  -3.476132e+001  -1.051179e+001 
3743750000  -3.470794e+001  -1.188370e+001 
3746875000  -3.453432e+001  -1.548212e+001 
3750000000  -3.496208e+001  -1.633991e+001 
3753125000  -3.446019e+001  -1.613425e+001 
3756250000  -3.454406e+001  -1.743747e+001 
3759375000  -3.415791e+001  -1.727987e+001 
3762500000  -3.375004e+001  -2.226801e+001 
3765625000  -3.406089e+001  -2.529571e+001 
3768750000  -3.419287e+001  -2.268803e+001 
3771875000  -3.257037e+001  -2.460241e+001 
3775000000  -3.220786e+001  -3.370652e+001 
3778125000  -3.262305e+001  -3.466865e+001 
3781250000  -3.228211e+001  -3.711358e+001 
3784375000  -3.227780e+001  -3.933563e+001 
3787500000  -3.162114e+001  -4.322778e+001 
3790625000  -3.231785e+001  -4.877863e+001 
3793750000  -3.234385e+001  -4.892181e+001 
3796875000  -3.157007e+001  -5.109939e+001 
3800000000  -2.998087e+001  -5.455159e+001 
3803125000  -3.066808e+001  -6.082740e+001 
3806250000  -3.139977e+001  -6.360683e+001 
3809375000  -3.115938e+001  -6.484322e+001 
3812500000  -3.043352e+001  -6.955273e+001 
3815625000  -3.099657e+001  -7.652975e+001 
3818750000  -3.192039e+001  -7.864304e+001 
3821875000  -3.205071e+001  -7.128342e+001 
3825000000  -3.022785e+001  -6.645380e+001 
3828125000  -2.882347e+001  -7.939910e+001 
3831250000  -2.934900e+001  -9.308150e+001 
3834375000  -3.067366e+001  -9.434306e+001 
3837500000  -3.148269e+001  -8.943235e+001 
3840625000  -3.045593e+001  -8.999895e+001 
3843750000  -2.936283e+001  -1.005192e+002 
3846875000  -2.992324e+001  -1.074921e+002 
3850000000  -3.123643e+001  -1.023732e+002 
3853125000  -3.056256e+001  -9.972044e+001 
3856250000  -3.036901e+001  -1.041266e+002 
3859375000  -2.981241e+001  -1.084998e+002 
3862500000  -2.927633e+001  -1.157230e+002 
3865625000  -2.962714e+001  -1.203312e+002 
3868750000  -2.958052e+001  -1.205856e+002 
3871875000  -2.892359e+001  -1.228248e+002 
3875000000  -2.894740e+001  -1.317794e+002 
3878125000  -2.996322e+001  -1.349431e+002 
3881250000  -3.008093e+001  -1.317453e+002 
3884375000  -2.957927e+001  -1.359559e+002 
3887500000  -2.960236e+001  -1.402544e+002 
3890625000  -3.018027e+001  -1.426362e+002 
3893750000  -3.062671e+001  -1.449344e+002 
3896875000  -3.064368e+001  -1.441884e+002 
3900000000  -3.091857e+001  -1.444266e+002 
3903125000  -3.058584e+001  -1.469794e+002 
3906250000  -3.038158e+001  -1.480863e+002 
3909375000  -2.967104e+001  -1.495192e+002 
3912500000  -2.968539e+001  -1.571001e+002 
3915625000  -3.081373e+001  -1.564691e+002 
3918750000  -3.085662e+001  -1.550859e+002 
3921875000  -3.060237e+001  -1.565894e+002 
3925000000  -2.982057e+001  -1.569341e+002 
3928125000  -2.903357e+001  -1.623953e+002 
3931250000  -2.941452e+001  -1.667416e+002 
3934375000  -2.969623e+001  -1.666930e+002 
3937500000  -2.985480e+001  -1.672599e+002 
3940625000  -3.025342e+001  -1.669788e+002 
3943750000  -2.951168e+001  -1.660935e+002 
3946875000  -2.820511e+001  -1.706109e+002 
3950000000  -2.862917e+001  -1.782720e+002 
3953125000  -2.957490e+001  -1.784294e+002 
3956250000  -2.892706e+001  -1.752529e+002 
3959375000  -2.744542e+001  -1.786367e+002 
3962500000  -2.691776e+001  1.776222e+002 
3965625000  -2.648830e+001  1.691295e+002 
3968750000  -2.747178e+001  1.625929e+002 
3971875000  -2.793237e+001  1.611635e+002 
3975000000  -2.718041e+001  1.593416e+002 
3978125000  -2.699187e+001  1.576084e+002 
3981250000  -2.672583e+001  1.531613e+002 
3984375000  -2.696330e+001  1.471392e+002 
3987500000  -2.747037e+001  1.448348e+002 
3990625000  -2.741406e+001  1.441858e+002 
3993750000  -2.765280e+001  1.406612e+002 
3996875000  -2.769316e+001  1.384360e+002 
4000000000  -2.769864e+001  1.365418e+002 
4003125000  -2.835897e+001  1.378073e+002 
4006250000  -2.701094e+001  1.391760e+002 
4009375000  -2.572000e+001  1.263335e+002 
4012500000  -2.676828e+001  1.191688e+002 
4015625000  -2.797082e+001  1.196839e+002 
4018750000  -2.823449e+001  1.218922e+002 
4021875000  -2.753176e+001  1.204200e+002 
4025000000  -2.716010e+001  1.155789e+002 
4028125000  -2.712825e+001  1.114785e+002 
4031250000  -2.752989e+001  1.088475e+002 
4034375000  -2.787544e+001  1.081814e+002 
4037500000  -2.731771e+001  1.101430e+002 
4040625000  -2.724562e+001  1.066289e+002 
4043750000  -2.762214e+001  1.064027e+002 
4046875000  -2.719492e+001  1.062452e+002 
4050000000  -2.664319e+001  1.005044e+002 
4053125000  -2.705210e+001  9.793749e+001 
4056250000  -2.774131e+001  1.019063e+002 
4059375000  -2.661470e+001  1.038426e+002 
4062500000  -2.520571e+001  1.000853e+002 
4065625000  -2.500030e+001  9.502259e+001 
4068750000  -2.472766e+001  9.058655e+001 
4071875000  -2.413371e+001  8.289027e+001 
4075000000  -2.445315e+001  7.652320e+001 
4078125000  -2.500025e+001  7.526735e+001 
4081250000  -2.452528e+001  7.359496e+001 
4084375000  -2.414602e+001  6.700382e+001 
4087500000  -2.445992e+001  6.048760e+001 
4090625000  -2.501838e+001  5.915171e+001 
4093750000  -2.490455e+001  6.015345e+001 
4096875000  -2.439997e+001  5.440290e+001 
4100000000  -2.507578e+001  4.711500e+001 
4103125000  -2.594139e+001  4.753837e+001 
4106250000  -2.585854e+001  5.222560e+001 
4109375000  -2.500810e+001  5.234463e+001 
4112500000  -2.445966e+001  4.560455e+001 
4115625000  -2.469013e+001  4.146300e+001 
4118750000  -2.483967e+001  3.833598e+001 
4121875000  -2.445151e+001  3.415684e+001 
4125000000  -2.475794e+001  2.922563e+001 
4128125000  -2.570975e+001  2.861459e+001 
4131250000  -2.561204e+001  3.637760e+001 
4134375000  -2.322763e+001  3.261636e+001 
4137500000  -2.297324e+001  1.404002e+001 
4140625000  -2.510269e+001  6.501471e+000 
4143750000  -2.642974e+001  1.070019e+001 
4146875000  -2.606059e+001  1.874270e+001 
4150000000  -2.517236e+001  1.526198e+001 
4153125000  -2.496970e+001  9.424171e+000 
4156250000  -2.579829e+001  6.612823e+000 
4159375000  -2.608204e+001  1.069651e+001 
4162500000  -2.499600e+001  1.482701e+001 
4165625000  -2.385786e+001  1.133341e+001 
4168750000  -2.327149e+001  4.298565e+000 
4171875000  -2.322272e+001  -4.963274e+000 
4175000000  -2.379036e+001  -1.067438e+001 
4178125000  -2.442493e+001  -1.091971e+001 
4181250000  -2.434193e+001  -1.134907e+001 
4184375000  -2.417565e+001  -1.448310e+001 
4187500000  -2.418211e+001  -1.714580e+001 
4190625000  -2.402908e+001  -2.254510e+001 
4193750000  -2.475010e+001  -2.647921e+001 
4196875000  -2.546334e+001  -2.684945e+001 
4200000000  -2.624890e+001  -2.482277e+001 
4203125000  -2.642700e+001  -1.237098e+001 
4206250000  -2.315566e+001  -9.891159e+000 
4209375000  -2.187298e+001  -3.000586e+001 
4212500000  -2.374633e+001  -3.891016e+001 
4215625000  -2.479903e+001  -3.317487e+001 
4218750000  -2.356416e+001  -2.590936e+001 
4221875000  -2.113885e+001  -3.494083e+001 
4225000000  -2.231680e+001  -4.766988e+001 
4228125000  -2.310126e+001  -4.271215e+001 
4231250000  -2.159430e+001  -4.637545e+001 
4234375000  -2.149364e+001  -5.425869e+001 
4237500000  -2.103960e+001  -5.778654e+001 
4240625000  -2.108327e+001  -6.583397e+001 
4243750000  -2.198430e+001  -7.304353e+001 
4246875000  -2.282186e+001  -7.304453e+001 
4250000000  -2.291085e+001  -7.044635e+001 
4253125000  -2.231989e+001  -7.212603e+001 
4256250000  -2.259269e+001  -7.638400e+001 
4259375000  -2.237965e+001  -7.825579e+001 
4262500000  -2.236496e+001  -8.217747e+001 
4265625000  -2.255690e+001  -8.166665e+001 
4268750000  -2.173596e+001  -8.582613e+001 
4271875000  -2.145844e+001  -9.139533e+001 
4275000000  -2.078093e+001  -9.778230e+001 
4278125000  -2.133723e+001  -1.089077e+002 
4281250000  -2.314222e+001  -1.110147e+002 
4284375000  -2.290853e+001  -1.103383e+002 
4287500000  -2.359558e+001  -1.140942e+002 
4290625000  -2.488908e+001  -1.049651e+002 
4293750000  -2.302959e+001  -9.881165e+001 
4296875000  -2.165875e+001  -1.102677e+002 
4300000000  -2.241722e+001  -1.194177e+002 
4303125000  -2.352094e+001  -1.187884e+002 
4306250000  -2.308949e+001  -1.124698e+002 
4309375000  -2.158763e+001  -1.143551e+002 
4312500000  -2.150089e+001  -1.226389e+002 
4315625000  -2.172360e+001  -1.287370e+002 
4318750000  -2.196850e+001  -1.319641e+002 
4321875000  -2.218994e+001  -1.315758e+002 
4325000000  -2.160252e+001  -1.311302e+002 
4328125000  -2.113363e+001  -1.373171e+002 
4331250000  -2.104013e+001  -1.452980e+002 
4334375000  -2.146764e+001  -1.500386e+002 
4337500000  -2.225042e+001  -1.525466e+002 
4340625000  -2.279447e+001  -1.496391e+002 
4343750000  -2.232805e+001  -1.488146e+002 
4346875000  -2.191588e+001  -1.541407e+002 
4350000000  -2.188892e+001  -1.588979e+002 
4353125000  -2.187628e+001  -1.663380e+002 
4356250000  -2.352227e+001  -1.680130e+002 
4359375000  -2.431470e+001  -1.556193e+002 
4362500000  -2.178593e+001  -1.526593e+002 
4365625000  -2.003276e+001  -1.638598e+002 
4368750000  -2.067627e+001  -1.760028e+002 
4371875000  -2.193681e+001  -1.758279e+002 
4375000000  -2.163904e+001  -1.741654e+002 
4378125000  -2.094484e+001  1.799679e+002 
4381250000  -2.109883e+001  1.745909e+002 
4384375000  -2.094667e+001  1.701608e+002 
4387500000  -2.160633e+001  1.642923e+002 
4390625000  -2.262627e+001  1.650848e+002 
4393750000  -2.200731e+001  1.670911e+002 
4396875000  -2.132169e+001  1.648577e+002 
4400000000  -2.077842e+001  1.583541e+002 
4403125000  -2.131936e+001  1.505276e+002 
4406250000  -2.223612e+001  1.494214e+002 
4409375000  -2.215355e+001  1.470089e+002 
4412500000  -2.317417e+001  1.440129e+002 
4415625000  -2.363518e+001  1.487822e+002 
4418750000  -2.247014e+001  1.534837e+002 
