!Agilent Technologies,E8363B,MY43030201,A.06.04.32
!Agilent E8363B: A.06.04.32
!Date: Tuesday, November 11, 2014 20:52:03
!Correction: S21(Response(S21)) 
!S1P File: Measurement: S21:
# Hz S  dB   R 50
3000000000  -2.652584e+001  1.511188e+002 
3003125000  -2.791862e+001  1.467597e+002 
3006250000  -2.797662e+001  1.438759e+002 
3009375000  -2.830544e+001  1.486740e+002 
3012500000  -2.779749e+001  1.484803e+002 
3015625000  -2.684361e+001  1.414180e+002 
3018750000  -2.767384e+001  1.406186e+002 
3021875000  -2.644246e+001  1.421393e+002 
3025000000  -2.509876e+001  1.388973e+002 
3028125000  -2.413177e+001  1.339068e+002 
3031250000  -2.308742e+001  1.225003e+002 
3034375000  -2.272892e+001  1.097056e+002 
3037500000  -2.310880e+001  9.791054e+001 
3040625000  -2.446071e+001  9.268799e+001 
3043750000  -2.515060e+001  8.844594e+001 
3046875000  -2.527898e+001  8.225524e+001 
3050000000  -2.702635e+001  7.515732e+001 
3053125000  -2.712317e+001  8.170569e+001 
3056250000  -2.648776e+001  8.486500e+001 
3059375000  -2.667723e+001  8.425372e+001 
3062500000  -2.520619e+001  8.039703e+001 
3065625000  -2.498490e+001  7.463586e+001 
3068750000  -2.470671e+001  6.791121e+001 
3071875000  -2.462961e+001  6.489562e+001 
3075000000  -2.460884e+001  6.100727e+001 
3078125000  -2.435973e+001  5.657061e+001 
3081250000  -2.500246e+001  5.242180e+001 
3084375000  -2.425519e+001  4.867663e+001 
3087500000  -2.412959e+001  4.504571e+001 
3090625000  -2.384237e+001  3.517489e+001 
3093750000  -2.428429e+001  2.746451e+001 
3096875000  -2.559717e+001  2.137773e+001 
3100000000  -2.571716e+001  2.003612e+001 
3103125000  -2.605869e+001  2.122298e+001 
3106250000  -2.581471e+001  1.774447e+001 
3109375000  -2.603399e+001  1.452143e+001 
3112500000  -2.616227e+001  1.338590e+001 
3115625000  -2.594960e+001  9.085938e+000 
3118750000  -2.650205e+001  1.034799e+001 
3121875000  -2.579787e+001  2.365972e+000 
3125000000  -2.699937e+001  -7.626680e-001 
3128125000  -2.818085e+001  6.916924e+000 
3131250000  -2.598343e+001  7.602081e+000 
3134375000  -2.462298e+001  -5.993494e+000 
3137500000  -2.528352e+001  -1.998585e+001 
3140625000  -2.694322e+001  -2.128157e+001 
3143750000  -2.790582e+001  -1.757720e+001 
3146875000  -2.759266e+001  -1.547354e+001 
3150000000  -2.647312e+001  -1.311395e+001 
3153125000  -2.647921e+001  -2.096151e+001 
3156250000  -2.750338e+001  -1.541913e+001 
3159375000  -2.594153e+001  -1.247233e+001 
3162500000  -2.388593e+001  -2.548436e+001 
3165625000  -2.481422e+001  -3.642396e+001 
3168750000  -2.521968e+001  -3.530093e+001 
3171875000  -2.427023e+001  -3.982604e+001 
3175000000  -2.490925e+001  -4.763208e+001 
3178125000  -2.469161e+001  -4.560986e+001 
3181250000  -2.349874e+001  -4.996507e+001 
3184375000  -2.274387e+001  -6.213272e+001 
3187500000  -2.387537e+001  -7.732898e+001 
3190625000  -2.661211e+001  -8.455891e+001 
3193750000  -2.721046e+001  -7.495183e+001 
3196875000  -2.675385e+001  -6.955205e+001 
3200000000  -2.589034e+001  -7.155206e+001 
3203125000  -2.503451e+001  -7.737096e+001 
3206250000  -2.534415e+001  -8.371203e+001 
3209375000  -2.485916e+001  -8.872956e+001 
3212500000  -2.500799e+001  -9.524711e+001 
3215625000  -2.513302e+001  -9.954436e+001 
3218750000  -2.590768e+001  -1.057198e+002 
3221875000  -2.683650e+001  -1.105366e+002 
3225000000  -2.650418e+001  -1.114227e+002 
3228125000  -2.681982e+001  -1.162038e+002 
3231250000  -2.755829e+001  -1.185476e+002 
3234375000  -2.743575e+001  -1.176639e+002 
3237500000  -2.742257e+001  -1.189650e+002 
3240625000  -2.709165e+001  -1.206528e+002 
3243750000  -2.673874e+001  -1.275967e+002 
3246875000  -2.724389e+001  -1.340450e+002 
3250000000  -2.766139e+001  -1.359472e+002 
3253125000  -2.782133e+001  -1.375646e+002 
3256250000  -2.770244e+001  -1.430581e+002 
3259375000  -2.801510e+001  -1.512978e+002 
3262500000  -2.929786e+001  -1.538797e+002 
3265625000  -3.000235e+001  -1.509057e+002 
3268750000  -2.993678e+001  -1.477800e+002 
3271875000  -2.968768e+001  -1.466211e+002 
3275000000  -2.862256e+001  -1.520012e+002 
3278125000  -2.911100e+001  -1.582701e+002 
3281250000  -2.937766e+001  -1.562800e+002 
3284375000  -2.889578e+001  -1.621177e+002 
3287500000  -2.908675e+001  -1.648613e+002 
3290625000  -2.951264e+001  -1.692379e+002 
3293750000  -2.917850e+001  -1.745963e+002 
3296875000  -3.016680e+001  -1.745749e+002 
3300000000  -3.010568e+001  -1.736726e+002 
3303125000  -2.894180e+001  -1.773676e+002 
3306250000  -2.871784e+001  1.760386e+002 
3309375000  -2.854644e+001  1.707658e+002 
3312500000  -2.853030e+001  1.606059e+002 
3315625000  -2.959660e+001  1.528788e+002 
3318750000  -3.098577e+001  1.500983e+002 
3321875000  -3.204485e+001  1.496256e+002 
3325000000  -3.263918e+001  1.550383e+002 
3328125000  -3.237680e+001  1.559028e+002 
3331250000  -3.125330e+001  1.645966e+002 
3334375000  -2.866016e+001  1.543467e+002 
3337500000  -2.874930e+001  1.363794e+002 
3340625000  -3.015227e+001  1.248572e+002 
3343750000  -3.214277e+001  1.238898e+002 
3346875000  -3.262979e+001  1.250186e+002 
3350000000  -3.197998e+001  1.241991e+002 
3353125000  -3.197604e+001  1.198986e+002 
3356250000  -3.177413e+001  1.121994e+002 
3359375000  -3.265200e+001  1.033378e+002 
3362500000  -3.389205e+001  9.823717e+001 
3365625000  -3.461497e+001  9.641798e+001 
3368750000  -3.554197e+001  9.520999e+001 
3371875000  -3.602520e+001  9.189846e+001 
3375000000  -3.751845e+001  8.962743e+001 
3378125000  -3.857742e+001  8.856197e+001 
3381250000  -4.013590e+001  9.834126e+001 
3384375000  -3.931192e+001  1.184882e+002 
3387500000  -3.593560e+001  1.061533e+002 
3390625000  -3.789888e+001  8.536954e+001 
3393750000  -3.965086e+001  8.971046e+001 
3396875000  -3.887444e+001  9.239707e+001 
3400000000  -3.877942e+001  8.589814e+001 
3403125000  -3.999152e+001  8.128969e+001 
3406250000  -4.079453e+001  8.559323e+001 
3409375000  -4.139593e+001  7.951242e+001 
3412500000  -4.218069e+001  8.117136e+001 
3415625000  -4.297664e+001  8.661130e+001 
3418750000  -4.322554e+001  9.074117e+001 
3421875000  -4.350352e+001  9.795806e+001 
3425000000  -4.276236e+001  1.006925e+002 
3428125000  -4.178254e+001  9.992810e+001 
3431250000  -4.171927e+001  9.716798e+001 
3434375000  -4.128169e+001  9.421985e+001 
3437500000  -4.178786e+001  9.108347e+001 
3440625000  -4.227520e+001  9.365739e+001 
3443750000  -4.093887e+001  9.734164e+001 
3446875000  -3.984798e+001  9.172702e+001 
3450000000  -3.966928e+001  8.212859e+001 
3453125000  -4.020276e+001  7.369092e+001 
3456250000  -4.137052e+001  6.871971e+001 
3459375000  -4.214178e+001  7.050365e+001 
3462500000  -4.265810e+001  7.052259e+001 
3465625000  -4.246531e+001  6.727128e+001 
3468750000  -4.294207e+001  6.304638e+001 
3471875000  -4.291655e+001  6.514161e+001 
3475000000  -4.317881e+001  6.078775e+001 
3478125000  -4.348014e+001  5.357819e+001 
3481250000  -4.483284e+001  5.677082e+001 
3484375000  -4.636008e+001  6.138512e+001 
3487500000  -4.598970e+001  6.131792e+001 
3490625000  -4.541748e+001  5.750540e+001 
3493750000  -4.674084e+001  6.168211e+001 
3496875000  -4.689327e+001  5.834279e+001 
3500000000  -4.769574e+001  6.665302e+001 
3503125000  -4.764373e+001  6.947030e+001 
3506250000  -4.728426e+001  6.996693e+001 
3509375000  -4.718560e+001  6.866781e+001 
3512500000  -4.717863e+001  6.724841e+001 
3515625000  -4.778962e+001  7.219696e+001 
3518750000  -4.821840e+001  7.789214e+001 
3521875000  -4.799627e+001  8.102501e+001 
3525000000  -4.840620e+001  8.357673e+001 
3528125000  -4.713385e+001  9.643556e+001 
3531250000  -4.537339e+001  9.401899e+001 
3534375000  -4.499691e+001  8.588092e+001 
3537500000  -4.515540e+001  8.271224e+001 
3540625000  -4.597665e+001  8.465604e+001 
3543750000  -4.636933e+001  8.565429e+001 
3546875000  -4.545378e+001  9.905141e+001 
3550000000  -4.278947e+001  1.001324e+002 
3553125000  -4.135393e+001  8.175214e+001 
3556250000  -4.209388e+001  7.755814e+001 
3559375000  -4.213062e+001  8.017294e+001 
3562500000  -4.099557e+001  7.402947e+001 
3565625000  -4.172895e+001  6.588853e+001 
3568750000  -4.202544e+001  6.906266e+001 
3571875000  -4.159744e+001  7.087791e+001 
3575000000  -4.089585e+001  6.497364e+001 
3578125000  -4.152663e+001  6.129259e+001 
3581250000  -4.152320e+001  6.164164e+001 
3584375000  -4.051205e+001  6.024021e+001 
3587500000  -3.983708e+001  5.328869e+001 
3590625000  -4.025118e+001  4.626384e+001 
3593750000  -4.136672e+001  4.449493e+001 
3596875000  -4.125721e+001  5.081124e+001 
3600000000  -3.973475e+001  4.892288e+001 
3603125000  -3.998286e+001  3.645747e+001 
3606250000  -4.084294e+001  3.277986e+001 
3609375000  -4.114866e+001  3.345436e+001 
3612500000  -4.150748e+001  3.210525e+001 
3615625000  -4.162575e+001  2.928136e+001 
3618750000  -4.197015e+001  3.147423e+001 
3621875000  -4.153076e+001  2.945358e+001 
3625000000  -4.170741e+001  3.062170e+001 
3628125000  -4.177311e+001  3.020210e+001 
3631250000  -4.149821e+001  2.542010e+001 
3634375000  -4.237152e+001  2.630398e+001 
3637500000  -4.210358e+001  3.241624e+001 
3640625000  -4.065598e+001  3.423381e+001 
3643750000  -4.075257e+001  2.719985e+001 
3646875000  -4.107920e+001  2.207936e+001 
3650000000  -4.162223e+001  2.098190e+001 
3653125000  -4.133129e+001  2.265527e+001 
3656250000  -4.138297e+001  1.976380e+001 
3659375000  -4.207946e+001  2.426758e+001 
3662500000  -4.137409e+001  2.190564e+001 
3665625000  -4.129165e+001  2.085165e+001 
3668750000  -4.010428e+001  2.402921e+001 
3671875000  -3.916549e+001  1.997955e+001 
3675000000  -3.982964e+001  1.476828e+001 
3678125000  -4.033697e+001  1.500481e+001 
3681250000  -3.979150e+001  1.570368e+001 
3684375000  -3.961108e+001  1.314605e+001 
3687500000  -3.982401e+001  1.154599e+001 
3690625000  -3.979498e+001  8.944229e+000 
3693750000  -4.023954e+001  1.226567e+001 
3696875000  -3.995610e+001  1.635892e+001 
3700000000  -3.887831e+001  1.256925e+001 
3703125000  -3.867415e+001  8.525764e+000 
3706250000  -3.938268e+001  1.208869e+001 
3709375000  -3.876235e+001  1.551401e+001 
3712500000  -3.754411e+001  1.569796e+001 
3715625000  -3.638793e+001  9.707431e+000 
3718750000  -3.578194e+001  6.656649e+000 
3721875000  -3.518814e+001  1.394942e+000 
3725000000  -3.525522e+001  -3.557517e+000 
3728125000  -3.533567e+001  -3.614258e+000 
3731250000  -3.478211e+001  -4.884830e+000 
3734375000  -3.370034e+001  -1.073636e+001 
3737500000  -3.409940e+001  -1.860156e+001 
3740625000  -3.484757e+001  -2.105461e+001 
3743750000  -3.458825e+001  -2.378442e+001 
3746875000  -3.460048e+001  -2.651560e+001 
3750000000  -3.494836e+001  -2.754642e+001 
3753125000  -3.455935e+001  -2.771670e+001 
3756250000  -3.441837e+001  -2.901663e+001 
3759375000  -3.426564e+001  -2.926129e+001 
3762500000  -3.369792e+001  -3.310641e+001 
3765625000  -3.420457e+001  -3.608465e+001 
3768750000  -3.435229e+001  -3.336018e+001 
3771875000  -3.253010e+001  -3.565123e+001 
3775000000  -3.221110e+001  -4.447276e+001 
3778125000  -3.262302e+001  -4.564746e+001 
3781250000  -3.231111e+001  -4.766622e+001 
3784375000  -3.233373e+001  -5.071427e+001 
3787500000  -3.169454e+001  -5.436323e+001 
3790625000  -3.216916e+001  -5.953743e+001 
3793750000  -3.243216e+001  -6.088433e+001 
3796875000  -3.141186e+001  -6.157127e+001 
3800000000  -2.992112e+001  -6.533607e+001 
3803125000  -3.068178e+001  -7.209891e+001 
3806250000  -3.136020e+001  -7.508264e+001 
3809375000  -3.107148e+001  -7.631422e+001 
3812500000  -3.043728e+001  -8.094115e+001 
3815625000  -3.101439e+001  -8.832488e+001 
3818750000  -3.197822e+001  -9.033504e+001 
3821875000  -3.216381e+001  -8.115483e+001 
3825000000  -3.014180e+001  -7.739726e+001 
3828125000  -2.882129e+001  -9.087834e+001 
3831250000  -2.934498e+001  -1.047366e+002 
3834375000  -3.078612e+001  -1.047348e+002 
3837500000  -3.160743e+001  -1.003261e+002 
3840625000  -3.052388e+001  -1.011110e+002 
3843750000  -2.936669e+001  -1.119699e+002 
3846875000  -2.993787e+001  -1.187646e+002 
3850000000  -3.132659e+001  -1.134518e+002 
3853125000  -3.051059e+001  -1.104608e+002 
3856250000  -3.029984e+001  -1.149759e+002 
3859375000  -2.966001e+001  -1.198079e+002 
3862500000  -2.921080e+001  -1.269707e+002 
3865625000  -2.952542e+001  -1.321139e+002 
3868750000  -2.959945e+001  -1.324053e+002 
3871875000  -2.881814e+001  -1.348347e+002 
3875000000  -2.902184e+001  -1.433708e+002 
3878125000  -3.001620e+001  -1.466024e+002 
3881250000  -3.015013e+001  -1.434239e+002 
3884375000  -2.953990e+001  -1.475263e+002 
3887500000  -2.968530e+001  -1.520147e+002 
3890625000  -3.013614e+001  -1.543202e+002 
3893750000  -3.070382e+001  -1.559021e+002 
3896875000  -3.065823e+001  -1.551149e+002 
3900000000  -3.095100e+001  -1.562347e+002 
3903125000  -3.051066e+001  -1.572664e+002 
3906250000  -3.034116e+001  -1.589456e+002 
3909375000  -2.969544e+001  -1.617949e+002 
3912500000  -2.972036e+001  -1.687610e+002 
3915625000  -3.088908e+001  -1.681135e+002 
3918750000  -3.099084e+001  -1.654925e+002 
3921875000  -3.063721e+001  -1.680744e+002 
3925000000  -2.971915e+001  -1.683470e+002 
3928125000  -2.906815e+001  -1.748316e+002 
3931250000  -2.948405e+001  -1.783704e+002 
3934375000  -2.978913e+001  -1.782868e+002 
3937500000  -2.992834e+001  -1.789033e+002 
3940625000  -3.031430e+001  -1.782810e+002 
3943750000  -2.943558e+001  -1.773831e+002 
3946875000  -2.820259e+001  1.772032e+002 
3950000000  -2.871159e+001  1.694853e+002 
3953125000  -2.954166e+001  1.705401e+002 
3956250000  -2.881475e+001  1.733259e+002 
3959375000  -2.744045e+001  1.700047e+002 
3962500000  -2.693191e+001  1.659741e+002 
3965625000  -2.662619e+001  1.572738e+002 
3968750000  -2.753806e+001  1.504053e+002 
3971875000  -2.790269e+001  1.490617e+002 
3975000000  -2.716428e+001  1.472472e+002 
3978125000  -2.706819e+001  1.460108e+002 
3981250000  -2.676464e+001  1.411564e+002 
3984375000  -2.707083e+001  1.349936e+002 
3987500000  -2.750274e+001  1.328043e+002 
3990625000  -2.754833e+001  1.322057e+002 
3993750000  -2.777456e+001  1.292464e+002 
3996875000  -2.770649e+001  1.265321e+002 
4000000000  -2.782368e+001  1.246387e+002 
4003125000  -2.841776e+001  1.263294e+002 
4006250000  -2.697605e+001  1.269751e+002 
4009375000  -2.580892e+001  1.143636e+002 
4012500000  -2.684233e+001  1.074507e+002 
4015625000  -2.813045e+001  1.083146e+002 
4018750000  -2.830596e+001  1.109172e+002 
4021875000  -2.757042e+001  1.087165e+002 
4025000000  -2.721957e+001  1.038105e+002 
4028125000  -2.719829e+001  9.987016e+001 
4031250000  -2.767792e+001  9.668152e+001 
4034375000  -2.798447e+001  9.674181e+001 
4037500000  -2.744498e+001  9.871914e+001 
4040625000  -2.731318e+001  9.539890e+001 
4043750000  -2.773097e+001  9.440459e+001 
4046875000  -2.731581e+001  9.425135e+001 
4050000000  -2.674656e+001  8.855964e+001 
4053125000  -2.729021e+001  8.648174e+001 
4056250000  -2.789567e+001  9.055748e+001 
4059375000  -2.660332e+001  9.238348e+001 
4062500000  -2.517780e+001  8.820860e+001 
4065625000  -2.504331e+001  8.343290e+001 
4068750000  -2.483517e+001  7.888007e+001 
4071875000  -2.416949e+001  7.116481e+001 
4075000000  -2.455858e+001  6.439012e+001 
4078125000  -2.511175e+001  6.373318e+001 
4081250000  -2.459835e+001  6.138997e+001 
4084375000  -2.421663e+001  5.484264e+001 
4087500000  -2.451177e+001  4.856865e+001 
4090625000  -2.514179e+001  4.741844e+001 
4093750000  -2.496483e+001  4.803811e+001 
4096875000  -2.454554e+001  4.222713e+001 
4100000000  -2.518846e+001  3.548783e+001 
4103125000  -2.608878e+001  3.579718e+001 
4106250000  -2.601038e+001  4.054855e+001 
4109375000  -2.508230e+001  3.998995e+001 
4112500000  -2.451973e+001  3.381206e+001 
4115625000  -2.483365e+001  2.910278e+001 
4118750000  -2.491966e+001  2.675477e+001 
4121875000  -2.450238e+001  2.180191e+001 
4125000000  -2.492557e+001  1.698481e+001 
4128125000  -2.594020e+001  1.656970e+001 
4131250000  -2.562778e+001  2.491203e+001 
4134375000  -2.331567e+001  2.045895e+001 
4137500000  -2.306941e+001  1.505854e+000 
4140625000  -2.522063e+001  -5.341629e+000 
4143750000  -2.657108e+001  -5.964679e-001 
4146875000  -2.618863e+001  7.234108e+000 
4150000000  -2.519550e+001  3.499896e+000 
4153125000  -2.502031e+001  -2.995717e+000 
4156250000  -2.596563e+001  -5.462670e+000 
4159375000  -2.622958e+001  -9.708298e-001 
4162500000  -2.511490e+001  3.158124e+000 
4165625000  -2.397785e+001  -1.153307e+000 
4168750000  -2.335670e+001  -8.248255e+000 
4171875000  -2.334268e+001  -1.696232e+001 
4175000000  -2.398503e+001  -2.304794e+001 
4178125000  -2.457453e+001  -2.317903e+001 
4181250000  -2.441802e+001  -2.342835e+001 
4184375000  -2.430944e+001  -2.657971e+001 
4187500000  -2.432712e+001  -2.909515e+001 
4190625000  -2.416516e+001  -3.467952e+001 
4193750000  -2.492254e+001  -3.857616e+001 
4196875000  -2.561565e+001  -3.888688e+001 
4200000000  -2.651627e+001  -3.663514e+001 
4203125000  -2.659133e+001  -2.332339e+001 
4206250000  -2.314200e+001  -2.154721e+001 
4209375000  -2.199258e+001  -4.211613e+001 
4212500000  -2.388828e+001  -5.125007e+001 
4215625000  -2.490845e+001  -4.501257e+001 
4218750000  -2.353545e+001  -3.802067e+001 
4221875000  -2.129495e+001  -4.732636e+001 
4225000000  -2.251720e+001  -5.974935e+001 
4228125000  -2.323610e+001  -5.478557e+001 
4231250000  -2.160121e+001  -5.839677e+001 
4234375000  -2.158265e+001  -6.672563e+001 
4237500000  -2.117486e+001  -6.990923e+001 
4240625000  -2.116431e+001  -7.835702e+001 
4243750000  -2.208893e+001  -8.506364e+001 
4246875000  -2.303570e+001  -8.511697e+001 
4250000000  -2.305520e+001  -8.245333e+001 
4253125000  -2.249118e+001  -8.455710e+001 
4256250000  -2.279370e+001  -8.812266e+001 
4259375000  -2.251401e+001  -9.037118e+001 
4262500000  -2.250937e+001  -9.411706e+001 
4265625000  -2.269041e+001  -9.373064e+001 
4268750000  -2.182607e+001  -9.777640e+001 
4271875000  -2.157185e+001  -1.038262e+002 
4275000000  -2.092450e+001  -1.101481e+002 
4278125000  -2.156811e+001  -1.211208e+002 
4281250000  -2.334586e+001  -1.231514e+002 
4284375000  -2.307116e+001  -1.223310e+002 
4287500000  -2.382861e+001  -1.259114e+002 
4290625000  -2.508059e+001  -1.165007e+002 
4293750000  -2.309164e+001  -1.107630e+002 
4296875000  -2.177709e+001  -1.224267e+002 
4300000000  -2.257888e+001  -1.316720e+002 
4303125000  -2.369001e+001  -1.303391e+002 
4306250000  -2.315109e+001  -1.244476e+002 
4309375000  -2.171580e+001  -1.264966e+002 
4312500000  -2.162766e+001  -1.346991e+002 
4315625000  -2.187807e+001  -1.409428e+002 
4318750000  -2.217092e+001  -1.442661e+002 
4321875000  -2.235812e+001  -1.438493e+002 
4325000000  -2.176622e+001  -1.429468e+002 
4328125000  -2.128304e+001  -1.495465e+002 
4331250000  -2.121593e+001  -1.576128e+002 
4334375000  -2.165551e+001  -1.626084e+002 
4337500000  -2.245501e+001  -1.646808e+002 
4340625000  -2.304154e+001  -1.616230e+002 
4343750000  -2.245976e+001  -1.611444e+002 
4346875000  -2.207203e+001  -1.665391e+002 
4350000000  -2.207704e+001  -1.713959e+002 
4353125000  -2.212008e+001  -1.790281e+002 
4356250000  -2.386393e+001  -1.796620e+002 
4359375000  -2.449804e+001  -1.666156e+002 
4362500000  -2.180060e+001  -1.644543e+002 
4365625000  -2.018488e+001  -1.763017e+002 
4368750000  -2.089252e+001  1.719027e+002 
4371875000  -2.209999e+001  1.724611e+002 
4375000000  -2.177314e+001  1.739600e+002 
4378125000  -2.113193e+001  1.678933e+002 
4381250000  -2.131367e+001  1.622187e+002 
4384375000  -2.112010e+001  1.579054e+002 
4387500000  -2.185831e+001  1.522778e+002 
4390625000  -2.284562e+001  1.528961e+002 
4393750000  -2.216750e+001  1.551273e+002 
4396875000  -2.150610e+001  1.530930e+002 
4400000000  -2.097152e+001  1.460446e+002 
4403125000  -2.159356e+001  1.383263e+002 
4406250000  -2.240872e+001  1.372520e+002 
4409375000  -2.239853e+001  1.350156e+002 
4412500000  -2.344661e+001  1.322217e+002 
4415625000  -2.376272e+001  1.371877e+002 
4418750000  -2.258414e+001  1.418106e+002 
