!Agilent Technologies,E8363B,MY43030201,A.06.04.32
!Agilent E8363B: A.06.04.32
!Date: Tuesday, November 11, 2014 20:57:25
!Correction: S21(Response(S21)) 
!S1P File: Measurement: S21:
# Hz S  dB   R 50
3000000000  -2.649074e+001  1.464030e+002 
3003125000  -2.791329e+001  1.418144e+002 
3006250000  -2.794501e+001  1.393253e+002 
3009375000  -2.833428e+001  1.444397e+002 
3012500000  -2.775668e+001  1.436110e+002 
3015625000  -2.684229e+001  1.369486e+002 
3018750000  -2.764790e+001  1.359425e+002 
3021875000  -2.635862e+001  1.374998e+002 
3025000000  -2.507562e+001  1.342769e+002 
3028125000  -2.411511e+001  1.287305e+002 
3031250000  -2.309453e+001  1.176859e+002 
3034375000  -2.272969e+001  1.046086e+002 
3037500000  -2.311541e+001  9.274754e+001 
3040625000  -2.449297e+001  8.792709e+001 
3043750000  -2.513551e+001  8.338383e+001 
3046875000  -2.527661e+001  7.711279e+001 
3050000000  -2.703535e+001  7.053548e+001 
3053125000  -2.707335e+001  7.714548e+001 
3056250000  -2.647575e+001  8.004980e+001 
3059375000  -2.668715e+001  7.945897e+001 
3062500000  -2.517328e+001  7.560276e+001 
3065625000  -2.498780e+001  6.993233e+001 
3068750000  -2.467245e+001  6.296812e+001 
3071875000  -2.463608e+001  6.017109e+001 
3075000000  -2.455455e+001  5.616643e+001 
3078125000  -2.434915e+001  5.162048e+001 
3081250000  -2.499774e+001  4.741560e+001 
3084375000  -2.422559e+001  4.371608e+001 
3087500000  -2.414204e+001  3.985135e+001 
3090625000  -2.384198e+001  3.012530e+001 
3093750000  -2.433602e+001  2.243979e+001 
3096875000  -2.557473e+001  1.662440e+001 
3100000000  -2.565980e+001  1.513309e+001 
3103125000  -2.606105e+001  1.642282e+001 
3106250000  -2.582776e+001  1.286024e+001 
3109375000  -2.601928e+001  9.530528e+000 
3112500000  -2.617486e+001  8.092620e+000 
3115625000  -2.595613e+001  4.256371e+000 
3118750000  -2.645682e+001  5.762996e+000 
3121875000  -2.577907e+001  -2.736989e+000 
3125000000  -2.705525e+001  -5.626693e+000 
3128125000  -2.817269e+001  2.389543e+000 
3131250000  -2.592001e+001  2.778987e+000 
3134375000  -2.468834e+001  -1.129861e+001 
3137500000  -2.529283e+001  -2.465221e+001 
3140625000  -2.694097e+001  -2.637131e+001 
3143750000  -2.791886e+001  -2.218274e+001 
3146875000  -2.753560e+001  -2.023194e+001 
3150000000  -2.650507e+001  -1.813226e+001 
3153125000  -2.651948e+001  -2.585240e+001 
3156250000  -2.745140e+001  -1.979068e+001 
3159375000  -2.586834e+001  -1.765341e+001 
3162500000  -2.386700e+001  -3.057170e+001 
3165625000  -2.485220e+001  -4.146970e+001 
3168750000  -2.519177e+001  -4.010047e+001 
3171875000  -2.424578e+001  -4.439165e+001 
3175000000  -2.490667e+001  -5.248103e+001 
3178125000  -2.465574e+001  -5.078431e+001 
3181250000  -2.351321e+001  -5.498642e+001 
3184375000  -2.276241e+001  -6.714716e+001 
3187500000  -2.386181e+001  -8.218198e+001 
3190625000  -2.663763e+001  -8.973781e+001 
3193750000  -2.720159e+001  -7.974065e+001 
3196875000  -2.678881e+001  -7.470419e+001 
3200000000  -2.586222e+001  -7.645900e+001 
3203125000  -2.503983e+001  -8.235835e+001 
3206250000  -2.532526e+001  -8.846279e+001 
3209375000  -2.488779e+001  -9.354518e+001 
3212500000  -2.503740e+001  -1.000741e+002 
3215625000  -2.517145e+001  -1.039638e+002 
3218750000  -2.592731e+001  -1.105973e+002 
3221875000  -2.690125e+001  -1.156106e+002 
3225000000  -2.650104e+001  -1.162461e+002 
3228125000  -2.687737e+001  -1.210278e+002 
3231250000  -2.759460e+001  -1.235402e+002 
3234375000  -2.739839e+001  -1.223924e+002 
3237500000  -2.744917e+001  -1.240709e+002 
3240625000  -2.708283e+001  -1.258561e+002 
3243750000  -2.679127e+001  -1.327412e+002 
3246875000  -2.723845e+001  -1.390636e+002 
3250000000  -2.772117e+001  -1.409548e+002 
3253125000  -2.787738e+001  -1.424111e+002 
3256250000  -2.774660e+001  -1.485888e+002 
3259375000  -2.807320e+001  -1.561359e+002 
3262500000  -2.937995e+001  -1.591119e+002 
3265625000  -2.999275e+001  -1.553321e+002 
3268750000  -2.996910e+001  -1.527191e+002 
3271875000  -2.965227e+001  -1.517636e+002 
3275000000  -2.864231e+001  -1.567408e+002 
3278125000  -2.912544e+001  -1.628496e+002 
3281250000  -2.934427e+001  -1.616391e+002 
3284375000  -2.890992e+001  -1.669387e+002 
3287500000  -2.910352e+001  -1.698195e+002 
3290625000  -2.950013e+001  -1.743875e+002 
3293750000  -2.923965e+001  -1.797314e+002 
3296875000  -3.022089e+001  -1.794512e+002 
3300000000  -3.008000e+001  -1.784002e+002 
3303125000  -2.898605e+001  1.773914e+002 
3306250000  -2.871246e+001  1.705937e+002 
3309375000  -2.852409e+001  1.657530e+002 
3312500000  -2.855242e+001  1.550668e+002 
3315625000  -2.961823e+001  1.477038e+002 
3318750000  -3.095862e+001  1.450570e+002 
3321875000  -3.225587e+001  1.450852e+002 
3325000000  -3.270721e+001  1.494726e+002 
3328125000  -3.251982e+001  1.513154e+002 
3331250000  -3.132603e+001  1.595465e+002 
3334375000  -2.865006e+001  1.493141e+002 
3337500000  -2.877784e+001  1.308988e+002 
3340625000  -3.020429e+001  1.198724e+002 
3343750000  -3.215754e+001  1.193856e+002 
3346875000  -3.260401e+001  1.200506e+002 
3350000000  -3.203681e+001  1.194303e+002 
3353125000  -3.217146e+001  1.148054e+002 
3356250000  -3.181402e+001  1.069148e+002 
3359375000  -3.266626e+001  9.853111e+001 
3362500000  -3.400605e+001  9.327295e+001 
3365625000  -3.471236e+001  9.191120e+001 
3368750000  -3.557510e+001  9.012615e+001 
3371875000  -3.603033e+001  8.712215e+001 
3375000000  -3.770751e+001  8.480328e+001 
3378125000  -3.878291e+001  8.545878e+001 
3381250000  -4.026547e+001  9.384254e+001 
3384375000  -3.928587e+001  1.140740e+002 
3387500000  -3.609141e+001  1.004344e+002 
3390625000  -3.802989e+001  8.101664e+001 
3393750000  -3.987307e+001  8.503465e+001 
3396875000  -3.880944e+001  8.843184e+001 
3400000000  -3.897246e+001  8.184240e+001 
3403125000  -4.022812e+001  7.712811e+001 
3406250000  -4.061863e+001  8.096665e+001 
3409375000  -4.125488e+001  7.539783e+001 
3412500000  -4.219386e+001  7.681227e+001 
3415625000  -4.308824e+001  8.185073e+001 
3418750000  -4.345564e+001  8.607361e+001 
3421875000  -4.360922e+001  9.438490e+001 
3425000000  -4.284239e+001  9.833593e+001 
3428125000  -4.199944e+001  9.589841e+001 
3431250000  -4.183766e+001  9.232743e+001 
3434375000  -4.152899e+001  8.942384e+001 
3437500000  -4.220835e+001  8.738888e+001 
3440625000  -4.244149e+001  8.940662e+001 
3443750000  -4.094456e+001  9.401527e+001 
3446875000  -4.002581e+001  8.720036e+001 
3450000000  -3.989920e+001  7.763754e+001 
3453125000  -3.991132e+001  6.964327e+001 
3456250000  -4.133790e+001  6.519857e+001 
3459375000  -4.245437e+001  6.930843e+001 
3462500000  -4.262085e+001  6.781999e+001 
3465625000  -4.254016e+001  6.538284e+001 
3468750000  -4.274721e+001  6.158518e+001 
3471875000  -4.277763e+001  6.170274e+001 
3475000000  -4.299092e+001  6.007296e+001 
3478125000  -4.343034e+001  5.249184e+001 
3481250000  -4.463537e+001  5.214760e+001 
3484375000  -4.631522e+001  5.941018e+001 
3487500000  -4.529762e+001  6.096348e+001 
3490625000  -4.529823e+001  5.698524e+001 
3493750000  -4.575262e+001  5.643020e+001 
3496875000  -4.685332e+001  5.536139e+001 
3500000000  -4.744813e+001  6.462033e+001 
3503125000  -4.747963e+001  6.723903e+001 
3506250000  -4.607579e+001  6.930156e+001 
3509375000  -4.672034e+001  6.987363e+001 
3512500000  -4.649778e+001  6.332282e+001 
3515625000  -4.790313e+001  6.883124e+001 
3518750000  -4.795462e+001  7.441238e+001 
3521875000  -4.779171e+001  7.739867e+001 
3525000000  -4.826209e+001  7.850262e+001 
3528125000  -4.745897e+001  9.096893e+001 
3531250000  -4.546733e+001  8.988115e+001 
3534375000  -4.485408e+001  8.032290e+001 
3537500000  -4.497049e+001  7.769213e+001 
3540625000  -4.493705e+001  7.694497e+001 
3543750000  -4.585090e+001  8.220917e+001 
3546875000  -4.523200e+001  9.200360e+001 
3550000000  -4.229540e+001  9.564621e+001 
3553125000  -4.104738e+001  7.887450e+001 
3556250000  -4.216006e+001  7.424500e+001 
3559375000  -4.157360e+001  7.607250e+001 
3562500000  -4.062626e+001  6.903084e+001 
3565625000  -4.155138e+001  6.130230e+001 
3568750000  -4.162234e+001  6.712183e+001 
3571875000  -4.148837e+001  6.370006e+001 
3575000000  -4.087946e+001  5.981883e+001 
3578125000  -4.134230e+001  5.557190e+001 
3581250000  -4.130037e+001  5.466518e+001 
3584375000  -4.040838e+001  5.572805e+001 
3587500000  -3.947544e+001  4.907120e+001 
3590625000  -3.981874e+001  3.985089e+001 
3593750000  -4.086572e+001  3.803918e+001 
3596875000  -4.088792e+001  4.658993e+001 
3600000000  -3.931483e+001  4.260857e+001 
3603125000  -3.962119e+001  2.909175e+001 
3606250000  -4.025437e+001  2.655328e+001 
3609375000  -4.043966e+001  2.614331e+001 
3612500000  -4.111008e+001  2.397848e+001 
3615625000  -4.096176e+001  2.239166e+001 
3618750000  -4.169266e+001  2.254137e+001 
3621875000  -4.147688e+001  2.157680e+001 
3625000000  -4.170964e+001  2.221089e+001 
3628125000  -4.167095e+001  2.210090e+001 
3631250000  -4.111301e+001  1.639422e+001 
3634375000  -4.210821e+001  1.894994e+001 
3637500000  -4.204731e+001  2.411646e+001 
3640625000  -4.095693e+001  2.628087e+001 
3643750000  -4.050019e+001  1.963732e+001 
3646875000  -4.078249e+001  1.367566e+001 
3650000000  -4.177107e+001  1.606527e+001 
3653125000  -4.142516e+001  1.475441e+001 
3656250000  -4.133480e+001  1.209679e+001 
3659375000  -4.194490e+001  1.784250e+001 
3662500000  -4.116942e+001  1.482144e+001 
3665625000  -4.120882e+001  1.679514e+001 
3668750000  -4.022294e+001  1.950096e+001 
3671875000  -3.915861e+001  1.474969e+001 
3675000000  -3.970608e+001  7.485583e+000 
3678125000  -4.024007e+001  9.028729e+000 
3681250000  -3.971123e+001  1.036792e+001 
3684375000  -3.966086e+001  8.507593e+000 
3687500000  -3.972410e+001  5.615501e+000 
3690625000  -3.974057e+001  3.217307e+000 
3693750000  -4.013048e+001  6.451371e+000 
3696875000  -4.001812e+001  9.673955e+000 
3700000000  -3.889518e+001  6.964942e+000 
3703125000  -3.861407e+001  3.904306e+000 
3706250000  -3.938202e+001  5.426745e+000 
3709375000  -3.865853e+001  8.128025e+000 
3712500000  -3.749608e+001  8.080233e+000 
3715625000  -3.632479e+001  2.711454e+000 
3718750000  -3.558400e+001  -7.850392e-001 
3721875000  -3.517752e+001  -6.071078e+000 
3725000000  -3.514833e+001  -1.110929e+001 
3728125000  -3.553240e+001  -1.115558e+001 
3731250000  -3.469595e+001  -1.276420e+001 
3734375000  -3.374633e+001  -1.878675e+001 
3737500000  -3.435848e+001  -2.528971e+001 
3740625000  -3.505814e+001  -2.820111e+001 
3743750000  -3.470134e+001  -3.014441e+001 
3746875000  -3.464603e+001  -3.328862e+001 
3750000000  -3.505693e+001  -3.400160e+001 
3753125000  -3.461879e+001  -3.468190e+001 
3756250000  -3.471577e+001  -3.573724e+001 
3759375000  -3.440083e+001  -3.525236e+001 
3762500000  -3.386981e+001  -4.005594e+001 
3765625000  -3.445334e+001  -4.255475e+001 
3768750000  -3.446620e+001  -3.970058e+001 
3771875000  -3.258299e+001  -4.203091e+001 
3775000000  -3.233804e+001  -5.012383e+001 
3778125000  -3.259636e+001  -5.137573e+001 
3781250000  -3.247306e+001  -5.433575e+001 
3784375000  -3.244823e+001  -5.653973e+001 
3787500000  -3.175978e+001  -5.974385e+001 
3790625000  -3.239971e+001  -6.569292e+001 
3793750000  -3.241612e+001  -6.627056e+001 
3796875000  -3.150563e+001  -6.726451e+001 
3800000000  -2.996518e+001  -7.095107e+001 
3803125000  -3.065209e+001  -7.894817e+001 
3806250000  -3.135830e+001  -8.101357e+001 
3809375000  -3.104607e+001  -8.197489e+001 
3812500000  -3.041269e+001  -8.674903e+001 
3815625000  -3.100349e+001  -9.500867e+001 
3818750000  -3.208255e+001  -9.591680e+001 
3821875000  -3.211516e+001  -8.680927e+001 
3825000000  -3.019471e+001  -8.226076e+001 
3828125000  -2.876001e+001  -9.676440e+001 
3831250000  -2.934729e+001  -1.105926e+002 
3834375000  -3.080131e+001  -1.114407e+002 
3837500000  -3.159186e+001  -1.058932e+002 
3840625000  -3.049944e+001  -1.071773e+002 
3843750000  -2.923508e+001  -1.178350e+002 
3846875000  -3.005480e+001  -1.245405e+002 
3850000000  -3.126193e+001  -1.185525e+002 
3853125000  -3.040973e+001  -1.161782e+002 
3856250000  -3.041747e+001  -1.207495e+002 
3859375000  -2.967334e+001  -1.260590e+002 
3862500000  -2.918742e+001  -1.333262e+002 
3865625000  -2.947647e+001  -1.381246e+002 
3868750000  -2.958900e+001  -1.381563e+002 
3871875000  -2.881303e+001  -1.412416e+002 
3875000000  -2.904749e+001  -1.499357e+002 
3878125000  -3.001050e+001  -1.520223e+002 
3881250000  -3.008337e+001  -1.485661e+002 
3884375000  -2.953297e+001  -1.535815e+002 
3887500000  -2.968362e+001  -1.576163e+002 
3890625000  -3.022298e+001  -1.604371e+002 
3893750000  -3.072168e+001  -1.618741e+002 
3896875000  -3.080233e+001  -1.616572e+002 
3900000000  -3.103314e+001  -1.624032e+002 
3903125000  -3.069126e+001  -1.633631e+002 
3906250000  -3.030411e+001  -1.650123e+002 
3909375000  -2.968741e+001  -1.680214e+002 
3912500000  -2.973006e+001  -1.754392e+002 
3915625000  -3.097801e+001  -1.743988e+002 
3918750000  -3.091150e+001  -1.727783e+002 
3921875000  -3.057199e+001  -1.743545e+002 
3925000000  -2.976042e+001  -1.751093e+002 
3928125000  -2.913951e+001  1.793416e+002 
3931250000  -2.957702e+001  1.753094e+002 
3934375000  -2.981045e+001  1.755190e+002 
3937500000  -2.999962e+001  1.751899e+002 
3940625000  -3.040048e+001  1.757364e+002 
3943750000  -2.950288e+001  1.767729e+002 
3946875000  -2.830070e+001  1.707108e+002 
3950000000  -2.874771e+001  1.634113e+002 
3953125000  -2.972514e+001  1.639818e+002 
3956250000  -2.876996e+001  1.670274e+002 
3959375000  -2.748747e+001  1.645193e+002 
3962500000  -2.693557e+001  1.600132e+002 
3965625000  -2.667101e+001  1.511115e+002 
3968750000  -2.752419e+001  1.445323e+002 
3971875000  -2.794964e+001  1.430950e+002 
3975000000  -2.728362e+001  1.416732e+002 
3978125000  -2.703383e+001  1.399392e+002 
3981250000  -2.682059e+001  1.353943e+002 
3984375000  -2.709936e+001  1.291883e+002 
3987500000  -2.757741e+001  1.272304e+002 
3990625000  -2.759344e+001  1.257838e+002 
3993750000  -2.774567e+001  1.231996e+002 
3996875000  -2.773005e+001  1.207761e+002 
4000000000  -2.781607e+001  1.190841e+002 
4003125000  -2.842804e+001  1.208585e+002 
4006250000  -2.691671e+001  1.208916e+002 
4009375000  -2.582202e+001  1.084747e+002 
4012500000  -2.689076e+001  1.014773e+002 
4015625000  -2.811644e+001  1.018082e+002 
4018750000  -2.831338e+001  1.043618e+002 
4021875000  -2.765676e+001  1.023141e+002 
4025000000  -2.727415e+001  9.797131e+001 
4028125000  -2.724397e+001  9.377866e+001 
4031250000  -2.771155e+001  9.066870e+001 
4034375000  -2.796071e+001  9.056994e+001 
4037500000  -2.748667e+001  9.275412e+001 
4040625000  -2.741396e+001  8.917463e+001 
4043750000  -2.778368e+001  8.856783e+001 
4046875000  -2.727241e+001  8.808277e+001 
4050000000  -2.683097e+001  8.263134e+001 
4053125000  -2.734918e+001  8.071595e+001 
4056250000  -2.787321e+001  8.448833e+001 
4059375000  -2.667571e+001  8.654187e+001 
4062500000  -2.529255e+001  8.197117e+001 
4065625000  -2.517046e+001  7.762826e+001 
4068750000  -2.492621e+001  7.324940e+001 
4071875000  -2.421519e+001  6.549144e+001 
4075000000  -2.457647e+001  5.884794e+001 
4078125000  -2.514819e+001  5.813586e+001 
4081250000  -2.463325e+001  5.561644e+001 
4084375000  -2.426093e+001  4.905355e+001 
4087500000  -2.455534e+001  4.273409e+001 
4090625000  -2.521782e+001  4.171446e+001 
4093750000  -2.501420e+001  4.250057e+001 
4096875000  -2.454399e+001  3.639421e+001 
4100000000  -2.529604e+001  2.967934e+001 
4103125000  -2.611332e+001  3.053076e+001 
4106250000  -2.598381e+001  3.519947e+001 
4109375000  -2.509217e+001  3.443552e+001 
4112500000  -2.453345e+001  2.769191e+001 
4115625000  -2.486346e+001  2.382244e+001 
4118750000  -2.496358e+001  2.084313e+001 
4121875000  -2.449062e+001  1.593387e+001 
4125000000  -2.493444e+001  1.109288e+001 
4128125000  -2.594792e+001  1.119682e+001 
4131250000  -2.556915e+001  1.957621e+001 
4134375000  -2.326243e+001  1.481202e+001 
4137500000  -2.310829e+001  -4.234074e+000 
4140625000  -2.527343e+001  -1.166924e+001 
4143750000  -2.663108e+001  -5.737687e+000 
4146875000  -2.615133e+001  1.030313e+000 
4150000000  -2.518435e+001  -2.297763e+000 
4153125000  -2.505570e+001  -8.597506e+000 
4156250000  -2.594520e+001  -1.169519e+001 
4159375000  -2.623099e+001  -7.114466e+000 
4162500000  -2.508606e+001  -2.570964e+000 
4165625000  -2.395880e+001  -6.772332e+000 
4168750000  -2.341611e+001  -1.403296e+001 
4171875000  -2.333469e+001  -2.289177e+001 
4175000000  -2.393455e+001  -2.870827e+001 
4178125000  -2.455928e+001  -2.855094e+001 
4181250000  -2.440470e+001  -2.940795e+001 
4184375000  -2.427051e+001  -3.232545e+001 
4187500000  -2.434644e+001  -3.543163e+001 
4190625000  -2.416331e+001  -4.069544e+001 
4193750000  -2.495300e+001  -4.437301e+001 
4196875000  -2.570983e+001  -4.512692e+001 
4200000000  -2.657870e+001  -4.273544e+001 
4203125000  -2.654069e+001  -2.900631e+001 
4206250000  -2.309339e+001  -2.723225e+001 
4209375000  -2.197359e+001  -4.823132e+001 
4212500000  -2.390852e+001  -5.684851e+001 
4215625000  -2.493572e+001  -5.034617e+001 
4218750000  -2.361903e+001  -4.418422e+001 
4221875000  -2.127781e+001  -5.267382e+001 
4225000000  -2.254378e+001  -6.519392e+001 
4228125000  -2.315983e+001  -6.034798e+001 
4231250000  -2.159510e+001  -6.414629e+001 
4234375000  -2.157895e+001  -7.224535e+001 
4237500000  -2.108399e+001  -7.560736e+001 
4240625000  -2.114691e+001  -8.445093e+001 
4243750000  -2.211111e+001  -9.116726e+001 
4246875000  -2.298806e+001  -9.096683e+001 
4250000000  -2.303818e+001  -8.818358e+001 
4253125000  -2.243214e+001  -9.000741e+001 
4256250000  -2.275263e+001  -9.420370e+001 
4259375000  -2.247611e+001  -9.617820e+001 
4262500000  -2.244541e+001  -1.000559e+002 
4265625000  -2.265380e+001  -9.955569e+001 
4268750000  -2.172355e+001  -1.038719e+002 
4271875000  -2.147499e+001  -1.095556e+002 
4275000000  -2.087619e+001  -1.159622e+002 
4278125000  -2.150350e+001  -1.272992e+002 
4281250000  -2.332366e+001  -1.292592e+002 
4284375000  -2.297923e+001  -1.286873e+002 
4287500000  -2.381810e+001  -1.320923e+002 
4290625000  -2.504363e+001  -1.221658e+002 
4293750000  -2.300049e+001  -1.170931e+002 
4296875000  -2.170958e+001  -1.285107e+002 
4300000000  -2.259774e+001  -1.373201e+002 
4303125000  -2.375952e+001  -1.359656e+002 
4306250000  -2.301597e+001  -1.304139e+002 
4309375000  -2.167649e+001  -1.323414e+002 
4312500000  -2.156889e+001  -1.409439e+002 
4315625000  -2.179319e+001  -1.471358e+002 
4318750000  -2.211395e+001  -1.503755e+002 
4321875000  -2.230901e+001  -1.497199e+002 
4325000000  -2.172100e+001  -1.491376e+002 
4328125000  -2.123331e+001  -1.556435e+002 
4331250000  -2.116205e+001  -1.637746e+002 
4334375000  -2.160222e+001  -1.686154e+002 
4337500000  -2.247725e+001  -1.708829e+002 
4340625000  -2.298899e+001  -1.672987e+002 
4343750000  -2.237789e+001  -1.666980e+002 
4346875000  -2.198918e+001  -1.727149e+002 
4350000000  -2.201703e+001  -1.773873e+002 
4353125000  -2.210782e+001  1.751394e+002 
4356250000  -2.393256e+001  1.746051e+002 
4359375000  -2.443812e+001  -1.717383e+002 
4362500000  -2.167730e+001  -1.700558e+002 
4365625000  -2.008139e+001  1.773736e+002 
4368750000  -2.084715e+001  1.659080e+002 
4371875000  -2.201968e+001  1.665122e+002 
4375000000  -2.162896e+001  1.675225e+002 
4378125000  -2.101130e+001  1.617995e+002 
4381250000  -2.118875e+001  1.562546e+002 
4384375000  -2.097149e+001  1.517955e+002 
4387500000  -2.177641e+001  1.460031e+002 
4390625000  -2.280130e+001  1.469009e+002 
4393750000  -2.204377e+001  1.490299e+002 
4396875000  -2.143903e+001  1.468435e+002 
4400000000  -2.091044e+001  1.396735e+002 
4403125000  -2.151574e+001  1.322154e+002 
4406250000  -2.234389e+001  1.310411e+002 
4409375000  -2.234486e+001  1.288670e+002 
4412500000  -2.332910e+001  1.257305e+002 
4415625000  -2.370398e+001  1.309965e+002 
4418750000  -2.241832e+001  1.356566e+002 
