!Agilent Technologies,E8363B,MY43030201,A.06.04.32
!Agilent E8363B: A.06.04.32
!Date: Tuesday, November 11, 2014 20:53:56
!Correction: S21(Response(S21)) 
!S1P File: Measurement: S21:
# Hz S  dB   R 50
3000000000  -2.665499e+001  1.507166e+002 
3003125000  -2.805445e+001  1.459112e+002 
3006250000  -2.803389e+001  1.435630e+002 
3009375000  -2.844049e+001  1.486809e+002 
3012500000  -2.790053e+001  1.480474e+002 
3015625000  -2.698572e+001  1.408998e+002 
3018750000  -2.775810e+001  1.401933e+002 
3021875000  -2.648990e+001  1.415113e+002 
3025000000  -2.520737e+001  1.383289e+002 
3028125000  -2.425859e+001  1.332436e+002 
3031250000  -2.322804e+001  1.221132e+002 
3034375000  -2.284409e+001  1.091215e+002 
3037500000  -2.321473e+001  9.724546e+001 
3040625000  -2.455497e+001  9.206771e+001 
3043750000  -2.526570e+001  8.771907e+001 
3046875000  -2.536456e+001  8.127678e+001 
3050000000  -2.707536e+001  7.455918e+001 
3053125000  -2.724970e+001  8.111085e+001 
3056250000  -2.655752e+001  8.413129e+001 
3059375000  -2.676388e+001  8.370361e+001 
3062500000  -2.531887e+001  7.978355e+001 
3065625000  -2.510235e+001  7.413362e+001 
3068750000  -2.477792e+001  6.695232e+001 
3071875000  -2.477430e+001  6.424436e+001 
3075000000  -2.477700e+001  6.042521e+001 
3078125000  -2.446318e+001  5.578962e+001 
3081250000  -2.509017e+001  5.160707e+001 
3084375000  -2.435138e+001  4.774389e+001 
3087500000  -2.423133e+001  4.426398e+001 
3090625000  -2.394217e+001  3.465045e+001 
3093750000  -2.439001e+001  2.666897e+001 
3096875000  -2.567426e+001  2.060453e+001 
3100000000  -2.578387e+001  1.946579e+001 
3103125000  -2.614557e+001  2.078495e+001 
3106250000  -2.589098e+001  1.706260e+001 
3109375000  -2.610797e+001  1.357561e+001 
3112500000  -2.622502e+001  1.248799e+001 
3115625000  -2.605748e+001  8.234048e+000 
3118750000  -2.654280e+001  9.858659e+000 
3121875000  -2.587371e+001  1.527029e+000 
3125000000  -2.707010e+001  -1.936666e+000 
3128125000  -2.826863e+001  6.345568e+000 
3131250000  -2.607233e+001  7.063104e+000 
3134375000  -2.471825e+001  -6.430159e+000 
3137500000  -2.531918e+001  -2.043963e+001 
3140625000  -2.697729e+001  -2.174685e+001 
3143750000  -2.799991e+001  -1.805326e+001 
3146875000  -2.758376e+001  -1.580822e+001 
3150000000  -2.658156e+001  -1.381221e+001 
3153125000  -2.654022e+001  -2.177355e+001 
3156250000  -2.753865e+001  -1.580347e+001 
3159375000  -2.589049e+001  -1.331762e+001 
3162500000  -2.392856e+001  -2.615762e+001 
3165625000  -2.485000e+001  -3.727441e+001 
3168750000  -2.523798e+001  -3.613710e+001 
3171875000  -2.425017e+001  -4.067261e+001 
3175000000  -2.493466e+001  -4.824311e+001 
3178125000  -2.472592e+001  -4.654169e+001 
3181250000  -2.351625e+001  -5.059181e+001 
3184375000  -2.274903e+001  -6.285872e+001 
3187500000  -2.386917e+001  -7.773191e+001 
3190625000  -2.660291e+001  -8.554234e+001 
3193750000  -2.725287e+001  -7.594943e+001 
3196875000  -2.679998e+001  -7.062341e+001 
3200000000  -2.591197e+001  -7.259125e+001 
3203125000  -2.505433e+001  -7.815951e+001 
3206250000  -2.538986e+001  -8.437603e+001 
3209375000  -2.493847e+001  -8.951415e+001 
3212500000  -2.502991e+001  -9.586231e+001 
3215625000  -2.514006e+001  -9.982667e+001 
3218750000  -2.589281e+001  -1.065804e+002 
3221875000  -2.684980e+001  -1.114461e+002 
3225000000  -2.646239e+001  -1.121136e+002 
3228125000  -2.682014e+001  -1.169285e+002 
3231250000  -2.759160e+001  -1.193022e+002 
3234375000  -2.742085e+001  -1.186272e+002 
3237500000  -2.748380e+001  -1.197744e+002 
3240625000  -2.709662e+001  -1.219621e+002 
3243750000  -2.677742e+001  -1.285161e+002 
3246875000  -2.722215e+001  -1.345655e+002 
3250000000  -2.770914e+001  -1.367472e+002 
3253125000  -2.785115e+001  -1.383372e+002 
3256250000  -2.768837e+001  -1.443935e+002 
3259375000  -2.802485e+001  -1.515777e+002 
3262500000  -2.924361e+001  -1.548212e+002 
3265625000  -2.996068e+001  -1.511705e+002 
3268750000  -2.990594e+001  -1.490073e+002 
3271875000  -2.964123e+001  -1.476982e+002 
3275000000  -2.861597e+001  -1.527094e+002 
3278125000  -2.906861e+001  -1.587522e+002 
3281250000  -2.936081e+001  -1.571877e+002 
3284375000  -2.890602e+001  -1.628958e+002 
3287500000  -2.907969e+001  -1.655328e+002 
3290625000  -2.944957e+001  -1.702386e+002 
3293750000  -2.918034e+001  -1.754338e+002 
3296875000  -3.017135e+001  -1.751956e+002 
3300000000  -3.005105e+001  -1.743642e+002 
3303125000  -2.891973e+001  -1.784796e+002 
3306250000  -2.878382e+001  1.750241e+002 
3309375000  -2.845876e+001  1.700218e+002 
3312500000  -2.847146e+001  1.596212e+002 
3315625000  -2.952596e+001  1.515636e+002 
3318750000  -3.085045e+001  1.491219e+002 
3321875000  -3.192105e+001  1.488015e+002 
3325000000  -3.258401e+001  1.544592e+002 
3328125000  -3.249466e+001  1.560372e+002 
3331250000  -3.118799e+001  1.633589e+002 
3334375000  -2.858179e+001  1.533000e+002 
3337500000  -2.872527e+001  1.350316e+002 
3340625000  -3.007248e+001  1.239103e+002 
3343750000  -3.200360e+001  1.228503e+002 
3346875000  -3.252723e+001  1.245461e+002 
3350000000  -3.186553e+001  1.229422e+002 
3353125000  -3.205164e+001  1.184978e+002 
3356250000  -3.169599e+001  1.109005e+002 
3359375000  -3.259565e+001  1.027324e+002 
3362500000  -3.384710e+001  9.743381e+001 
3365625000  -3.442996e+001  9.555566e+001 
3368750000  -3.539068e+001  9.323838e+001 
3371875000  -3.584860e+001  9.079559e+001 
3375000000  -3.756126e+001  8.819036e+001 
3378125000  -3.850516e+001  8.765762e+001 
3381250000  -4.006176e+001  9.636614e+001 
3384375000  -3.915530e+001  1.177813e+002 
3387500000  -3.581536e+001  1.026533e+002 
3390625000  -3.781198e+001  8.459834e+001 
3393750000  -3.955754e+001  8.979644e+001 
3396875000  -3.901508e+001  9.123763e+001 
3400000000  -3.869980e+001  8.450827e+001 
3403125000  -3.979703e+001  7.928168e+001 
3406250000  -4.045738e+001  8.336405e+001 
3409375000  -4.140292e+001  7.704242e+001 
3412500000  -4.193578e+001  7.959560e+001 
3415625000  -4.275637e+001  8.365524e+001 
3418750000  -4.330215e+001  8.784253e+001 
3421875000  -4.341220e+001  9.557175e+001 
3425000000  -4.251489e+001  9.803190e+001 
3428125000  -4.144733e+001  9.835610e+001 
3431250000  -4.149932e+001  9.355212e+001 
3434375000  -4.122119e+001  9.078465e+001 
3437500000  -4.197337e+001  8.920624e+001 
3440625000  -4.200119e+001  9.005725e+001 
3443750000  -4.084357e+001  9.409459e+001 
3446875000  -4.015844e+001  8.713899e+001 
3450000000  -3.992115e+001  7.881139e+001 
3453125000  -4.027998e+001  7.008686e+001 
3456250000  -4.143929e+001  6.650526e+001 
3459375000  -4.251592e+001  6.890656e+001 
3462500000  -4.265215e+001  7.075982e+001 
3465625000  -4.240926e+001  6.507464e+001 
3468750000  -4.319059e+001  6.145554e+001 
3471875000  -4.285748e+001  6.288266e+001 
3475000000  -4.298378e+001  5.613988e+001 
3478125000  -4.418150e+001  5.345534e+001 
3481250000  -4.525033e+001  5.149848e+001 
3484375000  -4.666473e+001  5.620805e+001 
3487500000  -4.586505e+001  6.010336e+001 
3490625000  -4.542050e+001  5.978001e+001 
3493750000  -4.658930e+001  5.652919e+001 
3496875000  -4.748344e+001  5.359728e+001 
3500000000  -4.898433e+001  6.145294e+001 
3503125000  -4.875195e+001  6.764438e+001 
3506250000  -4.724901e+001  7.227162e+001 
3509375000  -4.710421e+001  7.007332e+001 
3512500000  -4.828642e+001  7.002664e+001 
3515625000  -4.817659e+001  6.919070e+001 
3518750000  -4.867371e+001  7.533667e+001 
3521875000  -4.775555e+001  8.089414e+001 
3525000000  -4.883937e+001  7.885454e+001 
3528125000  -4.877407e+001  9.672173e+001 
3531250000  -4.579495e+001  9.487091e+001 
3534375000  -4.530640e+001  8.507970e+001 
3537500000  -4.549871e+001  8.611768e+001 
3540625000  -4.586385e+001  8.369960e+001 
3543750000  -4.594417e+001  9.023698e+001 
3546875000  -4.545303e+001  9.994834e+001 
3550000000  -4.282563e+001  1.001549e+002 
3553125000  -4.166417e+001  8.375132e+001 
3556250000  -4.253286e+001  7.897833e+001 
3559375000  -4.221522e+001  8.079266e+001 
3562500000  -4.100365e+001  7.521405e+001 
3565625000  -4.188535e+001  6.648150e+001 
3568750000  -4.192173e+001  7.081629e+001 
3571875000  -4.159511e+001  7.133421e+001 
3575000000  -4.102209e+001  6.683188e+001 
3578125000  -4.160450e+001  6.210460e+001 
3581250000  -4.177504e+001  6.144553e+001 
3584375000  -4.065923e+001  6.073583e+001 
3587500000  -3.999792e+001  5.657504e+001 
3590625000  -4.035912e+001  4.589782e+001 
3593750000  -4.144732e+001  4.456366e+001 
3596875000  -4.134777e+001  5.325832e+001 
3600000000  -3.988754e+001  4.999604e+001 
3603125000  -3.983350e+001  3.778930e+001 
3606250000  -4.060117e+001  3.432328e+001 
3609375000  -4.113485e+001  3.239789e+001 
3612500000  -4.115731e+001  3.137188e+001 
3615625000  -4.143364e+001  3.126503e+001 
3618750000  -4.224641e+001  3.011568e+001 
3621875000  -4.175789e+001  3.167248e+001 
3625000000  -4.176482e+001  3.234714e+001 
3628125000  -4.166747e+001  3.265933e+001 
3631250000  -4.132476e+001  2.644864e+001 
3634375000  -4.220543e+001  2.715941e+001 
3637500000  -4.204776e+001  3.342087e+001 
3640625000  -4.098768e+001  3.247623e+001 
3643750000  -4.037596e+001  2.612897e+001 
3646875000  -4.093284e+001  2.263122e+001 
3650000000  -4.148668e+001  2.159515e+001 
3653125000  -4.121340e+001  2.150131e+001 
3656250000  -4.133591e+001  2.124146e+001 
3659375000  -4.203629e+001  2.339002e+001 
3662500000  -4.106862e+001  2.254906e+001 
3665625000  -4.102950e+001  2.356958e+001 
3668750000  -4.014034e+001  2.434265e+001 
3671875000  -3.894966e+001  1.917925e+001 
3675000000  -3.975635e+001  1.333092e+001 
3678125000  -4.014538e+001  1.567410e+001 
3681250000  -3.960566e+001  1.576480e+001 
3684375000  -3.929785e+001  1.567078e+001 
3687500000  -3.960507e+001  1.241315e+001 
3690625000  -3.947994e+001  1.016290e+001 
3693750000  -4.012112e+001  1.104765e+001 
3696875000  -3.993641e+001  1.710662e+001 
3700000000  -3.865897e+001  1.311135e+001 
3703125000  -3.860027e+001  1.063395e+001 
3706250000  -3.925794e+001  1.230960e+001 
3709375000  -3.862120e+001  1.556238e+001 
3712500000  -3.724628e+001  1.572855e+001 
3715625000  -3.610491e+001  9.274282e+000 
3718750000  -3.552266e+001  6.322462e+000 
3721875000  -3.526537e+001  4.035583e-001 
3725000000  -3.501158e+001  -4.238111e+000 
3728125000  -3.532864e+001  -4.581080e+000 
3731250000  -3.460604e+001  -5.554461e+000 
3734375000  -3.361383e+001  -1.116679e+001 
3737500000  -3.412849e+001  -1.741078e+001 
3740625000  -3.473507e+001  -2.106652e+001 
3743750000  -3.442684e+001  -2.332703e+001 
3746875000  -3.438088e+001  -2.723206e+001 
3750000000  -3.484587e+001  -2.749286e+001 
3753125000  -3.443088e+001  -2.827545e+001 
3756250000  -3.432520e+001  -2.878510e+001 
3759375000  -3.420207e+001  -2.979356e+001 
3762500000  -3.353663e+001  -3.349136e+001 
3765625000  -3.413966e+001  -3.647931e+001 
3768750000  -3.414550e+001  -3.409451e+001 
3771875000  -3.238250e+001  -3.711312e+001 
3775000000  -3.205405e+001  -4.470024e+001 
3778125000  -3.250716e+001  -4.608213e+001 
3781250000  -3.232935e+001  -4.892043e+001 
3784375000  -3.217262e+001  -5.100230e+001 
3787500000  -3.149134e+001  -5.422639e+001 
3790625000  -3.214604e+001  -6.001080e+001 
3793750000  -3.218433e+001  -6.010909e+001 
3796875000  -3.142842e+001  -6.203246e+001 
3800000000  -2.975440e+001  -6.560152e+001 
3803125000  -3.066835e+001  -7.270363e+001 
3806250000  -3.120181e+001  -7.457691e+001 
3809375000  -3.099065e+001  -7.551990e+001 
3812500000  -3.024233e+001  -8.061604e+001 
3815625000  -3.091396e+001  -8.760500e+001 
3818750000  -3.187611e+001  -8.901988e+001 
3821875000  -3.201937e+001  -8.125050e+001 
3825000000  -2.997484e+001  -7.629045e+001 
3828125000  -2.862739e+001  -9.026305e+001 
3831250000  -2.911088e+001  -1.043874e+002 
3834375000  -3.050720e+001  -1.053674e+002 
3837500000  -3.143738e+001  -1.006013e+002 
3840625000  -3.037254e+001  -1.015726e+002 
3843750000  -2.914987e+001  -1.111805e+002 
3846875000  -2.986511e+001  -1.185454e+002 
3850000000  -3.103536e+001  -1.127117e+002 
3853125000  -3.032281e+001  -1.103694e+002 
3856250000  -3.031004e+001  -1.147700e+002 
3859375000  -2.965347e+001  -1.192067e+002 
3862500000  -2.906645e+001  -1.264597e+002 
3865625000  -2.941300e+001  -1.311735e+002 
3868750000  -2.945164e+001  -1.316843e+002 
3871875000  -2.864440e+001  -1.340249e+002 
3875000000  -2.882850e+001  -1.427526e+002 
3878125000  -2.979059e+001  -1.452036e+002 
3881250000  -2.994916e+001  -1.422543e+002 
3884375000  -2.935966e+001  -1.468284e+002 
3887500000  -2.942872e+001  -1.510318e+002 
3890625000  -2.990506e+001  -1.536080e+002 
3893750000  -3.044922e+001  -1.546551e+002 
3896875000  -3.047763e+001  -1.540904e+002 
3900000000  -3.078354e+001  -1.548740e+002 
3903125000  -3.040324e+001  -1.571528e+002 
3906250000  -3.013129e+001  -1.582321e+002 
3909375000  -2.942050e+001  -1.608328e+002 
3912500000  -2.938051e+001  -1.687650e+002 
3915625000  -3.066961e+001  -1.673784e+002 
3918750000  -3.070421e+001  -1.658435e+002 
3921875000  -3.027360e+001  -1.672207e+002 
3925000000  -2.944386e+001  -1.672981e+002 
3928125000  -2.873036e+001  -1.738335e+002 
3931250000  -2.921579e+001  -1.774957e+002 
3934375000  -2.942134e+001  -1.768727e+002 
3937500000  -2.959095e+001  -1.780383e+002 
3940625000  -3.002046e+001  -1.780945e+002 
3943750000  -2.908166e+001  -1.759955e+002 
3946875000  -2.787761e+001  1.784821e+002 
3950000000  -2.836393e+001  1.708218e+002 
3953125000  -2.928494e+001  1.718481e+002 
3956250000  -2.839300e+001  1.740222e+002 
3959375000  -2.704006e+001  1.705204e+002 
3962500000  -2.652227e+001  1.669099e+002 
3965625000  -2.616573e+001  1.584002e+002 
3968750000  -2.708022e+001  1.518743e+002 
3971875000  -2.748063e+001  1.498063e+002 
3975000000  -2.689288e+001  1.474475e+002 
3978125000  -2.668354e+001  1.463434e+002 
3981250000  -2.639606e+001  1.422515e+002 
3984375000  -2.662681e+001  1.360287e+002 
3987500000  -2.716088e+001  1.337495e+002 
3990625000  -2.710589e+001  1.329306e+002 
3993750000  -2.726152e+001  1.294661e+002 
3996875000  -2.726618e+001  1.274683e+002 
4000000000  -2.740397e+001  1.254580e+002 
4003125000  -2.800800e+001  1.272491e+002 
4006250000  -2.659949e+001  1.281696e+002 
4009375000  -2.533374e+001  1.160333e+002 
4012500000  -2.639408e+001  1.087733e+002 
4015625000  -2.757818e+001  1.090033e+002 
4018750000  -2.779766e+001  1.111554e+002 
4021875000  -2.713407e+001  1.095632e+002 
4025000000  -2.666835e+001  1.046151e+002 
4028125000  -2.663998e+001  1.008825e+002 
4031250000  -2.708489e+001  9.746754e+001 
4034375000  -2.736025e+001  9.730270e+001 
4037500000  -2.681961e+001  9.903534e+001 
4040625000  -2.688435e+001  9.594347e+001 
4043750000  -2.713846e+001  9.552354e+001 
4046875000  -2.669751e+001  9.475124e+001 
4050000000  -2.616177e+001  8.942313e+001 
4053125000  -2.661991e+001  8.697055e+001 
4056250000  -2.721508e+001  9.086684e+001 
4059375000  -2.609390e+001  9.276337e+001 
4062500000  -2.468688e+001  8.835112e+001 
4065625000  -2.462241e+001  8.430422e+001 
4068750000  -2.426693e+001  7.991597e+001 
4071875000  -2.358759e+001  7.198783e+001 
4075000000  -2.391140e+001  6.533350e+001 
4078125000  -2.446231e+001  6.402542e+001 
4081250000  -2.391232e+001  6.169658e+001 
4084375000  -2.358540e+001  5.525839e+001 
4087500000  -2.390977e+001  4.894282e+001 
4090625000  -2.456386e+001  4.748561e+001 
4093750000  -2.437248e+001  4.811818e+001 
4096875000  -2.392869e+001  4.240628e+001 
4100000000  -2.459865e+001  3.580819e+001 
4103125000  -2.542130e+001  3.645294e+001 
4106250000  -2.531314e+001  4.075962e+001 
4109375000  -2.431697e+001  4.013026e+001 
4112500000  -2.379967e+001  3.358054e+001 
4115625000  -2.410381e+001  2.915203e+001 
4118750000  -2.426286e+001  2.627029e+001 
4121875000  -2.388572e+001  2.143845e+001 
4125000000  -2.428121e+001  1.682538e+001 
4128125000  -2.524172e+001  1.726451e+001 
4131250000  -2.486706e+001  2.539034e+001 
4134375000  -2.249700e+001  2.069932e+001 
4137500000  -2.232466e+001  1.847498e+000 
4140625000  -2.444819e+001  -5.579234e+000 
4143750000  -2.581556e+001  -3.933790e-001 
4146875000  -2.537103e+001  6.748321e+000 
4150000000  -2.441913e+001  3.394216e+000 
4153125000  -2.427252e+001  -2.999285e+000 
4156250000  -2.516934e+001  -6.201542e+000 
4159375000  -2.548954e+001  -1.386601e+000 
4162500000  -2.439143e+001  2.914807e+000 
4165625000  -2.321845e+001  -1.069422e+000 
4168750000  -2.259402e+001  -8.181973e+000 
4171875000  -2.251554e+001  -1.749123e+001 
4175000000  -2.311123e+001  -2.334987e+001 
4178125000  -2.367819e+001  -2.376529e+001 
4181250000  -2.357885e+001  -2.435354e+001 
4184375000  -2.339453e+001  -2.785711e+001 
4187500000  -2.345337e+001  -3.065740e+001 
4190625000  -2.326461e+001  -3.618116e+001 
4193750000  -2.401877e+001  -3.975970e+001 
4196875000  -2.475676e+001  -4.010263e+001 
4200000000  -2.561887e+001  -3.798528e+001 
4203125000  -2.558733e+001  -2.461535e+001 
4206250000  -2.232585e+001  -2.332408e+001 
4209375000  -2.114923e+001  -4.342290e+001 
4212500000  -2.308254e+001  -5.188368e+001 
4215625000  -2.402571e+001  -4.516431e+001 
4218750000  -2.261778e+001  -3.891244e+001 
4221875000  -2.028397e+001  -4.819355e+001 
4225000000  -2.148065e+001  -6.159562e+001 
4228125000  -2.225387e+001  -5.645431e+001 
4231250000  -2.079931e+001  -6.001002e+001 
4234375000  -2.065605e+001  -6.863691e+001 
4237500000  -2.026912e+001  -7.204623e+001 
4240625000  -2.032271e+001  -8.050172e+001 
4243750000  -2.132805e+001  -8.692252e+001 
4246875000  -2.212881e+001  -8.693183e+001 
4250000000  -2.213501e+001  -8.405411e+001 
4253125000  -2.154569e+001  -8.627845e+001 
4256250000  -2.174817e+001  -9.037585e+001 
4259375000  -2.154584e+001  -9.251926e+001 
4262500000  -2.155238e+001  -9.642132e+001 
4265625000  -2.171710e+001  -9.593226e+001 
4268750000  -2.091488e+001  -9.987281e+001 
4271875000  -2.061328e+001  -1.054226e+002 
4275000000  -2.000643e+001  -1.117877e+002 
4278125000  -2.053255e+001  -1.236276e+002 
4281250000  -2.226499e+001  -1.257861e+002 
4284375000  -2.202175e+001  -1.254697e+002 
4287500000  -2.293203e+001  -1.293225e+002 
4290625000  -2.424500e+001  -1.194136e+002 
4293750000  -2.225636e+001  -1.132681e+002 
4296875000  -2.090564e+001  -1.247100e+002 
4300000000  -2.170385e+001  -1.339268e+002 
4303125000  -2.274611e+001  -1.328623e+002 
4306250000  -2.206715e+001  -1.271287e+002 
4309375000  -2.074274e+001  -1.298868e+002 
4312500000  -2.064229e+001  -1.382620e+002 
4315625000  -2.093563e+001  -1.440040e+002 
4318750000  -2.131659e+001  -1.473048e+002 
4321875000  -2.148350e+001  -1.465320e+002 
4325000000  -2.084472e+001  -1.461518e+002 
4328125000  -2.031948e+001  -1.532312e+002 
4331250000  -2.031945e+001  -1.609021e+002 
4334375000  -2.081871e+001  -1.658559e+002 
4337500000  -2.158528e+001  -1.679504e+002 
4340625000  -2.206141e+001  -1.652811e+002 
4343750000  -2.151171e+001  -1.643771e+002 
4346875000  -2.111886e+001  -1.698402e+002 
4350000000  -2.102479e+001  -1.745197e+002 
4353125000  -2.108322e+001  1.774591e+002 
4356250000  -2.284072e+001  1.761004e+002 
4359375000  -2.348408e+001  -1.707022e+002 
4362500000  -2.088256e+001  -1.686586e+002 
4365625000  -1.930452e+001  1.798923e+002 
4368750000  -2.002317e+001  1.683462e+002 
4371875000  -2.110199e+001  1.681626e+002 
4375000000  -2.082852e+001  1.693288e+002 
4378125000  -2.023384e+001  1.638423e+002 
4381250000  -2.033747e+001  1.585470e+002 
4384375000  -2.013263e+001  1.538459e+002 
4387500000  -2.081634e+001  1.477023e+002 
4390625000  -2.186269e+001  1.482345e+002 
4393750000  -2.128998e+001  1.506689e+002 
4396875000  -2.060263e+001  1.483430e+002 
4400000000  -2.008664e+001  1.415262e+002 
4403125000  -2.062016e+001  1.338456e+002 
4406250000  -2.146919e+001  1.324762e+002 
4409375000  -2.142874e+001  1.301872e+002 
4412500000  -2.235689e+001  1.268217e+002 
4415625000  -2.277144e+001  1.318349e+002 
4418750000  -2.170529e+001  1.366986e+002 
