!Agilent Technologies,E8363B,MY43030201,A.06.04.32
!Agilent E8363B: A.06.04.32
!Date: Tuesday, November 11, 2014 20:53:58
!Correction: S21(Response(S21)) 
!S1P File: Measurement: S21:
# Hz S  dB   R 50
3000000000  -2.662272e+001  1.509758e+002 
3003125000  -2.802710e+001  1.463823e+002 
3006250000  -2.811374e+001  1.438055e+002 
3009375000  -2.842901e+001  1.486095e+002 
3012500000  -2.788437e+001  1.482089e+002 
3015625000  -2.697328e+001  1.411834e+002 
3018750000  -2.777040e+001  1.404393e+002 
3021875000  -2.655483e+001  1.416028e+002 
3025000000  -2.524280e+001  1.386334e+002 
3028125000  -2.423880e+001  1.335208e+002 
3031250000  -2.324426e+001  1.221012e+002 
3034375000  -2.286374e+001  1.093699e+002 
3037500000  -2.320506e+001  9.729891e+001 
3040625000  -2.451050e+001  9.228234e+001 
3043750000  -2.526562e+001  8.787322e+001 
3046875000  -2.537226e+001  8.175391e+001 
3050000000  -2.710407e+001  7.445679e+001 
3053125000  -2.718194e+001  8.092775e+001 
3056250000  -2.655878e+001  8.392991e+001 
3059375000  -2.677032e+001  8.363490e+001 
3062500000  -2.530309e+001  7.983294e+001 
3065625000  -2.507312e+001  7.389986e+001 
3068750000  -2.481119e+001  6.712155e+001 
3071875000  -2.475443e+001  6.424896e+001 
3075000000  -2.471202e+001  6.045577e+001 
3078125000  -2.448997e+001  5.566835e+001 
3081250000  -2.507407e+001  5.162183e+001 
3084375000  -2.432545e+001  4.789228e+001 
3087500000  -2.421619e+001  4.428022e+001 
3090625000  -2.390849e+001  3.468784e+001 
3093750000  -2.434485e+001  2.689856e+001 
3096875000  -2.564256e+001  2.079047e+001 
3100000000  -2.579263e+001  1.948781e+001 
3103125000  -2.615259e+001  2.062531e+001 
3106250000  -2.587764e+001  1.738805e+001 
3109375000  -2.612076e+001  1.384389e+001 
3112500000  -2.624911e+001  1.259876e+001 
3115625000  -2.603693e+001  8.469322e+000 
3118750000  -2.648691e+001  9.748740e+000 
3121875000  -2.585667e+001  1.728755e+000 
3125000000  -2.706080e+001  -1.917662e+000 
3128125000  -2.827332e+001  6.385458e+000 
3131250000  -2.604556e+001  7.002195e+000 
3134375000  -2.475455e+001  -6.498734e+000 
3137500000  -2.530901e+001  -2.023709e+001 
3140625000  -2.695130e+001  -2.178358e+001 
3143750000  -2.796694e+001  -1.812634e+001 
3146875000  -2.757487e+001  -1.624179e+001 
3150000000  -2.659953e+001  -1.362658e+001 
3153125000  -2.655189e+001  -2.137913e+001 
3156250000  -2.756587e+001  -1.573622e+001 
3159375000  -2.593825e+001  -1.312462e+001 
3162500000  -2.394088e+001  -2.620922e+001 
3165625000  -2.483825e+001  -3.709547e+001 
3168750000  -2.523364e+001  -3.598629e+001 
3171875000  -2.428159e+001  -4.031292e+001 
3175000000  -2.491933e+001  -4.839594e+001 
3178125000  -2.470274e+001  -4.663481e+001 
3181250000  -2.352873e+001  -5.057994e+001 
3184375000  -2.274769e+001  -6.274129e+001 
3187500000  -2.379563e+001  -7.804103e+001 
3190625000  -2.662156e+001  -8.526466e+001 
3193750000  -2.721432e+001  -7.583755e+001 
3196875000  -2.681042e+001  -7.049512e+001 
3200000000  -2.592184e+001  -7.225113e+001 
3203125000  -2.508057e+001  -7.816642e+001 
3206250000  -2.537637e+001  -8.453654e+001 
3209375000  -2.489043e+001  -8.929056e+001 
3212500000  -2.503987e+001  -9.586005e+001 
3215625000  -2.516364e+001  -9.988267e+001 
3218750000  -2.590460e+001  -1.063462e+002 
3221875000  -2.683568e+001  -1.115174e+002 
3225000000  -2.649254e+001  -1.121168e+002 
3228125000  -2.685435e+001  -1.166584e+002 
3231250000  -2.756726e+001  -1.191766e+002 
3234375000  -2.744314e+001  -1.183728e+002 
3237500000  -2.747489e+001  -1.200307e+002 
3240625000  -2.710896e+001  -1.217317e+002 
3243750000  -2.677164e+001  -1.282592e+002 
3246875000  -2.727278e+001  -1.347047e+002 
3250000000  -2.770733e+001  -1.365257e+002 
3253125000  -2.783987e+001  -1.382529e+002 
3256250000  -2.767779e+001  -1.441197e+002 
3259375000  -2.800137e+001  -1.521064e+002 
3262500000  -2.932804e+001  -1.549338e+002 
3265625000  -2.998243e+001  -1.512050e+002 
3268750000  -2.986044e+001  -1.486013e+002 
3271875000  -2.960055e+001  -1.475846e+002 
3275000000  -2.860467e+001  -1.526348e+002 
3278125000  -2.905868e+001  -1.590394e+002 
3281250000  -2.931287e+001  -1.571421e+002 
3284375000  -2.889504e+001  -1.627824e+002 
3287500000  -2.902065e+001  -1.660763e+002 
3290625000  -2.944187e+001  -1.702800e+002 
3293750000  -2.909790e+001  -1.753510e+002 
3296875000  -3.019517e+001  -1.754677e+002 
3300000000  -3.005413e+001  -1.745486e+002 
3303125000  -2.890708e+001  -1.783210e+002 
3306250000  -2.868599e+001  1.748788e+002 
3309375000  -2.845127e+001  1.701036e+002 
3312500000  -2.843553e+001  1.597047e+002 
3315625000  -2.948716e+001  1.519696e+002 
3318750000  -3.079589e+001  1.493599e+002 
3321875000  -3.201678e+001  1.497663e+002 
3325000000  -3.244343e+001  1.536467e+002 
3328125000  -3.244138e+001  1.554392e+002 
3331250000  -3.116710e+001  1.636929e+002 
3334375000  -2.873457e+001  1.537441e+002 
3337500000  -2.867447e+001  1.354865e+002 
3340625000  -3.006521e+001  1.242295e+002 
3343750000  -3.197755e+001  1.229521e+002 
3346875000  -3.237922e+001  1.247508e+002 
3350000000  -3.180123e+001  1.230300e+002 
3353125000  -3.195075e+001  1.188277e+002 
3356250000  -3.171054e+001  1.112540e+002 
3359375000  -3.257895e+001  1.026311e+002 
3362500000  -3.381999e+001  9.738466e+001 
3365625000  -3.446717e+001  9.597689e+001 
3368750000  -3.540857e+001  9.396365e+001 
3371875000  -3.581503e+001  9.131036e+001 
3375000000  -3.736325e+001  8.914107e+001 
3378125000  -3.836750e+001  8.927588e+001 
3381250000  -3.977302e+001  9.667009e+001 
3384375000  -3.895888e+001  1.180633e+002 
3387500000  -3.573531e+001  1.035719e+002 
3390625000  -3.770444e+001  8.555192e+001 
3393750000  -3.937433e+001  8.892742e+001 
3396875000  -3.862663e+001  9.022989e+001 
3400000000  -3.852607e+001  8.561970e+001 
3403125000  -3.946684e+001  8.022581e+001 
3406250000  -4.041742e+001  8.355244e+001 
3409375000  -4.118997e+001  7.874556e+001 
3412500000  -4.175581e+001  8.105173e+001 
3415625000  -4.250732e+001  8.483702e+001 
3418750000  -4.299413e+001  8.827506e+001 
3421875000  -4.343398e+001  9.513625e+001 
3425000000  -4.246491e+001  9.931382e+001 
3428125000  -4.130364e+001  9.613898e+001 
3431250000  -4.155351e+001  9.418198e+001 
3434375000  -4.134902e+001  8.874503e+001 
3437500000  -4.177630e+001  8.754564e+001 
3440625000  -4.190453e+001  9.126638e+001 
3443750000  -4.083427e+001  9.359028e+001 
3446875000  -3.994163e+001  8.770549e+001 
3450000000  -3.977751e+001  7.942724e+001 
3453125000  -4.001406e+001  7.021214e+001 
3456250000  -4.116614e+001  6.564507e+001 
3459375000  -4.243745e+001  6.745718e+001 
3462500000  -4.223791e+001  6.771425e+001 
3465625000  -4.251169e+001  6.370102e+001 
3468750000  -4.301575e+001  6.270512e+001 
3471875000  -4.293043e+001  6.204855e+001 
3475000000  -4.300230e+001  5.729522e+001 
3478125000  -4.367757e+001  5.253796e+001 
3481250000  -4.481363e+001  5.202531e+001 
3484375000  -4.624324e+001  5.472289e+001 
3487500000  -4.589952e+001  5.775745e+001 
3490625000  -4.589818e+001  5.776853e+001 
3493750000  -4.585066e+001  5.181334e+001 
3496875000  -4.766309e+001  5.263169e+001 
3500000000  -4.847352e+001  6.105669e+001 
3503125000  -4.864486e+001  6.917034e+001 
3506250000  -4.781162e+001  6.798586e+001 
3509375000  -4.764600e+001  6.533513e+001 
3512500000  -4.796838e+001  6.653220e+001 
3515625000  -4.850020e+001  6.995355e+001 
3518750000  -4.883896e+001  7.935344e+001 
3521875000  -4.878215e+001  8.319756e+001 
3525000000  -4.898742e+001  8.407536e+001 
3528125000  -4.845857e+001  9.223359e+001 
3531250000  -4.615089e+001  9.517538e+001 
3534375000  -4.551109e+001  8.460651e+001 
3537500000  -4.526155e+001  8.253980e+001 
3540625000  -4.603486e+001  8.374416e+001 
3543750000  -4.608154e+001  8.549000e+001 
3546875000  -4.570214e+001  9.872032e+001 
3550000000  -4.304638e+001  1.025055e+002 
3553125000  -4.160410e+001  8.209571e+001 
3556250000  -4.266895e+001  7.756151e+001 
3559375000  -4.227703e+001  8.068053e+001 
3562500000  -4.115051e+001  7.295057e+001 
3565625000  -4.185180e+001  6.640050e+001 
3568750000  -4.199801e+001  7.017888e+001 
3571875000  -4.176022e+001  7.041933e+001 
3575000000  -4.139360e+001  6.505891e+001 
3578125000  -4.152618e+001  6.145246e+001 
3581250000  -4.154865e+001  6.296201e+001 
3584375000  -4.076940e+001  6.116159e+001 
3587500000  -4.024326e+001  5.588070e+001 
3590625000  -4.063495e+001  4.683327e+001 
3593750000  -4.157022e+001  4.414191e+001 
3596875000  -4.157499e+001  5.337181e+001 
3600000000  -3.978054e+001  5.006301e+001 
3603125000  -3.998987e+001  3.644806e+001 
3606250000  -4.063213e+001  3.311427e+001 
3609375000  -4.093792e+001  3.326830e+001 
3612500000  -4.153636e+001  3.354799e+001 
3615625000  -4.160381e+001  3.105837e+001 
3618750000  -4.227099e+001  3.209127e+001 
3621875000  -4.128380e+001  3.148168e+001 
3625000000  -4.190044e+001  3.205267e+001 
3628125000  -4.207132e+001  3.306109e+001 
3631250000  -4.134772e+001  2.701956e+001 
3634375000  -4.247866e+001  2.704361e+001 
3637500000  -4.198154e+001  3.327431e+001 
3640625000  -4.090928e+001  3.420000e+001 
3643750000  -4.062507e+001  2.891721e+001 
3646875000  -4.123924e+001  2.418060e+001 
3650000000  -4.145120e+001  2.080636e+001 
3653125000  -4.126690e+001  2.162154e+001 
3656250000  -4.171574e+001  2.073772e+001 
3659375000  -4.180785e+001  2.439616e+001 
3662500000  -4.128642e+001  2.401712e+001 
3665625000  -4.124039e+001  2.446707e+001 
3668750000  -4.007033e+001  2.635141e+001 
3671875000  -3.913602e+001  1.922916e+001 
3675000000  -3.944951e+001  1.430473e+001 
3678125000  -4.001917e+001  1.446319e+001 
3681250000  -3.954815e+001  1.514540e+001 
3684375000  -3.947927e+001  1.389400e+001 
3687500000  -3.957726e+001  1.243062e+001 
3690625000  -3.958458e+001  1.083310e+001 
3693750000  -4.018750e+001  1.195506e+001 
3696875000  -4.021995e+001  1.824984e+001 
3700000000  -3.874155e+001  1.420667e+001 
3703125000  -3.857006e+001  9.153285e+000 
3706250000  -3.914108e+001  1.199893e+001 
3709375000  -3.848492e+001  1.470017e+001 
3712500000  -3.742237e+001  1.558712e+001 
3715625000  -3.614982e+001  8.881641e+000 
3718750000  -3.543950e+001  6.294051e+000 
3721875000  -3.512141e+001  1.515676e+000 
3725000000  -3.516307e+001  -3.087744e+000 
3728125000  -3.529868e+001  -4.360655e+000 
3731250000  -3.457766e+001  -4.348799e+000 
3734375000  -3.368750e+001  -1.105389e+001 
3737500000  -3.409688e+001  -1.743097e+001 
3740625000  -3.472958e+001  -2.119842e+001 
3743750000  -3.447360e+001  -2.288950e+001 
3746875000  -3.432883e+001  -2.687315e+001 
3750000000  -3.465104e+001  -2.700118e+001 
3753125000  -3.440562e+001  -2.760165e+001 
3756250000  -3.435736e+001  -2.872227e+001 
3759375000  -3.405674e+001  -2.917432e+001 
3762500000  -3.364767e+001  -3.279884e+001 
3765625000  -3.392640e+001  -3.630796e+001 
3768750000  -3.409323e+001  -3.355104e+001 
3771875000  -3.245135e+001  -3.614990e+001 
3775000000  -3.204914e+001  -4.457937e+001 
3778125000  -3.235953e+001  -4.604187e+001 
3781250000  -3.215334e+001  -4.856512e+001 
3784375000  -3.213637e+001  -5.110101e+001 
3787500000  -3.151088e+001  -5.458596e+001 
3790625000  -3.204326e+001  -6.063477e+001 
3793750000  -3.216366e+001  -6.061247e+001 
3796875000  -3.133259e+001  -6.159909e+001 
3800000000  -2.979857e+001  -6.583841e+001 
3803125000  -3.050930e+001  -7.256973e+001 
3806250000  -3.118692e+001  -7.473671e+001 
3809375000  -3.097701e+001  -7.635362e+001 
3812500000  -3.030124e+001  -8.101405e+001 
3815625000  -3.091354e+001  -8.791183e+001 
3818750000  -3.192211e+001  -8.941777e+001 
3821875000  -3.206618e+001  -8.089785e+001 
3825000000  -3.005453e+001  -7.597832e+001 
3828125000  -2.861589e+001  -9.007544e+001 
3831250000  -2.914034e+001  -1.042949e+002 
3834375000  -3.052834e+001  -1.056168e+002 
3837500000  -3.133358e+001  -1.000494e+002 
3840625000  -3.032166e+001  -1.008674e+002 
3843750000  -2.914110e+001  -1.114065e+002 
3846875000  -2.981387e+001  -1.183824e+002 
3850000000  -3.115942e+001  -1.125910e+002 
3853125000  -3.033449e+001  -1.099662e+002 
3856250000  -3.028112e+001  -1.151327e+002 
3859375000  -2.962441e+001  -1.193448e+002 
3862500000  -2.911130e+001  -1.262834e+002 
3865625000  -2.936722e+001  -1.310528e+002 
3868750000  -2.938144e+001  -1.308835e+002 
3871875000  -2.865492e+001  -1.344120e+002 
3875000000  -2.883982e+001  -1.425438e+002 
3878125000  -2.973139e+001  -1.449175e+002 
3881250000  -2.983076e+001  -1.424877e+002 
3884375000  -2.932696e+001  -1.468147e+002 
3887500000  -2.941011e+001  -1.509629e+002 
3890625000  -3.000283e+001  -1.537994e+002 
3893750000  -3.030983e+001  -1.544328e+002 
3896875000  -3.042141e+001  -1.541092e+002 
3900000000  -3.077600e+001  -1.552562e+002 
3903125000  -3.048108e+001  -1.576061e+002 
3906250000  -3.007074e+001  -1.580222e+002 
3909375000  -2.942848e+001  -1.606586e+002 
3912500000  -2.941416e+001  -1.684870e+002 
3915625000  -3.067837e+001  -1.674227e+002 
3918750000  -3.067335e+001  -1.650104e+002 
3921875000  -3.030478e+001  -1.672388e+002 
3925000000  -2.942910e+001  -1.681133e+002 
3928125000  -2.877823e+001  -1.737316e+002 
3931250000  -2.924765e+001  -1.776023e+002 
3934375000  -2.943366e+001  -1.776141e+002 
3937500000  -2.958674e+001  -1.788150e+002 
3940625000  -3.005189e+001  -1.778596e+002 
3943750000  -2.915353e+001  -1.767483e+002 
3946875000  -2.794170e+001  1.782164e+002 
3950000000  -2.834374e+001  1.709480e+002 
3953125000  -2.926579e+001  1.713358e+002 
3956250000  -2.841309e+001  1.740171e+002 
3959375000  -2.706068e+001  1.707637e+002 
3962500000  -2.653719e+001  1.665786e+002 
3965625000  -2.627841e+001  1.577086e+002 
3968750000  -2.710601e+001  1.511878e+002 
3971875000  -2.751296e+001  1.495175e+002 
3975000000  -2.686157e+001  1.477702e+002 
3978125000  -2.668666e+001  1.465553e+002 
3981250000  -2.642077e+001  1.425956e+002 
3984375000  -2.667095e+001  1.359364e+002 
3987500000  -2.715527e+001  1.338881e+002 
3990625000  -2.710519e+001  1.332335e+002 
3993750000  -2.730127e+001  1.298084e+002 
3996875000  -2.725160e+001  1.271604e+002 
4000000000  -2.739933e+001  1.253261e+002 
4003125000  -2.797406e+001  1.279915e+002 
4006250000  -2.664187e+001  1.283235e+002 
4009375000  -2.532988e+001  1.156136e+002 
4012500000  -2.636308e+001  1.089386e+002 
4015625000  -2.752568e+001  1.091903e+002 
4018750000  -2.776660e+001  1.114371e+002 
4021875000  -2.715222e+001  1.097491e+002 
4025000000  -2.669138e+001  1.049790e+002 
4028125000  -2.666742e+001  1.006905e+002 
4031250000  -2.704568e+001  9.761072e+001 
4034375000  -2.733900e+001  9.742005e+001 
4037500000  -2.684334e+001  9.892216e+001 
4040625000  -2.679610e+001  9.538088e+001 
4043750000  -2.715654e+001  9.498694e+001 
4046875000  -2.666772e+001  9.473344e+001 
4050000000  -2.617862e+001  8.887006e+001 
4053125000  -2.661377e+001  8.677266e+001 
4056250000  -2.719431e+001  9.055673e+001 
4059375000  -2.609724e+001  9.244227e+001 
4062500000  -2.476376e+001  8.854268e+001 
4065625000  -2.459776e+001  8.404398e+001 
4068750000  -2.429417e+001  7.974096e+001 
4071875000  -2.357538e+001  7.185104e+001 
4075000000  -2.391845e+001  6.520531e+001 
4078125000  -2.446687e+001  6.422276e+001 
4081250000  -2.395597e+001  6.181291e+001 
4084375000  -2.362603e+001  5.518685e+001 
4087500000  -2.398501e+001  4.915098e+001 
4090625000  -2.453375e+001  4.763642e+001 
4093750000  -2.441580e+001  4.847169e+001 
4096875000  -2.397165e+001  4.286500e+001 
4100000000  -2.462426e+001  3.596624e+001 
4103125000  -2.547841e+001  3.628757e+001 
4106250000  -2.531654e+001  4.116831e+001 
4109375000  -2.436174e+001  4.024498e+001 
4112500000  -2.384327e+001  3.381536e+001 
4115625000  -2.409636e+001  2.995716e+001 
4118750000  -2.424503e+001  2.614049e+001 
4121875000  -2.391267e+001  2.185922e+001 
4125000000  -2.431764e+001  1.674871e+001 
4128125000  -2.521309e+001  1.748373e+001 
4131250000  -2.485861e+001  2.584880e+001 
4134375000  -2.251575e+001  2.047906e+001 
4137500000  -2.230473e+001  1.774645e+000 
4140625000  -2.441949e+001  -5.488151e+000 
4143750000  -2.580623e+001  -7.444325e-001 
4146875000  -2.532746e+001  6.950613e+000 
4150000000  -2.437811e+001  3.107574e+000 
4153125000  -2.425583e+001  -3.317591e+000 
4156250000  -2.511420e+001  -5.970969e+000 
4159375000  -2.543349e+001  -1.439163e+000 
4162500000  -2.433736e+001  2.863629e+000 
4165625000  -2.322567e+001  -1.315615e+000 
4168750000  -2.262510e+001  -8.246531e+000 
4171875000  -2.252765e+001  -1.745275e+001 
4175000000  -2.305964e+001  -2.365391e+001 
4178125000  -2.365286e+001  -2.382915e+001 
4181250000  -2.356516e+001  -2.436530e+001 
4184375000  -2.341162e+001  -2.773108e+001 
4187500000  -2.346875e+001  -3.042857e+001 
4190625000  -2.328863e+001  -3.633008e+001 
4193750000  -2.407303e+001  -4.016228e+001 
4196875000  -2.484047e+001  -4.028029e+001 
4200000000  -2.564541e+001  -3.794283e+001 
4203125000  -2.565554e+001  -2.474807e+001 
4206250000  -2.235834e+001  -2.304465e+001 
4209375000  -2.122371e+001  -4.358000e+001 
4212500000  -2.312844e+001  -5.218294e+001 
4215625000  -2.409872e+001  -4.492912e+001 
4218750000  -2.267397e+001  -3.847543e+001 
4221875000  -2.037733e+001  -4.798093e+001 
4225000000  -2.153725e+001  -6.105715e+001 
4228125000  -2.227006e+001  -5.633792e+001 
4231250000  -2.079488e+001  -5.968631e+001 
4234375000  -2.064168e+001  -6.819553e+001 
4237500000  -2.026034e+001  -7.192953e+001 
4240625000  -2.035808e+001  -8.017834e+001 
4243750000  -2.133660e+001  -8.644678e+001 
4246875000  -2.214815e+001  -8.645918e+001 
4250000000  -2.215188e+001  -8.404101e+001 
4253125000  -2.154433e+001  -8.597369e+001 
4256250000  -2.176306e+001  -8.992378e+001 
4259375000  -2.154635e+001  -9.270000e+001 
4262500000  -2.156524e+001  -9.595597e+001 
4265625000  -2.173123e+001  -9.584521e+001 
4268750000  -2.091148e+001  -9.957413e+001 
4271875000  -2.061969e+001  -1.051588e+002 
4275000000  -1.996795e+001  -1.119367e+002 
4278125000  -2.051072e+001  -1.237576e+002 
4281250000  -2.225152e+001  -1.257008e+002 
4284375000  -2.209154e+001  -1.253878e+002 
4287500000  -2.292270e+001  -1.292663e+002 
4290625000  -2.424027e+001  -1.190974e+002 
4293750000  -2.223548e+001  -1.133084e+002 
4296875000  -2.086210e+001  -1.249148e+002 
4300000000  -2.170817e+001  -1.338815e+002 
4303125000  -2.275806e+001  -1.330812e+002 
4306250000  -2.209218e+001  -1.271009e+002 
4309375000  -2.073949e+001  -1.295416e+002 
4312500000  -2.068906e+001  -1.383270e+002 
4315625000  -2.099371e+001  -1.441492e+002 
4318750000  -2.132713e+001  -1.471224e+002 
4321875000  -2.150335e+001  -1.466715e+002 
4325000000  -2.086717e+001  -1.463670e+002 
4328125000  -2.037166e+001  -1.530246e+002 
4331250000  -2.035144e+001  -1.607808e+002 
4334375000  -2.085305e+001  -1.655429e+002 
4337500000  -2.163940e+001  -1.679340e+002 
4340625000  -2.207265e+001  -1.652183e+002 
4343750000  -2.151398e+001  -1.645834e+002 
4346875000  -2.112593e+001  -1.697565e+002 
4350000000  -2.107919e+001  -1.745625e+002 
4353125000  -2.115081e+001  1.776716e+002 
4356250000  -2.287515e+001  1.760753e+002 
4359375000  -2.351092e+001  -1.706219e+002 
4362500000  -2.091335e+001  -1.685603e+002 
4365625000  -1.932310e+001  1.799776e+002 
4368750000  -2.005509e+001  1.686300e+002 
4371875000  -2.114457e+001  1.687467e+002 
4375000000  -2.084875e+001  1.697146e+002 
4378125000  -2.022722e+001  1.638945e+002 
4381250000  -2.033336e+001  1.587065e+002 
4384375000  -2.015638e+001  1.540994e+002 
4387500000  -2.083141e+001  1.478074e+002 
4390625000  -2.182726e+001  1.484756e+002 
4393750000  -2.126839e+001  1.508965e+002 
4396875000  -2.058015e+001  1.487782e+002 
4400000000  -2.010461e+001  1.418849e+002 
4403125000  -2.061087e+001  1.340107e+002 
4406250000  -2.144403e+001  1.327122e+002 
4409375000  -2.141501e+001  1.304019e+002 
4412500000  -2.234769e+001  1.273055e+002 
4415625000  -2.283078e+001  1.319164e+002 
4418750000  -2.172362e+001  1.368383e+002 
