!Agilent Technologies,E8363B,MY43030201,A.06.04.32
!Agilent E8363B: A.06.04.32
!Date: Tuesday, November 11, 2014 20:56:21
!Correction: S21(Response(S21)) 
!S1P File: Measurement: S21:
# Hz S  dB   R 50
3000000000  -2.649571e+001  1.477900e+002 
3003125000  -2.790269e+001  1.430932e+002 
3006250000  -2.792138e+001  1.406793e+002 
3009375000  -2.833003e+001  1.456679e+002 
3012500000  -2.776724e+001  1.451463e+002 
3015625000  -2.681184e+001  1.380784e+002 
3018750000  -2.769295e+001  1.374256e+002 
3021875000  -2.638513e+001  1.388107e+002 
3025000000  -2.507121e+001  1.355730e+002 
3028125000  -2.412380e+001  1.306556e+002 
3031250000  -2.309741e+001  1.194395e+002 
3034375000  -2.273174e+001  1.060915e+002 
3037500000  -2.314777e+001  9.424918e+001 
3040625000  -2.446960e+001  8.924219e+001 
3043750000  -2.519345e+001  8.506898e+001 
3046875000  -2.526839e+001  7.877190e+001 
3050000000  -2.703558e+001  7.192728e+001 
3053125000  -2.705887e+001  7.846708e+001 
3056250000  -2.649587e+001  8.157176e+001 
3059375000  -2.663956e+001  8.098602e+001 
3062500000  -2.517996e+001  7.723810e+001 
3065625000  -2.495322e+001  7.150924e+001 
3068750000  -2.468455e+001  6.432999e+001 
3071875000  -2.465081e+001  6.157911e+001 
3075000000  -2.459234e+001  5.775069e+001 
3078125000  -2.434030e+001  5.322254e+001 
3081250000  -2.496302e+001  4.897654e+001 
3084375000  -2.420408e+001  4.514757e+001 
3087500000  -2.413251e+001  4.157909e+001 
3090625000  -2.379060e+001  3.168053e+001 
3093750000  -2.428348e+001  2.401950e+001 
3096875000  -2.554302e+001  1.794715e+001 
3100000000  -2.568933e+001  1.675174e+001 
3103125000  -2.605597e+001  1.788958e+001 
3106250000  -2.575228e+001  1.450257e+001 
3109375000  -2.602775e+001  1.086647e+001 
3112500000  -2.616210e+001  9.666944e+000 
3115625000  -2.598539e+001  5.552995e+000 
3118750000  -2.645028e+001  6.858392e+000 
3121875000  -2.574598e+001  -9.795746e-001 
3125000000  -2.696416e+001  -4.571565e+000 
3128125000  -2.816329e+001  3.767524e+000 
3131250000  -2.593428e+001  3.844197e+000 
3134375000  -2.463322e+001  -9.765077e+000 
3137500000  -2.528294e+001  -2.324166e+001 
3140625000  -2.691041e+001  -2.441677e+001 
3143750000  -2.792685e+001  -2.087827e+001 
3146875000  -2.751885e+001  -1.881885e+001 
3150000000  -2.647886e+001  -1.678474e+001 
3153125000  -2.646861e+001  -2.406409e+001 
3156250000  -2.744035e+001  -1.851731e+001 
3159375000  -2.587025e+001  -1.604876e+001 
3162500000  -2.383036e+001  -2.906467e+001 
3165625000  -2.481093e+001  -3.967287e+001 
3168750000  -2.518156e+001  -3.893717e+001 
3171875000  -2.422367e+001  -4.300485e+001 
3175000000  -2.488584e+001  -5.106985e+001 
3178125000  -2.465501e+001  -4.916328e+001 
3181250000  -2.346724e+001  -5.355914e+001 
3184375000  -2.274130e+001  -6.571904e+001 
3187500000  -2.385992e+001  -8.067233e+001 
3190625000  -2.661356e+001  -8.765172e+001 
3193750000  -2.716656e+001  -7.832827e+001 
3196875000  -2.676759e+001  -7.304955e+001 
3200000000  -2.582426e+001  -7.501346e+001 
3203125000  -2.499094e+001  -8.073019e+001 
3206250000  -2.533608e+001  -8.683317e+001 
3209375000  -2.484481e+001  -9.211612e+001 
3212500000  -2.503013e+001  -9.865448e+001 
3215625000  -2.513876e+001  -1.029039e+002 
3218750000  -2.589254e+001  -1.089250e+002 
3221875000  -2.682018e+001  -1.143179e+002 
3225000000  -2.645672e+001  -1.151526e+002 
3228125000  -2.676110e+001  -1.194740e+002 
3231250000  -2.753392e+001  -1.218443e+002 
3234375000  -2.737745e+001  -1.210914e+002 
3237500000  -2.741870e+001  -1.223642e+002 
3240625000  -2.706982e+001  -1.246047e+002 
3243750000  -2.671302e+001  -1.308807e+002 
3246875000  -2.722338e+001  -1.376445e+002 
3250000000  -2.767180e+001  -1.394551e+002 
3253125000  -2.783180e+001  -1.412268e+002 
3256250000  -2.764710e+001  -1.469275e+002 
3259375000  -2.795924e+001  -1.545778e+002 
3262500000  -2.927802e+001  -1.574909e+002 
3265625000  -2.993783e+001  -1.536724e+002 
3268750000  -2.984396e+001  -1.511678e+002 
3271875000  -2.965478e+001  -1.501578e+002 
3275000000  -2.858126e+001  -1.556470e+002 
3278125000  -2.904891e+001  -1.616140e+002 
3281250000  -2.929251e+001  -1.597505e+002 
3284375000  -2.887992e+001  -1.654849e+002 
3287500000  -2.903103e+001  -1.681478e+002 
3290625000  -2.948320e+001  -1.726501e+002 
3293750000  -2.913188e+001  -1.783750e+002 
3296875000  -3.014229e+001  -1.779776e+002 
3300000000  -3.003218e+001  -1.767484e+002 
3303125000  -2.888907e+001  1.789526e+002 
3306250000  -2.868378e+001  1.724026e+002 
3309375000  -2.841087e+001  1.670524e+002 
3312500000  -2.846279e+001  1.568989e+002 
3315625000  -2.957723e+001  1.489116e+002 
3318750000  -3.092309e+001  1.467574e+002 
3321875000  -3.207853e+001  1.466307e+002 
3325000000  -3.260099e+001  1.514656e+002 
3328125000  -3.240190e+001  1.532233e+002 
3331250000  -3.115584e+001  1.615150e+002 
3334375000  -2.862643e+001  1.509630e+002 
3337500000  -2.872436e+001  1.324404e+002 
3340625000  -3.009421e+001  1.219202e+002 
3343750000  -3.208763e+001  1.203893e+002 
3346875000  -3.253541e+001  1.219473e+002 
3350000000  -3.182537e+001  1.210952e+002 
3353125000  -3.201900e+001  1.166057e+002 
3356250000  -3.166555e+001  1.085771e+002 
3359375000  -3.253476e+001  1.001686e+002 
3362500000  -3.391347e+001  9.449012e+001 
3365625000  -3.462001e+001  9.300285e+001 
3368750000  -3.541576e+001  9.251077e+001 
3371875000  -3.581224e+001  8.863304e+001 
3375000000  -3.740889e+001  8.661427e+001 
3378125000  -3.843147e+001  8.674217e+001 
3381250000  -3.998986e+001  9.561074e+001 
3384375000  -3.902189e+001  1.161334e+002 
3387500000  -3.601741e+001  1.020964e+002 
3390625000  -3.785395e+001  8.156306e+001 
3393750000  -3.971636e+001  8.749161e+001 
3396875000  -3.871182e+001  9.027781e+001 
3400000000  -3.874442e+001  8.299533e+001 
3403125000  -3.978801e+001  7.948774e+001 
3406250000  -4.067390e+001  8.077467e+001 
3409375000  -4.128846e+001  7.718196e+001 
3412500000  -4.193146e+001  7.913792e+001 
3415625000  -4.295328e+001  8.231651e+001 
3418750000  -4.302345e+001  8.665269e+001 
3421875000  -4.333486e+001  9.359678e+001 
3425000000  -4.245678e+001  9.703552e+001 
3428125000  -4.125979e+001  9.604224e+001 
3431250000  -4.135217e+001  9.032060e+001 
3434375000  -4.104058e+001  8.934890e+001 
3437500000  -4.185117e+001  8.655384e+001 
3440625000  -4.183393e+001  9.146468e+001 
3443750000  -4.061403e+001  9.302954e+001 
3446875000  -3.986193e+001  8.657407e+001 
3450000000  -3.959951e+001  7.804819e+001 
3453125000  -4.000589e+001  6.908360e+001 
3456250000  -4.124168e+001  6.521286e+001 
3459375000  -4.207275e+001  6.662698e+001 
3462500000  -4.215187e+001  6.545483e+001 
3465625000  -4.232368e+001  6.481068e+001 
3468750000  -4.286005e+001  6.048916e+001 
3471875000  -4.301143e+001  6.209560e+001 
3475000000  -4.300044e+001  5.715523e+001 
3478125000  -4.325996e+001  5.207386e+001 
3481250000  -4.440083e+001  5.265397e+001 
3484375000  -4.582442e+001  5.844012e+001 
3487500000  -4.549704e+001  5.663743e+001 
3490625000  -4.504655e+001  5.621744e+001 
3493750000  -4.578131e+001  5.293792e+001 
3496875000  -4.685928e+001  5.301680e+001 
3500000000  -4.789691e+001  6.325855e+001 
3503125000  -4.761519e+001  6.680931e+001 
3506250000  -4.672084e+001  6.590630e+001 
3509375000  -4.675752e+001  6.466263e+001 
3512500000  -4.722955e+001  6.458754e+001 
3515625000  -4.782334e+001  6.423106e+001 
3518750000  -4.796669e+001  6.645762e+001 
3521875000  -4.728802e+001  7.598126e+001 
3525000000  -4.759314e+001  7.673697e+001 
3528125000  -4.774630e+001  8.726164e+001 
3531250000  -4.536005e+001  8.828551e+001 
3534375000  -4.501996e+001  7.999255e+001 
3537500000  -4.535875e+001  7.859335e+001 
3540625000  -4.543069e+001  7.829393e+001 
3543750000  -4.609549e+001  8.131841e+001 
3546875000  -4.575209e+001  9.077892e+001 
3550000000  -4.279108e+001  9.504237e+001 
3553125000  -4.144451e+001  8.046603e+001 
3556250000  -4.265928e+001  7.435235e+001 
3559375000  -4.206049e+001  7.581963e+001 
3562500000  -4.090511e+001  6.799976e+001 
3565625000  -4.156770e+001  6.164697e+001 
3568750000  -4.200203e+001  6.633879e+001 
3571875000  -4.171817e+001  6.466084e+001 
3575000000  -4.115587e+001  6.043670e+001 
3578125000  -4.150273e+001  5.651570e+001 
3581250000  -4.163887e+001  5.651229e+001 
3584375000  -4.052155e+001  5.676094e+001 
3587500000  -3.993431e+001  4.991294e+001 
3590625000  -4.029474e+001  4.032584e+001 
3593750000  -4.111086e+001  4.113571e+001 
3596875000  -4.162763e+001  5.006226e+001 
3600000000  -3.953862e+001  4.520128e+001 
3603125000  -3.982934e+001  3.129325e+001 
3606250000  -4.054969e+001  2.987244e+001 
3609375000  -4.084562e+001  2.991356e+001 
3612500000  -4.105007e+001  2.533787e+001 
3615625000  -4.139105e+001  2.499426e+001 
3618750000  -4.188449e+001  2.702129e+001 
3621875000  -4.128066e+001  2.478945e+001 
3625000000  -4.157850e+001  2.598184e+001 
3628125000  -4.160347e+001  2.533175e+001 
3631250000  -4.111456e+001  2.104702e+001 
3634375000  -4.227353e+001  2.091731e+001 
3637500000  -4.214660e+001  2.673578e+001 
3640625000  -4.099033e+001  2.738121e+001 
3643750000  -4.035732e+001  2.255140e+001 
3646875000  -4.111951e+001  1.568711e+001 
3650000000  -4.171897e+001  1.772035e+001 
3653125000  -4.146512e+001  1.522613e+001 
3656250000  -4.162950e+001  1.438225e+001 
3659375000  -4.207171e+001  1.953870e+001 
3662500000  -4.104054e+001  1.750839e+001 
3665625000  -4.110501e+001  1.863353e+001 
3668750000  -4.021705e+001  2.069831e+001 
3671875000  -3.928691e+001  1.578529e+001 
3675000000  -3.966187e+001  9.637946e+000 
3678125000  -4.005715e+001  1.029226e+001 
3681250000  -3.968949e+001  1.288662e+001 
3684375000  -3.950056e+001  8.478903e+000 
3687500000  -3.956794e+001  8.079136e+000 
3690625000  -3.973699e+001  6.362275e+000 
3693750000  -4.034736e+001  7.431534e+000 
3696875000  -4.013264e+001  9.477306e+000 
3700000000  -3.885021e+001  8.632794e+000 
3703125000  -3.884607e+001  5.153724e+000 
3706250000  -3.915129e+001  6.816897e+000 
3709375000  -3.850530e+001  1.091284e+001 
3712500000  -3.714975e+001  1.032692e+001 
3715625000  -3.620099e+001  4.914489e+000 
3718750000  -3.555298e+001  1.572219e+000 
3721875000  -3.515321e+001  -3.330153e+000 
3725000000  -3.507393e+001  -8.871420e+000 
3728125000  -3.531709e+001  -9.815174e+000 
3731250000  -3.466302e+001  -1.024431e+001 
3734375000  -3.368430e+001  -1.634255e+001 
3737500000  -3.419823e+001  -2.332644e+001 
3740625000  -3.476684e+001  -2.709129e+001 
3743750000  -3.462115e+001  -2.902397e+001 
3746875000  -3.444820e+001  -3.190802e+001 
3750000000  -3.488060e+001  -3.207523e+001 
3753125000  -3.445335e+001  -3.295729e+001 
3756250000  -3.441780e+001  -3.416898e+001 
3759375000  -3.430780e+001  -3.352536e+001 
3762500000  -3.367892e+001  -3.859192e+001 
3765625000  -3.410838e+001  -4.078512e+001 
3768750000  -3.417487e+001  -3.878233e+001 
3771875000  -3.243709e+001  -4.065298e+001 
3775000000  -3.225253e+001  -4.870637e+001 
3778125000  -3.263399e+001  -5.123694e+001 
3781250000  -3.237627e+001  -5.391692e+001 
3784375000  -3.228540e+001  -5.525576e+001 
3787500000  -3.162831e+001  -5.859805e+001 
3790625000  -3.223746e+001  -6.472598e+001 
3793750000  -3.245452e+001  -6.518794e+001 
3796875000  -3.151900e+001  -6.647556e+001 
3800000000  -2.987985e+001  -7.018502e+001 
3803125000  -3.064577e+001  -7.701670e+001 
3806250000  -3.130076e+001  -7.931957e+001 
3809375000  -3.106579e+001  -8.100796e+001 
3812500000  -3.036445e+001  -8.550751e+001 
3815625000  -3.106679e+001  -9.313253e+001 
3818750000  -3.201103e+001  -9.465930e+001 
3821875000  -3.205672e+001  -8.573621e+001 
3825000000  -3.002262e+001  -8.211197e+001 
3828125000  -2.874238e+001  -9.535746e+001 
3831250000  -2.926376e+001  -1.099278e+002 
3834375000  -3.072743e+001  -1.110341e+002 
3837500000  -3.164230e+001  -1.047727e+002 
3840625000  -3.041628e+001  -1.063026e+002 
3843750000  -2.928241e+001  -1.157784e+002 
3846875000  -3.000930e+001  -1.233105e+002 
3850000000  -3.123338e+001  -1.177952e+002 
3853125000  -3.044469e+001  -1.149058e+002 
3856250000  -3.028535e+001  -1.199679e+002 
3859375000  -2.967996e+001  -1.246600e+002 
3862500000  -2.912469e+001  -1.320278e+002 
3865625000  -2.949448e+001  -1.367839e+002 
3868750000  -2.953940e+001  -1.368637e+002 
3871875000  -2.887054e+001  -1.402902e+002 
3875000000  -2.900778e+001  -1.486703e+002 
3878125000  -3.002507e+001  -1.512874e+002 
3881250000  -3.007087e+001  -1.479249e+002 
3884375000  -2.957533e+001  -1.526029e+002 
3887500000  -2.959189e+001  -1.568609e+002 
3890625000  -3.027758e+001  -1.601232e+002 
3893750000  -3.071803e+001  -1.608078e+002 
3896875000  -3.083005e+001  -1.599412e+002 
3900000000  -3.103920e+001  -1.608625e+002 
3903125000  -3.062594e+001  -1.624600e+002 
3906250000  -3.040413e+001  -1.642705e+002 
3909375000  -2.967304e+001  -1.671843e+002 
3912500000  -2.975219e+001  -1.741998e+002 
3915625000  -3.097403e+001  -1.723736e+002 
3918750000  -3.091722e+001  -1.712968e+002 
3921875000  -3.060137e+001  -1.730433e+002 
3925000000  -2.973883e+001  -1.731451e+002 
3928125000  -2.910184e+001  -1.793243e+002 
3931250000  -2.952737e+001  1.761451e+002 
3934375000  -2.990441e+001  1.764241e+002 
3937500000  -2.998738e+001  1.769078e+002 
3940625000  -3.039383e+001  1.768665e+002 
3943750000  -2.941948e+001  1.777543e+002 
3946875000  -2.818478e+001  1.724129e+002 
3950000000  -2.875732e+001  1.645439e+002 
3953125000  -2.968600e+001  1.651918e+002 
3956250000  -2.880881e+001  1.685302e+002 
3959375000  -2.746405e+001  1.655344e+002 
3962500000  -2.697976e+001  1.615590e+002 
3965625000  -2.661229e+001  1.523445e+002 
3968750000  -2.752534e+001  1.459875e+002 
3971875000  -2.784747e+001  1.441897e+002 
3975000000  -2.717821e+001  1.424283e+002 
3978125000  -2.697618e+001  1.407071e+002 
3981250000  -2.682588e+001  1.365781e+002 
3984375000  -2.702218e+001  1.302740e+002 
3987500000  -2.756499e+001  1.279126e+002 
3990625000  -2.754829e+001  1.274220e+002 
3993750000  -2.774053e+001  1.244598e+002 
3996875000  -2.770996e+001  1.218237e+002 
4000000000  -2.783665e+001  1.194139e+002 
4003125000  -2.847211e+001  1.219142e+002 
4006250000  -2.694972e+001  1.224268e+002 
4009375000  -2.577284e+001  1.101267e+002 
4012500000  -2.689033e+001  1.027346e+002 
4015625000  -2.813163e+001  1.031052e+002 
4018750000  -2.830349e+001  1.052607e+002 
4021875000  -2.762905e+001  1.040500e+002 
4025000000  -2.722551e+001  9.911390e+001 
4028125000  -2.720802e+001  9.510630e+001 
4031250000  -2.769708e+001  9.189124e+001 
4034375000  -2.797164e+001  9.193822e+001 
4037500000  -2.746222e+001  9.387209e+001 
4040625000  -2.737406e+001  9.092995e+001 
4043750000  -2.773845e+001  9.019524e+001 
4046875000  -2.733665e+001  8.996938e+001 
4050000000  -2.676509e+001  8.444207e+001 
4053125000  -2.721025e+001  8.275822e+001 
4056250000  -2.788189e+001  8.619753e+001 
4059375000  -2.660569e+001  8.840671e+001 
4062500000  -2.521258e+001  8.383002e+001 
4065625000  -2.510264e+001  7.886629e+001 
4068750000  -2.481384e+001  7.436157e+001 
4071875000  -2.412162e+001  6.655773e+001 
4075000000  -2.454860e+001  6.025713e+001 
4078125000  -2.506834e+001  5.937918e+001 
4081250000  -2.456094e+001  5.720224e+001 
4084375000  -2.415495e+001  5.055460e+001 
4087500000  -2.452593e+001  4.405098e+001 
4090625000  -2.510347e+001  4.301892e+001 
4093750000  -2.492273e+001  4.367432e+001 
4096875000  -2.446100e+001  3.761957e+001 
4100000000  -2.514797e+001  3.089083e+001 
4103125000  -2.607940e+001  3.175565e+001 
4106250000  -2.591950e+001  3.631049e+001 
4109375000  -2.505996e+001  3.577448e+001 
4112500000  -2.440923e+001  2.930029e+001 
4115625000  -2.476723e+001  2.493915e+001 
4118750000  -2.485221e+001  2.199854e+001 
4121875000  -2.447534e+001  1.724842e+001 
4125000000  -2.486091e+001  1.231771e+001 
4128125000  -2.590458e+001  1.282229e+001 
4131250000  -2.557619e+001  2.066779e+001 
4134375000  -2.324380e+001  1.570687e+001 
4137500000  -2.304651e+001  -2.722361e+000 
4140625000  -2.524541e+001  -1.003958e+001 
4143750000  -2.654393e+001  -4.868424e+000 
4146875000  -2.613074e+001  2.706814e+000 
4150000000  -2.518468e+001  -1.158581e+000 
4153125000  -2.504057e+001  -7.034496e+000 
4156250000  -2.595105e+001  -9.829231e+000 
4159375000  -2.617854e+001  -5.333249e+000 
4162500000  -2.505925e+001  -1.280793e+000 
4165625000  -2.389175e+001  -5.264948e+000 
4168750000  -2.329997e+001  -1.250713e+001 
4171875000  -2.328862e+001  -2.134002e+001 
4175000000  -2.390720e+001  -2.762755e+001 
4178125000  -2.450472e+001  -2.699771e+001 
4181250000  -2.426563e+001  -2.762541e+001 
4184375000  -2.421716e+001  -3.076728e+001 
4187500000  -2.424414e+001  -3.383819e+001 
4190625000  -2.406582e+001  -3.927451e+001 
4193750000  -2.489268e+001  -4.291690e+001 
4196875000  -2.557162e+001  -4.336907e+001 
4200000000  -2.649835e+001  -4.088660e+001 
4203125000  -2.643324e+001  -2.727366e+001 
4206250000  -2.302071e+001  -2.612671e+001 
4209375000  -2.188993e+001  -4.655931e+001 
4212500000  -2.378942e+001  -5.548716e+001 
4215625000  -2.480788e+001  -4.899092e+001 
4218750000  -2.342587e+001  -4.256707e+001 
4221875000  -2.116048e+001  -5.124229e+001 
4225000000  -2.241262e+001  -6.403519e+001 
4228125000  -2.304801e+001  -5.918843e+001 
4231250000  -2.151939e+001  -6.282091e+001 
4234375000  -2.144553e+001  -7.104021e+001 
4237500000  -2.099557e+001  -7.476257e+001 
4240625000  -2.103921e+001  -8.288390e+001 
4243750000  -2.196769e+001  -8.956116e+001 
4246875000  -2.289210e+001  -8.980743e+001 
4250000000  -2.292423e+001  -8.684586e+001 
4253125000  -2.233617e+001  -8.901365e+001 
4256250000  -2.262123e+001  -9.291006e+001 
4259375000  -2.237302e+001  -9.511342e+001 
4262500000  -2.234445e+001  -9.862411e+001 
4265625000  -2.252350e+001  -9.842406e+001 
4268750000  -2.161421e+001  -1.024768e+002 
4271875000  -2.139886e+001  -1.083430e+002 
4275000000  -2.077826e+001  -1.145722e+002 
4278125000  -2.144654e+001  -1.256480e+002 
4281250000  -2.322256e+001  -1.276583e+002 
4284375000  -2.289028e+001  -1.269660e+002 
4287500000  -2.372350e+001  -1.305801e+002 
4290625000  -2.494330e+001  -1.208826e+002 
4293750000  -2.296875e+001  -1.158627e+002 
4296875000  -2.160168e+001  -1.269905e+002 
4300000000  -2.242237e+001  -1.362640e+002 
4303125000  -2.361370e+001  -1.347315e+002 
4306250000  -2.295386e+001  -1.286110e+002 
4309375000  -2.153488e+001  -1.308510e+002 
4312500000  -2.147804e+001  -1.395017e+002 
4315625000  -2.163740e+001  -1.458226e+002 
4318750000  -2.199687e+001  -1.489223e+002 
4321875000  -2.218601e+001  -1.485712e+002 
4325000000  -2.156499e+001  -1.476743e+002 
4328125000  -2.108142e+001  -1.539758e+002 
4331250000  -2.098599e+001  -1.625391e+002 
4334375000  -2.149607e+001  -1.674244e+002 
4337500000  -2.229639e+001  -1.694109e+002 
4340625000  -2.283994e+001  -1.660332e+002 
4343750000  -2.227240e+001  -1.655448e+002 
4346875000  -2.186824e+001  -1.714464e+002 
4350000000  -2.185249e+001  -1.759971e+002 
4353125000  -2.193791e+001  1.763372e+002 
4356250000  -2.368901e+001  1.757757e+002 
4359375000  -2.430606e+001  -1.706328e+002 
4362500000  -2.154356e+001  -1.692580e+002 
4365625000  -1.989386e+001  1.785113e+002 
4368750000  -2.069871e+001  1.671173e+002 
4371875000  -2.185591e+001  1.680826e+002 
4375000000  -2.150872e+001  1.687401e+002 
4378125000  -2.088298e+001  1.627202e+002 
4381250000  -2.107251e+001  1.570993e+002 
4384375000  -2.089542e+001  1.527399e+002 
4387500000  -2.161013e+001  1.470873e+002 
4390625000  -2.263904e+001  1.480269e+002 
4393750000  -2.194702e+001  1.501651e+002 
4396875000  -2.131015e+001  1.477875e+002 
4400000000  -2.080276e+001  1.411437e+002 
4403125000  -2.139896e+001  1.333990e+002 
4406250000  -2.219479e+001  1.322621e+002 
4409375000  -2.217219e+001  1.299353e+002 
4412500000  -2.318751e+001  1.270125e+002 
4415625000  -2.357690e+001  1.319891e+002 
4418750000  -2.234874e+001  1.365540e+002 
