!Agilent Technologies,E8363B,MY43030201,A.06.04.32
!Agilent E8363B: A.06.04.32
!Date: Tuesday, November 11, 2014 20:44:42
!Correction: S21(Response(S21)) 
!S1P File: Measurement: S21:
# Hz S  dB   R 50
3000000000  -2.647889e+001  1.583803e+002 
3003125000  -2.784819e+001  1.542238e+002 
3006250000  -2.793109e+001  1.510316e+002 
3009375000  -2.825982e+001  1.561717e+002 
3012500000  -2.780540e+001  1.561550e+002 
3015625000  -2.674835e+001  1.489650e+002 
3018750000  -2.767143e+001  1.480929e+002 
3021875000  -2.638027e+001  1.495636e+002 
3025000000  -2.512234e+001  1.466194e+002 
3028125000  -2.415162e+001  1.416552e+002 
3031250000  -2.309485e+001  1.306066e+002 
3034375000  -2.271067e+001  1.176697e+002 
3037500000  -2.303157e+001  1.054082e+002 
3040625000  -2.436030e+001  1.003139e+002 
3043750000  -2.509531e+001  9.625089e+001 
3046875000  -2.517600e+001  8.957784e+001 
3050000000  -2.692443e+001  8.276089e+001 
3053125000  -2.713987e+001  8.899648e+001 
3056250000  -2.642131e+001  9.223515e+001 
3059375000  -2.670368e+001  9.209476e+001 
3062500000  -2.525167e+001  8.767043e+001 
3065625000  -2.502696e+001  8.238578e+001 
3068750000  -2.471127e+001  7.557355e+001 
3071875000  -2.464332e+001  7.237943e+001 
3075000000  -2.465627e+001  6.878936e+001 
3078125000  -2.432647e+001  6.425648e+001 
3081250000  -2.501281e+001  6.017762e+001 
3084375000  -2.428784e+001  5.651202e+001 
3087500000  -2.412251e+001  5.326179e+001 
3090625000  -2.384388e+001  4.334166e+001 
3093750000  -2.423923e+001  3.513248e+001 
3096875000  -2.555421e+001  2.891392e+001 
3100000000  -2.569877e+001  2.746715e+001 
3103125000  -2.604667e+001  2.905049e+001 
3106250000  -2.582049e+001  2.560208e+001 
3109375000  -2.605908e+001  2.218459e+001 
3112500000  -2.613281e+001  2.108156e+001 
3115625000  -2.592679e+001  1.666382e+001 
3118750000  -2.644052e+001  1.816045e+001 
3121875000  -2.583325e+001  1.017625e+001 
3125000000  -2.688092e+001  6.619664e+000 
3128125000  -2.817401e+001  1.413958e+001 
3131250000  -2.601151e+001  1.555894e+001 
3134375000  -2.462224e+001  2.290980e+000 
3137500000  -2.530605e+001  -1.223933e+001 
3140625000  -2.694016e+001  -1.400646e+001 
3143750000  -2.790240e+001  -9.520098e+000 
3146875000  -2.751705e+001  -7.557277e+000 
3150000000  -2.652736e+001  -5.009398e+000 
3153125000  -2.648178e+001  -1.270066e+001 
3156250000  -2.749258e+001  -7.959920e+000 
3159375000  -2.595495e+001  -4.837289e+000 
3162500000  -2.388852e+001  -1.750788e+001 
3165625000  -2.475167e+001  -2.866845e+001 
3168750000  -2.524731e+001  -2.783350e+001 
3171875000  -2.430256e+001  -3.196198e+001 
3175000000  -2.491106e+001  -3.956371e+001 
3178125000  -2.475567e+001  -3.788501e+001 
3181250000  -2.353565e+001  -4.161074e+001 
3184375000  -2.271386e+001  -5.395237e+001 
3187500000  -2.378022e+001  -6.930908e+001 
3190625000  -2.661763e+001  -7.731070e+001 
3193750000  -2.725233e+001  -6.779469e+001 
3196875000  -2.681382e+001  -6.204173e+001 
3200000000  -2.600505e+001  -6.375209e+001 
3203125000  -2.505030e+001  -6.921800e+001 
3206250000  -2.533412e+001  -7.564931e+001 
3209375000  -2.489962e+001  -8.054595e+001 
3212500000  -2.493665e+001  -8.722932e+001 
3215625000  -2.517617e+001  -9.154233e+001 
3218750000  -2.591830e+001  -9.808698e+001 
3221875000  -2.690292e+001  -1.032194e+002 
3225000000  -2.655780e+001  -1.034817e+002 
3228125000  -2.677759e+001  -1.077638e+002 
3231250000  -2.759838e+001  -1.109017e+002 
3234375000  -2.747691e+001  -1.098965e+002 
3237500000  -2.750470e+001  -1.113001e+002 
3240625000  -2.715962e+001  -1.130586e+002 
3243750000  -2.679577e+001  -1.194133e+002 
3246875000  -2.728513e+001  -1.260729e+002 
3250000000  -2.767976e+001  -1.279444e+002 
3253125000  -2.781653e+001  -1.298754e+002 
3256250000  -2.770935e+001  -1.360444e+002 
3259375000  -2.802922e+001  -1.435383e+002 
3262500000  -2.931833e+001  -1.459916e+002 
3265625000  -3.000252e+001  -1.432637e+002 
3268750000  -2.999697e+001  -1.402244e+002 
3271875000  -2.979889e+001  -1.391965e+002 
3275000000  -2.866083e+001  -1.435664e+002 
3278125000  -2.910755e+001  -1.501405e+002 
3281250000  -2.937335e+001  -1.482401e+002 
3284375000  -2.897157e+001  -1.541443e+002 
3287500000  -2.910106e+001  -1.572631e+002 
3290625000  -2.954528e+001  -1.611530e+002 
3293750000  -2.926324e+001  -1.668297e+002 
3296875000  -3.024593e+001  -1.668000e+002 
3300000000  -3.021194e+001  -1.657832e+002 
3303125000  -2.898755e+001  -1.696308e+002 
3306250000  -2.880993e+001  -1.762484e+002 
3309375000  -2.858519e+001  1.789028e+002 
3312500000  -2.855997e+001  1.682967e+002 
3315625000  -2.962035e+001  1.607538e+002 
3318750000  -3.093722e+001  1.576820e+002 
3321875000  -3.211203e+001  1.574859e+002 
3325000000  -3.269335e+001  1.624711e+002 
3328125000  -3.259070e+001  1.638558e+002 
3331250000  -3.134180e+001  1.713806e+002 
3334375000  -2.887664e+001  1.622990e+002 
3337500000  -2.881574e+001  1.443900e+002 
3340625000  -3.018436e+001  1.332922e+002 
3343750000  -3.212342e+001  1.312756e+002 
3346875000  -3.272002e+001  1.332481e+002 
3350000000  -3.213655e+001  1.321301e+002 
3353125000  -3.213585e+001  1.278533e+002 
3356250000  -3.192418e+001  1.201264e+002 
3359375000  -3.271700e+001  1.117187e+002 
3362500000  -3.407534e+001  1.054758e+002 
3365625000  -3.467400e+001  1.039555e+002 
3368750000  -3.556709e+001  1.035247e+002 
3371875000  -3.600618e+001  1.000072e+002 
3375000000  -3.770702e+001  9.736040e+001 
3378125000  -3.879385e+001  9.556549e+001 
3381250000  -4.010215e+001  1.037688e+002 
3384375000  -3.939618e+001  1.249020e+002 
3387500000  -3.641803e+001  1.114742e+002 
3390625000  -3.800751e+001  9.268278e+001 
3393750000  -4.002815e+001  9.753703e+001 
3396875000  -3.904406e+001  1.001142e+002 
3400000000  -3.898580e+001  9.258643e+001 
3403125000  -3.989136e+001  8.747631e+001 
3406250000  -4.078063e+001  9.159982e+001 
3409375000  -4.157749e+001  8.950529e+001 
3412500000  -4.242706e+001  8.881053e+001 
3415625000  -4.319324e+001  9.409972e+001 
3418750000  -4.359424e+001  9.836111e+001 
3421875000  -4.378198e+001  1.053575e+002 
3425000000  -4.319404e+001  1.069277e+002 
3428125000  -4.239537e+001  1.079643e+002 
3431250000  -4.199814e+001  1.049257e+002 
3434375000  -4.166725e+001  1.031643e+002 
3437500000  -4.209002e+001  1.010281e+002 
3440625000  -4.264252e+001  1.031214e+002 
3443750000  -4.131580e+001  1.040909e+002 
3446875000  -4.042470e+001  1.002278e+002 
3450000000  -4.031734e+001  9.215720e+001 
3453125000  -4.054625e+001  8.295256e+001 
3456250000  -4.151804e+001  7.671342e+001 
3459375000  -4.299137e+001  8.108030e+001 
3462500000  -4.281172e+001  8.367384e+001 
3465625000  -4.317973e+001  7.747132e+001 
3468750000  -4.340968e+001  7.360455e+001 
3471875000  -4.350293e+001  7.523454e+001 
3475000000  -4.370088e+001  7.298832e+001 
3478125000  -4.391703e+001  6.538454e+001 
3481250000  -4.522612e+001  6.463563e+001 
3484375000  -4.661239e+001  6.875342e+001 
3487500000  -4.643448e+001  7.377007e+001 
3490625000  -4.600797e+001  7.334159e+001 
3493750000  -4.664952e+001  6.959071e+001 
3496875000  -4.731928e+001  7.134119e+001 
3500000000  -4.791809e+001  7.572203e+001 
3503125000  -4.851985e+001  8.294261e+001 
3506250000  -4.704576e+001  8.224950e+001 
3509375000  -4.764388e+001  8.206983e+001 
3512500000  -4.781065e+001  8.300430e+001 
3515625000  -4.813745e+001  8.302276e+001 
3518750000  -4.826572e+001  9.039711e+001 
3521875000  -4.775983e+001  9.224873e+001 
3525000000  -4.853673e+001  9.422321e+001 
3528125000  -4.785730e+001  1.077875e+002 
3531250000  -4.561069e+001  1.080273e+002 
3534375000  -4.517057e+001  9.616698e+001 
3537500000  -4.506129e+001  9.438210e+001 
3540625000  -4.550192e+001  9.432684e+001 
3543750000  -4.585175e+001  9.290052e+001 
3546875000  -4.542622e+001  1.084461e+002 
3550000000  -4.295058e+001  1.116885e+002 
3553125000  -4.142109e+001  9.360381e+001 
3556250000  -4.222089e+001  8.952532e+001 
3559375000  -4.231420e+001  9.299160e+001 
3562500000  -4.092311e+001  8.305858e+001 
3565625000  -4.163195e+001  7.670968e+001 
3568750000  -4.158321e+001  8.109777e+001 
3571875000  -4.164815e+001  7.867241e+001 
3575000000  -4.110101e+001  7.538232e+001 
3578125000  -4.141045e+001  7.166661e+001 
3581250000  -4.166602e+001  7.196770e+001 
3584375000  -4.055027e+001  7.177892e+001 
3587500000  -3.998812e+001  6.545298e+001 
3590625000  -4.029315e+001  5.610126e+001 
3593750000  -4.134980e+001  5.419310e+001 
3596875000  -4.145643e+001  6.174688e+001 
3600000000  -3.994288e+001  6.028072e+001 
3603125000  -3.996745e+001  4.580955e+001 
3606250000  -4.070142e+001  4.319432e+001 
3609375000  -4.095381e+001  4.333797e+001 
3612500000  -4.142503e+001  4.103536e+001 
3615625000  -4.132573e+001  3.961340e+001 
3618750000  -4.207376e+001  4.173222e+001 
3621875000  -4.176482e+001  3.993486e+001 
3625000000  -4.174265e+001  4.030457e+001 
3628125000  -4.163575e+001  3.788667e+001 
3631250000  -4.140890e+001  3.494635e+001 
3634375000  -4.262904e+001  3.513225e+001 
3637500000  -4.238129e+001  4.252695e+001 
3640625000  -4.118588e+001  4.383591e+001 
3643750000  -4.080140e+001  3.632069e+001 
3646875000  -4.136617e+001  3.203535e+001 
3650000000  -4.196524e+001  3.082730e+001 
3653125000  -4.157190e+001  3.179076e+001 
3656250000  -4.187487e+001  3.103970e+001 
3659375000  -4.207653e+001  3.412473e+001 
3662500000  -4.130299e+001  3.229165e+001 
3665625000  -4.161867e+001  3.338063e+001 
3668750000  -4.054582e+001  3.613311e+001 
3671875000  -3.978697e+001  3.082276e+001 
3675000000  -3.991463e+001  2.512602e+001 
3678125000  -4.039724e+001  2.651506e+001 
3681250000  -3.970868e+001  2.744410e+001 
3684375000  -3.956960e+001  2.469865e+001 
3687500000  -3.998363e+001  2.341222e+001 
3690625000  -3.973618e+001  2.056623e+001 
3693750000  -4.007467e+001  2.383548e+001 
3696875000  -4.006865e+001  2.621760e+001 
3700000000  -3.887900e+001  2.421114e+001 
3703125000  -3.887578e+001  2.077496e+001 
3706250000  -3.937958e+001  2.193413e+001 
3709375000  -3.858250e+001  2.553614e+001 
3712500000  -3.755224e+001  2.677590e+001 
3715625000  -3.644308e+001  2.028290e+001 
3718750000  -3.577176e+001  1.677581e+001 
3721875000  -3.530163e+001  1.149320e+001 
3725000000  -3.534258e+001  8.040919e+000 
3728125000  -3.545374e+001  6.463109e+000 
3731250000  -3.483658e+001  6.027406e+000 
3734375000  -3.374443e+001  -4.661664e-001 
3737500000  -3.421263e+001  -7.584800e+000 
3740625000  -3.487424e+001  -1.056849e+001 
3743750000  -3.458232e+001  -1.272416e+001 
3746875000  -3.467631e+001  -1.628455e+001 
3750000000  -3.498828e+001  -1.672512e+001 
3753125000  -3.469462e+001  -1.664540e+001 
3756250000  -3.460281e+001  -1.775562e+001 
3759375000  -3.431776e+001  -1.911725e+001 
3762500000  -3.377850e+001  -2.283189e+001 
3765625000  -3.423913e+001  -2.454334e+001 
3768750000  -3.446317e+001  -2.301073e+001 
3771875000  -3.263002e+001  -2.472463e+001 
3775000000  -3.225455e+001  -3.317370e+001 
3778125000  -3.256020e+001  -3.484143e+001 
3781250000  -3.225303e+001  -3.748878e+001 
3784375000  -3.238046e+001  -3.935525e+001 
3787500000  -3.162220e+001  -4.319712e+001 
3790625000  -3.221682e+001  -4.902233e+001 
3793750000  -3.243773e+001  -4.979677e+001 
3796875000  -3.149506e+001  -5.034544e+001 
3800000000  -3.003552e+001  -5.491717e+001 
3803125000  -3.064074e+001  -6.125961e+001 
3806250000  -3.128787e+001  -6.355751e+001 
3809375000  -3.102580e+001  -6.472593e+001 
3812500000  -3.036994e+001  -6.972133e+001 
3815625000  -3.101696e+001  -7.707233e+001 
3818750000  -3.187122e+001  -7.856635e+001 
3821875000  -3.210432e+001  -7.138872e+001 
3825000000  -3.019827e+001  -6.604015e+001 
3828125000  -2.885716e+001  -7.990965e+001 
3831250000  -2.929020e+001  -9.293696e+001 
3834375000  -3.057905e+001  -9.499998e+001 
3837500000  -3.150672e+001  -9.029771e+001 
3840625000  -3.046925e+001  -8.960411e+001 
3843750000  -2.929876e+001  -1.004414e+002 
3846875000  -2.990167e+001  -1.076725e+002 
3850000000  -3.127238e+001  -1.027829e+002 
3853125000  -3.040813e+001  -9.968788e+001 
3856250000  -3.041152e+001  -1.046820e+002 
3859375000  -2.977796e+001  -1.086941e+002 
3862500000  -2.931702e+001  -1.157643e+002 
3865625000  -2.959569e+001  -1.209387e+002 
3868750000  -2.964772e+001  -1.213813e+002 
3871875000  -2.893634e+001  -1.238085e+002 
3875000000  -2.894365e+001  -1.319675e+002 
3878125000  -2.992667e+001  -1.352222e+002 
3881250000  -3.007782e+001  -1.320426e+002 
3884375000  -2.960584e+001  -1.363893e+002 
3887500000  -2.971191e+001  -1.408207e+002 
3890625000  -3.016983e+001  -1.431486e+002 
3893750000  -3.060854e+001  -1.446258e+002 
3896875000  -3.065509e+001  -1.440248e+002 
3900000000  -3.100563e+001  -1.450760e+002 
3903125000  -3.060674e+001  -1.466991e+002 
3906250000  -3.043854e+001  -1.484889e+002 
3909375000  -2.968992e+001  -1.496730e+002 
3912500000  -2.965671e+001  -1.570036e+002 
3915625000  -3.083558e+001  -1.564824e+002 
3918750000  -3.086604e+001  -1.547552e+002 
3921875000  -3.058110e+001  -1.569671e+002 
3925000000  -2.972642e+001  -1.571802e+002 
3928125000  -2.905640e+001  -1.627224e+002 
3931250000  -2.943652e+001  -1.667756e+002 
3934375000  -2.963655e+001  -1.665872e+002 
3937500000  -2.981074e+001  -1.674614e+002 
3940625000  -3.024337e+001  -1.671467e+002 
3943750000  -2.941507e+001  -1.661266e+002 
3946875000  -2.816590e+001  -1.706015e+002 
3950000000  -2.858451e+001  -1.790097e+002 
3953125000  -2.953227e+001  -1.788674e+002 
3956250000  -2.880185e+001  -1.755237e+002 
3959375000  -2.747766e+001  -1.786599e+002 
3962500000  -2.690548e+001  1.777222e+002 
3965625000  -2.653971e+001  1.688118e+002 
3968750000  -2.743263e+001  1.618624e+002 
3971875000  -2.781522e+001  1.605420e+002 
3975000000  -2.721410e+001  1.584288e+002 
3978125000  -2.693992e+001  1.570838e+002 
3981250000  -2.675921e+001  1.527868e+002 
3984375000  -2.698482e+001  1.469274e+002 
3987500000  -2.746511e+001  1.441010e+002 
3990625000  -2.745535e+001  1.437922e+002 
3993750000  -2.775824e+001  1.401589e+002 
3996875000  -2.768082e+001  1.381770e+002 
4000000000  -2.776629e+001  1.361102e+002 
4003125000  -2.833917e+001  1.379330e+002 
4006250000  -2.702828e+001  1.388857e+002 
4009375000  -2.570060e+001  1.261463e+002 
4012500000  -2.680874e+001  1.190690e+002 
4015625000  -2.800482e+001  1.193447e+002 
4018750000  -2.829255e+001  1.214268e+002 
4021875000  -2.756678e+001  1.203328e+002 
4025000000  -2.723277e+001  1.154996e+002 
4028125000  -2.709521e+001  1.116263e+002 
4031250000  -2.755401e+001  1.086671e+002 
4034375000  -2.794835e+001  1.081589e+002 
4037500000  -2.733240e+001  1.099420e+002 
4040625000  -2.723792e+001  1.063598e+002 
4043750000  -2.759711e+001  1.064564e+002 
4046875000  -2.716294e+001  1.059949e+002 
4050000000  -2.663141e+001  9.996786e+001 
4053125000  -2.704757e+001  9.792684e+001 
4056250000  -2.771963e+001  1.014002e+002 
4059375000  -2.663038e+001  1.039472e+002 
4062500000  -2.521939e+001  9.980323e+001 
4065625000  -2.495059e+001  9.457338e+001 
4068750000  -2.472644e+001  9.025692e+001 
4071875000  -2.410854e+001  8.219083e+001 
4075000000  -2.442923e+001  7.600924e+001 
4078125000  -2.499472e+001  7.474316e+001 
4081250000  -2.451581e+001  7.262048e+001 
4084375000  -2.408065e+001  6.618379e+001 
4087500000  -2.444806e+001  5.992274e+001 
4090625000  -2.502001e+001  5.862075e+001 
4093750000  -2.491949e+001  5.939905e+001 
4096875000  -2.445930e+001  5.360804e+001 
4100000000  -2.510150e+001  4.663491e+001 
4103125000  -2.597906e+001  4.677428e+001 
4106250000  -2.583526e+001  5.179242e+001 
4109375000  -2.503432e+001  5.139923e+001 
4112500000  -2.446689e+001  4.503987e+001 
4115625000  -2.475736e+001  4.061289e+001 
4118750000  -2.487742e+001  3.783799e+001 
4121875000  -2.449917e+001  3.334150e+001 
4125000000  -2.476925e+001  2.824675e+001 
4128125000  -2.580013e+001  2.796855e+001 
4131250000  -2.557020e+001  3.587543e+001 
4134375000  -2.329410e+001  3.236272e+001 
4137500000  -2.300128e+001  1.356474e+001 
4140625000  -2.510836e+001  5.762837e+000 
4143750000  -2.648572e+001  1.080416e+001 
4146875000  -2.606201e+001  1.767221e+001 
4150000000  -2.518694e+001  1.518525e+001 
4153125000  -2.503265e+001  8.755133e+000 
4156250000  -2.588687e+001  5.968022e+000 
4159375000  -2.618574e+001  1.054463e+001 
4162500000  -2.502245e+001  1.452281e+001 
4165625000  -2.389279e+001  1.095528e+001 
4168750000  -2.326836e+001  3.940525e+000 
4171875000  -2.325836e+001  -5.154290e+000 
4175000000  -2.382853e+001  -1.121645e+001 
4178125000  -2.444955e+001  -1.147301e+001 
4181250000  -2.440977e+001  -1.187803e+001 
4184375000  -2.417290e+001  -1.484276e+001 
4187500000  -2.422349e+001  -1.764266e+001 
4190625000  -2.404370e+001  -2.299908e+001 
4193750000  -2.476380e+001  -2.681300e+001 
4196875000  -2.545153e+001  -2.706723e+001 
4200000000  -2.626475e+001  -2.545089e+001 
4203125000  -2.641590e+001  -1.281708e+001 
4206250000  -2.318864e+001  -1.034523e+001 
4209375000  -2.187980e+001  -3.033210e+001 
4212500000  -2.374386e+001  -3.944160e+001 
4215625000  -2.480079e+001  -3.375843e+001 
4218750000  -2.360016e+001  -2.662575e+001 
4221875000  -2.120330e+001  -3.547655e+001 
4225000000  -2.237362e+001  -4.846306e+001 
4228125000  -2.310620e+001  -4.304675e+001 
4231250000  -2.161575e+001  -4.722517e+001 
4234375000  -2.153753e+001  -5.519772e+001 
4237500000  -2.107148e+001  -5.809398e+001 
4240625000  -2.113168e+001  -6.675242e+001 
4243750000  -2.200519e+001  -7.339336e+001 
4246875000  -2.289338e+001  -7.385337e+001 
4250000000  -2.297858e+001  -7.088439e+001 
4253125000  -2.236808e+001  -7.275175e+001 
4256250000  -2.268394e+001  -7.705277e+001 
4259375000  -2.243569e+001  -7.894082e+001 
4262500000  -2.248379e+001  -8.237679e+001 
4265625000  -2.264490e+001  -8.235719e+001 
4268750000  -2.180231e+001  -8.624017e+001 
4271875000  -2.156686e+001  -9.205775e+001 
4275000000  -2.087398e+001  -9.786826e+001 
4278125000  -2.141225e+001  -1.094561e+002 
4281250000  -2.324073e+001  -1.116596e+002 
4284375000  -2.301000e+001  -1.103948e+002 
4287500000  -2.363934e+001  -1.147945e+002 
4290625000  -2.497323e+001  -1.051648e+002 
4293750000  -2.310302e+001  -9.890376e+001 
4296875000  -2.168534e+001  -1.103316e+002 
4300000000  -2.249468e+001  -1.199592e+002 
4303125000  -2.361970e+001  -1.191770e+002 
4306250000  -2.307413e+001  -1.129215e+002 
4309375000  -2.167852e+001  -1.145872e+002 
4312500000  -2.155927e+001  -1.229761e+002 
4315625000  -2.174331e+001  -1.288428e+002 
4318750000  -2.204139e+001  -1.323951e+002 
4321875000  -2.223914e+001  -1.318649e+002 
4325000000  -2.167327e+001  -1.312352e+002 
4328125000  -2.118090e+001  -1.376453e+002 
4331250000  -2.112005e+001  -1.453538e+002 
4334375000  -2.148324e+001  -1.505313e+002 
4337500000  -2.229688e+001  -1.530093e+002 
4340625000  -2.291391e+001  -1.499090e+002 
4343750000  -2.233306e+001  -1.495126e+002 
4346875000  -2.193468e+001  -1.547193e+002 
4350000000  -2.195087e+001  -1.591134e+002 
4353125000  -2.190150e+001  -1.672354e+002 
4356250000  -2.356998e+001  -1.681929e+002 
4359375000  -2.439056e+001  -1.561768e+002 
4362500000  -2.181485e+001  -1.535437e+002 
4365625000  -2.013254e+001  -1.646191e+002 
4368750000  -2.074437e+001  -1.766495e+002 
4371875000  -2.199784e+001  -1.761167e+002 
4375000000  -2.170102e+001  -1.747844e+002 
4378125000  -2.103777e+001  1.796922e+002 
4381250000  -2.120915e+001  1.741369e+002 
4384375000  -2.107224e+001  1.697491e+002 
4387500000  -2.169566e+001  1.638136e+002 
4390625000  -2.275876e+001  1.643186e+002 
4393750000  -2.209087e+001  1.667031e+002 
4396875000  -2.144388e+001  1.645397e+002 
4400000000  -2.089771e+001  1.579093e+002 
4403125000  -2.142417e+001  1.505014e+002 
4406250000  -2.230069e+001  1.489567e+002 
4409375000  -2.223645e+001  1.468299e+002 
4412500000  -2.327311e+001  1.439247e+002 
4415625000  -2.369497e+001  1.486928e+002 
4418750000  -2.254951e+001  1.531730e+002 
