!Agilent Technologies,E8363B,MY43030201,A.06.04.32
!Agilent E8363B: A.06.04.32
!Date: Tuesday, November 11, 2014 20:58:23
!Correction: S21(Response(S21)) 
!S1P File: Measurement: S21:
# Hz S  dB   R 50
3000000000  -2.652102e+001  1.466682e+002 
3003125000  -2.793198e+001  1.419962e+002 
3006250000  -2.797499e+001  1.393262e+002 
3009375000  -2.835358e+001  1.445150e+002 
3012500000  -2.777897e+001  1.436018e+002 
3015625000  -2.688779e+001  1.369993e+002 
3018750000  -2.772005e+001  1.363465e+002 
3021875000  -2.638156e+001  1.376386e+002 
3025000000  -2.506660e+001  1.347699e+002 
3028125000  -2.410736e+001  1.292454e+002 
3031250000  -2.309411e+001  1.178193e+002 
3034375000  -2.274649e+001  1.047512e+002 
3037500000  -2.316372e+001  9.295739e+001 
3040625000  -2.448770e+001  8.821558e+001 
3043750000  -2.517773e+001  8.383801e+001 
3046875000  -2.529181e+001  7.725097e+001 
3050000000  -2.702091e+001  7.082256e+001 
3053125000  -2.709493e+001  7.727365e+001 
3056250000  -2.652190e+001  8.040176e+001 
3059375000  -2.666357e+001  7.974812e+001 
3062500000  -2.518659e+001  7.616575e+001 
3065625000  -2.495750e+001  7.000656e+001 
3068750000  -2.467160e+001  6.323026e+001 
3071875000  -2.466733e+001  6.040554e+001 
3075000000  -2.459052e+001  5.621214e+001 
3078125000  -2.432956e+001  5.197019e+001 
3081250000  -2.494188e+001  4.739703e+001 
3084375000  -2.417857e+001  4.388928e+001 
3087500000  -2.415408e+001  4.008640e+001 
3090625000  -2.379584e+001  3.017345e+001 
3093750000  -2.430114e+001  2.261008e+001 
3096875000  -2.556558e+001  1.686595e+001 
3100000000  -2.564254e+001  1.537089e+001 
3103125000  -2.608772e+001  1.645488e+001 
3106250000  -2.576026e+001  1.307455e+001 
3109375000  -2.602481e+001  9.466784e+000 
3112500000  -2.612962e+001  8.319857e+000 
3115625000  -2.592429e+001  4.508003e+000 
3118750000  -2.643366e+001  5.470951e+000 
3121875000  -2.576475e+001  -2.686019e+000 
3125000000  -2.702115e+001  -5.805030e+000 
3128125000  -2.817038e+001  2.710000e+000 
3131250000  -2.592658e+001  2.554175e+000 
3134375000  -2.463896e+001  -1.132962e+001 
3137500000  -2.528194e+001  -2.453250e+001 
3140625000  -2.687993e+001  -2.618997e+001 
3143750000  -2.787738e+001  -2.249775e+001 
3146875000  -2.747600e+001  -2.025219e+001 
3150000000  -2.646395e+001  -1.801757e+001 
3153125000  -2.645606e+001  -2.609042e+001 
3156250000  -2.745840e+001  -2.001308e+001 
3159375000  -2.584678e+001  -1.759995e+001 
3162500000  -2.382649e+001  -3.074204e+001 
3165625000  -2.479106e+001  -4.131394e+001 
3168750000  -2.516549e+001  -4.030732e+001 
3171875000  -2.423458e+001  -4.465969e+001 
3175000000  -2.490763e+001  -5.238283e+001 
3178125000  -2.462492e+001  -5.063276e+001 
3181250000  -2.346856e+001  -5.492561e+001 
3184375000  -2.275008e+001  -6.741780e+001 
3187500000  -2.385949e+001  -8.238154e+001 
3190625000  -2.661085e+001  -8.942806e+001 
3193750000  -2.716397e+001  -7.979472e+001 
3196875000  -2.677497e+001  -7.455608e+001 
3200000000  -2.586580e+001  -7.633360e+001 
3203125000  -2.501239e+001  -8.228784e+001 
3206250000  -2.530216e+001  -8.852747e+001 
3209375000  -2.481766e+001  -9.364017e+001 
3212500000  -2.502629e+001  -1.002190e+002 
3215625000  -2.513473e+001  -1.040700e+002 
3218750000  -2.587048e+001  -1.106622e+002 
3221875000  -2.683718e+001  -1.156525e+002 
3225000000  -2.643661e+001  -1.160149e+002 
3228125000  -2.678039e+001  -1.206662e+002 
3231250000  -2.750087e+001  -1.233114e+002 
3234375000  -2.736868e+001  -1.223322e+002 
3237500000  -2.736168e+001  -1.240928e+002 
3240625000  -2.705870e+001  -1.258885e+002 
3243750000  -2.668877e+001  -1.322694e+002 
3246875000  -2.716715e+001  -1.389578e+002 
3250000000  -2.765852e+001  -1.411021e+002 
3253125000  -2.784584e+001  -1.426062e+002 
3256250000  -2.766183e+001  -1.482773e+002 
3259375000  -2.796403e+001  -1.558823e+002 
3262500000  -2.921654e+001  -1.587655e+002 
3265625000  -2.990581e+001  -1.551784e+002 
3268750000  -2.987536e+001  -1.528532e+002 
3271875000  -2.954859e+001  -1.515901e+002 
3275000000  -2.855153e+001  -1.570618e+002 
3278125000  -2.903158e+001  -1.628303e+002 
3281250000  -2.930186e+001  -1.611006e+002 
3284375000  -2.884916e+001  -1.671731e+002 
3287500000  -2.904860e+001  -1.695425e+002 
3290625000  -2.938715e+001  -1.742863e+002 
3293750000  -2.911461e+001  -1.794516e+002 
3296875000  -3.015019e+001  -1.795839e+002 
3300000000  -3.003304e+001  -1.786338e+002 
3303125000  -2.889813e+001  1.774566e+002 
3306250000  -2.864701e+001  1.706817e+002 
3309375000  -2.842344e+001  1.659578e+002 
3312500000  -2.853066e+001  1.555877e+002 
3315625000  -2.951132e+001  1.477532e+002 
3318750000  -3.092262e+001  1.454447e+002 
3321875000  -3.214630e+001  1.452510e+002 
3325000000  -3.264745e+001  1.500237e+002 
3328125000  -3.230209e+001  1.517370e+002 
3331250000  -3.122244e+001  1.600431e+002 
3334375000  -2.856259e+001  1.496223e+002 
3337500000  -2.864637e+001  1.308458e+002 
3340625000  -3.007317e+001  1.199649e+002 
3343750000  -3.211345e+001  1.192717e+002 
3346875000  -3.251803e+001  1.209616e+002 
3350000000  -3.182143e+001  1.193502e+002 
3353125000  -3.192607e+001  1.149679e+002 
3356250000  -3.165421e+001  1.074550e+002 
3359375000  -3.259037e+001  9.896036e+001 
3362500000  -3.388671e+001  9.371165e+001 
3365625000  -3.447157e+001  9.255830e+001 
3368750000  -3.538723e+001  9.083041e+001 
3371875000  -3.578596e+001  8.758510e+001 
3375000000  -3.741971e+001  8.542753e+001 
3378125000  -3.838855e+001  8.530735e+001 
3381250000  -3.998256e+001  9.248914e+001 
3384375000  -3.893691e+001  1.125992e+002 
3387500000  -3.578733e+001  1.005048e+002 
3390625000  -3.768202e+001  8.104478e+001 
3393750000  -3.948940e+001  8.535341e+001 
3396875000  -3.865051e+001  8.902389e+001 
3400000000  -3.866427e+001  8.114149e+001 
3403125000  -3.967522e+001  7.684900e+001 
3406250000  -4.043008e+001  8.064797e+001 
3409375000  -4.114337e+001  7.496037e+001 
3412500000  -4.176959e+001  7.670287e+001 
3415625000  -4.281319e+001  8.157419e+001 
3418750000  -4.307927e+001  8.452787e+001 
3421875000  -4.334241e+001  9.107787e+001 
3425000000  -4.240712e+001  9.528877e+001 
3428125000  -4.148211e+001  9.506603e+001 
3431250000  -4.126165e+001  9.018816e+001 
3434375000  -4.100524e+001  8.804564e+001 
3437500000  -4.180434e+001  8.399350e+001 
3440625000  -4.190835e+001  8.881900e+001 
3443750000  -4.051859e+001  9.120200e+001 
3446875000  -3.981214e+001  8.566792e+001 
3450000000  -3.968663e+001  7.662315e+001 
3453125000  -3.984933e+001  6.708931e+001 
3456250000  -4.125819e+001  6.238289e+001 
3459375000  -4.197317e+001  6.577628e+001 
3462500000  -4.211312e+001  6.489898e+001 
3465625000  -4.216172e+001  6.275118e+001 
3468750000  -4.251593e+001  5.975866e+001 
3471875000  -4.259356e+001  5.920310e+001 
3475000000  -4.248952e+001  5.526961e+001 
3478125000  -4.332092e+001  5.140386e+001 
3481250000  -4.460630e+001  4.998898e+001 
3484375000  -4.576426e+001  5.440187e+001 
3487500000  -4.539902e+001  5.623479e+001 
3490625000  -4.484089e+001  5.391198e+001 
3493750000  -4.560820e+001  4.704646e+001 
3496875000  -4.662336e+001  5.579416e+001 
3500000000  -4.732112e+001  6.102587e+001 
3503125000  -4.757999e+001  6.243095e+001 
3506250000  -4.629554e+001  6.482480e+001 
3509375000  -4.653576e+001  5.871001e+001 
3512500000  -4.690108e+001  6.115222e+001 
3515625000  -4.768872e+001  6.274377e+001 
3518750000  -4.798718e+001  7.057336e+001 
3521875000  -4.748043e+001  7.152556e+001 
3525000000  -4.795895e+001  7.497095e+001 
3528125000  -4.737727e+001  8.732517e+001 
3531250000  -4.578275e+001  8.465130e+001 
3534375000  -4.533888e+001  7.929649e+001 
3537500000  -4.525913e+001  7.483057e+001 
3540625000  -4.581474e+001  7.359843e+001 
3543750000  -4.594718e+001  7.771387e+001 
3546875000  -4.523061e+001  9.224222e+001 
3550000000  -4.296286e+001  9.523279e+001 
3553125000  -4.161065e+001  7.572043e+001 
3556250000  -4.258674e+001  7.047215e+001 
3559375000  -4.205237e+001  7.390234e+001 
3562500000  -4.070696e+001  6.587905e+001 
3565625000  -4.185677e+001  5.991201e+001 
3568750000  -4.179555e+001  6.394864e+001 
3571875000  -4.153884e+001  6.393417e+001 
3575000000  -4.100323e+001  5.691814e+001 
3578125000  -4.138829e+001  5.550020e+001 
3581250000  -4.138981e+001  5.479047e+001 
3584375000  -4.055646e+001  5.264235e+001 
3587500000  -3.972667e+001  4.785715e+001 
3590625000  -3.996837e+001  3.927408e+001 
3593750000  -4.117362e+001  3.731553e+001 
3596875000  -4.115570e+001  4.581211e+001 
3600000000  -3.943306e+001  4.292040e+001 
3603125000  -3.975039e+001  2.978325e+001 
3606250000  -4.013696e+001  2.644121e+001 
3609375000  -4.063443e+001  2.595436e+001 
3612500000  -4.131903e+001  2.584012e+001 
3615625000  -4.121356e+001  2.167906e+001 
3618750000  -4.170087e+001  2.431968e+001 
3621875000  -4.110196e+001  2.352340e+001 
3625000000  -4.171464e+001  2.284452e+001 
3628125000  -4.144102e+001  2.294278e+001 
3631250000  -4.125278e+001  1.733460e+001 
3634375000  -4.260274e+001  1.825045e+001 
3637500000  -4.178183e+001  2.543220e+001 
3640625000  -4.084827e+001  2.503643e+001 
3643750000  -4.055125e+001  2.055102e+001 
3646875000  -4.099486e+001  1.253921e+001 
3650000000  -4.140755e+001  1.364201e+001 
3653125000  -4.138572e+001  1.449482e+001 
3656250000  -4.154915e+001  1.442392e+001 
3659375000  -4.198870e+001  1.496771e+001 
3662500000  -4.096322e+001  1.243581e+001 
3665625000  -4.149210e+001  1.434619e+001 
3668750000  -4.008761e+001  1.803045e+001 
3671875000  -3.921551e+001  1.194409e+001 
3675000000  -3.984046e+001  6.973577e+000 
3678125000  -4.030852e+001  8.983979e+000 
3681250000  -3.949718e+001  8.898842e+000 
3684375000  -3.947436e+001  6.135179e+000 
3687500000  -3.974866e+001  4.464043e+000 
3690625000  -3.970263e+001  1.406995e+000 
3693750000  -4.038496e+001  5.719978e+000 
3696875000  -3.997805e+001  7.594407e+000 
3700000000  -3.881338e+001  5.908761e+000 
3703125000  -3.884129e+001  4.723356e+000 
3706250000  -3.938758e+001  4.799948e+000 
3709375000  -3.869933e+001  8.466072e+000 
3712500000  -3.733399e+001  7.509641e+000 
3715625000  -3.630733e+001  2.709309e+000 
3718750000  -3.565543e+001  -3.776267e-001 
3721875000  -3.525103e+001  -6.494660e+000 
3725000000  -3.518748e+001  -1.125454e+001 
3728125000  -3.535305e+001  -1.146576e+001 
3731250000  -3.472231e+001  -1.250557e+001 
3734375000  -3.374675e+001  -1.851919e+001 
3737500000  -3.414533e+001  -2.556466e+001 
3740625000  -3.487827e+001  -2.870856e+001 
3743750000  -3.452848e+001  -3.032605e+001 
3746875000  -3.459817e+001  -3.322979e+001 
3750000000  -3.495448e+001  -3.528965e+001 
3753125000  -3.468083e+001  -3.539689e+001 
3756250000  -3.460465e+001  -3.573891e+001 
3759375000  -3.430173e+001  -3.694773e+001 
3762500000  -3.374999e+001  -4.071632e+001 
3765625000  -3.416758e+001  -4.366585e+001 
3768750000  -3.428379e+001  -4.115178e+001 
3771875000  -3.249127e+001  -4.355088e+001 
3775000000  -3.232947e+001  -5.187349e+001 
3778125000  -3.260390e+001  -5.324998e+001 
3781250000  -3.248972e+001  -5.583895e+001 
3784375000  -3.232764e+001  -5.745786e+001 
3787500000  -3.176409e+001  -6.142785e+001 
3790625000  -3.224924e+001  -6.762282e+001 
3793750000  -3.231419e+001  -6.736768e+001 
3796875000  -3.147899e+001  -6.859453e+001 
3800000000  -2.994379e+001  -7.233022e+001 
3803125000  -3.076989e+001  -7.968073e+001 
3806250000  -3.140183e+001  -8.206894e+001 
3809375000  -3.101973e+001  -8.273374e+001 
3812500000  -3.041424e+001  -8.807589e+001 
3815625000  -3.104886e+001  -9.553065e+001 
3818750000  -3.216726e+001  -9.673777e+001 
3821875000  -3.213142e+001  -8.783775e+001 
3825000000  -3.000872e+001  -8.305482e+001 
3828125000  -2.866154e+001  -9.771585e+001 
3831250000  -2.939102e+001  -1.114419e+002 
3834375000  -3.069210e+001  -1.126138e+002 
3837500000  -3.160030e+001  -1.070300e+002 
3840625000  -3.041766e+001  -1.083837e+002 
3843750000  -2.924527e+001  -1.183578e+002 
3846875000  -2.993791e+001  -1.257873e+002 
3850000000  -3.125920e+001  -1.195743e+002 
3853125000  -3.039652e+001  -1.178244e+002 
3856250000  -3.040625e+001  -1.218757e+002 
3859375000  -2.963395e+001  -1.264177e+002 
3862500000  -2.919868e+001  -1.344080e+002 
3865625000  -2.946283e+001  -1.390478e+002 
3868750000  -2.956139e+001  -1.387659e+002 
3871875000  -2.881134e+001  -1.427541e+002 
3875000000  -2.896594e+001  -1.512779e+002 
3878125000  -3.000800e+001  -1.531487e+002 
3881250000  -3.003569e+001  -1.505029e+002 
3884375000  -2.955277e+001  -1.556548e+002 
3887500000  -2.962690e+001  -1.594883e+002 
3890625000  -3.033870e+001  -1.614556e+002 
3893750000  -3.062904e+001  -1.629381e+002 
3896875000  -3.069096e+001  -1.620621e+002 
3900000000  -3.099928e+001  -1.633621e+002 
3903125000  -3.063900e+001  -1.649261e+002 
3906250000  -3.040846e+001  -1.657278e+002 
3909375000  -2.970714e+001  -1.689947e+002 
3912500000  -2.973373e+001  -1.765846e+002 
3915625000  -3.099181e+001  -1.750450e+002 
3918750000  -3.092113e+001  -1.741863e+002 
3921875000  -3.062363e+001  -1.750674e+002 
3925000000  -2.968998e+001  -1.756282e+002 
3928125000  -2.911064e+001  1.782125e+002 
3931250000  -2.957759e+001  1.740174e+002 
3934375000  -2.984068e+001  1.749309e+002 
3937500000  -3.002864e+001  1.744202e+002 
3940625000  -3.042711e+001  1.747023e+002 
3943750000  -2.941930e+001  1.759722e+002 
3946875000  -2.819125e+001  1.701006e+002 
3950000000  -2.870988e+001  1.628116e+002 
3953125000  -2.965147e+001  1.638693e+002 
3956250000  -2.880149e+001  1.667364e+002 
3959375000  -2.743970e+001  1.632136e+002 
3962500000  -2.693021e+001  1.588016e+002 
3965625000  -2.664408e+001  1.501527e+002 
3968750000  -2.750525e+001  1.434275e+002 
3971875000  -2.783681e+001  1.420408e+002 
3975000000  -2.722068e+001  1.404582e+002 
3978125000  -2.699247e+001  1.390934e+002 
3981250000  -2.677279e+001  1.342140e+002 
3984375000  -2.704963e+001  1.280144e+002 
3987500000  -2.757824e+001  1.259827e+002 
3990625000  -2.761702e+001  1.253395e+002 
3993750000  -2.776325e+001  1.213768e+002 
3996875000  -2.772395e+001  1.196489e+002 
4000000000  -2.782285e+001  1.171990e+002 
4003125000  -2.838955e+001  1.195227e+002 
4006250000  -2.697671e+001  1.198364e+002 
4009375000  -2.580348e+001  1.072910e+002 
4012500000  -2.699726e+001  1.003590e+002 
4015625000  -2.812389e+001  1.006030e+002 
4018750000  -2.836258e+001  1.034166e+002 
4021875000  -2.761489e+001  1.017473e+002 
4025000000  -2.728855e+001  9.659410e+001 
4028125000  -2.723603e+001  9.284314e+001 
4031250000  -2.776595e+001  8.999625e+001 
4034375000  -2.795697e+001  8.974802e+001 
4037500000  -2.752564e+001  9.170660e+001 
4040625000  -2.742983e+001  8.840349e+001 
4043750000  -2.772973e+001  8.761237e+001 
4046875000  -2.732797e+001  8.742272e+001 
4050000000  -2.681509e+001  8.169736e+001 
4053125000  -2.735349e+001  7.990860e+001 
4056250000  -2.784903e+001  8.418317e+001 
4059375000  -2.662726e+001  8.570747e+001 
4062500000  -2.524583e+001  8.160242e+001 
4065625000  -2.516561e+001  7.694442e+001 
4068750000  -2.480643e+001  7.226893e+001 
4071875000  -2.420321e+001  6.426843e+001 
4075000000  -2.456662e+001  5.809074e+001 
4078125000  -2.507061e+001  5.699383e+001 
4081250000  -2.456268e+001  5.476862e+001 
4084375000  -2.415759e+001  4.793475e+001 
4087500000  -2.454807e+001  4.170902e+001 
4090625000  -2.513231e+001  4.091259e+001 
4093750000  -2.493892e+001  4.114933e+001 
4096875000  -2.448607e+001  3.513411e+001 
4100000000  -2.525226e+001  2.837195e+001 
4103125000  -2.608954e+001  2.908614e+001 
4106250000  -2.591083e+001  3.406016e+001 
4109375000  -2.504647e+001  3.344523e+001 
4112500000  -2.449502e+001  2.675543e+001 
4115625000  -2.487125e+001  2.268279e+001 
4118750000  -2.488148e+001  1.973442e+001 
4121875000  -2.449819e+001  1.490831e+001 
4125000000  -2.488995e+001  9.521032e+000 
4128125000  -2.594546e+001  9.958052e+000 
4131250000  -2.559189e+001  1.838021e+001 
4134375000  -2.324476e+001  1.319810e+001 
4137500000  -2.309540e+001  -5.663195e+000 
4140625000  -2.525954e+001  -1.241413e+001 
4143750000  -2.654315e+001  -7.434725e+000 
4146875000  -2.615672e+001  2.487057e-001 
4150000000  -2.514353e+001  -3.273890e+000 
4153125000  -2.500966e+001  -9.785358e+000 
4156250000  -2.599859e+001  -1.218918e+001 
4159375000  -2.628214e+001  -8.001651e+000 
4162500000  -2.506942e+001  -3.815343e+000 
4165625000  -2.395936e+001  -8.006352e+000 
4168750000  -2.337465e+001  -1.504561e+001 
4171875000  -2.332813e+001  -2.418545e+001 
4175000000  -2.400429e+001  -2.967067e+001 
4178125000  -2.455555e+001  -2.954501e+001 
4181250000  -2.441090e+001  -3.022053e+001 
4184375000  -2.429307e+001  -3.383148e+001 
4187500000  -2.433428e+001  -3.604923e+001 
4190625000  -2.417088e+001  -4.158378e+001 
4193750000  -2.495133e+001  -4.548113e+001 
4196875000  -2.567316e+001  -4.569352e+001 
4200000000  -2.654280e+001  -4.273807e+001 
4203125000  -2.652474e+001  -2.962253e+001 
4206250000  -2.308664e+001  -2.832064e+001 
4209375000  -2.196136e+001  -4.903343e+001 
4212500000  -2.392797e+001  -5.788050e+001 
4215625000  -2.489660e+001  -5.126501e+001 
4218750000  -2.353508e+001  -4.474561e+001 
4221875000  -2.128881e+001  -5.407330e+001 
4225000000  -2.253022e+001  -6.666434e+001 
4228125000  -2.313189e+001  -6.142862e+001 
4231250000  -2.158667e+001  -6.530074e+001 
4234375000  -2.146572e+001  -7.344977e+001 
4237500000  -2.109926e+001  -7.703677e+001 
4240625000  -2.107633e+001  -8.557985e+001 
4243750000  -2.205475e+001  -9.224452e+001 
4246875000  -2.300396e+001  -9.224226e+001 
4250000000  -2.299655e+001  -8.941656e+001 
4253125000  -2.248339e+001  -9.150277e+001 
4256250000  -2.268723e+001  -9.518181e+001 
4259375000  -2.243402e+001  -9.755179e+001 
4262500000  -2.241382e+001  -1.008894e+002 
4265625000  -2.263032e+001  -1.007524e+002 
4268750000  -2.171351e+001  -1.052145e+002 
4271875000  -2.147145e+001  -1.106498e+002 
4275000000  -2.083447e+001  -1.172672e+002 
4278125000  -2.153237e+001  -1.283678e+002 
4281250000  -2.333916e+001  -1.301108e+002 
4284375000  -2.298862e+001  -1.296209e+002 
4287500000  -2.383727e+001  -1.331577e+002 
4290625000  -2.502440e+001  -1.234024e+002 
4293750000  -2.299897e+001  -1.181619e+002 
4296875000  -2.167686e+001  -1.294354e+002 
4300000000  -2.261194e+001  -1.387143e+002 
4303125000  -2.372785e+001  -1.372700e+002 
4306250000  -2.306287e+001  -1.313298e+002 
4309375000  -2.168688e+001  -1.332227e+002 
4312500000  -2.157083e+001  -1.420173e+002 
4315625000  -2.175833e+001  -1.479348e+002 
4318750000  -2.214303e+001  -1.515741e+002 
4321875000  -2.228550e+001  -1.508400e+002 
4325000000  -2.172056e+001  -1.501340e+002 
4328125000  -2.120717e+001  -1.564944e+002 
4331250000  -2.113913e+001  -1.647088e+002 
4334375000  -2.161497e+001  -1.696377e+002 
4337500000  -2.245169e+001  -1.717880e+002 
4340625000  -2.299705e+001  -1.682955e+002 
4343750000  -2.235241e+001  -1.677865e+002 
4346875000  -2.200116e+001  -1.736292e+002 
4350000000  -2.197471e+001  -1.784350e+002 
4353125000  -2.205139e+001  1.741553e+002 
4356250000  -2.384736e+001  1.734489e+002 
4359375000  -2.436250e+001  -1.728172e+002 
4362500000  -2.155648e+001  -1.715074e+002 
4365625000  -2.002409e+001  1.765999e+002 
4368750000  -2.078628e+001  1.644946e+002 
4371875000  -2.200704e+001  1.659216e+002 
4375000000  -2.162980e+001  1.666039e+002 
4378125000  -2.098588e+001  1.604198e+002 
4381250000  -2.114353e+001  1.550164e+002 
4384375000  -2.100384e+001  1.504910e+002 
4387500000  -2.173358e+001  1.448115e+002 
4390625000  -2.271682e+001  1.454994e+002 
4393750000  -2.207058e+001  1.478552e+002 
4396875000  -2.142167e+001  1.457516e+002 
4400000000  -2.086943e+001  1.385173e+002 
4403125000  -2.150136e+001  1.308203e+002 
4406250000  -2.232168e+001  1.299813e+002 
4409375000  -2.229280e+001  1.274086e+002 
4412500000  -2.335674e+001  1.247370e+002 
4415625000  -2.367554e+001  1.297249e+002 
4418750000  -2.244671e+001  1.344074e+002 
