!Agilent Technologies,E8363B,MY43030201,A.06.04.32
!Agilent E8363B: A.06.04.32
!Date: Tuesday, November 11, 2014 20:46:53
!Correction: S21(Response(S21)) 
!S1P File: Measurement: S21:
# Hz S  dB   R 50
3000000000  -2.644164e+001  1.553351e+002 
3003125000  -2.783080e+001  1.512295e+002 
3006250000  -2.788215e+001  1.480950e+002 
3009375000  -2.823631e+001  1.530594e+002 
3012500000  -2.773840e+001  1.528945e+002 
3015625000  -2.673299e+001  1.456382e+002 
3018750000  -2.763346e+001  1.450767e+002 
3021875000  -2.639245e+001  1.461032e+002 
3025000000  -2.506199e+001  1.432105e+002 
3028125000  -2.407960e+001  1.384184e+002 
3031250000  -2.308349e+001  1.272632e+002 
3034375000  -2.266477e+001  1.142770e+002 
3037500000  -2.301870e+001  1.023820e+002 
3040625000  -2.434620e+001  9.714169e+001 
3043750000  -2.509636e+001  9.305526e+001 
3046875000  -2.516614e+001  8.628850e+001 
3050000000  -2.692150e+001  7.953610e+001 
3053125000  -2.712412e+001  8.606362e+001 
3056250000  -2.639384e+001  8.900092e+001 
3059375000  -2.668427e+001  8.854771e+001 
3062500000  -2.519466e+001  8.475571e+001 
3065625000  -2.499024e+001  7.915681e+001 
3068750000  -2.468652e+001  7.219367e+001 
3071875000  -2.465799e+001  6.921181e+001 
3075000000  -2.467686e+001  6.559132e+001 
3078125000  -2.437114e+001  6.109185e+001 
3081250000  -2.498911e+001  5.697396e+001 
3084375000  -2.427125e+001  5.322580e+001 
3087500000  -2.412691e+001  4.981555e+001 
3090625000  -2.386130e+001  4.037261e+001 
3093750000  -2.422542e+001  3.206727e+001 
3096875000  -2.555409e+001  2.602154e+001 
3100000000  -2.572418e+001  2.459731e+001 
3103125000  -2.610714e+001  2.608761e+001 
3106250000  -2.584496e+001  2.265708e+001 
3109375000  -2.607172e+001  1.914752e+001 
3112500000  -2.618879e+001  1.818528e+001 
3115625000  -2.597808e+001  1.402116e+001 
3118750000  -2.647734e+001  1.530803e+001 
3121875000  -2.582639e+001  7.320277e+000 
3125000000  -2.694525e+001  3.691715e+000 
3128125000  -2.816807e+001  1.185093e+001 
3131250000  -2.608108e+001  1.282750e+001 
3134375000  -2.464359e+001  -7.851542e-001 
3137500000  -2.531368e+001  -1.477976e+001 
3140625000  -2.697157e+001  -1.655958e+001 
3143750000  -2.797482e+001  -1.218852e+001 
3146875000  -2.756564e+001  -1.051792e+001 
3150000000  -2.656160e+001  -7.937771e+000 
3153125000  -2.649736e+001  -1.563485e+001 
3156250000  -2.744321e+001  -1.087771e+001 
3159375000  -2.595689e+001  -7.403966e+000 
3162500000  -2.392634e+001  -2.039799e+001 
3165625000  -2.483616e+001  -3.156506e+001 
3168750000  -2.526422e+001  -3.063353e+001 
3171875000  -2.429973e+001  -3.456758e+001 
3175000000  -2.490185e+001  -4.219291e+001 
3178125000  -2.475611e+001  -4.064793e+001 
3181250000  -2.353886e+001  -4.466929e+001 
3184375000  -2.272942e+001  -5.679362e+001 
3187500000  -2.377946e+001  -7.201086e+001 
3190625000  -2.667561e+001  -8.003547e+001 
3193750000  -2.730696e+001  -7.044586e+001 
3196875000  -2.685867e+001  -6.466686e+001 
3200000000  -2.603878e+001  -6.632214e+001 
3203125000  -2.510364e+001  -7.225008e+001 
3206250000  -2.538066e+001  -7.838110e+001 
3209375000  -2.493451e+001  -8.334015e+001 
3212500000  -2.500847e+001  -9.029824e+001 
3215625000  -2.517691e+001  -9.481725e+001 
3218750000  -2.599233e+001  -1.010283e+002 
3221875000  -2.698961e+001  -1.059742e+002 
3225000000  -2.659119e+001  -1.063405e+002 
3228125000  -2.689565e+001  -1.107716e+002 
3231250000  -2.766097e+001  -1.136034e+002 
3234375000  -2.753022e+001  -1.128219e+002 
3237500000  -2.759559e+001  -1.143998e+002 
3240625000  -2.720602e+001  -1.158711e+002 
3243750000  -2.684377e+001  -1.223543e+002 
3246875000  -2.736509e+001  -1.289155e+002 
3250000000  -2.781406e+001  -1.307692e+002 
3253125000  -2.793813e+001  -1.325847e+002 
3256250000  -2.785808e+001  -1.384321e+002 
3259375000  -2.811626e+001  -1.458636e+002 
3262500000  -2.937498e+001  -1.489627e+002 
3265625000  -3.006425e+001  -1.459320e+002 
3268750000  -3.002902e+001  -1.429648e+002 
3271875000  -2.989590e+001  -1.418042e+002 
3275000000  -2.873178e+001  -1.463781e+002 
3278125000  -2.922461e+001  -1.529585e+002 
3281250000  -2.948410e+001  -1.512273e+002 
3284375000  -2.911805e+001  -1.566373e+002 
3287500000  -2.923141e+001  -1.596901e+002 
3290625000  -2.961964e+001  -1.638290e+002 
3293750000  -2.930030e+001  -1.693342e+002 
3296875000  -3.026108e+001  -1.696718e+002 
3300000000  -3.026006e+001  -1.689750e+002 
3303125000  -2.908279e+001  -1.726672e+002 
3306250000  -2.889907e+001  -1.792356e+002 
3309375000  -2.864078e+001  1.759023e+002 
3312500000  -2.869753e+001  1.656453e+002 
3315625000  -2.969121e+001  1.579587e+002 
3318750000  -3.100437e+001  1.548801e+002 
3321875000  -3.232599e+001  1.545715e+002 
3325000000  -3.278746e+001  1.593739e+002 
3328125000  -3.270383e+001  1.609048e+002 
3331250000  -3.167559e+001  1.690033e+002 
3334375000  -2.896476e+001  1.599368e+002 
3337500000  -2.903789e+001  1.411321e+002 
3340625000  -3.032432e+001  1.298990e+002 
3343750000  -3.223088e+001  1.284464e+002 
3346875000  -3.290909e+001  1.300741e+002 
3350000000  -3.225994e+001  1.289554e+002 
3353125000  -3.238875e+001  1.248624e+002 
3356250000  -3.201876e+001  1.170216e+002 
3359375000  -3.295110e+001  1.084798e+002 
3362500000  -3.429374e+001  1.030313e+002 
3365625000  -3.494789e+001  1.014138e+002 
3368750000  -3.586193e+001  9.978613e+001 
3371875000  -3.629115e+001  9.676820e+001 
3375000000  -3.777212e+001  9.465638e+001 
3378125000  -3.901207e+001  9.379764e+001 
3381250000  -4.057989e+001  1.010929e+002 
3384375000  -3.970427e+001  1.229669e+002 
3387500000  -3.658521e+001  1.087511e+002 
3390625000  -3.833637e+001  8.875366e+001 
3393750000  -4.026362e+001  9.372701e+001 
3396875000  -3.973767e+001  9.866612e+001 
3400000000  -3.944773e+001  9.044659e+001 
3403125000  -4.047800e+001  8.618508e+001 
3406250000  -4.157685e+001  8.995112e+001 
3409375000  -4.220847e+001  8.372035e+001 
3412500000  -4.280938e+001  8.809329e+001 
3415625000  -4.379871e+001  9.307759e+001 
3418750000  -4.415094e+001  9.853475e+001 
3421875000  -4.432647e+001  1.040514e+002 
3425000000  -4.367989e+001  1.066395e+002 
3428125000  -4.263210e+001  1.079724e+002 
3431250000  -4.248410e+001  1.042148e+002 
3434375000  -4.212091e+001  1.033629e+002 
3437500000  -4.277094e+001  1.000217e+002 
3440625000  -4.270847e+001  1.026404e+002 
3443750000  -4.164729e+001  1.050980e+002 
3446875000  -4.053336e+001  1.025580e+002 
3450000000  -4.053102e+001  9.233026e+001 
3453125000  -4.088730e+001  8.436488e+001 
3456250000  -4.192825e+001  7.901572e+001 
3459375000  -4.310595e+001  8.006667e+001 
3462500000  -4.298127e+001  8.114272e+001 
3465625000  -4.317205e+001  7.973380e+001 
3468750000  -4.335950e+001  7.523715e+001 
3471875000  -4.358322e+001  7.684052e+001 
3475000000  -4.367098e+001  7.137695e+001 
3478125000  -4.442805e+001  6.494567e+001 
3481250000  -4.503715e+001  6.478783e+001 
3484375000  -4.692327e+001  7.283924e+001 
3487500000  -4.616908e+001  7.756331e+001 
3490625000  -4.630473e+001  7.131151e+001 
3493750000  -4.622077e+001  7.150552e+001 
3496875000  -4.752076e+001  7.469331e+001 
3500000000  -4.865454e+001  8.046061e+001 
3503125000  -4.824314e+001  8.352696e+001 
3506250000  -4.693711e+001  8.984129e+001 
3509375000  -4.705924e+001  8.210275e+001 
3512500000  -4.809334e+001  8.395422e+001 
3515625000  -4.792553e+001  8.611243e+001 
3518750000  -4.840127e+001  8.915840e+001 
3521875000  -4.744455e+001  9.644579e+001 
3525000000  -4.742210e+001  9.462836e+001 
3528125000  -4.699059e+001  1.078200e+002 
3531250000  -4.537613e+001  1.045443e+002 
3534375000  -4.449128e+001  9.688141e+001 
3537500000  -4.466963e+001  9.466168e+001 
3540625000  -4.548129e+001  9.240851e+001 
3543750000  -4.566132e+001  9.686438e+001 
3546875000  -4.510664e+001  1.092823e+002 
3550000000  -4.261351e+001  1.110128e+002 
3553125000  -4.108263e+001  9.235324e+001 
3556250000  -4.206472e+001  8.943850e+001 
3559375000  -4.174858e+001  8.877666e+001 
3562500000  -4.045658e+001  8.219685e+001 
3565625000  -4.133337e+001  7.568887e+001 
3568750000  -4.147620e+001  7.823094e+001 
3571875000  -4.102246e+001  7.858099e+001 
3575000000  -4.051782e+001  7.380248e+001 
3578125000  -4.099094e+001  6.801547e+001 
3581250000  -4.117482e+001  6.853423e+001 
3584375000  -4.017072e+001  6.882045e+001 
3587500000  -3.939962e+001  6.045335e+001 
3590625000  -3.995331e+001  5.248923e+001 
3593750000  -4.087836e+001  5.085983e+001 
3596875000  -4.097563e+001  5.769315e+001 
3600000000  -3.936688e+001  5.439697e+001 
3603125000  -3.975781e+001  4.235848e+001 
3606250000  -4.007315e+001  3.925492e+001 
3609375000  -4.085564e+001  3.977845e+001 
3612500000  -4.121629e+001  3.725146e+001 
3615625000  -4.140889e+001  3.467553e+001 
3618750000  -4.173778e+001  3.579272e+001 
3621875000  -4.148123e+001  3.394624e+001 
3625000000  -4.162972e+001  3.332927e+001 
3628125000  -4.224769e+001  3.345744e+001 
3631250000  -4.168195e+001  3.154145e+001 
3634375000  -4.264251e+001  3.158975e+001 
3637500000  -4.239533e+001  3.817341e+001 
3640625000  -4.121458e+001  3.961528e+001 
3643750000  -4.077021e+001  3.354012e+001 
3646875000  -4.114032e+001  2.828690e+001 
3650000000  -4.204266e+001  2.670309e+001 
3653125000  -4.150020e+001  2.963519e+001 
3656250000  -4.187397e+001  2.775950e+001 
3659375000  -4.238734e+001  3.108818e+001 
3662500000  -4.134015e+001  2.918948e+001 
3665625000  -4.138262e+001  3.088329e+001 
3668750000  -4.024870e+001  3.296306e+001 
3671875000  -3.933094e+001  2.791170e+001 
3675000000  -3.974678e+001  2.183509e+001 
3678125000  -4.031521e+001  2.431140e+001 
3681250000  -3.991766e+001  2.520985e+001 
3684375000  -3.959089e+001  2.152636e+001 
3687500000  -3.957672e+001  2.054152e+001 
3690625000  -3.957534e+001  1.633014e+001 
3693750000  -4.017643e+001  2.019027e+001 
3696875000  -3.995019e+001  2.403801e+001 
3700000000  -3.877654e+001  2.118050e+001 
3703125000  -3.887563e+001  1.713741e+001 
3706250000  -3.932616e+001  1.899268e+001 
3709375000  -3.869883e+001  2.214031e+001 
3712500000  -3.734010e+001  2.252450e+001 
3715625000  -3.642870e+001  1.614292e+001 
3718750000  -3.578060e+001  1.262050e+001 
3721875000  -3.534627e+001  8.056031e+000 
3725000000  -3.529334e+001  3.705176e+000 
3728125000  -3.560230e+001  2.718347e+000 
3731250000  -3.484882e+001  3.017596e+000 
3734375000  -3.393540e+001  -3.867639e+000 
3737500000  -3.431093e+001  -1.025823e+001 
3740625000  -3.509324e+001  -1.415229e+001 
3743750000  -3.485887e+001  -1.566327e+001 
3746875000  -3.484435e+001  -1.916511e+001 
3750000000  -3.524683e+001  -1.901851e+001 
3753125000  -3.487817e+001  -1.955043e+001 
3756250000  -3.473340e+001  -2.068280e+001 
3759375000  -3.461375e+001  -2.095634e+001 
3762500000  -3.396194e+001  -2.417685e+001 
3765625000  -3.436792e+001  -2.641802e+001 
3768750000  -3.448143e+001  -2.483773e+001 
3771875000  -3.265894e+001  -2.750981e+001 
3775000000  -3.240170e+001  -3.570983e+001 
3778125000  -3.273629e+001  -3.696563e+001 
3781250000  -3.247579e+001  -3.926276e+001 
3784375000  -3.229136e+001  -4.158350e+001 
3787500000  -3.177290e+001  -4.531464e+001 
3790625000  -3.225580e+001  -5.048777e+001 
3793750000  -3.249743e+001  -5.189285e+001 
3796875000  -3.157393e+001  -5.214518e+001 
3800000000  -2.991717e+001  -5.666167e+001 
3803125000  -3.078441e+001  -6.318833e+001 
3806250000  -3.132442e+001  -6.558672e+001 
3809375000  -3.116537e+001  -6.666643e+001 
3812500000  -3.039912e+001  -7.201900e+001 
3815625000  -3.097292e+001  -7.903889e+001 
3818750000  -3.194805e+001  -8.139966e+001 
3821875000  -3.207907e+001  -7.282439e+001 
3825000000  -3.015570e+001  -6.819543e+001 
3828125000  -2.878465e+001  -8.204019e+001 
3831250000  -2.935302e+001  -9.629616e+001 
3834375000  -3.064078e+001  -9.751783e+001 
3837500000  -3.164151e+001  -9.231925e+001 
3840625000  -3.059538e+001  -9.314029e+001 
3843750000  -2.929641e+001  -1.031551e+002 
3846875000  -2.996659e+001  -1.106238e+002 
3850000000  -3.136232e+001  -1.054285e+002 
3853125000  -3.060867e+001  -1.024916e+002 
3856250000  -3.051728e+001  -1.073921e+002 
3859375000  -2.979464e+001  -1.108655e+002 
3862500000  -2.938414e+001  -1.184378e+002 
3865625000  -2.966931e+001  -1.230936e+002 
3868750000  -2.965018e+001  -1.232701e+002 
3871875000  -2.895956e+001  -1.263952e+002 
3875000000  -2.906975e+001  -1.341231e+002 
3878125000  -3.005618e+001  -1.372855e+002 
3881250000  -3.023059e+001  -1.341452e+002 
3884375000  -2.969958e+001  -1.384300e+002 
3887500000  -2.979586e+001  -1.429174e+002 
3890625000  -3.026812e+001  -1.449183e+002 
3893750000  -3.077545e+001  -1.462357e+002 
3896875000  -3.076982e+001  -1.463073e+002 
3900000000  -3.115002e+001  -1.457243e+002 
3903125000  -3.067571e+001  -1.476070e+002 
3906250000  -3.047906e+001  -1.501511e+002 
3909375000  -2.966497e+001  -1.516261e+002 
3912500000  -2.966005e+001  -1.585818e+002 
3915625000  -3.075834e+001  -1.586265e+002 
3918750000  -3.090510e+001  -1.572601e+002 
3921875000  -3.057604e+001  -1.584315e+002 
3925000000  -2.979059e+001  -1.586581e+002 
3928125000  -2.900796e+001  -1.648586e+002 
3931250000  -2.937725e+001  -1.688123e+002 
3934375000  -2.961791e+001  -1.688470e+002 
3937500000  -2.973586e+001  -1.701224e+002 
3940625000  -3.031261e+001  -1.695905e+002 
3943750000  -2.938963e+001  -1.685240e+002 
3946875000  -2.807830e+001  -1.736387e+002 
3950000000  -2.853660e+001  1.784254e+002 
3953125000  -2.952955e+001  1.786862e+002 
3956250000  -2.880021e+001  -1.786954e+002 
3959375000  -2.741661e+001  1.782981e+002 
3962500000  -2.686697e+001  1.741053e+002 
3965625000  -2.651010e+001  1.654031e+002 
3968750000  -2.740990e+001  1.586163e+002 
3971875000  -2.787451e+001  1.577141e+002 
3975000000  -2.728890e+001  1.552498e+002 
3978125000  -2.706163e+001  1.538413e+002 
3981250000  -2.682593e+001  1.498571e+002 
3984375000  -2.700146e+001  1.436151e+002 
3987500000  -2.752667e+001  1.416711e+002 
3990625000  -2.760154e+001  1.407038e+002 
3993750000  -2.779572e+001  1.374605e+002 
3996875000  -2.778846e+001  1.350228e+002 
4000000000  -2.785035e+001  1.330728e+002 
4003125000  -2.849134e+001  1.353436e+002 
4006250000  -2.713321e+001  1.360685e+002 
4009375000  -2.586871e+001  1.238813e+002 
4012500000  -2.689894e+001  1.167286e+002 
4015625000  -2.809118e+001  1.174737e+002 
4018750000  -2.833418e+001  1.197133e+002 
4021875000  -2.762889e+001  1.186668e+002 
4025000000  -2.726686e+001  1.137387e+002 
4028125000  -2.724518e+001  1.094028e+002 
4031250000  -2.763804e+001  1.060910e+002 
4034375000  -2.787441e+001  1.061140e+002 
4037500000  -2.734047e+001  1.081412e+002 
4040625000  -2.724253e+001  1.045716e+002 
4043750000  -2.754266e+001  1.044694e+002 
4046875000  -2.709916e+001  1.038493e+002 
4050000000  -2.663733e+001  9.819833e+001 
4053125000  -2.706429e+001  9.603014e+001 
4056250000  -2.767236e+001  9.948656e+001 
4059375000  -2.658481e+001  1.016098e+002 
4062500000  -2.510721e+001  9.727333e+001 
4065625000  -2.492904e+001  9.233242e+001 
4068750000  -2.466425e+001  8.739711e+001 
4071875000  -2.408414e+001  7.969758e+001 
4075000000  -2.440303e+001  7.309325e+001 
4078125000  -2.500223e+001  7.200317e+001 
4081250000  -2.445242e+001  6.978371e+001 
4084375000  -2.408126e+001  6.318268e+001 
4087500000  -2.443584e+001  5.682415e+001 
4090625000  -2.505441e+001  5.570265e+001 
4093750000  -2.491269e+001  5.648715e+001 
4096875000  -2.446178e+001  5.056239e+001 
4100000000  -2.511680e+001  4.315190e+001 
4103125000  -2.606448e+001  4.398624e+001 
4106250000  -2.600023e+001  4.903165e+001 
4109375000  -2.512521e+001  4.844793e+001 
4112500000  -2.456699e+001  4.212944e+001 
4115625000  -2.489237e+001  3.769874e+001 
4118750000  -2.501794e+001  3.492933e+001 
4121875000  -2.460014e+001  3.059472e+001 
4125000000  -2.492363e+001  2.576780e+001 
4128125000  -2.589898e+001  2.549062e+001 
4131250000  -2.570507e+001  3.362078e+001 
4134375000  -2.339652e+001  2.974407e+001 
4137500000  -2.312017e+001  1.082876e+001 
4140625000  -2.528859e+001  3.505002e+000 
4143750000  -2.656736e+001  8.210411e+000 
4146875000  -2.619920e+001  1.594977e+001 
4150000000  -2.529979e+001  1.285669e+001 
4153125000  -2.508179e+001  6.743296e+000 
4156250000  -2.593964e+001  3.950138e+000 
4159375000  -2.624862e+001  8.324856e+000 
4162500000  -2.500571e+001  1.250928e+001 
4165625000  -2.392496e+001  8.753326e+000 
4168750000  -2.332923e+001  1.637735e+000 
4171875000  -2.324026e+001  -7.530484e+000 
4175000000  -2.382082e+001  -1.283786e+001 
4178125000  -2.447658e+001  -1.360042e+001 
4181250000  -2.436155e+001  -1.400130e+001 
4184375000  -2.415328e+001  -1.710374e+001 
4187500000  -2.423894e+001  -2.015890e+001 
4190625000  -2.402130e+001  -2.536948e+001 
4193750000  -2.477601e+001  -2.960224e+001 
4196875000  -2.542068e+001  -2.998042e+001 
4200000000  -2.628883e+001  -2.817896e+001 
4203125000  -2.649795e+001  -1.525422e+001 
4206250000  -2.317181e+001  -1.296529e+001 
4209375000  -2.185864e+001  -3.308332e+001 
4212500000  -2.376258e+001  -4.258297e+001 
4215625000  -2.476672e+001  -3.676193e+001 
4218750000  -2.361250e+001  -2.976113e+001 
4221875000  -2.126532e+001  -3.868260e+001 
4225000000  -2.237509e+001  -5.138718e+001 
4228125000  -2.325646e+001  -4.650822e+001 
4231250000  -2.164506e+001  -4.971584e+001 
4234375000  -2.158254e+001  -5.820295e+001 
4237500000  -2.118793e+001  -6.134292e+001 
4240625000  -2.114836e+001  -6.987622e+001 
4243750000  -2.210117e+001  -7.623653e+001 
4246875000  -2.302915e+001  -7.639156e+001 
4250000000  -2.314039e+001  -7.367726e+001 
4253125000  -2.247497e+001  -7.564873e+001 
4256250000  -2.281509e+001  -7.958521e+001 
4259375000  -2.253863e+001  -8.143657e+001 
4262500000  -2.254595e+001  -8.524899e+001 
4265625000  -2.272394e+001  -8.478227e+001 
4268750000  -2.187605e+001  -8.836440e+001 
4271875000  -2.161708e+001  -9.398588e+001 
4275000000  -2.101313e+001  -1.004413e+002 
4278125000  -2.153017e+001  -1.116380e+002 
4281250000  -2.333728e+001  -1.141096e+002 
4284375000  -2.306907e+001  -1.129704e+002 
4287500000  -2.375259e+001  -1.163674e+002 
4290625000  -2.504562e+001  -1.073835e+002 
4293750000  -2.313412e+001  -1.011058e+002 
4296875000  -2.167424e+001  -1.125139e+002 
4300000000  -2.249855e+001  -1.219256e+002 
4303125000  -2.365224e+001  -1.213965e+002 
4306250000  -2.307860e+001  -1.148806e+002 
4309375000  -2.168927e+001  -1.167178e+002 
4312500000  -2.154354e+001  -1.251532e+002 
4315625000  -2.176175e+001  -1.315519e+002 
4318750000  -2.205997e+001  -1.350325e+002 
4321875000  -2.223284e+001  -1.345611e+002 
4325000000  -2.167890e+001  -1.338073e+002 
4328125000  -2.115461e+001  -1.402407e+002 
4331250000  -2.108915e+001  -1.483661e+002 
4334375000  -2.152283e+001  -1.534633e+002 
4337500000  -2.234270e+001  -1.559602e+002 
4340625000  -2.290804e+001  -1.528784e+002 
4343750000  -2.235982e+001  -1.522763e+002 
4346875000  -2.196676e+001  -1.578351e+002 
4350000000  -2.199028e+001  -1.620969e+002 
4353125000  -2.202010e+001  -1.702883e+002 
4356250000  -2.368488e+001  -1.714492e+002 
4359375000  -2.447118e+001  -1.588352e+002 
4362500000  -2.185674e+001  -1.562242e+002 
4365625000  -2.019534e+001  -1.674061e+002 
4368750000  -2.086004e+001  -1.792470e+002 
4371875000  -2.212619e+001  -1.790960e+002 
4375000000  -2.181517e+001  -1.777560e+002 
4378125000  -2.117718e+001  1.765723e+002 
4381250000  -2.133601e+001  1.713332e+002 
4384375000  -2.118053e+001  1.669261e+002 
4387500000  -2.187423e+001  1.613430e+002 
4390625000  -2.289481e+001  1.617557e+002 
4393750000  -2.221434e+001  1.642207e+002 
4396875000  -2.154378e+001  1.621180e+002 
4400000000  -2.108204e+001  1.552888e+002 
4403125000  -2.157944e+001  1.481173e+002 
4406250000  -2.248653e+001  1.462780e+002 
4409375000  -2.238692e+001  1.444656e+002 
4412500000  -2.345712e+001  1.415287e+002 
4415625000  -2.381636e+001  1.463345e+002 
4418750000  -2.264815e+001  1.513517e+002 
