!Agilent Technologies,E8363B,MY43030201,A.06.04.32
!Agilent E8363B: A.06.04.32
!Date: Tuesday, November 11, 2014 20:47:12
!Correction: S21(Response(S21)) 
!S1P File: Measurement: S21:
# Hz S  dB   R 50
3000000000  -2.662842e+001  1.578334e+002 
3003125000  -2.796638e+001  1.534834e+002 
3006250000  -2.803502e+001  1.503330e+002 
3009375000  -2.839235e+001  1.554646e+002 
3012500000  -2.792430e+001  1.552657e+002 
3015625000  -2.690734e+001  1.480567e+002 
3018750000  -2.774990e+001  1.472840e+002 
3021875000  -2.651850e+001  1.482868e+002 
3025000000  -2.522787e+001  1.453327e+002 
3028125000  -2.425873e+001  1.403997e+002 
3031250000  -2.324360e+001  1.296223e+002 
3034375000  -2.282456e+001  1.166878e+002 
3037500000  -2.315191e+001  1.044599e+002 
3040625000  -2.446303e+001  9.931992e+001 
3043750000  -2.518614e+001  9.514151e+001 
3046875000  -2.528303e+001  8.846703e+001 
3050000000  -2.703506e+001  8.153217e+001 
3053125000  -2.720253e+001  8.763863e+001 
3056250000  -2.649772e+001  9.113329e+001 
3059375000  -2.678446e+001  9.045223e+001 
3062500000  -2.533757e+001  8.658477e+001 
3065625000  -2.506957e+001  8.119521e+001 
3068750000  -2.482500e+001  7.408220e+001 
3071875000  -2.477151e+001  7.127357e+001 
3075000000  -2.474911e+001  6.753682e+001 
3078125000  -2.442599e+001  6.295401e+001 
3081250000  -2.509744e+001  5.885173e+001 
3084375000  -2.435759e+001  5.513813e+001 
3087500000  -2.421838e+001  5.152261e+001 
3090625000  -2.393096e+001  4.197602e+001 
3093750000  -2.432456e+001  3.405833e+001 
3096875000  -2.562133e+001  2.777779e+001 
3100000000  -2.575966e+001  2.618886e+001 
3103125000  -2.613778e+001  2.797484e+001 
3106250000  -2.583173e+001  2.435163e+001 
3109375000  -2.612137e+001  2.071630e+001 
3112500000  -2.625660e+001  1.992486e+001 
3115625000  -2.605914e+001  1.550173e+001 
3118750000  -2.654180e+001  1.709949e+001 
3121875000  -2.586151e+001  9.249310e+000 
3125000000  -2.693835e+001  5.133121e+000 
3128125000  -2.822984e+001  1.339786e+001 
3131250000  -2.609270e+001  1.441671e+001 
3134375000  -2.471380e+001  1.005014e+000 
3137500000  -2.533454e+001  -1.324107e+001 
3140625000  -2.699079e+001  -1.503740e+001 
3143750000  -2.801033e+001  -1.066338e+001 
3146875000  -2.753787e+001  -8.952312e+000 
3150000000  -2.661130e+001  -6.449784e+000 
3153125000  -2.653263e+001  -1.443183e+001 
3156250000  -2.742814e+001  -8.926874e+000 
3159375000  -2.599298e+001  -5.870539e+000 
3162500000  -2.393716e+001  -1.872536e+001 
3165625000  -2.482931e+001  -2.980741e+001 
3168750000  -2.523783e+001  -2.899771e+001 
3171875000  -2.427691e+001  -3.329605e+001 
3175000000  -2.492322e+001  -4.096888e+001 
3178125000  -2.474486e+001  -3.934386e+001 
3181250000  -2.354946e+001  -4.293253e+001 
3184375000  -2.268999e+001  -5.533123e+001 
3187500000  -2.373553e+001  -7.076862e+001 
3190625000  -2.663241e+001  -7.841252e+001 
3193750000  -2.721877e+001  -6.892682e+001 
3196875000  -2.680565e+001  -6.349281e+001 
3200000000  -2.599496e+001  -6.513332e+001 
3203125000  -2.506808e+001  -7.079368e+001 
3206250000  -2.535738e+001  -7.685670e+001 
3209375000  -2.492028e+001  -8.180229e+001 
3212500000  -2.497763e+001  -8.871704e+001 
3215625000  -2.512674e+001  -9.284068e+001 
3218750000  -2.589056e+001  -9.905088e+001 
3221875000  -2.683544e+001  -1.043424e+002 
3225000000  -2.651257e+001  -1.050198e+002 
3228125000  -2.681568e+001  -1.093245e+002 
3231250000  -2.754826e+001  -1.123551e+002 
3234375000  -2.741203e+001  -1.111119e+002 
3237500000  -2.746294e+001  -1.129029e+002 
3240625000  -2.713358e+001  -1.143955e+002 
3243750000  -2.675407e+001  -1.206220e+002 
3246875000  -2.724654e+001  -1.275144e+002 
3250000000  -2.767322e+001  -1.291907e+002 
3253125000  -2.782204e+001  -1.309181e+002 
3256250000  -2.772723e+001  -1.366341e+002 
3259375000  -2.795832e+001  -1.448780e+002 
3262500000  -2.923289e+001  -1.475264e+002 
3265625000  -2.992111e+001  -1.440081e+002 
3268750000  -2.992850e+001  -1.417039e+002 
3271875000  -2.974592e+001  -1.403015e+002 
3275000000  -2.863569e+001  -1.456523e+002 
3278125000  -2.903769e+001  -1.520727e+002 
3281250000  -2.933397e+001  -1.497284e+002 
3284375000  -2.894391e+001  -1.552536e+002 
3287500000  -2.905345e+001  -1.589527e+002 
3290625000  -2.951520e+001  -1.626396e+002 
3293750000  -2.917924e+001  -1.682819e+002 
3296875000  -3.017152e+001  -1.685449e+002 
3300000000  -3.012137e+001  -1.675793e+002 
3303125000  -2.899341e+001  -1.711224e+002 
3306250000  -2.871299e+001  -1.778836e+002 
3309375000  -2.854474e+001  1.772143e+002 
3312500000  -2.855202e+001  1.672149e+002 
3315625000  -2.952905e+001  1.592490e+002 
3318750000  -3.079572e+001  1.566241e+002 
3321875000  -3.203575e+001  1.557615e+002 
3325000000  -3.259053e+001  1.598706e+002 
3328125000  -3.266306e+001  1.625750e+002 
3331250000  -3.135473e+001  1.701341e+002 
3334375000  -2.880161e+001  1.606022e+002 
3337500000  -2.879469e+001  1.425440e+002 
3340625000  -3.009581e+001  1.313977e+002 
3343750000  -3.200541e+001  1.301293e+002 
3346875000  -3.259207e+001  1.310294e+002 
3350000000  -3.202548e+001  1.299909e+002 
3353125000  -3.199146e+001  1.260357e+002 
3356250000  -3.186530e+001  1.187126e+002 
3359375000  -3.259015e+001  1.103049e+002 
3362500000  -3.393616e+001  1.044222e+002 
3365625000  -3.463453e+001  1.026395e+002 
3368750000  -3.548261e+001  1.015404e+002 
3371875000  -3.586981e+001  9.816147e+001 
3375000000  -3.743375e+001  9.602407e+001 
3378125000  -3.857001e+001  9.599997e+001 
3381250000  -4.013809e+001  1.028953e+002 
3384375000  -3.948174e+001  1.232810e+002 
3387500000  -3.620168e+001  1.098064e+002 
3390625000  -3.800474e+001  9.137284e+001 
3393750000  -3.975362e+001  9.527531e+001 
3396875000  -3.897367e+001  9.896558e+001 
3400000000  -3.871918e+001  9.087491e+001 
3403125000  -3.995603e+001  8.672319e+001 
3406250000  -4.069339e+001  9.002106e+001 
3409375000  -4.144575e+001  8.431029e+001 
3412500000  -4.212522e+001  8.667690e+001 
3415625000  -4.295732e+001  9.181032e+001 
3418750000  -4.350017e+001  9.331123e+001 
3421875000  -4.358565e+001  1.001995e+002 
3425000000  -4.317493e+001  1.063287e+002 
3428125000  -4.192147e+001  1.026320e+002 
3431250000  -4.200543e+001  1.018441e+002 
3434375000  -4.146175e+001  9.744367e+001 
3437500000  -4.217801e+001  9.509602e+001 
3440625000  -4.256746e+001  9.920581e+001 
3443750000  -4.138244e+001  1.032489e+002 
3446875000  -4.026897e+001  9.650412e+001 
3450000000  -4.024744e+001  8.719825e+001 
3453125000  -4.065313e+001  7.935968e+001 
3456250000  -4.170397e+001  7.456239e+001 
3459375000  -4.272576e+001  7.628896e+001 
3462500000  -4.287122e+001  7.601272e+001 
3465625000  -4.316779e+001  7.217072e+001 
3468750000  -4.319527e+001  7.009751e+001 
3471875000  -4.371683e+001  7.067232e+001 
3475000000  -4.355840e+001  6.629889e+001 
3478125000  -4.399043e+001  6.360138e+001 
3481250000  -4.496368e+001  6.003522e+001 
3484375000  -4.689065e+001  6.816732e+001 
3487500000  -4.641304e+001  7.043556e+001 
3490625000  -4.591857e+001  6.525759e+001 
3493750000  -4.665563e+001  6.463966e+001 
3496875000  -4.746718e+001  6.385749e+001 
3500000000  -4.900364e+001  7.334055e+001 
3503125000  -4.941592e+001  7.722598e+001 
3506250000  -4.785562e+001  7.858319e+001 
3509375000  -4.758270e+001  8.013408e+001 
3512500000  -4.814480e+001  7.827267e+001 
3515625000  -4.826963e+001  8.162767e+001 
3518750000  -4.876278e+001  8.745961e+001 
3521875000  -4.815542e+001  9.148930e+001 
3525000000  -4.860741e+001  9.539305e+001 
3528125000  -4.800123e+001  1.046284e+002 
3531250000  -4.616339e+001  1.052859e+002 
3534375000  -4.515162e+001  9.604920e+001 
3537500000  -4.505765e+001  9.357423e+001 
3540625000  -4.558803e+001  9.292577e+001 
3543750000  -4.649822e+001  9.826342e+001 
3546875000  -4.574800e+001  1.077365e+002 
3550000000  -4.304127e+001  1.110883e+002 
3553125000  -4.133204e+001  9.465650e+001 
3556250000  -4.236410e+001  8.831087e+001 
3559375000  -4.238845e+001  9.051054e+001 
3562500000  -4.108642e+001  8.213197e+001 
3565625000  -4.215313e+001  7.687804e+001 
3568750000  -4.187262e+001  8.014612e+001 
3571875000  -4.144378e+001  8.084579e+001 
3575000000  -4.106041e+001  7.514196e+001 
3578125000  -4.152887e+001  7.048685e+001 
3581250000  -4.183376e+001  7.154549e+001 
3584375000  -4.075438e+001  6.967580e+001 
3587500000  -3.976967e+001  6.357235e+001 
3590625000  -4.021388e+001  5.437916e+001 
3593750000  -4.145377e+001  5.226152e+001 
3596875000  -4.114571e+001  6.304758e+001 
3600000000  -3.955431e+001  5.811283e+001 
3603125000  -3.986302e+001  4.672348e+001 
3606250000  -4.047381e+001  4.315572e+001 
3609375000  -4.077358e+001  4.406474e+001 
3612500000  -4.131335e+001  4.172744e+001 
3615625000  -4.146735e+001  3.843850e+001 
3618750000  -4.208329e+001  4.125234e+001 
3621875000  -4.160048e+001  3.945230e+001 
3625000000  -4.156757e+001  3.810007e+001 
3628125000  -4.186991e+001  4.010065e+001 
3631250000  -4.122612e+001  3.227586e+001 
3634375000  -4.245023e+001  3.563641e+001 
3637500000  -4.199813e+001  4.232826e+001 
3640625000  -4.106132e+001  4.148368e+001 
3643750000  -4.067144e+001  3.571699e+001 
3646875000  -4.125945e+001  3.031935e+001 
3650000000  -4.173697e+001  3.091982e+001 
3653125000  -4.124392e+001  2.863005e+001 
3656250000  -4.143171e+001  2.952250e+001 
3659375000  -4.193380e+001  3.309132e+001 
3662500000  -4.120725e+001  3.112750e+001 
3665625000  -4.099418e+001  3.168186e+001 
3668750000  -4.042454e+001  3.482030e+001 
3671875000  -3.918626e+001  2.929637e+001 
3675000000  -3.965496e+001  2.395389e+001 
3678125000  -4.028053e+001  2.480612e+001 
3681250000  -3.971451e+001  2.518027e+001 
3684375000  -3.957404e+001  2.276462e+001 
3687500000  -3.951031e+001  2.227828e+001 
3690625000  -3.943890e+001  1.924770e+001 
3693750000  -4.006902e+001  2.186133e+001 
3696875000  -3.973960e+001  2.477870e+001 
3700000000  -3.881018e+001  2.372770e+001 
3703125000  -3.858567e+001  2.012435e+001 
3706250000  -3.936988e+001  2.050598e+001 
3709375000  -3.869717e+001  2.465915e+001 
3712500000  -3.734456e+001  2.397963e+001 
3715625000  -3.633533e+001  1.881926e+001 
3718750000  -3.549147e+001  1.554135e+001 
3721875000  -3.525963e+001  9.743051e+000 
3725000000  -3.511222e+001  5.472729e+000 
3728125000  -3.536171e+001  3.843286e+000 
3731250000  -3.461826e+001  4.107583e+000 
3734375000  -3.367197e+001  -2.082516e+000 
3737500000  -3.409837e+001  -8.918775e+000 
3740625000  -3.488313e+001  -1.243447e+001 
3743750000  -3.462132e+001  -1.424238e+001 
3746875000  -3.445240e+001  -1.759895e+001 
3750000000  -3.483365e+001  -1.834812e+001 
3753125000  -3.450995e+001  -1.871309e+001 
3756250000  -3.434928e+001  -1.935795e+001 
3759375000  -3.425304e+001  -1.994982e+001 
3762500000  -3.349885e+001  -2.416234e+001 
3765625000  -3.406366e+001  -2.657146e+001 
3768750000  -3.404441e+001  -2.501712e+001 
3771875000  -3.253352e+001  -2.735174e+001 
3775000000  -3.224401e+001  -3.560727e+001 
3778125000  -3.257066e+001  -3.619258e+001 
3781250000  -3.224055e+001  -3.950660e+001 
3784375000  -3.221258e+001  -4.103402e+001 
3787500000  -3.164300e+001  -4.453616e+001 
3790625000  -3.210624e+001  -5.068520e+001 
3793750000  -3.236122e+001  -5.067897e+001 
3796875000  -3.146114e+001  -5.166188e+001 
3800000000  -2.992269e+001  -5.602281e+001 
3803125000  -3.064253e+001  -6.275361e+001 
3806250000  -3.123406e+001  -6.543047e+001 
3809375000  -3.102389e+001  -6.629675e+001 
3812500000  -3.034937e+001  -7.077069e+001 
3815625000  -3.089609e+001  -7.839203e+001 
3818750000  -3.183611e+001  -7.984473e+001 
3821875000  -3.200647e+001  -7.157452e+001 
3825000000  -3.009278e+001  -6.654802e+001 
3828125000  -2.865860e+001  -8.012648e+001 
3831250000  -2.915508e+001  -9.406812e+001 
3834375000  -3.042955e+001  -9.558943e+001 
3837500000  -3.136472e+001  -9.049644e+001 
3840625000  -3.032168e+001  -9.187921e+001 
3843750000  -2.921049e+001  -1.017168e+002 
3846875000  -2.972921e+001  -1.093131e+002 
3850000000  -3.098331e+001  -1.031125e+002 
3853125000  -3.018123e+001  -1.006992e+002 
3856250000  -3.030269e+001  -1.052667e+002 
3859375000  -2.967272e+001  -1.097311e+002 
3862500000  -2.915491e+001  -1.165561e+002 
3865625000  -2.945152e+001  -1.212963e+002 
3868750000  -2.935865e+001  -1.219760e+002 
3871875000  -2.874574e+001  -1.247428e+002 
3875000000  -2.879287e+001  -1.330152e+002 
3878125000  -2.986453e+001  -1.355716e+002 
3881250000  -2.991900e+001  -1.324212e+002 
3884375000  -2.936801e+001  -1.369097e+002 
3887500000  -2.950515e+001  -1.410450e+002 
3890625000  -2.996903e+001  -1.436107e+002 
3893750000  -3.044725e+001  -1.449950e+002 
3896875000  -3.054169e+001  -1.446079e+002 
3900000000  -3.062782e+001  -1.453250e+002 
3903125000  -3.043101e+001  -1.473637e+002 
3906250000  -3.012995e+001  -1.481672e+002 
3909375000  -2.943909e+001  -1.503360e+002 
3912500000  -2.943026e+001  -1.582427e+002 
3915625000  -3.063153e+001  -1.574939e+002 
3918750000  -3.067565e+001  -1.557812e+002 
3921875000  -3.029006e+001  -1.569696e+002 
3925000000  -2.954318e+001  -1.573605e+002 
3928125000  -2.882339e+001  -1.635566e+002 
3931250000  -2.916460e+001  -1.669105e+002 
3934375000  -2.941700e+001  -1.668845e+002 
3937500000  -2.953088e+001  -1.681745e+002 
3940625000  -3.003767e+001  -1.678694e+002 
3943750000  -2.919295e+001  -1.661835e+002 
3946875000  -2.784835e+001  -1.713748e+002 
3950000000  -2.831755e+001  -1.787021e+002 
3953125000  -2.911960e+001  -1.784372e+002 
3956250000  -2.842199e+001  -1.760317e+002 
3959375000  -2.707029e+001  -1.795745e+002 
3962500000  -2.651569e+001  1.769914e+002 
3965625000  -2.618250e+001  1.682046e+002 
3968750000  -2.703095e+001  1.611911e+002 
3971875000  -2.746150e+001  1.599044e+002 
3975000000  -2.685980e+001  1.573754e+002 
3978125000  -2.665755e+001  1.564165e+002 
3981250000  -2.635053e+001  1.523135e+002 
3984375000  -2.659521e+001  1.459814e+002 
3987500000  -2.706645e+001  1.435004e+002 
3990625000  -2.709556e+001  1.425956e+002 
3993750000  -2.723088e+001  1.394310e+002 
3996875000  -2.726056e+001  1.372717e+002 
4000000000  -2.738375e+001  1.350317e+002 
4003125000  -2.791106e+001  1.371553e+002 
4006250000  -2.662148e+001  1.380194e+002 
4009375000  -2.539508e+001  1.262974e+002 
4012500000  -2.625731e+001  1.185672e+002 
4015625000  -2.750949e+001  1.189943e+002 
4018750000  -2.774296e+001  1.212505e+002 
4021875000  -2.708776e+001  1.197233e+002 
4025000000  -2.666883e+001  1.150667e+002 
4028125000  -2.665688e+001  1.106661e+002 
4031250000  -2.698768e+001  1.075074e+002 
4034375000  -2.732401e+001  1.072189e+002 
4037500000  -2.682304e+001  1.090704e+002 
4040625000  -2.676254e+001  1.052909e+002 
4043750000  -2.707380e+001  1.056190e+002 
4046875000  -2.657425e+001  1.054173e+002 
4050000000  -2.607775e+001  9.901842e+001 
4053125000  -2.646048e+001  9.622152e+001 
4056250000  -2.720101e+001  1.006018e+002 
4059375000  -2.611631e+001  1.023770e+002 
4062500000  -2.470564e+001  9.848344e+001 
4065625000  -2.451895e+001  9.393302e+001 
4068750000  -2.422897e+001  8.981539e+001 
4071875000  -2.351774e+001  8.180434e+001 
4075000000  -2.387637e+001  7.519229e+001 
4078125000  -2.437082e+001  7.410489e+001 
4081250000  -2.392902e+001  7.168858e+001 
4084375000  -2.349586e+001  6.507879e+001 
4087500000  -2.380123e+001  5.882316e+001 
4090625000  -2.438536e+001  5.702100e+001 
4093750000  -2.432306e+001  5.787568e+001 
4096875000  -2.387507e+001  5.256832e+001 
4100000000  -2.447012e+001  4.580411e+001 
4103125000  -2.529163e+001  4.569952e+001 
4106250000  -2.519437e+001  5.043819e+001 
4109375000  -2.436230e+001  4.996754e+001 
4112500000  -2.378935e+001  4.341903e+001 
4115625000  -2.403395e+001  3.896704e+001 
4118750000  -2.423258e+001  3.607652e+001 
4121875000  -2.387496e+001  3.157804e+001 
4125000000  -2.417799e+001  2.676899e+001 
4128125000  -2.519061e+001  2.663934e+001 
4131250000  -2.488631e+001  3.498046e+001 
4134375000  -2.254733e+001  3.070157e+001 
4137500000  -2.227088e+001  1.194234e+001 
4140625000  -2.435658e+001  4.297142e+000 
4143750000  -2.573810e+001  9.316611e+000 
4146875000  -2.536051e+001  1.658753e+001 
4150000000  -2.443453e+001  1.325374e+001 
4153125000  -2.424852e+001  6.839958e+000 
4156250000  -2.504113e+001  3.822087e+000 
4159375000  -2.542890e+001  7.970627e+000 
4162500000  -2.428958e+001  1.238131e+001 
4165625000  -2.318716e+001  8.879685e+000 
4168750000  -2.252591e+001  1.656243e+000 
4171875000  -2.247440e+001  -7.292080e+000 
4175000000  -2.300711e+001  -1.337920e+001 
4178125000  -2.364073e+001  -1.377299e+001 
4181250000  -2.356847e+001  -1.456248e+001 
4184375000  -2.334597e+001  -1.758122e+001 
4187500000  -2.340026e+001  -2.033187e+001 
4190625000  -2.327196e+001  -2.584575e+001 
4193750000  -2.396252e+001  -2.971203e+001 
4196875000  -2.469411e+001  -2.999204e+001 
4200000000  -2.547191e+001  -2.795390e+001 
4203125000  -2.562560e+001  -1.548139e+001 
4206250000  -2.240305e+001  -1.287595e+001 
4209375000  -2.115521e+001  -3.340613e+001 
4212500000  -2.299392e+001  -4.202800e+001 
4215625000  -2.405906e+001  -3.577749e+001 
4218750000  -2.264996e+001  -2.887956e+001 
4221875000  -2.029877e+001  -3.825008e+001 
4225000000  -2.144691e+001  -5.158883e+001 
4228125000  -2.227099e+001  -4.691676e+001 
4231250000  -2.081100e+001  -5.012650e+001 
4234375000  -2.064090e+001  -5.834756e+001 
4237500000  -2.025090e+001  -6.199005e+001 
4240625000  -2.030193e+001  -7.027448e+001 
4243750000  -2.129859e+001  -7.657977e+001 
4246875000  -2.208274e+001  -7.680386e+001 
4250000000  -2.212057e+001  -7.415678e+001 
4253125000  -2.153124e+001  -7.627349e+001 
4256250000  -2.178526e+001  -8.036623e+001 
4259375000  -2.156137e+001  -8.264201e+001 
4262500000  -2.158198e+001  -8.657540e+001 
4265625000  -2.175145e+001  -8.619637e+001 
4268750000  -2.099685e+001  -8.964790e+001 
4271875000  -2.067355e+001  -9.509011e+001 
4275000000  -1.997742e+001  -1.014599e+002 
4278125000  -2.050082e+001  -1.134619e+002 
4281250000  -2.221178e+001  -1.156971e+002 
4284375000  -2.209481e+001  -1.154625e+002 
4287500000  -2.286285e+001  -1.190896e+002 
4290625000  -2.423251e+001  -1.097404e+002 
4293750000  -2.231630e+001  -1.034734e+002 
4296875000  -2.091180e+001  -1.144852e+002 
4300000000  -2.168015e+001  -1.235674e+002 
4303125000  -2.272005e+001  -1.229175e+002 
4306250000  -2.222288e+001  -1.173443e+002 
4309375000  -2.079066e+001  -1.194866e+002 
4312500000  -2.070857e+001  -1.277687e+002 
4315625000  -2.098825e+001  -1.336168e+002 
4318750000  -2.127712e+001  -1.369971e+002 
4321875000  -2.142857e+001  -1.364828e+002 
4325000000  -2.081254e+001  -1.363105e+002 
4328125000  -2.035787e+001  -1.426223e+002 
4331250000  -2.037005e+001  -1.503973e+002 
4334375000  -2.076773e+001  -1.552233e+002 
4337500000  -2.149584e+001  -1.578001e+002 
4340625000  -2.201458e+001  -1.547261e+002 
4343750000  -2.152557e+001  -1.543483e+002 
4346875000  -2.117028e+001  -1.593204e+002 
4350000000  -2.100124e+001  -1.638395e+002 
4353125000  -2.103276e+001  -1.721752e+002 
4356250000  -2.266657e+001  -1.741202e+002 
4359375000  -2.340554e+001  -1.616622e+002 
4362500000  -2.099780e+001  -1.585712e+002 
4365625000  -1.936168e+001  -1.697718e+002 
4368750000  -1.999771e+001  1.783873e+002 
4371875000  -2.113751e+001  1.786443e+002 
4375000000  -2.082021e+001  1.797292e+002 
4378125000  -2.028274e+001  1.742622e+002 
4381250000  -2.035245e+001  1.689147e+002 
4384375000  -2.017502e+001  1.643540e+002 
4387500000  -2.076516e+001  1.582018e+002 
4390625000  -2.181636e+001  1.585065e+002 
4393750000  -2.130865e+001  1.608793e+002 
4396875000  -2.060586e+001  1.587164e+002 
4400000000  -2.013076e+001  1.521262e+002 
4403125000  -2.061404e+001  1.444917e+002 
4406250000  -2.148211e+001  1.429064e+002 
4409375000  -2.142469e+001  1.406924e+002 
4412500000  -2.230300e+001  1.375223e+002 
4415625000  -2.285914e+001  1.419162e+002 
4418750000  -2.185048e+001  1.469998e+002 
