!Agilent Technologies,E8363B,MY43030201,A.06.04.32
!Agilent E8363B: A.06.04.32
!Date: Tuesday, November 11, 2014 20:58:36
!Correction: S21(Response(S21)) 
!S1P File: Measurement: S21:
# Hz S  dB   R 50
3000000000  -2.649151e+001  1.463934e+002 
3003125000  -2.793409e+001  1.417926e+002 
3006250000  -2.795544e+001  1.393615e+002 
3009375000  -2.831924e+001  1.443735e+002 
3012500000  -2.771749e+001  1.433704e+002 
3015625000  -2.685444e+001  1.366131e+002 
3018750000  -2.771047e+001  1.359171e+002 
3021875000  -2.638868e+001  1.374923e+002 
3025000000  -2.505214e+001  1.341783e+002 
3028125000  -2.411424e+001  1.287540e+002 
3031250000  -2.306812e+001  1.175446e+002 
3034375000  -2.273685e+001  1.044892e+002 
3037500000  -2.312097e+001  9.261775e+001 
3040625000  -2.446554e+001  8.780595e+001 
3043750000  -2.516977e+001  8.341337e+001 
3046875000  -2.529766e+001  7.708910e+001 
3050000000  -2.703063e+001  7.048071e+001 
3053125000  -2.707820e+001  7.700283e+001 
3056250000  -2.645399e+001  7.995924e+001 
3059375000  -2.669367e+001  7.938576e+001 
3062500000  -2.517997e+001  7.541978e+001 
3065625000  -2.493923e+001  6.984822e+001 
3068750000  -2.465658e+001  6.286169e+001 
3071875000  -2.464087e+001  5.994917e+001 
3075000000  -2.456400e+001  5.616454e+001 
3078125000  -2.432316e+001  5.160683e+001 
3081250000  -2.493943e+001  4.721168e+001 
3084375000  -2.417424e+001  4.351465e+001 
3087500000  -2.411750e+001  3.990184e+001 
3090625000  -2.377691e+001  3.011685e+001 
3093750000  -2.429967e+001  2.239035e+001 
3096875000  -2.558019e+001  1.631188e+001 
3100000000  -2.563880e+001  1.494588e+001 
3103125000  -2.605031e+001  1.619086e+001 
3106250000  -2.576624e+001  1.275242e+001 
3109375000  -2.601681e+001  9.428720e+000 
3112500000  -2.612626e+001  7.838290e+000 
3115625000  -2.593417e+001  4.150608e+000 
3118750000  -2.640687e+001  5.410244e+000 
3121875000  -2.573849e+001  -2.911797e+000 
3125000000  -2.699903e+001  -6.285538e+000 
3128125000  -2.814894e+001  2.116973e+000 
3131250000  -2.588691e+001  2.360324e+000 
3134375000  -2.459235e+001  -1.167651e+001 
3137500000  -2.531456e+001  -2.507265e+001 
3140625000  -2.688622e+001  -2.639703e+001 
3143750000  -2.791565e+001  -2.255010e+001 
3146875000  -2.744884e+001  -2.055034e+001 
3150000000  -2.645180e+001  -1.815305e+001 
3153125000  -2.652431e+001  -2.630642e+001 
3156250000  -2.748905e+001  -2.037225e+001 
3159375000  -2.586354e+001  -1.774948e+001 
3162500000  -2.381477e+001  -3.075813e+001 
3165625000  -2.478239e+001  -4.187378e+001 
3168750000  -2.517324e+001  -4.037994e+001 
3171875000  -2.421574e+001  -4.492218e+001 
3175000000  -2.487560e+001  -5.267511e+001 
3178125000  -2.461687e+001  -5.089540e+001 
3181250000  -2.347879e+001  -5.530920e+001 
3184375000  -2.272874e+001  -6.757663e+001 
3187500000  -2.388480e+001  -8.243873e+001 
3190625000  -2.662524e+001  -8.948496e+001 
3193750000  -2.714216e+001  -8.004169e+001 
3196875000  -2.675044e+001  -7.492862e+001 
3200000000  -2.579058e+001  -7.670990e+001 
3203125000  -2.500737e+001  -8.253899e+001 
3206250000  -2.535163e+001  -8.868985e+001 
3209375000  -2.483047e+001  -9.385635e+001 
3212500000  -2.495580e+001  -1.004349e+002 
3215625000  -2.513188e+001  -1.042582e+002 
3218750000  -2.586557e+001  -1.111352e+002 
3221875000  -2.681618e+001  -1.157230e+002 
3225000000  -2.642259e+001  -1.165910e+002 
3228125000  -2.677650e+001  -1.213687e+002 
3231250000  -2.751614e+001  -1.234231e+002 
3234375000  -2.734308e+001  -1.226766e+002 
3237500000  -2.735718e+001  -1.242821e+002 
3240625000  -2.703721e+001  -1.260228e+002 
3243750000  -2.672021e+001  -1.327751e+002 
3246875000  -2.716788e+001  -1.393686e+002 
3250000000  -2.761165e+001  -1.411993e+002 
3253125000  -2.778227e+001  -1.426975e+002 
3256250000  -2.766480e+001  -1.487130e+002 
3259375000  -2.798473e+001  -1.562387e+002 
3262500000  -2.924112e+001  -1.592506e+002 
3265625000  -2.988949e+001  -1.554954e+002 
3268750000  -2.988298e+001  -1.527087e+002 
3271875000  -2.963470e+001  -1.519434e+002 
3275000000  -2.851634e+001  -1.570370e+002 
3278125000  -2.902945e+001  -1.634993e+002 
3281250000  -2.936627e+001  -1.612194e+002 
3284375000  -2.890790e+001  -1.671654e+002 
3287500000  -2.901604e+001  -1.701845e+002 
3290625000  -2.946444e+001  -1.747600e+002 
3293750000  -2.912732e+001  -1.799392e+002 
3296875000  -3.017508e+001  -1.797502e+002 
3300000000  -3.000240e+001  -1.785187e+002 
3303125000  -2.891368e+001  1.771490e+002 
3306250000  -2.868263e+001  1.706213e+002 
3309375000  -2.839247e+001  1.654988e+002 
3312500000  -2.849791e+001  1.547282e+002 
3315625000  -2.952580e+001  1.471968e+002 
3318750000  -3.092612e+001  1.450204e+002 
3321875000  -3.207370e+001  1.449170e+002 
3325000000  -3.256544e+001  1.511096e+002 
3328125000  -3.237044e+001  1.517383e+002 
3331250000  -3.116831e+001  1.588947e+002 
3334375000  -2.855724e+001  1.495361e+002 
3337500000  -2.867974e+001  1.307061e+002 
3340625000  -3.012952e+001  1.198188e+002 
3343750000  -3.208873e+001  1.185606e+002 
3346875000  -3.242867e+001  1.206638e+002 
3350000000  -3.176278e+001  1.187732e+002 
3353125000  -3.184239e+001  1.148181e+002 
3356250000  -3.165725e+001  1.072397e+002 
3359375000  -3.260324e+001  9.831144e+001 
3362500000  -3.381552e+001  9.314327e+001 
3365625000  -3.455170e+001  9.158979e+001 
3368750000  -3.538021e+001  9.046326e+001 
3371875000  -3.576688e+001  8.643147e+001 
3375000000  -3.736330e+001  8.581564e+001 
3378125000  -3.841287e+001  8.400045e+001 
3381250000  -3.987002e+001  9.318791e+001 
3384375000  -3.913888e+001  1.158239e+002 
3387500000  -3.587519e+001  1.008344e+002 
3390625000  -3.782176e+001  8.080896e+001 
3393750000  -3.959924e+001  8.445927e+001 
3396875000  -3.874100e+001  8.843411e+001 
3400000000  -3.856219e+001  8.053542e+001 
3403125000  -3.961258e+001  7.661405e+001 
3406250000  -4.028897e+001  7.954214e+001 
3409375000  -4.121545e+001  7.555902e+001 
3412500000  -4.206639e+001  7.639883e+001 
3415625000  -4.254301e+001  8.080294e+001 
3418750000  -4.333731e+001  8.436692e+001 
3421875000  -4.330380e+001  9.161696e+001 
3425000000  -4.246495e+001  9.490923e+001 
3428125000  -4.144402e+001  9.398783e+001 
3431250000  -4.148170e+001  8.963904e+001 
3434375000  -4.119950e+001  8.630337e+001 
3437500000  -4.164311e+001  8.438365e+001 
3440625000  -4.171726e+001  8.740894e+001 
3443750000  -4.050819e+001  9.148333e+001 
3446875000  -3.981211e+001  8.472675e+001 
3450000000  -3.951132e+001  7.638892e+001 
3453125000  -3.995528e+001  6.722797e+001 
3456250000  -4.105996e+001  6.268029e+001 
3459375000  -4.195573e+001  6.480472e+001 
3462500000  -4.217863e+001  6.469439e+001 
3465625000  -4.207776e+001  6.239141e+001 
3468750000  -4.259842e+001  5.897412e+001 
3471875000  -4.275357e+001  5.769979e+001 
3475000000  -4.257944e+001  5.426213e+001 
3478125000  -4.346112e+001  4.998170e+001 
3481250000  -4.428378e+001  4.964708e+001 
3484375000  -4.600981e+001  5.411853e+001 
3487500000  -4.510896e+001  5.619217e+001 
3490625000  -4.471200e+001  5.320963e+001 
3493750000  -4.597336e+001  4.981485e+001 
3496875000  -4.707389e+001  5.064730e+001 
3500000000  -4.823755e+001  6.115015e+001 
3503125000  -4.801481e+001  6.843310e+001 
3506250000  -4.658230e+001  6.322869e+001 
3509375000  -4.664207e+001  6.260936e+001 
3512500000  -4.734766e+001  6.201101e+001 
3515625000  -4.754117e+001  5.989088e+001 
3518750000  -4.787041e+001  7.050190e+001 
3521875000  -4.790378e+001  7.160235e+001 
3525000000  -4.834850e+001  7.346988e+001 
3528125000  -4.746320e+001  8.567754e+001 
3531250000  -4.558195e+001  8.668422e+001 
3534375000  -4.487948e+001  7.826384e+001 
3537500000  -4.506124e+001  7.497678e+001 
3540625000  -4.501817e+001  7.591035e+001 
3543750000  -4.601462e+001  7.929045e+001 
3546875000  -4.541255e+001  9.013025e+001 
3550000000  -4.268528e+001  9.167947e+001 
3553125000  -4.147210e+001  7.665813e+001 
3556250000  -4.219662e+001  7.149737e+001 
3559375000  -4.200839e+001  7.298194e+001 
3562500000  -4.070195e+001  6.352827e+001 
3565625000  -4.163387e+001  5.988568e+001 
3568750000  -4.177605e+001  6.253424e+001 
3571875000  -4.154150e+001  6.387223e+001 
3575000000  -4.087479e+001  5.747760e+001 
3578125000  -4.133030e+001  5.205764e+001 
3581250000  -4.154500e+001  5.379973e+001 
3584375000  -4.065156e+001  5.215801e+001 
3587500000  -3.992175e+001  4.682365e+001 
3590625000  -4.017138e+001  3.980850e+001 
3593750000  -4.138592e+001  3.888997e+001 
3596875000  -4.143634e+001  4.620475e+001 
3600000000  -3.971318e+001  4.313361e+001 
3603125000  -3.984003e+001  3.034321e+001 
3606250000  -4.050119e+001  2.671495e+001 
3609375000  -4.104233e+001  2.596229e+001 
3612500000  -4.128941e+001  2.649865e+001 
3615625000  -4.150642e+001  2.198496e+001 
3618750000  -4.206179e+001  2.275538e+001 
3621875000  -4.123390e+001  2.311216e+001 
3625000000  -4.159299e+001  2.216654e+001 
3628125000  -4.151427e+001  2.312511e+001 
3631250000  -4.123534e+001  1.729386e+001 
3634375000  -4.241679e+001  1.970902e+001 
3637500000  -4.188957e+001  2.614887e+001 
3640625000  -4.084871e+001  2.620045e+001 
3643750000  -4.053512e+001  1.992325e+001 
3646875000  -4.106636e+001  1.468604e+001 
3650000000  -4.143190e+001  1.350268e+001 
3653125000  -4.133928e+001  1.288313e+001 
3656250000  -4.140619e+001  1.329087e+001 
3659375000  -4.193246e+001  1.559879e+001 
3662500000  -4.135104e+001  1.379184e+001 
3665625000  -4.139223e+001  1.384694e+001 
3668750000  -4.038900e+001  1.674109e+001 
3671875000  -3.933250e+001  1.257259e+001 
3675000000  -3.970118e+001  5.287436e+000 
3678125000  -4.047403e+001  7.426918e+000 
3681250000  -3.967940e+001  8.332783e+000 
3684375000  -3.958371e+001  5.225747e+000 
3687500000  -3.981384e+001  4.527877e+000 
3690625000  -3.963849e+001  2.282127e+000 
3693750000  -4.007656e+001  4.860595e+000 
3696875000  -4.003304e+001  8.206419e+000 
3700000000  -3.888132e+001  5.969378e+000 
3703125000  -3.880228e+001  3.366116e+000 
3706250000  -3.950940e+001  4.489696e+000 
3709375000  -3.877658e+001  8.255655e+000 
3712500000  -3.757256e+001  5.780508e+000 
3715625000  -3.640109e+001  1.166361e+000 
3718750000  -3.567814e+001  -1.972333e-001 
3721875000  -3.523793e+001  -6.814107e+000 
3725000000  -3.526626e+001  -1.096207e+001 
3728125000  -3.549269e+001  -1.092672e+001 
3731250000  -3.472084e+001  -1.175550e+001 
3734375000  -3.381223e+001  -1.829558e+001 
3737500000  -3.429418e+001  -2.503131e+001 
3740625000  -3.492686e+001  -2.877834e+001 
3743750000  -3.457736e+001  -2.946371e+001 
3746875000  -3.450060e+001  -3.416504e+001 
3750000000  -3.504851e+001  -3.506984e+001 
3753125000  -3.461467e+001  -3.501442e+001 
3756250000  -3.454147e+001  -3.583194e+001 
3759375000  -3.426004e+001  -3.637864e+001 
3762500000  -3.388269e+001  -4.070583e+001 
3765625000  -3.421498e+001  -4.335937e+001 
3768750000  -3.438955e+001  -4.122217e+001 
3771875000  -3.243331e+001  -4.347703e+001 
3775000000  -3.227092e+001  -5.127690e+001 
3778125000  -3.250723e+001  -5.287548e+001 
3781250000  -3.238538e+001  -5.543332e+001 
3784375000  -3.241703e+001  -5.743608e+001 
3787500000  -3.165736e+001  -6.162584e+001 
3790625000  -3.226765e+001  -6.775699e+001 
3793750000  -3.241410e+001  -6.822061e+001 
3796875000  -3.148308e+001  -6.849084e+001 
3800000000  -2.990864e+001  -7.221847e+001 
3803125000  -3.068760e+001  -7.962740e+001 
3806250000  -3.140952e+001  -8.141709e+001 
3809375000  -3.109260e+001  -8.260586e+001 
3812500000  -3.042064e+001  -8.836401e+001 
3815625000  -3.111403e+001  -9.560171e+001 
3818750000  -3.212594e+001  -9.638895e+001 
3821875000  -3.210450e+001  -8.847522e+001 
3825000000  -3.021763e+001  -8.347654e+001 
3828125000  -2.876957e+001  -9.808420e+001 
3831250000  -2.935817e+001  -1.117744e+002 
3834375000  -3.081676e+001  -1.123146e+002 
3837500000  -3.160135e+001  -1.078373e+002 
3840625000  -3.050411e+001  -1.089464e+002 
3843750000  -2.934209e+001  -1.184403e+002 
3846875000  -3.006993e+001  -1.257873e+002 
3850000000  -3.139415e+001  -1.196960e+002 
3853125000  -3.043882e+001  -1.177587e+002 
3856250000  -3.043566e+001  -1.218563e+002 
3859375000  -2.970713e+001  -1.270645e+002 
3862500000  -2.927796e+001  -1.342792e+002 
3865625000  -2.952182e+001  -1.390988e+002 
3868750000  -2.958752e+001  -1.397471e+002 
3871875000  -2.882917e+001  -1.421120e+002 
3875000000  -2.901980e+001  -1.510247e+002 
3878125000  -3.006344e+001  -1.534498e+002 
3881250000  -3.007655e+001  -1.503320e+002 
3884375000  -2.955358e+001  -1.548256e+002 
3887500000  -2.975463e+001  -1.593636e+002 
3890625000  -3.022211e+001  -1.616893e+002 
3893750000  -3.065179e+001  -1.626440e+002 
3896875000  -3.076080e+001  -1.624007e+002 
3900000000  -3.100345e+001  -1.634115e+002 
3903125000  -3.067479e+001  -1.646858e+002 
3906250000  -3.037296e+001  -1.660070e+002 
3909375000  -2.966378e+001  -1.685366e+002 
3912500000  -2.977394e+001  -1.762984e+002 
3915625000  -3.098830e+001  -1.752587e+002 
3918750000  -3.096027e+001  -1.736497e+002 
3921875000  -3.057109e+001  -1.751499e+002 
3925000000  -2.976984e+001  -1.761643e+002 
3928125000  -2.905445e+001  1.785755e+002 
3931250000  -2.954561e+001  1.743291e+002 
3934375000  -2.986521e+001  1.745410e+002 
3937500000  -3.002006e+001  1.739816e+002 
3940625000  -3.046098e+001  1.739663e+002 
3943750000  -2.947934e+001  1.754701e+002 
3946875000  -2.826118e+001  1.701051e+002 
3950000000  -2.880584e+001  1.625948e+002 
3953125000  -2.973255e+001  1.630818e+002 
3956250000  -2.879734e+001  1.667049e+002 
3959375000  -2.753667e+001  1.628530e+002 
3962500000  -2.702445e+001  1.586592e+002 
3965625000  -2.667198e+001  1.501476e+002 
3968750000  -2.754509e+001  1.436189e+002 
3971875000  -2.788252e+001  1.420836e+002 
3975000000  -2.721025e+001  1.405588e+002 
3978125000  -2.706136e+001  1.386265e+002 
3981250000  -2.687066e+001  1.341951e+002 
3984375000  -2.703324e+001  1.280300e+002 
3987500000  -2.766050e+001  1.261461e+002 
3990625000  -2.770156e+001  1.253913e+002 
3993750000  -2.778252e+001  1.223336e+002 
3996875000  -2.780501e+001  1.196232e+002 
4000000000  -2.788639e+001  1.175343e+002 
4003125000  -2.845816e+001  1.200188e+002 
4006250000  -2.704352e+001  1.201651e+002 
4009375000  -2.577762e+001  1.074478e+002 
4012500000  -2.697908e+001  1.004926e+002 
4015625000  -2.816587e+001  1.013275e+002 
4018750000  -2.835896e+001  1.038951e+002 
4021875000  -2.764552e+001  1.015235e+002 
4025000000  -2.727095e+001  9.708624e+001 
4028125000  -2.719285e+001  9.302697e+001 
4031250000  -2.774716e+001  8.982803e+001 
4034375000  -2.800158e+001  8.973455e+001 
4037500000  -2.747905e+001  9.143435e+001 
4040625000  -2.738554e+001  8.808030e+001 
4043750000  -2.774921e+001  8.779553e+001 
4046875000  -2.734138e+001  8.724347e+001 
4050000000  -2.682508e+001  8.183327e+001 
4053125000  -2.728702e+001  7.984013e+001 
4056250000  -2.794035e+001  8.405595e+001 
4059375000  -2.661712e+001  8.589826e+001 
4062500000  -2.524761e+001  8.121474e+001 
4065625000  -2.517045e+001  7.644138e+001 
4068750000  -2.490804e+001  7.198709e+001 
4071875000  -2.427880e+001  6.432957e+001 
4075000000  -2.459083e+001  5.778447e+001 
4078125000  -2.515367e+001  5.658363e+001 
4081250000  -2.463613e+001  5.468497e+001 
4084375000  -2.419796e+001  4.792075e+001 
4087500000  -2.461738e+001  4.139787e+001 
4090625000  -2.521663e+001  4.069593e+001 
4093750000  -2.500216e+001  4.150352e+001 
4096875000  -2.458700e+001  3.502295e+001 
4100000000  -2.528566e+001  2.824391e+001 
4103125000  -2.613564e+001  2.955373e+001 
4106250000  -2.598879e+001  3.418712e+001 
4109375000  -2.507531e+001  3.373292e+001 
4112500000  -2.452363e+001  2.654233e+001 
4115625000  -2.487475e+001  2.245865e+001 
4118750000  -2.494023e+001  1.983782e+001 
4121875000  -2.452780e+001  1.513153e+001 
4125000000  -2.492086e+001  9.685767e+000 
4128125000  -2.597631e+001  1.016366e+001 
4131250000  -2.563303e+001  1.816387e+001 
4134375000  -2.326769e+001  1.363734e+001 
4137500000  -2.312478e+001  -5.119556e+000 
4140625000  -2.530675e+001  -1.239918e+001 
4143750000  -2.652593e+001  -7.008216e+000 
4146875000  -2.610662e+001  2.040616e-002 
4150000000  -2.522757e+001  -3.108211e+000 
4153125000  -2.503816e+001  -9.902848e+000 
4156250000  -2.602487e+001  -1.234137e+001 
4159375000  -2.622328e+001  -8.218453e+000 
4162500000  -2.508254e+001  -3.867826e+000 
4165625000  -2.391533e+001  -7.440673e+000 
4168750000  -2.335715e+001  -1.513291e+001 
4171875000  -2.336796e+001  -2.406692e+001 
4175000000  -2.392429e+001  -2.998677e+001 
4178125000  -2.456736e+001  -2.964237e+001 
4181250000  -2.441559e+001  -3.032667e+001 
4184375000  -2.426648e+001  -3.387603e+001 
4187500000  -2.433755e+001  -3.613217e+001 
4190625000  -2.416151e+001  -4.166215e+001 
4193750000  -2.501034e+001  -4.564346e+001 
4196875000  -2.569833e+001  -4.571879e+001 
4200000000  -2.655564e+001  -4.317833e+001 
4203125000  -2.650066e+001  -2.943118e+001 
4206250000  -2.310480e+001  -2.834222e+001 
4209375000  -2.194232e+001  -4.927666e+001 
4212500000  -2.394133e+001  -5.776517e+001 
4215625000  -2.490056e+001  -5.148455e+001 
4218750000  -2.358158e+001  -4.503754e+001 
4221875000  -2.123417e+001  -5.415386e+001 
4225000000  -2.256348e+001  -6.646851e+001 
4228125000  -2.316068e+001  -6.125827e+001 
4231250000  -2.158756e+001  -6.550951e+001 
4234375000  -2.157933e+001  -7.364771e+001 
4237500000  -2.109678e+001  -7.684640e+001 
4240625000  -2.112848e+001  -8.552319e+001 
4243750000  -2.209687e+001  -9.238735e+001 
4246875000  -2.301190e+001  -9.238420e+001 
4250000000  -2.303595e+001  -8.961281e+001 
4253125000  -2.244018e+001  -9.135361e+001 
4256250000  -2.273631e+001  -9.516532e+001 
4259375000  -2.245132e+001  -9.722446e+001 
4262500000  -2.246880e+001  -1.011088e+002 
4265625000  -2.263774e+001  -1.008571e+002 
4268750000  -2.175020e+001  -1.047303e+002 
4271875000  -2.149869e+001  -1.105404e+002 
4275000000  -2.087916e+001  -1.170296e+002 
4278125000  -2.155620e+001  -1.283349e+002 
4281250000  -2.329047e+001  -1.301729e+002 
4284375000  -2.294121e+001  -1.294371e+002 
4287500000  -2.385304e+001  -1.332288e+002 
4290625000  -2.499603e+001  -1.230675e+002 
4293750000  -2.302045e+001  -1.177534e+002 
4296875000  -2.168815e+001  -1.294374e+002 
4300000000  -2.259983e+001  -1.385066e+002 
4303125000  -2.368171e+001  -1.374276e+002 
4306250000  -2.301693e+001  -1.312030e+002 
4309375000  -2.160777e+001  -1.336575e+002 
4312500000  -2.150618e+001  -1.423016e+002 
4315625000  -2.177732e+001  -1.483777e+002 
4318750000  -2.209082e+001  -1.516011e+002 
4321875000  -2.230059e+001  -1.508018e+002 
4325000000  -2.169309e+001  -1.504010e+002 
4328125000  -2.121605e+001  -1.569364e+002 
4331250000  -2.110712e+001  -1.648539e+002 
4334375000  -2.157468e+001  -1.699305e+002 
4337500000  -2.242623e+001  -1.720389e+002 
4340625000  -2.298000e+001  -1.686301e+002 
4343750000  -2.234854e+001  -1.680935e+002 
4346875000  -2.200805e+001  -1.739477e+002 
4350000000  -2.202531e+001  -1.783793e+002 
4353125000  -2.209797e+001  1.737394e+002 
4356250000  -2.389146e+001  1.731044e+002 
4359375000  -2.441403e+001  -1.728546e+002 
4362500000  -2.160457e+001  -1.715784e+002 
4365625000  -2.003087e+001  1.760229e+002 
4368750000  -2.082665e+001  1.648105e+002 
4371875000  -2.200280e+001  1.653905e+002 
4375000000  -2.162035e+001  1.663181e+002 
4378125000  -2.101396e+001  1.606133e+002 
4381250000  -2.118895e+001  1.550079e+002 
4384375000  -2.101026e+001  1.503899e+002 
4387500000  -2.177005e+001  1.450404e+002 
4390625000  -2.273382e+001  1.456044e+002 
4393750000  -2.209041e+001  1.478182e+002 
4396875000  -2.139060e+001  1.454680e+002 
4400000000  -2.086299e+001  1.387423e+002 
4403125000  -2.147375e+001  1.312791e+002 
4406250000  -2.231357e+001  1.296761e+002 
4409375000  -2.226859e+001  1.275854e+002 
4412500000  -2.330567e+001  1.247899e+002 
4415625000  -2.366136e+001  1.298486e+002 
4418750000  -2.240114e+001  1.344158e+002 
