!Agilent Technologies,E8363B,MY43030201,A.06.04.32
!Agilent E8363B: A.06.04.32
!Date: Tuesday, November 11, 2014 20:46:21
!Correction: S21(Response(S21)) 
!S1P File: Measurement: S21:
# Hz S  dB   R 50
3000000000  -2.645699e+001  1.566283e+002 
3003125000  -2.782046e+001  1.522424e+002 
3006250000  -2.793293e+001  1.497419e+002 
3009375000  -2.821836e+001  1.546071e+002 
3012500000  -2.773922e+001  1.544527e+002 
3015625000  -2.678090e+001  1.474168e+002 
3018750000  -2.766697e+001  1.463170e+002 
3021875000  -2.640581e+001  1.478045e+002 
3025000000  -2.510843e+001  1.444371e+002 
3028125000  -2.410484e+001  1.398075e+002 
3031250000  -2.306153e+001  1.289089e+002 
3034375000  -2.274579e+001  1.158408e+002 
3037500000  -2.302753e+001  1.037304e+002 
3040625000  -2.436631e+001  9.873489e+001 
3043750000  -2.511381e+001  9.437468e+001 
3046875000  -2.514435e+001  8.793401e+001 
3050000000  -2.694359e+001  8.076284e+001 
3053125000  -2.712436e+001  8.736487e+001 
3056250000  -2.638499e+001  9.020891e+001 
3059375000  -2.671052e+001  9.024633e+001 
3062500000  -2.516066e+001  8.619221e+001 
3065625000  -2.497718e+001  8.087222e+001 
3068750000  -2.473298e+001  7.363931e+001 
3071875000  -2.465341e+001  7.049786e+001 
3075000000  -2.467483e+001  6.711502e+001 
3078125000  -2.436044e+001  6.252895e+001 
3081250000  -2.497815e+001  5.825927e+001 
3084375000  -2.426550e+001  5.460805e+001 
3087500000  -2.412083e+001  5.106370e+001 
3090625000  -2.384352e+001  4.164915e+001 
3093750000  -2.425186e+001  3.342973e+001 
3096875000  -2.557988e+001  2.718979e+001 
3100000000  -2.569130e+001  2.608457e+001 
3103125000  -2.610290e+001  2.748697e+001 
3106250000  -2.583871e+001  2.393200e+001 
3109375000  -2.605242e+001  2.043794e+001 
3112500000  -2.614535e+001  1.960523e+001 
3115625000  -2.595972e+001  1.530435e+001 
3118750000  -2.647516e+001  1.651136e+001 
3121875000  -2.584094e+001  8.534100e+000 
3125000000  -2.689268e+001  4.811763e+000 
3128125000  -2.817554e+001  1.291360e+001 
3131250000  -2.598594e+001  1.365520e+001 
3134375000  -2.465797e+001  3.974231e-001 
3137500000  -2.531326e+001  -1.388146e+001 
3140625000  -2.692084e+001  -1.553368e+001 
3143750000  -2.796680e+001  -1.100305e+001 
3146875000  -2.751725e+001  -9.243112e+000 
3150000000  -2.649701e+001  -6.879769e+000 
3153125000  -2.652737e+001  -1.480032e+001 
3156250000  -2.744745e+001  -9.637702e+000 
3159375000  -2.596858e+001  -6.273439e+000 
3162500000  -2.390125e+001  -1.903269e+001 
3165625000  -2.478820e+001  -2.993374e+001 
3168750000  -2.520946e+001  -2.948712e+001 
3171875000  -2.428333e+001  -3.329441e+001 
3175000000  -2.490759e+001  -4.130638e+001 
3178125000  -2.473352e+001  -3.942777e+001 
3181250000  -2.352617e+001  -4.336925e+001 
3184375000  -2.269104e+001  -5.564445e+001 
3187500000  -2.376549e+001  -7.105563e+001 
3190625000  -2.661754e+001  -7.900890e+001 
3193750000  -2.721456e+001  -6.917531e+001 
3196875000  -2.679032e+001  -6.344682e+001 
3200000000  -2.596359e+001  -6.532140e+001 
3203125000  -2.507776e+001  -7.100552e+001 
3206250000  -2.534349e+001  -7.718992e+001 
3209375000  -2.487570e+001  -8.222352e+001 
3212500000  -2.499252e+001  -8.873065e+001 
3215625000  -2.511686e+001  -9.347185e+001 
3218750000  -2.594558e+001  -9.956261e+001 
3221875000  -2.689285e+001  -1.045600e+002 
3225000000  -2.652418e+001  -1.050307e+002 
3228125000  -2.680872e+001  -1.098761e+002 
3231250000  -2.757041e+001  -1.126429e+002 
3234375000  -2.749779e+001  -1.118017e+002 
3237500000  -2.751254e+001  -1.128218e+002 
3240625000  -2.717669e+001  -1.147007e+002 
3243750000  -2.677464e+001  -1.211808e+002 
3246875000  -2.728503e+001  -1.278130e+002 
3250000000  -2.771144e+001  -1.294300e+002 
3253125000  -2.793633e+001  -1.313137e+002 
3256250000  -2.774267e+001  -1.369080e+002 
3259375000  -2.812066e+001  -1.449540e+002 
3262500000  -2.934371e+001  -1.476745e+002 
3265625000  -3.004934e+001  -1.446356e+002 
3268750000  -2.999816e+001  -1.421163e+002 
3271875000  -2.977810e+001  -1.405062e+002 
3275000000  -2.869208e+001  -1.455211e+002 
3278125000  -2.914628e+001  -1.520371e+002 
3281250000  -2.947096e+001  -1.503132e+002 
3284375000  -2.905356e+001  -1.557521e+002 
3287500000  -2.925447e+001  -1.584557e+002 
3290625000  -2.956924e+001  -1.629698e+002 
3293750000  -2.930676e+001  -1.683595e+002 
3296875000  -3.026196e+001  -1.684815e+002 
3300000000  -3.019591e+001  -1.674049e+002 
3303125000  -2.906073e+001  -1.712133e+002 
3306250000  -2.879457e+001  -1.780936e+002 
3309375000  -2.860705e+001  1.774829e+002 
3312500000  -2.861186e+001  1.669564e+002 
3315625000  -2.959736e+001  1.588421e+002 
3318750000  -3.094313e+001  1.562811e+002 
3321875000  -3.214958e+001  1.558873e+002 
3325000000  -3.281888e+001  1.602702e+002 
3328125000  -3.263047e+001  1.624730e+002 
3331250000  -3.145382e+001  1.697722e+002 
3334375000  -2.886032e+001  1.609392e+002 
3337500000  -2.899739e+001  1.427670e+002 
3340625000  -3.031395e+001  1.315742e+002 
3343750000  -3.211768e+001  1.298640e+002 
3346875000  -3.280480e+001  1.311728e+002 
3350000000  -3.213201e+001  1.297509e+002 
3353125000  -3.219780e+001  1.262703e+002 
3356250000  -3.201786e+001  1.183722e+002 
3359375000  -3.283555e+001  1.099319e+002 
3362500000  -3.404582e+001  1.041289e+002 
3365625000  -3.472128e+001  1.026991e+002 
3368750000  -3.568055e+001  1.003621e+002 
3371875000  -3.602113e+001  9.712659e+001 
3375000000  -3.772196e+001  9.589038e+001 
3378125000  -3.895064e+001  9.343687e+001 
3381250000  -4.048267e+001  1.033829e+002 
3384375000  -3.952531e+001  1.256640e+002 
3387500000  -3.641770e+001  1.099761e+002 
3390625000  -3.822792e+001  9.093151e+001 
3393750000  -4.008051e+001  9.519798e+001 
3396875000  -3.925884e+001  1.000636e+002 
3400000000  -3.910129e+001  9.263827e+001 
3403125000  -4.028743e+001  8.727419e+001 
3406250000  -4.112885e+001  9.168471e+001 
3409375000  -4.172001e+001  8.696419e+001 
3412500000  -4.254778e+001  8.723642e+001 
3415625000  -4.355338e+001  9.336970e+001 
3418750000  -4.368856e+001  9.943603e+001 
3421875000  -4.383250e+001  1.023428e+002 
3425000000  -4.326835e+001  1.087427e+002 
3428125000  -4.212299e+001  1.071634e+002 
3431250000  -4.204443e+001  1.064007e+002 
3434375000  -4.193505e+001  1.018884e+002 
3437500000  -4.246292e+001  9.944662e+001 
3440625000  -4.260136e+001  1.016670e+002 
3443750000  -4.136773e+001  1.055921e+002 
3446875000  -4.047715e+001  1.010014e+002 
3450000000  -4.039460e+001  9.239189e+001 
3453125000  -4.056596e+001  8.350248e+001 
3456250000  -4.177220e+001  7.793291e+001 
3459375000  -4.267429e+001  8.167667e+001 
3462500000  -4.284694e+001  8.211522e+001 
3465625000  -4.307916e+001  7.632135e+001 
3468750000  -4.308282e+001  7.284665e+001 
3471875000  -4.367418e+001  7.463437e+001 
3475000000  -4.332526e+001  7.267144e+001 
3478125000  -4.384186e+001  6.499385e+001 
3481250000  -4.511225e+001  6.445586e+001 
3484375000  -4.666048e+001  6.999338e+001 
3487500000  -4.656308e+001  7.316316e+001 
3490625000  -4.554592e+001  7.191838e+001 
3493750000  -4.617723e+001  6.782044e+001 
3496875000  -4.708035e+001  7.091978e+001 
3500000000  -4.856369e+001  7.908766e+001 
3503125000  -4.906326e+001  8.177478e+001 
3506250000  -4.706756e+001  8.322148e+001 
3509375000  -4.725530e+001  8.057767e+001 
3512500000  -4.744703e+001  7.921109e+001 
3515625000  -4.742927e+001  8.410690e+001 
3518750000  -4.843717e+001  8.930590e+001 
3521875000  -4.765107e+001  9.458661e+001 
3525000000  -4.798035e+001  9.144730e+001 
3528125000  -4.698664e+001  1.029347e+002 
3531250000  -4.556377e+001  1.035024e+002 
3534375000  -4.488404e+001  9.618174e+001 
3537500000  -4.477198e+001  9.400039e+001 
3540625000  -4.513911e+001  9.380241e+001 
3543750000  -4.538160e+001  9.412918e+001 
3546875000  -4.539871e+001  1.096445e+002 
3550000000  -4.252143e+001  1.107509e+002 
3553125000  -4.114602e+001  9.556192e+001 
3556250000  -4.230121e+001  8.725227e+001 
3559375000  -4.207005e+001  9.113452e+001 
3562500000  -4.082527e+001  8.226605e+001 
3565625000  -4.156006e+001  7.486526e+001 
3568750000  -4.147615e+001  7.835008e+001 
3571875000  -4.145200e+001  7.916527e+001 
3575000000  -4.084464e+001  7.259037e+001 
3578125000  -4.126313e+001  7.021985e+001 
3581250000  -4.147845e+001  6.953143e+001 
3584375000  -4.057755e+001  6.729659e+001 
3587500000  -3.978261e+001  6.266037e+001 
3590625000  -4.005352e+001  5.222851e+001 
3593750000  -4.130214e+001  5.239014e+001 
3596875000  -4.108098e+001  5.955255e+001 
3600000000  -3.942840e+001  5.849882e+001 
3603125000  -3.979968e+001  4.590757e+001 
3606250000  -4.048875e+001  4.115049e+001 
3609375000  -4.084453e+001  3.989874e+001 
3612500000  -4.113799e+001  3.859623e+001 
3615625000  -4.134168e+001  3.640822e+001 
3618750000  -4.194431e+001  3.843349e+001 
3621875000  -4.168960e+001  3.764422e+001 
3625000000  -4.212660e+001  3.518532e+001 
3628125000  -4.169535e+001  3.588354e+001 
3631250000  -4.120720e+001  3.233480e+001 
3634375000  -4.272555e+001  3.383530e+001 
3637500000  -4.220623e+001  3.809903e+001 
3640625000  -4.126028e+001  4.130318e+001 
3643750000  -4.066819e+001  3.380293e+001 
3646875000  -4.135864e+001  2.942709e+001 
3650000000  -4.188739e+001  2.949284e+001 
3653125000  -4.156269e+001  2.877501e+001 
3656250000  -4.178262e+001  2.849732e+001 
3659375000  -4.216330e+001  3.160263e+001 
3662500000  -4.132096e+001  2.983476e+001 
3665625000  -4.134503e+001  3.018404e+001 
3668750000  -4.040680e+001  3.247672e+001 
3671875000  -3.937749e+001  2.716308e+001 
3675000000  -3.995955e+001  2.276745e+001 
3678125000  -4.021264e+001  2.549584e+001 
3681250000  -3.980304e+001  2.449670e+001 
3684375000  -3.969605e+001  2.268396e+001 
3687500000  -3.980175e+001  2.247772e+001 
3690625000  -3.950656e+001  1.941821e+001 
3693750000  -4.017253e+001  2.062279e+001 
3696875000  -4.010977e+001  2.226961e+001 
3700000000  -3.883095e+001  2.182463e+001 
3703125000  -3.872843e+001  1.694563e+001 
3706250000  -3.938762e+001  2.056457e+001 
3709375000  -3.861232e+001  2.285037e+001 
3712500000  -3.736087e+001  2.247929e+001 
3715625000  -3.651320e+001  1.759841e+001 
3718750000  -3.582827e+001  1.455194e+001 
3721875000  -3.522197e+001  9.315002e+000 
3725000000  -3.529041e+001  4.611504e+000 
3728125000  -3.541909e+001  4.027670e+000 
3731250000  -3.464168e+001  2.918765e+000 
3734375000  -3.385398e+001  -2.753142e+000 
3737500000  -3.427237e+001  -9.446844e+000 
3740625000  -3.503896e+001  -1.288220e+001 
3743750000  -3.470539e+001  -1.407256e+001 
3746875000  -3.476308e+001  -1.882485e+001 
3750000000  -3.516376e+001  -1.914545e+001 
3753125000  -3.467281e+001  -1.860337e+001 
3756250000  -3.445234e+001  -2.015545e+001 
3759375000  -3.428534e+001  -2.024092e+001 
3762500000  -3.382457e+001  -2.487944e+001 
3765625000  -3.421321e+001  -2.742048e+001 
3768750000  -3.440399e+001  -2.516818e+001 
3771875000  -3.263492e+001  -2.648916e+001 
3775000000  -3.237839e+001  -3.526963e+001 
3778125000  -3.266150e+001  -3.710564e+001 
3781250000  -3.248700e+001  -4.013308e+001 
3784375000  -3.230187e+001  -4.123035e+001 
3787500000  -3.162730e+001  -4.533294e+001 
3790625000  -3.221066e+001  -5.084815e+001 
3793750000  -3.236263e+001  -5.133997e+001 
3796875000  -3.144837e+001  -5.292700e+001 
3800000000  -2.998529e+001  -5.668446e+001 
3803125000  -3.068771e+001  -6.346337e+001 
3806250000  -3.130993e+001  -6.603449e+001 
3809375000  -3.107529e+001  -6.685623e+001 
3812500000  -3.040830e+001  -7.127122e+001 
3815625000  -3.099400e+001  -7.920226e+001 
3818750000  -3.186448e+001  -8.046648e+001 
3821875000  -3.198609e+001  -7.333978e+001 
3825000000  -3.024102e+001  -6.760431e+001 
3828125000  -2.882483e+001  -8.176910e+001 
3831250000  -2.926567e+001  -9.633913e+001 
3834375000  -3.064116e+001  -9.653798e+001 
3837500000  -3.151168e+001  -9.113779e+001 
3840625000  -3.040690e+001  -9.294403e+001 
3843750000  -2.933669e+001  -1.024584e+002 
3846875000  -3.003608e+001  -1.097627e+002 
3850000000  -3.120821e+001  -1.047554e+002 
3853125000  -3.037702e+001  -1.015918e+002 
3856250000  -3.044594e+001  -1.064357e+002 
3859375000  -2.978305e+001  -1.117581e+002 
3862500000  -2.933695e+001  -1.184754e+002 
3865625000  -2.961690e+001  -1.225800e+002 
3868750000  -2.965393e+001  -1.235364e+002 
3871875000  -2.887596e+001  -1.261587e+002 
3875000000  -2.901742e+001  -1.343561e+002 
3878125000  -3.001767e+001  -1.375485e+002 
3881250000  -3.017985e+001  -1.339232e+002 
3884375000  -2.960350e+001  -1.383186e+002 
3887500000  -2.975080e+001  -1.429913e+002 
3890625000  -3.017672e+001  -1.449215e+002 
3893750000  -3.066177e+001  -1.466469e+002 
3896875000  -3.083201e+001  -1.459845e+002 
3900000000  -3.099171e+001  -1.469300e+002 
3903125000  -3.072590e+001  -1.488299e+002 
3906250000  -3.037979e+001  -1.504059e+002 
3909375000  -2.966549e+001  -1.518502e+002 
3912500000  -2.963280e+001  -1.594017e+002 
3915625000  -3.082834e+001  -1.588810e+002 
3918750000  -3.089512e+001  -1.570634e+002 
3921875000  -3.061829e+001  -1.589925e+002 
3925000000  -2.979301e+001  -1.590877e+002 
3928125000  -2.905394e+001  -1.653020e+002 
3931250000  -2.945067e+001  -1.688416e+002 
3934375000  -2.967215e+001  -1.684263e+002 
3937500000  -2.985799e+001  -1.692931e+002 
3940625000  -3.026659e+001  -1.694097e+002 
3943750000  -2.937425e+001  -1.683962e+002 
3946875000  -2.807656e+001  -1.732610e+002 
3950000000  -2.847877e+001  1.792018e+002 
3953125000  -2.949225e+001  1.791640e+002 
3956250000  -2.869523e+001  -1.782926e+002 
3959375000  -2.738060e+001  1.788553e+002 
3962500000  -2.682891e+001  1.749820e+002 
3965625000  -2.647079e+001  1.660990e+002 
3968750000  -2.746263e+001  1.591242e+002 
3971875000  -2.788752e+001  1.580874e+002 
3975000000  -2.715976e+001  1.561178e+002 
3978125000  -2.698949e+001  1.545856e+002 
3981250000  -2.672160e+001  1.501267e+002 
3984375000  -2.695491e+001  1.441427e+002 
3987500000  -2.748505e+001  1.411841e+002 
3990625000  -2.746859e+001  1.407107e+002 
3993750000  -2.771405e+001  1.375699e+002 
3996875000  -2.771907e+001  1.352269e+002 
4000000000  -2.773537e+001  1.335143e+002 
4003125000  -2.840373e+001  1.352002e+002 
4006250000  -2.701981e+001  1.359191e+002 
4009375000  -2.584138e+001  1.240241e+002 
4012500000  -2.680211e+001  1.166910e+002 
4015625000  -2.807563e+001  1.168052e+002 
4018750000  -2.830971e+001  1.195011e+002 
4021875000  -2.766853e+001  1.180451e+002 
4025000000  -2.724039e+001  1.131878e+002 
4028125000  -2.719017e+001  1.091858e+002 
4031250000  -2.767280e+001  1.060184e+002 
4034375000  -2.794342e+001  1.064567e+002 
4037500000  -2.737766e+001  1.079061e+002 
4040625000  -2.722606e+001  1.046443e+002 
4043750000  -2.759286e+001  1.046195e+002 
4046875000  -2.712346e+001  1.036967e+002 
4050000000  -2.666358e+001  9.787196e+001 
4053125000  -2.711676e+001  9.562434e+001 
4056250000  -2.769994e+001  9.963592e+001 
4059375000  -2.660092e+001  1.019089e+002 
4062500000  -2.512946e+001  9.751185e+001 
4065625000  -2.497857e+001  9.289683e+001 
4068750000  -2.473561e+001  8.813039e+001 
4071875000  -2.408737e+001  7.993741e+001 
4075000000  -2.437849e+001  7.363445e+001 
4078125000  -2.502153e+001  7.223537e+001 
4081250000  -2.448771e+001  7.019457e+001 
4084375000  -2.407138e+001  6.366768e+001 
4087500000  -2.441864e+001  5.729544e+001 
4090625000  -2.503024e+001  5.557924e+001 
4093750000  -2.491032e+001  5.671029e+001 
4096875000  -2.447396e+001  5.089898e+001 
4100000000  -2.509187e+001  4.424142e+001 
4103125000  -2.602264e+001  4.443008e+001 
4106250000  -2.591009e+001  4.916291e+001 
4109375000  -2.505227e+001  4.871270e+001 
4112500000  -2.447635e+001  4.246563e+001 
4115625000  -2.475956e+001  3.799750e+001 
4118750000  -2.490637e+001  3.516843e+001 
4121875000  -2.452379e+001  3.082706e+001 
4125000000  -2.481987e+001  2.565252e+001 
4128125000  -2.585149e+001  2.489552e+001 
4131250000  -2.563680e+001  3.358323e+001 
4134375000  -2.334808e+001  2.970578e+001 
4137500000  -2.309654e+001  1.082819e+001 
4140625000  -2.524422e+001  3.399927e+000 
4143750000  -2.659193e+001  8.123224e+000 
4146875000  -2.616002e+001  1.562625e+001 
4150000000  -2.524638e+001  1.283852e+001 
4153125000  -2.508908e+001  6.404901e+000 
4156250000  -2.595815e+001  3.837447e+000 
4159375000  -2.626524e+001  7.968316e+000 
4162500000  -2.511679e+001  1.241226e+001 
4165625000  -2.393723e+001  8.551357e+000 
4168750000  -2.335111e+001  1.655885e+000 
4171875000  -2.332459e+001  -7.802761e+000 
4175000000  -2.387618e+001  -1.364418e+001 
4178125000  -2.447697e+001  -1.360766e+001 
4181250000  -2.439266e+001  -1.392509e+001 
4184375000  -2.424100e+001  -1.708814e+001 
4187500000  -2.427169e+001  -1.968514e+001 
4190625000  -2.408302e+001  -2.556466e+001 
4193750000  -2.479056e+001  -2.922960e+001 
4196875000  -2.551821e+001  -2.986516e+001 
4200000000  -2.633938e+001  -2.758296e+001 
4203125000  -2.650483e+001  -1.461993e+001 
4206250000  -2.321505e+001  -1.243760e+001 
4209375000  -2.192939e+001  -3.288066e+001 
4212500000  -2.375232e+001  -4.178778e+001 
4215625000  -2.478521e+001  -3.591119e+001 
4218750000  -2.365327e+001  -2.944071e+001 
4221875000  -2.123181e+001  -3.837663e+001 
4225000000  -2.243814e+001  -5.092523e+001 
4228125000  -2.321798e+001  -4.590899e+001 
4231250000  -2.166190e+001  -4.952864e+001 
4234375000  -2.155337e+001  -5.780200e+001 
4237500000  -2.116506e+001  -6.099568e+001 
4240625000  -2.118201e+001  -6.944632e+001 
4243750000  -2.207583e+001  -7.612286e+001 
4246875000  -2.297949e+001  -7.648478e+001 
4250000000  -2.307273e+001  -7.356664e+001 
4253125000  -2.249529e+001  -7.563618e+001 
4256250000  -2.281857e+001  -7.973266e+001 
4259375000  -2.254218e+001  -8.150182e+001 
4262500000  -2.250951e+001  -8.501769e+001 
4265625000  -2.275108e+001  -8.497624e+001 
4268750000  -2.186344e+001  -8.889579e+001 
4271875000  -2.162025e+001  -9.421412e+001 
4275000000  -2.097139e+001  -1.005805e+002 
4278125000  -2.153434e+001  -1.117048e+002 
4281250000  -2.335331e+001  -1.141308e+002 
4284375000  -2.311527e+001  -1.132129e+002 
4287500000  -2.378254e+001  -1.165608e+002 
4290625000  -2.507415e+001  -1.072451e+002 
4293750000  -2.319053e+001  -1.012370e+002 
4296875000  -2.176486e+001  -1.126690e+002 
4300000000  -2.257073e+001  -1.221588e+002 
4303125000  -2.373132e+001  -1.211579e+002 
4306250000  -2.316647e+001  -1.152190e+002 
4309375000  -2.173182e+001  -1.168870e+002 
4312500000  -2.161764e+001  -1.248212e+002 
4315625000  -2.182209e+001  -1.312256e+002 
4318750000  -2.214532e+001  -1.345237e+002 
4321875000  -2.232612e+001  -1.343462e+002 
4325000000  -2.173177e+001  -1.337711e+002 
4328125000  -2.126991e+001  -1.399861e+002 
4331250000  -2.117901e+001  -1.478938e+002 
4334375000  -2.156911e+001  -1.530429e+002 
4337500000  -2.231925e+001  -1.554212e+002 
4340625000  -2.291145e+001  -1.525208e+002 
4343750000  -2.237819e+001  -1.516806e+002 
4346875000  -2.198752e+001  -1.571796e+002 
4350000000  -2.201001e+001  -1.617329e+002 
4353125000  -2.197383e+001  -1.696004e+002 
4356250000  -2.366169e+001  -1.708148e+002 
4359375000  -2.442365e+001  -1.586208e+002 
4362500000  -2.190276e+001  -1.557859e+002 
4365625000  -2.014390e+001  -1.669864e+002 
4368750000  -2.081867e+001  -1.789150e+002 
4371875000  -2.206340e+001  -1.785952e+002 
4375000000  -2.175245e+001  -1.773124e+002 
4378125000  -2.111648e+001  1.770564e+002 
4381250000  -2.124235e+001  1.715371e+002 
4384375000  -2.111885e+001  1.672005e+002 
4387500000  -2.180912e+001  1.616365e+002 
4390625000  -2.281623e+001  1.622164e+002 
4393750000  -2.219241e+001  1.644711e+002 
4396875000  -2.149821e+001  1.620941e+002 
4400000000  -2.103399e+001  1.556029e+002 
4403125000  -2.154910e+001  1.478858e+002 
4406250000  -2.242749e+001  1.466316e+002 
4409375000  -2.235737e+001  1.446196e+002 
4412500000  -2.344511e+001  1.417287e+002 
4415625000  -2.384890e+001  1.462394e+002 
4418750000  -2.263598e+001  1.512321e+002 
