!Agilent Technologies,E8363B,MY43030201,A.06.04.32
!Agilent E8363B: A.06.04.32
!Date: Tuesday, November 11, 2014 20:52:16
!Correction: S21(Response(S21)) 
!S1P File: Measurement: S21:
# Hz S  dB   R 50
3000000000  -2.651066e+001  1.510084e+002 
3003125000  -2.795434e+001  1.463645e+002 
3006250000  -2.797982e+001  1.438703e+002 
3009375000  -2.832498e+001  1.491232e+002 
3012500000  -2.781749e+001  1.486104e+002 
3015625000  -2.683625e+001  1.417347e+002 
3018750000  -2.770263e+001  1.408918e+002 
3021875000  -2.641999e+001  1.419917e+002 
3025000000  -2.511314e+001  1.389218e+002 
3028125000  -2.415558e+001  1.340446e+002 
3031250000  -2.311151e+001  1.227515e+002 
3034375000  -2.276324e+001  1.098044e+002 
3037500000  -2.311987e+001  9.772126e+001 
3040625000  -2.445293e+001  9.281871e+001 
3043750000  -2.516155e+001  8.845377e+001 
3046875000  -2.527034e+001  8.217903e+001 
3050000000  -2.701098e+001  7.544745e+001 
3053125000  -2.713387e+001  8.172506e+001 
3056250000  -2.646758e+001  8.516876e+001 
3059375000  -2.672654e+001  8.468456e+001 
3062500000  -2.520298e+001  8.057320e+001 
3065625000  -2.500280e+001  7.497256e+001 
3068750000  -2.469035e+001  6.797068e+001 
3071875000  -2.466620e+001  6.485768e+001 
3075000000  -2.462584e+001  6.106093e+001 
3078125000  -2.434104e+001  5.663747e+001 
3081250000  -2.497131e+001  5.239433e+001 
3084375000  -2.423011e+001  4.880857e+001 
3087500000  -2.414139e+001  4.528103e+001 
3090625000  -2.382619e+001  3.524550e+001 
3093750000  -2.428372e+001  2.742921e+001 
3096875000  -2.553711e+001  2.136354e+001 
3100000000  -2.572413e+001  2.015458e+001 
3103125000  -2.609056e+001  2.160030e+001 
3106250000  -2.580760e+001  1.785121e+001 
3109375000  -2.602960e+001  1.442641e+001 
3112500000  -2.615053e+001  1.327888e+001 
3115625000  -2.595391e+001  9.219637e+000 
3118750000  -2.645688e+001  1.046891e+001 
3121875000  -2.577049e+001  2.359334e+000 
3125000000  -2.694062e+001  -8.467017e-001 
3128125000  -2.813306e+001  7.138276e+000 
3131250000  -2.594739e+001  7.547899e+000 
3134375000  -2.463017e+001  -6.060578e+000 
3137500000  -2.529028e+001  -1.994740e+001 
3140625000  -2.690216e+001  -2.142205e+001 
3143750000  -2.792961e+001  -1.742475e+001 
3146875000  -2.755019e+001  -1.532933e+001 
3150000000  -2.648238e+001  -1.305739e+001 
3153125000  -2.649629e+001  -2.087122e+001 
3156250000  -2.746478e+001  -1.563767e+001 
3159375000  -2.589430e+001  -1.274116e+001 
3162500000  -2.388415e+001  -2.548166e+001 
3165625000  -2.478944e+001  -3.642598e+001 
3168750000  -2.520054e+001  -3.552690e+001 
3171875000  -2.424788e+001  -3.970689e+001 
3175000000  -2.490308e+001  -4.736097e+001 
3178125000  -2.470448e+001  -4.583806e+001 
3181250000  -2.351190e+001  -4.994427e+001 
3184375000  -2.274575e+001  -6.204632e+001 
3187500000  -2.383372e+001  -7.712139e+001 
3190625000  -2.663625e+001  -8.476546e+001 
3193750000  -2.720642e+001  -7.498483e+001 
3196875000  -2.678072e+001  -6.954984e+001 
3200000000  -2.589272e+001  -7.148547e+001 
3203125000  -2.502015e+001  -7.713774e+001 
3206250000  -2.534258e+001  -8.343842e+001 
3209375000  -2.481744e+001  -8.870175e+001 
3212500000  -2.498233e+001  -9.501048e+001 
3215625000  -2.509547e+001  -9.948658e+001 
3218750000  -2.587388e+001  -1.057794e+002 
3221875000  -2.688848e+001  -1.106320e+002 
3225000000  -2.643634e+001  -1.114089e+002 
3228125000  -2.678992e+001  -1.162373e+002 
3231250000  -2.751494e+001  -1.185150e+002 
3234375000  -2.741023e+001  -1.174040e+002 
3237500000  -2.739032e+001  -1.192598e+002 
3240625000  -2.707910e+001  -1.207853e+002 
3243750000  -2.672976e+001  -1.275496e+002 
3246875000  -2.725217e+001  -1.339533e+002 
3250000000  -2.770694e+001  -1.357917e+002 
3253125000  -2.786703e+001  -1.375562e+002 
3256250000  -2.766775e+001  -1.435013e+002 
3259375000  -2.800093e+001  -1.514153e+002 
3262500000  -2.929484e+001  -1.539131e+002 
3265625000  -2.991774e+001  -1.503981e+002 
3268750000  -2.987691e+001  -1.475081e+002 
3271875000  -2.963081e+001  -1.467748e+002 
3275000000  -2.853924e+001  -1.518811e+002 
3278125000  -2.906120e+001  -1.583183e+002 
3281250000  -2.932573e+001  -1.561071e+002 
3284375000  -2.891669e+001  -1.619252e+002 
3287500000  -2.903536e+001  -1.650316e+002 
3290625000  -2.945685e+001  -1.691478e+002 
3293750000  -2.916449e+001  -1.747851e+002 
3296875000  -3.020774e+001  -1.747282e+002 
3300000000  -3.008301e+001  -1.733690e+002 
3303125000  -2.887238e+001  -1.777674e+002 
3306250000  -2.873730e+001  1.758239e+002 
3309375000  -2.851333e+001  1.708580e+002 
3312500000  -2.855187e+001  1.605912e+002 
3315625000  -2.955236e+001  1.526014e+002 
3318750000  -3.090343e+001  1.498777e+002 
3321875000  -3.206118e+001  1.500415e+002 
3325000000  -3.268494e+001  1.557644e+002 
3328125000  -3.247792e+001  1.568131e+002 
3331250000  -3.129099e+001  1.643110e+002 
3334375000  -2.862804e+001  1.546378e+002 
3337500000  -2.871644e+001  1.358719e+002 
3340625000  -3.010236e+001  1.252739e+002 
3343750000  -3.204870e+001  1.235817e+002 
3346875000  -3.252178e+001  1.254105e+002 
3350000000  -3.187810e+001  1.241829e+002 
3353125000  -3.204324e+001  1.198072e+002 
3356250000  -3.173245e+001  1.119242e+002 
3359375000  -3.258813e+001  1.036996e+002 
3362500000  -3.382515e+001  9.808156e+001 
3365625000  -3.452663e+001  9.649724e+001 
3368750000  -3.543914e+001  9.504243e+001 
3371875000  -3.592281e+001  9.191866e+001 
3375000000  -3.736800e+001  8.995294e+001 
3378125000  -3.851761e+001  9.090740e+001 
3381250000  -3.997449e+001  9.762737e+001 
3384375000  -3.948296e+001  1.200522e+002 
3387500000  -3.608966e+001  1.036029e+002 
3390625000  -3.783854e+001  8.494211e+001 
3393750000  -3.958024e+001  9.035921e+001 
3396875000  -3.867603e+001  9.290530e+001 
3400000000  -3.867253e+001  8.695500e+001 
3403125000  -3.974240e+001  8.192492e+001 
3406250000  -4.059445e+001  8.549950e+001 
3409375000  -4.109916e+001  8.072045e+001 
3412500000  -4.205888e+001  8.172626e+001 
3415625000  -4.318828e+001  8.745260e+001 
3418750000  -4.314220e+001  8.969550e+001 
3421875000  -4.342887e+001  9.892297e+001 
3425000000  -4.240378e+001  1.000379e+002 
3428125000  -4.164591e+001  9.809079e+001 
3431250000  -4.146358e+001  9.580946e+001 
3434375000  -4.122200e+001  9.217535e+001 
3437500000  -4.210430e+001  9.240057e+001 
3440625000  -4.232907e+001  9.296107e+001 
3443750000  -4.086980e+001  9.726590e+001 
3446875000  -3.990860e+001  9.022084e+001 
3450000000  -3.989772e+001  8.193810e+001 
3453125000  -4.005185e+001  7.319376e+001 
3456250000  -4.131042e+001  6.881838e+001 
3459375000  -4.226654e+001  7.075097e+001 
3462500000  -4.232884e+001  7.073500e+001 
3465625000  -4.254215e+001  6.634000e+001 
3468750000  -4.253503e+001  6.322631e+001 
3471875000  -4.265475e+001  6.567496e+001 
3475000000  -4.270564e+001  6.093126e+001 
3478125000  -4.351593e+001  5.627338e+001 
3481250000  -4.458377e+001  5.412729e+001 
3484375000  -4.599690e+001  6.246530e+001 
3487500000  -4.562185e+001  6.182587e+001 
3490625000  -4.526237e+001  6.230333e+001 
3493750000  -4.567885e+001  5.598563e+001 
3496875000  -4.697528e+001  5.903899e+001 
3500000000  -4.878798e+001  6.518659e+001 
3503125000  -4.816533e+001  6.555622e+001 
3506250000  -4.631708e+001  7.465039e+001 
3509375000  -4.686497e+001  6.639845e+001 
3512500000  -4.737819e+001  6.264484e+001 
3515625000  -4.808969e+001  6.730567e+001 
3518750000  -4.817542e+001  7.772781e+001 
3521875000  -4.830643e+001  7.930959e+001 
3525000000  -4.836713e+001  7.887807e+001 
3528125000  -4.714458e+001  9.174041e+001 
3531250000  -4.571528e+001  9.259143e+001 
3534375000  -4.539054e+001  8.553693e+001 
3537500000  -4.515256e+001  8.310609e+001 
3540625000  -4.584774e+001  8.209967e+001 
3543750000  -4.613781e+001  8.348946e+001 
3546875000  -4.522799e+001  9.784179e+001 
3550000000  -4.282209e+001  1.001113e+002 
3553125000  -4.162072e+001  8.188654e+001 
3556250000  -4.237930e+001  7.784429e+001 
3559375000  -4.216917e+001  7.935269e+001 
3562500000  -4.089517e+001  7.247569e+001 
3565625000  -4.185999e+001  6.554558e+001 
3568750000  -4.179963e+001  6.972062e+001 
3571875000  -4.170873e+001  7.011893e+001 
3575000000  -4.134084e+001  6.450331e+001 
3578125000  -4.146909e+001  6.148344e+001 
3581250000  -4.157880e+001  6.118229e+001 
3584375000  -4.071976e+001  6.115371e+001 
3587500000  -3.997633e+001  5.526973e+001 
3590625000  -4.033742e+001  4.464914e+001 
3593750000  -4.119867e+001  4.490203e+001 
3596875000  -4.138375e+001  5.345667e+001 
3600000000  -3.969366e+001  4.898969e+001 
3603125000  -3.995264e+001  3.841897e+001 
3606250000  -4.060683e+001  3.360921e+001 
3609375000  -4.091048e+001  3.338061e+001 
3612500000  -4.119485e+001  3.122813e+001 
3615625000  -4.126081e+001  2.859252e+001 
3618750000  -4.197536e+001  3.146726e+001 
3621875000  -4.159806e+001  2.991154e+001 
3625000000  -4.157645e+001  3.000411e+001 
3628125000  -4.176513e+001  2.876707e+001 
3631250000  -4.133172e+001  2.514024e+001 
3634375000  -4.234258e+001  2.567940e+001 
3637500000  -4.202454e+001  3.290058e+001 
3640625000  -4.100146e+001  3.195063e+001 
3643750000  -4.065285e+001  2.574060e+001 
3646875000  -4.140349e+001  1.952548e+001 
3650000000  -4.159455e+001  2.190982e+001 
3653125000  -4.131177e+001  2.010570e+001 
3656250000  -4.157713e+001  1.752091e+001 
3659375000  -4.206615e+001  2.365847e+001 
3662500000  -4.100121e+001  2.219105e+001 
3665625000  -4.125672e+001  2.346034e+001 
3668750000  -4.015337e+001  2.548149e+001 
3671875000  -3.915136e+001  1.962049e+001 
3675000000  -3.952050e+001  1.359004e+001 
3678125000  -4.048267e+001  1.452038e+001 
3681250000  -3.957088e+001  1.594266e+001 
3684375000  -3.965918e+001  1.309209e+001 
3687500000  -3.979121e+001  1.235666e+001 
3690625000  -3.959828e+001  9.103251e+000 
3693750000  -4.040397e+001  1.072412e+001 
3696875000  -3.981446e+001  1.490565e+001 
3700000000  -3.890526e+001  1.282761e+001 
3703125000  -3.878956e+001  1.004147e+001 
3706250000  -3.913809e+001  1.170551e+001 
3709375000  -3.835306e+001  1.555282e+001 
3712500000  -3.745380e+001  1.399915e+001 
3715625000  -3.620701e+001  8.730388e+000 
3718750000  -3.559242e+001  5.341157e+000 
3721875000  -3.505851e+001  1.747468e+000 
3725000000  -3.502584e+001  -3.555115e+000 
3728125000  -3.536503e+001  -4.718933e+000 
3731250000  -3.475163e+001  -5.993047e+000 
3734375000  -3.355512e+001  -1.189795e+001 
3737500000  -3.410730e+001  -1.848571e+001 
3740625000  -3.472696e+001  -2.272665e+001 
3743750000  -3.458011e+001  -2.420004e+001 
3746875000  -3.449360e+001  -2.685901e+001 
3750000000  -3.484206e+001  -2.779483e+001 
3753125000  -3.448476e+001  -2.873366e+001 
3756250000  -3.434678e+001  -2.998137e+001 
3759375000  -3.421499e+001  -3.075349e+001 
3762500000  -3.360740e+001  -3.387583e+001 
3765625000  -3.417579e+001  -3.705759e+001 
3768750000  -3.419198e+001  -3.515339e+001 
3771875000  -3.245058e+001  -3.679194e+001 
3775000000  -3.222338e+001  -4.553991e+001 
3778125000  -3.244984e+001  -4.738243e+001 
3781250000  -3.228704e+001  -4.944088e+001 
3784375000  -3.219663e+001  -5.128090e+001 
3787500000  -3.155665e+001  -5.486537e+001 
3790625000  -3.208918e+001  -6.022911e+001 
3793750000  -3.237526e+001  -6.126696e+001 
3796875000  -3.142937e+001  -6.208329e+001 
3800000000  -2.989180e+001  -6.626505e+001 
3803125000  -3.061684e+001  -7.316206e+001 
3806250000  -3.129150e+001  -7.537119e+001 
3809375000  -3.105983e+001  -7.689344e+001 
3812500000  -3.034804e+001  -8.143076e+001 
3815625000  -3.100941e+001  -8.912691e+001 
3818750000  -3.199673e+001  -9.037820e+001 
3821875000  -3.211831e+001  -8.215229e+001 
3825000000  -3.013993e+001  -7.688818e+001 
3828125000  -2.878275e+001  -9.112181e+001 
3831250000  -2.935168e+001  -1.053319e+002 
3834375000  -3.066050e+001  -1.064407e+002 
3837500000  -3.149506e+001  -1.010333e+002 
3840625000  -3.036967e+001  -1.018026e+002 
3843750000  -2.928630e+001  -1.115713e+002 
3846875000  -3.005188e+001  -1.189838e+002 
3850000000  -3.125114e+001  -1.135070e+002 
3853125000  -3.045293e+001  -1.111539e+002 
3856250000  -3.035284e+001  -1.152544e+002 
3859375000  -2.966449e+001  -1.205638e+002 
3862500000  -2.921860e+001  -1.277167e+002 
3865625000  -2.940786e+001  -1.321483e+002 
3868750000  -2.949401e+001  -1.321225e+002 
3871875000  -2.877031e+001  -1.353442e+002 
3875000000  -2.895695e+001  -1.441143e+002 
3878125000  -2.994026e+001  -1.465092e+002 
3881250000  -3.007832e+001  -1.438229e+002 
3884375000  -2.947753e+001  -1.478137e+002 
3887500000  -2.962200e+001  -1.526998e+002 
3890625000  -3.015945e+001  -1.547780e+002 
3893750000  -3.060413e+001  -1.565608e+002 
3896875000  -3.061877e+001  -1.561574e+002 
3900000000  -3.100828e+001  -1.566376e+002 
3903125000  -3.058976e+001  -1.587085e+002 
3906250000  -3.036717e+001  -1.592832e+002 
3909375000  -2.958187e+001  -1.619983e+002 
3912500000  -2.967166e+001  -1.695611e+002 
3915625000  -3.092336e+001  -1.686671e+002 
3918750000  -3.084182e+001  -1.675264e+002 
3921875000  -3.050947e+001  -1.690384e+002 
3925000000  -2.974421e+001  -1.692599e+002 
3928125000  -2.907488e+001  -1.754313e+002 
3931250000  -2.949403e+001  -1.798090e+002 
3934375000  -2.974470e+001  -1.791253e+002 
3937500000  -2.992217e+001  -1.795940e+002 
3940625000  -3.040152e+001  -1.795126e+002 
3943750000  -2.942960e+001  -1.781852e+002 
3946875000  -2.821908e+001  1.763354e+002 
3950000000  -2.874900e+001  1.686534e+002 
3953125000  -2.969512e+001  1.695394e+002 
3956250000  -2.881177e+001  1.725169e+002 
3959375000  -2.752905e+001  1.696099e+002 
3962500000  -2.693574e+001  1.648752e+002 
3965625000  -2.661633e+001  1.563949e+002 
3968750000  -2.759415e+001  1.500664e+002 
3971875000  -2.796594e+001  1.480443e+002 
3975000000  -2.721348e+001  1.468602e+002 
3978125000  -2.706580e+001  1.457238e+002 
3981250000  -2.674951e+001  1.411991e+002 
3984375000  -2.697149e+001  1.348370e+002 
3987500000  -2.754161e+001  1.329314e+002 
3990625000  -2.755896e+001  1.319410e+002 
3993750000  -2.767919e+001  1.281692e+002 
3996875000  -2.761733e+001  1.260019e+002 
4000000000  -2.766685e+001  1.238332e+002 
4003125000  -2.833925e+001  1.261796e+002 
4006250000  -2.690575e+001  1.264759e+002 
4009375000  -2.572674e+001  1.139690e+002 
4012500000  -2.683600e+001  1.070190e+002 
4015625000  -2.802904e+001  1.071946e+002 
4018750000  -2.825745e+001  1.093790e+002 
4021875000  -2.756108e+001  1.077712e+002 
4025000000  -2.718106e+001  1.036618e+002 
4028125000  -2.712222e+001  9.875257e+001 
4031250000  -2.760503e+001  9.558704e+001 
4034375000  -2.792457e+001  9.549529e+001 
4037500000  -2.745110e+001  9.743427e+001 
4040625000  -2.736432e+001  9.427309e+001 
4043750000  -2.760253e+001  9.353384e+001 
4046875000  -2.727561e+001  9.341945e+001 
4050000000  -2.673831e+001  8.820898e+001 
4053125000  -2.728935e+001  8.512181e+001 
4056250000  -2.786370e+001  8.974220e+001 
4059375000  -2.663470e+001  9.178285e+001 
4062500000  -2.524436e+001  8.719796e+001 
4065625000  -2.512172e+001  8.304490e+001 
4068750000  -2.483252e+001  7.800462e+001 
4071875000  -2.419040e+001  7.024649e+001 
4075000000  -2.458936e+001  6.363610e+001 
4078125000  -2.515469e+001  6.300905e+001 
4081250000  -2.464902e+001  6.080154e+001 
4084375000  -2.422314e+001  5.425599e+001 
4087500000  -2.457842e+001  4.793923e+001 
4090625000  -2.515908e+001  4.679568e+001 
4093750000  -2.500703e+001  4.756539e+001 
4096875000  -2.449520e+001  4.180717e+001 
4100000000  -2.522209e+001  3.458434e+001 
4103125000  -2.609122e+001  3.539449e+001 
4106250000  -2.596764e+001  4.026127e+001 
4109375000  -2.509499e+001  3.983585e+001 
4112500000  -2.450578e+001  3.297873e+001 
4115625000  -2.481800e+001  2.880002e+001 
4118750000  -2.493640e+001  2.600335e+001 
4121875000  -2.453832e+001  2.157896e+001 
4125000000  -2.486064e+001  1.611080e+001 
4128125000  -2.587352e+001  1.622948e+001 
4131250000  -2.563370e+001  2.409631e+001 
4134375000  -2.330470e+001  1.967292e+001 
4137500000  -2.312284e+001  1.072814e+000 
4140625000  -2.523554e+001  -6.521470e+000 
4143750000  -2.656356e+001  -1.224492e+000 
4146875000  -2.617867e+001  6.149817e+000 
4150000000  -2.525123e+001  2.833293e+000 
4153125000  -2.504220e+001  -3.746665e+000 
4156250000  -2.596057e+001  -6.366540e+000 
4159375000  -2.628568e+001  -1.989923e+000 
4162500000  -2.513080e+001  2.400910e+000 
4165625000  -2.397511e+001  -1.941237e+000 
4168750000  -2.338599e+001  -8.807970e+000 
4171875000  -2.338898e+001  -1.822799e+001 
4175000000  -2.401467e+001  -2.386275e+001 
4178125000  -2.463036e+001  -2.383011e+001 
4181250000  -2.447168e+001  -2.423642e+001 
4184375000  -2.437122e+001  -2.763967e+001 
4187500000  -2.439369e+001  -3.051097e+001 
4190625000  -2.417334e+001  -3.562879e+001 
4193750000  -2.501518e+001  -3.935345e+001 
4196875000  -2.574380e+001  -3.963258e+001 
4200000000  -2.655512e+001  -3.750731e+001 
4203125000  -2.659096e+001  -2.400620e+001 
4206250000  -2.321321e+001  -2.224803e+001 
4209375000  -2.207424e+001  -4.258894e+001 
4212500000  -2.392896e+001  -5.167060e+001 
4215625000  -2.497034e+001  -4.549614e+001 
4218750000  -2.366648e+001  -3.862473e+001 
4221875000  -2.134835e+001  -4.774940e+001 
4225000000  -2.261529e+001  -6.055946e+001 
4228125000  -2.329386e+001  -5.536418e+001 
4231250000  -2.170272e+001  -5.873237e+001 
4234375000  -2.163418e+001  -6.740568e+001 
4237500000  -2.121974e+001  -7.043350e+001 
4240625000  -2.120317e+001  -7.894032e+001 
4243750000  -2.215425e+001  -8.574739e+001 
4246875000  -2.303080e+001  -8.602238e+001 
4250000000  -2.310259e+001  -8.298920e+001 
4253125000  -2.251778e+001  -8.492321e+001 
4256250000  -2.278650e+001  -8.940701e+001 
4259375000  -2.251533e+001  -9.124557e+001 
4262500000  -2.253522e+001  -9.474539e+001 
4265625000  -2.273137e+001  -9.431098e+001 
4268750000  -2.179848e+001  -9.860856e+001 
4271875000  -2.159371e+001  -1.044354e+002 
4275000000  -2.097252e+001  -1.110869e+002 
4278125000  -2.163600e+001  -1.221072e+002 
4281250000  -2.334878e+001  -1.241812e+002 
4284375000  -2.310132e+001  -1.232956e+002 
4287500000  -2.383304e+001  -1.266867e+002 
4290625000  -2.511693e+001  -1.175618e+002 
4293750000  -2.313066e+001  -1.118843e+002 
4296875000  -2.181015e+001  -1.230972e+002 
4300000000  -2.264048e+001  -1.326364e+002 
4303125000  -2.381009e+001  -1.313564e+002 
4306250000  -2.318619e+001  -1.251676e+002 
4309375000  -2.183847e+001  -1.274572e+002 
4312500000  -2.169455e+001  -1.355416e+002 
4315625000  -2.192672e+001  -1.416445e+002 
4318750000  -2.226780e+001  -1.451887e+002 
4321875000  -2.243433e+001  -1.440421e+002 
4325000000  -2.188390e+001  -1.435375e+002 
4328125000  -2.135883e+001  -1.498809e+002 
4331250000  -2.127121e+001  -1.581601e+002 
4334375000  -2.174431e+001  -1.630910e+002 
4337500000  -2.255982e+001  -1.652598e+002 
4340625000  -2.316204e+001  -1.618967e+002 
4343750000  -2.251610e+001  -1.612526e+002 
4346875000  -2.213921e+001  -1.669789e+002 
4350000000  -2.212825e+001  -1.716930e+002 
4353125000  -2.219673e+001  -1.789966e+002 
4356250000  -2.398238e+001  1.797831e+002 
4359375000  -2.452568e+001  -1.666014e+002 
4362500000  -2.182932e+001  -1.647556e+002 
4365625000  -2.023900e+001  -1.764448e+002 
4368750000  -2.091353e+001  1.714163e+002 
4371875000  -2.214369e+001  1.721626e+002 
4375000000  -2.180356e+001  1.732986e+002 
4378125000  -2.117467e+001  1.674909e+002 
4381250000  -2.129358e+001  1.620242e+002 
4384375000  -2.113192e+001  1.575321e+002 
4387500000  -2.191205e+001  1.515283e+002 
4390625000  -2.292830e+001  1.522552e+002 
4393750000  -2.218264e+001  1.550160e+002 
4396875000  -2.157076e+001  1.523696e+002 
4400000000  -2.104565e+001  1.459504e+002 
4403125000  -2.161303e+001  1.380034e+002 
4406250000  -2.247499e+001  1.365778e+002 
4409375000  -2.240438e+001  1.343510e+002 
4412500000  -2.349989e+001  1.315590e+002 
4415625000  -2.383852e+001  1.369800e+002 
4418750000  -2.259056e+001  1.410261e+002 
