!Agilent Technologies,E8363B,MY43030201,A.06.04.32
!Agilent E8363B: A.06.04.32
!Date: Tuesday, November 11, 2014 20:55:37
!Correction: S21(Response(S21)) 
!S1P File: Measurement: S21:
# Hz S  dB   R 50
3000000000  -2.635507e+001  1.475618e+002 
3003125000  -2.778807e+001  1.430126e+002 
3006250000  -2.780776e+001  1.403963e+002 
3009375000  -2.821071e+001  1.454557e+002 
3012500000  -2.765434e+001  1.446969e+002 
3015625000  -2.670749e+001  1.378615e+002 
3018750000  -2.755519e+001  1.372003e+002 
3021875000  -2.628087e+001  1.386097e+002 
3025000000  -2.494825e+001  1.353352e+002 
3028125000  -2.400219e+001  1.302401e+002 
3031250000  -2.296523e+001  1.191203e+002 
3034375000  -2.263552e+001  1.060285e+002 
3037500000  -2.300830e+001  9.418997e+001 
3040625000  -2.433589e+001  8.923190e+001 
3043750000  -2.503972e+001  8.500658e+001 
3046875000  -2.521912e+001  7.846732e+001 
3050000000  -2.693518e+001  7.169552e+001 
3053125000  -2.702310e+001  7.858186e+001 
3056250000  -2.635396e+001  8.143925e+001 
3059375000  -2.654996e+001  8.099746e+001 
3062500000  -2.506899e+001  7.687083e+001 
3065625000  -2.489818e+001  7.123656e+001 
3068750000  -2.459624e+001  6.434036e+001 
3071875000  -2.454513e+001  6.132357e+001 
3075000000  -2.450075e+001  5.732499e+001 
3078125000  -2.429872e+001  5.285527e+001 
3081250000  -2.492415e+001  4.861495e+001 
3084375000  -2.414389e+001  4.511295e+001 
3087500000  -2.405877e+001  4.137575e+001 
3090625000  -2.375978e+001  3.152777e+001 
3093750000  -2.424813e+001  2.367836e+001 
3096875000  -2.547910e+001  1.778618e+001 
3100000000  -2.562989e+001  1.647662e+001 
3103125000  -2.602105e+001  1.783114e+001 
3106250000  -2.572941e+001  1.422840e+001 
3109375000  -2.599669e+001  1.089987e+001 
3112500000  -2.611718e+001  9.865951e+000 
3115625000  -2.595889e+001  5.650238e+000 
3118750000  -2.638837e+001  6.728170e+000 
3121875000  -2.574368e+001  -1.342693e+000 
3125000000  -2.697827e+001  -4.807204e+000 
3128125000  -2.816620e+001  3.626741e+000 
3131250000  -2.591335e+001  4.032928e+000 
3134375000  -2.457934e+001  -9.691258e+000 
3137500000  -2.529940e+001  -2.314539e+001 
3140625000  -2.691105e+001  -2.494601e+001 
3143750000  -2.794995e+001  -2.102066e+001 
3146875000  -2.752094e+001  -1.878610e+001 
3150000000  -2.649716e+001  -1.657953e+001 
3153125000  -2.647548e+001  -2.443049e+001 
3156250000  -2.750196e+001  -1.867682e+001 
3159375000  -2.584833e+001  -1.579605e+001 
3162500000  -2.383589e+001  -2.882981e+001 
3165625000  -2.480678e+001  -3.993495e+001 
3168750000  -2.515932e+001  -3.887200e+001 
3171875000  -2.421591e+001  -4.305447e+001 
3175000000  -2.490974e+001  -5.087440e+001 
3178125000  -2.462268e+001  -4.938979e+001 
3181250000  -2.348737e+001  -5.350270e+001 
3184375000  -2.273873e+001  -6.562073e+001 
3187500000  -2.385840e+001  -8.060588e+001 
3190625000  -2.658683e+001  -8.788614e+001 
3193750000  -2.717688e+001  -7.840970e+001 
3196875000  -2.674824e+001  -7.318660e+001 
3200000000  -2.584590e+001  -7.491190e+001 
3203125000  -2.499131e+001  -8.089540e+001 
3206250000  -2.533614e+001  -8.719817e+001 
3209375000  -2.485349e+001  -9.223407e+001 
3212500000  -2.500549e+001  -9.908560e+001 
3215625000  -2.514652e+001  -1.028167e+002 
3218750000  -2.592376e+001  -1.092263e+002 
3221875000  -2.687219e+001  -1.141734e+002 
3225000000  -2.645687e+001  -1.150436e+002 
3228125000  -2.682057e+001  -1.197961e+002 
3231250000  -2.755102e+001  -1.220606e+002 
3234375000  -2.742504e+001  -1.207424e+002 
3237500000  -2.741275e+001  -1.227066e+002 
3240625000  -2.707112e+001  -1.246716e+002 
3243750000  -2.676472e+001  -1.311248e+002 
3246875000  -2.721368e+001  -1.378735e+002 
3250000000  -2.772507e+001  -1.394064e+002 
3253125000  -2.788003e+001  -1.412314e+002 
3256250000  -2.776041e+001  -1.470083e+002 
3259375000  -2.806543e+001  -1.546594e+002 
3262500000  -2.931787e+001  -1.574085e+002 
3265625000  -3.002748e+001  -1.540569e+002 
3268750000  -2.998173e+001  -1.513696e+002 
3271875000  -2.976606e+001  -1.502630e+002 
3275000000  -2.866610e+001  -1.552133e+002 
3278125000  -2.918863e+001  -1.613744e+002 
3281250000  -2.936807e+001  -1.596789e+002 
3284375000  -2.895586e+001  -1.651923e+002 
3287500000  -2.915634e+001  -1.682436e+002 
3290625000  -2.952969e+001  -1.726598e+002 
3293750000  -2.924977e+001  -1.778654e+002 
3296875000  -3.029063e+001  -1.777804e+002 
3300000000  -3.014421e+001  -1.769840e+002 
3303125000  -2.898730e+001  1.791565e+002 
3306250000  -2.877852e+001  1.725614e+002 
3309375000  -2.854157e+001  1.674468e+002 
3312500000  -2.856214e+001  1.572575e+002 
3315625000  -2.965063e+001  1.488122e+002 
3318750000  -3.101916e+001  1.470021e+002 
3321875000  -3.217270e+001  1.463145e+002 
3325000000  -3.271859e+001  1.526055e+002 
3328125000  -3.260517e+001  1.537914e+002 
3331250000  -3.125263e+001  1.611574e+002 
3334375000  -2.869946e+001  1.507015e+002 
3337500000  -2.880264e+001  1.325151e+002 
3340625000  -3.020685e+001  1.217372e+002 
3343750000  -3.211454e+001  1.206164e+002 
3346875000  -3.264277e+001  1.220698e+002 
3350000000  -3.195214e+001  1.201830e+002 
3353125000  -3.222539e+001  1.154247e+002 
3356250000  -3.180652e+001  1.080434e+002 
3359375000  -3.269886e+001  1.001074e+002 
3362500000  -3.432639e+001  9.375164e+001 
3365625000  -3.504287e+001  9.183400e+001 
3368750000  -3.605301e+001  9.130511e+001 
3371875000  -3.647698e+001  8.700754e+001 
3375000000  -3.798989e+001  8.563770e+001 
3378125000  -3.923476e+001  8.525179e+001 
3381250000  -4.063285e+001  9.361535e+001 
3384375000  -3.981425e+001  1.147013e+002 
3387500000  -3.681824e+001  9.960988e+001 
3390625000  -3.857954e+001  8.066299e+001 
3393750000  -4.047472e+001  8.618839e+001 
3396875000  -3.952555e+001  9.146079e+001 
3400000000  -3.958287e+001  8.391274e+001 
3403125000  -4.061638e+001  7.891140e+001 
3406250000  -4.147706e+001  8.211396e+001 
3409375000  -4.207996e+001  7.678627e+001 
3412500000  -4.264612e+001  8.046930e+001 
3415625000  -4.389823e+001  8.521707e+001 
3418750000  -4.401830e+001  9.109480e+001 
3421875000  -4.424671e+001  9.849203e+001 
3425000000  -4.355196e+001  1.009355e+002 
3428125000  -4.231744e+001  9.934039e+001 
3431250000  -4.236591e+001  9.613718e+001 
3434375000  -4.198573e+001  9.323235e+001 
3437500000  -4.243906e+001  9.304144e+001 
3440625000  -4.285601e+001  9.525208e+001 
3443750000  -4.142651e+001  9.601182e+001 
3446875000  -4.052643e+001  9.100445e+001 
3450000000  -4.061040e+001  8.230460e+001 
3453125000  -4.066861e+001  7.417986e+001 
3456250000  -4.180970e+001  6.933111e+001 
3459375000  -4.306146e+001  7.416169e+001 
3462500000  -4.330136e+001  7.505807e+001 
3465625000  -4.263785e+001  6.932779e+001 
3468750000  -4.313413e+001  6.583631e+001 
3471875000  -4.339341e+001  6.728572e+001 
3475000000  -4.321811e+001  6.280806e+001 
3478125000  -4.361066e+001  5.869604e+001 
3481250000  -4.487011e+001  5.991627e+001 
3484375000  -4.662111e+001  6.496082e+001 
3487500000  -4.604322e+001  6.784014e+001 
3490625000  -4.524329e+001  6.360631e+001 
3493750000  -4.590287e+001  5.988483e+001 
3496875000  -4.644003e+001  6.031825e+001 
3500000000  -4.819998e+001  6.954007e+001 
3503125000  -4.808941e+001  7.896958e+001 
3506250000  -4.611801e+001  7.280034e+001 
3509375000  -4.670921e+001  7.438983e+001 
3512500000  -4.679791e+001  7.345570e+001 
3515625000  -4.689201e+001  7.299640e+001 
3518750000  -4.744348e+001  7.896736e+001 
3521875000  -4.714988e+001  8.299280e+001 
3525000000  -4.744164e+001  8.430940e+001 
3528125000  -4.673486e+001  9.437228e+001 
3531250000  -4.477607e+001  9.243755e+001 
3534375000  -4.443613e+001  8.569237e+001 
3537500000  -4.448771e+001  8.170836e+001 
3540625000  -4.500960e+001  8.154053e+001 
3543750000  -4.516596e+001  8.685729e+001 
3546875000  -4.476881e+001  9.987951e+001 
3550000000  -4.210928e+001  9.972363e+001 
3553125000  -4.074112e+001  8.373652e+001 
3556250000  -4.172131e+001  7.604057e+001 
3559375000  -4.122960e+001  7.860313e+001 
3562500000  -4.010093e+001  7.209436e+001 
3565625000  -4.097330e+001  6.432047e+001 
3568750000  -4.100113e+001  6.816178e+001 
3571875000  -4.061739e+001  6.669479e+001 
3575000000  -4.008880e+001  6.147721e+001 
3578125000  -4.052571e+001  5.786758e+001 
3581250000  -4.068592e+001  5.780444e+001 
3584375000  -3.987420e+001  5.698166e+001 
3587500000  -3.904297e+001  4.956219e+001 
3590625000  -3.927757e+001  4.070395e+001 
3593750000  -4.041903e+001  3.942692e+001 
3596875000  -4.031096e+001  4.773555e+001 
3600000000  -3.876443e+001  4.396320e+001 
3603125000  -3.915468e+001  2.927212e+001 
3606250000  -3.993393e+001  2.718541e+001 
3609375000  -4.014857e+001  2.652439e+001 
3612500000  -4.080387e+001  2.387440e+001 
3615625000  -4.083146e+001  2.251229e+001 
3618750000  -4.168084e+001  2.354564e+001 
3621875000  -4.130484e+001  2.295477e+001 
3625000000  -4.163237e+001  2.289253e+001 
3628125000  -4.153559e+001  2.324209e+001 
3631250000  -4.099519e+001  1.765606e+001 
3634375000  -4.255735e+001  2.007180e+001 
3637500000  -4.189959e+001  2.489836e+001 
3640625000  -4.089523e+001  2.690928e+001 
3643750000  -4.070883e+001  2.190452e+001 
3646875000  -4.127423e+001  1.656957e+001 
3650000000  -4.177864e+001  1.556157e+001 
3653125000  -4.162848e+001  1.713573e+001 
3656250000  -4.186150e+001  1.732084e+001 
3659375000  -4.184775e+001  1.935911e+001 
3662500000  -4.120026e+001  1.838602e+001 
3665625000  -4.132449e+001  1.981500e+001 
3668750000  -3.995251e+001  2.344349e+001 
3671875000  -3.924811e+001  1.652394e+001 
3675000000  -3.959835e+001  1.225089e+001 
3678125000  -4.009514e+001  1.277240e+001 
3681250000  -3.929301e+001  1.253890e+001 
3684375000  -3.935861e+001  9.997087e+000 
3687500000  -3.948737e+001  9.311708e+000 
3690625000  -3.941825e+001  5.868124e+000 
3693750000  -3.983049e+001  8.027925e+000 
3696875000  -3.976456e+001  1.131769e+001 
3700000000  -3.847306e+001  7.016338e+000 
3703125000  -3.829642e+001  4.090512e+000 
3706250000  -3.906829e+001  6.214983e+000 
3709375000  -3.828219e+001  1.009677e+001 
3712500000  -3.715099e+001  9.272221e+000 
3715625000  -3.604579e+001  3.101832e+000 
3718750000  -3.556392e+001  -5.175568e-001 
3721875000  -3.510347e+001  -5.274998e+000 
3725000000  -3.521057e+001  -9.883677e+000 
3728125000  -3.535292e+001  -1.013904e+001 
3731250000  -3.462724e+001  -1.137482e+001 
3734375000  -3.374702e+001  -1.778174e+001 
3737500000  -3.428914e+001  -2.474763e+001 
3740625000  -3.499986e+001  -2.821380e+001 
3743750000  -3.469807e+001  -2.970763e+001 
3746875000  -3.470263e+001  -3.145367e+001 
3750000000  -3.516092e+001  -3.277482e+001 
3753125000  -3.477627e+001  -3.279781e+001 
3756250000  -3.475727e+001  -3.398005e+001 
3759375000  -3.443183e+001  -3.437599e+001 
3762500000  -3.389098e+001  -3.766065e+001 
3765625000  -3.435388e+001  -4.005156e+001 
3768750000  -3.446170e+001  -3.814655e+001 
3771875000  -3.267692e+001  -4.069431e+001 
3775000000  -3.247307e+001  -4.759566e+001 
3778125000  -3.276627e+001  -4.947140e+001 
3781250000  -3.253497e+001  -5.212406e+001 
3784375000  -3.226793e+001  -5.427112e+001 
3787500000  -3.178564e+001  -5.768980e+001 
3790625000  -3.224544e+001  -6.313084e+001 
3793750000  -3.237063e+001  -6.327725e+001 
3796875000  -3.139742e+001  -6.477565e+001 
3800000000  -2.979333e+001  -6.837453e+001 
3803125000  -3.057947e+001  -7.547137e+001 
3806250000  -3.115878e+001  -7.786111e+001 
3809375000  -3.097858e+001  -7.929941e+001 
3812500000  -3.027391e+001  -8.426158e+001 
3815625000  -3.093687e+001  -9.205019e+001 
3818750000  -3.188017e+001  -9.286461e+001 
3821875000  -3.183444e+001  -8.540047e+001 
3825000000  -2.991779e+001  -8.081731e+001 
3828125000  -2.859695e+001  -9.482862e+001 
3831250000  -2.922574e+001  -1.092279e+002 
3834375000  -3.048264e+001  -1.101178e+002 
3837500000  -3.143149e+001  -1.052004e+002 
3840625000  -3.039462e+001  -1.058153e+002 
3843750000  -2.909406e+001  -1.163342e+002 
3846875000  -2.993182e+001  -1.235982e+002 
3850000000  -3.120993e+001  -1.183817e+002 
3853125000  -3.041109e+001  -1.149686e+002 
3856250000  -3.041381e+001  -1.204014e+002 
3859375000  -2.973161e+001  -1.251111e+002 
3862500000  -2.933813e+001  -1.327198e+002 
3865625000  -2.961651e+001  -1.370584e+002 
3868750000  -2.959652e+001  -1.374464e+002 
3871875000  -2.891130e+001  -1.398896e+002 
3875000000  -2.906792e+001  -1.483280e+002 
3878125000  -3.012153e+001  -1.508034e+002 
3881250000  -3.023057e+001  -1.475463e+002 
3884375000  -2.973673e+001  -1.518358e+002 
3887500000  -2.972264e+001  -1.562807e+002 
3890625000  -3.030948e+001  -1.584108e+002 
3893750000  -3.080533e+001  -1.587342e+002 
3896875000  -3.087654e+001  -1.583046e+002 
3900000000  -3.105725e+001  -1.594246e+002 
3903125000  -3.072725e+001  -1.606206e+002 
3906250000  -3.045055e+001  -1.613022e+002 
3909375000  -2.963260e+001  -1.647866e+002 
3912500000  -2.970940e+001  -1.715890e+002 
3915625000  -3.091308e+001  -1.709799e+002 
3918750000  -3.083297e+001  -1.695534e+002 
3921875000  -3.050978e+001  -1.711239e+002 
3925000000  -2.959463e+001  -1.718590e+002 
3928125000  -2.891764e+001  -1.773636e+002 
3931250000  -2.928788e+001  1.786397e+002 
3934375000  -2.956197e+001  1.787013e+002 
3937500000  -2.970305e+001  1.779276e+002 
3940625000  -3.012399e+001  1.774131e+002 
3943750000  -2.919218e+001  1.791098e+002 
3946875000  -2.793130e+001  1.731574e+002 
3950000000  -2.847957e+001  1.651814e+002 
3953125000  -2.946422e+001  1.659710e+002 
3956250000  -2.861781e+001  1.689640e+002 
3959375000  -2.721686e+001  1.652893e+002 
3962500000  -2.671874e+001  1.609117e+002 
3965625000  -2.647382e+001  1.520689e+002 
3968750000  -2.737207e+001  1.454478e+002 
3971875000  -2.767933e+001  1.436268e+002 
3975000000  -2.706041e+001  1.417118e+002 
3978125000  -2.694463e+001  1.405255e+002 
3981250000  -2.671560e+001  1.356726e+002 
3984375000  -2.700327e+001  1.296602e+002 
3987500000  -2.757086e+001  1.277421e+002 
3990625000  -2.755038e+001  1.267682e+002 
3993750000  -2.788965e+001  1.240109e+002 
3996875000  -2.781017e+001  1.213018e+002 
4000000000  -2.793223e+001  1.196618e+002 
4003125000  -2.853466e+001  1.218873e+002 
4006250000  -2.713814e+001  1.227034e+002 
4009375000  -2.589856e+001  1.104272e+002 
4012500000  -2.702872e+001  1.031869e+002 
4015625000  -2.825941e+001  1.043037e+002 
4018750000  -2.836516e+001  1.067178e+002 
4021875000  -2.764341e+001  1.051904e+002 
4025000000  -2.733126e+001  1.008663e+002 
4028125000  -2.726865e+001  9.656921e+001 
4031250000  -2.767247e+001  9.390771e+001 
4034375000  -2.796137e+001  9.388663e+001 
4037500000  -2.734590e+001  9.557164e+001 
4040625000  -2.723730e+001  9.263560e+001 
4043750000  -2.754436e+001  9.198044e+001 
4046875000  -2.705738e+001  9.118504e+001 
4050000000  -2.662019e+001  8.584176e+001 
4053125000  -2.705399e+001  8.371292e+001 
4056250000  -2.766725e+001  8.767731e+001 
4059375000  -2.636341e+001  8.909615e+001 
4062500000  -2.494260e+001  8.413782e+001 
4065625000  -2.486639e+001  7.955996e+001 
4068750000  -2.451986e+001  7.450230e+001 
4071875000  -2.392727e+001  6.669852e+001 
4075000000  -2.432246e+001  6.014884e+001 
4078125000  -2.484970e+001  5.903709e+001 
4081250000  -2.433401e+001  5.649136e+001 
4084375000  -2.399006e+001  4.997913e+001 
4087500000  -2.437502e+001  4.348568e+001 
4090625000  -2.502726e+001  4.208119e+001 
4093750000  -2.485348e+001  4.293254e+001 
4096875000  -2.436793e+001  3.683466e+001 
4100000000  -2.515207e+001  2.979616e+001 
4103125000  -2.602507e+001  3.073652e+001 
4106250000  -2.593377e+001  3.538273e+001 
4109375000  -2.506497e+001  3.513712e+001 
4112500000  -2.451783e+001  2.851528e+001 
4115625000  -2.485059e+001  2.437181e+001 
4118750000  -2.495766e+001  2.131093e+001 
4121875000  -2.454519e+001  1.665890e+001 
4125000000  -2.495630e+001  1.181010e+001 
4128125000  -2.603607e+001  1.217651e+001 
4131250000  -2.573178e+001  2.045630e+001 
4134375000  -2.333297e+001  1.618693e+001 
4137500000  -2.316265e+001  -2.539685e+000 
4140625000  -2.538934e+001  -9.526656e+000 
4143750000  -2.665946e+001  -3.720311e+000 
4146875000  -2.622066e+001  3.254245e+000 
4150000000  -2.528865e+001  1.276815e-001 
4153125000  -2.506603e+001  -6.393763e+000 
4156250000  -2.595811e+001  -8.960971e+000 
4159375000  -2.622382e+001  -4.285996e+000 
4162500000  -2.505775e+001  2.338102e-001 
4165625000  -2.389299e+001  -4.024224e+000 
4168750000  -2.326277e+001  -1.109839e+001 
4171875000  -2.321854e+001  -2.052579e+001 
4175000000  -2.382403e+001  -2.615105e+001 
4178125000  -2.438646e+001  -2.591660e+001 
4181250000  -2.426401e+001  -2.727742e+001 
4184375000  -2.408000e+001  -3.034457e+001 
4187500000  -2.409209e+001  -3.319908e+001 
4190625000  -2.394459e+001  -3.879552e+001 
4193750000  -2.469593e+001  -4.281833e+001 
4196875000  -2.545827e+001  -4.307520e+001 
4200000000  -2.632540e+001  -4.097746e+001 
4203125000  -2.634629e+001  -2.724668e+001 
4206250000  -2.293220e+001  -2.636461e+001 
4209375000  -2.177257e+001  -4.721195e+001 
4212500000  -2.373015e+001  -5.606932e+001 
4215625000  -2.472378e+001  -4.969822e+001 
4218750000  -2.337471e+001  -4.321745e+001 
4221875000  -2.111074e+001  -5.215564e+001 
4225000000  -2.236422e+001  -6.497447e+001 
4228125000  -2.312229e+001  -5.995685e+001 
4231250000  -2.153402e+001  -6.359077e+001 
4234375000  -2.147995e+001  -7.195793e+001 
4237500000  -2.109134e+001  -7.505470e+001 
4240625000  -2.114328e+001  -8.377049e+001 
4243750000  -2.210073e+001  -9.020869e+001 
4246875000  -2.301228e+001  -9.022175e+001 
4250000000  -2.307139e+001  -8.729491e+001 
4253125000  -2.253988e+001  -8.928360e+001 
4256250000  -2.278161e+001  -9.334396e+001 
4259375000  -2.250340e+001  -9.538476e+001 
4262500000  -2.256156e+001  -9.877651e+001 
4265625000  -2.271191e+001  -9.847808e+001 
4268750000  -2.185137e+001  -1.022629e+002 
4271875000  -2.155525e+001  -1.078534e+002 
4275000000  -2.091446e+001  -1.141931e+002 
4278125000  -2.157418e+001  -1.252234e+002 
4281250000  -2.339132e+001  -1.270716e+002 
4284375000  -2.297851e+001  -1.263501e+002 
4287500000  -2.386005e+001  -1.298219e+002 
4290625000  -2.502369e+001  -1.200671e+002 
4293750000  -2.299043e+001  -1.144809e+002 
4296875000  -2.168284e+001  -1.261360e+002 
4300000000  -2.246817e+001  -1.351988e+002 
4303125000  -2.360679e+001  -1.339894e+002 
4306250000  -2.292736e+001  -1.279251e+002 
4309375000  -2.154954e+001  -1.302710e+002 
4312500000  -2.140238e+001  -1.386321e+002 
4315625000  -2.158780e+001  -1.450817e+002 
4318750000  -2.197226e+001  -1.483895e+002 
4321875000  -2.211882e+001  -1.478719e+002 
4325000000  -2.152380e+001  -1.473756e+002 
4328125000  -2.101627e+001  -1.538826e+002 
4331250000  -2.095826e+001  -1.621751e+002 
4334375000  -2.137910e+001  -1.675971e+002 
4337500000  -2.228049e+001  -1.694204e+002 
4340625000  -2.280824e+001  -1.663206e+002 
4343750000  -2.220954e+001  -1.662042e+002 
4346875000  -2.180701e+001  -1.716162e+002 
4350000000  -2.187994e+001  -1.766894e+002 
4353125000  -2.193493e+001  1.757789e+002 
4356250000  -2.376453e+001  1.748858e+002 
4359375000  -2.428761e+001  -1.716589e+002 
4362500000  -2.156670e+001  -1.698888e+002 
4365625000  -2.003246e+001  1.778632e+002 
4368750000  -2.072071e+001  1.664037e+002 
4371875000  -2.197166e+001  1.672396e+002 
4375000000  -2.164764e+001  1.684339e+002 
4378125000  -2.102659e+001  1.622681e+002 
4381250000  -2.120026e+001  1.568931e+002 
4384375000  -2.100643e+001  1.525680e+002 
4387500000  -2.183110e+001  1.469567e+002 
4390625000  -2.283028e+001  1.478950e+002 
4393750000  -2.209380e+001  1.499604e+002 
4396875000  -2.145125e+001  1.482787e+002 
4400000000  -2.096590e+001  1.409741e+002 
4403125000  -2.155358e+001  1.338190e+002 
4406250000  -2.239163e+001  1.325800e+002 
4409375000  -2.235799e+001  1.303365e+002 
4412500000  -2.337613e+001  1.274205e+002 
4415625000  -2.372676e+001  1.327595e+002 
4418750000  -2.249058e+001  1.375924e+002 
