!Agilent Technologies,E8363B,MY43030201,A.06.04.32
!Agilent E8363B: A.06.04.32
!Date: Tuesday, November 11, 2014 20:52:42
!Correction: S21(Response(S21)) 
!S1P File: Measurement: S21:
# Hz S  dB   R 50
3000000000  -2.653415e+001  1.507015e+002 
3003125000  -2.798167e+001  1.459817e+002 
3006250000  -2.800558e+001  1.435352e+002 
3009375000  -2.835135e+001  1.486709e+002 
3012500000  -2.778374e+001  1.482190e+002 
3015625000  -2.688313e+001  1.409269e+002 
3018750000  -2.771252e+001  1.400757e+002 
3021875000  -2.645164e+001  1.414110e+002 
3025000000  -2.509479e+001  1.383999e+002 
3028125000  -2.418994e+001  1.335367e+002 
3031250000  -2.313299e+001  1.220576e+002 
3034375000  -2.276975e+001  1.091204e+002 
3037500000  -2.315838e+001  9.740882e+001 
3040625000  -2.449802e+001  9.202977e+001 
3043750000  -2.518955e+001  8.789734e+001 
3046875000  -2.531098e+001  8.164176e+001 
3050000000  -2.705101e+001  7.456666e+001 
3053125000  -2.711532e+001  8.123419e+001 
3056250000  -2.644336e+001  8.432664e+001 
3059375000  -2.671201e+001  8.379631e+001 
3062500000  -2.522209e+001  7.994303e+001 
3065625000  -2.502699e+001  7.440023e+001 
3068750000  -2.470818e+001  6.731546e+001 
3071875000  -2.469269e+001  6.440539e+001 
3075000000  -2.459646e+001  6.055625e+001 
3078125000  -2.435554e+001  5.602437e+001 
3081250000  -2.498377e+001  5.164669e+001 
3084375000  -2.425617e+001  4.807649e+001 
3087500000  -2.412587e+001  4.460317e+001 
3090625000  -2.384486e+001  3.473223e+001 
3093750000  -2.430314e+001  2.685810e+001 
3096875000  -2.559006e+001  2.062411e+001 
3100000000  -2.568945e+001  1.962562e+001 
3103125000  -2.607852e+001  2.083292e+001 
3106250000  -2.579691e+001  1.733489e+001 
3109375000  -2.603199e+001  1.396641e+001 
3112500000  -2.618896e+001  1.250989e+001 
3115625000  -2.597719e+001  8.533546e+000 
3118750000  -2.645227e+001  9.871029e+000 
3121875000  -2.580130e+001  1.648011e+000 
3125000000  -2.697415e+001  -1.960770e+000 
3128125000  -2.819781e+001  6.429383e+000 
3131250000  -2.598809e+001  7.209280e+000 
3134375000  -2.462262e+001  -6.767222e+000 
3137500000  -2.533787e+001  -2.042977e+001 
3140625000  -2.692847e+001  -2.187741e+001 
3143750000  -2.795478e+001  -1.802317e+001 
3146875000  -2.751855e+001  -1.607838e+001 
3150000000  -2.649797e+001  -1.376109e+001 
3153125000  -2.650636e+001  -2.138010e+001 
3156250000  -2.752645e+001  -1.606339e+001 
3159375000  -2.590906e+001  -1.322088e+001 
3162500000  -2.386173e+001  -2.600027e+001 
3165625000  -2.483963e+001  -3.695232e+001 
3168750000  -2.521153e+001  -3.592410e+001 
3171875000  -2.425798e+001  -4.027980e+001 
3175000000  -2.492001e+001  -4.849074e+001 
3178125000  -2.469665e+001  -4.639209e+001 
3181250000  -2.352077e+001  -5.054424e+001 
3184375000  -2.272765e+001  -6.281319e+001 
3187500000  -2.385427e+001  -7.788483e+001 
3190625000  -2.662826e+001  -8.512252e+001 
3193750000  -2.720301e+001  -7.548501e+001 
3196875000  -2.679951e+001  -7.045200e+001 
3200000000  -2.586801e+001  -7.227896e+001 
3203125000  -2.502379e+001  -7.798923e+001 
3206250000  -2.528794e+001  -8.406567e+001 
3209375000  -2.484818e+001  -8.928652e+001 
3212500000  -2.501669e+001  -9.593796e+001 
3215625000  -2.515036e+001  -9.999998e+001 
3218750000  -2.589133e+001  -1.063693e+002 
3221875000  -2.687591e+001  -1.113496e+002 
3225000000  -2.642425e+001  -1.119442e+002 
3228125000  -2.680517e+001  -1.166186e+002 
3231250000  -2.753440e+001  -1.191112e+002 
3234375000  -2.737267e+001  -1.181119e+002 
3237500000  -2.745850e+001  -1.197941e+002 
3240625000  -2.706956e+001  -1.213989e+002 
3243750000  -2.671479e+001  -1.280729e+002 
3246875000  -2.720404e+001  -1.346015e+002 
3250000000  -2.764735e+001  -1.365892e+002 
3253125000  -2.784821e+001  -1.381387e+002 
3256250000  -2.767909e+001  -1.440844e+002 
3259375000  -2.803866e+001  -1.517314e+002 
3262500000  -2.927806e+001  -1.544640e+002 
3265625000  -2.992567e+001  -1.515061e+002 
3268750000  -2.991554e+001  -1.487236e+002 
3271875000  -2.963557e+001  -1.476334e+002 
3275000000  -2.856725e+001  -1.529182e+002 
3278125000  -2.909579e+001  -1.586807e+002 
3281250000  -2.934060e+001  -1.572596e+002 
3284375000  -2.885468e+001  -1.630161e+002 
3287500000  -2.904910e+001  -1.654478e+002 
3290625000  -2.949952e+001  -1.701511e+002 
3293750000  -2.914075e+001  -1.752882e+002 
3296875000  -3.021485e+001  -1.754781e+002 
3300000000  -3.006819e+001  -1.742270e+002 
3303125000  -2.892432e+001  -1.785506e+002 
3306250000  -2.868528e+001  1.753282e+002 
3309375000  -2.847445e+001  1.702879e+002 
3312500000  -2.850385e+001  1.594355e+002 
3315625000  -2.955039e+001  1.518189e+002 
3318750000  -3.087738e+001  1.494333e+002 
3321875000  -3.211702e+001  1.489676e+002 
3325000000  -3.273684e+001  1.550805e+002 
3328125000  -3.247858e+001  1.559423e+002 
3331250000  -3.124230e+001  1.638191e+002 
3334375000  -2.865276e+001  1.539069e+002 
3337500000  -2.871998e+001  1.351208e+002 
3340625000  -3.008834e+001  1.243029e+002 
3343750000  -3.212767e+001  1.232600e+002 
3346875000  -3.256649e+001  1.252345e+002 
3350000000  -3.189754e+001  1.232719e+002 
3353125000  -3.208971e+001  1.190638e+002 
3356250000  -3.172965e+001  1.111084e+002 
3359375000  -3.257161e+001  1.028477e+002 
3362500000  -3.390049e+001  9.785778e+001 
3365625000  -3.438562e+001  9.646630e+001 
3368750000  -3.550333e+001  9.405759e+001 
3371875000  -3.589473e+001  9.092236e+001 
3375000000  -3.756407e+001  8.938742e+001 
3378125000  -3.852523e+001  9.002482e+001 
3381250000  -4.034053e+001  9.641827e+001 
3384375000  -3.913890e+001  1.176071e+002 
3387500000  -3.594835e+001  1.035453e+002 
3390625000  -3.787901e+001  8.484271e+001 
3393750000  -3.951828e+001  9.045835e+001 
3396875000  -3.886615e+001  9.284401e+001 
3400000000  -3.862255e+001  8.516335e+001 
3403125000  -3.977374e+001  8.124379e+001 
3406250000  -4.051089e+001  8.318986e+001 
3409375000  -4.093649e+001  7.921695e+001 
3412500000  -4.222053e+001  8.128133e+001 
3415625000  -4.273130e+001  8.601115e+001 
3418750000  -4.308415e+001  8.867960e+001 
3421875000  -4.324118e+001  9.457075e+001 
3425000000  -4.248694e+001  9.858111e+001 
3428125000  -4.162232e+001  9.910685e+001 
3431250000  -4.154510e+001  9.530643e+001 
3434375000  -4.138299e+001  9.326591e+001 
3437500000  -4.180258e+001  8.922897e+001 
3440625000  -4.183261e+001  9.210475e+001 
3443750000  -4.094559e+001  9.513228e+001 
3446875000  -4.012274e+001  9.017357e+001 
3450000000  -3.993204e+001  8.170189e+001 
3453125000  -4.014705e+001  7.100894e+001 
3456250000  -4.131858e+001  6.808539e+001 
3459375000  -4.246268e+001  7.210909e+001 
3462500000  -4.210609e+001  7.119077e+001 
3465625000  -4.216743e+001  6.703516e+001 
3468750000  -4.289810e+001  6.206939e+001 
3471875000  -4.307350e+001  6.348857e+001 
3475000000  -4.267236e+001  6.047156e+001 
3478125000  -4.340425e+001  5.492704e+001 
3481250000  -4.460231e+001  5.223889e+001 
3484375000  -4.655460e+001  5.898318e+001 
3487500000  -4.587195e+001  5.979814e+001 
3490625000  -4.528990e+001  5.709419e+001 
3493750000  -4.586541e+001  5.621009e+001 
3496875000  -4.684407e+001  5.690707e+001 
3500000000  -4.877658e+001  6.726762e+001 
3503125000  -4.742798e+001  6.916760e+001 
3506250000  -4.670435e+001  7.223402e+001 
3509375000  -4.712397e+001  6.845026e+001 
3512500000  -4.778123e+001  6.360120e+001 
3515625000  -4.787229e+001  7.334349e+001 
3518750000  -4.802396e+001  7.670845e+001 
3521875000  -4.765380e+001  8.100032e+001 
3525000000  -4.810148e+001  8.058358e+001 
3528125000  -4.724822e+001  9.316173e+001 
3531250000  -4.586561e+001  9.045010e+001 
3534375000  -4.530750e+001  8.333613e+001 
3537500000  -4.496673e+001  8.297651e+001 
3540625000  -4.559879e+001  8.060593e+001 
3543750000  -4.610186e+001  8.501499e+001 
3546875000  -4.542481e+001  9.889898e+001 
3550000000  -4.312245e+001  9.911031e+001 
3553125000  -4.158611e+001  8.119057e+001 
3556250000  -4.251362e+001  7.639041e+001 
3559375000  -4.216320e+001  7.842294e+001 
3562500000  -4.073630e+001  7.254111e+001 
3565625000  -4.174250e+001  6.576373e+001 
3568750000  -4.202030e+001  6.758866e+001 
3571875000  -4.166014e+001  6.818734e+001 
3575000000  -4.106339e+001  6.256377e+001 
3578125000  -4.141841e+001  6.020246e+001 
3581250000  -4.143784e+001  6.079478e+001 
3584375000  -4.078868e+001  6.059581e+001 
3587500000  -4.010791e+001  5.332578e+001 
3590625000  -4.005457e+001  4.521284e+001 
3593750000  -4.150806e+001  4.269940e+001 
3596875000  -4.115450e+001  5.223030e+001 
3600000000  -3.981469e+001  4.876513e+001 
3603125000  -3.979160e+001  3.630842e+001 
3606250000  -4.064331e+001  3.237595e+001 
3609375000  -4.102842e+001  3.159572e+001 
3612500000  -4.126976e+001  3.026636e+001 
3615625000  -4.139896e+001  2.719923e+001 
3618750000  -4.202000e+001  2.964143e+001 
3621875000  -4.166657e+001  2.808594e+001 
3625000000  -4.170366e+001  2.999787e+001 
3628125000  -4.171609e+001  2.901523e+001 
3631250000  -4.136861e+001  2.416932e+001 
3634375000  -4.237883e+001  2.481313e+001 
3637500000  -4.183662e+001  3.183243e+001 
3640625000  -4.105803e+001  3.181979e+001 
3643750000  -4.073341e+001  2.578449e+001 
3646875000  -4.124112e+001  1.999189e+001 
3650000000  -4.144365e+001  1.984792e+001 
3653125000  -4.158397e+001  2.011269e+001 
3656250000  -4.159002e+001  1.873982e+001 
3659375000  -4.229125e+001  2.226620e+001 
3662500000  -4.102341e+001  1.986076e+001 
3665625000  -4.135588e+001  2.261795e+001 
3668750000  -4.024677e+001  2.394450e+001 
3671875000  -3.929004e+001  1.896860e+001 
3675000000  -3.980682e+001  1.202501e+001 
3678125000  -4.018117e+001  1.310746e+001 
3681250000  -3.955977e+001  1.467154e+001 
3684375000  -3.974628e+001  1.246801e+001 
3687500000  -3.991071e+001  1.206980e+001 
3690625000  -3.991217e+001  9.011103e+000 
3693750000  -4.032914e+001  1.091331e+001 
3696875000  -4.017108e+001  1.507885e+001 
3700000000  -3.889152e+001  1.286905e+001 
3703125000  -3.874142e+001  8.971800e+000 
3706250000  -3.949361e+001  9.544211e+000 
3709375000  -3.883675e+001  1.429628e+001 
3712500000  -3.728585e+001  1.423835e+001 
3715625000  -3.638985e+001  8.573970e+000 
3718750000  -3.571640e+001  6.275396e+000 
3721875000  -3.528674e+001  -3.745842e-001 
3725000000  -3.536077e+001  -4.949305e+000 
3728125000  -3.546443e+001  -5.358055e+000 
3731250000  -3.471892e+001  -5.907331e+000 
3734375000  -3.364916e+001  -1.272338e+001 
3737500000  -3.430734e+001  -1.994524e+001 
3740625000  -3.475528e+001  -2.195324e+001 
3743750000  -3.459121e+001  -2.521614e+001 
3746875000  -3.461609e+001  -2.848670e+001 
3750000000  -3.490568e+001  -2.850290e+001 
3753125000  -3.464689e+001  -2.954093e+001 
3756250000  -3.450743e+001  -2.972810e+001 
3759375000  -3.428442e+001  -3.054193e+001 
3762500000  -3.375977e+001  -3.477797e+001 
3765625000  -3.423659e+001  -3.715831e+001 
3768750000  -3.445891e+001  -3.576372e+001 
3771875000  -3.255574e+001  -3.687743e+001 
3775000000  -3.227125e+001  -4.545074e+001 
3778125000  -3.264903e+001  -4.668418e+001 
3781250000  -3.243420e+001  -4.926032e+001 
3784375000  -3.233207e+001  -5.205629e+001 
3787500000  -3.166735e+001  -5.543220e+001 
3790625000  -3.229927e+001  -6.086121e+001 
3793750000  -3.239460e+001  -6.175780e+001 
3796875000  -3.144733e+001  -6.290010e+001 
3800000000  -2.992966e+001  -6.633038e+001 
3803125000  -3.080099e+001  -7.363361e+001 
3806250000  -3.150836e+001  -7.581049e+001 
3809375000  -3.111019e+001  -7.647041e+001 
3812500000  -3.046293e+001  -8.187120e+001 
3815625000  -3.104081e+001  -8.925379e+001 
3818750000  -3.203728e+001  -9.080008e+001 
3821875000  -3.203961e+001  -8.238618e+001 
3825000000  -3.018080e+001  -7.766261e+001 
3828125000  -2.878496e+001  -9.235408e+001 
3831250000  -2.937641e+001  -1.059623e+002 
3834375000  -3.068630e+001  -1.070009e+002 
3837500000  -3.165033e+001  -1.011798e+002 
3840625000  -3.049419e+001  -1.023809e+002 
3843750000  -2.929901e+001  -1.128600e+002 
3846875000  -2.997662e+001  -1.199265e+002 
3850000000  -3.121307e+001  -1.145188e+002 
3853125000  -3.047833e+001  -1.108947e+002 
3856250000  -3.035798e+001  -1.165734e+002 
3859375000  -2.967494e+001  -1.215607e+002 
3862500000  -2.933181e+001  -1.286204e+002 
3865625000  -2.950362e+001  -1.328716e+002 
3868750000  -2.952994e+001  -1.333213e+002 
3871875000  -2.889649e+001  -1.366900e+002 
3875000000  -2.900153e+001  -1.447326e+002 
3878125000  -2.998306e+001  -1.474049e+002 
3881250000  -3.015119e+001  -1.443527e+002 
3884375000  -2.955597e+001  -1.491704e+002 
3887500000  -2.975964e+001  -1.530461e+002 
3890625000  -3.027124e+001  -1.559840e+002 
3893750000  -3.063811e+001  -1.569668e+002 
3896875000  -3.080593e+001  -1.557141e+002 
3900000000  -3.107085e+001  -1.573642e+002 
3903125000  -3.061997e+001  -1.593257e+002 
3906250000  -3.039459e+001  -1.602515e+002 
3909375000  -2.971491e+001  -1.625404e+002 
3912500000  -2.970242e+001  -1.696731e+002 
3915625000  -3.088252e+001  -1.692404e+002 
3918750000  -3.097043e+001  -1.676104e+002 
3921875000  -3.055290e+001  -1.690822e+002 
3925000000  -2.981611e+001  -1.693811e+002 
3928125000  -2.912476e+001  -1.757167e+002 
3931250000  -2.953484e+001  1.796646e+002 
3934375000  -2.979370e+001  -1.789692e+002 
3937500000  -2.991739e+001  1.798414e+002 
3940625000  -3.039381e+001  -1.798322e+002 
3943750000  -2.943116e+001  -1.783610e+002 
3946875000  -2.814057e+001  1.760571e+002 
3950000000  -2.866711e+001  1.688239e+002 
3953125000  -2.965444e+001  1.693660e+002 
3956250000  -2.881709e+001  1.719606e+002 
3959375000  -2.751176e+001  1.692909e+002 
3962500000  -2.690706e+001  1.652891e+002 
3965625000  -2.660202e+001  1.560417e+002 
3968750000  -2.755873e+001  1.497264e+002 
3971875000  -2.783502e+001  1.480463e+002 
3975000000  -2.726521e+001  1.463487e+002 
3978125000  -2.699646e+001  1.443435e+002 
3981250000  -2.679767e+001  1.403410e+002 
3984375000  -2.701703e+001  1.340452e+002 
3987500000  -2.753951e+001  1.319190e+002 
3990625000  -2.756755e+001  1.311496e+002 
3993750000  -2.771693e+001  1.276635e+002 
3996875000  -2.763721e+001  1.253469e+002 
4000000000  -2.781280e+001  1.231604e+002 
4003125000  -2.846238e+001  1.254228e+002 
4006250000  -2.700153e+001  1.257549e+002 
4009375000  -2.574540e+001  1.134215e+002 
4012500000  -2.685452e+001  1.063267e+002 
4015625000  -2.809656e+001  1.066069e+002 
4018750000  -2.832562e+001  1.090817e+002 
4021875000  -2.762832e+001  1.074412e+002 
4025000000  -2.728598e+001  1.027972e+002 
4028125000  -2.725306e+001  9.856229e+001 
4031250000  -2.773024e+001  9.511965e+001 
4034375000  -2.793088e+001  9.541819e+001 
4037500000  -2.744979e+001  9.748141e+001 
4040625000  -2.740812e+001  9.382814e+001 
4043750000  -2.771639e+001  9.358027e+001 
4046875000  -2.723991e+001  9.276588e+001 
4050000000  -2.677526e+001  8.772965e+001 
4053125000  -2.723908e+001  8.536845e+001 
4056250000  -2.783800e+001  8.914639e+001 
4059375000  -2.663357e+001  9.128397e+001 
4062500000  -2.523293e+001  8.708865e+001 
4065625000  -2.508022e+001  8.240291e+001 
4068750000  -2.483348e+001  7.766148e+001 
4071875000  -2.418279e+001  6.978501e+001 
4075000000  -2.455361e+001  6.347604e+001 
4078125000  -2.512614e+001  6.268436e+001 
4081250000  -2.454729e+001  6.019835e+001 
4084375000  -2.418700e+001  5.369818e+001 
4087500000  -2.455176e+001  4.716700e+001 
4090625000  -2.513718e+001  4.609029e+001 
4093750000  -2.499276e+001  4.678013e+001 
4096875000  -2.450609e+001  4.101211e+001 
4100000000  -2.522643e+001  3.391219e+001 
4103125000  -2.607700e+001  3.444939e+001 
4106250000  -2.594889e+001  3.927774e+001 
4109375000  -2.505156e+001  3.898030e+001 
4112500000  -2.450340e+001  3.225728e+001 
4115625000  -2.478706e+001  2.778866e+001 
4118750000  -2.492252e+001  2.543376e+001 
4121875000  -2.454654e+001  2.049179e+001 
4125000000  -2.489939e+001  1.564238e+001 
4128125000  -2.591149e+001  1.550867e+001 
4131250000  -2.559503e+001  2.341267e+001 
4134375000  -2.325119e+001  1.910181e+001 
4137500000  -2.309576e+001  4.004768e-002 
4140625000  -2.524173e+001  -6.562650e+000 
4143750000  -2.665613e+001  -1.739764e+000 
4146875000  -2.611811e+001  5.117658e+000 
4150000000  -2.526640e+001  1.895938e+000 
4153125000  -2.509000e+001  -4.284945e+000 
4156250000  -2.598127e+001  -7.007679e+000 
4159375000  -2.628553e+001  -2.559667e+000 
4162500000  -2.512800e+001  1.816744e+000 
4165625000  -2.396002e+001  -2.322988e+000 
4168750000  -2.345840e+001  -9.375884e+000 
4171875000  -2.337807e+001  -1.882536e+001 
4175000000  -2.398951e+001  -2.423838e+001 
4178125000  -2.457192e+001  -2.400601e+001 
4181250000  -2.445217e+001  -2.455475e+001 
4184375000  -2.434211e+001  -2.800639e+001 
4187500000  -2.438276e+001  -3.077313e+001 
4190625000  -2.417612e+001  -3.610164e+001 
4193750000  -2.501832e+001  -4.006169e+001 
4196875000  -2.568878e+001  -4.046430e+001 
4200000000  -2.653808e+001  -3.767342e+001 
4203125000  -2.652393e+001  -2.441404e+001 
4206250000  -2.318563e+001  -2.284811e+001 
4209375000  -2.201467e+001  -4.347120e+001 
4212500000  -2.393396e+001  -5.235241e+001 
4215625000  -2.492700e+001  -4.621551e+001 
4218750000  -2.358842e+001  -3.962761e+001 
4221875000  -2.134520e+001  -4.853119e+001 
4225000000  -2.253943e+001  -6.133880e+001 
4228125000  -2.327171e+001  -5.565351e+001 
4231250000  -2.163680e+001  -5.976793e+001 
4234375000  -2.162614e+001  -6.807021e+001 
4237500000  -2.116394e+001  -7.152040e+001 
4240625000  -2.119213e+001  -7.979920e+001 
4243750000  -2.210950e+001  -8.666223e+001 
4246875000  -2.304823e+001  -8.675400e+001 
4250000000  -2.306806e+001  -8.420039e+001 
4253125000  -2.249659e+001  -8.595140e+001 
4256250000  -2.281199e+001  -8.990454e+001 
4259375000  -2.252640e+001  -9.194878e+001 
4262500000  -2.253711e+001  -9.594870e+001 
4265625000  -2.269743e+001  -9.539935e+001 
4268750000  -2.183450e+001  -9.935083e+001 
4271875000  -2.160116e+001  -1.053595e+002 
4275000000  -2.099486e+001  -1.116036e+002 
4278125000  -2.162665e+001  -1.227068e+002 
4281250000  -2.341434e+001  -1.247085e+002 
4284375000  -2.312605e+001  -1.240308e+002 
4287500000  -2.393267e+001  -1.274278e+002 
4290625000  -2.520649e+001  -1.179730e+002 
4293750000  -2.313792e+001  -1.120884e+002 
4296875000  -2.177656e+001  -1.237385e+002 
4300000000  -2.265309e+001  -1.330139e+002 
4303125000  -2.383006e+001  -1.319811e+002 
4306250000  -2.320463e+001  -1.257437e+002 
4309375000  -2.185476e+001  -1.277842e+002 
4312500000  -2.171646e+001  -1.360538e+002 
4315625000  -2.193146e+001  -1.423397e+002 
4318750000  -2.223985e+001  -1.453114e+002 
4321875000  -2.241044e+001  -1.450472e+002 
4325000000  -2.188539e+001  -1.443012e+002 
4328125000  -2.132868e+001  -1.508236e+002 
4331250000  -2.127284e+001  -1.587201e+002 
4334375000  -2.169844e+001  -1.638672e+002 
4337500000  -2.255186e+001  -1.660257e+002 
4340625000  -2.315092e+001  -1.625858e+002 
4343750000  -2.247340e+001  -1.623108e+002 
4346875000  -2.212329e+001  -1.680256e+002 
4350000000  -2.211388e+001  -1.728278e+002 
4353125000  -2.221317e+001  1.798294e+002 
4356250000  -2.391371e+001  1.789492e+002 
4359375000  -2.452810e+001  -1.677092e+002 
4362500000  -2.181474e+001  -1.657097e+002 
4365625000  -2.022332e+001  -1.775473e+002 
4368750000  -2.091015e+001  1.703741e+002 
4371875000  -2.212781e+001  1.713347e+002 
4375000000  -2.179395e+001  1.722710e+002 
4378125000  -2.115572e+001  1.665273e+002 
4381250000  -2.131824e+001  1.609182e+002 
4384375000  -2.115073e+001  1.565012e+002 
4387500000  -2.189882e+001  1.505701e+002 
4390625000  -2.289455e+001  1.514100e+002 
4393750000  -2.222325e+001  1.535059e+002 
4396875000  -2.156091e+001  1.517523e+002 
4400000000  -2.104155e+001  1.447102e+002 
4403125000  -2.162890e+001  1.369949e+002 
4406250000  -2.249811e+001  1.357812e+002 
4409375000  -2.248304e+001  1.336003e+002 
4412500000  -2.352628e+001  1.306873e+002 
4415625000  -2.387933e+001  1.357485e+002 
4418750000  -2.265911e+001  1.404102e+002 
