!Agilent Technologies,E8363B,MY43030201,A.06.04.32
!Agilent E8363B: A.06.04.32
!Date: Tuesday, November 11, 2014 20:56:35
!Correction: S21(Response(S21)) 
!S1P File: Measurement: S21:
# Hz S  dB   R 50
3000000000  -2.649829e+001  1.478524e+002 
3003125000  -2.790598e+001  1.430555e+002 
3006250000  -2.794713e+001  1.408007e+002 
3009375000  -2.832251e+001  1.459264e+002 
3012500000  -2.777209e+001  1.450486e+002 
3015625000  -2.686466e+001  1.383669e+002 
3018750000  -2.767700e+001  1.374866e+002 
3021875000  -2.639676e+001  1.386732e+002 
3025000000  -2.507872e+001  1.357285e+002 
3028125000  -2.414113e+001  1.304453e+002 
3031250000  -2.310206e+001  1.193255e+002 
3034375000  -2.272951e+001  1.060414e+002 
3037500000  -2.312902e+001  9.419720e+001 
3040625000  -2.446431e+001  8.932865e+001 
3043750000  -2.514864e+001  8.506094e+001 
3046875000  -2.530262e+001  7.873080e+001 
3050000000  -2.699969e+001  7.185690e+001 
3053125000  -2.711915e+001  7.865883e+001 
3056250000  -2.646960e+001  8.149707e+001 
3059375000  -2.664132e+001  8.107243e+001 
3062500000  -2.520731e+001  7.719930e+001 
3065625000  -2.493678e+001  7.122659e+001 
3068750000  -2.466743e+001  6.441499e+001 
3071875000  -2.459651e+001  6.164505e+001 
3075000000  -2.457097e+001  5.783501e+001 
3078125000  -2.434084e+001  5.328113e+001 
3081250000  -2.495721e+001  4.881827e+001 
3084375000  -2.418241e+001  4.529150e+001 
3087500000  -2.409569e+001  4.162033e+001 
3090625000  -2.379299e+001  3.183243e+001 
3093750000  -2.430648e+001  2.397846e+001 
3096875000  -2.553750e+001  1.789600e+001 
3100000000  -2.562987e+001  1.681496e+001 
3103125000  -2.603791e+001  1.785626e+001 
3106250000  -2.577793e+001  1.443401e+001 
3109375000  -2.601293e+001  1.095884e+001 
3112500000  -2.613935e+001  9.821883e+000 
3115625000  -2.594558e+001  5.769789e+000 
3118750000  -2.646595e+001  6.860029e+000 
3121875000  -2.571636e+001  -1.034191e+000 
3125000000  -2.698550e+001  -4.539668e+000 
3128125000  -2.815091e+001  3.770730e+000 
3131250000  -2.589986e+001  3.839317e+000 
3134375000  -2.462167e+001  -9.685933e+000 
3137500000  -2.527652e+001  -2.321661e+001 
3140625000  -2.687572e+001  -2.477297e+001 
3143750000  -2.788285e+001  -2.119498e+001 
3146875000  -2.750490e+001  -1.898030e+001 
3150000000  -2.650209e+001  -1.669296e+001 
3153125000  -2.650247e+001  -2.441032e+001 
3156250000  -2.748061e+001  -1.861736e+001 
3159375000  -2.585387e+001  -1.610772e+001 
3162500000  -2.386309e+001  -2.922833e+001 
3165625000  -2.479388e+001  -4.005243e+001 
3168750000  -2.519035e+001  -3.878369e+001 
3171875000  -2.424771e+001  -4.327860e+001 
3175000000  -2.489311e+001  -5.103145e+001 
3178125000  -2.462915e+001  -4.937360e+001 
3181250000  -2.348194e+001  -5.362376e+001 
3184375000  -2.272534e+001  -6.555252e+001 
3187500000  -2.386819e+001  -8.087807e+001 
3190625000  -2.657476e+001  -8.818427e+001 
3193750000  -2.719544e+001  -7.869748e+001 
3196875000  -2.672057e+001  -7.318421e+001 
3200000000  -2.587211e+001  -7.516009e+001 
3203125000  -2.499244e+001  -8.081616e+001 
3206250000  -2.531724e+001  -8.724689e+001 
3209375000  -2.480406e+001  -9.209965e+001 
3212500000  -2.498787e+001  -9.887408e+001 
3215625000  -2.511136e+001  -1.025913e+002 
3218750000  -2.586707e+001  -1.092133e+002 
3221875000  -2.684171e+001  -1.141194e+002 
3225000000  -2.642340e+001  -1.150288e+002 
3228125000  -2.678834e+001  -1.195635e+002 
3231250000  -2.751250e+001  -1.219666e+002 
3234375000  -2.732060e+001  -1.207728e+002 
3237500000  -2.741047e+001  -1.228425e+002 
3240625000  -2.703210e+001  -1.247915e+002 
3243750000  -2.667564e+001  -1.312231e+002 
3246875000  -2.719079e+001  -1.376810e+002 
3250000000  -2.762725e+001  -1.394810e+002 
3253125000  -2.783241e+001  -1.413532e+002 
3256250000  -2.767995e+001  -1.469879e+002 
3259375000  -2.794826e+001  -1.547948e+002 
3262500000  -2.926727e+001  -1.576294e+002 
3265625000  -2.994013e+001  -1.539317e+002 
3268750000  -2.990405e+001  -1.513681e+002 
3271875000  -2.962630e+001  -1.505141e+002 
3275000000  -2.859571e+001  -1.559823e+002 
3278125000  -2.901364e+001  -1.615204e+002 
3281250000  -2.924310e+001  -1.596224e+002 
3284375000  -2.884988e+001  -1.657135e+002 
3287500000  -2.908720e+001  -1.680983e+002 
3290625000  -2.948624e+001  -1.727197e+002 
3293750000  -2.906278e+001  -1.782666e+002 
3296875000  -3.017792e+001  -1.780562e+002 
3300000000  -3.000374e+001  -1.767967e+002 
3303125000  -2.889882e+001  1.789861e+002 
3306250000  -2.865456e+001  1.724324e+002 
3309375000  -2.843998e+001  1.672583e+002 
3312500000  -2.847231e+001  1.568894e+002 
3315625000  -2.949794e+001  1.488144e+002 
3318750000  -3.088250e+001  1.467018e+002 
3321875000  -3.204077e+001  1.469904e+002 
3325000000  -3.257285e+001  1.521846e+002 
3328125000  -3.231222e+001  1.541578e+002 
3331250000  -3.124450e+001  1.609563e+002 
3334375000  -2.857515e+001  1.509034e+002 
3337500000  -2.872544e+001  1.323746e+002 
3340625000  -3.009002e+001  1.212808e+002 
3343750000  -3.200225e+001  1.206516e+002 
3346875000  -3.245682e+001  1.221404e+002 
3350000000  -3.188894e+001  1.208909e+002 
3353125000  -3.198881e+001  1.160903e+002 
3356250000  -3.169866e+001  1.090607e+002 
3359375000  -3.256181e+001  1.001770e+002 
3362500000  -3.384348e+001  9.496031e+001 
3365625000  -3.446721e+001  9.338274e+001 
3368750000  -3.547394e+001  9.197403e+001 
3371875000  -3.590165e+001  8.813308e+001 
3375000000  -3.736957e+001  8.674448e+001 
3378125000  -3.866967e+001  8.655780e+001 
3381250000  -4.018855e+001  9.445515e+001 
3384375000  -3.899301e+001  1.149348e+002 
3387500000  -3.599801e+001  1.016243e+002 
3390625000  -3.790250e+001  8.227644e+001 
3393750000  -3.932412e+001  8.665361e+001 
3396875000  -3.850567e+001  8.936022e+001 
3400000000  -3.862581e+001  8.318706e+001 
3403125000  -3.971412e+001  7.838721e+001 
3406250000  -4.053464e+001  8.186144e+001 
3409375000  -4.088142e+001  7.688588e+001 
3412500000  -4.187390e+001  7.750629e+001 
3415625000  -4.263667e+001  8.046048e+001 
3418750000  -4.299809e+001  8.933992e+001 
3421875000  -4.338153e+001  9.393313e+001 
3425000000  -4.257533e+001  9.763999e+001 
3428125000  -4.132793e+001  9.543554e+001 
3431250000  -4.143597e+001  9.243739e+001 
3434375000  -4.114487e+001  8.774196e+001 
3437500000  -4.181151e+001  8.710351e+001 
3440625000  -4.189086e+001  9.226031e+001 
3443750000  -4.049170e+001  9.203143e+001 
3446875000  -3.969276e+001  8.733035e+001 
3450000000  -3.952049e+001  7.882513e+001 
3453125000  -3.991193e+001  7.004633e+001 
3456250000  -4.097208e+001  6.254757e+001 
3459375000  -4.212584e+001  6.653716e+001 
3462500000  -4.223516e+001  6.691020e+001 
3465625000  -4.221883e+001  6.449503e+001 
3468750000  -4.268599e+001  5.993776e+001 
3471875000  -4.267326e+001  6.124390e+001 
3475000000  -4.262831e+001  5.633367e+001 
3478125000  -4.359461e+001  5.195420e+001 
3481250000  -4.451702e+001  5.044604e+001 
3484375000  -4.587366e+001  5.648848e+001 
3487500000  -4.549446e+001  5.659376e+001 
3490625000  -4.490368e+001  5.643235e+001 
3493750000  -4.550782e+001  5.263983e+001 
3496875000  -4.688166e+001  5.442064e+001 
3500000000  -4.795199e+001  6.134048e+001 
3503125000  -4.741585e+001  6.898386e+001 
3506250000  -4.686644e+001  6.601111e+001 
3509375000  -4.658106e+001  6.381866e+001 
3512500000  -4.769412e+001  6.083421e+001 
3515625000  -4.756881e+001  6.372338e+001 
3518750000  -4.842268e+001  6.888206e+001 
3521875000  -4.801032e+001  7.497163e+001 
3525000000  -4.728886e+001  7.823401e+001 
3528125000  -4.726858e+001  8.409019e+001 
3531250000  -4.601826e+001  8.717348e+001 
3534375000  -4.476735e+001  8.266695e+001 
3537500000  -4.497691e+001  7.655329e+001 
3540625000  -4.559390e+001  7.843691e+001 
3543750000  -4.549748e+001  8.243031e+001 
3546875000  -4.563546e+001  9.316069e+001 
3550000000  -4.311188e+001  9.488502e+001 
3553125000  -4.158557e+001  8.105344e+001 
3556250000  -4.246630e+001  7.351437e+001 
3559375000  -4.222100e+001  7.653053e+001 
3562500000  -4.085468e+001  6.795483e+001 
3565625000  -4.158937e+001  6.217340e+001 
3568750000  -4.188607e+001  6.570016e+001 
3571875000  -4.163848e+001  6.554070e+001 
3575000000  -4.096054e+001  5.893839e+001 
3578125000  -4.143943e+001  5.556791e+001 
3581250000  -4.163837e+001  5.602603e+001 
3584375000  -4.068351e+001  5.582920e+001 
3587500000  -3.982620e+001  4.999844e+001 
3590625000  -4.006142e+001  4.093541e+001 
3593750000  -4.111032e+001  4.129734e+001 
3596875000  -4.130906e+001  4.880685e+001 
3600000000  -3.967511e+001  4.398014e+001 
3603125000  -3.978465e+001  3.132878e+001 
3606250000  -4.027945e+001  2.880154e+001 
3609375000  -4.080895e+001  2.889193e+001 
3612500000  -4.131149e+001  2.697482e+001 
3615625000  -4.122118e+001  2.399266e+001 
3618750000  -4.184778e+001  2.738850e+001 
3621875000  -4.142843e+001  2.599802e+001 
3625000000  -4.173615e+001  2.487047e+001 
3628125000  -4.188458e+001  2.535689e+001 
3631250000  -4.143769e+001  1.971088e+001 
3634375000  -4.203598e+001  2.111106e+001 
3637500000  -4.195324e+001  2.845568e+001 
3640625000  -4.077054e+001  2.943788e+001 
3643750000  -4.032066e+001  2.165763e+001 
3646875000  -4.102296e+001  1.816382e+001 
3650000000  -4.148674e+001  1.699244e+001 
3653125000  -4.127532e+001  1.636957e+001 
3656250000  -4.163513e+001  1.521546e+001 
3659375000  -4.193972e+001  1.817712e+001 
3662500000  -4.119128e+001  1.593521e+001 
3665625000  -4.142679e+001  1.685222e+001 
3668750000  -4.003151e+001  1.967070e+001 
3671875000  -3.919271e+001  1.347547e+001 
3675000000  -3.970425e+001  8.781005e+000 
3678125000  -4.025429e+001  1.004886e+001 
3681250000  -3.945702e+001  1.112714e+001 
3684375000  -3.970304e+001  8.876101e+000 
3687500000  -3.981799e+001  7.790613e+000 
3690625000  -3.976108e+001  5.579560e+000 
3693750000  -4.024970e+001  7.920538e+000 
3696875000  -3.996646e+001  1.037167e+001 
3700000000  -3.877294e+001  8.167315e+000 
3703125000  -3.865273e+001  4.639423e+000 
3706250000  -3.921251e+001  7.780210e+000 
3709375000  -3.866677e+001  1.075127e+001 
3712500000  -3.743164e+001  1.000522e+001 
3715625000  -3.639335e+001  4.307007e+000 
3718750000  -3.555436e+001  1.633754e+000 
3721875000  -3.528124e+001  -3.360475e+000 
3725000000  -3.515788e+001  -8.388077e+000 
3728125000  -3.538242e+001  -9.270298e+000 
3731250000  -3.466366e+001  -9.344505e+000 
3734375000  -3.369692e+001  -1.621975e+001 
3737500000  -3.413414e+001  -2.350999e+001 
3740625000  -3.470599e+001  -2.603868e+001 
3743750000  -3.453030e+001  -2.905971e+001 
3746875000  -3.447825e+001  -3.234381e+001 
3750000000  -3.485752e+001  -3.223106e+001 
3753125000  -3.446980e+001  -3.333909e+001 
3756250000  -3.455769e+001  -3.397632e+001 
3759375000  -3.424772e+001  -3.415561e+001 
3762500000  -3.361972e+001  -3.875386e+001 
3765625000  -3.424620e+001  -4.068404e+001 
3768750000  -3.421091e+001  -3.849857e+001 
3771875000  -3.237280e+001  -4.123519e+001 
3775000000  -3.223095e+001  -4.914406e+001 
3778125000  -3.256441e+001  -5.032854e+001 
3781250000  -3.236514e+001  -5.397863e+001 
3784375000  -3.225051e+001  -5.595951e+001 
3787500000  -3.169478e+001  -5.920289e+001 
3790625000  -3.234615e+001  -6.509422e+001 
3793750000  -3.233065e+001  -6.556304e+001 
3796875000  -3.146284e+001  -6.623714e+001 
3800000000  -2.993027e+001  -7.026038e+001 
3803125000  -3.070325e+001  -7.767989e+001 
3806250000  -3.126331e+001  -7.999755e+001 
3809375000  -3.104824e+001  -8.085368e+001 
3812500000  -3.038917e+001  -8.582327e+001 
3815625000  -3.100371e+001  -9.313928e+001 
3818750000  -3.200461e+001  -9.540560e+001 
3821875000  -3.214170e+001  -8.535264e+001 
3825000000  -3.007588e+001  -8.162545e+001 
3828125000  -2.875323e+001  -9.577120e+001 
3831250000  -2.928423e+001  -1.101332e+002 
3834375000  -3.071632e+001  -1.109182e+002 
3837500000  -3.157213e+001  -1.058368e+002 
3840625000  -3.038743e+001  -1.065403e+002 
3843750000  -2.925242e+001  -1.169037e+002 
3846875000  -2.991260e+001  -1.239764e+002 
3850000000  -3.131134e+001  -1.183005e+002 
3853125000  -3.042742e+001  -1.151520e+002 
3856250000  -3.032838e+001  -1.203268e+002 
3859375000  -2.959335e+001  -1.249207e+002 
3862500000  -2.922383e+001  -1.325979e+002 
3865625000  -2.962625e+001  -1.365529e+002 
3868750000  -2.953598e+001  -1.371021e+002 
3871875000  -2.876922e+001  -1.404305e+002 
3875000000  -2.888212e+001  -1.489622e+002 
3878125000  -2.999877e+001  -1.513715e+002 
3881250000  -3.008895e+001  -1.482585e+002 
3884375000  -2.949513e+001  -1.527343e+002 
3887500000  -2.964889e+001  -1.569935e+002 
3890625000  -3.025870e+001  -1.593941e+002 
3893750000  -3.069875e+001  -1.610747e+002 
3896875000  -3.076585e+001  -1.603368e+002 
3900000000  -3.109851e+001  -1.607902e+002 
3903125000  -3.067944e+001  -1.628319e+002 
3906250000  -3.038658e+001  -1.638907e+002 
3909375000  -2.959919e+001  -1.668940e+002 
3912500000  -2.966206e+001  -1.740191e+002 
3915625000  -3.094546e+001  -1.731290e+002 
3918750000  -3.085011e+001  -1.720199e+002 
3921875000  -3.068915e+001  -1.729536e+002 
3925000000  -2.974259e+001  -1.735078e+002 
3928125000  -2.903591e+001  -1.792196e+002 
3931250000  -2.953577e+001  1.766712e+002 
3934375000  -2.977576e+001  1.767125e+002 
3937500000  -2.999819e+001  1.756935e+002 
3940625000  -3.037107e+001  1.763862e+002 
3943750000  -2.939934e+001  1.778676e+002 
3946875000  -2.825892e+001  1.723058e+002 
3950000000  -2.875082e+001  1.648152e+002 
3953125000  -2.968988e+001  1.654778e+002 
3956250000  -2.880482e+001  1.679734e+002 
3959375000  -2.749105e+001  1.654237e+002 
3962500000  -2.693619e+001  1.610914e+002 
3965625000  -2.659220e+001  1.522151e+002 
3968750000  -2.752565e+001  1.450912e+002 
3971875000  -2.788141e+001  1.441715e+002 
3975000000  -2.720741e+001  1.424258e+002 
3978125000  -2.704598e+001  1.406328e+002 
3981250000  -2.676764e+001  1.362683e+002 
3984375000  -2.702717e+001  1.301437e+002 
3987500000  -2.752139e+001  1.278094e+002 
3990625000  -2.755969e+001  1.270308e+002 
3993750000  -2.771796e+001  1.241334e+002 
3996875000  -2.774631e+001  1.216957e+002 
4000000000  -2.781017e+001  1.193570e+002 
4003125000  -2.838709e+001  1.214484e+002 
4006250000  -2.702957e+001  1.221539e+002 
4009375000  -2.574175e+001  1.099939e+002 
4012500000  -2.688534e+001  1.026530e+002 
4015625000  -2.812785e+001  1.031677e+002 
4018750000  -2.831799e+001  1.053435e+002 
4021875000  -2.756819e+001  1.041025e+002 
4025000000  -2.724452e+001  9.913461e+001 
4028125000  -2.722520e+001  9.497079e+001 
4031250000  -2.770220e+001  9.205293e+001 
4034375000  -2.800103e+001  9.227560e+001 
4037500000  -2.744034e+001  9.406215e+001 
4040625000  -2.727359e+001  9.038398e+001 
4043750000  -2.773630e+001  9.021174e+001 
4046875000  -2.727004e+001  8.952042e+001 
4050000000  -2.678289e+001  8.419752e+001 
4053125000  -2.723142e+001  8.256966e+001 
4056250000  -2.781017e+001  8.629920e+001 
4059375000  -2.655969e+001  8.837460e+001 
4062500000  -2.520447e+001  8.367679e+001 
4065625000  -2.510877e+001  7.888473e+001 
4068750000  -2.478726e+001  7.426044e+001 
4071875000  -2.414465e+001  6.642917e+001 
4075000000  -2.449183e+001  6.014212e+001 
4078125000  -2.511143e+001  5.924274e+001 
4081250000  -2.454855e+001  5.705492e+001 
4084375000  -2.416611e+001  5.039345e+001 
4087500000  -2.451058e+001  4.391925e+001 
4090625000  -2.511598e+001  4.304427e+001 
4093750000  -2.490689e+001  4.350928e+001 
4096875000  -2.447188e+001  3.747563e+001 
4100000000  -2.517096e+001  3.061328e+001 
4103125000  -2.607828e+001  3.122977e+001 
4106250000  -2.592859e+001  3.654816e+001 
4109375000  -2.499401e+001  3.546511e+001 
4112500000  -2.445969e+001  2.909424e+001 
4115625000  -2.479449e+001  2.469079e+001 
4118750000  -2.481298e+001  2.201071e+001 
4121875000  -2.446552e+001  1.711075e+001 
4125000000  -2.485568e+001  1.194008e+001 
4128125000  -2.585748e+001  1.209310e+001 
4131250000  -2.563993e+001  2.006619e+001 
4134375000  -2.320184e+001  1.569724e+001 
4137500000  -2.304196e+001  -2.798578e+000 
4140625000  -2.522289e+001  -1.041227e+001 
4143750000  -2.650355e+001  -4.636251e+000 
4146875000  -2.614678e+001  2.294439e+000 
4150000000  -2.515113e+001  -1.170285e+000 
4153125000  -2.505152e+001  -7.607436e+000 
4156250000  -2.589734e+001  -9.835430e+000 
4159375000  -2.616377e+001  -5.683855e+000 
4162500000  -2.500795e+001  -1.371541e+000 
4165625000  -2.387662e+001  -5.388622e+000 
4168750000  -2.328112e+001  -1.282187e+001 
4171875000  -2.327742e+001  -2.202382e+001 
4175000000  -2.390355e+001  -2.748405e+001 
4178125000  -2.451812e+001  -2.705407e+001 
4181250000  -2.429710e+001  -2.799471e+001 
4184375000  -2.420362e+001  -3.124754e+001 
4187500000  -2.425608e+001  -3.388757e+001 
4190625000  -2.404413e+001  -3.949588e+001 
4193750000  -2.487383e+001  -4.324733e+001 
4196875000  -2.558809e+001  -4.357431e+001 
4200000000  -2.646656e+001  -4.103032e+001 
4203125000  -2.636332e+001  -2.715322e+001 
4206250000  -2.301111e+001  -2.605789e+001 
4209375000  -2.191045e+001  -4.682710e+001 
4212500000  -2.384301e+001  -5.569990e+001 
4215625000  -2.478386e+001  -4.936136e+001 
4218750000  -2.347203e+001  -4.238364e+001 
4221875000  -2.114091e+001  -5.175609e+001 
4225000000  -2.243661e+001  -6.446092e+001 
4228125000  -2.306706e+001  -5.928894e+001 
4231250000  -2.151669e+001  -6.321513e+001 
4234375000  -2.143887e+001  -7.138321e+001 
4237500000  -2.103127e+001  -7.470537e+001 
4240625000  -2.101113e+001  -8.333778e+001 
4243750000  -2.198383e+001  -9.011298e+001 
4246875000  -2.291469e+001  -8.998151e+001 
4250000000  -2.291728e+001  -8.715308e+001 
4253125000  -2.239270e+001  -8.917578e+001 
4256250000  -2.260888e+001  -9.342760e+001 
4259375000  -2.235649e+001  -9.505902e+001 
4262500000  -2.237830e+001  -9.923665e+001 
4265625000  -2.255350e+001  -9.875500e+001 
4268750000  -2.165026e+001  -1.026656e+002 
4271875000  -2.141560e+001  -1.085345e+002 
4275000000  -2.079029e+001  -1.147829e+002 
4278125000  -2.142570e+001  -1.259894e+002 
4281250000  -2.321111e+001  -1.277916e+002 
4284375000  -2.286521e+001  -1.271583e+002 
4287500000  -2.372104e+001  -1.307660e+002 
4290625000  -2.500583e+001  -1.211074e+002 
4293750000  -2.298450e+001  -1.160936e+002 
4296875000  -2.160446e+001  -1.273700e+002 
4300000000  -2.250861e+001  -1.365787e+002 
4303125000  -2.358594e+001  -1.348579e+002 
4306250000  -2.292348e+001  -1.291308e+002 
4309375000  -2.153884e+001  -1.312853e+002 
4312500000  -2.147907e+001  -1.397056e+002 
4315625000  -2.168534e+001  -1.458391e+002 
4318750000  -2.200619e+001  -1.491755e+002 
4321875000  -2.216350e+001  -1.485114e+002 
4325000000  -2.155400e+001  -1.479359e+002 
4328125000  -2.108933e+001  -1.544121e+002 
4331250000  -2.101370e+001  -1.624413e+002 
4334375000  -2.147061e+001  -1.677121e+002 
4337500000  -2.230342e+001  -1.696517e+002 
4340625000  -2.283680e+001  -1.664026e+002 
4343750000  -2.223832e+001  -1.659617e+002 
4346875000  -2.187493e+001  -1.714333e+002 
4350000000  -2.186572e+001  -1.762031e+002 
4353125000  -2.196662e+001  1.762341e+002 
4356250000  -2.374604e+001  1.753968e+002 
4359375000  -2.430096e+001  -1.714200e+002 
4362500000  -2.150282e+001  -1.694497e+002 
4365625000  -1.993455e+001  1.785424e+002 
4368750000  -2.068353e+001  1.665660e+002 
4371875000  -2.181806e+001  1.674841e+002 
4375000000  -2.150278e+001  1.684359e+002 
4378125000  -2.090882e+001  1.625907e+002 
4381250000  -2.105326e+001  1.572256e+002 
4384375000  -2.091053e+001  1.525850e+002 
4387500000  -2.161210e+001  1.469957e+002 
4390625000  -2.262113e+001  1.474197e+002 
4393750000  -2.195183e+001  1.498211e+002 
4396875000  -2.129066e+001  1.475245e+002 
4400000000  -2.079683e+001  1.405889e+002 
4403125000  -2.140283e+001  1.328720e+002 
4406250000  -2.221064e+001  1.318185e+002 
4409375000  -2.217793e+001  1.294447e+002 
4412500000  -2.318870e+001  1.267593e+002 
4415625000  -2.356199e+001  1.317339e+002 
4418750000  -2.236185e+001  1.364834e+002 
