!Agilent Technologies,E8363B,MY43030201,A.06.04.32
!Agilent E8363B: A.06.04.32
!Date: Tuesday, November 11, 2014 20:44:15
!Correction: S21(Response(S21)) 
!S1P File: Measurement: S21:
# Hz S  dB   R 50
3000000000  -2.653209e+001  1.588062e+002 
3003125000  -2.786299e+001  1.547172e+002 
3006250000  -2.793948e+001  1.516351e+002 
3009375000  -2.827325e+001  1.564145e+002 
3012500000  -2.779424e+001  1.566738e+002 
3015625000  -2.677313e+001  1.494045e+002 
3018750000  -2.765051e+001  1.486069e+002 
3021875000  -2.646199e+001  1.499235e+002 
3025000000  -2.512950e+001  1.469166e+002 
3028125000  -2.417139e+001  1.419725e+002 
3031250000  -2.312054e+001  1.311022e+002 
3034375000  -2.274346e+001  1.181193e+002 
3037500000  -2.305262e+001  1.060802e+002 
3040625000  -2.439360e+001  1.009038e+002 
3043750000  -2.512646e+001  9.702200e+001 
3046875000  -2.518831e+001  9.023364e+001 
3050000000  -2.695012e+001  8.328008e+001 
3053125000  -2.718934e+001  8.976967e+001 
3056250000  -2.643813e+001  9.235005e+001 
3059375000  -2.668269e+001  9.233503e+001 
3062500000  -2.523776e+001  8.825050e+001 
3065625000  -2.502864e+001  8.310516e+001 
3068750000  -2.472371e+001  7.595321e+001 
3071875000  -2.469221e+001  7.302904e+001 
3075000000  -2.465908e+001  6.922620e+001 
3078125000  -2.435656e+001  6.477964e+001 
3081250000  -2.501161e+001  6.052153e+001 
3084375000  -2.429373e+001  5.714743e+001 
3087500000  -2.412341e+001  5.353254e+001 
3090625000  -2.384458e+001  4.394056e+001 
3093750000  -2.419609e+001  3.587112e+001 
3096875000  -2.552553e+001  2.963601e+001 
3100000000  -2.570137e+001  2.798778e+001 
3103125000  -2.604090e+001  2.984746e+001 
3106250000  -2.582872e+001  2.618412e+001 
3109375000  -2.604494e+001  2.270074e+001 
3112500000  -2.613959e+001  2.195700e+001 
3115625000  -2.595008e+001  1.752612e+001 
3118750000  -2.643660e+001  1.877306e+001 
3121875000  -2.580024e+001  1.097540e+001 
3125000000  -2.685659e+001  7.467833e+000 
3128125000  -2.817692e+001  1.484567e+001 
3131250000  -2.605534e+001  1.629386e+001 
3134375000  -2.461442e+001  2.615873e+000 
3137500000  -2.525776e+001  -1.185511e+001 
3140625000  -2.692124e+001  -1.345638e+001 
3143750000  -2.792367e+001  -8.857810e+000 
3146875000  -2.749457e+001  -7.377119e+000 
3150000000  -2.653887e+001  -4.739745e+000 
3153125000  -2.647483e+001  -1.251616e+001 
3156250000  -2.740473e+001  -7.438511e+000 
3159375000  -2.600653e+001  -4.351336e+000 
3162500000  -2.386886e+001  -1.711456e+001 
3165625000  -2.476976e+001  -2.804821e+001 
3168750000  -2.521087e+001  -2.730686e+001 
3171875000  -2.430005e+001  -3.137267e+001 
3175000000  -2.488970e+001  -3.901056e+001 
3178125000  -2.472651e+001  -3.735941e+001 
3181250000  -2.352199e+001  -4.122614e+001 
3184375000  -2.270927e+001  -5.346041e+001 
3187500000  -2.377014e+001  -6.873478e+001 
3190625000  -2.659576e+001  -7.662292e+001 
3193750000  -2.722941e+001  -6.730296e+001 
3196875000  -2.677579e+001  -6.127208e+001 
3200000000  -2.597441e+001  -6.321671e+001 
3203125000  -2.507667e+001  -6.893652e+001 
3206250000  -2.533536e+001  -7.505779e+001 
3209375000  -2.487322e+001  -8.008009e+001 
3212500000  -2.497280e+001  -8.691473e+001 
3215625000  -2.511872e+001  -9.122210e+001 
3218750000  -2.588396e+001  -9.745129e+001 
3221875000  -2.690652e+001  -1.023577e+002 
3225000000  -2.655118e+001  -1.030922e+002 
3228125000  -2.678842e+001  -1.072169e+002 
3231250000  -2.752047e+001  -1.103287e+002 
3234375000  -2.743416e+001  -1.093378e+002 
3237500000  -2.743509e+001  -1.108843e+002 
3240625000  -2.717612e+001  -1.123689e+002 
3243750000  -2.673473e+001  -1.191896e+002 
3246875000  -2.724866e+001  -1.257360e+002 
3250000000  -2.768205e+001  -1.277269e+002 
3253125000  -2.781035e+001  -1.292544e+002 
3256250000  -2.773868e+001  -1.350007e+002 
3259375000  -2.801420e+001  -1.426991e+002 
3262500000  -2.925413e+001  -1.456153e+002 
3265625000  -2.999700e+001  -1.426272e+002 
3268750000  -2.998437e+001  -1.394570e+002 
3271875000  -2.973953e+001  -1.383306e+002 
3275000000  -2.861375e+001  -1.434326e+002 
3278125000  -2.907091e+001  -1.496884e+002 
3281250000  -2.933763e+001  -1.477653e+002 
3284375000  -2.890377e+001  -1.540076e+002 
3287500000  -2.906602e+001  -1.567652e+002 
3290625000  -2.951500e+001  -1.605076e+002 
3293750000  -2.925249e+001  -1.664606e+002 
3296875000  -3.015301e+001  -1.666950e+002 
3300000000  -3.018047e+001  -1.652460e+002 
3303125000  -2.900433e+001  -1.690489e+002 
3306250000  -2.875345e+001  -1.758735e+002 
3309375000  -2.850694e+001  1.795380e+002 
3312500000  -2.855280e+001  1.690281e+002 
3315625000  -2.952393e+001  1.609224e+002 
3318750000  -3.088406e+001  1.585750e+002 
3321875000  -3.209750e+001  1.583053e+002 
3325000000  -3.270304e+001  1.627028e+002 
3328125000  -3.268363e+001  1.641389e+002 
3331250000  -3.149256e+001  1.722155e+002 
3334375000  -2.884377e+001  1.629153e+002 
3337500000  -2.883829e+001  1.448764e+002 
3340625000  -3.015570e+001  1.338418e+002 
3343750000  -3.204061e+001  1.319048e+002 
3346875000  -3.268499e+001  1.336789e+002 
3350000000  -3.199605e+001  1.324591e+002 
3353125000  -3.206173e+001  1.284192e+002 
3356250000  -3.188828e+001  1.205701e+002 
3359375000  -3.268128e+001  1.115844e+002 
3362500000  -3.400792e+001  1.067226e+002 
3365625000  -3.463913e+001  1.053156e+002 
3368750000  -3.553676e+001  1.032556e+002 
3371875000  -3.587543e+001  1.004556e+002 
3375000000  -3.760572e+001  9.761687e+001 
3378125000  -3.868391e+001  9.635352e+001 
3381250000  -3.992955e+001  1.042223e+002 
3384375000  -3.953155e+001  1.264118e+002 
3387500000  -3.632677e+001  1.129248e+002 
3390625000  -3.792872e+001  9.329899e+001 
3393750000  -3.989141e+001  9.820428e+001 
3396875000  -3.894018e+001  1.004094e+002 
3400000000  -3.885403e+001  9.396904e+001 
3403125000  -4.007160e+001  9.041776e+001 
3406250000  -4.088117e+001  9.237239e+001 
3409375000  -4.138688e+001  8.834885e+001 
3412500000  -4.241530e+001  8.965586e+001 
3415625000  -4.302388e+001  9.419991e+001 
3418750000  -4.348025e+001  9.757882e+001 
3421875000  -4.383143e+001  1.055687e+002 
3425000000  -4.309719e+001  1.086369e+002 
3428125000  -4.189848e+001  1.085644e+002 
3431250000  -4.193592e+001  1.032124e+002 
3434375000  -4.155804e+001  1.011929e+002 
3437500000  -4.218301e+001  9.934473e+001 
3440625000  -4.232206e+001  1.024518e+002 
3443750000  -4.129449e+001  1.048747e+002 
3446875000  -4.047196e+001  1.007977e+002 
3450000000  -4.034017e+001  9.030669e+001 
3453125000  -4.057284e+001  8.319326e+001 
3456250000  -4.157514e+001  7.697893e+001 
3459375000  -4.255834e+001  7.992268e+001 
3462500000  -4.299732e+001  8.073399e+001 
3465625000  -4.279234e+001  7.593099e+001 
3468750000  -4.317978e+001  7.330709e+001 
3471875000  -4.351848e+001  7.407647e+001 
3475000000  -4.311668e+001  6.993550e+001 
3478125000  -4.433410e+001  6.496473e+001 
3481250000  -4.494746e+001  6.440253e+001 
3484375000  -4.635031e+001  6.690643e+001 
3487500000  -4.636798e+001  7.269919e+001 
3490625000  -4.551253e+001  6.734139e+001 
3493750000  -4.654103e+001  6.590710e+001 
3496875000  -4.802500e+001  7.003514e+001 
3500000000  -4.750338e+001  7.642713e+001 
3503125000  -4.879616e+001  8.197609e+001 
3506250000  -4.747590e+001  8.444530e+001 
3509375000  -4.763610e+001  7.879377e+001 
3512500000  -4.826292e+001  7.728223e+001 
3515625000  -4.782610e+001  8.432796e+001 
3518750000  -4.892570e+001  8.749854e+001 
3521875000  -4.826309e+001  9.348501e+001 
3525000000  -4.839545e+001  9.336072e+001 
3528125000  -4.772488e+001  1.033230e+002 
3531250000  -4.630259e+001  1.067427e+002 
3534375000  -4.506890e+001  9.713213e+001 
3537500000  -4.549335e+001  9.545797e+001 
3540625000  -4.587057e+001  9.622007e+001 
3543750000  -4.616867e+001  9.763007e+001 
3546875000  -4.572855e+001  1.087338e+002 
3550000000  -4.322389e+001  1.100953e+002 
3553125000  -4.147296e+001  9.338756e+001 
3556250000  -4.252816e+001  8.847313e+001 
3559375000  -4.216867e+001  9.157973e+001 
3562500000  -4.120856e+001  8.600943e+001 
3565625000  -4.195670e+001  7.839278e+001 
3568750000  -4.215835e+001  7.998059e+001 
3571875000  -4.181862e+001  7.966831e+001 
3575000000  -4.115879e+001  7.581425e+001 
3578125000  -4.147826e+001  7.121039e+001 
3581250000  -4.158837e+001  7.281967e+001 
3584375000  -4.081100e+001  7.059274e+001 
3587500000  -3.988857e+001  6.643884e+001 
3590625000  -4.044059e+001  5.782452e+001 
3593750000  -4.140478e+001  5.524681e+001 
3596875000  -4.117907e+001  6.353576e+001 
3600000000  -3.974956e+001  6.092823e+001 
3603125000  -3.999245e+001  4.773780e+001 
3606250000  -4.051453e+001  4.468873e+001 
3609375000  -4.093265e+001  4.284382e+001 
3612500000  -4.150376e+001  4.308527e+001 
3615625000  -4.159208e+001  4.006455e+001 
3618750000  -4.226332e+001  4.128456e+001 
3621875000  -4.130557e+001  4.200451e+001 
3625000000  -4.177898e+001  3.957683e+001 
3628125000  -4.185617e+001  4.162561e+001 
3631250000  -4.173925e+001  3.585733e+001 
3634375000  -4.202667e+001  3.549357e+001 
3637500000  -4.224749e+001  4.277802e+001 
3640625000  -4.092131e+001  4.335218e+001 
3643750000  -4.062695e+001  3.918267e+001 
3646875000  -4.116371e+001  3.264443e+001 
3650000000  -4.171526e+001  3.230846e+001 
3653125000  -4.158510e+001  3.196577e+001 
3656250000  -4.200593e+001  3.036597e+001 
3659375000  -4.216122e+001  3.439697e+001 
3662500000  -4.131953e+001  3.340242e+001 
3665625000  -4.143201e+001  3.272654e+001 
3668750000  -4.047775e+001  3.579895e+001 
3671875000  -3.920837e+001  3.108336e+001 
3675000000  -3.994064e+001  2.505239e+001 
3678125000  -4.018404e+001  2.798957e+001 
3681250000  -3.986670e+001  2.680628e+001 
3684375000  -3.953049e+001  2.445697e+001 
3687500000  -3.983487e+001  2.323554e+001 
3690625000  -3.986180e+001  2.217487e+001 
3693750000  -4.028298e+001  2.319679e+001 
3696875000  -3.996468e+001  2.654541e+001 
3700000000  -3.901654e+001  2.537818e+001 
3703125000  -3.864095e+001  2.050933e+001 
3706250000  -3.950792e+001  2.220781e+001 
3709375000  -3.880652e+001  2.543611e+001 
3712500000  -3.724295e+001  2.578213e+001 
3715625000  -3.650479e+001  2.060032e+001 
3718750000  -3.574984e+001  1.808672e+001 
3721875000  -3.524142e+001  1.268148e+001 
3725000000  -3.524273e+001  6.984061e+000 
3728125000  -3.547277e+001  5.875244e+000 
3731250000  -3.476379e+001  6.094688e+000 
3734375000  -3.365681e+001  1.145066e-001 
3737500000  -3.410854e+001  -6.926233e+000 
3740625000  -3.470124e+001  -1.100223e+001 
3743750000  -3.466933e+001  -1.261808e+001 
3746875000  -3.450299e+001  -1.594526e+001 
3750000000  -3.492464e+001  -1.681855e+001 
3753125000  -3.456921e+001  -1.720304e+001 
3756250000  -3.450884e+001  -1.820374e+001 
3759375000  -3.422754e+001  -1.793945e+001 
3762500000  -3.367510e+001  -2.228449e+001 
3765625000  -3.410416e+001  -2.520739e+001 
3768750000  -3.420970e+001  -2.302333e+001 
3771875000  -3.256871e+001  -2.553978e+001 
3775000000  -3.216271e+001  -3.297790e+001 
3778125000  -3.252639e+001  -3.488008e+001 
3781250000  -3.229361e+001  -3.690018e+001 
3784375000  -3.227583e+001  -3.971428e+001 
3787500000  -3.165845e+001  -4.321974e+001 
3790625000  -3.225325e+001  -4.841357e+001 
3793750000  -3.240254e+001  -4.945057e+001 
3796875000  -3.151346e+001  -5.114526e+001 
3800000000  -2.996703e+001  -5.493385e+001 
3803125000  -3.075462e+001  -6.093441e+001 
3806250000  -3.131363e+001  -6.387450e+001 
3809375000  -3.107481e+001  -6.449261e+001 
3812500000  -3.046365e+001  -6.936156e+001 
3815625000  -3.100322e+001  -7.624725e+001 
3818750000  -3.198143e+001  -7.857182e+001 
3821875000  -3.213020e+001  -7.145834e+001 
3825000000  -3.011684e+001  -6.648915e+001 
3828125000  -2.879987e+001  -7.919387e+001 
3831250000  -2.930491e+001  -9.311948e+001 
3834375000  -3.058271e+001  -9.476137e+001 
3837500000  -3.158925e+001  -8.987350e+001 
3840625000  -3.056802e+001  -8.978283e+001 
3843750000  -2.919437e+001  -1.003178e+002 
3846875000  -2.987405e+001  -1.081580e+002 
3850000000  -3.117298e+001  -1.026103e+002 
3853125000  -3.041341e+001  -9.868392e+001 
3856250000  -3.036251e+001  -1.043585e+002 
3859375000  -2.981295e+001  -1.089193e+002 
3862500000  -2.923299e+001  -1.160316e+002 
3865625000  -2.951824e+001  -1.206497e+002 
3868750000  -2.959504e+001  -1.208216e+002 
3871875000  -2.884346e+001  -1.238410e+002 
3875000000  -2.899531e+001  -1.320958e+002 
3878125000  -3.001387e+001  -1.352613e+002 
3881250000  -3.021142e+001  -1.317862e+002 
3884375000  -2.962317e+001  -1.362912e+002 
3887500000  -2.962221e+001  -1.405592e+002 
3890625000  -3.015215e+001  -1.426575e+002 
3893750000  -3.053312e+001  -1.443385e+002 
3896875000  -3.071910e+001  -1.439516e+002 
3900000000  -3.098625e+001  -1.452394e+002 
3903125000  -3.067756e+001  -1.469594e+002 
3906250000  -3.040727e+001  -1.477589e+002 
3909375000  -2.973386e+001  -1.498729e+002 
3912500000  -2.967613e+001  -1.571176e+002 
3915625000  -3.075821e+001  -1.565851e+002 
3918750000  -3.086178e+001  -1.549035e+002 
3921875000  -3.064969e+001  -1.566758e+002 
3925000000  -2.981813e+001  -1.574142e+002 
3928125000  -2.900697e+001  -1.625302e+002 
3931250000  -2.949036e+001  -1.669015e+002 
3934375000  -2.971493e+001  -1.663861e+002 
3937500000  -2.977068e+001  -1.676805e+002 
3940625000  -3.032920e+001  -1.673827e+002 
3943750000  -2.941737e+001  -1.656393e+002 
3946875000  -2.810495e+001  -1.711143e+002 
3950000000  -2.864142e+001  -1.780891e+002 
3953125000  -2.955538e+001  -1.780453e+002 
3956250000  -2.876540e+001  -1.755088e+002 
3959375000  -2.748137e+001  -1.780947e+002 
3962500000  -2.694862e+001  1.775967e+002 
3965625000  -2.656530e+001  1.693818e+002 
3968750000  -2.738781e+001  1.621297e+002 
3971875000  -2.787658e+001  1.608943e+002 
3975000000  -2.719379e+001  1.586635e+002 
3978125000  -2.702830e+001  1.574154e+002 
3981250000  -2.670115e+001  1.530630e+002 
3984375000  -2.697672e+001  1.471033e+002 
3987500000  -2.741546e+001  1.450143e+002 
3990625000  -2.743459e+001  1.435116e+002 
3993750000  -2.765279e+001  1.402313e+002 
3996875000  -2.762249e+001  1.382035e+002 
4000000000  -2.769684e+001  1.361098e+002 
4003125000  -2.827168e+001  1.377470e+002 
4006250000  -2.695203e+001  1.385957e+002 
4009375000  -2.574069e+001  1.266770e+002 
4012500000  -2.670528e+001  1.191275e+002 
4015625000  -2.796366e+001  1.195801e+002 
4018750000  -2.825467e+001  1.218973e+002 
4021875000  -2.748843e+001  1.204688e+002 
4025000000  -2.723279e+001  1.158065e+002 
4028125000  -2.712668e+001  1.116341e+002 
4031250000  -2.756447e+001  1.088434e+002 
4034375000  -2.793089e+001  1.077807e+002 
4037500000  -2.733175e+001  1.100151e+002 
4040625000  -2.726424e+001  1.067165e+002 
4043750000  -2.756739e+001  1.059844e+002 
4046875000  -2.714635e+001  1.060930e+002 
4050000000  -2.671312e+001  1.003260e+002 
4053125000  -2.714116e+001  9.804037e+001 
4056250000  -2.772773e+001  1.016340e+002 
4059375000  -2.658091e+001  1.042545e+002 
4062500000  -2.522675e+001  1.000160e+002 
4065625000  -2.500577e+001  9.514706e+001 
4068750000  -2.469677e+001  9.071540e+001 
4071875000  -2.413619e+001  8.284155e+001 
4075000000  -2.443347e+001  7.658406e+001 
4078125000  -2.501494e+001  7.557753e+001 
4081250000  -2.451431e+001  7.331349e+001 
4084375000  -2.406320e+001  6.695046e+001 
4087500000  -2.439009e+001  6.076526e+001 
4090625000  -2.502369e+001  5.913025e+001 
4093750000  -2.483709e+001  5.986535e+001 
4096875000  -2.442698e+001  5.420470e+001 
4100000000  -2.501132e+001  4.711132e+001 
4103125000  -2.591947e+001  4.764846e+001 
4106250000  -2.583431e+001  5.232267e+001 
4109375000  -2.499022e+001  5.223919e+001 
4112500000  -2.439426e+001  4.514911e+001 
4115625000  -2.469636e+001  4.085073e+001 
4118750000  -2.483654e+001  3.824482e+001 
4121875000  -2.444977e+001  3.381719e+001 
4125000000  -2.470997e+001  2.855027e+001 
4128125000  -2.574583e+001  2.825348e+001 
4131250000  -2.556672e+001  3.638495e+001 
4134375000  -2.323747e+001  3.270495e+001 
4137500000  -2.293616e+001  1.378087e+001 
4140625000  -2.507690e+001  6.356509e+000 
4143750000  -2.642715e+001  1.082586e+001 
4146875000  -2.606425e+001  1.861292e+001 
4150000000  -2.511996e+001  1.563754e+001 
4153125000  -2.492835e+001  8.789946e+000 
4156250000  -2.584421e+001  6.614026e+000 
4159375000  -2.612053e+001  1.061119e+001 
4162500000  -2.497962e+001  1.474173e+001 
4165625000  -2.389656e+001  1.100645e+001 
4168750000  -2.326797e+001  4.207438e+000 
4171875000  -2.321622e+001  -5.320653e+000 
4175000000  -2.378934e+001  -1.085544e+001 
4178125000  -2.437802e+001  -1.090287e+001 
4181250000  -2.430945e+001  -1.141978e+001 
4184375000  -2.417183e+001  -1.449188e+001 
4187500000  -2.421173e+001  -1.705896e+001 
4190625000  -2.399041e+001  -2.238989e+001 
4193750000  -2.474523e+001  -2.633058e+001 
4196875000  -2.545472e+001  -2.666815e+001 
4200000000  -2.625165e+001  -2.497312e+001 
4203125000  -2.644947e+001  -1.216107e+001 
4206250000  -2.319025e+001  -9.642328e+000 
4209375000  -2.191202e+001  -2.980503e+001 
4212500000  -2.365866e+001  -3.869917e+001 
4215625000  -2.472255e+001  -3.323172e+001 
4218750000  -2.350827e+001  -2.623623e+001 
4221875000  -2.114430e+001  -3.503506e+001 
4225000000  -2.229808e+001  -4.787054e+001 
4228125000  -2.308808e+001  -4.233221e+001 
4231250000  -2.149990e+001  -4.648857e+001 
4234375000  -2.141016e+001  -5.436980e+001 
4237500000  -2.101680e+001  -5.796168e+001 
4240625000  -2.097643e+001  -6.629186e+001 
4243750000  -2.195532e+001  -7.302881e+001 
4246875000  -2.282529e+001  -7.352044e+001 
4250000000  -2.289011e+001  -7.072958e+001 
4253125000  -2.226926e+001  -7.234185e+001 
4256250000  -2.260536e+001  -7.659684e+001 
4259375000  -2.234473e+001  -7.864249e+001 
4262500000  -2.231830e+001  -8.228800e+001 
4265625000  -2.255731e+001  -8.187235e+001 
4268750000  -2.177128e+001  -8.600829e+001 
4271875000  -2.144524e+001  -9.146425e+001 
4275000000  -2.080047e+001  -9.762180e+001 
4278125000  -2.133277e+001  -1.088965e+002 
4281250000  -2.313785e+001  -1.112478e+002 
4284375000  -2.291681e+001  -1.107433e+002 
4287500000  -2.358882e+001  -1.141122e+002 
4290625000  -2.494584e+001  -1.052035e+002 
4293750000  -2.300143e+001  -9.863719e+001 
4296875000  -2.165109e+001  -1.104960e+002 
4300000000  -2.238811e+001  -1.193876e+002 
4303125000  -2.351263e+001  -1.190121e+002 
4306250000  -2.306594e+001  -1.125951e+002 
4309375000  -2.163548e+001  -1.143422e+002 
4312500000  -2.144635e+001  -1.225552e+002 
4315625000  -2.169233e+001  -1.287575e+002 
4318750000  -2.196767e+001  -1.319924e+002 
4321875000  -2.218254e+001  -1.319359e+002 
4325000000  -2.157340e+001  -1.309449e+002 
4328125000  -2.111419e+001  -1.375303e+002 
4331250000  -2.104096e+001  -1.453803e+002 
4334375000  -2.145469e+001  -1.501772e+002 
4337500000  -2.223326e+001  -1.526908e+002 
4340625000  -2.281743e+001  -1.496787e+002 
4343750000  -2.229885e+001  -1.490755e+002 
4346875000  -2.188270e+001  -1.541385e+002 
4350000000  -2.184496e+001  -1.587493e+002 
4353125000  -2.186177e+001  -1.664905e+002 
4356250000  -2.350148e+001  -1.679216e+002 
4359375000  -2.424725e+001  -1.554693e+002 
4362500000  -2.171206e+001  -1.528320e+002 
4365625000  -2.006973e+001  -1.640960e+002 
4368750000  -2.064938e+001  -1.758652e+002 
4371875000  -2.183266e+001  -1.756855e+002 
4375000000  -2.160701e+001  -1.743282e+002 
4378125000  -2.094212e+001  1.796954e+002 
4381250000  -2.108401e+001  1.743079e+002 
4384375000  -2.092821e+001  1.699070e+002 
4387500000  -2.155619e+001  1.642619e+002 
4390625000  -2.262676e+001  1.647277e+002 
4393750000  -2.201044e+001  1.669997e+002 
4396875000  -2.130105e+001  1.650022e+002 
4400000000  -2.083566e+001  1.580542e+002 
4403125000  -2.135501e+001  1.504472e+002 
4406250000  -2.219191e+001  1.490687e+002 
4409375000  -2.216452e+001  1.467714e+002 
4412500000  -2.314531e+001  1.440061e+002 
4415625000  -2.362159e+001  1.487054e+002 
4418750000  -2.244919e+001  1.531820e+002 
