!Agilent Technologies,E8363B,MY43030201,A.06.04.32
!Agilent E8363B: A.06.04.32
!Date: Tuesday, November 11, 2014 20:50:58
!Correction: S21(Response(S21)) 
!S1P File: Measurement: S21:
# Hz S  dB   R 50
3000000000  -2.647553e+001  1.512220e+002 
3003125000  -2.788794e+001  1.467430e+002 
3006250000  -2.792978e+001  1.440517e+002 
3009375000  -2.829571e+001  1.492757e+002 
3012500000  -2.777873e+001  1.486555e+002 
3015625000  -2.683352e+001  1.417372e+002 
3018750000  -2.766503e+001  1.406891e+002 
3021875000  -2.636086e+001  1.423400e+002 
3025000000  -2.506786e+001  1.390251e+002 
3028125000  -2.411172e+001  1.339268e+002 
3031250000  -2.310200e+001  1.227670e+002 
3034375000  -2.271736e+001  1.097885e+002 
3037500000  -2.307562e+001  9.775384e+001 
3040625000  -2.441743e+001  9.295111e+001 
3043750000  -2.512387e+001  8.843540e+001 
3046875000  -2.521866e+001  8.225087e+001 
3050000000  -2.698954e+001  7.529035e+001 
3053125000  -2.707920e+001  8.194539e+001 
3056250000  -2.640985e+001  8.479375e+001 
3059375000  -2.665401e+001  8.446718e+001 
3062500000  -2.518406e+001  8.049503e+001 
3065625000  -2.499038e+001  7.483668e+001 
3068750000  -2.472092e+001  6.788981e+001 
3071875000  -2.465044e+001  6.489832e+001 
3075000000  -2.462479e+001  6.104732e+001 
3078125000  -2.435459e+001  5.673749e+001 
3081250000  -2.501680e+001  5.234499e+001 
3084375000  -2.422929e+001  4.888197e+001 
3087500000  -2.415674e+001  4.515336e+001 
3090625000  -2.385209e+001  3.542157e+001 
3093750000  -2.426103e+001  2.755940e+001 
3096875000  -2.557158e+001  2.159974e+001 
3100000000  -2.571970e+001  2.018281e+001 
3103125000  -2.608200e+001  2.156498e+001 
3106250000  -2.583092e+001  1.829569e+001 
3109375000  -2.605699e+001  1.466330e+001 
3112500000  -2.618162e+001  1.353766e+001 
3115625000  -2.599368e+001  9.436449e+000 
3118750000  -2.650954e+001  1.082001e+001 
3121875000  -2.581828e+001  2.792103e+000 
3125000000  -2.701172e+001  -5.472354e-001 
3128125000  -2.820674e+001  7.268015e+000 
3131250000  -2.599521e+001  7.893834e+000 
3134375000  -2.471356e+001  -5.558732e+000 
3137500000  -2.533939e+001  -1.944743e+001 
3140625000  -2.699949e+001  -2.102928e+001 
3143750000  -2.797566e+001  -1.685507e+001 
3146875000  -2.754167e+001  -1.477490e+001 
3150000000  -2.656932e+001  -1.289818e+001 
3153125000  -2.651813e+001  -2.047621e+001 
3156250000  -2.749001e+001  -1.499265e+001 
3159375000  -2.594275e+001  -1.217369e+001 
3162500000  -2.393745e+001  -2.507554e+001 
3165625000  -2.487767e+001  -3.596339e+001 
3168750000  -2.529111e+001  -3.506958e+001 
3171875000  -2.429066e+001  -3.905204e+001 
3175000000  -2.493787e+001  -4.699146e+001 
3178125000  -2.470234e+001  -4.541627e+001 
3181250000  -2.355681e+001  -4.928240e+001 
3184375000  -2.274821e+001  -6.177646e+001 
3187500000  -2.384398e+001  -7.670979e+001 
3190625000  -2.663935e+001  -8.461693e+001 
3193750000  -2.724120e+001  -7.482787e+001 
3196875000  -2.684629e+001  -6.922810e+001 
3200000000  -2.594441e+001  -7.112464e+001 
3203125000  -2.506090e+001  -7.690225e+001 
3206250000  -2.538416e+001  -8.335228e+001 
3209375000  -2.489316e+001  -8.821643e+001 
3212500000  -2.507961e+001  -9.480491e+001 
3215625000  -2.517880e+001  -9.908211e+001 
3218750000  -2.599835e+001  -1.051259e+002 
3221875000  -2.691837e+001  -1.104422e+002 
3225000000  -2.654399e+001  -1.110581e+002 
3228125000  -2.685976e+001  -1.157329e+002 
3231250000  -2.762023e+001  -1.181977e+002 
3234375000  -2.750765e+001  -1.168760e+002 
3237500000  -2.755237e+001  -1.187366e+002 
3240625000  -2.719090e+001  -1.204607e+002 
3243750000  -2.684607e+001  -1.272647e+002 
3246875000  -2.729998e+001  -1.335959e+002 
3250000000  -2.775291e+001  -1.354424e+002 
3253125000  -2.793718e+001  -1.370610e+002 
3256250000  -2.781730e+001  -1.427646e+002 
3259375000  -2.811055e+001  -1.505917e+002 
3262500000  -2.934126e+001  -1.534404e+002 
3265625000  -3.006795e+001  -1.498723e+002 
3268750000  -3.000855e+001  -1.472814e+002 
3271875000  -2.977419e+001  -1.463440e+002 
3275000000  -2.869690e+001  -1.511976e+002 
3278125000  -2.917994e+001  -1.575489e+002 
3281250000  -2.945960e+001  -1.559658e+002 
3284375000  -2.899310e+001  -1.613350e+002 
3287500000  -2.918216e+001  -1.644901e+002 
3290625000  -2.958529e+001  -1.684907e+002 
3293750000  -2.929820e+001  -1.739129e+002 
3296875000  -3.029178e+001  -1.744408e+002 
3300000000  -3.021129e+001  -1.729305e+002 
3303125000  -2.905375e+001  -1.768564e+002 
3306250000  -2.884394e+001  1.762278e+002 
3309375000  -2.858987e+001  1.711669e+002 
3312500000  -2.864636e+001  1.611347e+002 
3315625000  -2.967197e+001  1.530470e+002 
3318750000  -3.099674e+001  1.501763e+002 
3321875000  -3.231569e+001  1.505666e+002 
3325000000  -3.276903e+001  1.549030e+002 
3328125000  -3.261980e+001  1.572973e+002 
3331250000  -3.146185e+001  1.648613e+002 
3334375000  -2.882318e+001  1.548315e+002 
3337500000  -2.894221e+001  1.362023e+002 
3340625000  -3.021854e+001  1.258573e+002 
3343750000  -3.227312e+001  1.240320e+002 
3346875000  -3.276577e+001  1.259083e+002 
3350000000  -3.211298e+001  1.244275e+002 
3353125000  -3.225750e+001  1.204564e+002 
3356250000  -3.200104e+001  1.121895e+002 
3359375000  -3.285273e+001  1.044445e+002 
3362500000  -3.417151e+001  9.879490e+001 
3365625000  -3.477691e+001  9.646657e+001 
3368750000  -3.587024e+001  9.573965e+001 
3371875000  -3.619611e+001  9.200443e+001 
3375000000  -3.775934e+001  9.058854e+001 
3378125000  -3.896921e+001  8.933387e+001 
3381250000  -4.057843e+001  9.726176e+001 
3384375000  -3.954276e+001  1.190615e+002 
3387500000  -3.636485e+001  1.042473e+002 
3390625000  -3.811611e+001  8.619355e+001 
3393750000  -4.006705e+001  9.047482e+001 
3396875000  -3.930881e+001  9.360138e+001 
3400000000  -3.939573e+001  8.753431e+001 
3403125000  -4.018769e+001  8.333617e+001 
3406250000  -4.100967e+001  8.627379e+001 
3409375000  -4.189219e+001  8.058726e+001 
3412500000  -4.263143e+001  8.503050e+001 
3415625000  -4.347281e+001  8.777490e+001 
3418750000  -4.372060e+001  9.318286e+001 
3421875000  -4.415329e+001  1.013477e+002 
3425000000  -4.312262e+001  1.040182e+002 
3428125000  -4.223973e+001  1.032283e+002 
3431250000  -4.198791e+001  9.988226e+001 
3434375000  -4.174203e+001  9.553160e+001 
3437500000  -4.226464e+001  9.334756e+001 
3440625000  -4.241304e+001  9.771433e+001 
3443750000  -4.123170e+001  9.867155e+001 
3446875000  -4.032611e+001  9.500734e+001 
3450000000  -4.016274e+001  8.735622e+001 
3453125000  -4.023180e+001  7.739631e+001 
3456250000  -4.183187e+001  7.222790e+001 
3459375000  -4.242666e+001  7.439156e+001 
3462500000  -4.292944e+001  7.513499e+001 
3465625000  -4.254277e+001  7.122507e+001 
3468750000  -4.319071e+001  6.663267e+001 
3471875000  -4.308097e+001  6.957354e+001 
3475000000  -4.314472e+001  6.521930e+001 
3478125000  -4.392696e+001  5.932135e+001 
3481250000  -4.499775e+001  5.807703e+001 
3484375000  -4.635767e+001  6.456608e+001 
3487500000  -4.612531e+001  6.768044e+001 
3490625000  -4.571422e+001  6.341779e+001 
3493750000  -4.580479e+001  6.302476e+001 
3496875000  -4.748041e+001  6.493956e+001 
3500000000  -4.809753e+001  7.219057e+001 
3503125000  -4.752206e+001  7.545635e+001 
3506250000  -4.671812e+001  7.683617e+001 
3509375000  -4.648856e+001  7.547664e+001 
3512500000  -4.725897e+001  7.608443e+001 
3515625000  -4.731380e+001  7.742668e+001 
3518750000  -4.844652e+001  8.350581e+001 
3521875000  -4.766172e+001  8.513689e+001 
3525000000  -4.824225e+001  8.460446e+001 
3528125000  -4.736470e+001  9.948373e+001 
3531250000  -4.516445e+001  9.816293e+001 
3534375000  -4.450501e+001  9.165874e+001 
3537500000  -4.473972e+001  8.502569e+001 
3540625000  -4.509628e+001  8.610735e+001 
3543750000  -4.553220e+001  8.995405e+001 
3546875000  -4.533053e+001  1.016754e+002 
3550000000  -4.253862e+001  1.020940e+002 
3553125000  -4.114982e+001  8.516576e+001 
3556250000  -4.196278e+001  8.051917e+001 
3559375000  -4.196933e+001  8.242833e+001 
3562500000  -4.074046e+001  7.477107e+001 
3565625000  -4.139825e+001  6.858050e+001 
3568750000  -4.126643e+001  7.164874e+001 
3571875000  -4.134789e+001  7.244485e+001 
3575000000  -4.066901e+001  6.647279e+001 
3578125000  -4.125850e+001  6.230267e+001 
3581250000  -4.129618e+001  6.199273e+001 
3584375000  -4.045022e+001  6.221295e+001 
3587500000  -3.969690e+001  5.477173e+001 
3590625000  -3.994242e+001  4.733529e+001 
3593750000  -4.105209e+001  4.486943e+001 
3596875000  -4.097629e+001  5.242745e+001 
3600000000  -3.958038e+001  4.933836e+001 
3603125000  -3.951202e+001  3.896212e+001 
3606250000  -4.033513e+001  3.294492e+001 
3609375000  -4.082043e+001  3.370067e+001 
3612500000  -4.135719e+001  3.357109e+001 
3615625000  -4.129511e+001  2.877418e+001 
3618750000  -4.186470e+001  3.277337e+001 
3621875000  -4.160643e+001  3.231103e+001 
3625000000  -4.191341e+001  3.136543e+001 
3628125000  -4.181425e+001  3.139947e+001 
3631250000  -4.126670e+001  2.716071e+001 
3634375000  -4.225435e+001  2.819831e+001 
3637500000  -4.207761e+001  3.559142e+001 
3640625000  -4.071610e+001  3.647439e+001 
3643750000  -4.075113e+001  2.780192e+001 
3646875000  -4.109854e+001  2.258085e+001 
3650000000  -4.179781e+001  2.367941e+001 
3653125000  -4.137804e+001  2.267332e+001 
3656250000  -4.181339e+001  2.402278e+001 
3659375000  -4.206845e+001  2.362884e+001 
3662500000  -4.099007e+001  2.544994e+001 
3665625000  -4.110277e+001  2.445258e+001 
3668750000  -4.002648e+001  2.643331e+001 
3671875000  -3.915716e+001  2.050190e+001 
3675000000  -3.964975e+001  1.530857e+001 
3678125000  -4.001707e+001  1.809643e+001 
3681250000  -3.971662e+001  1.764137e+001 
3684375000  -3.962341e+001  1.563630e+001 
3687500000  -3.964581e+001  1.256854e+001 
3690625000  -3.952140e+001  1.025310e+001 
3693750000  -4.016032e+001  1.450324e+001 
3696875000  -3.977018e+001  1.626527e+001 
3700000000  -3.890263e+001  1.471937e+001 
3703125000  -3.854432e+001  1.131491e+001 
3706250000  -3.916076e+001  1.325890e+001 
3709375000  -3.867278e+001  1.615541e+001 
3712500000  -3.742019e+001  1.534017e+001 
3715625000  -3.643311e+001  1.009512e+001 
3718750000  -3.568117e+001  8.075934e+000 
3721875000  -3.520330e+001  1.906567e+000 
3725000000  -3.508971e+001  -2.980441e+000 
3728125000  -3.533999e+001  -3.807272e+000 
3731250000  -3.457755e+001  -3.109632e+000 
3734375000  -3.376249e+001  -1.030381e+001 
3737500000  -3.429037e+001  -1.754512e+001 
3740625000  -3.482435e+001  -2.019229e+001 
3743750000  -3.470110e+001  -2.265808e+001 
3746875000  -3.446960e+001  -2.532974e+001 
3750000000  -3.486930e+001  -2.675851e+001 
3753125000  -3.456210e+001  -2.658396e+001 
3756250000  -3.450467e+001  -2.698172e+001 
3759375000  -3.413545e+001  -2.798259e+001 
3762500000  -3.365849e+001  -3.155699e+001 
3765625000  -3.410799e+001  -3.438251e+001 
3768750000  -3.423491e+001  -3.227580e+001 
3771875000  -3.242733e+001  -3.471075e+001 
3775000000  -3.224675e+001  -4.189964e+001 
3778125000  -3.257587e+001  -4.398007e+001 
3781250000  -3.234156e+001  -4.743313e+001 
3784375000  -3.221473e+001  -4.934355e+001 
3787500000  -3.167977e+001  -5.255445e+001 
3790625000  -3.212434e+001  -5.835402e+001 
3793750000  -3.224953e+001  -5.862280e+001 
3796875000  -3.150538e+001  -6.046530e+001 
3800000000  -2.983883e+001  -6.365015e+001 
3803125000  -3.063361e+001  -7.093104e+001 
3806250000  -3.128781e+001  -7.317551e+001 
3809375000  -3.102530e+001  -7.499800e+001 
3812500000  -3.023463e+001  -7.894658e+001 
3815625000  -3.099674e+001  -8.668092e+001 
3818750000  -3.184648e+001  -8.835103e+001 
3821875000  -3.198803e+001  -7.960017e+001 
3825000000  -3.011746e+001  -7.521314e+001 
3828125000  -2.879072e+001  -8.912355e+001 
3831250000  -2.924562e+001  -1.037465e+002 
3834375000  -3.055417e+001  -1.045136e+002 
3837500000  -3.159765e+001  -9.931851e+001 
3840625000  -3.039585e+001  -1.007167e+002 
3843750000  -2.927600e+001  -1.101203e+002 
3846875000  -2.993129e+001  -1.182101e+002 
3850000000  -3.125754e+001  -1.116796e+002 
3853125000  -3.041514e+001  -1.096781e+002 
3856250000  -3.047992e+001  -1.145302e+002 
3859375000  -2.977154e+001  -1.182678e+002 
3862500000  -2.928661e+001  -1.257963e+002 
3865625000  -2.953857e+001  -1.300206e+002 
3868750000  -2.949045e+001  -1.306433e+002 
3871875000  -2.888021e+001  -1.335405e+002 
3875000000  -2.902438e+001  -1.418634e+002 
3878125000  -3.000114e+001  -1.449166e+002 
3881250000  -3.020547e+001  -1.416370e+002 
3884375000  -2.962918e+001  -1.463370e+002 
3887500000  -2.974530e+001  -1.504315e+002 
3890625000  -3.021279e+001  -1.524726e+002 
3893750000  -3.067389e+001  -1.537144e+002 
3896875000  -3.072001e+001  -1.523295e+002 
3900000000  -3.102478e+001  -1.538648e+002 
3903125000  -3.061140e+001  -1.563564e+002 
3906250000  -3.040627e+001  -1.571467e+002 
3909375000  -2.967510e+001  -1.595377e+002 
3912500000  -2.967953e+001  -1.664410e+002 
3915625000  -3.088844e+001  -1.658311e+002 
3918750000  -3.084612e+001  -1.637310e+002 
3921875000  -3.057972e+001  -1.655463e+002 
3925000000  -2.967754e+001  -1.665410e+002 
3928125000  -2.899074e+001  -1.726827e+002 
3931250000  -2.940619e+001  -1.766367e+002 
3934375000  -2.966575e+001  -1.762874e+002 
3937500000  -2.980120e+001  -1.766457e+002 
3940625000  -3.025395e+001  -1.771036e+002 
3943750000  -2.931598e+001  -1.757813e+002 
3946875000  -2.805248e+001  1.790650e+002 
3950000000  -2.853363e+001  1.712118e+002 
3953125000  -2.958351e+001  1.719215e+002 
3956250000  -2.873210e+001  1.746073e+002 
3959375000  -2.741237e+001  1.714081e+002 
3962500000  -2.688311e+001  1.677461e+002 
3965625000  -2.654095e+001  1.586820e+002 
3968750000  -2.737873e+001  1.515570e+002 
3971875000  -2.782060e+001  1.507602e+002 
3975000000  -2.718173e+001  1.485287e+002 
3978125000  -2.700625e+001  1.469346e+002 
3981250000  -2.678269e+001  1.427817e+002 
3984375000  -2.699152e+001  1.366662e+002 
3987500000  -2.756399e+001  1.343268e+002 
3990625000  -2.753407e+001  1.337029e+002 
3993750000  -2.775941e+001  1.306276e+002 
3996875000  -2.774354e+001  1.280731e+002 
4000000000  -2.781115e+001  1.264677e+002 
4003125000  -2.843752e+001  1.282776e+002 
4006250000  -2.703886e+001  1.287848e+002 
4009375000  -2.584066e+001  1.164804e+002 
4012500000  -2.683733e+001  1.097122e+002 
4015625000  -2.808608e+001  1.098933e+002 
4018750000  -2.832355e+001  1.122329e+002 
4021875000  -2.763475e+001  1.109102e+002 
4025000000  -2.718178e+001  1.065764e+002 
4028125000  -2.717865e+001  1.022999e+002 
4031250000  -2.761688e+001  9.903499e+001 
4034375000  -2.783042e+001  9.893076e+001 
4037500000  -2.738338e+001  1.010907e+002 
4040625000  -2.725686e+001  9.750121e+001 
4043750000  -2.752879e+001  9.721011e+001 
4046875000  -2.716228e+001  9.689323e+001 
4050000000  -2.663948e+001  9.114285e+001 
4053125000  -2.713875e+001  8.843976e+001 
4056250000  -2.770469e+001  9.305003e+001 
4059375000  -2.651306e+001  9.505978e+001 
4062500000  -2.513688e+001  9.031435e+001 
4065625000  -2.496741e+001  8.529633e+001 
4068750000  -2.463994e+001  8.045240e+001 
4071875000  -2.403529e+001  7.281977e+001 
4075000000  -2.439683e+001  6.608837e+001 
4078125000  -2.500201e+001  6.559954e+001 
4081250000  -2.448741e+001  6.329417e+001 
4084375000  -2.404878e+001  5.634694e+001 
4087500000  -2.445961e+001  5.023584e+001 
4090625000  -2.502688e+001  4.885207e+001 
4093750000  -2.488128e+001  5.001833e+001 
4096875000  -2.444441e+001  4.388950e+001 
4100000000  -2.511445e+001  3.684751e+001 
4103125000  -2.601710e+001  3.738996e+001 
4106250000  -2.591506e+001  4.242638e+001 
4109375000  -2.504548e+001  4.202183e+001 
4112500000  -2.450233e+001  3.549291e+001 
4115625000  -2.480160e+001  3.146163e+001 
4118750000  -2.493754e+001  2.835098e+001 
4121875000  -2.452855e+001  2.400875e+001 
4125000000  -2.487741e+001  1.881076e+001 
4128125000  -2.589782e+001  1.890885e+001 
4131250000  -2.561144e+001  2.670858e+001 
4134375000  -2.326613e+001  2.274099e+001 
4137500000  -2.304478e+001  4.104625e+000 
4140625000  -2.517291e+001  -3.208351e+000 
4143750000  -2.649028e+001  1.959491e+000 
4146875000  -2.613382e+001  9.664561e+000 
4150000000  -2.518209e+001  5.984133e+000 
4153125000  -2.497230e+001  3.019263e-002 
4156250000  -2.587723e+001  -2.949701e+000 
4159375000  -2.617132e+001  1.366021e+000 
4162500000  -2.498399e+001  5.724492e+000 
4165625000  -2.382005e+001  1.809455e+000 
4168750000  -2.324311e+001  -5.481674e+000 
4171875000  -2.317305e+001  -1.485545e+001 
4175000000  -2.376381e+001  -2.035258e+001 
4178125000  -2.441774e+001  -2.053015e+001 
4181250000  -2.424603e+001  -2.123610e+001 
4184375000  -2.411587e+001  -2.425222e+001 
4187500000  -2.412994e+001  -2.697497e+001 
4190625000  -2.396909e+001  -3.286128e+001 
4193750000  -2.472980e+001  -3.642764e+001 
4196875000  -2.545267e+001  -3.681072e+001 
4200000000  -2.637081e+001  -3.442347e+001 
4203125000  -2.641393e+001  -2.110049e+001 
4206250000  -2.301957e+001  -1.963320e+001 
4209375000  -2.181153e+001  -4.025379e+001 
4212500000  -2.371560e+001  -4.924684e+001 
4215625000  -2.476347e+001  -4.346329e+001 
4218750000  -2.346197e+001  -3.626528e+001 
4221875000  -2.113283e+001  -4.536487e+001 
4225000000  -2.238434e+001  -5.797608e+001 
4228125000  -2.309520e+001  -5.307560e+001 
4231250000  -2.151110e+001  -5.679383e+001 
4234375000  -2.144468e+001  -6.504472e+001 
4237500000  -2.103293e+001  -6.810891e+001 
4240625000  -2.104432e+001  -7.675042e+001 
4243750000  -2.201904e+001  -8.327543e+001 
4246875000  -2.286538e+001  -8.361140e+001 
4250000000  -2.295432e+001  -8.067356e+001 
4253125000  -2.235220e+001  -8.234682e+001 
4256250000  -2.263418e+001  -8.659399e+001 
4259375000  -2.239577e+001  -8.850510e+001 
4262500000  -2.239835e+001  -9.186770e+001 
4265625000  -2.259790e+001  -9.197079e+001 
4268750000  -2.167877e+001  -9.573685e+001 
4271875000  -2.145203e+001  -1.014797e+002 
4275000000  -2.083636e+001  -1.078258e+002 
4278125000  -2.140755e+001  -1.186801e+002 
4281250000  -2.319390e+001  -1.211632e+002 
4284375000  -2.288808e+001  -1.201830e+002 
4287500000  -2.362254e+001  -1.236965e+002 
4290625000  -2.491156e+001  -1.142672e+002 
4293750000  -2.291628e+001  -1.085453e+002 
4296875000  -2.153008e+001  -1.200833e+002 
4300000000  -2.238456e+001  -1.295215e+002 
4303125000  -2.356034e+001  -1.282128e+002 
4306250000  -2.288073e+001  -1.220255e+002 
4309375000  -2.150776e+001  -1.244862e+002 
4312500000  -2.137643e+001  -1.326758e+002 
4315625000  -2.159072e+001  -1.390610e+002 
4318750000  -2.192543e+001  -1.422744e+002 
4321875000  -2.211455e+001  -1.418062e+002 
4325000000  -2.151700e+001  -1.412004e+002 
4328125000  -2.100275e+001  -1.476532e+002 
4331250000  -2.099049e+001  -1.557418e+002 
4334375000  -2.135854e+001  -1.610438e+002 
4337500000  -2.224798e+001  -1.630463e+002 
4340625000  -2.277884e+001  -1.600794e+002 
4343750000  -2.221528e+001  -1.592432e+002 
4346875000  -2.183669e+001  -1.650709e+002 
4350000000  -2.188283e+001  -1.697096e+002 
4353125000  -2.190045e+001  -1.774441e+002 
4356250000  -2.360498e+001  -1.785498e+002 
4359375000  -2.427817e+001  -1.649465e+002 
4362500000  -2.159522e+001  -1.632195e+002 
4365625000  -1.995586e+001  -1.748546e+002 
4368750000  -2.071685e+001  1.733266e+002 
4371875000  -2.186500e+001  1.739180e+002 
4375000000  -2.156678e+001  1.751125e+002 
4378125000  -2.095713e+001  1.689623e+002 
4381250000  -2.111157e+001  1.636554e+002 
4384375000  -2.092772e+001  1.594365e+002 
4387500000  -2.163009e+001  1.536017e+002 
4390625000  -2.267100e+001  1.545561e+002 
4393750000  -2.198788e+001  1.567140e+002 
4396875000  -2.133510e+001  1.544344e+002 
4400000000  -2.081347e+001  1.477902e+002 
4403125000  -2.142595e+001  1.401055e+002 
4406250000  -2.227094e+001  1.385400e+002 
4409375000  -2.217853e+001  1.364609e+002 
4412500000  -2.324654e+001  1.340630e+002 
4415625000  -2.357909e+001  1.388884e+002 
4418750000  -2.236514e+001  1.434232e+002 
