!Agilent Technologies,E8363B,MY43030201,A.06.04.32
!Agilent E8363B: A.06.04.32
!Date: Tuesday, November 11, 2014 20:56:17
!Correction: S21(Response(S21)) 
!S1P File: Measurement: S21:
# Hz S  dB   R 50
3000000000  -2.642187e+001  1.476500e+002 
3003125000  -2.788465e+001  1.428114e+002 
3006250000  -2.787910e+001  1.404987e+002 
3009375000  -2.832985e+001  1.454646e+002 
3012500000  -2.769751e+001  1.447934e+002 
3015625000  -2.681736e+001  1.377691e+002 
3018750000  -2.763971e+001  1.371682e+002 
3021875000  -2.635118e+001  1.385086e+002 
3025000000  -2.505261e+001  1.354460e+002 
3028125000  -2.408297e+001  1.300847e+002 
3031250000  -2.305125e+001  1.188479e+002 
3034375000  -2.267710e+001  1.058956e+002 
3037500000  -2.308722e+001  9.406246e+001 
3040625000  -2.440378e+001  8.917909e+001 
3043750000  -2.512630e+001  8.446470e+001 
3046875000  -2.520962e+001  7.842067e+001 
3050000000  -2.693792e+001  7.162808e+001 
3053125000  -2.703727e+001  7.832817e+001 
3056250000  -2.642702e+001  8.131863e+001 
3059375000  -2.663610e+001  8.068668e+001 
3062500000  -2.517910e+001  7.682893e+001 
3065625000  -2.495877e+001  7.082345e+001 
3068750000  -2.463972e+001  6.423110e+001 
3071875000  -2.463852e+001  6.130620e+001 
3075000000  -2.458799e+001  5.724037e+001 
3078125000  -2.430660e+001  5.271976e+001 
3081250000  -2.494174e+001  4.854844e+001 
3084375000  -2.418825e+001  4.479159e+001 
3087500000  -2.412215e+001  4.136726e+001 
3090625000  -2.377957e+001  3.135136e+001 
3093750000  -2.428249e+001  2.356679e+001 
3096875000  -2.554495e+001  1.760658e+001 
3100000000  -2.566101e+001  1.607668e+001 
3103125000  -2.603687e+001  1.730717e+001 
3106250000  -2.577995e+001  1.420166e+001 
3109375000  -2.602538e+001  1.065594e+001 
3112500000  -2.614366e+001  9.545153e+000 
3115625000  -2.594768e+001  5.469586e+000 
3118750000  -2.643167e+001  6.763753e+000 
3121875000  -2.577955e+001  -1.388036e+000 
3125000000  -2.699228e+001  -4.732014e+000 
3128125000  -2.818238e+001  3.376791e+000 
3131250000  -2.590252e+001  3.526276e+000 
3134375000  -2.461605e+001  -1.000548e+001 
3137500000  -2.528436e+001  -2.340661e+001 
3140625000  -2.690364e+001  -2.509361e+001 
3143750000  -2.797063e+001  -2.144097e+001 
3146875000  -2.749014e+001  -1.926089e+001 
3150000000  -2.645809e+001  -1.688407e+001 
3153125000  -2.647155e+001  -2.479985e+001 
3156250000  -2.748375e+001  -1.879905e+001 
3159375000  -2.588574e+001  -1.621689e+001 
3162500000  -2.385848e+001  -2.917643e+001 
3165625000  -2.479015e+001  -4.015749e+001 
3168750000  -2.514550e+001  -3.905785e+001 
3171875000  -2.421433e+001  -4.340551e+001 
3175000000  -2.490455e+001  -5.148588e+001 
3178125000  -2.466097e+001  -4.962226e+001 
3181250000  -2.349440e+001  -5.384586e+001 
3184375000  -2.274083e+001  -6.595305e+001 
3187500000  -2.384809e+001  -8.106569e+001 
3190625000  -2.662823e+001  -8.785685e+001 
3193750000  -2.714874e+001  -7.869967e+001 
3196875000  -2.674435e+001  -7.341933e+001 
3200000000  -2.584564e+001  -7.534595e+001 
3203125000  -2.499556e+001  -8.121854e+001 
3206250000  -2.533574e+001  -8.743929e+001 
3209375000  -2.484179e+001  -9.243677e+001 
3212500000  -2.498038e+001  -9.897145e+001 
3215625000  -2.513345e+001  -1.031634e+002 
3218750000  -2.588618e+001  -1.094082e+002 
3221875000  -2.685393e+001  -1.145114e+002 
3225000000  -2.646128e+001  -1.152070e+002 
3228125000  -2.680952e+001  -1.197163e+002 
3231250000  -2.751861e+001  -1.221738e+002 
3234375000  -2.740337e+001  -1.213197e+002 
3237500000  -2.740802e+001  -1.229710e+002 
3240625000  -2.708858e+001  -1.248155e+002 
3243750000  -2.675687e+001  -1.313112e+002 
3246875000  -2.724227e+001  -1.376750e+002 
3250000000  -2.771693e+001  -1.399351e+002 
3253125000  -2.787228e+001  -1.412081e+002 
3256250000  -2.765829e+001  -1.470224e+002 
3259375000  -2.803153e+001  -1.547286e+002 
3262500000  -2.935090e+001  -1.577016e+002 
3265625000  -3.000079e+001  -1.542301e+002 
3268750000  -2.994643e+001  -1.514508e+002 
3271875000  -2.975399e+001  -1.502999e+002 
3275000000  -2.864532e+001  -1.556884e+002 
3278125000  -2.907465e+001  -1.617474e+002 
3281250000  -2.939917e+001  -1.600388e+002 
3284375000  -2.891353e+001  -1.654827e+002 
3287500000  -2.909776e+001  -1.685539e+002 
3290625000  -2.953073e+001  -1.732606e+002 
3293750000  -2.917997e+001  -1.786450e+002 
3296875000  -3.022985e+001  -1.788182e+002 
3300000000  -3.007940e+001  -1.774462e+002 
3303125000  -2.893473e+001  1.784796e+002 
3306250000  -2.873681e+001  1.719957e+002 
3309375000  -2.851116e+001  1.664593e+002 
3312500000  -2.854141e+001  1.563504e+002 
3315625000  -2.957777e+001  1.487826e+002 
3318750000  -3.092978e+001  1.458161e+002 
3321875000  -3.227725e+001  1.465033e+002 
3325000000  -3.269527e+001  1.504058e+002 
3328125000  -3.252974e+001  1.525209e+002 
3331250000  -3.120815e+001  1.605266e+002 
3334375000  -2.859583e+001  1.501776e+002 
3337500000  -2.878573e+001  1.317559e+002 
3340625000  -3.018595e+001  1.211000e+002 
3343750000  -3.211310e+001  1.201508e+002 
3346875000  -3.260622e+001  1.212128e+002 
3350000000  -3.202818e+001  1.197397e+002 
3353125000  -3.203810e+001  1.156141e+002 
3356250000  -3.183746e+001  1.079321e+002 
3359375000  -3.271341e+001  9.965125e+001 
3362500000  -3.396910e+001  9.423396e+001 
3365625000  -3.457005e+001  9.305754e+001 
3368750000  -3.559361e+001  9.066360e+001 
3371875000  -3.606593e+001  8.768865e+001 
3375000000  -3.756318e+001  8.490662e+001 
3378125000  -3.869612e+001  8.502909e+001 
3381250000  -4.050294e+001  9.393302e+001 
3384375000  -3.942229e+001  1.151110e+002 
3387500000  -3.608572e+001  1.000961e+002 
3390625000  -3.813735e+001  8.104800e+001 
3393750000  -3.968604e+001  8.608705e+001 
3396875000  -3.889132e+001  8.968253e+001 
3400000000  -3.889333e+001  8.138195e+001 
3403125000  -3.991801e+001  7.727383e+001 
3406250000  -4.090459e+001  8.080509e+001 
3409375000  -4.135341e+001  7.696738e+001 
3412500000  -4.226559e+001  7.801852e+001 
3415625000  -4.296189e+001  8.320175e+001 
3418750000  -4.328028e+001  8.736708e+001 
3421875000  -4.356254e+001  9.415891e+001 
3425000000  -4.281366e+001  9.651404e+001 
3428125000  -4.171559e+001  9.696304e+001 
3431250000  -4.162907e+001  9.321038e+001 
3434375000  -4.123241e+001  9.069929e+001 
3437500000  -4.184473e+001  8.757200e+001 
3440625000  -4.248740e+001  9.159197e+001 
3443750000  -4.098623e+001  9.317225e+001 
3446875000  -4.009991e+001  8.769537e+001 
3450000000  -3.976160e+001  7.869034e+001 
3453125000  -4.006938e+001  7.056201e+001 
3456250000  -4.150426e+001  6.385194e+001 
3459375000  -4.259124e+001  6.875718e+001 
3462500000  -4.221277e+001  6.758292e+001 
3465625000  -4.259771e+001  6.477151e+001 
3468750000  -4.297633e+001  6.288000e+001 
3471875000  -4.319616e+001  6.205920e+001 
3475000000  -4.250282e+001  5.912119e+001 
3478125000  -4.369181e+001  5.109031e+001 
3481250000  -4.445416e+001  4.971167e+001 
3484375000  -4.618206e+001  5.729190e+001 
3487500000  -4.577838e+001  5.995336e+001 
3490625000  -4.547149e+001  5.734024e+001 
3493750000  -4.606058e+001  5.371929e+001 
3496875000  -4.683247e+001  5.663037e+001 
3500000000  -4.788316e+001  6.453345e+001 
3503125000  -4.787675e+001  6.690781e+001 
3506250000  -4.703562e+001  6.915189e+001 
3509375000  -4.657663e+001  6.820305e+001 
3512500000  -4.733878e+001  6.137367e+001 
3515625000  -4.748661e+001  7.174971e+001 
3518750000  -4.835524e+001  7.338175e+001 
3521875000  -4.770018e+001  7.715289e+001 
3525000000  -4.767682e+001  8.060634e+001 
3528125000  -4.717460e+001  9.222049e+001 
3531250000  -4.586067e+001  9.269109e+001 
3534375000  -4.486131e+001  8.147894e+001 
3537500000  -4.497592e+001  7.949493e+001 
3540625000  -4.539503e+001  7.839811e+001 
3543750000  -4.565172e+001  8.195275e+001 
3546875000  -4.492818e+001  9.298426e+001 
3550000000  -4.250648e+001  9.701855e+001 
3553125000  -4.139389e+001  7.956811e+001 
3556250000  -4.252244e+001  7.396060e+001 
3559375000  -4.185039e+001  7.461418e+001 
3562500000  -4.064095e+001  7.001698e+001 
3565625000  -4.154548e+001  6.062099e+001 
3568750000  -4.134103e+001  6.584637e+001 
3571875000  -4.111164e+001  6.400034e+001 
3575000000  -4.091172e+001  5.966156e+001 
3578125000  -4.123720e+001  5.504779e+001 
3581250000  -4.135628e+001  5.533397e+001 
3584375000  -4.047337e+001  5.459358e+001 
3587500000  -3.980760e+001  4.866393e+001 
3590625000  -4.015642e+001  4.043786e+001 
3593750000  -4.101187e+001  3.906510e+001 
3596875000  -4.128205e+001  4.814984e+001 
3600000000  -3.946889e+001  4.399572e+001 
3603125000  -3.981763e+001  3.330420e+001 
3606250000  -4.076917e+001  3.030128e+001 
3609375000  -4.072347e+001  2.728571e+001 
3612500000  -4.130384e+001  2.730304e+001 
3615625000  -4.161287e+001  2.382089e+001 
3618750000  -4.216269e+001  2.666604e+001 
3621875000  -4.156203e+001  2.389663e+001 
3625000000  -4.182250e+001  2.678647e+001 
3628125000  -4.174971e+001  2.634999e+001 
3631250000  -4.126108e+001  1.878639e+001 
3634375000  -4.214067e+001  2.128025e+001 
3637500000  -4.206263e+001  2.998083e+001 
3640625000  -4.086622e+001  2.742093e+001 
3643750000  -4.064639e+001  2.296527e+001 
3646875000  -4.118269e+001  1.584312e+001 
3650000000  -4.165233e+001  1.656457e+001 
3653125000  -4.130726e+001  1.547856e+001 
3656250000  -4.152079e+001  1.493267e+001 
3659375000  -4.189672e+001  2.008237e+001 
3662500000  -4.106812e+001  1.810847e+001 
3665625000  -4.133532e+001  1.838670e+001 
3668750000  -4.015572e+001  2.161132e+001 
3671875000  -3.916569e+001  1.426057e+001 
3675000000  -3.967587e+001  9.740395e+000 
3678125000  -4.037190e+001  1.034058e+001 
3681250000  -3.973790e+001  1.115783e+001 
3684375000  -3.969261e+001  8.373389e+000 
3687500000  -3.954584e+001  7.684476e+000 
3690625000  -3.960692e+001  4.810816e+000 
3693750000  -4.024294e+001  8.135985e+000 
3696875000  -3.983907e+001  1.161546e+001 
3700000000  -3.880633e+001  9.084583e+000 
3703125000  -3.871659e+001  5.109649e+000 
3706250000  -3.945846e+001  7.565403e+000 
3709375000  -3.868885e+001  1.086237e+001 
3712500000  -3.731617e+001  9.595914e+000 
3715625000  -3.632225e+001  4.539515e+000 
3718750000  -3.574754e+001  2.185848e+000 
3721875000  -3.519503e+001  -2.835644e+000 
3725000000  -3.524385e+001  -8.998845e+000 
3728125000  -3.543788e+001  -9.858751e+000 
3731250000  -3.487647e+001  -9.665913e+000 
3734375000  -3.378981e+001  -1.526089e+001 
3737500000  -3.434299e+001  -2.210204e+001 
3740625000  -3.498267e+001  -2.531071e+001 
3743750000  -3.455695e+001  -2.815141e+001 
3746875000  -3.485099e+001  -3.126373e+001 
3750000000  -3.486877e+001  -3.280263e+001 
3753125000  -3.461721e+001  -3.241767e+001 
3756250000  -3.455263e+001  -3.265866e+001 
3759375000  -3.431462e+001  -3.369124e+001 
3762500000  -3.377444e+001  -3.764062e+001 
3765625000  -3.426538e+001  -4.048731e+001 
3768750000  -3.437590e+001  -3.728305e+001 
3771875000  -3.251736e+001  -4.033754e+001 
3775000000  -3.228331e+001  -4.820563e+001 
3778125000  -3.259803e+001  -5.019279e+001 
3781250000  -3.243150e+001  -5.289433e+001 
3784375000  -3.232890e+001  -5.472044e+001 
3787500000  -3.167139e+001  -5.827047e+001 
3790625000  -3.219013e+001  -6.405940e+001 
3793750000  -3.237369e+001  -6.450530e+001 
3796875000  -3.153498e+001  -6.606226e+001 
3800000000  -2.992762e+001  -7.000486e+001 
3803125000  -3.072775e+001  -7.670306e+001 
3806250000  -3.139691e+001  -7.971091e+001 
3809375000  -3.105628e+001  -8.085166e+001 
3812500000  -3.040612e+001  -8.541101e+001 
3815625000  -3.100720e+001  -9.285591e+001 
3818750000  -3.215055e+001  -9.384643e+001 
3821875000  -3.220926e+001  -8.556516e+001 
3825000000  -3.006655e+001  -8.097343e+001 
3828125000  -2.877312e+001  -9.504210e+001 
3831250000  -2.932594e+001  -1.087278e+002 
3834375000  -3.068328e+001  -1.108349e+002 
3837500000  -3.166958e+001  -1.050234e+002 
3840625000  -3.054289e+001  -1.058215e+002 
3843750000  -2.930336e+001  -1.162565e+002 
3846875000  -2.999530e+001  -1.233994e+002 
3850000000  -3.135010e+001  -1.177028e+002 
3853125000  -3.052129e+001  -1.143131e+002 
3856250000  -3.041943e+001  -1.201572e+002 
3859375000  -2.983144e+001  -1.245055e+002 
3862500000  -2.929994e+001  -1.315190e+002 
3865625000  -2.957397e+001  -1.358941e+002 
3868750000  -2.963802e+001  -1.362451e+002 
3871875000  -2.891357e+001  -1.393286e+002 
3875000000  -2.910728e+001  -1.480099e+002 
3878125000  -3.011162e+001  -1.504351e+002 
3881250000  -3.015068e+001  -1.471976e+002 
3884375000  -2.957069e+001  -1.520923e+002 
3887500000  -2.975606e+001  -1.559694e+002 
3890625000  -3.026471e+001  -1.584846e+002 
3893750000  -3.068524e+001  -1.597356e+002 
3896875000  -3.072680e+001  -1.589973e+002 
3900000000  -3.100212e+001  -1.600452e+002 
3903125000  -3.069728e+001  -1.628942e+002 
3906250000  -3.040803e+001  -1.626362e+002 
3909375000  -2.960775e+001  -1.656653e+002 
3912500000  -2.969552e+001  -1.730375e+002 
3915625000  -3.100762e+001  -1.722839e+002 
3918750000  -3.096335e+001  -1.704127e+002 
3921875000  -3.063397e+001  -1.721151e+002 
3925000000  -2.973571e+001  -1.725882e+002 
3928125000  -2.905753e+001  -1.786564e+002 
3931250000  -2.954888e+001  1.771683e+002 
3934375000  -2.980379e+001  1.773199e+002 
3937500000  -2.994223e+001  1.768981e+002 
3940625000  -3.040805e+001  1.769039e+002 
3943750000  -2.944451e+001  1.776108e+002 
3946875000  -2.820170e+001  1.729368e+002 
3950000000  -2.874113e+001  1.656327e+002 
3953125000  -2.975574e+001  1.661231e+002 
3956250000  -2.879086e+001  1.685746e+002 
3959375000  -2.750475e+001  1.654621e+002 
3962500000  -2.701358e+001  1.613898e+002 
3965625000  -2.667447e+001  1.527236e+002 
3968750000  -2.765522e+001  1.463435e+002 
3971875000  -2.796838e+001  1.446338e+002 
3975000000  -2.727493e+001  1.429326e+002 
3978125000  -2.711623e+001  1.410566e+002 
3981250000  -2.686072e+001  1.368242e+002 
3984375000  -2.711251e+001  1.308446e+002 
3987500000  -2.772098e+001  1.288357e+002 
3990625000  -2.765079e+001  1.282200e+002 
3993750000  -2.784724e+001  1.248167e+002 
3996875000  -2.779589e+001  1.224066e+002 
4000000000  -2.786348e+001  1.204528e+002 
4003125000  -2.849048e+001  1.226173e+002 
4006250000  -2.706223e+001  1.230060e+002 
4009375000  -2.583906e+001  1.103812e+002 
4012500000  -2.692267e+001  1.035241e+002 
4015625000  -2.820861e+001  1.042610e+002 
4018750000  -2.832269e+001  1.062095e+002 
4021875000  -2.767829e+001  1.047222e+002 
4025000000  -2.730072e+001  1.003177e+002 
4028125000  -2.722764e+001  9.633774e+001 
4031250000  -2.769464e+001  9.318978e+001 
4034375000  -2.792424e+001  9.308147e+001 
4037500000  -2.743818e+001  9.464510e+001 
4040625000  -2.734295e+001  9.130986e+001 
4043750000  -2.764722e+001  9.075710e+001 
4046875000  -2.725350e+001  9.029809e+001 
4050000000  -2.671849e+001  8.472859e+001 
4053125000  -2.723301e+001  8.303644e+001 
4056250000  -2.787835e+001  8.681292e+001 
4059375000  -2.661591e+001  8.892998e+001 
4062500000  -2.520654e+001  8.403209e+001 
4065625000  -2.509961e+001  7.933111e+001 
4068750000  -2.481968e+001  7.475306e+001 
4071875000  -2.414961e+001  6.717332e+001 
4075000000  -2.456441e+001  6.071729e+001 
4078125000  -2.508693e+001  6.005877e+001 
4081250000  -2.453835e+001  5.727076e+001 
4084375000  -2.417406e+001  5.064903e+001 
4087500000  -2.453296e+001  4.453257e+001 
4090625000  -2.512619e+001  4.357839e+001 
4093750000  -2.493251e+001  4.421659e+001 
4096875000  -2.450334e+001  3.814232e+001 
4100000000  -2.522817e+001  3.134118e+001 
4103125000  -2.611862e+001  3.209336e+001 
4106250000  -2.595928e+001  3.688634e+001 
4109375000  -2.509061e+001  3.660596e+001 
4112500000  -2.451198e+001  2.957050e+001 
4115625000  -2.484264e+001  2.562580e+001 
4118750000  -2.493630e+001  2.283085e+001 
4121875000  -2.460003e+001  1.807224e+001 
4125000000  -2.490849e+001  1.316198e+001 
4128125000  -2.594359e+001  1.322678e+001 
4131250000  -2.559207e+001  2.165718e+001 
4134375000  -2.327627e+001  1.667046e+001 
4137500000  -2.304172e+001  -1.989482e+000 
4140625000  -2.526830e+001  -8.900043e+000 
4143750000  -2.655660e+001  -3.793248e+000 
4146875000  -2.609628e+001  3.802073e+000 
4150000000  -2.512995e+001  -2.039898e-001 
4153125000  -2.495579e+001  -5.977072e+000 
4156250000  -2.590185e+001  -8.941115e+000 
4159375000  -2.612839e+001  -4.269911e+000 
4162500000  -2.494962e+001  -3.185549e-001 
4165625000  -2.387157e+001  -4.453566e+000 
4168750000  -2.328747e+001  -1.146649e+001 
4171875000  -2.319346e+001  -2.107691e+001 
4175000000  -2.382280e+001  -2.631161e+001 
4178125000  -2.444062e+001  -2.621489e+001 
4181250000  -2.427295e+001  -2.703379e+001 
4184375000  -2.415678e+001  -3.041784e+001 
4187500000  -2.418667e+001  -3.332448e+001 
4190625000  -2.401760e+001  -3.882846e+001 
4193750000  -2.484547e+001  -4.247497e+001 
4196875000  -2.549587e+001  -4.285067e+001 
4200000000  -2.642899e+001  -4.034064e+001 
4203125000  -2.641807e+001  -2.705945e+001 
4206250000  -2.302802e+001  -2.561828e+001 
4209375000  -2.186836e+001  -4.664294e+001 
4212500000  -2.381676e+001  -5.533887e+001 
4215625000  -2.483180e+001  -4.857004e+001 
4218750000  -2.347749e+001  -4.183499e+001 
4221875000  -2.113282e+001  -5.111861e+001 
4225000000  -2.242333e+001  -6.361106e+001 
4228125000  -2.312172e+001  -5.835105e+001 
4231250000  -2.155478e+001  -6.235519e+001 
4234375000  -2.141506e+001  -7.078638e+001 
4237500000  -2.102001e+001  -7.396942e+001 
4240625000  -2.104623e+001  -8.261265e+001 
4243750000  -2.200848e+001  -8.917159e+001 
4246875000  -2.291064e+001  -8.935526e+001 
4250000000  -2.297786e+001  -8.631474e+001 
4253125000  -2.238815e+001  -8.808880e+001 
4256250000  -2.260667e+001  -9.222266e+001 
4259375000  -2.236296e+001  -9.392846e+001 
4262500000  -2.237337e+001  -9.811909e+001 
4265625000  -2.254092e+001  -9.739444e+001 
4268750000  -2.163832e+001  -1.018827e+002 
4271875000  -2.139729e+001  -1.073402e+002 
4275000000  -2.076765e+001  -1.138005e+002 
4278125000  -2.141528e+001  -1.248342e+002 
4281250000  -2.314649e+001  -1.270388e+002 
4284375000  -2.285039e+001  -1.266775e+002 
4287500000  -2.366500e+001  -1.298899e+002 
4290625000  -2.491427e+001  -1.201608e+002 
4293750000  -2.288495e+001  -1.150489e+002 
4296875000  -2.155502e+001  -1.261990e+002 
4300000000  -2.238835e+001  -1.353378e+002 
4303125000  -2.352721e+001  -1.341180e+002 
4306250000  -2.284993e+001  -1.282875e+002 
4309375000  -2.149668e+001  -1.305242e+002 
4312500000  -2.136025e+001  -1.388920e+002 
4315625000  -2.161231e+001  -1.452771e+002 
4318750000  -2.196597e+001  -1.487340e+002 
4321875000  -2.213637e+001  -1.478737e+002 
4325000000  -2.154178e+001  -1.473797e+002 
4328125000  -2.102388e+001  -1.541047e+002 
4331250000  -2.095292e+001  -1.621306e+002 
4334375000  -2.140567e+001  -1.670510e+002 
4337500000  -2.224080e+001  -1.691995e+002 
4340625000  -2.281576e+001  -1.658411e+002 
4343750000  -2.219139e+001  -1.655964e+002 
4346875000  -2.183090e+001  -1.710345e+002 
4350000000  -2.184249e+001  -1.758040e+002 
4353125000  -2.190569e+001  1.765556e+002 
4356250000  -2.368265e+001  1.758554e+002 
4359375000  -2.426466e+001  -1.707094e+002 
4362500000  -2.150587e+001  -1.692558e+002 
4365625000  -1.994569e+001  1.789377e+002 
4368750000  -2.068253e+001  1.672314e+002 
4371875000  -2.187895e+001  1.680191e+002 
4375000000  -2.151098e+001  1.690887e+002 
4378125000  -2.091999e+001  1.631091e+002 
4381250000  -2.104000e+001  1.576782e+002 
4384375000  -2.088309e+001  1.531601e+002 
4387500000  -2.160102e+001  1.475685e+002 
4390625000  -2.259070e+001  1.482569e+002 
4393750000  -2.194427e+001  1.506199e+002 
4396875000  -2.128274e+001  1.485139e+002 
4400000000  -2.076189e+001  1.416889e+002 
4403125000  -2.135324e+001  1.338668e+002 
4406250000  -2.218431e+001  1.325414e+002 
4409375000  -2.214599e+001  1.301345e+002 
4412500000  -2.318962e+001  1.273684e+002 
4415625000  -2.356080e+001  1.326752e+002 
4418750000  -2.226781e+001  1.371131e+002 
