!Agilent Technologies,E8363B,MY43030201,A.06.04.32
!Agilent E8363B: A.06.04.32
!Date: Tuesday, November 11, 2014 20:44:39
!Correction: S21(Response(S21)) 
!S1P File: Measurement: S21:
# Hz S  dB   R 50
3000000000  -2.645902e+001  1.580436e+002 
3003125000  -2.782078e+001  1.537334e+002 
3006250000  -2.790442e+001  1.510252e+002 
3009375000  -2.820559e+001  1.556976e+002 
3012500000  -2.777082e+001  1.558252e+002 
3015625000  -2.678308e+001  1.488193e+002 
3018750000  -2.764780e+001  1.475564e+002 
3021875000  -2.641883e+001  1.490485e+002 
3025000000  -2.510301e+001  1.458815e+002 
3028125000  -2.413695e+001  1.413878e+002 
3031250000  -2.310244e+001  1.301351e+002 
3034375000  -2.269951e+001  1.174090e+002 
3037500000  -2.304580e+001  1.051957e+002 
3040625000  -2.436633e+001  1.002712e+002 
3043750000  -2.508448e+001  9.601134e+001 
3046875000  -2.517917e+001  8.946294e+001 
3050000000  -2.692756e+001  8.227518e+001 
3053125000  -2.714284e+001  8.871261e+001 
3056250000  -2.642493e+001  9.215575e+001 
3059375000  -2.671022e+001  9.181156e+001 
3062500000  -2.521024e+001  8.766692e+001 
3065625000  -2.497910e+001  8.224425e+001 
3068750000  -2.470848e+001  7.527403e+001 
3071875000  -2.465616e+001  7.215368e+001 
3075000000  -2.467170e+001  6.856847e+001 
3078125000  -2.435609e+001  6.398130e+001 
3081250000  -2.503177e+001  5.986592e+001 
3084375000  -2.427641e+001  5.640023e+001 
3087500000  -2.412232e+001  5.272371e+001 
3090625000  -2.385249e+001  4.318090e+001 
3093750000  -2.422599e+001  3.496589e+001 
3096875000  -2.557191e+001  2.875289e+001 
3100000000  -2.570679e+001  2.755106e+001 
3103125000  -2.608395e+001  2.880827e+001 
3106250000  -2.582171e+001  2.546468e+001 
3109375000  -2.604397e+001  2.181275e+001 
3112500000  -2.616893e+001  2.109317e+001 
3115625000  -2.594884e+001  1.693054e+001 
3118750000  -2.643526e+001  1.796251e+001 
3121875000  -2.583732e+001  1.019363e+001 
3125000000  -2.691911e+001  6.519214e+000 
3128125000  -2.814851e+001  1.440376e+001 
3131250000  -2.604145e+001  1.535084e+001 
3134375000  -2.466473e+001  1.909056e+000 
3137500000  -2.524814e+001  -1.208123e+001 
3140625000  -2.695743e+001  -1.408316e+001 
3143750000  -2.799410e+001  -9.411053e+000 
3146875000  -2.750121e+001  -7.841516e+000 
3150000000  -2.651784e+001  -5.498840e+000 
3153125000  -2.650875e+001  -1.321935e+001 
3156250000  -2.744748e+001  -7.947139e+000 
3159375000  -2.597580e+001  -4.867041e+000 
3162500000  -2.391454e+001  -1.781265e+001 
3165625000  -2.478628e+001  -2.852824e+001 
3168750000  -2.523577e+001  -2.801267e+001 
3171875000  -2.427789e+001  -3.190897e+001 
3175000000  -2.491468e+001  -3.951704e+001 
3178125000  -2.473926e+001  -3.805217e+001 
3181250000  -2.353198e+001  -4.183396e+001 
3184375000  -2.267711e+001  -5.423933e+001 
3187500000  -2.376752e+001  -6.971317e+001 
3190625000  -2.665165e+001  -7.754004e+001 
3193750000  -2.723194e+001  -6.772145e+001 
3196875000  -2.679907e+001  -6.205213e+001 
3200000000  -2.598841e+001  -6.392117e+001 
3203125000  -2.507375e+001  -6.941690e+001 
3206250000  -2.537178e+001  -7.575945e+001 
3209375000  -2.486605e+001  -8.075109e+001 
3212500000  -2.500167e+001  -8.743617e+001 
3215625000  -2.515255e+001  -9.185419e+001 
3218750000  -2.592385e+001  -9.816148e+001 
3221875000  -2.695393e+001  -1.031647e+002 
3225000000  -2.657126e+001  -1.036144e+002 
3228125000  -2.682091e+001  -1.077987e+002 
3231250000  -2.757552e+001  -1.110527e+002 
3234375000  -2.746850e+001  -1.100762e+002 
3237500000  -2.748828e+001  -1.114625e+002 
3240625000  -2.718592e+001  -1.128302e+002 
3243750000  -2.681742e+001  -1.197360e+002 
3246875000  -2.728625e+001  -1.263346e+002 
3250000000  -2.773063e+001  -1.282218e+002 
3253125000  -2.786012e+001  -1.298371e+002 
3256250000  -2.772118e+001  -1.357671e+002 
3259375000  -2.806152e+001  -1.434819e+002 
3262500000  -2.930799e+001  -1.463363e+002 
3265625000  -3.002379e+001  -1.428112e+002 
3268750000  -2.998464e+001  -1.404569e+002 
3271875000  -2.975944e+001  -1.389870e+002 
3275000000  -2.865730e+001  -1.438302e+002 
3278125000  -2.912098e+001  -1.502820e+002 
3281250000  -2.941848e+001  -1.487192e+002 
3284375000  -2.899539e+001  -1.543512e+002 
3287500000  -2.911719e+001  -1.576844e+002 
3290625000  -2.959200e+001  -1.612586e+002 
3293750000  -2.929157e+001  -1.666694e+002 
3296875000  -3.022738e+001  -1.674101e+002 
3300000000  -3.023576e+001  -1.659431e+002 
3303125000  -2.906550e+001  -1.694545e+002 
3306250000  -2.881292e+001  -1.764406e+002 
3309375000  -2.856080e+001  1.788815e+002 
3312500000  -2.860880e+001  1.685306e+002 
3315625000  -2.962824e+001  1.606346e+002 
3318750000  -3.095532e+001  1.572353e+002 
3321875000  -3.217785e+001  1.567925e+002 
3325000000  -3.272611e+001  1.623193e+002 
3328125000  -3.269053e+001  1.635309e+002 
3331250000  -3.145283e+001  1.715379e+002 
3334375000  -2.885642e+001  1.622341e+002 
3337500000  -2.889747e+001  1.442607e+002 
3340625000  -3.026266e+001  1.331196e+002 
3343750000  -3.219381e+001  1.314437e+002 
3346875000  -3.278769e+001  1.328987e+002 
3350000000  -3.205976e+001  1.318383e+002 
3353125000  -3.211736e+001  1.282597e+002 
3356250000  -3.194581e+001  1.199471e+002 
3359375000  -3.280081e+001  1.116128e+002 
3362500000  -3.413416e+001  1.057551e+002 
3365625000  -3.468926e+001  1.039289e+002 
3368750000  -3.569321e+001  1.029571e+002 
3371875000  -3.613199e+001  9.968666e+001 
3375000000  -3.772000e+001  9.759853e+001 
3378125000  -3.882665e+001  9.707186e+001 
3381250000  -4.017051e+001  1.034204e+002 
3384375000  -3.957296e+001  1.253182e+002 
3387500000  -3.639181e+001  1.111234e+002 
3390625000  -3.831650e+001  9.286019e+001 
3393750000  -4.011373e+001  9.758281e+001 
3396875000  -3.913654e+001  1.013474e+002 
3400000000  -3.923087e+001  9.431271e+001 
3403125000  -4.018045e+001  8.880968e+001 
3406250000  -4.106584e+001  9.121706e+001 
3409375000  -4.164574e+001  8.836656e+001 
3412500000  -4.266013e+001  8.926240e+001 
3415625000  -4.357449e+001  9.381679e+001 
3418750000  -4.384940e+001  9.742930e+001 
3421875000  -4.414259e+001  1.064176e+002 
3425000000  -4.309480e+001  1.083088e+002 
3428125000  -4.215349e+001  1.102632e+002 
3431250000  -4.234580e+001  1.055533e+002 
3434375000  -4.191998e+001  1.034090e+002 
3437500000  -4.222640e+001  9.997071e+001 
3440625000  -4.271195e+001  1.035634e+002 
3443750000  -4.149817e+001  1.056325e+002 
3446875000  -4.046914e+001  1.008862e+002 
3450000000  -4.041650e+001  9.219822e+001 
3453125000  -4.051790e+001  8.358022e+001 
3456250000  -4.170311e+001  7.885788e+001 
3459375000  -4.248645e+001  8.105898e+001 
3462500000  -4.274842e+001  8.233642e+001 
3465625000  -4.265133e+001  7.843141e+001 
3468750000  -4.327488e+001  7.427551e+001 
3471875000  -4.355000e+001  7.611942e+001 
3475000000  -4.330737e+001  7.315135e+001 
3478125000  -4.372345e+001  6.595129e+001 
3481250000  -4.499521e+001  6.449393e+001 
3484375000  -4.675856e+001  7.109986e+001 
3487500000  -4.613518e+001  7.588335e+001 
3490625000  -4.594850e+001  7.037083e+001 
3493750000  -4.668209e+001  6.922469e+001 
3496875000  -4.748417e+001  7.249950e+001 
3500000000  -4.859349e+001  8.197527e+001 
3503125000  -4.829336e+001  8.458530e+001 
3506250000  -4.687533e+001  8.837868e+001 
3509375000  -4.696595e+001  8.554066e+001 
3512500000  -4.723898e+001  8.408111e+001 
3515625000  -4.764553e+001  8.420702e+001 
3518750000  -4.778072e+001  8.995737e+001 
3521875000  -4.772940e+001  9.771183e+001 
3525000000  -4.800949e+001  9.658728e+001 
3528125000  -4.740285e+001  1.032125e+002 
3531250000  -4.575373e+001  1.056322e+002 
3534375000  -4.501570e+001  9.878701e+001 
3537500000  -4.490739e+001  9.331118e+001 
3540625000  -4.530220e+001  9.385833e+001 
3543750000  -4.565089e+001  9.780403e+001 
3546875000  -4.525982e+001  1.101007e+002 
3550000000  -4.292286e+001  1.121891e+002 
3553125000  -4.134736e+001  9.498875e+001 
3556250000  -4.231362e+001  8.876050e+001 
3559375000  -4.214081e+001  9.211823e+001 
3562500000  -4.079094e+001  8.409934e+001 
3565625000  -4.161207e+001  7.695543e+001 
3568750000  -4.139139e+001  8.067882e+001 
3571875000  -4.159369e+001  8.085473e+001 
3575000000  -4.100217e+001  7.706900e+001 
3578125000  -4.115326e+001  7.136327e+001 
3581250000  -4.136144e+001  7.304491e+001 
3584375000  -4.053857e+001  7.111747e+001 
3587500000  -4.000603e+001  6.589517e+001 
3590625000  -4.007954e+001  5.555079e+001 
3593750000  -4.128649e+001  5.269904e+001 
3596875000  -4.138071e+001  6.135571e+001 
3600000000  -3.961017e+001  5.980610e+001 
3603125000  -3.974360e+001  4.722836e+001 
3606250000  -4.044923e+001  4.338596e+001 
3609375000  -4.076635e+001  4.302673e+001 
3612500000  -4.141712e+001  4.073624e+001 
3615625000  -4.137719e+001  3.836609e+001 
3618750000  -4.195341e+001  4.065758e+001 
3621875000  -4.140150e+001  3.951344e+001 
3625000000  -4.182034e+001  3.879095e+001 
3628125000  -4.164780e+001  3.912947e+001 
3631250000  -4.139759e+001  3.471487e+001 
3634375000  -4.259069e+001  3.668135e+001 
3637500000  -4.205224e+001  4.085939e+001 
3640625000  -4.118385e+001  4.138568e+001 
3643750000  -4.098043e+001  3.896290e+001 
3646875000  -4.147377e+001  3.137687e+001 
3650000000  -4.195931e+001  3.085305e+001 
3653125000  -4.183278e+001  3.268084e+001 
3656250000  -4.196538e+001  2.866141e+001 
3659375000  -4.222998e+001  3.461123e+001 
3662500000  -4.118215e+001  3.187914e+001 
3665625000  -4.114890e+001  3.524523e+001 
3668750000  -4.039023e+001  3.616748e+001 
3671875000  -3.957772e+001  3.049969e+001 
3675000000  -3.980046e+001  2.508856e+001 
3678125000  -4.038332e+001  2.690014e+001 
3681250000  -3.988623e+001  2.731059e+001 
3684375000  -3.955717e+001  2.549393e+001 
3687500000  -3.968186e+001  2.414035e+001 
3690625000  -3.969585e+001  2.101988e+001 
3693750000  -4.022223e+001  2.359604e+001 
3696875000  -4.032637e+001  2.521277e+001 
3700000000  -3.876960e+001  2.664415e+001 
3703125000  -3.846135e+001  2.011972e+001 
3706250000  -3.930265e+001  2.354860e+001 
3709375000  -3.868100e+001  2.681907e+001 
3712500000  -3.750592e+001  2.645176e+001 
3715625000  -3.649274e+001  1.973077e+001 
3718750000  -3.560136e+001  1.786774e+001 
3721875000  -3.512219e+001  1.144560e+001 
3725000000  -3.523253e+001  6.590474e+000 
3728125000  -3.537476e+001  5.636116e+000 
3731250000  -3.460946e+001  5.855165e+000 
3734375000  -3.378856e+001  -4.243270e-001 
3737500000  -3.407006e+001  -7.763499e+000 
3740625000  -3.476911e+001  -1.019995e+001 
3743750000  -3.461807e+001  -1.366516e+001 
3746875000  -3.450043e+001  -1.627558e+001 
3750000000  -3.504207e+001  -1.700667e+001 
3753125000  -3.453503e+001  -1.698479e+001 
3756250000  -3.445068e+001  -1.812383e+001 
3759375000  -3.431408e+001  -1.825737e+001 
3762500000  -3.377359e+001  -2.254940e+001 
3765625000  -3.413055e+001  -2.499587e+001 
3768750000  -3.422266e+001  -2.371758e+001 
3771875000  -3.263906e+001  -2.515208e+001 
3775000000  -3.232773e+001  -3.335668e+001 
3778125000  -3.257934e+001  -3.508569e+001 
3781250000  -3.239838e+001  -3.692311e+001 
3784375000  -3.220687e+001  -3.910202e+001 
3787500000  -3.164437e+001  -4.328767e+001 
3790625000  -3.213489e+001  -4.919186e+001 
3793750000  -3.225586e+001  -4.925300e+001 
3796875000  -3.148095e+001  -5.034279e+001 
3800000000  -2.996749e+001  -5.429892e+001 
3803125000  -3.065978e+001  -6.097352e+001 
3806250000  -3.129379e+001  -6.326974e+001 
3809375000  -3.111718e+001  -6.490115e+001 
3812500000  -3.037046e+001  -6.890015e+001 
3815625000  -3.095337e+001  -7.663484e+001 
3818750000  -3.182241e+001  -7.835571e+001 
3821875000  -3.205406e+001  -7.074194e+001 
3825000000  -3.015883e+001  -6.556313e+001 
3828125000  -2.873535e+001  -7.943313e+001 
3831250000  -2.930370e+001  -9.380601e+001 
3834375000  -3.067489e+001  -9.486278e+001 
3837500000  -3.152402e+001  -8.887266e+001 
3840625000  -3.041605e+001  -9.023800e+001 
3843750000  -2.932606e+001  -1.005186e+002 
3846875000  -2.997910e+001  -1.082080e+002 
3850000000  -3.128869e+001  -1.028670e+002 
3853125000  -3.043749e+001  -1.001081e+002 
3856250000  -3.035084e+001  -1.047426e+002 
3859375000  -2.980812e+001  -1.085597e+002 
3862500000  -2.930794e+001  -1.156219e+002 
3865625000  -2.956316e+001  -1.204731e+002 
3868750000  -2.966110e+001  -1.210867e+002 
3871875000  -2.891866e+001  -1.238567e+002 
3875000000  -2.902979e+001  -1.318769e+002 
3878125000  -2.998627e+001  -1.353684e+002 
3881250000  -3.013507e+001  -1.311645e+002 
3884375000  -2.958774e+001  -1.360741e+002 
3887500000  -2.966766e+001  -1.402086e+002 
3890625000  -3.024108e+001  -1.422779e+002 
3893750000  -3.059262e+001  -1.441482e+002 
3896875000  -3.071092e+001  -1.430384e+002 
3900000000  -3.100694e+001  -1.439237e+002 
3903125000  -3.063822e+001  -1.469532e+002 
3906250000  -3.033896e+001  -1.473348e+002 
3909375000  -2.972278e+001  -1.502212e+002 
3912500000  -2.964076e+001  -1.563455e+002 
3915625000  -3.074961e+001  -1.562565e+002 
3918750000  -3.076821e+001  -1.546524e+002 
3921875000  -3.055722e+001  -1.564532e+002 
3925000000  -2.973825e+001  -1.570167e+002 
3928125000  -2.901937e+001  -1.621604e+002 
3931250000  -2.943470e+001  -1.664837e+002 
3934375000  -2.958419e+001  -1.661988e+002 
3937500000  -2.973230e+001  -1.674173e+002 
3940625000  -3.025822e+001  -1.674892e+002 
3943750000  -2.938198e+001  -1.660083e+002 
3946875000  -2.802966e+001  -1.707926e+002 
3950000000  -2.852913e+001  -1.789396e+002 
3953125000  -2.949128e+001  -1.791056e+002 
3956250000  -2.871084e+001  -1.758264e+002 
3959375000  -2.736066e+001  -1.788900e+002 
3962500000  -2.683854e+001  1.769928e+002 
3965625000  -2.643219e+001  1.684238e+002 
3968750000  -2.744533e+001  1.616304e+002 
3971875000  -2.785897e+001  1.600353e+002 
3975000000  -2.716654e+001  1.584630e+002 
3978125000  -2.697267e+001  1.570779e+002 
3981250000  -2.672421e+001  1.528265e+002 
3984375000  -2.698310e+001  1.462470e+002 
3987500000  -2.751861e+001  1.441105e+002 
3990625000  -2.747304e+001  1.433764e+002 
3993750000  -2.771455e+001  1.403412e+002 
3996875000  -2.777043e+001  1.378531e+002 
4000000000  -2.778075e+001  1.360329e+002 
4003125000  -2.836055e+001  1.375834e+002 
4006250000  -2.703298e+001  1.387932e+002 
4009375000  -2.581965e+001  1.269964e+002 
4012500000  -2.682402e+001  1.196999e+002 
4015625000  -2.801158e+001  1.196767e+002 
4018750000  -2.824806e+001  1.218542e+002 
4021875000  -2.761499e+001  1.210204e+002 
4025000000  -2.724252e+001  1.159641e+002 
4028125000  -2.720485e+001  1.118481e+002 
4031250000  -2.756770e+001  1.087284e+002 
4034375000  -2.785333e+001  1.085764e+002 
4037500000  -2.728957e+001  1.107368e+002 
4040625000  -2.719943e+001  1.074145e+002 
4043750000  -2.751875e+001  1.065822e+002 
4046875000  -2.712187e+001  1.063794e+002 
4050000000  -2.658465e+001  1.007013e+002 
4053125000  -2.702686e+001  9.799041e+001 
4056250000  -2.766131e+001  1.019935e+002 
4059375000  -2.651805e+001  1.041139e+002 
4062500000  -2.509245e+001  9.990466e+001 
4065625000  -2.488614e+001  9.492435e+001 
4068750000  -2.460905e+001  9.000838e+001 
4071875000  -2.404066e+001  8.242780e+001 
4075000000  -2.438280e+001  7.588227e+001 
4078125000  -2.490792e+001  7.493064e+001 
4081250000  -2.447043e+001  7.279337e+001 
4084375000  -2.401937e+001  6.618337e+001 
4087500000  -2.439854e+001  5.954021e+001 
4090625000  -2.498600e+001  5.818379e+001 
4093750000  -2.490281e+001  5.917389e+001 
4096875000  -2.439181e+001  5.341534e+001 
4100000000  -2.503650e+001  4.637514e+001 
4103125000  -2.594734e+001  4.654822e+001 
4106250000  -2.590827e+001  5.142955e+001 
4109375000  -2.504448e+001  5.141246e+001 
4112500000  -2.448021e+001  4.521285e+001 
4115625000  -2.478658e+001  4.047445e+001 
4118750000  -2.488367e+001  3.754194e+001 
4121875000  -2.450150e+001  3.317945e+001 
4125000000  -2.481747e+001  2.857220e+001 
4128125000  -2.587081e+001  2.826189e+001 
4131250000  -2.563953e+001  3.619476e+001 
4134375000  -2.333058e+001  3.218192e+001 
4137500000  -2.303471e+001  1.396371e+001 
4140625000  -2.515411e+001  6.356819e+000 
4143750000  -2.647034e+001  1.044652e+001 
4146875000  -2.618186e+001  1.834487e+001 
4150000000  -2.522403e+001  1.578643e+001 
4153125000  -2.504822e+001  9.217942e+000 
4156250000  -2.590132e+001  6.382360e+000 
4159375000  -2.611961e+001  1.055791e+001 
4162500000  -2.505753e+001  1.511866e+001 
4165625000  -2.388376e+001  1.109941e+001 
4168750000  -2.325558e+001  4.282241e+000 
4171875000  -2.325883e+001  -5.151418e+000 
4175000000  -2.383377e+001  -1.078555e+001 
4178125000  -2.440512e+001  -1.140134e+001 
4181250000  -2.425359e+001  -1.140335e+001 
4184375000  -2.411865e+001  -1.481745e+001 
4187500000  -2.415398e+001  -1.734537e+001 
4190625000  -2.392979e+001  -2.285836e+001 
4193750000  -2.468109e+001  -2.677919e+001 
4196875000  -2.540875e+001  -2.723396e+001 
4200000000  -2.629569e+001  -2.537564e+001 
4203125000  -2.644621e+001  -1.277083e+001 
4206250000  -2.316509e+001  -1.032923e+001 
4209375000  -2.181495e+001  -3.016203e+001 
4212500000  -2.371090e+001  -3.967220e+001 
4215625000  -2.469666e+001  -3.404118e+001 
4218750000  -2.351150e+001  -2.689762e+001 
4221875000  -2.118378e+001  -3.575243e+001 
4225000000  -2.231898e+001  -4.864613e+001 
4228125000  -2.315108e+001  -4.383125e+001 
4231250000  -2.160089e+001  -4.710824e+001 
4234375000  -2.150367e+001  -5.547845e+001 
4237500000  -2.108298e+001  -5.850285e+001 
4240625000  -2.108310e+001  -6.698560e+001 
4243750000  -2.205692e+001  -7.362984e+001 
4246875000  -2.295427e+001  -7.379444e+001 
4250000000  -2.302432e+001  -7.093811e+001 
4253125000  -2.243345e+001  -7.279955e+001 
4256250000  -2.268752e+001  -7.712167e+001 
4259375000  -2.245705e+001  -7.886067e+001 
4262500000  -2.242610e+001  -8.238634e+001 
4265625000  -2.264331e+001  -8.224181e+001 
4268750000  -2.179416e+001  -8.607295e+001 
4271875000  -2.154508e+001  -9.119517e+001 
4275000000  -2.092619e+001  -9.785669e+001 
4278125000  -2.146184e+001  -1.088725e+002 
4281250000  -2.326382e+001  -1.114104e+002 
4284375000  -2.299172e+001  -1.100611e+002 
4287500000  -2.367904e+001  -1.138412e+002 
4290625000  -2.499591e+001  -1.050359e+002 
4293750000  -2.305949e+001  -9.880602e+001 
4296875000  -2.167142e+001  -1.099858e+002 
4300000000  -2.241338e+001  -1.191684e+002 
4303125000  -2.358755e+001  -1.184898e+002 
4306250000  -2.303334e+001  -1.126537e+002 
4309375000  -2.163977e+001  -1.143083e+002 
4312500000  -2.148918e+001  -1.227153e+002 
4315625000  -2.170753e+001  -1.286388e+002 
4318750000  -2.202066e+001  -1.321830e+002 
4321875000  -2.216416e+001  -1.318876e+002 
4325000000  -2.160742e+001  -1.312683e+002 
4328125000  -2.110720e+001  -1.374398e+002 
4331250000  -2.102778e+001  -1.455627e+002 
4334375000  -2.141976e+001  -1.505407e+002 
4337500000  -2.222580e+001  -1.527340e+002 
4340625000  -2.283595e+001  -1.502315e+002 
4343750000  -2.230163e+001  -1.497245e+002 
4346875000  -2.190011e+001  -1.551046e+002 
4350000000  -2.192789e+001  -1.594782e+002 
4353125000  -2.190244e+001  -1.671379e+002 
4356250000  -2.357397e+001  -1.686286e+002 
4359375000  -2.437799e+001  -1.563981e+002 
4362500000  -2.186158e+001  -1.534983e+002 
4365625000  -2.009629e+001  -1.645558e+002 
4368750000  -2.072764e+001  -1.767717e+002 
4371875000  -2.198125e+001  -1.765858e+002 
4375000000  -2.176273e+001  -1.746980e+002 
4378125000  -2.107317e+001  1.795099e+002 
4381250000  -2.123941e+001  1.741168e+002 
4384375000  -2.104955e+001  1.699606e+002 
4387500000  -2.173389e+001  1.639474e+002 
4390625000  -2.279967e+001  1.644068e+002 
4393750000  -2.214326e+001  1.667047e+002 
4396875000  -2.144481e+001  1.649932e+002 
4400000000  -2.097606e+001  1.580325e+002 
4403125000  -2.147800e+001  1.504288e+002 
4406250000  -2.235851e+001  1.492557e+002 
4409375000  -2.230419e+001  1.467548e+002 
4412500000  -2.331550e+001  1.441755e+002 
4415625000  -2.373591e+001  1.486310e+002 
4418750000  -2.257679e+001  1.536511e+002 
