!Agilent Technologies,E8363B,MY43030201,A.06.04.32
!Agilent E8363B: A.06.04.32
!Date: Tuesday, November 11, 2014 20:48:40
!Correction: S21(Response(S21)) 
!S1P File: Measurement: S21:
# Hz S  dB   R 50
3000000000  -2.650601e+001  1.552923e+002 
3003125000  -2.788793e+001  1.508202e+002 
3006250000  -2.796609e+001  1.480387e+002 
3009375000  -2.832265e+001  1.528326e+002 
3012500000  -2.784272e+001  1.528878e+002 
3015625000  -2.682835e+001  1.456658e+002 
3018750000  -2.769790e+001  1.445531e+002 
3021875000  -2.643942e+001  1.460733e+002 
3025000000  -2.513199e+001  1.431808e+002 
3028125000  -2.417272e+001  1.379742e+002 
3031250000  -2.311539e+001  1.270770e+002 
3034375000  -2.273975e+001  1.139223e+002 
3037500000  -2.310645e+001  1.019308e+002 
3040625000  -2.442202e+001  9.680565e+001 
3043750000  -2.512155e+001  9.266689e+001 
3046875000  -2.522520e+001  8.610474e+001 
3050000000  -2.694958e+001  7.922690e+001 
3053125000  -2.713192e+001  8.585560e+001 
3056250000  -2.645130e+001  8.855322e+001 
3059375000  -2.673155e+001  8.857738e+001 
3062500000  -2.522956e+001  8.447112e+001 
3065625000  -2.500983e+001  7.894068e+001 
3068750000  -2.473825e+001  7.192218e+001 
3071875000  -2.467100e+001  6.890216e+001 
3075000000  -2.466048e+001  6.529104e+001 
3078125000  -2.437733e+001  6.061384e+001 
3081250000  -2.500235e+001  5.653527e+001 
3084375000  -2.425451e+001  5.286753e+001 
3087500000  -2.413455e+001  4.933933e+001 
3090625000  -2.385398e+001  3.969824e+001 
3093750000  -2.423966e+001  3.169702e+001 
3096875000  -2.557556e+001  2.529474e+001 
3100000000  -2.569981e+001  2.401189e+001 
3103125000  -2.609357e+001  2.543464e+001 
3106250000  -2.580567e+001  2.206171e+001 
3109375000  -2.603910e+001  1.843339e+001 
3112500000  -2.618269e+001  1.755482e+001 
3115625000  -2.592709e+001  1.328357e+001 
3118750000  -2.642340e+001  1.466001e+001 
3121875000  -2.574454e+001  6.592970e+000 
3125000000  -2.692257e+001  2.836558e+000 
3128125000  -2.818244e+001  1.106036e+001 
3131250000  -2.598014e+001  1.163653e+001 
3134375000  -2.464309e+001  -1.887065e+000 
3137500000  -2.523118e+001  -1.562579e+001 
3140625000  -2.690666e+001  -1.750325e+001 
3143750000  -2.790706e+001  -1.311356e+001 
3146875000  -2.753142e+001  -1.120284e+001 
3150000000  -2.653612e+001  -9.102209e+000 
3153125000  -2.649163e+001  -1.670057e+001 
3156250000  -2.746874e+001  -1.183702e+001 
3159375000  -2.591822e+001  -8.418048e+000 
3162500000  -2.389155e+001  -2.137636e+001 
3165625000  -2.477491e+001  -3.213984e+001 
3168750000  -2.521592e+001  -3.131850e+001 
3171875000  -2.427259e+001  -3.565279e+001 
3175000000  -2.491979e+001  -4.319061e+001 
3178125000  -2.470421e+001  -4.166107e+001 
3181250000  -2.351112e+001  -4.560208e+001 
3184375000  -2.268089e+001  -5.784771e+001 
3187500000  -2.378998e+001  -7.287184e+001 
3190625000  -2.659819e+001  -8.071569e+001 
3193750000  -2.724796e+001  -7.110297e+001 
3196875000  -2.678980e+001  -6.554135e+001 
3200000000  -2.594260e+001  -6.738997e+001 
3203125000  -2.502883e+001  -7.289363e+001 
3206250000  -2.536743e+001  -7.929977e+001 
3209375000  -2.484238e+001  -8.433607e+001 
3212500000  -2.495979e+001  -9.125319e+001 
3215625000  -2.514037e+001  -9.524445e+001 
3218750000  -2.585724e+001  -1.014487e+002 
3221875000  -2.688045e+001  -1.064282e+002 
3225000000  -2.649009e+001  -1.070619e+002 
3228125000  -2.674143e+001  -1.117552e+002 
3231250000  -2.756748e+001  -1.144706e+002 
3234375000  -2.740260e+001  -1.134323e+002 
3237500000  -2.745101e+001  -1.150323e+002 
3240625000  -2.711981e+001  -1.167407e+002 
3243750000  -2.671557e+001  -1.233288e+002 
3246875000  -2.723230e+001  -1.296629e+002 
3250000000  -2.765248e+001  -1.319023e+002 
3253125000  -2.781517e+001  -1.336903e+002 
3256250000  -2.768448e+001  -1.392434e+002 
3259375000  -2.802169e+001  -1.471307e+002 
3262500000  -2.926219e+001  -1.502615e+002 
3265625000  -2.995780e+001  -1.466286e+002 
3268750000  -2.992287e+001  -1.438757e+002 
3271875000  -2.972030e+001  -1.426058e+002 
3275000000  -2.862443e+001  -1.473484e+002 
3278125000  -2.906278e+001  -1.540221e+002 
3281250000  -2.932697e+001  -1.525661e+002 
3284375000  -2.892153e+001  -1.578182e+002 
3287500000  -2.905213e+001  -1.606268e+002 
3290625000  -2.946345e+001  -1.651339e+002 
3293750000  -2.917593e+001  -1.706066e+002 
3296875000  -3.012018e+001  -1.705716e+002 
3300000000  -3.010972e+001  -1.695900e+002 
3303125000  -2.897068e+001  -1.734438e+002 
3306250000  -2.872422e+001  1.799340e+002 
3309375000  -2.851415e+001  1.750527e+002 
3312500000  -2.848337e+001  1.649114e+002 
3315625000  -2.951961e+001  1.568194e+002 
3318750000  -3.084032e+001  1.543186e+002 
3321875000  -3.210564e+001  1.540135e+002 
3325000000  -3.261440e+001  1.581923e+002 
3328125000  -3.265303e+001  1.606723e+002 
3331250000  -3.133907e+001  1.681118e+002 
3334375000  -2.876517e+001  1.584986e+002 
3337500000  -2.879478e+001  1.400804e+002 
3340625000  -3.011152e+001  1.293170e+002 
3343750000  -3.208417e+001  1.276128e+002 
3346875000  -3.263589e+001  1.293142e+002 
3350000000  -3.196549e+001  1.276590e+002 
3353125000  -3.216225e+001  1.237166e+002 
3356250000  -3.183045e+001  1.164866e+002 
3359375000  -3.268137e+001  1.079312e+002 
3362500000  -3.396760e+001  1.029774e+002 
3365625000  -3.455379e+001  1.005501e+002 
3368750000  -3.557141e+001  9.917313e+001 
3371875000  -3.600261e+001  9.583524e+001 
3375000000  -3.742556e+001  9.429693e+001 
3378125000  -3.868566e+001  9.464342e+001 
3381250000  -4.033417e+001  9.959730e+001 
3384375000  -3.930236e+001  1.215739e+002 
3387500000  -3.619300e+001  1.081149e+002 
3390625000  -3.799969e+001  8.885298e+001 
3393750000  -3.960151e+001  9.422008e+001 
3396875000  -3.889343e+001  9.599716e+001 
3400000000  -3.882361e+001  9.024336e+001 
3403125000  -3.994643e+001  8.488471e+001 
3406250000  -4.076940e+001  8.866818e+001 
3409375000  -4.127525e+001  8.368487e+001 
3412500000  -4.228539e+001  8.590067e+001 
3415625000  -4.314389e+001  8.905340e+001 
3418750000  -4.337722e+001  9.467306e+001 
3421875000  -4.343577e+001  1.009622e+002 
3425000000  -4.287191e+001  1.034603e+002 
3428125000  -4.200415e+001  1.048550e+002 
3431250000  -4.213019e+001  9.923862e+001 
3434375000  -4.180555e+001  9.638267e+001 
3437500000  -4.207839e+001  9.462184e+001 
3440625000  -4.215688e+001  9.829366e+001 
3443750000  -4.120660e+001  1.017832e+002 
3446875000  -4.027095e+001  9.542153e+001 
3450000000  -4.010130e+001  8.625332e+001 
3453125000  -4.034890e+001  7.927014e+001 
3456250000  -4.145599e+001  7.310924e+001 
3459375000  -4.248965e+001  7.572547e+001 
3462500000  -4.285114e+001  7.487632e+001 
3465625000  -4.248839e+001  7.087276e+001 
3468750000  -4.295034e+001  6.933276e+001 
3471875000  -4.319582e+001  7.074944e+001 
3475000000  -4.307669e+001  6.451152e+001 
3478125000  -4.369620e+001  6.086178e+001 
3481250000  -4.470645e+001  6.013242e+001 
3484375000  -4.625772e+001  6.676366e+001 
3487500000  -4.600145e+001  6.813603e+001 
3490625000  -4.553162e+001  6.561578e+001 
3493750000  -4.587700e+001  6.323972e+001 
3496875000  -4.703722e+001  6.375222e+001 
3500000000  -4.830155e+001  7.087713e+001 
3503125000  -4.850149e+001  7.431155e+001 
3506250000  -4.693543e+001  8.064340e+001 
3509375000  -4.729953e+001  7.493475e+001 
3512500000  -4.748555e+001  7.624567e+001 
3515625000  -4.796562e+001  8.022164e+001 
3518750000  -4.906955e+001  8.068454e+001 
3521875000  -4.805254e+001  8.890345e+001 
3525000000  -4.795061e+001  8.806496e+001 
3528125000  -4.801270e+001  9.914534e+001 
3531250000  -4.586819e+001  9.856943e+001 
3534375000  -4.529704e+001  9.025719e+001 
3537500000  -4.486862e+001  8.637542e+001 
3540625000  -4.566848e+001  8.939150e+001 
3543750000  -4.581679e+001  9.023461e+001 
3546875000  -4.568012e+001  1.049543e+002 
3550000000  -4.307373e+001  1.026762e+002 
3553125000  -4.130928e+001  8.876171e+001 
3556250000  -4.248400e+001  8.511549e+001 
3559375000  -4.214594e+001  8.652556e+001 
3562500000  -4.088852e+001  7.692564e+001 
3565625000  -4.165298e+001  7.030070e+001 
3568750000  -4.190340e+001  7.576667e+001 
3571875000  -4.158951e+001  7.569344e+001 
3575000000  -4.089455e+001  7.010696e+001 
3578125000  -4.161746e+001  6.449486e+001 
3581250000  -4.164027e+001  6.606771e+001 
3584375000  -4.056825e+001  6.617454e+001 
3587500000  -3.991420e+001  5.920333e+001 
3590625000  -4.016231e+001  5.019003e+001 
3593750000  -4.109253e+001  4.786456e+001 
3596875000  -4.135402e+001  5.880066e+001 
3600000000  -3.965070e+001  5.415063e+001 
3603125000  -3.966383e+001  4.171732e+001 
3606250000  -4.026583e+001  3.817056e+001 
3609375000  -4.089111e+001  3.731950e+001 
3612500000  -4.129434e+001  3.685974e+001 
3615625000  -4.129320e+001  3.348234e+001 
3618750000  -4.176698e+001  3.594560e+001 
3621875000  -4.150790e+001  3.356110e+001 
3625000000  -4.143414e+001  3.384366e+001 
3628125000  -4.182237e+001  3.469461e+001 
3631250000  -4.141897e+001  3.016134e+001 
3634375000  -4.255552e+001  3.079024e+001 
3637500000  -4.241813e+001  3.756054e+001 
3640625000  -4.098163e+001  3.620926e+001 
3643750000  -4.079354e+001  3.006359e+001 
3646875000  -4.113994e+001  2.375816e+001 
3650000000  -4.213296e+001  2.487903e+001 
3653125000  -4.157973e+001  2.600619e+001 
3656250000  -4.176323e+001  2.578952e+001 
3659375000  -4.216555e+001  2.718009e+001 
3662500000  -4.142011e+001  2.831353e+001 
3665625000  -4.145910e+001  2.675877e+001 
3668750000  -4.051883e+001  2.997664e+001 
3671875000  -3.953889e+001  2.416433e+001 
3675000000  -3.973138e+001  1.817576e+001 
3678125000  -4.045631e+001  1.970238e+001 
3681250000  -3.985011e+001  2.023528e+001 
3684375000  -3.973024e+001  1.857128e+001 
3687500000  -3.992977e+001  1.734969e+001 
3690625000  -3.978505e+001  1.561402e+001 
3693750000  -4.034082e+001  1.655705e+001 
3696875000  -4.010815e+001  2.215981e+001 
3700000000  -3.893748e+001  1.765680e+001 
3703125000  -3.896114e+001  1.534226e+001 
3706250000  -3.951576e+001  1.672765e+001 
3709375000  -3.878196e+001  2.031032e+001 
3712500000  -3.751230e+001  1.988050e+001 
3715625000  -3.646049e+001  1.451780e+001 
3718750000  -3.568610e+001  1.161491e+001 
3721875000  -3.537004e+001  6.265437e+000 
3725000000  -3.526119e+001  5.145499e-001 
3728125000  -3.561497e+001  5.591789e-001 
3731250000  -3.477498e+001  1.326118e-001 
3734375000  -3.378298e+001  -5.978289e+000 
3737500000  -3.431223e+001  -1.294563e+001 
3740625000  -3.499963e+001  -1.679376e+001 
3743750000  -3.469416e+001  -1.830893e+001 
3746875000  -3.469843e+001  -2.192492e+001 
3750000000  -3.504174e+001  -2.244195e+001 
3753125000  -3.457356e+001  -2.192821e+001 
3756250000  -3.471585e+001  -2.354465e+001 
3759375000  -3.446310e+001  -2.406511e+001 
3762500000  -3.382283e+001  -2.833255e+001 
3765625000  -3.431660e+001  -3.111525e+001 
3768750000  -3.451564e+001  -2.862337e+001 
3771875000  -3.262486e+001  -3.122545e+001 
3775000000  -3.233495e+001  -3.800912e+001 
3778125000  -3.274504e+001  -3.982044e+001 
3781250000  -3.251334e+001  -4.301986e+001 
3784375000  -3.247812e+001  -4.496869e+001 
3787500000  -3.181223e+001  -4.859400e+001 
3790625000  -3.228171e+001  -5.391901e+001 
3793750000  -3.243264e+001  -5.447900e+001 
3796875000  -3.161684e+001  -5.585491e+001 
3800000000  -3.018032e+001  -5.966527e+001 
3803125000  -3.082356e+001  -6.677820e+001 
3806250000  -3.142632e+001  -6.881696e+001 
3809375000  -3.118990e+001  -6.919360e+001 
3812500000  -3.045387e+001  -7.482101e+001 
3815625000  -3.110413e+001  -8.193612e+001 
3818750000  -3.206236e+001  -8.439512e+001 
3821875000  -3.207434e+001  -7.592529e+001 
3825000000  -3.027384e+001  -7.158204e+001 
3828125000  -2.888694e+001  -8.491241e+001 
3831250000  -2.937051e+001  -9.891000e+001 
3834375000  -3.068726e+001  -9.999383e+001 
3837500000  -3.162599e+001  -9.484486e+001 
3840625000  -3.045622e+001  -9.556503e+001 
3843750000  -2.934333e+001  -1.054122e+002 
3846875000  -3.002195e+001  -1.132132e+002 
3850000000  -3.132575e+001  -1.080871e+002 
3853125000  -3.047932e+001  -1.050930e+002 
3856250000  -3.044526e+001  -1.094571e+002 
3859375000  -2.980670e+001  -1.147958e+002 
3862500000  -2.927303e+001  -1.214473e+002 
3865625000  -2.960446e+001  -1.262500e+002 
3868750000  -2.960210e+001  -1.267912e+002 
3871875000  -2.896678e+001  -1.290659e+002 
3875000000  -2.902816e+001  -1.375777e+002 
3878125000  -3.002269e+001  -1.410746e+002 
3881250000  -3.021469e+001  -1.372746e+002 
3884375000  -2.963691e+001  -1.420070e+002 
3887500000  -2.977621e+001  -1.463506e+002 
3890625000  -3.031090e+001  -1.485468e+002 
3893750000  -3.074460e+001  -1.495602e+002 
3896875000  -3.083304e+001  -1.489939e+002 
3900000000  -3.105825e+001  -1.500093e+002 
3903125000  -3.076196e+001  -1.517571e+002 
3906250000  -3.046885e+001  -1.527334e+002 
3909375000  -2.975300e+001  -1.551136e+002 
3912500000  -2.975014e+001  -1.624550e+002 
3915625000  -3.089561e+001  -1.618311e+002 
3918750000  -3.092127e+001  -1.601736e+002 
3921875000  -3.065742e+001  -1.619294e+002 
3925000000  -2.993767e+001  -1.628158e+002 
3928125000  -2.911141e+001  -1.682153e+002 
3931250000  -2.956721e+001  -1.721975e+002 
3934375000  -2.979776e+001  -1.719221e+002 
3937500000  -2.983406e+001  -1.726337e+002 
3940625000  -3.041839e+001  -1.729025e+002 
3943750000  -2.942422e+001  -1.705372e+002 
3946875000  -2.817350e+001  -1.764345e+002 
3950000000  -2.860181e+001  1.756115e+002 
3953125000  -2.962996e+001  1.761964e+002 
3956250000  -2.880665e+001  1.798798e+002 
3959375000  -2.742407e+001  1.759022e+002 
3962500000  -2.696145e+001  1.720955e+002 
3965625000  -2.659765e+001  1.633421e+002 
3968750000  -2.744215e+001  1.563999e+002 
3971875000  -2.790800e+001  1.550789e+002 
3975000000  -2.719935e+001  1.532974e+002 
3978125000  -2.700762e+001  1.517974e+002 
3981250000  -2.675651e+001  1.472717e+002 
3984375000  -2.700330e+001  1.410499e+002 
3987500000  -2.747890e+001  1.389122e+002 
3990625000  -2.750417e+001  1.380334e+002 
3993750000  -2.769184e+001  1.346614e+002 
3996875000  -2.774324e+001  1.324398e+002 
4000000000  -2.775118e+001  1.303351e+002 
4003125000  -2.835424e+001  1.324935e+002 
4006250000  -2.697777e+001  1.328829e+002 
4009375000  -2.580681e+001  1.205790e+002 
4012500000  -2.679180e+001  1.137357e+002 
4015625000  -2.806155e+001  1.140262e+002 
4018750000  -2.831494e+001  1.160905e+002 
4021875000  -2.751860e+001  1.148361e+002 
4025000000  -2.724728e+001  1.102091e+002 
4028125000  -2.717005e+001  1.061520e+002 
4031250000  -2.771541e+001  1.031697e+002 
4034375000  -2.797885e+001  1.028703e+002 
4037500000  -2.739989e+001  1.046770e+002 
4040625000  -2.730964e+001  1.013675e+002 
4043750000  -2.761603e+001  1.012264e+002 
4046875000  -2.723718e+001  1.008006e+002 
4050000000  -2.671902e+001  9.505044e+001 
4053125000  -2.715997e+001  9.246642e+001 
4056250000  -2.779095e+001  9.681647e+001 
4059375000  -2.661205e+001  9.858367e+001 
4062500000  -2.518328e+001  9.447279e+001 
4065625000  -2.499621e+001  8.966618e+001 
4068750000  -2.475523e+001  8.522332e+001 
4071875000  -2.409588e+001  7.723353e+001 
4075000000  -2.447130e+001  7.076740e+001 
4078125000  -2.499749e+001  6.995461e+001 
4081250000  -2.452225e+001  6.785581e+001 
4084375000  -2.413089e+001  6.101492e+001 
4087500000  -2.445568e+001  5.456619e+001 
4090625000  -2.508612e+001  5.352937e+001 
4093750000  -2.489857e+001  5.423364e+001 
4096875000  -2.447935e+001  4.845739e+001 
4100000000  -2.507891e+001  4.127291e+001 
4103125000  -2.600258e+001  4.170164e+001 
4106250000  -2.591996e+001  4.656788e+001 
4109375000  -2.502695e+001  4.603472e+001 
4112500000  -2.448192e+001  3.948230e+001 
4115625000  -2.478285e+001  3.496335e+001 
4118750000  -2.489020e+001  3.244637e+001 
4121875000  -2.448363e+001  2.782059e+001 
4125000000  -2.480281e+001  2.285584e+001 
4128125000  -2.579569e+001  2.277936e+001 
4131250000  -2.558370e+001  3.067184e+001 
4134375000  -2.333697e+001  2.656451e+001 
4137500000  -2.305158e+001  7.595995e+000 
4140625000  -2.518522e+001  7.850080e-001 
4143750000  -2.640297e+001  5.029937e+000 
4146875000  -2.614223e+001  1.247243e+001 
4150000000  -2.523205e+001  9.840140e+000 
4153125000  -2.507125e+001  3.568472e+000 
4156250000  -2.589565e+001  6.032429e-001 
4159375000  -2.612970e+001  5.009897e+000 
4162500000  -2.508062e+001  9.146520e+000 
4165625000  -2.390362e+001  5.454290e+000 
4168750000  -2.330595e+001  -1.390090e+000 
4171875000  -2.328669e+001  -1.097829e+001 
4175000000  -2.391072e+001  -1.661428e+001 
4178125000  -2.450373e+001  -1.643600e+001 
4181250000  -2.437103e+001  -1.700969e+001 
4184375000  -2.421858e+001  -2.023260e+001 
4187500000  -2.424936e+001  -2.289796e+001 
4190625000  -2.404881e+001  -2.845876e+001 
4193750000  -2.481251e+001  -3.220081e+001 
4196875000  -2.551591e+001  -3.251419e+001 
4200000000  -2.629265e+001  -3.066554e+001 
4203125000  -2.643434e+001  -1.778893e+001 
4206250000  -2.314611e+001  -1.557609e+001 
4209375000  -2.187406e+001  -3.568227e+001 
4212500000  -2.376999e+001  -4.492350e+001 
4215625000  -2.485551e+001  -3.909690e+001 
4218750000  -2.351060e+001  -3.217504e+001 
4221875000  -2.115754e+001  -4.111619e+001 
4225000000  -2.241283e+001  -5.377458e+001 
4228125000  -2.316675e+001  -4.900127e+001 
4231250000  -2.158417e+001  -5.224205e+001 
4234375000  -2.151506e+001  -6.058311e+001 
4237500000  -2.108551e+001  -6.421303e+001 
4240625000  -2.106714e+001  -7.258405e+001 
4243750000  -2.203245e+001  -7.896105e+001 
4246875000  -2.290261e+001  -7.930397e+001 
4250000000  -2.299399e+001  -7.642173e+001 
4253125000  -2.236727e+001  -7.824429e+001 
4256250000  -2.265761e+001  -8.260477e+001 
4259375000  -2.246662e+001  -8.449170e+001 
4262500000  -2.244518e+001  -8.824234e+001 
4265625000  -2.263416e+001  -8.781358e+001 
4268750000  -2.177881e+001  -9.191785e+001 
4271875000  -2.152165e+001  -9.763633e+001 
4275000000  -2.092179e+001  -1.037039e+002 
4278125000  -2.148012e+001  -1.147897e+002 
4281250000  -2.325245e+001  -1.173573e+002 
4284375000  -2.298343e+001  -1.160819e+002 
4287500000  -2.369979e+001  -1.197899e+002 
4290625000  -2.502540e+001  -1.104334e+002 
4293750000  -2.308413e+001  -1.046046e+002 
4296875000  -2.171060e+001  -1.160532e+002 
4300000000  -2.248024e+001  -1.252243e+002 
4303125000  -2.367221e+001  -1.242007e+002 
4306250000  -2.309579e+001  -1.181558e+002 
4309375000  -2.169544e+001  -1.200303e+002 
4312500000  -2.155844e+001  -1.283456e+002 
4315625000  -2.177791e+001  -1.344535e+002 
4318750000  -2.207262e+001  -1.378455e+002 
4321875000  -2.222816e+001  -1.374545e+002 
4325000000  -2.168326e+001  -1.368359e+002 
4328125000  -2.117349e+001  -1.430503e+002 
4331250000  -2.111083e+001  -1.511706e+002 
4334375000  -2.154625e+001  -1.561730e+002 
4337500000  -2.230522e+001  -1.583667e+002 
4340625000  -2.290343e+001  -1.554037e+002 
4343750000  -2.231345e+001  -1.547756e+002 
4346875000  -2.191592e+001  -1.602353e+002 
4350000000  -2.192451e+001  -1.650524e+002 
4353125000  -2.191409e+001  -1.723682e+002 
4356250000  -2.369374e+001  -1.739178e+002 
4359375000  -2.436145e+001  -1.610764e+002 
4362500000  -2.171960e+001  -1.586087e+002 
4365625000  -2.004291e+001  -1.703161e+002 
4368750000  -2.072573e+001  1.779688e+002 
4371875000  -2.197873e+001  1.782334e+002 
4375000000  -2.165723e+001  1.795176e+002 
4378125000  -2.100681e+001  1.739828e+002 
4381250000  -2.111757e+001  1.684270e+002 
4384375000  -2.097069e+001  1.640588e+002 
4387500000  -2.168945e+001  1.582807e+002 
4390625000  -2.272949e+001  1.588950e+002 
4393750000  -2.206861e+001  1.610708e+002 
4396875000  -2.141364e+001  1.589857e+002 
4400000000  -2.089839e+001  1.521834e+002 
4403125000  -2.144446e+001  1.444666e+002 
4406250000  -2.230799e+001  1.430880e+002 
4409375000  -2.227728e+001  1.410431e+002 
4412500000  -2.331841e+001  1.381537e+002 
4415625000  -2.368986e+001  1.429118e+002 
4418750000  -2.252061e+001  1.475957e+002 
4421875000  -2.107936e+001  1.439994e+002 
