!Agilent Technologies,E8363B,MY43030201,A.06.04.32
!Agilent E8363B: A.06.04.32
!Date: Tuesday, November 11, 2014 20:53:14
!Correction: S21(Response(S21)) 
!S1P File: Measurement: S21:
# Hz S  dB   R 50
3000000000  -2.656691e+001  1.509308e+002 
3003125000  -2.798173e+001  1.463379e+002 
3006250000  -2.806556e+001  1.439788e+002 
3009375000  -2.842268e+001  1.490135e+002 
3012500000  -2.785008e+001  1.482586e+002 
3015625000  -2.692897e+001  1.409017e+002 
3018750000  -2.775718e+001  1.402720e+002 
3021875000  -2.648042e+001  1.415996e+002 
3025000000  -2.517286e+001  1.384209e+002 
3028125000  -2.424606e+001  1.333489e+002 
3031250000  -2.318845e+001  1.223049e+002 
3034375000  -2.284129e+001  1.093003e+002 
3037500000  -2.318725e+001  9.726610e+001 
3040625000  -2.449577e+001  9.220913e+001 
3043750000  -2.524061e+001  8.774303e+001 
3046875000  -2.533612e+001  8.144666e+001 
3050000000  -2.708717e+001  7.460769e+001 
3053125000  -2.717623e+001  8.089911e+001 
3056250000  -2.654920e+001  8.390617e+001 
3059375000  -2.677832e+001  8.336166e+001 
3062500000  -2.530906e+001  7.967021e+001 
3065625000  -2.507997e+001  7.421706e+001 
3068750000  -2.482241e+001  6.704962e+001 
3071875000  -2.477218e+001  6.423806e+001 
3075000000  -2.472476e+001  6.043427e+001 
3078125000  -2.447950e+001  5.576778e+001 
3081250000  -2.509202e+001  5.167363e+001 
3084375000  -2.434627e+001  4.801756e+001 
3087500000  -2.420932e+001  4.416476e+001 
3090625000  -2.393374e+001  3.455267e+001 
3093750000  -2.440006e+001  2.667241e+001 
3096875000  -2.564438e+001  2.065854e+001 
3100000000  -2.578711e+001  1.935977e+001 
3103125000  -2.617039e+001  2.091644e+001 
3106250000  -2.590238e+001  1.724421e+001 
3109375000  -2.611228e+001  1.358318e+001 
3112500000  -2.627108e+001  1.272802e+001 
3115625000  -2.603310e+001  8.505272e+000 
3118750000  -2.659027e+001  9.630795e+000 
3121875000  -2.589235e+001  1.641590e+000 
3125000000  -2.710486e+001  -1.667920e+000 
3128125000  -2.830219e+001  6.386718e+000 
3131250000  -2.611642e+001  6.806750e+000 
3134375000  -2.474569e+001  -6.703941e+000 
3137500000  -2.535972e+001  -1.974229e+001 
3140625000  -2.698259e+001  -2.177386e+001 
3143750000  -2.801588e+001  -1.795360e+001 
3146875000  -2.760857e+001  -1.591927e+001 
3150000000  -2.655048e+001  -1.347569e+001 
3153125000  -2.659949e+001  -2.118155e+001 
3156250000  -2.756935e+001  -1.593917e+001 
3159375000  -2.596508e+001  -1.307308e+001 
3162500000  -2.394158e+001  -2.610466e+001 
3165625000  -2.490655e+001  -3.652685e+001 
3168750000  -2.524929e+001  -3.593246e+001 
3171875000  -2.432176e+001  -4.038614e+001 
3175000000  -2.495827e+001  -4.825274e+001 
3178125000  -2.473307e+001  -4.656013e+001 
3181250000  -2.355270e+001  -5.042043e+001 
3184375000  -2.275803e+001  -6.259966e+001 
3187500000  -2.388921e+001  -7.766599e+001 
3190625000  -2.662077e+001  -8.516393e+001 
3193750000  -2.728277e+001  -7.572190e+001 
3196875000  -2.684042e+001  -7.045054e+001 
3200000000  -2.593979e+001  -7.230104e+001 
3203125000  -2.511387e+001  -7.823074e+001 
3206250000  -2.540562e+001  -8.434581e+001 
3209375000  -2.496320e+001  -8.948927e+001 
3212500000  -2.509017e+001  -9.588717e+001 
3215625000  -2.524067e+001  -9.969899e+001 
3218750000  -2.597664e+001  -1.062555e+002 
3221875000  -2.691471e+001  -1.114946e+002 
3225000000  -2.654122e+001  -1.120505e+002 
3228125000  -2.686109e+001  -1.165147e+002 
3231250000  -2.762092e+001  -1.194211e+002 
3234375000  -2.750828e+001  -1.180399e+002 
3237500000  -2.755226e+001  -1.198348e+002 
3240625000  -2.713392e+001  -1.217459e+002 
3243750000  -2.686000e+001  -1.282096e+002 
3246875000  -2.731431e+001  -1.346065e+002 
3250000000  -2.774609e+001  -1.365439e+002 
3253125000  -2.789739e+001  -1.381869e+002 
3256250000  -2.772500e+001  -1.440901e+002 
3259375000  -2.811653e+001  -1.516741e+002 
3262500000  -2.932369e+001  -1.549518e+002 
3265625000  -3.004170e+001  -1.513088e+002 
3268750000  -2.998491e+001  -1.485693e+002 
3271875000  -2.975284e+001  -1.473098e+002 
3275000000  -2.867044e+001  -1.529341e+002 
3278125000  -2.913382e+001  -1.586600e+002 
3281250000  -2.943130e+001  -1.568226e+002 
3284375000  -2.897373e+001  -1.624589e+002 
3287500000  -2.911760e+001  -1.654929e+002 
3290625000  -2.952057e+001  -1.700096e+002 
3293750000  -2.917417e+001  -1.758181e+002 
3296875000  -3.026604e+001  -1.753131e+002 
3300000000  -3.014299e+001  -1.746642e+002 
3303125000  -2.896527e+001  -1.781823e+002 
3306250000  -2.877520e+001  1.750570e+002 
3309375000  -2.854828e+001  1.697371e+002 
3312500000  -2.857723e+001  1.592869e+002 
3315625000  -2.962638e+001  1.517144e+002 
3318750000  -3.094776e+001  1.494117e+002 
3321875000  -3.220979e+001  1.490058e+002 
3325000000  -3.275534e+001  1.534726e+002 
3328125000  -3.249147e+001  1.555583e+002 
3331250000  -3.129750e+001  1.630642e+002 
3334375000  -2.874174e+001  1.536037e+002 
3337500000  -2.882515e+001  1.351307e+002 
3340625000  -3.024366e+001  1.241690e+002 
3343750000  -3.217656e+001  1.228878e+002 
3346875000  -3.271492e+001  1.239575e+002 
3350000000  -3.202674e+001  1.227737e+002 
3353125000  -3.218619e+001  1.188136e+002 
3356250000  -3.190576e+001  1.113004e+002 
3359375000  -3.274741e+001  1.026454e+002 
3362500000  -3.400122e+001  9.676759e+001 
3365625000  -3.466574e+001  9.530070e+001 
3368750000  -3.558768e+001  9.404626e+001 
3371875000  -3.605243e+001  9.075810e+001 
3375000000  -3.756664e+001  8.760911e+001 
3378125000  -3.876077e+001  8.901740e+001 
3381250000  -4.028924e+001  9.643391e+001 
3384375000  -3.929966e+001  1.161369e+002 
3387500000  -3.628229e+001  1.034148e+002 
3390625000  -3.819722e+001  8.338396e+001 
3393750000  -3.987917e+001  8.819576e+001 
3396875000  -3.907890e+001  9.261945e+001 
3400000000  -3.912807e+001  8.426360e+001 
3403125000  -3.997007e+001  8.093769e+001 
3406250000  -4.107533e+001  8.461478e+001 
3409375000  -4.153179e+001  7.954581e+001 
3412500000  -4.212697e+001  7.924186e+001 
3415625000  -4.333224e+001  8.637753e+001 
3418750000  -4.344941e+001  8.958237e+001 
3421875000  -4.383461e+001  9.662577e+001 
3425000000  -4.290908e+001  1.001190e+002 
3428125000  -4.204715e+001  9.955302e+001 
3431250000  -4.199640e+001  9.424048e+001 
3434375000  -4.179146e+001  9.240470e+001 
3437500000  -4.221018e+001  9.053479e+001 
3440625000  -4.248778e+001  9.344597e+001 
3443750000  -4.115623e+001  9.619697e+001 
3446875000  -4.021038e+001  8.985952e+001 
3450000000  -4.019172e+001  8.182103e+001 
3453125000  -4.046080e+001  7.170396e+001 
3456250000  -4.157444e+001  6.772339e+001 
3459375000  -4.265854e+001  7.111759e+001 
3462500000  -4.297318e+001  7.035442e+001 
3465625000  -4.278546e+001  6.784570e+001 
3468750000  -4.318186e+001  6.368493e+001 
3471875000  -4.351505e+001  6.619577e+001 
3475000000  -4.332036e+001  5.905386e+001 
3478125000  -4.380611e+001  5.609912e+001 
3481250000  -4.523708e+001  5.639388e+001 
3484375000  -4.691922e+001  5.875791e+001 
3487500000  -4.689130e+001  6.448054e+001 
3490625000  -4.562608e+001  5.981591e+001 
3493750000  -4.662997e+001  5.784810e+001 
3496875000  -4.747389e+001  5.974489e+001 
3500000000  -4.845527e+001  6.906367e+001 
3503125000  -4.859153e+001  7.169627e+001 
3506250000  -4.691700e+001  7.569486e+001 
3509375000  -4.771626e+001  7.774564e+001 
3512500000  -4.821725e+001  7.078422e+001 
3515625000  -4.803605e+001  7.384715e+001 
3518750000  -4.818814e+001  8.262753e+001 
3521875000  -4.788167e+001  8.473888e+001 
3525000000  -4.820752e+001  8.675074e+001 
3528125000  -4.729851e+001  9.718178e+001 
3531250000  -4.534735e+001  9.743262e+001 
3534375000  -4.482110e+001  8.819350e+001 
3537500000  -4.531436e+001  8.595805e+001 
3540625000  -4.527608e+001  8.566522e+001 
3543750000  -4.589718e+001  8.740047e+001 
3546875000  -4.542487e+001  1.010135e+002 
3550000000  -4.273271e+001  1.004064e+002 
3553125000  -4.119165e+001  8.502988e+001 
3556250000  -4.210054e+001  7.833305e+001 
3559375000  -4.178374e+001  8.059747e+001 
3562500000  -4.059679e+001  7.325021e+001 
3565625000  -4.166621e+001  6.643261e+001 
3568750000  -4.153698e+001  6.953391e+001 
3571875000  -4.125038e+001  6.984674e+001 
3575000000  -4.092875e+001  6.450562e+001 
3578125000  -4.101300e+001  6.205633e+001 
3581250000  -4.113718e+001  6.021425e+001 
3584375000  -4.034140e+001  5.922128e+001 
3587500000  -3.955626e+001  5.342843e+001 
3590625000  -3.999513e+001  4.472979e+001 
3593750000  -4.096100e+001  4.313960e+001 
3596875000  -4.090564e+001  5.013549e+001 
3600000000  -3.929079e+001  4.933959e+001 
3603125000  -3.971138e+001  3.604087e+001 
3606250000  -4.033293e+001  3.326665e+001 
3609375000  -4.069077e+001  3.074928e+001 
3612500000  -4.117945e+001  2.927683e+001 
3615625000  -4.140928e+001  2.813624e+001 
3618750000  -4.184102e+001  3.115325e+001 
3621875000  -4.141868e+001  2.792966e+001 
3625000000  -4.193130e+001  2.801177e+001 
3628125000  -4.140455e+001  2.870088e+001 
3631250000  -4.130732e+001  2.377231e+001 
3634375000  -4.228346e+001  2.475888e+001 
3637500000  -4.204392e+001  3.110744e+001 
3640625000  -4.098996e+001  3.291533e+001 
3643750000  -4.067165e+001  2.635563e+001 
3646875000  -4.116930e+001  2.030891e+001 
3650000000  -4.166405e+001  1.993358e+001 
3653125000  -4.122113e+001  2.015139e+001 
3656250000  -4.167517e+001  1.910318e+001 
3659375000  -4.197017e+001  2.309876e+001 
3662500000  -4.102818e+001  2.265659e+001 
3665625000  -4.102886e+001  2.292229e+001 
3668750000  -3.993208e+001  2.366730e+001 
3671875000  -3.917428e+001  1.861920e+001 
3675000000  -3.961108e+001  1.353883e+001 
3678125000  -4.013926e+001  1.544355e+001 
3681250000  -3.979470e+001  1.615333e+001 
3684375000  -3.932697e+001  1.214021e+001 
3687500000  -3.956782e+001  1.115459e+001 
3690625000  -3.954483e+001  9.298743e+000 
3693750000  -3.984659e+001  1.170198e+001 
3696875000  -3.991359e+001  1.559871e+001 
3700000000  -3.874037e+001  1.108661e+001 
3703125000  -3.855284e+001  8.604699e+000 
3706250000  -3.912041e+001  1.008576e+001 
3709375000  -3.873792e+001  1.369626e+001 
3712500000  -3.743238e+001  1.385072e+001 
3715625000  -3.631690e+001  7.857038e+000 
3718750000  -3.562329e+001  4.279967e+000 
3721875000  -3.524325e+001  -1.254588e+000 
3725000000  -3.509063e+001  -5.897518e+000 
3728125000  -3.533058e+001  -5.323759e+000 
3731250000  -3.460250e+001  -7.057371e+000 
3734375000  -3.377576e+001  -1.316785e+001 
3737500000  -3.431231e+001  -1.981500e+001 
3740625000  -3.484217e+001  -2.319049e+001 
3743750000  -3.470540e+001  -2.522566e+001 
3746875000  -3.464678e+001  -2.846734e+001 
3750000000  -3.497940e+001  -2.867081e+001 
3753125000  -3.461024e+001  -2.910756e+001 
3756250000  -3.456100e+001  -3.043701e+001 
3759375000  -3.432079e+001  -3.058781e+001 
3762500000  -3.376633e+001  -3.439294e+001 
3765625000  -3.435679e+001  -3.741282e+001 
3768750000  -3.433851e+001  -3.558523e+001 
3771875000  -3.253624e+001  -3.653029e+001 
3775000000  -3.225168e+001  -4.476618e+001 
3778125000  -3.265114e+001  -4.692543e+001 
3781250000  -3.237317e+001  -4.924985e+001 
3784375000  -3.227120e+001  -5.153538e+001 
3787500000  -3.168853e+001  -5.498821e+001 
3790625000  -3.219538e+001  -6.117224e+001 
3793750000  -3.235772e+001  -6.145757e+001 
3796875000  -3.144913e+001  -6.246130e+001 
3800000000  -2.991312e+001  -6.624082e+001 
3803125000  -3.065496e+001  -7.387923e+001 
3806250000  -3.123814e+001  -7.522873e+001 
3809375000  -3.106764e+001  -7.726680e+001 
3812500000  -3.033986e+001  -8.147699e+001 
3815625000  -3.097377e+001  -8.943320e+001 
3818750000  -3.196006e+001  -9.050723e+001 
3821875000  -3.196955e+001  -8.212217e+001 
3825000000  -3.008424e+001  -7.755460e+001 
3828125000  -2.865698e+001  -9.213361e+001 
3831250000  -2.922786e+001  -1.063439e+002 
3834375000  -3.066018e+001  -1.076609e+002 
3837500000  -3.145941e+001  -1.017145e+002 
3840625000  -3.046446e+001  -1.031538e+002 
3843750000  -2.925985e+001  -1.129316e+002 
3846875000  -2.998610e+001  -1.199743e+002 
3850000000  -3.120984e+001  -1.144124e+002 
3853125000  -3.040409e+001  -1.119701e+002 
3856250000  -3.032152e+001  -1.165211e+002 
3859375000  -2.969711e+001  -1.216029e+002 
3862500000  -2.930967e+001  -1.284315e+002 
3865625000  -2.955507e+001  -1.331212e+002 
3868750000  -2.951245e+001  -1.332061e+002 
3871875000  -2.878889e+001  -1.366116e+002 
3875000000  -2.898661e+001  -1.446088e+002 
3878125000  -3.001377e+001  -1.474323e+002 
3881250000  -3.015937e+001  -1.437673e+002 
3884375000  -2.957145e+001  -1.484819e+002 
3887500000  -2.969609e+001  -1.532063e+002 
3890625000  -3.023339e+001  -1.552159e+002 
3893750000  -3.079915e+001  -1.567565e+002 
3896875000  -3.081738e+001  -1.549166e+002 
3900000000  -3.094226e+001  -1.561599e+002 
3903125000  -3.069496e+001  -1.587042e+002 
3906250000  -3.042659e+001  -1.597189e+002 
3909375000  -2.962733e+001  -1.615992e+002 
3912500000  -2.974980e+001  -1.692527e+002 
3915625000  -3.086585e+001  -1.681530e+002 
3918750000  -3.093989e+001  -1.658634e+002 
3921875000  -3.061753e+001  -1.686308e+002 
3925000000  -2.970652e+001  -1.692906e+002 
3928125000  -2.903429e+001  -1.749896e+002 
3931250000  -2.941718e+001  -1.786469e+002 
3934375000  -2.968856e+001  -1.787522e+002 
3937500000  -2.985144e+001  -1.796290e+002 
3940625000  -3.028309e+001  -1.791888e+002 
3943750000  -2.939299e+001  -1.779635e+002 
3946875000  -2.805245e+001  1.762141e+002 
3950000000  -2.863083e+001  1.691633e+002 
3953125000  -2.952230e+001  1.695508e+002 
3956250000  -2.870182e+001  1.721309e+002 
3959375000  -2.739738e+001  1.693781e+002 
3962500000  -2.683223e+001  1.647364e+002 
3965625000  -2.651881e+001  1.560630e+002 
3968750000  -2.745685e+001  1.494010e+002 
3971875000  -2.776779e+001  1.481510e+002 
3975000000  -2.717867e+001  1.462447e+002 
3978125000  -2.698553e+001  1.441522e+002 
3981250000  -2.679749e+001  1.399012e+002 
3984375000  -2.702847e+001  1.341366e+002 
3987500000  -2.752406e+001  1.317383e+002 
3990625000  -2.756701e+001  1.312540e+002 
3993750000  -2.778383e+001  1.278386e+002 
3996875000  -2.770509e+001  1.254140e+002 
4000000000  -2.781621e+001  1.233659e+002 
4003125000  -2.845563e+001  1.258204e+002 
4006250000  -2.705250e+001  1.263776e+002 
4009375000  -2.580291e+001  1.138796e+002 
4012500000  -2.692969e+001  1.065971e+002 
4015625000  -2.817639e+001  1.074671e+002 
4018750000  -2.832250e+001  1.099584e+002 
4021875000  -2.757387e+001  1.080094e+002 
4025000000  -2.726376e+001  1.039811e+002 
4028125000  -2.723328e+001  9.985358e+001 
4031250000  -2.769232e+001  9.678860e+001 
4034375000  -2.791713e+001  9.622560e+001 
4037500000  -2.743248e+001  9.840477e+001 
4040625000  -2.726460e+001  9.522294e+001 
4043750000  -2.761053e+001  9.429789e+001 
4046875000  -2.717147e+001  9.417673e+001 
4050000000  -2.662276e+001  8.907739e+001 
4053125000  -2.710150e+001  8.643289e+001 
4056250000  -2.772233e+001  9.050068e+001 
4059375000  -2.644148e+001  9.213107e+001 
4062500000  -2.505893e+001  8.769882e+001 
4065625000  -2.489409e+001  8.291112e+001 
4068750000  -2.464651e+001  7.856705e+001 
4071875000  -2.406197e+001  7.049714e+001 
4075000000  -2.436998e+001  6.423385e+001 
4078125000  -2.495329e+001  6.287094e+001 
4081250000  -2.436724e+001  6.061121e+001 
4084375000  -2.396579e+001  5.411994e+001 
4087500000  -2.424264e+001  4.698961e+001 
4090625000  -2.445661e+001  4.766655e+001 
4093750000  -2.434213e+001  4.863440e+001 
4096875000  -2.385730e+001  4.252522e+001 
4100000000  -2.451352e+001  3.575526e+001 
4103125000  -2.535900e+001  3.619149e+001 
4106250000  -2.518938e+001  4.099448e+001 
4109375000  -2.431289e+001  4.018563e+001 
4112500000  -2.377690e+001  3.385226e+001 
4115625000  -2.405841e+001  2.967756e+001 
4118750000  -2.421064e+001  2.644621e+001 
4121875000  -2.386091e+001  2.200712e+001 
4125000000  -2.426502e+001  1.694555e+001 
4128125000  -2.523381e+001  1.768464e+001 
4131250000  -2.484417e+001  2.601597e+001 
4134375000  -2.252460e+001  2.114282e+001 
4137500000  -2.229206e+001  2.249973e+000 
4140625000  -2.449831e+001  -5.253594e+000 
4143750000  -2.581945e+001  -6.244102e-002 
4146875000  -2.531812e+001  7.575118e+000 
4150000000  -2.443337e+001  4.184460e+000 
4153125000  -2.421888e+001  -2.454926e+000 
4156250000  -2.513603e+001  -5.195039e+000 
4159375000  -2.542880e+001  -8.074098e-001 
4162500000  -2.424430e+001  3.254705e+000 
4165625000  -2.312038e+001  -1.748708e-001 
4168750000  -2.244911e+001  -7.448733e+000 
4171875000  -2.236911e+001  -1.668266e+001 
4175000000  -2.292045e+001  -2.280859e+001 
4178125000  -2.351112e+001  -2.315959e+001 
4181250000  -2.341704e+001  -2.395118e+001 
4184375000  -2.322998e+001  -2.729142e+001 
4187500000  -2.325648e+001  -3.016921e+001 
4190625000  -2.312767e+001  -3.562331e+001 
4193750000  -2.389978e+001  -3.960639e+001 
4196875000  -2.467052e+001  -3.994356e+001 
4200000000  -2.549291e+001  -3.756977e+001 
4203125000  -2.565297e+001  -2.422435e+001 
4206250000  -2.240667e+001  -2.275220e+001 
4209375000  -2.126676e+001  -4.335327e+001 
4212500000  -2.314758e+001  -5.174130e+001 
4215625000  -2.414657e+001  -4.460911e+001 
4218750000  -2.266704e+001  -3.829997e+001 
4221875000  -2.036925e+001  -4.781078e+001 
4225000000  -2.155663e+001  -6.044462e+001 
4228125000  -2.228550e+001  -5.561523e+001 
4231250000  -2.084300e+001  -5.934596e+001 
4234375000  -2.069682e+001  -6.742490e+001 
4237500000  -2.032401e+001  -7.111617e+001 
4240625000  -2.037670e+001  -7.941080e+001 
4243750000  -2.137449e+001  -8.551713e+001 
4246875000  -2.215476e+001  -8.554882e+001 
4250000000  -2.212673e+001  -8.274511e+001 
4253125000  -2.154836e+001  -8.516311e+001 
4256250000  -2.171333e+001  -8.913594e+001 
4259375000  -2.154845e+001  -9.144154e+001 
4262500000  -2.157093e+001  -9.551138e+001 
4265625000  -2.168295e+001  -9.506538e+001 
4268750000  -2.091127e+001  -9.894962e+001 
4271875000  -2.057629e+001  -1.044849e+002 
4275000000  -1.990017e+001  -1.109380e+002 
4278125000  -2.048411e+001  -1.226737e+002 
4281250000  -2.220646e+001  -1.252053e+002 
4284375000  -2.203312e+001  -1.248279e+002 
4287500000  -2.289352e+001  -1.284976e+002 
4290625000  -2.423595e+001  -1.185479e+002 
4293750000  -2.220276e+001  -1.127721e+002 
4296875000  -2.075630e+001  -1.241901e+002 
4300000000  -2.167534e+001  -1.337602e+002 
4303125000  -2.272495e+001  -1.322723e+002 
4306250000  -2.206530e+001  -1.269149e+002 
4309375000  -2.073099e+001  -1.294255e+002 
4312500000  -2.065108e+001  -1.380880e+002 
4315625000  -2.098475e+001  -1.439626e+002 
4318750000  -2.130380e+001  -1.470319e+002 
4321875000  -2.145824e+001  -1.464496e+002 
4325000000  -2.083610e+001  -1.465158e+002 
4328125000  -2.039500e+001  -1.526871e+002 
4331250000  -2.040039e+001  -1.609349e+002 
4334375000  -2.083246e+001  -1.656135e+002 
4337500000  -2.162475e+001  -1.678197e+002 
4340625000  -2.213098e+001  -1.647384e+002 
4343750000  -2.159627e+001  -1.642172e+002 
4346875000  -2.122844e+001  -1.692532e+002 
4350000000  -2.111349e+001  -1.739346e+002 
4353125000  -2.117121e+001  1.781216e+002 
4356250000  -2.286434e+001  1.766182e+002 
4359375000  -2.358662e+001  -1.700011e+002 
4362500000  -2.098873e+001  -1.679053e+002 
4365625000  -1.941835e+001  -1.793073e+002 
4368750000  -2.005022e+001  1.690884e+002 
4371875000  -2.118641e+001  1.693708e+002 
4375000000  -2.086777e+001  1.703707e+002 
4378125000  -2.026298e+001  1.649406e+002 
4381250000  -2.034875e+001  1.596226e+002 
4384375000  -2.018271e+001  1.551008e+002 
4387500000  -2.081602e+001  1.487786e+002 
4390625000  -2.184872e+001  1.494037e+002 
4393750000  -2.128688e+001  1.518843e+002 
4396875000  -2.057440e+001  1.496534e+002 
4400000000  -2.009607e+001  1.426026e+002 
4403125000  -2.059157e+001  1.348806e+002 
4406250000  -2.144168e+001  1.335795e+002 
4409375000  -2.139080e+001  1.311392e+002 
4412500000  -2.229921e+001  1.280316e+002 
4415625000  -2.276633e+001  1.326388e+002 
4418750000  -2.167179e+001  1.377153e+002 
