!Agilent Technologies,E8363B,MY43030201,A.06.04.32
!Agilent E8363B: A.06.04.32
!Date: Tuesday, November 11, 2014 20:58:06
!Correction: S21(Response(S21)) 
!S1P File: Measurement: S21:
# Hz S  dB   R 50
3000000000  -2.649687e+001  1.467518e+002 
3003125000  -2.790359e+001  1.418213e+002 
3006250000  -2.797130e+001  1.395837e+002 
3009375000  -2.836381e+001  1.444698e+002 
3012500000  -2.771562e+001  1.439652e+002 
3015625000  -2.684500e+001  1.370383e+002 
3018750000  -2.766159e+001  1.365517e+002 
3021875000  -2.639368e+001  1.376766e+002 
3025000000  -2.507944e+001  1.347492e+002 
3028125000  -2.413185e+001  1.294748e+002 
3031250000  -2.308050e+001  1.181263e+002 
3034375000  -2.274192e+001  1.048971e+002 
3037500000  -2.311930e+001  9.324834e+001 
3040625000  -2.445143e+001  8.830429e+001 
3043750000  -2.515390e+001  8.397366e+001 
3046875000  -2.531746e+001  7.772465e+001 
3050000000  -2.702515e+001  7.098866e+001 
3053125000  -2.705989e+001  7.730624e+001 
3056250000  -2.648657e+001  8.036337e+001 
3059375000  -2.667838e+001  7.996799e+001 
3062500000  -2.514974e+001  7.621904e+001 
3065625000  -2.497750e+001  7.037995e+001 
3068750000  -2.468200e+001  6.330561e+001 
3071875000  -2.463874e+001  6.044288e+001 
3075000000  -2.457235e+001  5.661364e+001 
3078125000  -2.430396e+001  5.219999e+001 
3081250000  -2.494925e+001  4.785192e+001 
3084375000  -2.419075e+001  4.407135e+001 
3087500000  -2.412421e+001  4.047553e+001 
3090625000  -2.378723e+001  3.025431e+001 
3093750000  -2.430725e+001  2.266935e+001 
3096875000  -2.557542e+001  1.688453e+001 
3100000000  -2.567451e+001  1.560092e+001 
3103125000  -2.604372e+001  1.672185e+001 
3106250000  -2.575034e+001  1.314826e+001 
3109375000  -2.602527e+001  9.714272e+000 
3112500000  -2.613944e+001  8.717731e+000 
3115625000  -2.592089e+001  4.488195e+000 
3118750000  -2.642300e+001  5.854390e+000 
3121875000  -2.572402e+001  -2.558495e+000 
3125000000  -2.698195e+001  -5.640248e+000 
3128125000  -2.812329e+001  2.846969e+000 
3131250000  -2.591203e+001  2.710003e+000 
3134375000  -2.462245e+001  -1.094923e+001 
3137500000  -2.523911e+001  -2.434417e+001 
3140625000  -2.692027e+001  -2.597228e+001 
3143750000  -2.791110e+001  -2.222620e+001 
3146875000  -2.750550e+001  -1.969743e+001 
3150000000  -2.648829e+001  -1.811018e+001 
3153125000  -2.649328e+001  -2.562780e+001 
3156250000  -2.747371e+001  -1.993833e+001 
3159375000  -2.585472e+001  -1.748889e+001 
3162500000  -2.386178e+001  -3.021269e+001 
3165625000  -2.479660e+001  -4.124153e+001 
3168750000  -2.516547e+001  -4.010330e+001 
3171875000  -2.424064e+001  -4.461527e+001 
3175000000  -2.490320e+001  -5.227678e+001 
3178125000  -2.462896e+001  -5.028975e+001 
3181250000  -2.348509e+001  -5.486520e+001 
3184375000  -2.273248e+001  -6.695013e+001 
3187500000  -2.387636e+001  -8.183055e+001 
3190625000  -2.658649e+001  -8.922182e+001 
3193750000  -2.714680e+001  -7.985177e+001 
3196875000  -2.673416e+001  -7.436633e+001 
3200000000  -2.584535e+001  -7.628185e+001 
3203125000  -2.500574e+001  -8.208735e+001 
3206250000  -2.531557e+001  -8.833993e+001 
3209375000  -2.479774e+001  -9.344682e+001 
3212500000  -2.498554e+001  -9.970953e+001 
3215625000  -2.512378e+001  -1.038804e+002 
3218750000  -2.588608e+001  -1.104628e+002 
3221875000  -2.680568e+001  -1.154993e+002 
3225000000  -2.644958e+001  -1.162010e+002 
3228125000  -2.674537e+001  -1.206951e+002 
3231250000  -2.754321e+001  -1.230328e+002 
3234375000  -2.739517e+001  -1.219885e+002 
3237500000  -2.739224e+001  -1.239081e+002 
3240625000  -2.703299e+001  -1.257692e+002 
3243750000  -2.668045e+001  -1.322388e+002 
3246875000  -2.716772e+001  -1.387391e+002 
3250000000  -2.761560e+001  -1.408438e+002 
3253125000  -2.781054e+001  -1.424704e+002 
3256250000  -2.760519e+001  -1.482756e+002 
3259375000  -2.798185e+001  -1.559699e+002 
3262500000  -2.927208e+001  -1.589474e+002 
3265625000  -2.995454e+001  -1.550259e+002 
3268750000  -2.988418e+001  -1.522397e+002 
3271875000  -2.965026e+001  -1.514380e+002 
3275000000  -2.854258e+001  -1.567237e+002 
3278125000  -2.902794e+001  -1.629735e+002 
3281250000  -2.930332e+001  -1.610443e+002 
3284375000  -2.884557e+001  -1.670260e+002 
3287500000  -2.904344e+001  -1.695856e+002 
3290625000  -2.942951e+001  -1.739968e+002 
3293750000  -2.911368e+001  -1.794008e+002 
3296875000  -3.016494e+001  -1.795956e+002 
3300000000  -3.001266e+001  -1.785118e+002 
3303125000  -2.886395e+001  1.776396e+002 
3306250000  -2.869065e+001  1.709212e+002 
3309375000  -2.843329e+001  1.656823e+002 
3312500000  -2.849314e+001  1.554643e+002 
3315625000  -2.952176e+001  1.478191e+002 
3318750000  -3.093887e+001  1.455424e+002 
3321875000  -3.210257e+001  1.451302e+002 
3325000000  -3.261122e+001  1.507657e+002 
3328125000  -3.244919e+001  1.528202e+002 
3331250000  -3.118351e+001  1.601101e+002 
3334375000  -2.863671e+001  1.497179e+002 
3337500000  -2.860960e+001  1.310651e+002 
3340625000  -3.006101e+001  1.197698e+002 
3343750000  -3.211394e+001  1.195158e+002 
3346875000  -3.242210e+001  1.207624e+002 
3350000000  -3.185227e+001  1.196585e+002 
3353125000  -3.194963e+001  1.148255e+002 
3356250000  -3.175966e+001  1.076511e+002 
3359375000  -3.263222e+001  9.899629e+001 
3362500000  -3.382565e+001  9.372218e+001 
3365625000  -3.449096e+001  9.219390e+001 
3368750000  -3.537816e+001  9.050278e+001 
3371875000  -3.571034e+001  8.667922e+001 
3375000000  -3.745738e+001  8.512202e+001 
3378125000  -3.851490e+001  8.556342e+001 
3381250000  -4.004068e+001  9.124966e+001 
3384375000  -3.919497e+001  1.149770e+002 
3387500000  -3.601940e+001  9.968842e+001 
3390625000  -3.768348e+001  8.134205e+001 
3393750000  -3.939399e+001  8.671818e+001 
3396875000  -3.867926e+001  8.943792e+001 
3400000000  -3.866814e+001  8.026197e+001 
3403125000  -3.966148e+001  7.749026e+001 
3406250000  -4.031733e+001  7.966096e+001 
3409375000  -4.125354e+001  7.509640e+001 
3412500000  -4.203100e+001  7.688276e+001 
3415625000  -4.285915e+001  8.242248e+001 
3418750000  -4.313511e+001  8.552183e+001 
3421875000  -4.307474e+001  9.217268e+001 
3425000000  -4.231699e+001  9.557826e+001 
3428125000  -4.150423e+001  9.446809e+001 
3431250000  -4.142270e+001  8.989161e+001 
3434375000  -4.139149e+001  8.781593e+001 
3437500000  -4.168015e+001  8.612962e+001 
3440625000  -4.214358e+001  8.913827e+001 
3443750000  -4.045634e+001  9.108367e+001 
3446875000  -3.979116e+001  8.611842e+001 
3450000000  -3.953083e+001  7.681493e+001 
3453125000  -4.000334e+001  6.769733e+001 
3456250000  -4.107657e+001  6.324503e+001 
3459375000  -4.212854e+001  6.484481e+001 
3462500000  -4.216441e+001  6.690650e+001 
3465625000  -4.212222e+001  6.113625e+001 
3468750000  -4.229713e+001  6.016053e+001 
3471875000  -4.264318e+001  6.089713e+001 
3475000000  -4.240732e+001  5.634697e+001 
3478125000  -4.333549e+001  5.095497e+001 
3481250000  -4.452399e+001  4.792435e+001 
3484375000  -4.572420e+001  5.505596e+001 
3487500000  -4.546615e+001  5.870674e+001 
3490625000  -4.487311e+001  5.471618e+001 
3493750000  -4.571617e+001  5.232695e+001 
3496875000  -4.654509e+001  4.961937e+001 
3500000000  -4.761174e+001  5.667081e+001 
3503125000  -4.752585e+001  6.725331e+001 
3506250000  -4.646078e+001  6.372020e+001 
3509375000  -4.590512e+001  6.435042e+001 
3512500000  -4.739803e+001  5.738299e+001 
3515625000  -4.769877e+001  6.284186e+001 
3518750000  -4.791838e+001  7.255605e+001 
3521875000  -4.801077e+001  7.690786e+001 
3525000000  -4.835314e+001  7.512039e+001 
3528125000  -4.758203e+001  8.776883e+001 
3531250000  -4.568227e+001  8.414722e+001 
3534375000  -4.478129e+001  8.140247e+001 
3537500000  -4.502223e+001  7.431093e+001 
3540625000  -4.540584e+001  7.829969e+001 
3543750000  -4.598244e+001  8.185607e+001 
3546875000  -4.562025e+001  8.860841e+001 
3550000000  -4.282215e+001  9.180754e+001 
3553125000  -4.132507e+001  7.621207e+001 
3556250000  -4.215679e+001  7.228777e+001 
3559375000  -4.206304e+001  7.331598e+001 
3562500000  -4.078099e+001  6.716882e+001 
3565625000  -4.157050e+001  5.986220e+001 
3568750000  -4.165313e+001  6.413779e+001 
3571875000  -4.134597e+001  6.215762e+001 
3575000000  -4.089003e+001  5.808296e+001 
3578125000  -4.131995e+001  5.500888e+001 
3581250000  -4.150591e+001  5.576175e+001 
3584375000  -4.072999e+001  5.277072e+001 
3587500000  -4.000186e+001  4.733170e+001 
3590625000  -4.018975e+001  3.952008e+001 
3593750000  -4.135425e+001  3.665718e+001 
3596875000  -4.138874e+001  4.695876e+001 
3600000000  -3.982483e+001  4.391275e+001 
3603125000  -3.969365e+001  2.949431e+001 
3606250000  -4.039047e+001  2.487874e+001 
3609375000  -4.091929e+001  2.710157e+001 
3612500000  -4.132341e+001  2.496870e+001 
3615625000  -4.110101e+001  2.338187e+001 
3618750000  -4.180246e+001  2.362604e+001 
3621875000  -4.144334e+001  2.373062e+001 
3625000000  -4.174562e+001  2.387350e+001 
3628125000  -4.172884e+001  2.312231e+001 
3631250000  -4.131648e+001  1.914093e+001 
3634375000  -4.225900e+001  1.916754e+001 
3637500000  -4.218662e+001  2.433857e+001 
3640625000  -4.100801e+001  2.642884e+001 
3643750000  -4.065604e+001  2.069136e+001 
3646875000  -4.118355e+001  1.512616e+001 
3650000000  -4.157121e+001  1.340060e+001 
3653125000  -4.127867e+001  1.305051e+001 
3656250000  -4.124740e+001  1.256694e+001 
3659375000  -4.211323e+001  1.809117e+001 
3662500000  -4.125403e+001  1.489671e+001 
3665625000  -4.121844e+001  1.627471e+001 
3668750000  -4.020874e+001  1.715535e+001 
3671875000  -3.905704e+001  1.198390e+001 
3675000000  -3.962838e+001  6.263786e+000 
3678125000  -4.034507e+001  8.745315e+000 
3681250000  -3.975338e+001  8.712065e+000 
3684375000  -3.964698e+001  6.907888e+000 
3687500000  -3.989783e+001  5.502641e+000 
3690625000  -3.955804e+001  3.435128e+000 
3693750000  -4.034272e+001  6.080156e+000 
3696875000  -3.983609e+001  9.179143e+000 
3700000000  -3.881817e+001  6.141030e+000 
3703125000  -3.875078e+001  2.821460e+000 
3706250000  -3.914954e+001  5.216562e+000 
3709375000  -3.859621e+001  8.437021e+000 
3712500000  -3.753174e+001  8.558439e+000 
3715625000  -3.631626e+001  1.863194e+000 
3718750000  -3.581746e+001  4.891883e-001 
3721875000  -3.518258e+001  -4.810451e+000 
3725000000  -3.531247e+001  -1.126433e+001 
3728125000  -3.544265e+001  -1.112234e+001 
3731250000  -3.474171e+001  -1.159718e+001 
3734375000  -3.372474e+001  -1.861497e+001 
3737500000  -3.419536e+001  -2.517063e+001 
3740625000  -3.487550e+001  -2.828592e+001 
3743750000  -3.463930e+001  -2.980180e+001 
3746875000  -3.463867e+001  -3.365199e+001 
3750000000  -3.507360e+001  -3.455817e+001 
3753125000  -3.456898e+001  -3.507016e+001 
3756250000  -3.447935e+001  -3.567646e+001 
3759375000  -3.442010e+001  -3.603798e+001 
3762500000  -3.377076e+001  -3.942212e+001 
3765625000  -3.425255e+001  -4.299934e+001 
3768750000  -3.436555e+001  -4.015892e+001 
3771875000  -3.245308e+001  -4.223367e+001 
3775000000  -3.227470e+001  -5.041776e+001 
3778125000  -3.257759e+001  -5.254366e+001 
3781250000  -3.242304e+001  -5.488703e+001 
3784375000  -3.240942e+001  -5.698160e+001 
3787500000  -3.161887e+001  -6.061408e+001 
3790625000  -3.233403e+001  -6.682989e+001 
3793750000  -3.238381e+001  -6.718517e+001 
3796875000  -3.143771e+001  -6.826923e+001 
3800000000  -2.990490e+001  -7.189758e+001 
3803125000  -3.076640e+001  -7.935761e+001 
3806250000  -3.136149e+001  -8.118198e+001 
3809375000  -3.112538e+001  -8.204757e+001 
3812500000  -3.050426e+001  -8.809256e+001 
3815625000  -3.117804e+001  -9.480154e+001 
3818750000  -3.208871e+001  -9.586897e+001 
3821875000  -3.211847e+001  -8.732505e+001 
3825000000  -3.004845e+001  -8.269873e+001 
3828125000  -2.878790e+001  -9.718324e+001 
3831250000  -2.928563e+001  -1.111778e+002 
3834375000  -3.065201e+001  -1.123132e+002 
3837500000  -3.159853e+001  -1.071982e+002 
3840625000  -3.046573e+001  -1.079394e+002 
3843750000  -2.927250e+001  -1.180692e+002 
3846875000  -2.996676e+001  -1.247032e+002 
3850000000  -3.125356e+001  -1.198318e+002 
3853125000  -3.053036e+001  -1.169395e+002 
3856250000  -3.039605e+001  -1.220666e+002 
3859375000  -2.964422e+001  -1.263350e+002 
3862500000  -2.923096e+001  -1.341763e+002 
3865625000  -2.954825e+001  -1.384344e+002 
3868750000  -2.954614e+001  -1.388970e+002 
3871875000  -2.882299e+001  -1.416625e+002 
3875000000  -2.900842e+001  -1.505759e+002 
3878125000  -3.000418e+001  -1.530363e+002 
3881250000  -3.013300e+001  -1.499921e+002 
3884375000  -2.958027e+001  -1.546553e+002 
3887500000  -2.969495e+001  -1.584330e+002 
3890625000  -3.026445e+001  -1.609905e+002 
3893750000  -3.067306e+001  -1.624460e+002 
3896875000  -3.078534e+001  -1.617493e+002 
3900000000  -3.106747e+001  -1.620767e+002 
3903125000  -3.059122e+001  -1.646267e+002 
3906250000  -3.050346e+001  -1.649631e+002 
3909375000  -2.968672e+001  -1.680950e+002 
3912500000  -2.977819e+001  -1.756221e+002 
3915625000  -3.105618e+001  -1.742665e+002 
3918750000  -3.100185e+001  -1.724055e+002 
3921875000  -3.059213e+001  -1.745303e+002 
3925000000  -2.982211e+001  -1.751481e+002 
3928125000  -2.913313e+001  1.791366e+002 
3931250000  -2.952028e+001  1.751748e+002 
3934375000  -2.977719e+001  1.758874e+002 
3937500000  -3.002356e+001  1.748200e+002 
3940625000  -3.032781e+001  1.750209e+002 
3943750000  -2.942626e+001  1.762466e+002 
3946875000  -2.826060e+001  1.708437e+002 
3950000000  -2.876796e+001  1.636880e+002 
3953125000  -2.967047e+001  1.641917e+002 
3956250000  -2.877379e+001  1.668398e+002 
3959375000  -2.745687e+001  1.634047e+002 
3962500000  -2.696373e+001  1.599972e+002 
3965625000  -2.664176e+001  1.511813e+002 
3968750000  -2.744836e+001  1.441832e+002 
3971875000  -2.787610e+001  1.425086e+002 
3975000000  -2.723759e+001  1.406278e+002 
3978125000  -2.704878e+001  1.394694e+002 
3981250000  -2.683111e+001  1.347188e+002 
3984375000  -2.702052e+001  1.283007e+002 
3987500000  -2.759793e+001  1.262904e+002 
3990625000  -2.757910e+001  1.255893e+002 
3993750000  -2.778943e+001  1.222814e+002 
3996875000  -2.775016e+001  1.197928e+002 
4000000000  -2.786053e+001  1.178627e+002 
4003125000  -2.842048e+001  1.201229e+002 
4006250000  -2.703860e+001  1.205293e+002 
4009375000  -2.587071e+001  1.080980e+002 
4012500000  -2.691474e+001  1.010850e+002 
4015625000  -2.814526e+001  1.013371e+002 
4018750000  -2.833508e+001  1.036857e+002 
4021875000  -2.763709e+001  1.022008e+002 
4025000000  -2.726169e+001  9.719514e+001 
4028125000  -2.723953e+001  9.335335e+001 
4031250000  -2.775237e+001  9.059445e+001 
4034375000  -2.806663e+001  9.010043e+001 
4037500000  -2.742620e+001  9.230760e+001 
4040625000  -2.745043e+001  8.866008e+001 
4043750000  -2.771431e+001  8.837462e+001 
4046875000  -2.732196e+001  8.820330e+001 
4050000000  -2.682766e+001  8.248816e+001 
4053125000  -2.729458e+001  8.047791e+001 
4056250000  -2.790566e+001  8.477207e+001 
4059375000  -2.665173e+001  8.688065e+001 
4062500000  -2.525884e+001  8.222693e+001 
4065625000  -2.503460e+001  7.753838e+001 
4068750000  -2.480171e+001  7.268807e+001 
4071875000  -2.416441e+001  6.488615e+001 
4075000000  -2.452745e+001  5.844663e+001 
4078125000  -2.509244e+001  5.765474e+001 
4081250000  -2.457744e+001  5.516293e+001 
4084375000  -2.417985e+001  4.846243e+001 
4087500000  -2.450813e+001  4.216259e+001 
4090625000  -2.514556e+001  4.110769e+001 
4093750000  -2.494730e+001  4.184225e+001 
4096875000  -2.450179e+001  3.564436e+001 
4100000000  -2.522360e+001  2.878889e+001 
4103125000  -2.609469e+001  2.932526e+001 
4106250000  -2.595881e+001  3.458484e+001 
4109375000  -2.506616e+001  3.398743e+001 
4112500000  -2.450085e+001  2.725894e+001 
4115625000  -2.481295e+001  2.290400e+001 
4118750000  -2.488668e+001  2.000778e+001 
4121875000  -2.452044e+001  1.533804e+001 
4125000000  -2.488588e+001  1.015949e+001 
4128125000  -2.597514e+001  1.040106e+001 
4131250000  -2.558532e+001  1.856896e+001 
4134375000  -2.324620e+001  1.375961e+001 
4137500000  -2.312455e+001  -5.030168e+000 
4140625000  -2.528750e+001  -1.183126e+001 
4143750000  -2.657780e+001  -6.722397e+000 
4146875000  -2.611529e+001  8.384386e-001 
4150000000  -2.521683e+001  -2.680557e+000 
4153125000  -2.508795e+001  -9.353829e+000 
4156250000  -2.600595e+001  -1.197812e+001 
4159375000  -2.615901e+001  -7.478603e+000 
4162500000  -2.507999e+001  -3.097481e+000 
4165625000  -2.391344e+001  -7.219424e+000 
4168750000  -2.339231e+001  -1.420345e+001 
4171875000  -2.334278e+001  -2.349832e+001 
4175000000  -2.390184e+001  -2.886595e+001 
4178125000  -2.452759e+001  -2.875541e+001 
4181250000  -2.436205e+001  -2.968683e+001 
4184375000  -2.422603e+001  -3.301279e+001 
4187500000  -2.428413e+001  -3.565992e+001 
4190625000  -2.410061e+001  -4.108691e+001 
4193750000  -2.492412e+001  -4.471612e+001 
4196875000  -2.562922e+001  -4.510814e+001 
4200000000  -2.650931e+001  -4.234713e+001 
4203125000  -2.645887e+001  -2.890530e+001 
4206250000  -2.303650e+001  -2.765713e+001 
4209375000  -2.192739e+001  -4.873182e+001 
4212500000  -2.388367e+001  -5.746421e+001 
4215625000  -2.487207e+001  -5.117548e+001 
4218750000  -2.349389e+001  -4.414690e+001 
4221875000  -2.120607e+001  -5.346840e+001 
4225000000  -2.249127e+001  -6.605529e+001 
4228125000  -2.307912e+001  -6.086087e+001 
4231250000  -2.153546e+001  -6.509798e+001 
4234375000  -2.147096e+001  -7.357098e+001 
4237500000  -2.105503e+001  -7.658438e+001 
4240625000  -2.107393e+001  -8.509521e+001 
4243750000  -2.208548e+001  -9.215823e+001 
4246875000  -2.294795e+001  -9.200294e+001 
4250000000  -2.298188e+001  -8.924998e+001 
4253125000  -2.245760e+001  -9.084634e+001 
4256250000  -2.272181e+001  -9.502220e+001 
4259375000  -2.241670e+001  -9.714471e+001 
4262500000  -2.247886e+001  -1.008661e+002 
4265625000  -2.259844e+001  -1.004864e+002 
4268750000  -2.171221e+001  -1.045373e+002 
4271875000  -2.146691e+001  -1.101013e+002 
4275000000  -2.088244e+001  -1.169665e+002 
4278125000  -2.153421e+001  -1.278090e+002 
4281250000  -2.333210e+001  -1.297173e+002 
4284375000  -2.296801e+001  -1.290001e+002 
4287500000  -2.378391e+001  -1.324473e+002 
4290625000  -2.501073e+001  -1.226565e+002 
4293750000  -2.299614e+001  -1.173366e+002 
4296875000  -2.169398e+001  -1.289720e+002 
4300000000  -2.251948e+001  -1.380862e+002 
4303125000  -2.363797e+001  -1.366563e+002 
4306250000  -2.304931e+001  -1.306028e+002 
4309375000  -2.160223e+001  -1.328405e+002 
4312500000  -2.150598e+001  -1.414923e+002 
4315625000  -2.175491e+001  -1.475417e+002 
4318750000  -2.208323e+001  -1.510396e+002 
4321875000  -2.223948e+001  -1.501122e+002 
4325000000  -2.165783e+001  -1.494814e+002 
4328125000  -2.114722e+001  -1.561077e+002 
4331250000  -2.107477e+001  -1.643706e+002 
4334375000  -2.150736e+001  -1.693561e+002 
4337500000  -2.238589e+001  -1.714253e+002 
4340625000  -2.291993e+001  -1.679019e+002 
4343750000  -2.227923e+001  -1.675575e+002 
4346875000  -2.193170e+001  -1.733887e+002 
4350000000  -2.195109e+001  -1.783950e+002 
4353125000  -2.198884e+001  1.740728e+002 
4356250000  -2.381501e+001  1.737511e+002 
4359375000  -2.433544e+001  -1.725050e+002 
4362500000  -2.159937e+001  -1.712782e+002 
4365625000  -2.002912e+001  1.765642e+002 
4368750000  -2.078712e+001  1.648483e+002 
4371875000  -2.198004e+001  1.659181e+002 
4375000000  -2.160952e+001  1.666315e+002 
4378125000  -2.095599e+001  1.606478e+002 
4381250000  -2.112338e+001  1.552191e+002 
4384375000  -2.094943e+001  1.508055e+002 
4387500000  -2.172519e+001  1.451481e+002 
4390625000  -2.268682e+001  1.462586e+002 
4393750000  -2.203930e+001  1.481907e+002 
4396875000  -2.138880e+001  1.455184e+002 
4400000000  -2.088160e+001  1.389857e+002 
4403125000  -2.147128e+001  1.314400e+002 
4406250000  -2.234706e+001  1.302710e+002 
4409375000  -2.225065e+001  1.276452e+002 
4412500000  -2.331581e+001  1.253692e+002 
4415625000  -2.364790e+001  1.301606e+002 
4418750000  -2.243233e+001  1.347254e+002 
