!Agilent Technologies,E8363B,MY43030201,A.06.04.32
!Agilent E8363B: A.06.04.32
!Date: Tuesday, November 11, 2014 20:51:26
!Correction: S21(Response(S21)) 
!S1P File: Measurement: S21:
# Hz S  dB   R 50
3000000000  -2.650444e+001  1.515011e+002 
3003125000  -2.791677e+001  1.472497e+002 
3006250000  -2.796359e+001  1.445531e+002 
3009375000  -2.835127e+001  1.493599e+002 
3012500000  -2.775769e+001  1.489009e+002 
3015625000  -2.682359e+001  1.418348e+002 
3018750000  -2.769196e+001  1.409789e+002 
3021875000  -2.643155e+001  1.422192e+002 
3025000000  -2.507647e+001  1.393437e+002 
3028125000  -2.412713e+001  1.343012e+002 
3031250000  -2.311310e+001  1.231392e+002 
3034375000  -2.274091e+001  1.101526e+002 
3037500000  -2.311278e+001  9.834421e+001 
3040625000  -2.445849e+001  9.310785e+001 
3043750000  -2.517022e+001  8.864407e+001 
3046875000  -2.526785e+001  8.258662e+001 
3050000000  -2.703727e+001  7.588244e+001 
3053125000  -2.709032e+001  8.215579e+001 
3056250000  -2.645250e+001  8.518740e+001 
3059375000  -2.667645e+001  8.483068e+001 
3062500000  -2.522662e+001  8.092207e+001 
3065625000  -2.498997e+001  7.525651e+001 
3068750000  -2.472571e+001  6.831437e+001 
3071875000  -2.465870e+001  6.519018e+001 
3075000000  -2.463016e+001  6.156370e+001 
3078125000  -2.433720e+001  5.701693e+001 
3081250000  -2.501338e+001  5.277496e+001 
3084375000  -2.423452e+001  4.911288e+001 
3087500000  -2.414443e+001  4.548198e+001 
3090625000  -2.382483e+001  3.571457e+001 
3093750000  -2.430044e+001  2.807709e+001 
3096875000  -2.561770e+001  2.181485e+001 
3100000000  -2.569487e+001  2.053926e+001 
3103125000  -2.610206e+001  2.178258e+001 
3106250000  -2.581216e+001  1.848057e+001 
3109375000  -2.605089e+001  1.470696e+001 
3112500000  -2.619107e+001  1.374938e+001 
3115625000  -2.596976e+001  9.671299e+000 
3118750000  -2.645593e+001  1.103747e+001 
3121875000  -2.580700e+001  2.846276e+000 
3125000000  -2.695847e+001  -6.680022e-001 
3128125000  -2.817920e+001  7.443195e+000 
3131250000  -2.597860e+001  8.023753e+000 
3134375000  -2.467323e+001  -5.525827e+000 
3137500000  -2.532038e+001  -1.945516e+001 
3140625000  -2.690450e+001  -2.102058e+001 
3143750000  -2.797366e+001  -1.699791e+001 
3146875000  -2.748643e+001  -1.475178e+001 
3150000000  -2.650179e+001  -1.237964e+001 
3153125000  -2.647614e+001  -2.040028e+001 
3156250000  -2.750062e+001  -1.492095e+001 
3159375000  -2.592545e+001  -1.205468e+001 
3162500000  -2.388449e+001  -2.477960e+001 
3165625000  -2.482951e+001  -3.590633e+001 
3168750000  -2.521784e+001  -3.509100e+001 
3171875000  -2.424437e+001  -3.916822e+001 
3175000000  -2.490843e+001  -4.686441e+001 
3178125000  -2.470556e+001  -4.531964e+001 
3181250000  -2.352705e+001  -4.924015e+001 
3184375000  -2.276283e+001  -6.163481e+001 
3187500000  -2.383206e+001  -7.700134e+001 
3190625000  -2.660411e+001  -8.444138e+001 
3193750000  -2.723318e+001  -7.461356e+001 
3196875000  -2.678586e+001  -6.927233e+001 
3200000000  -2.590117e+001  -7.107585e+001 
3203125000  -2.505055e+001  -7.671877e+001 
3206250000  -2.533872e+001  -8.301081e+001 
3209375000  -2.485417e+001  -8.819780e+001 
3212500000  -2.498683e+001  -9.474053e+001 
3215625000  -2.514945e+001  -9.841935e+001 
3218750000  -2.591527e+001  -1.052423e+002 
3221875000  -2.687839e+001  -1.101377e+002 
3225000000  -2.648203e+001  -1.105963e+002 
3228125000  -2.680886e+001  -1.154348e+002 
3231250000  -2.754521e+001  -1.181349e+002 
3234375000  -2.740040e+001  -1.170637e+002 
3237500000  -2.744370e+001  -1.186087e+002 
3240625000  -2.711081e+001  -1.206208e+002 
3243750000  -2.678158e+001  -1.272113e+002 
3246875000  -2.720510e+001  -1.333559e+002 
3250000000  -2.774869e+001  -1.356152e+002 
3253125000  -2.784936e+001  -1.370330e+002 
3256250000  -2.771278e+001  -1.428168e+002 
3259375000  -2.802159e+001  -1.505079e+002 
3262500000  -2.930262e+001  -1.535631e+002 
3265625000  -2.998820e+001  -1.499195e+002 
3268750000  -2.993202e+001  -1.470412e+002 
3271875000  -2.969200e+001  -1.462100e+002 
3275000000  -2.864168e+001  -1.512622e+002 
3278125000  -2.910747e+001  -1.577083e+002 
3281250000  -2.935771e+001  -1.559407e+002 
3284375000  -2.892144e+001  -1.615138e+002 
3287500000  -2.910266e+001  -1.643589e+002 
3290625000  -2.951641e+001  -1.685945e+002 
3293750000  -2.922180e+001  -1.741218e+002 
3296875000  -3.024359e+001  -1.743734e+002 
3300000000  -3.011085e+001  -1.727525e+002 
3303125000  -2.899934e+001  -1.768786e+002 
3306250000  -2.874531e+001  1.764003e+002 
3309375000  -2.852307e+001  1.711480e+002 
3312500000  -2.859185e+001  1.612900e+002 
3315625000  -2.958185e+001  1.532372e+002 
3318750000  -3.098798e+001  1.502154e+002 
3321875000  -3.218675e+001  1.508208e+002 
3325000000  -3.275266e+001  1.560228e+002 
3328125000  -3.252272e+001  1.573975e+002 
3331250000  -3.128039e+001  1.644308e+002 
3334375000  -2.872247e+001  1.550479e+002 
3337500000  -2.881093e+001  1.365120e+002 
3340625000  -3.020589e+001  1.252023e+002 
3343750000  -3.218205e+001  1.242287e+002 
3346875000  -3.258625e+001  1.264500e+002 
3350000000  -3.198444e+001  1.245208e+002 
3353125000  -3.214504e+001  1.203634e+002 
3356250000  -3.177318e+001  1.126672e+002 
3359375000  -3.266542e+001  1.042179e+002 
3362500000  -3.395854e+001  9.858713e+001 
3365625000  -3.462980e+001  9.717982e+001 
3368750000  -3.557892e+001  9.541769e+001 
3371875000  -3.604993e+001  9.133202e+001 
3375000000  -3.753874e+001  9.082758e+001 
3378125000  -3.872465e+001  8.877439e+001 
3381250000  -4.029192e+001  9.815216e+001 
3384375000  -3.959940e+001  1.192950e+002 
3387500000  -3.616639e+001  1.053692e+002 
3390625000  -3.781940e+001  8.718155e+001 
3393750000  -3.969088e+001  9.139113e+001 
3396875000  -3.886276e+001  9.423640e+001 
3400000000  -3.865229e+001  8.615781e+001 
3403125000  -3.995663e+001  8.105534e+001 
3406250000  -4.069406e+001  8.521152e+001 
3409375000  -4.124650e+001  8.026038e+001 
3412500000  -4.194323e+001  8.292429e+001 
3415625000  -4.313508e+001  8.717198e+001 
3418750000  -4.328504e+001  9.104148e+001 
3421875000  -4.354878e+001  9.842911e+001 
3425000000  -4.291758e+001  1.009950e+002 
3428125000  -4.197344e+001  1.006086e+002 
3431250000  -4.168664e+001  9.684033e+001 
3434375000  -4.138484e+001  9.314910e+001 
3437500000  -4.186448e+001  9.158031e+001 
3440625000  -4.228233e+001  9.577549e+001 
3443750000  -4.124347e+001  9.809793e+001 
3446875000  -4.025628e+001  9.217756e+001 
3450000000  -4.005758e+001  8.334753e+001 
3453125000  -4.034371e+001  7.438737e+001 
3456250000  -4.137334e+001  6.806892e+001 
3459375000  -4.227150e+001  7.199249e+001 
3462500000  -4.238795e+001  7.285108e+001 
3465625000  -4.259160e+001  6.894212e+001 
3468750000  -4.269128e+001  6.503334e+001 
3471875000  -4.293834e+001  6.560277e+001 
3475000000  -4.289697e+001  6.271855e+001 
3478125000  -4.374472e+001  5.826948e+001 
3481250000  -4.490006e+001  5.694561e+001 
3484375000  -4.600494e+001  6.028920e+001 
3487500000  -4.584840e+001  6.462674e+001 
3490625000  -4.523612e+001  6.173296e+001 
3493750000  -4.607169e+001  5.751522e+001 
3496875000  -4.688705e+001  6.275854e+001 
3500000000  -4.767711e+001  6.959675e+001 
3503125000  -4.807151e+001  7.236515e+001 
3506250000  -4.681933e+001  7.332345e+001 
3509375000  -4.644486e+001  6.767990e+001 
3512500000  -4.719338e+001  6.909694e+001 
3515625000  -4.772974e+001  7.422051e+001 
3518750000  -4.831406e+001  7.677132e+001 
3521875000  -4.824380e+001  8.501472e+001 
3525000000  -4.844109e+001  8.278762e+001 
3528125000  -4.712018e+001  9.354559e+001 
3531250000  -4.598940e+001  9.625969e+001 
3534375000  -4.545401e+001  8.714257e+001 
3537500000  -4.483999e+001  8.310215e+001 
3540625000  -4.533416e+001  8.551644e+001 
3543750000  -4.602551e+001  8.760625e+001 
3546875000  -4.550034e+001  9.828465e+001 
3550000000  -4.280694e+001  1.015420e+002 
3553125000  -4.134174e+001  8.330849e+001 
3556250000  -4.233043e+001  7.907646e+001 
3559375000  -4.210329e+001  8.172312e+001 
3562500000  -4.098806e+001  7.412292e+001 
3565625000  -4.182338e+001  6.900949e+001 
3568750000  -4.168087e+001  7.195476e+001 
3571875000  -4.164130e+001  7.094038e+001 
3575000000  -4.109114e+001  6.550752e+001 
3578125000  -4.137921e+001  6.362833e+001 
3581250000  -4.175108e+001  6.308792e+001 
3584375000  -4.056101e+001  6.258664e+001 
3587500000  -3.972904e+001  5.622077e+001 
3590625000  -4.032655e+001  4.650375e+001 
3593750000  -4.122214e+001  4.588559e+001 
3596875000  -4.140112e+001  5.326142e+001 
3600000000  -3.963416e+001  5.075887e+001 
3603125000  -3.984999e+001  3.733189e+001 
3606250000  -4.048970e+001  3.594436e+001 
3609375000  -4.056208e+001  3.484485e+001 
3612500000  -4.121858e+001  3.217535e+001 
3615625000  -4.142169e+001  2.996911e+001 
3618750000  -4.205677e+001  3.191885e+001 
3621875000  -4.146701e+001  3.153468e+001 
3625000000  -4.162130e+001  3.006492e+001 
3628125000  -4.162096e+001  3.089793e+001 
3631250000  -4.140157e+001  2.476925e+001 
3634375000  -4.226184e+001  2.594064e+001 
3637500000  -4.195696e+001  3.359135e+001 
3640625000  -4.088534e+001  3.402332e+001 
3643750000  -4.064832e+001  2.801439e+001 
3646875000  -4.093609e+001  2.160687e+001 
3650000000  -4.154245e+001  2.125373e+001 
3653125000  -4.144764e+001  2.368211e+001 
3656250000  -4.152998e+001  2.180398e+001 
3659375000  -4.191606e+001  2.294130e+001 
3662500000  -4.127587e+001  2.126829e+001 
3665625000  -4.121869e+001  2.309359e+001 
3668750000  -4.012279e+001  2.428606e+001 
3671875000  -3.932487e+001  1.970862e+001 
3675000000  -3.955185e+001  1.522905e+001 
3678125000  -4.030544e+001  1.615743e+001 
3681250000  -3.971913e+001  1.712188e+001 
3684375000  -3.934510e+001  1.492534e+001 
3687500000  -3.966644e+001  1.331015e+001 
3690625000  -3.946581e+001  1.086162e+001 
3693750000  -4.017491e+001  1.441014e+001 
3696875000  -3.991607e+001  1.609006e+001 
3700000000  -3.896774e+001  1.318490e+001 
3703125000  -3.846770e+001  1.067866e+001 
3706250000  -3.904721e+001  1.190148e+001 
3709375000  -3.860466e+001  1.629817e+001 
3712500000  -3.741333e+001  1.559187e+001 
3715625000  -3.629967e+001  9.114174e+000 
3718750000  -3.548471e+001  7.888636e+000 
3721875000  -3.517478e+001  9.414569e-001 
3725000000  -3.513653e+001  -2.519319e+000 
3728125000  -3.526088e+001  -5.108497e+000 
3731250000  -3.460174e+001  -4.480613e+000 
3734375000  -3.365870e+001  -1.102336e+001 
3737500000  -3.420682e+001  -1.802195e+001 
3740625000  -3.467228e+001  -2.091743e+001 
3743750000  -3.445442e+001  -2.368817e+001 
3746875000  -3.456573e+001  -2.679994e+001 
3750000000  -3.488033e+001  -2.682923e+001 
3753125000  -3.454860e+001  -2.702967e+001 
3756250000  -3.445453e+001  -2.856543e+001 
3759375000  -3.423448e+001  -2.893070e+001 
3762500000  -3.367139e+001  -3.271841e+001 
3765625000  -3.420353e+001  -3.501973e+001 
3768750000  -3.418687e+001  -3.369435e+001 
3771875000  -3.255799e+001  -3.581313e+001 
3775000000  -3.223545e+001  -4.419524e+001 
3778125000  -3.258344e+001  -4.531525e+001 
3781250000  -3.239857e+001  -4.824298e+001 
3784375000  -3.232457e+001  -4.994734e+001 
3787500000  -3.164282e+001  -5.330275e+001 
3790625000  -3.222062e+001  -5.869351e+001 
3793750000  -3.244043e+001  -6.000301e+001 
3796875000  -3.150233e+001  -6.089377e+001 
3800000000  -2.990752e+001  -6.474795e+001 
3803125000  -3.070583e+001  -7.159414e+001 
3806250000  -3.132188e+001  -7.409122e+001 
3809375000  -3.095982e+001  -7.605569e+001 
3812500000  -3.033203e+001  -8.022021e+001 
3815625000  -3.101695e+001  -8.771764e+001 
3818750000  -3.190851e+001  -8.941535e+001 
3821875000  -3.210199e+001  -8.108203e+001 
3825000000  -3.013971e+001  -7.609967e+001 
3828125000  -2.876519e+001  -8.990940e+001 
3831250000  -2.934867e+001  -1.042646e+002 
3834375000  -3.066041e+001  -1.050783e+002 
3837500000  -3.156747e+001  -1.004799e+002 
3840625000  -3.043965e+001  -1.013897e+002 
3843750000  -2.924082e+001  -1.109620e+002 
3846875000  -2.990406e+001  -1.185520e+002 
3850000000  -3.122787e+001  -1.127857e+002 
3853125000  -3.044129e+001  -1.099788e+002 
3856250000  -3.038545e+001  -1.148071e+002 
3859375000  -2.965202e+001  -1.193364e+002 
3862500000  -2.924671e+001  -1.265410e+002 
3865625000  -2.947736e+001  -1.315652e+002 
3868750000  -2.954300e+001  -1.319191e+002 
3871875000  -2.880609e+001  -1.344057e+002 
3875000000  -2.894665e+001  -1.433074e+002 
3878125000  -2.991444e+001  -1.460106e+002 
3881250000  -3.005143e+001  -1.424911e+002 
3884375000  -2.949180e+001  -1.471365e+002 
3887500000  -2.961915e+001  -1.514439e+002 
3890625000  -3.032462e+001  -1.542252e+002 
3893750000  -3.065554e+001  -1.551047e+002 
3896875000  -3.068040e+001  -1.544419e+002 
3900000000  -3.103326e+001  -1.555492e+002 
3903125000  -3.063361e+001  -1.575427e+002 
3906250000  -3.045832e+001  -1.586107e+002 
3909375000  -2.965470e+001  -1.608795e+002 
3912500000  -2.968965e+001  -1.679652e+002 
3915625000  -3.087420e+001  -1.673161e+002 
3918750000  -3.080427e+001  -1.654357e+002 
3921875000  -3.059143e+001  -1.672768e+002 
3925000000  -2.979242e+001  -1.679414e+002 
3928125000  -2.910940e+001  -1.738132e+002 
3931250000  -2.949896e+001  -1.774757e+002 
3934375000  -2.972121e+001  -1.772589e+002 
3937500000  -2.983464e+001  -1.781244e+002 
3940625000  -3.042475e+001  -1.780596e+002 
3943750000  -2.939854e+001  -1.767635e+002 
3946875000  -2.811246e+001  1.781265e+002 
3950000000  -2.867490e+001  1.704164e+002 
3953125000  -2.959562e+001  1.706512e+002 
3956250000  -2.880238e+001  1.735545e+002 
3959375000  -2.744968e+001  1.705434e+002 
3962500000  -2.691771e+001  1.668213e+002 
3965625000  -2.650319e+001  1.575478e+002 
3968750000  -2.750131e+001  1.515305e+002 
3971875000  -2.782243e+001  1.494516e+002 
3975000000  -2.716355e+001  1.477128e+002 
3978125000  -2.702994e+001  1.462509e+002 
3981250000  -2.674321e+001  1.420440e+002 
3984375000  -2.696340e+001  1.355341e+002 
3987500000  -2.752627e+001  1.332354e+002 
3990625000  -2.751851e+001  1.325549e+002 
3993750000  -2.774905e+001  1.292752e+002 
3996875000  -2.762577e+001  1.266402e+002 
4000000000  -2.777211e+001  1.247117e+002 
4003125000  -2.836025e+001  1.271817e+002 
4006250000  -2.698037e+001  1.276861e+002 
4009375000  -2.579754e+001  1.152856e+002 
4012500000  -2.685571e+001  1.080372e+002 
4015625000  -2.810617e+001  1.082788e+002 
4018750000  -2.823458e+001  1.105554e+002 
4021875000  -2.757090e+001  1.091815e+002 
4025000000  -2.725064e+001  1.043619e+002 
4028125000  -2.717670e+001  1.006349e+002 
4031250000  -2.769158e+001  9.721754e+001 
4034375000  -2.791428e+001  9.741927e+001 
4037500000  -2.746697e+001  9.928802e+001 
4040625000  -2.737118e+001  9.574496e+001 
4043750000  -2.766850e+001  9.515139e+001 
4046875000  -2.722121e+001  9.475700e+001 
4050000000  -2.673590e+001  8.974981e+001 
4053125000  -2.721026e+001  8.758403e+001 
4056250000  -2.783858e+001  9.147571e+001 
4059375000  -2.661187e+001  9.343076e+001 
4062500000  -2.519681e+001  8.908952e+001 
4065625000  -2.500467e+001  8.365084e+001 
4068750000  -2.478826e+001  7.948751e+001 
4071875000  -2.410846e+001  7.171335e+001 
4075000000  -2.447796e+001  6.540434e+001 
4078125000  -2.506734e+001  6.456149e+001 
4081250000  -2.454131e+001  6.181150e+001 
4084375000  -2.415032e+001  5.547582e+001 
4087500000  -2.452258e+001  4.924514e+001 
4090625000  -2.504504e+001  4.804934e+001 
4093750000  -2.494717e+001  4.881120e+001 
4096875000  -2.447036e+001  4.265948e+001 
4100000000  -2.515360e+001  3.561230e+001 
4103125000  -2.600433e+001  3.625904e+001 
4106250000  -2.588747e+001  4.088302e+001 
4109375000  -2.501135e+001  4.084262e+001 
4112500000  -2.448503e+001  3.380851e+001 
4115625000  -2.476628e+001  2.975301e+001 
4118750000  -2.491508e+001  2.668252e+001 
4121875000  -2.449572e+001  2.228177e+001 
4125000000  -2.485609e+001  1.705366e+001 
4128125000  -2.591866e+001  1.719855e+001 
4131250000  -2.558563e+001  2.528589e+001 
4134375000  -2.326502e+001  2.085659e+001 
4137500000  -2.303144e+001  2.118387e+000 
4140625000  -2.522139e+001  -5.183384e+000 
4143750000  -2.653581e+001  -6.158391e-002 
4146875000  -2.620156e+001  7.224235e+000 
4150000000  -2.529384e+001  4.084858e+000 
4153125000  -2.504700e+001  -2.377701e+000 
4156250000  -2.595569e+001  -4.916680e+000 
4159375000  -2.623585e+001  -4.674921e-001 
4162500000  -2.509619e+001  3.930374e+000 
4165625000  -2.396990e+001  -6.903481e-002 
4168750000  -2.337415e+001  -7.433868e+000 
4171875000  -2.331285e+001  -1.648269e+001 
4175000000  -2.397824e+001  -2.200863e+001 
4178125000  -2.457973e+001  -2.190164e+001 
4181250000  -2.438852e+001  -2.272321e+001 
4184375000  -2.426371e+001  -2.600568e+001 
4187500000  -2.436823e+001  -2.851568e+001 
4190625000  -2.411220e+001  -3.406874e+001 
4193750000  -2.491596e+001  -3.822966e+001 
4196875000  -2.563601e+001  -3.836162e+001 
4200000000  -2.647583e+001  -3.650532e+001 
4203125000  -2.649153e+001  -2.264582e+001 
4206250000  -2.309526e+001  -2.102588e+001 
4209375000  -2.199384e+001  -4.146622e+001 
4212500000  -2.383241e+001  -5.024852e+001 
4215625000  -2.487680e+001  -4.416968e+001 
4218750000  -2.354820e+001  -3.780017e+001 
4221875000  -2.125376e+001  -4.676999e+001 
4225000000  -2.251917e+001  -5.948237e+001 
4228125000  -2.320082e+001  -5.416043e+001 
4231250000  -2.164861e+001  -5.781984e+001 
4234375000  -2.157046e+001  -6.612794e+001 
4237500000  -2.113894e+001  -6.945664e+001 
4240625000  -2.114836e+001  -7.798112e+001 
4243750000  -2.209201e+001  -8.471591e+001 
4246875000  -2.296750e+001  -8.493008e+001 
4250000000  -2.303302e+001  -8.248392e+001 
4253125000  -2.249638e+001  -8.399385e+001 
4256250000  -2.276062e+001  -8.801841e+001 
4259375000  -2.249329e+001  -9.019740e+001 
4262500000  -2.250499e+001  -9.386317e+001 
4265625000  -2.269220e+001  -9.358101e+001 
4268750000  -2.180583e+001  -9.719740e+001 
4271875000  -2.156513e+001  -1.030735e+002 
4275000000  -2.091638e+001  -1.095115e+002 
4278125000  -2.159782e+001  -1.207689e+002 
4281250000  -2.337898e+001  -1.226209e+002 
4284375000  -2.305610e+001  -1.220583e+002 
4287500000  -2.383424e+001  -1.252332e+002 
4290625000  -2.508613e+001  -1.160411e+002 
4293750000  -2.308656e+001  -1.101957e+002 
4296875000  -2.179370e+001  -1.217422e+002 
4300000000  -2.260774e+001  -1.308375e+002 
4303125000  -2.374791e+001  -1.299287e+002 
4306250000  -2.311987e+001  -1.237932e+002 
4309375000  -2.178677e+001  -1.257122e+002 
4312500000  -2.165718e+001  -1.341887e+002 
4315625000  -2.185387e+001  -1.402264e+002 
4318750000  -2.212847e+001  -1.436124e+002 
4321875000  -2.229554e+001  -1.430623e+002 
4325000000  -2.177946e+001  -1.423990e+002 
4328125000  -2.130998e+001  -1.487445e+002 
4331250000  -2.116696e+001  -1.568649e+002 
4334375000  -2.158895e+001  -1.615511e+002 
4337500000  -2.243995e+001  -1.641479e+002 
4340625000  -2.298615e+001  -1.609453e+002 
4343750000  -2.240939e+001  -1.602783e+002 
4346875000  -2.202114e+001  -1.659019e+002 
4350000000  -2.200768e+001  -1.708374e+002 
4353125000  -2.207133e+001  -1.781178e+002 
4356250000  -2.382108e+001  -1.795202e+002 
4359375000  -2.447207e+001  -1.657430e+002 
4362500000  -2.179080e+001  -1.640324e+002 
4365625000  -2.011930e+001  -1.755963e+002 
4368750000  -2.083745e+001  1.726199e+002 
4371875000  -2.204985e+001  1.732136e+002 
4375000000  -2.173323e+001  1.742863e+002 
4378125000  -2.107446e+001  1.685518e+002 
4381250000  -2.127027e+001  1.628736e+002 
4384375000  -2.108872e+001  1.582216e+002 
4387500000  -2.181910e+001  1.528243e+002 
4390625000  -2.279589e+001  1.534982e+002 
4393750000  -2.212503e+001  1.555901e+002 
4396875000  -2.150984e+001  1.535756e+002 
4400000000  -2.095833e+001  1.465359e+002 
4403125000  -2.156652e+001  1.390102e+002 
4406250000  -2.246089e+001  1.376884e+002 
4409375000  -2.232097e+001  1.352265e+002 
4412500000  -2.342144e+001  1.325919e+002 
4415625000  -2.377596e+001  1.380141e+002 
4418750000  -2.256550e+001  1.422002e+002 
