!Agilent Technologies,E8363B,MY43030201,A.06.04.32
!Agilent E8363B: A.06.04.32
!Date: Tuesday, November 11, 2014 20:50:57
!Correction: S21(Response(S21)) 
!S1P File: Measurement: S21:
# Hz S  dB   R 50
3000000000  -2.644675e+001  1.512466e+002 
3003125000  -2.782629e+001  1.466197e+002 
3006250000  -2.788375e+001  1.440437e+002 
3009375000  -2.825122e+001  1.491644e+002 
3012500000  -2.768979e+001  1.489953e+002 
3015625000  -2.673537e+001  1.417270e+002 
3018750000  -2.764100e+001  1.409605e+002 
3021875000  -2.634968e+001  1.424633e+002 
3025000000  -2.503939e+001  1.391329e+002 
3028125000  -2.407056e+001  1.340935e+002 
3031250000  -2.304536e+001  1.230441e+002 
3034375000  -2.269096e+001  1.100459e+002 
3037500000  -2.306173e+001  9.803242e+001 
3040625000  -2.437646e+001  9.306814e+001 
3043750000  -2.508369e+001  8.865972e+001 
3046875000  -2.518976e+001  8.244363e+001 
3050000000  -2.696996e+001  7.577238e+001 
3053125000  -2.708049e+001  8.195386e+001 
3056250000  -2.642873e+001  8.512644e+001 
3059375000  -2.662227e+001  8.471060e+001 
3062500000  -2.517314e+001  8.066782e+001 
3065625000  -2.495685e+001  7.500518e+001 
3068750000  -2.465804e+001  6.796193e+001 
3071875000  -2.464861e+001  6.527058e+001 
3075000000  -2.459902e+001  6.148582e+001 
3078125000  -2.435212e+001  5.672892e+001 
3081250000  -2.497580e+001  5.261001e+001 
3084375000  -2.424430e+001  4.892775e+001 
3087500000  -2.413459e+001  4.537012e+001 
3090625000  -2.382293e+001  3.562322e+001 
3093750000  -2.427544e+001  2.767175e+001 
3096875000  -2.556187e+001  2.164821e+001 
3100000000  -2.569193e+001  2.027372e+001 
3103125000  -2.607380e+001  2.166277e+001 
3106250000  -2.577809e+001  1.826112e+001 
3109375000  -2.604461e+001  1.486076e+001 
3112500000  -2.618508e+001  1.391518e+001 
3115625000  -2.595437e+001  9.440516e+000 
3118750000  -2.644598e+001  1.092958e+001 
3121875000  -2.578838e+001  2.696115e+000 
3125000000  -2.696924e+001  -6.651495e-001 
3128125000  -2.821289e+001  7.094993e+000 
3131250000  -2.598073e+001  8.006048e+000 
3134375000  -2.466055e+001  -5.353534e+000 
3137500000  -2.529366e+001  -1.966375e+001 
3140625000  -2.696956e+001  -2.082342e+001 
3143750000  -2.798482e+001  -1.689147e+001 
3146875000  -2.754659e+001  -1.466722e+001 
3150000000  -2.651991e+001  -1.253906e+001 
3153125000  -2.653995e+001  -2.063882e+001 
3156250000  -2.750757e+001  -1.484402e+001 
3159375000  -2.590424e+001  -1.216207e+001 
3162500000  -2.393270e+001  -2.501448e+001 
3165625000  -2.482196e+001  -3.628803e+001 
3168750000  -2.522625e+001  -3.494906e+001 
3171875000  -2.427433e+001  -3.909692e+001 
3175000000  -2.488893e+001  -4.693081e+001 
3178125000  -2.469932e+001  -4.528369e+001 
3181250000  -2.353382e+001  -4.944744e+001 
3184375000  -2.277628e+001  -6.154034e+001 
3187500000  -2.385666e+001  -7.651373e+001 
3190625000  -2.664212e+001  -8.435332e+001 
3193750000  -2.722522e+001  -7.484698e+001 
3196875000  -2.678333e+001  -6.925079e+001 
3200000000  -2.592941e+001  -7.100305e+001 
3203125000  -2.508658e+001  -7.679746e+001 
3206250000  -2.535323e+001  -8.304951e+001 
3209375000  -2.489055e+001  -8.816766e+001 
3212500000  -2.503766e+001  -9.478567e+001 
3215625000  -2.518225e+001  -9.862812e+001 
3218750000  -2.592216e+001  -1.049561e+002 
3221875000  -2.689147e+001  -1.103066e+002 
3225000000  -2.653332e+001  -1.108963e+002 
3228125000  -2.682690e+001  -1.156057e+002 
3231250000  -2.762479e+001  -1.179801e+002 
3234375000  -2.744559e+001  -1.169463e+002 
3237500000  -2.751608e+001  -1.186727e+002 
3240625000  -2.715850e+001  -1.205872e+002 
3243750000  -2.680253e+001  -1.268326e+002 
3246875000  -2.726567e+001  -1.340459e+002 
3250000000  -2.777244e+001  -1.354597e+002 
3253125000  -2.791512e+001  -1.370506e+002 
3256250000  -2.781970e+001  -1.431866e+002 
3259375000  -2.812671e+001  -1.505566e+002 
3262500000  -2.939048e+001  -1.535157e+002 
3265625000  -3.005630e+001  -1.497450e+002 
3268750000  -3.005731e+001  -1.471884e+002 
3271875000  -2.977428e+001  -1.463267e+002 
3275000000  -2.872805e+001  -1.513786e+002 
3278125000  -2.920622e+001  -1.576784e+002 
3281250000  -2.951842e+001  -1.552956e+002 
3284375000  -2.904819e+001  -1.616181e+002 
3287500000  -2.917974e+001  -1.640754e+002 
3290625000  -2.959020e+001  -1.683748e+002 
3293750000  -2.926185e+001  -1.741984e+002 
3296875000  -3.030807e+001  -1.740517e+002 
3300000000  -3.015750e+001  -1.732106e+002 
3303125000  -2.910651e+001  -1.770663e+002 
3306250000  -2.882699e+001  1.766620e+002 
3309375000  -2.854808e+001  1.715766e+002 
3312500000  -2.864205e+001  1.610666e+002 
3315625000  -2.968950e+001  1.533065e+002 
3318750000  -3.104222e+001  1.508395e+002 
3321875000  -3.215582e+001  1.511260e+002 
3325000000  -3.281552e+001  1.554907e+002 
3328125000  -3.262141e+001  1.577862e+002 
3331250000  -3.148691e+001  1.650501e+002 
3334375000  -2.881849e+001  1.552576e+002 
3337500000  -2.887577e+001  1.366990e+002 
3340625000  -3.023527e+001  1.257662e+002 
3343750000  -3.223825e+001  1.244705e+002 
3346875000  -3.279790e+001  1.258778e+002 
3350000000  -3.202214e+001  1.242987e+002 
3353125000  -3.216528e+001  1.199144e+002 
3356250000  -3.194403e+001  1.123818e+002 
3359375000  -3.275574e+001  1.041666e+002 
3362500000  -3.410202e+001  9.821244e+001 
3365625000  -3.478151e+001  9.700225e+001 
3368750000  -3.570118e+001  9.485010e+001 
3371875000  -3.615315e+001  9.188048e+001 
3375000000  -3.768562e+001  8.953272e+001 
3378125000  -3.887168e+001  8.799037e+001 
3381250000  -4.041294e+001  9.786356e+001 
3384375000  -3.959318e+001  1.180345e+002 
3387500000  -3.640189e+001  1.041661e+002 
3390625000  -3.814968e+001  8.550076e+001 
3393750000  -4.010966e+001  8.883477e+001 
3396875000  -3.914480e+001  9.361719e+001 
3400000000  -3.915409e+001  8.615314e+001 
3403125000  -4.034663e+001  8.161004e+001 
3406250000  -4.120009e+001  8.726612e+001 
3409375000  -4.188230e+001  8.092101e+001 
3412500000  -4.277462e+001  8.236939e+001 
3415625000  -4.348114e+001  8.998070e+001 
3418750000  -4.368457e+001  9.138702e+001 
3421875000  -4.409042e+001  1.018314e+002 
3425000000  -4.311454e+001  1.041737e+002 
3428125000  -4.212014e+001  1.028861e+002 
3431250000  -4.199735e+001  9.960873e+001 
3434375000  -4.187289e+001  9.510694e+001 
3437500000  -4.220682e+001  9.455807e+001 
3440625000  -4.235342e+001  9.673102e+001 
3443750000  -4.128938e+001  1.000658e+002 
3446875000  -4.029829e+001  9.476538e+001 
3450000000  -3.995360e+001  8.548648e+001 
3453125000  -4.044584e+001  7.724399e+001 
3456250000  -4.157343e+001  7.157866e+001 
3459375000  -4.264273e+001  7.394125e+001 
3462500000  -4.243153e+001  7.367758e+001 
3465625000  -4.229195e+001  6.990967e+001 
3468750000  -4.284267e+001  6.883950e+001 
3471875000  -4.285426e+001  6.817204e+001 
3475000000  -4.304465e+001  6.438854e+001 
3478125000  -4.359914e+001  5.964157e+001 
3481250000  -4.487567e+001  5.545887e+001 
3484375000  -4.652520e+001  6.518243e+001 
3487500000  -4.618706e+001  6.581109e+001 
3490625000  -4.517522e+001  6.438762e+001 
3493750000  -4.640222e+001  6.084325e+001 
3496875000  -4.713253e+001  6.259481e+001 
3500000000  -4.810262e+001  7.149313e+001 
3503125000  -4.873193e+001  7.376424e+001 
3506250000  -4.655818e+001  7.464915e+001 
3509375000  -4.735572e+001  7.795401e+001 
3512500000  -4.706957e+001  7.695692e+001 
3515625000  -4.744753e+001  7.814981e+001 
3518750000  -4.825888e+001  8.290799e+001 
3521875000  -4.737472e+001  8.987048e+001 
3525000000  -4.760046e+001  8.600729e+001 
3528125000  -4.739714e+001  9.776006e+001 
3531250000  -4.516480e+001  1.015649e+002 
3534375000  -4.457814e+001  8.856989e+001 
3537500000  -4.483806e+001  8.844381e+001 
3540625000  -4.519891e+001  8.566712e+001 
3543750000  -4.542629e+001  8.847287e+001 
3546875000  -4.513110e+001  9.898885e+001 
3550000000  -4.273012e+001  1.021525e+002 
3553125000  -4.089937e+001  8.466853e+001 
3556250000  -4.198327e+001  7.928874e+001 
3559375000  -4.170182e+001  8.323811e+001 
3562500000  -4.041058e+001  7.454121e+001 
3565625000  -4.144344e+001  6.798824e+001 
3568750000  -4.153264e+001  7.151933e+001 
3571875000  -4.123177e+001  7.062916e+001 
3575000000  -4.085521e+001  6.511757e+001 
3578125000  -4.121872e+001  6.130391e+001 
3581250000  -4.125992e+001  6.053252e+001 
3584375000  -4.036484e+001  6.118277e+001 
3587500000  -3.970711e+001  5.424538e+001 
3590625000  -4.029269e+001  4.641379e+001 
3593750000  -4.120635e+001  4.656518e+001 
3596875000  -4.120604e+001  5.390597e+001 
3600000000  -3.968576e+001  5.060910e+001 
3603125000  -3.986565e+001  3.806321e+001 
3606250000  -4.072117e+001  3.354671e+001 
3609375000  -4.084751e+001  3.457126e+001 
3612500000  -4.140878e+001  3.279277e+001 
3615625000  -4.150015e+001  2.887022e+001 
3618750000  -4.211913e+001  3.100240e+001 
3621875000  -4.171299e+001  3.250364e+001 
3625000000  -4.208934e+001  3.198222e+001 
3628125000  -4.192781e+001  3.283927e+001 
3631250000  -4.146250e+001  2.827668e+001 
3634375000  -4.247990e+001  3.010680e+001 
3637500000  -4.192854e+001  3.317549e+001 
3640625000  -4.085765e+001  3.558298e+001 
3643750000  -4.045459e+001  3.102143e+001 
3646875000  -4.109707e+001  2.385542e+001 
3650000000  -4.157602e+001  2.375646e+001 
3653125000  -4.103574e+001  2.359675e+001 
3656250000  -4.158408e+001  2.090709e+001 
3659375000  -4.192716e+001  2.550734e+001 
3662500000  -4.101579e+001  2.612158e+001 
3665625000  -4.103917e+001  2.389688e+001 
3668750000  -4.026415e+001  2.706470e+001 
3671875000  -3.892617e+001  2.147895e+001 
3675000000  -3.978381e+001  1.489567e+001 
3678125000  -4.037843e+001  1.679293e+001 
3681250000  -3.957001e+001  1.649875e+001 
3684375000  -3.947402e+001  1.598280e+001 
3687500000  -3.952135e+001  1.366315e+001 
3690625000  -3.961026e+001  1.058733e+001 
3693750000  -4.017688e+001  1.425134e+001 
3696875000  -3.998616e+001  1.662906e+001 
3700000000  -3.897632e+001  1.520643e+001 
3703125000  -3.869723e+001  1.291920e+001 
3706250000  -3.916467e+001  1.348326e+001 
3709375000  -3.870720e+001  1.719775e+001 
3712500000  -3.756007e+001  1.615034e+001 
3715625000  -3.648045e+001  1.074260e+001 
3718750000  -3.581618e+001  7.546059e+000 
3721875000  -3.528411e+001  2.171563e+000 
3725000000  -3.524844e+001  -2.216419e+000 
3728125000  -3.546906e+001  -2.899442e+000 
3731250000  -3.469876e+001  -2.938011e+000 
3734375000  -3.372805e+001  -9.672577e+000 
3737500000  -3.427372e+001  -1.655755e+001 
3740625000  -3.495343e+001  -1.942596e+001 
3743750000  -3.468108e+001  -2.111376e+001 
3746875000  -3.462515e+001  -2.458897e+001 
3750000000  -3.501849e+001  -2.494116e+001 
3753125000  -3.453079e+001  -2.648981e+001 
3756250000  -3.442281e+001  -2.647576e+001 
3759375000  -3.432159e+001  -2.799650e+001 
3762500000  -3.375498e+001  -3.111036e+001 
3765625000  -3.416302e+001  -3.416090e+001 
3768750000  -3.427793e+001  -3.147014e+001 
3771875000  -3.249679e+001  -3.442916e+001 
3775000000  -3.220673e+001  -4.215446e+001 
3778125000  -3.250273e+001  -4.394522e+001 
3781250000  -3.224049e+001  -4.698507e+001 
3784375000  -3.228199e+001  -4.876333e+001 
3787500000  -3.160053e+001  -5.200782e+001 
3790625000  -3.221018e+001  -5.864767e+001 
3793750000  -3.224596e+001  -5.845430e+001 
3796875000  -3.144588e+001  -6.061430e+001 
3800000000  -2.992991e+001  -6.386120e+001 
3803125000  -3.057567e+001  -7.108871e+001 
3806250000  -3.129911e+001  -7.282558e+001 
3809375000  -3.106807e+001  -7.475124e+001 
3812500000  -3.038488e+001  -7.943288e+001 
3815625000  -3.089194e+001  -8.697560e+001 
3818750000  -3.181056e+001  -8.807401e+001 
3821875000  -3.197190e+001  -8.051060e+001 
3825000000  -3.005477e+001  -7.572480e+001 
3828125000  -2.876348e+001  -8.907229e+001 
3831250000  -2.922770e+001  -1.031058e+002 
3834375000  -3.064563e+001  -1.038496e+002 
3837500000  -3.147988e+001  -9.868184e+001 
3840625000  -3.048353e+001  -9.924529e+001 
3843750000  -2.928752e+001  -1.097338e+002 
3846875000  -2.993974e+001  -1.167469e+002 
3850000000  -3.126735e+001  -1.114786e+002 
3853125000  -3.048664e+001  -1.092836e+002 
3856250000  -3.042696e+001  -1.141404e+002 
3859375000  -2.974288e+001  -1.179401e+002 
3862500000  -2.932925e+001  -1.255151e+002 
3865625000  -2.956772e+001  -1.302780e+002 
3868750000  -2.951852e+001  -1.302224e+002 
3871875000  -2.892559e+001  -1.329194e+002 
3875000000  -2.901614e+001  -1.417098e+002 
3878125000  -2.995605e+001  -1.444360e+002 
3881250000  -3.008117e+001  -1.407665e+002 
3884375000  -2.957884e+001  -1.454122e+002 
3887500000  -2.971294e+001  -1.493115e+002 
3890625000  -3.019028e+001  -1.520061e+002 
3893750000  -3.054008e+001  -1.533083e+002 
3896875000  -3.072800e+001  -1.528936e+002 
3900000000  -3.087224e+001  -1.528968e+002 
3903125000  -3.062285e+001  -1.552735e+002 
3906250000  -3.031007e+001  -1.568363e+002 
3909375000  -2.957944e+001  -1.585173e+002 
3912500000  -2.957146e+001  -1.667775e+002 
3915625000  -3.088730e+001  -1.658953e+002 
3918750000  -3.087456e+001  -1.638736e+002 
3921875000  -3.045088e+001  -1.659578e+002 
3925000000  -2.973561e+001  -1.667282e+002 
3928125000  -2.898786e+001  -1.720948e+002 
3931250000  -2.941960e+001  -1.762798e+002 
3934375000  -2.960022e+001  -1.767989e+002 
3937500000  -2.981797e+001  -1.771561e+002 
3940625000  -3.030770e+001  -1.764959e+002 
3943750000  -2.933503e+001  -1.757941e+002 
3946875000  -2.811892e+001  1.787965e+002 
3950000000  -2.852578e+001  1.711882e+002 
3953125000  -2.962109e+001  1.713290e+002 
3956250000  -2.868612e+001  1.744416e+002 
3959375000  -2.740741e+001  1.714036e+002 
3962500000  -2.689508e+001  1.678534e+002 
3965625000  -2.655442e+001  1.589552e+002 
3968750000  -2.748478e+001  1.520616e+002 
3971875000  -2.785670e+001  1.507954e+002 
3975000000  -2.727928e+001  1.488439e+002 
3978125000  -2.702649e+001  1.474134e+002 
3981250000  -2.682245e+001  1.432226e+002 
3984375000  -2.707938e+001  1.371336e+002 
3987500000  -2.763548e+001  1.346017e+002 
3990625000  -2.761414e+001  1.341621e+002 
3993750000  -2.786453e+001  1.307587e+002 
3996875000  -2.770477e+001  1.282924e+002 
4000000000  -2.783844e+001  1.267575e+002 
4003125000  -2.845329e+001  1.289090e+002 
4006250000  -2.705707e+001  1.295372e+002 
4009375000  -2.578969e+001  1.168418e+002 
4012500000  -2.683357e+001  1.102658e+002 
4015625000  -2.808247e+001  1.103443e+002 
4018750000  -2.826482e+001  1.129065e+002 
4021875000  -2.762916e+001  1.117285e+002 
4025000000  -2.724721e+001  1.065240e+002 
4028125000  -2.717191e+001  1.027399e+002 
4031250000  -2.756140e+001  9.909097e+001 
4034375000  -2.785049e+001  9.962408e+001 
4037500000  -2.735947e+001  1.016635e+002 
4040625000  -2.718424e+001  9.765874e+001 
4043750000  -2.760414e+001  9.756787e+001 
4046875000  -2.712796e+001  9.657343e+001 
4050000000  -2.663682e+001  9.116252e+001 
4053125000  -2.709701e+001  8.869608e+001 
4056250000  -2.768947e+001  9.260023e+001 
4059375000  -2.650466e+001  9.462260e+001 
4062500000  -2.506587e+001  8.984956e+001 
4065625000  -2.496034e+001  8.532628e+001 
4068750000  -2.473748e+001  8.107166e+001 
4071875000  -2.409752e+001  7.289310e+001 
4075000000  -2.444417e+001  6.664925e+001 
4078125000  -2.498328e+001  6.578787e+001 
4081250000  -2.448992e+001  6.329079e+001 
4084375000  -2.410195e+001  5.669896e+001 
4087500000  -2.443170e+001  5.032488e+001 
4090625000  -2.507713e+001  4.896545e+001 
4093750000  -2.491081e+001  5.002959e+001 
4096875000  -2.447292e+001  4.420723e+001 
4100000000  -2.518730e+001  3.698279e+001 
4103125000  -2.604466e+001  3.809900e+001 
4106250000  -2.589399e+001  4.262201e+001 
4109375000  -2.502210e+001  4.221802e+001 
4112500000  -2.447391e+001  3.601788e+001 
4115625000  -2.476194e+001  3.158017e+001 
4118750000  -2.493805e+001  2.868430e+001 
4121875000  -2.452819e+001  2.423685e+001 
4125000000  -2.490200e+001  1.907931e+001 
4128125000  -2.590352e+001  1.935242e+001 
4131250000  -2.563617e+001  2.726558e+001 
4134375000  -2.330000e+001  2.340672e+001 
4137500000  -2.300610e+001  4.522362e+000 
4140625000  -2.515635e+001  -2.718600e+000 
4143750000  -2.654658e+001  2.380183e+000 
4146875000  -2.613110e+001  9.895995e+000 
4150000000  -2.515162e+001  6.610166e+000 
4153125000  -2.499364e+001  1.638238e-001 
4156250000  -2.588133e+001  -2.811060e+000 
4159375000  -2.616649e+001  1.882721e+000 
4162500000  -2.494326e+001  6.151527e+000 
4165625000  -2.381459e+001  1.719620e+000 
4168750000  -2.319052e+001  -5.053019e+000 
4171875000  -2.317535e+001  -1.433602e+001 
4175000000  -2.371551e+001  -1.989361e+001 
4178125000  -2.439215e+001  -2.011849e+001 
4181250000  -2.425326e+001  -2.080273e+001 
4184375000  -2.409427e+001  -2.393945e+001 
4187500000  -2.413748e+001  -2.701903e+001 
4190625000  -2.392726e+001  -3.250396e+001 
4193750000  -2.469133e+001  -3.629244e+001 
4196875000  -2.541963e+001  -3.671095e+001 
4200000000  -2.632064e+001  -3.468126e+001 
4203125000  -2.640111e+001  -2.136913e+001 
4206250000  -2.296668e+001  -1.946518e+001 
4209375000  -2.180919e+001  -4.009239e+001 
4212500000  -2.374968e+001  -4.930991e+001 
4215625000  -2.473026e+001  -4.252460e+001 
4218750000  -2.340169e+001  -3.610132e+001 
4221875000  -2.112424e+001  -4.511674e+001 
4225000000  -2.233651e+001  -5.786561e+001 
4228125000  -2.307339e+001  -5.270040e+001 
4231250000  -2.148446e+001  -5.655461e+001 
4234375000  -2.146132e+001  -6.473703e+001 
4237500000  -2.106178e+001  -6.794048e+001 
4240625000  -2.102803e+001  -7.648969e+001 
4243750000  -2.202433e+001  -8.312756e+001 
4246875000  -2.290815e+001  -8.333774e+001 
4250000000  -2.293784e+001  -8.054002e+001 
4253125000  -2.235549e+001  -8.208578e+001 
4256250000  -2.264152e+001  -8.611796e+001 
4259375000  -2.237295e+001  -8.816773e+001 
4262500000  -2.241776e+001  -9.176192e+001 
4265625000  -2.255201e+001  -9.134491e+001 
4268750000  -2.170140e+001  -9.536057e+001 
4271875000  -2.142617e+001  -1.009835e+002 
4275000000  -2.081324e+001  -1.074578e+002 
4278125000  -2.140396e+001  -1.185003e+002 
4281250000  -2.315433e+001  -1.204424e+002 
4284375000  -2.286489e+001  -1.199256e+002 
4287500000  -2.362147e+001  -1.230607e+002 
4290625000  -2.491298e+001  -1.139586e+002 
4293750000  -2.287669e+001  -1.083537e+002 
4296875000  -2.157083e+001  -1.197620e+002 
4300000000  -2.236825e+001  -1.292460e+002 
4303125000  -2.355209e+001  -1.280677e+002 
4306250000  -2.284701e+001  -1.219572e+002 
4309375000  -2.147094e+001  -1.239067e+002 
4312500000  -2.135517e+001  -1.324490e+002 
4315625000  -2.160078e+001  -1.387243e+002 
4318750000  -2.189442e+001  -1.422772e+002 
4321875000  -2.207676e+001  -1.417789e+002 
4325000000  -2.151893e+001  -1.411916e+002 
4328125000  -2.102734e+001  -1.476710e+002 
4331250000  -2.093306e+001  -1.558238e+002 
4334375000  -2.137280e+001  -1.606920e+002 
4337500000  -2.221170e+001  -1.630181e+002 
4340625000  -2.276334e+001  -1.598181e+002 
4343750000  -2.218862e+001  -1.592187e+002 
4346875000  -2.183750e+001  -1.648447e+002 
4350000000  -2.182384e+001  -1.694827e+002 
4353125000  -2.187036e+001  -1.773581e+002 
4356250000  -2.365227e+001  -1.783221e+002 
4359375000  -2.429729e+001  -1.650553e+002 
4362500000  -2.160331e+001  -1.629221e+002 
4365625000  -1.994523e+001  -1.746764e+002 
4368750000  -2.070044e+001  1.732704e+002 
4371875000  -2.190463e+001  1.738968e+002 
4375000000  -2.158241e+001  1.752035e+002 
4378125000  -2.094384e+001  1.693717e+002 
4381250000  -2.108396e+001  1.640191e+002 
4384375000  -2.091412e+001  1.596621e+002 
4387500000  -2.165487e+001  1.539250e+002 
4390625000  -2.267863e+001  1.548347e+002 
4393750000  -2.201794e+001  1.568818e+002 
4396875000  -2.134540e+001  1.545698e+002 
4400000000  -2.080392e+001  1.481490e+002 
4403125000  -2.135767e+001  1.401525e+002 
4406250000  -2.224164e+001  1.391080e+002 
4409375000  -2.216803e+001  1.369062e+002 
4412500000  -2.319659e+001  1.341651e+002 
4415625000  -2.358659e+001  1.388994e+002 
4418750000  -2.241117e+001  1.436488e+002 
