!Agilent Technologies,E8363B,MY43030201,A.06.04.32
!Agilent E8363B: A.06.04.32
!Date: Tuesday, November 11, 2014 20:45:36
!Correction: S21(Response(S21)) 
!S1P File: Measurement: S21:
# Hz S  dB   R 50
3000000000  -2.650172e+001  1.587133e+002 
3003125000  -2.787459e+001  1.542455e+002 
3006250000  -2.795979e+001  1.513396e+002 
3009375000  -2.826476e+001  1.565311e+002 
3012500000  -2.780629e+001  1.563547e+002 
3015625000  -2.679006e+001  1.490881e+002 
3018750000  -2.767099e+001  1.485310e+002 
3021875000  -2.647542e+001  1.494567e+002 
3025000000  -2.514542e+001  1.465223e+002 
3028125000  -2.414545e+001  1.418774e+002 
3031250000  -2.314488e+001  1.307255e+002 
3034375000  -2.275692e+001  1.175709e+002 
3037500000  -2.308688e+001  1.057673e+002 
3040625000  -2.439476e+001  1.009146e+002 
3043750000  -2.511996e+001  9.633366e+001 
3046875000  -2.519071e+001  8.998836e+001 
3050000000  -2.693204e+001  8.270621e+001 
3053125000  -2.712964e+001  8.936421e+001 
3056250000  -2.646690e+001  9.225197e+001 
3059375000  -2.672727e+001  9.196870e+001 
3062500000  -2.521188e+001  8.804726e+001 
3065625000  -2.500208e+001  8.285519e+001 
3068750000  -2.471531e+001  7.556405e+001 
3071875000  -2.466602e+001  7.256772e+001 
3075000000  -2.465037e+001  6.909847e+001 
3078125000  -2.435699e+001  6.454017e+001 
3081250000  -2.500352e+001  6.045704e+001 
3084375000  -2.427479e+001  5.661837e+001 
3087500000  -2.413713e+001  5.316199e+001 
3090625000  -2.386098e+001  4.370306e+001 
3093750000  -2.418647e+001  3.564044e+001 
3096875000  -2.553548e+001  2.911229e+001 
3100000000  -2.568551e+001  2.789079e+001 
3103125000  -2.603520e+001  2.921868e+001 
3106250000  -2.575795e+001  2.569409e+001 
3109375000  -2.601893e+001  2.233880e+001 
3112500000  -2.615130e+001  2.124240e+001 
3115625000  -2.593387e+001  1.731270e+001 
3118750000  -2.645840e+001  1.820004e+001 
3121875000  -2.577017e+001  1.033716e+001 
3125000000  -2.684595e+001  6.653416e+000 
3128125000  -2.813554e+001  1.438825e+001 
3131250000  -2.602188e+001  1.542892e+001 
3134375000  -2.459958e+001  1.944241e+000 
3137500000  -2.526875e+001  -1.252157e+001 
3140625000  -2.695982e+001  -1.380301e+001 
3143750000  -2.790658e+001  -9.505571e+000 
3146875000  -2.754208e+001  -7.657340e+000 
3150000000  -2.654040e+001  -5.277949e+000 
3153125000  -2.642167e+001  -1.295652e+001 
3156250000  -2.742274e+001  -7.774484e+000 
3159375000  -2.596071e+001  -4.812203e+000 
3162500000  -2.391095e+001  -1.747058e+001 
3165625000  -2.477094e+001  -2.860563e+001 
3168750000  -2.525070e+001  -2.773542e+001 
3171875000  -2.426045e+001  -3.176694e+001 
3175000000  -2.491161e+001  -3.957860e+001 
3178125000  -2.470660e+001  -3.798843e+001 
3181250000  -2.348885e+001  -4.171087e+001 
3184375000  -2.267699e+001  -5.414610e+001 
3187500000  -2.375728e+001  -6.977377e+001 
3190625000  -2.660887e+001  -7.704202e+001 
3193750000  -2.722461e+001  -6.758782e+001 
3196875000  -2.675167e+001  -6.198341e+001 
3200000000  -2.595953e+001  -6.382065e+001 
3203125000  -2.504836e+001  -6.909933e+001 
3206250000  -2.530463e+001  -7.538174e+001 
3209375000  -2.485340e+001  -8.026120e+001 
3212500000  -2.489246e+001  -8.704152e+001 
3215625000  -2.504067e+001  -9.157804e+001 
3218750000  -2.585131e+001  -9.770505e+001 
3221875000  -2.685725e+001  -1.030471e+002 
3225000000  -2.649895e+001  -1.037298e+002 
3228125000  -2.673321e+001  -1.079183e+002 
3231250000  -2.750664e+001  -1.108204e+002 
3234375000  -2.743365e+001  -1.095365e+002 
3237500000  -2.740598e+001  -1.114699e+002 
3240625000  -2.706912e+001  -1.129714e+002 
3243750000  -2.672966e+001  -1.193293e+002 
3246875000  -2.719664e+001  -1.261018e+002 
3250000000  -2.759223e+001  -1.278976e+002 
3253125000  -2.776096e+001  -1.299425e+002 
3256250000  -2.770656e+001  -1.354258e+002 
3259375000  -2.797901e+001  -1.431809e+002 
3262500000  -2.922029e+001  -1.460977e+002 
3265625000  -2.994920e+001  -1.427454e+002 
3268750000  -2.988438e+001  -1.403393e+002 
3271875000  -2.976290e+001  -1.393109e+002 
3275000000  -2.860690e+001  -1.439111e+002 
3278125000  -2.902733e+001  -1.503407e+002 
3281250000  -2.931577e+001  -1.486629e+002 
3284375000  -2.893046e+001  -1.544903e+002 
3287500000  -2.910734e+001  -1.573755e+002 
3290625000  -2.952119e+001  -1.612401e+002 
3293750000  -2.917587e+001  -1.669867e+002 
3296875000  -3.014905e+001  -1.667995e+002 
3300000000  -3.012321e+001  -1.654930e+002 
3303125000  -2.893804e+001  -1.695057e+002 
3306250000  -2.872732e+001  -1.762172e+002 
3309375000  -2.850794e+001  1.790085e+002 
3312500000  -2.853741e+001  1.686567e+002 
3315625000  -2.945231e+001  1.607964e+002 
3318750000  -3.084648e+001  1.573300e+002 
3321875000  -3.196778e+001  1.579051e+002 
3325000000  -3.256337e+001  1.618102e+002 
3328125000  -3.248894e+001  1.639349e+002 
3331250000  -3.130368e+001  1.718694e+002 
3334375000  -2.874019e+001  1.625688e+002 
3337500000  -2.871442e+001  1.446735e+002 
3340625000  -3.007472e+001  1.328957e+002 
3343750000  -3.195158e+001  1.314268e+002 
3346875000  -3.267562e+001  1.335004e+002 
3350000000  -3.193338e+001  1.321116e+002 
3353125000  -3.198722e+001  1.275622e+002 
3356250000  -3.171998e+001  1.199017e+002 
3359375000  -3.258202e+001  1.116349e+002 
3362500000  -3.386299e+001  1.067139e+002 
3365625000  -3.448589e+001  1.047936e+002 
3368750000  -3.555648e+001  1.025025e+002 
3371875000  -3.584086e+001  9.932345e+001 
3375000000  -3.733224e+001  9.732247e+001 
3378125000  -3.858841e+001  9.678476e+001 
3381250000  -3.990359e+001  1.032510e+002 
3384375000  -3.918196e+001  1.246675e+002 
3387500000  -3.614374e+001  1.125144e+002 
3390625000  -3.781884e+001  9.425056e+001 
3393750000  -3.954799e+001  9.728006e+001 
3396875000  -3.881771e+001  1.005130e+002 
3400000000  -3.887862e+001  9.286063e+001 
3403125000  -3.976602e+001  8.738612e+001 
3406250000  -4.066795e+001  9.217079e+001 
3409375000  -4.151996e+001  8.577310e+001 
3412500000  -4.223371e+001  8.878986e+001 
3415625000  -4.283194e+001  9.288980e+001 
3418750000  -4.343135e+001  9.587997e+001 
3421875000  -4.367501e+001  1.034001e+002 
3425000000  -4.296767e+001  1.088387e+002 
3428125000  -4.195324e+001  1.061959e+002 
3431250000  -4.181189e+001  1.027707e+002 
3434375000  -4.153550e+001  1.007225e+002 
3437500000  -4.197188e+001  9.982789e+001 
3440625000  -4.261435e+001  1.012353e+002 
3443750000  -4.101477e+001  1.050813e+002 
3446875000  -4.028217e+001  9.924334e+001 
3450000000  -4.014581e+001  8.962173e+001 
3453125000  -4.044925e+001  8.130721e+001 
3456250000  -4.151748e+001  7.729027e+001 
3459375000  -4.244581e+001  7.825024e+001 
3462500000  -4.253756e+001  7.792354e+001 
3465625000  -4.304470e+001  7.547203e+001 
3468750000  -4.287222e+001  7.133295e+001 
3471875000  -4.321128e+001  7.254041e+001 
3475000000  -4.293034e+001  6.915762e+001 
3478125000  -4.382102e+001  6.434062e+001 
3481250000  -4.500648e+001  6.399741e+001 
3484375000  -4.659739e+001  6.954662e+001 
3487500000  -4.592856e+001  7.273830e+001 
3490625000  -4.559263e+001  6.901522e+001 
3493750000  -4.640895e+001  6.348426e+001 
3496875000  -4.763157e+001  6.835581e+001 
3500000000  -4.874820e+001  7.369342e+001 
3503125000  -4.837894e+001  8.160177e+001 
3506250000  -4.682654e+001  8.116708e+001 
3509375000  -4.763842e+001  7.907370e+001 
3512500000  -4.790139e+001  7.816985e+001 
3515625000  -4.777442e+001  7.970808e+001 
3518750000  -4.870744e+001  8.752525e+001 
3521875000  -4.822071e+001  9.291091e+001 
3525000000  -4.823385e+001  9.515265e+001 
3528125000  -4.761116e+001  1.043467e+002 
3531250000  -4.602579e+001  1.034824e+002 
3534375000  -4.520136e+001  9.548973e+001 
3537500000  -4.518178e+001  9.185083e+001 
3540625000  -4.576658e+001  9.144138e+001 
3543750000  -4.618692e+001  9.379836e+001 
3546875000  -4.556833e+001  1.058859e+002 
3550000000  -4.320014e+001  1.103607e+002 
3553125000  -4.166322e+001  9.215933e+001 
3556250000  -4.257495e+001  8.731532e+001 
3559375000  -4.227162e+001  8.945646e+001 
3562500000  -4.095820e+001  8.257961e+001 
3565625000  -4.192672e+001  7.575279e+001 
3568750000  -4.185585e+001  7.880003e+001 
3571875000  -4.170340e+001  8.026362e+001 
3575000000  -4.107544e+001  7.238907e+001 
3578125000  -4.149767e+001  7.056047e+001 
3581250000  -4.159789e+001  6.973029e+001 
3584375000  -4.100328e+001  6.942580e+001 
3587500000  -4.000072e+001  6.369599e+001 
3590625000  -4.031558e+001  5.638030e+001 
3593750000  -4.144909e+001  5.463347e+001 
3596875000  -4.139399e+001  6.337494e+001 
3600000000  -4.005019e+001  5.907555e+001 
3603125000  -4.012420e+001  4.686906e+001 
3606250000  -4.052377e+001  4.359863e+001 
3609375000  -4.106209e+001  4.198118e+001 
3612500000  -4.146926e+001  4.130267e+001 
3615625000  -4.145201e+001  3.830614e+001 
3618750000  -4.208257e+001  4.114066e+001 
3621875000  -4.157791e+001  4.015866e+001 
3625000000  -4.181917e+001  4.083153e+001 
3628125000  -4.180394e+001  4.206287e+001 
3631250000  -4.148938e+001  3.627186e+001 
3634375000  -4.258253e+001  3.514858e+001 
3637500000  -4.218661e+001  4.146997e+001 
3640625000  -4.093375e+001  4.197503e+001 
3643750000  -4.070045e+001  3.700263e+001 
3646875000  -4.100754e+001  3.119402e+001 
3650000000  -4.189217e+001  3.092896e+001 
3653125000  -4.179078e+001  2.967543e+001 
3656250000  -4.152452e+001  2.832321e+001 
3659375000  -4.166908e+001  3.276785e+001 
3662500000  -4.128269e+001  3.249484e+001 
3665625000  -4.127386e+001  3.274464e+001 
3668750000  -4.030318e+001  3.385556e+001 
3671875000  -3.933153e+001  2.884642e+001 
3675000000  -3.988675e+001  2.359492e+001 
3678125000  -4.057098e+001  2.397526e+001 
3681250000  -3.974257e+001  2.558983e+001 
3684375000  -3.975285e+001  2.392790e+001 
3687500000  -3.985982e+001  2.320081e+001 
3690625000  -3.997369e+001  1.960494e+001 
3693750000  -4.038622e+001  2.270713e+001 
3696875000  -4.017538e+001  2.670576e+001 
3700000000  -3.908154e+001  2.435377e+001 
3703125000  -3.879361e+001  2.044605e+001 
3706250000  -3.933158e+001  2.331617e+001 
3709375000  -3.870756e+001  2.552676e+001 
3712500000  -3.763663e+001  2.423394e+001 
3715625000  -3.634784e+001  2.016938e+001 
3718750000  -3.565424e+001  1.684467e+001 
3721875000  -3.530569e+001  1.107702e+001 
3725000000  -3.517164e+001  6.307767e+000 
3728125000  -3.536811e+001  6.311945e+000 
3731250000  -3.472964e+001  5.269763e+000 
3734375000  -3.354604e+001  -4.577632e-001 
3737500000  -3.421556e+001  -7.887109e+000 
3740625000  -3.483369e+001  -1.167320e+001 
3743750000  -3.457962e+001  -1.366298e+001 
3746875000  -3.457600e+001  -1.686898e+001 
3750000000  -3.491784e+001  -1.788203e+001 
3753125000  -3.446007e+001  -1.724299e+001 
3756250000  -3.436151e+001  -1.854439e+001 
3759375000  -3.420071e+001  -1.983592e+001 
3762500000  -3.363453e+001  -2.441927e+001 
3765625000  -3.408767e+001  -2.610464e+001 
3768750000  -3.428380e+001  -2.448442e+001 
3771875000  -3.249415e+001  -2.663410e+001 
3775000000  -3.219735e+001  -3.337090e+001 
3778125000  -3.248558e+001  -3.628651e+001 
3781250000  -3.231099e+001  -3.874595e+001 
3784375000  -3.224033e+001  -4.145549e+001 
3787500000  -3.159648e+001  -4.417408e+001 
3790625000  -3.214898e+001  -5.062299e+001 
3793750000  -3.239660e+001  -5.053166e+001 
3796875000  -3.148011e+001  -5.199620e+001 
3800000000  -3.001398e+001  -5.559991e+001 
3803125000  -3.068450e+001  -6.208350e+001 
3806250000  -3.132974e+001  -6.495398e+001 
3809375000  -3.116398e+001  -6.652155e+001 
3812500000  -3.035374e+001  -7.060662e+001 
3815625000  -3.093646e+001  -7.810456e+001 
3818750000  -3.191586e+001  -7.984572e+001 
3821875000  -3.200801e+001  -7.205909e+001 
3825000000  -3.029944e+001  -6.732113e+001 
3828125000  -2.883893e+001  -8.021677e+001 
3831250000  -2.934854e+001  -9.447372e+001 
3834375000  -3.058542e+001  -9.571190e+001 
3837500000  -3.146767e+001  -9.034438e+001 
3840625000  -3.045428e+001  -9.121614e+001 
3843750000  -2.930208e+001  -1.012487e+002 
3846875000  -2.993271e+001  -1.085192e+002 
3850000000  -3.116794e+001  -1.037702e+002 
3853125000  -3.046951e+001  -1.004336e+002 
3856250000  -3.036756e+001  -1.054926e+002 
3859375000  -2.973836e+001  -1.099077e+002 
3862500000  -2.926041e+001  -1.172019e+002 
3865625000  -2.950799e+001  -1.215018e+002 
3868750000  -2.957944e+001  -1.222247e+002 
3871875000  -2.886799e+001  -1.251738e+002 
3875000000  -2.884175e+001  -1.335913e+002 
3878125000  -2.991840e+001  -1.365009e+002 
3881250000  -3.006079e+001  -1.331579e+002 
3884375000  -2.958411e+001  -1.377058e+002 
3887500000  -2.971980e+001  -1.418869e+002 
3890625000  -3.012939e+001  -1.441588e+002 
3893750000  -3.055851e+001  -1.460801e+002 
3896875000  -3.070028e+001  -1.455165e+002 
3900000000  -3.089390e+001  -1.455807e+002 
3903125000  -3.061632e+001  -1.480887e+002 
3906250000  -3.030931e+001  -1.500865e+002 
3909375000  -2.968939e+001  -1.512712e+002 
3912500000  -2.963102e+001  -1.586220e+002 
3915625000  -3.076421e+001  -1.583026e+002 
3918750000  -3.079295e+001  -1.567227e+002 
3921875000  -3.059761e+001  -1.582402e+002 
3925000000  -2.983744e+001  -1.587410e+002 
3928125000  -2.912840e+001  -1.641332e+002 
3931250000  -2.938470e+001  -1.680946e+002 
3934375000  -2.977153e+001  -1.681714e+002 
3937500000  -2.984080e+001  -1.687254e+002 
3940625000  -3.031952e+001  -1.685291e+002 
3943750000  -2.950914e+001  -1.675114e+002 
3946875000  -2.820289e+001  -1.729043e+002 
3950000000  -2.864015e+001  1.798502e+002 
3953125000  -2.961471e+001  1.799913e+002 
3956250000  -2.881290e+001  -1.770162e+002 
3959375000  -2.751590e+001  -1.798995e+002 
3962500000  -2.697871e+001  1.764613e+002 
3965625000  -2.660012e+001  1.674026e+002 
3968750000  -2.749908e+001  1.603738e+002 
3971875000  -2.782248e+001  1.594185e+002 
3975000000  -2.722285e+001  1.575386e+002 
3978125000  -2.704923e+001  1.563845e+002 
3981250000  -2.673076e+001  1.520901e+002 
3984375000  -2.694786e+001  1.457199e+002 
3987500000  -2.744955e+001  1.433195e+002 
3990625000  -2.742798e+001  1.425813e+002 
3993750000  -2.762698e+001  1.389955e+002 
3996875000  -2.759165e+001  1.366788e+002 
4000000000  -2.769953e+001  1.348143e+002 
4003125000  -2.826445e+001  1.366519e+002 
4006250000  -2.694917e+001  1.370222e+002 
4009375000  -2.569159e+001  1.248065e+002 
4012500000  -2.667672e+001  1.174234e+002 
4015625000  -2.796460e+001  1.180472e+002 
4018750000  -2.813467e+001  1.203642e+002 
4021875000  -2.751015e+001  1.185830e+002 
4025000000  -2.720711e+001  1.138600e+002 
4028125000  -2.705867e+001  1.099650e+002 
4031250000  -2.760844e+001  1.066145e+002 
4034375000  -2.789676e+001  1.068176e+002 
4037500000  -2.740569e+001  1.085650e+002 
4040625000  -2.727776e+001  1.051911e+002 
4043750000  -2.763148e+001  1.046407e+002 
4046875000  -2.723862e+001  1.043245e+002 
4050000000  -2.671925e+001  9.867031e+001 
4053125000  -2.715882e+001  9.654974e+001 
4056250000  -2.779762e+001  1.003792e+002 
4059375000  -2.670290e+001  1.027316e+002 
4062500000  -2.521273e+001  9.822266e+001 
4065625000  -2.504200e+001  9.339003e+001 
4068750000  -2.483353e+001  8.914740e+001 
4071875000  -2.416008e+001  8.121375e+001 
4075000000  -2.449188e+001  7.500389e+001 
4078125000  -2.508297e+001  7.400716e+001 
4081250000  -2.460441e+001  7.198772e+001 
4084375000  -2.411642e+001  6.549493e+001 
4087500000  -2.445877e+001  5.915870e+001 
4090625000  -2.508284e+001  5.752193e+001 
4093750000  -2.494185e+001  5.855932e+001 
4096875000  -2.446297e+001  5.294861e+001 
4100000000  -2.512634e+001  4.583747e+001 
4103125000  -2.593724e+001  4.591313e+001 
4106250000  -2.590278e+001  5.110874e+001 
4109375000  -2.506061e+001  5.070626e+001 
4112500000  -2.445170e+001  4.390042e+001 
4115625000  -2.471286e+001  3.964690e+001 
4118750000  -2.490154e+001  3.670380e+001 
4121875000  -2.445847e+001  3.217154e+001 
4125000000  -2.475084e+001  2.738607e+001 
4128125000  -2.578807e+001  2.636823e+001 
4131250000  -2.555000e+001  3.480398e+001 
4134375000  -2.319365e+001  3.125739e+001 
4137500000  -2.292910e+001  1.224596e+001 
4140625000  -2.505099e+001  4.657020e+000 
4143750000  -2.646214e+001  9.173594e+000 
4146875000  -2.614954e+001  1.668573e+001 
4150000000  -2.521364e+001  1.397083e+001 
4153125000  -2.500473e+001  7.334834e+000 
4156250000  -2.584725e+001  4.840459e+000 
4159375000  -2.611350e+001  9.300939e+000 
4162500000  -2.508584e+001  1.327093e+001 
4165625000  -2.393601e+001  9.084949e+000 
4168750000  -2.329957e+001  2.255606e+000 
4171875000  -2.334072e+001  -6.806604e+000 
4175000000  -2.389001e+001  -1.254302e+001 
4178125000  -2.450860e+001  -1.310544e+001 
4181250000  -2.439553e+001  -1.361356e+001 
4184375000  -2.426133e+001  -1.632343e+001 
4187500000  -2.428781e+001  -1.878536e+001 
4190625000  -2.407208e+001  -2.428417e+001 
4193750000  -2.483213e+001  -2.804885e+001 
4196875000  -2.553484e+001  -2.866883e+001 
4200000000  -2.635779e+001  -2.667934e+001 
4203125000  -2.649488e+001  -1.387244e+001 
4206250000  -2.324425e+001  -1.125764e+001 
4209375000  -2.196007e+001  -3.140687e+001 
4212500000  -2.380207e+001  -4.037408e+001 
4215625000  -2.483284e+001  -3.446458e+001 
4218750000  -2.357957e+001  -2.779331e+001 
4221875000  -2.123965e+001  -3.659019e+001 
4225000000  -2.242877e+001  -4.952235e+001 
4228125000  -2.319289e+001  -4.432941e+001 
4231250000  -2.161391e+001  -4.785118e+001 
4234375000  -2.153197e+001  -5.606835e+001 
4237500000  -2.113570e+001  -5.938514e+001 
4240625000  -2.112008e+001  -6.774820e+001 
4243750000  -2.205301e+001  -7.438236e+001 
4246875000  -2.289511e+001  -7.472756e+001 
4250000000  -2.297686e+001  -7.181944e+001 
4253125000  -2.240756e+001  -7.395184e+001 
4256250000  -2.266006e+001  -7.820347e+001 
4259375000  -2.240964e+001  -8.017929e+001 
4262500000  -2.243325e+001  -8.376167e+001 
4265625000  -2.260798e+001  -8.344297e+001 
4268750000  -2.181174e+001  -8.743391e+001 
4271875000  -2.147768e+001  -9.304706e+001 
4275000000  -2.089964e+001  -9.941655e+001 
4278125000  -2.144933e+001  -1.107616e+002 
4281250000  -2.323208e+001  -1.128865e+002 
4284375000  -2.301417e+001  -1.121249e+002 
4287500000  -2.373783e+001  -1.155723e+002 
4290625000  -2.502625e+001  -1.068791e+002 
4293750000  -2.310685e+001  -1.003052e+002 
4296875000  -2.169043e+001  -1.120435e+002 
4300000000  -2.250458e+001  -1.211034e+002 
4303125000  -2.365241e+001  -1.202864e+002 
4306250000  -2.317855e+001  -1.143314e+002 
4309375000  -2.170979e+001  -1.159534e+002 
4312500000  -2.161711e+001  -1.243668e+002 
4315625000  -2.182295e+001  -1.301682e+002 
4318750000  -2.210367e+001  -1.336337e+002 
4321875000  -2.228587e+001  -1.332231e+002 
4325000000  -2.173625e+001  -1.321434e+002 
4328125000  -2.126645e+001  -1.386209e+002 
4331250000  -2.119096e+001  -1.465185e+002 
4334375000  -2.159239e+001  -1.513869e+002 
4337500000  -2.236514e+001  -1.538011e+002 
4340625000  -2.296447e+001  -1.509241e+002 
4343750000  -2.240661e+001  -1.503713e+002 
4346875000  -2.200075e+001  -1.555818e+002 
4350000000  -2.200176e+001  -1.600492e+002 
4353125000  -2.198342e+001  -1.679711e+002 
4356250000  -2.368660e+001  -1.689199e+002 
4359375000  -2.439135e+001  -1.565104e+002 
4362500000  -2.191449e+001  -1.540332e+002 
4365625000  -2.013631e+001  -1.650672e+002 
4368750000  -2.080121e+001  -1.772925e+002 
4371875000  -2.200437e+001  -1.768138e+002 
4375000000  -2.174194e+001  -1.755647e+002 
4378125000  -2.106242e+001  1.788018e+002 
4381250000  -2.123532e+001  1.731113e+002 
4384375000  -2.102080e+001  1.689105e+002 
4387500000  -2.172223e+001  1.629901e+002 
4390625000  -2.272609e+001  1.636147e+002 
4393750000  -2.209840e+001  1.658439e+002 
4396875000  -2.142392e+001  1.636794e+002 
4400000000  -2.096272e+001  1.568576e+002 
4403125000  -2.141853e+001  1.492911e+002 
4406250000  -2.234975e+001  1.478740e+002 
4409375000  -2.227293e+001  1.455921e+002 
4412500000  -2.329397e+001  1.428137e+002 
4415625000  -2.370905e+001  1.475678e+002 
4418750000  -2.257600e+001  1.519699e+002 
