!Agilent Technologies,E8363B,MY43030201,A.06.04.32
!Agilent E8363B: A.06.04.32
!Date: Tuesday, November 11, 2014 20:53:09
!Correction: S21(Response(S21)) 
!S1P File: Measurement: S21:
# Hz S  dB   R 50
3000000000  -2.658547e+001  1.505261e+002 
3003125000  -2.795707e+001  1.460239e+002 
3006250000  -2.800454e+001  1.434872e+002 
3009375000  -2.837125e+001  1.480629e+002 
3012500000  -2.786717e+001  1.477489e+002 
3015625000  -2.690831e+001  1.406935e+002 
3018750000  -2.773092e+001  1.398787e+002 
3021875000  -2.648218e+001  1.410003e+002 
3025000000  -2.519806e+001  1.378582e+002 
3028125000  -2.423742e+001  1.330432e+002 
3031250000  -2.319463e+001  1.216620e+002 
3034375000  -2.283605e+001  1.088576e+002 
3037500000  -2.317829e+001  9.670210e+001 
3040625000  -2.451929e+001  9.157130e+001 
3043750000  -2.521314e+001  8.742208e+001 
3046875000  -2.533418e+001  8.094174e+001 
3050000000  -2.704785e+001  7.427060e+001 
3053125000  -2.715613e+001  8.063760e+001 
3056250000  -2.654151e+001  8.339284e+001 
3059375000  -2.678095e+001  8.321393e+001 
3062500000  -2.530403e+001  7.907479e+001 
3065625000  -2.506753e+001  7.366917e+001 
3068750000  -2.477866e+001  6.658897e+001 
3071875000  -2.476282e+001  6.346227e+001 
3075000000  -2.471250e+001  5.986356e+001 
3078125000  -2.443893e+001  5.539418e+001 
3081250000  -2.511336e+001  5.106279e+001 
3084375000  -2.433869e+001  4.739996e+001 
3087500000  -2.423158e+001  4.397710e+001 
3090625000  -2.392740e+001  3.420992e+001 
3093750000  -2.439070e+001  2.632339e+001 
3096875000  -2.568777e+001  2.033678e+001 
3100000000  -2.579614e+001  1.904831e+001 
3103125000  -2.617801e+001  2.033100e+001 
3106250000  -2.590195e+001  1.674749e+001 
3109375000  -2.612918e+001  1.325495e+001 
3112500000  -2.624563e+001  1.215283e+001 
3115625000  -2.609642e+001  8.053946e+000 
3118750000  -2.657764e+001  9.530745e+000 
3121875000  -2.590018e+001  1.347896e+000 
3125000000  -2.710818e+001  -1.904616e+000 
3128125000  -2.827982e+001  6.098918e+000 
3131250000  -2.612922e+001  6.740089e+000 
3134375000  -2.472233e+001  -6.592281e+000 
3137500000  -2.540144e+001  -2.065632e+001 
3140625000  -2.698164e+001  -2.240762e+001 
3143750000  -2.803780e+001  -1.834149e+001 
3146875000  -2.762649e+001  -1.633443e+001 
3150000000  -2.659798e+001  -1.411466e+001 
3153125000  -2.655864e+001  -2.170287e+001 
3156250000  -2.755502e+001  -1.607956e+001 
3159375000  -2.594324e+001  -1.313899e+001 
3162500000  -2.394831e+001  -2.644316e+001 
3165625000  -2.486648e+001  -3.714462e+001 
3168750000  -2.523835e+001  -3.640921e+001 
3171875000  -2.432913e+001  -4.058649e+001 
3175000000  -2.494697e+001  -4.858232e+001 
3178125000  -2.471479e+001  -4.689790e+001 
3181250000  -2.355511e+001  -5.088358e+001 
3184375000  -2.274305e+001  -6.310590e+001 
3187500000  -2.391665e+001  -7.830830e+001 
3190625000  -2.670256e+001  -8.548789e+001 
3193750000  -2.725832e+001  -7.613312e+001 
3196875000  -2.686275e+001  -7.079596e+001 
3200000000  -2.598665e+001  -7.277377e+001 
3203125000  -2.512048e+001  -7.849158e+001 
3206250000  -2.543028e+001  -8.448888e+001 
3209375000  -2.491234e+001  -8.986659e+001 
3212500000  -2.510164e+001  -9.629535e+001 
3215625000  -2.519308e+001  -1.003258e+002 
3218750000  -2.594826e+001  -1.069119e+002 
3221875000  -2.691164e+001  -1.117780e+002 
3225000000  -2.654650e+001  -1.123261e+002 
3228125000  -2.688518e+001  -1.169766e+002 
3231250000  -2.763189e+001  -1.195946e+002 
3234375000  -2.742047e+001  -1.183804e+002 
3237500000  -2.751056e+001  -1.203587e+002 
3240625000  -2.716636e+001  -1.218683e+002 
3243750000  -2.679496e+001  -1.284440e+002 
3246875000  -2.730588e+001  -1.350950e+002 
3250000000  -2.772661e+001  -1.370497e+002 
3253125000  -2.793018e+001  -1.389070e+002 
3256250000  -2.773853e+001  -1.444711e+002 
3259375000  -2.808875e+001  -1.521396e+002 
3262500000  -2.934558e+001  -1.550900e+002 
3265625000  -3.002559e+001  -1.514937e+002 
3268750000  -2.998730e+001  -1.492661e+002 
3271875000  -2.972201e+001  -1.480926e+002 
3275000000  -2.870485e+001  -1.530492e+002 
3278125000  -2.913742e+001  -1.591290e+002 
3281250000  -2.938544e+001  -1.573789e+002 
3284375000  -2.904644e+001  -1.631504e+002 
3287500000  -2.913842e+001  -1.654596e+002 
3290625000  -2.957682e+001  -1.704069e+002 
3293750000  -2.929019e+001  -1.759592e+002 
3296875000  -3.024719e+001  -1.757206e+002 
3300000000  -3.011616e+001  -1.749113e+002 
3303125000  -2.897667e+001  -1.785691e+002 
3306250000  -2.876150e+001  1.750288e+002 
3309375000  -2.851468e+001  1.695566e+002 
3312500000  -2.858312e+001  1.591627e+002 
3315625000  -2.960163e+001  1.514024e+002 
3318750000  -3.090337e+001  1.490217e+002 
3321875000  -3.220020e+001  1.493963e+002 
3325000000  -3.268482e+001  1.535453e+002 
3328125000  -3.257517e+001  1.554113e+002 
3331250000  -3.124366e+001  1.626814e+002 
3334375000  -2.878120e+001  1.531037e+002 
3337500000  -2.887521e+001  1.343389e+002 
3340625000  -3.014250e+001  1.234795e+002 
3343750000  -3.219151e+001  1.226541e+002 
3346875000  -3.261745e+001  1.239583e+002 
3350000000  -3.205859e+001  1.231922e+002 
3353125000  -3.206768e+001  1.184951e+002 
3356250000  -3.181691e+001  1.102629e+002 
3359375000  -3.272916e+001  1.020830e+002 
3362500000  -3.396132e+001  9.661053e+001 
3365625000  -3.463402e+001  9.522821e+001 
3368750000  -3.573594e+001  9.367771e+001 
3371875000  -3.596777e+001  9.011466e+001 
3375000000  -3.763109e+001  8.860180e+001 
3378125000  -3.870133e+001  8.684955e+001 
3381250000  -4.030093e+001  9.567060e+001 
3384375000  -3.954458e+001  1.164564e+002 
3387500000  -3.625392e+001  1.023886e+002 
3390625000  -3.799524e+001  8.445692e+001 
3393750000  -3.989591e+001  8.697969e+001 
3396875000  -3.909357e+001  9.161304e+001 
3400000000  -3.909847e+001  8.431807e+001 
3403125000  -4.014945e+001  7.924120e+001 
3406250000  -4.077059e+001  8.279495e+001 
3409375000  -4.163374e+001  7.740483e+001 
3412500000  -4.238956e+001  8.023369e+001 
3415625000  -4.325844e+001  8.512877e+001 
3418750000  -4.361775e+001  8.890539e+001 
3421875000  -4.386314e+001  9.574813e+001 
3425000000  -4.313994e+001  9.849828e+001 
3428125000  -4.201196e+001  1.000480e+002 
3431250000  -4.198671e+001  9.499719e+001 
3434375000  -4.170185e+001  9.183545e+001 
3437500000  -4.223079e+001  8.953206e+001 
3440625000  -4.252586e+001  9.274258e+001 
3443750000  -4.116187e+001  9.540543e+001 
3446875000  -4.047403e+001  9.054757e+001 
3450000000  -4.014204e+001  8.133601e+001 
3453125000  -4.044365e+001  7.187553e+001 
3456250000  -4.186768e+001  6.670667e+001 
3459375000  -4.273189e+001  7.069990e+001 
3462500000  -4.290889e+001  7.146848e+001 
3465625000  -4.270658e+001  6.496875e+001 
3468750000  -4.323431e+001  6.458427e+001 
3471875000  -4.362304e+001  6.475561e+001 
3475000000  -4.310002e+001  5.970544e+001 
3478125000  -4.378939e+001  5.525026e+001 
3481250000  -4.503864e+001  5.355541e+001 
3484375000  -4.676576e+001  6.009246e+001 
3487500000  -4.643826e+001  6.133868e+001 
3490625000  -4.577892e+001  5.919825e+001 
3493750000  -4.636805e+001  5.659200e+001 
3496875000  -4.784488e+001  6.086607e+001 
3500000000  -4.918390e+001  6.779323e+001 
3503125000  -4.880042e+001  7.336240e+001 
3506250000  -4.735294e+001  7.442812e+001 
3509375000  -4.819572e+001  7.648721e+001 
3512500000  -4.809110e+001  7.358041e+001 
3515625000  -4.856298e+001  7.680373e+001 
3518750000  -4.941277e+001  8.408600e+001 
3521875000  -4.827412e+001  8.745309e+001 
3525000000  -4.769768e+001  8.773077e+001 
3528125000  -4.747898e+001  9.911277e+001 
3531250000  -4.572016e+001  1.003055e+002 
3534375000  -4.497066e+001  9.075897e+001 
3537500000  -4.469309e+001  8.411134e+001 
3540625000  -4.564150e+001  8.519725e+001 
3543750000  -4.587619e+001  9.200739e+001 
3546875000  -4.506405e+001  1.009312e+002 
3550000000  -4.280457e+001  1.039888e+002 
3553125000  -4.120510e+001  8.657814e+001 
3556250000  -4.220404e+001  8.008817e+001 
3559375000  -4.188730e+001  8.199758e+001 
3562500000  -4.033634e+001  7.427280e+001 
3565625000  -4.172000e+001  6.672386e+001 
3568750000  -4.169178e+001  7.084399e+001 
3571875000  -4.131026e+001  7.094144e+001 
3575000000  -4.076190e+001  6.678481e+001 
3578125000  -4.121750e+001  6.299445e+001 
3581250000  -4.153374e+001  6.326656e+001 
3584375000  -4.084554e+001  6.123116e+001 
3587500000  -3.981395e+001  5.556170e+001 
3590625000  -4.021946e+001  4.575278e+001 
3593750000  -4.104679e+001  4.333834e+001 
3596875000  -4.126528e+001  5.204757e+001 
3600000000  -3.948660e+001  4.974894e+001 
3603125000  -3.974230e+001  3.716541e+001 
3606250000  -4.042317e+001  3.427370e+001 
3609375000  -4.097332e+001  3.372785e+001 
3612500000  -4.128537e+001  3.102640e+001 
3615625000  -4.131744e+001  3.052941e+001 
3618750000  -4.186412e+001  3.207643e+001 
3621875000  -4.154399e+001  3.127160e+001 
3625000000  -4.191134e+001  3.029464e+001 
3628125000  -4.188509e+001  3.155153e+001 
3631250000  -4.161100e+001  2.648173e+001 
3634375000  -4.235765e+001  2.760652e+001 
3637500000  -4.186572e+001  3.364415e+001 
3640625000  -4.104154e+001  3.524828e+001 
3643750000  -4.068072e+001  2.787636e+001 
3646875000  -4.114318e+001  2.282437e+001 
3650000000  -4.153000e+001  2.280637e+001 
3653125000  -4.137702e+001  2.224124e+001 
3656250000  -4.152188e+001  2.202149e+001 
3659375000  -4.179441e+001  2.394882e+001 
3662500000  -4.092963e+001  2.213634e+001 
3665625000  -4.097912e+001  2.283871e+001 
3668750000  -4.012653e+001  2.632762e+001 
3671875000  -3.897055e+001  2.029654e+001 
3675000000  -3.944328e+001  1.351667e+001 
3678125000  -4.002265e+001  1.589498e+001 
3681250000  -3.951641e+001  1.615146e+001 
3684375000  -3.931802e+001  1.497645e+001 
3687500000  -3.961503e+001  1.239248e+001 
3690625000  -3.967474e+001  1.044257e+001 
3693750000  -3.997958e+001  1.309341e+001 
3696875000  -3.989479e+001  1.508058e+001 
3700000000  -3.872932e+001  1.410566e+001 
3703125000  -3.848306e+001  9.616148e+000 
3706250000  -3.924004e+001  1.134265e+001 
3709375000  -3.850493e+001  1.488079e+001 
3712500000  -3.754257e+001  1.452359e+001 
3715625000  -3.642678e+001  9.320928e+000 
3718750000  -3.563483e+001  6.543629e+000 
3721875000  -3.520114e+001  8.850921e-001 
3725000000  -3.516098e+001  -3.887466e+000 
3728125000  -3.532715e+001  -4.174116e+000 
3731250000  -3.478807e+001  -4.655565e+000 
3734375000  -3.366472e+001  -1.089118e+001 
3737500000  -3.432993e+001  -1.733439e+001 
3740625000  -3.486237e+001  -2.047566e+001 
3743750000  -3.447738e+001  -2.320469e+001 
3746875000  -3.451712e+001  -2.613627e+001 
3750000000  -3.498270e+001  -2.657637e+001 
3753125000  -3.446632e+001  -2.743640e+001 
3756250000  -3.440726e+001  -2.783264e+001 
3759375000  -3.416626e+001  -2.829720e+001 
3762500000  -3.368107e+001  -3.267913e+001 
3765625000  -3.428889e+001  -3.504507e+001 
3768750000  -3.416818e+001  -3.353247e+001 
3771875000  -3.240863e+001  -3.443190e+001 
3775000000  -3.218821e+001  -4.300729e+001 
3778125000  -3.259222e+001  -4.491140e+001 
3781250000  -3.233975e+001  -4.791022e+001 
3784375000  -3.222967e+001  -4.995886e+001 
3787500000  -3.162211e+001  -5.337539e+001 
3790625000  -3.218194e+001  -5.915172e+001 
3793750000  -3.239101e+001  -5.911092e+001 
3796875000  -3.135505e+001  -6.051909e+001 
3800000000  -2.984656e+001  -6.403295e+001 
3803125000  -3.054594e+001  -7.163098e+001 
3806250000  -3.121047e+001  -7.373834e+001 
3809375000  -3.100993e+001  -7.504494e+001 
3812500000  -3.039374e+001  -7.982042e+001 
3815625000  -3.094736e+001  -8.747495e+001 
3818750000  -3.197137e+001  -8.849482e+001 
3821875000  -3.201311e+001  -8.052690e+001 
3825000000  -3.003714e+001  -7.545170e+001 
3828125000  -2.865589e+001  -8.962157e+001 
3831250000  -2.919370e+001  -1.035678e+002 
3834375000  -3.063769e+001  -1.053208e+002 
3837500000  -3.152311e+001  -1.002766e+002 
3840625000  -3.030570e+001  -1.007354e+002 
3843750000  -2.921044e+001  -1.106763e+002 
3846875000  -2.997045e+001  -1.177285e+002 
3850000000  -3.116166e+001  -1.127182e+002 
3853125000  -3.035774e+001  -1.096881e+002 
3856250000  -3.033276e+001  -1.147393e+002 
3859375000  -2.965723e+001  -1.185792e+002 
3862500000  -2.928102e+001  -1.253663e+002 
3865625000  -2.945521e+001  -1.302882e+002 
3868750000  -2.949579e+001  -1.303780e+002 
3871875000  -2.873144e+001  -1.331622e+002 
3875000000  -2.895566e+001  -1.418898e+002 
3878125000  -2.989287e+001  -1.445587e+002 
3881250000  -2.990081e+001  -1.407581e+002 
3884375000  -2.935908e+001  -1.459632e+002 
3887500000  -2.953557e+001  -1.501682e+002 
3890625000  -3.001282e+001  -1.520290e+002 
3893750000  -3.047583e+001  -1.537259e+002 
3896875000  -3.050643e+001  -1.528133e+002 
3900000000  -3.071370e+001  -1.529258e+002 
3903125000  -3.038696e+001  -1.562384e+002 
3906250000  -3.020492e+001  -1.567377e+002 
3909375000  -2.941418e+001  -1.590292e+002 
3912500000  -2.948266e+001  -1.667484e+002 
3915625000  -3.064354e+001  -1.668830e+002 
3918750000  -3.063867e+001  -1.640976e+002 
3921875000  -3.027558e+001  -1.660674e+002 
3925000000  -2.941269e+001  -1.664025e+002 
3928125000  -2.873606e+001  -1.725841e+002 
3931250000  -2.919188e+001  -1.764964e+002 
3934375000  -2.935252e+001  -1.758970e+002 
3937500000  -2.952952e+001  -1.768436e+002 
3940625000  -3.000728e+001  -1.768874e+002 
3943750000  -2.910321e+001  -1.752882e+002 
3946875000  -2.789283e+001  1.786457e+002 
3950000000  -2.834831e+001  1.719266e+002 
3953125000  -2.927077e+001  1.722620e+002 
3956250000  -2.833164e+001  1.750688e+002 
3959375000  -2.704752e+001  1.718555e+002 
3962500000  -2.656170e+001  1.672305e+002 
3965625000  -2.622636e+001  1.586271e+002 
3968750000  -2.714822e+001  1.521481e+002 
3971875000  -2.741427e+001  1.501029e+002 
3975000000  -2.690819e+001  1.487496e+002 
3978125000  -2.674855e+001  1.472607e+002 
3981250000  -2.647232e+001  1.429395e+002 
3984375000  -2.664749e+001  1.370890e+002 
3987500000  -2.718587e+001  1.347356e+002 
3990625000  -2.717498e+001  1.338802e+002 
3993750000  -2.736609e+001  1.307368e+002 
3996875000  -2.737095e+001  1.281787e+002 
4000000000  -2.744226e+001  1.265362e+002 
4003125000  -2.803696e+001  1.286554e+002 
4006250000  -2.667493e+001  1.300749e+002 
4009375000  -2.533335e+001  1.173687e+002 
4012500000  -2.638730e+001  1.098826e+002 
4015625000  -2.758842e+001  1.103136e+002 
4018750000  -2.784131e+001  1.128552e+002 
4021875000  -2.709488e+001  1.111237e+002 
4025000000  -2.666915e+001  1.061697e+002 
4028125000  -2.666343e+001  1.024073e+002 
4031250000  -2.704993e+001  9.866013e+001 
4034375000  -2.730960e+001  9.852699e+001 
4037500000  -2.679619e+001  1.004471e+002 
4040625000  -2.673956e+001  9.744012e+001 
4043750000  -2.699957e+001  9.668094e+001 
4046875000  -2.662177e+001  9.591019e+001 
4050000000  -2.602520e+001  9.009389e+001 
4053125000  -2.648891e+001  8.805417e+001 
4056250000  -2.710517e+001  9.196882e+001 
4059375000  -2.603181e+001  9.375183e+001 
4062500000  -2.462946e+001  8.921928e+001 
4065625000  -2.453699e+001  8.495607e+001 
4068750000  -2.416677e+001  8.057829e+001 
4071875000  -2.349944e+001  7.242036e+001 
4075000000  -2.383076e+001  6.602107e+001 
4078125000  -2.438239e+001  6.495593e+001 
4081250000  -2.388313e+001  6.234878e+001 
4084375000  -2.351127e+001  5.562364e+001 
4087500000  -2.384128e+001  4.939040e+001 
4090625000  -2.444083e+001  4.780309e+001 
4093750000  -2.434124e+001  4.875361e+001 
4096875000  -2.386007e+001  4.316580e+001 
4100000000  -2.449302e+001  3.614877e+001 
4103125000  -2.539192e+001  3.670174e+001 
4106250000  -2.521673e+001  4.167434e+001 
4109375000  -2.440972e+001  4.099881e+001 
4112500000  -2.384761e+001  3.448854e+001 
4115625000  -2.407121e+001  3.014099e+001 
4118750000  -2.423320e+001  2.710115e+001 
4121875000  -2.388363e+001  2.223727e+001 
4125000000  -2.427523e+001  1.774442e+001 
4128125000  -2.528819e+001  1.843853e+001 
4131250000  -2.492888e+001  2.647035e+001 
4134375000  -2.255832e+001  2.189275e+001 
4137500000  -2.227343e+001  2.609284e+000 
4140625000  -2.442307e+001  -4.612332e+000 
4143750000  -2.582428e+001  4.654503e-001 
4146875000  -2.531979e+001  7.815374e+000 
4150000000  -2.439006e+001  4.608820e+000 
4153125000  -2.422742e+001  -1.879042e+000 
4156250000  -2.512643e+001  -4.730740e+000 
4159375000  -2.543751e+001  -3.114127e-001 
4162500000  -2.431949e+001  3.608322e+000 
4165625000  -2.311772e+001  -6.321583e-002 
4168750000  -2.248309e+001  -7.298717e+000 
4171875000  -2.238000e+001  -1.647987e+001 
4175000000  -2.291840e+001  -2.258182e+001 
4178125000  -2.357835e+001  -2.257047e+001 
4181250000  -2.344909e+001  -2.353571e+001 
4184375000  -2.328476e+001  -2.689258e+001 
4187500000  -2.335586e+001  -2.981728e+001 
4190625000  -2.317351e+001  -3.548166e+001 
4193750000  -2.395572e+001  -3.935441e+001 
4196875000  -2.471105e+001  -3.939660e+001 
4200000000  -2.556008e+001  -3.718091e+001 
4203125000  -2.556810e+001  -2.434511e+001 
4206250000  -2.227074e+001  -2.254350e+001 
4209375000  -2.111226e+001  -4.302882e+001 
4212500000  -2.305306e+001  -5.154627e+001 
4215625000  -2.403355e+001  -4.486745e+001 
4218750000  -2.259009e+001  -3.829895e+001 
4221875000  -2.025114e+001  -4.810318e+001 
4225000000  -2.148538e+001  -6.080204e+001 
4228125000  -2.222469e+001  -5.608970e+001 
4231250000  -2.075338e+001  -5.975293e+001 
4234375000  -2.062080e+001  -6.792529e+001 
4237500000  -2.022383e+001  -7.130711e+001 
4240625000  -2.031862e+001  -8.007203e+001 
4243750000  -2.130395e+001  -8.616438e+001 
4246875000  -2.212520e+001  -8.603136e+001 
4250000000  -2.215936e+001  -8.337933e+001 
4253125000  -2.151247e+001  -8.535361e+001 
4256250000  -2.180075e+001  -8.957386e+001 
4259375000  -2.157185e+001  -9.162598e+001 
4262500000  -2.156732e+001  -9.563010e+001 
4265625000  -2.169491e+001  -9.530404e+001 
4268750000  -2.095477e+001  -9.890460e+001 
4271875000  -2.062794e+001  -1.044859e+002 
4275000000  -1.991691e+001  -1.110920e+002 
4278125000  -2.046477e+001  -1.226926e+002 
4281250000  -2.223997e+001  -1.247814e+002 
4284375000  -2.206874e+001  -1.243448e+002 
4287500000  -2.287966e+001  -1.284415e+002 
4290625000  -2.421265e+001  -1.186048e+002 
4293750000  -2.221874e+001  -1.123517e+002 
4296875000  -2.082977e+001  -1.239199e+002 
4300000000  -2.162739e+001  -1.331493e+002 
4303125000  -2.267035e+001  -1.316736e+002 
4306250000  -2.202073e+001  -1.261940e+002 
4309375000  -2.068258e+001  -1.290406e+002 
4312500000  -2.060184e+001  -1.375652e+002 
4315625000  -2.089312e+001  -1.432809e+002 
4318750000  -2.117301e+001  -1.466822e+002 
4321875000  -2.132306e+001  -1.461505e+002 
4325000000  -2.069186e+001  -1.461144e+002 
4328125000  -2.023180e+001  -1.527574e+002 
4331250000  -2.026405e+001  -1.607410e+002 
4334375000  -2.069374e+001  -1.655708e+002 
4337500000  -2.145501e+001  -1.678327e+002 
4340625000  -2.200066e+001  -1.646959e+002 
4343750000  -2.150109e+001  -1.640755e+002 
4346875000  -2.106433e+001  -1.694681e+002 
4350000000  -2.099689e+001  -1.738365e+002 
4353125000  -2.103707e+001  1.775553e+002 
4356250000  -2.279184e+001  1.763801e+002 
4359375000  -2.341551e+001  -1.708030e+002 
4362500000  -2.089163e+001  -1.683842e+002 
4365625000  -1.933316e+001  -1.797138e+002 
4368750000  -1.999813e+001  1.684796e+002 
4371875000  -2.112323e+001  1.686089e+002 
4375000000  -2.083971e+001  1.699674e+002 
4378125000  -2.024217e+001  1.641598e+002 
4381250000  -2.035413e+001  1.589160e+002 
4384375000  -2.019523e+001  1.541615e+002 
4387500000  -2.081181e+001  1.481735e+002 
4390625000  -2.185106e+001  1.488536e+002 
4393750000  -2.129564e+001  1.512828e+002 
4396875000  -2.058790e+001  1.490812e+002 
4400000000  -2.011756e+001  1.424963e+002 
4403125000  -2.062572e+001  1.344736e+002 
4406250000  -2.146235e+001  1.333141e+002 
4409375000  -2.142391e+001  1.309137e+002 
4412500000  -2.236203e+001  1.280487e+002 
4415625000  -2.283521e+001  1.326761e+002 
4418750000  -2.171007e+001  1.373127e+002 
