!Agilent Technologies,E8363B,MY43030201,A.06.04.32
!Agilent E8363B: A.06.04.32
!Date: Tuesday, November 11, 2014 20:46:01
!Correction: S21(Response(S21)) 
!S1P File: Measurement: S21:
# Hz S  dB   R 50
3000000000  -2.652032e+001  1.585111e+002 
3003125000  -2.790672e+001  1.540297e+002 
3006250000  -2.792814e+001  1.510528e+002 
3009375000  -2.830756e+001  1.558186e+002 
3012500000  -2.779136e+001  1.561351e+002 
3015625000  -2.682415e+001  1.488774e+002 
3018750000  -2.765566e+001  1.476141e+002 
3021875000  -2.645457e+001  1.492844e+002 
3025000000  -2.514229e+001  1.463195e+002 
3028125000  -2.418612e+001  1.415360e+002 
3031250000  -2.316849e+001  1.303103e+002 
3034375000  -2.276357e+001  1.174699e+002 
3037500000  -2.307414e+001  1.053622e+002 
3040625000  -2.441571e+001  1.002950e+002 
3043750000  -2.512491e+001  9.610707e+001 
3046875000  -2.518106e+001  8.957011e+001 
3050000000  -2.697553e+001  8.254819e+001 
3053125000  -2.716706e+001  8.906593e+001 
3056250000  -2.643818e+001  9.207618e+001 
3059375000  -2.669020e+001  9.175385e+001 
3062500000  -2.527064e+001  8.785218e+001 
3065625000  -2.502279e+001  8.245760e+001 
3068750000  -2.475872e+001  7.531989e+001 
3071875000  -2.468170e+001  7.212910e+001 
3075000000  -2.466905e+001  6.878444e+001 
3078125000  -2.436026e+001  6.396254e+001 
3081250000  -2.497228e+001  6.016918e+001 
3084375000  -2.424105e+001  5.635210e+001 
3087500000  -2.409187e+001  5.275516e+001 
3090625000  -2.382696e+001  4.329807e+001 
3093750000  -2.420409e+001  3.526592e+001 
3096875000  -2.553368e+001  2.901600e+001 
3100000000  -2.564677e+001  2.765601e+001 
3103125000  -2.605274e+001  2.921757e+001 
3106250000  -2.576116e+001  2.537830e+001 
3109375000  -2.603488e+001  2.200153e+001 
3112500000  -2.615222e+001  2.131667e+001 
3115625000  -2.593115e+001  1.688833e+001 
3118750000  -2.644835e+001  1.791982e+001 
3121875000  -2.578160e+001  1.013953e+001 
3125000000  -2.686339e+001  6.137112e+000 
3128125000  -2.816341e+001  1.439345e+001 
3131250000  -2.600339e+001  1.501410e+001 
3134375000  -2.461098e+001  1.769951e+000 
3137500000  -2.525060e+001  -1.272418e+001 
3140625000  -2.686422e+001  -1.453969e+001 
3143750000  -2.789761e+001  -9.600735e+000 
3146875000  -2.750516e+001  -8.298637e+000 
3150000000  -2.650777e+001  -5.763340e+000 
3153125000  -2.647592e+001  -1.350032e+001 
3156250000  -2.742094e+001  -8.217292e+000 
3159375000  -2.592817e+001  -5.227169e+000 
3162500000  -2.388528e+001  -1.799935e+001 
3165625000  -2.478202e+001  -2.879832e+001 
3168750000  -2.522774e+001  -2.809572e+001 
3171875000  -2.424307e+001  -3.210282e+001 
3175000000  -2.485776e+001  -3.989214e+001 
3178125000  -2.468869e+001  -3.833035e+001 
3181250000  -2.349616e+001  -4.210066e+001 
3184375000  -2.265281e+001  -5.421507e+001 
3187500000  -2.375281e+001  -7.009704e+001 
3190625000  -2.655844e+001  -7.768684e+001 
3193750000  -2.719902e+001  -6.771355e+001 
3196875000  -2.674444e+001  -6.238784e+001 
3200000000  -2.589810e+001  -6.390860e+001 
3203125000  -2.501799e+001  -6.971172e+001 
3206250000  -2.531931e+001  -7.574658e+001 
3209375000  -2.482866e+001  -8.056364e+001 
3212500000  -2.490914e+001  -8.756102e+001 
3215625000  -2.507797e+001  -9.207676e+001 
3218750000  -2.583191e+001  -9.791599e+001 
3221875000  -2.681844e+001  -1.030061e+002 
3225000000  -2.646572e+001  -1.038981e+002 
3228125000  -2.671923e+001  -1.081116e+002 
3231250000  -2.749790e+001  -1.111864e+002 
3234375000  -2.737107e+001  -1.100102e+002 
3237500000  -2.740113e+001  -1.115662e+002 
3240625000  -2.710097e+001  -1.132789e+002 
3243750000  -2.664710e+001  -1.198785e+002 
3246875000  -2.718216e+001  -1.265098e+002 
3250000000  -2.762038e+001  -1.284123e+002 
3253125000  -2.776498e+001  -1.299148e+002 
3256250000  -2.768529e+001  -1.360432e+002 
3259375000  -2.797148e+001  -1.437131e+002 
3262500000  -2.920546e+001  -1.465115e+002 
3265625000  -2.991404e+001  -1.433845e+002 
3268750000  -2.990490e+001  -1.406444e+002 
3271875000  -2.969726e+001  -1.390619e+002 
3275000000  -2.856126e+001  -1.445886e+002 
3278125000  -2.899531e+001  -1.508994e+002 
3281250000  -2.931820e+001  -1.489506e+002 
3284375000  -2.885983e+001  -1.547750e+002 
3287500000  -2.901754e+001  -1.577091e+002 
3290625000  -2.952467e+001  -1.618719e+002 
3293750000  -2.911296e+001  -1.670912e+002 
3296875000  -3.005153e+001  -1.672726e+002 
3300000000  -3.008297e+001  -1.660907e+002 
3303125000  -2.891259e+001  -1.700755e+002 
3306250000  -2.869845e+001  -1.766994e+002 
3309375000  -2.848036e+001  1.785247e+002 
3312500000  -2.846723e+001  1.683763e+002 
3315625000  -2.948014e+001  1.601614e+002 
3318750000  -3.079765e+001  1.577082e+002 
3321875000  -3.204029e+001  1.572409e+002 
3325000000  -3.259576e+001  1.618416e+002 
3328125000  -3.256559e+001  1.638281e+002 
3331250000  -3.129627e+001  1.714039e+002 
3334375000  -2.870179e+001  1.621480e+002 
3337500000  -2.872046e+001  1.442187e+002 
3340625000  -3.001208e+001  1.330896e+002 
3343750000  -3.200254e+001  1.312329e+002 
3346875000  -3.252458e+001  1.329913e+002 
3350000000  -3.191846e+001  1.314441e+002 
3353125000  -3.195536e+001  1.280057e+002 
3356250000  -3.168269e+001  1.199180e+002 
3359375000  -3.250841e+001  1.112003e+002 
3362500000  -3.387480e+001  1.061196e+002 
3365625000  -3.440728e+001  1.041140e+002 
3368750000  -3.534726e+001  1.029632e+002 
3371875000  -3.583463e+001  9.990463e+001 
3375000000  -3.735133e+001  9.723921e+001 
3378125000  -3.856940e+001  9.634594e+001 
3381250000  -4.007129e+001  1.048016e+002 
3384375000  -3.921014e+001  1.243437e+002 
3387500000  -3.588703e+001  1.114617e+002 
3390625000  -3.793979e+001  9.251012e+001 
3393750000  -3.974245e+001  9.757501e+001 
3396875000  -3.857722e+001  9.894188e+001 
3400000000  -3.868704e+001  9.314516e+001 
3403125000  -3.974084e+001  8.832948e+001 
3406250000  -4.044838e+001  9.140067e+001 
3409375000  -4.109713e+001  8.578185e+001 
3412500000  -4.198943e+001  8.644679e+001 
3415625000  -4.285776e+001  9.290026e+001 
3418750000  -4.337503e+001  9.642770e+001 
3421875000  -4.338493e+001  1.045798e+002 
3425000000  -4.268601e+001  1.072070e+002 
3428125000  -4.178748e+001  1.059920e+002 
3431250000  -4.178173e+001  1.019724e+002 
3434375000  -4.144921e+001  9.871069e+001 
3437500000  -4.180494e+001  9.867608e+001 
3440625000  -4.236512e+001  1.003062e+002 
3443750000  -4.111037e+001  1.025909e+002 
3446875000  -4.018990e+001  9.814118e+001 
3450000000  -3.998568e+001  8.771385e+001 
3453125000  -4.017957e+001  8.031183e+001 
3456250000  -4.132752e+001  7.627422e+001 
3459375000  -4.261811e+001  7.629351e+001 
3462500000  -4.223735e+001  7.940244e+001 
3465625000  -4.269711e+001  7.610023e+001 
3468750000  -4.296840e+001  7.209545e+001 
3471875000  -4.288062e+001  7.262531e+001 
3475000000  -4.300658e+001  6.929416e+001 
3478125000  -4.383812e+001  6.272414e+001 
3481250000  -4.517744e+001  6.370044e+001 
3484375000  -4.620884e+001  6.864907e+001 
3487500000  -4.634321e+001  6.788715e+001 
3490625000  -4.531842e+001  6.840958e+001 
3493750000  -4.592103e+001  6.455948e+001 
3496875000  -4.683794e+001  6.400803e+001 
3500000000  -4.856154e+001  7.612360e+001 
3503125000  -4.779660e+001  7.973425e+001 
3506250000  -4.719493e+001  7.882328e+001 
3509375000  -4.738735e+001  7.393856e+001 
3512500000  -4.777344e+001  7.835484e+001 
3515625000  -4.778777e+001  7.756357e+001 
3518750000  -4.830729e+001  8.538879e+001 
3521875000  -4.806981e+001  8.751385e+001 
3525000000  -4.834047e+001  9.043471e+001 
3528125000  -4.787632e+001  1.003965e+002 
3531250000  -4.609385e+001  1.004581e+002 
3534375000  -4.524718e+001  9.279179e+001 
3537500000  -4.533966e+001  8.892622e+001 
3540625000  -4.579953e+001  9.113699e+001 
3543750000  -4.620313e+001  9.495232e+001 
3546875000  -4.580318e+001  1.045437e+002 
3550000000  -4.306353e+001  1.097219e+002 
3553125000  -4.162085e+001  9.169438e+001 
3556250000  -4.302383e+001  8.585406e+001 
3559375000  -4.226341e+001  8.905597e+001 
3562500000  -4.105209e+001  8.243017e+001 
3565625000  -4.212592e+001  7.433385e+001 
3568750000  -4.200175e+001  7.972491e+001 
3571875000  -4.163743e+001  7.942467e+001 
3575000000  -4.138872e+001  7.238661e+001 
3578125000  -4.148796e+001  6.998611e+001 
3581250000  -4.199035e+001  7.009444e+001 
3584375000  -4.069501e+001  6.750543e+001 
3587500000  -4.023381e+001  6.127806e+001 
3590625000  -4.057023e+001  5.383068e+001 
3593750000  -4.152354e+001  5.264803e+001 
3596875000  -4.161536e+001  6.138672e+001 
3600000000  -3.987143e+001  5.904162e+001 
3603125000  -3.992813e+001  4.568805e+001 
3606250000  -4.066513e+001  4.234470e+001 
3609375000  -4.116092e+001  4.021645e+001 
3612500000  -4.143125e+001  4.081310e+001 
3615625000  -4.144805e+001  3.699605e+001 
3618750000  -4.205330e+001  3.926606e+001 
3621875000  -4.165592e+001  4.014313e+001 
3625000000  -4.163278e+001  3.904638e+001 
3628125000  -4.203684e+001  3.902557e+001 
3631250000  -4.137761e+001  3.335697e+001 
3634375000  -4.245147e+001  3.395399e+001 
3637500000  -4.201632e+001  3.966001e+001 
3640625000  -4.111021e+001  4.274572e+001 
3643750000  -4.057547e+001  3.377953e+001 
3646875000  -4.125991e+001  2.820945e+001 
3650000000  -4.169843e+001  2.973167e+001 
3653125000  -4.149929e+001  3.065651e+001 
3656250000  -4.158800e+001  2.948061e+001 
3659375000  -4.200107e+001  3.123991e+001 
3662500000  -4.106110e+001  3.142485e+001 
3665625000  -4.120968e+001  3.009399e+001 
3668750000  -4.039623e+001  3.247913e+001 
3671875000  -3.933722e+001  2.796954e+001 
3675000000  -3.999617e+001  2.228564e+001 
3678125000  -4.049014e+001  2.229707e+001 
3681250000  -4.004804e+001  2.469228e+001 
3684375000  -3.978884e+001  2.233041e+001 
3687500000  -3.993373e+001  2.197938e+001 
3690625000  -3.984184e+001  1.832465e+001 
3693750000  -4.043487e+001  2.163890e+001 
3696875000  -4.025254e+001  2.403567e+001 
3700000000  -3.907199e+001  2.250237e+001 
3703125000  -3.874420e+001  1.993379e+001 
3706250000  -3.953563e+001  2.107779e+001 
3709375000  -3.872326e+001  2.536813e+001 
3712500000  -3.766789e+001  2.581892e+001 
3715625000  -3.655670e+001  1.915557e+001 
3718750000  -3.574638e+001  1.590547e+001 
3721875000  -3.538013e+001  1.068739e+001 
3725000000  -3.530014e+001  6.287429e+000 
3728125000  -3.542075e+001  5.374137e+000 
3731250000  -3.465311e+001  4.496078e+000 
3734375000  -3.368882e+001  -1.903525e+000 
3737500000  -3.425544e+001  -8.647683e+000 
3740625000  -3.485571e+001  -1.241706e+001 
3743750000  -3.463069e+001  -1.380165e+001 
3746875000  -3.461777e+001  -1.725894e+001 
3750000000  -3.504940e+001  -1.729858e+001 
3753125000  -3.446029e+001  -1.884316e+001 
3756250000  -3.429771e+001  -1.952868e+001 
3759375000  -3.428232e+001  -2.038731e+001 
3762500000  -3.357758e+001  -2.476813e+001 
3765625000  -3.403280e+001  -2.698681e+001 
3768750000  -3.416441e+001  -2.437424e+001 
3771875000  -3.254197e+001  -2.747122e+001 
3775000000  -3.221125e+001  -3.492325e+001 
3778125000  -3.251889e+001  -3.715593e+001 
3781250000  -3.240886e+001  -3.957762e+001 
3784375000  -3.227935e+001  -4.165439e+001 
3787500000  -3.153829e+001  -4.561913e+001 
3790625000  -3.215589e+001  -5.155004e+001 
3793750000  -3.228814e+001  -5.134924e+001 
3796875000  -3.147963e+001  -5.336820e+001 
3800000000  -2.998960e+001  -5.664453e+001 
3803125000  -3.069956e+001  -6.336123e+001 
3806250000  -3.132819e+001  -6.558126e+001 
3809375000  -3.105239e+001  -6.724203e+001 
3812500000  -3.042183e+001  -7.204303e+001 
3815625000  -3.099871e+001  -7.882624e+001 
3818750000  -3.200343e+001  -8.077859e+001 
3821875000  -3.211202e+001  -7.289048e+001 
3825000000  -3.019972e+001  -6.765841e+001 
3828125000  -2.888051e+001  -8.061376e+001 
3831250000  -2.934663e+001  -9.552571e+001 
3834375000  -3.063531e+001  -9.649776e+001 
3837500000  -3.157026e+001  -9.222430e+001 
3840625000  -3.047277e+001  -9.271224e+001 
3843750000  -2.934893e+001  -1.021319e+002 
3846875000  -2.989983e+001  -1.093283e+002 
3850000000  -3.116839e+001  -1.045573e+002 
3853125000  -3.050867e+001  -1.009664e+002 
3856250000  -3.050490e+001  -1.065361e+002 
3859375000  -2.971916e+001  -1.107481e+002 
3862500000  -2.922645e+001  -1.178482e+002 
3865625000  -2.943090e+001  -1.229062e+002 
3868750000  -2.958176e+001  -1.226418e+002 
3871875000  -2.880051e+001  -1.261995e+002 
3875000000  -2.885601e+001  -1.345521e+002 
3878125000  -2.993549e+001  -1.372474e+002 
3881250000  -3.008621e+001  -1.341582e+002 
3884375000  -2.948951e+001  -1.389395e+002 
3887500000  -2.965083e+001  -1.423163e+002 
3890625000  -3.015005e+001  -1.454732e+002 
3893750000  -3.052936e+001  -1.470113e+002 
3896875000  -3.070675e+001  -1.468248e+002 
3900000000  -3.089750e+001  -1.468892e+002 
3903125000  -3.058676e+001  -1.500023e+002 
3906250000  -3.033521e+001  -1.502401e+002 
3909375000  -2.961576e+001  -1.527819e+002 
3912500000  -2.959558e+001  -1.597310e+002 
3915625000  -3.080147e+001  -1.602262e+002 
3918750000  -3.092879e+001  -1.578432e+002 
3921875000  -3.061759e+001  -1.588597e+002 
3925000000  -2.985955e+001  -1.598919e+002 
3928125000  -2.914275e+001  -1.651441e+002 
3931250000  -2.954073e+001  -1.691962e+002 
3934375000  -2.973201e+001  -1.689690e+002 
3937500000  -2.984471e+001  -1.697485e+002 
3940625000  -3.041983e+001  -1.700334e+002 
3943750000  -2.944432e+001  -1.678568e+002 
3946875000  -2.811822e+001  -1.734491e+002 
3950000000  -2.858062e+001  1.792598e+002 
3953125000  -2.959895e+001  1.792255e+002 
3956250000  -2.883336e+001  -1.785352e+002 
3959375000  -2.740922e+001  1.788511e+002 
3962500000  -2.694071e+001  1.755496e+002 
3965625000  -2.658218e+001  1.665923e+002 
3968750000  -2.743762e+001  1.594059e+002 
3971875000  -2.791193e+001  1.585448e+002 
3975000000  -2.726142e+001  1.564469e+002 
3978125000  -2.696343e+001  1.551791e+002 
3981250000  -2.672402e+001  1.513071e+002 
3984375000  -2.694086e+001  1.445838e+002 
3987500000  -2.742644e+001  1.422459e+002 
3990625000  -2.740242e+001  1.414963e+002 
3993750000  -2.762369e+001  1.381324e+002 
3996875000  -2.762852e+001  1.355671e+002 
4000000000  -2.768350e+001  1.337141e+002 
4003125000  -2.825273e+001  1.357074e+002 
4006250000  -2.697978e+001  1.361609e+002 
4009375000  -2.569261e+001  1.237559e+002 
4012500000  -2.669847e+001  1.165480e+002 
4015625000  -2.799411e+001  1.168682e+002 
4018750000  -2.819743e+001  1.190428e+002 
4021875000  -2.757831e+001  1.179102e+002 
4025000000  -2.715926e+001  1.125075e+002 
4028125000  -2.711103e+001  1.087897e+002 
4031250000  -2.755024e+001  1.058543e+002 
4034375000  -2.793719e+001  1.057433e+002 
4037500000  -2.741386e+001  1.072029e+002 
4040625000  -2.725960e+001  1.038619e+002 
4043750000  -2.768808e+001  1.034424e+002 
4046875000  -2.722261e+001  1.034421e+002 
4050000000  -2.673159e+001  9.782475e+001 
4053125000  -2.723022e+001  9.564336e+001 
4056250000  -2.784167e+001  9.942988e+001 
4059375000  -2.676414e+001  1.015647e+002 
4062500000  -2.525626e+001  9.736831e+001 
4065625000  -2.507442e+001  9.309718e+001 
4068750000  -2.480089e+001  8.793407e+001 
4071875000  -2.418749e+001  8.045670e+001 
4075000000  -2.452427e+001  7.417676e+001 
4078125000  -2.505574e+001  7.279600e+001 
4081250000  -2.459806e+001  7.092946e+001 
4084375000  -2.412045e+001  6.438470e+001 
4087500000  -2.451194e+001  5.792610e+001 
4090625000  -2.509158e+001  5.671201e+001 
4093750000  -2.492669e+001  5.758319e+001 
4096875000  -2.444202e+001  5.170582e+001 
4100000000  -2.512942e+001  4.436772e+001 
4103125000  -2.600794e+001  4.500248e+001 
4106250000  -2.591047e+001  4.982226e+001 
4109375000  -2.501171e+001  4.976469e+001 
4112500000  -2.448457e+001  4.323389e+001 
4115625000  -2.475137e+001  3.851964e+001 
4118750000  -2.487803e+001  3.572462e+001 
4121875000  -2.449887e+001  3.136616e+001 
4125000000  -2.476747e+001  2.610487e+001 
4128125000  -2.575975e+001  2.581726e+001 
4131250000  -2.556421e+001  3.366164e+001 
4134375000  -2.328093e+001  2.973102e+001 
4137500000  -2.299805e+001  1.099525e+001 
4140625000  -2.512421e+001  3.681120e+000 
4143750000  -2.650394e+001  8.078256e+000 
4146875000  -2.611165e+001  1.544197e+001 
4150000000  -2.519961e+001  1.236167e+001 
4153125000  -2.503298e+001  6.248913e+000 
4156250000  -2.584045e+001  3.273547e+000 
4159375000  -2.624189e+001  7.540614e+000 
4162500000  -2.507351e+001  1.202676e+001 
4165625000  -2.395044e+001  7.721725e+000 
4168750000  -2.337267e+001  9.400958e-001 
4171875000  -2.332781e+001  -8.367314e+000 
4175000000  -2.397462e+001  -1.399443e+001 
4178125000  -2.456893e+001  -1.383290e+001 
4181250000  -2.447868e+001  -1.450965e+001 
4184375000  -2.430794e+001  -1.761061e+001 
4187500000  -2.437315e+001  -2.005746e+001 
4190625000  -2.417307e+001  -2.554292e+001 
4193750000  -2.491400e+001  -2.934265e+001 
4196875000  -2.559893e+001  -2.955446e+001 
4200000000  -2.648008e+001  -2.761225e+001 
4203125000  -2.659944e+001  -1.481502e+001 
4206250000  -2.330909e+001  -1.217725e+001 
4209375000  -2.201690e+001  -3.240038e+001 
4212500000  -2.382122e+001  -4.172136e+001 
4215625000  -2.488955e+001  -3.543348e+001 
4218750000  -2.368145e+001  -2.873413e+001 
4221875000  -2.129686e+001  -3.759703e+001 
4225000000  -2.245180e+001  -5.029052e+001 
4228125000  -2.317021e+001  -4.524946e+001 
4231250000  -2.164389e+001  -4.874644e+001 
4234375000  -2.158194e+001  -5.725335e+001 
4237500000  -2.114031e+001  -6.036132e+001 
4240625000  -2.112535e+001  -6.891694e+001 
4243750000  -2.207554e+001  -7.566160e+001 
4246875000  -2.293650e+001  -7.583271e+001 
4250000000  -2.305691e+001  -7.313194e+001 
4253125000  -2.246495e+001  -7.519114e+001 
4256250000  -2.274038e+001  -7.939215e+001 
4259375000  -2.248862e+001  -8.136982e+001 
4262500000  -2.247689e+001  -8.525927e+001 
4265625000  -2.264417e+001  -8.447099e+001 
4268750000  -2.181632e+001  -8.868323e+001 
4271875000  -2.154481e+001  -9.403792e+001 
4275000000  -2.095923e+001  -1.003451e+002 
4278125000  -2.155239e+001  -1.118590e+002 
4281250000  -2.334142e+001  -1.143484e+002 
4284375000  -2.309103e+001  -1.129886e+002 
4287500000  -2.379435e+001  -1.168763e+002 
4290625000  -2.506384e+001  -1.079587e+002 
4293750000  -2.319684e+001  -1.014641e+002 
4296875000  -2.179576e+001  -1.131658e+002 
4300000000  -2.259083e+001  -1.223173e+002 
4303125000  -2.378308e+001  -1.214977e+002 
4306250000  -2.324543e+001  -1.151798e+002 
4309375000  -2.183242e+001  -1.170711e+002 
4312500000  -2.167946e+001  -1.252939e+002 
4315625000  -2.190309e+001  -1.311777e+002 
4318750000  -2.224667e+001  -1.345276e+002 
4321875000  -2.242144e+001  -1.342593e+002 
4325000000  -2.183688e+001  -1.334992e+002 
4328125000  -2.134948e+001  -1.397813e+002 
4331250000  -2.130153e+001  -1.475327e+002 
4334375000  -2.167135e+001  -1.523223e+002 
4337500000  -2.245912e+001  -1.547747e+002 
4340625000  -2.308650e+001  -1.518141e+002 
4343750000  -2.253756e+001  -1.514202e+002 
4346875000  -2.211403e+001  -1.564529e+002 
4350000000  -2.206865e+001  -1.610100e+002 
4353125000  -2.211596e+001  -1.686375e+002 
4356250000  -2.375403e+001  -1.701174e+002 
4359375000  -2.445012e+001  -1.580521e+002 
4362500000  -2.192729e+001  -1.546642e+002 
4365625000  -2.026319e+001  -1.662183e+002 
4368750000  -2.083046e+001  -1.781981e+002 
4371875000  -2.211129e+001  -1.779356e+002 
4375000000  -2.183611e+001  -1.765792e+002 
4378125000  -2.110872e+001  1.778773e+002 
4381250000  -2.128640e+001  1.724262e+002 
4384375000  -2.106929e+001  1.681493e+002 
4387500000  -2.182542e+001  1.620924e+002 
4390625000  -2.284988e+001  1.625060e+002 
4393750000  -2.217585e+001  1.648741e+002 
4396875000  -2.150272e+001  1.629552e+002 
4400000000  -2.101552e+001  1.559865e+002 
4403125000  -2.155705e+001  1.483224e+002 
4406250000  -2.242613e+001  1.467333e+002 
4409375000  -2.235947e+001  1.446045e+002 
4412500000  -2.340483e+001  1.418243e+002 
4415625000  -2.382960e+001  1.461602e+002 
4418750000  -2.264927e+001  1.514343e+002 
