!Agilent Technologies,E8363B,MY43030201,A.06.04.32
!Agilent E8363B: A.06.04.32
!Date: Tuesday, November 11, 2014 20:49:57
!Correction: S21(Response(S21)) 
!S1P File: Measurement: S21:
# Hz S  dB   R 50
3000000000  -2.653049e+001  1.536807e+002 
3003125000  -2.794757e+001  1.491475e+002 
3006250000  -2.795581e+001  1.465239e+002 
3009375000  -2.831680e+001  1.515489e+002 
3012500000  -2.779728e+001  1.511452e+002 
3015625000  -2.685076e+001  1.439999e+002 
3018750000  -2.769861e+001  1.430009e+002 
3021875000  -2.645621e+001  1.444622e+002 
3025000000  -2.510187e+001  1.414461e+002 
3028125000  -2.412997e+001  1.361742e+002 
3031250000  -2.311642e+001  1.251964e+002 
3034375000  -2.274827e+001  1.123656e+002 
3037500000  -2.309576e+001  1.003597e+002 
3040625000  -2.444248e+001  9.513289e+001 
3043750000  -2.512638e+001  9.090742e+001 
3046875000  -2.524365e+001  8.451588e+001 
3050000000  -2.695907e+001  7.749839e+001 
3053125000  -2.715195e+001  8.390589e+001 
3056250000  -2.646554e+001  8.701829e+001 
3059375000  -2.669880e+001  8.684626e+001 
3062500000  -2.519294e+001  8.282525e+001 
3065625000  -2.497667e+001  7.732906e+001 
3068750000  -2.473520e+001  7.021844e+001 
3071875000  -2.466943e+001  6.732669e+001 
3075000000  -2.462081e+001  6.348169e+001 
3078125000  -2.436506e+001  5.881083e+001 
3081250000  -2.499071e+001  5.475861e+001 
3084375000  -2.426253e+001  5.119161e+001 
3087500000  -2.413235e+001  4.749413e+001 
3090625000  -2.381535e+001  3.779028e+001 
3093750000  -2.425937e+001  2.982024e+001 
3096875000  -2.557348e+001  2.359501e+001 
3100000000  -2.568582e+001  2.238353e+001 
3103125000  -2.604716e+001  2.380984e+001 
3106250000  -2.580026e+001  2.012933e+001 
3109375000  -2.605944e+001  1.666014e+001 
3112500000  -2.616291e+001  1.582586e+001 
3115625000  -2.593148e+001  1.142128e+001 
3118750000  -2.641836e+001  1.258835e+001 
3121875000  -2.575499e+001  4.658670e+000 
3125000000  -2.689721e+001  1.183875e+000 
3128125000  -2.816303e+001  9.101087e+000 
3131250000  -2.596959e+001  9.841136e+000 
3134375000  -2.462444e+001  -3.699872e+000 
3137500000  -2.525677e+001  -1.746132e+001 
3140625000  -2.690818e+001  -1.910081e+001 
3143750000  -2.795110e+001  -1.534228e+001 
3146875000  -2.754186e+001  -1.309628e+001 
3150000000  -2.644362e+001  -1.085081e+001 
3153125000  -2.646157e+001  -1.874265e+001 
3156250000  -2.751612e+001  -1.347992e+001 
3159375000  -2.591303e+001  -1.011877e+001 
3162500000  -2.388453e+001  -2.305378e+001 
3165625000  -2.478638e+001  -3.417946e+001 
3168750000  -2.519547e+001  -3.314175e+001 
3171875000  -2.423656e+001  -3.730630e+001 
3175000000  -2.484087e+001  -4.511816e+001 
3178125000  -2.467364e+001  -4.345953e+001 
3181250000  -2.351127e+001  -4.726918e+001 
3184375000  -2.269174e+001  -5.963358e+001 
3187500000  -2.380888e+001  -7.488411e+001 
3190625000  -2.659409e+001  -8.238103e+001 
3193750000  -2.716065e+001  -7.263886e+001 
3196875000  -2.676531e+001  -6.708230e+001 
3200000000  -2.593160e+001  -6.906360e+001 
3203125000  -2.501006e+001  -7.478909e+001 
3206250000  -2.532221e+001  -8.112861e+001 
3209375000  -2.482293e+001  -8.623101e+001 
3212500000  -2.494552e+001  -9.297688e+001 
3215625000  -2.510078e+001  -9.720959e+001 
3218750000  -2.587902e+001  -1.032388e+002 
3221875000  -2.680284e+001  -1.082634e+002 
3225000000  -2.645673e+001  -1.092050e+002 
3228125000  -2.675530e+001  -1.136133e+002 
3231250000  -2.748010e+001  -1.164143e+002 
3234375000  -2.738537e+001  -1.150621e+002 
3237500000  -2.743093e+001  -1.168808e+002 
3240625000  -2.704470e+001  -1.186224e+002 
3243750000  -2.672766e+001  -1.251069e+002 
3246875000  -2.722066e+001  -1.316043e+002 
3250000000  -2.765160e+001  -1.336766e+002 
3253125000  -2.780785e+001  -1.353369e+002 
3256250000  -2.768907e+001  -1.410845e+002 
3259375000  -2.800213e+001  -1.485350e+002 
3262500000  -2.924346e+001  -1.517715e+002 
3265625000  -2.990819e+001  -1.483668e+002 
3268750000  -2.988115e+001  -1.455719e+002 
3271875000  -2.970789e+001  -1.443105e+002 
3275000000  -2.857246e+001  -1.496039e+002 
3278125000  -2.906115e+001  -1.556118e+002 
3281250000  -2.930462e+001  -1.545108e+002 
3284375000  -2.887511e+001  -1.598231e+002 
3287500000  -2.906026e+001  -1.623592e+002 
3290625000  -2.942462e+001  -1.664445e+002 
3293750000  -2.916357e+001  -1.721605e+002 
3296875000  -3.010365e+001  -1.726955e+002 
3300000000  -3.004764e+001  -1.717054e+002 
3303125000  -2.893621e+001  -1.753176e+002 
3306250000  -2.868082e+001  1.782759e+002 
3309375000  -2.847113e+001  1.731642e+002 
3312500000  -2.844939e+001  1.630550e+002 
3315625000  -2.950978e+001  1.554077e+002 
3318750000  -3.078529e+001  1.522418e+002 
3321875000  -3.203849e+001  1.524232e+002 
3325000000  -3.267704e+001  1.568172e+002 
3328125000  -3.244508e+001  1.586185e+002 
3331250000  -3.131593e+001  1.663263e+002 
3334375000  -2.862768e+001  1.568307e+002 
3337500000  -2.869526e+001  1.383948e+002 
3340625000  -3.008952e+001  1.270381e+002 
3343750000  -3.197227e+001  1.258411e+002 
3346875000  -3.254657e+001  1.276953e+002 
3350000000  -3.191155e+001  1.268411e+002 
3353125000  -3.201523e+001  1.223820e+002 
3356250000  -3.169291e+001  1.145034e+002 
3359375000  -3.259896e+001  1.062981e+002 
3362500000  -3.390922e+001  1.005601e+002 
3365625000  -3.453235e+001  9.858524e+001 
3368750000  -3.531481e+001  9.741800e+001 
3371875000  -3.575104e+001  9.347642e+001 
3375000000  -3.747283e+001  9.196094e+001 
3378125000  -3.841917e+001  9.118938e+001 
3381250000  -4.010574e+001  9.927686e+001 
3384375000  -3.925192e+001  1.191337e+002 
3387500000  -3.605685e+001  1.064633e+002 
3390625000  -3.776105e+001  8.709412e+001 
3393750000  -3.966814e+001  9.092929e+001 
3396875000  -3.871933e+001  9.494669e+001 
3400000000  -3.881521e+001  8.714840e+001 
3403125000  -3.980694e+001  8.357398e+001 
3406250000  -4.063611e+001  8.672411e+001 
3409375000  -4.131279e+001  8.219352e+001 
3412500000  -4.215144e+001  8.365343e+001 
3415625000  -4.284071e+001  8.735838e+001 
3418750000  -4.324144e+001  9.232034e+001 
3421875000  -4.361857e+001  9.839906e+001 
3425000000  -4.277124e+001  1.018522e+002 
3428125000  -4.160413e+001  1.036910e+002 
3431250000  -4.184901e+001  9.813025e+001 
3434375000  -4.131832e+001  9.395469e+001 
3437500000  -4.198709e+001  9.392820e+001 
3440625000  -4.218871e+001  9.497688e+001 
3443750000  -4.102509e+001  9.743569e+001 
3446875000  -4.010426e+001  9.280937e+001 
3450000000  -3.984219e+001  8.447462e+001 
3453125000  -4.020893e+001  7.513417e+001 
3456250000  -4.117541e+001  7.196189e+001 
3459375000  -4.263321e+001  7.502276e+001 
3462500000  -4.236506e+001  7.198057e+001 
3465625000  -4.231034e+001  7.032084e+001 
3468750000  -4.288846e+001  6.753187e+001 
3471875000  -4.311469e+001  6.686421e+001 
3475000000  -4.285194e+001  6.196331e+001 
3478125000  -4.348276e+001  5.711681e+001 
3481250000  -4.459232e+001  5.624636e+001 
3484375000  -4.603915e+001  6.178227e+001 
3487500000  -4.624509e+001  6.221080e+001 
3490625000  -4.534312e+001  6.257986e+001 
3493750000  -4.611749e+001  6.147660e+001 
3496875000  -4.687872e+001  6.141924e+001 
3500000000  -4.802014e+001  6.849960e+001 
3503125000  -4.846551e+001  7.362379e+001 
3506250000  -4.653190e+001  7.486234e+001 
3509375000  -4.736971e+001  7.317696e+001 
3512500000  -4.784238e+001  7.153469e+001 
3515625000  -4.808924e+001  7.608286e+001 
3518750000  -4.850514e+001  8.253616e+001 
3521875000  -4.859395e+001  8.453484e+001 
3525000000  -4.837527e+001  8.491553e+001 
3528125000  -4.793718e+001  9.579340e+001 
3531250000  -4.567065e+001  9.826057e+001 
3534375000  -4.463961e+001  9.057758e+001 
3537500000  -4.509459e+001  8.468620e+001 
3540625000  -4.572210e+001  8.752576e+001 
3543750000  -4.577714e+001  8.697287e+001 
3546875000  -4.541489e+001  1.016068e+002 
3550000000  -4.296052e+001  1.029319e+002 
3553125000  -4.167780e+001  8.565028e+001 
3556250000  -4.245364e+001  7.991650e+001 
3559375000  -4.216920e+001  8.130168e+001 
3562500000  -4.097651e+001  7.464484e+001 
3565625000  -4.189949e+001  6.850012e+001 
3568750000  -4.188812e+001  7.204774e+001 
3571875000  -4.160769e+001  7.048724e+001 
3575000000  -4.104326e+001  6.424592e+001 
3578125000  -4.148601e+001  6.153056e+001 
3581250000  -4.156390e+001  6.328811e+001 
3584375000  -4.062050e+001  6.228603e+001 
3587500000  -3.988101e+001  5.590057e+001 
3590625000  -4.015426e+001  4.679734e+001 
3593750000  -4.142675e+001  4.605350e+001 
3596875000  -4.149895e+001  5.354583e+001 
3600000000  -4.009431e+001  5.112983e+001 
3603125000  -4.020658e+001  3.665336e+001 
3606250000  -4.053521e+001  3.408715e+001 
3609375000  -4.081179e+001  3.568580e+001 
3612500000  -4.165068e+001  3.349482e+001 
3615625000  -4.151813e+001  3.082581e+001 
3618750000  -4.202893e+001  3.364544e+001 
3621875000  -4.176951e+001  3.292480e+001 
3625000000  -4.178820e+001  3.136853e+001 
3628125000  -4.172353e+001  3.192501e+001 
3631250000  -4.155093e+001  2.606421e+001 
3634375000  -4.240223e+001  2.809532e+001 
3637500000  -4.217091e+001  3.370943e+001 
3640625000  -4.134728e+001  3.489586e+001 
3643750000  -4.090114e+001  2.932450e+001 
3646875000  -4.136616e+001  2.323912e+001 
3650000000  -4.137646e+001  2.371359e+001 
3653125000  -4.151268e+001  2.435250e+001 
3656250000  -4.178760e+001  2.180288e+001 
3659375000  -4.209279e+001  2.543213e+001 
3662500000  -4.141192e+001  2.565596e+001 
3665625000  -4.146815e+001  2.380656e+001 
3668750000  -4.026497e+001  2.592455e+001 
3671875000  -3.941093e+001  2.195042e+001 
3675000000  -4.003522e+001  1.545526e+001 
3678125000  -4.058537e+001  1.736997e+001 
3681250000  -4.000606e+001  1.852917e+001 
3684375000  -3.991513e+001  1.655741e+001 
3687500000  -4.005198e+001  1.425129e+001 
3690625000  -3.988268e+001  1.319089e+001 
3693750000  -4.029194e+001  1.499182e+001 
3696875000  -4.053096e+001  1.814727e+001 
3700000000  -3.918524e+001  1.560507e+001 
3703125000  -3.907687e+001  1.277356e+001 
3706250000  -3.963546e+001  1.545467e+001 
3709375000  -3.901842e+001  1.772741e+001 
3712500000  -3.762850e+001  1.708637e+001 
3715625000  -3.684312e+001  1.281779e+001 
3718750000  -3.587453e+001  9.401715e+000 
3721875000  -3.547655e+001  4.437780e+000 
3725000000  -3.534980e+001  -8.408710e-001 
3728125000  -3.568380e+001  -1.202002e+000 
3731250000  -3.490918e+001  -1.276015e+000 
3734375000  -3.383863e+001  -7.554667e+000 
3737500000  -3.443710e+001  -1.466158e+001 
3740625000  -3.487848e+001  -1.787906e+001 
3743750000  -3.485883e+001  -2.038416e+001 
3746875000  -3.468810e+001  -2.363539e+001 
3750000000  -3.508511e+001  -2.322263e+001 
3753125000  -3.467873e+001  -2.454258e+001 
3756250000  -3.468539e+001  -2.617723e+001 
3759375000  -3.456707e+001  -2.626571e+001 
3762500000  -3.377901e+001  -2.989412e+001 
3765625000  -3.431485e+001  -3.179366e+001 
3768750000  -3.448774e+001  -3.065556e+001 
3771875000  -3.259800e+001  -3.267945e+001 
3775000000  -3.240374e+001  -3.988474e+001 
3778125000  -3.273578e+001  -4.221643e+001 
3781250000  -3.250835e+001  -4.538839e+001 
3784375000  -3.246502e+001  -4.698746e+001 
3787500000  -3.179742e+001  -5.084273e+001 
3790625000  -3.226366e+001  -5.669273e+001 
3793750000  -3.251616e+001  -5.666564e+001 
3796875000  -3.163874e+001  -5.898344e+001 
3800000000  -3.007429e+001  -6.189117e+001 
3803125000  -3.080331e+001  -6.944853e+001 
3806250000  -3.152242e+001  -7.162421e+001 
3809375000  -3.120621e+001  -7.228320e+001 
3812500000  -3.045652e+001  -7.720772e+001 
3815625000  -3.120101e+001  -8.462368e+001 
3818750000  -3.212164e+001  -8.595692e+001 
3821875000  -3.209871e+001  -7.817364e+001 
3825000000  -3.018003e+001  -7.291379e+001 
3828125000  -2.894997e+001  -8.709676e+001 
3831250000  -2.947384e+001  -1.011965e+002 
3834375000  -3.069254e+001  -1.025998e+002 
3837500000  -3.174266e+001  -9.707043e+001 
3840625000  -3.049433e+001  -9.747491e+001 
3843750000  -2.931894e+001  -1.084429e+002 
3846875000  -3.015336e+001  -1.146396e+002 
3850000000  -3.141099e+001  -1.096068e+002 
3853125000  -3.058961e+001  -1.078602e+002 
3856250000  -3.060065e+001  -1.114778e+002 
3859375000  -2.984102e+001  -1.158478e+002 
3862500000  -2.940116e+001  -1.235911e+002 
3865625000  -2.968155e+001  -1.283855e+002 
3868750000  -2.968101e+001  -1.285905e+002 
3871875000  -2.896741e+001  -1.320909e+002 
3875000000  -2.916493e+001  -1.401590e+002 
3878125000  -3.006075e+001  -1.428879e+002 
3881250000  -3.020625e+001  -1.395963e+002 
3884375000  -2.969210e+001  -1.440033e+002 
3887500000  -2.981147e+001  -1.478950e+002 
3890625000  -3.033890e+001  -1.505611e+002 
3893750000  -3.081669e+001  -1.521637e+002 
3896875000  -3.093398e+001  -1.512193e+002 
3900000000  -3.114750e+001  -1.519413e+002 
3903125000  -3.073385e+001  -1.539276e+002 
3906250000  -3.046602e+001  -1.552921e+002 
3909375000  -2.975989e+001  -1.571558e+002 
3912500000  -2.978048e+001  -1.652159e+002 
3915625000  -3.093877e+001  -1.642916e+002 
3918750000  -3.099440e+001  -1.624329e+002 
3921875000  -3.066449e+001  -1.643360e+002 
3925000000  -2.986404e+001  -1.644705e+002 
3928125000  -2.918373e+001  -1.704214e+002 
3931250000  -2.953125e+001  -1.741802e+002 
3934375000  -2.983359e+001  -1.742853e+002 
3937500000  -2.997046e+001  -1.752058e+002 
3940625000  -3.042519e+001  -1.745573e+002 
3943750000  -2.947787e+001  -1.734505e+002 
3946875000  -2.830011e+001  -1.788680e+002 
3950000000  -2.870184e+001  1.731154e+002 
3953125000  -2.969645e+001  1.745286e+002 
3956250000  -2.883074e+001  1.769592e+002 
3959375000  -2.757040e+001  1.738352e+002 
3962500000  -2.696672e+001  1.701366e+002 
3965625000  -2.663842e+001  1.611527e+002 
3968750000  -2.757384e+001  1.542435e+002 
3971875000  -2.797033e+001  1.528720e+002 
3975000000  -2.726269e+001  1.512545e+002 
3978125000  -2.711861e+001  1.494791e+002 
3981250000  -2.682700e+001  1.453781e+002 
3984375000  -2.703006e+001  1.389594e+002 
3987500000  -2.759597e+001  1.370629e+002 
3990625000  -2.759801e+001  1.358397e+002 
3993750000  -2.776261e+001  1.334397e+002 
3996875000  -2.777614e+001  1.302443e+002 
4000000000  -2.784419e+001  1.285989e+002 
4003125000  -2.843085e+001  1.304683e+002 
4006250000  -2.705640e+001  1.309303e+002 
4009375000  -2.578172e+001  1.186935e+002 
4012500000  -2.688518e+001  1.117242e+002 
4015625000  -2.815193e+001  1.119747e+002 
4018750000  -2.832258e+001  1.142276e+002 
4021875000  -2.768351e+001  1.126985e+002 
4025000000  -2.729565e+001  1.080994e+002 
4028125000  -2.723246e+001  1.040941e+002 
4031250000  -2.771729e+001  1.008726e+002 
4034375000  -2.791951e+001  1.009330e+002 
4037500000  -2.747173e+001  1.027949e+002 
4040625000  -2.741617e+001  9.953153e+001 
4043750000  -2.767682e+001  9.870991e+001 
4046875000  -2.720129e+001  9.803841e+001 
4050000000  -2.673606e+001  9.295280e+001 
4053125000  -2.723010e+001  9.075083e+001 
4056250000  -2.775584e+001  9.443848e+001 
4059375000  -2.665841e+001  9.634576e+001 
4062500000  -2.523636e+001  9.217332e+001 
4065625000  -2.507219e+001  8.734901e+001 
4068750000  -2.480419e+001  8.311053e+001 
4071875000  -2.416645e+001  7.519083e+001 
4075000000  -2.451881e+001  6.870760e+001 
4078125000  -2.506690e+001  6.780772e+001 
4081250000  -2.456766e+001  6.524319e+001 
4084375000  -2.414884e+001  5.906166e+001 
4087500000  -2.453072e+001  5.213235e+001 
4090625000  -2.512679e+001  5.130898e+001 
4093750000  -2.494925e+001  5.216612e+001 
4096875000  -2.447281e+001  4.624271e+001 
4100000000  -2.516224e+001  3.942509e+001 
4103125000  -2.601134e+001  3.981007e+001 
4106250000  -2.586727e+001  4.448442e+001 
4109375000  -2.505367e+001  4.427103e+001 
4112500000  -2.449313e+001  3.746090e+001 
4115625000  -2.480931e+001  3.324454e+001 
4118750000  -2.486407e+001  3.011218e+001 
4121875000  -2.453705e+001  2.581298e+001 
4125000000  -2.479306e+001  2.064337e+001 
4128125000  -2.586131e+001  2.054498e+001 
4131250000  -2.558675e+001  2.862993e+001 
4134375000  -2.328905e+001  2.471555e+001 
4137500000  -2.300423e+001  5.821328e+000 
4140625000  -2.518890e+001  -1.458379e+000 
4143750000  -2.653022e+001  3.537080e+000 
4146875000  -2.615197e+001  1.089436e+001 
4150000000  -2.521085e+001  7.890993e+000 
4153125000  -2.502913e+001  1.074187e+000 
4156250000  -2.591191e+001  -1.160213e+000 
4159375000  -2.617790e+001  2.692099e+000 
4162500000  -2.503605e+001  7.412626e+000 
4165625000  -2.392333e+001  3.178798e+000 
4168750000  -2.329918e+001  -3.741096e+000 
4171875000  -2.331314e+001  -1.288777e+001 
4175000000  -2.384806e+001  -1.879048e+001 
4178125000  -2.447160e+001  -1.866788e+001 
4181250000  -2.433002e+001  -1.915802e+001 
4184375000  -2.418645e+001  -2.245594e+001 
4187500000  -2.428148e+001  -2.526907e+001 
4190625000  -2.405177e+001  -3.068985e+001 
4193750000  -2.486558e+001  -3.423821e+001 
4196875000  -2.552818e+001  -3.475482e+001 
4200000000  -2.636841e+001  -3.276432e+001 
4203125000  -2.646352e+001  -1.951994e+001 
4206250000  -2.313153e+001  -1.722547e+001 
4209375000  -2.191031e+001  -3.792036e+001 
4212500000  -2.384295e+001  -4.690305e+001 
4215625000  -2.484126e+001  -4.090966e+001 
4218750000  -2.357154e+001  -3.373715e+001 
4221875000  -2.113659e+001  -4.320667e+001 
4225000000  -2.239294e+001  -5.579208e+001 
4228125000  -2.308758e+001  -5.073430e+001 
4231250000  -2.156100e+001  -5.451720e+001 
4234375000  -2.147887e+001  -6.282794e+001 
4237500000  -2.109332e+001  -6.606969e+001 
4240625000  -2.109284e+001  -7.477824e+001 
4243750000  -2.202162e+001  -8.135065e+001 
4246875000  -2.290706e+001  -8.164933e+001 
4250000000  -2.297658e+001  -7.861086e+001 
4253125000  -2.236679e+001  -8.050559e+001 
4256250000  -2.264140e+001  -8.439021e+001 
4259375000  -2.244030e+001  -8.629050e+001 
4262500000  -2.243451e+001  -9.025758e+001 
4265625000  -2.259327e+001  -9.025603e+001 
4268750000  -2.173179e+001  -9.407222e+001 
4271875000  -2.144537e+001  -9.981460e+001 
4275000000  -2.088228e+001  -1.059794e+002 
4278125000  -2.143179e+001  -1.173500e+002 
4281250000  -2.323405e+001  -1.192064e+002 
4284375000  -2.299662e+001  -1.185593e+002 
4287500000  -2.374291e+001  -1.219438e+002 
4290625000  -2.504620e+001  -1.127694e+002 
4293750000  -2.301017e+001  -1.071366e+002 
4296875000  -2.161051e+001  -1.183806e+002 
4300000000  -2.247746e+001  -1.278773e+002 
4303125000  -2.360321e+001  -1.265634e+002 
4306250000  -2.304443e+001  -1.207359e+002 
4309375000  -2.166149e+001  -1.223930e+002 
4312500000  -2.146815e+001  -1.307590e+002 
4315625000  -2.170189e+001  -1.371368e+002 
4318750000  -2.202636e+001  -1.403763e+002 
4321875000  -2.221269e+001  -1.398393e+002 
4325000000  -2.164063e+001  -1.392743e+002 
4328125000  -2.112302e+001  -1.457756e+002 
4331250000  -2.105483e+001  -1.537372e+002 
4334375000  -2.150660e+001  -1.585680e+002 
4337500000  -2.227422e+001  -1.608733e+002 
4340625000  -2.289995e+001  -1.577669e+002 
4343750000  -2.227833e+001  -1.571403e+002 
4346875000  -2.191943e+001  -1.625804e+002 
4350000000  -2.190424e+001  -1.673544e+002 
4353125000  -2.189552e+001  -1.752505e+002 
4356250000  -2.365130e+001  -1.762177e+002 
4359375000  -2.434376e+001  -1.632890e+002 
4362500000  -2.171481e+001  -1.609935e+002 
4365625000  -2.006700e+001  -1.728182e+002 
4368750000  -2.071430e+001  1.755414e+002 
4371875000  -2.193530e+001  1.757917e+002 
4375000000  -2.163495e+001  1.771811e+002 
4378125000  -2.098928e+001  1.714111e+002 
4381250000  -2.113759e+001  1.658208e+002 
4384375000  -2.092366e+001  1.616306e+002 
4387500000  -2.165804e+001  1.557490e+002 
4390625000  -2.268856e+001  1.564719e+002 
4393750000  -2.204765e+001  1.587930e+002 
4396875000  -2.136762e+001  1.564006e+002 
4400000000  -2.084841e+001  1.494559e+002 
4403125000  -2.139073e+001  1.420837e+002 
4406250000  -2.226857e+001  1.409126e+002 
4409375000  -2.223006e+001  1.384611e+002 
4412500000  -2.326863e+001  1.358659e+002 
4415625000  -2.364078e+001  1.406815e+002 
4418750000  -2.244644e+001  1.452529e+002 
