!Agilent Technologies,E8363B,MY43030201,A.06.04.32
!Agilent E8363B: A.06.04.32
!Date: Tuesday, November 11, 2014 20:50:52
!Correction: S21(Response(S21)) 
!S1P File: Measurement: S21:
# Hz S  dB   R 50
3000000000  -2.647918e+001  1.516881e+002 
3003125000  -2.792023e+001  1.472504e+002 
3006250000  -2.795983e+001  1.449092e+002 
3009375000  -2.831541e+001  1.496006e+002 
3012500000  -2.776467e+001  1.492200e+002 
3015625000  -2.682360e+001  1.420374e+002 
3018750000  -2.769818e+001  1.411563e+002 
3021875000  -2.638092e+001  1.426871e+002 
3025000000  -2.507552e+001  1.397088e+002 
3028125000  -2.415614e+001  1.345291e+002 
3031250000  -2.310180e+001  1.233955e+002 
3034375000  -2.274425e+001  1.104889e+002 
3037500000  -2.309109e+001  9.855486e+001 
3040625000  -2.441189e+001  9.339862e+001 
3043750000  -2.512732e+001  8.908675e+001 
3046875000  -2.523831e+001  8.272065e+001 
3050000000  -2.698142e+001  7.601334e+001 
3053125000  -2.710485e+001  8.251680e+001 
3056250000  -2.643540e+001  8.559421e+001 
3059375000  -2.666126e+001  8.500381e+001 
3062500000  -2.520390e+001  8.115877e+001 
3065625000  -2.498543e+001  7.542300e+001 
3068750000  -2.468361e+001  6.871117e+001 
3071875000  -2.466375e+001  6.551815e+001 
3075000000  -2.463587e+001  6.181429e+001 
3078125000  -2.434258e+001  5.731795e+001 
3081250000  -2.498292e+001  5.305115e+001 
3084375000  -2.425348e+001  4.944329e+001 
3087500000  -2.413101e+001  4.585433e+001 
3090625000  -2.383381e+001  3.594285e+001 
3093750000  -2.424814e+001  2.826179e+001 
3096875000  -2.558024e+001  2.223037e+001 
3100000000  -2.567835e+001  2.071578e+001 
3103125000  -2.607331e+001  2.213990e+001 
3106250000  -2.577491e+001  1.857879e+001 
3109375000  -2.603637e+001  1.510052e+001 
3112500000  -2.613454e+001  1.421480e+001 
3115625000  -2.595415e+001  9.826891e+000 
3118750000  -2.645332e+001  1.139214e+001 
3121875000  -2.578623e+001  3.144060e+000 
3125000000  -2.697799e+001  -1.671768e-001 
3128125000  -2.815599e+001  7.666378e+000 
3131250000  -2.599627e+001  8.362773e+000 
3134375000  -2.467705e+001  -5.171021e+000 
3137500000  -2.531382e+001  -1.893456e+001 
3140625000  -2.695721e+001  -2.079335e+001 
3143750000  -2.800455e+001  -1.643905e+001 
3146875000  -2.751551e+001  -1.419162e+001 
3150000000  -2.652499e+001  -1.223711e+001 
3153125000  -2.651153e+001  -2.012507e+001 
3156250000  -2.749403e+001  -1.441614e+001 
3159375000  -2.595339e+001  -1.175686e+001 
3162500000  -2.392763e+001  -2.446861e+001 
3165625000  -2.481855e+001  -3.521492e+001 
3168750000  -2.522674e+001  -3.446040e+001 
3171875000  -2.426224e+001  -3.888971e+001 
3175000000  -2.490757e+001  -4.644168e+001 
3178125000  -2.470526e+001  -4.497814e+001 
3181250000  -2.353282e+001  -4.895340e+001 
3184375000  -2.271742e+001  -6.106086e+001 
3187500000  -2.385480e+001  -7.628844e+001 
3190625000  -2.657681e+001  -8.378141e+001 
3193750000  -2.719537e+001  -7.411506e+001 
3196875000  -2.677507e+001  -6.860825e+001 
3200000000  -2.590518e+001  -7.064232e+001 
3203125000  -2.504786e+001  -7.653796e+001 
3206250000  -2.533863e+001  -8.266564e+001 
3209375000  -2.489779e+001  -8.764117e+001 
3212500000  -2.503308e+001  -9.434765e+001 
3215625000  -2.510351e+001  -9.850111e+001 
3218750000  -2.594644e+001  -1.046696e+002 
3221875000  -2.685992e+001  -1.099230e+002 
3225000000  -2.651331e+001  -1.105214e+002 
3228125000  -2.678496e+001  -1.152160e+002 
3231250000  -2.756684e+001  -1.177040e+002 
3234375000  -2.741889e+001  -1.166482e+002 
3237500000  -2.747140e+001  -1.184890e+002 
3240625000  -2.712897e+001  -1.199427e+002 
3243750000  -2.675416e+001  -1.265007e+002 
3246875000  -2.726383e+001  -1.331309e+002 
3250000000  -2.766942e+001  -1.349561e+002 
3253125000  -2.785427e+001  -1.367467e+002 
3256250000  -2.771395e+001  -1.424527e+002 
3259375000  -2.806613e+001  -1.498983e+002 
3262500000  -2.928100e+001  -1.530857e+002 
3265625000  -2.995650e+001  -1.490196e+002 
3268750000  -2.995663e+001  -1.471649e+002 
3271875000  -2.970317e+001  -1.456638e+002 
3275000000  -2.861128e+001  -1.510029e+002 
3278125000  -2.912719e+001  -1.570077e+002 
3281250000  -2.938580e+001  -1.552807e+002 
3284375000  -2.891777e+001  -1.608784e+002 
3287500000  -2.910718e+001  -1.635700e+002 
3290625000  -2.951569e+001  -1.681035e+002 
3293750000  -2.920430e+001  -1.737382e+002 
3296875000  -3.019483e+001  -1.735412e+002 
3300000000  -3.016356e+001  -1.724019e+002 
3303125000  -2.894212e+001  -1.765343e+002 
3306250000  -2.883081e+001  1.762699e+002 
3309375000  -2.861154e+001  1.709417e+002 
3312500000  -2.864729e+001  1.609824e+002 
3315625000  -2.969783e+001  1.533082e+002 
3318750000  -3.101217e+001  1.503218e+002 
3321875000  -3.227755e+001  1.504597e+002 
3325000000  -3.273341e+001  1.549095e+002 
3328125000  -3.269819e+001  1.568573e+002 
3331250000  -3.143217e+001  1.646988e+002 
3334375000  -2.886886e+001  1.550517e+002 
3337500000  -2.890405e+001  1.358568e+002 
3340625000  -3.029889e+001  1.252697e+002 
3343750000  -3.229514e+001  1.241639e+002 
3346875000  -3.274735e+001  1.253872e+002 
3350000000  -3.212706e+001  1.240894e+002 
3353125000  -3.226410e+001  1.201184e+002 
3356250000  -3.203564e+001  1.122077e+002 
3359375000  -3.288126e+001  1.036141e+002 
3362500000  -3.423293e+001  9.836811e+001 
3365625000  -3.474693e+001  9.693560e+001 
3368750000  -3.577090e+001  9.588656e+001 
3371875000  -3.620910e+001  9.189082e+001 
3375000000  -3.774560e+001  9.113114e+001 
3378125000  -3.880934e+001  8.981022e+001 
3381250000  -4.061741e+001  9.713536e+001 
3384375000  -3.987616e+001  1.187404e+002 
3387500000  -3.645888e+001  1.038336e+002 
3390625000  -3.842809e+001  8.627374e+001 
3393750000  -4.010024e+001  8.986787e+001 
3396875000  -3.928344e+001  9.403515e+001 
3400000000  -3.929526e+001  8.699442e+001 
3403125000  -4.034597e+001  8.288187e+001 
3406250000  -4.115314e+001  8.715652e+001 
3409375000  -4.190593e+001  8.190203e+001 
3412500000  -4.253418e+001  8.328825e+001 
3415625000  -4.329789e+001  8.932826e+001 
3418750000  -4.385921e+001  9.276647e+001 
3421875000  -4.412002e+001  1.012786e+002 
3425000000  -4.307901e+001  1.027725e+002 
3428125000  -4.211226e+001  1.017225e+002 
3431250000  -4.190896e+001  9.693742e+001 
3434375000  -4.176604e+001  9.645458e+001 
3437500000  -4.238488e+001  9.457122e+001 
3440625000  -4.240760e+001  9.596414e+001 
3443750000  -4.126096e+001  9.730825e+001 
3446875000  -4.035801e+001  9.428191e+001 
3450000000  -4.017139e+001  8.411052e+001 
3453125000  -4.044102e+001  7.552026e+001 
3456250000  -4.178688e+001  7.192377e+001 
3459375000  -4.273219e+001  7.332139e+001 
3462500000  -4.252834e+001  7.387803e+001 
3465625000  -4.286835e+001  7.096922e+001 
3468750000  -4.324141e+001  6.765673e+001 
3471875000  -4.320442e+001  6.639046e+001 
3475000000  -4.304607e+001  6.365632e+001 
3478125000  -4.401701e+001  5.909894e+001 
3481250000  -4.553291e+001  5.655126e+001 
3484375000  -4.662325e+001  6.568380e+001 
3487500000  -4.588342e+001  6.525891e+001 
3490625000  -4.566012e+001  6.378355e+001 
3493750000  -4.653972e+001  6.075161e+001 
3496875000  -4.746749e+001  6.383960e+001 
3500000000  -4.855965e+001  7.086773e+001 
3503125000  -4.786955e+001  7.317686e+001 
3506250000  -4.711370e+001  7.795113e+001 
3509375000  -4.677832e+001  7.525711e+001 
3512500000  -4.805042e+001  7.327485e+001 
3515625000  -4.775507e+001  7.945161e+001 
3518750000  -4.805124e+001  8.557957e+001 
3521875000  -4.792171e+001  8.466341e+001 
3525000000  -4.818444e+001  8.687171e+001 
3528125000  -4.734461e+001  1.000950e+002 
3531250000  -4.521507e+001  9.862466e+001 
3534375000  -4.463818e+001  8.992162e+001 
3537500000  -4.460690e+001  8.717070e+001 
3540625000  -4.539944e+001  8.615904e+001 
3543750000  -4.560189e+001  9.008998e+001 
3546875000  -4.482763e+001  1.023730e+002 
3550000000  -4.237089e+001  1.022413e+002 
3553125000  -4.091295e+001  8.781335e+001 
3556250000  -4.234564e+001  7.987457e+001 
3559375000  -4.183993e+001  8.307346e+001 
3562500000  -4.066790e+001  7.548656e+001 
3565625000  -4.142838e+001  7.017726e+001 
3568750000  -4.132428e+001  7.243845e+001 
3571875000  -4.101718e+001  7.161342e+001 
3575000000  -4.055977e+001  6.636972e+001 
3578125000  -4.127206e+001  6.235319e+001 
3581250000  -4.109256e+001  6.266891e+001 
3584375000  -4.026468e+001  6.161904e+001 
3587500000  -3.954326e+001  5.556666e+001 
3590625000  -3.998124e+001  4.685994e+001 
3593750000  -4.111216e+001  4.510990e+001 
3596875000  -4.125372e+001  5.272879e+001 
3600000000  -3.940698e+001  4.947797e+001 
3603125000  -3.978784e+001  3.526905e+001 
3606250000  -4.037416e+001  3.446281e+001 
3609375000  -4.075019e+001  3.267815e+001 
3612500000  -4.148767e+001  3.215902e+001 
3615625000  -4.134159e+001  3.057986e+001 
3618750000  -4.188760e+001  3.145887e+001 
3621875000  -4.134378e+001  2.984875e+001 
3625000000  -4.178350e+001  2.896935e+001 
3628125000  -4.172579e+001  3.072922e+001 
3631250000  -4.132117e+001  2.591462e+001 
3634375000  -4.261348e+001  2.669627e+001 
3637500000  -4.198152e+001  3.359901e+001 
3640625000  -4.082573e+001  3.465233e+001 
3643750000  -4.058379e+001  2.796572e+001 
3646875000  -4.132291e+001  2.318222e+001 
3650000000  -4.164098e+001  2.119387e+001 
3653125000  -4.131084e+001  2.411661e+001 
3656250000  -4.172131e+001  2.223405e+001 
3659375000  -4.225817e+001  2.566075e+001 
3662500000  -4.121556e+001  2.474377e+001 
3665625000  -4.129247e+001  2.445461e+001 
3668750000  -4.018858e+001  2.627655e+001 
3671875000  -3.908052e+001  2.120337e+001 
3675000000  -3.961731e+001  1.536330e+001 
3678125000  -4.013512e+001  1.718475e+001 
3681250000  -3.975109e+001  1.860090e+001 
3684375000  -3.933088e+001  1.547772e+001 
3687500000  -3.958656e+001  1.449193e+001 
3690625000  -3.969629e+001  9.934818e+000 
3693750000  -4.034411e+001  1.185137e+001 
3696875000  -3.996703e+001  1.663624e+001 
3700000000  -3.857431e+001  1.427420e+001 
3703125000  -3.867557e+001  1.124755e+001 
3706250000  -3.958278e+001  1.371363e+001 
3709375000  -3.851957e+001  1.553618e+001 
3712500000  -3.743308e+001  1.492280e+001 
3715625000  -3.639546e+001  1.107514e+001 
3718750000  -3.571852e+001  7.649129e+000 
3721875000  -3.520578e+001  1.167882e+000 
3725000000  -3.527524e+001  -3.224135e+000 
3728125000  -3.545707e+001  -4.145726e+000 
3731250000  -3.475160e+001  -4.538267e+000 
3734375000  -3.386518e+001  -1.054029e+001 
3737500000  -3.434831e+001  -1.733809e+001 
3740625000  -3.493814e+001  -2.113134e+001 
3743750000  -3.476687e+001  -2.293179e+001 
3746875000  -3.471374e+001  -2.605728e+001 
3750000000  -3.508017e+001  -2.609770e+001 
3753125000  -3.465746e+001  -2.655377e+001 
3756250000  -3.469903e+001  -2.702734e+001 
3759375000  -3.431432e+001  -2.757371e+001 
3762500000  -3.378374e+001  -3.214461e+001 
3765625000  -3.434614e+001  -3.418861e+001 
3768750000  -3.441793e+001  -3.259764e+001 
3771875000  -3.254243e+001  -3.466878e+001 
3775000000  -3.236524e+001  -4.135727e+001 
3778125000  -3.267792e+001  -4.336342e+001 
3781250000  -3.255059e+001  -4.665772e+001 
3784375000  -3.234324e+001  -4.849651e+001 
3787500000  -3.164665e+001  -5.229182e+001 
3790625000  -3.220546e+001  -5.766266e+001 
3793750000  -3.242318e+001  -5.838083e+001 
3796875000  -3.149879e+001  -5.979720e+001 
3800000000  -2.998876e+001  -6.362801e+001 
3803125000  -3.079807e+001  -7.040302e+001 
3806250000  -3.137177e+001  -7.304186e+001 
3809375000  -3.107103e+001  -7.407318e+001 
3812500000  -3.038796e+001  -7.906313e+001 
3815625000  -3.103125e+001  -8.605594e+001 
3818750000  -3.200061e+001  -8.832793e+001 
3821875000  -3.209233e+001  -7.937454e+001 
3825000000  -3.014397e+001  -7.562137e+001 
3828125000  -2.883710e+001  -8.868526e+001 
3831250000  -2.930355e+001  -1.028251e+002 
3834375000  -3.066502e+001  -1.043650e+002 
3837500000  -3.160161e+001  -9.868753e+001 
3840625000  -3.048708e+001  -9.970110e+001 
3843750000  -2.927790e+001  -1.106808e+002 
3846875000  -2.999760e+001  -1.171977e+002 
3850000000  -3.125625e+001  -1.116114e+002 
3853125000  -3.065715e+001  -1.098001e+002 
3856250000  -3.052878e+001  -1.139741e+002 
3859375000  -2.980595e+001  -1.178650e+002 
3862500000  -2.938610e+001  -1.255479e+002 
3865625000  -2.962804e+001  -1.300517e+002 
3868750000  -2.967183e+001  -1.305718e+002 
3871875000  -2.894295e+001  -1.332605e+002 
3875000000  -2.911385e+001  -1.413029e+002 
3878125000  -3.004783e+001  -1.441226e+002 
3881250000  -3.024727e+001  -1.409961e+002 
3884375000  -2.970409e+001  -1.453566e+002 
3887500000  -2.981389e+001  -1.499865e+002 
3890625000  -3.038250e+001  -1.522800e+002 
3893750000  -3.071487e+001  -1.531271e+002 
3896875000  -3.071483e+001  -1.513853e+002 
3900000000  -3.096677e+001  -1.532261e+002 
3903125000  -3.070727e+001  -1.548881e+002 
3906250000  -3.045460e+001  -1.560695e+002 
3909375000  -2.977459e+001  -1.589488e+002 
3912500000  -2.977891e+001  -1.658718e+002 
3915625000  -3.089325e+001  -1.651263e+002 
3918750000  -3.092912e+001  -1.635762e+002 
3921875000  -3.055433e+001  -1.654148e+002 
3925000000  -2.971945e+001  -1.656074e+002 
3928125000  -2.902971e+001  -1.721436e+002 
3931250000  -2.949622e+001  -1.758248e+002 
3934375000  -2.970671e+001  -1.756010e+002 
3937500000  -2.990250e+001  -1.763161e+002 
3940625000  -3.031772e+001  -1.763210e+002 
3943750000  -2.936242e+001  -1.750252e+002 
3946875000  -2.808677e+001  1.791707e+002 
3950000000  -2.863509e+001  1.716399e+002 
3953125000  -2.960655e+001  1.724516e+002 
3956250000  -2.879913e+001  1.751296e+002 
3959375000  -2.740281e+001  1.722045e+002 
3962500000  -2.692085e+001  1.679985e+002 
3965625000  -2.658660e+001  1.589476e+002 
3968750000  -2.751958e+001  1.524343e+002 
3971875000  -2.787928e+001  1.506096e+002 
3975000000  -2.722674e+001  1.486982e+002 
3978125000  -2.705011e+001  1.478180e+002 
3981250000  -2.686208e+001  1.433106e+002 
3984375000  -2.708199e+001  1.369446e+002 
3987500000  -2.762307e+001  1.350676e+002 
3990625000  -2.762961e+001  1.342134e+002 
3993750000  -2.785394e+001  1.315526e+002 
3996875000  -2.785859e+001  1.281373e+002 
4000000000  -2.795055e+001  1.266129e+002 
4003125000  -2.853477e+001  1.287843e+002 
4006250000  -2.715627e+001  1.296443e+002 
4009375000  -2.585998e+001  1.173877e+002 
4012500000  -2.696248e+001  1.102696e+002 
4015625000  -2.816090e+001  1.110821e+002 
4018750000  -2.838864e+001  1.132780e+002 
4021875000  -2.762997e+001  1.122039e+002 
4025000000  -2.731487e+001  1.071601e+002 
4028125000  -2.723209e+001  1.029937e+002 
4031250000  -2.767247e+001  9.956786e+001 
4034375000  -2.788634e+001  9.988814e+001 
4037500000  -2.731889e+001  1.014923e+002 
4040625000  -2.722626e+001  9.822968e+001 
4043750000  -2.761018e+001  9.806121e+001 
4046875000  -2.709342e+001  9.721279e+001 
4050000000  -2.664845e+001  9.165692e+001 
4053125000  -2.709717e+001  8.960358e+001 
4056250000  -2.770010e+001  9.318890e+001 
4059375000  -2.646038e+001  9.534661e+001 
4062500000  -2.506755e+001  9.070940e+001 
4065625000  -2.491837e+001  8.594892e+001 
4068750000  -2.461931e+001  8.138550e+001 
4071875000  -2.402626e+001  7.338676e+001 
4075000000  -2.440818e+001  6.694374e+001 
4078125000  -2.493537e+001  6.593844e+001 
4081250000  -2.443805e+001  6.359234e+001 
4084375000  -2.404103e+001  5.703472e+001 
4087500000  -2.440671e+001  5.048817e+001 
4090625000  -2.507221e+001  4.906389e+001 
4093750000  -2.485846e+001  5.013244e+001 
4096875000  -2.441999e+001  4.412565e+001 
4100000000  -2.513063e+001  3.728876e+001 
4103125000  -2.604989e+001  3.767191e+001 
4106250000  -2.588078e+001  4.265359e+001 
4109375000  -2.499657e+001  4.216287e+001 
4112500000  -2.449499e+001  3.586514e+001 
4115625000  -2.479150e+001  3.126529e+001 
4118750000  -2.493320e+001  2.887049e+001 
4121875000  -2.455588e+001  2.409128e+001 
4125000000  -2.487266e+001  1.915429e+001 
4128125000  -2.589262e+001  1.942247e+001 
4131250000  -2.564918e+001  2.723105e+001 
4134375000  -2.333113e+001  2.338835e+001 
4137500000  -2.307681e+001  4.537173e+000 
4140625000  -2.516576e+001  -2.558326e+000 
4143750000  -2.654271e+001  2.471721e+000 
4146875000  -2.615127e+001  9.706714e+000 
4150000000  -2.517903e+001  6.740953e+000 
4153125000  -2.497337e+001  2.880263e-002 
4156250000  -2.588358e+001  -2.192537e+000 
4159375000  -2.613221e+001  2.392765e+000 
4162500000  -2.501477e+001  6.188548e+000 
4165625000  -2.385649e+001  2.754542e+000 
4168750000  -2.319684e+001  -4.699953e+000 
4171875000  -2.318408e+001  -1.409607e+001 
4175000000  -2.371139e+001  -1.955643e+001 
4178125000  -2.434561e+001  -2.016227e+001 
4181250000  -2.418778e+001  -2.036172e+001 
4184375000  -2.407229e+001  -2.384496e+001 
4187500000  -2.407911e+001  -2.675440e+001 
4190625000  -2.386632e+001  -3.203885e+001 
4193750000  -2.463061e+001  -3.601291e+001 
4196875000  -2.537409e+001  -3.683525e+001 
4200000000  -2.619291e+001  -3.446875e+001 
4203125000  -2.631139e+001  -2.115054e+001 
4206250000  -2.295394e+001  -1.982686e+001 
4209375000  -2.178776e+001  -4.003839e+001 
4212500000  -2.367747e+001  -4.890350e+001 
4215625000  -2.469273e+001  -4.278448e+001 
4218750000  -2.343101e+001  -3.610508e+001 
4221875000  -2.108749e+001  -4.535197e+001 
4225000000  -2.234300e+001  -5.785652e+001 
4228125000  -2.303794e+001  -5.322244e+001 
4231250000  -2.148655e+001  -5.630133e+001 
4234375000  -2.144831e+001  -6.501337e+001 
4237500000  -2.106420e+001  -6.820486e+001 
4240625000  -2.102489e+001  -7.651465e+001 
4243750000  -2.199217e+001  -8.334205e+001 
4246875000  -2.292176e+001  -8.337193e+001 
4250000000  -2.294374e+001  -8.034847e+001 
4253125000  -2.236199e+001  -8.223683e+001 
4256250000  -2.265687e+001  -8.625516e+001 
4259375000  -2.238159e+001  -8.810754e+001 
4262500000  -2.239432e+001  -9.187693e+001 
4265625000  -2.256890e+001  -9.158083e+001 
4268750000  -2.170767e+001  -9.529445e+001 
4271875000  -2.146786e+001  -1.009239e+002 
4275000000  -2.081355e+001  -1.074232e+002 
4278125000  -2.140722e+001  -1.184661e+002 
4281250000  -2.319898e+001  -1.205859e+002 
4284375000  -2.279671e+001  -1.198475e+002 
4287500000  -2.363231e+001  -1.234867e+002 
4290625000  -2.487473e+001  -1.138694e+002 
4293750000  -2.287108e+001  -1.083616e+002 
4296875000  -2.155085e+001  -1.197446e+002 
4300000000  -2.238754e+001  -1.288623e+002 
4303125000  -2.347004e+001  -1.278104e+002 
4306250000  -2.285057e+001  -1.215987e+002 
4309375000  -2.145722e+001  -1.240978e+002 
4312500000  -2.133610e+001  -1.324079e+002 
4315625000  -2.154222e+001  -1.385059e+002 
4318750000  -2.186881e+001  -1.420829e+002 
4321875000  -2.203964e+001  -1.416128e+002 
4325000000  -2.144223e+001  -1.409505e+002 
4328125000  -2.094629e+001  -1.474841e+002 
4331250000  -2.088628e+001  -1.557138e+002 
4334375000  -2.132548e+001  -1.606870e+002 
4337500000  -2.216424e+001  -1.629764e+002 
4340625000  -2.275791e+001  -1.598212e+002 
4343750000  -2.215950e+001  -1.593810e+002 
4346875000  -2.177486e+001  -1.649490e+002 
4350000000  -2.178923e+001  -1.696564e+002 
4353125000  -2.182343e+001  -1.773338e+002 
4356250000  -2.352402e+001  -1.786980e+002 
4359375000  -2.429503e+001  -1.653926e+002 
4362500000  -2.158531e+001  -1.632583e+002 
4365625000  -1.995851e+001  -1.749199e+002 
4368750000  -2.065634e+001  1.732097e+002 
4371875000  -2.192134e+001  1.738017e+002 
4375000000  -2.155846e+001  1.749833e+002 
4378125000  -2.094447e+001  1.690415e+002 
4381250000  -2.112292e+001  1.639619e+002 
4384375000  -2.089388e+001  1.594289e+002 
4387500000  -2.165647e+001  1.538025e+002 
4390625000  -2.264984e+001  1.543179e+002 
4393750000  -2.197285e+001  1.568395e+002 
4396875000  -2.133546e+001  1.548107e+002 
4400000000  -2.081330e+001  1.479800e+002 
4403125000  -2.138023e+001  1.401964e+002 
4406250000  -2.221268e+001  1.389159e+002 
4409375000  -2.217858e+001  1.368672e+002 
4412500000  -2.316736e+001  1.339741e+002 
4415625000  -2.354646e+001  1.390689e+002 
4418750000  -2.239154e+001  1.438399e+002 
