!Agilent Technologies,E8363B,MY43030201,A.06.04.32
!Agilent E8363B: A.06.04.32
!Date: Tuesday, November 11, 2014 20:50:01
!Correction: S21(Response(S21)) 
!S1P File: Measurement: S21:
# Hz S  dB   R 50
3000000000  -2.654366e+001  1.532136e+002 
3003125000  -2.792532e+001  1.488217e+002 
3006250000  -2.799959e+001  1.460912e+002 
3009375000  -2.835360e+001  1.512222e+002 
3012500000  -2.781276e+001  1.507683e+002 
3015625000  -2.685118e+001  1.437238e+002 
3018750000  -2.769418e+001  1.429244e+002 
3021875000  -2.645333e+001  1.442263e+002 
3025000000  -2.515278e+001  1.412144e+002 
3028125000  -2.419529e+001  1.362458e+002 
3031250000  -2.315990e+001  1.251681e+002 
3034375000  -2.278317e+001  1.121634e+002 
3037500000  -2.313753e+001  1.003133e+002 
3040625000  -2.445968e+001  9.492599e+001 
3043750000  -2.517474e+001  9.069415e+001 
3046875000  -2.525045e+001  8.451643e+001 
3050000000  -2.702829e+001  7.761993e+001 
3053125000  -2.714377e+001  8.375888e+001 
3056250000  -2.647149e+001  8.687226e+001 
3059375000  -2.674152e+001  8.666336e+001 
3062500000  -2.519535e+001  8.264032e+001 
3065625000  -2.499217e+001  7.716837e+001 
3068750000  -2.476192e+001  6.998956e+001 
3071875000  -2.467479e+001  6.704620e+001 
3075000000  -2.470972e+001  6.344955e+001 
3078125000  -2.437706e+001  5.901674e+001 
3081250000  -2.502374e+001  5.462601e+001 
3084375000  -2.425949e+001  5.079730e+001 
3087500000  -2.414687e+001  4.752391e+001 
3090625000  -2.384450e+001  3.771362e+001 
3093750000  -2.427963e+001  2.965428e+001 
3096875000  -2.559103e+001  2.347727e+001 
3100000000  -2.574195e+001  2.244181e+001 
3103125000  -2.607276e+001  2.374299e+001 
3106250000  -2.580996e+001  2.009787e+001 
3109375000  -2.606114e+001  1.667310e+001 
3112500000  -2.617256e+001  1.576381e+001 
3115625000  -2.597056e+001  1.149454e+001 
3118750000  -2.645896e+001  1.272226e+001 
3121875000  -2.578734e+001  4.496638e+000 
3125000000  -2.694502e+001  1.182972e+000 
3128125000  -2.816125e+001  9.008651e+000 
3131250000  -2.595574e+001  9.849319e+000 
3134375000  -2.464462e+001  -3.929103e+000 
3137500000  -2.530765e+001  -1.794480e+001 
3140625000  -2.693481e+001  -1.926717e+001 
3143750000  -2.794088e+001  -1.512230e+001 
3146875000  -2.753024e+001  -1.330438e+001 
3150000000  -2.652043e+001  -1.086972e+001 
3153125000  -2.650919e+001  -1.870100e+001 
3156250000  -2.745485e+001  -1.346387e+001 
3159375000  -2.595630e+001  -1.011016e+001 
3162500000  -2.385551e+001  -2.337691e+001 
3165625000  -2.481709e+001  -3.417366e+001 
3168750000  -2.520426e+001  -3.323019e+001 
3171875000  -2.426918e+001  -3.748506e+001 
3175000000  -2.492903e+001  -4.514436e+001 
3178125000  -2.468188e+001  -4.362997e+001 
3181250000  -2.350046e+001  -4.765922e+001 
3184375000  -2.270601e+001  -5.985102e+001 
3187500000  -2.386077e+001  -7.504162e+001 
3190625000  -2.662174e+001  -8.240523e+001 
3193750000  -2.722501e+001  -7.285519e+001 
3196875000  -2.676949e+001  -6.753654e+001 
3200000000  -2.591955e+001  -6.934644e+001 
3203125000  -2.501060e+001  -7.512946e+001 
3206250000  -2.531988e+001  -8.120517e+001 
3209375000  -2.485541e+001  -8.622405e+001 
3212500000  -2.496766e+001  -9.294078e+001 
3215625000  -2.515242e+001  -9.732955e+001 
3218750000  -2.584886e+001  -1.035491e+002 
3221875000  -2.686147e+001  -1.084757e+002 
3225000000  -2.643247e+001  -1.092112e+002 
3228125000  -2.679767e+001  -1.135001e+002 
3231250000  -2.749644e+001  -1.162622e+002 
3234375000  -2.741130e+001  -1.153484e+002 
3237500000  -2.743471e+001  -1.169804e+002 
3240625000  -2.707484e+001  -1.188672e+002 
3243750000  -2.675318e+001  -1.251170e+002 
3246875000  -2.719502e+001  -1.319314e+002 
3250000000  -2.764089e+001  -1.338941e+002 
3253125000  -2.785847e+001  -1.352298e+002 
3256250000  -2.765557e+001  -1.412310e+002 
3259375000  -2.805184e+001  -1.487555e+002 
3262500000  -2.922206e+001  -1.515405e+002 
3265625000  -3.000198e+001  -1.483025e+002 
3268750000  -2.992096e+001  -1.458012e+002 
3271875000  -2.968410e+001  -1.445159e+002 
3275000000  -2.856912e+001  -1.498185e+002 
3278125000  -2.905123e+001  -1.561854e+002 
3281250000  -2.934596e+001  -1.540544e+002 
3284375000  -2.885148e+001  -1.601477e+002 
3287500000  -2.905795e+001  -1.631207e+002 
3290625000  -2.949162e+001  -1.668014e+002 
3293750000  -2.913577e+001  -1.725080e+002 
3296875000  -3.013483e+001  -1.722771e+002 
3300000000  -3.008602e+001  -1.712006e+002 
3303125000  -2.890553e+001  -1.754889e+002 
3306250000  -2.869563e+001  1.779454e+002 
3309375000  -2.845016e+001  1.731947e+002 
3312500000  -2.849222e+001  1.625967e+002 
3315625000  -2.952737e+001  1.545185e+002 
3318750000  -3.086256e+001  1.521133e+002 
3321875000  -3.203508e+001  1.518372e+002 
3325000000  -3.266208e+001  1.565558e+002 
3328125000  -3.249076e+001  1.588071e+002 
3331250000  -3.127692e+001  1.659929e+002 
3334375000  -2.873550e+001  1.568269e+002 
3337500000  -2.868549e+001  1.382464e+002 
3340625000  -3.007112e+001  1.270935e+002 
3343750000  -3.210705e+001  1.260126e+002 
3346875000  -3.259565e+001  1.280218e+002 
3350000000  -3.194542e+001  1.267415e+002 
3353125000  -3.207074e+001  1.216601e+002 
3356250000  -3.174657e+001  1.144518e+002 
3359375000  -3.254727e+001  1.061359e+002 
3362500000  -3.395120e+001  1.007437e+002 
3365625000  -3.446850e+001  9.948469e+001 
3368750000  -3.554967e+001  9.746394e+001 
3371875000  -3.592360e+001  9.441673e+001 
3375000000  -3.745921e+001  9.205154e+001 
3378125000  -3.865308e+001  9.270190e+001 
3381250000  -4.006202e+001  9.910511e+001 
3384375000  -3.921050e+001  1.209623e+002 
3387500000  -3.600572e+001  1.059361e+002 
3390625000  -3.791875e+001  8.770671e+001 
3393750000  -3.971323e+001  9.088415e+001 
3396875000  -3.884687e+001  9.414458e+001 
3400000000  -3.875330e+001  8.838653e+001 
3403125000  -3.977260e+001  8.228693e+001 
3406250000  -4.068231e+001  8.598103e+001 
3409375000  -4.119398e+001  8.230505e+001 
3412500000  -4.211388e+001  8.023328e+001 
3415625000  -4.283315e+001  8.840930e+001 
3418750000  -4.324620e+001  9.155939e+001 
3421875000  -4.334461e+001  9.941597e+001 
3425000000  -4.281852e+001  1.010919e+002 
3428125000  -4.184641e+001  1.014804e+002 
3431250000  -4.163107e+001  9.759107e+001 
3434375000  -4.156107e+001  9.404350e+001 
3437500000  -4.191480e+001  9.146806e+001 
3440625000  -4.219258e+001  9.639067e+001 
3443750000  -4.124712e+001  9.722896e+001 
3446875000  -4.022930e+001  9.309007e+001 
3450000000  -3.991610e+001  8.306859e+001 
3453125000  -4.023701e+001  7.685533e+001 
3456250000  -4.147245e+001  7.069740e+001 
3459375000  -4.265921e+001  7.347652e+001 
3462500000  -4.249108e+001  7.579595e+001 
3465625000  -4.251819e+001  7.113072e+001 
3468750000  -4.291669e+001  6.695143e+001 
3471875000  -4.281218e+001  6.771539e+001 
3475000000  -4.294883e+001  6.380508e+001 
3478125000  -4.361497e+001  5.743855e+001 
3481250000  -4.467091e+001  5.836951e+001 
3484375000  -4.624195e+001  6.367781e+001 
3487500000  -4.597310e+001  6.642359e+001 
3490625000  -4.506402e+001  6.270931e+001 
3493750000  -4.622842e+001  5.868338e+001 
3496875000  -4.695378e+001  6.042242e+001 
3500000000  -4.787315e+001  7.163541e+001 
3503125000  -4.794799e+001  7.235538e+001 
3506250000  -4.690801e+001  7.464650e+001 
3509375000  -4.678566e+001  7.216886e+001 
3512500000  -4.720375e+001  7.161478e+001 
3515625000  -4.746260e+001  7.297164e+001 
3518750000  -4.854903e+001  7.763398e+001 
3521875000  -4.804633e+001  8.371451e+001 
3525000000  -4.797784e+001  8.356698e+001 
3528125000  -4.837032e+001  9.382447e+001 
3531250000  -4.592744e+001  9.783630e+001 
3534375000  -4.506456e+001  8.789063e+001 
3537500000  -4.521871e+001  8.624966e+001 
3540625000  -4.559573e+001  8.554714e+001 
3543750000  -4.635767e+001  8.864127e+001 
3546875000  -4.567112e+001  1.020598e+002 
3550000000  -4.295684e+001  1.017179e+002 
3553125000  -4.128481e+001  8.608066e+001 
3556250000  -4.232743e+001  8.122108e+001 
3559375000  -4.217315e+001  8.367471e+001 
3562500000  -4.103322e+001  7.485707e+001 
3565625000  -4.162514e+001  6.950915e+001 
3568750000  -4.174511e+001  7.448205e+001 
3571875000  -4.164884e+001  7.132054e+001 
3575000000  -4.106605e+001  6.719837e+001 
3578125000  -4.162057e+001  6.317660e+001 
3581250000  -4.152471e+001  6.376915e+001 
3584375000  -4.065102e+001  6.491626e+001 
3587500000  -3.987814e+001  5.709957e+001 
3590625000  -4.001662e+001  4.873252e+001 
3593750000  -4.123889e+001  4.718169e+001 
3596875000  -4.126269e+001  5.444302e+001 
3600000000  -3.961993e+001  5.107297e+001 
3603125000  -3.978778e+001  3.750944e+001 
3606250000  -4.035178e+001  3.493371e+001 
3609375000  -4.088687e+001  3.465178e+001 
3612500000  -4.100002e+001  3.409355e+001 
3615625000  -4.115477e+001  3.075927e+001 
3618750000  -4.168820e+001  3.332455e+001 
3621875000  -4.140673e+001  3.083899e+001 
3625000000  -4.166317e+001  3.013625e+001 
3628125000  -4.140901e+001  3.184947e+001 
3631250000  -4.138662e+001  2.457473e+001 
3634375000  -4.233307e+001  2.720827e+001 
3637500000  -4.223631e+001  3.173551e+001 
3640625000  -4.117426e+001  3.551185e+001 
3643750000  -4.081729e+001  2.885859e+001 
3646875000  -4.133618e+001  2.321336e+001 
3650000000  -4.152270e+001  2.248340e+001 
3653125000  -4.175802e+001  2.179489e+001 
3656250000  -4.198225e+001  2.073794e+001 
3659375000  -4.184309e+001  2.351235e+001 
3662500000  -4.126516e+001  2.368369e+001 
3665625000  -4.171616e+001  2.396599e+001 
3668750000  -4.037351e+001  2.603846e+001 
3671875000  -3.924949e+001  2.250811e+001 
3675000000  -4.011959e+001  1.561641e+001 
3678125000  -4.044962e+001  1.632632e+001 
3681250000  -3.986229e+001  1.625339e+001 
3684375000  -3.994612e+001  1.578353e+001 
3687500000  -3.991292e+001  1.545010e+001 
3690625000  -3.978272e+001  1.269755e+001 
3693750000  -4.038580e+001  1.506733e+001 
3696875000  -4.008390e+001  1.912856e+001 
3700000000  -3.912742e+001  1.711231e+001 
3703125000  -3.885524e+001  1.257548e+001 
3706250000  -3.955090e+001  1.391500e+001 
3709375000  -3.885149e+001  1.742725e+001 
3712500000  -3.755539e+001  1.825731e+001 
3715625000  -3.647507e+001  1.128490e+001 
3718750000  -3.574736e+001  9.475934e+000 
3721875000  -3.532434e+001  3.118394e+000 
3725000000  -3.541028e+001  -5.970640e-001 
3728125000  -3.541215e+001  -1.793033e+000 
3731250000  -3.473762e+001  -2.578839e+000 
3734375000  -3.391261e+001  -8.947461e+000 
3737500000  -3.423805e+001  -1.687422e+001 
3740625000  -3.507780e+001  -1.847471e+001 
3743750000  -3.478785e+001  -2.131746e+001 
3746875000  -3.466366e+001  -2.460928e+001 
3750000000  -3.511445e+001  -2.529704e+001 
3753125000  -3.474752e+001  -2.540091e+001 
3756250000  -3.471399e+001  -2.627037e+001 
3759375000  -3.438705e+001  -2.696680e+001 
3762500000  -3.389864e+001  -3.094182e+001 
3765625000  -3.443480e+001  -3.365568e+001 
3768750000  -3.444333e+001  -3.170020e+001 
3771875000  -3.264890e+001  -3.292168e+001 
3775000000  -3.240155e+001  -4.126028e+001 
3778125000  -3.273831e+001  -4.291514e+001 
3781250000  -3.256480e+001  -4.666068e+001 
3784375000  -3.243662e+001  -4.716726e+001 
3787500000  -3.197416e+001  -5.128686e+001 
3790625000  -3.240890e+001  -5.729645e+001 
3793750000  -3.254565e+001  -5.665932e+001 
3796875000  -3.170623e+001  -5.892010e+001 
3800000000  -3.010622e+001  -6.195982e+001 
3803125000  -3.081598e+001  -6.900132e+001 
3806250000  -3.156307e+001  -7.155711e+001 
3809375000  -3.124203e+001  -7.239446e+001 
3812500000  -3.047148e+001  -7.759923e+001 
3815625000  -3.109846e+001  -8.462405e+001 
3818750000  -3.200323e+001  -8.644537e+001 
3821875000  -3.214118e+001  -7.888297e+001 
3825000000  -3.016930e+001  -7.358675e+001 
3828125000  -2.889364e+001  -8.737975e+001 
3831250000  -2.941093e+001  -1.012405e+002 
3834375000  -3.064437e+001  -1.026334e+002 
3837500000  -3.168808e+001  -9.761041e+001 
3840625000  -3.047087e+001  -9.806281e+001 
3843750000  -2.939592e+001  -1.072108e+002 
3846875000  -3.004671e+001  -1.153570e+002 
3850000000  -3.133393e+001  -1.102544e+002 
3853125000  -3.049991e+001  -1.074571e+002 
3856250000  -3.038122e+001  -1.117646e+002 
3859375000  -2.982208e+001  -1.164510e+002 
3862500000  -2.937545e+001  -1.241522e+002 
3865625000  -2.956377e+001  -1.288107e+002 
3868750000  -2.965053e+001  -1.289674e+002 
3871875000  -2.896212e+001  -1.318436e+002 
3875000000  -2.905634e+001  -1.405800e+002 
3878125000  -3.009743e+001  -1.432936e+002 
3881250000  -3.024256e+001  -1.399683e+002 
3884375000  -2.959992e+001  -1.449641e+002 
3887500000  -2.980743e+001  -1.486833e+002 
3890625000  -3.028540e+001  -1.510309e+002 
3893750000  -3.079232e+001  -1.526387e+002 
3896875000  -3.078719e+001  -1.519368e+002 
3900000000  -3.117470e+001  -1.523691e+002 
3903125000  -3.085050e+001  -1.542014e+002 
3906250000  -3.054608e+001  -1.554067e+002 
3909375000  -2.975056e+001  -1.582008e+002 
3912500000  -2.977156e+001  -1.656447e+002 
3915625000  -3.099198e+001  -1.641929e+002 
3918750000  -3.098785e+001  -1.621426e+002 
3921875000  -3.068369e+001  -1.644801e+002 
3925000000  -2.995501e+001  -1.651193e+002 
3928125000  -2.921082e+001  -1.707604e+002 
3931250000  -2.956719e+001  -1.746240e+002 
3934375000  -2.981137e+001  -1.742739e+002 
3937500000  -2.998338e+001  -1.746965e+002 
3940625000  -3.045136e+001  -1.750673e+002 
3943750000  -2.950294e+001  -1.731796e+002 
3946875000  -2.826566e+001  -1.789400e+002 
3950000000  -2.872522e+001  1.731894e+002 
3953125000  -2.970766e+001  1.739581e+002 
3956250000  -2.879824e+001  1.772730e+002 
3959375000  -2.738615e+001  1.736727e+002 
3962500000  -2.699195e+001  1.694849e+002 
3965625000  -2.656866e+001  1.607363e+002 
3968750000  -2.749049e+001  1.542803e+002 
3971875000  -2.788957e+001  1.527016e+002 
3975000000  -2.719627e+001  1.510098e+002 
3978125000  -2.699264e+001  1.489207e+002 
3981250000  -2.674549e+001  1.448125e+002 
3984375000  -2.703038e+001  1.388258e+002 
3987500000  -2.748207e+001  1.364849e+002 
3990625000  -2.749991e+001  1.359422e+002 
3993750000  -2.775346e+001  1.324445e+002 
3996875000  -2.769086e+001  1.298527e+002 
4000000000  -2.780635e+001  1.279403e+002 
4003125000  -2.839331e+001  1.305342e+002 
4006250000  -2.704982e+001  1.304833e+002 
4009375000  -2.580119e+001  1.183667e+002 
4012500000  -2.677221e+001  1.108802e+002 
4015625000  -2.805753e+001  1.115034e+002 
4018750000  -2.824189e+001  1.134629e+002 
4021875000  -2.764347e+001  1.121912e+002 
4025000000  -2.735582e+001  1.076059e+002 
4028125000  -2.716468e+001  1.038535e+002 
4031250000  -2.763482e+001  1.007577e+002 
4034375000  -2.791355e+001  1.005327e+002 
4037500000  -2.739992e+001  1.025721e+002 
4040625000  -2.734692e+001  9.910004e+001 
4043750000  -2.762988e+001  9.858752e+001 
4046875000  -2.727327e+001  9.857818e+001 
4050000000  -2.679254e+001  9.255022e+001 
4053125000  -2.725616e+001  9.071260e+001 
4056250000  -2.779339e+001  9.478407e+001 
4059375000  -2.656301e+001  9.659680e+001 
4062500000  -2.523447e+001  9.206030e+001 
4065625000  -2.504954e+001  8.722365e+001 
4068750000  -2.474504e+001  8.302085e+001 
4071875000  -2.411579e+001  7.521628e+001 
4075000000  -2.451175e+001  6.875308e+001 
4078125000  -2.504693e+001  6.761645e+001 
4081250000  -2.456499e+001  6.528994e+001 
4084375000  -2.410136e+001  5.881596e+001 
4087500000  -2.447005e+001  5.238901e+001 
4090625000  -2.504406e+001  5.120440e+001 
4093750000  -2.489211e+001  5.184146e+001 
4096875000  -2.443666e+001  4.639200e+001 
4100000000  -2.503474e+001  3.934285e+001 
4103125000  -2.600454e+001  3.955661e+001 
4106250000  -2.587117e+001  4.474973e+001 
4109375000  -2.500357e+001  4.388888e+001 
4112500000  -2.440996e+001  3.703179e+001 
4115625000  -2.472045e+001  3.321590e+001 
4118750000  -2.482275e+001  3.020329e+001 
4121875000  -2.442742e+001  2.562472e+001 
4125000000  -2.479727e+001  2.067886e+001 
4128125000  -2.580874e+001  2.031324e+001 
4131250000  -2.560007e+001  2.838030e+001 
4134375000  -2.323335e+001  2.429881e+001 
4137500000  -2.296386e+001  5.473951e+000 
4140625000  -2.516111e+001  -1.612551e+000 
4143750000  -2.646358e+001  2.826756e+000 
4146875000  -2.608068e+001  1.058130e+001 
4150000000  -2.519104e+001  7.042781e+000 
4153125000  -2.498645e+001  9.437777e-001 
4156250000  -2.588300e+001  -1.710249e+000 
4159375000  -2.616766e+001  2.401023e+000 
4162500000  -2.502371e+001  7.106634e+000 
4165625000  -2.393035e+001  3.204064e+000 
4168750000  -2.331856e+001  -3.912609e+000 
4171875000  -2.328024e+001  -1.341360e+001 
4175000000  -2.379442e+001  -1.880595e+001 
4178125000  -2.447477e+001  -1.911501e+001 
4181250000  -2.435422e+001  -1.963087e+001 
4184375000  -2.417435e+001  -2.246788e+001 
4187500000  -2.423313e+001  -2.548539e+001 
4190625000  -2.401388e+001  -3.075444e+001 
4193750000  -2.483650e+001  -3.433035e+001 
4196875000  -2.548652e+001  -3.492820e+001 
4200000000  -2.638295e+001  -3.307822e+001 
4203125000  -2.642060e+001  -1.983214e+001 
4206250000  -2.306730e+001  -1.773564e+001 
4209375000  -2.186838e+001  -3.799537e+001 
4212500000  -2.371599e+001  -4.713944e+001 
4215625000  -2.475827e+001  -4.121666e+001 
4218750000  -2.343792e+001  -3.404107e+001 
4221875000  -2.109601e+001  -4.358950e+001 
4225000000  -2.231610e+001  -5.580353e+001 
4228125000  -2.308224e+001  -5.114221e+001 
4231250000  -2.149040e+001  -5.470453e+001 
4234375000  -2.142284e+001  -6.296807e+001 
4237500000  -2.100717e+001  -6.624258e+001 
4240625000  -2.098450e+001  -7.498229e+001 
4243750000  -2.197294e+001  -8.163084e+001 
4246875000  -2.285044e+001  -8.188662e+001 
4250000000  -2.289634e+001  -7.901274e+001 
4253125000  -2.234144e+001  -8.108030e+001 
4256250000  -2.261056e+001  -8.492652e+001 
4259375000  -2.237579e+001  -8.707125e+001 
4262500000  -2.239704e+001  -9.087276e+001 
4265625000  -2.255688e+001  -9.062158e+001 
4268750000  -2.169926e+001  -9.452119e+001 
4271875000  -2.143704e+001  -1.000061e+002 
4275000000  -2.079008e+001  -1.063978e+002 
4278125000  -2.140798e+001  -1.174180e+002 
4281250000  -2.318536e+001  -1.197686e+002 
4284375000  -2.294168e+001  -1.192887e+002 
4287500000  -2.358207e+001  -1.227198e+002 
4290625000  -2.491910e+001  -1.130081e+002 
4293750000  -2.295845e+001  -1.075919e+002 
4296875000  -2.162427e+001  -1.187809e+002 
4300000000  -2.244372e+001  -1.279479e+002 
4303125000  -2.360249e+001  -1.268723e+002 
4306250000  -2.299432e+001  -1.210173e+002 
4309375000  -2.157019e+001  -1.227067e+002 
4312500000  -2.149064e+001  -1.312257e+002 
4315625000  -2.169939e+001  -1.373165e+002 
4318750000  -2.199367e+001  -1.405573e+002 
4321875000  -2.217472e+001  -1.401528e+002 
4325000000  -2.159803e+001  -1.394630e+002 
4328125000  -2.109821e+001  -1.459294e+002 
4331250000  -2.103464e+001  -1.539306e+002 
4334375000  -2.146079e+001  -1.588746e+002 
4337500000  -2.227591e+001  -1.608509e+002 
4340625000  -2.280886e+001  -1.580960e+002 
4343750000  -2.225185e+001  -1.574767e+002 
4346875000  -2.183782e+001  -1.626570e+002 
4350000000  -2.185739e+001  -1.676672e+002 
4353125000  -2.186069e+001  -1.753654e+002 
4356250000  -2.353927e+001  -1.765741e+002 
4359375000  -2.421647e+001  -1.629176e+002 
4362500000  -2.160365e+001  -1.615043e+002 
4365625000  -1.996429e+001  -1.728714e+002 
4368750000  -2.062987e+001  1.751683e+002 
4371875000  -2.187058e+001  1.757267e+002 
4375000000  -2.151039e+001  1.770232e+002 
4378125000  -2.086048e+001  1.711143e+002 
4381250000  -2.106449e+001  1.655105e+002 
4384375000  -2.088066e+001  1.613063e+002 
4387500000  -2.160007e+001  1.553381e+002 
4390625000  -2.261330e+001  1.562338e+002 
4393750000  -2.197733e+001  1.582250e+002 
4396875000  -2.127304e+001  1.561388e+002 
4400000000  -2.079033e+001  1.492890e+002 
4403125000  -2.133698e+001  1.415274e+002 
4406250000  -2.220569e+001  1.402349e+002 
4409375000  -2.216431e+001  1.378840e+002 
4412500000  -2.315582e+001  1.351944e+002 
4415625000  -2.356141e+001  1.401636e+002 
4418750000  -2.243319e+001  1.448073e+002 
