!Agilent Technologies,E8363B,MY43030201,A.06.04.32
!Agilent E8363B: A.06.04.32
!Date: Tuesday, November 11, 2014 20:51:17
!Correction: S21(Response(S21)) 
!S1P File: Measurement: S21:
# Hz S  dB   R 50
3000000000  -2.650783e+001  1.521370e+002 
3003125000  -2.791448e+001  1.475414e+002 
3006250000  -2.794648e+001  1.449418e+002 
3009375000  -2.834668e+001  1.500060e+002 
3012500000  -2.784992e+001  1.493371e+002 
3015625000  -2.683521e+001  1.424619e+002 
3018750000  -2.771217e+001  1.417007e+002 
3021875000  -2.643001e+001  1.430648e+002 
3025000000  -2.511608e+001  1.399476e+002 
3028125000  -2.413663e+001  1.349882e+002 
3031250000  -2.310769e+001  1.237660e+002 
3034375000  -2.276723e+001  1.106683e+002 
3037500000  -2.311568e+001  9.888303e+001 
3040625000  -2.446135e+001  9.377473e+001 
3043750000  -2.514278e+001  8.946189e+001 
3046875000  -2.529357e+001  8.334780e+001 
3050000000  -2.699608e+001  7.612281e+001 
3053125000  -2.713132e+001  8.278052e+001 
3056250000  -2.641486e+001  8.582979e+001 
3059375000  -2.670670e+001  8.546851e+001 
3062500000  -2.523094e+001  8.168787e+001 
3065625000  -2.501732e+001  7.589085e+001 
3068750000  -2.472510e+001  6.882337e+001 
3071875000  -2.466267e+001  6.577400e+001 
3075000000  -2.463464e+001  6.215301e+001 
3078125000  -2.432501e+001  5.766175e+001 
3081250000  -2.499953e+001  5.338216e+001 
3084375000  -2.426407e+001  4.956051e+001 
3087500000  -2.412491e+001  4.612300e+001 
3090625000  -2.382243e+001  3.649257e+001 
3093750000  -2.426351e+001  2.861999e+001 
3096875000  -2.553469e+001  2.253315e+001 
3100000000  -2.570406e+001  2.115381e+001 
3103125000  -2.606696e+001  2.248111e+001 
3106250000  -2.580071e+001  1.883220e+001 
3109375000  -2.602038e+001  1.563282e+001 
3112500000  -2.618234e+001  1.441912e+001 
3115625000  -2.594109e+001  1.039714e+001 
3118750000  -2.645822e+001  1.147123e+001 
3121875000  -2.579091e+001  3.402639e+000 
3125000000  -2.695911e+001  1.575285e-001 
3128125000  -2.815462e+001  7.845932e+000 
3131250000  -2.593460e+001  8.642332e+000 
3134375000  -2.466516e+001  -5.107675e+000 
3137500000  -2.529930e+001  -1.887062e+001 
3140625000  -2.688281e+001  -2.031518e+001 
3143750000  -2.791269e+001  -1.668420e+001 
3146875000  -2.752287e+001  -1.473542e+001 
3150000000  -2.651892e+001  -1.195176e+001 
3153125000  -2.648376e+001  -1.993509e+001 
3156250000  -2.745892e+001  -1.447475e+001 
3159375000  -2.586584e+001  -1.120891e+001 
3162500000  -2.387035e+001  -2.435795e+001 
3165625000  -2.484850e+001  -3.549275e+001 
3168750000  -2.519124e+001  -3.442659e+001 
3171875000  -2.427854e+001  -3.855074e+001 
3175000000  -2.487705e+001  -4.640844e+001 
3178125000  -2.469958e+001  -4.464669e+001 
3181250000  -2.352518e+001  -4.889868e+001 
3184375000  -2.273172e+001  -6.111112e+001 
3187500000  -2.380047e+001  -7.621098e+001 
3190625000  -2.662796e+001  -8.357593e+001 
3193750000  -2.720617e+001  -7.417460e+001 
3196875000  -2.676702e+001  -6.873891e+001 
3200000000  -2.590744e+001  -7.066759e+001 
3203125000  -2.502265e+001  -7.639137e+001 
3206250000  -2.534206e+001  -8.235233e+001 
3209375000  -2.486797e+001  -8.753497e+001 
3212500000  -2.498030e+001  -9.402290e+001 
3215625000  -2.514225e+001  -9.813538e+001 
3218750000  -2.590775e+001  -1.045943e+002 
3221875000  -2.687019e+001  -1.096672e+002 
3225000000  -2.645166e+001  -1.103395e+002 
3228125000  -2.679075e+001  -1.151120e+002 
3231250000  -2.751567e+001  -1.174137e+002 
3234375000  -2.736696e+001  -1.164555e+002 
3237500000  -2.738118e+001  -1.183249e+002 
3240625000  -2.710002e+001  -1.198150e+002 
3243750000  -2.673027e+001  -1.263035e+002 
3246875000  -2.722280e+001  -1.332236e+002 
3250000000  -2.766769e+001  -1.348821e+002 
3253125000  -2.781999e+001  -1.366268e+002 
3256250000  -2.763388e+001  -1.426132e+002 
3259375000  -2.800984e+001  -1.498035e+002 
3262500000  -2.927749e+001  -1.528646e+002 
3265625000  -2.992882e+001  -1.497875e+002 
3268750000  -2.988522e+001  -1.470499e+002 
3271875000  -2.967984e+001  -1.454236e+002 
3275000000  -2.854722e+001  -1.508032e+002 
3278125000  -2.907684e+001  -1.569321e+002 
3281250000  -2.940273e+001  -1.556703e+002 
3284375000  -2.892759e+001  -1.610539e+002 
3287500000  -2.906364e+001  -1.640943e+002 
3290625000  -2.945456e+001  -1.680229e+002 
3293750000  -2.911881e+001  -1.737729e+002 
3296875000  -3.015232e+001  -1.734894e+002 
3300000000  -3.012016e+001  -1.724543e+002 
3303125000  -2.889841e+001  -1.763986e+002 
3306250000  -2.869498e+001  1.766715e+002 
3309375000  -2.845317e+001  1.720545e+002 
3312500000  -2.855071e+001  1.616055e+002 
3315625000  -2.950321e+001  1.537694e+002 
3318750000  -3.084793e+001  1.513722e+002 
3321875000  -3.205702e+001  1.513079e+002 
3325000000  -3.264320e+001  1.560420e+002 
3328125000  -3.250013e+001  1.575445e+002 
3331250000  -3.123871e+001  1.654579e+002 
3334375000  -2.868950e+001  1.552972e+002 
3337500000  -2.874676e+001  1.372674e+002 
3340625000  -3.003568e+001  1.261928e+002 
3343750000  -3.207785e+001  1.247745e+002 
3346875000  -3.251859e+001  1.263262e+002 
3350000000  -3.192453e+001  1.252409e+002 
3353125000  -3.202154e+001  1.208924e+002 
3356250000  -3.173248e+001  1.134882e+002 
3359375000  -3.262167e+001  1.052116e+002 
3362500000  -3.387006e+001  9.960069e+001 
3365625000  -3.448668e+001  9.776447e+001 
3368750000  -3.534167e+001  9.651302e+001 
3371875000  -3.586986e+001  9.309803e+001 
3375000000  -3.744699e+001  9.124880e+001 
3378125000  -3.859219e+001  9.068684e+001 
3381250000  -4.002511e+001  9.820834e+001 
3384375000  -3.939045e+001  1.188683e+002 
3387500000  -3.600243e+001  1.059836e+002 
3390625000  -3.781550e+001  8.697264e+001 
3393750000  -3.969451e+001  8.961707e+001 
3396875000  -3.871025e+001  9.395503e+001 
3400000000  -3.869310e+001  8.667718e+001 
3403125000  -3.968511e+001  8.253307e+001 
3406250000  -4.039404e+001  8.571431e+001 
3409375000  -4.109186e+001  8.046821e+001 
3412500000  -4.203659e+001  8.061709e+001 
3415625000  -4.280796e+001  8.695517e+001 
3418750000  -4.341105e+001  9.097087e+001 
3421875000  -4.316272e+001  9.861320e+001 
3425000000  -4.253437e+001  1.019611e+002 
3428125000  -4.159103e+001  9.994959e+001 
3431250000  -4.154826e+001  9.679302e+001 
3434375000  -4.118568e+001  9.323677e+001 
3437500000  -4.204922e+001  9.097300e+001 
3440625000  -4.182187e+001  9.425482e+001 
3443750000  -4.075904e+001  9.707173e+001 
3446875000  -4.003451e+001  9.150539e+001 
3450000000  -3.966346e+001  8.089349e+001 
3453125000  -4.004576e+001  7.385209e+001 
3456250000  -4.140757e+001  6.796144e+001 
3459375000  -4.238861e+001  7.065516e+001 
3462500000  -4.224462e+001  7.074500e+001 
3465625000  -4.227179e+001  6.644829e+001 
3468750000  -4.257276e+001  6.424143e+001 
3471875000  -4.253441e+001  6.523990e+001 
3475000000  -4.299134e+001  6.207944e+001 
3478125000  -4.362327e+001  5.637382e+001 
3481250000  -4.448687e+001  5.621365e+001 
3484375000  -4.606779e+001  5.928597e+001 
3487500000  -4.598219e+001  6.238935e+001 
3490625000  -4.510416e+001  5.981900e+001 
3493750000  -4.597122e+001  5.809342e+001 
3496875000  -4.684565e+001  5.586819e+001 
3500000000  -4.824497e+001  6.458691e+001 
3503125000  -4.836960e+001  6.277467e+001 
3506250000  -4.666507e+001  7.255493e+001 
3509375000  -4.713530e+001  6.828645e+001 
3512500000  -4.772327e+001  6.922703e+001 
3515625000  -4.777404e+001  7.199368e+001 
3518750000  -4.787706e+001  7.864982e+001 
3521875000  -4.805363e+001  8.071185e+001 
3525000000  -4.839513e+001  8.103485e+001 
3528125000  -4.786641e+001  9.211141e+001 
3531250000  -4.593401e+001  9.372163e+001 
3534375000  -4.483787e+001  8.485937e+001 
3537500000  -4.535008e+001  8.274400e+001 
3540625000  -4.570820e+001  8.148733e+001 
3543750000  -4.607203e+001  8.513156e+001 
3546875000  -4.552401e+001  1.012955e+002 
3550000000  -4.296476e+001  1.011985e+002 
3553125000  -4.152450e+001  8.377678e+001 
3556250000  -4.245079e+001  7.643784e+001 
3559375000  -4.201675e+001  7.968450e+001 
3562500000  -4.085409e+001  7.417386e+001 
3565625000  -4.179276e+001  6.933849e+001 
3568750000  -4.174564e+001  7.062280e+001 
3571875000  -4.161733e+001  6.980163e+001 
3575000000  -4.137169e+001  6.495967e+001 
3578125000  -4.165139e+001  6.048928e+001 
3581250000  -4.153973e+001  6.321846e+001 
3584375000  -4.086339e+001  6.135683e+001 
3587500000  -4.024854e+001  5.392915e+001 
3590625000  -4.035723e+001  4.721201e+001 
3593750000  -4.145397e+001  4.637204e+001 
3596875000  -4.161830e+001  5.366887e+001 
3600000000  -3.966512e+001  5.042906e+001 
3603125000  -3.983765e+001  3.837692e+001 
3606250000  -4.072723e+001  3.573728e+001 
3609375000  -4.109264e+001  3.443960e+001 
3612500000  -4.167552e+001  3.329033e+001 
3615625000  -4.143990e+001  3.190619e+001 
3618750000  -4.215183e+001  3.303117e+001 
3621875000  -4.143865e+001  3.176081e+001 
3625000000  -4.188656e+001  3.157528e+001 
3628125000  -4.180608e+001  3.271572e+001 
3631250000  -4.143169e+001  2.670043e+001 
3634375000  -4.257635e+001  2.794600e+001 
3637500000  -4.200670e+001  3.203927e+001 
3640625000  -4.103493e+001  3.492254e+001 
3643750000  -4.066961e+001  2.917556e+001 
3646875000  -4.084925e+001  2.338474e+001 
3650000000  -4.147302e+001  2.303389e+001 
3653125000  -4.134876e+001  2.160058e+001 
3656250000  -4.145419e+001  2.074463e+001 
3659375000  -4.215991e+001  2.746715e+001 
3662500000  -4.107932e+001  2.253891e+001 
3665625000  -4.116500e+001  2.303761e+001 
3668750000  -4.022965e+001  2.637425e+001 
3671875000  -3.912131e+001  2.069402e+001 
3675000000  -3.969228e+001  1.479885e+001 
3678125000  -4.045403e+001  1.568089e+001 
3681250000  -3.968831e+001  1.739886e+001 
3684375000  -3.966873e+001  1.406269e+001 
3687500000  -3.984149e+001  1.345441e+001 
3690625000  -3.957201e+001  9.922174e+000 
3693750000  -4.030368e+001  1.278206e+001 
3696875000  -4.008920e+001  1.676093e+001 
3700000000  -3.894659e+001  1.492744e+001 
3703125000  -3.862051e+001  1.133657e+001 
3706250000  -3.959398e+001  1.304597e+001 
3709375000  -3.854545e+001  1.532166e+001 
3712500000  -3.743294e+001  1.634342e+001 
3715625000  -3.636858e+001  1.028461e+001 
3718750000  -3.575080e+001  8.634384e+000 
3721875000  -3.519851e+001  2.118584e+000 
3725000000  -3.511943e+001  -1.876773e+000 
3728125000  -3.540680e+001  -2.382628e+000 
3731250000  -3.455503e+001  -3.338132e+000 
3734375000  -3.373459e+001  -1.015318e+001 
3737500000  -3.410912e+001  -1.736146e+001 
3740625000  -3.477822e+001  -2.006893e+001 
3743750000  -3.442443e+001  -2.278102e+001 
3746875000  -3.451747e+001  -2.554350e+001 
3750000000  -3.496986e+001  -2.681258e+001 
3753125000  -3.445101e+001  -2.716871e+001 
3756250000  -3.438766e+001  -2.760715e+001 
3759375000  -3.430080e+001  -2.812841e+001 
3762500000  -3.353487e+001  -3.282351e+001 
3765625000  -3.411843e+001  -3.548066e+001 
3768750000  -3.414397e+001  -3.334140e+001 
3771875000  -3.249003e+001  -3.601152e+001 
3775000000  -3.209988e+001  -4.433291e+001 
3778125000  -3.242740e+001  -4.478293e+001 
3781250000  -3.232096e+001  -4.788538e+001 
3784375000  -3.225638e+001  -5.028434e+001 
3787500000  -3.156410e+001  -5.339811e+001 
3790625000  -3.216655e+001  -5.962937e+001 
3793750000  -3.238123e+001  -6.024624e+001 
3796875000  -3.144732e+001  -6.114582e+001 
3800000000  -2.986661e+001  -6.460113e+001 
3803125000  -3.064809e+001  -7.237862e+001 
3806250000  -3.124916e+001  -7.393352e+001 
3809375000  -3.108019e+001  -7.502209e+001 
3812500000  -3.045055e+001  -8.000049e+001 
3815625000  -3.105343e+001  -8.784906e+001 
3818750000  -3.203833e+001  -8.892071e+001 
3821875000  -3.198928e+001  -8.064745e+001 
3825000000  -3.017389e+001  -7.563573e+001 
3828125000  -2.875097e+001  -8.949501e+001 
3831250000  -2.929986e+001  -1.041101e+002 
3834375000  -3.070878e+001  -1.049610e+002 
3837500000  -3.151417e+001  -1.002474e+002 
3840625000  -3.038532e+001  -1.008980e+002 
3843750000  -2.918843e+001  -1.100807e+002 
3846875000  -2.998499e+001  -1.177622e+002 
3850000000  -3.123336e+001  -1.125436e+002 
3853125000  -3.045497e+001  -1.101349e+002 
3856250000  -3.033923e+001  -1.141789e+002 
3859375000  -2.963579e+001  -1.190111e+002 
3862500000  -2.930605e+001  -1.259396e+002 
3865625000  -2.947926e+001  -1.315115e+002 
3868750000  -2.949087e+001  -1.314793e+002 
3871875000  -2.878490e+001  -1.340936e+002 
3875000000  -2.886177e+001  -1.430925e+002 
3878125000  -2.994662e+001  -1.455663e+002 
3881250000  -3.004062e+001  -1.426200e+002 
3884375000  -2.952439e+001  -1.471433e+002 
3887500000  -2.955818e+001  -1.512777e+002 
3890625000  -3.014318e+001  -1.534551e+002 
3893750000  -3.069015e+001  -1.548983e+002 
3896875000  -3.069417e+001  -1.543952e+002 
3900000000  -3.095974e+001  -1.557115e+002 
3903125000  -3.056786e+001  -1.568721e+002 
3906250000  -3.041561e+001  -1.583066e+002 
3909375000  -2.965002e+001  -1.611764e+002 
3912500000  -2.974650e+001  -1.683266e+002 
3915625000  -3.093355e+001  -1.673067e+002 
3918750000  -3.089618e+001  -1.660867e+002 
3921875000  -3.053623e+001  -1.678417e+002 
3925000000  -2.977755e+001  -1.680743e+002 
3928125000  -2.904815e+001  -1.736150e+002 
3931250000  -2.953709e+001  -1.775690e+002 
3934375000  -2.974837e+001  -1.776034e+002 
3937500000  -2.991656e+001  -1.776978e+002 
3940625000  -3.031945e+001  -1.781529e+002 
3943750000  -2.945861e+001  -1.768707e+002 
3946875000  -2.816766e+001  1.781132e+002 
3950000000  -2.867754e+001  1.699103e+002 
3953125000  -2.964728e+001  1.716453e+002 
3956250000  -2.883007e+001  1.743981e+002 
3959375000  -2.745666e+001  1.701994e+002 
3962500000  -2.694659e+001  1.667469e+002 
3965625000  -2.663727e+001  1.580191e+002 
3968750000  -2.746513e+001  1.510519e+002 
3971875000  -2.788264e+001  1.501794e+002 
3975000000  -2.722239e+001  1.482799e+002 
3978125000  -2.705645e+001  1.466131e+002 
3981250000  -2.675634e+001  1.420704e+002 
3984375000  -2.697340e+001  1.363103e+002 
3987500000  -2.752555e+001  1.339978e+002 
3990625000  -2.752486e+001  1.331108e+002 
3993750000  -2.770073e+001  1.297007e+002 
3996875000  -2.764374e+001  1.275079e+002 
4000000000  -2.776299e+001  1.250862e+002 
4003125000  -2.832339e+001  1.273955e+002 
4006250000  -2.700586e+001  1.278579e+002 
4009375000  -2.570101e+001  1.155233e+002 
4012500000  -2.680847e+001  1.085757e+002 
4015625000  -2.812386e+001  1.089113e+002 
4018750000  -2.822403e+001  1.113700e+002 
4021875000  -2.754738e+001  1.094006e+002 
4025000000  -2.723873e+001  1.048852e+002 
4028125000  -2.712676e+001  1.010152e+002 
4031250000  -2.762600e+001  9.746437e+001 
4034375000  -2.787026e+001  9.750305e+001 
4037500000  -2.742910e+001  9.930072e+001 
4040625000  -2.730097e+001  9.609270e+001 
4043750000  -2.766741e+001  9.555257e+001 
4046875000  -2.727701e+001  9.498267e+001 
4050000000  -2.673026e+001  8.966100e+001 
4053125000  -2.723190e+001  8.754223e+001 
4056250000  -2.780822e+001  9.120302e+001 
4059375000  -2.663984e+001  9.405505e+001 
4062500000  -2.525323e+001  8.907145e+001 
4065625000  -2.506004e+001  8.447595e+001 
4068750000  -2.480189e+001  7.993747e+001 
4071875000  -2.418718e+001  7.213190e+001 
4075000000  -2.451017e+001  6.547160e+001 
4078125000  -2.507277e+001  6.497717e+001 
4081250000  -2.453778e+001  6.246740e+001 
4084375000  -2.417165e+001  5.603326e+001 
4087500000  -2.450857e+001  4.977066e+001 
4090625000  -2.510439e+001  4.861979e+001 
4093750000  -2.496110e+001  4.954612e+001 
4096875000  -2.449665e+001  4.361295e+001 
4100000000  -2.518132e+001  3.647738e+001 
4103125000  -2.606520e+001  3.726846e+001 
4106250000  -2.590559e+001  4.193062e+001 
4109375000  -2.498869e+001  4.179821e+001 
4112500000  -2.446125e+001  3.483453e+001 
4115625000  -2.477492e+001  3.046721e+001 
4118750000  -2.488966e+001  2.756540e+001 
4121875000  -2.448753e+001  2.312350e+001 
4125000000  -2.484372e+001  1.779163e+001 
4128125000  -2.582244e+001  1.795337e+001 
4131250000  -2.559130e+001  2.585465e+001 
4134375000  -2.321871e+001  2.172950e+001 
4137500000  -2.306183e+001  3.051621e+000 
4140625000  -2.515206e+001  -4.479940e+000 
4143750000  -2.648564e+001  7.701285e-001 
4146875000  -2.609898e+001  8.107556e+000 
4150000000  -2.515484e+001  4.620772e+000 
4153125000  -2.498812e+001  -1.905965e+000 
4156250000  -2.586690e+001  -4.834577e+000 
4159375000  -2.618475e+001  4.218594e-001 
4162500000  -2.503861e+001  4.303671e+000 
4165625000  -2.392806e+001  2.581301e-001 
4168750000  -2.329667e+001  -7.120791e+000 
4171875000  -2.330132e+001  -1.605497e+001 
4175000000  -2.387081e+001  -2.180254e+001 
4178125000  -2.451962e+001  -2.167180e+001 
4181250000  -2.437444e+001  -2.249579e+001 
4184375000  -2.419796e+001  -2.557055e+001 
4187500000  -2.427282e+001  -2.823537e+001 
4190625000  -2.408179e+001  -3.362944e+001 
4193750000  -2.484948e+001  -3.746938e+001 
4196875000  -2.559578e+001  -3.782614e+001 
4200000000  -2.651434e+001  -3.567989e+001 
4203125000  -2.642332e+001  -2.199189e+001 
4206250000  -2.315191e+001  -2.047137e+001 
4209375000  -2.189859e+001  -4.107714e+001 
4212500000  -2.382935e+001  -4.977664e+001 
4215625000  -2.485241e+001  -4.362168e+001 
4218750000  -2.355240e+001  -3.692167e+001 
4221875000  -2.121628e+001  -4.596115e+001 
4225000000  -2.240958e+001  -5.848942e+001 
4228125000  -2.314050e+001  -5.342792e+001 
4231250000  -2.155604e+001  -5.724430e+001 
4234375000  -2.147971e+001  -6.551432e+001 
4237500000  -2.108902e+001  -6.869563e+001 
4240625000  -2.106087e+001  -7.724249e+001 
4243750000  -2.201198e+001  -8.398453e+001 
4246875000  -2.292808e+001  -8.408114e+001 
4250000000  -2.298639e+001  -8.145674e+001 
4253125000  -2.236375e+001  -8.339977e+001 
4256250000  -2.269360e+001  -8.719106e+001 
4259375000  -2.238233e+001  -8.899146e+001 
4262500000  -2.243647e+001  -9.296189e+001 
4265625000  -2.260647e+001  -9.271764e+001 
4268750000  -2.173141e+001  -9.681075e+001 
4271875000  -2.143856e+001  -1.025669e+002 
4275000000  -2.081704e+001  -1.087543e+002 
4278125000  -2.144133e+001  -1.199073e+002 
4281250000  -2.324417e+001  -1.221134e+002 
4284375000  -2.301472e+001  -1.215681e+002 
4287500000  -2.376779e+001  -1.248411e+002 
4290625000  -2.495094e+001  -1.153690e+002 
4293750000  -2.302952e+001  -1.100949e+002 
4296875000  -2.165160e+001  -1.212035e+002 
4300000000  -2.250405e+001  -1.303855e+002 
4303125000  -2.366206e+001  -1.291460e+002 
4306250000  -2.299898e+001  -1.233992e+002 
4309375000  -2.164153e+001  -1.251970e+002 
4312500000  -2.152154e+001  -1.336642e+002 
4315625000  -2.176291e+001  -1.400299e+002 
4318750000  -2.206048e+001  -1.432772e+002 
4321875000  -2.227547e+001  -1.426540e+002 
4325000000  -2.166549e+001  -1.420026e+002 
4328125000  -2.119600e+001  -1.484467e+002 
4331250000  -2.110187e+001  -1.564164e+002 
4334375000  -2.153701e+001  -1.613556e+002 
4337500000  -2.237372e+001  -1.634825e+002 
4340625000  -2.289821e+001  -1.604878e+002 
4343750000  -2.233164e+001  -1.599280e+002 
4346875000  -2.192900e+001  -1.651890e+002 
4350000000  -2.197043e+001  -1.701046e+002 
4353125000  -2.197895e+001  -1.778400e+002 
4356250000  -2.372837e+001  -1.786994e+002 
4359375000  -2.432877e+001  -1.655484e+002 
4362500000  -2.170259e+001  -1.634299e+002 
4365625000  -2.005140e+001  -1.750656e+002 
4368750000  -2.074386e+001  1.729343e+002 
4371875000  -2.194387e+001  1.735907e+002 
4375000000  -2.161906e+001  1.748100e+002 
4378125000  -2.097187e+001  1.689118e+002 
4381250000  -2.115951e+001  1.634939e+002 
4384375000  -2.094616e+001  1.589420e+002 
4387500000  -2.165052e+001  1.532339e+002 
4390625000  -2.269986e+001  1.541052e+002 
4393750000  -2.204774e+001  1.565242e+002 
4396875000  -2.139198e+001  1.539542e+002 
4400000000  -2.086404e+001  1.469269e+002 
4403125000  -2.141176e+001  1.393340e+002 
4406250000  -2.230750e+001  1.379779e+002 
4409375000  -2.224979e+001  1.362213e+002 
4412500000  -2.326002e+001  1.331224e+002 
4415625000  -2.367591e+001  1.380046e+002 
4418750000  -2.250495e+001  1.424287e+002 
