!Agilent Technologies,E8363B,MY43030201,A.06.04.32
!Agilent E8363B: A.06.04.32
!Date: Tuesday, November 11, 2014 20:51:21
!Correction: S21(Response(S21)) 
!S1P File: Measurement: S21:
# Hz S  dB   R 50
3000000000  -2.649563e+001  1.509211e+002 
3003125000  -2.790457e+001  1.461797e+002 
3006250000  -2.794595e+001  1.438021e+002 
3009375000  -2.833043e+001  1.486056e+002 
3012500000  -2.779194e+001  1.484845e+002 
3015625000  -2.683776e+001  1.410432e+002 
3018750000  -2.767878e+001  1.404153e+002 
3021875000  -2.636465e+001  1.417135e+002 
3025000000  -2.509377e+001  1.385803e+002 
3028125000  -2.414974e+001  1.336800e+002 
3031250000  -2.307102e+001  1.224946e+002 
3034375000  -2.276409e+001  1.095299e+002 
3037500000  -2.309048e+001  9.754641e+001 
3040625000  -2.444031e+001  9.254913e+001 
3043750000  -2.514994e+001  8.827397e+001 
3046875000  -2.520527e+001  8.173582e+001 
3050000000  -2.696639e+001  7.498624e+001 
3053125000  -2.716155e+001  8.146789e+001 
3056250000  -2.648823e+001  8.453833e+001 
3059375000  -2.673907e+001  8.439940e+001 
3062500000  -2.522458e+001  8.033543e+001 
3065625000  -2.501419e+001  7.434093e+001 
3068750000  -2.471681e+001  6.754217e+001 
3071875000  -2.467183e+001  6.453881e+001 
3075000000  -2.463260e+001  6.074710e+001 
3078125000  -2.436642e+001  5.630632e+001 
3081250000  -2.502412e+001  5.198730e+001 
3084375000  -2.428340e+001  4.845208e+001 
3087500000  -2.415492e+001  4.484734e+001 
3090625000  -2.387061e+001  3.503552e+001 
3093750000  -2.430493e+001  2.714202e+001 
3096875000  -2.560623e+001  2.105695e+001 
3100000000  -2.573576e+001  1.994279e+001 
3103125000  -2.611042e+001  2.113877e+001 
3106250000  -2.582252e+001  1.770634e+001 
3109375000  -2.608870e+001  1.440091e+001 
3112500000  -2.619358e+001  1.352729e+001 
3115625000  -2.601390e+001  9.023691e+000 
3118750000  -2.650527e+001  1.042400e+001 
3121875000  -2.581152e+001  2.336694e+000 
3125000000  -2.698877e+001  -1.138862e+000 
3128125000  -2.823638e+001  7.002125e+000 
3131250000  -2.598076e+001  7.447844e+000 
3134375000  -2.468545e+001  -5.965844e+000 
3137500000  -2.539669e+001  -2.003298e+001 
3140625000  -2.695663e+001  -2.136214e+001 
3143750000  -2.800357e+001  -1.747511e+001 
3146875000  -2.754532e+001  -1.535313e+001 
3150000000  -2.656217e+001  -1.310409e+001 
3153125000  -2.654564e+001  -2.078338e+001 
3156250000  -2.748764e+001  -1.542147e+001 
3159375000  -2.593674e+001  -1.243416e+001 
3162500000  -2.395724e+001  -2.540936e+001 
3165625000  -2.483950e+001  -3.641245e+001 
3168750000  -2.523325e+001  -3.552674e+001 
3171875000  -2.430114e+001  -3.960800e+001 
3175000000  -2.492154e+001  -4.749856e+001 
3178125000  -2.470646e+001  -4.575505e+001 
3181250000  -2.356329e+001  -4.994981e+001 
3184375000  -2.277293e+001  -6.214309e+001 
3187500000  -2.387812e+001  -7.713920e+001 
3190625000  -2.661307e+001  -8.488517e+001 
3193750000  -2.721861e+001  -7.500066e+001 
3196875000  -2.679393e+001  -6.958815e+001 
3200000000  -2.595876e+001  -7.157318e+001 
3203125000  -2.511615e+001  -7.720435e+001 
3206250000  -2.536983e+001  -8.354710e+001 
3209375000  -2.492200e+001  -8.880093e+001 
3212500000  -2.505346e+001  -9.532228e+001 
3215625000  -2.516226e+001  -9.962051e+001 
3218750000  -2.593746e+001  -1.056637e+002 
3221875000  -2.695487e+001  -1.108554e+002 
3225000000  -2.657740e+001  -1.117099e+002 
3228125000  -2.685264e+001  -1.161284e+002 
3231250000  -2.759542e+001  -1.183400e+002 
3234375000  -2.748228e+001  -1.175059e+002 
3237500000  -2.749356e+001  -1.192971e+002 
3240625000  -2.719513e+001  -1.208759e+002 
3243750000  -2.684039e+001  -1.272762e+002 
3246875000  -2.729588e+001  -1.342051e+002 
3250000000  -2.774332e+001  -1.360541e+002 
3253125000  -2.789737e+001  -1.378985e+002 
3256250000  -2.779992e+001  -1.430682e+002 
3259375000  -2.809208e+001  -1.512451e+002 
3262500000  -2.939514e+001  -1.541582e+002 
3265625000  -3.001866e+001  -1.506902e+002 
3268750000  -3.001984e+001  -1.477283e+002 
3271875000  -2.975596e+001  -1.467016e+002 
3275000000  -2.868455e+001  -1.521930e+002 
3278125000  -2.916549e+001  -1.583816e+002 
3281250000  -2.940089e+001  -1.564508e+002 
3284375000  -2.900242e+001  -1.623873e+002 
3287500000  -2.919489e+001  -1.648191e+002 
3290625000  -2.955402e+001  -1.694187e+002 
3293750000  -2.930927e+001  -1.747032e+002 
3296875000  -3.025210e+001  -1.750460e+002 
3300000000  -3.018743e+001  -1.736711e+002 
3303125000  -2.903083e+001  -1.777983e+002 
3306250000  -2.881817e+001  1.758644e+002 
3309375000  -2.861884e+001  1.706094e+002 
3312500000  -2.864890e+001  1.602335e+002 
3315625000  -2.967339e+001  1.525368e+002 
3318750000  -3.104262e+001  1.501629e+002 
3321875000  -3.216536e+001  1.501277e+002 
3325000000  -3.280563e+001  1.544307e+002 
3328125000  -3.258149e+001  1.569350e+002 
3331250000  -3.142914e+001  1.640902e+002 
3334375000  -2.886916e+001  1.541217e+002 
3337500000  -2.891818e+001  1.360785e+002 
3340625000  -3.026301e+001  1.250938e+002 
3343750000  -3.214161e+001  1.238265e+002 
3346875000  -3.280483e+001  1.250966e+002 
3350000000  -3.209593e+001  1.236593e+002 
3353125000  -3.226471e+001  1.197700e+002 
3356250000  -3.202751e+001  1.116283e+002 
3359375000  -3.281351e+001  1.030274e+002 
3362500000  -3.412599e+001  9.796352e+001 
3365625000  -3.489059e+001  9.666136e+001 
3368750000  -3.575502e+001  9.491196e+001 
3371875000  -3.612711e+001  9.189958e+001 
3375000000  -3.781819e+001  8.978960e+001 
3378125000  -3.893668e+001  8.878689e+001 
3381250000  -4.032890e+001  9.596419e+001 
3384375000  -3.949796e+001  1.183545e+002 
3387500000  -3.651871e+001  1.049297e+002 
3390625000  -3.834599e+001  8.424847e+001 
3393750000  -4.016465e+001  8.824866e+001 
3396875000  -3.923086e+001  9.355484e+001 
3400000000  -3.917121e+001  8.620701e+001 
3403125000  -4.013167e+001  8.113651e+001 
3406250000  -4.112381e+001  8.521792e+001 
3409375000  -4.183662e+001  8.103982e+001 
3412500000  -4.239037e+001  8.226542e+001 
3415625000  -4.333577e+001  8.738949e+001 
3418750000  -4.376208e+001  9.085547e+001 
3421875000  -4.399493e+001  9.896796e+001 
3425000000  -4.316200e+001  1.015877e+002 
3428125000  -4.214762e+001  1.028113e+002 
3431250000  -4.225393e+001  9.943400e+001 
3434375000  -4.166482e+001  9.489969e+001 
3437500000  -4.228690e+001  9.187247e+001 
3440625000  -4.267608e+001  9.707453e+001 
3443750000  -4.141989e+001  9.840794e+001 
3446875000  -4.030576e+001  9.246456e+001 
3450000000  -4.035154e+001  8.454349e+001 
3453125000  -4.043253e+001  7.600449e+001 
3456250000  -4.162683e+001  7.088232e+001 
3459375000  -4.286737e+001  7.294908e+001 
3462500000  -4.300966e+001  7.424825e+001 
3465625000  -4.284193e+001  6.970621e+001 
3468750000  -4.321716e+001  6.630567e+001 
3471875000  -4.342479e+001  6.969170e+001 
3475000000  -4.330946e+001  6.465354e+001 
3478125000  -4.379768e+001  6.085658e+001 
3481250000  -4.496899e+001  5.923903e+001 
3484375000  -4.623928e+001  6.492508e+001 
3487500000  -4.631144e+001  6.632548e+001 
3490625000  -4.523626e+001  6.250558e+001 
3493750000  -4.624992e+001  6.108247e+001 
3496875000  -4.729319e+001  6.696440e+001 
3500000000  -4.775943e+001  7.450478e+001 
3503125000  -4.831592e+001  7.636438e+001 
3506250000  -4.690061e+001  7.752210e+001 
3509375000  -4.696093e+001  7.384560e+001 
3512500000  -4.730601e+001  6.988290e+001 
3515625000  -4.766428e+001  7.645198e+001 
3518750000  -4.797129e+001  8.211069e+001 
3521875000  -4.723706e+001  8.405997e+001 
3525000000  -4.766559e+001  8.625043e+001 
3528125000  -4.743124e+001  9.760967e+001 
3531250000  -4.528548e+001  9.613308e+001 
3534375000  -4.464811e+001  8.736446e+001 
3537500000  -4.490316e+001  8.576167e+001 
3540625000  -4.511739e+001  8.705457e+001 
3543750000  -4.568155e+001  8.727904e+001 
3546875000  -4.541928e+001  1.001295e+002 
3550000000  -4.275841e+001  1.030433e+002 
3553125000  -4.107178e+001  8.752849e+001 
3556250000  -4.230489e+001  8.209251e+001 
3559375000  -4.172513e+001  8.277712e+001 
3562500000  -4.069114e+001  7.391253e+001 
3565625000  -4.151112e+001  6.881094e+001 
3568750000  -4.167032e+001  7.291244e+001 
3571875000  -4.133009e+001  7.214420e+001 
3575000000  -4.073407e+001  6.422614e+001 
3578125000  -4.101578e+001  6.233102e+001 
3581250000  -4.132826e+001  6.349836e+001 
3584375000  -4.020662e+001  6.223996e+001 
3587500000  -3.967103e+001  5.609728e+001 
3590625000  -3.973718e+001  4.688737e+001 
3593750000  -4.095467e+001  4.463740e+001 
3596875000  -4.092421e+001  5.383498e+001 
3600000000  -3.913983e+001  4.961668e+001 
3603125000  -3.935683e+001  3.544300e+001 
3606250000  -4.030770e+001  3.312669e+001 
3609375000  -4.058083e+001  3.281882e+001 
3612500000  -4.112476e+001  2.928108e+001 
3615625000  -4.109070e+001  2.778706e+001 
3618750000  -4.166967e+001  2.979219e+001 
3621875000  -4.116201e+001  2.911403e+001 
3625000000  -4.155461e+001  2.806457e+001 
3628125000  -4.175499e+001  2.995549e+001 
3631250000  -4.121851e+001  2.458530e+001 
3634375000  -4.245028e+001  2.563026e+001 
3637500000  -4.210290e+001  3.099801e+001 
3640625000  -4.073237e+001  3.238318e+001 
3643750000  -4.062256e+001  2.727368e+001 
3646875000  -4.108657e+001  2.092227e+001 
3650000000  -4.165233e+001  2.094349e+001 
3653125000  -4.153567e+001  2.189139e+001 
3656250000  -4.161218e+001  2.071391e+001 
3659375000  -4.192636e+001  2.543895e+001 
3662500000  -4.104869e+001  2.456424e+001 
3665625000  -4.110152e+001  2.416900e+001 
3668750000  -4.016106e+001  2.400278e+001 
3671875000  -3.933715e+001  1.985932e+001 
3675000000  -3.962836e+001  1.430390e+001 
3678125000  -4.014247e+001  1.627433e+001 
3681250000  -3.967478e+001  1.850208e+001 
3684375000  -3.964915e+001  1.591877e+001 
3687500000  -3.949157e+001  1.308434e+001 
3690625000  -3.943796e+001  1.083618e+001 
3693750000  -4.010565e+001  1.335535e+001 
3696875000  -3.989959e+001  1.707368e+001 
3700000000  -3.869672e+001  1.465363e+001 
3703125000  -3.860533e+001  1.006755e+001 
3706250000  -3.915062e+001  1.171029e+001 
3709375000  -3.867034e+001  1.326381e+001 
3712500000  -3.742803e+001  1.400816e+001 
3715625000  -3.626720e+001  9.045565e+000 
3718750000  -3.555732e+001  6.384273e+000 
3721875000  -3.517570e+001  8.678662e-001 
3725000000  -3.519075e+001  -3.945632e+000 
3728125000  -3.533050e+001  -4.596638e+000 
3731250000  -3.478035e+001  -6.064824e+000 
3734375000  -3.373976e+001  -1.178392e+001 
3737500000  -3.438805e+001  -1.853072e+001 
3740625000  -3.487845e+001  -2.217179e+001 
3743750000  -3.467617e+001  -2.374741e+001 
3746875000  -3.466036e+001  -2.675532e+001 
3750000000  -3.515110e+001  -2.799001e+001 
3753125000  -3.485569e+001  -2.741559e+001 
3756250000  -3.467777e+001  -2.892716e+001 
3759375000  -3.444970e+001  -2.898207e+001 
3762500000  -3.392229e+001  -3.305297e+001 
3765625000  -3.435922e+001  -3.552614e+001 
3768750000  -3.440782e+001  -3.394859e+001 
3771875000  -3.271093e+001  -3.576000e+001 
3775000000  -3.239879e+001  -4.305673e+001 
3778125000  -3.274151e+001  -4.506379e+001 
3781250000  -3.248828e+001  -4.763392e+001 
3784375000  -3.236271e+001  -4.942218e+001 
3787500000  -3.173976e+001  -5.360997e+001 
3790625000  -3.233849e+001  -5.937443e+001 
3793750000  -3.247429e+001  -5.979113e+001 
3796875000  -3.154620e+001  -6.061309e+001 
3800000000  -2.995588e+001  -6.462505e+001 
3803125000  -3.069498e+001  -7.139008e+001 
3806250000  -3.131044e+001  -7.346294e+001 
3809375000  -3.109234e+001  -7.493731e+001 
3812500000  -3.044164e+001  -7.976133e+001 
3815625000  -3.102605e+001  -8.692605e+001 
3818750000  -3.192405e+001  -8.881997e+001 
3821875000  -3.210606e+001  -8.009612e+001 
3825000000  -3.010898e+001  -7.618459e+001 
3828125000  -2.881178e+001  -8.967773e+001 
3831250000  -2.933529e+001  -1.038468e+002 
3834375000  -3.067584e+001  -1.049410e+002 
3837500000  -3.160107e+001  -9.978378e+001 
3840625000  -3.045850e+001  -1.011552e+002 
3843750000  -2.926935e+001  -1.101564e+002 
3846875000  -2.995028e+001  -1.185197e+002 
3850000000  -3.130233e+001  -1.128456e+002 
3853125000  -3.052314e+001  -1.096842e+002 
3856250000  -3.038332e+001  -1.151542e+002 
3859375000  -2.977867e+001  -1.195377e+002 
3862500000  -2.934182e+001  -1.264815e+002 
3865625000  -2.961077e+001  -1.310218e+002 
3868750000  -2.968653e+001  -1.317745e+002 
3871875000  -2.890821e+001  -1.341455e+002 
3875000000  -2.907276e+001  -1.431233e+002 
3878125000  -3.002827e+001  -1.456281e+002 
3881250000  -3.015749e+001  -1.425981e+002 
3884375000  -2.970095e+001  -1.471951e+002 
3887500000  -2.979272e+001  -1.507213e+002 
3890625000  -3.032565e+001  -1.530538e+002 
3893750000  -3.065826e+001  -1.543449e+002 
3896875000  -3.092340e+001  -1.535456e+002 
3900000000  -3.112992e+001  -1.548855e+002 
3903125000  -3.078559e+001  -1.566065e+002 
3906250000  -3.043547e+001  -1.571074e+002 
3909375000  -2.972130e+001  -1.597632e+002 
3912500000  -2.969666e+001  -1.669802e+002 
3915625000  -3.095074e+001  -1.662647e+002 
3918750000  -3.085942e+001  -1.644883e+002 
3921875000  -3.056240e+001  -1.658105e+002 
3925000000  -2.972233e+001  -1.669655e+002 
3928125000  -2.912447e+001  -1.725337e+002 
3931250000  -2.941055e+001  -1.767785e+002 
3934375000  -2.974701e+001  -1.763754e+002 
3937500000  -2.983303e+001  -1.773418e+002 
3940625000  -3.039614e+001  -1.776528e+002 
3943750000  -2.935322e+001  -1.764585e+002 
3946875000  -2.805209e+001  1.788380e+002 
3950000000  -2.861472e+001  1.712745e+002 
3953125000  -2.953382e+001  1.712762e+002 
3956250000  -2.876660e+001  1.738129e+002 
3959375000  -2.732957e+001  1.706466e+002 
3962500000  -2.691785e+001  1.670958e+002 
3965625000  -2.651423e+001  1.577390e+002 
3968750000  -2.746840e+001  1.511089e+002 
3971875000  -2.788801e+001  1.497557e+002 
3975000000  -2.721641e+001  1.478942e+002 
3978125000  -2.704246e+001  1.464816e+002 
3981250000  -2.676487e+001  1.418675e+002 
3984375000  -2.701968e+001  1.358379e+002 
3987500000  -2.758482e+001  1.338488e+002 
3990625000  -2.756959e+001  1.326044e+002 
3993750000  -2.779808e+001  1.294922e+002 
3996875000  -2.774933e+001  1.274425e+002 
4000000000  -2.780724e+001  1.254253e+002 
4003125000  -2.850540e+001  1.277986e+002 
4006250000  -2.708978e+001  1.282282e+002 
4009375000  -2.589260e+001  1.154257e+002 
4012500000  -2.695653e+001  1.089063e+002 
4015625000  -2.815275e+001  1.092113e+002 
4018750000  -2.836671e+001  1.116537e+002 
4021875000  -2.759558e+001  1.099469e+002 
4025000000  -2.732698e+001  1.057434e+002 
4028125000  -2.720194e+001  1.013558e+002 
4031250000  -2.762798e+001  9.839466e+001 
4034375000  -2.795604e+001  9.850266e+001 
4037500000  -2.743225e+001  1.004804e+002 
4040625000  -2.736981e+001  9.704117e+001 
4043750000  -2.765483e+001  9.644910e+001 
4046875000  -2.716197e+001  9.629647e+001 
4050000000  -2.668138e+001  9.017641e+001 
4053125000  -2.714061e+001  8.825303e+001 
4056250000  -2.766013e+001  9.253890e+001 
4059375000  -2.653661e+001  9.443236e+001 
4062500000  -2.510203e+001  8.948798e+001 
4065625000  -2.497688e+001  8.495187e+001 
4068750000  -2.465560e+001  7.985840e+001 
4071875000  -2.405922e+001  7.202147e+001 
4075000000  -2.438293e+001  6.587090e+001 
4078125000  -2.498327e+001  6.496403e+001 
4081250000  -2.446264e+001  6.222910e+001 
4084375000  -2.408377e+001  5.591174e+001 
4087500000  -2.446684e+001  4.904655e+001 
4090625000  -2.504554e+001  4.824271e+001 
4093750000  -2.485920e+001  4.879486e+001 
4096875000  -2.443446e+001  4.270813e+001 
4100000000  -2.512139e+001  3.570333e+001 
4103125000  -2.597718e+001  3.616058e+001 
4106250000  -2.595618e+001  4.115369e+001 
4109375000  -2.503465e+001  4.095510e+001 
4112500000  -2.448664e+001  3.443922e+001 
4115625000  -2.482631e+001  3.013190e+001 
4118750000  -2.486514e+001  2.726857e+001 
4121875000  -2.455811e+001  2.249850e+001 
4125000000  -2.489692e+001  1.742352e+001 
4128125000  -2.595385e+001  1.737028e+001 
4131250000  -2.568866e+001  2.602687e+001 
4134375000  -2.333165e+001  2.138432e+001 
4137500000  -2.312690e+001  2.855174e+000 
4140625000  -2.529069e+001  -4.266130e+000 
4143750000  -2.658671e+001  5.448558e-001 
4146875000  -2.615917e+001  8.109716e+000 
4150000000  -2.525534e+001  5.073567e+000 
4153125000  -2.504585e+001  -1.282412e+000 
4156250000  -2.596564e+001  -4.083146e+000 
4159375000  -2.621949e+001  5.008087e-001 
4162500000  -2.504770e+001  4.597230e+000 
4165625000  -2.392243e+001  7.152573e-001 
4168750000  -2.327328e+001  -6.371108e+000 
4171875000  -2.333370e+001  -1.535891e+001 
4175000000  -2.383950e+001  -2.095343e+001 
4178125000  -2.444638e+001  -2.119544e+001 
4181250000  -2.433398e+001  -2.196747e+001 
4184375000  -2.416256e+001  -2.528416e+001 
4187500000  -2.420917e+001  -2.791239e+001 
4190625000  -2.400069e+001  -3.352486e+001 
4193750000  -2.484439e+001  -3.726090e+001 
4196875000  -2.550579e+001  -3.785205e+001 
4200000000  -2.634296e+001  -3.546978e+001 
4203125000  -2.640822e+001  -2.266361e+001 
4206250000  -2.305755e+001  -2.057631e+001 
4209375000  -2.182162e+001  -4.157317e+001 
4212500000  -2.375430e+001  -5.033869e+001 
4215625000  -2.481042e+001  -4.407272e+001 
4218750000  -2.350206e+001  -3.753444e+001 
4221875000  -2.115704e+001  -4.664745e+001 
4225000000  -2.241609e+001  -5.900585e+001 
4228125000  -2.312944e+001  -5.398983e+001 
4231250000  -2.152150e+001  -5.757099e+001 
4234375000  -2.149295e+001  -6.606581e+001 
4237500000  -2.109807e+001  -6.947940e+001 
4240625000  -2.109372e+001  -7.781892e+001 
4243750000  -2.204979e+001  -8.462627e+001 
4246875000  -2.298460e+001  -8.481019e+001 
4250000000  -2.300981e+001  -8.194013e+001 
4253125000  -2.244623e+001  -8.369122e+001 
4256250000  -2.274028e+001  -8.793686e+001 
4259375000  -2.251204e+001  -8.950551e+001 
4262500000  -2.252485e+001  -9.347208e+001 
4265625000  -2.270960e+001  -9.276280e+001 
4268750000  -2.178893e+001  -9.690345e+001 
4271875000  -2.153845e+001  -1.025869e+002 
4275000000  -2.094800e+001  -1.090898e+002 
4278125000  -2.153803e+001  -1.201657e+002 
4281250000  -2.333633e+001  -1.222178e+002 
4284375000  -2.300181e+001  -1.210992e+002 
4287500000  -2.379322e+001  -1.248650e+002 
4290625000  -2.500939e+001  -1.154977e+002 
4293750000  -2.306381e+001  -1.097829e+002 
4296875000  -2.170544e+001  -1.209510e+002 
4300000000  -2.256496e+001  -1.300867e+002 
4303125000  -2.366065e+001  -1.292430e+002 
4306250000  -2.306097e+001  -1.231580e+002 
4309375000  -2.165503e+001  -1.249526e+002 
4312500000  -2.153795e+001  -1.332853e+002 
4315625000  -2.172483e+001  -1.395442e+002 
4318750000  -2.203934e+001  -1.433263e+002 
4321875000  -2.220646e+001  -1.425879e+002 
4325000000  -2.164076e+001  -1.421508e+002 
4328125000  -2.113079e+001  -1.484635e+002 
4331250000  -2.107078e+001  -1.565288e+002 
4334375000  -2.150080e+001  -1.615628e+002 
4337500000  -2.231175e+001  -1.640166e+002 
4340625000  -2.289194e+001  -1.607611e+002 
4343750000  -2.225758e+001  -1.600247e+002 
4346875000  -2.189152e+001  -1.657454e+002 
4350000000  -2.192433e+001  -1.707998e+002 
4353125000  -2.204152e+001  -1.783387e+002 
4356250000  -2.372467e+001  -1.796219e+002 
4359375000  -2.437864e+001  -1.664154e+002 
4362500000  -2.167746e+001  -1.639200e+002 
4365625000  -2.007227e+001  -1.755247e+002 
4368750000  -2.073843e+001  1.724849e+002 
4371875000  -2.201101e+001  1.731398e+002 
4375000000  -2.166099e+001  1.740965e+002 
4378125000  -2.106215e+001  1.678526e+002 
4381250000  -2.120568e+001  1.629082e+002 
4384375000  -2.107966e+001  1.583625e+002 
4387500000  -2.176406e+001  1.526343e+002 
4390625000  -2.280628e+001  1.535735e+002 
4393750000  -2.212057e+001  1.557302e+002 
4396875000  -2.145687e+001  1.535027e+002 
4400000000  -2.101352e+001  1.468348e+002 
4403125000  -2.152366e+001  1.392852e+002 
4406250000  -2.241906e+001  1.378416e+002 
4409375000  -2.237806e+001  1.358696e+002 
4412500000  -2.339153e+001  1.330665e+002 
4415625000  -2.378374e+001  1.381271e+002 
4418750000  -2.253603e+001  1.425696e+002 
