!Agilent Technologies,E8363B,MY43030201,A.06.04.32
!Agilent E8363B: A.06.04.32
!Date: Tuesday, November 11, 2014 20:48:24
!Correction: S21(Response(S21)) 
!S1P File: Measurement: S21:
# Hz S  dB   R 50
3000000000  -2.650686e+001  1.557663e+002 
3003125000  -2.788564e+001  1.515421e+002 
3006250000  -2.795612e+001  1.485682e+002 
3009375000  -2.835797e+001  1.537679e+002 
3012500000  -2.780720e+001  1.532836e+002 
3015625000  -2.680830e+001  1.459339e+002 
3018750000  -2.768343e+001  1.450974e+002 
3021875000  -2.642819e+001  1.465457e+002 
3025000000  -2.513827e+001  1.435315e+002 
3028125000  -2.420189e+001  1.388066e+002 
3031250000  -2.311870e+001  1.275915e+002 
3034375000  -2.276366e+001  1.146863e+002 
3037500000  -2.308706e+001  1.027803e+002 
3040625000  -2.444467e+001  9.742645e+001 
3043750000  -2.512943e+001  9.315166e+001 
3046875000  -2.521224e+001  8.663963e+001 
3050000000  -2.696790e+001  7.977940e+001 
3053125000  -2.712594e+001  8.619864e+001 
3056250000  -2.642271e+001  8.919485e+001 
3059375000  -2.670030e+001  8.922012e+001 
3062500000  -2.519923e+001  8.514469e+001 
3065625000  -2.500020e+001  7.943848e+001 
3068750000  -2.472306e+001  7.257831e+001 
3071875000  -2.465703e+001  6.947268e+001 
3075000000  -2.463685e+001  6.571577e+001 
3078125000  -2.434647e+001  6.131421e+001 
3081250000  -2.499062e+001  5.705440e+001 
3084375000  -2.425064e+001  5.354826e+001 
3087500000  -2.411817e+001  4.975699e+001 
3090625000  -2.381965e+001  4.031727e+001 
3093750000  -2.423195e+001  3.235491e+001 
3096875000  -2.555456e+001  2.603861e+001 
3100000000  -2.569077e+001  2.459717e+001 
3103125000  -2.607986e+001  2.628329e+001 
3106250000  -2.577810e+001  2.263236e+001 
3109375000  -2.603631e+001  1.907830e+001 
3112500000  -2.615861e+001  1.858835e+001 
3115625000  -2.597057e+001  1.394841e+001 
3118750000  -2.645105e+001  1.527978e+001 
3121875000  -2.576197e+001  7.165608e+000 
3125000000  -2.690524e+001  3.612703e+000 
3128125000  -2.822480e+001  1.155208e+001 
3131250000  -2.597759e+001  1.251572e+001 
3134375000  -2.465754e+001  -1.225754e+000 
3137500000  -2.523809e+001  -1.500595e+001 
3140625000  -2.690447e+001  -1.678392e+001 
3143750000  -2.788160e+001  -1.263188e+001 
3146875000  -2.744983e+001  -1.054934e+001 
3150000000  -2.650045e+001  -8.446973e+000 
3153125000  -2.648313e+001  -1.601767e+001 
3156250000  -2.744448e+001  -1.099139e+001 
3159375000  -2.592600e+001  -7.723267e+000 
3162500000  -2.385765e+001  -2.058339e+001 
3165625000  -2.480796e+001  -3.176927e+001 
3168750000  -2.520565e+001  -3.077156e+001 
3171875000  -2.424993e+001  -3.496756e+001 
3175000000  -2.491226e+001  -4.263538e+001 
3178125000  -2.470627e+001  -4.116432e+001 
3181250000  -2.349486e+001  -4.477499e+001 
3184375000  -2.268881e+001  -5.706094e+001 
3187500000  -2.376681e+001  -7.247017e+001 
3190625000  -2.655124e+001  -8.002023e+001 
3193750000  -2.723624e+001  -7.033589e+001 
3196875000  -2.678811e+001  -6.500771e+001 
3200000000  -2.593978e+001  -6.674619e+001 
3203125000  -2.501672e+001  -7.229959e+001 
3206250000  -2.534264e+001  -7.842138e+001 
3209375000  -2.486020e+001  -8.378379e+001 
3212500000  -2.495757e+001  -9.030847e+001 
3215625000  -2.512153e+001  -9.473907e+001 
3218750000  -2.589081e+001  -1.008579e+002 
3221875000  -2.682733e+001  -1.063609e+002 
3225000000  -2.649833e+001  -1.065396e+002 
3228125000  -2.675972e+001  -1.108993e+002 
3231250000  -2.748231e+001  -1.139228e+002 
3234375000  -2.738110e+001  -1.128123e+002 
3237500000  -2.740571e+001  -1.145994e+002 
3240625000  -2.706490e+001  -1.160708e+002 
3243750000  -2.673778e+001  -1.225033e+002 
3246875000  -2.721109e+001  -1.291663e+002 
3250000000  -2.765238e+001  -1.312635e+002 
3253125000  -2.778239e+001  -1.323591e+002 
3256250000  -2.763172e+001  -1.385212e+002 
3259375000  -2.801729e+001  -1.464427e+002 
3262500000  -2.923792e+001  -1.493735e+002 
3265625000  -2.997418e+001  -1.459192e+002 
3268750000  -2.989342e+001  -1.434454e+002 
3271875000  -2.968323e+001  -1.417722e+002 
3275000000  -2.859039e+001  -1.469934e+002 
3278125000  -2.901967e+001  -1.532552e+002 
3281250000  -2.931186e+001  -1.511185e+002 
3284375000  -2.892646e+001  -1.573980e+002 
3287500000  -2.908199e+001  -1.597837e+002 
3290625000  -2.943918e+001  -1.644597e+002 
3293750000  -2.920794e+001  -1.698154e+002 
3296875000  -3.020362e+001  -1.697387e+002 
3300000000  -3.010614e+001  -1.685650e+002 
3303125000  -2.895402e+001  -1.729320e+002 
3306250000  -2.873783e+001  -1.792627e+002 
3309375000  -2.845524e+001  1.758541e+002 
3312500000  -2.848500e+001  1.655175e+002 
3315625000  -2.946635e+001  1.574329e+002 
3318750000  -3.086145e+001  1.544987e+002 
3321875000  -3.212847e+001  1.542878e+002 
3325000000  -3.256504e+001  1.587484e+002 
3328125000  -3.251507e+001  1.619296e+002 
3331250000  -3.127904e+001  1.691592e+002 
3334375000  -2.870585e+001  1.592510e+002 
3337500000  -2.876323e+001  1.408431e+002 
3340625000  -3.003368e+001  1.301659e+002 
3343750000  -3.196369e+001  1.289330e+002 
3346875000  -3.259533e+001  1.303054e+002 
3350000000  -3.192592e+001  1.288884e+002 
3353125000  -3.205711e+001  1.243959e+002 
3356250000  -3.175130e+001  1.171649e+002 
3359375000  -3.260875e+001  1.085998e+002 
3362500000  -3.382671e+001  1.027127e+002 
3365625000  -3.445055e+001  1.010837e+002 
3368750000  -3.542607e+001  1.002845e+002 
3371875000  -3.582941e+001  9.611069e+001 
3375000000  -3.743170e+001  9.469968e+001 
3378125000  -3.840705e+001  9.404523e+001 
3381250000  -4.012877e+001  1.000326e+002 
3384375000  -3.927360e+001  1.220114e+002 
3387500000  -3.618396e+001  1.091194e+002 
3390625000  -3.802014e+001  9.016731e+001 
3393750000  -3.970237e+001  9.319089e+001 
3396875000  -3.882497e+001  9.727285e+001 
3400000000  -3.867229e+001  8.991098e+001 
3403125000  -3.996645e+001  8.627525e+001 
3406250000  -4.078895e+001  8.978859e+001 
3409375000  -4.108519e+001  8.395203e+001 
3412500000  -4.232428e+001  8.724629e+001 
3415625000  -4.285320e+001  9.163793e+001 
3418750000  -4.336373e+001  9.463039e+001 
3421875000  -4.374188e+001  1.013596e+002 
3425000000  -4.281736e+001  1.058731e+002 
3428125000  -4.192055e+001  1.051404e+002 
3431250000  -4.185252e+001  9.995878e+001 
3434375000  -4.156456e+001  9.730891e+001 
3437500000  -4.207331e+001  9.548804e+001 
3440625000  -4.223293e+001  9.766421e+001 
3443750000  -4.086733e+001  1.005832e+002 
3446875000  -4.021166e+001  9.724128e+001 
3450000000  -4.000813e+001  8.634224e+001 
3453125000  -4.021519e+001  7.897980e+001 
3456250000  -4.146781e+001  7.451643e+001 
3459375000  -4.236062e+001  7.641306e+001 
3462500000  -4.232230e+001  7.556176e+001 
3465625000  -4.256944e+001  7.101569e+001 
3468750000  -4.291013e+001  6.958379e+001 
3471875000  -4.291324e+001  7.137493e+001 
3475000000  -4.290948e+001  6.666854e+001 
3478125000  -4.379827e+001  6.015349e+001 
3481250000  -4.482795e+001  6.055008e+001 
3484375000  -4.627721e+001  6.664779e+001 
3487500000  -4.569159e+001  7.070189e+001 
3490625000  -4.518856e+001  6.527271e+001 
3493750000  -4.609705e+001  6.081219e+001 
3496875000  -4.723766e+001  6.231485e+001 
3500000000  -4.857396e+001  7.191387e+001 
3503125000  -4.787729e+001  7.743423e+001 
3506250000  -4.680697e+001  7.808858e+001 
3509375000  -4.701099e+001  7.694542e+001 
3512500000  -4.801997e+001  7.751201e+001 
3515625000  -4.787691e+001  7.669568e+001 
3518750000  -4.834657e+001  8.336526e+001 
3521875000  -4.807473e+001  9.076148e+001 
3525000000  -4.857622e+001  8.757302e+001 
3528125000  -4.760205e+001  9.808197e+001 
3531250000  -4.565603e+001  9.721591e+001 
3534375000  -4.521544e+001  9.176753e+001 
3537500000  -4.470438e+001  8.640661e+001 
3540625000  -4.550810e+001  8.621169e+001 
3543750000  -4.606467e+001  9.034631e+001 
3546875000  -4.519261e+001  1.019176e+002 
3550000000  -4.280091e+001  1.036076e+002 
3553125000  -4.168704e+001  8.944276e+001 
3556250000  -4.268144e+001  8.345895e+001 
3559375000  -4.228493e+001  8.397543e+001 
3562500000  -4.103960e+001  7.904356e+001 
3565625000  -4.181603e+001  7.010406e+001 
3568750000  -4.209531e+001  7.422913e+001 
3571875000  -4.172056e+001  7.497871e+001 
3575000000  -4.115668e+001  6.985036e+001 
3578125000  -4.177696e+001  6.623824e+001 
3581250000  -4.178249e+001  6.587920e+001 
3584375000  -4.074186e+001  6.508447e+001 
3587500000  -4.011340e+001  5.817131e+001 
3590625000  -4.013030e+001  4.976439e+001 
3593750000  -4.172566e+001  5.059822e+001 
3596875000  -4.170171e+001  5.931200e+001 
3600000000  -3.976261e+001  5.380117e+001 
3603125000  -4.018066e+001  4.200428e+001 
3606250000  -4.058399e+001  3.839040e+001 
3609375000  -4.090720e+001  3.819736e+001 
3612500000  -4.144306e+001  3.758728e+001 
3615625000  -4.159415e+001  3.295062e+001 
3618750000  -4.194534e+001  3.633768e+001 
3621875000  -4.183253e+001  3.551781e+001 
3625000000  -4.177448e+001  3.577614e+001 
3628125000  -4.180152e+001  3.545796e+001 
3631250000  -4.134050e+001  3.179224e+001 
3634375000  -4.245435e+001  3.238997e+001 
3637500000  -4.221526e+001  3.797424e+001 
3640625000  -4.097036e+001  3.703902e+001 
3643750000  -4.064017e+001  3.361264e+001 
3646875000  -4.120803e+001  2.783696e+001 
3650000000  -4.180386e+001  2.596900e+001 
3653125000  -4.140805e+001  2.545364e+001 
3656250000  -4.172665e+001  2.578242e+001 
3659375000  -4.211155e+001  2.766702e+001 
3662500000  -4.135872e+001  2.756368e+001 
3665625000  -4.142225e+001  2.758644e+001 
3668750000  -4.054182e+001  3.069263e+001 
3671875000  -3.925756e+001  2.411996e+001 
3675000000  -3.979624e+001  1.892053e+001 
3678125000  -4.048457e+001  2.127449e+001 
3681250000  -3.991551e+001  2.200212e+001 
3684375000  -3.961897e+001  1.955751e+001 
3687500000  -3.993862e+001  1.870363e+001 
3690625000  -3.982226e+001  1.577727e+001 
3693750000  -4.034203e+001  1.874315e+001 
3696875000  -4.034388e+001  2.088809e+001 
3700000000  -3.909208e+001  1.917207e+001 
3703125000  -3.884995e+001  1.677414e+001 
3706250000  -3.957912e+001  1.812557e+001 
3709375000  -3.868961e+001  2.219204e+001 
3712500000  -3.755148e+001  2.169891e+001 
3715625000  -3.650840e+001  1.548584e+001 
3718750000  -3.591655e+001  1.261823e+001 
3721875000  -3.531519e+001  7.065512e+000 
3725000000  -3.530063e+001  2.327927e+000 
3728125000  -3.557074e+001  2.080103e+000 
3731250000  -3.482785e+001  1.805451e+000 
3734375000  -3.380209e+001  -4.562336e+000 
3737500000  -3.435108e+001  -1.173514e+001 
3740625000  -3.488646e+001  -1.481730e+001 
3743750000  -3.470878e+001  -1.632068e+001 
3746875000  -3.454094e+001  -2.040301e+001 
3750000000  -3.489629e+001  -2.120743e+001 
3753125000  -3.468838e+001  -2.161739e+001 
3756250000  -3.467624e+001  -2.223908e+001 
3759375000  -3.432521e+001  -2.299642e+001 
3762500000  -3.381773e+001  -2.645198e+001 
3765625000  -3.425354e+001  -2.996759e+001 
3768750000  -3.426891e+001  -2.769981e+001 
3771875000  -3.260885e+001  -3.020912e+001 
3775000000  -3.230835e+001  -3.803530e+001 
3778125000  -3.264009e+001  -3.907814e+001 
3781250000  -3.246331e+001  -4.236324e+001 
3784375000  -3.234639e+001  -4.398868e+001 
3787500000  -3.179342e+001  -4.789120e+001 
3790625000  -3.225699e+001  -5.423229e+001 
3793750000  -3.235129e+001  -5.386404e+001 
3796875000  -3.153264e+001  -5.612401e+001 
3800000000  -3.004297e+001  -5.905075e+001 
3803125000  -3.077416e+001  -6.609042e+001 
3806250000  -3.139620e+001  -6.844118e+001 
3809375000  -3.113595e+001  -6.935405e+001 
3812500000  -3.046709e+001  -7.414242e+001 
3815625000  -3.105708e+001  -8.181924e+001 
3818750000  -3.207455e+001  -8.335341e+001 
3821875000  -3.214643e+001  -7.542978e+001 
3825000000  -3.011879e+001  -7.045126e+001 
3828125000  -2.880815e+001  -8.403160e+001 
3831250000  -2.932766e+001  -9.803474e+001 
3834375000  -3.070115e+001  -9.953199e+001 
3837500000  -3.152420e+001  -9.436712e+001 
3840625000  -3.052956e+001  -9.541344e+001 
3843750000  -2.935494e+001  -1.050421e+002 
3846875000  -3.002862e+001  -1.124381e+002 
3850000000  -3.133978e+001  -1.069511e+002 
3853125000  -3.047191e+001  -1.044542e+002 
3856250000  -3.046766e+001  -1.085912e+002 
3859375000  -2.978321e+001  -1.139042e+002 
3862500000  -2.934741e+001  -1.204777e+002 
3865625000  -2.957998e+001  -1.252501e+002 
3868750000  -2.959646e+001  -1.255015e+002 
3871875000  -2.889264e+001  -1.283210e+002 
3875000000  -2.898743e+001  -1.368971e+002 
3878125000  -3.006859e+001  -1.395934e+002 
3881250000  -3.016995e+001  -1.363749e+002 
3884375000  -2.961436e+001  -1.410292e+002 
3887500000  -2.973893e+001  -1.451225e+002 
3890625000  -3.025843e+001  -1.476655e+002 
3893750000  -3.060053e+001  -1.490105e+002 
3896875000  -3.066844e+001  -1.489512e+002 
3900000000  -3.102425e+001  -1.489073e+002 
3903125000  -3.067498e+001  -1.511311e+002 
3906250000  -3.039317e+001  -1.522325e+002 
3909375000  -2.971054e+001  -1.545319e+002 
3912500000  -2.972002e+001  -1.618986e+002 
3915625000  -3.089916e+001  -1.613459e+002 
3918750000  -3.086547e+001  -1.597625e+002 
3921875000  -3.052255e+001  -1.612352e+002 
3925000000  -2.982277e+001  -1.616701e+002 
3928125000  -2.909639e+001  -1.677785e+002 
3931250000  -2.954885e+001  -1.714480e+002 
3934375000  -2.979761e+001  -1.716798e+002 
3937500000  -2.994505e+001  -1.722473e+002 
3940625000  -3.037855e+001  -1.724729e+002 
3943750000  -2.949899e+001  -1.708183e+002 
3946875000  -2.817587e+001  -1.758675e+002 
3950000000  -2.871748e+001  1.765698e+002 
3953125000  -2.958901e+001  1.772694e+002 
3956250000  -2.879026e+001  1.799546e+002 
3959375000  -2.744743e+001  1.762768e+002 
3962500000  -2.698893e+001  1.726112e+002 
3965625000  -2.660129e+001  1.638724e+002 
3968750000  -2.750420e+001  1.575723e+002 
3971875000  -2.784795e+001  1.563464e+002 
3975000000  -2.722793e+001  1.542795e+002 
3978125000  -2.700537e+001  1.526413e+002 
3981250000  -2.682431e+001  1.483525e+002 
3984375000  -2.699919e+001  1.422113e+002 
3987500000  -2.750245e+001  1.399284e+002 
3990625000  -2.750795e+001  1.391189e+002 
3993750000  -2.768002e+001  1.358860e+002 
3996875000  -2.769155e+001  1.331230e+002 
4000000000  -2.780118e+001  1.309327e+002 
4003125000  -2.838054e+001  1.336101e+002 
4006250000  -2.703192e+001  1.335835e+002 
4009375000  -2.573543e+001  1.217155e+002 
4012500000  -2.675183e+001  1.143376e+002 
4015625000  -2.802808e+001  1.148488e+002 
4018750000  -2.827940e+001  1.171987e+002 
4021875000  -2.757428e+001  1.155986e+002 
4025000000  -2.724904e+001  1.110599e+002 
4028125000  -2.719507e+001  1.067912e+002 
4031250000  -2.761412e+001  1.036978e+002 
4034375000  -2.791338e+001  1.034908e+002 
4037500000  -2.736720e+001  1.056424e+002 
4040625000  -2.732680e+001  1.020364e+002 
4043750000  -2.759815e+001  1.018626e+002 
4046875000  -2.721827e+001  1.011768e+002 
4050000000  -2.672790e+001  9.549360e+001 
4053125000  -2.712451e+001  9.379677e+001 
4056250000  -2.778819e+001  9.770635e+001 
4059375000  -2.657796e+001  9.961111e+001 
4062500000  -2.521851e+001  9.491920e+001 
4065625000  -2.505173e+001  9.076098e+001 
4068750000  -2.477329e+001  8.598589e+001 
4071875000  -2.413745e+001  7.807452e+001 
4075000000  -2.445339e+001  7.178976e+001 
4078125000  -2.499321e+001  7.084093e+001 
4081250000  -2.447917e+001  6.861606e+001 
4084375000  -2.412411e+001  6.225532e+001 
4087500000  -2.444879e+001  5.577176e+001 
4090625000  -2.502737e+001  5.441829e+001 
4093750000  -2.488342e+001  5.508195e+001 
4096875000  -2.441191e+001  4.940723e+001 
4100000000  -2.512144e+001  4.256945e+001 
4103125000  -2.598072e+001  4.277366e+001 
4106250000  -2.586454e+001  4.752837e+001 
4109375000  -2.497244e+001  4.708466e+001 
4112500000  -2.443711e+001  4.089236e+001 
4115625000  -2.471742e+001  3.632317e+001 
4118750000  -2.482178e+001  3.373026e+001 
4121875000  -2.446498e+001  2.902175e+001 
4125000000  -2.481415e+001  2.385888e+001 
4128125000  -2.582587e+001  2.365836e+001 
4131250000  -2.559854e+001  3.177067e+001 
4134375000  -2.325544e+001  2.788770e+001 
4137500000  -2.296770e+001  9.003366e+000 
4140625000  -2.514191e+001  1.889888e+000 
4143750000  -2.646245e+001  6.236137e+000 
4146875000  -2.610892e+001  1.406104e+001 
4150000000  -2.514266e+001  1.091363e+001 
4153125000  -2.495942e+001  4.206112e+000 
4156250000  -2.582471e+001  1.848363e+000 
4159375000  -2.615297e+001  5.846898e+000 
4162500000  -2.500126e+001  1.029886e+001 
4165625000  -2.382830e+001  6.591807e+000 
4168750000  -2.328403e+001  -3.517927e-001 
4171875000  -2.323196e+001  -9.491950e+000 
4175000000  -2.382178e+001  -1.536149e+001 
4178125000  -2.443192e+001  -1.557157e+001 
4181250000  -2.431479e+001  -1.609131e+001 
4184375000  -2.411785e+001  -1.946148e+001 
4187500000  -2.415904e+001  -2.200730e+001 
4190625000  -2.404930e+001  -2.750107e+001 
4193750000  -2.481824e+001  -3.105869e+001 
4196875000  -2.546136e+001  -3.179366e+001 
4200000000  -2.624847e+001  -2.978674e+001 
4203125000  -2.643312e+001  -1.693022e+001 
4206250000  -2.308550e+001  -1.470184e+001 
4209375000  -2.187391e+001  -3.496548e+001 
4212500000  -2.374252e+001  -4.381655e+001 
4215625000  -2.481037e+001  -3.792046e+001 
4218750000  -2.347823e+001  -3.072279e+001 
4221875000  -2.110277e+001  -4.004234e+001 
4225000000  -2.229061e+001  -5.264425e+001 
4228125000  -2.307999e+001  -4.762616e+001 
4231250000  -2.152102e+001  -5.122963e+001 
4234375000  -2.144190e+001  -5.958619e+001 
4237500000  -2.101687e+001  -6.317362e+001 
4240625000  -2.103368e+001  -7.134901e+001 
4243750000  -2.191741e+001  -7.802939e+001 
4246875000  -2.282715e+001  -7.841322e+001 
4250000000  -2.289064e+001  -7.522028e+001 
4253125000  -2.228947e+001  -7.715736e+001 
4256250000  -2.262875e+001  -8.158684e+001 
4259375000  -2.235633e+001  -8.329945e+001 
4262500000  -2.234353e+001  -8.670897e+001 
4265625000  -2.254007e+001  -8.695517e+001 
4268750000  -2.170808e+001  -9.076292e+001 
4271875000  -2.144339e+001  -9.634164e+001 
4275000000  -2.076439e+001  -1.028238e+002 
4278125000  -2.134058e+001  -1.136806e+002 
4281250000  -2.314312e+001  -1.160141e+002 
4284375000  -2.290598e+001  -1.153158e+002 
4287500000  -2.359742e+001  -1.190983e+002 
4290625000  -2.493038e+001  -1.100421e+002 
4293750000  -2.298390e+001  -1.037329e+002 
4296875000  -2.158778e+001  -1.151730e+002 
4300000000  -2.240548e+001  -1.244562e+002 
4303125000  -2.353134e+001  -1.234706e+002 
4306250000  -2.297628e+001  -1.174743e+002 
4309375000  -2.156848e+001  -1.192915e+002 
4312500000  -2.140516e+001  -1.273926e+002 
4315625000  -2.168171e+001  -1.334132e+002 
4318750000  -2.196543e+001  -1.372988e+002 
4321875000  -2.217136e+001  -1.367720e+002 
4325000000  -2.155882e+001  -1.360976e+002 
4328125000  -2.104697e+001  -1.423636e+002 
4331250000  -2.104537e+001  -1.502328e+002 
4334375000  -2.143061e+001  -1.553171e+002 
4337500000  -2.220175e+001  -1.575285e+002 
4340625000  -2.277691e+001  -1.546835e+002 
4343750000  -2.224180e+001  -1.540010e+002 
4346875000  -2.186077e+001  -1.593932e+002 
4350000000  -2.186728e+001  -1.638981e+002 
4353125000  -2.184586e+001  -1.718461e+002 
4356250000  -2.355553e+001  -1.730907e+002 
4359375000  -2.427038e+001  -1.603207e+002 
4362500000  -2.166184e+001  -1.581395e+002 
4365625000  -1.998905e+001  -1.689890e+002 
4368750000  -2.062877e+001  1.785321e+002 
4371875000  -2.187513e+001  1.788960e+002 
4375000000  -2.158162e+001  -1.793620e+002 
4378125000  -2.088077e+001  1.747916e+002 
4381250000  -2.104610e+001  1.693101e+002 
4384375000  -2.086544e+001  1.649807e+002 
4387500000  -2.155703e+001  1.592030e+002 
4390625000  -2.264227e+001  1.596415e+002 
4393750000  -2.192607e+001  1.620504e+002 
4396875000  -2.131722e+001  1.597348e+002 
4400000000  -2.077303e+001  1.529332e+002 
4403125000  -2.131332e+001  1.453256e+002 
4406250000  -2.219409e+001  1.438701e+002 
4409375000  -2.212345e+001  1.416331e+002 
4412500000  -2.314896e+001  1.388835e+002 
4415625000  -2.358543e+001  1.438839e+002 
4418750000  -2.241411e+001  1.483322e+002 
4421875000  -2.096900e+001  1.446644e+002 
