!Agilent Technologies,E8363B,MY43030201,A.06.04.32
!Agilent E8363B: A.06.04.32
!Date: Tuesday, November 11, 2014 20:46:03
!Correction: S21(Response(S21)) 
!S1P File: Measurement: S21:
# Hz S  dB   R 50
3000000000  -2.653060e+001  1.582778e+002 
3003125000  -2.789121e+001  1.540086e+002 
3006250000  -2.797183e+001  1.511192e+002 
3009375000  -2.833313e+001  1.559610e+002 
3012500000  -2.779439e+001  1.556165e+002 
3015625000  -2.683141e+001  1.489530e+002 
3018750000  -2.772495e+001  1.479565e+002 
3021875000  -2.645686e+001  1.490178e+002 
3025000000  -2.519683e+001  1.460157e+002 
3028125000  -2.417438e+001  1.414337e+002 
3031250000  -2.313377e+001  1.304212e+002 
3034375000  -2.275076e+001  1.174046e+002 
3037500000  -2.308780e+001  1.054107e+002 
3040625000  -2.441101e+001  1.003968e+002 
3043750000  -2.512581e+001  9.600053e+001 
3046875000  -2.518905e+001  8.988850e+001 
3050000000  -2.696867e+001  8.218240e+001 
3053125000  -2.714515e+001  8.912009e+001 
3056250000  -2.643188e+001  9.195815e+001 
3059375000  -2.670108e+001  9.174857e+001 
3062500000  -2.523762e+001  8.782143e+001 
3065625000  -2.500594e+001  8.219611e+001 
3068750000  -2.473994e+001  7.528114e+001 
3071875000  -2.467964e+001  7.231197e+001 
3075000000  -2.466375e+001  6.871161e+001 
3078125000  -2.432940e+001  6.421181e+001 
3081250000  -2.497579e+001  5.995618e+001 
3084375000  -2.426102e+001  5.651677e+001 
3087500000  -2.410777e+001  5.285529e+001 
3090625000  -2.384693e+001  4.311711e+001 
3093750000  -2.421487e+001  3.504520e+001 
3096875000  -2.549966e+001  2.881608e+001 
3100000000  -2.571102e+001  2.764874e+001 
3103125000  -2.604370e+001  2.892999e+001 
3106250000  -2.577890e+001  2.530759e+001 
3109375000  -2.600356e+001  2.187191e+001 
3112500000  -2.613819e+001  2.096195e+001 
3115625000  -2.592961e+001  1.679233e+001 
3118750000  -2.643022e+001  1.798246e+001 
3121875000  -2.575980e+001  1.011797e+001 
3125000000  -2.685008e+001  6.411567e+000 
3128125000  -2.814887e+001  1.400632e+001 
3131250000  -2.599176e+001  1.513630e+001 
3134375000  -2.457034e+001  1.772103e+000 
3137500000  -2.523298e+001  -1.251386e+001 
3140625000  -2.689635e+001  -1.423820e+001 
3143750000  -2.789808e+001  -9.744533e+000 
3146875000  -2.748683e+001  -8.030683e+000 
3150000000  -2.650901e+001  -5.803113e+000 
3153125000  -2.642860e+001  -1.346962e+001 
3156250000  -2.738194e+001  -8.172897e+000 
3159375000  -2.594581e+001  -5.033714e+000 
3162500000  -2.387264e+001  -1.801739e+001 
3165625000  -2.479504e+001  -2.883166e+001 
3168750000  -2.516905e+001  -2.804335e+001 
3171875000  -2.428001e+001  -3.224905e+001 
3175000000  -2.484858e+001  -4.003732e+001 
3178125000  -2.468032e+001  -3.841122e+001 
3181250000  -2.350098e+001  -4.203736e+001 
3184375000  -2.265725e+001  -5.448708e+001 
3187500000  -2.372101e+001  -6.986230e+001 
3190625000  -2.657873e+001  -7.764587e+001 
3193750000  -2.720342e+001  -6.762350e+001 
3196875000  -2.678242e+001  -6.219629e+001 
3200000000  -2.594400e+001  -6.402681e+001 
3203125000  -2.501375e+001  -6.955972e+001 
3206250000  -2.530849e+001  -7.575285e+001 
3209375000  -2.481655e+001  -8.077631e+001 
3212500000  -2.495748e+001  -8.773701e+001 
3215625000  -2.508643e+001  -9.209478e+001 
3218750000  -2.579893e+001  -9.780730e+001 
3221875000  -2.684179e+001  -1.030476e+002 
3225000000  -2.649552e+001  -1.036169e+002 
3228125000  -2.674730e+001  -1.084841e+002 
3231250000  -2.750010e+001  -1.112014e+002 
3234375000  -2.734370e+001  -1.101311e+002 
3237500000  -2.738914e+001  -1.114256e+002 
3240625000  -2.709067e+001  -1.132997e+002 
3243750000  -2.670027e+001  -1.197301e+002 
3246875000  -2.718856e+001  -1.264702e+002 
3250000000  -2.758457e+001  -1.287526e+002 
3253125000  -2.776025e+001  -1.298167e+002 
3256250000  -2.765599e+001  -1.360225e+002 
3259375000  -2.799357e+001  -1.438841e+002 
3262500000  -2.922343e+001  -1.466193e+002 
3265625000  -2.990639e+001  -1.429946e+002 
3268750000  -2.985171e+001  -1.406472e+002 
3271875000  -2.968313e+001  -1.393241e+002 
3275000000  -2.859735e+001  -1.441877e+002 
3278125000  -2.901056e+001  -1.509018e+002 
3281250000  -2.931672e+001  -1.488809e+002 
3284375000  -2.888696e+001  -1.548040e+002 
3287500000  -2.903082e+001  -1.575160e+002 
3290625000  -2.946180e+001  -1.612910e+002 
3293750000  -2.915711e+001  -1.672545e+002 
3296875000  -3.019396e+001  -1.675201e+002 
3300000000  -3.005724e+001  -1.663087e+002 
3303125000  -2.891160e+001  -1.700978e+002 
3306250000  -2.866316e+001  -1.768445e+002 
3309375000  -2.845143e+001  1.788480e+002 
3312500000  -2.846212e+001  1.682688e+002 
3315625000  -2.949688e+001  1.599942e+002 
3318750000  -3.074812e+001  1.577662e+002 
3321875000  -3.205003e+001  1.571648e+002 
3325000000  -3.262428e+001  1.621546e+002 
3328125000  -3.248413e+001  1.636011e+002 
3331250000  -3.129825e+001  1.718093e+002 
3334375000  -2.875964e+001  1.626119e+002 
3337500000  -2.869674e+001  1.443163e+002 
3340625000  -3.007442e+001  1.327953e+002 
3343750000  -3.198163e+001  1.318095e+002 
3346875000  -3.254704e+001  1.329659e+002 
3350000000  -3.195273e+001  1.320706e+002 
3353125000  -3.202733e+001  1.281101e+002 
3356250000  -3.173575e+001  1.199939e+002 
3359375000  -3.255128e+001  1.115706e+002 
3362500000  -3.384714e+001  1.057190e+002 
3365625000  -3.447919e+001  1.044359e+002 
3368750000  -3.542565e+001  1.025596e+002 
3371875000  -3.577516e+001  1.002920e+002 
3375000000  -3.733874e+001  9.763274e+001 
3378125000  -3.824012e+001  9.728832e+001 
3381250000  -3.989466e+001  1.038582e+002 
3384375000  -3.922606e+001  1.264602e+002 
3387500000  -3.613223e+001  1.119626e+002 
3390625000  -3.762104e+001  9.353094e+001 
3393750000  -3.946821e+001  9.708356e+001 
3396875000  -3.871164e+001  1.002655e+002 
3400000000  -3.858639e+001  9.340275e+001 
3403125000  -3.974025e+001  8.810969e+001 
3406250000  -4.045509e+001  9.157432e+001 
3409375000  -4.105775e+001  8.718078e+001 
3412500000  -4.209100e+001  8.831442e+001 
3415625000  -4.296574e+001  9.226318e+001 
3418750000  -4.330526e+001  9.638654e+001 
3421875000  -4.367629e+001  1.037049e+002 
3425000000  -4.253960e+001  1.063145e+002 
3428125000  -4.175924e+001  1.055601e+002 
3431250000  -4.172295e+001  1.010274e+002 
3434375000  -4.150669e+001  9.818123e+001 
3437500000  -4.190627e+001  9.959208e+001 
3440625000  -4.205378e+001  1.009950e+002 
3443750000  -4.113146e+001  1.015936e+002 
3446875000  -4.041117e+001  9.831769e+001 
3450000000  -4.016012e+001  8.731350e+001 
3453125000  -4.029056e+001  7.988926e+001 
3456250000  -4.141149e+001  7.615212e+001 
3459375000  -4.225390e+001  7.807134e+001 
3462500000  -4.251603e+001  7.774308e+001 
3465625000  -4.249026e+001  7.552126e+001 
3468750000  -4.292998e+001  7.173509e+001 
3471875000  -4.296361e+001  7.397394e+001 
3475000000  -4.290324e+001  6.755950e+001 
3478125000  -4.359038e+001  6.430770e+001 
3481250000  -4.481566e+001  6.308987e+001 
3484375000  -4.631227e+001  6.596918e+001 
3487500000  -4.601286e+001  6.991323e+001 
3490625000  -4.564766e+001  6.597817e+001 
3493750000  -4.612164e+001  6.541338e+001 
3496875000  -4.700725e+001  6.805305e+001 
3500000000  -4.793775e+001  7.196213e+001 
3503125000  -4.800396e+001  8.024610e+001 
3506250000  -4.685357e+001  7.905984e+001 
3509375000  -4.728075e+001  7.793671e+001 
3512500000  -4.755128e+001  7.630604e+001 
3515625000  -4.753560e+001  8.266553e+001 
3518750000  -4.820639e+001  8.390301e+001 
3521875000  -4.785322e+001  9.068248e+001 
3525000000  -4.826792e+001  8.992851e+001 
3528125000  -4.815657e+001  1.009204e+002 
3531250000  -4.591987e+001  1.004489e+002 
3534375000  -4.529020e+001  9.306271e+001 
3537500000  -4.534418e+001  9.146550e+001 
3540625000  -4.551466e+001  9.037474e+001 
3543750000  -4.573771e+001  9.351894e+001 
3546875000  -4.568039e+001  1.048941e+002 
3550000000  -4.304629e+001  1.104759e+002 
3553125000  -4.148447e+001  9.415223e+001 
3556250000  -4.282926e+001  8.581654e+001 
3559375000  -4.242427e+001  8.807719e+001 
3562500000  -4.135172e+001  8.146494e+001 
3565625000  -4.172883e+001  7.573639e+001 
3568750000  -4.206849e+001  7.678846e+001 
3571875000  -4.181223e+001  7.713376e+001 
3575000000  -4.123521e+001  7.295480e+001 
3578125000  -4.192659e+001  6.838973e+001 
3581250000  -4.185991e+001  6.948315e+001 
3584375000  -4.073803e+001  6.904369e+001 
3587500000  -4.013047e+001  6.234324e+001 
3590625000  -4.034460e+001  5.252729e+001 
3593750000  -4.161807e+001  5.236979e+001 
3596875000  -4.149202e+001  5.942598e+001 
3600000000  -3.973645e+001  5.907961e+001 
3603125000  -4.009069e+001  4.527134e+001 
3606250000  -4.068213e+001  4.329560e+001 
3609375000  -4.091217e+001  4.040714e+001 
3612500000  -4.144046e+001  4.115672e+001 
3615625000  -4.151014e+001  3.756752e+001 
3618750000  -4.195970e+001  3.921379e+001 
3621875000  -4.168813e+001  3.864512e+001 
3625000000  -4.155201e+001  3.770413e+001 
3628125000  -4.179238e+001  3.819447e+001 
3631250000  -4.132972e+001  3.482205e+001 
3634375000  -4.232378e+001  3.545819e+001 
3637500000  -4.232354e+001  3.989225e+001 
3640625000  -4.088031e+001  4.090758e+001 
3643750000  -4.061555e+001  3.505221e+001 
3646875000  -4.117272e+001  2.865648e+001 
3650000000  -4.156514e+001  2.847252e+001 
3653125000  -4.137090e+001  3.019442e+001 
3656250000  -4.181763e+001  2.834517e+001 
3659375000  -4.218467e+001  3.122998e+001 
3662500000  -4.136018e+001  3.013729e+001 
3665625000  -4.131725e+001  2.996627e+001 
3668750000  -4.046191e+001  3.273249e+001 
3671875000  -3.931343e+001  2.951875e+001 
3675000000  -3.986683e+001  2.188318e+001 
3678125000  -4.061602e+001  2.410073e+001 
3681250000  -4.021794e+001  2.444607e+001 
3684375000  -3.960617e+001  2.348296e+001 
3687500000  -3.978762e+001  2.197656e+001 
3690625000  -4.004269e+001  1.851015e+001 
3693750000  -4.034171e+001  2.078281e+001 
3696875000  -4.026770e+001  2.492864e+001 
3700000000  -3.902661e+001  2.361477e+001 
3703125000  -3.868283e+001  1.941806e+001 
3706250000  -3.924996e+001  2.166376e+001 
3709375000  -3.859194e+001  2.462008e+001 
3712500000  -3.765628e+001  2.385936e+001 
3715625000  -3.656715e+001  1.845094e+001 
3718750000  -3.580568e+001  1.627551e+001 
3721875000  -3.520037e+001  1.051991e+001 
3725000000  -3.531590e+001  5.264320e+000 
3728125000  -3.545263e+001  4.205710e+000 
3731250000  -3.463774e+001  4.826278e+000 
3734375000  -3.355832e+001  -1.752510e+000 
3737500000  -3.402626e+001  -8.772191e+000 
3740625000  -3.478405e+001  -1.237789e+001 
3743750000  -3.460110e+001  -1.462343e+001 
3746875000  -3.453765e+001  -1.727748e+001 
3750000000  -3.496134e+001  -1.837356e+001 
3753125000  -3.463477e+001  -1.893764e+001 
3756250000  -3.451016e+001  -1.891659e+001 
3759375000  -3.411526e+001  -2.017455e+001 
3762500000  -3.368750e+001  -2.498887e+001 
3765625000  -3.410108e+001  -2.748993e+001 
3768750000  -3.429027e+001  -2.505436e+001 
3771875000  -3.241617e+001  -2.716653e+001 
3775000000  -3.228046e+001  -3.531896e+001 
3778125000  -3.252445e+001  -3.697437e+001 
3781250000  -3.221176e+001  -4.040348e+001 
3784375000  -3.225270e+001  -4.203089e+001 
3787500000  -3.159508e+001  -4.538233e+001 
3790625000  -3.217409e+001  -5.136460e+001 
3793750000  -3.234871e+001  -5.139544e+001 
3796875000  -3.145273e+001  -5.279893e+001 
3800000000  -3.001726e+001  -5.715926e+001 
3803125000  -3.065648e+001  -6.306635e+001 
3806250000  -3.131538e+001  -6.589643e+001 
3809375000  -3.114317e+001  -6.754354e+001 
3812500000  -3.045931e+001  -7.126499e+001 
3815625000  -3.101850e+001  -7.905647e+001 
3818750000  -3.189004e+001  -8.152207e+001 
3821875000  -3.209725e+001  -7.315262e+001 
3825000000  -3.022325e+001  -6.860722e+001 
3828125000  -2.888448e+001  -8.177900e+001 
3831250000  -2.932631e+001  -9.561276e+001 
3834375000  -3.058709e+001  -9.624360e+001 
3837500000  -3.148141e+001  -9.176015e+001 
3840625000  -3.050643e+001  -9.204420e+001 
3843750000  -2.927245e+001  -1.022940e+002 
3846875000  -3.006043e+001  -1.097734e+002 
3850000000  -3.121864e+001  -1.043867e+002 
3853125000  -3.044335e+001  -1.013759e+002 
3856250000  -3.033728e+001  -1.062229e+002 
3859375000  -2.968352e+001  -1.105933e+002 
3862500000  -2.934130e+001  -1.176083e+002 
3865625000  -2.951777e+001  -1.229624e+002 
3868750000  -2.952173e+001  -1.229663e+002 
3871875000  -2.885571e+001  -1.259363e+002 
3875000000  -2.891656e+001  -1.342755e+002 
3878125000  -2.991190e+001  -1.376068e+002 
3881250000  -3.007744e+001  -1.339655e+002 
3884375000  -2.956125e+001  -1.386760e+002 
3887500000  -2.962514e+001  -1.422779e+002 
3890625000  -3.016625e+001  -1.450857e+002 
3893750000  -3.052263e+001  -1.468144e+002 
3896875000  -3.066386e+001  -1.467045e+002 
3900000000  -3.103180e+001  -1.475665e+002 
3903125000  -3.064728e+001  -1.493509e+002 
3906250000  -3.025667e+001  -1.504606e+002 
3909375000  -2.963404e+001  -1.524910e+002 
3912500000  -2.959918e+001  -1.596244e+002 
3915625000  -3.084532e+001  -1.597481e+002 
3918750000  -3.081512e+001  -1.570115e+002 
3921875000  -3.057005e+001  -1.591963e+002 
3925000000  -2.983619e+001  -1.594122e+002 
3928125000  -2.910399e+001  -1.655176e+002 
3931250000  -2.946764e+001  -1.689143e+002 
3934375000  -2.971047e+001  -1.691352e+002 
3937500000  -2.989358e+001  -1.702594e+002 
3940625000  -3.039400e+001  -1.695941e+002 
3943750000  -2.942384e+001  -1.681360e+002 
3946875000  -2.819563e+001  -1.731363e+002 
3950000000  -2.859349e+001  1.787362e+002 
3953125000  -2.956132e+001  1.796930e+002 
3956250000  -2.882947e+001  -1.776982e+002 
3959375000  -2.742889e+001  1.796280e+002 
3962500000  -2.691721e+001  1.754997e+002 
3965625000  -2.651800e+001  1.667668e+002 
3968750000  -2.746007e+001  1.598062e+002 
3971875000  -2.783092e+001  1.587050e+002 
3975000000  -2.716630e+001  1.568510e+002 
3978125000  -2.695085e+001  1.554160e+002 
3981250000  -2.671949e+001  1.505314e+002 
3984375000  -2.696595e+001  1.447706e+002 
3987500000  -2.747320e+001  1.421013e+002 
3990625000  -2.743425e+001  1.413651e+002 
3993750000  -2.772264e+001  1.384246e+002 
3996875000  -2.761207e+001  1.362119e+002 
4000000000  -2.764119e+001  1.331392e+002 
4003125000  -2.827807e+001  1.356825e+002 
4006250000  -2.699445e+001  1.360604e+002 
4009375000  -2.569958e+001  1.237876e+002 
4012500000  -2.671393e+001  1.165149e+002 
4015625000  -2.789507e+001  1.171439e+002 
4018750000  -2.815054e+001  1.192449e+002 
4021875000  -2.756313e+001  1.177357e+002 
4025000000  -2.721196e+001  1.127175e+002 
4028125000  -2.713149e+001  1.088430e+002 
4031250000  -2.757742e+001  1.054703e+002 
4034375000  -2.797617e+001  1.055606e+002 
4037500000  -2.736221e+001  1.072091e+002 
4040625000  -2.730445e+001  1.038996e+002 
4043750000  -2.761954e+001  1.034340e+002 
4046875000  -2.720961e+001  1.028767e+002 
4050000000  -2.669024e+001  9.782048e+001 
4053125000  -2.723120e+001  9.557436e+001 
4056250000  -2.782327e+001  9.928719e+001 
4059375000  -2.663484e+001  1.017574e+002 
4062500000  -2.527967e+001  9.727615e+001 
4065625000  -2.505577e+001  9.301875e+001 
4068750000  -2.479859e+001  8.852099e+001 
4071875000  -2.420796e+001  8.007914e+001 
4075000000  -2.453207e+001  7.360205e+001 
4078125000  -2.510725e+001  7.312832e+001 
4081250000  -2.456114e+001  7.062141e+001 
4084375000  -2.416032e+001  6.423992e+001 
4087500000  -2.447630e+001  5.781904e+001 
4090625000  -2.504716e+001  5.665094e+001 
4093750000  -2.491185e+001  5.735208e+001 
4096875000  -2.445854e+001  5.192476e+001 
4100000000  -2.509553e+001  4.467744e+001 
4103125000  -2.598502e+001  4.504977e+001 
4106250000  -2.587264e+001  4.992220e+001 
4109375000  -2.504236e+001  4.963455e+001 
4112500000  -2.445711e+001  4.326142e+001 
4115625000  -2.478793e+001  3.848184e+001 
4118750000  -2.491932e+001  3.551167e+001 
4121875000  -2.448510e+001  3.125513e+001 
4125000000  -2.477610e+001  2.626143e+001 
4128125000  -2.577747e+001  2.547339e+001 
4131250000  -2.554665e+001  3.337864e+001 
4134375000  -2.325182e+001  2.985503e+001 
4137500000  -2.298406e+001  1.079570e+001 
4140625000  -2.510154e+001  3.406642e+000 
4143750000  -2.647440e+001  8.234344e+000 
4146875000  -2.614771e+001  1.547917e+001 
4150000000  -2.519640e+001  1.224615e+001 
4153125000  -2.500016e+001  6.176553e+000 
4156250000  -2.592624e+001  3.214800e+000 
4159375000  -2.620138e+001  7.755174e+000 
4162500000  -2.503664e+001  1.198226e+001 
4165625000  -2.393313e+001  7.982903e+000 
4168750000  -2.336874e+001  1.112591e+000 
4171875000  -2.332146e+001  -8.130843e+000 
4175000000  -2.394028e+001  -1.368486e+001 
4178125000  -2.454390e+001  -1.422352e+001 
4181250000  -2.444696e+001  -1.438739e+001 
4184375000  -2.434068e+001  -1.741878e+001 
4187500000  -2.437815e+001  -1.993211e+001 
4190625000  -2.415323e+001  -2.544355e+001 
4193750000  -2.488850e+001  -2.907057e+001 
4196875000  -2.562188e+001  -2.963326e+001 
4200000000  -2.646074e+001  -2.746478e+001 
4203125000  -2.657632e+001  -1.485313e+001 
4206250000  -2.327391e+001  -1.253793e+001 
4209375000  -2.205449e+001  -3.229042e+001 
4212500000  -2.387607e+001  -4.165896e+001 
4215625000  -2.493913e+001  -3.561331e+001 
4218750000  -2.360443e+001  -2.876587e+001 
4221875000  -2.129414e+001  -3.777155e+001 
4225000000  -2.249033e+001  -5.072052e+001 
4228125000  -2.323147e+001  -4.542207e+001 
4231250000  -2.164372e+001  -4.888747e+001 
4234375000  -2.155815e+001  -5.700741e+001 
4237500000  -2.115506e+001  -6.045437e+001 
4240625000  -2.109906e+001  -6.874771e+001 
4243750000  -2.207441e+001  -7.555875e+001 
4246875000  -2.296369e+001  -7.621481e+001 
4250000000  -2.303764e+001  -7.293328e+001 
4253125000  -2.245422e+001  -7.492349e+001 
4256250000  -2.270867e+001  -7.947377e+001 
4259375000  -2.247388e+001  -8.124711e+001 
4262500000  -2.247172e+001  -8.504231e+001 
4265625000  -2.267313e+001  -8.478119e+001 
4268750000  -2.181531e+001  -8.874772e+001 
4271875000  -2.157010e+001  -9.409596e+001 
4275000000  -2.098018e+001  -1.007962e+002 
4278125000  -2.148755e+001  -1.118696e+002 
4281250000  -2.333784e+001  -1.143069e+002 
4284375000  -2.305388e+001  -1.132680e+002 
4287500000  -2.380098e+001  -1.167386e+002 
4290625000  -2.509328e+001  -1.078482e+002 
4293750000  -2.318207e+001  -1.017460e+002 
4296875000  -2.177490e+001  -1.131219e+002 
4300000000  -2.259170e+001  -1.221463e+002 
4303125000  -2.375282e+001  -1.213753e+002 
4306250000  -2.325238e+001  -1.150203e+002 
4309375000  -2.184437e+001  -1.170019e+002 
4312500000  -2.168516e+001  -1.252396e+002 
4315625000  -2.191823e+001  -1.313490e+002 
4318750000  -2.220960e+001  -1.346054e+002 
4321875000  -2.236892e+001  -1.340984e+002 
4325000000  -2.181833e+001  -1.334771e+002 
4328125000  -2.135160e+001  -1.395551e+002 
4331250000  -2.129545e+001  -1.475247e+002 
4334375000  -2.166842e+001  -1.525032e+002 
4337500000  -2.244277e+001  -1.547304e+002 
4340625000  -2.304562e+001  -1.521685e+002 
4343750000  -2.247870e+001  -1.514868e+002 
4346875000  -2.209605e+001  -1.567433e+002 
4350000000  -2.209759e+001  -1.612066e+002 
4353125000  -2.204939e+001  -1.687548e+002 
4356250000  -2.370530e+001  -1.700275e+002 
4359375000  -2.443974e+001  -1.579295e+002 
4362500000  -2.191942e+001  -1.550163e+002 
4365625000  -2.023097e+001  -1.659209e+002 
4368750000  -2.085868e+001  -1.781430e+002 
4371875000  -2.209485e+001  -1.778918e+002 
4375000000  -2.178988e+001  -1.765131e+002 
4378125000  -2.109330e+001  1.777592e+002 
4381250000  -2.126154e+001  1.723167e+002 
4384375000  -2.112125e+001  1.679907e+002 
4387500000  -2.175725e+001  1.621174e+002 
4390625000  -2.279200e+001  1.625228e+002 
4393750000  -2.217034e+001  1.648678e+002 
4396875000  -2.149259e+001  1.625106e+002 
4400000000  -2.099901e+001  1.559012e+002 
4403125000  -2.154866e+001  1.482040e+002 
4406250000  -2.241324e+001  1.469710e+002 
4409375000  -2.236701e+001  1.446304e+002 
4412500000  -2.336586e+001  1.416553e+002 
4415625000  -2.383338e+001  1.465805e+002 
4418750000  -2.266231e+001  1.514255e+002 
