!Agilent Technologies,E8363B,MY43030201,A.06.04.32
!Agilent E8363B: A.06.04.32
!Date: Tuesday, November 11, 2014 20:49:40
!Correction: S21(Response(S21)) 
!S1P File: Measurement: S21:
# Hz S  dB   R 50
3000000000  -2.654235e+001  1.540512e+002 
3003125000  -2.791154e+001  1.495973e+002 
3006250000  -2.797611e+001  1.469186e+002 
3009375000  -2.835438e+001  1.515566e+002 
3012500000  -2.779465e+001  1.514039e+002 
3015625000  -2.685094e+001  1.440966e+002 
3018750000  -2.768443e+001  1.435380e+002 
3021875000  -2.646528e+001  1.450369e+002 
3025000000  -2.515108e+001  1.419606e+002 
3028125000  -2.419534e+001  1.368666e+002 
3031250000  -2.314943e+001  1.257991e+002 
3034375000  -2.275870e+001  1.127296e+002 
3037500000  -2.312651e+001  1.007610e+002 
3040625000  -2.446248e+001  9.564687e+001 
3043750000  -2.515366e+001  9.125155e+001 
3046875000  -2.524663e+001  8.508239e+001 
3050000000  -2.702532e+001  7.804886e+001 
3053125000  -2.715831e+001  8.428825e+001 
3056250000  -2.649380e+001  8.780326e+001 
3059375000  -2.672055e+001  8.719854e+001 
3062500000  -2.522134e+001  8.323663e+001 
3065625000  -2.500583e+001  7.770338e+001 
3068750000  -2.472639e+001  7.082357e+001 
3071875000  -2.467159e+001  6.780258e+001 
3075000000  -2.464699e+001  6.399167e+001 
3078125000  -2.435940e+001  5.942987e+001 
3081250000  -2.499741e+001  5.534823e+001 
3084375000  -2.426089e+001  5.164457e+001 
3087500000  -2.410363e+001  4.797050e+001 
3090625000  -2.384834e+001  3.830170e+001 
3093750000  -2.424309e+001  3.046161e+001 
3096875000  -2.557125e+001  2.416648e+001 
3100000000  -2.571486e+001  2.269984e+001 
3103125000  -2.608110e+001  2.444421e+001 
3106250000  -2.577351e+001  2.090733e+001 
3109375000  -2.603586e+001  1.719436e+001 
3112500000  -2.616788e+001  1.628901e+001 
3115625000  -2.593522e+001  1.191007e+001 
3118750000  -2.645066e+001  1.308355e+001 
3121875000  -2.573595e+001  5.249537e+000 
3125000000  -2.693344e+001  1.842714e+000 
3128125000  -2.818411e+001  9.922352e+000 
3131250000  -2.598153e+001  1.036521e+001 
3134375000  -2.466274e+001  -3.004811e+000 
3137500000  -2.530331e+001  -1.695506e+001 
3140625000  -2.693276e+001  -1.889310e+001 
3143750000  -2.792436e+001  -1.480839e+001 
3146875000  -2.748268e+001  -1.277237e+001 
3150000000  -2.649590e+001  -1.041631e+001 
3153125000  -2.645543e+001  -1.797113e+001 
3156250000  -2.746197e+001  -1.283581e+001 
3159375000  -2.593204e+001  -9.661704e+000 
3162500000  -2.387600e+001  -2.273989e+001 
3165625000  -2.479145e+001  -3.337597e+001 
3168750000  -2.521923e+001  -3.278430e+001 
3171875000  -2.425870e+001  -3.670159e+001 
3175000000  -2.490221e+001  -4.435474e+001 
3178125000  -2.468979e+001  -4.296096e+001 
3181250000  -2.349606e+001  -4.686657e+001 
3184375000  -2.267493e+001  -5.904245e+001 
3187500000  -2.372686e+001  -7.428230e+001 
3190625000  -2.661305e+001  -8.171173e+001 
3193750000  -2.718034e+001  -7.234566e+001 
3196875000  -2.677564e+001  -6.699557e+001 
3200000000  -2.594612e+001  -6.857582e+001 
3203125000  -2.503505e+001  -7.431387e+001 
3206250000  -2.526457e+001  -8.063966e+001 
3209375000  -2.484420e+001  -8.563336e+001 
3212500000  -2.496298e+001  -9.231825e+001 
3215625000  -2.509627e+001  -9.655031e+001 
3218750000  -2.585806e+001  -1.028183e+002 
3221875000  -2.680299e+001  -1.078305e+002 
3225000000  -2.643015e+001  -1.085306e+002 
3228125000  -2.677686e+001  -1.130401e+002 
3231250000  -2.749148e+001  -1.156180e+002 
3234375000  -2.737681e+001  -1.145956e+002 
3237500000  -2.740435e+001  -1.161707e+002 
3240625000  -2.710137e+001  -1.179720e+002 
3243750000  -2.673113e+001  -1.245707e+002 
3246875000  -2.717356e+001  -1.312834e+002 
3250000000  -2.763623e+001  -1.330477e+002 
3253125000  -2.781079e+001  -1.346470e+002 
3256250000  -2.765807e+001  -1.408310e+002 
3259375000  -2.794871e+001  -1.482436e+002 
3262500000  -2.923756e+001  -1.509740e+002 
3265625000  -2.990684e+001  -1.478892e+002 
3268750000  -2.987669e+001  -1.452401e+002 
3271875000  -2.965751e+001  -1.437157e+002 
3275000000  -2.851138e+001  -1.489162e+002 
3278125000  -2.905054e+001  -1.557012e+002 
3281250000  -2.932317e+001  -1.535804e+002 
3284375000  -2.891203e+001  -1.594549e+002 
3287500000  -2.906828e+001  -1.622117e+002 
3290625000  -2.948089e+001  -1.662383e+002 
3293750000  -2.909205e+001  -1.718746e+002 
3296875000  -3.015373e+001  -1.717715e+002 
3300000000  -3.007141e+001  -1.710008e+002 
3303125000  -2.892530e+001  -1.745059e+002 
3306250000  -2.867615e+001  1.786511e+002 
3309375000  -2.847584e+001  1.738000e+002 
3312500000  -2.848924e+001  1.633874e+002 
3315625000  -2.947769e+001  1.557561e+002 
3318750000  -3.086272e+001  1.528836e+002 
3321875000  -3.196734e+001  1.522193e+002 
3325000000  -3.271191e+001  1.578336e+002 
3328125000  -3.246409e+001  1.597269e+002 
3331250000  -3.123386e+001  1.668691e+002 
3334375000  -2.872513e+001  1.575084e+002 
3337500000  -2.868423e+001  1.387879e+002 
3340625000  -3.002253e+001  1.280874e+002 
3343750000  -3.201624e+001  1.264898e+002 
3346875000  -3.258495e+001  1.282425e+002 
3350000000  -3.189593e+001  1.269053e+002 
3353125000  -3.200006e+001  1.224088e+002 
3356250000  -3.172966e+001  1.149650e+002 
3359375000  -3.256212e+001  1.062972e+002 
3362500000  -3.389884e+001  1.009263e+002 
3365625000  -3.449006e+001  9.905058e+001 
3368750000  -3.552258e+001  9.788818e+001 
3371875000  -3.583569e+001  9.432990e+001 
3375000000  -3.741074e+001  9.267373e+001 
3378125000  -3.839906e+001  9.196452e+001 
3381250000  -4.005765e+001  9.905795e+001 
3384375000  -3.933743e+001  1.212667e+002 
3387500000  -3.586710e+001  1.065208e+002 
3390625000  -3.780739e+001  8.865768e+001 
3393750000  -3.956052e+001  9.238070e+001 
3396875000  -3.879918e+001  9.673879e+001 
3400000000  -3.859255e+001  8.813718e+001 
3403125000  -3.964760e+001  8.411784e+001 
3406250000  -4.042608e+001  8.685294e+001 
3409375000  -4.115941e+001  8.293932e+001 
3412500000  -4.203148e+001  8.316473e+001 
3415625000  -4.295212e+001  8.730417e+001 
3418750000  -4.330097e+001  9.264951e+001 
3421875000  -4.336257e+001  9.893115e+001 
3425000000  -4.272620e+001  1.020912e+002 
3428125000  -4.158669e+001  1.008856e+002 
3431250000  -4.171583e+001  9.740519e+001 
3434375000  -4.145058e+001  9.468216e+001 
3437500000  -4.185592e+001  9.406887e+001 
3440625000  -4.215782e+001  9.405488e+001 
3443750000  -4.107575e+001  9.784838e+001 
3446875000  -3.985907e+001  9.344203e+001 
3450000000  -4.000325e+001  8.408015e+001 
3453125000  -4.005351e+001  7.474665e+001 
3456250000  -4.131747e+001  7.118278e+001 
3459375000  -4.213970e+001  7.469041e+001 
3462500000  -4.258300e+001  7.432688e+001 
3465625000  -4.275871e+001  6.936904e+001 
3468750000  -4.273983e+001  6.900778e+001 
3471875000  -4.301006e+001  6.895970e+001 
3475000000  -4.286552e+001  6.268087e+001 
3478125000  -4.363862e+001  5.678953e+001 
3481250000  -4.481078e+001  5.813511e+001 
3484375000  -4.619952e+001  6.291565e+001 
3487500000  -4.582546e+001  6.692063e+001 
3490625000  -4.516054e+001  6.266382e+001 
3493750000  -4.600422e+001  5.815242e+001 
3496875000  -4.676223e+001  6.366404e+001 
3500000000  -4.822863e+001  6.981782e+001 
3503125000  -4.835323e+001  7.451321e+001 
3506250000  -4.669984e+001  7.719729e+001 
3509375000  -4.695169e+001  7.212980e+001 
3512500000  -4.742994e+001  7.112221e+001 
3515625000  -4.759718e+001  7.343031e+001 
3518750000  -4.843943e+001  7.941262e+001 
3521875000  -4.764225e+001  8.664198e+001 
3525000000  -4.779915e+001  8.387194e+001 
3528125000  -4.758680e+001  9.219213e+001 
3531250000  -4.555382e+001  9.594474e+001 
3534375000  -4.526979e+001  8.970995e+001 
3537500000  -4.489277e+001  8.607620e+001 
3540625000  -4.587867e+001  8.629330e+001 
3543750000  -4.611015e+001  8.880532e+001 
3546875000  -4.561525e+001  1.024673e+002 
3550000000  -4.302758e+001  1.027021e+002 
3553125000  -4.178680e+001  8.757869e+001 
3556250000  -4.224067e+001  8.102906e+001 
3559375000  -4.228431e+001  8.491017e+001 
3562500000  -4.093003e+001  7.714976e+001 
3565625000  -4.208135e+001  6.882326e+001 
3568750000  -4.193960e+001  7.241697e+001 
3571875000  -4.171204e+001  7.335947e+001 
3575000000  -4.095717e+001  6.975996e+001 
3578125000  -4.145480e+001  6.413342e+001 
3581250000  -4.155811e+001  6.461279e+001 
3584375000  -4.086497e+001  6.330577e+001 
3587500000  -3.983384e+001  5.815926e+001 
3590625000  -4.021221e+001  4.902261e+001 
3593750000  -4.118151e+001  4.871847e+001 
3596875000  -4.112512e+001  5.631432e+001 
3600000000  -3.989074e+001  5.317948e+001 
3603125000  -3.982552e+001  3.891827e+001 
3606250000  -4.052800e+001  3.590538e+001 
3609375000  -4.098420e+001  3.576295e+001 
3612500000  -4.138382e+001  3.478281e+001 
3615625000  -4.156639e+001  3.044501e+001 
3618750000  -4.202843e+001  3.350970e+001 
3621875000  -4.155363e+001  3.098826e+001 
3625000000  -4.200175e+001  3.069899e+001 
3628125000  -4.193126e+001  3.176603e+001 
3631250000  -4.148543e+001  2.514355e+001 
3634375000  -4.222572e+001  2.892937e+001 
3637500000  -4.183710e+001  3.320427e+001 
3640625000  -4.099586e+001  3.456941e+001 
3643750000  -4.056601e+001  2.857398e+001 
3646875000  -4.102327e+001  2.335054e+001 
3650000000  -4.166464e+001  2.210793e+001 
3653125000  -4.138207e+001  2.322088e+001 
3656250000  -4.182914e+001  2.264599e+001 
3659375000  -4.210001e+001  2.499197e+001 
3662500000  -4.131370e+001  2.531309e+001 
3665625000  -4.158936e+001  2.497037e+001 
3668750000  -4.078758e+001  2.868925e+001 
3671875000  -3.946745e+001  2.185126e+001 
3675000000  -3.999931e+001  1.588650e+001 
3678125000  -4.047351e+001  1.744812e+001 
3681250000  -3.991418e+001  1.849710e+001 
3684375000  -3.982696e+001  1.649641e+001 
3687500000  -3.969046e+001  1.624652e+001 
3690625000  -3.989410e+001  1.218480e+001 
3693750000  -4.041301e+001  1.631273e+001 
3696875000  -4.028577e+001  1.938237e+001 
3700000000  -3.894022e+001  1.825648e+001 
3703125000  -3.887032e+001  1.405704e+001 
3706250000  -3.963508e+001  1.508657e+001 
3709375000  -3.884872e+001  1.858536e+001 
3712500000  -3.753388e+001  1.827980e+001 
3715625000  -3.654428e+001  1.374270e+001 
3718750000  -3.577385e+001  9.650359e+000 
3721875000  -3.541678e+001  4.770681e+000 
3725000000  -3.535743e+001  4.966124e-002 
3728125000  -3.548429e+001  -1.024682e+000 
3731250000  -3.473136e+001  -1.887084e+000 
3734375000  -3.378817e+001  -7.614847e+000 
3737500000  -3.435543e+001  -1.472277e+001 
3740625000  -3.496075e+001  -1.835275e+001 
3743750000  -3.471957e+001  -2.001829e+001 
3746875000  -3.472104e+001  -2.342881e+001 
3750000000  -3.500017e+001  -2.466129e+001 
3753125000  -3.475512e+001  -2.486658e+001 
3756250000  -3.469694e+001  -2.535566e+001 
3759375000  -3.436901e+001  -2.575318e+001 
3762500000  -3.384596e+001  -2.995067e+001 
3765625000  -3.427385e+001  -3.249531e+001 
3768750000  -3.434724e+001  -3.013916e+001 
3771875000  -3.259483e+001  -3.261763e+001 
3775000000  -3.240646e+001  -4.050009e+001 
3778125000  -3.269534e+001  -4.225233e+001 
3781250000  -3.242379e+001  -4.472349e+001 
3784375000  -3.250244e+001  -4.672705e+001 
3787500000  -3.183685e+001  -5.078548e+001 
3790625000  -3.240990e+001  -5.657856e+001 
3793750000  -3.254482e+001  -5.667554e+001 
3796875000  -3.164294e+001  -5.814690e+001 
3800000000  -3.010048e+001  -6.165013e+001 
3803125000  -3.078836e+001  -6.837467e+001 
3806250000  -3.147966e+001  -7.097806e+001 
3809375000  -3.125336e+001  -7.172086e+001 
3812500000  -3.057187e+001  -7.662931e+001 
3815625000  -3.114331e+001  -8.356819e+001 
3818750000  -3.196804e+001  -8.508092e+001 
3821875000  -3.205322e+001  -7.733345e+001 
3825000000  -3.019449e+001  -7.229246e+001 
3828125000  -2.889447e+001  -8.664449e+001 
3831250000  -2.938416e+001  -1.010259e+002 
3834375000  -3.069348e+001  -1.016301e+002 
3837500000  -3.162567e+001  -9.621147e+001 
3840625000  -3.047991e+001  -9.743552e+001 
3843750000  -2.939567e+001  -1.080044e+002 
3846875000  -2.998712e+001  -1.148898e+002 
3850000000  -3.133562e+001  -1.093207e+002 
3853125000  -3.049446e+001  -1.066835e+002 
3856250000  -3.046029e+001  -1.116830e+002 
3859375000  -2.976286e+001  -1.161352e+002 
3862500000  -2.936026e+001  -1.233149e+002 
3865625000  -2.962183e+001  -1.276946e+002 
3868750000  -2.968435e+001  -1.278923e+002 
3871875000  -2.889910e+001  -1.314902e+002 
3875000000  -2.902967e+001  -1.396327e+002 
3878125000  -3.003865e+001  -1.425571e+002 
3881250000  -3.022111e+001  -1.392390e+002 
3884375000  -2.964546e+001  -1.436771e+002 
3887500000  -2.980448e+001  -1.475160e+002 
3890625000  -3.027438e+001  -1.505547e+002 
3893750000  -3.075320e+001  -1.515201e+002 
3896875000  -3.081539e+001  -1.509147e+002 
3900000000  -3.114606e+001  -1.521994e+002 
3903125000  -3.077446e+001  -1.540152e+002 
3906250000  -3.048329e+001  -1.545231e+002 
3909375000  -2.981504e+001  -1.573434e+002 
3912500000  -2.978811e+001  -1.643036e+002 
3915625000  -3.101715e+001  -1.634577e+002 
3918750000  -3.104120e+001  -1.616747e+002 
3921875000  -3.067087e+001  -1.635511e+002 
3925000000  -2.983468e+001  -1.638556e+002 
3928125000  -2.920225e+001  -1.696161e+002 
3931250000  -2.953513e+001  -1.742221e+002 
3934375000  -2.980304e+001  -1.736442e+002 
3937500000  -2.998428e+001  -1.743635e+002 
3940625000  -3.041072e+001  -1.745938e+002 
3943750000  -2.947110e+001  -1.730746e+002 
3946875000  -2.822578e+001  -1.780542e+002 
3950000000  -2.862768e+001  1.748238e+002 
3953125000  -2.966370e+001  1.749550e+002 
3956250000  -2.880546e+001  1.772492e+002 
3959375000  -2.740668e+001  1.747598e+002 
3962500000  -2.696908e+001  1.702531e+002 
3965625000  -2.657281e+001  1.619659e+002 
3968750000  -2.750907e+001  1.547167e+002 
3971875000  -2.791131e+001  1.540877e+002 
3975000000  -2.714780e+001  1.517120e+002 
3978125000  -2.703405e+001  1.501455e+002 
3981250000  -2.674560e+001  1.460513e+002 
3984375000  -2.698079e+001  1.394693e+002 
3987500000  -2.745379e+001  1.374502e+002 
3990625000  -2.753376e+001  1.366725e+002 
3993750000  -2.775142e+001  1.330280e+002 
3996875000  -2.761849e+001  1.309936e+002 
4000000000  -2.778940e+001  1.286463e+002 
4003125000  -2.841803e+001  1.310404e+002 
4006250000  -2.702551e+001  1.311481e+002 
4009375000  -2.578386e+001  1.189572e+002 
4012500000  -2.684585e+001  1.118608e+002 
4015625000  -2.814180e+001  1.122250e+002 
4018750000  -2.827378e+001  1.145749e+002 
4021875000  -2.760372e+001  1.133023e+002 
4025000000  -2.726490e+001  1.084232e+002 
4028125000  -2.715595e+001  1.048554e+002 
4031250000  -2.768869e+001  1.013643e+002 
4034375000  -2.788861e+001  1.006413e+002 
4037500000  -2.747209e+001  1.030418e+002 
4040625000  -2.733190e+001  9.989997e+001 
4043750000  -2.767741e+001  9.918985e+001 
4046875000  -2.720641e+001  9.929297e+001 
4050000000  -2.671338e+001  9.365411e+001 
4053125000  -2.718683e+001  9.157119e+001 
4056250000  -2.776245e+001  9.527530e+001 
4059375000  -2.662537e+001  9.727510e+001 
4062500000  -2.521575e+001  9.260345e+001 
4065625000  -2.504649e+001  8.824468e+001 
4068750000  -2.478767e+001  8.384875e+001 
4071875000  -2.415686e+001  7.567953e+001 
4075000000  -2.445573e+001  6.957818e+001 
4078125000  -2.504257e+001  6.871531e+001 
4081250000  -2.451084e+001  6.632880e+001 
4084375000  -2.408990e+001  5.971724e+001 
4087500000  -2.439897e+001  5.319003e+001 
4090625000  -2.503196e+001  5.205167e+001 
4093750000  -2.485922e+001  5.285644e+001 
4096875000  -2.444089e+001  4.722828e+001 
4100000000  -2.507208e+001  3.988008e+001 
4103125000  -2.599303e+001  4.049884e+001 
4106250000  -2.583649e+001  4.515556e+001 
4109375000  -2.494938e+001  4.470884e+001 
4112500000  -2.437698e+001  3.812420e+001 
4115625000  -2.471460e+001  3.376553e+001 
4118750000  -2.477279e+001  3.134199e+001 
4121875000  -2.444542e+001  2.620483e+001 
4125000000  -2.477794e+001  2.126697e+001 
4128125000  -2.581490e+001  2.115464e+001 
4131250000  -2.553715e+001  2.923643e+001 
4134375000  -2.324012e+001  2.506686e+001 
4137500000  -2.300813e+001  6.230699e+000 
4140625000  -2.507619e+001  -1.020498e+000 
4143750000  -2.648254e+001  3.675236e+000 
4146875000  -2.609341e+001  1.149426e+001 
4150000000  -2.515543e+001  8.286042e+000 
4153125000  -2.498935e+001  1.898918e+000 
4156250000  -2.580369e+001  -9.742951e-001 
4159375000  -2.614413e+001  3.443083e+000 
4162500000  -2.503076e+001  7.866294e+000 
4165625000  -2.386536e+001  4.007757e+000 
4168750000  -2.328644e+001  -3.389956e+000 
4171875000  -2.320897e+001  -1.240742e+001 
4175000000  -2.385176e+001  -1.785249e+001 
4178125000  -2.447027e+001  -1.821805e+001 
4181250000  -2.428977e+001  -1.883183e+001 
4184375000  -2.416398e+001  -2.171298e+001 
4187500000  -2.419051e+001  -2.448541e+001 
4190625000  -2.396833e+001  -2.991949e+001 
4193750000  -2.474552e+001  -3.379163e+001 
4196875000  -2.548121e+001  -3.423643e+001 
4200000000  -2.628012e+001  -3.213020e+001 
4203125000  -2.639015e+001  -1.906020e+001 
4206250000  -2.305286e+001  -1.683286e+001 
4209375000  -2.183400e+001  -3.733675e+001 
4212500000  -2.370725e+001  -4.644669e+001 
4215625000  -2.473825e+001  -4.012194e+001 
4218750000  -2.340176e+001  -3.373153e+001 
4221875000  -2.109754e+001  -4.247943e+001 
4225000000  -2.228097e+001  -5.514787e+001 
4228125000  -2.305923e+001  -5.032197e+001 
4231250000  -2.142776e+001  -5.386092e+001 
4234375000  -2.138870e+001  -6.232811e+001 
4237500000  -2.093897e+001  -6.555011e+001 
4240625000  -2.095819e+001  -7.400771e+001 
4243750000  -2.193944e+001  -8.053297e+001 
4246875000  -2.280288e+001  -8.073513e+001 
4250000000  -2.286481e+001  -7.801474e+001 
4253125000  -2.225152e+001  -8.009229e+001 
4256250000  -2.255367e+001  -8.440736e+001 
4259375000  -2.228218e+001  -8.629708e+001 
4262500000  -2.231276e+001  -9.000463e+001 
4265625000  -2.250772e+001  -8.967880e+001 
4268750000  -2.164713e+001  -9.363395e+001 
4271875000  -2.140336e+001  -9.900421e+001 
4275000000  -2.074910e+001  -1.054731e+002 
4278125000  -2.135185e+001  -1.166506e+002 
4281250000  -2.316879e+001  -1.188787e+002 
4284375000  -2.285558e+001  -1.184623e+002 
4287500000  -2.365668e+001  -1.217766e+002 
4290625000  -2.492029e+001  -1.121342e+002 
4293750000  -2.301183e+001  -1.068418e+002 
4296875000  -2.159229e+001  -1.179760e+002 
4300000000  -2.238954e+001  -1.271435e+002 
4303125000  -2.351038e+001  -1.261330e+002 
4306250000  -2.292798e+001  -1.199991e+002 
4309375000  -2.156601e+001  -1.220496e+002 
4312500000  -2.143940e+001  -1.304430e+002 
4315625000  -2.165581e+001  -1.363312e+002 
4318750000  -2.196082e+001  -1.399817e+002 
4321875000  -2.211819e+001  -1.393443e+002 
4325000000  -2.155547e+001  -1.387671e+002 
4328125000  -2.106757e+001  -1.450538e+002 
4331250000  -2.099572e+001  -1.532007e+002 
4334375000  -2.139613e+001  -1.580559e+002 
4337500000  -2.216818e+001  -1.603515e+002 
4340625000  -2.277477e+001  -1.570188e+002 
4343750000  -2.217950e+001  -1.566257e+002 
4346875000  -2.181413e+001  -1.620476e+002 
4350000000  -2.177281e+001  -1.664348e+002 
4353125000  -2.180587e+001  -1.745607e+002 
4356250000  -2.350862e+001  -1.753329e+002 
4359375000  -2.416459e+001  -1.626388e+002 
4362500000  -2.154937e+001  -1.605950e+002 
4365625000  -1.993818e+001  -1.722384e+002 
4368750000  -2.055416e+001  1.760101e+002 
4371875000  -2.178290e+001  1.764311e+002 
4375000000  -2.150886e+001  1.775727e+002 
4378125000  -2.083854e+001  1.717235e+002 
4381250000  -2.099358e+001  1.664697e+002 
4384375000  -2.082232e+001  1.620179e+002 
4387500000  -2.152880e+001  1.560804e+002 
4390625000  -2.254048e+001  1.568843e+002 
4393750000  -2.192595e+001  1.590317e+002 
4396875000  -2.124389e+001  1.567216e+002 
4400000000  -2.072345e+001  1.499833e+002 
4403125000  -2.126785e+001  1.423325e+002 
4406250000  -2.216559e+001  1.408890e+002 
4409375000  -2.207062e+001  1.385290e+002 
4412500000  -2.312657e+001  1.361400e+002 
4415625000  -2.354123e+001  1.406779e+002 
4418750000  -2.235762e+001  1.454607e+002 
