!Agilent Technologies,E8363B,MY43030201,A.06.04.32
!Agilent E8363B: A.06.04.32
!Date: Tuesday, November 11, 2014 20:47:23
!Correction: S21(Response(S21)) 
!S1P File: Measurement: S21:
# Hz S  dB   R 50
3000000000  -2.668469e+001  1.579064e+002 
3003125000  -2.800324e+001  1.533085e+002 
3006250000  -2.806270e+001  1.505121e+002 
3009375000  -2.840859e+001  1.554340e+002 
3012500000  -2.790359e+001  1.553022e+002 
3015625000  -2.693869e+001  1.480481e+002 
3018750000  -2.777763e+001  1.470183e+002 
3021875000  -2.651999e+001  1.482967e+002 
3025000000  -2.521481e+001  1.451865e+002 
3028125000  -2.431319e+001  1.408388e+002 
3031250000  -2.321769e+001  1.295390e+002 
3034375000  -2.285019e+001  1.166266e+002 
3037500000  -2.317304e+001  1.045019e+002 
3040625000  -2.447048e+001  9.934904e+001 
3043750000  -2.526882e+001  9.512186e+001 
3046875000  -2.531381e+001  8.880484e+001 
3050000000  -2.705233e+001  8.144460e+001 
3053125000  -2.724177e+001  8.791883e+001 
3056250000  -2.649859e+001  9.068997e+001 
3059375000  -2.683789e+001  9.045454e+001 
3062500000  -2.535444e+001  8.671008e+001 
3065625000  -2.513278e+001  8.115089e+001 
3068750000  -2.480523e+001  7.437476e+001 
3071875000  -2.476027e+001  7.130435e+001 
3075000000  -2.478685e+001  6.749806e+001 
3078125000  -2.447236e+001  6.298133e+001 
3081250000  -2.508518e+001  5.903833e+001 
3084375000  -2.437881e+001  5.516739e+001 
3087500000  -2.422437e+001  5.165575e+001 
3090625000  -2.394123e+001  4.222919e+001 
3093750000  -2.431474e+001  3.394099e+001 
3096875000  -2.559069e+001  2.773844e+001 
3100000000  -2.577814e+001  2.635340e+001 
3103125000  -2.614891e+001  2.823760e+001 
3106250000  -2.588599e+001  2.429904e+001 
3109375000  -2.610327e+001  2.095391e+001 
3112500000  -2.625358e+001  1.999767e+001 
3115625000  -2.604387e+001  1.573862e+001 
3118750000  -2.652843e+001  1.698835e+001 
3121875000  -2.588758e+001  9.030396e+000 
3125000000  -2.695575e+001  5.344115e+000 
3128125000  -2.827344e+001  1.353985e+001 
3131250000  -2.612380e+001  1.452299e+001 
3134375000  -2.470022e+001  9.508250e-001 
3137500000  -2.532618e+001  -1.311652e+001 
3140625000  -2.694691e+001  -1.500008e+001 
3143750000  -2.797566e+001  -1.075174e+001 
3146875000  -2.755683e+001  -8.790255e+000 
3150000000  -2.656054e+001  -6.412398e+000 
3153125000  -2.651935e+001  -1.428282e+001 
3156250000  -2.745951e+001  -8.977709e+000 
3159375000  -2.596373e+001  -5.788079e+000 
3162500000  -2.391884e+001  -1.881740e+001 
3165625000  -2.479156e+001  -2.988112e+001 
3168750000  -2.524042e+001  -2.900529e+001 
3171875000  -2.430197e+001  -3.307715e+001 
3175000000  -2.492561e+001  -4.109986e+001 
3178125000  -2.469763e+001  -3.908545e+001 
3181250000  -2.352364e+001  -4.297681e+001 
3184375000  -2.272031e+001  -5.519886e+001 
3187500000  -2.378146e+001  -7.089233e+001 
3190625000  -2.657543e+001  -7.879274e+001 
3193750000  -2.726704e+001  -6.895049e+001 
3196875000  -2.680414e+001  -6.358360e+001 
3200000000  -2.598573e+001  -6.529939e+001 
3203125000  -2.507824e+001  -7.079388e+001 
3206250000  -2.537629e+001  -7.694194e+001 
3209375000  -2.492347e+001  -8.195765e+001 
3212500000  -2.499329e+001  -8.854456e+001 
3215625000  -2.513209e+001  -9.315096e+001 
3218750000  -2.586424e+001  -9.902540e+001 
3221875000  -2.688483e+001  -1.044379e+002 
3225000000  -2.653003e+001  -1.048067e+002 
3228125000  -2.677855e+001  -1.093144e+002 
3231250000  -2.753680e+001  -1.123850e+002 
3234375000  -2.742484e+001  -1.110143e+002 
3237500000  -2.747320e+001  -1.128587e+002 
3240625000  -2.714394e+001  -1.145724e+002 
3243750000  -2.672954e+001  -1.210083e+002 
3246875000  -2.721825e+001  -1.272699e+002 
3250000000  -2.769059e+001  -1.294191e+002 
3253125000  -2.782611e+001  -1.310456e+002 
3256250000  -2.772751e+001  -1.371585e+002 
3259375000  -2.796791e+001  -1.446935e+002 
3262500000  -2.925739e+001  -1.473833e+002 
3265625000  -2.993301e+001  -1.441723e+002 
3268750000  -2.990490e+001  -1.416402e+002 
3271875000  -2.971876e+001  -1.403688e+002 
3275000000  -2.857950e+001  -1.455691e+002 
3278125000  -2.901280e+001  -1.519348e+002 
3281250000  -2.934240e+001  -1.503163e+002 
3284375000  -2.891412e+001  -1.556888e+002 
3287500000  -2.903314e+001  -1.586130e+002 
3290625000  -2.948520e+001  -1.628274e+002 
3293750000  -2.918026e+001  -1.686257e+002 
3296875000  -3.014026e+001  -1.684254e+002 
3300000000  -3.004772e+001  -1.678436e+002 
3303125000  -2.890790e+001  -1.711878e+002 
3306250000  -2.866746e+001  -1.779167e+002 
3309375000  -2.851898e+001  1.772941e+002 
3312500000  -2.854090e+001  1.671070e+002 
3315625000  -2.945668e+001  1.590076e+002 
3318750000  -3.080322e+001  1.565502e+002 
3321875000  -3.197741e+001  1.558974e+002 
3325000000  -3.249578e+001  1.606910e+002 
3328125000  -3.253531e+001  1.622463e+002 
3331250000  -3.145428e+001  1.699908e+002 
3334375000  -2.872276e+001  1.604149e+002 
3337500000  -2.878077e+001  1.424243e+002 
3340625000  -3.009414e+001  1.315224e+002 
3343750000  -3.198388e+001  1.294974e+002 
3346875000  -3.256657e+001  1.307498e+002 
3350000000  -3.198118e+001  1.300888e+002 
3353125000  -3.203650e+001  1.260503e+002 
3356250000  -3.178023e+001  1.185611e+002 
3359375000  -3.253858e+001  1.106405e+002 
3362500000  -3.396242e+001  1.038548e+002 
3365625000  -3.451272e+001  1.023630e+002 
3368750000  -3.542496e+001  1.008517e+002 
3371875000  -3.574155e+001  9.786649e+001 
3375000000  -3.744613e+001  9.514075e+001 
3378125000  -3.857619e+001  9.482714e+001 
3381250000  -4.012508e+001  1.027591e+002 
3384375000  -3.932297e+001  1.233304e+002 
3387500000  -3.603299e+001  1.096059e+002 
3390625000  -3.785257e+001  9.091702e+001 
3393750000  -3.962046e+001  9.476454e+001 
3396875000  -3.879070e+001  9.825904e+001 
3400000000  -3.884994e+001  9.206087e+001 
3403125000  -3.990433e+001  8.779765e+001 
3406250000  -4.055411e+001  8.879272e+001 
3409375000  -4.106155e+001  8.320218e+001 
3412500000  -4.211333e+001  8.548309e+001 
3415625000  -4.321595e+001  9.087592e+001 
3418750000  -4.337674e+001  9.272935e+001 
3421875000  -4.388080e+001  1.014286e+002 
3425000000  -4.301554e+001  1.045362e+002 
3428125000  -4.176635e+001  1.038417e+002 
3431250000  -4.195183e+001  9.998813e+001 
3434375000  -4.172230e+001  9.769418e+001 
3437500000  -4.196087e+001  9.586852e+001 
3440625000  -4.239438e+001  9.765060e+001 
3443750000  -4.127982e+001  1.009725e+002 
3446875000  -4.025864e+001  9.689789e+001 
3450000000  -4.030928e+001  8.740009e+001 
3453125000  -4.051768e+001  7.811800e+001 
3456250000  -4.156127e+001  7.136868e+001 
3459375000  -4.249107e+001  7.599638e+001 
3462500000  -4.300739e+001  7.624033e+001 
3465625000  -4.307063e+001  7.389719e+001 
3468750000  -4.352337e+001  6.903625e+001 
3471875000  -4.355478e+001  6.960305e+001 
3475000000  -4.315900e+001  6.758281e+001 
3478125000  -4.449509e+001  6.239180e+001 
3481250000  -4.542822e+001  5.991608e+001 
3484375000  -4.670982e+001  6.510283e+001 
3487500000  -4.612476e+001  7.067989e+001 
3490625000  -4.603114e+001  6.866064e+001 
3493750000  -4.676856e+001  6.339540e+001 
3496875000  -4.756644e+001  6.642337e+001 
3500000000  -4.897614e+001  7.080569e+001 
3503125000  -4.876824e+001  8.126194e+001 
3506250000  -4.769785e+001  7.918873e+001 
3509375000  -4.810956e+001  7.902068e+001 
3512500000  -4.808201e+001  8.136128e+001 
3515625000  -4.821529e+001  8.138100e+001 
3518750000  -4.902699e+001  8.772837e+001 
3521875000  -4.878356e+001  9.373095e+001 
3525000000  -4.912939e+001  9.274545e+001 
3528125000  -4.790112e+001  1.047609e+002 
3531250000  -4.632281e+001  1.045622e+002 
3534375000  -4.515141e+001  9.881599e+001 
3537500000  -4.503916e+001  9.296729e+001 
3540625000  -4.554031e+001  9.429150e+001 
3543750000  -4.593162e+001  9.745123e+001 
3546875000  -4.606408e+001  1.084227e+002 
3550000000  -4.304073e+001  1.079851e+002 
3553125000  -4.162028e+001  9.551562e+001 
3556250000  -4.254611e+001  8.854862e+001 
3559375000  -4.242869e+001  8.997104e+001 
3562500000  -4.108423e+001  8.247978e+001 
3565625000  -4.184008e+001  7.652372e+001 
3568750000  -4.183121e+001  8.043443e+001 
3571875000  -4.162411e+001  7.989926e+001 
3575000000  -4.116859e+001  7.469815e+001 
3578125000  -4.154984e+001  6.968395e+001 
3581250000  -4.158295e+001  7.111274e+001 
3584375000  -4.069738e+001  7.014303e+001 
3587500000  -4.002173e+001  6.418301e+001 
3590625000  -4.041914e+001  5.613284e+001 
3593750000  -4.135725e+001  5.547587e+001 
3596875000  -4.121600e+001  6.200642e+001 
3600000000  -3.969359e+001  5.870893e+001 
3603125000  -3.978898e+001  4.515019e+001 
3606250000  -4.052247e+001  4.491927e+001 
3609375000  -4.077550e+001  4.144607e+001 
3612500000  -4.137815e+001  4.181433e+001 
3615625000  -4.144857e+001  3.990941e+001 
3618750000  -4.186212e+001  3.890161e+001 
3621875000  -4.147657e+001  3.877239e+001 
3625000000  -4.177925e+001  3.919439e+001 
3628125000  -4.157311e+001  3.845381e+001 
3631250000  -4.138448e+001  3.525165e+001 
3634375000  -4.251498e+001  3.504411e+001 
3637500000  -4.219699e+001  4.187471e+001 
3640625000  -4.066168e+001  4.233390e+001 
3643750000  -4.062437e+001  3.575915e+001 
3646875000  -4.100908e+001  3.084465e+001 
3650000000  -4.139270e+001  3.122131e+001 
3653125000  -4.132187e+001  3.040543e+001 
3656250000  -4.174688e+001  2.990478e+001 
3659375000  -4.185501e+001  3.173120e+001 
3662500000  -4.097124e+001  3.106506e+001 
3665625000  -4.138258e+001  2.906263e+001 
3668750000  -4.004694e+001  3.233612e+001 
3671875000  -3.920319e+001  2.885557e+001 
3675000000  -3.968897e+001  2.244850e+001 
3678125000  -4.027510e+001  2.422279e+001 
3681250000  -3.962127e+001  2.567014e+001 
3684375000  -3.972068e+001  2.170023e+001 
3687500000  -3.972336e+001  2.226575e+001 
3690625000  -3.955914e+001  1.865468e+001 
3693750000  -4.019049e+001  2.136198e+001 
3696875000  -3.996912e+001  2.466240e+001 
3700000000  -3.893769e+001  2.349354e+001 
3703125000  -3.862757e+001  1.914849e+001 
3706250000  -3.923633e+001  2.074987e+001 
3709375000  -3.869211e+001  2.318869e+001 
3712500000  -3.745705e+001  2.351564e+001 
3715625000  -3.638045e+001  1.774328e+001 
3718750000  -3.576669e+001  1.598993e+001 
3721875000  -3.528685e+001  1.003490e+001 
3725000000  -3.509980e+001  5.222066e+000 
3728125000  -3.538676e+001  5.447265e+000 
3731250000  -3.458065e+001  3.600179e+000 
3734375000  -3.361762e+001  -2.117365e+000 
3737500000  -3.411701e+001  -9.631085e+000 
3740625000  -3.478336e+001  -1.240683e+001 
3743750000  -3.449331e+001  -1.403940e+001 
3746875000  -3.449763e+001  -1.745460e+001 
3750000000  -3.484874e+001  -1.820446e+001 
3753125000  -3.444535e+001  -1.891543e+001 
3756250000  -3.424263e+001  -1.992230e+001 
3759375000  -3.427299e+001  -2.043277e+001 
3762500000  -3.359155e+001  -2.489766e+001 
3765625000  -3.403704e+001  -2.717444e+001 
3768750000  -3.415958e+001  -2.581603e+001 
3771875000  -3.253821e+001  -2.694861e+001 
3775000000  -3.228799e+001  -3.513348e+001 
3778125000  -3.248856e+001  -3.676186e+001 
3781250000  -3.227746e+001  -3.912225e+001 
3784375000  -3.218697e+001  -4.133109e+001 
3787500000  -3.154690e+001  -4.457393e+001 
3790625000  -3.213918e+001  -5.068369e+001 
3793750000  -3.246580e+001  -5.199154e+001 
3796875000  -3.152539e+001  -5.173824e+001 
3800000000  -2.994742e+001  -5.619630e+001 
3803125000  -3.059885e+001  -6.310784e+001 
3806250000  -3.117279e+001  -6.507384e+001 
3809375000  -3.106299e+001  -6.617081e+001 
3812500000  -3.032314e+001  -7.118964e+001 
3815625000  -3.090077e+001  -7.852669e+001 
3818750000  -3.180865e+001  -7.940103e+001 
3821875000  -3.195220e+001  -7.217089e+001 
3825000000  -3.014817e+001  -6.667328e+001 
3828125000  -2.870604e+001  -8.032119e+001 
3831250000  -2.910609e+001  -9.450372e+001 
3834375000  -3.046056e+001  -9.628725e+001 
3837500000  -3.133699e+001  -9.117316e+001 
3840625000  -3.037736e+001  -9.206532e+001 
3843750000  -2.914278e+001  -1.018753e+002 
3846875000  -2.986558e+001  -1.085681e+002 
3850000000  -3.102427e+001  -1.037542e+002 
3853125000  -3.030631e+001  -1.000592e+002 
3856250000  -3.039062e+001  -1.065838e+002 
3859375000  -2.966429e+001  -1.096299e+002 
3862500000  -2.917684e+001  -1.166563e+002 
3865625000  -2.942128e+001  -1.217032e+002 
3868750000  -2.946039e+001  -1.218401e+002 
3871875000  -2.876108e+001  -1.247756e+002 
3875000000  -2.881534e+001  -1.328977e+002 
3878125000  -2.984393e+001  -1.356869e+002 
3881250000  -2.990783e+001  -1.327645e+002 
3884375000  -2.940360e+001  -1.376489e+002 
3887500000  -2.941755e+001  -1.412435e+002 
3890625000  -2.999376e+001  -1.442329e+002 
3893750000  -3.042232e+001  -1.450200e+002 
3896875000  -3.051688e+001  -1.445205e+002 
3900000000  -3.078790e+001  -1.457874e+002 
3903125000  -3.046397e+001  -1.480778e+002 
3906250000  -3.020012e+001  -1.487489e+002 
3909375000  -2.941602e+001  -1.512071e+002 
3912500000  -2.944337e+001  -1.580754e+002 
3915625000  -3.063572e+001  -1.578176e+002 
3918750000  -3.074240e+001  -1.554599e+002 
3921875000  -3.036891e+001  -1.575866e+002 
3925000000  -2.947555e+001  -1.580253e+002 
3928125000  -2.873117e+001  -1.636625e+002 
3931250000  -2.912730e+001  -1.674474e+002 
3934375000  -2.944094e+001  -1.677028e+002 
3937500000  -2.952771e+001  -1.686944e+002 
3940625000  -3.007959e+001  -1.687158e+002 
3943750000  -2.917220e+001  -1.663799e+002 
3946875000  -2.780893e+001  -1.715559e+002 
3950000000  -2.831296e+001  -1.792279e+002 
3953125000  -2.922631e+001  -1.783394e+002 
3956250000  -2.835314e+001  -1.760464e+002 
3959375000  -2.711433e+001  -1.797802e+002 
3962500000  -2.652566e+001  1.767402e+002 
3965625000  -2.610373e+001  1.680069e+002 
3968750000  -2.704175e+001  1.609802e+002 
3971875000  -2.746012e+001  1.595677e+002 
3975000000  -2.684197e+001  1.575064e+002 
3978125000  -2.664664e+001  1.564220e+002 
3981250000  -2.638742e+001  1.522758e+002 
3984375000  -2.657252e+001  1.456114e+002 
3987500000  -2.703625e+001  1.437175e+002 
3990625000  -2.705502e+001  1.428268e+002 
3993750000  -2.726808e+001  1.396057e+002 
3996875000  -2.726650e+001  1.369963e+002 
4000000000  -2.733092e+001  1.349498e+002 
4003125000  -2.794784e+001  1.370526e+002 
4006250000  -2.661732e+001  1.378701e+002 
4009375000  -2.530046e+001  1.259953e+002 
4012500000  -2.630197e+001  1.183533e+002 
4015625000  -2.742838e+001  1.189054e+002 
4018750000  -2.777508e+001  1.210490e+002 
4021875000  -2.711425e+001  1.197241e+002 
4025000000  -2.667520e+001  1.149080e+002 
4028125000  -2.656323e+001  1.109184e+002 
4031250000  -2.703407e+001  1.075193e+002 
4034375000  -2.734949e+001  1.070216e+002 
4037500000  -2.680830e+001  1.084250e+002 
4040625000  -2.673298e+001  1.054455e+002 
4043750000  -2.707155e+001  1.050913e+002 
4046875000  -2.659597e+001  1.048832e+002 
4050000000  -2.607667e+001  9.906382e+001 
4053125000  -2.651658e+001  9.668353e+001 
4056250000  -2.716973e+001  1.000249e+002 
4059375000  -2.611944e+001  1.023320e+002 
4062500000  -2.470252e+001  9.798999e+001 
4065625000  -2.451524e+001  9.409106e+001 
4068750000  -2.423660e+001  8.971288e+001 
4071875000  -2.356693e+001  8.165025e+001 
4075000000  -2.385969e+001  7.528957e+001 
4078125000  -2.435152e+001  7.386312e+001 
4081250000  -2.392145e+001  7.163531e+001 
4084375000  -2.351573e+001  6.506473e+001 
4087500000  -2.381531e+001  5.867831e+001 
4090625000  -2.443679e+001  5.721129e+001 
4093750000  -2.432413e+001  5.773403e+001 
4096875000  -2.384377e+001  5.230218e+001 
4100000000  -2.450846e+001  4.536537e+001 
4103125000  -2.534405e+001  4.554284e+001 
4106250000  -2.516487e+001  5.047524e+001 
4109375000  -2.434229e+001  4.970786e+001 
4112500000  -2.376383e+001  4.331584e+001 
4115625000  -2.406306e+001  3.908036e+001 
4118750000  -2.419025e+001  3.594897e+001 
4121875000  -2.389730e+001  3.127977e+001 
4125000000  -2.416673e+001  2.632096e+001 
4128125000  -2.516937e+001  2.664604e+001 
4131250000  -2.485915e+001  3.494058e+001 
4134375000  -2.253469e+001  3.092986e+001 
4137500000  -2.224986e+001  1.160194e+001 
4140625000  -2.434651e+001  4.171114e+000 
4143750000  -2.573706e+001  8.766048e+000 
4146875000  -2.533979e+001  1.607567e+001 
4150000000  -2.444129e+001  1.305355e+001 
4153125000  -2.428532e+001  6.535945e+000 
4156250000  -2.509325e+001  3.839925e+000 
4159375000  -2.545763e+001  8.022269e+000 
4162500000  -2.440482e+001  1.210072e+001 
4165625000  -2.322773e+001  8.604764e+000 
4168750000  -2.254658e+001  1.531468e+000 
4171875000  -2.241606e+001  -7.744444e+000 
4175000000  -2.298408e+001  -1.378555e+001 
4178125000  -2.360411e+001  -1.406653e+001 
4181250000  -2.353998e+001  -1.499936e+001 
4184375000  -2.335874e+001  -1.775135e+001 
4187500000  -2.342295e+001  -2.071928e+001 
4190625000  -2.325328e+001  -2.619820e+001 
4193750000  -2.399026e+001  -3.000434e+001 
4196875000  -2.475640e+001  -3.016109e+001 
4200000000  -2.551109e+001  -2.818423e+001 
4203125000  -2.561322e+001  -1.577888e+001 
4206250000  -2.244321e+001  -1.343937e+001 
4209375000  -2.111964e+001  -3.340440e+001 
4212500000  -2.306380e+001  -4.234246e+001 
4215625000  -2.400847e+001  -3.594021e+001 
4218750000  -2.265936e+001  -2.915779e+001 
4221875000  -2.026740e+001  -3.871930e+001 
4225000000  -2.142701e+001  -5.197942e+001 
4228125000  -2.229485e+001  -4.723296e+001 
4231250000  -2.079370e+001  -5.012293e+001 
4234375000  -2.065068e+001  -5.850488e+001 
4237500000  -2.023861e+001  -6.226066e+001 
4240625000  -2.029879e+001  -7.076012e+001 
4243750000  -2.129766e+001  -7.682748e+001 
4246875000  -2.208455e+001  -7.705639e+001 
4250000000  -2.206461e+001  -7.426937e+001 
4253125000  -2.150037e+001  -7.650156e+001 
4256250000  -2.170370e+001  -8.071925e+001 
4259375000  -2.154430e+001  -8.282751e+001 
4262500000  -2.155772e+001  -8.682269e+001 
4265625000  -2.173202e+001  -8.675619e+001 
4268750000  -2.096317e+001  -9.004163e+001 
4271875000  -2.060492e+001  -9.549024e+001 
4275000000  -1.999471e+001  -1.022901e+002 
4278125000  -2.044138e+001  -1.137693e+002 
4281250000  -2.221749e+001  -1.162489e+002 
4284375000  -2.207838e+001  -1.154344e+002 
4287500000  -2.286261e+001  -1.194053e+002 
4290625000  -2.425679e+001  -1.100293e+002 
4293750000  -2.231146e+001  -1.034827e+002 
4296875000  -2.089253e+001  -1.148811e+002 
4300000000  -2.167958e+001  -1.240232e+002 
4303125000  -2.274283e+001  -1.233152e+002 
4306250000  -2.217425e+001  -1.175518e+002 
4309375000  -2.076203e+001  -1.197368e+002 
4312500000  -2.068546e+001  -1.282820e+002 
4315625000  -2.099678e+001  -1.341016e+002 
4318750000  -2.126194e+001  -1.373234e+002 
4321875000  -2.142512e+001  -1.369436e+002 
4325000000  -2.082795e+001  -1.368124e+002 
4328125000  -2.035276e+001  -1.429073e+002 
4331250000  -2.038516e+001  -1.508909e+002 
4334375000  -2.077126e+001  -1.556833e+002 
4337500000  -2.149053e+001  -1.578440e+002 
4340625000  -2.202841e+001  -1.553453e+002 
4343750000  -2.151324e+001  -1.549087e+002 
4346875000  -2.114247e+001  -1.594386e+002 
4350000000  -2.100498e+001  -1.642180e+002 
4353125000  -2.103823e+001  -1.722188e+002 
4356250000  -2.268331e+001  -1.744767e+002 
4359375000  -2.341203e+001  -1.619075e+002 
4362500000  -2.101873e+001  -1.589361e+002 
4365625000  -1.937945e+001  -1.699760e+002 
4368750000  -1.998894e+001  1.781275e+002 
4371875000  -2.114031e+001  1.782056e+002 
4375000000  -2.086631e+001  1.792663e+002 
4378125000  -2.024612e+001  1.739772e+002 
4381250000  -2.033767e+001  1.688353e+002 
4384375000  -2.017898e+001  1.640905e+002 
4387500000  -2.074025e+001  1.578624e+002 
4390625000  -2.184448e+001  1.582008e+002 
4393750000  -2.128996e+001  1.607478e+002 
4396875000  -2.062820e+001  1.585930e+002 
4400000000  -2.012362e+001  1.518022e+002 
4403125000  -2.061414e+001  1.441037e+002 
4406250000  -2.147683e+001  1.426101e+002 
4409375000  -2.140442e+001  1.403968e+002 
4412500000  -2.228457e+001  1.370207e+002 
4415625000  -2.279518e+001  1.416064e+002 
4418750000  -2.178079e+001  1.466748e+002 
