!Agilent Technologies,E8363B,MY43030201,A.06.04.32
!Agilent E8363B: A.06.04.32
!Date: Tuesday, November 11, 2014 20:43:58
!Correction: S21(Response(S21)) 
!S1P File: Measurement: S21:
# Hz S  dB   R 50
3000000000  -2.650658e+001  1.587731e+002 
3003125000  -2.789767e+001  1.544307e+002 
3006250000  -2.790788e+001  1.515417e+002 
3009375000  -2.832736e+001  1.565638e+002 
3012500000  -2.777891e+001  1.566618e+002 
3015625000  -2.683907e+001  1.493588e+002 
3018750000  -2.765011e+001  1.482906e+002 
3021875000  -2.643179e+001  1.494371e+002 
3025000000  -2.516338e+001  1.467854e+002 
3028125000  -2.415789e+001  1.418607e+002 
3031250000  -2.314294e+001  1.309849e+002 
3034375000  -2.275772e+001  1.179686e+002 
3037500000  -2.306575e+001  1.058306e+002 
3040625000  -2.438519e+001  1.006599e+002 
3043750000  -2.511765e+001  9.666155e+001 
3046875000  -2.518119e+001  9.014586e+001 
3050000000  -2.698728e+001  8.304654e+001 
3053125000  -2.717328e+001  8.931963e+001 
3056250000  -2.647435e+001  9.252114e+001 
3059375000  -2.672884e+001  9.202895e+001 
3062500000  -2.527169e+001  8.821638e+001 
3065625000  -2.503278e+001  8.298660e+001 
3068750000  -2.472852e+001  7.587434e+001 
3071875000  -2.467879e+001  7.273805e+001 
3075000000  -2.467867e+001  6.911420e+001 
3078125000  -2.436288e+001  6.462898e+001 
3081250000  -2.500484e+001  6.052958e+001 
3084375000  -2.429549e+001  5.692544e+001 
3087500000  -2.413911e+001  5.334933e+001 
3090625000  -2.389265e+001  4.375912e+001 
3093750000  -2.423195e+001  3.567075e+001 
3096875000  -2.553670e+001  2.918598e+001 
3100000000  -2.573380e+001  2.802743e+001 
3103125000  -2.608597e+001  2.948468e+001 
3106250000  -2.582239e+001  2.616131e+001 
3109375000  -2.607288e+001  2.251754e+001 
3112500000  -2.618318e+001  2.162982e+001 
3115625000  -2.597758e+001  1.737945e+001 
3118750000  -2.647386e+001  1.850005e+001 
3121875000  -2.583927e+001  1.080637e+001 
3125000000  -2.684321e+001  6.861024e+000 
3128125000  -2.818554e+001  1.488167e+001 
3131250000  -2.602565e+001  1.573900e+001 
3134375000  -2.461968e+001  2.484315e+000 
3137500000  -2.529371e+001  -1.166138e+001 
3140625000  -2.693009e+001  -1.346866e+001 
3143750000  -2.797195e+001  -9.270214e+000 
3146875000  -2.754935e+001  -7.534372e+000 
3150000000  -2.656497e+001  -4.804630e+000 
3153125000  -2.650746e+001  -1.269030e+001 
3156250000  -2.748316e+001  -7.872282e+000 
3159375000  -2.602966e+001  -4.419625e+000 
3162500000  -2.390854e+001  -1.704078e+001 
3165625000  -2.482100e+001  -2.814495e+001 
3168750000  -2.527784e+001  -2.735053e+001 
3171875000  -2.430234e+001  -3.155876e+001 
3175000000  -2.490860e+001  -3.920585e+001 
3178125000  -2.476005e+001  -3.761000e+001 
3181250000  -2.351058e+001  -4.135143e+001 
3184375000  -2.271424e+001  -5.342599e+001 
3187500000  -2.375344e+001  -6.907985e+001 
3190625000  -2.662498e+001  -7.697306e+001 
3193750000  -2.726514e+001  -6.728831e+001 
3196875000  -2.683331e+001  -6.165312e+001 
3200000000  -2.602784e+001  -6.356676e+001 
3203125000  -2.509375e+001  -6.897923e+001 
3206250000  -2.538398e+001  -7.489153e+001 
3209375000  -2.488774e+001  -8.020509e+001 
3212500000  -2.499703e+001  -8.698716e+001 
3215625000  -2.515279e+001  -9.144346e+001 
3218750000  -2.592110e+001  -9.749611e+001 
3221875000  -2.695287e+001  -1.027745e+002 
3225000000  -2.658549e+001  -1.033228e+002 
3228125000  -2.680448e+001  -1.074064e+002 
3231250000  -2.758728e+001  -1.104986e+002 
3234375000  -2.746964e+001  -1.094819e+002 
3237500000  -2.747314e+001  -1.112817e+002 
3240625000  -2.718737e+001  -1.125586e+002 
3243750000  -2.677403e+001  -1.190275e+002 
3246875000  -2.726834e+001  -1.260675e+002 
3250000000  -2.771079e+001  -1.278271e+002 
3253125000  -2.787081e+001  -1.295903e+002 
3256250000  -2.771000e+001  -1.355699e+002 
3259375000  -2.804180e+001  -1.429107e+002 
3262500000  -2.927121e+001  -1.459397e+002 
3265625000  -3.001933e+001  -1.425991e+002 
3268750000  -3.001149e+001  -1.400422e+002 
3271875000  -2.978902e+001  -1.386305e+002 
3275000000  -2.871387e+001  -1.432316e+002 
3278125000  -2.913741e+001  -1.501410e+002 
3281250000  -2.942121e+001  -1.481054e+002 
3284375000  -2.893773e+001  -1.540605e+002 
3287500000  -2.912624e+001  -1.570559e+002 
3290625000  -2.951974e+001  -1.607534e+002 
3293750000  -2.921879e+001  -1.663732e+002 
3296875000  -3.024057e+001  -1.666478e+002 
3300000000  -3.020687e+001  -1.656807e+002 
3303125000  -2.903039e+001  -1.691212e+002 
3306250000  -2.881100e+001  -1.758797e+002 
3309375000  -2.857773e+001  1.791413e+002 
3312500000  -2.859759e+001  1.686805e+002 
3315625000  -2.958332e+001  1.610183e+002 
3318750000  -3.086419e+001  1.576771e+002 
3321875000  -3.214517e+001  1.574801e+002 
3325000000  -3.267267e+001  1.622690e+002 
3328125000  -3.267564e+001  1.638389e+002 
3331250000  -3.152683e+001  1.716748e+002 
3334375000  -2.884373e+001  1.623627e+002 
3337500000  -2.885585e+001  1.443850e+002 
3340625000  -3.021938e+001  1.331230e+002 
3343750000  -3.207690e+001  1.316522e+002 
3346875000  -3.271087e+001  1.333202e+002 
3350000000  -3.214881e+001  1.320502e+002 
3353125000  -3.224001e+001  1.285417e+002 
3356250000  -3.184576e+001  1.204056e+002 
3359375000  -3.275987e+001  1.117918e+002 
3362500000  -3.395648e+001  1.062375e+002 
3365625000  -3.473572e+001  1.045575e+002 
3368750000  -3.558477e+001  1.033345e+002 
3371875000  -3.605368e+001  9.916581e+001 
3375000000  -3.763218e+001  9.780272e+001 
3378125000  -3.864254e+001  9.720324e+001 
3381250000  -4.018620e+001  1.036355e+002 
3384375000  -3.943589e+001  1.245825e+002 
3387500000  -3.642867e+001  1.106434e+002 
3390625000  -3.817850e+001  9.338297e+001 
3393750000  -3.993300e+001  9.804998e+001 
3396875000  -3.903970e+001  1.002494e+002 
3400000000  -3.925075e+001  9.212248e+001 
3403125000  -4.017381e+001  8.899600e+001 
3406250000  -4.105886e+001  9.369894e+001 
3409375000  -4.137389e+001  8.751037e+001 
3412500000  -4.258251e+001  8.966270e+001 
3415625000  -4.368211e+001  9.394331e+001 
3418750000  -4.358881e+001  9.831528e+001 
3421875000  -4.422537e+001  1.039465e+002 
3425000000  -4.321477e+001  1.084232e+002 
3428125000  -4.257541e+001  1.077175e+002 
3431250000  -4.223612e+001  1.058101e+002 
3434375000  -4.196777e+001  1.022695e+002 
3437500000  -4.249570e+001  9.891394e+001 
3440625000  -4.282080e+001  1.027795e+002 
3443750000  -4.131551e+001  1.068136e+002 
3446875000  -4.057273e+001  1.005496e+002 
3450000000  -4.038425e+001  9.139315e+001 
3453125000  -4.075467e+001  8.370865e+001 
3456250000  -4.162031e+001  7.888644e+001 
3459375000  -4.271434e+001  8.233395e+001 
3462500000  -4.300703e+001  7.966840e+001 
3465625000  -4.322626e+001  7.567146e+001 
3468750000  -4.326819e+001  7.446543e+001 
3471875000  -4.341448e+001  7.620533e+001 
3475000000  -4.347314e+001  7.187481e+001 
3478125000  -4.425481e+001  6.633468e+001 
3481250000  -4.502541e+001  6.548000e+001 
3484375000  -4.694667e+001  6.973068e+001 
3487500000  -4.608192e+001  7.295177e+001 
3490625000  -4.605624e+001  7.388732e+001 
3493750000  -4.701192e+001  6.938623e+001 
3496875000  -4.762487e+001  6.910080e+001 
3500000000  -4.932274e+001  7.767924e+001 
3503125000  -4.826679e+001  8.469396e+001 
3506250000  -4.702467e+001  8.224103e+001 
3509375000  -4.741050e+001  8.569053e+001 
3512500000  -4.831896e+001  8.538627e+001 
3515625000  -4.780893e+001  8.658874e+001 
3518750000  -4.876789e+001  8.837505e+001 
3521875000  -4.818774e+001  9.444742e+001 
3525000000  -4.798345e+001  9.841166e+001 
3528125000  -4.772762e+001  1.060517e+002 
3531250000  -4.606223e+001  1.046472e+002 
3534375000  -4.534689e+001  9.857899e+001 
3537500000  -4.451027e+001  9.687081e+001 
3540625000  -4.504314e+001  9.486878e+001 
3543750000  -4.560906e+001  9.685614e+001 
3546875000  -4.559159e+001  1.101046e+002 
3550000000  -4.275894e+001  1.114623e+002 
3553125000  -4.149287e+001  9.664248e+001 
3556250000  -4.233477e+001  9.056570e+001 
3559375000  -4.222425e+001  9.275039e+001 
3562500000  -4.093359e+001  8.556458e+001 
3565625000  -4.160142e+001  7.645135e+001 
3568750000  -4.196675e+001  8.097324e+001 
3571875000  -4.181911e+001  8.014559e+001 
3575000000  -4.098779e+001  7.624369e+001 
3578125000  -4.146671e+001  7.220254e+001 
3581250000  -4.147906e+001  7.315951e+001 
3584375000  -4.089330e+001  7.090116e+001 
3587500000  -3.981309e+001  6.429455e+001 
3590625000  -3.996601e+001  5.778090e+001 
3593750000  -4.125824e+001  5.547779e+001 
3596875000  -4.135543e+001  6.387719e+001 
3600000000  -3.981511e+001  6.105400e+001 
3603125000  -3.969699e+001  4.852282e+001 
3606250000  -4.067447e+001  4.414050e+001 
3609375000  -4.082146e+001  4.365124e+001 
3612500000  -4.131166e+001  4.176160e+001 
3615625000  -4.136493e+001  3.926950e+001 
3618750000  -4.183089e+001  4.080150e+001 
3621875000  -4.193708e+001  4.099842e+001 
3625000000  -4.168539e+001  3.918806e+001 
3628125000  -4.207836e+001  4.117082e+001 
3631250000  -4.154586e+001  3.495826e+001 
3634375000  -4.230967e+001  3.726148e+001 
3637500000  -4.252050e+001  4.336440e+001 
3640625000  -4.103563e+001  4.330360e+001 
3643750000  -4.061701e+001  3.778705e+001 
3646875000  -4.128638e+001  3.194995e+001 
3650000000  -4.188860e+001  3.179963e+001 
3653125000  -4.130141e+001  3.299765e+001 
3656250000  -4.179033e+001  3.138340e+001 
3659375000  -4.217928e+001  3.265876e+001 
3662500000  -4.104301e+001  3.249472e+001 
3665625000  -4.148782e+001  3.350808e+001 
3668750000  -4.049492e+001  3.459009e+001 
3671875000  -3.953009e+001  3.108716e+001 
3675000000  -3.992109e+001  2.427582e+001 
3678125000  -4.041714e+001  2.569038e+001 
3681250000  -3.985703e+001  2.726160e+001 
3684375000  -3.951385e+001  2.549635e+001 
3687500000  -3.967941e+001  2.434073e+001 
3690625000  -3.962410e+001  2.212858e+001 
3693750000  -4.022333e+001  2.514590e+001 
3696875000  -4.028222e+001  2.673585e+001 
3700000000  -3.875762e+001  2.553197e+001 
3703125000  -3.859001e+001  2.057504e+001 
3706250000  -3.940351e+001  2.199430e+001 
3709375000  -3.874708e+001  2.523964e+001 
3712500000  -3.743350e+001  2.616260e+001 
3715625000  -3.629836e+001  2.068094e+001 
3718750000  -3.567839e+001  1.826333e+001 
3721875000  -3.544622e+001  1.204838e+001 
3725000000  -3.516270e+001  6.965413e+000 
3728125000  -3.548558e+001  6.590671e+000 
3731250000  -3.478379e+001  6.301054e+000 
3734375000  -3.377132e+001  -6.861079e-002 
3737500000  -3.425989e+001  -7.282451e+000 
3740625000  -3.496387e+001  -1.125868e+001 
3743750000  -3.457933e+001  -1.247614e+001 
3746875000  -3.455621e+001  -1.718622e+001 
3750000000  -3.491180e+001  -1.689951e+001 
3753125000  -3.467579e+001  -1.691145e+001 
3756250000  -3.463598e+001  -1.748417e+001 
3759375000  -3.448323e+001  -1.836380e+001 
3762500000  -3.386091e+001  -2.219915e+001 
3765625000  -3.420275e+001  -2.462264e+001 
3768750000  -3.433039e+001  -2.310718e+001 
3771875000  -3.266860e+001  -2.501363e+001 
3775000000  -3.226223e+001  -3.279982e+001 
3778125000  -3.259234e+001  -3.406945e+001 
3781250000  -3.225708e+001  -3.733995e+001 
3784375000  -3.241162e+001  -3.867359e+001 
3787500000  -3.167181e+001  -4.333201e+001 
3790625000  -3.217763e+001  -4.809854e+001 
3793750000  -3.241396e+001  -4.940330e+001 
3796875000  -3.156076e+001  -5.093462e+001 
3800000000  -3.011238e+001  -5.390698e+001 
3803125000  -3.068146e+001  -6.055742e+001 
3806250000  -3.141935e+001  -6.301418e+001 
3809375000  -3.124503e+001  -6.468284e+001 
3812500000  -3.044089e+001  -6.914459e+001 
3815625000  -3.098759e+001  -7.609937e+001 
3818750000  -3.196076e+001  -7.821777e+001 
3821875000  -3.211723e+001  -7.039144e+001 
3825000000  -3.030576e+001  -6.478520e+001 
3828125000  -2.883565e+001  -7.842251e+001 
3831250000  -2.936638e+001  -9.298994e+001 
3834375000  -3.064297e+001  -9.466533e+001 
3837500000  -3.152576e+001  -8.894041e+001 
3840625000  -3.037578e+001  -9.033993e+001 
3843750000  -2.941379e+001  -9.958278e+001 
3846875000  -3.005294e+001  -1.072955e+002 
3850000000  -3.122316e+001  -1.023981e+002 
3853125000  -3.049239e+001  -9.895211e+001 
3856250000  -3.055633e+001  -1.038647e+002 
3859375000  -2.991978e+001  -1.088438e+002 
3862500000  -2.936770e+001  -1.154575e+002 
3865625000  -2.961117e+001  -1.201589e+002 
3868750000  -2.968885e+001  -1.211751e+002 
3871875000  -2.897778e+001  -1.232755e+002 
3875000000  -2.907719e+001  -1.312304e+002 
3878125000  -3.002241e+001  -1.350226e+002 
3881250000  -3.025753e+001  -1.314581e+002 
3884375000  -2.969119e+001  -1.358247e+002 
3887500000  -2.976081e+001  -1.395816e+002 
3890625000  -3.026482e+001  -1.419678e+002 
3893750000  -3.066561e+001  -1.435276e+002 
3896875000  -3.077782e+001  -1.433556e+002 
3900000000  -3.108624e+001  -1.436879e+002 
3903125000  -3.069359e+001  -1.453447e+002 
3906250000  -3.048660e+001  -1.466248e+002 
3909375000  -2.976956e+001  -1.491481e+002 
3912500000  -2.967816e+001  -1.559734e+002 
3915625000  -3.094759e+001  -1.559360e+002 
3918750000  -3.096792e+001  -1.540286e+002 
3921875000  -3.063824e+001  -1.558360e+002 
3925000000  -2.979581e+001  -1.558510e+002 
3928125000  -2.905819e+001  -1.612608e+002 
3931250000  -2.951978e+001  -1.658112e+002 
3934375000  -2.977069e+001  -1.656464e+002 
3937500000  -2.984449e+001  -1.662618e+002 
3940625000  -3.028993e+001  -1.667468e+002 
3943750000  -2.942516e+001  -1.653962e+002 
3946875000  -2.812599e+001  -1.700858e+002 
3950000000  -2.856921e+001  -1.776375e+002 
3953125000  -2.955339e+001  -1.779432e+002 
3956250000  -2.888116e+001  -1.747751e+002 
3959375000  -2.736371e+001  -1.777941e+002 
3962500000  -2.692639e+001  1.780725e+002 
3965625000  -2.654550e+001  1.694770e+002 
3968750000  -2.747723e+001  1.622550e+002 
3971875000  -2.788125e+001  1.609030e+002 
3975000000  -2.722087e+001  1.591977e+002 
3978125000  -2.700353e+001  1.583161e+002 
3981250000  -2.682550e+001  1.537505e+002 
3984375000  -2.697563e+001  1.477191e+002 
3987500000  -2.748667e+001  1.450654e+002 
3990625000  -2.745924e+001  1.440764e+002 
3993750000  -2.768823e+001  1.409337e+002 
3996875000  -2.774340e+001  1.388674e+002 
4000000000  -2.777205e+001  1.369528e+002 
4003125000  -2.832134e+001  1.386872e+002 
4006250000  -2.700455e+001  1.393849e+002 
4009375000  -2.581376e+001  1.275271e+002 
4012500000  -2.678276e+001  1.204996e+002 
4015625000  -2.801688e+001  1.205505e+002 
4018750000  -2.819809e+001  1.227090e+002 
4021875000  -2.755605e+001  1.214505e+002 
4025000000  -2.720321e+001  1.166784e+002 
4028125000  -2.711624e+001  1.128945e+002 
4031250000  -2.756438e+001  1.097342e+002 
4034375000  -2.781218e+001  1.091626e+002 
4037500000  -2.734291e+001  1.113844e+002 
4040625000  -2.717149e+001  1.079724e+002 
4043750000  -2.753790e+001  1.074697e+002 
4046875000  -2.712366e+001  1.069135e+002 
4050000000  -2.661616e+001  1.015949e+002 
4053125000  -2.701932e+001  9.926641e+001 
4056250000  -2.766162e+001  1.027990e+002 
4059375000  -2.659814e+001  1.050150e+002 
4062500000  -2.511577e+001  1.005797e+002 
4065625000  -2.495755e+001  9.604677e+001 
4068750000  -2.464887e+001  9.131459e+001 
4071875000  -2.404740e+001  8.376561e+001 
4075000000  -2.435195e+001  7.719769e+001 
4078125000  -2.491753e+001  7.644830e+001 
4081250000  -2.445614e+001  7.402271e+001 
4084375000  -2.400607e+001  6.730104e+001 
4087500000  -2.438350e+001  6.104850e+001 
4090625000  -2.491116e+001  5.964532e+001 
4093750000  -2.484166e+001  6.021749e+001 
4096875000  -2.436930e+001  5.467717e+001 
4100000000  -2.500549e+001  4.767770e+001 
4103125000  -2.590777e+001  4.806989e+001 
4106250000  -2.580846e+001  5.276978e+001 
4109375000  -2.496627e+001  5.228043e+001 
4112500000  -2.437864e+001  4.607079e+001 
4115625000  -2.466905e+001  4.166994e+001 
4118750000  -2.482719e+001  3.862468e+001 
4121875000  -2.447163e+001  3.429847e+001 
4125000000  -2.472826e+001  2.932183e+001 
4128125000  -2.574587e+001  2.874697e+001 
4131250000  -2.554420e+001  3.712452e+001 
4134375000  -2.326206e+001  3.305226e+001 
4137500000  -2.296290e+001  1.466836e+001 
4140625000  -2.510110e+001  7.426611e+000 
4143750000  -2.640273e+001  1.173757e+001 
4146875000  -2.606730e+001  1.886417e+001 
4150000000  -2.510910e+001  1.673545e+001 
4153125000  -2.490274e+001  1.050064e+001 
4156250000  -2.578837e+001  7.318082e+000 
4159375000  -2.608660e+001  1.137963e+001 
4162500000  -2.497699e+001  1.535182e+001 
4165625000  -2.378353e+001  1.221294e+001 
4168750000  -2.316045e+001  4.697451e+000 
4171875000  -2.313865e+001  -3.997994e+000 
4175000000  -2.370378e+001  -9.823279e+000 
4178125000  -2.430634e+001  -9.826311e+000 
4181250000  -2.422385e+001  -1.065715e+001 
4184375000  -2.404061e+001  -1.376434e+001 
4187500000  -2.408944e+001  -1.631190e+001 
4190625000  -2.387971e+001  -2.173229e+001 
4193750000  -2.462509e+001  -2.581303e+001 
4196875000  -2.536393e+001  -2.620414e+001 
4200000000  -2.614706e+001  -2.442381e+001 
4203125000  -2.636385e+001  -1.225104e+001 
4206250000  -2.303517e+001  -9.183265e+000 
4209375000  -2.173210e+001  -2.930312e+001 
4212500000  -2.365604e+001  -3.855065e+001 
4215625000  -2.469333e+001  -3.275886e+001 
4218750000  -2.344072e+001  -2.576278e+001 
4221875000  -2.102917e+001  -3.487118e+001 
4225000000  -2.218958e+001  -4.741059e+001 
4228125000  -2.305475e+001  -4.241150e+001 
4231250000  -2.146073e+001  -4.618387e+001 
4234375000  -2.136179e+001  -5.460293e+001 
4237500000  -2.097173e+001  -5.751994e+001 
4240625000  -2.098949e+001  -6.596963e+001 
4243750000  -2.193637e+001  -7.281195e+001 
4246875000  -2.278726e+001  -7.301662e+001 
4250000000  -2.287650e+001  -7.010200e+001 
4253125000  -2.224126e+001  -7.176956e+001 
4256250000  -2.251598e+001  -7.624800e+001 
4259375000  -2.229940e+001  -7.785126e+001 
4262500000  -2.231785e+001  -8.179237e+001 
4265625000  -2.249630e+001  -8.141348e+001 
4268750000  -2.170659e+001  -8.536533e+001 
4271875000  -2.139484e+001  -9.087273e+001 
4275000000  -2.072196e+001  -9.704205e+001 
4278125000  -2.124291e+001  -1.081227e+002 
4281250000  -2.306965e+001  -1.107797e+002 
4284375000  -2.286112e+001  -1.099011e+002 
4287500000  -2.358895e+001  -1.136671e+002 
4290625000  -2.486935e+001  -1.042950e+002 
4293750000  -2.290268e+001  -9.836759e+001 
4296875000  -2.152591e+001  -1.096485e+002 
4300000000  -2.233246e+001  -1.187486e+002 
4303125000  -2.340790e+001  -1.178920e+002 
4306250000  -2.292435e+001  -1.122740e+002 
4309375000  -2.148394e+001  -1.138107e+002 
4312500000  -2.136923e+001  -1.221374e+002 
4315625000  -2.157145e+001  -1.281100e+002 
4318750000  -2.181838e+001  -1.317515e+002 
4321875000  -2.201762e+001  -1.313434e+002 
4325000000  -2.146103e+001  -1.307780e+002 
4328125000  -2.101059e+001  -1.367881e+002 
4331250000  -2.092690e+001  -1.449771e+002 
4334375000  -2.133413e+001  -1.499048e+002 
4337500000  -2.207727e+001  -1.523256e+002 
4340625000  -2.269148e+001  -1.494186e+002 
4343750000  -2.218692e+001  -1.490327e+002 
4346875000  -2.176870e+001  -1.540925e+002 
4350000000  -2.173282e+001  -1.583954e+002 
4353125000  -2.173454e+001  -1.662837e+002 
4356250000  -2.341137e+001  -1.683675e+002 
4359375000  -2.416836e+001  -1.558520e+002 
4362500000  -2.165987e+001  -1.529185e+002 
4365625000  -1.995269e+001  -1.639036e+002 
4368750000  -2.055054e+001  -1.760377e+002 
4371875000  -2.176910e+001  -1.756969e+002 
4375000000  -2.154668e+001  -1.744133e+002 
4378125000  -2.086858e+001  1.799502e+002 
4381250000  -2.102155e+001  1.743648e+002 
4384375000  -2.085236e+001  1.699318e+002 
4387500000  -2.151776e+001  1.643385e+002 
4390625000  -2.258697e+001  1.649554e+002 
4393750000  -2.192494e+001  1.672800e+002 
4396875000  -2.126974e+001  1.650457e+002 
4400000000  -2.076128e+001  1.584021e+002 
4403125000  -2.128734e+001  1.508814e+002 
4406250000  -2.217728e+001  1.492704e+002 
4409375000  -2.207741e+001  1.469914e+002 
4412500000  -2.311388e+001  1.443394e+002 
4415625000  -2.351896e+001  1.488288e+002 
4418750000  -2.239116e+001  1.535909e+002 
