!Agilent Technologies,E8363B,MY43030201,A.06.04.32
!Agilent E8363B: A.06.04.32
!Date: Tuesday, November 11, 2014 20:44:45
!Correction: S21(Response(S21)) 
!S1P File: Measurement: S21:
# Hz S  dB   R 50
3000000000  -2.650284e+001  1.584530e+002 
3003125000  -2.783662e+001  1.541897e+002 
3006250000  -2.794301e+001  1.511479e+002 
3009375000  -2.825765e+001  1.562993e+002 
3012500000  -2.777228e+001  1.562338e+002 
3015625000  -2.675803e+001  1.492108e+002 
3018750000  -2.768268e+001  1.479896e+002 
3021875000  -2.642907e+001  1.493738e+002 
3025000000  -2.512001e+001  1.463228e+002 
3028125000  -2.415449e+001  1.418453e+002 
3031250000  -2.310258e+001  1.305544e+002 
3034375000  -2.273746e+001  1.175882e+002 
3037500000  -2.302428e+001  1.057029e+002 
3040625000  -2.435199e+001  1.005273e+002 
3043750000  -2.510643e+001  9.635214e+001 
3046875000  -2.518317e+001  8.973073e+001 
3050000000  -2.694499e+001  8.267673e+001 
3053125000  -2.714819e+001  8.914962e+001 
3056250000  -2.639642e+001  9.223662e+001 
3059375000  -2.668111e+001  9.176496e+001 
3062500000  -2.521476e+001  8.789665e+001 
3065625000  -2.499281e+001  8.258611e+001 
3068750000  -2.471062e+001  7.562446e+001 
3071875000  -2.464751e+001  7.233703e+001 
3075000000  -2.465279e+001  6.899754e+001 
3078125000  -2.437582e+001  6.407155e+001 
3081250000  -2.501364e+001  6.024542e+001 
3084375000  -2.430024e+001  5.641510e+001 
3087500000  -2.411489e+001  5.300750e+001 
3090625000  -2.385286e+001  4.345055e+001 
3093750000  -2.419842e+001  3.534060e+001 
3096875000  -2.554630e+001  2.902734e+001 
3100000000  -2.571006e+001  2.763230e+001 
3103125000  -2.605746e+001  2.943447e+001 
3106250000  -2.579285e+001  2.554631e+001 
3109375000  -2.606356e+001  2.192798e+001 
3112500000  -2.616524e+001  2.143603e+001 
3115625000  -2.593939e+001  1.708433e+001 
3118750000  -2.645462e+001  1.842427e+001 
3121875000  -2.582877e+001  1.033090e+001 
3125000000  -2.685239e+001  6.741763e+000 
3128125000  -2.816358e+001  1.459583e+001 
3131250000  -2.601383e+001  1.555047e+001 
3134375000  -2.461995e+001  2.275846e+000 
3137500000  -2.524007e+001  -1.218887e+001 
3140625000  -2.696292e+001  -1.387743e+001 
3143750000  -2.792434e+001  -9.386598e+000 
3146875000  -2.753891e+001  -7.828072e+000 
3150000000  -2.654670e+001  -4.956782e+000 
3153125000  -2.646749e+001  -1.284413e+001 
3156250000  -2.746512e+001  -7.598113e+000 
3159375000  -2.598695e+001  -4.667806e+000 
3162500000  -2.389289e+001  -1.750575e+001 
3165625000  -2.479113e+001  -2.849865e+001 
3168750000  -2.523903e+001  -2.771859e+001 
3171875000  -2.429720e+001  -3.169215e+001 
3175000000  -2.487602e+001  -3.946144e+001 
3178125000  -2.471974e+001  -3.792365e+001 
3181250000  -2.352835e+001  -4.161309e+001 
3184375000  -2.267122e+001  -5.375464e+001 
3187500000  -2.374169e+001  -6.934293e+001 
3190625000  -2.660946e+001  -7.733448e+001 
3193750000  -2.728223e+001  -6.751321e+001 
3196875000  -2.679082e+001  -6.194846e+001 
3200000000  -2.597795e+001  -6.359241e+001 
3203125000  -2.502857e+001  -6.946555e+001 
3206250000  -2.533567e+001  -7.551285e+001 
3209375000  -2.486850e+001  -8.051610e+001 
3212500000  -2.497433e+001  -8.708067e+001 
3215625000  -2.512746e+001  -9.166156e+001 
3218750000  -2.588285e+001  -9.781760e+001 
3221875000  -2.689393e+001  -1.029859e+002 
3225000000  -2.653078e+001  -1.032112e+002 
3228125000  -2.675235e+001  -1.079007e+002 
3231250000  -2.753616e+001  -1.106211e+002 
3234375000  -2.742551e+001  -1.098693e+002 
3237500000  -2.750170e+001  -1.112673e+002 
3240625000  -2.713961e+001  -1.129555e+002 
3243750000  -2.678726e+001  -1.195884e+002 
3246875000  -2.728018e+001  -1.262331e+002 
3250000000  -2.770563e+001  -1.278737e+002 
3253125000  -2.780911e+001  -1.296943e+002 
3256250000  -2.772160e+001  -1.359243e+002 
3259375000  -2.805941e+001  -1.431687e+002 
3262500000  -2.926451e+001  -1.462846e+002 
3265625000  -2.997680e+001  -1.429401e+002 
3268750000  -2.991112e+001  -1.400523e+002 
3271875000  -2.977899e+001  -1.389188e+002 
3275000000  -2.868538e+001  -1.437175e+002 
3278125000  -2.909512e+001  -1.500787e+002 
3281250000  -2.939260e+001  -1.482375e+002 
3284375000  -2.898666e+001  -1.542156e+002 
3287500000  -2.913439e+001  -1.572647e+002 
3290625000  -2.955238e+001  -1.611307e+002 
3293750000  -2.920501e+001  -1.667133e+002 
3296875000  -3.019921e+001  -1.669233e+002 
3300000000  -3.017811e+001  -1.658844e+002 
3303125000  -2.901880e+001  -1.693759e+002 
3306250000  -2.876535e+001  -1.760627e+002 
3309375000  -2.855035e+001  1.789952e+002 
3312500000  -2.856990e+001  1.687154e+002 
3315625000  -2.958920e+001  1.606324e+002 
3318750000  -3.085248e+001  1.576752e+002 
3321875000  -3.209837e+001  1.575385e+002 
3325000000  -3.262885e+001  1.621034e+002 
3328125000  -3.260608e+001  1.643039e+002 
3331250000  -3.143149e+001  1.713460e+002 
3334375000  -2.887649e+001  1.626495e+002 
3337500000  -2.889957e+001  1.442003e+002 
3340625000  -3.016857e+001  1.333031e+002 
3343750000  -3.215816e+001  1.312708e+002 
3346875000  -3.276419e+001  1.327634e+002 
3350000000  -3.203304e+001  1.320687e+002 
3353125000  -3.213832e+001  1.279864e+002 
3356250000  -3.190980e+001  1.201582e+002 
3359375000  -3.262440e+001  1.114400e+002 
3362500000  -3.400596e+001  1.064198e+002 
3365625000  -3.466212e+001  1.041855e+002 
3368750000  -3.562746e+001  1.030588e+002 
3371875000  -3.600855e+001  9.965552e+001 
3375000000  -3.749686e+001  9.733942e+001 
3378125000  -3.859982e+001  9.789548e+001 
3381250000  -3.997555e+001  1.040635e+002 
3384375000  -3.964946e+001  1.257996e+002 
3387500000  -3.633015e+001  1.124205e+002 
3390625000  -3.815774e+001  9.268005e+001 
3393750000  -3.986338e+001  9.791726e+001 
3396875000  -3.909947e+001  1.007707e+002 
3400000000  -3.905593e+001  9.315991e+001 
3403125000  -4.007080e+001  8.789452e+001 
3406250000  -4.093446e+001  9.266531e+001 
3409375000  -4.166574e+001  8.819646e+001 
3412500000  -4.257372e+001  8.982094e+001 
3415625000  -4.329465e+001  9.428372e+001 
3418750000  -4.367895e+001  9.714473e+001 
3421875000  -4.382673e+001  1.047776e+002 
3425000000  -4.319004e+001  1.089481e+002 
3428125000  -4.211283e+001  1.081074e+002 
3431250000  -4.211597e+001  1.044369e+002 
3434375000  -4.193473e+001  1.036570e+002 
3437500000  -4.220511e+001  9.945671e+001 
3440625000  -4.246841e+001  1.015984e+002 
3443750000  -4.132955e+001  1.061183e+002 
3446875000  -4.061531e+001  9.961679e+001 
3450000000  -4.035174e+001  9.195040e+001 
3453125000  -4.036692e+001  8.181030e+001 
3456250000  -4.173259e+001  7.829778e+001 
3459375000  -4.273448e+001  7.922943e+001 
3462500000  -4.291195e+001  8.206708e+001 
3465625000  -4.311251e+001  7.695206e+001 
3468750000  -4.296877e+001  7.336756e+001 
3471875000  -4.329269e+001  7.484274e+001 
3475000000  -4.344707e+001  7.062469e+001 
3478125000  -4.409627e+001  6.640955e+001 
3481250000  -4.500859e+001  6.373870e+001 
3484375000  -4.637397e+001  6.956463e+001 
3487500000  -4.625470e+001  7.381712e+001 
3490625000  -4.559210e+001  7.121556e+001 
3493750000  -4.620945e+001  6.693736e+001 
3496875000  -4.757064e+001  6.909248e+001 
3500000000  -4.863643e+001  7.419641e+001 
3503125000  -4.858402e+001  8.362756e+001 
3506250000  -4.759898e+001  7.978468e+001 
3509375000  -4.726979e+001  8.074724e+001 
3512500000  -4.806764e+001  8.396777e+001 
3515625000  -4.777188e+001  8.079366e+001 
3518750000  -4.837550e+001  9.077130e+001 
3521875000  -4.818137e+001  9.074155e+001 
3525000000  -4.797830e+001  9.427157e+001 
3528125000  -4.772863e+001  1.032471e+002 
3531250000  -4.590900e+001  1.052637e+002 
3534375000  -4.515728e+001  9.718317e+001 
3537500000  -4.524818e+001  9.467532e+001 
3540625000  -4.561498e+001  9.303223e+001 
3543750000  -4.613815e+001  9.809102e+001 
3546875000  -4.519852e+001  1.086548e+002 
3550000000  -4.297349e+001  1.124035e+002 
3553125000  -4.154860e+001  9.522335e+001 
3556250000  -4.227419e+001  8.837156e+001 
3559375000  -4.216587e+001  9.147780e+001 
3562500000  -4.108249e+001  8.158173e+001 
3565625000  -4.147046e+001  7.759676e+001 
3568750000  -4.190458e+001  8.112164e+001 
3571875000  -4.178929e+001  7.897620e+001 
3575000000  -4.112019e+001  7.444799e+001 
3578125000  -4.139106e+001  7.149249e+001 
3581250000  -4.141842e+001  7.127159e+001 
3584375000  -4.077859e+001  7.116762e+001 
3587500000  -3.993478e+001  6.473591e+001 
3590625000  -4.026179e+001  5.524249e+001 
3593750000  -4.101401e+001  5.448738e+001 
3596875000  -4.132238e+001  6.308372e+001 
3600000000  -4.003334e+001  5.812946e+001 
3603125000  -4.003044e+001  4.625946e+001 
3606250000  -4.079660e+001  4.359473e+001 
3609375000  -4.090557e+001  4.432263e+001 
3612500000  -4.134349e+001  4.330610e+001 
3615625000  -4.140350e+001  3.992759e+001 
3618750000  -4.178728e+001  4.208529e+001 
3621875000  -4.162854e+001  3.987183e+001 
3625000000  -4.196141e+001  3.905949e+001 
3628125000  -4.196538e+001  3.949012e+001 
3631250000  -4.169368e+001  3.692228e+001 
3634375000  -4.251141e+001  3.606310e+001 
3637500000  -4.234512e+001  4.019372e+001 
3640625000  -4.122870e+001  4.344091e+001 
3643750000  -4.108345e+001  3.755244e+001 
3646875000  -4.119595e+001  3.232932e+001 
3650000000  -4.201921e+001  3.197740e+001 
3653125000  -4.160506e+001  3.067058e+001 
3656250000  -4.151796e+001  3.113086e+001 
3659375000  -4.200325e+001  3.419661e+001 
3662500000  -4.145107e+001  3.262744e+001 
3665625000  -4.133725e+001  3.414331e+001 
3668750000  -4.060543e+001  3.479762e+001 
3671875000  -3.938777e+001  2.968989e+001 
3675000000  -3.961162e+001  2.421856e+001 
3678125000  -4.031612e+001  2.509135e+001 
3681250000  -3.995873e+001  2.767817e+001 
3684375000  -3.960244e+001  2.365417e+001 
3687500000  -3.984608e+001  2.400581e+001 
3690625000  -3.977870e+001  2.096288e+001 
3693750000  -4.031947e+001  2.414750e+001 
3696875000  -4.012128e+001  2.650970e+001 
3700000000  -3.889869e+001  2.466761e+001 
3703125000  -3.875478e+001  2.168143e+001 
3706250000  -3.937503e+001  2.269247e+001 
3709375000  -3.873732e+001  2.698946e+001 
3712500000  -3.745086e+001  2.505436e+001 
3715625000  -3.651002e+001  1.974453e+001 
3718750000  -3.584345e+001  1.748646e+001 
3721875000  -3.530002e+001  1.090324e+001 
3725000000  -3.523617e+001  7.481220e+000 
3728125000  -3.539149e+001  6.508972e+000 
3731250000  -3.480147e+001  6.027498e+000 
3734375000  -3.372716e+001  5.015385e-002 
3737500000  -3.409351e+001  -6.940557e+000 
3740625000  -3.489166e+001  -1.102993e+001 
3743750000  -3.455495e+001  -1.257857e+001 
3746875000  -3.462158e+001  -1.656276e+001 
3750000000  -3.491801e+001  -1.715051e+001 
3753125000  -3.451373e+001  -1.635501e+001 
3756250000  -3.445698e+001  -1.746658e+001 
3759375000  -3.431980e+001  -1.871831e+001 
3762500000  -3.371869e+001  -2.277684e+001 
3765625000  -3.409466e+001  -2.565819e+001 
3768750000  -3.435324e+001  -2.358973e+001 
3771875000  -3.238892e+001  -2.522844e+001 
3775000000  -3.229833e+001  -3.299099e+001 
3778125000  -3.257400e+001  -3.474933e+001 
3781250000  -3.226804e+001  -3.783746e+001 
3784375000  -3.236600e+001  -3.959635e+001 
3787500000  -3.165617e+001  -4.328876e+001 
3790625000  -3.217929e+001  -4.903992e+001 
3793750000  -3.241426e+001  -4.912362e+001 
3796875000  -3.143991e+001  -5.053264e+001 
3800000000  -2.998238e+001  -5.470560e+001 
3803125000  -3.066947e+001  -6.181111e+001 
3806250000  -3.130888e+001  -6.298255e+001 
3809375000  -3.110316e+001  -6.497604e+001 
3812500000  -3.043909e+001  -7.021397e+001 
3815625000  -3.102583e+001  -7.688113e+001 
3818750000  -3.196400e+001  -7.930064e+001 
3821875000  -3.209292e+001  -7.114952e+001 
3825000000  -3.019809e+001  -6.580801e+001 
3828125000  -2.891239e+001  -7.950161e+001 
3831250000  -2.927521e+001  -9.387548e+001 
3834375000  -3.059854e+001  -9.462863e+001 
3837500000  -3.155481e+001  -8.948405e+001 
3840625000  -3.048862e+001  -9.034434e+001 
3843750000  -2.934038e+001  -1.007559e+002 
3846875000  -2.994464e+001  -1.079372e+002 
3850000000  -3.129417e+001  -1.030628e+002 
3853125000  -3.037750e+001  -9.993659e+001 
3856250000  -3.039465e+001  -1.042999e+002 
3859375000  -2.980350e+001  -1.092390e+002 
3862500000  -2.933515e+001  -1.158938e+002 
3865625000  -2.956660e+001  -1.209332e+002 
3868750000  -2.954510e+001  -1.212842e+002 
3871875000  -2.889812e+001  -1.240925e+002 
3875000000  -2.894619e+001  -1.322920e+002 
3878125000  -2.994149e+001  -1.353585e+002 
3881250000  -3.010011e+001  -1.324068e+002 
3884375000  -2.953519e+001  -1.368059e+002 
3887500000  -2.964146e+001  -1.407348e+002 
3890625000  -3.019523e+001  -1.431571e+002 
3893750000  -3.054651e+001  -1.447492e+002 
3896875000  -3.065021e+001  -1.438310e+002 
3900000000  -3.102191e+001  -1.453289e+002 
3903125000  -3.063231e+001  -1.471201e+002 
3906250000  -3.039426e+001  -1.475780e+002 
3909375000  -2.977182e+001  -1.499828e+002 
3912500000  -2.958258e+001  -1.575941e+002 
3915625000  -3.078563e+001  -1.570815e+002 
3918750000  -3.099013e+001  -1.554713e+002 
3921875000  -3.051880e+001  -1.571788e+002 
3925000000  -2.982725e+001  -1.576423e+002 
3928125000  -2.900898e+001  -1.632432e+002 
3931250000  -2.945905e+001  -1.670559e+002 
3934375000  -2.966468e+001  -1.667491e+002 
3937500000  -2.984606e+001  -1.678819e+002 
3940625000  -3.032929e+001  -1.678567e+002 
3943750000  -2.941268e+001  -1.659961e+002 
3946875000  -2.815571e+001  -1.714102e+002 
3950000000  -2.856557e+001  -1.789056e+002 
3953125000  -2.947012e+001  -1.780248e+002 
3956250000  -2.873614e+001  -1.755332e+002 
3959375000  -2.737700e+001  -1.789535e+002 
3962500000  -2.696297e+001  1.770229e+002 
3965625000  -2.654026e+001  1.684231e+002 
3968750000  -2.739692e+001  1.616503e+002 
3971875000  -2.782592e+001  1.604549e+002 
3975000000  -2.718108e+001  1.584737e+002 
3978125000  -2.693970e+001  1.572307e+002 
3981250000  -2.677791e+001  1.527437e+002 
3984375000  -2.698351e+001  1.464876e+002 
3987500000  -2.745316e+001  1.443518e+002 
3990625000  -2.748381e+001  1.434770e+002 
3993750000  -2.769459e+001  1.403217e+002 
3996875000  -2.765421e+001  1.376286e+002 
4000000000  -2.777613e+001  1.356486e+002 
4003125000  -2.828115e+001  1.381053e+002 
4006250000  -2.699884e+001  1.380860e+002 
4009375000  -2.574662e+001  1.260648e+002 
4012500000  -2.668638e+001  1.184152e+002 
4015625000  -2.802534e+001  1.195297e+002 
4018750000  -2.828900e+001  1.212582e+002 
4021875000  -2.758038e+001  1.199648e+002 
4025000000  -2.722813e+001  1.151503e+002 
4028125000  -2.706107e+001  1.114770e+002 
4031250000  -2.761113e+001  1.078688e+002 
4034375000  -2.792568e+001  1.078436e+002 
4037500000  -2.731205e+001  1.096139e+002 
4040625000  -2.726556e+001  1.061344e+002 
4043750000  -2.760522e+001  1.059619e+002 
4046875000  -2.714920e+001  1.055714e+002 
4050000000  -2.664924e+001  1.000769e+002 
4053125000  -2.700400e+001  9.756826e+001 
4056250000  -2.776400e+001  1.013040e+002 
4059375000  -2.661379e+001  1.037779e+002 
4062500000  -2.515835e+001  9.946416e+001 
4065625000  -2.497936e+001  9.482266e+001 
4068750000  -2.474901e+001  9.002632e+001 
4071875000  -2.410745e+001  8.273219e+001 
4075000000  -2.441867e+001  7.583325e+001 
4078125000  -2.502898e+001  7.485246e+001 
4081250000  -2.447910e+001  7.297025e+001 
4084375000  -2.408189e+001  6.607555e+001 
4087500000  -2.445692e+001  5.974001e+001 
4090625000  -2.497232e+001  5.837954e+001 
4093750000  -2.487749e+001  5.933387e+001 
4096875000  -2.441888e+001  5.371516e+001 
4100000000  -2.512546e+001  4.681563e+001 
4103125000  -2.594477e+001  4.687776e+001 
4106250000  -2.586893e+001  5.204594e+001 
4109375000  -2.501887e+001  5.142595e+001 
4112500000  -2.441812e+001  4.502341e+001 
4115625000  -2.473429e+001  4.043613e+001 
4118750000  -2.484992e+001  3.757370e+001 
4121875000  -2.449771e+001  3.316179e+001 
4125000000  -2.475974e+001  2.829592e+001 
4128125000  -2.577363e+001  2.782093e+001 
4131250000  -2.558670e+001  3.570926e+001 
4134375000  -2.331058e+001  3.208975e+001 
4137500000  -2.300661e+001  1.329237e+001 
4140625000  -2.506223e+001  6.054955e+000 
4143750000  -2.643484e+001  1.016064e+001 
4146875000  -2.612199e+001  1.736607e+001 
4150000000  -2.522959e+001  1.498959e+001 
4153125000  -2.499691e+001  8.814103e+000 
4156250000  -2.592668e+001  6.126063e+000 
4159375000  -2.616286e+001  1.016172e+001 
4162500000  -2.499540e+001  1.469173e+001 
4165625000  -2.387294e+001  1.074142e+001 
4168750000  -2.328463e+001  3.620700e+000 
4171875000  -2.326633e+001  -5.500463e+000 
4175000000  -2.383039e+001  -1.139653e+001 
4178125000  -2.447198e+001  -1.137002e+001 
4181250000  -2.438147e+001  -1.162049e+001 
4184375000  -2.417393e+001  -1.533863e+001 
4187500000  -2.428316e+001  -1.759688e+001 
4190625000  -2.405366e+001  -2.290565e+001 
4193750000  -2.480010e+001  -2.682475e+001 
4196875000  -2.545254e+001  -2.757401e+001 
4200000000  -2.625648e+001  -2.528661e+001 
4203125000  -2.641772e+001  -1.257777e+001 
4206250000  -2.316327e+001  -1.009640e+001 
4209375000  -2.190041e+001  -2.995510e+001 
4212500000  -2.372134e+001  -3.941299e+001 
4215625000  -2.475920e+001  -3.415185e+001 
4218750000  -2.361294e+001  -2.667348e+001 
4221875000  -2.119498e+001  -3.559370e+001 
4225000000  -2.235617e+001  -4.830749e+001 
4228125000  -2.317185e+001  -4.340199e+001 
4231250000  -2.158727e+001  -4.681583e+001 
4234375000  -2.151957e+001  -5.504434e+001 
4237500000  -2.108060e+001  -5.847224e+001 
4240625000  -2.113216e+001  -6.694145e+001 
4243750000  -2.199063e+001  -7.359002e+001 
4246875000  -2.287258e+001  -7.407200e+001 
4250000000  -2.295737e+001  -7.102065e+001 
4253125000  -2.235052e+001  -7.296447e+001 
4256250000  -2.272314e+001  -7.731583e+001 
4259375000  -2.242528e+001  -7.896605e+001 
4262500000  -2.243795e+001  -8.273499e+001 
4265625000  -2.263492e+001  -8.264046e+001 
4268750000  -2.180041e+001  -8.646970e+001 
4271875000  -2.153338e+001  -9.161307e+001 
4275000000  -2.087259e+001  -9.806893e+001 
4278125000  -2.140014e+001  -1.091556e+002 
4281250000  -2.325869e+001  -1.118764e+002 
4284375000  -2.294902e+001  -1.105023e+002 
4287500000  -2.363847e+001  -1.147859e+002 
4290625000  -2.498891e+001  -1.058337e+002 
4293750000  -2.305180e+001  -9.924021e+001 
4296875000  -2.166401e+001  -1.104916e+002 
4300000000  -2.250215e+001  -1.197837e+002 
4303125000  -2.359916e+001  -1.191799e+002 
4306250000  -2.311026e+001  -1.130728e+002 
4309375000  -2.168884e+001  -1.147960e+002 
4312500000  -2.157752e+001  -1.230126e+002 
4315625000  -2.173573e+001  -1.291546e+002 
4318750000  -2.201532e+001  -1.323741e+002 
4321875000  -2.220791e+001  -1.320750e+002 
4325000000  -2.166918e+001  -1.316611e+002 
4328125000  -2.122176e+001  -1.377463e+002 
4331250000  -2.112261e+001  -1.455854e+002 
4334375000  -2.153552e+001  -1.506496e+002 
4337500000  -2.231661e+001  -1.530133e+002 
4340625000  -2.289039e+001  -1.500877e+002 
4343750000  -2.234357e+001  -1.494854e+002 
4346875000  -2.194076e+001  -1.548450e+002 
4350000000  -2.194961e+001  -1.592327e+002 
4353125000  -2.190495e+001  -1.666497e+002 
4356250000  -2.358168e+001  -1.681626e+002 
4359375000  -2.436690e+001  -1.562013e+002 
4362500000  -2.180247e+001  -1.532011e+002 
4365625000  -2.011454e+001  -1.645431e+002 
4368750000  -2.072859e+001  -1.766568e+002 
4371875000  -2.196078e+001  -1.764435e+002 
4375000000  -2.168957e+001  -1.749574e+002 
4378125000  -2.104200e+001  1.794813e+002 
4381250000  -2.119538e+001  1.741385e+002 
4384375000  -2.098813e+001  1.695666e+002 
4387500000  -2.166940e+001  1.639967e+002 
4390625000  -2.271197e+001  1.645720e+002 
4393750000  -2.210975e+001  1.667266e+002 
4396875000  -2.139737e+001  1.645937e+002 
4400000000  -2.089161e+001  1.578172e+002 
4403125000  -2.145135e+001  1.501326e+002 
4406250000  -2.234278e+001  1.486982e+002 
4409375000  -2.223264e+001  1.467970e+002 
4412500000  -2.324231e+001  1.436003e+002 
4415625000  -2.368993e+001  1.483763e+002 
4418750000  -2.254473e+001  1.533584e+002 
