!Agilent Technologies,E8363B,MY43030201,A.06.04.32
!Agilent E8363B: A.06.04.32
!Date: Tuesday, November 11, 2014 20:44:35
!Correction: S21(Response(S21)) 
!S1P File: Measurement: S21:
# Hz S  dB   R 50
3000000000  -2.640680e+001  1.576219e+002 
3003125000  -2.777677e+001  1.532011e+002 
3006250000  -2.784079e+001  1.503536e+002 
3009375000  -2.819263e+001  1.554709e+002 
3012500000  -2.773131e+001  1.552672e+002 
3015625000  -2.671756e+001  1.480145e+002 
3018750000  -2.757144e+001  1.470751e+002 
3021875000  -2.637406e+001  1.486436e+002 
3025000000  -2.504427e+001  1.455219e+002 
3028125000  -2.409981e+001  1.408910e+002 
3031250000  -2.307020e+001  1.297448e+002 
3034375000  -2.267431e+001  1.168692e+002 
3037500000  -2.299957e+001  1.048497e+002 
3040625000  -2.429313e+001  9.991784e+001 
3043750000  -2.503750e+001  9.539413e+001 
3046875000  -2.509908e+001  8.890029e+001 
3050000000  -2.690148e+001  8.174027e+001 
3053125000  -2.708465e+001  8.833075e+001 
3056250000  -2.640367e+001  9.134800e+001 
3059375000  -2.666901e+001  9.119270e+001 
3062500000  -2.518293e+001  8.702821e+001 
3065625000  -2.496303e+001  8.165664e+001 
3068750000  -2.470817e+001  7.477167e+001 
3071875000  -2.462332e+001  7.177717e+001 
3075000000  -2.464871e+001  6.803747e+001 
3078125000  -2.432504e+001  6.336213e+001 
3081250000  -2.496738e+001  5.933278e+001 
3084375000  -2.425388e+001  5.575848e+001 
3087500000  -2.410520e+001  5.221092e+001 
3090625000  -2.381930e+001  4.271898e+001 
3093750000  -2.418941e+001  3.466614e+001 
3096875000  -2.553793e+001  2.823597e+001 
3100000000  -2.570767e+001  2.700272e+001 
3103125000  -2.609080e+001  2.849999e+001 
3106250000  -2.581757e+001  2.490065e+001 
3109375000  -2.605596e+001  2.139837e+001 
3112500000  -2.614653e+001  2.066121e+001 
3115625000  -2.597337e+001  1.638220e+001 
3118750000  -2.647561e+001  1.757760e+001 
3121875000  -2.588013e+001  9.827257e+000 
3125000000  -2.686284e+001  6.079994e+000 
3128125000  -2.819575e+001  1.419740e+001 
3131250000  -2.606496e+001  1.469469e+001 
3134375000  -2.467595e+001  1.684443e+000 
3137500000  -2.528883e+001  -1.268796e+001 
3140625000  -2.693725e+001  -1.466825e+001 
3143750000  -2.791316e+001  -9.922190e+000 
3146875000  -2.754499e+001  -8.073956e+000 
3150000000  -2.656902e+001  -5.731125e+000 
3153125000  -2.651839e+001  -1.357395e+001 
3156250000  -2.751069e+001  -8.463412e+000 
3159375000  -2.600803e+001  -5.135870e+000 
3162500000  -2.391124e+001  -1.814314e+001 
3165625000  -2.480608e+001  -2.892699e+001 
3168750000  -2.525019e+001  -2.814501e+001 
3171875000  -2.431120e+001  -3.234758e+001 
3175000000  -2.487847e+001  -4.018743e+001 
3178125000  -2.474721e+001  -3.854326e+001 
3181250000  -2.353565e+001  -4.212042e+001 
3184375000  -2.269947e+001  -5.460180e+001 
3187500000  -2.377704e+001  -7.009014e+001 
3190625000  -2.663659e+001  -7.768607e+001 
3193750000  -2.732014e+001  -6.792826e+001 
3196875000  -2.678216e+001  -6.238874e+001 
3200000000  -2.601497e+001  -6.419470e+001 
3203125000  -2.510906e+001  -6.973818e+001 
3206250000  -2.540766e+001  -7.610796e+001 
3209375000  -2.493578e+001  -8.104377e+001 
3212500000  -2.504115e+001  -8.760857e+001 
3215625000  -2.518201e+001  -9.246199e+001 
3218750000  -2.592481e+001  -9.862109e+001 
3221875000  -2.694521e+001  -1.034648e+002 
3225000000  -2.661879e+001  -1.040210e+002 
3228125000  -2.684979e+001  -1.084723e+002 
3231250000  -2.759144e+001  -1.115537e+002 
3234375000  -2.751371e+001  -1.104606e+002 
3237500000  -2.754979e+001  -1.117757e+002 
3240625000  -2.723530e+001  -1.134743e+002 
3243750000  -2.683026e+001  -1.200760e+002 
3246875000  -2.733924e+001  -1.266594e+002 
3250000000  -2.779196e+001  -1.285624e+002 
3253125000  -2.797753e+001  -1.300646e+002 
3256250000  -2.788596e+001  -1.360350e+002 
3259375000  -2.813492e+001  -1.434921e+002 
3262500000  -2.941612e+001  -1.464730e+002 
3265625000  -3.009835e+001  -1.436231e+002 
3268750000  -3.008052e+001  -1.406931e+002 
3271875000  -2.988957e+001  -1.394567e+002 
3275000000  -2.878639e+001  -1.438802e+002 
3278125000  -2.917600e+001  -1.507426e+002 
3281250000  -2.949017e+001  -1.488076e+002 
3284375000  -2.911454e+001  -1.546741e+002 
3287500000  -2.928728e+001  -1.575814e+002 
3290625000  -2.963982e+001  -1.616380e+002 
3293750000  -2.935495e+001  -1.671187e+002 
3296875000  -3.032408e+001  -1.671406e+002 
3300000000  -3.039546e+001  -1.666863e+002 
3303125000  -2.913527e+001  -1.698188e+002 
3306250000  -2.886512e+001  -1.767823e+002 
3309375000  -2.870352e+001  1.785652e+002 
3312500000  -2.868529e+001  1.679584e+002 
3315625000  -2.963038e+001  1.598829e+002 
3318750000  -3.098054e+001  1.571483e+002 
3321875000  -3.224873e+001  1.571431e+002 
3325000000  -3.279079e+001  1.615923e+002 
3328125000  -3.270253e+001  1.635182e+002 
3331250000  -3.154570e+001  1.712145e+002 
3334375000  -2.896858e+001  1.622642e+002 
3337500000  -2.904365e+001  1.437424e+002 
3340625000  -3.036655e+001  1.324190e+002 
3343750000  -3.231080e+001  1.311856e+002 
3346875000  -3.294091e+001  1.325515e+002 
3350000000  -3.223013e+001  1.314808e+002 
3353125000  -3.233118e+001  1.270556e+002 
3356250000  -3.210557e+001  1.192927e+002 
3359375000  -3.301079e+001  1.115533e+002 
3362500000  -3.431908e+001  1.049445e+002 
3365625000  -3.499056e+001  1.030023e+002 
3368750000  -3.585253e+001  1.025878e+002 
3371875000  -3.628715e+001  9.945484e+001 
3375000000  -3.776165e+001  9.650074e+001 
3378125000  -3.889371e+001  9.711662e+001 
3381250000  -4.033817e+001  1.026179e+002 
3384375000  -3.999681e+001  1.249465e+002 
3387500000  -3.660769e+001  1.111656e+002 
3390625000  -3.849191e+001  9.184036e+001 
3393750000  -4.040189e+001  9.706231e+001 
3396875000  -3.968253e+001  9.955964e+001 
3400000000  -3.960871e+001  9.278407e+001 
3403125000  -4.087242e+001  8.819739e+001 
3406250000  -4.167498e+001  9.205066e+001 
3409375000  -4.235492e+001  8.605783e+001 
3412500000  -4.296565e+001  9.054063e+001 
3415625000  -4.397496e+001  9.444305e+001 
3418750000  -4.423721e+001  1.008637e+002 
3421875000  -4.434751e+001  1.072880e+002 
3425000000  -4.365212e+001  1.102561e+002 
3428125000  -4.252911e+001  1.116317e+002 
3431250000  -4.241516e+001  1.077303e+002 
3434375000  -4.231662e+001  1.046449e+002 
3437500000  -4.266418e+001  1.017315e+002 
3440625000  -4.303471e+001  1.057108e+002 
3443750000  -4.172958e+001  1.089197e+002 
3446875000  -4.092222e+001  1.044183e+002 
3450000000  -4.062091e+001  9.404212e+001 
3453125000  -4.080074e+001  8.609942e+001 
3456250000  -4.190818e+001  8.149407e+001 
3459375000  -4.305059e+001  8.208318e+001 
3462500000  -4.302032e+001  8.472746e+001 
3465625000  -4.331800e+001  8.019312e+001 
3468750000  -4.358895e+001  7.519662e+001 
3471875000  -4.380890e+001  7.734364e+001 
3475000000  -4.331351e+001  7.267924e+001 
3478125000  -4.421583e+001  6.815144e+001 
3481250000  -4.557641e+001  6.267873e+001 
3484375000  -4.655076e+001  7.419141e+001 
3487500000  -4.675513e+001  7.908521e+001 
3490625000  -4.603093e+001  7.259531e+001 
3493750000  -4.690276e+001  7.326426e+001 
3496875000  -4.827013e+001  7.053969e+001 
3500000000  -4.920920e+001  8.342706e+001 
3503125000  -4.908470e+001  8.762960e+001 
3506250000  -4.745684e+001  9.045618e+001 
3509375000  -4.750483e+001  8.927799e+001 
3512500000  -4.792924e+001  8.861421e+001 
3515625000  -4.806256e+001  8.770324e+001 
3518750000  -4.808039e+001  9.493709e+001 
3521875000  -4.736786e+001  9.951923e+001 
3525000000  -4.755356e+001  9.772475e+001 
3528125000  -4.698314e+001  1.080542e+002 
3531250000  -4.533514e+001  1.098951e+002 
3534375000  -4.459147e+001  9.970441e+001 
3537500000  -4.433538e+001  9.753438e+001 
3540625000  -4.506678e+001  9.625224e+001 
3543750000  -4.533574e+001  1.001255e+002 
3546875000  -4.465849e+001  1.090588e+002 
3550000000  -4.268543e+001  1.118225e+002 
3553125000  -4.107680e+001  9.555550e+001 
3556250000  -4.197961e+001  9.009051e+001 
3559375000  -4.190771e+001  9.078830e+001 
3562500000  -4.047614e+001  8.398579e+001 
3565625000  -4.153602e+001  7.657857e+001 
3568750000  -4.134166e+001  7.999760e+001 
3571875000  -4.128740e+001  8.011765e+001 
3575000000  -4.057443e+001  7.412038e+001 
3578125000  -4.116379e+001  7.016180e+001 
3581250000  -4.100730e+001  7.092622e+001 
3584375000  -4.061529e+001  6.972290e+001 
3587500000  -3.987156e+001  6.353469e+001 
3590625000  -4.007409e+001  5.520292e+001 
3593750000  -4.115372e+001  5.462298e+001 
3596875000  -4.132606e+001  6.070807e+001 
3600000000  -3.966220e+001  5.784563e+001 
3603125000  -3.999924e+001  4.702715e+001 
3606250000  -4.033102e+001  4.259045e+001 
3609375000  -4.091861e+001  4.295011e+001 
3612500000  -4.156889e+001  4.077960e+001 
3615625000  -4.140458e+001  3.875764e+001 
3618750000  -4.203996e+001  3.979990e+001 
3621875000  -4.184838e+001  3.906822e+001 
3625000000  -4.187800e+001  3.914251e+001 
3628125000  -4.223926e+001  4.211447e+001 
3631250000  -4.177085e+001  3.566850e+001 
3634375000  -4.254081e+001  3.707032e+001 
3637500000  -4.238443e+001  4.485235e+001 
3640625000  -4.095311e+001  4.455590e+001 
3643750000  -4.065149e+001  3.787288e+001 
3646875000  -4.133274e+001  3.213684e+001 
3650000000  -4.158719e+001  3.291168e+001 
3653125000  -4.136729e+001  3.185459e+001 
3656250000  -4.169730e+001  3.092164e+001 
3659375000  -4.227420e+001  3.346310e+001 
3662500000  -4.137239e+001  3.453740e+001 
3665625000  -4.131708e+001  3.398478e+001 
3668750000  -4.030529e+001  3.644822e+001 
3671875000  -3.942389e+001  3.163470e+001 
3675000000  -3.978559e+001  2.536289e+001 
3678125000  -4.024453e+001  2.609271e+001 
3681250000  -3.962645e+001  2.677984e+001 
3684375000  -3.970858e+001  2.481986e+001 
3687500000  -3.960871e+001  2.372635e+001 
3690625000  -3.965398e+001  2.079116e+001 
3693750000  -4.025407e+001  2.381676e+001 
3696875000  -3.990961e+001  2.531342e+001 
3700000000  -3.889674e+001  2.462103e+001 
3703125000  -3.885643e+001  2.194773e+001 
3706250000  -3.944262e+001  2.271283e+001 
3709375000  -3.865005e+001  2.485541e+001 
3712500000  -3.778578e+001  2.542065e+001 
3715625000  -3.654703e+001  1.997365e+001 
3718750000  -3.581916e+001  1.752064e+001 
3721875000  -3.525152e+001  1.162811e+001 
3725000000  -3.541891e+001  7.689347e+000 
3728125000  -3.549625e+001  6.497954e+000 
3731250000  -3.479480e+001  7.029544e+000 
3734375000  -3.381388e+001  -3.542293e-001 
3737500000  -3.437891e+001  -7.262829e+000 
3740625000  -3.484917e+001  -1.113122e+001 
3743750000  -3.478997e+001  -1.268173e+001 
3746875000  -3.477048e+001  -1.528181e+001 
3750000000  -3.499376e+001  -1.670126e+001 
3753125000  -3.470322e+001  -1.579350e+001 
3756250000  -3.457462e+001  -1.696776e+001 
3759375000  -3.437483e+001  -1.749472e+001 
3762500000  -3.385910e+001  -2.148615e+001 
3765625000  -3.419516e+001  -2.441257e+001 
3768750000  -3.427578e+001  -2.163121e+001 
3771875000  -3.254694e+001  -2.489883e+001 
3775000000  -3.242351e+001  -3.215755e+001 
3778125000  -3.263861e+001  -3.351849e+001 
3781250000  -3.236023e+001  -3.661339e+001 
3784375000  -3.223992e+001  -3.840205e+001 
3787500000  -3.163842e+001  -4.216092e+001 
3790625000  -3.218853e+001  -4.835630e+001 
3793750000  -3.246818e+001  -4.790728e+001 
3796875000  -3.150716e+001  -5.026986e+001 
3800000000  -2.996817e+001  -5.444750e+001 
3803125000  -3.058311e+001  -6.053136e+001 
3806250000  -3.126510e+001  -6.294401e+001 
3809375000  -3.111320e+001  -6.467702e+001 
3812500000  -3.038151e+001  -6.917163e+001 
3815625000  -3.091226e+001  -7.664959e+001 
3818750000  -3.184476e+001  -7.790712e+001 
3821875000  -3.209748e+001  -7.064422e+001 
3825000000  -3.017766e+001  -6.562481e+001 
3828125000  -2.886974e+001  -7.867049e+001 
3831250000  -2.925536e+001  -9.271313e+001 
3834375000  -3.066100e+001  -9.421633e+001 
3837500000  -3.152445e+001  -9.024943e+001 
3840625000  -3.062706e+001  -9.047771e+001 
3843750000  -2.933605e+001  -1.002305e+002 
3846875000  -2.998480e+001  -1.076714e+002 
3850000000  -3.131725e+001  -1.017419e+002 
3853125000  -3.045315e+001  -9.969582e+001 
3856250000  -3.052597e+001  -1.048240e+002 
3859375000  -2.981739e+001  -1.081065e+002 
3862500000  -2.930806e+001  -1.156867e+002 
3865625000  -2.963516e+001  -1.197696e+002 
3868750000  -2.971174e+001  -1.209799e+002 
3871875000  -2.899937e+001  -1.231794e+002 
3875000000  -2.896917e+001  -1.311183e+002 
3878125000  -3.005447e+001  -1.345157e+002 
3881250000  -3.020738e+001  -1.309646e+002 
3884375000  -2.965567e+001  -1.356071e+002 
3887500000  -2.971140e+001  -1.398598e+002 
3890625000  -3.018057e+001  -1.419061e+002 
3893750000  -3.065287e+001  -1.429629e+002 
3896875000  -3.072179e+001  -1.421855e+002 
3900000000  -3.097532e+001  -1.441850e+002 
3903125000  -3.065297e+001  -1.460819e+002 
3906250000  -3.039012e+001  -1.462248e+002 
3909375000  -2.967275e+001  -1.485837e+002 
3912500000  -2.964076e+001  -1.557230e+002 
3915625000  -3.074051e+001  -1.554594e+002 
3918750000  -3.080972e+001  -1.544864e+002 
3921875000  -3.046506e+001  -1.563003e+002 
3925000000  -2.963345e+001  -1.565237e+002 
3928125000  -2.891647e+001  -1.618138e+002 
3931250000  -2.936042e+001  -1.663973e+002 
3934375000  -2.957701e+001  -1.662764e+002 
3937500000  -2.969358e+001  -1.669859e+002 
3940625000  -3.029128e+001  -1.672132e+002 
3943750000  -2.932092e+001  -1.658943e+002 
3946875000  -2.805699e+001  -1.716560e+002 
3950000000  -2.851834e+001  -1.788229e+002 
3953125000  -2.950177e+001  -1.788737e+002 
3956250000  -2.876228e+001  -1.760687e+002 
3959375000  -2.739011e+001  -1.786429e+002 
3962500000  -2.682399e+001  1.774626e+002 
3965625000  -2.646743e+001  1.689204e+002 
3968750000  -2.752760e+001  1.619962e+002 
3971875000  -2.790882e+001  1.607410e+002 
3975000000  -2.721793e+001  1.587139e+002 
3978125000  -2.700797e+001  1.574038e+002 
3981250000  -2.680038e+001  1.528704e+002 
3984375000  -2.700910e+001  1.468085e+002 
3987500000  -2.753088e+001  1.450865e+002 
3990625000  -2.758281e+001  1.436796e+002 
3993750000  -2.779658e+001  1.403809e+002 
3996875000  -2.772333e+001  1.387174e+002 
4000000000  -2.782013e+001  1.364377e+002 
4003125000  -2.845258e+001  1.384758e+002 
4006250000  -2.710868e+001  1.395888e+002 
4009375000  -2.578822e+001  1.272275e+002 
4012500000  -2.681391e+001  1.203388e+002 
4015625000  -2.803286e+001  1.201582e+002 
4018750000  -2.828923e+001  1.228845e+002 
4021875000  -2.758999e+001  1.215644e+002 
4025000000  -2.721137e+001  1.167971e+002 
4028125000  -2.712578e+001  1.128228e+002 
4031250000  -2.752222e+001  1.098421e+002 
4034375000  -2.783389e+001  1.093912e+002 
4037500000  -2.726335e+001  1.112973e+002 
4040625000  -2.711456e+001  1.077226e+002 
4043750000  -2.748705e+001  1.070656e+002 
4046875000  -2.705730e+001  1.068137e+002 
4050000000  -2.656037e+001  1.014495e+002 
4053125000  -2.695650e+001  9.881642e+001 
4056250000  -2.759852e+001  1.021960e+002 
4059375000  -2.653125e+001  1.047329e+002 
4062500000  -2.510136e+001  1.004696e+002 
4065625000  -2.482256e+001  9.521353e+001 
4068750000  -2.464307e+001  9.073168e+001 
4071875000  -2.403484e+001  8.279334e+001 
4075000000  -2.437914e+001  7.624090e+001 
4078125000  -2.497271e+001  7.528451e+001 
4081250000  -2.451573e+001  7.280919e+001 
4084375000  -2.409258e+001  6.635709e+001 
4087500000  -2.440839e+001  6.011736e+001 
4090625000  -2.503251e+001  5.871861e+001 
4093750000  -2.490314e+001  5.948310e+001 
4096875000  -2.445284e+001  5.377816e+001 
4100000000  -2.511236e+001  4.686541e+001 
4103125000  -2.601022e+001  4.714716e+001 
4106250000  -2.595477e+001  5.190531e+001 
4109375000  -2.507800e+001  5.151428e+001 
4112500000  -2.450548e+001  4.525674e+001 
4115625000  -2.481749e+001  4.096368e+001 
4118750000  -2.497401e+001  3.824768e+001 
4121875000  -2.455740e+001  3.413253e+001 
4125000000  -2.484130e+001  2.888677e+001 
4128125000  -2.583855e+001  2.854477e+001 
4131250000  -2.564732e+001  3.655886e+001 
4134375000  -2.332218e+001  3.315153e+001 
4137500000  -2.307025e+001  1.466666e+001 
4140625000  -2.515856e+001  7.237378e+000 
4143750000  -2.647778e+001  1.159016e+001 
4146875000  -2.614238e+001  1.979078e+001 
4150000000  -2.526418e+001  1.635965e+001 
4153125000  -2.499892e+001  1.029330e+001 
4156250000  -2.587970e+001  7.406109e+000 
4159375000  -2.610504e+001  1.201194e+001 
4162500000  -2.500018e+001  1.569488e+001 
4165625000  -2.383490e+001  1.219395e+001 
4168750000  -2.323890e+001  4.849962e+000 
4171875000  -2.319234e+001  -4.319499e+000 
4175000000  -2.372173e+001  -1.038451e+001 
4178125000  -2.440448e+001  -1.050934e+001 
4181250000  -2.427077e+001  -1.085858e+001 
4184375000  -2.407285e+001  -1.411802e+001 
4187500000  -2.416506e+001  -1.738819e+001 
4190625000  -2.390427e+001  -2.227857e+001 
4193750000  -2.469309e+001  -2.633875e+001 
4196875000  -2.534398e+001  -2.682937e+001 
4200000000  -2.613079e+001  -2.533967e+001 
4203125000  -2.643572e+001  -1.308315e+001 
4206250000  -2.311517e+001  -9.666307e+000 
4209375000  -2.184129e+001  -3.018014e+001 
4212500000  -2.369685e+001  -3.907618e+001 
4215625000  -2.475982e+001  -3.359754e+001 
4218750000  -2.352642e+001  -2.649628e+001 
4221875000  -2.120263e+001  -3.556236e+001 
4225000000  -2.235371e+001  -4.837752e+001 
4228125000  -2.316184e+001  -4.304191e+001 
4231250000  -2.158046e+001  -4.639314e+001 
4234375000  -2.153514e+001  -5.460580e+001 
4237500000  -2.114953e+001  -5.827185e+001 
4240625000  -2.112365e+001  -6.633498e+001 
4243750000  -2.208537e+001  -7.288592e+001 
4246875000  -2.292845e+001  -7.329829e+001 
4250000000  -2.302785e+001  -7.038103e+001 
4253125000  -2.241201e+001  -7.205946e+001 
4256250000  -2.271355e+001  -7.635735e+001 
4259375000  -2.246952e+001  -7.813839e+001 
4262500000  -2.250192e+001  -8.175288e+001 
4265625000  -2.263232e+001  -8.160152e+001 
4268750000  -2.183104e+001  -8.522633e+001 
4271875000  -2.155253e+001  -9.061526e+001 
4275000000  -2.089389e+001  -9.694892e+001 
4278125000  -2.145637e+001  -1.081970e+002 
4281250000  -2.322740e+001  -1.105057e+002 
4284375000  -2.295189e+001  -1.093058e+002 
4287500000  -2.363816e+001  -1.133226e+002 
4290625000  -2.494133e+001  -1.042562e+002 
4293750000  -2.302617e+001  -9.791271e+001 
4296875000  -2.158044e+001  -1.093326e+002 
4300000000  -2.237300e+001  -1.188026e+002 
4303125000  -2.347767e+001  -1.179675e+002 
4306250000  -2.301553e+001  -1.119198e+002 
4309375000  -2.153657e+001  -1.135913e+002 
4312500000  -2.143229e+001  -1.220905e+002 
4315625000  -2.163817e+001  -1.281480e+002 
4318750000  -2.189771e+001  -1.316849e+002 
4321875000  -2.209930e+001  -1.314564e+002 
4325000000  -2.156179e+001  -1.310981e+002 
4328125000  -2.109567e+001  -1.371969e+002 
4331250000  -2.101190e+001  -1.452058e+002 
4334375000  -2.138302e+001  -1.503186e+002 
4337500000  -2.218705e+001  -1.526571e+002 
4340625000  -2.279487e+001  -1.501154e+002 
4343750000  -2.227277e+001  -1.492409e+002 
4346875000  -2.187144e+001  -1.547179e+002 
4350000000  -2.189579e+001  -1.589974e+002 
4353125000  -2.188236e+001  -1.670089e+002 
4356250000  -2.356562e+001  -1.684784e+002 
4359375000  -2.433907e+001  -1.561494e+002 
4362500000  -2.180228e+001  -1.529639e+002 
4365625000  -2.008239e+001  -1.642920e+002 
4368750000  -2.074779e+001  -1.763812e+002 
4371875000  -2.203438e+001  -1.761418e+002 
4375000000  -2.174060e+001  -1.745556e+002 
4378125000  -2.106931e+001  1.799740e+002 
4381250000  -2.122585e+001  1.742356e+002 
4384375000  -2.104929e+001  1.699842e+002 
4387500000  -2.175955e+001  1.642592e+002 
4390625000  -2.277048e+001  1.650852e+002 
4393750000  -2.209859e+001  1.674538e+002 
4396875000  -2.147471e+001  1.653279e+002 
4400000000  -2.093463e+001  1.584488e+002 
4403125000  -2.141098e+001  1.510191e+002 
4406250000  -2.232854e+001  1.499540e+002 
4409375000  -2.226549e+001  1.476416e+002 
4412500000  -2.327545e+001  1.447442e+002 
4415625000  -2.370637e+001  1.496026e+002 
4418750000  -2.252404e+001  1.542628e+002 
