!Agilent Technologies,E8363B,MY43030201,A.06.04.32
!Agilent E8363B: A.06.04.32
!Date: Tuesday, November 11, 2014 20:51:41
!Correction: S21(Response(S21)) 
!S1P File: Measurement: S21:
# Hz S  dB   R 50
3000000000  -2.650485e+001  1.516242e+002 
3003125000  -2.792347e+001  1.473090e+002 
3006250000  -2.798998e+001  1.444151e+002 
3009375000  -2.832208e+001  1.496066e+002 
3012500000  -2.779935e+001  1.491268e+002 
3015625000  -2.688346e+001  1.421807e+002 
3018750000  -2.769152e+001  1.411654e+002 
3021875000  -2.646039e+001  1.428607e+002 
3025000000  -2.509263e+001  1.395461e+002 
3028125000  -2.414272e+001  1.346490e+002 
3031250000  -2.312584e+001  1.233701e+002 
3034375000  -2.276977e+001  1.102990e+002 
3037500000  -2.311331e+001  9.855405e+001 
3040625000  -2.446603e+001  9.356789e+001 
3043750000  -2.516634e+001  8.900560e+001 
3046875000  -2.526787e+001  8.273511e+001 
3050000000  -2.701255e+001  7.591638e+001 
3053125000  -2.715023e+001  8.245831e+001 
3056250000  -2.646559e+001  8.512636e+001 
3059375000  -2.669557e+001  8.507245e+001 
3062500000  -2.520315e+001  8.120466e+001 
3065625000  -2.496062e+001  7.541200e+001 
3068750000  -2.468314e+001  6.848120e+001 
3071875000  -2.467127e+001  6.575848e+001 
3075000000  -2.461485e+001  6.173727e+001 
3078125000  -2.436026e+001  5.725820e+001 
3081250000  -2.500671e+001  5.316707e+001 
3084375000  -2.425525e+001  4.929224e+001 
3087500000  -2.413101e+001  4.568816e+001 
3090625000  -2.385232e+001  3.598421e+001 
3093750000  -2.430611e+001  2.814258e+001 
3096875000  -2.558950e+001  2.209549e+001 
3100000000  -2.570698e+001  2.062580e+001 
3103125000  -2.610138e+001  2.210511e+001 
3106250000  -2.581341e+001  1.870576e+001 
3109375000  -2.604971e+001  1.503578e+001 
3112500000  -2.616558e+001  1.388227e+001 
3115625000  -2.592465e+001  9.996464e+000 
3118750000  -2.642853e+001  1.117484e+001 
3121875000  -2.576108e+001  3.085644e+000 
3125000000  -2.696611e+001  -5.206559e-001 
3128125000  -2.816636e+001  7.617219e+000 
3131250000  -2.598845e+001  7.976854e+000 
3134375000  -2.465895e+001  -5.684982e+000 
3137500000  -2.527465e+001  -1.919680e+001 
3140625000  -2.690931e+001  -2.093825e+001 
3143750000  -2.793736e+001  -1.680700e+001 
3146875000  -2.750381e+001  -1.460415e+001 
3150000000  -2.650333e+001  -1.253380e+001 
3153125000  -2.646845e+001  -2.040004e+001 
3156250000  -2.747001e+001  -1.490970e+001 
3159375000  -2.589776e+001  -1.218091e+001 
3162500000  -2.387574e+001  -2.485371e+001 
3165625000  -2.482940e+001  -3.593045e+001 
3168750000  -2.519139e+001  -3.499870e+001 
3171875000  -2.426128e+001  -3.899504e+001 
3175000000  -2.489362e+001  -4.689054e+001 
3178125000  -2.467916e+001  -4.536789e+001 
3181250000  -2.350212e+001  -4.929794e+001 
3184375000  -2.273504e+001  -6.162221e+001 
3187500000  -2.378293e+001  -7.664304e+001 
3190625000  -2.662696e+001  -8.404612e+001 
3193750000  -2.721501e+001  -7.438345e+001 
3196875000  -2.677119e+001  -6.896472e+001 
3200000000  -2.593167e+001  -7.100607e+001 
3203125000  -2.502128e+001  -7.665961e+001 
3206250000  -2.533092e+001  -8.288275e+001 
3209375000  -2.487134e+001  -8.804436e+001 
3212500000  -2.496353e+001  -9.454282e+001 
3215625000  -2.513232e+001  -9.864174e+001 
3218750000  -2.589158e+001  -1.050910e+002 
3221875000  -2.688621e+001  -1.100819e+002 
3225000000  -2.647575e+001  -1.108523e+002 
3228125000  -2.676064e+001  -1.154423e+002 
3231250000  -2.750335e+001  -1.177755e+002 
3234375000  -2.736702e+001  -1.167822e+002 
3237500000  -2.742689e+001  -1.185959e+002 
3240625000  -2.707911e+001  -1.203848e+002 
3243750000  -2.674608e+001  -1.270064e+002 
3246875000  -2.719829e+001  -1.332314e+002 
3250000000  -2.765556e+001  -1.353796e+002 
3253125000  -2.783669e+001  -1.370192e+002 
3256250000  -2.767293e+001  -1.431373e+002 
3259375000  -2.798080e+001  -1.505553e+002 
3262500000  -2.926424e+001  -1.534967e+002 
3265625000  -2.993333e+001  -1.500208e+002 
3268750000  -2.992010e+001  -1.472263e+002 
3271875000  -2.966904e+001  -1.463842e+002 
3275000000  -2.860284e+001  -1.514004e+002 
3278125000  -2.910035e+001  -1.575552e+002 
3281250000  -2.928141e+001  -1.556053e+002 
3284375000  -2.890342e+001  -1.616160e+002 
3287500000  -2.908464e+001  -1.643301e+002 
3290625000  -2.949283e+001  -1.686727e+002 
3293750000  -2.916144e+001  -1.743768e+002 
3296875000  -3.018289e+001  -1.738617e+002 
3300000000  -3.008437e+001  -1.728242e+002 
3303125000  -2.893053e+001  -1.770775e+002 
3306250000  -2.870323e+001  1.767332e+002 
3309375000  -2.846701e+001  1.713929e+002 
3312500000  -2.851297e+001  1.609824e+002 
3315625000  -2.950842e+001  1.531483e+002 
3318750000  -3.088742e+001  1.504126e+002 
3321875000  -3.214577e+001  1.502602e+002 
3325000000  -3.264613e+001  1.558571e+002 
3328125000  -3.251886e+001  1.572746e+002 
3331250000  -3.130839e+001  1.652404e+002 
3334375000  -2.867934e+001  1.550658e+002 
3337500000  -2.868606e+001  1.368442e+002 
3340625000  -3.004200e+001  1.259317e+002 
3343750000  -3.207473e+001  1.251880e+002 
3346875000  -3.257477e+001  1.262642e+002 
3350000000  -3.193534e+001  1.244896e+002 
3353125000  -3.203717e+001  1.205105e+002 
3356250000  -3.176815e+001  1.125976e+002 
3359375000  -3.265314e+001  1.042564e+002 
3362500000  -3.395172e+001  9.926620e+001 
3365625000  -3.451549e+001  9.732988e+001 
3368750000  -3.538331e+001  9.700960e+001 
3371875000  -3.587305e+001  9.266505e+001 
3375000000  -3.752238e+001  9.134605e+001 
3378125000  -3.844083e+001  9.027337e+001 
3381250000  -4.016758e+001  9.867291e+001 
3384375000  -3.911546e+001  1.186070e+002 
3387500000  -3.592468e+001  1.053518e+002 
3390625000  -3.771338e+001  8.670486e+001 
3393750000  -3.965209e+001  9.052638e+001 
3396875000  -3.863089e+001  9.386223e+001 
3400000000  -3.879461e+001  8.485627e+001 
3403125000  -3.968670e+001  8.245143e+001 
3406250000  -4.050082e+001  8.526430e+001 
3409375000  -4.106702e+001  8.108163e+001 
3412500000  -4.181160e+001  8.196089e+001 
3415625000  -4.283875e+001  8.556728e+001 
3418750000  -4.339255e+001  9.127657e+001 
3421875000  -4.315376e+001  9.794141e+001 
3425000000  -4.269035e+001  1.017806e+002 
3428125000  -4.125384e+001  9.983818e+001 
3431250000  -4.151427e+001  9.636838e+001 
3434375000  -4.148221e+001  9.321955e+001 
3437500000  -4.173961e+001  8.951871e+001 
3440625000  -4.210193e+001  9.529225e+001 
3443750000  -4.075309e+001  9.718147e+001 
3446875000  -3.985177e+001  9.251472e+001 
3450000000  -3.969037e+001  8.038191e+001 
3453125000  -4.004634e+001  7.336428e+001 
3456250000  -4.106873e+001  6.846336e+001 
3459375000  -4.206883e+001  7.211945e+001 
3462500000  -4.260199e+001  7.158958e+001 
3465625000  -4.239833e+001  6.813153e+001 
3468750000  -4.279965e+001  6.515091e+001 
3471875000  -4.297729e+001  6.501215e+001 
3475000000  -4.279066e+001  6.128654e+001 
3478125000  -4.341277e+001  5.628559e+001 
3481250000  -4.458541e+001  5.698390e+001 
3484375000  -4.615411e+001  6.171210e+001 
3487500000  -4.568813e+001  6.639658e+001 
3490625000  -4.522519e+001  6.235265e+001 
3493750000  -4.596518e+001  5.810512e+001 
3496875000  -4.684734e+001  6.037847e+001 
3500000000  -4.810654e+001  6.641672e+001 
3503125000  -4.790406e+001  7.167471e+001 
3506250000  -4.647167e+001  7.093468e+001 
3509375000  -4.650561e+001  6.880264e+001 
3512500000  -4.712822e+001  6.748701e+001 
3515625000  -4.766617e+001  7.012971e+001 
3518750000  -4.840203e+001  7.289714e+001 
3521875000  -4.769215e+001  7.975424e+001 
3525000000  -4.801864e+001  7.730183e+001 
3528125000  -4.820508e+001  9.279905e+001 
3531250000  -4.605733e+001  9.228141e+001 
3534375000  -4.538684e+001  8.550293e+001 
3537500000  -4.529301e+001  8.300272e+001 
3540625000  -4.605473e+001  8.444213e+001 
3543750000  -4.660365e+001  8.458446e+001 
3546875000  -4.543305e+001  9.874797e+001 
3550000000  -4.312769e+001  9.867767e+001 
3553125000  -4.153896e+001  8.221948e+001 
3556250000  -4.264532e+001  7.847061e+001 
3559375000  -4.202639e+001  8.063229e+001 
3562500000  -4.118396e+001  7.243465e+001 
3565625000  -4.190380e+001  6.757779e+001 
3568750000  -4.199256e+001  7.161518e+001 
3571875000  -4.182278e+001  6.921436e+001 
3575000000  -4.107922e+001  6.627049e+001 
3578125000  -4.130385e+001  6.066842e+001 
3581250000  -4.167421e+001  6.270275e+001 
3584375000  -4.094594e+001  6.139303e+001 
3587500000  -4.014754e+001  5.446493e+001 
3590625000  -4.047037e+001  4.540928e+001 
3593750000  -4.154834e+001  4.394001e+001 
3596875000  -4.155039e+001  5.348623e+001 
3600000000  -3.954683e+001  4.920942e+001 
3603125000  -3.990191e+001  3.757417e+001 
3606250000  -4.054435e+001  3.404846e+001 
3609375000  -4.103386e+001  3.453841e+001 
3612500000  -4.127031e+001  3.268975e+001 
3615625000  -4.127563e+001  3.048829e+001 
3618750000  -4.166389e+001  3.344610e+001 
3621875000  -4.164646e+001  3.074017e+001 
3625000000  -4.156043e+001  3.106503e+001 
3628125000  -4.133418e+001  2.909026e+001 
3631250000  -4.158681e+001  2.638623e+001 
3634375000  -4.220171e+001  2.603674e+001 
3637500000  -4.206647e+001  3.187768e+001 
3640625000  -4.092719e+001  3.292864e+001 
3643750000  -4.068697e+001  2.643056e+001 
3646875000  -4.103939e+001  2.166839e+001 
3650000000  -4.161650e+001  2.125670e+001 
3653125000  -4.114167e+001  2.294620e+001 
3656250000  -4.181518e+001  2.058833e+001 
3659375000  -4.200384e+001  2.516276e+001 
3662500000  -4.122234e+001  2.165688e+001 
3665625000  -4.135511e+001  2.074630e+001 
3668750000  -4.007379e+001  2.591198e+001 
3671875000  -3.899168e+001  1.971548e+001 
3675000000  -3.976514e+001  1.459347e+001 
3678125000  -4.042315e+001  1.633981e+001 
3681250000  -3.974691e+001  1.615871e+001 
3684375000  -3.970246e+001  1.464992e+001 
3687500000  -3.986281e+001  1.251141e+001 
3690625000  -3.953692e+001  1.111018e+001 
3693750000  -4.024786e+001  1.264711e+001 
3696875000  -4.010897e+001  1.671019e+001 
3700000000  -3.888316e+001  1.468301e+001 
3703125000  -3.870441e+001  1.177612e+001 
3706250000  -3.941042e+001  1.170897e+001 
3709375000  -3.859574e+001  1.513598e+001 
3712500000  -3.739430e+001  1.501688e+001 
3715625000  -3.622349e+001  1.076639e+001 
3718750000  -3.555571e+001  7.739245e+000 
3721875000  -3.517934e+001  1.789646e+000 
3725000000  -3.516589e+001  -3.640452e+000 
3728125000  -3.522422e+001  -4.155762e+000 
3731250000  -3.462024e+001  -4.386174e+000 
3734375000  -3.364510e+001  -1.073323e+001 
3737500000  -3.404704e+001  -1.812375e+001 
3740625000  -3.473970e+001  -2.179112e+001 
3743750000  -3.464442e+001  -2.333292e+001 
3746875000  -3.448775e+001  -2.701093e+001 
3750000000  -3.499349e+001  -2.657928e+001 
3753125000  -3.447250e+001  -2.673269e+001 
3756250000  -3.443099e+001  -2.858071e+001 
3759375000  -3.420501e+001  -2.939616e+001 
3762500000  -3.366699e+001  -3.300951e+001 
3765625000  -3.408832e+001  -3.611760e+001 
3768750000  -3.426783e+001  -3.411958e+001 
3771875000  -3.249655e+001  -3.621390e+001 
3775000000  -3.215275e+001  -4.464598e+001 
3778125000  -3.259782e+001  -4.618947e+001 
3781250000  -3.237017e+001  -4.808613e+001 
3784375000  -3.234585e+001  -4.982266e+001 
3787500000  -3.171646e+001  -5.377734e+001 
3790625000  -3.207570e+001  -5.953627e+001 
3793750000  -3.234388e+001  -6.093141e+001 
3796875000  -3.142426e+001  -6.239372e+001 
3800000000  -2.991346e+001  -6.533984e+001 
3803125000  -3.067966e+001  -7.222440e+001 
3806250000  -3.134905e+001  -7.453328e+001 
3809375000  -3.105992e+001  -7.560184e+001 
3812500000  -3.044555e+001  -8.030251e+001 
3815625000  -3.099656e+001  -8.815514e+001 
3818750000  -3.202870e+001  -8.912287e+001 
3821875000  -3.203591e+001  -8.067838e+001 
3825000000  -3.012710e+001  -7.646074e+001 
3828125000  -2.873392e+001  -9.028025e+001 
3831250000  -2.923702e+001  -1.048842e+002 
3834375000  -3.059236e+001  -1.050990e+002 
3837500000  -3.150822e+001  -1.009570e+002 
3840625000  -3.029497e+001  -1.012753e+002 
3843750000  -2.923915e+001  -1.112134e+002 
3846875000  -2.987509e+001  -1.185648e+002 
3850000000  -3.118192e+001  -1.135150e+002 
3853125000  -3.037727e+001  -1.100010e+002 
3856250000  -3.029786e+001  -1.151484e+002 
3859375000  -2.970189e+001  -1.195797e+002 
3862500000  -2.923095e+001  -1.272789e+002 
3865625000  -2.942649e+001  -1.314649e+002 
3868750000  -2.943439e+001  -1.321289e+002 
3871875000  -2.878540e+001  -1.349467e+002 
3875000000  -2.891612e+001  -1.437730e+002 
3878125000  -2.987839e+001  -1.464830e+002 
3881250000  -3.007040e+001  -1.428997e+002 
3884375000  -2.946177e+001  -1.479640e+002 
3887500000  -2.971786e+001  -1.520511e+002 
3890625000  -3.027560e+001  -1.539307e+002 
3893750000  -3.056009e+001  -1.558286e+002 
3896875000  -3.064287e+001  -1.551250e+002 
3900000000  -3.102866e+001  -1.560863e+002 
3903125000  -3.063508e+001  -1.582503e+002 
3906250000  -3.035868e+001  -1.588721e+002 
3909375000  -2.961431e+001  -1.616272e+002 
3912500000  -2.970999e+001  -1.686405e+002 
3915625000  -3.092975e+001  -1.678365e+002 
3918750000  -3.097578e+001  -1.660866e+002 
3921875000  -3.060513e+001  -1.680829e+002 
3925000000  -2.980036e+001  -1.684056e+002 
3928125000  -2.902586e+001  -1.743577e+002 
3931250000  -2.951371e+001  -1.780127e+002 
3934375000  -2.976806e+001  -1.776423e+002 
3937500000  -2.992535e+001  -1.782926e+002 
3940625000  -3.043425e+001  -1.783913e+002 
3943750000  -2.941730e+001  -1.768775e+002 
3946875000  -2.826034e+001  1.774424e+002 
3950000000  -2.869095e+001  1.701492e+002 
3953125000  -2.970687e+001  1.700567e+002 
3956250000  -2.883011e+001  1.730213e+002 
3959375000  -2.739992e+001  1.703703e+002 
3962500000  -2.690166e+001  1.666783e+002 
3965625000  -2.652909e+001  1.576015e+002 
3968750000  -2.742064e+001  1.510191e+002 
3971875000  -2.786295e+001  1.494137e+002 
3975000000  -2.716198e+001  1.474553e+002 
3978125000  -2.700251e+001  1.461964e+002 
3981250000  -2.673699e+001  1.420636e+002 
3984375000  -2.697969e+001  1.356505e+002 
3987500000  -2.748119e+001  1.331276e+002 
3990625000  -2.742637e+001  1.326139e+002 
3993750000  -2.766001e+001  1.291251e+002 
3996875000  -2.765708e+001  1.271002e+002 
4000000000  -2.770141e+001  1.247324e+002 
4003125000  -2.832022e+001  1.267352e+002 
4006250000  -2.690245e+001  1.266985e+002 
4009375000  -2.570743e+001  1.147625e+002 
4012500000  -2.686900e+001  1.076937e+002 
4015625000  -2.805953e+001  1.078734e+002 
4018750000  -2.828760e+001  1.104341e+002 
4021875000  -2.751383e+001  1.084449e+002 
4025000000  -2.726505e+001  1.038115e+002 
4028125000  -2.716592e+001  1.000053e+002 
4031250000  -2.763397e+001  9.644629e+001 
4034375000  -2.788066e+001  9.685351e+001 
4037500000  -2.749961e+001  9.860484e+001 
4040625000  -2.736724e+001  9.524100e+001 
4043750000  -2.764043e+001  9.461007e+001 
4046875000  -2.726492e+001  9.433285e+001 
4050000000  -2.674826e+001  8.891732e+001 
4053125000  -2.723272e+001  8.687399e+001 
4056250000  -2.775310e+001  9.101762e+001 
4059375000  -2.663478e+001  9.294452e+001 
4062500000  -2.525735e+001  8.884556e+001 
4065625000  -2.509570e+001  8.426707e+001 
4068750000  -2.481311e+001  7.931470e+001 
4071875000  -2.416412e+001  7.142291e+001 
4075000000  -2.451613e+001  6.511298e+001 
4078125000  -2.511810e+001  6.430605e+001 
4081250000  -2.456274e+001  6.179894e+001 
4084375000  -2.415966e+001  5.546962e+001 
4087500000  -2.450286e+001  4.890424e+001 
4090625000  -2.508473e+001  4.809747e+001 
4093750000  -2.491652e+001  4.882137e+001 
4096875000  -2.448544e+001  4.283553e+001 
4100000000  -2.515483e+001  3.588289e+001 
4103125000  -2.601381e+001  3.659563e+001 
4106250000  -2.588628e+001  4.098030e+001 
4109375000  -2.504901e+001  4.082857e+001 
4112500000  -2.445001e+001  3.370345e+001 
4115625000  -2.478310e+001  2.999929e+001 
4118750000  -2.490541e+001  2.683182e+001 
4121875000  -2.447742e+001  2.222957e+001 
4125000000  -2.482068e+001  1.694200e+001 
4128125000  -2.581816e+001  1.712774e+001 
4131250000  -2.560443e+001  2.504740e+001 
4134375000  -2.325878e+001  2.066335e+001 
4137500000  -2.302879e+001  2.079665e+000 
4140625000  -2.517642e+001  -5.243419e+000 
4143750000  -2.651572e+001  -1.696973e-001 
4146875000  -2.612247e+001  6.877651e+000 
4150000000  -2.519205e+001  3.906075e+000 
4153125000  -2.508484e+001  -2.631059e+000 
4156250000  -2.592297e+001  -5.307465e+000 
4159375000  -2.620191e+001  -9.819816e-001 
4162500000  -2.510526e+001  3.323078e+000 
4165625000  -2.397328e+001  -5.866585e-001 
4168750000  -2.338882e+001  -8.064120e+000 
4171875000  -2.331388e+001  -1.713981e+001 
4175000000  -2.392197e+001  -2.251680e+001 
4178125000  -2.452725e+001  -2.255580e+001 
4181250000  -2.441724e+001  -2.295700e+001 
4184375000  -2.425107e+001  -2.643040e+001 
4187500000  -2.432549e+001  -2.879452e+001 
4190625000  -2.416180e+001  -3.425956e+001 
4193750000  -2.487526e+001  -3.804765e+001 
4196875000  -2.564502e+001  -3.835117e+001 
4200000000  -2.648584e+001  -3.595664e+001 
4203125000  -2.648173e+001  -2.268788e+001 
4206250000  -2.312144e+001  -2.091103e+001 
4209375000  -2.195275e+001  -4.162543e+001 
4212500000  -2.382335e+001  -5.056534e+001 
4215625000  -2.483322e+001  -4.453651e+001 
4218750000  -2.362361e+001  -3.762571e+001 
4221875000  -2.122159e+001  -4.691677e+001 
4225000000  -2.243670e+001  -5.917484e+001 
4228125000  -2.316917e+001  -5.414879e+001 
4231250000  -2.158990e+001  -5.781631e+001 
4234375000  -2.150205e+001  -6.615864e+001 
4237500000  -2.108158e+001  -6.944015e+001 
4240625000  -2.105967e+001  -7.811876e+001 
4243750000  -2.205666e+001  -8.457890e+001 
4246875000  -2.294318e+001  -8.474722e+001 
4250000000  -2.299360e+001  -8.206979e+001 
4253125000  -2.235333e+001  -8.405633e+001 
4256250000  -2.267291e+001  -8.817023e+001 
4259375000  -2.243225e+001  -9.008366e+001 
4262500000  -2.247065e+001  -9.376234e+001 
4265625000  -2.260468e+001  -9.370390e+001 
4268750000  -2.173192e+001  -9.755060e+001 
4271875000  -2.146598e+001  -1.034758e+002 
4275000000  -2.088865e+001  -1.096858e+002 
4278125000  -2.149507e+001  -1.210173e+002 
4281250000  -2.327930e+001  -1.230578e+002 
4284375000  -2.304994e+001  -1.220729e+002 
4287500000  -2.382604e+001  -1.255313e+002 
4290625000  -2.506002e+001  -1.161833e+002 
4293750000  -2.306661e+001  -1.108048e+002 
4296875000  -2.174415e+001  -1.220053e+002 
4300000000  -2.255424e+001  -1.314990e+002 
4303125000  -2.365468e+001  -1.300445e+002 
4306250000  -2.308746e+001  -1.243238e+002 
4309375000  -2.172162e+001  -1.261386e+002 
4312500000  -2.160701e+001  -1.343548e+002 
4315625000  -2.182676e+001  -1.406489e+002 
4318750000  -2.217467e+001  -1.440020e+002 
4321875000  -2.230674e+001  -1.433398e+002 
4325000000  -2.173262e+001  -1.425522e+002 
4328125000  -2.125138e+001  -1.489071e+002 
4331250000  -2.117918e+001  -1.569966e+002 
4334375000  -2.159590e+001  -1.621754e+002 
4337500000  -2.241346e+001  -1.642631e+002 
4340625000  -2.299874e+001  -1.608749e+002 
4343750000  -2.236121e+001  -1.602140e+002 
4346875000  -2.196370e+001  -1.658281e+002 
4350000000  -2.201597e+001  -1.708367e+002 
4353125000  -2.204589e+001  -1.780706e+002 
4356250000  -2.379511e+001  -1.792874e+002 
4359375000  -2.439368e+001  -1.660379e+002 
4362500000  -2.170049e+001  -1.636927e+002 
4365625000  -2.008342e+001  -1.758781e+002 
4368750000  -2.080860e+001  1.722367e+002 
4371875000  -2.200346e+001  1.729296e+002 
4375000000  -2.166375e+001  1.741627e+002 
4378125000  -2.099802e+001  1.680148e+002 
4381250000  -2.118165e+001  1.628062e+002 
4384375000  -2.098311e+001  1.581589e+002 
4387500000  -2.173306e+001  1.526312e+002 
4390625000  -2.276224e+001  1.532300e+002 
4393750000  -2.210041e+001  1.555945e+002 
4396875000  -2.140124e+001  1.534103e+002 
4400000000  -2.090577e+001  1.464320e+002 
4403125000  -2.148077e+001  1.385813e+002 
4406250000  -2.234185e+001  1.372625e+002 
4409375000  -2.230477e+001  1.350973e+002 
4412500000  -2.337131e+001  1.323690e+002 
4415625000  -2.370826e+001  1.373144e+002 
4418750000  -2.252655e+001  1.419168e+002 
