!Agilent Technologies,E8363B,MY43030201,A.06.04.32
!Agilent E8363B: A.06.04.32
!Date: Tuesday, November 11, 2014 20:49:58
!Correction: S21(Response(S21)) 
!S1P File: Measurement: S21:
# Hz S  dB   R 50
3000000000  -2.654917e+001  1.539794e+002 
3003125000  -2.787922e+001  1.494121e+002 
3006250000  -2.800269e+001  1.466361e+002 
3009375000  -2.837715e+001  1.518233e+002 
3012500000  -2.780072e+001  1.512463e+002 
3015625000  -2.686393e+001  1.443098e+002 
3018750000  -2.774478e+001  1.435378e+002 
3021875000  -2.645697e+001  1.448766e+002 
3025000000  -2.512645e+001  1.415236e+002 
3028125000  -2.417630e+001  1.366782e+002 
3031250000  -2.311804e+001  1.253832e+002 
3034375000  -2.275703e+001  1.125499e+002 
3037500000  -2.311918e+001  1.005386e+002 
3040625000  -2.443491e+001  9.549222e+001 
3043750000  -2.515862e+001  9.131963e+001 
3046875000  -2.523436e+001  8.461886e+001 
3050000000  -2.700648e+001  7.809160e+001 
3053125000  -2.716126e+001  8.430034e+001 
3056250000  -2.645523e+001  8.733979e+001 
3059375000  -2.672071e+001  8.707171e+001 
3062500000  -2.521578e+001  8.316440e+001 
3065625000  -2.499006e+001  7.761137e+001 
3068750000  -2.470651e+001  7.043050e+001 
3071875000  -2.467243e+001  6.759098e+001 
3075000000  -2.464303e+001  6.386358e+001 
3078125000  -2.436053e+001  5.921867e+001 
3081250000  -2.498577e+001  5.498333e+001 
3084375000  -2.425556e+001  5.139703e+001 
3087500000  -2.411119e+001  4.787355e+001 
3090625000  -2.381285e+001  3.812140e+001 
3093750000  -2.425901e+001  3.010918e+001 
3096875000  -2.552409e+001  2.410291e+001 
3100000000  -2.570751e+001  2.275662e+001 
3103125000  -2.603969e+001  2.404522e+001 
3106250000  -2.578333e+001  2.048672e+001 
3109375000  -2.602957e+001  1.702623e+001 
3112500000  -2.617203e+001  1.614213e+001 
3115625000  -2.595056e+001  1.158610e+001 
3118750000  -2.639133e+001  1.299732e+001 
3121875000  -2.575288e+001  5.038627e+000 
3125000000  -2.688409e+001  1.581110e+000 
3128125000  -2.814658e+001  9.767242e+000 
3131250000  -2.600429e+001  1.015333e+001 
3134375000  -2.460716e+001  -3.443984e+000 
3137500000  -2.525656e+001  -1.730186e+001 
3140625000  -2.687845e+001  -1.891133e+001 
3143750000  -2.789184e+001  -1.485889e+001 
3146875000  -2.752380e+001  -1.282320e+001 
3150000000  -2.646124e+001  -1.067347e+001 
3153125000  -2.643329e+001  -1.843385e+001 
3156250000  -2.743161e+001  -1.293773e+001 
3159375000  -2.588092e+001  -9.978334e+000 
3162500000  -2.385628e+001  -2.307712e+001 
3165625000  -2.477171e+001  -3.416668e+001 
3168750000  -2.516994e+001  -3.328281e+001 
3171875000  -2.421878e+001  -3.721693e+001 
3175000000  -2.487209e+001  -4.478492e+001 
3178125000  -2.468763e+001  -4.328056e+001 
3181250000  -2.349528e+001  -4.723589e+001 
3184375000  -2.269711e+001  -5.949582e+001 
3187500000  -2.378113e+001  -7.448073e+001 
3190625000  -2.656905e+001  -8.193551e+001 
3193750000  -2.717659e+001  -7.243814e+001 
3196875000  -2.672808e+001  -6.708380e+001 
3200000000  -2.589004e+001  -6.891626e+001 
3203125000  -2.499875e+001  -7.445265e+001 
3206250000  -2.530402e+001  -8.069064e+001 
3209375000  -2.486599e+001  -8.592729e+001 
3212500000  -2.492180e+001  -9.257540e+001 
3215625000  -2.506356e+001  -9.681941e+001 
3218750000  -2.585133e+001  -1.033835e+002 
3221875000  -2.681393e+001  -1.081089e+002 
3225000000  -2.644300e+001  -1.088195e+002 
3228125000  -2.675700e+001  -1.134272e+002 
3231250000  -2.748723e+001  -1.161693e+002 
3234375000  -2.733930e+001  -1.148419e+002 
3237500000  -2.734561e+001  -1.167479e+002 
3240625000  -2.705463e+001  -1.184780e+002 
3243750000  -2.670707e+001  -1.247156e+002 
3246875000  -2.718474e+001  -1.315558e+002 
3250000000  -2.767016e+001  -1.333689e+002 
3253125000  -2.779978e+001  -1.352409e+002 
3256250000  -2.767675e+001  -1.413284e+002 
3259375000  -2.797618e+001  -1.485703e+002 
3262500000  -2.917176e+001  -1.513914e+002 
3265625000  -2.992866e+001  -1.480269e+002 
3268750000  -2.984792e+001  -1.454045e+002 
3271875000  -2.965727e+001  -1.446634e+002 
3275000000  -2.857172e+001  -1.494547e+002 
3278125000  -2.902276e+001  -1.557331e+002 
3281250000  -2.930894e+001  -1.536885e+002 
3284375000  -2.886411e+001  -1.597699e+002 
3287500000  -2.897806e+001  -1.624153e+002 
3290625000  -2.942443e+001  -1.665623e+002 
3293750000  -2.915923e+001  -1.721912e+002 
3296875000  -3.006057e+001  -1.722460e+002 
3300000000  -3.004568e+001  -1.713885e+002 
3303125000  -2.890737e+001  -1.751205e+002 
3306250000  -2.865963e+001  1.786616e+002 
3309375000  -2.845858e+001  1.733467e+002 
3312500000  -2.845161e+001  1.629659e+002 
3315625000  -2.945211e+001  1.550276e+002 
3318750000  -3.082222e+001  1.528773e+002 
3321875000  -3.207999e+001  1.528380e+002 
3325000000  -3.258021e+001  1.577253e+002 
3328125000  -3.243025e+001  1.584770e+002 
3331250000  -3.131231e+001  1.667116e+002 
3334375000  -2.860915e+001  1.572397e+002 
3337500000  -2.870300e+001  1.386561e+002 
3340625000  -3.002267e+001  1.274915e+002 
3343750000  -3.194174e+001  1.261148e+002 
3346875000  -3.251503e+001  1.283510e+002 
3350000000  -3.183212e+001  1.268846e+002 
3353125000  -3.186805e+001  1.225133e+002 
3356250000  -3.165813e+001  1.145911e+002 
3359375000  -3.251440e+001  1.064207e+002 
3362500000  -3.383666e+001  1.006745e+002 
3365625000  -3.437217e+001  9.888314e+001 
3368750000  -3.528511e+001  9.730856e+001 
3371875000  -3.576667e+001  9.371076e+001 
3375000000  -3.727909e+001  9.293706e+001 
3378125000  -3.823240e+001  9.214542e+001 
3381250000  -3.988538e+001  9.850283e+001 
3384375000  -3.911233e+001  1.179337e+002 
3387500000  -3.587383e+001  1.063072e+002 
3390625000  -3.765606e+001  8.788778e+001 
3393750000  -3.955756e+001  9.175207e+001 
3396875000  -3.861518e+001  9.459523e+001 
3400000000  -3.865614e+001  8.758204e+001 
3403125000  -3.959970e+001  8.176573e+001 
3406250000  -4.063915e+001  8.657944e+001 
3409375000  -4.128467e+001  8.166608e+001 
3412500000  -4.197327e+001  8.294543e+001 
3415625000  -4.286808e+001  8.810853e+001 
3418750000  -4.300218e+001  9.151205e+001 
3421875000  -4.353614e+001  1.004075e+002 
3425000000  -4.262672e+001  1.022485e+002 
3428125000  -4.163246e+001  1.009722e+002 
3431250000  -4.148270e+001  9.762947e+001 
3434375000  -4.132517e+001  9.527896e+001 
3437500000  -4.184530e+001  9.242747e+001 
3440625000  -4.221138e+001  9.510090e+001 
3443750000  -4.091044e+001  9.737367e+001 
3446875000  -4.003640e+001  9.203636e+001 
3450000000  -3.979990e+001  8.303875e+001 
3453125000  -3.997248e+001  7.568328e+001 
3456250000  -4.122425e+001  6.976910e+001 
3459375000  -4.239473e+001  7.207600e+001 
3462500000  -4.258134e+001  7.074322e+001 
3465625000  -4.223776e+001  6.948542e+001 
3468750000  -4.258022e+001  6.519231e+001 
3471875000  -4.307542e+001  6.610652e+001 
3475000000  -4.310080e+001  6.070771e+001 
3478125000  -4.340716e+001  5.516654e+001 
3481250000  -4.467126e+001  5.375948e+001 
3484375000  -4.610167e+001  6.165942e+001 
3487500000  -4.580775e+001  6.331493e+001 
3490625000  -4.562480e+001  6.088044e+001 
3493750000  -4.614078e+001  5.808803e+001 
3496875000  -4.671014e+001  5.825933e+001 
3500000000  -4.848648e+001  6.734621e+001 
3503125000  -4.819491e+001  6.911742e+001 
3506250000  -4.677669e+001  6.966455e+001 
3509375000  -4.715258e+001  6.971829e+001 
3512500000  -4.784307e+001  6.990906e+001 
3515625000  -4.794333e+001  7.471488e+001 
3518750000  -4.803276e+001  7.948029e+001 
3521875000  -4.784317e+001  8.131917e+001 
3525000000  -4.882020e+001  8.354836e+001 
3528125000  -4.741516e+001  9.542878e+001 
3531250000  -4.563897e+001  9.575198e+001 
3534375000  -4.510121e+001  8.734787e+001 
3537500000  -4.511562e+001  8.306371e+001 
3540625000  -4.573654e+001  8.651879e+001 
3543750000  -4.596122e+001  8.459384e+001 
3546875000  -4.568404e+001  1.016055e+002 
3550000000  -4.299292e+001  1.025734e+002 
3553125000  -4.157262e+001  8.599654e+001 
3556250000  -4.289368e+001  7.916451e+001 
3559375000  -4.223455e+001  7.991010e+001 
3562500000  -4.091018e+001  7.579321e+001 
3565625000  -4.150228e+001  6.823412e+001 
3568750000  -4.210184e+001  7.301550e+001 
3571875000  -4.161766e+001  7.151191e+001 
3575000000  -4.133440e+001  6.599414e+001 
3578125000  -4.158598e+001  6.096700e+001 
3581250000  -4.164752e+001  6.393888e+001 
3584375000  -4.090000e+001  6.221581e+001 
3587500000  -4.012081e+001  5.507233e+001 
3590625000  -4.055719e+001  4.791450e+001 
3593750000  -4.156714e+001  4.579834e+001 
3596875000  -4.139242e+001  5.393396e+001 
3600000000  -4.002523e+001  5.050794e+001 
3603125000  -4.022222e+001  3.869580e+001 
3606250000  -4.082340e+001  3.424461e+001 
3609375000  -4.098481e+001  3.660598e+001 
3612500000  -4.166815e+001  3.561351e+001 
3615625000  -4.170799e+001  3.158957e+001 
3618750000  -4.211085e+001  3.327751e+001 
3621875000  -4.162805e+001  3.205747e+001 
3625000000  -4.199395e+001  3.311480e+001 
3628125000  -4.184904e+001  3.136172e+001 
3631250000  -4.149367e+001  2.698730e+001 
3634375000  -4.255438e+001  2.862890e+001 
3637500000  -4.219654e+001  3.539328e+001 
3640625000  -4.097135e+001  3.600600e+001 
3643750000  -4.075673e+001  2.802527e+001 
3646875000  -4.142832e+001  2.390191e+001 
3650000000  -4.159083e+001  2.357290e+001 
3653125000  -4.136282e+001  2.244403e+001 
3656250000  -4.181369e+001  2.205676e+001 
3659375000  -4.197773e+001  2.655556e+001 
3662500000  -4.120205e+001  2.373505e+001 
3665625000  -4.133652e+001  2.480139e+001 
3668750000  -4.040361e+001  2.583192e+001 
3671875000  -3.967469e+001  2.179151e+001 
3675000000  -3.979270e+001  1.455787e+001 
3678125000  -4.046694e+001  1.701670e+001 
3681250000  -3.997780e+001  1.792892e+001 
3684375000  -3.985353e+001  1.569291e+001 
3687500000  -3.993044e+001  1.531080e+001 
3690625000  -3.998529e+001  1.301017e+001 
3693750000  -4.050056e+001  1.306184e+001 
3696875000  -4.038229e+001  1.806581e+001 
3700000000  -3.941477e+001  1.522888e+001 
3703125000  -3.905031e+001  1.361335e+001 
3706250000  -3.975412e+001  1.545768e+001 
3709375000  -3.906579e+001  1.855451e+001 
3712500000  -3.783507e+001  1.986543e+001 
3715625000  -3.664220e+001  1.176035e+001 
3718750000  -3.602020e+001  9.720140e+000 
3721875000  -3.549309e+001  4.896394e+000 
3725000000  -3.544117e+001  4.119843e-001 
3728125000  -3.558603e+001  -4.979360e-001 
3731250000  -3.498493e+001  -1.629333e+000 
3734375000  -3.391121e+001  -8.545276e+000 
3737500000  -3.427273e+001  -1.446951e+001 
3740625000  -3.494298e+001  -1.716762e+001 
3743750000  -3.481384e+001  -2.038246e+001 
3746875000  -3.474888e+001  -2.336678e+001 
3750000000  -3.512815e+001  -2.438037e+001 
3753125000  -3.472488e+001  -2.423970e+001 
3756250000  -3.462021e+001  -2.518688e+001 
3759375000  -3.442871e+001  -2.471049e+001 
3762500000  -3.377950e+001  -3.018016e+001 
3765625000  -3.436116e+001  -3.280769e+001 
3768750000  -3.447931e+001  -3.105251e+001 
3771875000  -3.254861e+001  -3.330363e+001 
3775000000  -3.234526e+001  -4.060007e+001 
3778125000  -3.262983e+001  -4.263152e+001 
3781250000  -3.256064e+001  -4.522656e+001 
3784375000  -3.241789e+001  -4.701179e+001 
3787500000  -3.165625e+001  -5.084273e+001 
3790625000  -3.231009e+001  -5.731553e+001 
3793750000  -3.257642e+001  -5.724245e+001 
3796875000  -3.161558e+001  -5.855334e+001 
3800000000  -3.006880e+001  -6.228894e+001 
3803125000  -3.076988e+001  -6.928451e+001 
3806250000  -3.144885e+001  -7.144194e+001 
3809375000  -3.126340e+001  -7.286673e+001 
3812500000  -3.055888e+001  -7.751656e+001 
3815625000  -3.109972e+001  -8.500954e+001 
3818750000  -3.221867e+001  -8.599680e+001 
3821875000  -3.229944e+001  -7.843485e+001 
3825000000  -3.032458e+001  -7.373013e+001 
3828125000  -2.893225e+001  -8.732823e+001 
3831250000  -2.940584e+001  -1.013256e+002 
3834375000  -3.074801e+001  -1.022585e+002 
3837500000  -3.168679e+001  -9.697680e+001 
3840625000  -3.056758e+001  -9.833927e+001 
3843750000  -2.942951e+001  -1.078488e+002 
3846875000  -3.009582e+001  -1.157917e+002 
3850000000  -3.135403e+001  -1.095765e+002 
3853125000  -3.050379e+001  -1.065347e+002 
3856250000  -3.055638e+001  -1.113270e+002 
3859375000  -2.982186e+001  -1.162677e+002 
3862500000  -2.939186e+001  -1.232212e+002 
3865625000  -2.968030e+001  -1.283366e+002 
3868750000  -2.967943e+001  -1.285965e+002 
3871875000  -2.897910e+001  -1.316445e+002 
3875000000  -2.903959e+001  -1.399476e+002 
3878125000  -3.011169e+001  -1.426782e+002 
3881250000  -3.021445e+001  -1.391706e+002 
3884375000  -2.961766e+001  -1.443390e+002 
3887500000  -2.976674e+001  -1.480444e+002 
3890625000  -3.026563e+001  -1.510122e+002 
3893750000  -3.073253e+001  -1.517184e+002 
3896875000  -3.086369e+001  -1.513912e+002 
3900000000  -3.113553e+001  -1.522496e+002 
3903125000  -3.075026e+001  -1.547456e+002 
3906250000  -3.040946e+001  -1.549189e+002 
3909375000  -2.976741e+001  -1.575387e+002 
3912500000  -2.975902e+001  -1.652125e+002 
3915625000  -3.094106e+001  -1.646017e+002 
3918750000  -3.099947e+001  -1.625912e+002 
3921875000  -3.071325e+001  -1.644476e+002 
3925000000  -2.984950e+001  -1.652706e+002 
3928125000  -2.919356e+001  -1.707776e+002 
3931250000  -2.961858e+001  -1.748427e+002 
3934375000  -2.988274e+001  -1.744269e+002 
3937500000  -2.998523e+001  -1.752883e+002 
3940625000  -3.041105e+001  -1.753629e+002 
3943750000  -2.958006e+001  -1.738877e+002 
3946875000  -2.827929e+001  -1.787061e+002 
3950000000  -2.875331e+001  1.731179e+002 
3953125000  -2.976262e+001  1.741364e+002 
3956250000  -2.887559e+001  1.769160e+002 
3959375000  -2.750880e+001  1.739441e+002 
3962500000  -2.699896e+001  1.701303e+002 
3965625000  -2.664739e+001  1.608697e+002 
3968750000  -2.758872e+001  1.545839e+002 
3971875000  -2.800287e+001  1.530470e+002 
3975000000  -2.724609e+001  1.510456e+002 
3978125000  -2.710805e+001  1.497163e+002 
3981250000  -2.679888e+001  1.447860e+002 
3984375000  -2.709385e+001  1.390736e+002 
3987500000  -2.753837e+001  1.369692e+002 
3990625000  -2.756458e+001  1.362082e+002 
3993750000  -2.778532e+001  1.330459e+002 
3996875000  -2.763166e+001  1.305354e+002 
4000000000  -2.779173e+001  1.284984e+002 
4003125000  -2.835578e+001  1.304547e+002 
4006250000  -2.707867e+001  1.307991e+002 
4009375000  -2.581619e+001  1.187964e+002 
4012500000  -2.686558e+001  1.113515e+002 
4015625000  -2.811761e+001  1.120065e+002 
4018750000  -2.831700e+001  1.142731e+002 
4021875000  -2.761930e+001  1.126215e+002 
4025000000  -2.726958e+001  1.076961e+002 
4028125000  -2.711585e+001  1.038520e+002 
4031250000  -2.764780e+001  1.009564e+002 
4034375000  -2.793809e+001  1.006774e+002 
4037500000  -2.736074e+001  1.023469e+002 
4040625000  -2.731550e+001  9.903654e+001 
4043750000  -2.771189e+001  9.865924e+001 
4046875000  -2.724541e+001  9.820046e+001 
4050000000  -2.675458e+001  9.225673e+001 
4053125000  -2.719848e+001  9.032681e+001 
4056250000  -2.785546e+001  9.412823e+001 
4059375000  -2.658425e+001  9.669037e+001 
4062500000  -2.517587e+001  9.203290e+001 
4065625000  -2.511491e+001  8.732417e+001 
4068750000  -2.479461e+001  8.271962e+001 
4071875000  -2.419711e+001  7.495881e+001 
4075000000  -2.453846e+001  6.884517e+001 
4078125000  -2.509689e+001  6.776381e+001 
4081250000  -2.455748e+001  6.549836e+001 
4084375000  -2.419035e+001  5.888829e+001 
4087500000  -2.451823e+001  5.292990e+001 
4090625000  -2.508241e+001  5.160442e+001 
4093750000  -2.493293e+001  5.201940e+001 
4096875000  -2.447630e+001  4.627530e+001 
4100000000  -2.514117e+001  3.919431e+001 
4103125000  -2.602353e+001  4.005205e+001 
4106250000  -2.590833e+001  4.442010e+001 
4109375000  -2.502998e+001  4.439870e+001 
4112500000  -2.448165e+001  3.784888e+001 
4115625000  -2.484541e+001  3.314850e+001 
4118750000  -2.488345e+001  3.050872e+001 
4121875000  -2.448821e+001  2.583673e+001 
4125000000  -2.489069e+001  2.076880e+001 
4128125000  -2.583865e+001  2.081019e+001 
4131250000  -2.556108e+001  2.863086e+001 
4134375000  -2.327516e+001  2.470162e+001 
4137500000  -2.301606e+001  5.779998e+000 
4140625000  -2.521021e+001  -1.435253e+000 
4143750000  -2.655824e+001  3.586758e+000 
4146875000  -2.611180e+001  1.069428e+001 
4150000000  -2.515713e+001  7.601610e+000 
4153125000  -2.501686e+001  1.267943e+000 
4156250000  -2.590417e+001  -1.309838e+000 
4159375000  -2.620114e+001  2.975356e+000 
4162500000  -2.504464e+001  6.829503e+000 
4165625000  -2.389075e+001  3.205765e+000 
4168750000  -2.328306e+001  -4.025116e+000 
4171875000  -2.333033e+001  -1.305299e+001 
4175000000  -2.384457e+001  -1.895600e+001 
4178125000  -2.446978e+001  -1.899995e+001 
4181250000  -2.433958e+001  -1.934242e+001 
4184375000  -2.419547e+001  -2.287112e+001 
4187500000  -2.422513e+001  -2.552695e+001 
4190625000  -2.408407e+001  -3.082702e+001 
4193750000  -2.488666e+001  -3.476116e+001 
4196875000  -2.551524e+001  -3.514026e+001 
4200000000  -2.638523e+001  -3.255070e+001 
4203125000  -2.644325e+001  -1.960137e+001 
4206250000  -2.314694e+001  -1.786076e+001 
4209375000  -2.192860e+001  -3.788145e+001 
4212500000  -2.380867e+001  -4.685164e+001 
4215625000  -2.480483e+001  -4.114359e+001 
4218750000  -2.354790e+001  -3.397924e+001 
4221875000  -2.114558e+001  -4.324755e+001 
4225000000  -2.237510e+001  -5.566998e+001 
4228125000  -2.312987e+001  -5.080332e+001 
4231250000  -2.153909e+001  -5.445552e+001 
4234375000  -2.144925e+001  -6.290931e+001 
4237500000  -2.102317e+001  -6.588703e+001 
4240625000  -2.103718e+001  -7.437089e+001 
4243750000  -2.199765e+001  -8.124318e+001 
4246875000  -2.286484e+001  -8.130227e+001 
4250000000  -2.295842e+001  -7.853226e+001 
4253125000  -2.236375e+001  -8.022334e+001 
4256250000  -2.263325e+001  -8.456672e+001 
4259375000  -2.238137e+001  -8.659649e+001 
4262500000  -2.240773e+001  -9.030663e+001 
4265625000  -2.254522e+001  -8.970392e+001 
4268750000  -2.170078e+001  -9.411429e+001 
4271875000  -2.147817e+001  -9.978947e+001 
4275000000  -2.083809e+001  -1.060853e+002 
4278125000  -2.140797e+001  -1.171123e+002 
4281250000  -2.315720e+001  -1.197285e+002 
4284375000  -2.294069e+001  -1.186350e+002 
4287500000  -2.367417e+001  -1.221305e+002 
4290625000  -2.493228e+001  -1.128618e+002 
4293750000  -2.297279e+001  -1.068571e+002 
4296875000  -2.162621e+001  -1.186569e+002 
4300000000  -2.244541e+001  -1.274849e+002 
4303125000  -2.358942e+001  -1.266340e+002 
4306250000  -2.299337e+001  -1.207127e+002 
4309375000  -2.160252e+001  -1.227009e+002 
4312500000  -2.147931e+001  -1.309082e+002 
4315625000  -2.171767e+001  -1.371707e+002 
4318750000  -2.202571e+001  -1.406617e+002 
4321875000  -2.220501e+001  -1.401063e+002 
4325000000  -2.162217e+001  -1.393164e+002 
4328125000  -2.115808e+001  -1.454906e+002 
4331250000  -2.104425e+001  -1.536215e+002 
4334375000  -2.151507e+001  -1.586027e+002 
4337500000  -2.228350e+001  -1.611238e+002 
4340625000  -2.284064e+001  -1.579758e+002 
4343750000  -2.228184e+001  -1.571962e+002 
4346875000  -2.190503e+001  -1.626874e+002 
4350000000  -2.188972e+001  -1.672274e+002 
4353125000  -2.190333e+001  -1.748066e+002 
4356250000  -2.365746e+001  -1.762710e+002 
4359375000  -2.429230e+001  -1.629066e+002 
4362500000  -2.169613e+001  -1.610619e+002 
4365625000  -2.001362e+001  -1.726547e+002 
4368750000  -2.069241e+001  1.753848e+002 
4371875000  -2.190370e+001  1.761398e+002 
4375000000  -2.158906e+001  1.774158e+002 
4378125000  -2.093522e+001  1.712455e+002 
4381250000  -2.113751e+001  1.661160e+002 
4384375000  -2.093694e+001  1.617263e+002 
4387500000  -2.164375e+001  1.559575e+002 
4390625000  -2.265565e+001  1.566179e+002 
4393750000  -2.197827e+001  1.588456e+002 
4396875000  -2.133031e+001  1.566635e+002 
4400000000  -2.084730e+001  1.496083e+002 
4403125000  -2.137043e+001  1.421321e+002 
4406250000  -2.222422e+001  1.408162e+002 
4409375000  -2.217411e+001  1.383012e+002 
4412500000  -2.320114e+001  1.356591e+002 
4415625000  -2.362237e+001  1.405029e+002 
4418750000  -2.239933e+001  1.450454e+002 
