!Agilent Technologies,E8363B,MY43030201,A.06.04.32
!Agilent E8363B: A.06.04.32
!Date: Tuesday, November 11, 2014 20:45:43
!Correction: S21(Response(S21)) 
!S1P File: Measurement: S21:
# Hz S  dB   R 50
3000000000  -2.651659e+001  1.587320e+002 
3003125000  -2.788846e+001  1.544068e+002 
3006250000  -2.793914e+001  1.513577e+002 
3009375000  -2.829061e+001  1.564353e+002 
3012500000  -2.784194e+001  1.562224e+002 
3015625000  -2.680649e+001  1.491840e+002 
3018750000  -2.767288e+001  1.478154e+002 
3021875000  -2.647885e+001  1.492989e+002 
3025000000  -2.515077e+001  1.464679e+002 
3028125000  -2.417762e+001  1.416766e+002 
3031250000  -2.313496e+001  1.307242e+002 
3034375000  -2.274653e+001  1.178362e+002 
3037500000  -2.306008e+001  1.055490e+002 
3040625000  -2.438922e+001  1.005760e+002 
3043750000  -2.512896e+001  9.635391e+001 
3046875000  -2.521948e+001  8.977648e+001 
3050000000  -2.696317e+001  8.292036e+001 
3053125000  -2.714545e+001  8.918427e+001 
3056250000  -2.643626e+001  9.233829e+001 
3059375000  -2.669598e+001  9.174313e+001 
3062500000  -2.523393e+001  8.819176e+001 
3065625000  -2.501201e+001  8.290137e+001 
3068750000  -2.470025e+001  7.585204e+001 
3071875000  -2.464082e+001  7.273470e+001 
3075000000  -2.466981e+001  6.913538e+001 
3078125000  -2.436589e+001  6.435363e+001 
3081250000  -2.499323e+001  6.034829e+001 
3084375000  -2.426597e+001  5.660662e+001 
3087500000  -2.411445e+001  5.320127e+001 
3090625000  -2.384031e+001  4.371547e+001 
3093750000  -2.417631e+001  3.521623e+001 
3096875000  -2.555243e+001  2.929354e+001 
3100000000  -2.568629e+001  2.798547e+001 
3103125000  -2.603574e+001  2.921857e+001 
3106250000  -2.578974e+001  2.589894e+001 
3109375000  -2.599017e+001  2.239845e+001 
3112500000  -2.614336e+001  2.128275e+001 
3115625000  -2.594309e+001  1.700677e+001 
3118750000  -2.640875e+001  1.810765e+001 
3121875000  -2.574666e+001  1.042882e+001 
3125000000  -2.685235e+001  6.602858e+000 
3128125000  -2.813609e+001  1.432868e+001 
3131250000  -2.598782e+001  1.544991e+001 
3134375000  -2.460496e+001  2.147183e+000 
3137500000  -2.523664e+001  -1.226078e+001 
3140625000  -2.689039e+001  -1.421625e+001 
3143750000  -2.790428e+001  -9.594657e+000 
3146875000  -2.753229e+001  -7.625237e+000 
3150000000  -2.648990e+001  -5.234643e+000 
3153125000  -2.646730e+001  -1.327497e+001 
3156250000  -2.743620e+001  -8.009506e+000 
3159375000  -2.597564e+001  -4.972605e+000 
3162500000  -2.386599e+001  -1.760945e+001 
3165625000  -2.477843e+001  -2.848454e+001 
3168750000  -2.524350e+001  -2.761081e+001 
3171875000  -2.425271e+001  -3.158475e+001 
3175000000  -2.487147e+001  -3.955458e+001 
3178125000  -2.469915e+001  -3.783812e+001 
3181250000  -2.348187e+001  -4.177478e+001 
3184375000  -2.267305e+001  -5.394079e+001 
3187500000  -2.373175e+001  -6.975919e+001 
3190625000  -2.657382e+001  -7.697595e+001 
3193750000  -2.721788e+001  -6.736266e+001 
3196875000  -2.674583e+001  -6.185156e+001 
3200000000  -2.596011e+001  -6.356374e+001 
3203125000  -2.502771e+001  -6.925363e+001 
3206250000  -2.529795e+001  -7.543700e+001 
3209375000  -2.483662e+001  -8.047620e+001 
3212500000  -2.493251e+001  -8.719936e+001 
3215625000  -2.508443e+001  -9.184686e+001 
3218750000  -2.582357e+001  -9.794270e+001 
3221875000  -2.685968e+001  -1.028944e+002 
3225000000  -2.651889e+001  -1.034148e+002 
3228125000  -2.674178e+001  -1.076654e+002 
3231250000  -2.747568e+001  -1.108135e+002 
3234375000  -2.735087e+001  -1.100606e+002 
3237500000  -2.741354e+001  -1.115996e+002 
3240625000  -2.707501e+001  -1.130401e+002 
3243750000  -2.669559e+001  -1.195580e+002 
3246875000  -2.719821e+001  -1.262027e+002 
3250000000  -2.764744e+001  -1.280087e+002 
3253125000  -2.778544e+001  -1.299090e+002 
3256250000  -2.767453e+001  -1.359883e+002 
3259375000  -2.795172e+001  -1.431995e+002 
3262500000  -2.923061e+001  -1.462487e+002 
3265625000  -2.986301e+001  -1.430011e+002 
3268750000  -2.989115e+001  -1.403814e+002 
3271875000  -2.970022e+001  -1.389628e+002 
3275000000  -2.858410e+001  -1.440002e+002 
3278125000  -2.909793e+001  -1.503013e+002 
3281250000  -2.934618e+001  -1.486816e+002 
3284375000  -2.891245e+001  -1.544387e+002 
3287500000  -2.903427e+001  -1.571523e+002 
3290625000  -2.947807e+001  -1.611331e+002 
3293750000  -2.917075e+001  -1.670079e+002 
3296875000  -3.015225e+001  -1.674856e+002 
3300000000  -3.005879e+001  -1.659498e+002 
3303125000  -2.891121e+001  -1.694490e+002 
3306250000  -2.871405e+001  -1.763848e+002 
3309375000  -2.852995e+001  1.790453e+002 
3312500000  -2.849142e+001  1.687225e+002 
3315625000  -2.949398e+001  1.604744e+002 
3318750000  -3.083442e+001  1.576581e+002 
3321875000  -3.205291e+001  1.579592e+002 
3325000000  -3.258796e+001  1.622294e+002 
3328125000  -3.257534e+001  1.643060e+002 
3331250000  -3.132413e+001  1.716533e+002 
3334375000  -2.882796e+001  1.623860e+002 
3337500000  -2.878356e+001  1.443785e+002 
3340625000  -3.001141e+001  1.334236e+002 
3343750000  -3.200973e+001  1.313892e+002 
3346875000  -3.254512e+001  1.332958e+002 
3350000000  -3.190665e+001  1.320409e+002 
3353125000  -3.203122e+001  1.276288e+002 
3356250000  -3.171504e+001  1.204093e+002 
3359375000  -3.256426e+001  1.112030e+002 
3362500000  -3.396590e+001  1.064590e+002 
3365625000  -3.440866e+001  1.055102e+002 
3368750000  -3.543558e+001  1.034473e+002 
3371875000  -3.583474e+001  9.933736e+001 
3375000000  -3.729915e+001  9.721262e+001 
3378125000  -3.841144e+001  9.750866e+001 
3381250000  -3.999394e+001  1.047007e+002 
3384375000  -3.933462e+001  1.241052e+002 
3387500000  -3.612357e+001  1.124710e+002 
3390625000  -3.780304e+001  9.154881e+001 
3393750000  -3.977600e+001  9.618091e+001 
3396875000  -3.861793e+001  9.958570e+001 
3400000000  -3.861166e+001  9.453217e+001 
3403125000  -3.978036e+001  8.814561e+001 
3406250000  -4.042453e+001  9.052797e+001 
3409375000  -4.106786e+001  8.658415e+001 
3412500000  -4.202902e+001  8.799088e+001 
3415625000  -4.307346e+001  9.274946e+001 
3418750000  -4.353189e+001  9.598629e+001 
3421875000  -4.366452e+001  1.023648e+002 
3425000000  -4.293122e+001  1.086806e+002 
3428125000  -4.171334e+001  1.066950e+002 
3431250000  -4.167267e+001  1.028741e+002 
3434375000  -4.137217e+001  9.988822e+001 
3437500000  -4.197923e+001  9.861052e+001 
3440625000  -4.224942e+001  1.022005e+002 
3443750000  -4.115620e+001  1.024566e+002 
3446875000  -4.028679e+001  9.785897e+001 
3450000000  -4.008035e+001  8.973212e+001 
3453125000  -4.031347e+001  8.005210e+001 
3456250000  -4.149670e+001  7.431310e+001 
3459375000  -4.246244e+001  7.744218e+001 
3462500000  -4.285016e+001  7.906461e+001 
3465625000  -4.279948e+001  7.317151e+001 
3468750000  -4.296282e+001  7.172483e+001 
3471875000  -4.320739e+001  7.229430e+001 
3475000000  -4.302537e+001  6.934090e+001 
3478125000  -4.380497e+001  6.455133e+001 
3481250000  -4.489255e+001  6.312774e+001 
3484375000  -4.653926e+001  6.776436e+001 
3487500000  -4.613641e+001  7.236874e+001 
3490625000  -4.540854e+001  6.765307e+001 
3493750000  -4.630673e+001  6.603716e+001 
3496875000  -4.761283e+001  6.618413e+001 
3500000000  -4.849624e+001  7.506131e+001 
3503125000  -4.833612e+001  8.179788e+001 
3506250000  -4.696783e+001  7.918238e+001 
3509375000  -4.725994e+001  7.712745e+001 
3512500000  -4.754129e+001  7.465872e+001 
3515625000  -4.780960e+001  7.751411e+001 
3518750000  -4.853540e+001  8.281964e+001 
3521875000  -4.824484e+001  9.026421e+001 
3525000000  -4.853772e+001  9.229645e+001 
3528125000  -4.821059e+001  1.060160e+002 
3531250000  -4.591421e+001  1.047317e+002 
3534375000  -4.537683e+001  9.577007e+001 
3537500000  -4.538885e+001  9.326379e+001 
3540625000  -4.554510e+001  9.150859e+001 
3543750000  -4.607398e+001  9.485642e+001 
3546875000  -4.579731e+001  1.071935e+002 
3550000000  -4.317022e+001  1.087941e+002 
3553125000  -4.166512e+001  9.175181e+001 
3556250000  -4.250395e+001  8.658910e+001 
3559375000  -4.239137e+001  8.871726e+001 
3562500000  -4.102019e+001  8.139008e+001 
3565625000  -4.201811e+001  7.411491e+001 
3568750000  -4.209809e+001  7.892150e+001 
3571875000  -4.167319e+001  7.931584e+001 
3575000000  -4.114966e+001  7.363008e+001 
3578125000  -4.172573e+001  7.046228e+001 
3581250000  -4.183904e+001  6.920202e+001 
3584375000  -4.113932e+001  7.014799e+001 
3587500000  -4.027949e+001  6.283781e+001 
3590625000  -4.054508e+001  5.500789e+001 
3593750000  -4.166020e+001  5.330966e+001 
3596875000  -4.133829e+001  6.120806e+001 
3600000000  -3.996433e+001  5.973476e+001 
3603125000  -4.016118e+001  4.499093e+001 
3606250000  -4.078742e+001  4.319951e+001 
3609375000  -4.118076e+001  4.319625e+001 
3612500000  -4.159861e+001  4.044143e+001 
3615625000  -4.165751e+001  4.024381e+001 
3618750000  -4.206226e+001  4.171597e+001 
3621875000  -4.150909e+001  4.086535e+001 
3625000000  -4.180383e+001  4.015052e+001 
3628125000  -4.213543e+001  3.988177e+001 
3631250000  -4.149655e+001  3.477435e+001 
3634375000  -4.258178e+001  3.647321e+001 
3637500000  -4.265908e+001  4.230846e+001 
3640625000  -4.113629e+001  4.336392e+001 
3643750000  -4.057831e+001  3.628952e+001 
3646875000  -4.120041e+001  3.102153e+001 
3650000000  -4.163060e+001  2.928084e+001 
3653125000  -4.170597e+001  3.057910e+001 
3656250000  -4.190294e+001  2.878342e+001 
3659375000  -4.225510e+001  3.122231e+001 
3662500000  -4.139491e+001  3.196633e+001 
3665625000  -4.139133e+001  3.095157e+001 
3668750000  -4.015808e+001  3.327163e+001 
3671875000  -3.930279e+001  2.885558e+001 
3675000000  -3.986776e+001  2.334851e+001 
3678125000  -4.054515e+001  2.486120e+001 
3681250000  -4.003803e+001  2.568174e+001 
3684375000  -3.970212e+001  2.274028e+001 
3687500000  -3.969443e+001  2.257142e+001 
3690625000  -4.006242e+001  2.024572e+001 
3693750000  -4.037669e+001  2.172443e+001 
3696875000  -4.016858e+001  2.480956e+001 
3700000000  -3.911263e+001  2.341548e+001 
3703125000  -3.906033e+001  2.010459e+001 
3706250000  -3.951640e+001  2.130052e+001 
3709375000  -3.894166e+001  2.570888e+001 
3712500000  -3.752180e+001  2.637750e+001 
3715625000  -3.647120e+001  2.000229e+001 
3718750000  -3.578770e+001  1.649938e+001 
3721875000  -3.520820e+001  1.242319e+001 
3725000000  -3.523428e+001  6.858847e+000 
3728125000  -3.540748e+001  5.007322e+000 
3731250000  -3.471999e+001  5.617957e+000 
3734375000  -3.366819e+001  -1.533168e+000 
3737500000  -3.418776e+001  -7.736853e+000 
3740625000  -3.477886e+001  -1.144070e+001 
3743750000  -3.469219e+001  -1.333076e+001 
3746875000  -3.447681e+001  -1.694550e+001 
3750000000  -3.485783e+001  -1.768005e+001 
3753125000  -3.453362e+001  -1.766931e+001 
3756250000  -3.436842e+001  -1.958188e+001 
3759375000  -3.429996e+001  -1.961253e+001 
3762500000  -3.363080e+001  -2.344560e+001 
3765625000  -3.421903e+001  -2.642502e+001 
3768750000  -3.413628e+001  -2.471262e+001 
3771875000  -3.240328e+001  -2.619646e+001 
3775000000  -3.210782e+001  -3.398194e+001 
3778125000  -3.247887e+001  -3.586506e+001 
3781250000  -3.234995e+001  -3.937473e+001 
3784375000  -3.228379e+001  -4.105411e+001 
3787500000  -3.163634e+001  -4.462916e+001 
3790625000  -3.212314e+001  -5.089374e+001 
3793750000  -3.241966e+001  -5.120075e+001 
3796875000  -3.144474e+001  -5.213361e+001 
3800000000  -2.997142e+001  -5.602180e+001 
3803125000  -3.077704e+001  -6.344364e+001 
3806250000  -3.132409e+001  -6.536550e+001 
3809375000  -3.098800e+001  -6.674036e+001 
3812500000  -3.043346e+001  -7.126252e+001 
3815625000  -3.091821e+001  -7.792718e+001 
3818750000  -3.199540e+001  -8.007643e+001 
3821875000  -3.206746e+001  -7.250028e+001 
3825000000  -3.015160e+001  -6.692319e+001 
3828125000  -2.884499e+001  -8.019525e+001 
3831250000  -2.939629e+001  -9.477503e+001 
3834375000  -3.062098e+001  -9.614352e+001 
3837500000  -3.154370e+001  -9.035305e+001 
3840625000  -3.050053e+001  -9.150546e+001 
3843750000  -2.924650e+001  -1.023208e+002 
3846875000  -2.992419e+001  -1.093717e+002 
3850000000  -3.114101e+001  -1.038639e+002 
3853125000  -3.039738e+001  -1.001379e+002 
3856250000  -3.038587e+001  -1.053814e+002 
3859375000  -2.964019e+001  -1.109951e+002 
3862500000  -2.924382e+001  -1.165665e+002 
3865625000  -2.948674e+001  -1.218215e+002 
3868750000  -2.959046e+001  -1.221032e+002 
3871875000  -2.890982e+001  -1.254128e+002 
3875000000  -2.894751e+001  -1.335790e+002 
3878125000  -2.992551e+001  -1.366424e+002 
3881250000  -3.003838e+001  -1.336540e+002 
3884375000  -2.956836e+001  -1.379806e+002 
3887500000  -2.958652e+001  -1.425115e+002 
3890625000  -3.013791e+001  -1.446090e+002 
3893750000  -3.058391e+001  -1.460831e+002 
3896875000  -3.056004e+001  -1.453104e+002 
3900000000  -3.096124e+001  -1.462369e+002 
3903125000  -3.063833e+001  -1.483737e+002 
3906250000  -3.039343e+001  -1.492756e+002 
3909375000  -2.963036e+001  -1.516767e+002 
3912500000  -2.965442e+001  -1.587639e+002 
3915625000  -3.086100e+001  -1.591718e+002 
3918750000  -3.086636e+001  -1.566847e+002 
3921875000  -3.063869e+001  -1.583498e+002 
3925000000  -2.980372e+001  -1.586840e+002 
3928125000  -2.909619e+001  -1.645594e+002 
3931250000  -2.946814e+001  -1.689329e+002 
3934375000  -2.978518e+001  -1.678136e+002 
3937500000  -2.981021e+001  -1.691231e+002 
3940625000  -3.040424e+001  -1.689060e+002 
3943750000  -2.940665e+001  -1.675170e+002 
3946875000  -2.818583e+001  -1.728446e+002 
3950000000  -2.865212e+001  1.792734e+002 
3953125000  -2.956870e+001  -1.795357e+002 
3956250000  -2.886200e+001  -1.769960e+002 
3959375000  -2.745664e+001  -1.798676e+002 
3962500000  -2.691837e+001  1.760924e+002 
3965625000  -2.651996e+001  1.671541e+002 
3968750000  -2.745720e+001  1.605503e+002 
3971875000  -2.787815e+001  1.590610e+002 
3975000000  -2.722122e+001  1.574668e+002 
3978125000  -2.696095e+001  1.560135e+002 
3981250000  -2.668472e+001  1.514889e+002 
3984375000  -2.694358e+001  1.456780e+002 
3987500000  -2.744179e+001  1.436127e+002 
3990625000  -2.745191e+001  1.419808e+002 
3993750000  -2.768476e+001  1.391845e+002 
3996875000  -2.759120e+001  1.361878e+002 
4000000000  -2.765382e+001  1.344523e+002 
4003125000  -2.824694e+001  1.362245e+002 
4006250000  -2.700131e+001  1.369305e+002 
4009375000  -2.570179e+001  1.250887e+002 
4012500000  -2.670988e+001  1.171898e+002 
4015625000  -2.800115e+001  1.174601e+002 
4018750000  -2.819386e+001  1.199108e+002 
4021875000  -2.757357e+001  1.183336e+002 
4025000000  -2.723395e+001  1.134345e+002 
4028125000  -2.715055e+001  1.095009e+002 
4031250000  -2.752302e+001  1.065840e+002 
4034375000  -2.785198e+001  1.061363e+002 
4037500000  -2.734071e+001  1.080525e+002 
4040625000  -2.728869e+001  1.047789e+002 
4043750000  -2.762597e+001  1.038596e+002 
4046875000  -2.724325e+001  1.037887e+002 
4050000000  -2.673071e+001  9.864050e+001 
4053125000  -2.714626e+001  9.654218e+001 
4056250000  -2.779878e+001  9.984480e+001 
4059375000  -2.664520e+001  1.021216e+002 
4062500000  -2.526959e+001  9.766018e+001 
4065625000  -2.506056e+001  9.365157e+001 
4068750000  -2.478895e+001  8.878747e+001 
4071875000  -2.417949e+001  8.092377e+001 
4075000000  -2.445997e+001  7.463120e+001 
4078125000  -2.506893e+001  7.394266e+001 
4081250000  -2.459653e+001  7.146534e+001 
4084375000  -2.416992e+001  6.504272e+001 
4087500000  -2.448687e+001  5.877364e+001 
4090625000  -2.501281e+001  5.718602e+001 
4093750000  -2.491602e+001  5.847608e+001 
4096875000  -2.446115e+001  5.241010e+001 
4100000000  -2.510613e+001  4.552566e+001 
4103125000  -2.598299e+001  4.581475e+001 
4106250000  -2.587562e+001  5.048241e+001 
4109375000  -2.498128e+001  5.035972e+001 
4112500000  -2.444313e+001  4.396677e+001 
4115625000  -2.471948e+001  3.939573e+001 
4118750000  -2.486016e+001  3.663161e+001 
4121875000  -2.445967e+001  3.217540e+001 
4125000000  -2.477379e+001  2.694598e+001 
4128125000  -2.571621e+001  2.679642e+001 
4131250000  -2.556261e+001  3.449757e+001 
4134375000  -2.328839e+001  3.072558e+001 
4137500000  -2.296906e+001  1.188049e+001 
4140625000  -2.508006e+001  4.332709e+000 
4143750000  -2.642556e+001  8.956206e+000 
4146875000  -2.608530e+001  1.643942e+001 
4150000000  -2.516135e+001  1.329507e+001 
4153125000  -2.497394e+001  6.859483e+000 
4156250000  -2.582801e+001  4.129609e+000 
4159375000  -2.622486e+001  8.234737e+000 
4162500000  -2.506780e+001  1.263953e+001 
4165625000  -2.392606e+001  8.964029e+000 
4168750000  -2.330338e+001  1.872633e+000 
4171875000  -2.333427e+001  -7.470140e+000 
4175000000  -2.388166e+001  -1.308901e+001 
4178125000  -2.452353e+001  -1.325903e+001 
4181250000  -2.441267e+001  -1.345389e+001 
4184375000  -2.430174e+001  -1.655512e+001 
4187500000  -2.431710e+001  -1.920584e+001 
4190625000  -2.408714e+001  -2.456949e+001 
4193750000  -2.489493e+001  -2.797614e+001 
4196875000  -2.558866e+001  -2.871421e+001 
4200000000  -2.642288e+001  -2.652962e+001 
4203125000  -2.657986e+001  -1.418410e+001 
4206250000  -2.325261e+001  -1.146474e+001 
4209375000  -2.190554e+001  -3.148409e+001 
4212500000  -2.376624e+001  -4.105287e+001 
4215625000  -2.483375e+001  -3.489965e+001 
4218750000  -2.359104e+001  -2.784488e+001 
4221875000  -2.124104e+001  -3.684895e+001 
4225000000  -2.240602e+001  -5.001529e+001 
4228125000  -2.315669e+001  -4.442361e+001 
4231250000  -2.160379e+001  -4.808488e+001 
4234375000  -2.151194e+001  -5.646978e+001 
4237500000  -2.111108e+001  -5.939291e+001 
4240625000  -2.109656e+001  -6.798996e+001 
4243750000  -2.205696e+001  -7.474669e+001 
4246875000  -2.291123e+001  -7.523586e+001 
4250000000  -2.299519e+001  -7.222498e+001 
4253125000  -2.234991e+001  -7.419087e+001 
4256250000  -2.269655e+001  -7.844871e+001 
4259375000  -2.249665e+001  -8.014646e+001 
4262500000  -2.243773e+001  -8.436905e+001 
4265625000  -2.263153e+001  -8.378265e+001 
4268750000  -2.178883e+001  -8.775356e+001 
4271875000  -2.149932e+001  -9.317912e+001 
4275000000  -2.088630e+001  -9.966209e+001 
4278125000  -2.147678e+001  -1.108470e+002 
4281250000  -2.324956e+001  -1.134125e+002 
4284375000  -2.306649e+001  -1.122475e+002 
4287500000  -2.372357e+001  -1.162103e+002 
4290625000  -2.500228e+001  -1.068825e+002 
4293750000  -2.308539e+001  -1.006662e+002 
4296875000  -2.171871e+001  -1.120387e+002 
4300000000  -2.251793e+001  -1.217583e+002 
4303125000  -2.362643e+001  -1.206891e+002 
4306250000  -2.319028e+001  -1.143570e+002 
4309375000  -2.175394e+001  -1.163637e+002 
4312500000  -2.162973e+001  -1.243942e+002 
4315625000  -2.183617e+001  -1.303258e+002 
4318750000  -2.217035e+001  -1.338646e+002 
4321875000  -2.232521e+001  -1.334401e+002 
4325000000  -2.176051e+001  -1.329070e+002 
4328125000  -2.130824e+001  -1.389948e+002 
4331250000  -2.121085e+001  -1.467220e+002 
4334375000  -2.160902e+001  -1.517452e+002 
4337500000  -2.236827e+001  -1.540377e+002 
4340625000  -2.298061e+001  -1.511484e+002 
4343750000  -2.240584e+001  -1.503129e+002 
4346875000  -2.203300e+001  -1.557336e+002 
4350000000  -2.200104e+001  -1.603400e+002 
4353125000  -2.200308e+001  -1.680763e+002 
4356250000  -2.365698e+001  -1.697083e+002 
4359375000  -2.435185e+001  -1.568677e+002 
4362500000  -2.184274e+001  -1.540661e+002 
4365625000  -2.016152e+001  -1.653214e+002 
4368750000  -2.076569e+001  -1.775677e+002 
4371875000  -2.202210e+001  -1.772689e+002 
4375000000  -2.171441e+001  -1.756321e+002 
4378125000  -2.105787e+001  1.786177e+002 
4381250000  -2.121616e+001  1.727512e+002 
4384375000  -2.100604e+001  1.685608e+002 
4387500000  -2.169716e+001  1.627892e+002 
4390625000  -2.276017e+001  1.633932e+002 
4393750000  -2.214590e+001  1.656649e+002 
4396875000  -2.143683e+001  1.634313e+002 
4400000000  -2.092067e+001  1.565937e+002 
4403125000  -2.146668e+001  1.490210e+002 
4406250000  -2.236661e+001  1.474895e+002 
4409375000  -2.227558e+001  1.452107e+002 
4412500000  -2.331685e+001  1.424990e+002 
4415625000  -2.377576e+001  1.473145e+002 
4418750000  -2.256994e+001  1.519270e+002 
