!Agilent Technologies,E8363B,MY43030201,A.06.04.32
!Agilent E8363B: A.06.04.32
!Date: Tuesday, November 11, 2014 20:50:43
!Correction: S21(Response(S21)) 
!S1P File: Measurement: S21:
# Hz S  dB   R 50
3000000000  -2.657410e+001  1.531210e+002 
3003125000  -2.796206e+001  1.486955e+002 
3006250000  -2.803425e+001  1.455920e+002 
3009375000  -2.840127e+001  1.507269e+002 
3012500000  -2.784254e+001  1.505459e+002 
3015625000  -2.691945e+001  1.434462e+002 
3018750000  -2.777052e+001  1.427084e+002 
3021875000  -2.648163e+001  1.438899e+002 
3025000000  -2.516312e+001  1.408573e+002 
3028125000  -2.420729e+001  1.358609e+002 
3031250000  -2.315169e+001  1.247984e+002 
3034375000  -2.280616e+001  1.117076e+002 
3037500000  -2.315802e+001  9.967302e+001 
3040625000  -2.450162e+001  9.476598e+001 
3043750000  -2.518695e+001  9.045247e+001 
3046875000  -2.531606e+001  8.419401e+001 
3050000000  -2.705242e+001  7.734745e+001 
3053125000  -2.722190e+001  8.351880e+001 
3056250000  -2.651405e+001  8.676808e+001 
3059375000  -2.671888e+001  8.645219e+001 
3062500000  -2.524926e+001  8.242354e+001 
3065625000  -2.501703e+001  7.679089e+001 
3068750000  -2.474864e+001  6.987299e+001 
3071875000  -2.470045e+001  6.682298e+001 
3075000000  -2.464127e+001  6.302067e+001 
3078125000  -2.439152e+001  5.850737e+001 
3081250000  -2.502804e+001  5.430452e+001 
3084375000  -2.425125e+001  5.062636e+001 
3087500000  -2.414200e+001  4.700436e+001 
3090625000  -2.384230e+001  3.737360e+001 
3093750000  -2.429600e+001  2.937035e+001 
3096875000  -2.558938e+001  2.335279e+001 
3100000000  -2.572394e+001  2.188629e+001 
3103125000  -2.604709e+001  2.317908e+001 
3106250000  -2.580617e+001  1.975260e+001 
3109375000  -2.602196e+001  1.643393e+001 
3112500000  -2.615622e+001  1.548638e+001 
3115625000  -2.596326e+001  1.117120e+001 
3118750000  -2.645958e+001  1.194260e+001 
3121875000  -2.573257e+001  4.110012e+000 
3125000000  -2.694814e+001  8.571792e-001 
3128125000  -2.818514e+001  8.664074e+000 
3131250000  -2.596063e+001  9.045241e+000 
3134375000  -2.463695e+001  -4.360036e+000 
3137500000  -2.527690e+001  -1.806706e+001 
3140625000  -2.689881e+001  -1.968792e+001 
3143750000  -2.789750e+001  -1.564150e+001 
3146875000  -2.749071e+001  -1.388009e+001 
3150000000  -2.650112e+001  -1.143685e+001 
3153125000  -2.644218e+001  -1.944992e+001 
3156250000  -2.746652e+001  -1.398537e+001 
3159375000  -2.590248e+001  -1.088273e+001 
3162500000  -2.387913e+001  -2.384644e+001 
3165625000  -2.481973e+001  -3.480436e+001 
3168750000  -2.517300e+001  -3.389843e+001 
3171875000  -2.426216e+001  -3.816029e+001 
3175000000  -2.487060e+001  -4.601051e+001 
3178125000  -2.469600e+001  -4.431305e+001 
3181250000  -2.348466e+001  -4.807431e+001 
3184375000  -2.270867e+001  -6.038832e+001 
3187500000  -2.382215e+001  -7.552759e+001 
3190625000  -2.660306e+001  -8.295952e+001 
3193750000  -2.718400e+001  -7.348394e+001 
3196875000  -2.672442e+001  -6.795251e+001 
3200000000  -2.587977e+001  -6.986784e+001 
3203125000  -2.501713e+001  -7.541765e+001 
3206250000  -2.526045e+001  -8.172086e+001 
3209375000  -2.481668e+001  -8.681187e+001 
3212500000  -2.494617e+001  -9.338715e+001 
3215625000  -2.512012e+001  -9.761217e+001 
3218750000  -2.584505e+001  -1.039146e+002 
3221875000  -2.683537e+001  -1.087935e+002 
3225000000  -2.642359e+001  -1.096242e+002 
3228125000  -2.673660e+001  -1.143101e+002 
3231250000  -2.749808e+001  -1.168207e+002 
3234375000  -2.736497e+001  -1.155560e+002 
3237500000  -2.738622e+001  -1.174818e+002 
3240625000  -2.698160e+001  -1.192849e+002 
3243750000  -2.665784e+001  -1.257461e+002 
3246875000  -2.715162e+001  -1.324714e+002 
3250000000  -2.759131e+001  -1.341217e+002 
3253125000  -2.773018e+001  -1.360043e+002 
3256250000  -2.760757e+001  -1.415632e+002 
3259375000  -2.795304e+001  -1.498174e+002 
3262500000  -2.916382e+001  -1.520767e+002 
3265625000  -2.988247e+001  -1.492365e+002 
3268750000  -2.975778e+001  -1.461697e+002 
3271875000  -2.962343e+001  -1.451848e+002 
3275000000  -2.847418e+001  -1.500070e+002 
3278125000  -2.895376e+001  -1.567795e+002 
3281250000  -2.925238e+001  -1.546423e+002 
3284375000  -2.880864e+001  -1.604379e+002 
3287500000  -2.895934e+001  -1.634003e+002 
3290625000  -2.937559e+001  -1.680280e+002 
3293750000  -2.913947e+001  -1.729915e+002 
3296875000  -3.006142e+001  -1.735488e+002 
3300000000  -2.997074e+001  -1.719167e+002 
3303125000  -2.882303e+001  -1.760208e+002 
3306250000  -2.862809e+001  1.771140e+002 
3309375000  -2.839452e+001  1.723082e+002 
3312500000  -2.841062e+001  1.623394e+002 
3315625000  -2.944196e+001  1.542977e+002 
3318750000  -3.072702e+001  1.517668e+002 
3321875000  -3.195695e+001  1.518177e+002 
3325000000  -3.251646e+001  1.566109e+002 
3328125000  -3.228950e+001  1.578990e+002 
3331250000  -3.123536e+001  1.662248e+002 
3334375000  -2.856519e+001  1.560845e+002 
3337500000  -2.864432e+001  1.379251e+002 
3340625000  -2.990431e+001  1.268645e+002 
3343750000  -3.189363e+001  1.253456e+002 
3346875000  -3.244892e+001  1.271423e+002 
3350000000  -3.177932e+001  1.257289e+002 
3353125000  -3.186550e+001  1.221368e+002 
3356250000  -3.154310e+001  1.138398e+002 
3359375000  -3.238341e+001  1.061071e+002 
3362500000  -3.375349e+001  1.005303e+002 
3365625000  -3.430750e+001  9.829131e+001 
3368750000  -3.522109e+001  9.744162e+001 
3371875000  -3.568426e+001  9.352520e+001 
3375000000  -3.713260e+001  9.190102e+001 
3378125000  -3.826449e+001  8.969398e+001 
3381250000  -3.947783e+001  9.962051e+001 
3384375000  -3.890012e+001  1.198759e+002 
3387500000  -3.564703e+001  1.064958e+002 
3390625000  -3.752900e+001  8.723042e+001 
3393750000  -3.919894e+001  9.148454e+001 
3396875000  -3.830277e+001  9.409270e+001 
3400000000  -3.816629e+001  8.737265e+001 
3403125000  -3.931021e+001  8.309060e+001 
3406250000  -3.995240e+001  8.547373e+001 
3409375000  -4.073829e+001  8.126701e+001 
3412500000  -4.167339e+001  8.298417e+001 
3415625000  -4.236105e+001  8.570322e+001 
3418750000  -4.286221e+001  8.959945e+001 
3421875000  -4.305022e+001  9.552512e+001 
3425000000  -4.234548e+001  9.895045e+001 
3428125000  -4.134152e+001  9.785510e+001 
3431250000  -4.100586e+001  9.428230e+001 
3434375000  -4.097521e+001  9.147705e+001 
3437500000  -4.154470e+001  8.967842e+001 
3440625000  -4.169290e+001  9.410654e+001 
3443750000  -4.042358e+001  9.471388e+001 
3446875000  -3.967337e+001  8.978413e+001 
3450000000  -3.963875e+001  8.186498e+001 
3453125000  -3.970874e+001  7.202626e+001 
3456250000  -4.106757e+001  6.617155e+001 
3459375000  -4.178103e+001  6.926231e+001 
3462500000  -4.229115e+001  6.944138e+001 
3465625000  -4.245155e+001  6.534657e+001 
3468750000  -4.251484e+001  6.337054e+001 
3471875000  -4.281732e+001  6.376974e+001 
3475000000  -4.246097e+001  5.852254e+001 
3478125000  -4.335071e+001  5.442467e+001 
3481250000  -4.453592e+001  5.228408e+001 
3484375000  -4.607457e+001  5.852609e+001 
3487500000  -4.571751e+001  6.061469e+001 
3490625000  -4.484143e+001  5.907892e+001 
3493750000  -4.572173e+001  5.511251e+001 
3496875000  -4.718272e+001  5.431699e+001 
3500000000  -4.775106e+001  6.036604e+001 
3503125000  -4.726340e+001  6.505862e+001 
3506250000  -4.650277e+001  6.988331e+001 
3509375000  -4.689791e+001  6.629156e+001 
3512500000  -4.787577e+001  6.302858e+001 
3515625000  -4.784509e+001  7.157251e+001 
3518750000  -4.877330e+001  7.123550e+001 
3521875000  -4.810432e+001  7.801540e+001 
3525000000  -4.878402e+001  7.780474e+001 
3528125000  -4.828688e+001  9.178714e+001 
3531250000  -4.642725e+001  9.407894e+001 
3534375000  -4.524504e+001  8.622523e+001 
3537500000  -4.548333e+001  8.138217e+001 
3540625000  -4.589922e+001  8.357557e+001 
3543750000  -4.630263e+001  8.649039e+001 
3546875000  -4.553938e+001  9.553456e+001 
3550000000  -4.341400e+001  1.014669e+002 
3553125000  -4.187016e+001  8.202345e+001 
3556250000  -4.288458e+001  7.776936e+001 
3559375000  -4.271863e+001  8.034729e+001 
3562500000  -4.146241e+001  7.339177e+001 
3565625000  -4.241049e+001  6.839559e+001 
3568750000  -4.208892e+001  7.123399e+001 
3571875000  -4.199173e+001  6.995569e+001 
3575000000  -4.146828e+001  6.762115e+001 
3578125000  -4.195789e+001  6.156276e+001 
3581250000  -4.191588e+001  6.293044e+001 
3584375000  -4.100804e+001  6.162617e+001 
3587500000  -4.010758e+001  5.612294e+001 
3590625000  -4.053844e+001  4.778935e+001 
3593750000  -4.156404e+001  4.647877e+001 
3596875000  -4.175004e+001  5.416171e+001 
3600000000  -3.997582e+001  5.128857e+001 
3603125000  -4.028913e+001  3.824632e+001 
3606250000  -4.083177e+001  3.664945e+001 
3609375000  -4.107287e+001  3.561718e+001 
3612500000  -4.166543e+001  3.350213e+001 
3615625000  -4.143436e+001  3.182053e+001 
3618750000  -4.201212e+001  3.455169e+001 
3621875000  -4.152689e+001  3.142111e+001 
3625000000  -4.190680e+001  3.238634e+001 
3628125000  -4.188540e+001  3.033304e+001 
3631250000  -4.137289e+001  2.660135e+001 
3634375000  -4.242524e+001  2.697614e+001 
3637500000  -4.230213e+001  3.379453e+001 
3640625000  -4.095652e+001  3.298923e+001 
3643750000  -4.065398e+001  2.768202e+001 
3646875000  -4.125336e+001  2.141841e+001 
3650000000  -4.159189e+001  2.258899e+001 
3653125000  -4.126690e+001  2.252881e+001 
3656250000  -4.154987e+001  2.118460e+001 
3659375000  -4.189779e+001  2.303086e+001 
3662500000  -4.127715e+001  2.178440e+001 
3665625000  -4.146817e+001  2.330065e+001 
3668750000  -4.010453e+001  2.452943e+001 
3671875000  -3.921555e+001  2.125142e+001 
3675000000  -3.982741e+001  1.348526e+001 
3678125000  -4.049928e+001  1.662510e+001 
3681250000  -3.997945e+001  1.612189e+001 
3684375000  -3.972611e+001  1.478598e+001 
3687500000  -3.991322e+001  1.483567e+001 
3690625000  -3.989040e+001  1.159025e+001 
3693750000  -4.051059e+001  1.392020e+001 
3696875000  -4.002947e+001  1.687107e+001 
3700000000  -3.901649e+001  1.544466e+001 
3703125000  -3.873417e+001  1.281289e+001 
3706250000  -3.972172e+001  1.251206e+001 
3709375000  -3.847072e+001  1.598625e+001 
3712500000  -3.759058e+001  1.789253e+001 
3715625000  -3.639292e+001  1.064803e+001 
3718750000  -3.567166e+001  8.440468e+000 
3721875000  -3.528598e+001  2.946980e+000 
3725000000  -3.519652e+001  -1.651699e+000 
3728125000  -3.546685e+001  -3.131900e+000 
3731250000  -3.467266e+001  -2.861373e+000 
3734375000  -3.370720e+001  -9.919397e+000 
3737500000  -3.423178e+001  -1.643973e+001 
3740625000  -3.489494e+001  -2.067555e+001 
3743750000  -3.453581e+001  -2.237815e+001 
3746875000  -3.457103e+001  -2.531949e+001 
3750000000  -3.502336e+001  -2.647753e+001 
3753125000  -3.455122e+001  -2.765563e+001 
3756250000  -3.456895e+001  -2.839122e+001 
3759375000  -3.433662e+001  -2.807517e+001 
3762500000  -3.383289e+001  -3.320122e+001 
3765625000  -3.419318e+001  -3.572638e+001 
3768750000  -3.431464e+001  -3.352617e+001 
3771875000  -3.242397e+001  -3.532727e+001 
3775000000  -3.227816e+001  -4.335733e+001 
3778125000  -3.259629e+001  -4.515095e+001 
3781250000  -3.240380e+001  -4.842444e+001 
3784375000  -3.232870e+001  -4.994648e+001 
3787500000  -3.178345e+001  -5.330259e+001 
3790625000  -3.236347e+001  -5.933333e+001 
3793750000  -3.241289e+001  -5.979913e+001 
3796875000  -3.162221e+001  -6.099273e+001 
3800000000  -3.005429e+001  -6.479623e+001 
3803125000  -3.080936e+001  -7.173011e+001 
3806250000  -3.133160e+001  -7.404230e+001 
3809375000  -3.120231e+001  -7.496606e+001 
3812500000  -3.057632e+001  -7.979710e+001 
3815625000  -3.103978e+001  -8.761455e+001 
3818750000  -3.208965e+001  -8.880740e+001 
3821875000  -3.209350e+001  -8.001572e+001 
3825000000  -3.031627e+001  -7.523065e+001 
3828125000  -2.889607e+001  -8.898869e+001 
3831250000  -2.945111e+001  -1.031112e+002 
3834375000  -3.070774e+001  -1.037710e+002 
3837500000  -3.157597e+001  -9.926257e+001 
3840625000  -3.052864e+001  -1.000471e+002 
3843750000  -2.931879e+001  -1.099487e+002 
3846875000  -2.999405e+001  -1.176617e+002 
3850000000  -3.122969e+001  -1.120706e+002 
3853125000  -3.046628e+001  -1.087897e+002 
3856250000  -3.051333e+001  -1.135884e+002 
3859375000  -2.969679e+001  -1.180386e+002 
3862500000  -2.928062e+001  -1.254971e+002 
3865625000  -2.958570e+001  -1.304809e+002 
3868750000  -2.955796e+001  -1.308005e+002 
3871875000  -2.884212e+001  -1.335992e+002 
3875000000  -2.901693e+001  -1.424075e+002 
3878125000  -3.006073e+001  -1.452340e+002 
3881250000  -3.011662e+001  -1.416700e+002 
3884375000  -2.964642e+001  -1.465384e+002 
3887500000  -2.968043e+001  -1.510154e+002 
3890625000  -3.023227e+001  -1.538971e+002 
3893750000  -3.066074e+001  -1.548425e+002 
3896875000  -3.080528e+001  -1.544615e+002 
3900000000  -3.097799e+001  -1.547702e+002 
3903125000  -3.072543e+001  -1.572351e+002 
3906250000  -3.042233e+001  -1.578272e+002 
3909375000  -2.971062e+001  -1.605725e+002 
3912500000  -2.978074e+001  -1.680420e+002 
3915625000  -3.102771e+001  -1.672287e+002 
3918750000  -3.104984e+001  -1.652808e+002 
3921875000  -3.066027e+001  -1.670927e+002 
3925000000  -2.993673e+001  -1.671729e+002 
3928125000  -2.922888e+001  -1.727823e+002 
3931250000  -2.965957e+001  -1.771159e+002 
3934375000  -2.991113e+001  -1.763625e+002 
3937500000  -3.000284e+001  -1.777921e+002 
3940625000  -3.050921e+001  -1.768441e+002 
3943750000  -2.953576e+001  -1.759116e+002 
3946875000  -2.834501e+001  1.788294e+002 
3950000000  -2.884434e+001  1.716817e+002 
3953125000  -2.967037e+001  1.725627e+002 
3956250000  -2.898940e+001  1.754122e+002 
3959375000  -2.750103e+001  1.717710e+002 
3962500000  -2.695685e+001  1.683089e+002 
3965625000  -2.662714e+001  1.595525e+002 
3968750000  -2.758066e+001  1.525628e+002 
3971875000  -2.787820e+001  1.510328e+002 
3975000000  -2.727055e+001  1.489940e+002 
3978125000  -2.706099e+001  1.479899e+002 
3981250000  -2.681250e+001  1.435712e+002 
3984375000  -2.698774e+001  1.372765e+002 
3987500000  -2.754788e+001  1.350338e+002 
3990625000  -2.753703e+001  1.340096e+002 
3993750000  -2.765560e+001  1.308059e+002 
3996875000  -2.761146e+001  1.282944e+002 
4000000000  -2.778212e+001  1.257517e+002 
4003125000  -2.832674e+001  1.281544e+002 
4006250000  -2.696793e+001  1.284803e+002 
4009375000  -2.577643e+001  1.157883e+002 
4012500000  -2.680903e+001  1.092019e+002 
4015625000  -2.808071e+001  1.093928e+002 
4018750000  -2.832821e+001  1.116948e+002 
4021875000  -2.759208e+001  1.096901e+002 
4025000000  -2.726680e+001  1.056205e+002 
4028125000  -2.721564e+001  1.014921e+002 
4031250000  -2.763921e+001  9.800597e+001 
4034375000  -2.799164e+001  9.847626e+001 
4037500000  -2.743389e+001  1.001330e+002 
4040625000  -2.738387e+001  9.638307e+001 
4043750000  -2.775861e+001  9.591574e+001 
4046875000  -2.731420e+001  9.560699e+001 
4050000000  -2.676463e+001  9.026831e+001 
4053125000  -2.727358e+001  8.827467e+001 
4056250000  -2.782860e+001  9.175014e+001 
4059375000  -2.668960e+001  9.441338e+001 
4062500000  -2.527173e+001  9.029146e+001 
4065625000  -2.508276e+001  8.531013e+001 
4068750000  -2.487873e+001  8.083455e+001 
4071875000  -2.421543e+001  7.336162e+001 
4075000000  -2.453326e+001  6.677357e+001 
4078125000  -2.513456e+001  6.611510e+001 
4081250000  -2.455069e+001  6.332259e+001 
4084375000  -2.416188e+001  5.711149e+001 
4087500000  -2.449997e+001  5.103313e+001 
4090625000  -2.509671e+001  4.959195e+001 
4093750000  -2.495580e+001  5.045125e+001 
4096875000  -2.444150e+001  4.475129e+001 
4100000000  -2.512313e+001  3.757893e+001 
4103125000  -2.601045e+001  3.810704e+001 
4106250000  -2.588174e+001  4.274788e+001 
4109375000  -2.494748e+001  4.211459e+001 
4112500000  -2.440591e+001  3.580655e+001 
4115625000  -2.470298e+001  3.128198e+001 
4118750000  -2.482131e+001  2.856139e+001 
4121875000  -2.441348e+001  2.380242e+001 
4125000000  -2.476036e+001  1.858289e+001 
4128125000  -2.580395e+001  1.843871e+001 
4131250000  -2.546455e+001  2.657807e+001 
4134375000  -2.316705e+001  2.216111e+001 
4137500000  -2.293794e+001  3.543174e+000 
4140625000  -2.510354e+001  -4.012402e+000 
4143750000  -2.642481e+001  1.166300e+000 
4146875000  -2.602779e+001  8.500822e+000 
4150000000  -2.515330e+001  4.853069e+000 
4153125000  -2.499909e+001  -1.286607e+000 
4156250000  -2.586249e+001  -4.140956e+000 
4159375000  -2.613688e+001  2.830853e-001 
4162500000  -2.499968e+001  4.736457e+000 
4165625000  -2.383252e+001  4.439769e-001 
4168750000  -2.330577e+001  -6.542502e+000 
4171875000  -2.326692e+001  -1.528044e+001 
4175000000  -2.388380e+001  -2.125807e+001 
4178125000  -2.450681e+001  -2.130758e+001 
4181250000  -2.437819e+001  -2.176509e+001 
4184375000  -2.424000e+001  -2.508275e+001 
4187500000  -2.426091e+001  -2.757585e+001 
4190625000  -2.411637e+001  -3.296861e+001 
4193750000  -2.484394e+001  -3.659530e+001 
4196875000  -2.554452e+001  -3.682397e+001 
4200000000  -2.636071e+001  -3.484376e+001 
4203125000  -2.648182e+001  -2.114312e+001 
4206250000  -2.315226e+001  -1.954915e+001 
4209375000  -2.190256e+001  -3.989585e+001 
4212500000  -2.380711e+001  -4.887129e+001 
4215625000  -2.483623e+001  -4.293486e+001 
4218750000  -2.349701e+001  -3.540979e+001 
4221875000  -2.115974e+001  -4.495627e+001 
4225000000  -2.239526e+001  -5.755654e+001 
4228125000  -2.305083e+001  -5.266616e+001 
4231250000  -2.151155e+001  -5.636482e+001 
4234375000  -2.144390e+001  -6.455786e+001 
4237500000  -2.097069e+001  -6.809084e+001 
4240625000  -2.099585e+001  -7.655433e+001 
4243750000  -2.198785e+001  -8.342140e+001 
4246875000  -2.285239e+001  -8.357483e+001 
4250000000  -2.288009e+001  -8.075020e+001 
4253125000  -2.228613e+001  -8.249105e+001 
4256250000  -2.256977e+001  -8.679965e+001 
4259375000  -2.232017e+001  -8.881811e+001 
4262500000  -2.232175e+001  -9.271501e+001 
4265625000  -2.246991e+001  -9.226044e+001 
4268750000  -2.157860e+001  -9.630386e+001 
4271875000  -2.137727e+001  -1.021523e+002 
4275000000  -2.078041e+001  -1.084718e+002 
4278125000  -2.138267e+001  -1.198818e+002 
4281250000  -2.319598e+001  -1.220303e+002 
4284375000  -2.289128e+001  -1.211719e+002 
4287500000  -2.364560e+001  -1.248704e+002 
4290625000  -2.500681e+001  -1.153365e+002 
4293750000  -2.300022e+001  -1.098314e+002 
4296875000  -2.165125e+001  -1.212869e+002 
4300000000  -2.245257e+001  -1.304106e+002 
4303125000  -2.360171e+001  -1.290559e+002 
4306250000  -2.297259e+001  -1.231310e+002 
4309375000  -2.163263e+001  -1.252648e+002 
4312500000  -2.151004e+001  -1.332965e+002 
4315625000  -2.171505e+001  -1.396674e+002 
4318750000  -2.207158e+001  -1.427393e+002 
4321875000  -2.224473e+001  -1.422212e+002 
4325000000  -2.166358e+001  -1.414797e+002 
4328125000  -2.117850e+001  -1.480610e+002 
4331250000  -2.112010e+001  -1.558405e+002 
4334375000  -2.153391e+001  -1.609947e+002 
4337500000  -2.235854e+001  -1.630770e+002 
4340625000  -2.289094e+001  -1.596564e+002 
4343750000  -2.228184e+001  -1.590501e+002 
4346875000  -2.193454e+001  -1.644285e+002 
4350000000  -2.190305e+001  -1.693401e+002 
4353125000  -2.191405e+001  -1.769625e+002 
4356250000  -2.362466e+001  -1.779076e+002 
4359375000  -2.424018e+001  -1.649096e+002 
4362500000  -2.164536e+001  -1.628727e+002 
4365625000  -1.995823e+001  -1.745243e+002 
4368750000  -2.070922e+001  1.735563e+002 
4371875000  -2.187943e+001  1.739739e+002 
4375000000  -2.151473e+001  1.754722e+002 
4378125000  -2.092233e+001  1.692357e+002 
4381250000  -2.105936e+001  1.639737e+002 
4384375000  -2.084904e+001  1.592955e+002 
4387500000  -2.160733e+001  1.536799e+002 
4390625000  -2.259498e+001  1.543040e+002 
4393750000  -2.196753e+001  1.562834e+002 
4396875000  -2.124215e+001  1.541996e+002 
4400000000  -2.079207e+001  1.470931e+002 
4403125000  -2.129759e+001  1.394834e+002 
4406250000  -2.220112e+001  1.382605e+002 
4409375000  -2.215408e+001  1.359492e+002 
4412500000  -2.315119e+001  1.330854e+002 
4415625000  -2.356953e+001  1.379669e+002 
4418750000  -2.241933e+001  1.426131e+002 
