!Agilent Technologies,E8363B,MY43030201,A.06.04.32
!Agilent E8363B: A.06.04.32
!Date: Tuesday, November 11, 2014 20:46:23
!Correction: S21(Response(S21)) 
!S1P File: Measurement: S21:
# Hz S  dB   R 50
3000000000  -2.649830e+001  1.566390e+002 
3003125000  -2.783811e+001  1.522095e+002 
3006250000  -2.789665e+001  1.492868e+002 
3009375000  -2.822480e+001  1.541041e+002 
3012500000  -2.776366e+001  1.543636e+002 
3015625000  -2.679552e+001  1.470609e+002 
3018750000  -2.764512e+001  1.461809e+002 
3021875000  -2.642689e+001  1.474400e+002 
3025000000  -2.512071e+001  1.445773e+002 
3028125000  -2.413333e+001  1.396295e+002 
3031250000  -2.307210e+001  1.285627e+002 
3034375000  -2.269559e+001  1.155963e+002 
3037500000  -2.302441e+001  1.034476e+002 
3040625000  -2.434182e+001  9.852906e+001 
3043750000  -2.508667e+001  9.416747e+001 
3046875000  -2.516786e+001  8.768812e+001 
3050000000  -2.692966e+001  8.054422e+001 
3053125000  -2.709378e+001  8.718637e+001 
3056250000  -2.641281e+001  9.013445e+001 
3059375000  -2.667498e+001  8.983340e+001 
3062500000  -2.522599e+001  8.596202e+001 
3065625000  -2.500322e+001  8.039862e+001 
3068750000  -2.470886e+001  7.362828e+001 
3071875000  -2.464356e+001  7.034433e+001 
3075000000  -2.465529e+001  6.687814e+001 
3078125000  -2.435005e+001  6.235189e+001 
3081250000  -2.500154e+001  5.825651e+001 
3084375000  -2.426497e+001  5.432288e+001 
3087500000  -2.412280e+001  5.092715e+001 
3090625000  -2.382162e+001  4.148877e+001 
3093750000  -2.421065e+001  3.314188e+001 
3096875000  -2.553860e+001  2.719235e+001 
3100000000  -2.572538e+001  2.578884e+001 
3103125000  -2.603654e+001  2.690822e+001 
3106250000  -2.581293e+001  2.383283e+001 
3109375000  -2.603935e+001  2.007262e+001 
3112500000  -2.618532e+001  1.914447e+001 
3115625000  -2.595597e+001  1.514820e+001 
3118750000  -2.643042e+001  1.638479e+001 
3121875000  -2.581874e+001  8.373664e+000 
3125000000  -2.689287e+001  4.729745e+000 
3128125000  -2.815828e+001  1.246805e+001 
3131250000  -2.601972e+001  1.344000e+001 
3134375000  -2.462935e+001  -3.399921e-002 
3137500000  -2.526643e+001  -1.406004e+001 
3140625000  -2.696689e+001  -1.567216e+001 
3143750000  -2.792695e+001  -1.123888e+001 
3146875000  -2.758362e+001  -9.677560e+000 
3150000000  -2.653775e+001  -7.062238e+000 
3153125000  -2.651598e+001  -1.482598e+001 
3156250000  -2.750758e+001  -9.715590e+000 
3159375000  -2.599901e+001  -6.735416e+000 
3162500000  -2.392893e+001  -1.925196e+001 
3165625000  -2.480375e+001  -3.047113e+001 
3168750000  -2.525237e+001  -2.937823e+001 
3171875000  -2.428825e+001  -3.366515e+001 
3175000000  -2.487166e+001  -4.137796e+001 
3178125000  -2.470615e+001  -3.980424e+001 
3181250000  -2.351518e+001  -4.365457e+001 
3184375000  -2.271156e+001  -5.589032e+001 
3187500000  -2.375466e+001  -7.127219e+001 
3190625000  -2.661371e+001  -7.887540e+001 
3193750000  -2.723393e+001  -6.917332e+001 
3196875000  -2.679017e+001  -6.373693e+001 
3200000000  -2.597911e+001  -6.556393e+001 
3203125000  -2.504346e+001  -7.107613e+001 
3206250000  -2.536416e+001  -7.715321e+001 
3209375000  -2.490421e+001  -8.256998e+001 
3212500000  -2.502983e+001  -8.899830e+001 
3215625000  -2.513410e+001  -9.401496e+001 
3218750000  -2.591287e+001  -9.976773e+001 
3221875000  -2.689568e+001  -1.049562e+002 
3225000000  -2.654104e+001  -1.056344e+002 
3228125000  -2.685128e+001  -1.097959e+002 
3231250000  -2.757274e+001  -1.125812e+002 
3234375000  -2.748556e+001  -1.118878e+002 
3237500000  -2.752232e+001  -1.132179e+002 
3240625000  -2.718748e+001  -1.149669e+002 
3243750000  -2.675283e+001  -1.216053e+002 
3246875000  -2.728097e+001  -1.279100e+002 
3250000000  -2.776714e+001  -1.299225e+002 
3253125000  -2.790585e+001  -1.319136e+002 
3256250000  -2.777885e+001  -1.374298e+002 
3259375000  -2.810330e+001  -1.453472e+002 
3262500000  -2.934668e+001  -1.483730e+002 
3265625000  -3.005562e+001  -1.448801e+002 
3268750000  -3.002859e+001  -1.424280e+002 
3271875000  -2.981138e+001  -1.408843e+002 
3275000000  -2.869332e+001  -1.455186e+002 
3278125000  -2.908931e+001  -1.520819e+002 
3281250000  -2.946260e+001  -1.502752e+002 
3284375000  -2.906636e+001  -1.560683e+002 
3287500000  -2.914981e+001  -1.591830e+002 
3290625000  -2.957200e+001  -1.630374e+002 
3293750000  -2.929303e+001  -1.684442e+002 
3296875000  -3.027221e+001  -1.687917e+002 
3300000000  -3.019383e+001  -1.673427e+002 
3303125000  -2.908960e+001  -1.715793e+002 
3306250000  -2.883861e+001  -1.783214e+002 
3309375000  -2.856426e+001  1.771012e+002 
3312500000  -2.859170e+001  1.666192e+002 
3315625000  -2.963169e+001  1.589265e+002 
3318750000  -3.093745e+001  1.558423e+002 
3321875000  -3.215559e+001  1.559392e+002 
3325000000  -3.267115e+001  1.599205e+002 
3328125000  -3.267201e+001  1.618923e+002 
3331250000  -3.142586e+001  1.700773e+002 
3334375000  -2.887419e+001  1.606941e+002 
3337500000  -2.894544e+001  1.421334e+002 
3340625000  -3.026407e+001  1.309542e+002 
3343750000  -3.215368e+001  1.294035e+002 
3346875000  -3.273627e+001  1.305915e+002 
3350000000  -3.205801e+001  1.299130e+002 
3353125000  -3.219867e+001  1.256389e+002 
3356250000  -3.193725e+001  1.176148e+002 
3359375000  -3.288959e+001  1.090777e+002 
3362500000  -3.402718e+001  1.035268e+002 
3365625000  -3.482118e+001  1.019404e+002 
3368750000  -3.569070e+001  1.010000e+002 
3371875000  -3.607749e+001  9.723859e+001 
3375000000  -3.765402e+001  9.518027e+001 
3378125000  -3.877906e+001  9.524776e+001 
3381250000  -4.038866e+001  1.020638e+002 
3384375000  -3.974846e+001  1.228180e+002 
3387500000  -3.637004e+001  1.097714e+002 
3390625000  -3.842078e+001  9.069892e+001 
3393750000  -4.006644e+001  9.466479e+001 
3396875000  -3.935892e+001  9.764200e+001 
3400000000  -3.946350e+001  9.101035e+001 
3403125000  -4.064471e+001  8.774556e+001 
3406250000  -4.125873e+001  8.921400e+001 
3409375000  -4.182555e+001  8.570335e+001 
3412500000  -4.280763e+001  8.692056e+001 
3415625000  -4.349907e+001  9.320629e+001 
3418750000  -4.402260e+001  1.004167e+002 
3421875000  -4.435266e+001  1.023249e+002 
3425000000  -4.319844e+001  1.089084e+002 
3428125000  -4.224049e+001  1.066642e+002 
3431250000  -4.247836e+001  1.039662e+002 
3434375000  -4.228018e+001  1.014525e+002 
3437500000  -4.224165e+001  9.888563e+001 
3440625000  -4.300061e+001  1.001395e+002 
3443750000  -4.146367e+001  1.054321e+002 
3446875000  -4.043904e+001  1.012128e+002 
3450000000  -4.036456e+001  9.113065e+001 
3453125000  -4.068892e+001  8.244629e+001 
3456250000  -4.175417e+001  7.839386e+001 
3459375000  -4.281208e+001  7.883854e+001 
3462500000  -4.290206e+001  8.078721e+001 
3465625000  -4.325584e+001  7.766090e+001 
3468750000  -4.334635e+001  7.404435e+001 
3471875000  -4.344189e+001  7.383783e+001 
3475000000  -4.334798e+001  7.246169e+001 
3478125000  -4.416332e+001  6.568213e+001 
3481250000  -4.506237e+001  6.471192e+001 
3484375000  -4.679926e+001  7.006770e+001 
3487500000  -4.644188e+001  7.244296e+001 
3490625000  -4.605367e+001  6.771049e+001 
3493750000  -4.654144e+001  6.881460e+001 
3496875000  -4.787073e+001  6.730620e+001 
3500000000  -4.829823e+001  8.176834e+001 
3503125000  -4.817008e+001  8.495853e+001 
3506250000  -4.751697e+001  8.460328e+001 
3509375000  -4.790423e+001  8.560191e+001 
3512500000  -4.802833e+001  8.309499e+001 
3515625000  -4.830784e+001  8.540864e+001 
3518750000  -4.830331e+001  9.206923e+001 
3521875000  -4.780561e+001  9.343282e+001 
3525000000  -4.754558e+001  9.761938e+001 
3528125000  -4.762905e+001  1.024734e+002 
3531250000  -4.557957e+001  1.061657e+002 
3534375000  -4.477562e+001  9.799993e+001 
3537500000  -4.460898e+001  9.104540e+001 
3540625000  -4.492169e+001  9.316705e+001 
3543750000  -4.536540e+001  9.572204e+001 
3546875000  -4.527271e+001  1.108387e+002 
3550000000  -4.271466e+001  1.102371e+002 
3553125000  -4.108871e+001  9.371030e+001 
3556250000  -4.222268e+001  8.741174e+001 
3559375000  -4.177603e+001  8.833203e+001 
3562500000  -4.046263e+001  8.173886e+001 
3565625000  -4.138400e+001  7.511589e+001 
3568750000  -4.160529e+001  7.837851e+001 
3571875000  -4.124222e+001  7.792835e+001 
3575000000  -4.078746e+001  7.347113e+001 
3578125000  -4.123629e+001  6.835629e+001 
3581250000  -4.152555e+001  6.897604e+001 
3584375000  -4.057845e+001  6.829636e+001 
3587500000  -3.978953e+001  6.199475e+001 
3590625000  -4.004220e+001  5.325997e+001 
3593750000  -4.109982e+001  5.185565e+001 
3596875000  -4.127687e+001  6.003393e+001 
3600000000  -3.948808e+001  5.686647e+001 
3603125000  -3.975056e+001  4.359290e+001 
3606250000  -4.064444e+001  4.125487e+001 
3609375000  -4.075547e+001  4.006789e+001 
3612500000  -4.142592e+001  3.761836e+001 
3615625000  -4.129942e+001  3.651927e+001 
3618750000  -4.192963e+001  3.750494e+001 
3621875000  -4.156799e+001  3.687557e+001 
3625000000  -4.174887e+001  3.494655e+001 
3628125000  -4.208122e+001  3.686191e+001 
3631250000  -4.138497e+001  3.237594e+001 
3634375000  -4.261732e+001  3.231168e+001 
3637500000  -4.219510e+001  3.997806e+001 
3640625000  -4.122158e+001  4.103168e+001 
3643750000  -4.104138e+001  3.559925e+001 
3646875000  -4.099004e+001  3.016545e+001 
3650000000  -4.167373e+001  2.956975e+001 
3653125000  -4.133646e+001  2.941615e+001 
3656250000  -4.162947e+001  2.839159e+001 
3659375000  -4.200383e+001  3.257161e+001 
3662500000  -4.143251e+001  3.046721e+001 
3665625000  -4.124354e+001  3.103643e+001 
3668750000  -4.041078e+001  3.210366e+001 
3671875000  -3.924138e+001  2.815396e+001 
3675000000  -3.979742e+001  2.198946e+001 
3678125000  -4.043360e+001  2.347857e+001 
3681250000  -3.999034e+001  2.434466e+001 
3684375000  -3.979465e+001  2.262844e+001 
3687500000  -3.984293e+001  2.125257e+001 
3690625000  -3.984318e+001  1.845021e+001 
3693750000  -4.036925e+001  2.177768e+001 
3696875000  -4.010900e+001  2.198204e+001 
3700000000  -3.880070e+001  2.209229e+001 
3703125000  -3.877575e+001  1.799344e+001 
3706250000  -3.948438e+001  1.999558e+001 
3709375000  -3.866179e+001  2.327887e+001 
3712500000  -3.767081e+001  2.304968e+001 
3715625000  -3.645592e+001  1.856276e+001 
3718750000  -3.581797e+001  1.548329e+001 
3721875000  -3.548493e+001  9.891884e+000 
3725000000  -3.532529e+001  4.575182e+000 
3728125000  -3.558222e+001  3.916592e+000 
3731250000  -3.488090e+001  4.385251e+000 
3734375000  -3.382477e+001  -1.755199e+000 
3737500000  -3.435957e+001  -1.065502e+001 
3740625000  -3.502061e+001  -1.232492e+001 
3743750000  -3.483313e+001  -1.469880e+001 
3746875000  -3.487649e+001  -1.763515e+001 
3750000000  -3.516458e+001  -1.876593e+001 
3753125000  -3.481845e+001  -1.979383e+001 
3756250000  -3.462265e+001  -2.024169e+001 
3759375000  -3.437169e+001  -1.966140e+001 
3762500000  -3.384358e+001  -2.433467e+001 
3765625000  -3.438796e+001  -2.682368e+001 
3768750000  -3.437518e+001  -2.486947e+001 
3771875000  -3.268516e+001  -2.730734e+001 
3775000000  -3.231017e+001  -3.476928e+001 
3778125000  -3.266001e+001  -3.664193e+001 
3781250000  -3.239389e+001  -3.926447e+001 
3784375000  -3.241656e+001  -4.062521e+001 
3787500000  -3.180477e+001  -4.474682e+001 
3790625000  -3.234828e+001  -5.100632e+001 
3793750000  -3.250362e+001  -5.115111e+001 
3796875000  -3.154365e+001  -5.287343e+001 
3800000000  -3.013838e+001  -5.648996e+001 
3803125000  -3.071256e+001  -6.311763e+001 
3806250000  -3.137236e+001  -6.495116e+001 
3809375000  -3.110694e+001  -6.682731e+001 
3812500000  -3.039861e+001  -7.144093e+001 
3815625000  -3.100606e+001  -7.948331e+001 
3818750000  -3.192698e+001  -8.091058e+001 
3821875000  -3.209420e+001  -7.296443e+001 
3825000000  -3.020789e+001  -6.811358e+001 
3828125000  -2.876486e+001  -8.093056e+001 
3831250000  -2.931818e+001  -9.536083e+001 
3834375000  -3.071857e+001  -9.718664e+001 
3837500000  -3.160548e+001  -9.169630e+001 
3840625000  -3.050921e+001  -9.284440e+001 
3843750000  -2.935756e+001  -1.021263e+002 
3846875000  -2.990129e+001  -1.099553e+002 
3850000000  -3.127411e+001  -1.048199e+002 
3853125000  -3.050627e+001  -1.022172e+002 
3856250000  -3.046078e+001  -1.061404e+002 
3859375000  -2.977438e+001  -1.110659e+002 
3862500000  -2.938706e+001  -1.179168e+002 
3865625000  -2.967000e+001  -1.224934e+002 
3868750000  -2.970283e+001  -1.225366e+002 
3871875000  -2.894522e+001  -1.257577e+002 
3875000000  -2.908112e+001  -1.347145e+002 
3878125000  -3.009974e+001  -1.372259e+002 
3881250000  -3.024724e+001  -1.337023e+002 
3884375000  -2.971355e+001  -1.377415e+002 
3887500000  -2.978742e+001  -1.420028e+002 
3890625000  -3.025475e+001  -1.445314e+002 
3893750000  -3.076708e+001  -1.457749e+002 
3896875000  -3.073159e+001  -1.452487e+002 
3900000000  -3.097199e+001  -1.461775e+002 
3903125000  -3.071680e+001  -1.488629e+002 
3906250000  -3.038070e+001  -1.496953e+002 
3909375000  -2.969729e+001  -1.510307e+002 
3912500000  -2.961176e+001  -1.585714e+002 
3915625000  -3.082157e+001  -1.587491e+002 
3918750000  -3.089156e+001  -1.567936e+002 
3921875000  -3.057163e+001  -1.581403e+002 
3925000000  -2.971824e+001  -1.590045e+002 
3928125000  -2.905494e+001  -1.648289e+002 
3931250000  -2.944330e+001  -1.686043e+002 
3934375000  -2.968673e+001  -1.685985e+002 
3937500000  -2.982521e+001  -1.694326e+002 
3940625000  -3.025407e+001  -1.698506e+002 
3943750000  -2.939965e+001  -1.679112e+002 
3946875000  -2.812471e+001  -1.731694e+002 
3950000000  -2.853154e+001  1.791327e+002 
3953125000  -2.957005e+001  1.789821e+002 
3956250000  -2.877306e+001  -1.778559e+002 
3959375000  -2.744020e+001  1.788738e+002 
3962500000  -2.687000e+001  1.751579e+002 
3965625000  -2.654117e+001  1.661640e+002 
3968750000  -2.749034e+001  1.594424e+002 
3971875000  -2.790545e+001  1.578276e+002 
3975000000  -2.719587e+001  1.562573e+002 
3978125000  -2.696353e+001  1.548589e+002 
3981250000  -2.680241e+001  1.502350e+002 
3984375000  -2.702939e+001  1.440236e+002 
3987500000  -2.757735e+001  1.420490e+002 
3990625000  -2.749159e+001  1.408978e+002 
3993750000  -2.779132e+001  1.377281e+002 
3996875000  -2.775947e+001  1.357052e+002 
4000000000  -2.782901e+001  1.337598e+002 
4003125000  -2.844060e+001  1.359460e+002 
4006250000  -2.707322e+001  1.364291e+002 
4009375000  -2.586730e+001  1.240397e+002 
4012500000  -2.682820e+001  1.170185e+002 
4015625000  -2.808350e+001  1.179342e+002 
4018750000  -2.829787e+001  1.201473e+002 
4021875000  -2.768003e+001  1.188956e+002 
4025000000  -2.719720e+001  1.136363e+002 
4028125000  -2.717766e+001  1.099099e+002 
4031250000  -2.758989e+001  1.070075e+002 
4034375000  -2.783237e+001  1.063682e+002 
4037500000  -2.739264e+001  1.087839e+002 
4040625000  -2.724320e+001  1.049614e+002 
4043750000  -2.755775e+001  1.045974e+002 
4046875000  -2.715011e+001  1.042803e+002 
4050000000  -2.663556e+001  9.845724e+001 
4053125000  -2.706611e+001  9.579285e+001 
4056250000  -2.769722e+001  9.977872e+001 
4059375000  -2.653964e+001  1.018454e+002 
4062500000  -2.513985e+001  9.739838e+001 
4065625000  -2.495009e+001  9.278692e+001 
4068750000  -2.470794e+001  8.784607e+001 
4071875000  -2.405102e+001  8.004924e+001 
4075000000  -2.441210e+001  7.361819e+001 
4078125000  -2.501641e+001  7.260368e+001 
4081250000  -2.449796e+001  7.052209e+001 
4084375000  -2.412350e+001  6.380520e+001 
4087500000  -2.447241e+001  5.725686e+001 
4090625000  -2.505139e+001  5.615322e+001 
4093750000  -2.490085e+001  5.680112e+001 
4096875000  -2.448261e+001  5.152665e+001 
4100000000  -2.508314e+001  4.424224e+001 
4103125000  -2.603921e+001  4.430182e+001 
4106250000  -2.595767e+001  4.945640e+001 
4109375000  -2.512471e+001  4.910057e+001 
4112500000  -2.451497e+001  4.246335e+001 
4115625000  -2.484040e+001  3.795100e+001 
4118750000  -2.496545e+001  3.530071e+001 
4121875000  -2.456301e+001  3.118853e+001 
4125000000  -2.486597e+001  2.601200e+001 
4128125000  -2.585682e+001  2.566430e+001 
4131250000  -2.568944e+001  3.370120e+001 
4134375000  -2.340172e+001  2.993813e+001 
4137500000  -2.308484e+001  1.152136e+001 
4140625000  -2.521560e+001  4.177440e+000 
4143750000  -2.659955e+001  8.594276e+000 
4146875000  -2.626096e+001  1.655556e+001 
4150000000  -2.532571e+001  1.308209e+001 
4153125000  -2.508232e+001  6.926300e+000 
4156250000  -2.592593e+001  4.052107e+000 
4159375000  -2.620152e+001  8.576977e+000 
4162500000  -2.508128e+001  1.306328e+001 
4165625000  -2.395132e+001  9.136460e+000 
4168750000  -2.335523e+001  1.904791e+000 
4171875000  -2.325630e+001  -7.474271e+000 
4175000000  -2.385095e+001  -1.303578e+001 
4178125000  -2.443327e+001  -1.347031e+001 
4181250000  -2.438865e+001  -1.358699e+001 
4184375000  -2.417738e+001  -1.691202e+001 
4187500000  -2.420915e+001  -1.981046e+001 
4190625000  -2.404118e+001  -2.511373e+001 
4193750000  -2.477768e+001  -2.913432e+001 
4196875000  -2.549047e+001  -2.958286e+001 
4200000000  -2.631279e+001  -2.800200e+001 
4203125000  -2.646826e+001  -1.461520e+001 
4206250000  -2.319738e+001  -1.247079e+001 
4209375000  -2.190709e+001  -3.266575e+001 
4212500000  -2.375868e+001  -4.200845e+001 
4215625000  -2.487627e+001  -3.635708e+001 
4218750000  -2.353043e+001  -2.962568e+001 
4221875000  -2.123258e+001  -3.818588e+001 
4225000000  -2.244204e+001  -5.118946e+001 
4228125000  -2.319630e+001  -4.595463e+001 
4231250000  -2.167476e+001  -4.923819e+001 
4234375000  -2.158131e+001  -5.794260e+001 
4237500000  -2.117320e+001  -6.112355e+001 
4240625000  -2.115746e+001  -6.924948e+001 
4243750000  -2.210595e+001  -7.599192e+001 
4246875000  -2.297639e+001  -7.648531e+001 
4250000000  -2.311871e+001  -7.342162e+001 
4253125000  -2.252625e+001  -7.526308e+001 
4256250000  -2.282278e+001  -7.921885e+001 
4259375000  -2.256921e+001  -8.148621e+001 
4262500000  -2.253720e+001  -8.472785e+001 
4265625000  -2.274594e+001  -8.448769e+001 
4268750000  -2.189600e+001  -8.828941e+001 
4271875000  -2.160116e+001  -9.418562e+001 
4275000000  -2.098759e+001  -1.002772e+002 
4278125000  -2.153411e+001  -1.115398e+002 
4281250000  -2.332710e+001  -1.134766e+002 
4284375000  -2.310701e+001  -1.127039e+002 
4287500000  -2.376555e+001  -1.164510e+002 
4290625000  -2.510103e+001  -1.073004e+002 
4293750000  -2.312874e+001  -1.006364e+002 
4296875000  -2.173162e+001  -1.124694e+002 
4300000000  -2.252756e+001  -1.215509e+002 
4303125000  -2.368118e+001  -1.211318e+002 
4306250000  -2.314432e+001  -1.149656e+002 
4309375000  -2.171496e+001  -1.165713e+002 
4312500000  -2.157409e+001  -1.248894e+002 
4315625000  -2.176225e+001  -1.311801e+002 
4318750000  -2.206460e+001  -1.344401e+002 
4321875000  -2.225137e+001  -1.340177e+002 
4325000000  -2.164702e+001  -1.334421e+002 
4328125000  -2.118654e+001  -1.395996e+002 
4331250000  -2.115062e+001  -1.479060e+002 
4334375000  -2.149661e+001  -1.529879e+002 
4337500000  -2.231918e+001  -1.553642e+002 
4340625000  -2.290262e+001  -1.524428e+002 
4343750000  -2.236744e+001  -1.517263e+002 
4346875000  -2.194255e+001  -1.570723e+002 
4350000000  -2.199454e+001  -1.619784e+002 
4353125000  -2.203058e+001  -1.696098e+002 
4356250000  -2.366782e+001  -1.710104e+002 
4359375000  -2.447236e+001  -1.581926e+002 
4362500000  -2.188917e+001  -1.558532e+002 
4365625000  -2.014880e+001  -1.667870e+002 
4368750000  -2.082503e+001  -1.791623e+002 
4371875000  -2.207129e+001  -1.788746e+002 
4375000000  -2.178443e+001  -1.771765e+002 
4378125000  -2.112285e+001  1.769715e+002 
4381250000  -2.127581e+001  1.717057e+002 
4384375000  -2.113487e+001  1.674391e+002 
4387500000  -2.181195e+001  1.613413e+002 
4390625000  -2.288706e+001  1.623762e+002 
4393750000  -2.217907e+001  1.647485e+002 
4396875000  -2.155375e+001  1.626166e+002 
4400000000  -2.105655e+001  1.558615e+002 
4403125000  -2.156537e+001  1.483914e+002 
4406250000  -2.245296e+001  1.468461e+002 
4409375000  -2.239175e+001  1.447058e+002 
4412500000  -2.342284e+001  1.418826e+002 
4415625000  -2.383119e+001  1.466551e+002 
4418750000  -2.266401e+001  1.512487e+002 
