!Agilent Technologies,E8363B,MY43030201,A.06.04.32
!Agilent E8363B: A.06.04.32
!Date: Tuesday, November 11, 2014 20:53:23
!Correction: S21(Response(S21)) 
!S1P File: Measurement: S21:
# Hz S  dB   R 50
3000000000  -2.657570e+001  1.472908e+002 
3003125000  -2.799770e+001  1.418089e+002 
3006250000  -2.802935e+001  1.393167e+002 
3009375000  -2.838778e+001  1.444613e+002 
3012500000  -2.785378e+001  1.438830e+002 
3015625000  -2.694146e+001  1.372050e+002 
3018750000  -2.775064e+001  1.366859e+002 
3021875000  -2.647412e+001  1.378975e+002 
3025000000  -2.516655e+001  1.349142e+002 
3028125000  -2.423993e+001  1.300410e+002 
3031250000  -2.317446e+001  1.188181e+002 
3034375000  -2.279161e+001  1.061721e+002 
3037500000  -2.314542e+001  9.418742e+001 
3040625000  -2.448658e+001  8.928754e+001 
3043750000  -2.516986e+001  8.514052e+001 
3046875000  -2.531635e+001  7.898141e+001 
3050000000  -2.703358e+001  7.199850e+001 
3053125000  -2.716214e+001  7.864886e+001 
3056250000  -2.651213e+001  8.169307e+001 
3059375000  -2.672417e+001  8.138475e+001 
3062500000  -2.529626e+001  7.767664e+001 
3065625000  -2.509861e+001  7.180692e+001 
3068750000  -2.475862e+001  6.487575e+001 
3071875000  -2.471561e+001  6.206034e+001 
3075000000  -2.469851e+001  5.804879e+001 
3078125000  -2.446300e+001  5.367433e+001 
3081250000  -2.507632e+001  4.954586e+001 
3084375000  -2.433771e+001  4.586290e+001 
3087500000  -2.425228e+001  4.241317e+001 
3090625000  -2.393223e+001  3.268723e+001 
3093750000  -2.439611e+001  2.481267e+001 
3096875000  -2.566755e+001  1.883165e+001 
3100000000  -2.578085e+001  1.742634e+001 
3103125000  -2.616021e+001  1.886297e+001 
3106250000  -2.590623e+001  1.559059e+001 
3109375000  -2.613554e+001  1.204947e+001 
3112500000  -2.630965e+001  1.095817e+001 
3115625000  -2.608134e+001  6.914748e+000 
3118750000  -2.654835e+001  8.522514e+000 
3121875000  -2.590172e+001  5.010002e-001 
3125000000  -2.711564e+001  -2.889473e+000 
3128125000  -2.828953e+001  5.161523e+000 
3131250000  -2.607656e+001  5.799337e+000 
3134375000  -2.476502e+001  -7.833873e+000 
3137500000  -2.542485e+001  -2.137554e+001 
3140625000  -2.695864e+001  -2.308074e+001 
3143750000  -2.800197e+001  -1.925156e+001 
3146875000  -2.760272e+001  -1.723722e+001 
3150000000  -2.658715e+001  -1.506339e+001 
3153125000  -2.653759e+001  -2.253384e+001 
3156250000  -2.755571e+001  -1.707214e+001 
3159375000  -2.592905e+001  -1.446310e+001 
3162500000  -2.391266e+001  -2.736525e+001 
3165625000  -2.486636e+001  -3.831039e+001 
3168750000  -2.519041e+001  -3.719875e+001 
3171875000  -2.428819e+001  -4.162539e+001 
3175000000  -2.493774e+001  -4.961047e+001 
3178125000  -2.474849e+001  -4.755970e+001 
3181250000  -2.353837e+001  -5.178450e+001 
3184375000  -2.280198e+001  -6.401333e+001 
3187500000  -2.387128e+001  -7.920352e+001 
3190625000  -2.666124e+001  -8.674982e+001 
3193750000  -2.721410e+001  -7.707068e+001 
3196875000  -2.685855e+001  -7.185220e+001 
3200000000  -2.598474e+001  -7.387725e+001 
3203125000  -2.511640e+001  -7.946960e+001 
3206250000  -2.540131e+001  -8.549508e+001 
3209375000  -2.498835e+001  -9.077291e+001 
3212500000  -2.511649e+001  -9.721032e+001 
3215625000  -2.521550e+001  -1.010889e+002 
3218750000  -2.595717e+001  -1.077660e+002 
3221875000  -2.692763e+001  -1.127522e+002 
3225000000  -2.658762e+001  -1.132697e+002 
3228125000  -2.690588e+001  -1.178181e+002 
3231250000  -2.765710e+001  -1.203548e+002 
3234375000  -2.748713e+001  -1.195461e+002 
3237500000  -2.753893e+001  -1.209018e+002 
3240625000  -2.719995e+001  -1.229829e+002 
3243750000  -2.687968e+001  -1.293860e+002 
3246875000  -2.732992e+001  -1.360255e+002 
3250000000  -2.774374e+001  -1.377870e+002 
3253125000  -2.795471e+001  -1.396917e+002 
3256250000  -2.781348e+001  -1.456243e+002 
3259375000  -2.808899e+001  -1.531148e+002 
3262500000  -2.941963e+001  -1.557604e+002 
3265625000  -3.001851e+001  -1.522318e+002 
3268750000  -3.006192e+001  -1.498970e+002 
3271875000  -2.978599e+001  -1.485137e+002 
3275000000  -2.871329e+001  -1.541249e+002 
3278125000  -2.918647e+001  -1.598170e+002 
3281250000  -2.943117e+001  -1.582091e+002 
3284375000  -2.895251e+001  -1.645654e+002 
3287500000  -2.915471e+001  -1.668863e+002 
3290625000  -2.950000e+001  -1.712864e+002 
3293750000  -2.929405e+001  -1.766894e+002 
3296875000  -3.028015e+001  -1.769820e+002 
3300000000  -3.023766e+001  -1.758485e+002 
3303125000  -2.905783e+001  -1.796928e+002 
3306250000  -2.884217e+001  1.738912e+002 
3309375000  -2.858592e+001  1.687941e+002 
3312500000  -2.863623e+001  1.580304e+002 
3315625000  -2.967399e+001  1.504063e+002 
3318750000  -3.102807e+001  1.478461e+002 
3321875000  -3.219223e+001  1.475534e+002 
3325000000  -3.280493e+001  1.523827e+002 
3328125000  -3.269479e+001  1.543669e+002 
3331250000  -3.147890e+001  1.615737e+002 
3334375000  -2.890870e+001  1.520294e+002 
3337500000  -2.888639e+001  1.332685e+002 
3340625000  -3.037916e+001  1.220777e+002 
3343750000  -3.237946e+001  1.210577e+002 
3346875000  -3.279282e+001  1.227360e+002 
3350000000  -3.221868e+001  1.214647e+002 
3353125000  -3.230911e+001  1.171145e+002 
3356250000  -3.211985e+001  1.092467e+002 
3359375000  -3.294863e+001  1.002220e+002 
3362500000  -3.432835e+001  9.545080e+001 
3365625000  -3.493062e+001  9.379571e+001 
3368750000  -3.600906e+001  9.269780e+001 
3371875000  -3.635759e+001  8.828188e+001 
3375000000  -3.800713e+001  8.658728e+001 
3378125000  -3.897468e+001  8.586020e+001 
3381250000  -4.063337e+001  9.311729e+001 
3384375000  -3.996456e+001  1.154713e+002 
3387500000  -3.653522e+001  1.021723e+002 
3390625000  -3.849751e+001  8.194475e+001 
3393750000  -4.049512e+001  8.822051e+001 
3396875000  -3.942599e+001  8.956041e+001 
3400000000  -3.948253e+001  8.375699e+001 
3403125000  -4.046599e+001  7.974730e+001 
3406250000  -4.152821e+001  8.230164e+001 
3409375000  -4.217047e+001  7.881150e+001 
3412500000  -4.265036e+001  8.162377e+001 
3415625000  -4.389363e+001  8.439241e+001 
3418750000  -4.396435e+001  8.853641e+001 
3421875000  -4.451531e+001  9.680428e+001 
3425000000  -4.392841e+001  1.008864e+002 
3428125000  -4.250328e+001  1.005841e+002 
3431250000  -4.256182e+001  9.741477e+001 
3434375000  -4.210155e+001  9.370766e+001 
3437500000  -4.257424e+001  9.251270e+001 
3440625000  -4.296910e+001  9.565960e+001 
3443750000  -4.163729e+001  9.831038e+001 
3446875000  -4.096244e+001  9.211354e+001 
3450000000  -4.080534e+001  8.368365e+001 
3453125000  -4.080322e+001  7.483640e+001 
3456250000  -4.220981e+001  7.060563e+001 
3459375000  -4.311990e+001  7.278953e+001 
3462500000  -4.313155e+001  7.322217e+001 
3465625000  -4.281133e+001  6.889550e+001 
3468750000  -4.330680e+001  6.683746e+001 
3471875000  -4.365248e+001  6.673749e+001 
3475000000  -4.345720e+001  6.415427e+001 
3478125000  -4.426886e+001  5.850769e+001 
3481250000  -4.516177e+001  5.831307e+001 
3484375000  -4.725711e+001  6.470724e+001 
3487500000  -4.668196e+001  6.620074e+001 
3490625000  -4.599375e+001  6.210500e+001 
3493750000  -4.703839e+001  5.830331e+001 
3496875000  -4.750478e+001  6.431931e+001 
3500000000  -4.895898e+001  7.356566e+001 
3503125000  -4.897550e+001  7.529121e+001 
3506250000  -4.736706e+001  7.620425e+001 
3509375000  -4.744444e+001  7.509274e+001 
3512500000  -4.833637e+001  7.453689e+001 
3515625000  -4.845984e+001  8.112605e+001 
3518750000  -4.828650e+001  9.018274e+001 
3521875000  -4.765573e+001  8.965058e+001 
3525000000  -4.823047e+001  8.753803e+001 
3528125000  -4.658263e+001  1.011587e+002 
3531250000  -4.542136e+001  1.024373e+002 
3534375000  -4.451542e+001  9.179335e+001 
3537500000  -4.461625e+001  8.782709e+001 
3540625000  -4.509672e+001  8.759703e+001 
3543750000  -4.541202e+001  8.918843e+001 
3546875000  -4.490553e+001  1.017293e+002 
3550000000  -4.209561e+001  1.017551e+002 
3553125000  -4.071787e+001  8.707415e+001 
3556250000  -4.172233e+001  8.099320e+001 
3559375000  -4.122626e+001  8.121343e+001 
3562500000  -4.018364e+001  7.551414e+001 
3565625000  -4.110397e+001  6.743497e+001 
3568750000  -4.101463e+001  7.229671e+001 
3571875000  -4.091850e+001  7.078646e+001 
3575000000  -4.024783e+001  6.449660e+001 
3578125000  -4.088752e+001  6.105904e+001 
3581250000  -4.091246e+001  6.050077e+001 
3584375000  -4.001301e+001  5.860888e+001 
3587500000  -3.919688e+001  5.158745e+001 
3590625000  -3.967400e+001  4.359777e+001 
3593750000  -4.094844e+001  4.309363e+001 
3596875000  -4.081605e+001  5.193429e+001 
3600000000  -3.911270e+001  4.542951e+001 
3603125000  -3.952607e+001  3.354144e+001 
3606250000  -4.029633e+001  2.999549e+001 
3609375000  -4.073519e+001  2.989815e+001 
3612500000  -4.128237e+001  2.752187e+001 
3615625000  -4.129205e+001  2.533433e+001 
3618750000  -4.200119e+001  2.819413e+001 
3621875000  -4.181907e+001  2.776232e+001 
3625000000  -4.192995e+001  2.713455e+001 
3628125000  -4.218733e+001  2.691639e+001 
3631250000  -4.181977e+001  2.366027e+001 
3634375000  -4.314635e+001  2.450464e+001 
3637500000  -4.248047e+001  3.127333e+001 
3640625000  -4.149725e+001  3.323710e+001 
3643750000  -4.122385e+001  2.718553e+001 
3646875000  -4.165353e+001  2.251091e+001 
3650000000  -4.228643e+001  2.145115e+001 
3653125000  -4.198029e+001  2.313413e+001 
3656250000  -4.206099e+001  2.229909e+001 
3659375000  -4.217097e+001  2.703125e+001 
3662500000  -4.161114e+001  2.358336e+001 
3665625000  -4.137745e+001  2.648011e+001 
3668750000  -4.020720e+001  2.901226e+001 
3671875000  -3.918398e+001  2.311587e+001 
3675000000  -3.967902e+001  1.776361e+001 
3678125000  -4.009653e+001  1.852285e+001 
3681250000  -3.950573e+001  1.811239e+001 
3684375000  -3.931256e+001  1.662356e+001 
3687500000  -3.951345e+001  1.506843e+001 
3690625000  -3.937919e+001  1.156711e+001 
3693750000  -4.013161e+001  1.320123e+001 
3696875000  -3.967556e+001  1.690509e+001 
3700000000  -3.847228e+001  1.478099e+001 
3703125000  -3.855651e+001  1.104951e+001 
3706250000  -3.909066e+001  1.296148e+001 
3709375000  -3.845098e+001  1.542309e+001 
3712500000  -3.737518e+001  1.566914e+001 
3715625000  -3.631676e+001  7.913242e+000 
3718750000  -3.556553e+001  4.882250e+000 
3721875000  -3.518945e+001  7.608047e-001 
3725000000  -3.519420e+001  -3.207662e+000 
3728125000  -3.544333e+001  -4.589616e+000 
3731250000  -3.474567e+001  -5.768056e+000 
3734375000  -3.372672e+001  -1.117127e+001 
3737500000  -3.441768e+001  -1.766563e+001 
3740625000  -3.500434e+001  -2.139926e+001 
3743750000  -3.484113e+001  -2.209914e+001 
3746875000  -3.473539e+001  -2.541340e+001 
3750000000  -3.509380e+001  -2.667328e+001 
3753125000  -3.452266e+001  -2.737515e+001 
3756250000  -3.456356e+001  -2.677306e+001 
3759375000  -3.434163e+001  -2.789445e+001 
3762500000  -3.382610e+001  -3.144494e+001 
3765625000  -3.411823e+001  -3.410784e+001 
3768750000  -3.419680e+001  -3.210684e+001 
3771875000  -3.247202e+001  -3.423883e+001 
3775000000  -3.232673e+001  -4.224341e+001 
3778125000  -3.260301e+001  -4.333075e+001 
3781250000  -3.226883e+001  -4.624571e+001 
3784375000  -3.225256e+001  -4.771179e+001 
3787500000  -3.149779e+001  -5.211817e+001 
3790625000  -3.204488e+001  -5.790680e+001 
3793750000  -3.217982e+001  -5.817138e+001 
3796875000  -3.131844e+001  -5.911342e+001 
3800000000  -2.971052e+001  -6.348896e+001 
3803125000  -3.049032e+001  -7.107558e+001 
3806250000  -3.098110e+001  -7.352975e+001 
3809375000  -3.080641e+001  -7.464237e+001 
3812500000  -3.018170e+001  -7.996773e+001 
3815625000  -3.074643e+001  -8.774367e+001 
3818750000  -3.179417e+001  -8.944480e+001 
3821875000  -3.183596e+001  -8.056946e+001 
3825000000  -2.992274e+001  -7.586121e+001 
3828125000  -2.852271e+001  -9.024895e+001 
3831250000  -2.904274e+001  -1.040460e+002 
3834375000  -3.053365e+001  -1.056890e+002 
3837500000  -3.138362e+001  -1.003476e+002 
3840625000  -3.038342e+001  -1.019835e+002 
3843750000  -2.913209e+001  -1.113516e+002 
3846875000  -2.982452e+001  -1.184236e+002 
3850000000  -3.114882e+001  -1.135252e+002 
3853125000  -3.038647e+001  -1.102368e+002 
3856250000  -3.041578e+001  -1.149894e+002 
3859375000  -2.974513e+001  -1.195806e+002 
3862500000  -2.928903e+001  -1.261037e+002 
3865625000  -2.961627e+001  -1.308385e+002 
3868750000  -2.956096e+001  -1.308357e+002 
3871875000  -2.887885e+001  -1.332544e+002 
3875000000  -2.902384e+001  -1.421537e+002 
3878125000  -2.999451e+001  -1.440561e+002 
3881250000  -3.011802e+001  -1.410730e+002 
3884375000  -2.949002e+001  -1.456019e+002 
3887500000  -2.962079e+001  -1.497799e+002 
3890625000  -3.003262e+001  -1.521827e+002 
3893750000  -3.059333e+001  -1.534426e+002 
3896875000  -3.054880e+001  -1.524862e+002 
3900000000  -3.089039e+001  -1.531832e+002 
3903125000  -3.047617e+001  -1.550110e+002 
3906250000  -3.010211e+001  -1.557732e+002 
3909375000  -2.935118e+001  -1.585412e+002 
3912500000  -2.936245e+001  -1.654263e+002 
3915625000  -3.059636e+001  -1.656430e+002 
3918750000  -3.060522e+001  -1.630745e+002 
3921875000  -3.021908e+001  -1.650790e+002 
3925000000  -2.927677e+001  -1.658052e+002 
3928125000  -2.855414e+001  -1.720970e+002 
3931250000  -2.903187e+001  -1.758507e+002 
3934375000  -2.924438e+001  -1.763062e+002 
3937500000  -2.933639e+001  -1.775432e+002 
3940625000  -2.992215e+001  -1.771176e+002 
3943750000  -2.889893e+001  -1.760010e+002 
3946875000  -2.768483e+001  1.790446e+002 
3950000000  -2.824025e+001  1.710098e+002 
3953125000  -2.914567e+001  1.713292e+002 
3956250000  -2.825311e+001  1.736414e+002 
3959375000  -2.691908e+001  1.705060e+002 
3962500000  -2.651753e+001  1.666088e+002 
3965625000  -2.620034e+001  1.575996e+002 
3968750000  -2.702838e+001  1.506411e+002 
3971875000  -2.760437e+001  1.490794e+002 
3975000000  -2.698149e+001  1.472694e+002 
3978125000  -2.683724e+001  1.459553e+002 
3981250000  -2.657485e+001  1.418888e+002 
3984375000  -2.681014e+001  1.356763e+002 
3987500000  -2.730859e+001  1.337514e+002 
3990625000  -2.729133e+001  1.332725e+002 
3993750000  -2.753138e+001  1.300161e+002 
3996875000  -2.750405e+001  1.278297e+002 
4000000000  -2.758027e+001  1.268187e+002 
4003125000  -2.819500e+001  1.284979e+002 
4006250000  -2.685460e+001  1.297097e+002 
4009375000  -2.552803e+001  1.174936e+002 
4012500000  -2.654562e+001  1.105992e+002 
4015625000  -2.766880e+001  1.111216e+002 
4018750000  -2.794222e+001  1.134898e+002 
4021875000  -2.715314e+001  1.119225e+002 
4025000000  -2.681391e+001  1.077800e+002 
4028125000  -2.659344e+001  1.033762e+002 
4031250000  -2.706844e+001  9.989285e+001 
4034375000  -2.720122e+001  9.995224e+001 
4037500000  -2.677581e+001  1.013682e+002 
4040625000  -2.665527e+001  9.801560e+001 
4043750000  -2.695835e+001  9.742909e+001 
4046875000  -2.648787e+001  9.693597e+001 
4050000000  -2.594748e+001  9.085078e+001 
4053125000  -2.637207e+001  8.830464e+001 
4056250000  -2.704558e+001  9.207559e+001 
4059375000  -2.588793e+001  9.378372e+001 
4062500000  -2.445343e+001  8.922083e+001 
4065625000  -2.436867e+001  8.476025e+001 
4068750000  -2.404049e+001  8.017553e+001 
4071875000  -2.335567e+001  7.199213e+001 
4075000000  -2.376419e+001  6.519398e+001 
4078125000  -2.426350e+001  6.394202e+001 
4081250000  -2.381655e+001  6.142789e+001 
4084375000  -2.346629e+001  5.474430e+001 
4087500000  -2.379744e+001  4.808836e+001 
4090625000  -2.445533e+001  4.696675e+001 
4093750000  -2.432452e+001  4.760321e+001 
4096875000  -2.392285e+001  4.192826e+001 
4100000000  -2.458860e+001  3.510095e+001 
4103125000  -2.548377e+001  3.606200e+001 
4106250000  -2.532989e+001  4.050483e+001 
4109375000  -2.446398e+001  4.001171e+001 
4112500000  -2.391628e+001  3.370237e+001 
4115625000  -2.425247e+001  2.929174e+001 
4118750000  -2.440081e+001  2.650981e+001 
4121875000  -2.408548e+001  2.189964e+001 
4125000000  -2.442228e+001  1.736937e+001 
4128125000  -2.550067e+001  1.842297e+001 
4131250000  -2.503718e+001  2.665359e+001 
4134375000  -2.274539e+001  2.202091e+001 
4137500000  -2.252071e+001  2.838720e+000 
4140625000  -2.457225e+001  -3.912734e+000 
4143750000  -2.594377e+001  1.226203e+000 
4146875000  -2.544420e+001  8.637556e+000 
4150000000  -2.450486e+001  5.667079e+000 
4153125000  -2.436442e+001  -1.345294e+000 
4156250000  -2.512933e+001  -3.777926e+000 
4159375000  -2.542933e+001  5.720474e-001 
4162500000  -2.424549e+001  4.538957e+000 
4165625000  -2.310159e+001  8.827257e-001 
4168750000  -2.245068e+001  -6.499378e+000 
4171875000  -2.233672e+001  -1.569814e+001 
4175000000  -2.285401e+001  -2.176036e+001 
4178125000  -2.346471e+001  -2.237322e+001 
4181250000  -2.335247e+001  -2.316545e+001 
4184375000  -2.313973e+001  -2.670075e+001 
4187500000  -2.318277e+001  -2.947546e+001 
4190625000  -2.306075e+001  -3.543104e+001 
4193750000  -2.386200e+001  -3.955740e+001 
4196875000  -2.460644e+001  -3.997040e+001 
4200000000  -2.538234e+001  -3.770757e+001 
4203125000  -2.540405e+001  -2.450830e+001 
4206250000  -2.219830e+001  -2.339333e+001 
4209375000  -2.106632e+001  -4.374018e+001 
4212500000  -2.299013e+001  -5.265606e+001 
4215625000  -2.395489e+001  -4.562892e+001 
4218750000  -2.255860e+001  -3.942650e+001 
4221875000  -2.025214e+001  -4.890974e+001 
4225000000  -2.146492e+001  -6.177622e+001 
4228125000  -2.227316e+001  -5.710578e+001 
4231250000  -2.080603e+001  -6.038822e+001 
4234375000  -2.072481e+001  -6.883159e+001 
4237500000  -2.030803e+001  -7.241317e+001 
4240625000  -2.039772e+001  -8.051509e+001 
4243750000  -2.143713e+001  -8.695618e+001 
4246875000  -2.223175e+001  -8.645415e+001 
4250000000  -2.226077e+001  -8.429790e+001 
4253125000  -2.164607e+001  -8.569108e+001 
4256250000  -2.187670e+001  -8.975874e+001 
4259375000  -2.170096e+001  -9.171809e+001 
4262500000  -2.168416e+001  -9.571696e+001 
4265625000  -2.183329e+001  -9.494219e+001 
4268750000  -2.102202e+001  -9.909686e+001 
4271875000  -2.069691e+001  -1.039534e+002 
4275000000  -2.002551e+001  -1.107956e+002 
4278125000  -2.056767e+001  -1.221288e+002 
4281250000  -2.233327e+001  -1.243991e+002 
4284375000  -2.207276e+001  -1.238189e+002 
4287500000  -2.291486e+001  -1.276026e+002 
4290625000  -2.421488e+001  -1.178049e+002 
4293750000  -2.215888e+001  -1.114381e+002 
4296875000  -2.074981e+001  -1.229569e+002 
4300000000  -2.155210e+001  -1.324789e+002 
4303125000  -2.260027e+001  -1.313592e+002 
4306250000  -2.191348e+001  -1.256456e+002 
4309375000  -2.054950e+001  -1.284303e+002 
4312500000  -2.047426e+001  -1.371198e+002 
4315625000  -2.079669e+001  -1.431929e+002 
4318750000  -2.101482e+001  -1.467814e+002 
4321875000  -2.119676e+001  -1.462189e+002 
4325000000  -2.055788e+001  -1.460451e+002 
4328125000  -2.007841e+001  -1.528278e+002 
4331250000  -2.014597e+001  -1.611646e+002 
4334375000  -2.057591e+001  -1.658319e+002 
4337500000  -2.137273e+001  -1.684210e+002 
4340625000  -2.184865e+001  -1.655368e+002 
4343750000  -2.135984e+001  -1.649132e+002 
4346875000  -2.096839e+001  -1.703769e+002 
4350000000  -2.093273e+001  -1.750695e+002 
4353125000  -2.103816e+001  1.771340e+002 
4356250000  -2.277391e+001  1.754991e+002 
4359375000  -2.338459e+001  -1.714662e+002 
4362500000  -2.092191e+001  -1.692883e+002 
4365625000  -1.935527e+001  1.792621e+002 
4368750000  -2.004368e+001  1.676947e+002 
4371875000  -2.118314e+001  1.680149e+002 
4375000000  -2.090064e+001  1.689633e+002 
4378125000  -2.031196e+001  1.637109e+002 
4381250000  -2.045136e+001  1.582603e+002 
4384375000  -2.024800e+001  1.537056e+002 
4387500000  -2.088692e+001  1.478535e+002 
4390625000  -2.193349e+001  1.486155e+002 
4393750000  -2.135932e+001  1.510251e+002 
4396875000  -2.071218e+001  1.491540e+002 
4400000000  -2.021242e+001  1.423159e+002 
4403125000  -2.070634e+001  1.345779e+002 
4406250000  -2.152390e+001  1.333365e+002 
4409375000  -2.146930e+001  1.312263e+002 
4412500000  -2.241176e+001  1.283231e+002 
4415625000  -2.289014e+001  1.330012e+002 
4418750000  -2.175424e+001  1.379583e+002 
