!Agilent Technologies,E8363B,MY43030201,A.06.04.32
!Agilent E8363B: A.06.04.32
!Date: Tuesday, November 11, 2014 20:47:43
!Correction: S21(Response(S21)) 
!S1P File: Measurement: S21:
# Hz S  dB   R 50
3000000000  -2.650945e+001  1.564416e+002 
3003125000  -2.791683e+001  1.519988e+002 
3006250000  -2.795828e+001  1.491225e+002 
3009375000  -2.825532e+001  1.542674e+002 
3012500000  -2.777532e+001  1.539687e+002 
3015625000  -2.680925e+001  1.468617e+002 
3018750000  -2.770801e+001  1.459924e+002 
3021875000  -2.645662e+001  1.473186e+002 
3025000000  -2.512985e+001  1.445128e+002 
3028125000  -2.417948e+001  1.395017e+002 
3031250000  -2.312558e+001  1.281850e+002 
3034375000  -2.275517e+001  1.155285e+002 
3037500000  -2.308102e+001  1.033843e+002 
3040625000  -2.440643e+001  9.813599e+001 
3043750000  -2.513491e+001  9.389821e+001 
3046875000  -2.519946e+001  8.758976e+001 
3050000000  -2.695147e+001  8.039165e+001 
3053125000  -2.712779e+001  8.708501e+001 
3056250000  -2.645147e+001  9.001389e+001 
3059375000  -2.671379e+001  9.001778e+001 
3062500000  -2.523476e+001  8.596090e+001 
3065625000  -2.500468e+001  8.046061e+001 
3068750000  -2.468334e+001  7.348331e+001 
3071875000  -2.464885e+001  7.024354e+001 
3075000000  -2.465546e+001  6.673012e+001 
3078125000  -2.433861e+001  6.214896e+001 
3081250000  -2.500564e+001  5.807862e+001 
3084375000  -2.423995e+001  5.417123e+001 
3087500000  -2.412202e+001  5.081550e+001 
3090625000  -2.382133e+001  4.115305e+001 
3093750000  -2.421773e+001  3.324187e+001 
3096875000  -2.557491e+001  2.683632e+001 
3100000000  -2.569312e+001  2.541192e+001 
3103125000  -2.606213e+001  2.710620e+001 
3106250000  -2.579311e+001  2.345762e+001 
3109375000  -2.603741e+001  1.991826e+001 
3112500000  -2.616899e+001  1.904646e+001 
3115625000  -2.593022e+001  1.470082e+001 
3118750000  -2.641247e+001  1.614123e+001 
3121875000  -2.577234e+001  8.334456e+000 
3125000000  -2.688649e+001  4.445124e+000 
3128125000  -2.813662e+001  1.221184e+001 
3131250000  -2.598349e+001  1.326539e+001 
3134375000  -2.461072e+001  -4.855244e-001 
3137500000  -2.524516e+001  -1.436981e+001 
3140625000  -2.693033e+001  -1.621417e+001 
3143750000  -2.791849e+001  -1.217925e+001 
3146875000  -2.754289e+001  -9.964299e+000 
3150000000  -2.647659e+001  -7.754274e+000 
3153125000  -2.648464e+001  -1.523110e+001 
3156250000  -2.747856e+001  -1.009284e+001 
3159375000  -2.592797e+001  -7.047867e+000 
3162500000  -2.388295e+001  -1.973571e+001 
3165625000  -2.478141e+001  -3.060020e+001 
3168750000  -2.522172e+001  -2.991735e+001 
3171875000  -2.427467e+001  -3.413900e+001 
3175000000  -2.488806e+001  -4.199794e+001 
3178125000  -2.468772e+001  -4.026960e+001 
3181250000  -2.348291e+001  -4.400742e+001 
3184375000  -2.267222e+001  -5.647800e+001 
3187500000  -2.379398e+001  -7.176768e+001 
3190625000  -2.662840e+001  -7.935741e+001 
3193750000  -2.724833e+001  -6.978090e+001 
3196875000  -2.674858e+001  -6.413881e+001 
3200000000  -2.593337e+001  -6.591703e+001 
3203125000  -2.505132e+001  -7.156870e+001 
3206250000  -2.532300e+001  -7.765395e+001 
3209375000  -2.484602e+001  -8.278459e+001 
3212500000  -2.493692e+001  -8.961833e+001 
3215625000  -2.508349e+001  -9.386526e+001 
3218750000  -2.589049e+001  -1.002503e+002 
3221875000  -2.684963e+001  -1.053708e+002 
3225000000  -2.647902e+001  -1.056774e+002 
3228125000  -2.672490e+001  -1.103428e+002 
3231250000  -2.754013e+001  -1.131824e+002 
3234375000  -2.740228e+001  -1.119984e+002 
3237500000  -2.740842e+001  -1.136899e+002 
3240625000  -2.708028e+001  -1.150359e+002 
3243750000  -2.669528e+001  -1.218676e+002 
3246875000  -2.718562e+001  -1.284068e+002 
3250000000  -2.766090e+001  -1.303674e+002 
3253125000  -2.779782e+001  -1.320213e+002 
3256250000  -2.766047e+001  -1.381188e+002 
3259375000  -2.801346e+001  -1.450730e+002 
3262500000  -2.920861e+001  -1.485844e+002 
3265625000  -2.993102e+001  -1.451862e+002 
3268750000  -2.995202e+001  -1.425150e+002 
3271875000  -2.966355e+001  -1.416402e+002 
3275000000  -2.859653e+001  -1.462376e+002 
3278125000  -2.904804e+001  -1.528444e+002 
3281250000  -2.934885e+001  -1.508557e+002 
3284375000  -2.894044e+001  -1.566922e+002 
3287500000  -2.903708e+001  -1.596056e+002 
3290625000  -2.950689e+001  -1.636542e+002 
3293750000  -2.919476e+001  -1.696516e+002 
3296875000  -3.017031e+001  -1.694512e+002 
3300000000  -3.012413e+001  -1.681127e+002 
3303125000  -2.891629e+001  -1.717338e+002 
3306250000  -2.876015e+001  -1.784254e+002 
3309375000  -2.845270e+001  1.765177e+002 
3312500000  -2.851525e+001  1.661160e+002 
3315625000  -2.951503e+001  1.581928e+002 
3318750000  -3.084502e+001  1.556475e+002 
3321875000  -3.208538e+001  1.556488e+002 
3325000000  -3.269301e+001  1.601183e+002 
3328125000  -3.260907e+001  1.621279e+002 
3331250000  -3.130675e+001  1.702763e+002 
3334375000  -2.867524e+001  1.602941e+002 
3337500000  -2.878725e+001  1.423385e+002 
3340625000  -3.011584e+001  1.307242e+002 
3343750000  -3.197536e+001  1.292329e+002 
3346875000  -3.260705e+001  1.310957e+002 
3350000000  -3.204131e+001  1.295321e+002 
3353125000  -3.203368e+001  1.251745e+002 
3356250000  -3.175970e+001  1.177638e+002 
3359375000  -3.259535e+001  1.090459e+002 
3362500000  -3.395481e+001  1.036841e+002 
3365625000  -3.457501e+001  1.019411e+002 
3368750000  -3.546965e+001  1.009152e+002 
3371875000  -3.579393e+001  9.773762e+001 
3375000000  -3.744883e+001  9.489261e+001 
3378125000  -3.845674e+001  9.545186e+001 
3381250000  -3.998909e+001  1.026898e+002 
3384375000  -3.964346e+001  1.235480e+002 
3387500000  -3.605785e+001  1.108300e+002 
3390625000  -3.791376e+001  9.078631e+001 
3393750000  -3.973768e+001  9.622021e+001 
3396875000  -3.887829e+001  9.833456e+001 
3400000000  -3.900753e+001  9.017621e+001 
3403125000  -3.985648e+001  8.633077e+001 
3406250000  -4.050658e+001  8.968314e+001 
3409375000  -4.137031e+001  8.694611e+001 
3412500000  -4.231604e+001  8.742365e+001 
3415625000  -4.284607e+001  9.092418e+001 
3418750000  -4.331260e+001  9.488226e+001 
3421875000  -4.344396e+001  1.021619e+002 
3425000000  -4.291880e+001  1.060020e+002 
3428125000  -4.162863e+001  1.047966e+002 
3431250000  -4.185058e+001  1.020681e+002 
3434375000  -4.154020e+001  9.867560e+001 
3437500000  -4.207153e+001  9.715479e+001 
3440625000  -4.234797e+001  9.992737e+001 
3443750000  -4.092551e+001  1.009581e+002 
3446875000  -4.033037e+001  9.654108e+001 
3450000000  -4.000687e+001  8.783161e+001 
3453125000  -4.025969e+001  7.904562e+001 
3456250000  -4.147721e+001  7.472431e+001 
3459375000  -4.243916e+001  7.780270e+001 
3462500000  -4.280514e+001  7.897522e+001 
3465625000  -4.234813e+001  7.441543e+001 
3468750000  -4.295439e+001  6.991895e+001 
3471875000  -4.297669e+001  7.101719e+001 
3475000000  -4.302896e+001  6.843161e+001 
3478125000  -4.361936e+001  6.286281e+001 
3481250000  -4.496739e+001  6.078933e+001 
3484375000  -4.622653e+001  6.570475e+001 
3487500000  -4.633908e+001  6.991462e+001 
3490625000  -4.554261e+001  6.821520e+001 
3493750000  -4.596620e+001  6.420221e+001 
3496875000  -4.730803e+001  6.963148e+001 
3500000000  -4.840831e+001  7.456030e+001 
3503125000  -4.849713e+001  7.740607e+001 
3506250000  -4.669044e+001  7.949487e+001 
3509375000  -4.710910e+001  7.861050e+001 
3512500000  -4.765999e+001  7.326222e+001 
3515625000  -4.758123e+001  7.666982e+001 
3518750000  -4.855107e+001  8.374150e+001 
3521875000  -4.782551e+001  8.755842e+001 
3525000000  -4.792325e+001  8.723743e+001 
3528125000  -4.791726e+001  9.776782e+001 
3531250000  -4.582881e+001  1.012335e+002 
3534375000  -4.508444e+001  9.246963e+001 
3537500000  -4.509651e+001  8.942994e+001 
3540625000  -4.592886e+001  8.999324e+001 
3543750000  -4.626444e+001  9.301160e+001 
3546875000  -4.548133e+001  1.032738e+002 
3550000000  -4.304146e+001  1.069272e+002 
3553125000  -4.135112e+001  8.876988e+001 
3556250000  -4.236459e+001  8.571510e+001 
3559375000  -4.246455e+001  8.565652e+001 
3562500000  -4.094165e+001  8.007264e+001 
3565625000  -4.169899e+001  7.234657e+001 
3568750000  -4.158341e+001  7.657662e+001 
3571875000  -4.183747e+001  7.685938e+001 
3575000000  -4.119424e+001  7.205830e+001 
3578125000  -4.170159e+001  6.825722e+001 
3581250000  -4.147170e+001  6.692730e+001 
3584375000  -4.081706e+001  6.804331e+001 
3587500000  -3.988431e+001  5.922618e+001 
3590625000  -4.007796e+001  5.184178e+001 
3593750000  -4.126760e+001  4.987529e+001 
3596875000  -4.150266e+001  5.882829e+001 
3600000000  -3.969245e+001  5.576791e+001 
3603125000  -4.012855e+001  4.401942e+001 
3606250000  -4.057240e+001  4.019743e+001 
3609375000  -4.098276e+001  3.915397e+001 
3612500000  -4.163306e+001  3.702002e+001 
3615625000  -4.143497e+001  3.513633e+001 
3618750000  -4.195482e+001  3.931229e+001 
3621875000  -4.164212e+001  3.483812e+001 
3625000000  -4.185093e+001  3.741740e+001 
3628125000  -4.195634e+001  3.709296e+001 
3631250000  -4.121577e+001  3.216714e+001 
3634375000  -4.259210e+001  3.231730e+001 
3637500000  -4.224699e+001  3.793763e+001 
3640625000  -4.083461e+001  3.942110e+001 
3643750000  -4.074725e+001  3.241460e+001 
3646875000  -4.125759e+001  2.746922e+001 
3650000000  -4.159509e+001  2.704048e+001 
3653125000  -4.132332e+001  2.744027e+001 
3656250000  -4.144707e+001  2.571995e+001 
3659375000  -4.239717e+001  3.031691e+001 
3662500000  -4.139339e+001  2.961154e+001 
3665625000  -4.144696e+001  2.983142e+001 
3668750000  -4.042559e+001  3.081448e+001 
3671875000  -3.957208e+001  2.701327e+001 
3675000000  -3.997583e+001  2.038396e+001 
3678125000  -4.043493e+001  2.219692e+001 
3681250000  -3.988596e+001  2.409069e+001 
3684375000  -3.974728e+001  2.032378e+001 
3687500000  -3.973642e+001  1.996760e+001 
3690625000  -3.994337e+001  1.678140e+001 
3693750000  -4.062549e+001  2.078676e+001 
3696875000  -4.028602e+001  2.176199e+001 
3700000000  -3.888828e+001  1.983227e+001 
3703125000  -3.868783e+001  1.728646e+001 
3706250000  -3.958551e+001  1.907882e+001 
3709375000  -3.884398e+001  2.196590e+001 
3712500000  -3.752922e+001  2.181398e+001 
3715625000  -3.645281e+001  1.640750e+001 
3718750000  -3.582574e+001  1.418691e+001 
3721875000  -3.529543e+001  9.266891e+000 
3725000000  -3.506672e+001  4.176924e+000 
3728125000  -3.550529e+001  2.987620e+000 
3731250000  -3.483450e+001  2.250990e+000 
3734375000  -3.379138e+001  -3.125689e+000 
3737500000  -3.422905e+001  -1.114027e+001 
3740625000  -3.477608e+001  -1.387346e+001 
3743750000  -3.459982e+001  -1.614176e+001 
3746875000  -3.464900e+001  -1.908631e+001 
3750000000  -3.497451e+001  -2.056428e+001 
3753125000  -3.463702e+001  -2.088639e+001 
3756250000  -3.452400e+001  -2.107757e+001 
3759375000  -3.430398e+001  -2.165239e+001 
3762500000  -3.379072e+001  -2.678583e+001 
3765625000  -3.413751e+001  -2.792719e+001 
3768750000  -3.428598e+001  -2.675860e+001 
3771875000  -3.256036e+001  -2.866384e+001 
3775000000  -3.224487e+001  -3.682208e+001 
3778125000  -3.258020e+001  -3.859213e+001 
3781250000  -3.238681e+001  -4.135230e+001 
3784375000  -3.236791e+001  -4.305362e+001 
3787500000  -3.178660e+001  -4.680525e+001 
3790625000  -3.232468e+001  -5.250990e+001 
3793750000  -3.241243e+001  -5.355268e+001 
3796875000  -3.155971e+001  -5.447769e+001 
3800000000  -3.000041e+001  -5.850848e+001 
3803125000  -3.070681e+001  -6.505510e+001 
3806250000  -3.132025e+001  -6.741628e+001 
3809375000  -3.112131e+001  -6.890485e+001 
3812500000  -3.042727e+001  -7.351713e+001 
3815625000  -3.095318e+001  -8.031121e+001 
3818750000  -3.201517e+001  -8.263116e+001 
3821875000  -3.204261e+001  -7.384312e+001 
3825000000  -3.022300e+001  -6.979327e+001 
3828125000  -2.883968e+001  -8.336727e+001 
3831250000  -2.932954e+001  -9.729644e+001 
3834375000  -3.066731e+001  -9.863446e+001 
3837500000  -3.149960e+001  -9.324120e+001 
3840625000  -3.050167e+001  -9.472433e+001 
3843750000  -2.929820e+001  -1.042903e+002 
3846875000  -3.002482e+001  -1.117732e+002 
3850000000  -3.112301e+001  -1.059277e+002 
3853125000  -3.044515e+001  -1.038163e+002 
3856250000  -3.041231e+001  -1.083553e+002 
3859375000  -2.980096e+001  -1.120391e+002 
3862500000  -2.934774e+001  -1.196888e+002 
3865625000  -2.954029e+001  -1.249281e+002 
3868750000  -2.959916e+001  -1.245713e+002 
3871875000  -2.886280e+001  -1.278264e+002 
3875000000  -2.902389e+001  -1.363078e+002 
3878125000  -3.004193e+001  -1.389030e+002 
3881250000  -3.011079e+001  -1.357248e+002 
3884375000  -2.965151e+001  -1.406060e+002 
3887500000  -2.971297e+001  -1.445511e+002 
3890625000  -3.017853e+001  -1.470517e+002 
3893750000  -3.070367e+001  -1.481974e+002 
3896875000  -3.064661e+001  -1.479814e+002 
3900000000  -3.099474e+001  -1.487817e+002 
3903125000  -3.060355e+001  -1.508893e+002 
3906250000  -3.033893e+001  -1.522875e+002 
3909375000  -2.968155e+001  -1.538574e+002 
3912500000  -2.960854e+001  -1.607553e+002 
3915625000  -3.087034e+001  -1.604998e+002 
3918750000  -3.089462e+001  -1.592881e+002 
3921875000  -3.059137e+001  -1.605122e+002 
3925000000  -2.977795e+001  -1.608331e+002 
3928125000  -2.904866e+001  -1.667211e+002 
3931250000  -2.952856e+001  -1.708030e+002 
3934375000  -2.968593e+001  -1.706018e+002 
3937500000  -2.990774e+001  -1.714600e+002 
3940625000  -3.035324e+001  -1.716262e+002 
3943750000  -2.939218e+001  -1.697534e+002 
3946875000  -2.811241e+001  -1.752678e+002 
3950000000  -2.863976e+001  1.772636e+002 
3953125000  -2.959029e+001  1.777653e+002 
3956250000  -2.882425e+001  -1.798505e+002 
3959375000  -2.742224e+001  1.773460e+002 
3962500000  -2.689310e+001  1.734255e+002 
3965625000  -2.653078e+001  1.647597e+002 
3968750000  -2.747339e+001  1.583557e+002 
3971875000  -2.790749e+001  1.567650e+002 
3975000000  -2.719218e+001  1.547391e+002 
3978125000  -2.700562e+001  1.529940e+002 
3981250000  -2.676315e+001  1.492614e+002 
3984375000  -2.698658e+001  1.429371e+002 
3987500000  -2.748119e+001  1.404795e+002 
3990625000  -2.750235e+001  1.393562e+002 
3993750000  -2.771100e+001  1.365028e+002 
3996875000  -2.767326e+001  1.342518e+002 
4000000000  -2.779555e+001  1.322413e+002 
4003125000  -2.832253e+001  1.339566e+002 
4006250000  -2.701488e+001  1.346325e+002 
4009375000  -2.576271e+001  1.222124e+002 
4012500000  -2.676133e+001  1.150160e+002 
4015625000  -2.795531e+001  1.151483e+002 
4018750000  -2.824915e+001  1.180327e+002 
4021875000  -2.757443e+001  1.164036e+002 
4025000000  -2.728313e+001  1.114967e+002 
4028125000  -2.714235e+001  1.080396e+002 
4031250000  -2.766588e+001  1.045830e+002 
4034375000  -2.785748e+001  1.041010e+002 
4037500000  -2.741235e+001  1.062203e+002 
4040625000  -2.725608e+001  1.027665e+002 
4043750000  -2.761064e+001  1.023705e+002 
4046875000  -2.718614e+001  1.020982e+002 
4050000000  -2.668744e+001  9.663747e+001 
4053125000  -2.715921e+001  9.409645e+001 
4056250000  -2.775200e+001  9.766840e+001 
4059375000  -2.661646e+001  1.003672e+002 
4062500000  -2.520959e+001  9.568865e+001 
4065625000  -2.500528e+001  9.119804e+001 
4068750000  -2.479437e+001  8.634240e+001 
4071875000  -2.415921e+001  7.896587e+001 
4075000000  -2.444207e+001  7.242590e+001 
4078125000  -2.503743e+001  7.153722e+001 
4081250000  -2.451666e+001  6.884705e+001 
4084375000  -2.412168e+001  6.245024e+001 
4087500000  -2.445606e+001  5.654868e+001 
4090625000  -2.511308e+001  5.520575e+001 
4093750000  -2.493489e+001  5.614548e+001 
4096875000  -2.441255e+001  5.038682e+001 
4100000000  -2.508747e+001  4.305340e+001 
4103125000  -2.598454e+001  4.348594e+001 
4106250000  -2.587936e+001  4.863333e+001 
4109375000  -2.500909e+001  4.786676e+001 
4112500000  -2.442578e+001  4.135440e+001 
4115625000  -2.472159e+001  3.715557e+001 
4118750000  -2.489482e+001  3.422421e+001 
4121875000  -2.447966e+001  2.996055e+001 
4125000000  -2.480799e+001  2.453843e+001 
4128125000  -2.581581e+001  2.445886e+001 
4131250000  -2.554750e+001  3.266768e+001 
4134375000  -2.330364e+001  2.863256e+001 
4137500000  -2.304749e+001  9.905493e+000 
4140625000  -2.511534e+001  2.584437e+000 
4143750000  -2.648598e+001  7.305267e+000 
4146875000  -2.607152e+001  1.413338e+001 
4150000000  -2.515586e+001  1.173718e+001 
4153125000  -2.502272e+001  5.485300e+000 
4156250000  -2.584669e+001  2.410136e+000 
4159375000  -2.610415e+001  6.676593e+000 
4162500000  -2.499621e+001  1.077035e+001 
4165625000  -2.394867e+001  7.211477e+000 
4168750000  -2.327493e+001  -5.224023e-002 
4171875000  -2.327530e+001  -9.235090e+000 
4175000000  -2.381999e+001  -1.505859e+001 
4178125000  -2.444916e+001  -1.502733e+001 
4181250000  -2.433837e+001  -1.531796e+001 
4184375000  -2.414712e+001  -1.844764e+001 
4187500000  -2.425359e+001  -2.111910e+001 
4190625000  -2.402776e+001  -2.632969e+001 
4193750000  -2.480147e+001  -3.039014e+001 
4196875000  -2.551741e+001  -3.087669e+001 
4200000000  -2.634077e+001  -2.877341e+001 
4203125000  -2.650463e+001  -1.598667e+001 
4206250000  -2.318901e+001  -1.382654e+001 
4209375000  -2.191856e+001  -3.393525e+001 
4212500000  -2.379842e+001  -4.312885e+001 
4215625000  -2.479507e+001  -3.750030e+001 
4218750000  -2.355268e+001  -3.010819e+001 
4221875000  -2.115408e+001  -3.897368e+001 
4225000000  -2.238107e+001  -5.184811e+001 
4228125000  -2.312581e+001  -4.691389e+001 
4231250000  -2.156738e+001  -5.040290e+001 
4234375000  -2.147059e+001  -5.864445e+001 
4237500000  -2.107330e+001  -6.213265e+001 
4240625000  -2.110379e+001  -7.057258e+001 
4243750000  -2.200441e+001  -7.710440e+001 
4246875000  -2.287552e+001  -7.756526e+001 
4250000000  -2.296422e+001  -7.450063e+001 
4253125000  -2.232274e+001  -7.625988e+001 
4256250000  -2.263684e+001  -8.055656e+001 
4259375000  -2.239413e+001  -8.258863e+001 
4262500000  -2.242220e+001  -8.621745e+001 
4265625000  -2.255104e+001  -8.590349e+001 
4268750000  -2.169131e+001  -8.996825e+001 
4271875000  -2.148648e+001  -9.540450e+001 
4275000000  -2.084202e+001  -1.016097e+002 
4278125000  -2.140347e+001  -1.129926e+002 
4281250000  -2.322777e+001  -1.152258e+002 
4284375000  -2.292559e+001  -1.144610e+002 
4287500000  -2.364754e+001  -1.180863e+002 
4290625000  -2.496414e+001  -1.086954e+002 
4293750000  -2.304262e+001  -1.028542e+002 
4296875000  -2.162061e+001  -1.142164e+002 
4300000000  -2.239184e+001  -1.236515e+002 
4303125000  -2.359023e+001  -1.224101e+002 
4306250000  -2.306202e+001  -1.165187e+002 
4309375000  -2.164852e+001  -1.183985e+002 
4312500000  -2.147393e+001  -1.264571e+002 
4315625000  -2.169531e+001  -1.329171e+002 
4318750000  -2.201343e+001  -1.362272e+002 
4321875000  -2.221924e+001  -1.357392e+002 
4325000000  -2.163301e+001  -1.350666e+002 
4328125000  -2.112147e+001  -1.413445e+002 
4331250000  -2.104740e+001  -1.494796e+002 
4334375000  -2.145394e+001  -1.542453e+002 
4337500000  -2.222437e+001  -1.565735e+002 
4340625000  -2.280359e+001  -1.534784e+002 
4343750000  -2.227485e+001  -1.529961e+002 
4346875000  -2.188256e+001  -1.581398e+002 
4350000000  -2.189080e+001  -1.627996e+002 
4353125000  -2.189191e+001  -1.706444e+002 
4356250000  -2.354011e+001  -1.719984e+002 
4359375000  -2.430834e+001  -1.594921e+002 
4362500000  -2.169550e+001  -1.569603e+002 
4365625000  -2.002080e+001  -1.683880e+002 
4368750000  -2.067352e+001  1.797650e+002 
4371875000  -2.187393e+001  -1.797673e+002 
4375000000  -2.163989e+001  -1.784786e+002 
4378125000  -2.091943e+001  1.758212e+002 
4381250000  -2.113298e+001  1.704141e+002 
4384375000  -2.091874e+001  1.657374e+002 
4387500000  -2.159889e+001  1.604438e+002 
4390625000  -2.262911e+001  1.608326e+002 
4393750000  -2.198806e+001  1.629032e+002 
4396875000  -2.131605e+001  1.608703e+002 
4400000000  -2.080369e+001  1.537404e+002 
4403125000  -2.132820e+001  1.465707e+002 
4406250000  -2.220700e+001  1.451863e+002 
4409375000  -2.215419e+001  1.426820e+002 
4412500000  -2.316128e+001  1.401024e+002 
4415625000  -2.363104e+001  1.449278e+002 
4418750000  -2.246587e+001  1.494627e+002 
