!Agilent Technologies,E8363B,MY43030201,A.06.04.32
!Agilent E8363B: A.06.04.32
!Date: Tuesday, November 11, 2014 20:58:59
!Correction: S21(Response(S21)) 
!S1P File: Measurement: S21:
# Hz S  dB   R 50
3000000000  -2.651379e+001  1.458819e+002 
3003125000  -2.794218e+001  1.413759e+002 
3006250000  -2.796356e+001  1.389562e+002 
3009375000  -2.833467e+001  1.440579e+002 
3012500000  -2.777902e+001  1.433747e+002 
3015625000  -2.685185e+001  1.363688e+002 
3018750000  -2.769844e+001  1.356808e+002 
3021875000  -2.639068e+001  1.369929e+002 
3025000000  -2.508323e+001  1.337268e+002 
3028125000  -2.410434e+001  1.284522e+002 
3031250000  -2.305902e+001  1.171323e+002 
3034375000  -2.273434e+001  1.040126e+002 
3037500000  -2.314319e+001  9.228652e+001 
3040625000  -2.447215e+001  8.736544e+001 
3043750000  -2.517915e+001  8.297384e+001 
3046875000  -2.529512e+001  7.663000e+001 
3050000000  -2.702136e+001  6.973016e+001 
3053125000  -2.713645e+001  7.661201e+001 
3056250000  -2.648781e+001  7.972678e+001 
3059375000  -2.664990e+001  7.912111e+001 
3062500000  -2.512903e+001  7.519153e+001 
3065625000  -2.495310e+001  6.931886e+001 
3068750000  -2.465729e+001  6.246508e+001 
3071875000  -2.463070e+001  5.975632e+001 
3075000000  -2.458307e+001  5.555927e+001 
3078125000  -2.434105e+001  5.108933e+001 
3081250000  -2.495975e+001  4.679506e+001 
3084375000  -2.419096e+001  4.320208e+001 
3087500000  -2.409312e+001  3.928168e+001 
3090625000  -2.380593e+001  2.952329e+001 
3093750000  -2.430182e+001  2.190323e+001 
3096875000  -2.552314e+001  1.603380e+001 
3100000000  -2.566714e+001  1.470356e+001 
3103125000  -2.603256e+001  1.575217e+001 
3106250000  -2.577197e+001  1.224356e+001 
3109375000  -2.602442e+001  8.962732e+000 
3112500000  -2.614734e+001  7.579631e+000 
3115625000  -2.592614e+001  3.685762e+000 
3118750000  -2.640647e+001  4.980097e+000 
3121875000  -2.573002e+001  -3.403582e+000 
3125000000  -2.700522e+001  -6.516754e+000 
3128125000  -2.815463e+001  1.619237e+000 
3131250000  -2.591882e+001  1.949720e+000 
3134375000  -2.461051e+001  -1.208954e+001 
3137500000  -2.532314e+001  -2.542129e+001 
3140625000  -2.690329e+001  -2.669506e+001 
3143750000  -2.793395e+001  -2.301521e+001 
3146875000  -2.749791e+001  -2.098269e+001 
3150000000  -2.645159e+001  -1.888818e+001 
3153125000  -2.648550e+001  -2.661917e+001 
3156250000  -2.752196e+001  -2.053244e+001 
3159375000  -2.585466e+001  -1.831569e+001 
3162500000  -2.381724e+001  -3.121224e+001 
3165625000  -2.477693e+001  -4.201007e+001 
3168750000  -2.514236e+001  -4.098689e+001 
3171875000  -2.426506e+001  -4.529174e+001 
3175000000  -2.488869e+001  -5.321248e+001 
3178125000  -2.460923e+001  -5.147537e+001 
3181250000  -2.347416e+001  -5.583763e+001 
3184375000  -2.274242e+001  -6.782481e+001 
3187500000  -2.387503e+001  -8.278776e+001 
3190625000  -2.663099e+001  -9.003691e+001 
3193750000  -2.712624e+001  -8.043501e+001 
3196875000  -2.674722e+001  -7.512555e+001 
3200000000  -2.583132e+001  -7.719820e+001 
3203125000  -2.499441e+001  -8.312489e+001 
3206250000  -2.533905e+001  -8.926046e+001 
3209375000  -2.481095e+001  -9.455187e+001 
3212500000  -2.497591e+001  -1.012346e+002 
3215625000  -2.511778e+001  -1.045299e+002 
3218750000  -2.587992e+001  -1.113915e+002 
3221875000  -2.681450e+001  -1.162039e+002 
3225000000  -2.644351e+001  -1.168939e+002 
3228125000  -2.677095e+001  -1.217259e+002 
3231250000  -2.754401e+001  -1.239556e+002 
3234375000  -2.732814e+001  -1.231369e+002 
3237500000  -2.736694e+001  -1.247312e+002 
3240625000  -2.696820e+001  -1.267104e+002 
3243750000  -2.671273e+001  -1.332054e+002 
3246875000  -2.716601e+001  -1.395858e+002 
3250000000  -2.760656e+001  -1.419500e+002 
3253125000  -2.779021e+001  -1.430632e+002 
3256250000  -2.766978e+001  -1.490431e+002 
3259375000  -2.799004e+001  -1.568132e+002 
3262500000  -2.927561e+001  -1.593163e+002 
3265625000  -2.991598e+001  -1.559485e+002 
3268750000  -2.991652e+001  -1.533439e+002 
3271875000  -2.961544e+001  -1.526721e+002 
3275000000  -2.854967e+001  -1.575767e+002 
3278125000  -2.904110e+001  -1.636467e+002 
3281250000  -2.928785e+001  -1.617335e+002 
3284375000  -2.885579e+001  -1.679701e+002 
3287500000  -2.902489e+001  -1.706198e+002 
3290625000  -2.940307e+001  -1.749951e+002 
3293750000  -2.914524e+001  1.795511e+002 
3296875000  -3.017537e+001  1.798458e+002 
3300000000  -3.000968e+001  -1.790988e+002 
3303125000  -2.890211e+001  1.768259e+002 
3306250000  -2.864197e+001  1.702904e+002 
3309375000  -2.839107e+001  1.647324e+002 
3312500000  -2.846533e+001  1.548099e+002 
3315625000  -2.951513e+001  1.470936e+002 
3318750000  -3.086083e+001  1.448860e+002 
3321875000  -3.207635e+001  1.447800e+002 
3325000000  -3.263562e+001  1.498858e+002 
3328125000  -3.236139e+001  1.515160e+002 
3331250000  -3.110670e+001  1.590965e+002 
3334375000  -2.853551e+001  1.485846e+002 
3337500000  -2.865532e+001  1.301965e+002 
3340625000  -3.014427e+001  1.193729e+002 
3343750000  -3.201091e+001  1.178889e+002 
3346875000  -3.240575e+001  1.199573e+002 
3350000000  -3.177355e+001  1.185417e+002 
3353125000  -3.199662e+001  1.141096e+002 
3356250000  -3.169234e+001  1.063894e+002 
3359375000  -3.262659e+001  9.752572e+001 
3362500000  -3.382778e+001  9.324902e+001 
3365625000  -3.445615e+001  9.165538e+001 
3368750000  -3.529635e+001  9.003133e+001 
3371875000  -3.568853e+001  8.649110e+001 
3375000000  -3.742696e+001  8.370621e+001 
3378125000  -3.853229e+001  8.368041e+001 
3381250000  -3.993592e+001  9.048809e+001 
3384375000  -3.874572e+001  1.119405e+002 
3387500000  -3.579208e+001  9.897591e+001 
3390625000  -3.785308e+001  7.997243e+001 
3393750000  -3.937311e+001  8.557671e+001 
3396875000  -3.849841e+001  8.938215e+001 
3400000000  -3.857192e+001  8.091110e+001 
3403125000  -3.971789e+001  7.555505e+001 
3406250000  -4.053675e+001  7.946761e+001 
3409375000  -4.092124e+001  7.456702e+001 
3412500000  -4.186881e+001  7.543695e+001 
3415625000  -4.271000e+001  8.033846e+001 
3418750000  -4.316766e+001  8.432537e+001 
3421875000  -4.291426e+001  9.166639e+001 
3425000000  -4.233232e+001  9.599350e+001 
3428125000  -4.108333e+001  9.290401e+001 
3431250000  -4.136724e+001  8.985479e+001 
3434375000  -4.131445e+001  8.633277e+001 
3437500000  -4.169350e+001  8.474856e+001 
3440625000  -4.165251e+001  8.760648e+001 
3443750000  -4.063347e+001  9.008521e+001 
3446875000  -3.963487e+001  8.513665e+001 
3450000000  -3.961372e+001  7.599974e+001 
3453125000  -3.991123e+001  6.839830e+001 
3456250000  -4.109681e+001  6.262619e+001 
3459375000  -4.207253e+001  6.481011e+001 
3462500000  -4.221540e+001  6.475216e+001 
3465625000  -4.233403e+001  6.150248e+001 
3468750000  -4.251918e+001  5.857912e+001 
3471875000  -4.244732e+001  5.762148e+001 
3475000000  -4.248977e+001  5.389404e+001 
3478125000  -4.341904e+001  4.952155e+001 
3481250000  -4.433167e+001  4.925641e+001 
3484375000  -4.594424e+001  5.250118e+001 
3487500000  -4.524966e+001  5.568059e+001 
3490625000  -4.490880e+001  5.350553e+001 
3493750000  -4.555117e+001  4.974453e+001 
3496875000  -4.677850e+001  5.162703e+001 
3500000000  -4.758068e+001  5.846939e+001 
3503125000  -4.741616e+001  6.438278e+001 
3506250000  -4.583754e+001  6.643671e+001 
3509375000  -4.632107e+001  6.041311e+001 
3512500000  -4.711144e+001  5.936401e+001 
3515625000  -4.785949e+001  6.404181e+001 
3518750000  -4.828614e+001  6.779456e+001 
3521875000  -4.784117e+001  6.954473e+001 
3525000000  -4.791702e+001  7.223681e+001 
3528125000  -4.710243e+001  8.544273e+001 
3531250000  -4.526346e+001  8.368827e+001 
3534375000  -4.507328e+001  7.685718e+001 
3537500000  -4.529318e+001  7.385223e+001 
3540625000  -4.548263e+001  7.678841e+001 
3543750000  -4.626516e+001  7.827883e+001 
3546875000  -4.592989e+001  8.895093e+001 
3550000000  -4.262291e+001  9.180755e+001 
3553125000  -4.151410e+001  7.628385e+001 
3556250000  -4.260679e+001  7.039622e+001 
3559375000  -4.210902e+001  7.222169e+001 
3562500000  -4.093127e+001  6.405364e+001 
3565625000  -4.178478e+001  5.810665e+001 
3568750000  -4.186560e+001  6.184644e+001 
3571875000  -4.161106e+001  6.171717e+001 
3575000000  -4.097966e+001  5.579591e+001 
3578125000  -4.117502e+001  5.337167e+001 
3581250000  -4.163138e+001  5.425000e+001 
3584375000  -4.067571e+001  5.239772e+001 
3587500000  -3.978613e+001  4.727314e+001 
3590625000  -4.012601e+001  3.838351e+001 
3593750000  -4.119319e+001  3.823366e+001 
3596875000  -4.107893e+001  4.389391e+001 
3600000000  -3.973137e+001  4.078658e+001 
3603125000  -3.971936e+001  2.959142e+001 
3606250000  -4.057339e+001  2.626427e+001 
3609375000  -4.076036e+001  2.396131e+001 
3612500000  -4.142759e+001  2.448989e+001 
3615625000  -4.126157e+001  1.939599e+001 
3618750000  -4.175449e+001  2.490020e+001 
3621875000  -4.151069e+001  2.308155e+001 
3625000000  -4.169989e+001  2.222092e+001 
3628125000  -4.167342e+001  2.232900e+001 
3631250000  -4.131285e+001  1.630234e+001 
3634375000  -4.253050e+001  1.858284e+001 
3637500000  -4.218339e+001  2.409735e+001 
3640625000  -4.088427e+001  2.527435e+001 
3643750000  -4.064605e+001  1.867343e+001 
3646875000  -4.108831e+001  1.212743e+001 
3650000000  -4.149709e+001  1.276407e+001 
3653125000  -4.124836e+001  1.382291e+001 
3656250000  -4.146114e+001  1.107739e+001 
3659375000  -4.187354e+001  1.571087e+001 
3662500000  -4.111284e+001  1.380450e+001 
3665625000  -4.101928e+001  1.477624e+001 
3668750000  -4.015413e+001  1.776529e+001 
3671875000  -3.914256e+001  1.185007e+001 
3675000000  -3.977552e+001  5.817155e+000 
3678125000  -4.025755e+001  5.920934e+000 
3681250000  -3.999554e+001  7.144140e+000 
3684375000  -3.964809e+001  5.015667e+000 
3687500000  -3.980542e+001  3.770042e+000 
3690625000  -3.970920e+001  6.757474e-001 
3693750000  -4.038964e+001  3.900579e+000 
3696875000  -4.015141e+001  7.618553e+000 
3700000000  -3.888334e+001  4.854817e+000 
3703125000  -3.896587e+001  1.514357e+000 
3706250000  -3.955848e+001  3.607110e+000 
3709375000  -3.889572e+001  9.079699e+000 
3712500000  -3.749304e+001  7.159624e+000 
3715625000  -3.646703e+001  1.345806e+000 
3718750000  -3.568466e+001  -1.212605e-001 
3721875000  -3.538418e+001  -6.624876e+000 
3725000000  -3.532617e+001  -1.099194e+001 
3728125000  -3.537051e+001  -1.113010e+001 
3731250000  -3.483070e+001  -1.291528e+001 
3734375000  -3.379612e+001  -1.915186e+001 
3737500000  -3.429866e+001  -2.597557e+001 
3740625000  -3.498476e+001  -2.975312e+001 
3743750000  -3.461317e+001  -3.117006e+001 
3746875000  -3.454864e+001  -3.424918e+001 
3750000000  -3.518911e+001  -3.537100e+001 
3753125000  -3.473430e+001  -3.523748e+001 
3756250000  -3.461972e+001  -3.594961e+001 
3759375000  -3.438027e+001  -3.700359e+001 
3762500000  -3.376914e+001  -4.085159e+001 
3765625000  -3.432825e+001  -4.434106e+001 
3768750000  -3.435649e+001  -4.141638e+001 
3771875000  -3.253538e+001  -4.392126e+001 
3775000000  -3.234359e+001  -5.200911e+001 
3778125000  -3.256553e+001  -5.369981e+001 
3781250000  -3.240240e+001  -5.684467e+001 
3784375000  -3.222073e+001  -5.797983e+001 
3787500000  -3.162508e+001  -6.192127e+001 
3790625000  -3.226803e+001  -6.795546e+001 
3793750000  -3.237711e+001  -6.855773e+001 
3796875000  -3.150120e+001  -6.981523e+001 
3800000000  -2.989934e+001  -7.301636e+001 
3803125000  -3.070710e+001  -8.083031e+001 
3806250000  -3.143257e+001  -8.287643e+001 
3809375000  -3.105014e+001  -8.330759e+001 
3812500000  -3.044956e+001  -8.849886e+001 
3815625000  -3.116476e+001  -9.577113e+001 
3818750000  -3.202897e+001  -9.710341e+001 
3821875000  -3.209226e+001  -8.876221e+001 
3825000000  -3.024519e+001  -8.409454e+001 
3828125000  -2.877801e+001  -9.877130e+001 
3831250000  -2.937352e+001  -1.128418e+002 
3834375000  -3.074555e+001  -1.136032e+002 
3837500000  -3.161845e+001  -1.075763e+002 
3840625000  -3.045080e+001  -1.088823e+002 
3843750000  -2.927365e+001  -1.188327e+002 
3846875000  -3.003381e+001  -1.263910e+002 
3850000000  -3.135566e+001  -1.202700e+002 
3853125000  -3.058022e+001  -1.177038e+002 
3856250000  -3.037074e+001  -1.229595e+002 
3859375000  -2.970865e+001  -1.272877e+002 
3862500000  -2.927485e+001  -1.344429e+002 
3865625000  -2.956096e+001  -1.397055e+002 
3868750000  -2.958078e+001  -1.398687e+002 
3871875000  -2.885841e+001  -1.426304e+002 
3875000000  -2.906725e+001  -1.515770e+002 
3878125000  -3.001625e+001  -1.539515e+002 
3881250000  -3.015134e+001  -1.508512e+002 
3884375000  -2.956675e+001  -1.557196e+002 
3887500000  -2.973040e+001  -1.593321e+002 
3890625000  -3.025665e+001  -1.622115e+002 
3893750000  -3.067490e+001  -1.634202e+002 
3896875000  -3.085477e+001  -1.625038e+002 
3900000000  -3.110197e+001  -1.639644e+002 
3903125000  -3.057297e+001  -1.655417e+002 
3906250000  -3.039778e+001  -1.666858e+002 
3909375000  -2.959271e+001  -1.691345e+002 
3912500000  -2.974329e+001  -1.769768e+002 
3915625000  -3.099648e+001  -1.757025e+002 
3918750000  -3.096283e+001  -1.742005e+002 
3921875000  -3.056377e+001  -1.753343e+002 
3925000000  -2.977909e+001  -1.765767e+002 
3928125000  -2.913631e+001  1.780191e+002 
3931250000  -2.953864e+001  1.736252e+002 
3934375000  -2.980394e+001  1.739959e+002 
3937500000  -2.994244e+001  1.734090e+002 
3940625000  -3.045113e+001  1.738460e+002 
3943750000  -2.951726e+001  1.744433e+002 
3946875000  -2.823431e+001  1.693065e+002 
3950000000  -2.877667e+001  1.618239e+002 
3953125000  -2.968900e+001  1.627020e+002 
3956250000  -2.881521e+001  1.659379e+002 
3959375000  -2.751895e+001  1.627033e+002 
3962500000  -2.700391e+001  1.584833e+002 
3965625000  -2.665632e+001  1.492747e+002 
3968750000  -2.754965e+001  1.433000e+002 
3971875000  -2.795514e+001  1.410798e+002 
3975000000  -2.727114e+001  1.397675e+002 
3978125000  -2.707178e+001  1.380658e+002 
3981250000  -2.687305e+001  1.337882e+002 
3984375000  -2.709434e+001  1.277621e+002 
3987500000  -2.761890e+001  1.255917e+002 
3990625000  -2.764900e+001  1.246368e+002 
3993750000  -2.786491e+001  1.216106e+002 
3996875000  -2.776710e+001  1.189435e+002 
4000000000  -2.788298e+001  1.169693e+002 
4003125000  -2.843465e+001  1.192034e+002 
4006250000  -2.703954e+001  1.195950e+002 
4009375000  -2.582409e+001  1.070146e+002 
4012500000  -2.692267e+001  1.000550e+002 
4015625000  -2.826342e+001  1.005907e+002 
4018750000  -2.834495e+001  1.035227e+002 
4021875000  -2.769731e+001  1.012333e+002 
4025000000  -2.729933e+001  9.652908e+001 
4028125000  -2.718291e+001  9.236414e+001 
4031250000  -2.768085e+001  8.906263e+001 
4034375000  -2.798584e+001  8.909202e+001 
4037500000  -2.746582e+001  9.071035e+001 
4040625000  -2.740509e+001  8.759799e+001 
4043750000  -2.777890e+001  8.679881e+001 
4046875000  -2.733632e+001  8.673225e+001 
4050000000  -2.689695e+001  8.134837e+001 
4053125000  -2.729241e+001  7.922739e+001 
4056250000  -2.794093e+001  8.347606e+001 
4059375000  -2.658687e+001  8.538298e+001 
4062500000  -2.522838e+001  8.080439e+001 
4065625000  -2.517852e+001  7.634586e+001 
4068750000  -2.485015e+001  7.162803e+001 
4071875000  -2.425204e+001  6.371475e+001 
4075000000  -2.459185e+001  5.725958e+001 
4078125000  -2.514998e+001  5.644800e+001 
4081250000  -2.459373e+001  5.429937e+001 
4084375000  -2.421868e+001  4.720033e+001 
4087500000  -2.460089e+001  4.132269e+001 
4090625000  -2.517225e+001  4.041026e+001 
4093750000  -2.492887e+001  4.073966e+001 
4096875000  -2.452182e+001  3.484845e+001 
4100000000  -2.522744e+001  2.797196e+001 
4103125000  -2.612695e+001  2.907642e+001 
4106250000  -2.597251e+001  3.353494e+001 
4109375000  -2.504798e+001  3.327217e+001 
4112500000  -2.447718e+001  2.654994e+001 
4115625000  -2.485578e+001  2.176709e+001 
4118750000  -2.491162e+001  1.903837e+001 
4121875000  -2.449554e+001  1.436578e+001 
4125000000  -2.492004e+001  9.500363e+000 
4128125000  -2.599667e+001  9.841496e+000 
4131250000  -2.559483e+001  1.775831e+001 
4134375000  -2.324529e+001  1.276904e+001 
4137500000  -2.306778e+001  -5.686896e+000 
4140625000  -2.527509e+001  -1.304075e+001 
4143750000  -2.651383e+001  -7.909485e+000 
4146875000  -2.612449e+001  -1.564082e-001 
4150000000  -2.516474e+001  -3.543497e+000 
4153125000  -2.502112e+001  -1.024499e+001 
4156250000  -2.599589e+001  -1.299106e+001 
4159375000  -2.619322e+001  -8.423429e+000 
4162500000  -2.508089e+001  -3.963185e+000 
4165625000  -2.390082e+001  -8.233511e+000 
4168750000  -2.337605e+001  -1.552601e+001 
4171875000  -2.330962e+001  -2.479247e+001 
4175000000  -2.392783e+001  -3.043559e+001 
4178125000  -2.454750e+001  -2.994959e+001 
4181250000  -2.438045e+001  -3.075588e+001 
4184375000  -2.426088e+001  -3.388721e+001 
4187500000  -2.431751e+001  -3.656392e+001 
4190625000  -2.413588e+001  -4.225887e+001 
4193750000  -2.493068e+001  -4.582755e+001 
4196875000  -2.564015e+001  -4.634890e+001 
4200000000  -2.651918e+001  -4.391779e+001 
4203125000  -2.649487e+001  -3.023430e+001 
4206250000  -2.305901e+001  -2.884779e+001 
4209375000  -2.197992e+001  -5.014779e+001 
4212500000  -2.389115e+001  -5.802368e+001 
4215625000  -2.489857e+001  -5.189590e+001 
4218750000  -2.350010e+001  -4.519640e+001 
4221875000  -2.125289e+001  -5.455327e+001 
4225000000  -2.243254e+001  -6.680607e+001 
4228125000  -2.311170e+001  -6.187825e+001 
4231250000  -2.152572e+001  -6.580838e+001 
4234375000  -2.150405e+001  -7.421806e+001 
4237500000  -2.107648e+001  -7.753079e+001 
4240625000  -2.113038e+001  -8.617390e+001 
4243750000  -2.206173e+001  -9.282354e+001 
4246875000  -2.298184e+001  -9.281994e+001 
4250000000  -2.294609e+001  -8.997637e+001 
4253125000  -2.241720e+001  -9.198140e+001 
4256250000  -2.267352e+001  -9.562903e+001 
4259375000  -2.240423e+001  -9.781305e+001 
4262500000  -2.240428e+001  -1.016941e+002 
4265625000  -2.258813e+001  -1.009384e+002 
4268750000  -2.168224e+001  -1.056012e+002 
4271875000  -2.143312e+001  -1.111217e+002 
4275000000  -2.082671e+001  -1.177450e+002 
4278125000  -2.150034e+001  -1.290980e+002 
4281250000  -2.324485e+001  -1.308423e+002 
4284375000  -2.295934e+001  -1.301323e+002 
4287500000  -2.377619e+001  -1.338203e+002 
4290625000  -2.500190e+001  -1.239184e+002 
4293750000  -2.300174e+001  -1.185789e+002 
4296875000  -2.168270e+001  -1.302591e+002 
4300000000  -2.253107e+001  -1.393575e+002 
4303125000  -2.366767e+001  -1.376308e+002 
4306250000  -2.299125e+001  -1.320231e+002 
4309375000  -2.159852e+001  -1.342110e+002 
4312500000  -2.150263e+001  -1.427962e+002 
4315625000  -2.175116e+001  -1.491031e+002 
4318750000  -2.207738e+001  -1.522492e+002 
4321875000  -2.222937e+001  -1.512123e+002 
4325000000  -2.167026e+001  -1.508344e+002 
4328125000  -2.114400e+001  -1.572917e+002 
4331250000  -2.110495e+001  -1.656713e+002 
4334375000  -2.154306e+001  -1.706942e+002 
4337500000  -2.237799e+001  -1.725200e+002 
4340625000  -2.295494e+001  -1.690591e+002 
4343750000  -2.230437e+001  -1.687459e+002 
4346875000  -2.193532e+001  -1.742785e+002 
4350000000  -2.197730e+001  -1.791976e+002 
4353125000  -2.204121e+001  1.728333e+002 
4356250000  -2.383694e+001  1.725050e+002 
4359375000  -2.429363e+001  -1.733420e+002 
4362500000  -2.153691e+001  -1.718394e+002 
4365625000  -1.999020e+001  1.757573e+002 
4368750000  -2.073362e+001  1.640136e+002 
4371875000  -2.196826e+001  1.649433e+002 
4375000000  -2.155225e+001  1.657879e+002 
4378125000  -2.095180e+001  1.597111e+002 
4381250000  -2.112458e+001  1.542899e+002 
4384375000  -2.094763e+001  1.499710e+002 
4387500000  -2.170267e+001  1.441974e+002 
4390625000  -2.263850e+001  1.450264e+002 
4393750000  -2.199644e+001  1.472230e+002 
4396875000  -2.132876e+001  1.450658e+002 
4400000000  -2.084165e+001  1.378417e+002 
4403125000  -2.143509e+001  1.302523e+002 
4406250000  -2.229406e+001  1.288887e+002 
4409375000  -2.224071e+001  1.266946e+002 
4412500000  -2.331836e+001  1.241339e+002 
4415625000  -2.366012e+001  1.291743e+002 
4418750000  -2.240667e+001  1.336590e+002 
