!Agilent Technologies,E8363B,MY43030201,A.06.04.32
!Agilent E8363B: A.06.04.32
!Date: Tuesday, November 11, 2014 20:45:31
!Correction: S21(Response(S21)) 
!S1P File: Measurement: S21:
# Hz S  dB   R 50
3000000000  -2.650572e+001  1.583775e+002 
3003125000  -2.785486e+001  1.541013e+002 
3006250000  -2.794810e+001  1.512007e+002 
3009375000  -2.827375e+001  1.560151e+002 
3012500000  -2.779274e+001  1.557261e+002 
3015625000  -2.681133e+001  1.488066e+002 
3018750000  -2.765257e+001  1.478383e+002 
3021875000  -2.646138e+001  1.492793e+002 
3025000000  -2.515868e+001  1.460969e+002 
3028125000  -2.417619e+001  1.416296e+002 
3031250000  -2.312225e+001  1.303173e+002 
3034375000  -2.275628e+001  1.175501e+002 
3037500000  -2.308604e+001  1.055257e+002 
3040625000  -2.438060e+001  1.002817e+002 
3043750000  -2.513045e+001  9.592652e+001 
3046875000  -2.516155e+001  8.965692e+001 
3050000000  -2.696626e+001  8.263750e+001 
3053125000  -2.715212e+001  8.891261e+001 
3056250000  -2.641952e+001  9.177939e+001 
3059375000  -2.674195e+001  9.154327e+001 
3062500000  -2.521519e+001  8.781271e+001 
3065625000  -2.502397e+001  8.252234e+001 
3068750000  -2.471680e+001  7.541694e+001 
3071875000  -2.466579e+001  7.227100e+001 
3075000000  -2.468522e+001  6.868085e+001 
3078125000  -2.434596e+001  6.405323e+001 
3081250000  -2.501407e+001  5.985372e+001 
3084375000  -2.429497e+001  5.636173e+001 
3087500000  -2.410651e+001  5.273829e+001 
3090625000  -2.384537e+001  4.329317e+001 
3093750000  -2.418050e+001  3.501399e+001 
3096875000  -2.554915e+001  2.885431e+001 
3100000000  -2.569448e+001  2.729760e+001 
3103125000  -2.607105e+001  2.910327e+001 
3106250000  -2.579849e+001  2.561474e+001 
3109375000  -2.606146e+001  2.223137e+001 
3112500000  -2.615481e+001  2.111500e+001 
3115625000  -2.594661e+001  1.689531e+001 
3118750000  -2.644721e+001  1.807643e+001 
3121875000  -2.582347e+001  1.020906e+001 
3125000000  -2.689011e+001  6.474395e+000 
3128125000  -2.812641e+001  1.416793e+001 
3131250000  -2.602459e+001  1.519481e+001 
3134375000  -2.462760e+001  1.951908e+000 
3137500000  -2.524810e+001  -1.221220e+001 
3140625000  -2.692337e+001  -1.413381e+001 
3143750000  -2.793479e+001  -9.858831e+000 
3146875000  -2.757678e+001  -7.901844e+000 
3150000000  -2.654673e+001  -5.321843e+000 
3153125000  -2.646502e+001  -1.312569e+001 
3156250000  -2.746224e+001  -8.155992e+000 
3159375000  -2.591955e+001  -4.871610e+000 
3162500000  -2.392695e+001  -1.773049e+001 
3165625000  -2.477249e+001  -2.875017e+001 
3168750000  -2.523206e+001  -2.828462e+001 
3171875000  -2.428857e+001  -3.200933e+001 
3175000000  -2.491594e+001  -3.975967e+001 
3178125000  -2.472761e+001  -3.820857e+001 
3181250000  -2.350127e+001  -4.192193e+001 
3184375000  -2.269563e+001  -5.417617e+001 
3187500000  -2.374321e+001  -7.003461e+001 
3190625000  -2.662298e+001  -7.734093e+001 
3193750000  -2.726545e+001  -6.768358e+001 
3196875000  -2.679889e+001  -6.216387e+001 
3200000000  -2.596691e+001  -6.383826e+001 
3203125000  -2.505160e+001  -6.939287e+001 
3206250000  -2.533676e+001  -7.573376e+001 
3209375000  -2.485334e+001  -8.077695e+001 
3212500000  -2.496684e+001  -8.744388e+001 
3215625000  -2.511616e+001  -9.199444e+001 
3218750000  -2.588618e+001  -9.835201e+001 
3221875000  -2.688745e+001  -1.033597e+002 
3225000000  -2.648077e+001  -1.035284e+002 
3228125000  -2.679033e+001  -1.080959e+002 
3231250000  -2.754812e+001  -1.114164e+002 
3234375000  -2.748771e+001  -1.099751e+002 
3237500000  -2.749025e+001  -1.116958e+002 
3240625000  -2.715544e+001  -1.133693e+002 
3243750000  -2.680318e+001  -1.195873e+002 
3246875000  -2.721279e+001  -1.267737e+002 
3250000000  -2.769046e+001  -1.279193e+002 
3253125000  -2.787189e+001  -1.299107e+002 
3256250000  -2.772927e+001  -1.359406e+002 
3259375000  -2.804683e+001  -1.432791e+002 
3262500000  -2.927511e+001  -1.461676e+002 
3265625000  -3.000424e+001  -1.432554e+002 
3268750000  -2.996891e+001  -1.404342e+002 
3271875000  -2.975845e+001  -1.392534e+002 
3275000000  -2.865300e+001  -1.442369e+002 
3278125000  -2.911409e+001  -1.506205e+002 
3281250000  -2.936650e+001  -1.488313e+002 
3284375000  -2.898259e+001  -1.542081e+002 
3287500000  -2.910278e+001  -1.574534e+002 
3290625000  -2.951351e+001  -1.614648e+002 
3293750000  -2.922016e+001  -1.670863e+002 
3296875000  -3.018430e+001  -1.672663e+002 
3300000000  -3.011754e+001  -1.662994e+002 
3303125000  -2.896471e+001  -1.699932e+002 
3306250000  -2.878348e+001  -1.763158e+002 
3309375000  -2.852275e+001  1.785132e+002 
3312500000  -2.852338e+001  1.680561e+002 
3315625000  -2.952260e+001  1.605060e+002 
3318750000  -3.090329e+001  1.573920e+002 
3321875000  -3.208879e+001  1.569572e+002 
3325000000  -3.267505e+001  1.621851e+002 
3328125000  -3.257323e+001  1.636796e+002 
3331250000  -3.132688e+001  1.713603e+002 
3334375000  -2.878320e+001  1.624921e+002 
3337500000  -2.878671e+001  1.441927e+002 
3340625000  -3.018324e+001  1.328470e+002 
3343750000  -3.201872e+001  1.310236e+002 
3346875000  -3.259993e+001  1.332156e+002 
3350000000  -3.204975e+001  1.310726e+002 
3353125000  -3.218533e+001  1.274069e+002 
3356250000  -3.175929e+001  1.193711e+002 
3359375000  -3.270713e+001  1.114951e+002 
3362500000  -3.404419e+001  1.057394e+002 
3365625000  -3.454911e+001  1.040736e+002 
3368750000  -3.561691e+001  1.026844e+002 
3371875000  -3.603559e+001  9.939389e+001 
3375000000  -3.749964e+001  9.729634e+001 
3378125000  -3.867694e+001  9.563703e+001 
3381250000  -4.017371e+001  1.035065e+002 
3384375000  -3.946485e+001  1.255356e+002 
3387500000  -3.629237e+001  1.118868e+002 
3390625000  -3.806687e+001  9.250925e+001 
3393750000  -3.995615e+001  9.748000e+001 
3396875000  -3.901498e+001  9.957616e+001 
3400000000  -3.905463e+001  9.267856e+001 
3403125000  -4.028656e+001  8.835417e+001 
3406250000  -4.065601e+001  9.079925e+001 
3409375000  -4.146051e+001  8.619768e+001 
3412500000  -4.252664e+001  8.866764e+001 
3415625000  -4.312505e+001  9.494870e+001 
3418750000  -4.361217e+001  9.749509e+001 
3421875000  -4.367549e+001  1.029658e+002 
3425000000  -4.309952e+001  1.080958e+002 
3428125000  -4.188742e+001  1.073988e+002 
3431250000  -4.205325e+001  1.030206e+002 
3434375000  -4.169585e+001  1.016158e+002 
3437500000  -4.234167e+001  9.836470e+001 
3440625000  -4.251540e+001  1.028523e+002 
3443750000  -4.121418e+001  1.051918e+002 
3446875000  -4.042072e+001  1.000014e+002 
3450000000  -4.045828e+001  9.144098e+001 
3453125000  -4.060261e+001  8.262762e+001 
3456250000  -4.164681e+001  7.796024e+001 
3459375000  -4.251529e+001  7.875427e+001 
3462500000  -4.280410e+001  7.907590e+001 
3465625000  -4.284635e+001  7.719237e+001 
3468750000  -4.324892e+001  7.295071e+001 
3471875000  -4.338749e+001  7.469087e+001 
3475000000  -4.334233e+001  7.113227e+001 
3478125000  -4.411847e+001  6.724761e+001 
3481250000  -4.479888e+001  6.326719e+001 
3484375000  -4.654554e+001  6.860490e+001 
3487500000  -4.630350e+001  7.339799e+001 
3490625000  -4.592489e+001  7.102206e+001 
3493750000  -4.604647e+001  6.821087e+001 
3496875000  -4.715107e+001  7.208276e+001 
3500000000  -4.831564e+001  7.770952e+001 
3503125000  -4.799143e+001  8.041405e+001 
3506250000  -4.774190e+001  8.574124e+001 
3509375000  -4.740950e+001  8.105840e+001 
3512500000  -4.772785e+001  7.968121e+001 
3515625000  -4.767139e+001  8.491888e+001 
3518750000  -4.872756e+001  8.894620e+001 
3521875000  -4.753004e+001  9.037251e+001 
3525000000  -4.808126e+001  9.253963e+001 
3528125000  -4.721827e+001  1.015849e+002 
3531250000  -4.593172e+001  1.073383e+002 
3534375000  -4.527859e+001  9.445119e+001 
3537500000  -4.508131e+001  9.324786e+001 
3540625000  -4.581240e+001  9.178609e+001 
3543750000  -4.628620e+001  9.874245e+001 
3546875000  -4.532731e+001  1.070649e+002 
3550000000  -4.284681e+001  1.099151e+002 
3553125000  -4.154916e+001  9.411024e+001 
3556250000  -4.249389e+001  8.918386e+001 
3559375000  -4.201418e+001  9.087813e+001 
3562500000  -4.108752e+001  8.336893e+001 
3565625000  -4.167019e+001  7.780628e+001 
3568750000  -4.178000e+001  7.874583e+001 
3571875000  -4.164115e+001  7.971181e+001 
3575000000  -4.132704e+001  7.460973e+001 
3578125000  -4.137136e+001  7.202491e+001 
3581250000  -4.128749e+001  7.118246e+001 
3584375000  -4.077783e+001  7.121880e+001 
3587500000  -3.992332e+001  6.450500e+001 
3590625000  -4.023976e+001  5.534453e+001 
3593750000  -4.129274e+001  5.441323e+001 
3596875000  -4.130375e+001  6.218492e+001 
3600000000  -3.977999e+001  5.817308e+001 
3603125000  -3.993044e+001  4.682372e+001 
3606250000  -4.033010e+001  4.343229e+001 
3609375000  -4.092540e+001  4.200013e+001 
3612500000  -4.120741e+001  4.163510e+001 
3615625000  -4.149644e+001  3.783629e+001 
3618750000  -4.207006e+001  4.018098e+001 
3621875000  -4.157311e+001  3.867794e+001 
3625000000  -4.193695e+001  3.768797e+001 
3628125000  -4.181012e+001  4.005029e+001 
3631250000  -4.141570e+001  3.471255e+001 
3634375000  -4.267312e+001  3.645422e+001 
3637500000  -4.197983e+001  4.225021e+001 
3640625000  -4.110027e+001  4.132287e+001 
3643750000  -4.066747e+001  3.595778e+001 
3646875000  -4.117323e+001  3.059113e+001 
3650000000  -4.169965e+001  2.923335e+001 
3653125000  -4.165620e+001  3.159565e+001 
3656250000  -4.168934e+001  2.961501e+001 
3659375000  -4.229962e+001  3.209460e+001 
3662500000  -4.131416e+001  3.219741e+001 
3665625000  -4.143998e+001  3.281666e+001 
3668750000  -4.031057e+001  3.447595e+001 
3671875000  -3.935926e+001  2.932701e+001 
3675000000  -3.975355e+001  2.316319e+001 
3678125000  -4.039314e+001  2.556480e+001 
3681250000  -3.982869e+001  2.561998e+001 
3684375000  -4.000959e+001  2.539808e+001 
3687500000  -3.971617e+001  2.328938e+001 
3690625000  -3.968869e+001  2.021770e+001 
3693750000  -4.026141e+001  2.287986e+001 
3696875000  -4.016772e+001  2.471736e+001 
3700000000  -3.905584e+001  2.372061e+001 
3703125000  -3.872663e+001  2.016538e+001 
3706250000  -3.942601e+001  2.091337e+001 
3709375000  -3.868961e+001  2.434081e+001 
3712500000  -3.752298e+001  2.553082e+001 
3715625000  -3.629388e+001  1.871357e+001 
3718750000  -3.568561e+001  1.623068e+001 
3721875000  -3.522854e+001  1.023084e+001 
3725000000  -3.525964e+001  5.854424e+000 
3728125000  -3.545734e+001  5.295205e+000 
3731250000  -3.472286e+001  4.949559e+000 
3734375000  -3.363024e+001  -9.317243e-001 
3737500000  -3.432533e+001  -8.619821e+000 
3740625000  -3.479586e+001  -1.176054e+001 
3743750000  -3.463872e+001  -1.351608e+001 
3746875000  -3.477848e+001  -1.743339e+001 
3750000000  -3.494625e+001  -1.775281e+001 
3753125000  -3.457362e+001  -1.856050e+001 
3756250000  -3.451428e+001  -1.909877e+001 
3759375000  -3.436224e+001  -1.965859e+001 
3762500000  -3.378475e+001  -2.391801e+001 
3765625000  -3.409493e+001  -2.649143e+001 
3768750000  -3.446885e+001  -2.435125e+001 
3771875000  -3.257617e+001  -2.633068e+001 
3775000000  -3.229267e+001  -3.449548e+001 
3778125000  -3.256684e+001  -3.615163e+001 
3781250000  -3.244585e+001  -3.899773e+001 
3784375000  -3.229245e+001  -4.067187e+001 
3787500000  -3.169618e+001  -4.425029e+001 
3790625000  -3.218772e+001  -4.948660e+001 
3793750000  -3.234688e+001  -5.090710e+001 
3796875000  -3.147060e+001  -5.193235e+001 
3800000000  -3.002104e+001  -5.577815e+001 
3803125000  -3.070598e+001  -6.238570e+001 
3806250000  -3.139818e+001  -6.445116e+001 
3809375000  -3.112007e+001  -6.591803e+001 
3812500000  -3.046078e+001  -7.055009e+001 
3815625000  -3.098692e+001  -7.784734e+001 
3818750000  -3.189297e+001  -7.994909e+001 
3821875000  -3.199485e+001  -7.163334e+001 
3825000000  -3.024677e+001  -6.730961e+001 
3828125000  -2.885863e+001  -8.019069e+001 
3831250000  -2.928985e+001  -9.456756e+001 
3834375000  -3.061349e+001  -9.561275e+001 
3837500000  -3.139912e+001  -9.051212e+001 
3840625000  -3.048351e+001  -9.131520e+001 
3843750000  -2.929189e+001  -1.020594e+002 
3846875000  -2.983311e+001  -1.084741e+002 
3850000000  -3.127581e+001  -1.037027e+002 
3853125000  -3.044524e+001  -1.002824e+002 
3856250000  -3.040692e+001  -1.056806e+002 
3859375000  -2.973512e+001  -1.098798e+002 
3862500000  -2.932971e+001  -1.171856e+002 
3865625000  -2.959533e+001  -1.215158e+002 
3868750000  -2.951125e+001  -1.224190e+002 
3871875000  -2.890329e+001  -1.248122e+002 
3875000000  -2.888999e+001  -1.331918e+002 
3878125000  -2.995946e+001  -1.363045e+002 
3881250000  -3.014482e+001  -1.331088e+002 
3884375000  -2.958852e+001  -1.378465e+002 
3887500000  -2.965725e+001  -1.424177e+002 
3890625000  -3.017079e+001  -1.440858e+002 
3893750000  -3.057532e+001  -1.454336e+002 
3896875000  -3.071574e+001  -1.452838e+002 
3900000000  -3.093277e+001  -1.461823e+002 
3903125000  -3.057272e+001  -1.482443e+002 
3906250000  -3.028882e+001  -1.490589e+002 
3909375000  -2.960276e+001  -1.512457e+002 
3912500000  -2.972873e+001  -1.587289e+002 
3915625000  -3.080395e+001  -1.578606e+002 
3918750000  -3.090509e+001  -1.563735e+002 
3921875000  -3.053225e+001  -1.577367e+002 
3925000000  -2.978425e+001  -1.582704e+002 
3928125000  -2.904324e+001  -1.637331e+002 
3931250000  -2.943668e+001  -1.678388e+002 
3934375000  -2.974641e+001  -1.676664e+002 
3937500000  -2.988256e+001  -1.682686e+002 
3940625000  -3.029873e+001  -1.683364e+002 
3943750000  -2.940644e+001  -1.670431e+002 
3946875000  -2.810463e+001  -1.718885e+002 
3950000000  -2.854250e+001  -1.794520e+002 
3953125000  -2.956984e+001  -1.797271e+002 
3956250000  -2.878020e+001  -1.767777e+002 
3959375000  -2.737490e+001  -1.798794e+002 
3962500000  -2.690436e+001  1.767034e+002 
3965625000  -2.646903e+001  1.679187e+002 
3968750000  -2.742844e+001  1.603798e+002 
3971875000  -2.775357e+001  1.597734e+002 
3975000000  -2.721077e+001  1.574047e+002 
3978125000  -2.693649e+001  1.559037e+002 
3981250000  -2.672177e+001  1.516077e+002 
3984375000  -2.690933e+001  1.449353e+002 
3987500000  -2.741172e+001  1.433262e+002 
3990625000  -2.743305e+001  1.421920e+002 
3993750000  -2.768699e+001  1.389409e+002 
3996875000  -2.761382e+001  1.366381e+002 
4000000000  -2.771233e+001  1.343250e+002 
4003125000  -2.827448e+001  1.366055e+002 
4006250000  -2.697705e+001  1.368712e+002 
4009375000  -2.575543e+001  1.249592e+002 
4012500000  -2.676240e+001  1.180757e+002 
4015625000  -2.793190e+001  1.180117e+002 
4018750000  -2.823809e+001  1.202388e+002 
4021875000  -2.753159e+001  1.189604e+002 
4025000000  -2.719184e+001  1.138984e+002 
4028125000  -2.718375e+001  1.105430e+002 
4031250000  -2.766142e+001  1.072148e+002 
4034375000  -2.794833e+001  1.068871e+002 
4037500000  -2.738862e+001  1.086454e+002 
4040625000  -2.726583e+001  1.053799e+002 
4043750000  -2.754637e+001  1.048428e+002 
4046875000  -2.717642e+001  1.044981e+002 
4050000000  -2.668757e+001  9.879272e+001 
4053125000  -2.709324e+001  9.690287e+001 
4056250000  -2.776397e+001  1.005956e+002 
4059375000  -2.657661e+001  1.030728e+002 
4062500000  -2.519933e+001  9.843516e+001 
4065625000  -2.500567e+001  9.413818e+001 
4068750000  -2.473252e+001  8.943620e+001 
4071875000  -2.410720e+001  8.138023e+001 
4075000000  -2.442021e+001  7.506715e+001 
4078125000  -2.501102e+001  7.395155e+001 
4081250000  -2.449578e+001  7.155763e+001 
4084375000  -2.411933e+001  6.512767e+001 
4087500000  -2.442515e+001  5.897136e+001 
4090625000  -2.506224e+001  5.736694e+001 
4093750000  -2.491045e+001  5.822063e+001 
4096875000  -2.443210e+001  5.279755e+001 
4100000000  -2.507965e+001  4.564572e+001 
4103125000  -2.595533e+001  4.560813e+001 
4106250000  -2.590603e+001  5.064673e+001 
4109375000  -2.503682e+001  5.026462e+001 
4112500000  -2.441249e+001  4.378297e+001 
4115625000  -2.476882e+001  3.928350e+001 
4118750000  -2.484286e+001  3.646266e+001 
4121875000  -2.450496e+001  3.181853e+001 
4125000000  -2.479505e+001  2.691103e+001 
4128125000  -2.580024e+001  2.643470e+001 
4131250000  -2.562505e+001  3.472852e+001 
4134375000  -2.330545e+001  3.073791e+001 
4137500000  -2.303772e+001  1.226123e+001 
4140625000  -2.510945e+001  4.631451e+000 
4143750000  -2.649925e+001  8.884254e+000 
4146875000  -2.617263e+001  1.679987e+001 
4150000000  -2.523082e+001  1.404802e+001 
4153125000  -2.501908e+001  7.373698e+000 
4156250000  -2.589408e+001  4.574543e+000 
4159375000  -2.626650e+001  8.673061e+000 
4162500000  -2.506779e+001  1.312120e+001 
4165625000  -2.397756e+001  9.754194e+000 
4168750000  -2.332368e+001  2.384018e+000 
4171875000  -2.331446e+001  -6.783032e+000 
4175000000  -2.385686e+001  -1.251655e+001 
4178125000  -2.448423e+001  -1.250075e+001 
4181250000  -2.444857e+001  -1.304681e+001 
4184375000  -2.425531e+001  -1.638381e+001 
4187500000  -2.427217e+001  -1.891229e+001 
4190625000  -2.405787e+001  -2.400113e+001 
4193750000  -2.486054e+001  -2.818535e+001 
4196875000  -2.552799e+001  -2.820668e+001 
4200000000  -2.629014e+001  -2.650141e+001 
4203125000  -2.652022e+001  -1.401117e+001 
4206250000  -2.318442e+001  -1.135200e+001 
4209375000  -2.196653e+001  -3.145124e+001 
4212500000  -2.375495e+001  -4.054025e+001 
4215625000  -2.476766e+001  -3.504051e+001 
4218750000  -2.357844e+001  -2.751463e+001 
4221875000  -2.124474e+001  -3.703815e+001 
4225000000  -2.248111e+001  -4.990504e+001 
4228125000  -2.317329e+001  -4.474434e+001 
4231250000  -2.160750e+001  -4.818338e+001 
4234375000  -2.151883e+001  -5.639969e+001 
4237500000  -2.114652e+001  -5.968753e+001 
4240625000  -2.111870e+001  -6.822562e+001 
4243750000  -2.203952e+001  -7.490855e+001 
4246875000  -2.294452e+001  -7.505662e+001 
4250000000  -2.303033e+001  -7.226945e+001 
4253125000  -2.239624e+001  -7.409657e+001 
4256250000  -2.273923e+001  -7.805992e+001 
4259375000  -2.248216e+001  -8.043655e+001 
4262500000  -2.248129e+001  -8.408707e+001 
4265625000  -2.267505e+001  -8.368671e+001 
4268750000  -2.182395e+001  -8.754752e+001 
4271875000  -2.157747e+001  -9.340131e+001 
4275000000  -2.091503e+001  -9.947668e+001 
4278125000  -2.152322e+001  -1.108354e+002 
4281250000  -2.328544e+001  -1.128551e+002 
4284375000  -2.302828e+001  -1.118602e+002 
4287500000  -2.375537e+001  -1.158356e+002 
4290625000  -2.506150e+001  -1.065406e+002 
4293750000  -2.310535e+001  -1.004138e+002 
4296875000  -2.174819e+001  -1.115758e+002 
4300000000  -2.254393e+001  -1.208942e+002 
4303125000  -2.368830e+001  -1.205089e+002 
4306250000  -2.320282e+001  -1.140738e+002 
4309375000  -2.174461e+001  -1.156060e+002 
4312500000  -2.163614e+001  -1.240638e+002 
4315625000  -2.185215e+001  -1.300222e+002 
4318750000  -2.212024e+001  -1.333835e+002 
4321875000  -2.231489e+001  -1.330945e+002 
4325000000  -2.174665e+001  -1.322825e+002 
4328125000  -2.128464e+001  -1.387370e+002 
4331250000  -2.119777e+001  -1.463869e+002 
4334375000  -2.157121e+001  -1.513124e+002 
4337500000  -2.235931e+001  -1.538344e+002 
4340625000  -2.296242e+001  -1.511615e+002 
4343750000  -2.244228e+001  -1.502768e+002 
4346875000  -2.200439e+001  -1.554792e+002 
4350000000  -2.198715e+001  -1.603254e+002 
4353125000  -2.200185e+001  -1.682267e+002 
4356250000  -2.373516e+001  -1.692858e+002 
4359375000  -2.441182e+001  -1.571275e+002 
4362500000  -2.187985e+001  -1.541872e+002 
4365625000  -2.020797e+001  -1.653411e+002 
4368750000  -2.076956e+001  -1.773699e+002 
4371875000  -2.204224e+001  -1.773940e+002 
4375000000  -2.175086e+001  -1.758167e+002 
4378125000  -2.108999e+001  1.781919e+002 
4381250000  -2.125224e+001  1.729894e+002 
4384375000  -2.104415e+001  1.684541e+002 
4387500000  -2.178591e+001  1.627736e+002 
4390625000  -2.284232e+001  1.635050e+002 
4393750000  -2.218889e+001  1.657223e+002 
4396875000  -2.150436e+001  1.634363e+002 
4400000000  -2.097270e+001  1.567465e+002 
4403125000  -2.150906e+001  1.493147e+002 
4406250000  -2.240236e+001  1.478553e+002 
4409375000  -2.234982e+001  1.455249e+002 
4412500000  -2.337086e+001  1.427064e+002 
4415625000  -2.378569e+001  1.474769e+002 
4418750000  -2.262194e+001  1.521341e+002 
