!Agilent Technologies,E8363B,MY43030201,A.06.04.32
!Agilent E8363B: A.06.04.32
!Date: Tuesday, November 11, 2014 20:56:46
!Correction: S21(Response(S21)) 
!S1P File: Measurement: S21:
# Hz S  dB   R 50
3000000000  -2.649019e+001  1.477520e+002 
3003125000  -2.793887e+001  1.431286e+002 
3006250000  -2.795005e+001  1.404309e+002 
3009375000  -2.838953e+001  1.457135e+002 
3012500000  -2.776690e+001  1.449581e+002 
3015625000  -2.688011e+001  1.380695e+002 
3018750000  -2.769776e+001  1.373802e+002 
3021875000  -2.641494e+001  1.388552e+002 
3025000000  -2.507564e+001  1.355778e+002 
3028125000  -2.413490e+001  1.303552e+002 
3031250000  -2.309522e+001  1.190530e+002 
3034375000  -2.273388e+001  1.060144e+002 
3037500000  -2.312086e+001  9.417811e+001 
3040625000  -2.446027e+001  8.933774e+001 
3043750000  -2.518568e+001  8.477145e+001 
3046875000  -2.532189e+001  7.891344e+001 
3050000000  -2.697594e+001  7.200580e+001 
3053125000  -2.708300e+001  7.860005e+001 
3056250000  -2.643973e+001  8.153106e+001 
3059375000  -2.667813e+001  8.096260e+001 
3062500000  -2.515590e+001  7.691708e+001 
3065625000  -2.501261e+001  7.149954e+001 
3068750000  -2.468213e+001  6.443169e+001 
3071875000  -2.461992e+001  6.144160e+001 
3075000000  -2.456353e+001  5.746823e+001 
3078125000  -2.432474e+001  5.297549e+001 
3081250000  -2.497474e+001  4.880196e+001 
3084375000  -2.419531e+001  4.496334e+001 
3087500000  -2.409991e+001  4.134988e+001 
3090625000  -2.378679e+001  3.171261e+001 
3093750000  -2.429842e+001  2.375802e+001 
3096875000  -2.554752e+001  1.777148e+001 
3100000000  -2.562550e+001  1.660773e+001 
3103125000  -2.602599e+001  1.769744e+001 
3106250000  -2.577155e+001  1.435868e+001 
3109375000  -2.600908e+001  1.092128e+001 
3112500000  -2.613219e+001  9.554115e+000 
3115625000  -2.595023e+001  5.539505e+000 
3118750000  -2.640566e+001  6.911788e+000 
3121875000  -2.576423e+001  -1.441724e+000 
3125000000  -2.697365e+001  -4.862171e+000 
3128125000  -2.813136e+001  3.697485e+000 
3131250000  -2.592287e+001  4.036264e+000 
3134375000  -2.464545e+001  -9.908247e+000 
3137500000  -2.529684e+001  -2.339158e+001 
3140625000  -2.688549e+001  -2.490169e+001 
3143750000  -2.794562e+001  -2.120683e+001 
3146875000  -2.750310e+001  -1.893629e+001 
3150000000  -2.649000e+001  -1.713692e+001 
3153125000  -2.645970e+001  -2.453240e+001 
3156250000  -2.747864e+001  -1.920945e+001 
3159375000  -2.583836e+001  -1.619084e+001 
3162500000  -2.385393e+001  -2.913210e+001 
3165625000  -2.478954e+001  -4.015958e+001 
3168750000  -2.514210e+001  -3.929366e+001 
3171875000  -2.420860e+001  -4.339388e+001 
3175000000  -2.488049e+001  -5.114616e+001 
3178125000  -2.464289e+001  -4.963565e+001 
3181250000  -2.349016e+001  -5.376818e+001 
3184375000  -2.272087e+001  -6.599873e+001 
3187500000  -2.386854e+001  -8.086548e+001 
3190625000  -2.658305e+001  -8.827316e+001 
3193750000  -2.717445e+001  -7.863284e+001 
3196875000  -2.677969e+001  -7.339694e+001 
3200000000  -2.582826e+001  -7.515709e+001 
3203125000  -2.498927e+001  -8.090222e+001 
3206250000  -2.528573e+001  -8.708329e+001 
3209375000  -2.482920e+001  -9.232729e+001 
3212500000  -2.497050e+001  -9.906588e+001 
3215625000  -2.511062e+001  -1.028699e+002 
3218750000  -2.588003e+001  -1.093159e+002 
3221875000  -2.685444e+001  -1.142328e+002 
3225000000  -2.644115e+001  -1.149535e+002 
3228125000  -2.675365e+001  -1.198386e+002 
3231250000  -2.748760e+001  -1.219210e+002 
3234375000  -2.735339e+001  -1.209556e+002 
3237500000  -2.741345e+001  -1.228091e+002 
3240625000  -2.702965e+001  -1.247128e+002 
3243750000  -2.668015e+001  -1.310423e+002 
3246875000  -2.715899e+001  -1.376996e+002 
3250000000  -2.760440e+001  -1.397382e+002 
3253125000  -2.785831e+001  -1.411526e+002 
3256250000  -2.766484e+001  -1.471015e+002 
3259375000  -2.796270e+001  -1.544538e+002 
3262500000  -2.928168e+001  -1.574097e+002 
3265625000  -2.993061e+001  -1.537784e+002 
3268750000  -2.988940e+001  -1.514523e+002 
3271875000  -2.961090e+001  -1.504245e+002 
3275000000  -2.856439e+001  -1.557747e+002 
3278125000  -2.906127e+001  -1.615460e+002 
3281250000  -2.927913e+001  -1.596553e+002 
3284375000  -2.889277e+001  -1.658050e+002 
3287500000  -2.904565e+001  -1.684413e+002 
3290625000  -2.943857e+001  -1.731462e+002 
3293750000  -2.915348e+001  -1.785269e+002 
3296875000  -3.019511e+001  -1.783207e+002 
3300000000  -3.000501e+001  -1.771159e+002 
3303125000  -2.892125e+001  1.785630e+002 
3306250000  -2.867188e+001  1.723357e+002 
3309375000  -2.842817e+001  1.673970e+002 
3312500000  -2.848664e+001  1.567446e+002 
3315625000  -2.954303e+001  1.488002e+002 
3318750000  -3.086329e+001  1.460847e+002 
3321875000  -3.213556e+001  1.464855e+002 
3325000000  -3.258794e+001  1.522307e+002 
3328125000  -3.235198e+001  1.530918e+002 
3331250000  -3.129222e+001  1.612253e+002 
3334375000  -2.856420e+001  1.507924e+002 
3337500000  -2.867763e+001  1.318925e+002 
3340625000  -3.007417e+001  1.215631e+002 
3343750000  -3.210331e+001  1.207697e+002 
3346875000  -3.253547e+001  1.221538e+002 
3350000000  -3.184957e+001  1.205703e+002 
3353125000  -3.198452e+001  1.161543e+002 
3356250000  -3.174318e+001  1.084293e+002 
3359375000  -3.258821e+001  1.001553e+002 
3362500000  -3.381113e+001  9.506538e+001 
3365625000  -3.447275e+001  9.343391e+001 
3368750000  -3.534590e+001  9.203536e+001 
3371875000  -3.584668e+001  8.843527e+001 
3375000000  -3.744793e+001  8.738379e+001 
3378125000  -3.842943e+001  8.659746e+001 
3381250000  -3.998769e+001  9.367767e+001 
3384375000  -3.905415e+001  1.161177e+002 
3387500000  -3.590452e+001  1.015443e+002 
3390625000  -3.770446e+001  8.166119e+001 
3393750000  -3.952251e+001  8.643983e+001 
3396875000  -3.861773e+001  8.941663e+001 
3400000000  -3.867610e+001  8.171339e+001 
3403125000  -3.951527e+001  7.865046e+001 
3406250000  -4.053535e+001  8.166275e+001 
3409375000  -4.095659e+001  7.683404e+001 
3412500000  -4.186412e+001  7.862322e+001 
3415625000  -4.271456e+001  8.430220e+001 
3418750000  -4.315228e+001  8.620498e+001 
3421875000  -4.342326e+001  9.416283e+001 
3425000000  -4.231984e+001  9.680373e+001 
3428125000  -4.139098e+001  9.452840e+001 
3431250000  -4.153971e+001  9.160912e+001 
3434375000  -4.125785e+001  8.948531e+001 
3437500000  -4.167388e+001  8.706194e+001 
3440625000  -4.197129e+001  8.990844e+001 
3443750000  -4.072252e+001  9.113364e+001 
3446875000  -4.004194e+001  8.676083e+001 
3450000000  -3.976181e+001  7.764484e+001 
3453125000  -3.983566e+001  7.006427e+001 
3456250000  -4.126891e+001  6.439045e+001 
3459375000  -4.203663e+001  6.868295e+001 
3462500000  -4.222303e+001  6.705840e+001 
3465625000  -4.212888e+001  6.261620e+001 
3468750000  -4.280505e+001  5.912020e+001 
3471875000  -4.246759e+001  6.186454e+001 
3475000000  -4.249070e+001  5.676292e+001 
3478125000  -4.345332e+001  5.038146e+001 
3481250000  -4.442405e+001  5.035380e+001 
3484375000  -4.577254e+001  5.737474e+001 
3487500000  -4.549412e+001  6.069699e+001 
3490625000  -4.491794e+001  5.651262e+001 
3493750000  -4.575823e+001  4.830763e+001 
3496875000  -4.648366e+001  5.574704e+001 
3500000000  -4.783694e+001  6.133622e+001 
3503125000  -4.741702e+001  6.544710e+001 
3506250000  -4.671353e+001  6.488704e+001 
3509375000  -4.684798e+001  6.366467e+001 
3512500000  -4.700389e+001  6.119835e+001 
3515625000  -4.745863e+001  6.395206e+001 
3518750000  -4.817152e+001  7.027699e+001 
3521875000  -4.820617e+001  7.273870e+001 
3525000000  -4.735627e+001  7.319007e+001 
3528125000  -4.728637e+001  8.398099e+001 
3531250000  -4.575089e+001  8.853494e+001 
3534375000  -4.573633e+001  7.910711e+001 
3537500000  -4.516647e+001  7.638419e+001 
3540625000  -4.538727e+001  7.803056e+001 
3543750000  -4.608389e+001  7.832734e+001 
3546875000  -4.561159e+001  9.431516e+001 
3550000000  -4.295259e+001  9.224324e+001 
3553125000  -4.144144e+001  7.892455e+001 
3556250000  -4.237330e+001  7.204488e+001 
3559375000  -4.227306e+001  7.529378e+001 
3562500000  -4.094588e+001  6.881284e+001 
3565625000  -4.180944e+001  6.216760e+001 
3568750000  -4.175701e+001  6.485112e+001 
3571875000  -4.175708e+001  6.378769e+001 
3575000000  -4.086117e+001  5.935583e+001 
3578125000  -4.139485e+001  5.482095e+001 
3581250000  -4.164987e+001  5.715069e+001 
3584375000  -4.047743e+001  5.531336e+001 
3587500000  -3.981796e+001  4.995925e+001 
3590625000  -4.021686e+001  4.201420e+001 
3593750000  -4.113633e+001  4.018762e+001 
3596875000  -4.130893e+001  4.801163e+001 
3600000000  -3.942778e+001  4.477546e+001 
3603125000  -3.965372e+001  3.061102e+001 
3606250000  -4.026081e+001  2.867065e+001 
3609375000  -4.063091e+001  2.664625e+001 
3612500000  -4.128472e+001  2.504131e+001 
3615625000  -4.115838e+001  2.380525e+001 
3618750000  -4.183931e+001  2.668294e+001 
3621875000  -4.140718e+001  2.450642e+001 
3625000000  -4.159978e+001  2.489046e+001 
3628125000  -4.157008e+001  2.503500e+001 
3631250000  -4.116770e+001  1.967838e+001 
3634375000  -4.227265e+001  2.093160e+001 
3637500000  -4.200614e+001  2.703057e+001 
3640625000  -4.075995e+001  2.823449e+001 
3643750000  -4.055163e+001  2.103959e+001 
3646875000  -4.109406e+001  1.534626e+001 
3650000000  -4.159201e+001  1.580623e+001 
3653125000  -4.146260e+001  1.601436e+001 
3656250000  -4.167651e+001  1.277150e+001 
3659375000  -4.177145e+001  1.760000e+001 
3662500000  -4.106079e+001  1.641324e+001 
3665625000  -4.123201e+001  1.865689e+001 
3668750000  -4.013715e+001  1.931777e+001 
3671875000  -3.925306e+001  1.393548e+001 
3675000000  -3.966320e+001  8.412681e+000 
3678125000  -4.013756e+001  1.002562e+001 
3681250000  -3.965685e+001  1.110067e+001 
3684375000  -3.966701e+001  8.711194e+000 
3687500000  -3.962169e+001  7.593760e+000 
3690625000  -3.952794e+001  4.421498e+000 
3693750000  -4.007779e+001  7.047907e+000 
3696875000  -3.999336e+001  1.098514e+001 
3700000000  -3.889451e+001  8.442127e+000 
3703125000  -3.865983e+001  5.127848e+000 
3706250000  -3.923118e+001  7.195910e+000 
3709375000  -3.859469e+001  1.006229e+001 
3712500000  -3.729342e+001  1.046073e+001 
3715625000  -3.618065e+001  4.547091e+000 
3718750000  -3.544450e+001  1.375957e+000 
3721875000  -3.523526e+001  -4.838843e+000 
3725000000  -3.500782e+001  -9.728643e+000 
3728125000  -3.521629e+001  -9.417553e+000 
3731250000  -3.470848e+001  -9.778267e+000 
3734375000  -3.377855e+001  -1.662433e+001 
3737500000  -3.421861e+001  -2.423784e+001 
3740625000  -3.476052e+001  -2.690104e+001 
3743750000  -3.452834e+001  -2.868856e+001 
3746875000  -3.448393e+001  -3.296385e+001 
3750000000  -3.493068e+001  -3.364410e+001 
3753125000  -3.446350e+001  -3.413643e+001 
3756250000  -3.445121e+001  -3.445684e+001 
3759375000  -3.431375e+001  -3.426924e+001 
3762500000  -3.366846e+001  -3.969261e+001 
3765625000  -3.414506e+001  -4.156180e+001 
3768750000  -3.433047e+001  -3.904120e+001 
3771875000  -3.245207e+001  -4.172298e+001 
3775000000  -3.225819e+001  -4.915582e+001 
3778125000  -3.259499e+001  -5.114540e+001 
3781250000  -3.235949e+001  -5.431382e+001 
3784375000  -3.228441e+001  -5.611872e+001 
3787500000  -3.167363e+001  -5.944084e+001 
3790625000  -3.221954e+001  -6.495356e+001 
3793750000  -3.230495e+001  -6.515995e+001 
3796875000  -3.141047e+001  -6.705390e+001 
3800000000  -2.987360e+001  -7.057879e+001 
3803125000  -3.066667e+001  -7.815981e+001 
3806250000  -3.132706e+001  -7.969117e+001 
3809375000  -3.107050e+001  -8.063729e+001 
3812500000  -3.036734e+001  -8.609108e+001 
3815625000  -3.101244e+001  -9.363065e+001 
3818750000  -3.208327e+001  -9.440703e+001 
3821875000  -3.209684e+001  -8.660913e+001 
3825000000  -3.007221e+001  -8.189904e+001 
3828125000  -2.877567e+001  -9.608519e+001 
3831250000  -2.939957e+001  -1.097063e+002 
3834375000  -3.069151e+001  -1.103598e+002 
3837500000  -3.150857e+001  -1.055197e+002 
3840625000  -3.039251e+001  -1.067700e+002 
3843750000  -2.929564e+001  -1.164471e+002 
3846875000  -2.996442e+001  -1.234497e+002 
3850000000  -3.120901e+001  -1.181690e+002 
3853125000  -3.048282e+001  -1.157292e+002 
3856250000  -3.038825e+001  -1.201985e+002 
3859375000  -2.974973e+001  -1.246326e+002 
3862500000  -2.925578e+001  -1.326089e+002 
3865625000  -2.957854e+001  -1.370050e+002 
3868750000  -2.955935e+001  -1.373755e+002 
3871875000  -2.885583e+001  -1.405570e+002 
3875000000  -2.897521e+001  -1.493090e+002 
3878125000  -3.001149e+001  -1.518747e+002 
3881250000  -3.012611e+001  -1.489961e+002 
3884375000  -2.954985e+001  -1.532675e+002 
3887500000  -2.969922e+001  -1.576674e+002 
3890625000  -3.021515e+001  -1.596650e+002 
3893750000  -3.060560e+001  -1.611003e+002 
3896875000  -3.070521e+001  -1.610121e+002 
3900000000  -3.106254e+001  -1.616616e+002 
3903125000  -3.063051e+001  -1.636339e+002 
3906250000  -3.032987e+001  -1.637489e+002 
3909375000  -2.962859e+001  -1.671223e+002 
3912500000  -2.966304e+001  -1.742587e+002 
3915625000  -3.091813e+001  -1.736991e+002 
3918750000  -3.102277e+001  -1.714619e+002 
3921875000  -3.064113e+001  -1.732392e+002 
3925000000  -2.974825e+001  -1.736777e+002 
3928125000  -2.916806e+001  -1.799077e+002 
3931250000  -2.961951e+001  1.759402e+002 
3934375000  -2.982680e+001  1.761265e+002 
3937500000  -2.990578e+001  1.759415e+002 
3940625000  -3.044624e+001  1.760750e+002 
3943750000  -2.942954e+001  1.774023e+002 
3946875000  -2.820836e+001  1.719480e+002 
3950000000  -2.868370e+001  1.643876e+002 
3953125000  -2.969789e+001  1.654761e+002 
3956250000  -2.872401e+001  1.682895e+002 
3959375000  -2.748594e+001  1.652368e+002 
3962500000  -2.694371e+001  1.606733e+002 
3965625000  -2.660890e+001  1.520722e+002 
3968750000  -2.752527e+001  1.451603e+002 
3971875000  -2.786326e+001  1.437939e+002 
3975000000  -2.723390e+001  1.419573e+002 
3978125000  -2.705075e+001  1.408245e+002 
3981250000  -2.678161e+001  1.358891e+002 
3984375000  -2.700641e+001  1.297193e+002 
3987500000  -2.757256e+001  1.279178e+002 
3990625000  -2.753352e+001  1.272206e+002 
3993750000  -2.775756e+001  1.238004e+002 
3996875000  -2.765785e+001  1.214093e+002 
4000000000  -2.783304e+001  1.191405e+002 
4003125000  -2.839112e+001  1.214348e+002 
4006250000  -2.697593e+001  1.221187e+002 
4009375000  -2.575437e+001  1.089652e+002 
4012500000  -2.687053e+001  1.023390e+002 
4015625000  -2.810990e+001  1.026192e+002 
4018750000  -2.830873e+001  1.055544e+002 
4021875000  -2.759331e+001  1.034457e+002 
4025000000  -2.725070e+001  9.849032e+001 
4028125000  -2.716199e+001  9.478947e+001 
4031250000  -2.765609e+001  9.130296e+001 
4034375000  -2.793068e+001  9.173121e+001 
4037500000  -2.744914e+001  9.342114e+001 
4040625000  -2.732933e+001  8.972371e+001 
4043750000  -2.776138e+001  8.965429e+001 
4046875000  -2.733557e+001  8.891737e+001 
4050000000  -2.682027e+001  8.347856e+001 
4053125000  -2.728635e+001  8.223344e+001 
4056250000  -2.783742e+001  8.596290e+001 
4059375000  -2.658647e+001  8.818360e+001 
4062500000  -2.519966e+001  8.281854e+001 
4065625000  -2.511817e+001  7.851247e+001 
4068750000  -2.482143e+001  7.419389e+001 
4071875000  -2.416748e+001  6.609062e+001 
4075000000  -2.454738e+001  5.983198e+001 
4078125000  -2.504088e+001  5.899511e+001 
4081250000  -2.457955e+001  5.643118e+001 
4084375000  -2.416687e+001  4.973091e+001 
4087500000  -2.451283e+001  4.372554e+001 
4090625000  -2.515281e+001  4.281892e+001 
4093750000  -2.491011e+001  4.354633e+001 
4096875000  -2.453513e+001  3.708230e+001 
4100000000  -2.513996e+001  3.039795e+001 
4103125000  -2.600758e+001  3.103983e+001 
4106250000  -2.595441e+001  3.601492e+001 
4109375000  -2.497453e+001  3.515300e+001 
4112500000  -2.449682e+001  2.895019e+001 
4115625000  -2.480630e+001  2.430063e+001 
4118750000  -2.485131e+001  2.158737e+001 
4121875000  -2.450056e+001  1.697378e+001 
4125000000  -2.491270e+001  1.165281e+001 
4128125000  -2.589683e+001  1.186528e+001 
4131250000  -2.557874e+001  1.981878e+001 
4134375000  -2.319421e+001  1.523939e+001 
4137500000  -2.299760e+001  -3.491446e+000 
4140625000  -2.522859e+001  -1.073995e+001 
4143750000  -2.653644e+001  -5.276815e+000 
4146875000  -2.611261e+001  1.796533e+000 
4150000000  -2.513244e+001  -1.543491e+000 
4153125000  -2.502563e+001  -7.856501e+000 
4156250000  -2.588090e+001  -1.060580e+001 
4159375000  -2.620511e+001  -5.910316e+000 
4162500000  -2.505789e+001  -1.829040e+000 
4165625000  -2.386466e+001  -5.633070e+000 
4168750000  -2.328329e+001  -1.285963e+001 
4171875000  -2.329695e+001  -2.219354e+001 
4175000000  -2.387751e+001  -2.793584e+001 
4178125000  -2.450287e+001  -2.752092e+001 
4181250000  -2.433753e+001  -2.832370e+001 
4184375000  -2.426776e+001  -3.187816e+001 
4187500000  -2.425697e+001  -3.433501e+001 
4190625000  -2.406985e+001  -3.987729e+001 
4193750000  -2.492911e+001  -4.339314e+001 
4196875000  -2.560582e+001  -4.361377e+001 
4200000000  -2.648149e+001  -4.142001e+001 
4203125000  -2.643099e+001  -2.781797e+001 
4206250000  -2.304602e+001  -2.660974e+001 
4209375000  -2.190347e+001  -4.741158e+001 
4212500000  -2.387718e+001  -5.605096e+001 
4215625000  -2.482987e+001  -4.936727e+001 
4218750000  -2.350363e+001  -4.299792e+001 
4221875000  -2.114629e+001  -5.205964e+001 
4225000000  -2.241896e+001  -6.440537e+001 
4228125000  -2.307605e+001  -5.943570e+001 
4231250000  -2.151141e+001  -6.310346e+001 
4234375000  -2.144903e+001  -7.182143e+001 
4237500000  -2.099514e+001  -7.489577e+001 
4240625000  -2.107771e+001  -8.361640e+001 
4243750000  -2.202359e+001  -9.032359e+001 
4246875000  -2.291534e+001  -9.041428e+001 
4250000000  -2.296625e+001  -8.751409e+001 
4253125000  -2.236581e+001  -8.917663e+001 
4256250000  -2.265533e+001  -9.351064e+001 
4259375000  -2.239380e+001  -9.552521e+001 
4262500000  -2.239815e+001  -9.906599e+001 
4265625000  -2.257397e+001  -9.902981e+001 
4268750000  -2.170462e+001  -1.030446e+002 
4271875000  -2.141681e+001  -1.088718e+002 
4275000000  -2.082728e+001  -1.152628e+002 
4278125000  -2.143138e+001  -1.262999e+002 
4281250000  -2.327856e+001  -1.281759e+002 
4284375000  -2.292526e+001  -1.277086e+002 
4287500000  -2.376825e+001  -1.312245e+002 
4290625000  -2.495297e+001  -1.212487e+002 
4293750000  -2.297833e+001  -1.160896e+002 
4296875000  -2.161045e+001  -1.274510e+002 
4300000000  -2.247190e+001  -1.369169e+002 
4303125000  -2.364400e+001  -1.356952e+002 
4306250000  -2.297716e+001  -1.297345e+002 
4309375000  -2.160962e+001  -1.314114e+002 
4312500000  -2.150033e+001  -1.398351e+002 
4315625000  -2.173376e+001  -1.463425e+002 
4318750000  -2.208356e+001  -1.494791e+002 
4321875000  -2.220991e+001  -1.487055e+002 
4325000000  -2.165658e+001  -1.482514e+002 
4328125000  -2.112710e+001  -1.548336e+002 
4331250000  -2.108047e+001  -1.627244e+002 
4334375000  -2.150266e+001  -1.679894e+002 
4337500000  -2.237184e+001  -1.699871e+002 
4340625000  -2.296472e+001  -1.664808e+002 
4343750000  -2.229389e+001  -1.661541e+002 
4346875000  -2.189231e+001  -1.717505e+002 
4350000000  -2.191330e+001  -1.765569e+002 
4353125000  -2.197253e+001  1.758813e+002 
4356250000  -2.377130e+001  1.751333e+002 
4359375000  -2.430132e+001  -1.714481e+002 
4362500000  -2.152846e+001  -1.696556e+002 
4365625000  -1.997588e+001  1.782408e+002 
4368750000  -2.070198e+001  1.666393e+002 
4371875000  -2.193580e+001  1.673631e+002 
4375000000  -2.155375e+001  1.682696e+002 
4378125000  -2.091141e+001  1.622786e+002 
4381250000  -2.110185e+001  1.567758e+002 
4384375000  -2.093072e+001  1.523607e+002 
4387500000  -2.165461e+001  1.465746e+002 
4390625000  -2.263900e+001  1.472819e+002 
4393750000  -2.200080e+001  1.497466e+002 
4396875000  -2.131495e+001  1.474287e+002 
4400000000  -2.083668e+001  1.405557e+002 
4403125000  -2.141329e+001  1.328410e+002 
4406250000  -2.222936e+001  1.313226e+002 
4409375000  -2.222079e+001  1.293206e+002 
4412500000  -2.325484e+001  1.264697e+002 
4415625000  -2.363627e+001  1.317025e+002 
4418750000  -2.240034e+001  1.360093e+002 
