!Agilent Technologies,E8363B,MY43030201,A.06.04.32
!Agilent E8363B: A.06.04.32
!Date: Tuesday, November 11, 2014 20:49:54
!Correction: S21(Response(S21)) 
!S1P File: Measurement: S21:
# Hz S  dB   R 50
3000000000  -2.653929e+001  1.534850e+002 
3003125000  -2.794011e+001  1.492763e+002 
3006250000  -2.797279e+001  1.461541e+002 
3009375000  -2.837094e+001  1.511151e+002 
3012500000  -2.781021e+001  1.510578e+002 
3015625000  -2.680746e+001  1.441016e+002 
3018750000  -2.771029e+001  1.432192e+002 
3021875000  -2.644902e+001  1.444682e+002 
3025000000  -2.512449e+001  1.412844e+002 
3028125000  -2.415105e+001  1.364125e+002 
3031250000  -2.312308e+001  1.253269e+002 
3034375000  -2.276045e+001  1.121285e+002 
3037500000  -2.311613e+001  1.002703e+002 
3040625000  -2.443640e+001  9.518586e+001 
3043750000  -2.514143e+001  9.075733e+001 
3046875000  -2.525888e+001  8.453881e+001 
3050000000  -2.699149e+001  7.740023e+001 
3053125000  -2.711635e+001  8.395168e+001 
3056250000  -2.644550e+001  8.708026e+001 
3059375000  -2.671709e+001  8.670390e+001 
3062500000  -2.522025e+001  8.320381e+001 
3065625000  -2.500909e+001  7.724187e+001 
3068750000  -2.472873e+001  7.031398e+001 
3071875000  -2.467590e+001  6.720813e+001 
3075000000  -2.463628e+001  6.353204e+001 
3078125000  -2.435134e+001  5.892664e+001 
3081250000  -2.500087e+001  5.477363e+001 
3084375000  -2.423005e+001  5.098373e+001 
3087500000  -2.414820e+001  4.758463e+001 
3090625000  -2.383253e+001  3.788781e+001 
3093750000  -2.426269e+001  2.982369e+001 
3096875000  -2.555046e+001  2.378769e+001 
3100000000  -2.570420e+001  2.259531e+001 
3103125000  -2.607938e+001  2.387292e+001 
3106250000  -2.580104e+001  2.039326e+001 
3109375000  -2.600967e+001  1.694759e+001 
3112500000  -2.618337e+001  1.594888e+001 
3115625000  -2.593958e+001  1.163425e+001 
3118750000  -2.648071e+001  1.294591e+001 
3121875000  -2.580560e+001  4.805799e+000 
3125000000  -2.695378e+001  1.167647e+000 
3128125000  -2.819728e+001  9.442548e+000 
3131250000  -2.597957e+001  9.805002e+000 
3134375000  -2.461834e+001  -3.565030e+000 
3137500000  -2.531139e+001  -1.762784e+001 
3140625000  -2.689462e+001  -1.884449e+001 
3143750000  -2.794509e+001  -1.509632e+001 
3146875000  -2.752074e+001  -1.309737e+001 
3150000000  -2.653560e+001  -1.058556e+001 
3153125000  -2.649877e+001  -1.817626e+001 
3156250000  -2.748731e+001  -1.321180e+001 
3159375000  -2.590863e+001  -9.791678e+000 
3162500000  -2.385731e+001  -2.264167e+001 
3165625000  -2.478291e+001  -3.398069e+001 
3168750000  -2.522195e+001  -3.309758e+001 
3171875000  -2.422524e+001  -3.709644e+001 
3175000000  -2.491715e+001  -4.505930e+001 
3178125000  -2.469245e+001  -4.338489e+001 
3181250000  -2.347219e+001  -4.745556e+001 
3184375000  -2.270808e+001  -5.961554e+001 
3187500000  -2.380721e+001  -7.495902e+001 
3190625000  -2.657894e+001  -8.207756e+001 
3193750000  -2.716534e+001  -7.260048e+001 
3196875000  -2.674966e+001  -6.710907e+001 
3200000000  -2.591682e+001  -6.918525e+001 
3203125000  -2.505341e+001  -7.515215e+001 
3206250000  -2.530126e+001  -8.093093e+001 
3209375000  -2.483958e+001  -8.626550e+001 
3212500000  -2.497726e+001  -9.292788e+001 
3215625000  -2.511060e+001  -9.720101e+001 
3218750000  -2.582007e+001  -1.030742e+002 
3221875000  -2.687700e+001  -1.084695e+002 
3225000000  -2.648172e+001  -1.089362e+002 
3228125000  -2.679165e+001  -1.135070e+002 
3231250000  -2.750864e+001  -1.161601e+002 
3234375000  -2.740859e+001  -1.150266e+002 
3237500000  -2.745007e+001  -1.167724e+002 
3240625000  -2.707988e+001  -1.186425e+002 
3243750000  -2.675188e+001  -1.251336e+002 
3246875000  -2.723938e+001  -1.317624e+002 
3250000000  -2.767034e+001  -1.334849e+002 
3253125000  -2.781766e+001  -1.352102e+002 
3256250000  -2.770634e+001  -1.411240e+002 
3259375000  -2.797690e+001  -1.487221e+002 
3262500000  -2.923131e+001  -1.515470e+002 
3265625000  -2.991627e+001  -1.483567e+002 
3268750000  -2.988808e+001  -1.454396e+002 
3271875000  -2.964780e+001  -1.445620e+002 
3275000000  -2.858511e+001  -1.498196e+002 
3278125000  -2.903619e+001  -1.557443e+002 
3281250000  -2.935698e+001  -1.536424e+002 
3284375000  -2.884729e+001  -1.599249e+002 
3287500000  -2.901958e+001  -1.627005e+002 
3290625000  -2.950380e+001  -1.669176e+002 
3293750000  -2.915518e+001  -1.722749e+002 
3296875000  -3.015540e+001  -1.722793e+002 
3300000000  -3.007587e+001  -1.711387e+002 
3303125000  -2.892428e+001  -1.753873e+002 
3306250000  -2.870347e+001  1.781641e+002 
3309375000  -2.846691e+001  1.731567e+002 
3312500000  -2.856247e+001  1.629303e+002 
3315625000  -2.947022e+001  1.548651e+002 
3318750000  -3.085048e+001  1.522077e+002 
3321875000  -3.204336e+001  1.529533e+002 
3325000000  -3.263437e+001  1.573970e+002 
3328125000  -3.250288e+001  1.587332e+002 
3331250000  -3.130996e+001  1.657326e+002 
3334375000  -2.865270e+001  1.567860e+002 
3337500000  -2.873832e+001  1.382452e+002 
3340625000  -3.007828e+001  1.275206e+002 
3343750000  -3.201844e+001  1.263006e+002 
3346875000  -3.261039e+001  1.275371e+002 
3350000000  -3.185578e+001  1.260525e+002 
3353125000  -3.203696e+001  1.222894e+002 
3356250000  -3.173612e+001  1.143867e+002 
3359375000  -3.260289e+001  1.060779e+002 
3362500000  -3.389612e+001  1.008597e+002 
3365625000  -3.465051e+001  9.928738e+001 
3368750000  -3.553595e+001  9.723689e+001 
3371875000  -3.584535e+001  9.396642e+001 
3375000000  -3.744572e+001  9.271831e+001 
3378125000  -3.855421e+001  9.151175e+001 
3381250000  -4.017596e+001  1.000136e+002 
3384375000  -3.934903e+001  1.203611e+002 
3387500000  -3.608136e+001  1.060017e+002 
3390625000  -3.769614e+001  8.699680e+001 
3393750000  -3.977858e+001  9.174083e+001 
3396875000  -3.884744e+001  9.485713e+001 
3400000000  -3.865953e+001  8.762854e+001 
3403125000  -3.978650e+001  8.183311e+001 
3406250000  -4.060306e+001  8.504411e+001 
3409375000  -4.124058e+001  8.013405e+001 
3412500000  -4.212343e+001  8.227118e+001 
3415625000  -4.285069e+001  8.826083e+001 
3418750000  -4.329692e+001  9.302598e+001 
3421875000  -4.361470e+001  9.913224e+001 
3425000000  -4.264270e+001  1.033281e+002 
3428125000  -4.170671e+001  1.001475e+002 
3431250000  -4.172763e+001  9.614713e+001 
3434375000  -4.163265e+001  9.501795e+001 
3437500000  -4.175418e+001  9.365435e+001 
3440625000  -4.210687e+001  9.726339e+001 
3443750000  -4.096730e+001  9.841148e+001 
3446875000  -4.009941e+001  9.265294e+001 
3450000000  -4.003196e+001  8.316036e+001 
3453125000  -4.009005e+001  7.481173e+001 
3456250000  -4.139000e+001  7.080206e+001 
3459375000  -4.232773e+001  7.428854e+001 
3462500000  -4.239278e+001  7.335078e+001 
3465625000  -4.237326e+001  7.046719e+001 
3468750000  -4.300363e+001  6.655650e+001 
3471875000  -4.316662e+001  6.628663e+001 
3475000000  -4.282107e+001  6.534464e+001 
3478125000  -4.375270e+001  5.991040e+001 
3481250000  -4.487049e+001  5.853092e+001 
3484375000  -4.594354e+001  6.334743e+001 
3487500000  -4.585391e+001  6.474561e+001 
3490625000  -4.511050e+001  6.352049e+001 
3493750000  -4.640217e+001  6.067942e+001 
3496875000  -4.673885e+001  5.963846e+001 
3500000000  -4.814901e+001  6.828493e+001 
3503125000  -4.817022e+001  7.623260e+001 
3506250000  -4.674727e+001  7.458936e+001 
3509375000  -4.693404e+001  7.421220e+001 
3512500000  -4.768554e+001  7.273515e+001 
3515625000  -4.784372e+001  7.098147e+001 
3518750000  -4.788857e+001  7.618567e+001 
3521875000  -4.778678e+001  7.891026e+001 
3525000000  -4.805536e+001  9.035294e+001 
3528125000  -4.721179e+001  9.347178e+001 
3531250000  -4.596587e+001  9.693253e+001 
3534375000  -4.505025e+001  9.243369e+001 
3537500000  -4.494521e+001  8.493101e+001 
3540625000  -4.532893e+001  8.486381e+001 
3543750000  -4.602061e+001  8.812318e+001 
3546875000  -4.546361e+001  1.011596e+002 
3550000000  -4.295802e+001  1.007200e+002 
3553125000  -4.157861e+001  8.517225e+001 
3556250000  -4.232770e+001  7.981529e+001 
3559375000  -4.240545e+001  8.219740e+001 
3562500000  -4.080538e+001  7.462387e+001 
3565625000  -4.174455e+001  6.986826e+001 
3568750000  -4.181347e+001  7.235455e+001 
3571875000  -4.164817e+001  7.279393e+001 
3575000000  -4.114302e+001  6.739913e+001 
3578125000  -4.159237e+001  6.368569e+001 
3581250000  -4.167005e+001  6.439066e+001 
3584375000  -4.073210e+001  6.273975e+001 
3587500000  -3.995893e+001  5.700719e+001 
3590625000  -4.031884e+001  4.868098e+001 
3593750000  -4.146384e+001  4.635856e+001 
3596875000  -4.110773e+001  5.535707e+001 
3600000000  -3.958931e+001  5.107193e+001 
3603125000  -3.988441e+001  3.814449e+001 
3606250000  -4.063143e+001  3.645897e+001 
3609375000  -4.097269e+001  3.486239e+001 
3612500000  -4.126923e+001  3.414831e+001 
3615625000  -4.144289e+001  3.058621e+001 
3618750000  -4.187258e+001  3.316017e+001 
3621875000  -4.137541e+001  3.086725e+001 
3625000000  -4.193154e+001  3.066122e+001 
3628125000  -4.191276e+001  2.959838e+001 
3631250000  -4.157032e+001  2.716490e+001 
3634375000  -4.245641e+001  2.853676e+001 
3637500000  -4.203236e+001  3.299851e+001 
3640625000  -4.098112e+001  3.449318e+001 
3643750000  -4.078655e+001  2.845530e+001 
3646875000  -4.125465e+001  2.315507e+001 
3650000000  -4.165736e+001  2.388403e+001 
3653125000  -4.143252e+001  2.461897e+001 
3656250000  -4.177239e+001  2.143247e+001 
3659375000  -4.228820e+001  2.614174e+001 
3662500000  -4.149862e+001  2.363256e+001 
3665625000  -4.153554e+001  2.546471e+001 
3668750000  -4.044192e+001  2.470225e+001 
3671875000  -3.957617e+001  2.123516e+001 
3675000000  -3.981458e+001  1.643955e+001 
3678125000  -4.056472e+001  1.771384e+001 
3681250000  -4.009180e+001  1.919806e+001 
3684375000  -3.969099e+001  1.575797e+001 
3687500000  -3.993347e+001  1.514703e+001 
3690625000  -3.982709e+001  1.283191e+001 
3693750000  -4.052884e+001  1.598140e+001 
3696875000  -4.022717e+001  1.862659e+001 
3700000000  -3.919291e+001  1.558155e+001 
3703125000  -3.881824e+001  1.338028e+001 
3706250000  -3.959367e+001  1.621347e+001 
3709375000  -3.877834e+001  1.920717e+001 
3712500000  -3.759949e+001  1.744975e+001 
3715625000  -3.659565e+001  1.296585e+001 
3718750000  -3.593430e+001  9.773173e+000 
3721875000  -3.548328e+001  3.577286e+000 
3725000000  -3.533495e+001  -4.288898e-001 
3728125000  -3.567510e+001  -1.168241e+000 
3731250000  -3.489931e+001  -1.844042e+000 
3734375000  -3.392657e+001  -7.695277e+000 
3737500000  -3.440182e+001  -1.599242e+001 
3740625000  -3.497709e+001  -1.749548e+001 
3743750000  -3.486560e+001  -2.004975e+001 
3746875000  -3.473720e+001  -2.425477e+001 
3750000000  -3.515334e+001  -2.432815e+001 
3753125000  -3.473760e+001  -2.518013e+001 
3756250000  -3.458293e+001  -2.537430e+001 
3759375000  -3.449783e+001  -2.541832e+001 
3762500000  -3.386685e+001  -2.966156e+001 
3765625000  -3.423399e+001  -3.312835e+001 
3768750000  -3.440305e+001  -3.120306e+001 
3771875000  -3.260508e+001  -3.263274e+001 
3775000000  -3.238140e+001  -4.040615e+001 
3778125000  -3.270412e+001  -4.271663e+001 
3781250000  -3.253569e+001  -4.539967e+001 
3784375000  -3.241320e+001  -4.657715e+001 
3787500000  -3.184845e+001  -5.062484e+001 
3790625000  -3.232916e+001  -5.732644e+001 
3793750000  -3.240937e+001  -5.709506e+001 
3796875000  -3.156094e+001  -5.798687e+001 
3800000000  -3.011036e+001  -6.175932e+001 
3803125000  -3.088320e+001  -6.875469e+001 
3806250000  -3.148314e+001  -7.099538e+001 
3809375000  -3.120502e+001  -7.285587e+001 
3812500000  -3.059575e+001  -7.692915e+001 
3815625000  -3.111124e+001  -8.462651e+001 
3818750000  -3.212851e+001  -8.619392e+001 
3821875000  -3.225747e+001  -7.881056e+001 
3825000000  -3.025719e+001  -7.338467e+001 
3828125000  -2.890912e+001  -8.701405e+001 
3831250000  -2.943548e+001  -1.010903e+002 
3834375000  -3.076975e+001  -1.020048e+002 
3837500000  -3.169245e+001  -9.747212e+001 
3840625000  -3.063507e+001  -9.808769e+001 
3843750000  -2.939547e+001  -1.077839e+002 
3846875000  -2.999103e+001  -1.151561e+002 
3850000000  -3.139746e+001  -1.091730e+002 
3853125000  -3.056702e+001  -1.067549e+002 
3856250000  -3.045533e+001  -1.122104e+002 
3859375000  -2.976927e+001  -1.156901e+002 
3862500000  -2.934155e+001  -1.236597e+002 
3865625000  -2.968651e+001  -1.282991e+002 
3868750000  -2.970790e+001  -1.286699e+002 
3871875000  -2.891711e+001  -1.318454e+002 
3875000000  -2.908141e+001  -1.395795e+002 
3878125000  -3.007664e+001  -1.425956e+002 
3881250000  -3.021029e+001  -1.395999e+002 
3884375000  -2.967167e+001  -1.440027e+002 
3887500000  -2.981102e+001  -1.482773e+002 
3890625000  -3.034576e+001  -1.507527e+002 
3893750000  -3.069822e+001  -1.522159e+002 
3896875000  -3.086239e+001  -1.510955e+002 
3900000000  -3.113977e+001  -1.521099e+002 
3903125000  -3.076575e+001  -1.555206e+002 
3906250000  -3.046796e+001  -1.553802e+002 
3909375000  -2.978036e+001  -1.575415e+002 
3912500000  -2.976806e+001  -1.647896e+002 
3915625000  -3.097513e+001  -1.639989e+002 
3918750000  -3.087677e+001  -1.623831e+002 
3921875000  -3.066231e+001  -1.644006e+002 
3925000000  -2.991075e+001  -1.651972e+002 
3928125000  -2.917424e+001  -1.709028e+002 
3931250000  -2.958500e+001  -1.745872e+002 
3934375000  -2.978096e+001  -1.747918e+002 
3937500000  -2.998074e+001  -1.747586e+002 
3940625000  -3.043385e+001  -1.752353e+002 
3943750000  -2.954674e+001  -1.733633e+002 
3946875000  -2.829400e+001  -1.787287e+002 
3950000000  -2.880924e+001  1.739760e+002 
3953125000  -2.971786e+001  1.742639e+002 
3956250000  -2.894436e+001  1.769173e+002 
3959375000  -2.752470e+001  1.737481e+002 
3962500000  -2.705399e+001  1.699931e+002 
3965625000  -2.660266e+001  1.615189e+002 
3968750000  -2.758748e+001  1.547339e+002 
3971875000  -2.797752e+001  1.530652e+002 
3975000000  -2.727915e+001  1.510835e+002 
3978125000  -2.708977e+001  1.495204e+002 
3981250000  -2.679346e+001  1.454140e+002 
3984375000  -2.708585e+001  1.391965e+002 
3987500000  -2.759669e+001  1.373977e+002 
3990625000  -2.752912e+001  1.360303e+002 
3993750000  -2.773204e+001  1.328557e+002 
3996875000  -2.771285e+001  1.303210e+002 
4000000000  -2.778857e+001  1.277513e+002 
4003125000  -2.847836e+001  1.301385e+002 
4006250000  -2.704456e+001  1.311044e+002 
4009375000  -2.578854e+001  1.186465e+002 
4012500000  -2.684371e+001  1.113880e+002 
4015625000  -2.811382e+001  1.117847e+002 
4018750000  -2.834347e+001  1.147029e+002 
4021875000  -2.769715e+001  1.127763e+002 
4025000000  -2.727016e+001  1.078159e+002 
4028125000  -2.718501e+001  1.041983e+002 
4031250000  -2.768401e+001  1.007380e+002 
4034375000  -2.792400e+001  1.005320e+002 
4037500000  -2.738484e+001  1.025502e+002 
4040625000  -2.730462e+001  9.930553e+001 
4043750000  -2.764626e+001  9.879125e+001 
4046875000  -2.722894e+001  9.821487e+001 
4050000000  -2.679267e+001  9.253862e+001 
4053125000  -2.721497e+001  9.099577e+001 
4056250000  -2.787315e+001  9.484595e+001 
4059375000  -2.664691e+001  9.666543e+001 
4062500000  -2.521572e+001  9.208060e+001 
4065625000  -2.503343e+001  8.743033e+001 
4068750000  -2.484916e+001  8.283468e+001 
4071875000  -2.414391e+001  7.496276e+001 
4075000000  -2.453400e+001  6.840186e+001 
4078125000  -2.507443e+001  6.790089e+001 
4081250000  -2.455764e+001  6.541004e+001 
4084375000  -2.416999e+001  5.894169e+001 
4087500000  -2.448997e+001  5.272864e+001 
4090625000  -2.506914e+001  5.123052e+001 
4093750000  -2.494409e+001  5.193185e+001 
4096875000  -2.449382e+001  4.628234e+001 
4100000000  -2.514890e+001  3.912131e+001 
4103125000  -2.602054e+001  3.969640e+001 
4106250000  -2.593079e+001  4.450496e+001 
4109375000  -2.502854e+001  4.432915e+001 
4112500000  -2.446153e+001  3.754132e+001 
4115625000  -2.481907e+001  3.322291e+001 
4118750000  -2.486360e+001  3.047377e+001 
4121875000  -2.452505e+001  2.580361e+001 
4125000000  -2.485222e+001  2.070081e+001 
4128125000  -2.586299e+001  2.089998e+001 
4131250000  -2.558678e+001  2.903724e+001 
4134375000  -2.326556e+001  2.443911e+001 
4137500000  -2.301274e+001  5.855241e+000 
4140625000  -2.520726e+001  -1.511359e+000 
4143750000  -2.654631e+001  3.367561e+000 
4146875000  -2.613014e+001  1.031399e+001 
4150000000  -2.520164e+001  7.810486e+000 
4153125000  -2.497633e+001  1.195040e+000 
4156250000  -2.589249e+001  -1.701823e+000 
4159375000  -2.614270e+001  2.816179e+000 
4162500000  -2.508044e+001  7.005134e+000 
4165625000  -2.390353e+001  2.878727e+000 
4168750000  -2.333126e+001  -4.098067e+000 
4171875000  -2.328604e+001  -1.347173e+001 
4175000000  -2.388058e+001  -1.880498e+001 
4178125000  -2.447939e+001  -1.895964e+001 
4181250000  -2.438107e+001  -1.936533e+001 
4184375000  -2.420014e+001  -2.263026e+001 
4187500000  -2.426238e+001  -2.527552e+001 
4190625000  -2.403880e+001  -3.063122e+001 
4193750000  -2.485217e+001  -3.460561e+001 
4196875000  -2.553405e+001  -3.485191e+001 
4200000000  -2.641424e+001  -3.292321e+001 
4203125000  -2.646512e+001  -1.991470e+001 
4206250000  -2.312836e+001  -1.757183e+001 
4209375000  -2.194873e+001  -3.795351e+001 
4212500000  -2.379340e+001  -4.714092e+001 
4215625000  -2.483381e+001  -4.106339e+001 
4218750000  -2.353064e+001  -3.411739e+001 
4221875000  -2.121747e+001  -4.321736e+001 
4225000000  -2.242812e+001  -5.576678e+001 
4228125000  -2.315331e+001  -5.087801e+001 
4231250000  -2.156051e+001  -5.423590e+001 
4234375000  -2.148044e+001  -6.288781e+001 
4237500000  -2.106831e+001  -6.628141e+001 
4240625000  -2.110088e+001  -7.447306e+001 
4243750000  -2.202945e+001  -8.116341e+001 
4246875000  -2.288838e+001  -8.141028e+001 
4250000000  -2.298594e+001  -7.863943e+001 
4253125000  -2.236167e+001  -8.047757e+001 
4256250000  -2.265681e+001  -8.451182e+001 
4259375000  -2.243818e+001  -8.668298e+001 
4262500000  -2.240019e+001  -9.039805e+001 
4265625000  -2.259726e+001  -9.007780e+001 
4268750000  -2.175133e+001  -9.370608e+001 
4271875000  -2.147169e+001  -9.981669e+001 
4275000000  -2.085883e+001  -1.062121e+002 
4278125000  -2.145058e+001  -1.172429e+002 
4281250000  -2.324020e+001  -1.195419e+002 
4284375000  -2.296092e+001  -1.186392e+002 
4287500000  -2.373192e+001  -1.218968e+002 
4290625000  -2.498525e+001  -1.128300e+002 
4293750000  -2.304052e+001  -1.069336e+002 
4296875000  -2.165555e+001  -1.185628e+002 
4300000000  -2.248625e+001  -1.275988e+002 
4303125000  -2.363191e+001  -1.264135e+002 
4306250000  -2.306149e+001  -1.207767e+002 
4309375000  -2.167169e+001  -1.227381e+002 
4312500000  -2.151337e+001  -1.308271e+002 
4315625000  -2.174452e+001  -1.371102e+002 
4318750000  -2.206528e+001  -1.403448e+002 
4321875000  -2.223743e+001  -1.397404e+002 
4325000000  -2.165089e+001  -1.392805e+002 
4328125000  -2.115952e+001  -1.456001e+002 
4331250000  -2.110365e+001  -1.536899e+002 
4334375000  -2.152314e+001  -1.585053e+002 
4337500000  -2.228318e+001  -1.608417e+002 
4340625000  -2.286022e+001  -1.579247e+002 
4343750000  -2.227300e+001  -1.570487e+002 
4346875000  -2.193271e+001  -1.625854e+002 
4350000000  -2.195645e+001  -1.672884e+002 
4353125000  -2.195729e+001  -1.747520e+002 
4356250000  -2.364928e+001  -1.759933e+002 
4359375000  -2.430741e+001  -1.627897e+002 
4362500000  -2.168394e+001  -1.606594e+002 
4365625000  -2.002667e+001  -1.725314e+002 
4368750000  -2.074267e+001  1.756957e+002 
4371875000  -2.196140e+001  1.763055e+002 
4375000000  -2.164746e+001  1.774232e+002 
4378125000  -2.100665e+001  1.717055e+002 
4381250000  -2.116656e+001  1.660913e+002 
4384375000  -2.096544e+001  1.617160e+002 
4387500000  -2.164595e+001  1.557753e+002 
4390625000  -2.267772e+001  1.565892e+002 
4393750000  -2.203728e+001  1.588780e+002 
4396875000  -2.139437e+001  1.565399e+002 
4400000000  -2.087211e+001  1.498766e+002 
4403125000  -2.141828e+001  1.420031e+002 
4406250000  -2.228425e+001  1.407587e+002 
4409375000  -2.222307e+001  1.386319e+002 
4412500000  -2.324494e+001  1.359304e+002 
4415625000  -2.363880e+001  1.409283e+002 
4418750000  -2.249761e+001  1.454525e+002 
