!Agilent Technologies,E8363B,MY43030201,A.06.04.32
!Agilent E8363B: A.06.04.32
!Date: Tuesday, November 11, 2014 20:53:15
!Correction: S21(Response(S21)) 
!S1P File: Measurement: S21:
# Hz S  dB   R 50
3000000000  -2.652299e+001  1.506403e+002 
3003125000  -2.796264e+001  1.460475e+002 
3006250000  -2.800357e+001  1.432664e+002 
3009375000  -2.834248e+001  1.483923e+002 
3012500000  -2.782666e+001  1.477052e+002 
3015625000  -2.689634e+001  1.406539e+002 
3018750000  -2.768784e+001  1.399167e+002 
3021875000  -2.644918e+001  1.412771e+002 
3025000000  -2.516831e+001  1.380158e+002 
3028125000  -2.418631e+001  1.331060e+002 
3031250000  -2.313890e+001  1.217864e+002 
3034375000  -2.277159e+001  1.088521e+002 
3037500000  -2.314030e+001  9.704549e+001 
3040625000  -2.446620e+001  9.175797e+001 
3043750000  -2.516482e+001  8.762328e+001 
3046875000  -2.531252e+001  8.127767e+001 
3050000000  -2.700117e+001  7.468308e+001 
3053125000  -2.714393e+001  8.061772e+001 
3056250000  -2.651347e+001  8.378144e+001 
3059375000  -2.675006e+001  8.317189e+001 
3062500000  -2.528052e+001  7.935088e+001 
3065625000  -2.504322e+001  7.368959e+001 
3068750000  -2.479297e+001  6.648055e+001 
3071875000  -2.472575e+001  6.376120e+001 
3075000000  -2.468873e+001  6.012078e+001 
3078125000  -2.441404e+001  5.557151e+001 
3081250000  -2.508000e+001  5.124287e+001 
3084375000  -2.430524e+001  4.772896e+001 
3087500000  -2.420836e+001  4.405758e+001 
3090625000  -2.392535e+001  3.438594e+001 
3093750000  -2.437705e+001  2.641107e+001 
3096875000  -2.566252e+001  2.045777e+001 
3100000000  -2.576868e+001  1.899999e+001 
3103125000  -2.612496e+001  2.037822e+001 
3106250000  -2.589606e+001  1.694192e+001 
3109375000  -2.609373e+001  1.336704e+001 
3112500000  -2.626333e+001  1.226012e+001 
3115625000  -2.607977e+001  8.141182e+000 
3118750000  -2.652089e+001  9.622941e+000 
3121875000  -2.587548e+001  1.343229e+000 
3125000000  -2.706247e+001  -1.910645e+000 
3128125000  -2.831981e+001  6.241738e+000 
3131250000  -2.604513e+001  6.675054e+000 
3134375000  -2.474312e+001  -6.826736e+000 
3137500000  -2.537534e+001  -2.039781e+001 
3140625000  -2.695067e+001  -2.206794e+001 
3143750000  -2.799234e+001  -1.804670e+001 
3146875000  -2.761223e+001  -1.604918e+001 
3150000000  -2.659888e+001  -1.387599e+001 
3153125000  -2.656102e+001  -2.172445e+001 
3156250000  -2.751886e+001  -1.595596e+001 
3159375000  -2.590118e+001  -1.337377e+001 
3162500000  -2.392640e+001  -2.617040e+001 
3165625000  -2.487319e+001  -3.708377e+001 
3168750000  -2.521141e+001  -3.630719e+001 
3171875000  -2.429364e+001  -4.066771e+001 
3175000000  -2.496220e+001  -4.835384e+001 
3178125000  -2.475545e+001  -4.683237e+001 
3181250000  -2.354065e+001  -5.066388e+001 
3184375000  -2.274410e+001  -6.298346e+001 
3187500000  -2.383933e+001  -7.824713e+001 
3190625000  -2.661673e+001  -8.565707e+001 
3193750000  -2.725943e+001  -7.608876e+001 
3196875000  -2.677309e+001  -7.084412e+001 
3200000000  -2.591648e+001  -7.257132e+001 
3203125000  -2.510396e+001  -7.830123e+001 
3206250000  -2.540882e+001  -8.462894e+001 
3209375000  -2.495479e+001  -8.959921e+001 
3212500000  -2.506523e+001  -9.608709e+001 
3215625000  -2.515547e+001  -9.989827e+001 
3218750000  -2.594854e+001  -1.067010e+002 
3221875000  -2.697545e+001  -1.116506e+002 
3225000000  -2.652108e+001  -1.123152e+002 
3228125000  -2.685016e+001  -1.170794e+002 
3231250000  -2.759495e+001  -1.193190e+002 
3234375000  -2.748261e+001  -1.185930e+002 
3237500000  -2.748908e+001  -1.203640e+002 
3240625000  -2.718603e+001  -1.221315e+002 
3243750000  -2.680108e+001  -1.286659e+002 
3246875000  -2.728518e+001  -1.348963e+002 
3250000000  -2.776262e+001  -1.369441e+002 
3253125000  -2.790653e+001  -1.384867e+002 
3256250000  -2.775480e+001  -1.444333e+002 
3259375000  -2.807714e+001  -1.518022e+002 
3262500000  -2.936222e+001  -1.551185e+002 
3265625000  -3.001089e+001  -1.516264e+002 
3268750000  -3.000457e+001  -1.486663e+002 
3271875000  -2.975445e+001  -1.477906e+002 
3275000000  -2.867829e+001  -1.528994e+002 
3278125000  -2.915448e+001  -1.589881e+002 
3281250000  -2.946190e+001  -1.571846e+002 
3284375000  -2.893565e+001  -1.625353e+002 
3287500000  -2.909701e+001  -1.659510e+002 
3290625000  -2.948714e+001  -1.701971e+002 
3293750000  -2.917251e+001  -1.755805e+002 
3296875000  -3.028109e+001  -1.762849e+002 
3300000000  -3.017291e+001  -1.744397e+002 
3303125000  -2.900168e+001  -1.788464e+002 
3306250000  -2.869902e+001  1.747544e+002 
3309375000  -2.853505e+001  1.696880e+002 
3312500000  -2.860589e+001  1.596535e+002 
3315625000  -2.957545e+001  1.516220e+002 
3318750000  -3.094893e+001  1.493311e+002 
3321875000  -3.214959e+001  1.490744e+002 
3325000000  -3.271193e+001  1.530499e+002 
3328125000  -3.259879e+001  1.549354e+002 
3331250000  -3.139020e+001  1.629849e+002 
3334375000  -2.871930e+001  1.530302e+002 
3337500000  -2.878165e+001  1.346364e+002 
3340625000  -3.017288e+001  1.237140e+002 
3343750000  -3.214293e+001  1.216469e+002 
3346875000  -3.266965e+001  1.238331e+002 
3350000000  -3.194404e+001  1.226851e+002 
3353125000  -3.207994e+001  1.176541e+002 
3356250000  -3.185460e+001  1.104591e+002 
3359375000  -3.263939e+001  1.016136e+002 
3362500000  -3.404298e+001  9.667315e+001 
3365625000  -3.465922e+001  9.439280e+001 
3368750000  -3.556865e+001  9.362759e+001 
3371875000  -3.597466e+001  9.060461e+001 
3375000000  -3.758462e+001  8.776978e+001 
3378125000  -3.869520e+001  8.826863e+001 
3381250000  -4.025033e+001  9.559710e+001 
3384375000  -3.932086e+001  1.162080e+002 
3387500000  -3.608183e+001  1.017965e+002 
3390625000  -3.811091e+001  8.183593e+001 
3393750000  -4.004845e+001  8.756476e+001 
3396875000  -3.898177e+001  9.026024e+001 
3400000000  -3.910839e+001  8.315137e+001 
3403125000  -4.007667e+001  7.956251e+001 
3406250000  -4.122678e+001  8.164420e+001 
3409375000  -4.142324e+001  7.712688e+001 
3412500000  -4.257406e+001  7.942043e+001 
3415625000  -4.316531e+001  8.547143e+001 
3418750000  -4.381398e+001  9.073170e+001 
3421875000  -4.366368e+001  9.551493e+001 
3425000000  -4.316082e+001  9.968433e+001 
3428125000  -4.217973e+001  9.771473e+001 
3431250000  -4.190164e+001  9.516829e+001 
3434375000  -4.179734e+001  9.359742e+001 
3437500000  -4.248595e+001  8.994662e+001 
3440625000  -4.230145e+001  9.403246e+001 
3443750000  -4.137435e+001  9.570682e+001 
3446875000  -4.045573e+001  8.980014e+001 
3450000000  -4.007900e+001  8.154472e+001 
3453125000  -4.053683e+001  7.248873e+001 
3456250000  -4.180460e+001  6.867678e+001 
3459375000  -4.275104e+001  6.947937e+001 
3462500000  -4.274834e+001  7.086608e+001 
3465625000  -4.307495e+001  6.706754e+001 
3468750000  -4.334302e+001  6.357072e+001 
3471875000  -4.319497e+001  6.420581e+001 
3475000000  -4.323772e+001  6.110224e+001 
3478125000  -4.395534e+001  5.526116e+001 
3481250000  -4.547241e+001  5.615160e+001 
3484375000  -4.669557e+001  5.718291e+001 
3487500000  -4.661473e+001  6.195670e+001 
3490625000  -4.637883e+001  5.957004e+001 
3493750000  -4.682343e+001  5.641984e+001 
3496875000  -4.817046e+001  5.562227e+001 
3500000000  -4.958297e+001  7.324502e+001 
3503125000  -4.945173e+001  7.180333e+001 
3506250000  -4.784536e+001  7.453787e+001 
3509375000  -4.815052e+001  7.454498e+001 
3512500000  -4.838332e+001  7.574439e+001 
3515625000  -4.897218e+001  7.808084e+001 
3518750000  -4.926867e+001  8.842157e+001 
3521875000  -4.836905e+001  9.265143e+001 
3525000000  -4.824124e+001  9.193512e+001 
3528125000  -4.733178e+001  9.898419e+001 
3531250000  -4.547455e+001  1.002835e+002 
3534375000  -4.464174e+001  9.180449e+001 
3537500000  -4.454729e+001  8.758892e+001 
3540625000  -4.512598e+001  8.799163e+001 
3543750000  -4.578409e+001  8.907993e+001 
3546875000  -4.524570e+001  1.012220e+002 
3550000000  -4.236211e+001  1.040659e+002 
3553125000  -4.094660e+001  8.770272e+001 
3556250000  -4.227408e+001  7.798180e+001 
3559375000  -4.203037e+001  8.157792e+001 
3562500000  -4.041141e+001  7.366097e+001 
3565625000  -4.141704e+001  6.871403e+001 
3568750000  -4.145993e+001  7.020010e+001 
3571875000  -4.147811e+001  7.116888e+001 
3575000000  -4.083093e+001  6.522965e+001 
3578125000  -4.115232e+001  6.209463e+001 
3581250000  -4.125468e+001  6.150045e+001 
3584375000  -4.072146e+001  6.216799e+001 
3587500000  -3.989933e+001  5.613950e+001 
3590625000  -4.001903e+001  4.677020e+001 
3593750000  -4.154058e+001  4.640710e+001 
3596875000  -4.143727e+001  5.342009e+001 
3600000000  -3.975041e+001  5.056028e+001 
3603125000  -4.015855e+001  3.776815e+001 
3606250000  -4.072934e+001  3.504526e+001 
3609375000  -4.112072e+001  3.416086e+001 
3612500000  -4.150814e+001  3.311108e+001 
3615625000  -4.144062e+001  3.128312e+001 
3618750000  -4.189475e+001  3.318608e+001 
3621875000  -4.139222e+001  3.131765e+001 
3625000000  -4.174163e+001  3.315377e+001 
3628125000  -4.171645e+001  3.223428e+001 
3631250000  -4.135274e+001  2.766751e+001 
3634375000  -4.222269e+001  2.835762e+001 
3637500000  -4.183329e+001  3.486254e+001 
3640625000  -4.083978e+001  3.466306e+001 
3643750000  -4.043301e+001  2.845358e+001 
3646875000  -4.108018e+001  2.542662e+001 
3650000000  -4.143374e+001  2.297287e+001 
3653125000  -4.111020e+001  2.370392e+001 
3656250000  -4.120366e+001  2.064718e+001 
3659375000  -4.173413e+001  2.440090e+001 
3662500000  -4.070646e+001  2.521326e+001 
3665625000  -4.099651e+001  2.416703e+001 
3668750000  -3.968854e+001  2.632607e+001 
3671875000  -3.870237e+001  1.959908e+001 
3675000000  -3.945388e+001  1.387523e+001 
3678125000  -4.012143e+001  1.469330e+001 
3681250000  -3.944117e+001  1.618894e+001 
3684375000  -3.933943e+001  1.493334e+001 
3687500000  -3.955343e+001  1.271769e+001 
3690625000  -3.943296e+001  8.807110e+000 
3693750000  -4.019869e+001  1.207278e+001 
3696875000  -3.977633e+001  1.695599e+001 
3700000000  -3.883186e+001  1.251317e+001 
3703125000  -3.879359e+001  1.051194e+001 
3706250000  -3.946162e+001  9.935957e+000 
3709375000  -3.887197e+001  1.536652e+001 
3712500000  -3.728759e+001  1.458597e+001 
3715625000  -3.622985e+001  8.785202e+000 
3718750000  -3.575930e+001  7.372212e+000 
3721875000  -3.537641e+001  1.381947e+000 
3725000000  -3.520141e+001  -3.003639e+000 
3728125000  -3.532649e+001  -3.242643e+000 
3731250000  -3.482844e+001  -4.782604e+000 
3734375000  -3.369340e+001  -1.033469e+001 
3737500000  -3.417587e+001  -1.701182e+001 
3740625000  -3.475544e+001  -2.000148e+001 
3743750000  -3.450216e+001  -2.194143e+001 
3746875000  -3.442702e+001  -2.568122e+001 
3750000000  -3.489790e+001  -2.563315e+001 
3753125000  -3.432318e+001  -2.675208e+001 
3756250000  -3.428429e+001  -2.719249e+001 
3759375000  -3.412997e+001  -2.792826e+001 
3762500000  -3.343153e+001  -3.211449e+001 
3765625000  -3.401182e+001  -3.438302e+001 
3768750000  -3.413020e+001  -3.326534e+001 
3771875000  -3.245304e+001  -3.468506e+001 
3775000000  -3.204618e+001  -4.306829e+001 
3778125000  -3.248388e+001  -4.462385e+001 
3781250000  -3.210296e+001  -4.733619e+001 
3784375000  -3.210381e+001  -4.961849e+001 
3787500000  -3.145687e+001  -5.335411e+001 
3790625000  -3.199256e+001  -5.915488e+001 
3793750000  -3.223273e+001  -5.924157e+001 
3796875000  -3.139491e+001  -6.055514e+001 
3800000000  -2.973566e+001  -6.420756e+001 
3803125000  -3.052337e+001  -7.190258e+001 
3806250000  -3.111713e+001  -7.397411e+001 
3809375000  -3.093761e+001  -7.512154e+001 
3812500000  -3.019320e+001  -8.003755e+001 
3815625000  -3.091704e+001  -8.758546e+001 
3818750000  -3.190270e+001  -8.901714e+001 
3821875000  -3.196047e+001  -7.965108e+001 
3825000000  -3.005072e+001  -7.511482e+001 
3828125000  -2.863455e+001  -8.935202e+001 
3831250000  -2.907805e+001  -1.034629e+002 
3834375000  -3.050616e+001  -1.049201e+002 
3837500000  -3.142161e+001  -1.001086e+002 
3840625000  -3.034369e+001  -1.000560e+002 
3843750000  -2.917129e+001  -1.101752e+002 
3846875000  -2.990240e+001  -1.175820e+002 
3850000000  -3.116415e+001  -1.112626e+002 
3853125000  -3.035219e+001  -1.088677e+002 
3856250000  -3.024257e+001  -1.138120e+002 
3859375000  -2.964180e+001  -1.176967e+002 
3862500000  -2.922179e+001  -1.250313e+002 
3865625000  -2.944478e+001  -1.294292e+002 
3868750000  -2.944538e+001  -1.297888e+002 
3871875000  -2.869755e+001  -1.330633e+002 
3875000000  -2.885910e+001  -1.415070e+002 
3878125000  -2.983573e+001  -1.438376e+002 
3881250000  -2.987173e+001  -1.408035e+002 
3884375000  -2.928152e+001  -1.451315e+002 
3887500000  -2.946712e+001  -1.492265e+002 
3890625000  -2.984520e+001  -1.516959e+002 
3893750000  -3.034851e+001  -1.533703e+002 
3896875000  -3.048913e+001  -1.524554e+002 
3900000000  -3.065129e+001  -1.543680e+002 
3903125000  -3.030993e+001  -1.556900e+002 
3906250000  -3.002047e+001  -1.559341e+002 
3909375000  -2.921610e+001  -1.592890e+002 
3912500000  -2.924005e+001  -1.670095e+002 
3915625000  -3.052828e+001  -1.658477e+002 
3918750000  -3.060347e+001  -1.647259e+002 
3921875000  -3.020102e+001  -1.650731e+002 
3925000000  -2.937699e+001  -1.663290e+002 
3928125000  -2.867902e+001  -1.728079e+002 
3931250000  -2.907147e+001  -1.763257e+002 
3934375000  -2.938370e+001  -1.764745e+002 
3937500000  -2.949429e+001  -1.773432e+002 
3940625000  -2.999557e+001  -1.771617e+002 
3943750000  -2.907430e+001  -1.757346e+002 
3946875000  -2.781586e+001  1.788792e+002 
3950000000  -2.834784e+001  1.711975e+002 
3953125000  -2.920397e+001  1.719329e+002 
3956250000  -2.833984e+001  1.747520e+002 
3959375000  -2.707754e+001  1.711479e+002 
3962500000  -2.649566e+001  1.670761e+002 
3965625000  -2.621340e+001  1.587591e+002 
3968750000  -2.710253e+001  1.521224e+002 
3971875000  -2.749200e+001  1.501157e+002 
3975000000  -2.690461e+001  1.482530e+002 
3978125000  -2.672946e+001  1.473050e+002 
3981250000  -2.644975e+001  1.433920e+002 
3984375000  -2.663054e+001  1.372926e+002 
3987500000  -2.715260e+001  1.349829e+002 
3990625000  -2.723244e+001  1.349517e+002 
3993750000  -2.732275e+001  1.309661e+002 
3996875000  -2.729389e+001  1.287027e+002 
4000000000  -2.738585e+001  1.270266e+002 
4003125000  -2.800992e+001  1.291587e+002 
4006250000  -2.655177e+001  1.302052e+002 
4009375000  -2.526590e+001  1.175406e+002 
4012500000  -2.633100e+001  1.105518e+002 
4015625000  -2.746615e+001  1.112305e+002 
4018750000  -2.775600e+001  1.129845e+002 
4021875000  -2.705722e+001  1.113347e+002 
4025000000  -2.658848e+001  1.064360e+002 
4028125000  -2.655172e+001  1.023117e+002 
4031250000  -2.692026e+001  9.905168e+001 
4034375000  -2.726196e+001  9.878672e+001 
4037500000  -2.677827e+001  9.997325e+001 
4040625000  -2.670724e+001  9.708508e+001 
4043750000  -2.698874e+001  9.636967e+001 
4046875000  -2.660375e+001  9.612009e+001 
4050000000  -2.600353e+001  8.999146e+001 
4053125000  -2.646722e+001  8.767408e+001 
4056250000  -2.714853e+001  9.113220e+001 
4059375000  -2.599756e+001  9.325698e+001 
4062500000  -2.463097e+001  8.897832e+001 
4065625000  -2.451100e+001  8.484227e+001 
4068750000  -2.418558e+001  8.038164e+001 
4071875000  -2.347584e+001  7.252208e+001 
4075000000  -2.383767e+001  6.610422e+001 
4078125000  -2.440763e+001  6.450092e+001 
4081250000  -2.390600e+001  6.225382e+001 
4084375000  -2.356343e+001  5.564786e+001 
4087500000  -2.389538e+001  4.920371e+001 
4090625000  -2.449729e+001  4.804329e+001 
4093750000  -2.434316e+001  4.899259e+001 
4096875000  -2.391831e+001  4.308068e+001 
4100000000  -2.455147e+001  3.669216e+001 
4103125000  -2.545287e+001  3.725980e+001 
4106250000  -2.527304e+001  4.202809e+001 
4109375000  -2.441138e+001  4.123292e+001 
4112500000  -2.382034e+001  3.481093e+001 
4115625000  -2.409887e+001  3.054894e+001 
4118750000  -2.426947e+001  2.735461e+001 
4121875000  -2.395324e+001  2.296035e+001 
4125000000  -2.429542e+001  1.793488e+001 
4128125000  -2.526893e+001  1.866767e+001 
4131250000  -2.489349e+001  2.685804e+001 
4134375000  -2.251718e+001  2.226455e+001 
4137500000  -2.229505e+001  3.072009e+000 
4140625000  -2.444645e+001  -4.032117e+000 
4143750000  -2.569933e+001  1.120003e+000 
4146875000  -2.525520e+001  7.935515e+000 
4150000000  -2.438300e+001  4.804760e+000 
4153125000  -2.422469e+001  -1.346845e+000 
4156250000  -2.502988e+001  -4.519787e+000 
4159375000  -2.536500e+001  -2.302154e-001 
4162500000  -2.424035e+001  3.961383e+000 
4165625000  -2.304060e+001  -2.896869e-001 
4168750000  -2.240126e+001  -7.314709e+000 
4171875000  -2.233708e+001  -1.645963e+001 
4175000000  -2.294008e+001  -2.257320e+001 
4178125000  -2.355135e+001  -2.289133e+001 
4181250000  -2.348077e+001  -2.336410e+001 
4184375000  -2.329439e+001  -2.700464e+001 
4187500000  -2.333969e+001  -2.990097e+001 
4190625000  -2.322110e+001  -3.554842e+001 
4193750000  -2.397007e+001  -3.926091e+001 
4196875000  -2.472008e+001  -3.961708e+001 
4200000000  -2.551832e+001  -3.716678e+001 
4203125000  -2.556748e+001  -2.400844e+001 
4206250000  -2.231847e+001  -2.250089e+001 
4209375000  -2.107254e+001  -4.305466e+001 
4212500000  -2.308040e+001  -5.153500e+001 
4215625000  -2.402808e+001  -4.481339e+001 
4218750000  -2.262880e+001  -3.793740e+001 
4221875000  -2.028746e+001  -4.791819e+001 
4225000000  -2.149157e+001  -6.085352e+001 
4228125000  -2.227838e+001  -5.600705e+001 
4231250000  -2.082267e+001  -5.956177e+001 
4234375000  -2.062543e+001  -6.770418e+001 
4237500000  -2.026760e+001  -7.118847e+001 
4240625000  -2.033455e+001  -7.962717e+001 
4243750000  -2.133907e+001  -8.578367e+001 
4246875000  -2.213339e+001  -8.563451e+001 
4250000000  -2.216665e+001  -8.307317e+001 
4253125000  -2.154925e+001  -8.498901e+001 
4256250000  -2.176372e+001  -8.929175e+001 
4259375000  -2.155445e+001  -9.114471e+001 
4262500000  -2.151150e+001  -9.489494e+001 
4265625000  -2.170183e+001  -9.468746e+001 
4268750000  -2.087962e+001  -9.856747e+001 
4271875000  -2.057195e+001  -1.039516e+002 
4275000000  -1.990334e+001  -1.104392e+002 
4278125000  -2.045746e+001  -1.224082e+002 
4281250000  -2.219301e+001  -1.246773e+002 
4284375000  -2.197860e+001  -1.242045e+002 
4287500000  -2.283778e+001  -1.277798e+002 
4290625000  -2.411794e+001  -1.180913e+002 
4293750000  -2.213506e+001  -1.122452e+002 
4296875000  -2.078021e+001  -1.237848e+002 
4300000000  -2.159170e+001  -1.330437e+002 
4303125000  -2.264113e+001  -1.318865e+002 
4306250000  -2.200044e+001  -1.263715e+002 
4309375000  -2.059793e+001  -1.290085e+002 
4312500000  -2.054823e+001  -1.372962e+002 
4315625000  -2.083770e+001  -1.433680e+002 
4318750000  -2.113676e+001  -1.469394e+002 
4321875000  -2.132628e+001  -1.462267e+002 
4325000000  -2.068940e+001  -1.461118e+002 
4328125000  -2.022218e+001  -1.527944e+002 
4331250000  -2.029351e+001  -1.607072e+002 
4334375000  -2.073072e+001  -1.656142e+002 
4337500000  -2.147951e+001  -1.679537e+002 
4340625000  -2.200984e+001  -1.647419e+002 
4343750000  -2.148282e+001  -1.643023e+002 
4346875000  -2.108712e+001  -1.692828e+002 
4350000000  -2.098269e+001  -1.741676e+002 
4353125000  -2.108915e+001  1.777283e+002 
4356250000  -2.283720e+001  1.763659e+002 
4359375000  -2.347387e+001  -1.701632e+002 
4362500000  -2.092079e+001  -1.681625e+002 
4365625000  -1.936284e+001  -1.793802e+002 
4368750000  -2.000677e+001  1.688038e+002 
4371875000  -2.113754e+001  1.689135e+002 
4375000000  -2.085836e+001  1.702286e+002 
4378125000  -2.026010e+001  1.646609e+002 
4381250000  -2.032753e+001  1.592435e+002 
4384375000  -2.014919e+001  1.550178e+002 
4387500000  -2.079147e+001  1.487417e+002 
4390625000  -2.184921e+001  1.495636e+002 
4393750000  -2.125608e+001  1.516242e+002 
4396875000  -2.058154e+001  1.496492e+002 
4400000000  -2.006609e+001  1.426770e+002 
4403125000  -2.060160e+001  1.350396e+002 
4406250000  -2.141627e+001  1.338446e+002 
4409375000  -2.133858e+001  1.311627e+002 
4412500000  -2.229122e+001  1.282825e+002 
4415625000  -2.278446e+001  1.329752e+002 
4418750000  -2.169646e+001  1.379052e+002 
