!Agilent Technologies,E8363B,MY43030201,A.06.04.32
!Agilent E8363B: A.06.04.32
!Date: Tuesday, November 11, 2014 20:47:38
!Correction: S21(Response(S21)) 
!S1P File: Measurement: S21:
# Hz S  dB   R 50
3000000000  -2.649533e+001  1.562655e+002 
3003125000  -2.789053e+001  1.518990e+002 
3006250000  -2.794888e+001  1.493020e+002 
3009375000  -2.826795e+001  1.538979e+002 
3012500000  -2.781625e+001  1.539730e+002 
3015625000  -2.681909e+001  1.469609e+002 
3018750000  -2.766113e+001  1.461969e+002 
3021875000  -2.642434e+001  1.472611e+002 
3025000000  -2.518186e+001  1.442115e+002 
3028125000  -2.414722e+001  1.393284e+002 
3031250000  -2.310462e+001  1.282646e+002 
3034375000  -2.276054e+001  1.153001e+002 
3037500000  -2.304699e+001  1.033702e+002 
3040625000  -2.442095e+001  9.811320e+001 
3043750000  -2.511063e+001  9.405470e+001 
3046875000  -2.523039e+001  8.754218e+001 
3050000000  -2.694599e+001  8.051814e+001 
3053125000  -2.710408e+001  8.707124e+001 
3056250000  -2.642850e+001  8.997427e+001 
3059375000  -2.667420e+001  8.947944e+001 
3062500000  -2.524857e+001  8.561414e+001 
3065625000  -2.499174e+001  8.023757e+001 
3068750000  -2.470984e+001  7.313709e+001 
3071875000  -2.467325e+001  7.033720e+001 
3075000000  -2.465210e+001  6.652155e+001 
3078125000  -2.437386e+001  6.205499e+001 
3081250000  -2.499039e+001  5.776889e+001 
3084375000  -2.428059e+001  5.432478e+001 
3087500000  -2.408813e+001  5.075978e+001 
3090625000  -2.383885e+001  4.095427e+001 
3093750000  -2.423237e+001  3.295139e+001 
3096875000  -2.557539e+001  2.670023e+001 
3100000000  -2.568460e+001  2.553481e+001 
3103125000  -2.607913e+001  2.695410e+001 
3106250000  -2.578841e+001  2.329785e+001 
3109375000  -2.603104e+001  1.997620e+001 
3112500000  -2.613997e+001  1.902066e+001 
3115625000  -2.594873e+001  1.489057e+001 
3118750000  -2.644357e+001  1.595585e+001 
3121875000  -2.577225e+001  8.092288e+000 
3125000000  -2.691353e+001  4.527434e+000 
3128125000  -2.816473e+001  1.209739e+001 
3131250000  -2.597777e+001  1.305720e+001 
3134375000  -2.465824e+001  -3.027906e-001 
3137500000  -2.526595e+001  -1.413344e+001 
3140625000  -2.694233e+001  -1.616051e+001 
3143750000  -2.795109e+001  -1.170649e+001 
3146875000  -2.750657e+001  -1.017131e+001 
3150000000  -2.652507e+001  -7.617677e+000 
3153125000  -2.645268e+001  -1.569776e+001 
3156250000  -2.747200e+001  -1.017498e+001 
3159375000  -2.591631e+001  -7.341390e+000 
3162500000  -2.388540e+001  -1.984736e+001 
3165625000  -2.479508e+001  -3.092990e+001 
3168750000  -2.520057e+001  -3.005604e+001 
3171875000  -2.431373e+001  -3.420242e+001 
3175000000  -2.486722e+001  -4.182659e+001 
3178125000  -2.468908e+001  -4.033094e+001 
3181250000  -2.349005e+001  -4.411008e+001 
3184375000  -2.266545e+001  -5.633390e+001 
3187500000  -2.375011e+001  -7.183462e+001 
3190625000  -2.660423e+001  -7.933083e+001 
3193750000  -2.724429e+001  -6.983474e+001 
3196875000  -2.676822e+001  -6.395929e+001 
3200000000  -2.592572e+001  -6.607315e+001 
3203125000  -2.501898e+001  -7.137377e+001 
3206250000  -2.531697e+001  -7.771490e+001 
3209375000  -2.485208e+001  -8.283500e+001 
3212500000  -2.495662e+001  -8.937334e+001 
3215625000  -2.512005e+001  -9.419877e+001 
3218750000  -2.589005e+001  -9.994901e+001 
3221875000  -2.687864e+001  -1.050635e+002 
3225000000  -2.649601e+001  -1.057382e+002 
3228125000  -2.675204e+001  -1.103309e+002 
3231250000  -2.750939e+001  -1.133730e+002 
3234375000  -2.740530e+001  -1.119474e+002 
3237500000  -2.743239e+001  -1.137917e+002 
3240625000  -2.712033e+001  -1.153613e+002 
3243750000  -2.671630e+001  -1.218317e+002 
3246875000  -2.721646e+001  -1.288813e+002 
3250000000  -2.766513e+001  -1.304422e+002 
3253125000  -2.783951e+001  -1.317807e+002 
3256250000  -2.772239e+001  -1.381265e+002 
3259375000  -2.801504e+001  -1.458683e+002 
3262500000  -2.924000e+001  -1.485401e+002 
3265625000  -2.996125e+001  -1.451840e+002 
3268750000  -2.996831e+001  -1.427802e+002 
3271875000  -2.972581e+001  -1.414117e+002 
3275000000  -2.858749e+001  -1.462204e+002 
3278125000  -2.904949e+001  -1.528274e+002 
3281250000  -2.935532e+001  -1.509968e+002 
3284375000  -2.896334e+001  -1.566626e+002 
3287500000  -2.913519e+001  -1.597951e+002 
3290625000  -2.955647e+001  -1.638404e+002 
3293750000  -2.921911e+001  -1.693724e+002 
3296875000  -3.017873e+001  -1.692393e+002 
3300000000  -3.010373e+001  -1.677727e+002 
3303125000  -2.900230e+001  -1.720697e+002 
3306250000  -2.873420e+001  -1.791966e+002 
3309375000  -2.854259e+001  1.762946e+002 
3312500000  -2.856456e+001  1.659829e+002 
3315625000  -2.957381e+001  1.578620e+002 
3318750000  -3.094330e+001  1.555239e+002 
3321875000  -3.215733e+001  1.553054e+002 
3325000000  -3.271731e+001  1.599668e+002 
3328125000  -3.265498e+001  1.613243e+002 
3331250000  -3.136969e+001  1.697048e+002 
3334375000  -2.878573e+001  1.600381e+002 
3337500000  -2.883833e+001  1.418330e+002 
3340625000  -3.015778e+001  1.304853e+002 
3343750000  -3.205727e+001  1.294094e+002 
3346875000  -3.261964e+001  1.305632e+002 
3350000000  -3.203048e+001  1.294206e+002 
3353125000  -3.216367e+001  1.252724e+002 
3356250000  -3.183049e+001  1.170756e+002 
3359375000  -3.268449e+001  1.090227e+002 
3362500000  -3.392305e+001  1.037876e+002 
3365625000  -3.463349e+001  1.021524e+002 
3368750000  -3.555314e+001  1.006665e+002 
3371875000  -3.597934e+001  9.738830e+001 
3375000000  -3.750517e+001  9.508168e+001 
3378125000  -3.863532e+001  9.477833e+001 
3381250000  -4.013988e+001  1.020279e+002 
3384375000  -3.923595e+001  1.219864e+002 
3387500000  -3.623498e+001  1.100543e+002 
3390625000  -3.803405e+001  8.949476e+001 
3393750000  -3.996352e+001  9.430759e+001 
3396875000  -3.905330e+001  9.728403e+001 
3400000000  -3.901713e+001  9.132302e+001 
3403125000  -4.005065e+001  8.748589e+001 
3406250000  -4.050992e+001  8.920392e+001 
3409375000  -4.135462e+001  8.524490e+001 
3412500000  -4.243221e+001  8.627733e+001 
3415625000  -4.315452e+001  9.085448e+001 
3418750000  -4.375155e+001  9.624323e+001 
3421875000  -4.400951e+001  1.026344e+002 
3425000000  -4.279532e+001  1.062653e+002 
3428125000  -4.185815e+001  1.046351e+002 
3431250000  -4.179694e+001  1.011164e+002 
3434375000  -4.194403e+001  9.956970e+001 
3437500000  -4.203960e+001  9.778519e+001 
3440625000  -4.231195e+001  9.964147e+001 
3443750000  -4.128681e+001  1.028267e+002 
3446875000  -4.064835e+001  9.798166e+001 
3450000000  -4.031207e+001  8.832599e+001 
3453125000  -4.045109e+001  8.000137e+001 
3456250000  -4.176441e+001  7.408601e+001 
3459375000  -4.258773e+001  7.855380e+001 
3462500000  -4.303330e+001  7.760937e+001 
3465625000  -4.262243e+001  7.457497e+001 
3468750000  -4.314570e+001  7.115091e+001 
3471875000  -4.329881e+001  7.270368e+001 
3475000000  -4.314917e+001  6.665528e+001 
3478125000  -4.383620e+001  6.410968e+001 
3481250000  -4.469254e+001  6.292676e+001 
3484375000  -4.632819e+001  6.792373e+001 
3487500000  -4.638954e+001  7.370400e+001 
3490625000  -4.574536e+001  6.849794e+001 
3493750000  -4.609412e+001  6.366631e+001 
3496875000  -4.763530e+001  6.599505e+001 
3500000000  -4.871866e+001  7.612386e+001 
3503125000  -4.816167e+001  7.968960e+001 
3506250000  -4.736369e+001  7.778960e+001 
3509375000  -4.696259e+001  7.947884e+001 
3512500000  -4.777043e+001  7.797104e+001 
3515625000  -4.803452e+001  7.986275e+001 
3518750000  -4.855532e+001  8.552728e+001 
3521875000  -4.794992e+001  9.106429e+001 
3525000000  -4.809947e+001  9.141166e+001 
3528125000  -4.809998e+001  9.852143e+001 
3531250000  -4.557837e+001  1.010549e+002 
3534375000  -4.531556e+001  9.529799e+001 
3537500000  -4.529994e+001  9.157510e+001 
3540625000  -4.575431e+001  8.893228e+001 
3543750000  -4.541353e+001  9.217340e+001 
3546875000  -4.536755e+001  1.033376e+002 
3550000000  -4.294479e+001  1.062988e+002 
3553125000  -4.144674e+001  9.303114e+001 
3556250000  -4.241731e+001  8.642439e+001 
3559375000  -4.213855e+001  8.750587e+001 
3562500000  -4.072464e+001  8.030090e+001 
3565625000  -4.168421e+001  7.361890e+001 
3568750000  -4.172692e+001  7.624220e+001 
3571875000  -4.154358e+001  7.769677e+001 
3575000000  -4.065988e+001  7.189890e+001 
3578125000  -4.137650e+001  6.839002e+001 
3581250000  -4.151219e+001  6.855332e+001 
3584375000  -4.064112e+001  6.755643e+001 
3587500000  -3.997928e+001  6.122963e+001 
3590625000  -4.015308e+001  5.176775e+001 
3593750000  -4.095657e+001  5.032274e+001 
3596875000  -4.127709e+001  5.771314e+001 
3600000000  -3.962817e+001  5.543870e+001 
3603125000  -3.983619e+001  4.275413e+001 
3606250000  -4.043632e+001  3.957037e+001 
3609375000  -4.086087e+001  3.904192e+001 
3612500000  -4.138665e+001  3.875065e+001 
3615625000  -4.121788e+001  3.481255e+001 
3618750000  -4.180115e+001  3.643991e+001 
3621875000  -4.153348e+001  3.493225e+001 
3625000000  -4.167326e+001  3.494966e+001 
3628125000  -4.172304e+001  3.761679e+001 
3631250000  -4.133167e+001  3.070285e+001 
3634375000  -4.241496e+001  3.272987e+001 
3637500000  -4.183655e+001  3.878925e+001 
3640625000  -4.116419e+001  3.848519e+001 
3643750000  -4.073123e+001  3.424123e+001 
3646875000  -4.107632e+001  2.695612e+001 
3650000000  -4.187506e+001  2.754276e+001 
3653125000  -4.142338e+001  2.999577e+001 
3656250000  -4.172169e+001  2.622123e+001 
3659375000  -4.182903e+001  3.137759e+001 
3662500000  -4.153076e+001  2.948385e+001 
3665625000  -4.134824e+001  2.952936e+001 
3668750000  -4.055872e+001  3.123722e+001 
3671875000  -3.934468e+001  2.666350e+001 
3675000000  -3.999234e+001  2.059852e+001 
3678125000  -4.057063e+001  2.193434e+001 
3681250000  -3.965102e+001  2.265897e+001 
3684375000  -3.965062e+001  2.078734e+001 
3687500000  -3.984317e+001  1.900887e+001 
3690625000  -3.964103e+001  1.586777e+001 
3693750000  -4.045664e+001  2.004741e+001 
3696875000  -3.993060e+001  2.219766e+001 
3700000000  -3.912125e+001  2.069037e+001 
3703125000  -3.884439e+001  1.704427e+001 
3706250000  -3.930111e+001  1.909377e+001 
3709375000  -3.859090e+001  2.227639e+001 
3712500000  -3.747631e+001  2.179635e+001 
3715625000  -3.642877e+001  1.544651e+001 
3718750000  -3.577749e+001  1.365434e+001 
3721875000  -3.521513e+001  8.211536e+000 
3725000000  -3.520444e+001  2.960435e+000 
3728125000  -3.538894e+001  3.011087e+000 
3731250000  -3.466719e+001  1.323966e+000 
3734375000  -3.383253e+001  -4.723451e+000 
3737500000  -3.425568e+001  -1.139330e+001 
3740625000  -3.491566e+001  -1.489826e+001 
3743750000  -3.475537e+001  -1.601966e+001 
3746875000  -3.459568e+001  -2.003950e+001 
3750000000  -3.483721e+001  -2.033977e+001 
3753125000  -3.457714e+001  -2.076793e+001 
3756250000  -3.452280e+001  -2.173687e+001 
3759375000  -3.445190e+001  -2.257977e+001 
3762500000  -3.373674e+001  -2.620457e+001 
3765625000  -3.435019e+001  -2.952337e+001 
3768750000  -3.439007e+001  -2.731614e+001 
3771875000  -3.259872e+001  -3.012884e+001 
3775000000  -3.228451e+001  -3.648992e+001 
3778125000  -3.267136e+001  -3.798119e+001 
3781250000  -3.231609e+001  -4.110132e+001 
3784375000  -3.242597e+001  -4.316771e+001 
3787500000  -3.167632e+001  -4.652769e+001 
3790625000  -3.227454e+001  -5.204691e+001 
3793750000  -3.250793e+001  -5.313581e+001 
3796875000  -3.154727e+001  -5.453354e+001 
3800000000  -2.998398e+001  -5.815479e+001 
3803125000  -3.077033e+001  -6.476382e+001 
3806250000  -3.136859e+001  -6.663145e+001 
3809375000  -3.107684e+001  -6.809692e+001 
3812500000  -3.043684e+001  -7.283621e+001 
3815625000  -3.099511e+001  -8.017205e+001 
3818750000  -3.192937e+001  -8.233874e+001 
3821875000  -3.212002e+001  -7.443455e+001 
3825000000  -3.017725e+001  -6.930725e+001 
3828125000  -2.885159e+001  -8.295418e+001 
3831250000  -2.936362e+001  -9.691827e+001 
3834375000  -3.071933e+001  -9.842287e+001 
3837500000  -3.160206e+001  -9.312565e+001 
3840625000  -3.044664e+001  -9.420013e+001 
3843750000  -2.923124e+001  -1.041386e+002 
3846875000  -2.995855e+001  -1.113237e+002 
3850000000  -3.128791e+001  -1.058015e+002 
3853125000  -3.048088e+001  -1.032779e+002 
3856250000  -3.046063e+001  -1.081431e+002 
3859375000  -2.972613e+001  -1.122567e+002 
3862500000  -2.931518e+001  -1.195665e+002 
3865625000  -2.962284e+001  -1.244569e+002 
3868750000  -2.958995e+001  -1.251395e+002 
3871875000  -2.891040e+001  -1.277414e+002 
3875000000  -2.899751e+001  -1.361654e+002 
3878125000  -2.997901e+001  -1.386339e+002 
3881250000  -3.014198e+001  -1.356855e+002 
3884375000  -2.954515e+001  -1.405979e+002 
3887500000  -2.971297e+001  -1.445033e+002 
3890625000  -3.032020e+001  -1.467143e+002 
3893750000  -3.071811e+001  -1.475740e+002 
3896875000  -3.074072e+001  -1.474414e+002 
3900000000  -3.103937e+001  -1.486860e+002 
3903125000  -3.058821e+001  -1.505620e+002 
3906250000  -3.037651e+001  -1.505941e+002 
3909375000  -2.971716e+001  -1.539836e+002 
3912500000  -2.971858e+001  -1.606994e+002 
3915625000  -3.081580e+001  -1.604969e+002 
3918750000  -3.091034e+001  -1.583813e+002 
3921875000  -3.050804e+001  -1.599808e+002 
3925000000  -2.980779e+001  -1.603137e+002 
3928125000  -2.910483e+001  -1.666122e+002 
3931250000  -2.948808e+001  -1.707696e+002 
3934375000  -2.972703e+001  -1.701116e+002 
3937500000  -2.980665e+001  -1.709207e+002 
3940625000  -3.033955e+001  -1.708308e+002 
3943750000  -2.940148e+001  -1.694322e+002 
3946875000  -2.814520e+001  -1.741255e+002 
3950000000  -2.864488e+001  1.773782e+002 
3953125000  -2.952796e+001  1.781693e+002 
3956250000  -2.880093e+001  -1.795394e+002 
3959375000  -2.745281e+001  1.778329e+002 
3962500000  -2.690997e+001  1.735220e+002 
3965625000  -2.657386e+001  1.646306e+002 
3968750000  -2.742807e+001  1.582215e+002 
3971875000  -2.791090e+001  1.566595e+002 
3975000000  -2.717653e+001  1.546944e+002 
3978125000  -2.703052e+001  1.536807e+002 
3981250000  -2.672128e+001  1.490646e+002 
3984375000  -2.692461e+001  1.424815e+002 
3987500000  -2.749203e+001  1.404679e+002 
3990625000  -2.748035e+001  1.398137e+002 
3993750000  -2.770696e+001  1.367919e+002 
3996875000  -2.765089e+001  1.340335e+002 
4000000000  -2.776766e+001  1.319805e+002 
4003125000  -2.832908e+001  1.347620e+002 
4006250000  -2.701105e+001  1.347209e+002 
4009375000  -2.576277e+001  1.226980e+002 
4012500000  -2.680741e+001  1.153186e+002 
4015625000  -2.813084e+001  1.162997e+002 
4018750000  -2.828057e+001  1.181922e+002 
4021875000  -2.759113e+001  1.164899e+002 
4025000000  -2.726676e+001  1.118818e+002 
4028125000  -2.716856e+001  1.079889e+002 
4031250000  -2.764001e+001  1.042883e+002 
4034375000  -2.790314e+001  1.048697e+002 
4037500000  -2.741104e+001  1.065663e+002 
4040625000  -2.727509e+001  1.031652e+002 
4043750000  -2.759679e+001  1.026160e+002 
4046875000  -2.720655e+001  1.025199e+002 
4050000000  -2.667784e+001  9.698724e+001 
4053125000  -2.709602e+001  9.465116e+001 
4056250000  -2.768893e+001  9.803854e+001 
4059375000  -2.663454e+001  1.006668e+002 
4062500000  -2.516711e+001  9.621120e+001 
4065625000  -2.500471e+001  9.150828e+001 
4068750000  -2.470744e+001  8.701115e+001 
4071875000  -2.407755e+001  7.914009e+001 
4075000000  -2.437703e+001  7.283110e+001 
4078125000  -2.502646e+001  7.152565e+001 
4081250000  -2.447833e+001  6.933030e+001 
4084375000  -2.409839e+001  6.272521e+001 
4087500000  -2.441340e+001  5.651912e+001 
4090625000  -2.500864e+001  5.511708e+001 
4093750000  -2.487221e+001  5.569553e+001 
4096875000  -2.444633e+001  5.029581e+001 
4100000000  -2.508414e+001  4.308124e+001 
4103125000  -2.594276e+001  4.368272e+001 
4106250000  -2.587850e+001  4.828407e+001 
4109375000  -2.502312e+001  4.789605e+001 
4112500000  -2.437566e+001  4.149017e+001 
4115625000  -2.475422e+001  3.702722e+001 
4118750000  -2.485020e+001  3.395269e+001 
4121875000  -2.449819e+001  2.950611e+001 
4125000000  -2.477607e+001  2.465889e+001 
4128125000  -2.583213e+001  2.455267e+001 
4131250000  -2.556543e+001  3.261857e+001 
4134375000  -2.331077e+001  2.845000e+001 
4137500000  -2.306529e+001  9.837591e+000 
4140625000  -2.514040e+001  2.546330e+000 
4143750000  -2.647193e+001  7.301479e+000 
4146875000  -2.608003e+001  1.445091e+001 
4150000000  -2.524649e+001  1.186784e+001 
4153125000  -2.502482e+001  5.119754e+000 
4156250000  -2.586624e+001  2.496156e+000 
4159375000  -2.617056e+001  7.239590e+000 
4162500000  -2.508159e+001  1.082732e+001 
4165625000  -2.391678e+001  7.380214e+000 
4168750000  -2.332946e+001  2.089147e-002 
4171875000  -2.324792e+001  -9.106750e+000 
4175000000  -2.388007e+001  -1.460797e+001 
4178125000  -2.445736e+001  -1.484574e+001 
4181250000  -2.436379e+001  -1.542661e+001 
4184375000  -2.417918e+001  -1.836820e+001 
4187500000  -2.422130e+001  -2.133723e+001 
4190625000  -2.400727e+001  -2.658093e+001 
4193750000  -2.474419e+001  -3.019044e+001 
4196875000  -2.547874e+001  -3.074086e+001 
4200000000  -2.628237e+001  -2.887216e+001 
4203125000  -2.644548e+001  -1.562524e+001 
4206250000  -2.313215e+001  -1.390104e+001 
4209375000  -2.190164e+001  -3.398652e+001 
4212500000  -2.371989e+001  -4.304554e+001 
4215625000  -2.476850e+001  -3.688196e+001 
4218750000  -2.356033e+001  -3.029460e+001 
4221875000  -2.112587e+001  -3.924192e+001 
4225000000  -2.231857e+001  -5.197390e+001 
4228125000  -2.310748e+001  -4.692522e+001 
4231250000  -2.156735e+001  -5.041309e+001 
4234375000  -2.145690e+001  -5.900739e+001 
4237500000  -2.107523e+001  -6.221633e+001 
4240625000  -2.102945e+001  -7.066829e+001 
4243750000  -2.198021e+001  -7.719567e+001 
4246875000  -2.289375e+001  -7.739989e+001 
4250000000  -2.293510e+001  -7.470522e+001 
4253125000  -2.235115e+001  -7.625189e+001 
4256250000  -2.264959e+001  -8.084472e+001 
4259375000  -2.243777e+001  -8.271708e+001 
4262500000  -2.240013e+001  -8.636526e+001 
4265625000  -2.263250e+001  -8.625673e+001 
4268750000  -2.175253e+001  -9.007717e+001 
4271875000  -2.151991e+001  -9.559307e+001 
4275000000  -2.084497e+001  -1.019911e+002 
4278125000  -2.144611e+001  -1.128532e+002 
4281250000  -2.321914e+001  -1.152185e+002 
4284375000  -2.291855e+001  -1.145485e+002 
4287500000  -2.369423e+001  -1.178463e+002 
4290625000  -2.500356e+001  -1.085827e+002 
4293750000  -2.307801e+001  -1.027877e+002 
4296875000  -2.165570e+001  -1.140713e+002 
4300000000  -2.240608e+001  -1.233092e+002 
4303125000  -2.358526e+001  -1.226132e+002 
4306250000  -2.304062e+001  -1.165843e+002 
4309375000  -2.163489e+001  -1.181799e+002 
4312500000  -2.152294e+001  -1.263974e+002 
4315625000  -2.173424e+001  -1.327079e+002 
4318750000  -2.201274e+001  -1.359681e+002 
4321875000  -2.220354e+001  -1.355644e+002 
4325000000  -2.163385e+001  -1.348716e+002 
4328125000  -2.114111e+001  -1.412095e+002 
4331250000  -2.106381e+001  -1.493006e+002 
4334375000  -2.146258e+001  -1.539647e+002 
4337500000  -2.224378e+001  -1.565684e+002 
4340625000  -2.282835e+001  -1.535313e+002 
4343750000  -2.227186e+001  -1.527905e+002 
4346875000  -2.188055e+001  -1.583941e+002 
4350000000  -2.190192e+001  -1.627051e+002 
4353125000  -2.190123e+001  -1.707115e+002 
4356250000  -2.355404e+001  -1.722410e+002 
4359375000  -2.432447e+001  -1.594393e+002 
4362500000  -2.174794e+001  -1.567832e+002 
4365625000  -2.006064e+001  -1.683370e+002 
4368750000  -2.070465e+001  1.797028e+002 
4371875000  -2.190503e+001  -1.799130e+002 
4375000000  -2.165825e+001  -1.784545e+002 
4378125000  -2.096589e+001  1.754986e+002 
4381250000  -2.114635e+001  1.702833e+002 
4384375000  -2.096462e+001  1.657444e+002 
4387500000  -2.165590e+001  1.600637e+002 
4390625000  -2.271407e+001  1.605964e+002 
4393750000  -2.205829e+001  1.630236e+002 
4396875000  -2.135619e+001  1.608286e+002 
4400000000  -2.086518e+001  1.540542e+002 
4403125000  -2.140922e+001  1.461946e+002 
4406250000  -2.224885e+001  1.452639e+002 
4409375000  -2.222379e+001  1.429677e+002 
4412500000  -2.322257e+001  1.402514e+002 
4415625000  -2.367071e+001  1.449284e+002 
4418750000  -2.250480e+001  1.494725e+002 
