!Agilent Technologies,E8363B,MY43030201,A.06.04.32
!Agilent E8363B: A.06.04.32
!Date: Tuesday, November 11, 2014 20:45:57
!Correction: S21(Response(S21)) 
!S1P File: Measurement: S21:
# Hz S  dB   R 50
3000000000  -2.652362e+001  1.582909e+002 
3003125000  -2.790782e+001  1.541355e+002 
3006250000  -2.793495e+001  1.512702e+002 
3009375000  -2.830957e+001  1.561404e+002 
3012500000  -2.778308e+001  1.557227e+002 
3015625000  -2.685868e+001  1.489831e+002 
3018750000  -2.766315e+001  1.478522e+002 
3021875000  -2.645719e+001  1.492181e+002 
3025000000  -2.518317e+001  1.462066e+002 
3028125000  -2.418915e+001  1.414226e+002 
3031250000  -2.314534e+001  1.304250e+002 
3034375000  -2.277558e+001  1.175086e+002 
3037500000  -2.309283e+001  1.055253e+002 
3040625000  -2.440453e+001  1.003479e+002 
3043750000  -2.513546e+001  9.597482e+001 
3046875000  -2.520464e+001  8.965984e+001 
3050000000  -2.698459e+001  8.267609e+001 
3053125000  -2.718624e+001  8.897114e+001 
3056250000  -2.643208e+001  9.218344e+001 
3059375000  -2.675837e+001  9.158311e+001 
3062500000  -2.525546e+001  8.789900e+001 
3065625000  -2.504515e+001  8.245657e+001 
3068750000  -2.476394e+001  7.543521e+001 
3071875000  -2.465343e+001  7.245167e+001 
3075000000  -2.466645e+001  6.881602e+001 
3078125000  -2.436487e+001  6.417997e+001 
3081250000  -2.500714e+001  5.987286e+001 
3084375000  -2.428532e+001  5.640430e+001 
3087500000  -2.410171e+001  5.283373e+001 
3090625000  -2.384489e+001  4.324439e+001 
3093750000  -2.420461e+001  3.499101e+001 
3096875000  -2.554196e+001  2.868048e+001 
3100000000  -2.567738e+001  2.755945e+001 
3103125000  -2.605405e+001  2.911435e+001 
3106250000  -2.576570e+001  2.539520e+001 
3109375000  -2.601950e+001  2.189536e+001 
3112500000  -2.614547e+001  2.108305e+001 
3115625000  -2.594124e+001  1.676869e+001 
3118750000  -2.643871e+001  1.785468e+001 
3121875000  -2.575762e+001  1.011948e+001 
3125000000  -2.686989e+001  6.389272e+000 
3128125000  -2.815955e+001  1.433451e+001 
3131250000  -2.603063e+001  1.495565e+001 
3134375000  -2.458398e+001  1.574749e+000 
3137500000  -2.524596e+001  -1.250373e+001 
3140625000  -2.690979e+001  -1.442167e+001 
3143750000  -2.789625e+001  -1.019502e+001 
3146875000  -2.752661e+001  -7.931968e+000 
3150000000  -2.648204e+001  -5.428703e+000 
3153125000  -2.646689e+001  -1.340777e+001 
3156250000  -2.745549e+001  -8.062819e+000 
3159375000  -2.597159e+001  -5.013160e+000 
3162500000  -2.388698e+001  -1.795319e+001 
3165625000  -2.476990e+001  -2.897298e+001 
3168750000  -2.519519e+001  -2.810993e+001 
3171875000  -2.426446e+001  -3.211718e+001 
3175000000  -2.491310e+001  -3.995610e+001 
3178125000  -2.471697e+001  -3.843213e+001 
3181250000  -2.351422e+001  -4.205539e+001 
3184375000  -2.266938e+001  -5.444413e+001 
3187500000  -2.372679e+001  -6.972152e+001 
3190625000  -2.660165e+001  -7.733559e+001 
3193750000  -2.722213e+001  -6.769665e+001 
3196875000  -2.675924e+001  -6.207866e+001 
3200000000  -2.594051e+001  -6.382455e+001 
3203125000  -2.502442e+001  -6.953362e+001 
3206250000  -2.532056e+001  -7.568786e+001 
3209375000  -2.482121e+001  -8.069151e+001 
3212500000  -2.492695e+001  -8.744739e+001 
3215625000  -2.507266e+001  -9.200826e+001 
3218750000  -2.580226e+001  -9.854330e+001 
3221875000  -2.683368e+001  -1.034105e+002 
3225000000  -2.647518e+001  -1.036482e+002 
3228125000  -2.675049e+001  -1.082767e+002 
3231250000  -2.744328e+001  -1.112553e+002 
3234375000  -2.740273e+001  -1.100177e+002 
3237500000  -2.738999e+001  -1.117281e+002 
3240625000  -2.708745e+001  -1.132617e+002 
3243750000  -2.667708e+001  -1.199236e+002 
3246875000  -2.718893e+001  -1.263907e+002 
3250000000  -2.763763e+001  -1.286543e+002 
3253125000  -2.778458e+001  -1.303519e+002 
3256250000  -2.768878e+001  -1.355030e+002 
3259375000  -2.800940e+001  -1.436828e+002 
3262500000  -2.926353e+001  -1.464914e+002 
3265625000  -2.992578e+001  -1.435637e+002 
3268750000  -2.990536e+001  -1.406801e+002 
3271875000  -2.968385e+001  -1.393379e+002 
3275000000  -2.857062e+001  -1.443595e+002 
3278125000  -2.902770e+001  -1.506546e+002 
3281250000  -2.932933e+001  -1.487112e+002 
3284375000  -2.886315e+001  -1.547095e+002 
3287500000  -2.904300e+001  -1.579783e+002 
3290625000  -2.951077e+001  -1.616499e+002 
3293750000  -2.919130e+001  -1.676612e+002 
3296875000  -3.014543e+001  -1.676400e+002 
3300000000  -3.010084e+001  -1.658499e+002 
3303125000  -2.893596e+001  -1.702193e+002 
3306250000  -2.865022e+001  -1.763731e+002 
3309375000  -2.848830e+001  1.784775e+002 
3312500000  -2.845609e+001  1.682576e+002 
3315625000  -2.947589e+001  1.601402e+002 
3318750000  -3.080378e+001  1.576682e+002 
3321875000  -3.206018e+001  1.571295e+002 
3325000000  -3.260989e+001  1.616767e+002 
3328125000  -3.243790e+001  1.637809e+002 
3331250000  -3.130834e+001  1.707125e+002 
3334375000  -2.876289e+001  1.620487e+002 
3337500000  -2.870710e+001  1.439760e+002 
3340625000  -3.005832e+001  1.327437e+002 
3343750000  -3.194278e+001  1.314801e+002 
3346875000  -3.253835e+001  1.322916e+002 
3350000000  -3.195304e+001  1.316735e+002 
3353125000  -3.204456e+001  1.277996e+002 
3356250000  -3.172840e+001  1.201361e+002 
3359375000  -3.257057e+001  1.115903e+002 
3362500000  -3.388353e+001  1.059052e+002 
3365625000  -3.455897e+001  1.040493e+002 
3368750000  -3.543448e+001  1.027108e+002 
3371875000  -3.576992e+001  9.983305e+001 
3375000000  -3.736526e+001  9.809352e+001 
3378125000  -3.848348e+001  9.721916e+001 
3381250000  -3.993974e+001  1.037062e+002 
3384375000  -3.914228e+001  1.247355e+002 
3387500000  -3.614383e+001  1.116959e+002 
3390625000  -3.778205e+001  9.196941e+001 
3393750000  -3.941846e+001  9.671561e+001 
3396875000  -3.882397e+001  1.011675e+002 
3400000000  -3.867593e+001  9.265987e+001 
3403125000  -3.959290e+001  8.791296e+001 
3406250000  -4.044398e+001  9.147219e+001 
3409375000  -4.124694e+001  8.805196e+001 
3412500000  -4.207767e+001  8.816138e+001 
3415625000  -4.280293e+001  9.340005e+001 
3418750000  -4.341342e+001  9.557093e+001 
3421875000  -4.333279e+001  1.046724e+002 
3425000000  -4.273306e+001  1.065441e+002 
3428125000  -4.199366e+001  1.066251e+002 
3431250000  -4.163165e+001  1.034040e+002 
3434375000  -4.138182e+001  1.013427e+002 
3437500000  -4.195890e+001  9.840070e+001 
3440625000  -4.224265e+001  1.012886e+002 
3443750000  -4.125475e+001  1.040420e+002 
3446875000  -4.023634e+001  9.782944e+001 
3450000000  -4.007869e+001  8.982197e+001 
3453125000  -4.017756e+001  8.187761e+001 
3456250000  -4.148452e+001  7.556622e+001 
3459375000  -4.235984e+001  7.884419e+001 
3462500000  -4.252485e+001  7.855995e+001 
3465625000  -4.262865e+001  7.400239e+001 
3468750000  -4.313475e+001  7.181542e+001 
3471875000  -4.311569e+001  7.152591e+001 
3475000000  -4.288110e+001  6.868366e+001 
3478125000  -4.368690e+001  6.347137e+001 
3481250000  -4.457374e+001  6.103216e+001 
3484375000  -4.635248e+001  6.726585e+001 
3487500000  -4.634020e+001  7.147049e+001 
3490625000  -4.555318e+001  6.961880e+001 
3493750000  -4.594677e+001  6.529548e+001 
3496875000  -4.751219e+001  6.589577e+001 
3500000000  -4.813339e+001  7.402649e+001 
3503125000  -4.795371e+001  7.830322e+001 
3506250000  -4.660004e+001  8.378369e+001 
3509375000  -4.712830e+001  7.905341e+001 
3512500000  -4.783775e+001  7.583479e+001 
3515625000  -4.825120e+001  7.643822e+001 
3518750000  -4.805642e+001  8.529843e+001 
3521875000  -4.835693e+001  9.368316e+001 
3525000000  -4.818615e+001  8.802411e+001 
3528125000  -4.774940e+001  1.033089e+002 
3531250000  -4.612490e+001  1.056877e+002 
3534375000  -4.544516e+001  9.422374e+001 
3537500000  -4.530519e+001  9.098384e+001 
3540625000  -4.562472e+001  9.022080e+001 
3543750000  -4.598235e+001  9.403312e+001 
3546875000  -4.563197e+001  1.067447e+002 
3550000000  -4.316862e+001  1.090002e+002 
3553125000  -4.199289e+001  9.131070e+001 
3556250000  -4.272055e+001  8.586863e+001 
3559375000  -4.219371e+001  8.764243e+001 
3562500000  -4.103501e+001  8.248457e+001 
3565625000  -4.196994e+001  7.569583e+001 
3568750000  -4.196096e+001  7.894942e+001 
3571875000  -4.172884e+001  8.012054e+001 
3575000000  -4.129442e+001  7.405968e+001 
3578125000  -4.146092e+001  7.037133e+001 
3581250000  -4.190094e+001  6.988904e+001 
3584375000  -4.099089e+001  6.727921e+001 
3587500000  -4.000400e+001  6.468221e+001 
3590625000  -4.041385e+001  5.424247e+001 
3593750000  -4.141333e+001  5.207471e+001 
3596875000  -4.155269e+001  6.061017e+001 
3600000000  -3.976529e+001  5.708084e+001 
3603125000  -4.004332e+001  4.583125e+001 
3606250000  -4.061719e+001  4.228483e+001 
3609375000  -4.111777e+001  4.244005e+001 
3612500000  -4.151093e+001  4.003568e+001 
3615625000  -4.131698e+001  3.785333e+001 
3618750000  -4.210443e+001  3.892024e+001 
3621875000  -4.149636e+001  3.843769e+001 
3625000000  -4.187840e+001  3.849426e+001 
3628125000  -4.196852e+001  3.807276e+001 
3631250000  -4.143952e+001  3.339552e+001 
3634375000  -4.231235e+001  3.594436e+001 
3637500000  -4.207148e+001  3.913060e+001 
3640625000  -4.078350e+001  3.981440e+001 
3643750000  -4.091986e+001  3.431339e+001 
3646875000  -4.091999e+001  2.977825e+001 
3650000000  -4.153856e+001  2.770950e+001 
3653125000  -4.152636e+001  2.931137e+001 
3656250000  -4.157482e+001  2.876285e+001 
3659375000  -4.199239e+001  3.297639e+001 
3662500000  -4.118450e+001  3.128689e+001 
3665625000  -4.142730e+001  3.155419e+001 
3668750000  -4.069096e+001  3.265175e+001 
3671875000  -3.932490e+001  2.839621e+001 
3675000000  -3.982933e+001  2.337332e+001 
3678125000  -4.031395e+001  2.475536e+001 
3681250000  -3.983865e+001  2.405748e+001 
3684375000  -3.971972e+001  2.252867e+001 
3687500000  -3.973942e+001  2.143273e+001 
3690625000  -3.992438e+001  1.949397e+001 
3693750000  -4.040956e+001  2.149160e+001 
3696875000  -4.018765e+001  2.523310e+001 
3700000000  -3.903250e+001  2.300693e+001 
3703125000  -3.890678e+001  2.044361e+001 
3706250000  -3.932208e+001  2.095100e+001 
3709375000  -3.876779e+001  2.458482e+001 
3712500000  -3.746698e+001  2.380963e+001 
3715625000  -3.647075e+001  1.943079e+001 
3718750000  -3.571223e+001  1.532188e+001 
3721875000  -3.531036e+001  1.137407e+001 
3725000000  -3.523374e+001  5.911741e+000 
3728125000  -3.549661e+001  5.218319e+000 
3731250000  -3.465008e+001  4.669973e+000 
3734375000  -3.364654e+001  -1.719229e+000 
3737500000  -3.412470e+001  -8.792988e+000 
3740625000  -3.469165e+001  -1.256357e+001 
3743750000  -3.455917e+001  -1.442003e+001 
3746875000  -3.450161e+001  -1.706906e+001 
3750000000  -3.493477e+001  -1.857142e+001 
3753125000  -3.452834e+001  -1.831787e+001 
3756250000  -3.452693e+001  -1.963732e+001 
3759375000  -3.428205e+001  -2.090702e+001 
3762500000  -3.357414e+001  -2.459933e+001 
3765625000  -3.399915e+001  -2.729360e+001 
3768750000  -3.426963e+001  -2.514072e+001 
3771875000  -3.256194e+001  -2.692397e+001 
3775000000  -3.222986e+001  -3.505302e+001 
3778125000  -3.254123e+001  -3.687133e+001 
3781250000  -3.230526e+001  -3.988904e+001 
3784375000  -3.227657e+001  -4.144482e+001 
3787500000  -3.166684e+001  -4.506550e+001 
3790625000  -3.214647e+001  -5.143875e+001 
3793750000  -3.232791e+001  -5.099043e+001 
3796875000  -3.146731e+001  -5.287709e+001 
3800000000  -3.002851e+001  -5.683680e+001 
3803125000  -3.066106e+001  -6.311884e+001 
3806250000  -3.127139e+001  -6.510937e+001 
3809375000  -3.114505e+001  -6.650740e+001 
3812500000  -3.044608e+001  -7.115618e+001 
3815625000  -3.098169e+001  -7.869627e+001 
3818750000  -3.200600e+001  -8.060787e+001 
3821875000  -3.214786e+001  -7.293040e+001 
3825000000  -3.021888e+001  -6.781745e+001 
3828125000  -2.891792e+001  -8.128497e+001 
3831250000  -2.935523e+001  -9.499483e+001 
3834375000  -3.065208e+001  -9.634226e+001 
3837500000  -3.154574e+001  -9.114901e+001 
3840625000  -3.041849e+001  -9.205948e+001 
3843750000  -2.924770e+001  -1.022318e+002 
3846875000  -2.994876e+001  -1.100265e+002 
3850000000  -3.124537e+001  -1.042026e+002 
3853125000  -3.040338e+001  -1.014795e+002 
3856250000  -3.029510e+001  -1.061760e+002 
3859375000  -2.977213e+001  -1.118632e+002 
3862500000  -2.928013e+001  -1.178444e+002 
3865625000  -2.951634e+001  -1.228818e+002 
3868750000  -2.954630e+001  -1.231612e+002 
3871875000  -2.883692e+001  -1.256831e+002 
3875000000  -2.888992e+001  -1.342291e+002 
3878125000  -2.997055e+001  -1.373207e+002 
3881250000  -3.003444e+001  -1.342083e+002 
3884375000  -2.952015e+001  -1.380967e+002 
3887500000  -2.961086e+001  -1.431975e+002 
3890625000  -3.013743e+001  -1.450187e+002 
3893750000  -3.055105e+001  -1.462919e+002 
3896875000  -3.068454e+001  -1.461728e+002 
3900000000  -3.089932e+001  -1.468235e+002 
3903125000  -3.058789e+001  -1.492208e+002 
3906250000  -3.040906e+001  -1.499579e+002 
3909375000  -2.971571e+001  -1.527300e+002 
3912500000  -2.971315e+001  -1.594491e+002 
3915625000  -3.091137e+001  -1.587109e+002 
3918750000  -3.094502e+001  -1.574732e+002 
3921875000  -3.061326e+001  -1.590736e+002 
3925000000  -2.979873e+001  -1.591329e+002 
3928125000  -2.906794e+001  -1.647746e+002 
3931250000  -2.950688e+001  -1.691316e+002 
3934375000  -2.975489e+001  -1.684520e+002 
3937500000  -2.989592e+001  -1.694521e+002 
3940625000  -3.036672e+001  -1.693096e+002 
3943750000  -2.947981e+001  -1.681783e+002 
3946875000  -2.820540e+001  -1.730272e+002 
3950000000  -2.859685e+001  1.794292e+002 
3953125000  -2.956697e+001  1.795172e+002 
3956250000  -2.880886e+001  -1.778260e+002 
3959375000  -2.744636e+001  1.794514e+002 
3962500000  -2.688553e+001  1.755288e+002 
3965625000  -2.652760e+001  1.671705e+002 
3968750000  -2.741912e+001  1.603928e+002 
3971875000  -2.792736e+001  1.583461e+002 
3975000000  -2.715881e+001  1.568419e+002 
3978125000  -2.695267e+001  1.554793e+002 
3981250000  -2.666217e+001  1.510030e+002 
3984375000  -2.690009e+001  1.441889e+002 
3987500000  -2.747423e+001  1.426965e+002 
3990625000  -2.745123e+001  1.417619e+002 
3993750000  -2.768335e+001  1.382989e+002 
3996875000  -2.764000e+001  1.356196e+002 
4000000000  -2.764565e+001  1.340071e+002 
4003125000  -2.828609e+001  1.355550e+002 
4006250000  -2.694318e+001  1.366500e+002 
4009375000  -2.568138e+001  1.240199e+002 
4012500000  -2.673210e+001  1.166861e+002 
4015625000  -2.793881e+001  1.170654e+002 
4018750000  -2.819643e+001  1.195631e+002 
4021875000  -2.759225e+001  1.176924e+002 
4025000000  -2.718176e+001  1.127717e+002 
4028125000  -2.715788e+001  1.090280e+002 
4031250000  -2.760692e+001  1.056761e+002 
4034375000  -2.794229e+001  1.055708e+002 
4037500000  -2.737912e+001  1.072475e+002 
4040625000  -2.724840e+001  1.042925e+002 
4043750000  -2.765039e+001  1.039886e+002 
4046875000  -2.729974e+001  1.035792e+002 
4050000000  -2.678162e+001  9.803100e+001 
4053125000  -2.718637e+001  9.534946e+001 
4056250000  -2.772086e+001  9.975141e+001 
4059375000  -2.670338e+001  1.014333e+002 
4062500000  -2.526127e+001  9.715569e+001 
4065625000  -2.504449e+001  9.315781e+001 
4068750000  -2.478698e+001  8.826241e+001 
4071875000  -2.420744e+001  8.028653e+001 
4075000000  -2.453489e+001  7.437295e+001 
4078125000  -2.503052e+001  7.322598e+001 
4081250000  -2.459060e+001  7.078345e+001 
4084375000  -2.418352e+001  6.463686e+001 
4087500000  -2.449205e+001  5.813427e+001 
4090625000  -2.508372e+001  5.686700e+001 
4093750000  -2.492401e+001  5.753064e+001 
4096875000  -2.447270e+001  5.219161e+001 
4100000000  -2.509158e+001  4.507836e+001 
4103125000  -2.596701e+001  4.539947e+001 
4106250000  -2.588087e+001  5.014853e+001 
4109375000  -2.502541e+001  4.968280e+001 
4112500000  -2.445642e+001  4.301777e+001 
4115625000  -2.477009e+001  3.849924e+001 
4118750000  -2.486361e+001  3.613247e+001 
4121875000  -2.447552e+001  3.146670e+001 
4125000000  -2.477474e+001  2.646830e+001 
4128125000  -2.578917e+001  2.584581e+001 
4131250000  -2.558785e+001  3.376749e+001 
4134375000  -2.326822e+001  3.001143e+001 
4137500000  -2.299400e+001  1.132698e+001 
4140625000  -2.512061e+001  3.725303e+000 
4143750000  -2.646877e+001  8.514791e+000 
4146875000  -2.609597e+001  1.581584e+001 
4150000000  -2.519661e+001  1.298788e+001 
4153125000  -2.504043e+001  6.389115e+000 
4156250000  -2.592654e+001  3.270362e+000 
4159375000  -2.618985e+001  7.860981e+000 
4162500000  -2.510622e+001  1.227634e+001 
4165625000  -2.397411e+001  8.091609e+000 
4168750000  -2.332881e+001  1.408218e+000 
4171875000  -2.333850e+001  -7.732014e+000 
4175000000  -2.392611e+001  -1.331832e+001 
4178125000  -2.454103e+001  -1.362247e+001 
4181250000  -2.448215e+001  -1.408283e+001 
4184375000  -2.428870e+001  -1.703214e+001 
4187500000  -2.431047e+001  -1.951307e+001 
4190625000  -2.412843e+001  -2.490816e+001 
4193750000  -2.491420e+001  -2.899468e+001 
4196875000  -2.555630e+001  -2.950273e+001 
4200000000  -2.639628e+001  -2.740948e+001 
4203125000  -2.659116e+001  -1.495880e+001 
4206250000  -2.331313e+001  -1.230610e+001 
4209375000  -2.198251e+001  -3.185269e+001 
4212500000  -2.381952e+001  -4.105866e+001 
4215625000  -2.480530e+001  -3.541639e+001 
4218750000  -2.366292e+001  -2.857285e+001 
4221875000  -2.127718e+001  -3.745911e+001 
4225000000  -2.247315e+001  -4.974964e+001 
4228125000  -2.315646e+001  -4.489363e+001 
4231250000  -2.164812e+001  -4.854363e+001 
4234375000  -2.156495e+001  -5.712769e+001 
4237500000  -2.116691e+001  -6.025788e+001 
4240625000  -2.116021e+001  -6.869024e+001 
4243750000  -2.208207e+001  -7.515198e+001 
4246875000  -2.293629e+001  -7.573469e+001 
4250000000  -2.303985e+001  -7.305932e+001 
4253125000  -2.237736e+001  -7.481481e+001 
4256250000  -2.269886e+001  -7.895517e+001 
4259375000  -2.246863e+001  -8.114520e+001 
4262500000  -2.246393e+001  -8.482670e+001 
4265625000  -2.261310e+001  -8.460593e+001 
4268750000  -2.181131e+001  -8.874191e+001 
4271875000  -2.154977e+001  -9.411335e+001 
4275000000  -2.095830e+001  -1.004483e+002 
4278125000  -2.150155e+001  -1.114248e+002 
4281250000  -2.336488e+001  -1.138930e+002 
4284375000  -2.303904e+001  -1.131168e+002 
4287500000  -2.374112e+001  -1.168034e+002 
4290625000  -2.510545e+001  -1.076168e+002 
4293750000  -2.313939e+001  -1.015004e+002 
4296875000  -2.174656e+001  -1.125389e+002 
4300000000  -2.260260e+001  -1.219711e+002 
4303125000  -2.370416e+001  -1.211820e+002 
4306250000  -2.317658e+001  -1.153399e+002 
4309375000  -2.181285e+001  -1.165889e+002 
4312500000  -2.169178e+001  -1.249786e+002 
4315625000  -2.189311e+001  -1.309238e+002 
4318750000  -2.220019e+001  -1.342999e+002 
4321875000  -2.235402e+001  -1.339753e+002 
4325000000  -2.182009e+001  -1.330318e+002 
4328125000  -2.133329e+001  -1.394271e+002 
4331250000  -2.125337e+001  -1.472238e+002 
4334375000  -2.159908e+001  -1.521223e+002 
4337500000  -2.243500e+001  -1.546286e+002 
4340625000  -2.303038e+001  -1.518882e+002 
4343750000  -2.248960e+001  -1.508522e+002 
4346875000  -2.202363e+001  -1.562027e+002 
4350000000  -2.203757e+001  -1.608251e+002 
4353125000  -2.205125e+001  -1.682236e+002 
4356250000  -2.371614e+001  -1.701319e+002 
4359375000  -2.447904e+001  -1.573810e+002 
4362500000  -2.193316e+001  -1.543887e+002 
4365625000  -2.016446e+001  -1.657124e+002 
4368750000  -2.080119e+001  -1.779682e+002 
4371875000  -2.211355e+001  -1.779348e+002 
4375000000  -2.177195e+001  -1.765540e+002 
4378125000  -2.106851e+001  1.779724e+002 
4381250000  -2.126998e+001  1.725574e+002 
4384375000  -2.105986e+001  1.680371e+002 
4387500000  -2.174973e+001  1.621821e+002 
4390625000  -2.281796e+001  1.629113e+002 
4393750000  -2.217555e+001  1.650326e+002 
4396875000  -2.149958e+001  1.628810e+002 
4400000000  -2.099385e+001  1.559669e+002 
4403125000  -2.148175e+001  1.483434e+002 
4406250000  -2.239044e+001  1.469455e+002 
4409375000  -2.234453e+001  1.447996e+002 
4412500000  -2.337330e+001  1.418683e+002 
4415625000  -2.380658e+001  1.464712e+002 
4418750000  -2.260629e+001  1.512675e+002 
