!Agilent Technologies,E8363B,MY43030201,A.06.04.32
!Agilent E8363B: A.06.04.32
!Date: Tuesday, November 11, 2014 20:58:38
!Correction: S21(Response(S21)) 
!S1P File: Measurement: S21:
# Hz S  dB   R 50
3000000000  -2.651761e+001  1.462012e+002 
3003125000  -2.793247e+001  1.416431e+002 
3006250000  -2.794433e+001  1.388744e+002 
3009375000  -2.835518e+001  1.442663e+002 
3012500000  -2.775411e+001  1.437907e+002 
3015625000  -2.687098e+001  1.365761e+002 
3018750000  -2.771497e+001  1.361136e+002 
3021875000  -2.639037e+001  1.372751e+002 
3025000000  -2.507744e+001  1.340564e+002 
3028125000  -2.410727e+001  1.289348e+002 
3031250000  -2.304911e+001  1.175929e+002 
3034375000  -2.274559e+001  1.044663e+002 
3037500000  -2.313503e+001  9.287774e+001 
3040625000  -2.447044e+001  8.784599e+001 
3043750000  -2.516438e+001  8.344830e+001 
3046875000  -2.534323e+001  7.717484e+001 
3050000000  -2.704583e+001  7.024851e+001 
3053125000  -2.708418e+001  7.715313e+001 
3056250000  -2.651223e+001  7.991846e+001 
3059375000  -2.669662e+001  7.940534e+001 
3062500000  -2.513736e+001  7.567324e+001 
3065625000  -2.497341e+001  6.980013e+001 
3068750000  -2.467919e+001  6.292846e+001 
3071875000  -2.465527e+001  6.016856e+001 
3075000000  -2.457487e+001  5.613778e+001 
3078125000  -2.431871e+001  5.156392e+001 
3081250000  -2.496042e+001  4.727847e+001 
3084375000  -2.418524e+001  4.367496e+001 
3087500000  -2.411072e+001  3.988894e+001 
3090625000  -2.379132e+001  3.008128e+001 
3093750000  -2.430340e+001  2.221123e+001 
3096875000  -2.554835e+001  1.644174e+001 
3100000000  -2.568253e+001  1.507282e+001 
3103125000  -2.602632e+001  1.629753e+001 
3106250000  -2.574299e+001  1.281896e+001 
3109375000  -2.601684e+001  9.222222e+000 
3112500000  -2.613903e+001  8.113770e+000 
3115625000  -2.595372e+001  4.052886e+000 
3118750000  -2.642528e+001  5.393859e+000 
3121875000  -2.572331e+001  -2.762496e+000 
3125000000  -2.701383e+001  -5.937445e+000 
3128125000  -2.817441e+001  2.442230e+000 
3131250000  -2.590754e+001  2.543128e+000 
3134375000  -2.465302e+001  -1.176270e+001 
3137500000  -2.528790e+001  -2.458920e+001 
3140625000  -2.687576e+001  -2.619758e+001 
3143750000  -2.790471e+001  -2.277986e+001 
3146875000  -2.745863e+001  -2.035226e+001 
3150000000  -2.646837e+001  -1.854358e+001 
3153125000  -2.646741e+001  -2.635546e+001 
3156250000  -2.747248e+001  -2.047725e+001 
3159375000  -2.579812e+001  -1.768284e+001 
3162500000  -2.387002e+001  -3.071732e+001 
3165625000  -2.481779e+001  -4.161172e+001 
3168750000  -2.514831e+001  -4.048339e+001 
3171875000  -2.420096e+001  -4.518862e+001 
3175000000  -2.488118e+001  -5.281610e+001 
3178125000  -2.462591e+001  -5.104819e+001 
3181250000  -2.348787e+001  -5.529329e+001 
3184375000  -2.276404e+001  -6.744170e+001 
3187500000  -2.388247e+001  -8.240578e+001 
3190625000  -2.662350e+001  -8.992775e+001 
3193750000  -2.708345e+001  -8.010174e+001 
3196875000  -2.674929e+001  -7.474567e+001 
3200000000  -2.583903e+001  -7.679845e+001 
3203125000  -2.499470e+001  -8.257853e+001 
3206250000  -2.530656e+001  -8.877828e+001 
3209375000  -2.483157e+001  -9.409535e+001 
3212500000  -2.500284e+001  -1.004990e+002 
3215625000  -2.511626e+001  -1.043148e+002 
3218750000  -2.589887e+001  -1.109883e+002 
3221875000  -2.682331e+001  -1.158223e+002 
3225000000  -2.643503e+001  -1.165479e+002 
3228125000  -2.679223e+001  -1.215600e+002 
3231250000  -2.750168e+001  -1.235687e+002 
3234375000  -2.734174e+001  -1.226191e+002 
3237500000  -2.740783e+001  -1.242482e+002 
3240625000  -2.699015e+001  -1.263790e+002 
3243750000  -2.672022e+001  -1.329083e+002 
3246875000  -2.718856e+001  -1.390059e+002 
3250000000  -2.764773e+001  -1.410193e+002 
3253125000  -2.784955e+001  -1.428733e+002 
3256250000  -2.767522e+001  -1.486384e+002 
3259375000  -2.799879e+001  -1.565271e+002 
3262500000  -2.925836e+001  -1.593217e+002 
3265625000  -2.995382e+001  -1.558538e+002 
3268750000  -2.990455e+001  -1.528203e+002 
3271875000  -2.962083e+001  -1.518676e+002 
3275000000  -2.856099e+001  -1.571530e+002 
3278125000  -2.903079e+001  -1.634188e+002 
3281250000  -2.931002e+001  -1.615767e+002 
3284375000  -2.888617e+001  -1.671928e+002 
3287500000  -2.905070e+001  -1.695894e+002 
3290625000  -2.944339e+001  -1.743497e+002 
3293750000  -2.910057e+001  1.799500e+002 
3296875000  -3.020945e+001  -1.799920e+002 
3300000000  -2.999216e+001  -1.787885e+002 
3303125000  -2.888758e+001  1.770272e+002 
3306250000  -2.866253e+001  1.704050e+002 
3309375000  -2.843515e+001  1.657148e+002 
3312500000  -2.847812e+001  1.549382e+002 
3315625000  -2.951613e+001  1.471530e+002 
3318750000  -3.086462e+001  1.446877e+002 
3321875000  -3.210951e+001  1.444966e+002 
3325000000  -3.266407e+001  1.504387e+002 
3328125000  -3.245092e+001  1.521152e+002 
3331250000  -3.118643e+001  1.593999e+002 
3334375000  -2.855426e+001  1.491130e+002 
3337500000  -2.868789e+001  1.305211e+002 
3340625000  -3.003460e+001  1.197415e+002 
3343750000  -3.205779e+001  1.186937e+002 
3346875000  -3.252762e+001  1.202186e+002 
3350000000  -3.184876e+001  1.197204e+002 
3353125000  -3.198825e+001  1.146325e+002 
3356250000  -3.166950e+001  1.067654e+002 
3359375000  -3.259999e+001  9.875375e+001 
3362500000  -3.381742e+001  9.313475e+001 
3365625000  -3.446674e+001  9.121056e+001 
3368750000  -3.551675e+001  8.966980e+001 
3371875000  -3.583293e+001  8.679832e+001 
3375000000  -3.750987e+001  8.542462e+001 
3378125000  -3.846747e+001  8.451208e+001 
3381250000  -4.014953e+001  9.306329e+001 
3384375000  -3.932879e+001  1.140006e+002 
3387500000  -3.587959e+001  9.909321e+001 
3390625000  -3.774292e+001  8.151991e+001 
3393750000  -3.938684e+001  8.577945e+001 
3396875000  -3.848242e+001  8.816841e+001 
3400000000  -3.865777e+001  8.164232e+001 
3403125000  -3.974416e+001  7.644589e+001 
3406250000  -4.060772e+001  7.949850e+001 
3409375000  -4.091342e+001  7.491864e+001 
3412500000  -4.187371e+001  7.683113e+001 
3415625000  -4.261514e+001  8.219106e+001 
3418750000  -4.297022e+001  8.501145e+001 
3421875000  -4.321907e+001  9.275472e+001 
3425000000  -4.233635e+001  9.428436e+001 
3428125000  -4.140355e+001  9.335227e+001 
3431250000  -4.131376e+001  8.995302e+001 
3434375000  -4.122123e+001  8.770608e+001 
3437500000  -4.157795e+001  8.476711e+001 
3440625000  -4.182846e+001  8.785247e+001 
3443750000  -4.048548e+001  9.013267e+001 
3446875000  -3.974129e+001  8.522810e+001 
3450000000  -3.950855e+001  7.532539e+001 
3453125000  -3.978380e+001  6.672282e+001 
3456250000  -4.080098e+001  6.178755e+001 
3459375000  -4.212214e+001  6.576376e+001 
3462500000  -4.202763e+001  6.436617e+001 
3465625000  -4.229559e+001  6.281034e+001 
3468750000  -4.247243e+001  5.916863e+001 
3471875000  -4.279913e+001  5.933888e+001 
3475000000  -4.253367e+001  5.704062e+001 
3478125000  -4.336325e+001  5.093110e+001 
3481250000  -4.428526e+001  4.990693e+001 
3484375000  -4.580791e+001  5.482832e+001 
3487500000  -4.557975e+001  5.536515e+001 
3490625000  -4.504511e+001  5.539214e+001 
3493750000  -4.549070e+001  5.002849e+001 
3496875000  -4.680814e+001  5.133758e+001 
3500000000  -4.790030e+001  5.668583e+001 
3503125000  -4.778817e+001  6.596517e+001 
3506250000  -4.604934e+001  6.572039e+001 
3509375000  -4.613576e+001  5.994703e+001 
3512500000  -4.745085e+001  5.821272e+001 
3515625000  -4.719174e+001  6.153826e+001 
3518750000  -4.801200e+001  6.396205e+001 
3521875000  -4.794380e+001  7.233579e+001 
3525000000  -4.784072e+001  7.619802e+001 
3528125000  -4.730898e+001  9.040023e+001 
3531250000  -4.543725e+001  8.548949e+001 
3534375000  -4.497412e+001  7.881332e+001 
3537500000  -4.516825e+001  7.549967e+001 
3540625000  -4.540060e+001  7.521283e+001 
3543750000  -4.601649e+001  7.990098e+001 
3546875000  -4.544585e+001  9.085709e+001 
3550000000  -4.320863e+001  9.352552e+001 
3553125000  -4.139819e+001  7.540054e+001 
3556250000  -4.251469e+001  7.083566e+001 
3559375000  -4.219276e+001  7.403305e+001 
3562500000  -4.084237e+001  6.506491e+001 
3565625000  -4.151103e+001  6.003060e+001 
3568750000  -4.178342e+001  6.330401e+001 
3571875000  -4.146384e+001  6.154165e+001 
3575000000  -4.072301e+001  5.835389e+001 
3578125000  -4.130770e+001  5.204974e+001 
3581250000  -4.150328e+001  5.591553e+001 
3584375000  -4.058095e+001  5.458410e+001 
3587500000  -3.977558e+001  4.739264e+001 
3590625000  -4.015691e+001  3.895032e+001 
3593750000  -4.117211e+001  3.740103e+001 
3596875000  -4.137782e+001  4.825079e+001 
3600000000  -3.951781e+001  4.142907e+001 
3603125000  -3.994469e+001  2.900030e+001 
3606250000  -4.039447e+001  2.681403e+001 
3609375000  -4.081371e+001  2.490285e+001 
3612500000  -4.125756e+001  2.555053e+001 
3615625000  -4.123139e+001  2.242672e+001 
3618750000  -4.183334e+001  2.473492e+001 
3621875000  -4.134495e+001  2.386823e+001 
3625000000  -4.158459e+001  2.152814e+001 
3628125000  -4.165416e+001  2.232601e+001 
3631250000  -4.123189e+001  1.728106e+001 
3634375000  -4.240253e+001  1.927278e+001 
3637500000  -4.176992e+001  2.584966e+001 
3640625000  -4.079726e+001  2.395009e+001 
3643750000  -4.040629e+001  1.913198e+001 
3646875000  -4.084232e+001  1.263010e+001 
3650000000  -4.136007e+001  1.422795e+001 
3653125000  -4.108064e+001  1.203439e+001 
3656250000  -4.173732e+001  1.165977e+001 
3659375000  -4.211423e+001  1.611190e+001 
3662500000  -4.116542e+001  1.575577e+001 
3665625000  -4.110478e+001  1.599669e+001 
3668750000  -4.011613e+001  1.666806e+001 
3671875000  -3.916836e+001  1.237483e+001 
3675000000  -3.969317e+001  5.430304e+000 
3678125000  -4.029989e+001  6.409541e+000 
3681250000  -3.985117e+001  6.604825e+000 
3684375000  -3.944997e+001  6.424096e+000 
3687500000  -3.983963e+001  4.902658e+000 
3690625000  -3.977259e+001  3.855991e+000 
3693750000  -4.038902e+001  4.613316e+000 
3696875000  -4.006897e+001  8.545786e+000 
3700000000  -3.898523e+001  6.764597e+000 
3703125000  -3.864616e+001  1.895284e+000 
3706250000  -3.944099e+001  4.649589e+000 
3709375000  -3.873602e+001  8.519928e+000 
3712500000  -3.730236e+001  7.188431e+000 
3715625000  -3.648680e+001  1.581718e+000 
3718750000  -3.569095e+001  -5.080883e-001 
3721875000  -3.521150e+001  -6.371745e+000 
3725000000  -3.531717e+001  -1.188374e+001 
3728125000  -3.544949e+001  -1.159816e+001 
3731250000  -3.460214e+001  -1.264616e+001 
3734375000  -3.364386e+001  -1.851434e+001 
3737500000  -3.416703e+001  -2.526696e+001 
3740625000  -3.493709e+001  -2.766912e+001 
3743750000  -3.468086e+001  -3.221217e+001 
3746875000  -3.462841e+001  -3.465427e+001 
3750000000  -3.494868e+001  -3.520094e+001 
3753125000  -3.451752e+001  -3.518313e+001 
3756250000  -3.451453e+001  -3.640572e+001 
3759375000  -3.432620e+001  -3.682747e+001 
3762500000  -3.370927e+001  -4.075936e+001 
3765625000  -3.426700e+001  -4.322482e+001 
3768750000  -3.434966e+001  -4.134192e+001 
3771875000  -3.250340e+001  -4.303738e+001 
3775000000  -3.224646e+001  -5.085195e+001 
3778125000  -3.246587e+001  -5.360057e+001 
3781250000  -3.246596e+001  -5.600506e+001 
3784375000  -3.242226e+001  -5.853983e+001 
3787500000  -3.172050e+001  -6.147262e+001 
3790625000  -3.224382e+001  -6.724236e+001 
3793750000  -3.234316e+001  -6.761287e+001 
3796875000  -3.147462e+001  -6.930493e+001 
3800000000  -2.991629e+001  -7.258591e+001 
3803125000  -3.074132e+001  -8.008678e+001 
3806250000  -3.137125e+001  -8.205479e+001 
3809375000  -3.108115e+001  -8.314018e+001 
3812500000  -3.044398e+001  -8.766178e+001 
3815625000  -3.108098e+001  -9.576038e+001 
3818750000  -3.211639e+001  -9.719471e+001 
3821875000  -3.210307e+001  -8.775306e+001 
3825000000  -3.008859e+001  -8.400089e+001 
3828125000  -2.873752e+001  -9.806219e+001 
3831250000  -2.929694e+001  -1.120956e+002 
3834375000  -3.068965e+001  -1.122678e+002 
3837500000  -3.156611e+001  -1.075749e+002 
3840625000  -3.043395e+001  -1.082454e+002 
3843750000  -2.916379e+001  -1.189633e+002 
3846875000  -3.002577e+001  -1.261304e+002 
3850000000  -3.132979e+001  -1.199716e+002 
3853125000  -3.038252e+001  -1.176214e+002 
3856250000  -3.032628e+001  -1.223487e+002 
3859375000  -2.959090e+001  -1.274849e+002 
3862500000  -2.927560e+001  -1.346606e+002 
3865625000  -2.959379e+001  -1.392953e+002 
3868750000  -2.955860e+001  -1.392089e+002 
3871875000  -2.874307e+001  -1.423444e+002 
3875000000  -2.899417e+001  -1.512446e+002 
3878125000  -2.997879e+001  -1.536138e+002 
3881250000  -3.009912e+001  -1.507929e+002 
3884375000  -2.958923e+001  -1.549628e+002 
3887500000  -2.974501e+001  -1.589304e+002 
3890625000  -3.026293e+001  -1.614525e+002 
3893750000  -3.074934e+001  -1.630916e+002 
3896875000  -3.083880e+001  -1.622898e+002 
3900000000  -3.097284e+001  -1.635967e+002 
3903125000  -3.068908e+001  -1.650657e+002 
3906250000  -3.039602e+001  -1.660234e+002 
3909375000  -2.966668e+001  -1.686451e+002 
3912500000  -2.975332e+001  -1.759847e+002 
3915625000  -3.095725e+001  -1.754966e+002 
3918750000  -3.099009e+001  -1.729614e+002 
3921875000  -3.060830e+001  -1.751315e+002 
3925000000  -2.973319e+001  -1.760356e+002 
3928125000  -2.905674e+001  1.782281e+002 
3931250000  -2.956320e+001  1.739425e+002 
3934375000  -2.991178e+001  1.744297e+002 
3937500000  -3.002448e+001  1.739652e+002 
3940625000  -3.044225e+001  1.740644e+002 
3943750000  -2.940588e+001  1.756305e+002 
3946875000  -2.821564e+001  1.702708e+002 
3950000000  -2.869002e+001  1.627160e+002 
3953125000  -2.970455e+001  1.636328e+002 
3956250000  -2.873965e+001  1.660956e+002 
3959375000  -2.745803e+001  1.633903e+002 
3962500000  -2.695284e+001  1.586194e+002 
3965625000  -2.665967e+001  1.499891e+002 
3968750000  -2.753783e+001  1.435393e+002 
3971875000  -2.792626e+001  1.419103e+002 
3975000000  -2.722539e+001  1.399819e+002 
3978125000  -2.702841e+001  1.384586e+002 
3981250000  -2.676684e+001  1.336318e+002 
3984375000  -2.701316e+001  1.278626e+002 
3987500000  -2.758998e+001  1.256890e+002 
3990625000  -2.754429e+001  1.247652e+002 
3993750000  -2.779571e+001  1.212714e+002 
3996875000  -2.769890e+001  1.188654e+002 
4000000000  -2.781167e+001  1.168527e+002 
4003125000  -2.845418e+001  1.191766e+002 
4006250000  -2.697680e+001  1.194534e+002 
4009375000  -2.579516e+001  1.073863e+002 
4012500000  -2.690988e+001  9.990150e+001 
4015625000  -2.822517e+001  1.008477e+002 
4018750000  -2.829809e+001  1.033113e+002 
4021875000  -2.761713e+001  1.014849e+002 
4025000000  -2.729519e+001  9.675079e+001 
4028125000  -2.722143e+001  9.246647e+001 
4031250000  -2.776663e+001  8.964034e+001 
4034375000  -2.801381e+001  8.943150e+001 
4037500000  -2.748742e+001  9.124876e+001 
4040625000  -2.740443e+001  8.829900e+001 
4043750000  -2.770671e+001  8.747877e+001 
4046875000  -2.729193e+001  8.735044e+001 
4050000000  -2.682786e+001  8.151579e+001 
4053125000  -2.734174e+001  7.951810e+001 
4056250000  -2.788396e+001  8.391247e+001 
4059375000  -2.660273e+001  8.587315e+001 
4062500000  -2.524851e+001  8.110987e+001 
4065625000  -2.512616e+001  7.632413e+001 
4068750000  -2.486207e+001  7.190199e+001 
4071875000  -2.419425e+001  6.424270e+001 
4075000000  -2.456840e+001  5.774333e+001 
4078125000  -2.512199e+001  5.665714e+001 
4081250000  -2.457351e+001  5.437895e+001 
4084375000  -2.415199e+001  4.788570e+001 
4087500000  -2.457110e+001  4.146947e+001 
4090625000  -2.523524e+001  4.048192e+001 
4093750000  -2.496450e+001  4.097234e+001 
4096875000  -2.456692e+001  3.520254e+001 
4100000000  -2.523780e+001  2.811090e+001 
4103125000  -2.612528e+001  2.910710e+001 
4106250000  -2.591781e+001  3.383215e+001 
4109375000  -2.505337e+001  3.343917e+001 
4112500000  -2.447159e+001  2.630894e+001 
4115625000  -2.483581e+001  2.222044e+001 
4118750000  -2.487374e+001  1.917366e+001 
4121875000  -2.453737e+001  1.462797e+001 
4125000000  -2.491568e+001  9.330897e+000 
4128125000  -2.592147e+001  9.934402e+000 
4131250000  -2.557840e+001  1.824115e+001 
4134375000  -2.320899e+001  1.313221e+001 
4137500000  -2.311538e+001  -5.680989e+000 
4140625000  -2.532227e+001  -1.270356e+001 
4143750000  -2.654950e+001  -7.360302e+000 
4146875000  -2.617243e+001  -9.697697e-002 
4150000000  -2.521088e+001  -3.583143e+000 
4153125000  -2.508605e+001  -1.027602e+001 
4156250000  -2.595881e+001  -1.257610e+001 
4159375000  -2.619888e+001  -8.022646e+000 
4162500000  -2.508227e+001  -3.918586e+000 
4165625000  -2.390825e+001  -8.060990e+000 
4168750000  -2.333963e+001  -1.535285e+001 
4171875000  -2.334475e+001  -2.460889e+001 
4175000000  -2.392904e+001  -3.009816e+001 
4178125000  -2.454026e+001  -2.984949e+001 
4181250000  -2.438411e+001  -3.056132e+001 
4184375000  -2.426445e+001  -3.381377e+001 
4187500000  -2.431324e+001  -3.675695e+001 
4190625000  -2.414265e+001  -4.208418e+001 
4193750000  -2.493115e+001  -4.546812e+001 
4196875000  -2.564233e+001  -4.600983e+001 
4200000000  -2.660588e+001  -4.354465e+001 
4203125000  -2.656253e+001  -2.981798e+001 
4206250000  -2.307361e+001  -2.868422e+001 
4209375000  -2.191199e+001  -4.954309e+001 
4212500000  -2.387393e+001  -5.822467e+001 
4215625000  -2.485834e+001  -5.154177e+001 
4218750000  -2.352771e+001  -4.486331e+001 
4221875000  -2.122992e+001  -5.394166e+001 
4225000000  -2.253295e+001  -6.668461e+001 
4228125000  -2.307773e+001  -6.180811e+001 
4231250000  -2.161432e+001  -6.554483e+001 
4234375000  -2.154393e+001  -7.405637e+001 
4237500000  -2.106148e+001  -7.724367e+001 
4240625000  -2.110787e+001  -8.604458e+001 
4243750000  -2.207123e+001  -9.250380e+001 
4246875000  -2.297620e+001  -9.251303e+001 
4250000000  -2.300550e+001  -8.967705e+001 
4253125000  -2.249258e+001  -9.142773e+001 
4256250000  -2.269621e+001  -9.582847e+001 
4259375000  -2.245212e+001  -9.750840e+001 
4262500000  -2.246458e+001  -1.012645e+002 
4265625000  -2.260914e+001  -1.010591e+002 
4268750000  -2.172264e+001  -1.054217e+002 
4271875000  -2.148834e+001  -1.109403e+002 
4275000000  -2.086497e+001  -1.174804e+002 
4278125000  -2.155839e+001  -1.287153e+002 
4281250000  -2.333979e+001  -1.306353e+002 
4284375000  -2.300713e+001  -1.298623e+002 
4287500000  -2.382012e+001  -1.334283e+002 
4290625000  -2.506628e+001  -1.231706e+002 
4293750000  -2.303215e+001  -1.184240e+002 
4296875000  -2.168121e+001  -1.298396e+002 
4300000000  -2.257023e+001  -1.388670e+002 
4303125000  -2.371721e+001  -1.376192e+002 
4306250000  -2.303163e+001  -1.315843e+002 
4309375000  -2.168046e+001  -1.339766e+002 
4312500000  -2.152719e+001  -1.423989e+002 
4315625000  -2.176456e+001  -1.482726e+002 
4318750000  -2.210965e+001  -1.517597e+002 
4321875000  -2.226207e+001  -1.508456e+002 
4325000000  -2.170158e+001  -1.503674e+002 
4328125000  -2.119559e+001  -1.569836e+002 
4331250000  -2.110163e+001  -1.651301e+002 
4334375000  -2.159591e+001  -1.700234e+002 
4337500000  -2.240580e+001  -1.721947e+002 
4340625000  -2.300748e+001  -1.686369e+002 
4343750000  -2.234437e+001  -1.683898e+002 
4346875000  -2.197213e+001  -1.741168e+002 
4350000000  -2.199528e+001  -1.785811e+002 
4353125000  -2.205770e+001  1.736653e+002 
4356250000  -2.387863e+001  1.732620e+002 
4359375000  -2.437870e+001  -1.735113e+002 
4362500000  -2.159460e+001  -1.717451e+002 
4365625000  -2.004153e+001  1.760730e+002 
4368750000  -2.078060e+001  1.644013e+002 
4371875000  -2.195489e+001  1.651358e+002 
4375000000  -2.161497e+001  1.660554e+002 
4378125000  -2.100210e+001  1.601959e+002 
4381250000  -2.113649e+001  1.546920e+002 
4384375000  -2.096765e+001  1.503009e+002 
4387500000  -2.170041e+001  1.443579e+002 
4390625000  -2.269748e+001  1.456021e+002 
4393750000  -2.207260e+001  1.475355e+002 
4396875000  -2.139402e+001  1.453137e+002 
4400000000  -2.087583e+001  1.382819e+002 
4403125000  -2.148735e+001  1.306292e+002 
4406250000  -2.232599e+001  1.295926e+002 
4409375000  -2.230961e+001  1.274147e+002 
4412500000  -2.335123e+001  1.246827e+002 
4415625000  -2.367672e+001  1.295429e+002 
4418750000  -2.247816e+001  1.340214e+002 
