!Agilent Technologies,E8363B,MY43030201,A.06.04.32
!Agilent E8363B: A.06.04.32
!Date: Tuesday, November 11, 2014 20:51:40
!Correction: S21(Response(S21)) 
!S1P File: Measurement: S21:
# Hz S  dB   R 50
3000000000  -2.653759e+001  1.518310e+002 
3003125000  -2.791702e+001  1.474574e+002 
3006250000  -2.797389e+001  1.447633e+002 
3009375000  -2.835196e+001  1.497309e+002 
3012500000  -2.779060e+001  1.493889e+002 
3015625000  -2.686687e+001  1.422603e+002 
3018750000  -2.771436e+001  1.414471e+002 
3021875000  -2.641720e+001  1.427179e+002 
3025000000  -2.514089e+001  1.397022e+002 
3028125000  -2.416862e+001  1.348259e+002 
3031250000  -2.313762e+001  1.234791e+002 
3034375000  -2.274731e+001  1.105321e+002 
3037500000  -2.313908e+001  9.850979e+001 
3040625000  -2.446589e+001  9.347144e+001 
3043750000  -2.518162e+001  8.914555e+001 
3046875000  -2.530326e+001  8.272992e+001 
3050000000  -2.701804e+001  7.609679e+001 
3053125000  -2.706749e+001  8.249126e+001 
3056250000  -2.648218e+001  8.542159e+001 
3059375000  -2.672579e+001  8.526143e+001 
3062500000  -2.519486e+001  8.130424e+001 
3065625000  -2.501346e+001  7.579826e+001 
3068750000  -2.469899e+001  6.870778e+001 
3071875000  -2.467170e+001  6.567695e+001 
3075000000  -2.465330e+001  6.204811e+001 
3078125000  -2.434150e+001  5.738939e+001 
3081250000  -2.498436e+001  5.322882e+001 
3084375000  -2.422567e+001  4.953527e+001 
3087500000  -2.411616e+001  4.596052e+001 
3090625000  -2.384565e+001  3.611737e+001 
3093750000  -2.426824e+001  2.824636e+001 
3096875000  -2.556237e+001  2.234233e+001 
3100000000  -2.567814e+001  2.072270e+001 
3103125000  -2.604740e+001  2.228110e+001 
3106250000  -2.580706e+001  1.871129e+001 
3109375000  -2.602607e+001  1.508027e+001 
3112500000  -2.617006e+001  1.441097e+001 
3115625000  -2.594250e+001  1.006763e+001 
3118750000  -2.643722e+001  1.132043e+001 
3121875000  -2.575316e+001  3.128731e+000 
3125000000  -2.693043e+001  -3.996933e-001 
3128125000  -2.812868e+001  7.982749e+000 
3131250000  -2.594871e+001  8.290039e+000 
3134375000  -2.465756e+001  -5.346691e+000 
3137500000  -2.526648e+001  -1.915748e+001 
3140625000  -2.692878e+001  -2.070808e+001 
3143750000  -2.791428e+001  -1.679884e+001 
3146875000  -2.751144e+001  -1.490609e+001 
3150000000  -2.649264e+001  -1.266786e+001 
3153125000  -2.646566e+001  -2.029558e+001 
3156250000  -2.747999e+001  -1.469762e+001 
3159375000  -2.587321e+001  -1.189134e+001 
3162500000  -2.386945e+001  -2.455397e+001 
3165625000  -2.484164e+001  -3.568945e+001 
3168750000  -2.519646e+001  -3.455187e+001 
3171875000  -2.424904e+001  -3.907811e+001 
3175000000  -2.484799e+001  -4.690209e+001 
3178125000  -2.469207e+001  -4.496943e+001 
3181250000  -2.350831e+001  -4.911573e+001 
3184375000  -2.271607e+001  -6.120872e+001 
3187500000  -2.384537e+001  -7.629780e+001 
3190625000  -2.659125e+001  -8.378932e+001 
3193750000  -2.721453e+001  -7.405659e+001 
3196875000  -2.677417e+001  -6.877255e+001 
3200000000  -2.587131e+001  -7.071479e+001 
3203125000  -2.502872e+001  -7.648428e+001 
3206250000  -2.530746e+001  -8.243271e+001 
3209375000  -2.484122e+001  -8.778474e+001 
3212500000  -2.498807e+001  -9.454785e+001 
3215625000  -2.511758e+001  -9.866942e+001 
3218750000  -2.589739e+001  -1.047647e+002 
3221875000  -2.684951e+001  -1.096644e+002 
3225000000  -2.647949e+001  -1.106114e+002 
3228125000  -2.675963e+001  -1.150071e+002 
3231250000  -2.753224e+001  -1.176853e+002 
3234375000  -2.738992e+001  -1.165979e+002 
3237500000  -2.741025e+001  -1.185451e+002 
3240625000  -2.707443e+001  -1.200695e+002 
3243750000  -2.666045e+001  -1.269438e+002 
3246875000  -2.717360e+001  -1.333193e+002 
3250000000  -2.765585e+001  -1.351218e+002 
3253125000  -2.782239e+001  -1.366825e+002 
3256250000  -2.770495e+001  -1.424920e+002 
3259375000  -2.794455e+001  -1.506259e+002 
3262500000  -2.925220e+001  -1.533578e+002 
3265625000  -2.989044e+001  -1.495015e+002 
3268750000  -2.989680e+001  -1.473250e+002 
3271875000  -2.965760e+001  -1.458808e+002 
3275000000  -2.859471e+001  -1.510546e+002 
3278125000  -2.904327e+001  -1.572683e+002 
3281250000  -2.934892e+001  -1.553573e+002 
3284375000  -2.888597e+001  -1.615179e+002 
3287500000  -2.905919e+001  -1.641535e+002 
3290625000  -2.948077e+001  -1.682550e+002 
3293750000  -2.917782e+001  -1.738438e+002 
3296875000  -3.018391e+001  -1.736690e+002 
3300000000  -3.011708e+001  -1.730048e+002 
3303125000  -2.888234e+001  -1.767860e+002 
3306250000  -2.867368e+001  1.767612e+002 
3309375000  -2.844534e+001  1.715822e+002 
3312500000  -2.847274e+001  1.613128e+002 
3315625000  -2.954538e+001  1.534869e+002 
3318750000  -3.080444e+001  1.510128e+002 
3321875000  -3.208560e+001  1.505864e+002 
3325000000  -3.263424e+001  1.557821e+002 
3328125000  -3.246149e+001  1.571516e+002 
3331250000  -3.116913e+001  1.653139e+002 
3334375000  -2.861963e+001  1.550724e+002 
3337500000  -2.868969e+001  1.367270e+002 
3340625000  -3.003574e+001  1.260648e+002 
3343750000  -3.200576e+001  1.250356e+002 
3346875000  -3.243946e+001  1.262516e+002 
3350000000  -3.189999e+001  1.252797e+002 
3353125000  -3.196837e+001  1.205381e+002 
3356250000  -3.176543e+001  1.132965e+002 
3359375000  -3.258617e+001  1.050029e+002 
3362500000  -3.387549e+001  9.861585e+001 
3365625000  -3.442875e+001  9.761327e+001 
3368750000  -3.558267e+001  9.576797e+001 
3371875000  -3.589917e+001  9.313828e+001 
3375000000  -3.743748e+001  9.107983e+001 
3378125000  -3.833229e+001  9.001379e+001 
3381250000  -4.002388e+001  9.808691e+001 
3384375000  -3.907468e+001  1.198508e+002 
3387500000  -3.590865e+001  1.052630e+002 
3390625000  -3.769684e+001  8.615417e+001 
3393750000  -3.975561e+001  9.069383e+001 
3396875000  -3.878189e+001  9.336218e+001 
3400000000  -3.877782e+001  8.671033e+001 
3403125000  -3.966533e+001  8.152152e+001 
3406250000  -4.039658e+001  8.533954e+001 
3409375000  -4.107079e+001  8.054921e+001 
3412500000  -4.199625e+001  8.236376e+001 
3415625000  -4.294490e+001  8.886319e+001 
3418750000  -4.307003e+001  9.181276e+001 
3421875000  -4.338792e+001  9.636193e+001 
3425000000  -4.244319e+001  9.980196e+001 
3428125000  -4.148479e+001  1.006489e+002 
3431250000  -4.143943e+001  9.683543e+001 
3434375000  -4.115661e+001  9.199236e+001 
3437500000  -4.162913e+001  9.180159e+001 
3440625000  -4.197684e+001  9.482532e+001 
3443750000  -4.065236e+001  9.639840e+001 
3446875000  -3.981722e+001  9.141946e+001 
3450000000  -3.972368e+001  8.284550e+001 
3453125000  -3.996475e+001  7.307185e+001 
3456250000  -4.108910e+001  6.815794e+001 
3459375000  -4.209320e+001  7.187241e+001 
3462500000  -4.217890e+001  7.136308e+001 
3465625000  -4.249593e+001  6.660677e+001 
3468750000  -4.285294e+001  6.475468e+001 
3471875000  -4.262683e+001  6.591618e+001 
3475000000  -4.259806e+001  6.099445e+001 
3478125000  -4.330746e+001  5.491474e+001 
3481250000  -4.430648e+001  5.542760e+001 
3484375000  -4.582084e+001  5.945468e+001 
3487500000  -4.532253e+001  6.409795e+001 
3490625000  -4.524984e+001  5.886821e+001 
3493750000  -4.601031e+001  5.385205e+001 
3496875000  -4.681045e+001  5.780761e+001 
3500000000  -4.801285e+001  6.260820e+001 
3503125000  -4.763695e+001  7.294221e+001 
3506250000  -4.631498e+001  7.293208e+001 
3509375000  -4.688944e+001  6.989946e+001 
3512500000  -4.779854e+001  6.837860e+001 
3515625000  -4.786525e+001  6.809270e+001 
3518750000  -4.820402e+001  7.377208e+001 
3521875000  -4.815491e+001  7.711014e+001 
3525000000  -4.795038e+001  8.151230e+001 
3528125000  -4.774664e+001  9.234837e+001 
3531250000  -4.572198e+001  9.429416e+001 
3534375000  -4.503570e+001  8.800063e+001 
3537500000  -4.516739e+001  8.336175e+001 
3540625000  -4.590752e+001  8.065221e+001 
3543750000  -4.581215e+001  8.523417e+001 
3546875000  -4.539187e+001  9.880555e+001 
3550000000  -4.293402e+001  1.019464e+002 
3553125000  -4.156981e+001  8.519321e+001 
3556250000  -4.230738e+001  7.702519e+001 
3559375000  -4.202891e+001  8.016468e+001 
3562500000  -4.110675e+001  7.329313e+001 
3565625000  -4.185733e+001  6.763554e+001 
3568750000  -4.218811e+001  7.143204e+001 
3571875000  -4.185015e+001  7.018499e+001 
3575000000  -4.103817e+001  6.456688e+001 
3578125000  -4.143468e+001  6.158123e+001 
3581250000  -4.145302e+001  6.355622e+001 
3584375000  -4.068581e+001  6.079026e+001 
3587500000  -4.016105e+001  5.582984e+001 
3590625000  -4.034277e+001  4.553152e+001 
3593750000  -4.138197e+001  4.595285e+001 
3596875000  -4.126433e+001  5.362561e+001 
3600000000  -3.999696e+001  5.143180e+001 
3603125000  -4.002822e+001  3.643613e+001 
3606250000  -4.075572e+001  3.405166e+001 
3609375000  -4.088666e+001  3.248836e+001 
3612500000  -4.155038e+001  3.147880e+001 
3615625000  -4.162585e+001  2.946896e+001 
3618750000  -4.190524e+001  3.238290e+001 
3621875000  -4.146740e+001  2.968526e+001 
3625000000  -4.167904e+001  3.071717e+001 
3628125000  -4.173306e+001  3.278201e+001 
3631250000  -4.141212e+001  2.721671e+001 
3634375000  -4.238620e+001  2.687705e+001 
3637500000  -4.180391e+001  3.325372e+001 
3640625000  -4.077722e+001  3.341622e+001 
3643750000  -4.048624e+001  2.975709e+001 
3646875000  -4.118682e+001  2.160082e+001 
3650000000  -4.145929e+001  2.148755e+001 
3653125000  -4.130404e+001  2.200273e+001 
3656250000  -4.174442e+001  2.126090e+001 
3659375000  -4.175924e+001  2.445385e+001 
3662500000  -4.102256e+001  2.275231e+001 
3665625000  -4.115902e+001  2.280414e+001 
3668750000  -4.017358e+001  2.466720e+001 
3671875000  -3.920443e+001  1.967823e+001 
3675000000  -3.966458e+001  1.396687e+001 
3678125000  -4.021711e+001  1.553197e+001 
3681250000  -3.974159e+001  1.575390e+001 
3684375000  -3.959759e+001  1.460017e+001 
3687500000  -3.964235e+001  1.410540e+001 
3690625000  -3.951701e+001  9.541379e+000 
3693750000  -4.027603e+001  1.149900e+001 
3696875000  -3.986529e+001  1.612816e+001 
3700000000  -3.898483e+001  1.395411e+001 
3703125000  -3.866412e+001  1.129113e+001 
3706250000  -3.902027e+001  1.294717e+001 
3709375000  -3.859867e+001  1.520253e+001 
3712500000  -3.732783e+001  1.697102e+001 
3715625000  -3.627015e+001  1.026117e+001 
3718750000  -3.565331e+001  6.823574e+000 
3721875000  -3.524295e+001  1.903589e+000 
3725000000  -3.513000e+001  -3.470090e+000 
3728125000  -3.529599e+001  -3.989157e+000 
3731250000  -3.458108e+001  -4.688192e+000 
3734375000  -3.364782e+001  -1.065114e+001 
3737500000  -3.416520e+001  -1.752079e+001 
3740625000  -3.453136e+001  -2.132826e+001 
3743750000  -3.463077e+001  -2.339155e+001 
3746875000  -3.445148e+001  -2.703446e+001 
3750000000  -3.488186e+001  -2.726998e+001 
3753125000  -3.440382e+001  -2.742781e+001 
3756250000  -3.449782e+001  -2.873172e+001 
3759375000  -3.413395e+001  -2.929144e+001 
3762500000  -3.356292e+001  -3.367681e+001 
3765625000  -3.419505e+001  -3.570636e+001 
3768750000  -3.426375e+001  -3.395555e+001 
3771875000  -3.236217e+001  -3.628394e+001 
3775000000  -3.221512e+001  -4.346182e+001 
3778125000  -3.251629e+001  -4.591471e+001 
3781250000  -3.226207e+001  -4.821488e+001 
3784375000  -3.234924e+001  -5.072004e+001 
3787500000  -3.153313e+001  -5.431921e+001 
3790625000  -3.218674e+001  -6.012334e+001 
3793750000  -3.227405e+001  -5.992061e+001 
3796875000  -3.137638e+001  -6.200880e+001 
3800000000  -2.991946e+001  -6.555072e+001 
3803125000  -3.067270e+001  -7.206732e+001 
3806250000  -3.134216e+001  -7.438445e+001 
3809375000  -3.102423e+001  -7.584937e+001 
3812500000  -3.041153e+001  -8.085960e+001 
3815625000  -3.100279e+001  -8.763197e+001 
3818750000  -3.193261e+001  -8.962903e+001 
3821875000  -3.206878e+001  -8.161649e+001 
3825000000  -3.008462e+001  -7.629872e+001 
3828125000  -2.876926e+001  -9.004790e+001 
3831250000  -2.928321e+001  -1.045323e+002 
3834375000  -3.062404e+001  -1.052510e+002 
3837500000  -3.154558e+001  -1.006931e+002 
3840625000  -3.040495e+001  -1.008586e+002 
3843750000  -2.929493e+001  -1.115358e+002 
3846875000  -2.993492e+001  -1.183605e+002 
3850000000  -3.116577e+001  -1.130817e+002 
3853125000  -3.038180e+001  -1.108538e+002 
3856250000  -3.030563e+001  -1.155012e+002 
3859375000  -2.961826e+001  -1.194646e+002 
3862500000  -2.927717e+001  -1.268108e+002 
3865625000  -2.942945e+001  -1.315074e+002 
3868750000  -2.958536e+001  -1.320964e+002 
3871875000  -2.882283e+001  -1.350115e+002 
3875000000  -2.891526e+001  -1.433613e+002 
3878125000  -2.988008e+001  -1.460652e+002 
3881250000  -3.001222e+001  -1.431912e+002 
3884375000  -2.961841e+001  -1.475326e+002 
3887500000  -2.961504e+001  -1.516455e+002 
3890625000  -3.017873e+001  -1.540007e+002 
3893750000  -3.068474e+001  -1.562650e+002 
3896875000  -3.068484e+001  -1.551693e+002 
3900000000  -3.096828e+001  -1.556642e+002 
3903125000  -3.056164e+001  -1.580259e+002 
3906250000  -3.040921e+001  -1.590979e+002 
3909375000  -2.957403e+001  -1.616992e+002 
3912500000  -2.967189e+001  -1.687984e+002 
3915625000  -3.096107e+001  -1.678246e+002 
3918750000  -3.093402e+001  -1.659037e+002 
3921875000  -3.060193e+001  -1.680868e+002 
3925000000  -2.979679e+001  -1.684234e+002 
3928125000  -2.909241e+001  -1.743771e+002 
3931250000  -2.947565e+001  -1.780030e+002 
3934375000  -2.984146e+001  -1.779723e+002 
3937500000  -2.986380e+001  -1.787213e+002 
3940625000  -3.031475e+001  -1.784171e+002 
3943750000  -2.938647e+001  -1.766570e+002 
3946875000  -2.817146e+001  1.775268e+002 
3950000000  -2.866854e+001  1.705929e+002 
3953125000  -2.966886e+001  1.702389e+002 
3956250000  -2.880843e+001  1.733780e+002 
3959375000  -2.741897e+001  1.705818e+002 
3962500000  -2.684334e+001  1.661555e+002 
3965625000  -2.658036e+001  1.577593e+002 
3968750000  -2.744079e+001  1.510654e+002 
3971875000  -2.783055e+001  1.494367e+002 
3975000000  -2.715643e+001  1.477254e+002 
3978125000  -2.697689e+001  1.465222e+002 
3981250000  -2.670959e+001  1.419083e+002 
3984375000  -2.692946e+001  1.355715e+002 
3987500000  -2.739375e+001  1.335496e+002 
3990625000  -2.750699e+001  1.324181e+002 
3993750000  -2.772546e+001  1.293586e+002 
3996875000  -2.758828e+001  1.267799e+002 
4000000000  -2.773160e+001  1.247823e+002 
4003125000  -2.835936e+001  1.269996e+002 
4006250000  -2.696217e+001  1.272380e+002 
4009375000  -2.575456e+001  1.151526e+002 
4012500000  -2.685919e+001  1.076199e+002 
4015625000  -2.801991e+001  1.080226e+002 
4018750000  -2.822222e+001  1.104114e+002 
4021875000  -2.762921e+001  1.090417e+002 
4025000000  -2.719052e+001  1.036774e+002 
4028125000  -2.716267e+001  1.001231e+002 
4031250000  -2.770200e+001  9.699015e+001 
4034375000  -2.792999e+001  9.674906e+001 
4037500000  -2.742007e+001  9.881893e+001 
4040625000  -2.735365e+001  9.565889e+001 
4043750000  -2.769003e+001  9.491905e+001 
4046875000  -2.728195e+001  9.455758e+001 
4050000000  -2.672854e+001  8.899185e+001 
4053125000  -2.722814e+001  8.692831e+001 
4056250000  -2.786269e+001  9.130472e+001 
4059375000  -2.660074e+001  9.300883e+001 
4062500000  -2.521751e+001  8.857466e+001 
4065625000  -2.510493e+001  8.446758e+001 
4068750000  -2.479862e+001  7.946204e+001 
4071875000  -2.419256e+001  7.157214e+001 
4075000000  -2.447434e+001  6.491327e+001 
4078125000  -2.505735e+001  6.412583e+001 
4081250000  -2.456716e+001  6.195598e+001 
4084375000  -2.416050e+001  5.541112e+001 
4087500000  -2.449658e+001  4.929870e+001 
4090625000  -2.510122e+001  4.801191e+001 
4093750000  -2.486155e+001  4.862968e+001 
4096875000  -2.440292e+001  4.285023e+001 
4100000000  -2.517752e+001  3.602231e+001 
4103125000  -2.603429e+001  3.631879e+001 
4106250000  -2.590497e+001  4.147215e+001 
4109375000  -2.500929e+001  4.081339e+001 
4112500000  -2.444935e+001  3.387940e+001 
4115625000  -2.479822e+001  2.979145e+001 
4118750000  -2.486685e+001  2.656525e+001 
4121875000  -2.448526e+001  2.255837e+001 
4125000000  -2.483704e+001  1.707833e+001 
4128125000  -2.586979e+001  1.731721e+001 
4131250000  -2.553055e+001  2.511502e+001 
4134375000  -2.324083e+001  2.093357e+001 
4137500000  -2.299092e+001  2.321280e+000 
4140625000  -2.520658e+001  -5.516064e+000 
4143750000  -2.650448e+001  -5.896287e-001 
4146875000  -2.610543e+001  6.875879e+000 
4150000000  -2.518026e+001  3.767731e+000 
4153125000  -2.501834e+001  -2.747597e+000 
4156250000  -2.590825e+001  -5.317343e+000 
4159375000  -2.619044e+001  -9.287338e-001 
4162500000  -2.507698e+001  3.570921e+000 
4165625000  -2.394591e+001  -3.147733e-001 
4168750000  -2.330908e+001  -7.976542e+000 
4171875000  -2.333327e+001  -1.669913e+001 
4175000000  -2.386199e+001  -2.252770e+001 
4178125000  -2.455196e+001  -2.262531e+001 
4181250000  -2.440260e+001  -2.313092e+001 
4184375000  -2.427512e+001  -2.606664e+001 
4187500000  -2.429734e+001  -2.876256e+001 
4190625000  -2.410015e+001  -3.435900e+001 
4193750000  -2.489748e+001  -3.804696e+001 
4196875000  -2.557117e+001  -3.820795e+001 
4200000000  -2.647444e+001  -3.613510e+001 
4203125000  -2.651347e+001  -2.247493e+001 
4206250000  -2.314048e+001  -2.108221e+001 
4209375000  -2.192645e+001  -4.160638e+001 
4212500000  -2.385023e+001  -5.045278e+001 
4215625000  -2.488807e+001  -4.460079e+001 
4218750000  -2.350581e+001  -3.754803e+001 
4221875000  -2.121033e+001  -4.675525e+001 
4225000000  -2.244623e+001  -5.925295e+001 
4228125000  -2.311678e+001  -5.436765e+001 
4231250000  -2.160672e+001  -5.797527e+001 
4234375000  -2.149514e+001  -6.624105e+001 
4237500000  -2.105910e+001  -6.943176e+001 
4240625000  -2.108364e+001  -7.767780e+001 
4243750000  -2.202021e+001  -8.469327e+001 
4246875000  -2.291577e+001  -8.491159e+001 
4250000000  -2.299516e+001  -8.221119e+001 
4253125000  -2.240706e+001  -8.402352e+001 
4256250000  -2.266220e+001  -8.832899e+001 
4259375000  -2.243364e+001  -9.040237e+001 
4262500000  -2.243972e+001  -9.398721e+001 
4265625000  -2.263319e+001  -9.356936e+001 
4268750000  -2.172709e+001  -9.750145e+001 
4271875000  -2.148662e+001  -1.033411e+002 
4275000000  -2.090990e+001  -1.097684e+002 
4278125000  -2.147465e+001  -1.209713e+002 
4281250000  -2.331565e+001  -1.232012e+002 
4284375000  -2.298602e+001  -1.219918e+002 
4287500000  -2.377280e+001  -1.254843e+002 
4290625000  -2.505192e+001  -1.161690e+002 
4293750000  -2.306822e+001  -1.106677e+002 
4296875000  -2.170702e+001  -1.222089e+002 
4300000000  -2.257399e+001  -1.310900e+002 
4303125000  -2.364001e+001  -1.299835e+002 
4306250000  -2.308463e+001  -1.238363e+002 
4309375000  -2.169115e+001  -1.262545e+002 
4312500000  -2.160677e+001  -1.344836e+002 
4315625000  -2.182346e+001  -1.405239e+002 
4318750000  -2.214579e+001  -1.435852e+002 
4321875000  -2.232220e+001  -1.433023e+002 
4325000000  -2.175602e+001  -1.424578e+002 
4328125000  -2.122038e+001  -1.489080e+002 
4331250000  -2.114709e+001  -1.568047e+002 
4334375000  -2.159851e+001  -1.619748e+002 
4337500000  -2.240825e+001  -1.641268e+002 
4340625000  -2.296284e+001  -1.609268e+002 
4343750000  -2.234953e+001  -1.602523e+002 
4346875000  -2.199711e+001  -1.660390e+002 
4350000000  -2.201463e+001  -1.705620e+002 
4353125000  -2.202500e+001  -1.783142e+002 
4356250000  -2.376254e+001  -1.795817e+002 
4359375000  -2.437409e+001  -1.658876e+002 
4362500000  -2.170640e+001  -1.640458e+002 
4365625000  -2.005921e+001  -1.757928e+002 
4368750000  -2.078171e+001  1.724133e+002 
4371875000  -2.198359e+001  1.732193e+002 
4375000000  -2.168035e+001  1.741209e+002 
4378125000  -2.100519e+001  1.681814e+002 
4381250000  -2.120219e+001  1.625954e+002 
4384375000  -2.099074e+001  1.582582e+002 
4387500000  -2.176147e+001  1.525611e+002 
4390625000  -2.272587e+001  1.531850e+002 
4393750000  -2.208231e+001  1.553223e+002 
4396875000  -2.144326e+001  1.533060e+002 
4400000000  -2.089996e+001  1.465207e+002 
4403125000  -2.149358e+001  1.388361e+002 
4406250000  -2.236359e+001  1.373232e+002 
4409375000  -2.232305e+001  1.350418e+002 
4412500000  -2.333393e+001  1.326321e+002 
4415625000  -2.376756e+001  1.374860e+002 
4418750000  -2.253801e+001  1.419190e+002 
