!Agilent Technologies,E8363B,MY43030201,A.06.04.32
!Agilent E8363B: A.06.04.32
!Date: Tuesday, November 11, 2014 20:57:48
!Correction: S21(Response(S21)) 
!S1P File: Measurement: S21:
# Hz S  dB   R 50
3000000000  -2.650406e+001  1.463342e+002 
3003125000  -2.790811e+001  1.417728e+002 
3006250000  -2.794289e+001  1.393968e+002 
3009375000  -2.830897e+001  1.443283e+002 
3012500000  -2.771651e+001  1.436155e+002 
3015625000  -2.683185e+001  1.367528e+002 
3018750000  -2.764936e+001  1.361519e+002 
3021875000  -2.637720e+001  1.372917e+002 
3025000000  -2.506240e+001  1.340922e+002 
3028125000  -2.408807e+001  1.289874e+002 
3031250000  -2.308368e+001  1.177827e+002 
3034375000  -2.270333e+001  1.045012e+002 
3037500000  -2.307566e+001  9.275598e+001 
3040625000  -2.448009e+001  8.767592e+001 
3043750000  -2.514581e+001  8.348685e+001 
3046875000  -2.530330e+001  7.713074e+001 
3050000000  -2.700945e+001  7.037754e+001 
3053125000  -2.704820e+001  7.691698e+001 
3056250000  -2.643279e+001  8.007995e+001 
3059375000  -2.666890e+001  7.956554e+001 
3062500000  -2.518276e+001  7.566175e+001 
3065625000  -2.494241e+001  6.998732e+001 
3068750000  -2.467926e+001  6.292114e+001 
3071875000  -2.464666e+001  6.018619e+001 
3075000000  -2.456201e+001  5.620926e+001 
3078125000  -2.431126e+001  5.152755e+001 
3081250000  -2.497110e+001  4.720572e+001 
3084375000  -2.420225e+001  4.371523e+001 
3087500000  -2.410104e+001  4.004424e+001 
3090625000  -2.380463e+001  3.029398e+001 
3093750000  -2.431290e+001  2.246563e+001 
3096875000  -2.554122e+001  1.653369e+001 
3100000000  -2.566976e+001  1.516696e+001 
3103125000  -2.604794e+001  1.641937e+001 
3106250000  -2.580973e+001  1.297116e+001 
3109375000  -2.600968e+001  9.400619e+000 
3112500000  -2.614921e+001  8.169210e+000 
3115625000  -2.594062e+001  4.232661e+000 
3118750000  -2.645749e+001  5.532104e+000 
3121875000  -2.575849e+001  -2.689866e+000 
3125000000  -2.697806e+001  -6.022066e+000 
3128125000  -2.817611e+001  2.539180e+000 
3131250000  -2.592317e+001  2.366123e+000 
3134375000  -2.466377e+001  -1.135931e+001 
3137500000  -2.534501e+001  -2.486341e+001 
3140625000  -2.691034e+001  -2.629424e+001 
3143750000  -2.792635e+001  -2.253613e+001 
3146875000  -2.753179e+001  -2.036270e+001 
3150000000  -2.649121e+001  -1.800945e+001 
3153125000  -2.651402e+001  -2.617817e+001 
3156250000  -2.750137e+001  -2.018903e+001 
3159375000  -2.586084e+001  -1.760312e+001 
3162500000  -2.382263e+001  -3.027835e+001 
3165625000  -2.481953e+001  -4.129388e+001 
3168750000  -2.515336e+001  -4.013671e+001 
3171875000  -2.422966e+001  -4.464967e+001 
3175000000  -2.490545e+001  -5.233170e+001 
3178125000  -2.466691e+001  -5.076987e+001 
3181250000  -2.349658e+001  -5.503600e+001 
3184375000  -2.275557e+001  -6.717501e+001 
3187500000  -2.393843e+001  -8.212589e+001 
3190625000  -2.661596e+001  -8.943756e+001 
3193750000  -2.712922e+001  -8.006082e+001 
3196875000  -2.673746e+001  -7.466199e+001 
3200000000  -2.589104e+001  -7.666618e+001 
3203125000  -2.499624e+001  -8.242384e+001 
3206250000  -2.535966e+001  -8.833804e+001 
3209375000  -2.485954e+001  -9.358358e+001 
3212500000  -2.501716e+001  -1.001092e+002 
3215625000  -2.517529e+001  -1.039864e+002 
3218750000  -2.589422e+001  -1.105353e+002 
3221875000  -2.685148e+001  -1.155493e+002 
3225000000  -2.645060e+001  -1.162881e+002 
3228125000  -2.685574e+001  -1.209111e+002 
3231250000  -2.756243e+001  -1.234157e+002 
3234375000  -2.738331e+001  -1.222584e+002 
3237500000  -2.738709e+001  -1.240634e+002 
3240625000  -2.707900e+001  -1.260089e+002 
3243750000  -2.675131e+001  -1.326652e+002 
3246875000  -2.721416e+001  -1.388648e+002 
3250000000  -2.775056e+001  -1.408927e+002 
3253125000  -2.785402e+001  -1.425152e+002 
3256250000  -2.771033e+001  -1.485751e+002 
3259375000  -2.798931e+001  -1.560401e+002 
3262500000  -2.930264e+001  -1.588634e+002 
3265625000  -2.997644e+001  -1.550244e+002 
3268750000  -2.993092e+001  -1.530280e+002 
3271875000  -2.967846e+001  -1.519474e+002 
3275000000  -2.858533e+001  -1.573094e+002 
3278125000  -2.909840e+001  -1.629418e+002 
3281250000  -2.932855e+001  -1.610060e+002 
3284375000  -2.897084e+001  -1.666777e+002 
3287500000  -2.909915e+001  -1.695296e+002 
3290625000  -2.941568e+001  -1.744206e+002 
3293750000  -2.922727e+001  -1.798248e+002 
3296875000  -3.023466e+001  -1.796159e+002 
3300000000  -3.009658e+001  -1.783382e+002 
3303125000  -2.890774e+001  1.775934e+002 
3306250000  -2.869623e+001  1.709993e+002 
3309375000  -2.842834e+001  1.659895e+002 
3312500000  -2.853354e+001  1.551730e+002 
3315625000  -2.958315e+001  1.471594e+002 
3318750000  -3.088982e+001  1.451334e+002 
3321875000  -3.212506e+001  1.455852e+002 
3325000000  -3.268056e+001  1.500278e+002 
3328125000  -3.241657e+001  1.525144e+002 
3331250000  -3.131065e+001  1.595408e+002 
3334375000  -2.863828e+001  1.492337e+002 
3337500000  -2.868072e+001  1.305747e+002 
3340625000  -3.014733e+001  1.197987e+002 
3343750000  -3.217585e+001  1.190036e+002 
3346875000  -3.258143e+001  1.202860e+002 
3350000000  -3.188628e+001  1.187878e+002 
3353125000  -3.205472e+001  1.152214e+002 
3356250000  -3.178459e+001  1.071893e+002 
3359375000  -3.262823e+001  9.849419e+001 
3362500000  -3.404664e+001  9.272676e+001 
3365625000  -3.456058e+001  9.161288e+001 
3368750000  -3.541203e+001  9.046370e+001 
3371875000  -3.592626e+001  8.676596e+001 
3375000000  -3.749221e+001  8.462386e+001 
3378125000  -3.867252e+001  8.422130e+001 
3381250000  -4.014914e+001  9.247083e+001 
3384375000  -3.924645e+001  1.140205e+002 
3387500000  -3.607172e+001  1.002570e+002 
3390625000  -3.810313e+001  8.113564e+001 
3393750000  -3.980825e+001  8.550645e+001 
3396875000  -3.901489e+001  8.860939e+001 
3400000000  -3.870126e+001  8.174172e+001 
3403125000  -3.984616e+001  7.735766e+001 
3406250000  -4.056131e+001  8.019070e+001 
3409375000  -4.128192e+001  7.624149e+001 
3412500000  -4.220185e+001  7.691879e+001 
3415625000  -4.297135e+001  8.241095e+001 
3418750000  -4.336497e+001  8.569443e+001 
3421875000  -4.334949e+001  9.286343e+001 
3425000000  -4.256511e+001  9.562149e+001 
3428125000  -4.157622e+001  9.571931e+001 
3431250000  -4.167645e+001  9.142136e+001 
3434375000  -4.131126e+001  8.865012e+001 
3437500000  -4.184168e+001  8.790607e+001 
3440625000  -4.197205e+001  8.945127e+001 
3443750000  -4.070224e+001  9.309124e+001 
3446875000  -3.980576e+001  8.704624e+001 
3450000000  -3.986762e+001  7.745804e+001 
3453125000  -3.997061e+001  6.755114e+001 
3456250000  -4.135200e+001  6.294160e+001 
3459375000  -4.203697e+001  6.690121e+001 
3462500000  -4.207231e+001  6.698338e+001 
3465625000  -4.224720e+001  6.326950e+001 
3468750000  -4.293124e+001  6.195038e+001 
3471875000  -4.272881e+001  6.042920e+001 
3475000000  -4.249055e+001  5.718371e+001 
3478125000  -4.347701e+001  5.064450e+001 
3481250000  -4.463587e+001  5.050766e+001 
3484375000  -4.621972e+001  5.439043e+001 
3487500000  -4.575061e+001  5.763859e+001 
3490625000  -4.499395e+001  5.534266e+001 
3493750000  -4.562914e+001  5.293466e+001 
3496875000  -4.671948e+001  5.537643e+001 
3500000000  -4.824904e+001  6.116335e+001 
3503125000  -4.795974e+001  6.661533e+001 
3506250000  -4.634819e+001  6.670276e+001 
3509375000  -4.656763e+001  6.562629e+001 
3512500000  -4.764905e+001  6.514326e+001 
3515625000  -4.778901e+001  6.763954e+001 
3518750000  -4.848691e+001  7.093258e+001 
3521875000  -4.786635e+001  7.535854e+001 
3525000000  -4.801667e+001  7.695674e+001 
3528125000  -4.717366e+001  8.816877e+001 
3531250000  -4.564809e+001  9.064464e+001 
3534375000  -4.493932e+001  8.057027e+001 
3537500000  -4.484132e+001  7.436482e+001 
3540625000  -4.521906e+001  7.509707e+001 
3543750000  -4.589881e+001  7.909659e+001 
3546875000  -4.536985e+001  9.239514e+001 
3550000000  -4.265521e+001  9.214700e+001 
3553125000  -4.135788e+001  7.883270e+001 
3556250000  -4.202951e+001  7.132174e+001 
3559375000  -4.195631e+001  7.462398e+001 
3562500000  -4.057186e+001  6.571894e+001 
3565625000  -4.166269e+001  6.122114e+001 
3568750000  -4.137875e+001  6.306465e+001 
3571875000  -4.149187e+001  6.349668e+001 
3575000000  -4.080343e+001  5.774258e+001 
3578125000  -4.137758e+001  5.398940e+001 
3581250000  -4.130190e+001  5.539239e+001 
3584375000  -4.043136e+001  5.520134e+001 
3587500000  -3.965797e+001  4.739809e+001 
3590625000  -4.015936e+001  3.763821e+001 
3593750000  -4.109480e+001  3.758163e+001 
3596875000  -4.123016e+001  4.611004e+001 
3600000000  -3.934415e+001  4.160648e+001 
3603125000  -3.971249e+001  3.119483e+001 
3606250000  -4.050452e+001  2.693190e+001 
3609375000  -4.081479e+001  2.477388e+001 
3612500000  -4.113914e+001  2.546022e+001 
3615625000  -4.140656e+001  2.304231e+001 
3618750000  -4.186505e+001  2.437946e+001 
3621875000  -4.144160e+001  2.166738e+001 
3625000000  -4.175556e+001  2.195135e+001 
3628125000  -4.146831e+001  2.266861e+001 
3631250000  -4.140389e+001  1.883966e+001 
3634375000  -4.228589e+001  1.996235e+001 
3637500000  -4.204217e+001  2.632064e+001 
3640625000  -4.061964e+001  2.633661e+001 
3643750000  -4.051144e+001  2.058560e+001 
3646875000  -4.101871e+001  1.449349e+001 
3650000000  -4.176449e+001  1.484664e+001 
3653125000  -4.122919e+001  1.490309e+001 
3656250000  -4.154108e+001  1.319064e+001 
3659375000  -4.214189e+001  1.763036e+001 
3662500000  -4.116836e+001  1.580549e+001 
3665625000  -4.123567e+001  1.410565e+001 
3668750000  -4.029599e+001  1.767990e+001 
3671875000  -3.918166e+001  1.372678e+001 
3675000000  -3.970772e+001  7.992882e+000 
3678125000  -4.018302e+001  8.177576e+000 
3681250000  -3.984704e+001  9.393312e+000 
3684375000  -3.958678e+001  7.681718e+000 
3687500000  -3.960199e+001  5.923542e+000 
3690625000  -3.986403e+001  2.844539e+000 
3693750000  -4.033312e+001  5.956919e+000 
3696875000  -4.008667e+001  9.378054e+000 
3700000000  -3.886807e+001  5.860272e+000 
3703125000  -3.884146e+001  1.847177e+000 
3706250000  -3.940994e+001  5.357878e+000 
3709375000  -3.856766e+001  8.512499e+000 
3712500000  -3.753823e+001  8.723148e+000 
3715625000  -3.630035e+001  3.020117e+000 
3718750000  -3.578252e+001  1.067378e-001 
3721875000  -3.547277e+001  -5.528268e+000 
3725000000  -3.536161e+001  -9.642154e+000 
3728125000  -3.539158e+001  -1.135777e+001 
3731250000  -3.473036e+001  -1.165371e+001 
3734375000  -3.384675e+001  -1.782677e+001 
3737500000  -3.433913e+001  -2.440890e+001 
3740625000  -3.484549e+001  -2.774421e+001 
3743750000  -3.467331e+001  -2.962864e+001 
3746875000  -3.469025e+001  -3.369313e+001 
3750000000  -3.500229e+001  -3.471635e+001 
3753125000  -3.466969e+001  -3.391010e+001 
3756250000  -3.460672e+001  -3.493287e+001 
3759375000  -3.436012e+001  -3.555466e+001 
3762500000  -3.376603e+001  -3.968592e+001 
3765625000  -3.429320e+001  -4.203985e+001 
3768750000  -3.430747e+001  -3.910433e+001 
3771875000  -3.250780e+001  -4.232284e+001 
3775000000  -3.231082e+001  -5.022767e+001 
3778125000  -3.263610e+001  -5.184270e+001 
3781250000  -3.241678e+001  -5.501226e+001 
3784375000  -3.231858e+001  -5.672054e+001 
3787500000  -3.173112e+001  -5.998657e+001 
3790625000  -3.235409e+001  -6.548127e+001 
3793750000  -3.241384e+001  -6.662968e+001 
3796875000  -3.155241e+001  -6.819942e+001 
3800000000  -2.992280e+001  -7.148340e+001 
3803125000  -3.077154e+001  -7.816058e+001 
3806250000  -3.141799e+001  -8.038931e+001 
3809375000  -3.104193e+001  -8.177834e+001 
3812500000  -3.051362e+001  -8.677794e+001 
3815625000  -3.108645e+001  -9.458475e+001 
3818750000  -3.217916e+001  -9.580164e+001 
3821875000  -3.211440e+001  -8.735040e+001 
3825000000  -3.014326e+001  -8.260001e+001 
3828125000  -2.880489e+001  -9.739462e+001 
3831250000  -2.931855e+001  -1.110180e+002 
3834375000  -3.076185e+001  -1.120393e+002 
3837500000  -3.165154e+001  -1.072938e+002 
3840625000  -3.049648e+001  -1.075890e+002 
3843750000  -2.935878e+001  -1.180972e+002 
3846875000  -3.004407e+001  -1.245922e+002 
3850000000  -3.135531e+001  -1.194305e+002 
3853125000  -3.058035e+001  -1.160252e+002 
3856250000  -3.054179e+001  -1.214210e+002 
3859375000  -2.986231e+001  -1.260395e+002 
3862500000  -2.932062e+001  -1.330018e+002 
3865625000  -2.958519e+001  -1.382847e+002 
3868750000  -2.957108e+001  -1.378472e+002 
3871875000  -2.888906e+001  -1.414216e+002 
3875000000  -2.904995e+001  -1.498159e+002 
3878125000  -3.003105e+001  -1.519383e+002 
3881250000  -3.023363e+001  -1.492306e+002 
3884375000  -2.961224e+001  -1.536818e+002 
3887500000  -2.978513e+001  -1.577958e+002 
3890625000  -3.018085e+001  -1.602068e+002 
3893750000  -3.073421e+001  -1.620517e+002 
3896875000  -3.088160e+001  -1.613748e+002 
3900000000  -3.103755e+001  -1.614450e+002 
3903125000  -3.065722e+001  -1.650269e+002 
3906250000  -3.044499e+001  -1.650502e+002 
3909375000  -2.962329e+001  -1.675297e+002 
3912500000  -2.982009e+001  -1.740757e+002 
3915625000  -3.095888e+001  -1.739435e+002 
3918750000  -3.105851e+001  -1.728507e+002 
3921875000  -3.054860e+001  -1.739066e+002 
3925000000  -2.977095e+001  -1.746213e+002 
3928125000  -2.910047e+001  1.794368e+002 
3931250000  -2.965508e+001  1.757716e+002 
3934375000  -2.980461e+001  1.755820e+002 
3937500000  -2.994925e+001  1.750099e+002 
3940625000  -3.041527e+001  1.760783e+002 
3943750000  -2.947734e+001  1.770329e+002 
3946875000  -2.821490e+001  1.710225e+002 
3950000000  -2.871483e+001  1.635172e+002 
3953125000  -2.972806e+001  1.639357e+002 
3956250000  -2.883247e+001  1.673372e+002 
3959375000  -2.743142e+001  1.637913e+002 
3962500000  -2.702226e+001  1.599576e+002 
3965625000  -2.663375e+001  1.512237e+002 
3968750000  -2.755072e+001  1.445283e+002 
3971875000  -2.791069e+001  1.433000e+002 
3975000000  -2.724039e+001  1.412003e+002 
3978125000  -2.709105e+001  1.396043e+002 
3981250000  -2.688789e+001  1.352349e+002 
3984375000  -2.718353e+001  1.288899e+002 
3987500000  -2.768009e+001  1.270729e+002 
3990625000  -2.758286e+001  1.264961e+002 
3993750000  -2.785702e+001  1.231702e+002 
3996875000  -2.775233e+001  1.208091e+002 
4000000000  -2.792924e+001  1.184448e+002 
4003125000  -2.852252e+001  1.210770e+002 
4006250000  -2.704419e+001  1.213243e+002 
4009375000  -2.581394e+001  1.090490e+002 
4012500000  -2.702117e+001  1.016877e+002 
4015625000  -2.829147e+001  1.021350e+002 
4018750000  -2.830211e+001  1.048025e+002 
4021875000  -2.763065e+001  1.033474e+002 
4025000000  -2.731238e+001  9.802335e+001 
4028125000  -2.720650e+001  9.466929e+001 
4031250000  -2.766628e+001  9.133901e+001 
4034375000  -2.800657e+001  9.112923e+001 
4037500000  -2.752812e+001  9.320715e+001 
4040625000  -2.741316e+001  8.934747e+001 
4043750000  -2.766918e+001  8.914278e+001 
4046875000  -2.724395e+001  8.844193e+001 
4050000000  -2.678369e+001  8.333042e+001 
4053125000  -2.721150e+001  8.146950e+001 
4056250000  -2.784227e+001  8.521992e+001 
4059375000  -2.653245e+001  8.728769e+001 
4062500000  -2.518579e+001  8.238171e+001 
4065625000  -2.511364e+001  7.802822e+001 
4068750000  -2.477511e+001  7.309235e+001 
4071875000  -2.409770e+001  6.530654e+001 
4075000000  -2.453722e+001  5.916346e+001 
4078125000  -2.509700e+001  5.792262e+001 
4081250000  -2.453240e+001  5.558524e+001 
4084375000  -2.415796e+001  4.894297e+001 
4087500000  -2.451101e+001  4.281972e+001 
4090625000  -2.515418e+001  4.165430e+001 
4093750000  -2.495079e+001  4.237294e+001 
4096875000  -2.453491e+001  3.641999e+001 
4100000000  -2.520114e+001  2.915878e+001 
4103125000  -2.614983e+001  3.022805e+001 
4106250000  -2.602098e+001  3.496352e+001 
4109375000  -2.508892e+001  3.487375e+001 
4112500000  -2.452895e+001  2.783713e+001 
4115625000  -2.481715e+001  2.360237e+001 
4118750000  -2.490070e+001  2.095917e+001 
4121875000  -2.453367e+001  1.616063e+001 
4125000000  -2.494685e+001  1.107116e+001 
4128125000  -2.595110e+001  1.110391e+001 
4131250000  -2.560453e+001  1.974689e+001 
4134375000  -2.326040e+001  1.475976e+001 
4137500000  -2.316602e+001  -4.075332e+000 
4140625000  -2.527982e+001  -1.106559e+001 
4143750000  -2.661608e+001  -5.749609e+000 
4146875000  -2.613978e+001  1.695238e+000 
4150000000  -2.519367e+001  -1.968806e+000 
4153125000  -2.506249e+001  -8.144533e+000 
4156250000  -2.598897e+001  -1.093769e+001 
4159375000  -2.616500e+001  -6.648861e+000 
4162500000  -2.501791e+001  -2.534235e+000 
4165625000  -2.392030e+001  -6.229419e+000 
4168750000  -2.327644e+001  -1.354218e+001 
4171875000  -2.324839e+001  -2.241619e+001 
4175000000  -2.385689e+001  -2.863307e+001 
4178125000  -2.450514e+001  -2.832651e+001 
4181250000  -2.430427e+001  -2.904039e+001 
4184375000  -2.415570e+001  -3.212995e+001 
4187500000  -2.422694e+001  -3.504934e+001 
4190625000  -2.404447e+001  -4.058175e+001 
4193750000  -2.488204e+001  -4.438155e+001 
4196875000  -2.562594e+001  -4.477988e+001 
4200000000  -2.648521e+001  -4.201079e+001 
4203125000  -2.642491e+001  -2.861908e+001 
4206250000  -2.305645e+001  -2.756997e+001 
4209375000  -2.185958e+001  -4.818158e+001 
4212500000  -2.388368e+001  -5.668201e+001 
4215625000  -2.485438e+001  -5.044122e+001 
4218750000  -2.346621e+001  -4.369042e+001 
4221875000  -2.119638e+001  -5.277292e+001 
4225000000  -2.245597e+001  -6.550340e+001 
4228125000  -2.308749e+001  -6.040621e+001 
4231250000  -2.156927e+001  -6.437266e+001 
4234375000  -2.146632e+001  -7.249216e+001 
4237500000  -2.102879e+001  -7.595438e+001 
4240625000  -2.106974e+001  -8.457841e+001 
4243750000  -2.203105e+001  -9.139939e+001 
4246875000  -2.295723e+001  -9.126812e+001 
4250000000  -2.295911e+001  -8.833097e+001 
4253125000  -2.240513e+001  -9.022762e+001 
4256250000  -2.266862e+001  -9.431610e+001 
4259375000  -2.244148e+001  -9.616606e+001 
4262500000  -2.245278e+001  -9.997189e+001 
4265625000  -2.258547e+001  -9.963703e+001 
4268750000  -2.170430e+001  -1.036419e+002 
4271875000  -2.142703e+001  -1.093278e+002 
4275000000  -2.080631e+001  -1.158940e+002 
4278125000  -2.148647e+001  -1.270417e+002 
4281250000  -2.322732e+001  -1.289011e+002 
4284375000  -2.295474e+001  -1.282794e+002 
4287500000  -2.375061e+001  -1.320044e+002 
4290625000  -2.497287e+001  -1.217752e+002 
4293750000  -2.296001e+001  -1.168199e+002 
4296875000  -2.165780e+001  -1.283219e+002 
4300000000  -2.245680e+001  -1.373528e+002 
4303125000  -2.365207e+001  -1.359159e+002 
4306250000  -2.294884e+001  -1.299879e+002 
4309375000  -2.154142e+001  -1.321906e+002 
4312500000  -2.145093e+001  -1.407118e+002 
4315625000  -2.164592e+001  -1.470961e+002 
4318750000  -2.200922e+001  -1.506003e+002 
4321875000  -2.221457e+001  -1.496254e+002 
4325000000  -2.158847e+001  -1.494025e+002 
4328125000  -2.106532e+001  -1.557257e+002 
4331250000  -2.101090e+001  -1.639532e+002 
4334375000  -2.147584e+001  -1.690207e+002 
4337500000  -2.233421e+001  -1.711090e+002 
4340625000  -2.289630e+001  -1.674801e+002 
4343750000  -2.227587e+001  -1.672917e+002 
4346875000  -2.187963e+001  -1.728492e+002 
4350000000  -2.192443e+001  -1.777080e+002 
4353125000  -2.195079e+001  1.744132e+002 
4356250000  -2.384038e+001  1.741800e+002 
4359375000  -2.427215e+001  -1.721471e+002 
4362500000  -2.152845e+001  -1.710153e+002 
4365625000  -1.997782e+001  1.769000e+002 
4368750000  -2.074619e+001  1.655662e+002 
4371875000  -2.194137e+001  1.660027e+002 
4375000000  -2.155634e+001  1.673069e+002 
4378125000  -2.091219e+001  1.611723e+002 
4381250000  -2.111912e+001  1.558616e+002 
4384375000  -2.095241e+001  1.512987e+002 
4387500000  -2.167775e+001  1.456953e+002 
4390625000  -2.271220e+001  1.467135e+002 
4393750000  -2.199870e+001  1.487830e+002 
4396875000  -2.133442e+001  1.464958e+002 
4400000000  -2.079640e+001  1.397177e+002 
4403125000  -2.145002e+001  1.319240e+002 
4406250000  -2.225818e+001  1.306956e+002 
4409375000  -2.222779e+001  1.284877e+002 
4412500000  -2.332442e+001  1.258569e+002 
4415625000  -2.364071e+001  1.309145e+002 
4418750000  -2.238926e+001  1.352370e+002 
