!Agilent Technologies,E8363B,MY43030201,A.06.04.32
!Agilent E8363B: A.06.04.32
!Date: Tuesday, November 11, 2014 20:46:14
!Correction: S21(Response(S21)) 
!S1P File: Measurement: S21:
# Hz S  dB   R 50
3000000000  -2.652105e+001  1.576915e+002 
3003125000  -2.788700e+001  1.535074e+002 
3006250000  -2.795236e+001  1.506317e+002 
3009375000  -2.828884e+001  1.551775e+002 
3012500000  -2.781571e+001  1.553564e+002 
3015625000  -2.684660e+001  1.482176e+002 
3018750000  -2.768306e+001  1.475468e+002 
3021875000  -2.646743e+001  1.486845e+002 
3025000000  -2.515194e+001  1.458001e+002 
3028125000  -2.420450e+001  1.407243e+002 
3031250000  -2.314789e+001  1.297525e+002 
3034375000  -2.276046e+001  1.169023e+002 
3037500000  -2.307991e+001  1.048439e+002 
3040625000  -2.439706e+001  9.968616e+001 
3043750000  -2.512951e+001  9.545282e+001 
3046875000  -2.521656e+001  8.887797e+001 
3050000000  -2.698432e+001  8.213007e+001 
3053125000  -2.715781e+001  8.824969e+001 
3056250000  -2.644407e+001  9.162579e+001 
3059375000  -2.670870e+001  9.099155e+001 
3062500000  -2.523495e+001  8.719342e+001 
3065625000  -2.501349e+001  8.186726e+001 
3068750000  -2.473674e+001  7.476204e+001 
3071875000  -2.468838e+001  7.160194e+001 
3075000000  -2.468171e+001  6.787577e+001 
3078125000  -2.436670e+001  6.351791e+001 
3081250000  -2.499092e+001  5.936108e+001 
3084375000  -2.423851e+001  5.577900e+001 
3087500000  -2.412833e+001  5.215371e+001 
3090625000  -2.385015e+001  4.248872e+001 
3093750000  -2.422593e+001  3.435854e+001 
3096875000  -2.557132e+001  2.806756e+001 
3100000000  -2.568361e+001  2.688881e+001 
3103125000  -2.606396e+001  2.847264e+001 
3106250000  -2.579354e+001  2.476396e+001 
3109375000  -2.602118e+001  2.122762e+001 
3112500000  -2.617990e+001  2.050474e+001 
3115625000  -2.591715e+001  1.620969e+001 
3118750000  -2.643836e+001  1.718615e+001 
3121875000  -2.578713e+001  9.734216e+000 
3125000000  -2.688184e+001  5.785832e+000 
3128125000  -2.814446e+001  1.353446e+001 
3131250000  -2.599882e+001  1.433705e+001 
3134375000  -2.458752e+001  1.114691e+000 
3137500000  -2.527151e+001  -1.314472e+001 
3140625000  -2.688793e+001  -1.492436e+001 
3143750000  -2.793313e+001  -1.057148e+001 
3146875000  -2.753431e+001  -8.454356e+000 
3150000000  -2.653026e+001  -6.203578e+000 
3153125000  -2.645920e+001  -1.390821e+001 
3156250000  -2.747403e+001  -8.954390e+000 
3159375000  -2.597860e+001  -6.086740e+000 
3162500000  -2.387926e+001  -1.839946e+001 
3165625000  -2.476266e+001  -2.937396e+001 
3168750000  -2.525380e+001  -2.865828e+001 
3171875000  -2.428657e+001  -3.285880e+001 
3175000000  -2.488395e+001  -4.051038e+001 
3178125000  -2.472604e+001  -3.886351e+001 
3181250000  -2.351277e+001  -4.256738e+001 
3184375000  -2.265744e+001  -5.497704e+001 
3187500000  -2.377982e+001  -7.020425e+001 
3190625000  -2.661356e+001  -7.794756e+001 
3193750000  -2.723242e+001  -6.840479e+001 
3196875000  -2.675583e+001  -6.280482e+001 
3200000000  -2.593567e+001  -6.463928e+001 
3203125000  -2.505030e+001  -7.019067e+001 
3206250000  -2.531869e+001  -7.642574e+001 
3209375000  -2.483443e+001  -8.145658e+001 
3212500000  -2.493017e+001  -8.797025e+001 
3215625000  -2.512553e+001  -9.253483e+001 
3218750000  -2.582734e+001  -9.867670e+001 
3221875000  -2.684331e+001  -1.036214e+002 
3225000000  -2.646888e+001  -1.043132e+002 
3228125000  -2.675650e+001  -1.087993e+002 
3231250000  -2.749331e+001  -1.114593e+002 
3234375000  -2.744623e+001  -1.107306e+002 
3237500000  -2.741417e+001  -1.125597e+002 
3240625000  -2.708779e+001  -1.139224e+002 
3243750000  -2.671382e+001  -1.206485e+002 
3246875000  -2.721382e+001  -1.271978e+002 
3250000000  -2.767890e+001  -1.288870e+002 
3253125000  -2.776766e+001  -1.303990e+002 
3256250000  -2.770081e+001  -1.368602e+002 
3259375000  -2.797157e+001  -1.443865e+002 
3262500000  -2.921052e+001  -1.470226e+002 
3265625000  -2.991135e+001  -1.440153e+002 
3268750000  -2.990620e+001  -1.415103e+002 
3271875000  -2.972298e+001  -1.401246e+002 
3275000000  -2.861239e+001  -1.447346e+002 
3278125000  -2.902783e+001  -1.513483e+002 
3281250000  -2.935823e+001  -1.495852e+002 
3284375000  -2.892041e+001  -1.551527e+002 
3287500000  -2.908504e+001  -1.580824e+002 
3290625000  -2.951230e+001  -1.624973e+002 
3293750000  -2.913783e+001  -1.676816e+002 
3296875000  -3.022923e+001  -1.680723e+002 
3300000000  -3.012825e+001  -1.668025e+002 
3303125000  -2.898580e+001  -1.709315e+002 
3306250000  -2.872526e+001  -1.772623e+002 
3309375000  -2.852380e+001  1.777031e+002 
3312500000  -2.851433e+001  1.676229e+002 
3315625000  -2.945616e+001  1.592973e+002 
3318750000  -3.081952e+001  1.569026e+002 
3321875000  -3.208330e+001  1.571043e+002 
3325000000  -3.267769e+001  1.615815e+002 
3328125000  -3.250292e+001  1.632973e+002 
3331250000  -3.130353e+001  1.707901e+002 
3334375000  -2.876864e+001  1.613350e+002 
3337500000  -2.875590e+001  1.433922e+002 
3340625000  -3.007319e+001  1.320339e+002 
3343750000  -3.197417e+001  1.309884e+002 
3346875000  -3.262385e+001  1.321273e+002 
3350000000  -3.198196e+001  1.311180e+002 
3353125000  -3.206911e+001  1.275813e+002 
3356250000  -3.183871e+001  1.192893e+002 
3359375000  -3.262198e+001  1.106427e+002 
3362500000  -3.389132e+001  1.055024e+002 
3365625000  -3.450096e+001  1.038030e+002 
3368750000  -3.561380e+001  1.016819e+002 
3371875000  -3.584732e+001  9.881543e+001 
3375000000  -3.749166e+001  9.727277e+001 
3378125000  -3.845342e+001  9.606644e+001 
3381250000  -4.017331e+001  1.028603e+002 
3384375000  -3.897327e+001  1.261837e+002 
3387500000  -3.618227e+001  1.118451e+002 
3390625000  -3.782212e+001  9.227403e+001 
3393750000  -3.971144e+001  9.525761e+001 
3396875000  -3.886852e+001  9.902930e+001 
3400000000  -3.878299e+001  9.216913e+001 
3403125000  -3.983733e+001  8.808326e+001 
3406250000  -4.055939e+001  9.020766e+001 
3409375000  -4.114159e+001  8.660569e+001 
3412500000  -4.200681e+001  8.787872e+001 
3415625000  -4.305973e+001  9.261893e+001 
3418750000  -4.343027e+001  9.580022e+001 
3421875000  -4.363650e+001  1.031626e+002 
3425000000  -4.277830e+001  1.056805e+002 
3428125000  -4.203656e+001  1.061175e+002 
3431250000  -4.203370e+001  1.016039e+002 
3434375000  -4.155157e+001  9.799918e+001 
3437500000  -4.195645e+001  9.645789e+001 
3440625000  -4.262098e+001  1.012692e+002 
3443750000  -4.129426e+001  1.026140e+002 
3446875000  -4.025728e+001  9.811230e+001 
3450000000  -4.015073e+001  8.876476e+001 
3453125000  -4.024862e+001  8.067058e+001 
3456250000  -4.153902e+001  7.502772e+001 
3459375000  -4.253906e+001  7.923621e+001 
3462500000  -4.276690e+001  7.860209e+001 
3465625000  -4.273759e+001  7.476502e+001 
3468750000  -4.326707e+001  7.047664e+001 
3471875000  -4.348789e+001  7.260850e+001 
3475000000  -4.298819e+001  6.911105e+001 
3478125000  -4.394142e+001  6.307281e+001 
3481250000  -4.495475e+001  6.208889e+001 
3484375000  -4.643399e+001  6.728324e+001 
3487500000  -4.618227e+001  7.004562e+001 
3490625000  -4.548651e+001  7.201938e+001 
3493750000  -4.623009e+001  6.597335e+001 
3496875000  -4.722916e+001  6.805257e+001 
3500000000  -4.858482e+001  7.276231e+001 
3503125000  -4.830811e+001  7.741207e+001 
3506250000  -4.661193e+001  7.948845e+001 
3509375000  -4.714727e+001  7.771980e+001 
3512500000  -4.706948e+001  7.907790e+001 
3515625000  -4.796206e+001  8.102649e+001 
3518750000  -4.816432e+001  8.601143e+001 
3521875000  -4.800120e+001  8.742362e+001 
3525000000  -4.798862e+001  9.131461e+001 
3528125000  -4.775539e+001  1.051831e+002 
3531250000  -4.597904e+001  9.962690e+001 
3534375000  -4.513231e+001  9.344566e+001 
3537500000  -4.511682e+001  9.248352e+001 
3540625000  -4.528317e+001  9.211092e+001 
3543750000  -4.615226e+001  9.494745e+001 
3546875000  -4.549404e+001  1.062389e+002 
3550000000  -4.281959e+001  1.070718e+002 
3553125000  -4.176045e+001  9.228333e+001 
3556250000  -4.251758e+001  8.703201e+001 
3559375000  -4.232162e+001  8.679340e+001 
3562500000  -4.100694e+001  8.067031e+001 
3565625000  -4.178547e+001  7.351839e+001 
3568750000  -4.210480e+001  7.775907e+001 
3571875000  -4.198909e+001  7.915180e+001 
3575000000  -4.106674e+001  7.340011e+001 
3578125000  -4.141736e+001  7.043111e+001 
3581250000  -4.196458e+001  6.767358e+001 
3584375000  -4.084564e+001  6.867327e+001 
3587500000  -3.985823e+001  6.349651e+001 
3590625000  -4.033954e+001  5.455393e+001 
3593750000  -4.124765e+001  5.251830e+001 
3596875000  -4.143703e+001  6.033019e+001 
3600000000  -3.971083e+001  5.727813e+001 
3603125000  -3.972892e+001  4.607907e+001 
3606250000  -4.073616e+001  4.261233e+001 
3609375000  -4.102579e+001  4.178048e+001 
3612500000  -4.138631e+001  3.927726e+001 
3615625000  -4.124902e+001  3.670018e+001 
3618750000  -4.182412e+001  3.959233e+001 
3621875000  -4.147041e+001  3.730962e+001 
3625000000  -4.178872e+001  3.857996e+001 
3628125000  -4.196804e+001  3.733629e+001 
3631250000  -4.148193e+001  3.388727e+001 
3634375000  -4.244323e+001  3.413385e+001 
3637500000  -4.206802e+001  3.981506e+001 
3640625000  -4.095498e+001  4.048401e+001 
3643750000  -4.071614e+001  3.469939e+001 
3646875000  -4.122613e+001  2.932178e+001 
3650000000  -4.150461e+001  2.791189e+001 
3653125000  -4.158051e+001  2.901791e+001 
3656250000  -4.165965e+001  2.822119e+001 
3659375000  -4.240944e+001  3.165629e+001 
3662500000  -4.125254e+001  2.908491e+001 
3665625000  -4.145251e+001  3.107932e+001 
3668750000  -4.031059e+001  3.292023e+001 
3671875000  -3.940077e+001  2.784528e+001 
3675000000  -3.998542e+001  2.181147e+001 
3678125000  -4.040303e+001  2.388600e+001 
3681250000  -3.985415e+001  2.548654e+001 
3684375000  -3.982912e+001  2.339467e+001 
3687500000  -3.975420e+001  2.044433e+001 
3690625000  -3.985931e+001  1.812551e+001 
3693750000  -4.049798e+001  2.179581e+001 
3696875000  -4.013396e+001  2.482981e+001 
3700000000  -3.902845e+001  2.307589e+001 
3703125000  -3.888552e+001  1.907258e+001 
3706250000  -3.946027e+001  2.171650e+001 
3709375000  -3.869545e+001  2.349726e+001 
3712500000  -3.741679e+001  2.343115e+001 
3715625000  -3.649179e+001  1.874778e+001 
3718750000  -3.573191e+001  1.580312e+001 
3721875000  -3.530546e+001  9.680874e+000 
3725000000  -3.532191e+001  4.123959e+000 
3728125000  -3.547051e+001  4.447960e+000 
3731250000  -3.477856e+001  3.348624e+000 
3734375000  -3.378213e+001  -2.340881e+000 
3737500000  -3.415804e+001  -9.435772e+000 
3740625000  -3.479734e+001  -1.367256e+001 
3743750000  -3.472603e+001  -1.491620e+001 
3746875000  -3.458244e+001  -1.899371e+001 
3750000000  -3.488879e+001  -1.896336e+001 
3753125000  -3.451805e+001  -1.983907e+001 
3756250000  -3.456301e+001  -2.033038e+001 
3759375000  -3.442253e+001  -2.115510e+001 
3762500000  -3.372676e+001  -2.510477e+001 
3765625000  -3.426073e+001  -2.788307e+001 
3768750000  -3.426484e+001  -2.588732e+001 
3771875000  -3.265834e+001  -2.791399e+001 
3775000000  -3.237311e+001  -3.586531e+001 
3778125000  -3.265408e+001  -3.776532e+001 
3781250000  -3.239608e+001  -4.025142e+001 
3784375000  -3.235867e+001  -4.168840e+001 
3787500000  -3.172886e+001  -4.583424e+001 
3790625000  -3.228521e+001  -5.117696e+001 
3793750000  -3.248607e+001  -5.175750e+001 
3796875000  -3.157154e+001  -5.292940e+001 
3800000000  -3.008599e+001  -5.667548e+001 
3803125000  -3.076963e+001  -6.355515e+001 
3806250000  -3.130145e+001  -6.564611e+001 
3809375000  -3.117668e+001  -6.722351e+001 
3812500000  -3.054367e+001  -7.190493e+001 
3815625000  -3.098751e+001  -7.941160e+001 
3818750000  -3.200716e+001  -8.047314e+001 
3821875000  -3.200684e+001  -7.322703e+001 
3825000000  -3.026345e+001  -6.783825e+001 
3828125000  -2.894292e+001  -8.202481e+001 
3831250000  -2.926739e+001  -9.578218e+001 
3834375000  -3.059201e+001  -9.677142e+001 
3837500000  -3.158898e+001  -9.130418e+001 
3840625000  -3.057212e+001  -9.259915e+001 
3843750000  -2.931998e+001  -1.021829e+002 
3846875000  -2.987943e+001  -1.100611e+002 
3850000000  -3.114484e+001  -1.049410e+002 
3853125000  -3.040058e+001  -1.019172e+002 
3856250000  -3.039459e+001  -1.063891e+002 
3859375000  -2.974920e+001  -1.114664e+002 
3862500000  -2.934209e+001  -1.177364e+002 
3865625000  -2.951452e+001  -1.235244e+002 
3868750000  -2.960686e+001  -1.232935e+002 
3871875000  -2.885767e+001  -1.262978e+002 
3875000000  -2.892424e+001  -1.344170e+002 
3878125000  -2.991172e+001  -1.372372e+002 
3881250000  -3.006280e+001  -1.346790e+002 
3884375000  -2.956686e+001  -1.392594e+002 
3887500000  -2.968816e+001  -1.432995e+002 
3890625000  -3.014386e+001  -1.457078e+002 
3893750000  -3.069078e+001  -1.470465e+002 
3896875000  -3.066010e+001  -1.470364e+002 
3900000000  -3.106401e+001  -1.469969e+002 
3903125000  -3.077742e+001  -1.496913e+002 
3906250000  -3.047275e+001  -1.502863e+002 
3909375000  -2.975658e+001  -1.524814e+002 
3912500000  -2.975052e+001  -1.603679e+002 
3915625000  -3.092044e+001  -1.588317e+002 
3918750000  -3.095847e+001  -1.581879e+002 
3921875000  -3.064305e+001  -1.592279e+002 
3925000000  -2.983838e+001  -1.601101e+002 
3928125000  -2.911061e+001  -1.650688e+002 
3931250000  -2.948322e+001  -1.691999e+002 
3934375000  -2.977752e+001  -1.690154e+002 
3937500000  -2.984317e+001  -1.700876e+002 
3940625000  -3.040391e+001  -1.694210e+002 
3943750000  -2.942534e+001  -1.678449e+002 
3946875000  -2.815094e+001  -1.739083e+002 
3950000000  -2.856511e+001  1.790247e+002 
3953125000  -2.953217e+001  1.793896e+002 
3956250000  -2.880923e+001  -1.781943e+002 
3959375000  -2.741085e+001  1.788878e+002 
3962500000  -2.687833e+001  1.755234e+002 
3965625000  -2.649193e+001  1.663226e+002 
3968750000  -2.745361e+001  1.596714e+002 
3971875000  -2.788852e+001  1.577856e+002 
3975000000  -2.710933e+001  1.561551e+002 
3978125000  -2.691799e+001  1.546303e+002 
3981250000  -2.668293e+001  1.504316e+002 
3984375000  -2.693770e+001  1.436303e+002 
3987500000  -2.742187e+001  1.416138e+002 
3990625000  -2.747647e+001  1.409219e+002 
3993750000  -2.764410e+001  1.373529e+002 
3996875000  -2.764691e+001  1.350868e+002 
4000000000  -2.774177e+001  1.332750e+002 
4003125000  -2.832558e+001  1.348178e+002 
4006250000  -2.697421e+001  1.356281e+002 
4009375000  -2.573968e+001  1.235343e+002 
4012500000  -2.676585e+001  1.159504e+002 
4015625000  -2.801685e+001  1.164065e+002 
4018750000  -2.831184e+001  1.187214e+002 
4021875000  -2.766422e+001  1.173022e+002 
4025000000  -2.717642e+001  1.126225e+002 
4028125000  -2.713928e+001  1.082982e+002 
4031250000  -2.758411e+001  1.054189e+002 
4034375000  -2.794388e+001  1.051359e+002 
4037500000  -2.738530e+001  1.072665e+002 
4040625000  -2.729641e+001  1.037494e+002 
4043750000  -2.769209e+001  1.033064e+002 
4046875000  -2.729126e+001  1.033384e+002 
4050000000  -2.673717e+001  9.755962e+001 
4053125000  -2.713676e+001  9.582092e+001 
4056250000  -2.777003e+001  9.940834e+001 
4059375000  -2.669574e+001  1.014764e+002 
4062500000  -2.518717e+001  9.722356e+001 
4065625000  -2.499861e+001  9.255529e+001 
4068750000  -2.478732e+001  8.753178e+001 
4071875000  -2.413019e+001  8.001199e+001 
4075000000  -2.442005e+001  7.357194e+001 
4078125000  -2.505869e+001  7.292091e+001 
4081250000  -2.452547e+001  7.025025e+001 
4084375000  -2.410997e+001  6.376756e+001 
4087500000  -2.443418e+001  5.735237e+001 
4090625000  -2.505974e+001  5.614748e+001 
4093750000  -2.488163e+001  5.716452e+001 
4096875000  -2.442143e+001  5.134521e+001 
4100000000  -2.505723e+001  4.412285e+001 
4103125000  -2.593515e+001  4.432572e+001 
4106250000  -2.589675e+001  4.921407e+001 
4109375000  -2.504428e+001  4.872511e+001 
4112500000  -2.446833e+001  4.222385e+001 
4115625000  -2.473978e+001  3.784336e+001 
4118750000  -2.490313e+001  3.491097e+001 
4121875000  -2.451814e+001  3.100462e+001 
4125000000  -2.480078e+001  2.565973e+001 
4128125000  -2.579728e+001  2.503472e+001 
4131250000  -2.563766e+001  3.266587e+001 
4134375000  -2.328569e+001  2.905284e+001 
4137500000  -2.305283e+001  1.021959e+001 
4140625000  -2.520328e+001  3.161401e+000 
4143750000  -2.651800e+001  7.214296e+000 
4146875000  -2.621955e+001  1.473127e+001 
4150000000  -2.524781e+001  1.209767e+001 
4153125000  -2.506898e+001  5.619268e+000 
4156250000  -2.592528e+001  2.755164e+000 
4159375000  -2.623225e+001  7.294977e+000 
4162500000  -2.514761e+001  1.141648e+001 
4165625000  -2.404203e+001  7.793245e+000 
4168750000  -2.340778e+001  8.502467e-001 
4171875000  -2.338359e+001  -8.234510e+000 
4175000000  -2.394082e+001  -1.413403e+001 
4178125000  -2.452985e+001  -1.407506e+001 
4181250000  -2.445259e+001  -1.459543e+001 
4184375000  -2.427162e+001  -1.747773e+001 
4187500000  -2.434052e+001  -2.017704e+001 
4190625000  -2.412557e+001  -2.558693e+001 
4193750000  -2.486596e+001  -2.943207e+001 
4196875000  -2.560161e+001  -2.980696e+001 
4200000000  -2.636343e+001  -2.788335e+001 
4203125000  -2.649865e+001  -1.522038e+001 
4206250000  -2.324736e+001  -1.270057e+001 
4209375000  -2.193417e+001  -3.284227e+001 
4212500000  -2.379809e+001  -4.203083e+001 
4215625000  -2.481256e+001  -3.612919e+001 
4218750000  -2.361701e+001  -2.959749e+001 
4221875000  -2.122580e+001  -3.846951e+001 
4225000000  -2.244015e+001  -5.112225e+001 
4228125000  -2.316955e+001  -4.612403e+001 
4231250000  -2.162918e+001  -4.953819e+001 
4234375000  -2.155816e+001  -5.789069e+001 
4237500000  -2.115328e+001  -6.100753e+001 
4240625000  -2.118576e+001  -6.930308e+001 
4243750000  -2.206372e+001  -7.609853e+001 
4246875000  -2.297159e+001  -7.675639e+001 
4250000000  -2.304719e+001  -7.392780e+001 
4253125000  -2.243817e+001  -7.544138e+001 
4256250000  -2.276230e+001  -7.998277e+001 
4259375000  -2.252932e+001  -8.182569e+001 
4262500000  -2.250883e+001  -8.555885e+001 
4265625000  -2.268269e+001  -8.543900e+001 
4268750000  -2.186422e+001  -8.923455e+001 
4271875000  -2.157451e+001  -9.470270e+001 
4275000000  -2.099391e+001  -1.011703e+002 
4278125000  -2.153584e+001  -1.123716e+002 
4281250000  -2.337705e+001  -1.146230e+002 
4284375000  -2.312899e+001  -1.136169e+002 
4287500000  -2.376153e+001  -1.170239e+002 
4290625000  -2.509106e+001  -1.077358e+002 
4293750000  -2.318120e+001  -1.019823e+002 
4296875000  -2.177763e+001  -1.129912e+002 
4300000000  -2.257927e+001  -1.227329e+002 
4303125000  -2.374430e+001  -1.216477e+002 
4306250000  -2.323964e+001  -1.152238e+002 
4309375000  -2.182589e+001  -1.175290e+002 
4312500000  -2.169460e+001  -1.255840e+002 
4315625000  -2.190631e+001  -1.314390e+002 
4318750000  -2.220512e+001  -1.348840e+002 
4321875000  -2.241252e+001  -1.343397e+002 
4325000000  -2.179738e+001  -1.334953e+002 
4328125000  -2.133766e+001  -1.400080e+002 
4331250000  -2.122340e+001  -1.477237e+002 
4334375000  -2.165209e+001  -1.527446e+002 
4337500000  -2.243463e+001  -1.552067e+002 
4340625000  -2.299440e+001  -1.524191e+002 
4343750000  -2.244719e+001  -1.516109e+002 
4346875000  -2.206765e+001  -1.567352e+002 
4350000000  -2.208153e+001  -1.616174e+002 
4353125000  -2.203501e+001  -1.692042e+002 
4356250000  -2.371359e+001  -1.708531e+002 
4359375000  -2.442522e+001  -1.580408e+002 
4362500000  -2.189534e+001  -1.554163e+002 
4365625000  -2.018951e+001  -1.664197e+002 
4368750000  -2.082320e+001  -1.787487e+002 
4371875000  -2.208090e+001  -1.784482e+002 
4375000000  -2.175504e+001  -1.770855e+002 
4378125000  -2.110931e+001  1.770386e+002 
4381250000  -2.127566e+001  1.715940e+002 
4384375000  -2.108639e+001  1.672295e+002 
4387500000  -2.180039e+001  1.613503e+002 
4390625000  -2.283152e+001  1.619614e+002 
4393750000  -2.219595e+001  1.642478e+002 
4396875000  -2.152155e+001  1.621125e+002 
4400000000  -2.098995e+001  1.552446e+002 
4403125000  -2.155458e+001  1.477677e+002 
4406250000  -2.243911e+001  1.462026e+002 
4409375000  -2.238904e+001  1.440952e+002 
4412500000  -2.338403e+001  1.412631e+002 
4415625000  -2.384698e+001  1.459931e+002 
4418750000  -2.270567e+001  1.508230e+002 
