!Agilent Technologies,E8363B,MY43030201,A.06.04.32
!Agilent E8363B: A.06.04.32
!Date: Tuesday, November 11, 2014 20:55:07
!Correction: S21(Response(S21)) 
!S1P File: Measurement: S21:
# Hz S  dB   R 50
3000000000  -2.649578e+001  1.486601e+002 
3003125000  -2.792980e+001  1.438651e+002 
3006250000  -2.796364e+001  1.411576e+002 
3009375000  -2.831036e+001  1.464687e+002 
3012500000  -2.774862e+001  1.455812e+002 
3015625000  -2.684583e+001  1.388879e+002 
3018750000  -2.768746e+001  1.381954e+002 
3021875000  -2.638691e+001  1.393058e+002 
3025000000  -2.507296e+001  1.363275e+002 
3028125000  -2.416078e+001  1.310583e+002 
3031250000  -2.308286e+001  1.198527e+002 
3034375000  -2.274296e+001  1.068433e+002 
3037500000  -2.313370e+001  9.508704e+001 
3040625000  -2.446010e+001  8.987177e+001 
3043750000  -2.511774e+001  8.560612e+001 
3046875000  -2.526575e+001  7.934904e+001 
3050000000  -2.700064e+001  7.248396e+001 
3053125000  -2.706185e+001  7.880622e+001 
3056250000  -2.646114e+001  8.187393e+001 
3059375000  -2.668202e+001  8.172854e+001 
3062500000  -2.521333e+001  7.769413e+001 
3065625000  -2.497082e+001  7.190022e+001 
3068750000  -2.469096e+001  6.513531e+001 
3071875000  -2.464226e+001  6.211636e+001 
3075000000  -2.458611e+001  5.835254e+001 
3078125000  -2.434327e+001  5.375289e+001 
3081250000  -2.497037e+001  4.963343e+001 
3084375000  -2.422839e+001  4.581607e+001 
3087500000  -2.413315e+001  4.219540e+001 
3090625000  -2.381105e+001  3.219496e+001 
3093750000  -2.431411e+001  2.452899e+001 
3096875000  -2.560938e+001  1.854270e+001 
3100000000  -2.571099e+001  1.737178e+001 
3103125000  -2.612112e+001  1.845115e+001 
3106250000  -2.577489e+001  1.509511e+001 
3109375000  -2.605102e+001  1.169631e+001 
3112500000  -2.616771e+001  1.057791e+001 
3115625000  -2.599542e+001  6.214425e+000 
3118750000  -2.648008e+001  7.759637e+000 
3121875000  -2.579646e+001  -5.161960e-001 
3125000000  -2.702754e+001  -3.714439e+000 
3128125000  -2.820881e+001  4.421373e+000 
3131250000  -2.596899e+001  4.767393e+000 
3134375000  -2.467224e+001  -9.091320e+000 
3137500000  -2.533896e+001  -2.248870e+001 
3140625000  -2.689793e+001  -2.403492e+001 
3143750000  -2.798404e+001  -2.006144e+001 
3146875000  -2.756490e+001  -1.810349e+001 
3150000000  -2.647537e+001  -1.576117e+001 
3153125000  -2.653597e+001  -2.372657e+001 
3156250000  -2.750097e+001  -1.809832e+001 
3159375000  -2.587741e+001  -1.518187e+001 
3162500000  -2.390922e+001  -2.833890e+001 
3165625000  -2.483184e+001  -3.917980e+001 
3168750000  -2.523592e+001  -3.808664e+001 
3171875000  -2.424396e+001  -4.258565e+001 
3175000000  -2.492780e+001  -5.027755e+001 
3178125000  -2.471191e+001  -4.862795e+001 
3181250000  -2.353177e+001  -5.276391e+001 
3184375000  -2.271126e+001  -6.506967e+001 
3187500000  -2.384711e+001  -8.005851e+001 
3190625000  -2.662177e+001  -8.753634e+001 
3193750000  -2.718178e+001  -7.780099e+001 
3196875000  -2.677910e+001  -7.260203e+001 
3200000000  -2.585769e+001  -7.413887e+001 
3203125000  -2.504819e+001  -8.005938e+001 
3206250000  -2.539402e+001  -8.619554e+001 
3209375000  -2.487036e+001  -9.146554e+001 
3212500000  -2.503382e+001  -9.795199e+001 
3215625000  -2.513012e+001  -1.018614e+002 
3218750000  -2.586573e+001  -1.084442e+002 
3221875000  -2.687760e+001  -1.133677e+002 
3225000000  -2.653470e+001  -1.142498e+002 
3228125000  -2.684906e+001  -1.187196e+002 
3231250000  -2.759160e+001  -1.212801e+002 
3234375000  -2.736452e+001  -1.200330e+002 
3237500000  -2.741878e+001  -1.219464e+002 
3240625000  -2.709680e+001  -1.235920e+002 
3243750000  -2.676108e+001  -1.304977e+002 
3246875000  -2.723227e+001  -1.369075e+002 
3250000000  -2.770403e+001  -1.387699e+002 
3253125000  -2.785073e+001  -1.403170e+002 
3256250000  -2.771326e+001  -1.462400e+002 
3259375000  -2.805758e+001  -1.539998e+002 
3262500000  -2.927771e+001  -1.564369e+002 
3265625000  -2.997133e+001  -1.532287e+002 
3268750000  -2.997490e+001  -1.503248e+002 
3271875000  -2.967380e+001  -1.493547e+002 
3275000000  -2.866206e+001  -1.548515e+002 
3278125000  -2.914060e+001  -1.607810e+002 
3281250000  -2.935678e+001  -1.590243e+002 
3284375000  -2.887445e+001  -1.645510e+002 
3287500000  -2.907448e+001  -1.674056e+002 
3290625000  -2.950812e+001  -1.716376e+002 
3293750000  -2.917828e+001  -1.774558e+002 
3296875000  -3.017521e+001  -1.772087e+002 
3300000000  -3.005318e+001  -1.763007e+002 
3303125000  -2.892038e+001  1.795790e+002 
3306250000  -2.872255e+001  1.734588e+002 
3309375000  -2.847211e+001  1.683916e+002 
3312500000  -2.851602e+001  1.575200e+002 
3315625000  -2.957367e+001  1.499776e+002 
3318750000  -3.087610e+001  1.481397e+002 
3321875000  -3.213968e+001  1.473110e+002 
3325000000  -3.262295e+001  1.526837e+002 
3328125000  -3.249280e+001  1.538376e+002 
3331250000  -3.130202e+001  1.617286e+002 
3334375000  -2.870865e+001  1.513403e+002 
3337500000  -2.876309e+001  1.332017e+002 
3340625000  -3.014654e+001  1.221570e+002 
3343750000  -3.214488e+001  1.208348e+002 
3346875000  -3.260324e+001  1.228248e+002 
3350000000  -3.196450e+001  1.212050e+002 
3353125000  -3.219364e+001  1.165832e+002 
3356250000  -3.175539e+001  1.093492e+002 
3359375000  -3.266673e+001  1.005050e+002 
3362500000  -3.395256e+001  9.541652e+001 
3365625000  -3.459723e+001  9.330206e+001 
3368750000  -3.569683e+001  9.279322e+001 
3371875000  -3.600325e+001  8.927515e+001 
3375000000  -3.749680e+001  8.757516e+001 
3378125000  -3.849566e+001  8.740228e+001 
3381250000  -4.003657e+001  9.416712e+001 
3384375000  -3.916689e+001  1.169547e+002 
3387500000  -3.613603e+001  1.013523e+002 
3390625000  -3.795815e+001  8.240122e+001 
3393750000  -3.989783e+001  8.754839e+001 
3396875000  -3.894546e+001  9.086164e+001 
3400000000  -3.894236e+001  8.333376e+001 
3403125000  -3.989751e+001  7.889457e+001 
3406250000  -4.068799e+001  8.227541e+001 
3409375000  -4.122888e+001  7.759007e+001 
3412500000  -4.224993e+001  8.138703e+001 
3415625000  -4.316624e+001  8.344640e+001 
3418750000  -4.301678e+001  8.910596e+001 
3421875000  -4.344700e+001  9.580807e+001 
3425000000  -4.267904e+001  9.876466e+001 
3428125000  -4.167769e+001  9.861411e+001 
3431250000  -4.166495e+001  9.438342e+001 
3434375000  -4.123237e+001  9.080619e+001 
3437500000  -4.177298e+001  8.870865e+001 
3440625000  -4.217498e+001  9.239801e+001 
3443750000  -4.097184e+001  9.369241e+001 
3446875000  -4.022511e+001  8.910889e+001 
3450000000  -3.989299e+001  8.060638e+001 
3453125000  -4.008690e+001  7.179834e+001 
3456250000  -4.136046e+001  6.634987e+001 
3459375000  -4.234983e+001  6.851140e+001 
3462500000  -4.239375e+001  6.948154e+001 
3465625000  -4.227028e+001  6.497099e+001 
3468750000  -4.249178e+001  6.278069e+001 
3471875000  -4.274881e+001  6.379644e+001 
3475000000  -4.289677e+001  5.990866e+001 
3478125000  -4.345544e+001  5.234252e+001 
3481250000  -4.453879e+001  5.156627e+001 
3484375000  -4.613249e+001  5.575291e+001 
3487500000  -4.593134e+001  6.001134e+001 
3490625000  -4.537527e+001  5.639243e+001 
3493750000  -4.633295e+001  5.247727e+001 
3496875000  -4.723821e+001  5.613746e+001 
3500000000  -4.772972e+001  6.425784e+001 
3503125000  -4.807808e+001  6.797057e+001 
3506250000  -4.703855e+001  6.740815e+001 
3509375000  -4.667370e+001  6.781950e+001 
3512500000  -4.694179e+001  6.357663e+001 
3515625000  -4.750615e+001  6.969495e+001 
3518750000  -4.850783e+001  7.598030e+001 
3521875000  -4.794149e+001  7.706103e+001 
3525000000  -4.772096e+001  7.735439e+001 
3528125000  -4.734122e+001  9.252137e+001 
3531250000  -4.553240e+001  9.074967e+001 
3534375000  -4.493483e+001  8.400444e+001 
3537500000  -4.500243e+001  8.048579e+001 
3540625000  -4.566737e+001  8.025549e+001 
3543750000  -4.598795e+001  8.535011e+001 
3546875000  -4.506229e+001  9.248693e+001 
3550000000  -4.244947e+001  9.734897e+001 
3553125000  -4.137386e+001  8.231825e+001 
3556250000  -4.251305e+001  7.547344e+001 
3559375000  -4.175412e+001  7.755028e+001 
3562500000  -4.088121e+001  6.950887e+001 
3565625000  -4.150818e+001  6.313680e+001 
3568750000  -4.172467e+001  6.649998e+001 
3571875000  -4.138228e+001  6.498347e+001 
3575000000  -4.094788e+001  5.960968e+001 
3578125000  -4.130074e+001  5.741375e+001 
3581250000  -4.130550e+001  5.778167e+001 
3584375000  -4.073246e+001  5.635858e+001 
3587500000  -3.980048e+001  5.044178e+001 
3590625000  -4.040029e+001  4.207477e+001 
3593750000  -4.142570e+001  4.124594e+001 
3596875000  -4.113502e+001  4.992013e+001 
3600000000  -3.968631e+001  4.551055e+001 
3603125000  -3.993300e+001  3.220305e+001 
3606250000  -4.058515e+001  2.991229e+001 
3609375000  -4.083989e+001  2.852422e+001 
3612500000  -4.131022e+001  2.817945e+001 
3615625000  -4.138596e+001  2.551198e+001 
3618750000  -4.180273e+001  2.741765e+001 
3621875000  -4.176774e+001  2.559999e+001 
3625000000  -4.199751e+001  2.564998e+001 
3628125000  -4.185147e+001  2.725847e+001 
3631250000  -4.168084e+001  2.180125e+001 
3634375000  -4.246185e+001  2.169646e+001 
3637500000  -4.211280e+001  2.890793e+001 
3640625000  -4.118406e+001  2.865392e+001 
3643750000  -4.048238e+001  2.538842e+001 
3646875000  -4.108234e+001  1.949743e+001 
3650000000  -4.168756e+001  1.869766e+001 
3653125000  -4.157235e+001  1.856553e+001 
3656250000  -4.171553e+001  1.600718e+001 
3659375000  -4.190576e+001  1.969549e+001 
3662500000  -4.124160e+001  2.062789e+001 
3665625000  -4.084779e+001  2.183674e+001 
3668750000  -4.007491e+001  2.200255e+001 
3671875000  -3.890568e+001  1.550612e+001 
3675000000  -3.978339e+001  1.037956e+001 
3678125000  -4.014719e+001  1.269281e+001 
3681250000  -3.979728e+001  1.335598e+001 
3684375000  -3.949059e+001  1.094169e+001 
3687500000  -3.962585e+001  9.370529e+000 
3690625000  -3.948441e+001  6.900522e+000 
3693750000  -4.019382e+001  8.531435e+000 
3696875000  -4.004930e+001  1.250642e+001 
3700000000  -3.882656e+001  9.509710e+000 
3703125000  -3.869173e+001  7.039916e+000 
3706250000  -3.943985e+001  9.037194e+000 
3709375000  -3.869915e+001  1.215022e+001 
3712500000  -3.756357e+001  1.160970e+001 
3715625000  -3.649226e+001  6.349983e+000 
3718750000  -3.565005e+001  3.599096e+000 
3721875000  -3.542599e+001  -2.224724e+000 
3725000000  -3.529645e+001  -7.400424e+000 
3728125000  -3.540047e+001  -7.136299e+000 
3731250000  -3.473985e+001  -8.290261e+000 
3734375000  -3.367179e+001  -1.334784e+001 
3737500000  -3.424355e+001  -2.184155e+001 
3740625000  -3.490159e+001  -2.494315e+001 
3743750000  -3.465935e+001  -2.635790e+001 
3746875000  -3.469471e+001  -3.013163e+001 
3750000000  -3.501401e+001  -3.014775e+001 
3753125000  -3.461896e+001  -3.110928e+001 
3756250000  -3.452105e+001  -3.175210e+001 
3759375000  -3.432462e+001  -3.167850e+001 
3762500000  -3.376822e+001  -3.599287e+001 
3765625000  -3.431018e+001  -3.818523e+001 
3768750000  -3.431118e+001  -3.629203e+001 
3771875000  -3.250862e+001  -3.911567e+001 
3775000000  -3.220319e+001  -4.660069e+001 
3778125000  -3.262434e+001  -4.794796e+001 
3781250000  -3.238425e+001  -5.131517e+001 
3784375000  -3.239822e+001  -5.340682e+001 
3787500000  -3.172402e+001  -5.680730e+001 
3790625000  -3.224120e+001  -6.269670e+001 
3793750000  -3.240545e+001  -6.323363e+001 
3796875000  -3.150162e+001  -6.436668e+001 
3800000000  -2.992655e+001  -6.829957e+001 
3803125000  -3.081103e+001  -7.529327e+001 
3806250000  -3.137208e+001  -7.744628e+001 
3809375000  -3.112763e+001  -7.880849e+001 
3812500000  -3.042625e+001  -8.360507e+001 
3815625000  -3.111678e+001  -9.116920e+001 
3818750000  -3.218992e+001  -9.256136e+001 
3821875000  -3.210161e+001  -8.338665e+001 
3825000000  -3.020489e+001  -7.932423e+001 
3828125000  -2.884987e+001  -9.386418e+001 
3831250000  -2.936650e+001  -1.071857e+002 
3834375000  -3.074067e+001  -1.087894e+002 
3837500000  -3.151978e+001  -1.033784e+002 
3840625000  -3.047671e+001  -1.045374e+002 
3843750000  -2.939326e+001  -1.148111e+002 
3846875000  -2.992079e+001  -1.217755e+002 
3850000000  -3.125057e+001  -1.158788e+002 
3853125000  -3.054554e+001  -1.136668e+002 
3856250000  -3.047452e+001  -1.179567e+002 
3859375000  -2.972736e+001  -1.223492e+002 
3862500000  -2.923625e+001  -1.301193e+002 
3865625000  -2.959082e+001  -1.345807e+002 
3868750000  -2.965569e+001  -1.346102e+002 
3871875000  -2.893401e+001  -1.376850e+002 
3875000000  -2.901274e+001  -1.465551e+002 
3878125000  -3.003896e+001  -1.488659e+002 
3881250000  -3.012271e+001  -1.453191e+002 
3884375000  -2.961329e+001  -1.505099e+002 
3887500000  -2.970640e+001  -1.549473e+002 
3890625000  -3.028676e+001  -1.561781e+002 
3893750000  -3.071111e+001  -1.579201e+002 
3896875000  -3.086474e+001  -1.573287e+002 
3900000000  -3.112675e+001  -1.591556e+002 
3903125000  -3.067298e+001  -1.602405e+002 
3906250000  -3.038159e+001  -1.610949e+002 
3909375000  -2.957348e+001  -1.639228e+002 
3912500000  -2.967685e+001  -1.710416e+002 
3915625000  -3.092035e+001  -1.702212e+002 
3918750000  -3.101074e+001  -1.688522e+002 
3921875000  -3.055787e+001  -1.702160e+002 
3925000000  -2.977381e+001  -1.711872e+002 
3928125000  -2.908523e+001  -1.767733e+002 
3931250000  -2.952295e+001  1.794433e+002 
3934375000  -2.984065e+001  1.794718e+002 
3937500000  -2.988067e+001  1.787155e+002 
3940625000  -3.028653e+001  1.795500e+002 
3943750000  -2.934547e+001  -1.796328e+002 
3946875000  -2.820355e+001  1.747278e+002 
3950000000  -2.871704e+001  1.678524e+002 
3953125000  -2.964525e+001  1.678625e+002 
3956250000  -2.872457e+001  1.705816e+002 
3959375000  -2.738778e+001  1.679494e+002 
3962500000  -2.694402e+001  1.639242e+002 
3965625000  -2.657601e+001  1.547551e+002 
3968750000  -2.757040e+001  1.480826e+002 
3971875000  -2.785267e+001  1.466217e+002 
3975000000  -2.718028e+001  1.446891e+002 
3978125000  -2.702761e+001  1.431063e+002 
3981250000  -2.680364e+001  1.390179e+002 
3984375000  -2.707916e+001  1.327091e+002 
3987500000  -2.755272e+001  1.304134e+002 
3990625000  -2.759974e+001  1.301621e+002 
3993750000  -2.783669e+001  1.269562e+002 
3996875000  -2.774848e+001  1.247172e+002 
4000000000  -2.784228e+001  1.219553e+002 
4003125000  -2.848520e+001  1.243925e+002 
4006250000  -2.711573e+001  1.252050e+002 
4009375000  -2.578406e+001  1.126679e+002 
4012500000  -2.691084e+001  1.057274e+002 
4015625000  -2.814116e+001  1.062923e+002 
4018750000  -2.830861e+001  1.084360e+002 
4021875000  -2.754359e+001  1.068154e+002 
4025000000  -2.721327e+001  1.026366e+002 
4028125000  -2.718919e+001  9.820339e+001 
4031250000  -2.761255e+001  9.513531e+001 
4034375000  -2.787083e+001  9.488031e+001 
4037500000  -2.734731e+001  9.679860e+001 
4040625000  -2.725355e+001  9.326541e+001 
4043750000  -2.759244e+001  9.327419e+001 
4046875000  -2.716499e+001  9.267939e+001 
4050000000  -2.662882e+001  8.722916e+001 
4053125000  -2.712958e+001  8.503379e+001 
4056250000  -2.772124e+001  8.886610e+001 
4059375000  -2.650071e+001  9.064035e+001 
4062500000  -2.513773e+001  8.593715e+001 
4065625000  -2.500304e+001  8.131908e+001 
4068750000  -2.471437e+001  7.705503e+001 
4071875000  -2.402298e+001  6.917803e+001 
4075000000  -2.442781e+001  6.290233e+001 
4078125000  -2.498067e+001  6.149260e+001 
4081250000  -2.444195e+001  5.932496e+001 
4084375000  -2.403032e+001  5.296249e+001 
4087500000  -2.438982e+001  4.675747e+001 
4090625000  -2.497128e+001  4.560661e+001 
4093750000  -2.478720e+001  4.636178e+001 
4096875000  -2.433650e+001  4.056772e+001 
4100000000  -2.502571e+001  3.403568e+001 
4103125000  -2.556175e+001  3.450375e+001 
4106250000  -2.538901e+001  3.970021e+001 
4109375000  -2.452852e+001  3.869991e+001 
4112500000  -2.397291e+001  3.248298e+001 
4115625000  -2.429412e+001  2.807102e+001 
4118750000  -2.437500e+001  2.520355e+001 
4121875000  -2.406711e+001  2.041013e+001 
4125000000  -2.443135e+001  1.548199e+001 
4128125000  -2.545785e+001  1.616379e+001 
4131250000  -2.502858e+001  2.453402e+001 
4134375000  -2.265458e+001  1.984861e+001 
4137500000  -2.243663e+001  7.599899e-001 
4140625000  -2.462042e+001  -6.606843e+000 
4143750000  -2.597799e+001  -1.168784e+000 
4146875000  -2.545933e+001  5.850332e+000 
4150000000  -2.453499e+001  2.589598e+000 
4153125000  -2.440541e+001  -3.947430e+000 
4156250000  -2.530989e+001  -6.606456e+000 
4159375000  -2.555414e+001  -2.669441e+000 
4162500000  -2.436113e+001  1.845142e+000 
4165625000  -2.322435e+001  -1.975791e+000 
4168750000  -2.263712e+001  -9.287387e+000 
4171875000  -2.253169e+001  -1.848279e+001 
4175000000  -2.313810e+001  -2.473264e+001 
4178125000  -2.372416e+001  -2.485891e+001 
4181250000  -2.361786e+001  -2.550472e+001 
4184375000  -2.343195e+001  -2.881701e+001 
4187500000  -2.347565e+001  -3.192002e+001 
4190625000  -2.328302e+001  -3.737535e+001 
4193750000  -2.407788e+001  -4.111992e+001 
4196875000  -2.489666e+001  -4.131780e+001 
4200000000  -2.573302e+001  -3.870328e+001 
4203125000  -2.573469e+001  -2.550088e+001 
4206250000  -2.239914e+001  -2.411362e+001 
4209375000  -2.125004e+001  -4.496851e+001 
4212500000  -2.324100e+001  -5.326481e+001 
4215625000  -2.422117e+001  -4.643307e+001 
4218750000  -2.278114e+001  -3.986806e+001 
4221875000  -2.044122e+001  -4.925607e+001 
4225000000  -2.168236e+001  -6.216146e+001 
4228125000  -2.246601e+001  -5.679062e+001 
4231250000  -2.091828e+001  -6.109664e+001 
4234375000  -2.079162e+001  -6.928368e+001 
4237500000  -2.040436e+001  -7.284124e+001 
4240625000  -2.048724e+001  -8.164747e+001 
4243750000  -2.147701e+001  -8.793932e+001 
4246875000  -2.228237e+001  -8.768908e+001 
4250000000  -2.235746e+001  -8.486963e+001 
4253125000  -2.174639e+001  -8.664378e+001 
4256250000  -2.203663e+001  -9.058898e+001 
4259375000  -2.183554e+001  -9.275833e+001 
4262500000  -2.182304e+001  -9.683541e+001 
4265625000  -2.196665e+001  -9.622761e+001 
4268750000  -2.113258e+001  -1.001746e+002 
4271875000  -2.086155e+001  -1.056965e+002 
4275000000  -2.023128e+001  -1.124369e+002 
4278125000  -2.083120e+001  -1.238284e+002 
4281250000  -2.255221e+001  -1.260179e+002 
4284375000  -2.230293e+001  -1.252560e+002 
4287500000  -2.314681e+001  -1.293594e+002 
4290625000  -2.441832e+001  -1.193477e+002 
4293750000  -2.241877e+001  -1.136159e+002 
4296875000  -2.105120e+001  -1.254051e+002 
4300000000  -2.190474e+001  -1.341791e+002 
4303125000  -2.295776e+001  -1.330116e+002 
4306250000  -2.228666e+001  -1.270157e+002 
4309375000  -2.091179e+001  -1.298277e+002 
4312500000  -2.085347e+001  -1.384183e+002 
4315625000  -2.111474e+001  -1.444876e+002 
4318750000  -2.132267e+001  -1.487549e+002 
4321875000  -2.143224e+001  -1.479754e+002 
4325000000  -2.083391e+001  -1.475890e+002 
4328125000  -2.035809e+001  -1.545482e+002 
4331250000  -2.034975e+001  -1.625161e+002 
4334375000  -2.080209e+001  -1.674308e+002 
4337500000  -2.157987e+001  -1.694474e+002 
4340625000  -2.209039e+001  -1.668083e+002 
4343750000  -2.147175e+001  -1.661664e+002 
4346875000  -2.111765e+001  -1.713881e+002 
4350000000  -2.103599e+001  -1.761858e+002 
4353125000  -2.111804e+001  1.758975e+002 
4356250000  -2.285167e+001  1.745412e+002 
4359375000  -2.349404e+001  -1.722344e+002 
4362500000  -2.084714e+001  -1.701984e+002 
4365625000  -1.933417e+001  1.784266e+002 
4368750000  -2.005010e+001  1.668190e+002 
4371875000  -2.117884e+001  1.672774e+002 
4375000000  -2.084907e+001  1.681188e+002 
4378125000  -2.027415e+001  1.624379e+002 
4381250000  -2.038076e+001  1.570325e+002 
4384375000  -2.020600e+001  1.525226e+002 
4387500000  -2.088588e+001  1.462872e+002 
4390625000  -2.182513e+001  1.467404e+002 
4393750000  -2.133852e+001  1.494753e+002 
4396875000  -2.062410e+001  1.473112e+002 
4400000000  -2.014058e+001  1.402137e+002 
4403125000  -2.068144e+001  1.327178e+002 
4406250000  -2.153361e+001  1.314053e+002 
4409375000  -2.147830e+001  1.290731e+002 
4412500000  -2.239556e+001  1.265934e+002 
4415625000  -2.286237e+001  1.312342e+002 
4418750000  -2.176883e+001  1.360484e+002 
