!Agilent Technologies,E8363B,MY43030201,A.06.04.32
!Agilent E8363B: A.06.04.32
!Date: Tuesday, November 11, 2014 20:49:37
!Correction: S21(Response(S21)) 
!S1P File: Measurement: S21:
# Hz S  dB   R 50
3000000000  -2.653479e+001  1.542344e+002 
3003125000  -2.792687e+001  1.496496e+002 
3006250000  -2.797661e+001  1.470278e+002 
3009375000  -2.834020e+001  1.518898e+002 
3012500000  -2.785835e+001  1.516665e+002 
3015625000  -2.688434e+001  1.444516e+002 
3018750000  -2.768075e+001  1.437492e+002 
3021875000  -2.646445e+001  1.451976e+002 
3025000000  -2.513780e+001  1.418862e+002 
3028125000  -2.419581e+001  1.372589e+002 
3031250000  -2.313754e+001  1.257296e+002 
3034375000  -2.276342e+001  1.130276e+002 
3037500000  -2.311106e+001  1.007194e+002 
3040625000  -2.444574e+001  9.590477e+001 
3043750000  -2.515321e+001  9.169963e+001 
3046875000  -2.525420e+001  8.515290e+001 
3050000000  -2.699349e+001  7.776589e+001 
3053125000  -2.715609e+001  8.460389e+001 
3056250000  -2.644366e+001  8.754858e+001 
3059375000  -2.666881e+001  8.741540e+001 
3062500000  -2.518387e+001  8.372305e+001 
3065625000  -2.502705e+001  7.791182e+001 
3068750000  -2.473296e+001  7.098023e+001 
3071875000  -2.466746e+001  6.782972e+001 
3075000000  -2.465682e+001  6.419909e+001 
3078125000  -2.431015e+001  5.985472e+001 
3081250000  -2.499725e+001  5.548872e+001 
3084375000  -2.423072e+001  5.185817e+001 
3087500000  -2.412701e+001  4.835809e+001 
3090625000  -2.379771e+001  3.859324e+001 
3093750000  -2.425242e+001  3.060219e+001 
3096875000  -2.558253e+001  2.435681e+001 
3100000000  -2.567152e+001  2.312265e+001 
3103125000  -2.605174e+001  2.457759e+001 
3106250000  -2.578690e+001  2.095417e+001 
3109375000  -2.599469e+001  1.753671e+001 
3112500000  -2.615313e+001  1.672052e+001 
3115625000  -2.591952e+001  1.250572e+001 
3118750000  -2.641373e+001  1.377761e+001 
3121875000  -2.574449e+001  5.550066e+000 
3125000000  -2.690160e+001  1.929127e+000 
3128125000  -2.814405e+001  9.886415e+000 
3131250000  -2.597132e+001  1.054535e+001 
3134375000  -2.463983e+001  -2.896820e+000 
3137500000  -2.524863e+001  -1.689350e+001 
3140625000  -2.685835e+001  -1.859111e+001 
3143750000  -2.793872e+001  -1.439754e+001 
3146875000  -2.751126e+001  -1.256061e+001 
3150000000  -2.650486e+001  -1.023996e+001 
3153125000  -2.642176e+001  -1.777559e+001 
3156250000  -2.742532e+001  -1.254746e+001 
3159375000  -2.594944e+001  -9.852383e+000 
3162500000  -2.385332e+001  -2.247231e+001 
3165625000  -2.478209e+001  -3.333057e+001 
3168750000  -2.520119e+001  -3.244391e+001 
3171875000  -2.424640e+001  -3.679506e+001 
3175000000  -2.486719e+001  -4.424018e+001 
3178125000  -2.467006e+001  -4.282480e+001 
3181250000  -2.348002e+001  -4.663854e+001 
3184375000  -2.268035e+001  -5.902794e+001 
3187500000  -2.374710e+001  -7.422720e+001 
3190625000  -2.657067e+001  -8.159611e+001 
3193750000  -2.718229e+001  -7.226315e+001 
3196875000  -2.675354e+001  -6.665399e+001 
3200000000  -2.587752e+001  -6.868474e+001 
3203125000  -2.500158e+001  -7.417086e+001 
3206250000  -2.528768e+001  -8.056093e+001 
3209375000  -2.479523e+001  -8.538489e+001 
3212500000  -2.495202e+001  -9.237231e+001 
3215625000  -2.510386e+001  -9.627770e+001 
3218750000  -2.583043e+001  -1.027038e+002 
3221875000  -2.682487e+001  -1.079193e+002 
3225000000  -2.643705e+001  -1.082526e+002 
3228125000  -2.677007e+001  -1.128416e+002 
3231250000  -2.748728e+001  -1.158737e+002 
3234375000  -2.734662e+001  -1.145859e+002 
3237500000  -2.736657e+001  -1.161894e+002 
3240625000  -2.703045e+001  -1.179271e+002 
3243750000  -2.672218e+001  -1.244229e+002 
3246875000  -2.715712e+001  -1.308848e+002 
3250000000  -2.761271e+001  -1.331654e+002 
3253125000  -2.777443e+001  -1.346443e+002 
3256250000  -2.764091e+001  -1.406365e+002 
3259375000  -2.793624e+001  -1.483054e+002 
3262500000  -2.923956e+001  -1.511841e+002 
3265625000  -2.993060e+001  -1.477632e+002 
3268750000  -2.987213e+001  -1.448003e+002 
3271875000  -2.970514e+001  -1.438731e+002 
3275000000  -2.854694e+001  -1.487863e+002 
3278125000  -2.899676e+001  -1.552068e+002 
3281250000  -2.934577e+001  -1.538346e+002 
3284375000  -2.884130e+001  -1.596243e+002 
3287500000  -2.900256e+001  -1.621478e+002 
3290625000  -2.947993e+001  -1.663269e+002 
3293750000  -2.908977e+001  -1.719588e+002 
3296875000  -3.016744e+001  -1.716289e+002 
3300000000  -3.010588e+001  -1.707248e+002 
3303125000  -2.885152e+001  -1.746641e+002 
3306250000  -2.864135e+001  1.788193e+002 
3309375000  -2.838759e+001  1.738632e+002 
3312500000  -2.849424e+001  1.633455e+002 
3315625000  -2.947954e+001  1.555744e+002 
3318750000  -3.082573e+001  1.531786e+002 
3321875000  -3.204794e+001  1.531362e+002 
3325000000  -3.265067e+001  1.572212e+002 
3328125000  -3.253201e+001  1.595286e+002 
3331250000  -3.138692e+001  1.674840e+002 
3334375000  -2.867911e+001  1.572772e+002 
3337500000  -2.874279e+001  1.391655e+002 
3340625000  -3.004385e+001  1.280904e+002 
3343750000  -3.202979e+001  1.265430e+002 
3346875000  -3.251470e+001  1.282887e+002 
3350000000  -3.185974e+001  1.272522e+002 
3353125000  -3.208688e+001  1.223815e+002 
3356250000  -3.176170e+001  1.150375e+002 
3359375000  -3.253545e+001  1.066453e+002 
3362500000  -3.386934e+001  1.014600e+002 
3365625000  -3.449211e+001  9.978713e+001 
3368750000  -3.547076e+001  9.833313e+001 
3371875000  -3.578874e+001  9.546444e+001 
3375000000  -3.749725e+001  9.296262e+001 
3378125000  -3.853809e+001  9.197069e+001 
3381250000  -4.004099e+001  9.898652e+001 
3384375000  -3.915368e+001  1.217750e+002 
3387500000  -3.604306e+001  1.066884e+002 
3390625000  -3.775823e+001  8.829681e+001 
3393750000  -3.959444e+001  9.274471e+001 
3396875000  -3.880287e+001  9.509000e+001 
3400000000  -3.865296e+001  8.904055e+001 
3403125000  -3.962188e+001  8.404902e+001 
3406250000  -4.076429e+001  8.661333e+001 
3409375000  -4.125253e+001  8.373305e+001 
3412500000  -4.202469e+001  8.452940e+001 
3415625000  -4.296324e+001  8.832397e+001 
3418750000  -4.301867e+001  9.326822e+001 
3421875000  -4.348783e+001  1.002261e+002 
3425000000  -4.256588e+001  1.035730e+002 
3428125000  -4.135408e+001  1.017051e+002 
3431250000  -4.169213e+001  9.855315e+001 
3434375000  -4.129071e+001  9.572134e+001 
3437500000  -4.184912e+001  9.339423e+001 
3440625000  -4.222223e+001  9.821464e+001 
3443750000  -4.087518e+001  9.905004e+001 
3446875000  -4.020893e+001  9.367838e+001 
3450000000  -3.979026e+001  8.514892e+001 
3453125000  -4.007950e+001  7.583755e+001 
3456250000  -4.146274e+001  7.081992e+001 
3459375000  -4.212163e+001  7.391937e+001 
3462500000  -4.278977e+001  7.374866e+001 
3465625000  -4.230584e+001  7.079137e+001 
3468750000  -4.301293e+001  6.829025e+001 
3471875000  -4.320084e+001  6.836666e+001 
3475000000  -4.307867e+001  6.443278e+001 
3478125000  -4.352692e+001  5.943810e+001 
3481250000  -4.444467e+001  6.028688e+001 
3484375000  -4.640374e+001  6.265301e+001 
3487500000  -4.563206e+001  6.659827e+001 
3490625000  -4.540955e+001  6.491247e+001 
3493750000  -4.608620e+001  6.252623e+001 
3496875000  -4.680880e+001  6.374204e+001 
3500000000  -4.831773e+001  7.063766e+001 
3503125000  -4.741156e+001  7.436701e+001 
3506250000  -4.670260e+001  7.587543e+001 
3509375000  -4.702845e+001  7.213170e+001 
3512500000  -4.721684e+001  6.775286e+001 
3515625000  -4.800623e+001  7.277367e+001 
3518750000  -4.844959e+001  7.902561e+001 
3521875000  -4.806973e+001  8.449883e+001 
3525000000  -4.833086e+001  8.442778e+001 
3528125000  -4.756204e+001  9.351968e+001 
3531250000  -4.575066e+001  9.497158e+001 
3534375000  -4.511081e+001  9.029889e+001 
3537500000  -4.521062e+001  8.585249e+001 
3540625000  -4.569032e+001  8.556536e+001 
3543750000  -4.595157e+001  8.857591e+001 
3546875000  -4.566785e+001  9.837033e+001 
3550000000  -4.285682e+001  1.034575e+002 
3553125000  -4.150921e+001  8.702734e+001 
3556250000  -4.273366e+001  8.114133e+001 
3559375000  -4.203931e+001  8.302782e+001 
3562500000  -4.129015e+001  7.663834e+001 
3565625000  -4.185507e+001  6.985258e+001 
3568750000  -4.193312e+001  7.340967e+001 
3571875000  -4.165076e+001  7.244206e+001 
3575000000  -4.107073e+001  6.789909e+001 
3578125000  -4.114564e+001  6.533453e+001 
3581250000  -4.158188e+001  6.510725e+001 
3584375000  -4.086432e+001  6.483208e+001 
3587500000  -3.981596e+001  5.828477e+001 
3590625000  -4.040686e+001  4.856063e+001 
3593750000  -4.136892e+001  4.653240e+001 
3596875000  -4.146159e+001  5.680804e+001 
3600000000  -3.985949e+001  5.257008e+001 
3603125000  -3.996703e+001  3.812355e+001 
3606250000  -4.032548e+001  3.556674e+001 
3609375000  -4.069709e+001  3.604346e+001 
3612500000  -4.119707e+001  3.369783e+001 
3615625000  -4.129768e+001  3.167542e+001 
3618750000  -4.187522e+001  3.141208e+001 
3621875000  -4.159716e+001  3.252658e+001 
3625000000  -4.187566e+001  3.269009e+001 
3628125000  -4.185645e+001  3.108752e+001 
3631250000  -4.120438e+001  2.777792e+001 
3634375000  -4.252166e+001  2.862520e+001 
3637500000  -4.209712e+001  3.399241e+001 
3640625000  -4.087368e+001  3.662876e+001 
3643750000  -4.067813e+001  2.892271e+001 
3646875000  -4.119455e+001  2.314093e+001 
3650000000  -4.192440e+001  2.282361e+001 
3653125000  -4.168684e+001  2.378835e+001 
3656250000  -4.178284e+001  2.197682e+001 
3659375000  -4.226916e+001  2.633027e+001 
3662500000  -4.142340e+001  2.633802e+001 
3665625000  -4.143119e+001  2.719890e+001 
3668750000  -4.038157e+001  2.804939e+001 
3671875000  -3.939516e+001  2.215175e+001 
3675000000  -3.998148e+001  1.549502e+001 
3678125000  -4.076635e+001  1.785020e+001 
3681250000  -3.982882e+001  1.951910e+001 
3684375000  -3.964412e+001  1.596894e+001 
3687500000  -4.016264e+001  1.664261e+001 
3690625000  -4.006573e+001  1.330665e+001 
3693750000  -4.043532e+001  1.600942e+001 
3696875000  -3.999533e+001  1.913531e+001 
3700000000  -3.906937e+001  1.662406e+001 
3703125000  -3.882670e+001  1.511310e+001 
3706250000  -3.940842e+001  1.564919e+001 
3709375000  -3.865337e+001  1.820121e+001 
3712500000  -3.739328e+001  1.903505e+001 
3715625000  -3.646301e+001  1.269154e+001 
3718750000  -3.582952e+001  1.061083e+001 
3721875000  -3.520421e+001  4.049289e+000 
3725000000  -3.514058e+001  -7.962111e-001 
3728125000  -3.541441e+001  -1.931433e+000 
3731250000  -3.480365e+001  -1.066975e+000 
3734375000  -3.372474e+001  -8.251010e+000 
3737500000  -3.425744e+001  -1.525033e+001 
3740625000  -3.497006e+001  -1.718871e+001 
3743750000  -3.469801e+001  -1.954088e+001 
3746875000  -3.455299e+001  -2.374572e+001 
3750000000  -3.506801e+001  -2.428514e+001 
3753125000  -3.475460e+001  -2.473162e+001 
3756250000  -3.457073e+001  -2.565182e+001 
3759375000  -3.435945e+001  -2.573775e+001 
3762500000  -3.379089e+001  -2.989367e+001 
3765625000  -3.444339e+001  -3.256971e+001 
3768750000  -3.426726e+001  -3.054126e+001 
3771875000  -3.259899e+001  -3.268825e+001 
3775000000  -3.238176e+001  -4.077544e+001 
3778125000  -3.269192e+001  -4.311446e+001 
3781250000  -3.248598e+001  -4.483426e+001 
3784375000  -3.243386e+001  -4.730828e+001 
3787500000  -3.176115e+001  -5.072139e+001 
3790625000  -3.227305e+001  -5.662178e+001 
3793750000  -3.246997e+001  -5.665231e+001 
3796875000  -3.147359e+001  -5.798603e+001 
3800000000  -3.008430e+001  -6.182467e+001 
3803125000  -3.081845e+001  -6.901068e+001 
3806250000  -3.146017e+001  -7.109831e+001 
3809375000  -3.110445e+001  -7.199692e+001 
3812500000  -3.049997e+001  -7.723058e+001 
3815625000  -3.112221e+001  -8.406274e+001 
3818750000  -3.196166e+001  -8.635453e+001 
3821875000  -3.213920e+001  -7.833056e+001 
3825000000  -3.014465e+001  -7.353996e+001 
3828125000  -2.891355e+001  -8.697810e+001 
3831250000  -2.936365e+001  -1.009317e+002 
3834375000  -3.072138e+001  -1.020298e+002 
3837500000  -3.159078e+001  -9.725037e+001 
3840625000  -3.048065e+001  -9.846858e+001 
3843750000  -2.927716e+001  -1.080739e+002 
3846875000  -2.998897e+001  -1.152394e+002 
3850000000  -3.135375e+001  -1.100090e+002 
3853125000  -3.041583e+001  -1.071754e+002 
3856250000  -3.042060e+001  -1.117083e+002 
3859375000  -2.976156e+001  -1.161400e+002 
3862500000  -2.930170e+001  -1.237926e+002 
3865625000  -2.949963e+001  -1.285507e+002 
3868750000  -2.964116e+001  -1.285488e+002 
3871875000  -2.888761e+001  -1.315521e+002 
3875000000  -2.898627e+001  -1.400375e+002 
3878125000  -3.001087e+001  -1.428240e+002 
3881250000  -3.006166e+001  -1.401996e+002 
3884375000  -2.956961e+001  -1.439500e+002 
3887500000  -2.968725e+001  -1.485358e+002 
3890625000  -3.027900e+001  -1.509403e+002 
3893750000  -3.072782e+001  -1.524413e+002 
3896875000  -3.075338e+001  -1.517291e+002 
3900000000  -3.115189e+001  -1.523663e+002 
3903125000  -3.066526e+001  -1.543928e+002 
3906250000  -3.043331e+001  -1.559272e+002 
3909375000  -2.972707e+001  -1.578910e+002 
3912500000  -2.969626e+001  -1.655814e+002 
3915625000  -3.092407e+001  -1.647339e+002 
3918750000  -3.099345e+001  -1.629247e+002 
3921875000  -3.058332e+001  -1.649771e+002 
3925000000  -2.988959e+001  -1.651202e+002 
3928125000  -2.908520e+001  -1.708634e+002 
3931250000  -2.952453e+001  -1.748272e+002 
3934375000  -2.977288e+001  -1.745893e+002 
3937500000  -2.995475e+001  -1.749900e+002 
3940625000  -3.044890e+001  -1.753444e+002 
3943750000  -2.945621e+001  -1.737400e+002 
3946875000  -2.821393e+001  -1.789115e+002 
3950000000  -2.863959e+001  1.735478e+002 
3953125000  -2.961971e+001  1.739336e+002 
3956250000  -2.884310e+001  1.765096e+002 
3959375000  -2.744898e+001  1.742985e+002 
3962500000  -2.690397e+001  1.702312e+002 
3965625000  -2.653543e+001  1.613594e+002 
3968750000  -2.752308e+001  1.542917e+002 
3971875000  -2.792195e+001  1.523522e+002 
3975000000  -2.717323e+001  1.510342e+002 
3978125000  -2.700248e+001  1.493747e+002 
3981250000  -2.671856e+001  1.452963e+002 
3984375000  -2.697137e+001  1.387629e+002 
3987500000  -2.749004e+001  1.367289e+002 
3990625000  -2.752930e+001  1.361692e+002 
3993750000  -2.769123e+001  1.323589e+002 
3996875000  -2.765596e+001  1.299043e+002 
4000000000  -2.776649e+001  1.277175e+002 
4003125000  -2.835350e+001  1.301815e+002 
4006250000  -2.697004e+001  1.302588e+002 
4009375000  -2.576574e+001  1.178321e+002 
4012500000  -2.676907e+001  1.105169e+002 
4015625000  -2.802120e+001  1.113082e+002 
4018750000  -2.832972e+001  1.137679e+002 
4021875000  -2.752777e+001  1.117332e+002 
4025000000  -2.726554e+001  1.072141e+002 
4028125000  -2.720660e+001  1.033689e+002 
4031250000  -2.767307e+001  1.000597e+002 
4034375000  -2.793968e+001  9.983410e+001 
4037500000  -2.750458e+001  1.021072e+002 
4040625000  -2.733623e+001  9.848453e+001 
4043750000  -2.772622e+001  9.805151e+001 
4046875000  -2.728229e+001  9.745469e+001 
4050000000  -2.680222e+001  9.185988e+001 
4053125000  -2.724785e+001  9.040809e+001 
4056250000  -2.782146e+001  9.415892e+001 
4059375000  -2.662597e+001  9.605118e+001 
4062500000  -2.527494e+001  9.129883e+001 
4065625000  -2.505969e+001  8.690023e+001 
4068750000  -2.480210e+001  8.260508e+001 
4071875000  -2.423107e+001  7.437333e+001 
4075000000  -2.453930e+001  6.826249e+001 
4078125000  -2.512639e+001  6.719121e+001 
4081250000  -2.460861e+001  6.522038e+001 
4084375000  -2.417190e+001  5.837534e+001 
4087500000  -2.452772e+001  5.217692e+001 
4090625000  -2.512375e+001  5.072132e+001 
4093750000  -2.494263e+001  5.149402e+001 
4096875000  -2.449905e+001  4.552193e+001 
4100000000  -2.516551e+001  3.866827e+001 
4103125000  -2.608237e+001  3.925541e+001 
4106250000  -2.595806e+001  4.397232e+001 
4109375000  -2.502464e+001  4.350002e+001 
4112500000  -2.449562e+001  3.664507e+001 
4115625000  -2.481473e+001  3.264299e+001 
4118750000  -2.490494e+001  2.974346e+001 
4121875000  -2.451369e+001  2.537550e+001 
4125000000  -2.484866e+001  2.005205e+001 
4128125000  -2.586707e+001  1.954019e+001 
4131250000  -2.561735e+001  2.789680e+001 
4134375000  -2.333528e+001  2.363151e+001 
4137500000  -2.308257e+001  4.996823e+000 
4140625000  -2.521899e+001  -2.469285e+000 
4143750000  -2.653341e+001  2.306160e+000 
4146875000  -2.622395e+001  9.839587e+000 
4150000000  -2.523664e+001  6.401425e+000 
4153125000  -2.509389e+001  4.039662e-001 
4156250000  -2.590460e+001  -2.324315e+000 
4159375000  -2.628224e+001  2.129428e+000 
4162500000  -2.517936e+001  6.670651e+000 
4165625000  -2.397216e+001  2.280092e+000 
4168750000  -2.341448e+001  -4.795546e+000 
4171875000  -2.346263e+001  -1.384798e+001 
4175000000  -2.400291e+001  -1.963967e+001 
4178125000  -2.461829e+001  -1.972554e+001 
4181250000  -2.446609e+001  -2.020520e+001 
4184375000  -2.435646e+001  -2.340966e+001 
4187500000  -2.443963e+001  -2.601571e+001 
4190625000  -2.416843e+001  -3.132276e+001 
4193750000  -2.498402e+001  -3.511184e+001 
4196875000  -2.565057e+001  -3.539233e+001 
4200000000  -2.647234e+001  -3.320163e+001 
4203125000  -2.661995e+001  -2.018859e+001 
4206250000  -2.319149e+001  -1.807763e+001 
4209375000  -2.202740e+001  -3.871803e+001 
4212500000  -2.387521e+001  -4.773772e+001 
4215625000  -2.487103e+001  -4.177162e+001 
4218750000  -2.364640e+001  -3.500339e+001 
4221875000  -2.136750e+001  -4.365246e+001 
4225000000  -2.254963e+001  -5.621645e+001 
4228125000  -2.327581e+001  -5.127422e+001 
4231250000  -2.173768e+001  -5.484230e+001 
4234375000  -2.163063e+001  -6.312729e+001 
4237500000  -2.125623e+001  -6.648360e+001 
4240625000  -2.118991e+001  -7.490230e+001 
4243750000  -2.214277e+001  -8.151394e+001 
4246875000  -2.299308e+001  -8.211804e+001 
4250000000  -2.312160e+001  -7.921096e+001 
4253125000  -2.249021e+001  -8.121124e+001 
4256250000  -2.284246e+001  -8.517313e+001 
4259375000  -2.254868e+001  -8.748182e+001 
4262500000  -2.257124e+001  -9.106480e+001 
4265625000  -2.279017e+001  -9.071462e+001 
4268750000  -2.187048e+001  -9.450597e+001 
4271875000  -2.161481e+001  -1.003109e+002 
4275000000  -2.105034e+001  -1.068877e+002 
4278125000  -2.163618e+001  -1.177692e+002 
4281250000  -2.346656e+001  -1.201181e+002 
4284375000  -2.312856e+001  -1.190597e+002 
4287500000  -2.393339e+001  -1.228227e+002 
4290625000  -2.521378e+001  -1.132827e+002 
4293750000  -2.322207e+001  -1.075335e+002 
4296875000  -2.186135e+001  -1.190793e+002 
4300000000  -2.270853e+001  -1.284938e+002 
4303125000  -2.380568e+001  -1.276375e+002 
4306250000  -2.331465e+001  -1.214140e+002 
4309375000  -2.187027e+001  -1.232548e+002 
4312500000  -2.177554e+001  -1.313910e+002 
4315625000  -2.198215e+001  -1.371301e+002 
4318750000  -2.228188e+001  -1.403115e+002 
4321875000  -2.245358e+001  -1.400170e+002 
4325000000  -2.192367e+001  -1.393870e+002 
4328125000  -2.138876e+001  -1.454284e+002 
4331250000  -2.132287e+001  -1.538008e+002 
4334375000  -2.172783e+001  -1.586564e+002 
4337500000  -2.254077e+001  -1.609820e+002 
4340625000  -2.313115e+001  -1.576492e+002 
4343750000  -2.254010e+001  -1.572370e+002 
4346875000  -2.215907e+001  -1.627822e+002 
4350000000  -2.213194e+001  -1.675471e+002 
4353125000  -2.220002e+001  -1.748868e+002 
4356250000  -2.397830e+001  -1.761753e+002 
4359375000  -2.461762e+001  -1.633004e+002 
4362500000  -2.198336e+001  -1.610047e+002 
4365625000  -2.024760e+001  -1.724541e+002 
4368750000  -2.094226e+001  1.757004e+002 
4371875000  -2.215348e+001  1.760377e+002 
4375000000  -2.184394e+001  1.773715e+002 
4378125000  -2.116163e+001  1.715231e+002 
4381250000  -2.133081e+001  1.658228e+002 
4384375000  -2.118121e+001  1.616999e+002 
4387500000  -2.189639e+001  1.557439e+002 
4390625000  -2.294886e+001  1.564558e+002 
4393750000  -2.227259e+001  1.590776e+002 
4396875000  -2.161733e+001  1.566115e+002 
4400000000  -2.109023e+001  1.498495e+002 
4403125000  -2.166747e+001  1.420015e+002 
4406250000  -2.254024e+001  1.409061e+002 
4409375000  -2.250193e+001  1.382008e+002 
4412500000  -2.351510e+001  1.357663e+002 
4415625000  -2.396645e+001  1.408316e+002 
4418750000  -2.272793e+001  1.453709e+002 
