!Agilent Technologies,E8363B,MY43030201,A.06.04.32
!Agilent E8363B: A.06.04.32
!Date: Tuesday, November 11, 2014 20:45:55
!Correction: S21(Response(S21)) 
!S1P File: Measurement: S21:
# Hz S  dB   R 50
3000000000  -2.652694e+001  1.583895e+002 
3003125000  -2.788804e+001  1.540915e+002 
3006250000  -2.795735e+001  1.510061e+002 
3009375000  -2.827679e+001  1.560155e+002 
3012500000  -2.781518e+001  1.561451e+002 
3015625000  -2.679905e+001  1.489435e+002 
3018750000  -2.767814e+001  1.477218e+002 
3021875000  -2.643689e+001  1.490861e+002 
3025000000  -2.515421e+001  1.461055e+002 
3028125000  -2.416524e+001  1.413863e+002 
3031250000  -2.314611e+001  1.303022e+002 
3034375000  -2.273799e+001  1.175194e+002 
3037500000  -2.306733e+001  1.053419e+002 
3040625000  -2.440474e+001  1.003262e+002 
3043750000  -2.516192e+001  9.596332e+001 
3046875000  -2.519871e+001  8.954035e+001 
3050000000  -2.696130e+001  8.248669e+001 
3053125000  -2.717812e+001  8.891750e+001 
3056250000  -2.641816e+001  9.176231e+001 
3059375000  -2.671300e+001  9.166462e+001 
3062500000  -2.526362e+001  8.784550e+001 
3065625000  -2.498524e+001  8.234228e+001 
3068750000  -2.478156e+001  7.560152e+001 
3071875000  -2.466449e+001  7.228391e+001 
3075000000  -2.470647e+001  6.870325e+001 
3078125000  -2.438868e+001  6.404600e+001 
3081250000  -2.499895e+001  5.999104e+001 
3084375000  -2.424245e+001  5.630009e+001 
3087500000  -2.413254e+001  5.263657e+001 
3090625000  -2.385990e+001  4.320942e+001 
3093750000  -2.421764e+001  3.501906e+001 
3096875000  -2.555651e+001  2.871768e+001 
3100000000  -2.569794e+001  2.742256e+001 
3103125000  -2.605107e+001  2.912618e+001 
3106250000  -2.580181e+001  2.540438e+001 
3109375000  -2.603779e+001  2.213934e+001 
3112500000  -2.613214e+001  2.103464e+001 
3115625000  -2.594164e+001  1.669011e+001 
3118750000  -2.643757e+001  1.782326e+001 
3121875000  -2.577526e+001  9.910186e+000 
3125000000  -2.686735e+001  6.188440e+000 
3128125000  -2.810648e+001  1.419699e+001 
3131250000  -2.602419e+001  1.482876e+001 
3134375000  -2.459407e+001  1.420568e+000 
3137500000  -2.524210e+001  -1.240311e+001 
3140625000  -2.696130e+001  -1.420141e+001 
3143750000  -2.789175e+001  -1.003626e+001 
3146875000  -2.753939e+001  -8.197510e+000 
3150000000  -2.651411e+001  -5.666159e+000 
3153125000  -2.649100e+001  -1.333663e+001 
3156250000  -2.746904e+001  -8.574579e+000 
3159375000  -2.593926e+001  -5.185993e+000 
3162500000  -2.389698e+001  -1.799440e+001 
3165625000  -2.478426e+001  -2.884943e+001 
3168750000  -2.519230e+001  -2.791730e+001 
3171875000  -2.425811e+001  -3.215545e+001 
3175000000  -2.486378e+001  -4.021256e+001 
3178125000  -2.469847e+001  -3.803528e+001 
3181250000  -2.348963e+001  -4.195110e+001 
3184375000  -2.266065e+001  -5.439250e+001 
3187500000  -2.375841e+001  -6.982577e+001 
3190625000  -2.662160e+001  -7.779329e+001 
3193750000  -2.722182e+001  -6.749696e+001 
3196875000  -2.673226e+001  -6.211294e+001 
3200000000  -2.595277e+001  -6.375023e+001 
3203125000  -2.502867e+001  -6.965513e+001 
3206250000  -2.534618e+001  -7.577254e+001 
3209375000  -2.485501e+001  -8.097575e+001 
3212500000  -2.489987e+001  -8.756154e+001 
3215625000  -2.509858e+001  -9.192176e+001 
3218750000  -2.585862e+001  -9.825491e+001 
3221875000  -2.692173e+001  -1.032704e+002 
3225000000  -2.651044e+001  -1.039176e+002 
3228125000  -2.673710e+001  -1.081713e+002 
3231250000  -2.749227e+001  -1.112453e+002 
3234375000  -2.739969e+001  -1.104159e+002 
3237500000  -2.741223e+001  -1.117646e+002 
3240625000  -2.708731e+001  -1.134150e+002 
3243750000  -2.671141e+001  -1.200617e+002 
3246875000  -2.718633e+001  -1.264441e+002 
3250000000  -2.768075e+001  -1.282257e+002 
3253125000  -2.781257e+001  -1.302187e+002 
3256250000  -2.768842e+001  -1.361241e+002 
3259375000  -2.796268e+001  -1.436667e+002 
3262500000  -2.923037e+001  -1.465455e+002 
3265625000  -2.992079e+001  -1.433027e+002 
3268750000  -2.987820e+001  -1.407388e+002 
3271875000  -2.964619e+001  -1.393829e+002 
3275000000  -2.861833e+001  -1.442444e+002 
3278125000  -2.903596e+001  -1.506078e+002 
3281250000  -2.938302e+001  -1.491453e+002 
3284375000  -2.894614e+001  -1.549115e+002 
3287500000  -2.905558e+001  -1.575082e+002 
3290625000  -2.951060e+001  -1.615206e+002 
3293750000  -2.912285e+001  -1.671246e+002 
3296875000  -3.014365e+001  -1.672625e+002 
3300000000  -3.010563e+001  -1.662552e+002 
3303125000  -2.900132e+001  -1.698677e+002 
3306250000  -2.867947e+001  -1.765800e+002 
3309375000  -2.849748e+001  1.784883e+002 
3312500000  -2.850626e+001  1.686935e+002 
3315625000  -2.949460e+001  1.601359e+002 
3318750000  -3.079247e+001  1.574050e+002 
3321875000  -3.197858e+001  1.570258e+002 
3325000000  -3.263111e+001  1.617932e+002 
3328125000  -3.254390e+001  1.640742e+002 
3331250000  -3.140778e+001  1.714573e+002 
3334375000  -2.878893e+001  1.622001e+002 
3337500000  -2.876050e+001  1.440063e+002 
3340625000  -3.008086e+001  1.327325e+002 
3343750000  -3.197686e+001  1.310055e+002 
3346875000  -3.260556e+001  1.327579e+002 
3350000000  -3.198264e+001  1.324111e+002 
3353125000  -3.206448e+001  1.271139e+002 
3356250000  -3.174905e+001  1.199241e+002 
3359375000  -3.257995e+001  1.108904e+002 
3362500000  -3.395947e+001  1.060154e+002 
3365625000  -3.451575e+001  1.039600e+002 
3368750000  -3.543081e+001  1.026441e+002 
3371875000  -3.567455e+001  9.930827e+001 
3375000000  -3.740197e+001  9.711471e+001 
3378125000  -3.850043e+001  9.684001e+001 
3381250000  -3.983389e+001  1.048806e+002 
3384375000  -3.920560e+001  1.261511e+002 
3387500000  -3.600388e+001  1.118013e+002 
3390625000  -3.769468e+001  9.205450e+001 
3393750000  -3.955231e+001  9.657771e+001 
3396875000  -3.877138e+001  1.004501e+002 
3400000000  -3.884263e+001  9.283083e+001 
3403125000  -3.969484e+001  8.826198e+001 
3406250000  -4.060178e+001  9.017050e+001 
3409375000  -4.114597e+001  8.787966e+001 
3412500000  -4.225482e+001  8.805305e+001 
3415625000  -4.309013e+001  9.388259e+001 
3418750000  -4.335999e+001  9.682314e+001 
3421875000  -4.370757e+001  1.029540e+002 
3425000000  -4.298731e+001  1.078983e+002 
3428125000  -4.186222e+001  1.059969e+002 
3431250000  -4.188894e+001  1.027943e+002 
3434375000  -4.152288e+001  9.903412e+001 
3437500000  -4.216376e+001  9.741670e+001 
3440625000  -4.227599e+001  1.007750e+002 
3443750000  -4.128413e+001  1.033517e+002 
3446875000  -4.035028e+001  9.789406e+001 
3450000000  -3.994321e+001  8.839331e+001 
3453125000  -4.033478e+001  8.069632e+001 
3456250000  -4.165453e+001  7.637937e+001 
3459375000  -4.259857e+001  7.767008e+001 
3462500000  -4.279479e+001  7.860834e+001 
3465625000  -4.245868e+001  7.514319e+001 
3468750000  -4.306528e+001  7.227288e+001 
3471875000  -4.331812e+001  7.118899e+001 
3475000000  -4.304483e+001  6.740997e+001 
3478125000  -4.347861e+001  6.421550e+001 
3481250000  -4.471106e+001  6.276680e+001 
3484375000  -4.634164e+001  6.846182e+001 
3487500000  -4.581621e+001  7.021584e+001 
3490625000  -4.562835e+001  6.820585e+001 
3493750000  -4.588887e+001  6.556244e+001 
3496875000  -4.726695e+001  6.764729e+001 
3500000000  -4.872183e+001  7.589094e+001 
3503125000  -4.831959e+001  7.871409e+001 
3506250000  -4.698734e+001  7.812402e+001 
3509375000  -4.715019e+001  7.670053e+001 
3512500000  -4.807847e+001  7.926115e+001 
3515625000  -4.795741e+001  7.951341e+001 
3518750000  -4.861813e+001  8.899556e+001 
3521875000  -4.799542e+001  9.141301e+001 
3525000000  -4.804971e+001  9.119505e+001 
3528125000  -4.758051e+001  1.031937e+002 
3531250000  -4.590674e+001  1.018366e+002 
3534375000  -4.534404e+001  9.543309e+001 
3537500000  -4.534213e+001  9.075837e+001 
3540625000  -4.547505e+001  9.294343e+001 
3543750000  -4.610032e+001  9.070523e+001 
3546875000  -4.592983e+001  1.046823e+002 
3550000000  -4.336978e+001  1.110155e+002 
3553125000  -4.165393e+001  9.308901e+001 
3556250000  -4.254734e+001  8.581345e+001 
3559375000  -4.248645e+001  8.950994e+001 
3562500000  -4.117399e+001  8.265936e+001 
3565625000  -4.192503e+001  7.453487e+001 
3568750000  -4.176756e+001  7.806208e+001 
3571875000  -4.175180e+001  7.750987e+001 
3575000000  -4.124170e+001  7.360667e+001 
3578125000  -4.162684e+001  6.898875e+001 
3581250000  -4.166936e+001  6.980381e+001 
3584375000  -4.088315e+001  6.891597e+001 
3587500000  -4.001012e+001  6.309418e+001 
3590625000  -4.032848e+001  5.521763e+001 
3593750000  -4.123580e+001  5.303651e+001 
3596875000  -4.171475e+001  6.030704e+001 
3600000000  -3.999195e+001  5.904854e+001 
3603125000  -3.994200e+001  4.597694e+001 
3606250000  -4.065668e+001  4.324150e+001 
3609375000  -4.103149e+001  4.066674e+001 
3612500000  -4.158012e+001  4.146808e+001 
3615625000  -4.134643e+001  3.852845e+001 
3618750000  -4.160909e+001  3.920286e+001 
3621875000  -4.160142e+001  3.947580e+001 
3625000000  -4.182225e+001  3.923229e+001 
3628125000  -4.170811e+001  4.003326e+001 
3631250000  -4.129774e+001  3.464147e+001 
3634375000  -4.234787e+001  3.492569e+001 
3637500000  -4.214042e+001  4.181977e+001 
3640625000  -4.101212e+001  4.261034e+001 
3643750000  -4.083785e+001  3.528124e+001 
3646875000  -4.103922e+001  3.040426e+001 
3650000000  -4.175771e+001  3.085716e+001 
3653125000  -4.134274e+001  3.028104e+001 
3656250000  -4.177309e+001  2.852818e+001 
3659375000  -4.222099e+001  3.051347e+001 
3662500000  -4.147179e+001  3.138768e+001 
3665625000  -4.146959e+001  3.152959e+001 
3668750000  -4.037277e+001  3.370947e+001 
3671875000  -3.932865e+001  2.965487e+001 
3675000000  -3.978205e+001  2.351565e+001 
3678125000  -4.037086e+001  2.301066e+001 
3681250000  -3.977016e+001  2.440081e+001 
3684375000  -3.978765e+001  2.310979e+001 
3687500000  -3.978556e+001  2.243221e+001 
3690625000  -3.971588e+001  1.947832e+001 
3693750000  -4.032632e+001  2.262511e+001 
3696875000  -4.005499e+001  2.588191e+001 
3700000000  -3.889211e+001  2.248321e+001 
3703125000  -3.863622e+001  1.944732e+001 
3706250000  -3.942571e+001  2.164122e+001 
3709375000  -3.869252e+001  2.480243e+001 
3712500000  -3.754567e+001  2.320138e+001 
3715625000  -3.643906e+001  1.897823e+001 
3718750000  -3.585963e+001  1.681219e+001 
3721875000  -3.527169e+001  1.086628e+001 
3725000000  -3.521590e+001  5.456810e+000 
3728125000  -3.548465e+001  5.453523e+000 
3731250000  -3.475404e+001  4.715060e+000 
3734375000  -3.362303e+001  -1.633074e+000 
3737500000  -3.416098e+001  -8.982102e+000 
3740625000  -3.485038e+001  -1.187865e+001 
3743750000  -3.451969e+001  -1.399026e+001 
3746875000  -3.451437e+001  -1.847077e+001 
3750000000  -3.491568e+001  -1.882739e+001 
3753125000  -3.446793e+001  -1.898454e+001 
3756250000  -3.443565e+001  -1.971640e+001 
3759375000  -3.421699e+001  -1.995142e+001 
3762500000  -3.371832e+001  -2.425896e+001 
3765625000  -3.414318e+001  -2.744529e+001 
3768750000  -3.417184e+001  -2.435057e+001 
3771875000  -3.255011e+001  -2.743554e+001 
3775000000  -3.214281e+001  -3.514995e+001 
3778125000  -3.258508e+001  -3.654893e+001 
3781250000  -3.237439e+001  -3.963303e+001 
3784375000  -3.222631e+001  -4.132995e+001 
3787500000  -3.163692e+001  -4.489473e+001 
3790625000  -3.222750e+001  -5.085147e+001 
3793750000  -3.237352e+001  -5.168672e+001 
3796875000  -3.144911e+001  -5.251974e+001 
3800000000  -3.005168e+001  -5.647573e+001 
3803125000  -3.072069e+001  -6.359143e+001 
3806250000  -3.137896e+001  -6.532462e+001 
3809375000  -3.114557e+001  -6.682245e+001 
3812500000  -3.040510e+001  -7.164372e+001 
3815625000  -3.106769e+001  -7.821669e+001 
3818750000  -3.184981e+001  -8.073000e+001 
3821875000  -3.212056e+001  -7.275433e+001 
3825000000  -3.022992e+001  -6.705779e+001 
3828125000  -2.883599e+001  -8.056091e+001 
3831250000  -2.932170e+001  -9.562522e+001 
3834375000  -3.053117e+001  -9.642917e+001 
3837500000  -3.149554e+001  -9.161370e+001 
3840625000  -3.047077e+001  -9.231149e+001 
3843750000  -2.926408e+001  -1.020363e+002 
3846875000  -2.996346e+001  -1.093734e+002 
3850000000  -3.121600e+001  -1.045481e+002 
3853125000  -3.040032e+001  -1.006304e+002 
3856250000  -3.029363e+001  -1.064947e+002 
3859375000  -2.978492e+001  -1.108120e+002 
3862500000  -2.925444e+001  -1.175843e+002 
3865625000  -2.951959e+001  -1.223217e+002 
3868750000  -2.955243e+001  -1.229118e+002 
3871875000  -2.882613e+001  -1.254223e+002 
3875000000  -2.894249e+001  -1.341019e+002 
3878125000  -2.993410e+001  -1.377550e+002 
3881250000  -3.001506e+001  -1.339643e+002 
3884375000  -2.950780e+001  -1.384252e+002 
3887500000  -2.960420e+001  -1.426090e+002 
3890625000  -3.012119e+001  -1.450178e+002 
3893750000  -3.060188e+001  -1.470889e+002 
3896875000  -3.063845e+001  -1.459636e+002 
3900000000  -3.088945e+001  -1.464102e+002 
3903125000  -3.056855e+001  -1.487659e+002 
3906250000  -3.031516e+001  -1.502052e+002 
3909375000  -2.964105e+001  -1.524267e+002 
3912500000  -2.966339e+001  -1.598685e+002 
3915625000  -3.081381e+001  -1.591736e+002 
3918750000  -3.095418e+001  -1.568989e+002 
3921875000  -3.053129e+001  -1.588979e+002 
3925000000  -2.981156e+001  -1.593598e+002 
3928125000  -2.915752e+001  -1.651352e+002 
3931250000  -2.952198e+001  -1.691179e+002 
3934375000  -2.971684e+001  -1.685530e+002 
3937500000  -2.982979e+001  -1.698296e+002 
3940625000  -3.027985e+001  -1.688818e+002 
3943750000  -2.939566e+001  -1.676293e+002 
3946875000  -2.821632e+001  -1.731310e+002 
3950000000  -2.860036e+001  1.798530e+002 
3953125000  -2.941378e+001  1.796792e+002 
3956250000  -2.874019e+001  -1.778322e+002 
3959375000  -2.744663e+001  1.794588e+002 
3962500000  -2.696692e+001  1.757216e+002 
3965625000  -2.654815e+001  1.667093e+002 
3968750000  -2.742019e+001  1.602548e+002 
3971875000  -2.785256e+001  1.587992e+002 
3975000000  -2.713763e+001  1.568454e+002 
3978125000  -2.697005e+001  1.557897e+002 
3981250000  -2.670226e+001  1.511397e+002 
3984375000  -2.692821e+001  1.452294e+002 
3987500000  -2.742024e+001  1.424622e+002 
3990625000  -2.742360e+001  1.411098e+002 
3993750000  -2.759075e+001  1.381528e+002 
3996875000  -2.759616e+001  1.357902e+002 
4000000000  -2.765216e+001  1.336661e+002 
4003125000  -2.827185e+001  1.356530e+002 
4006250000  -2.693272e+001  1.361588e+002 
4009375000  -2.568089e+001  1.241285e+002 
4012500000  -2.673707e+001  1.166190e+002 
4015625000  -2.797665e+001  1.171816e+002 
4018750000  -2.822337e+001  1.198141e+002 
4021875000  -2.750140e+001  1.180242e+002 
4025000000  -2.717436e+001  1.131267e+002 
4028125000  -2.711321e+001  1.090798e+002 
4031250000  -2.762063e+001  1.060500e+002 
4034375000  -2.789886e+001  1.060338e+002 
4037500000  -2.740066e+001  1.077059e+002 
4040625000  -2.726963e+001  1.044961e+002 
4043750000  -2.760694e+001  1.039480e+002 
4046875000  -2.718549e+001  1.034907e+002 
4050000000  -2.674461e+001  9.789653e+001 
4053125000  -2.715584e+001  9.624834e+001 
4056250000  -2.775498e+001  9.965630e+001 
4059375000  -2.664211e+001  1.017922e+002 
4062500000  -2.520543e+001  9.711021e+001 
4065625000  -2.505788e+001  9.333226e+001 
4068750000  -2.478971e+001  8.844274e+001 
4071875000  -2.415783e+001  8.059467e+001 
4075000000  -2.449443e+001  7.403089e+001 
4078125000  -2.501805e+001  7.306812e+001 
4081250000  -2.454656e+001  7.124564e+001 
4084375000  -2.412328e+001  6.468161e+001 
4087500000  -2.447295e+001  5.825157e+001 
4090625000  -2.506489e+001  5.710867e+001 
4093750000  -2.492123e+001  5.746298e+001 
4096875000  -2.444110e+001  5.210112e+001 
4100000000  -2.512440e+001  4.487780e+001 
4103125000  -2.594806e+001  4.550214e+001 
4106250000  -2.589505e+001  4.999965e+001 
4109375000  -2.502134e+001  4.962318e+001 
4112500000  -2.447569e+001  4.307567e+001 
4115625000  -2.473470e+001  3.870429e+001 
4118750000  -2.485140e+001  3.599215e+001 
4121875000  -2.445631e+001  3.154650e+001 
4125000000  -2.480734e+001  2.631280e+001 
4128125000  -2.577376e+001  2.587149e+001 
4131250000  -2.555495e+001  3.372091e+001 
4134375000  -2.327297e+001  2.976491e+001 
4137500000  -2.303837e+001  1.113520e+001 
4140625000  -2.510856e+001  3.686076e+000 
4143750000  -2.649660e+001  7.928672e+000 
4146875000  -2.618948e+001  1.594207e+001 
4150000000  -2.517348e+001  1.310888e+001 
4153125000  -2.502111e+001  6.674431e+000 
4156250000  -2.595033e+001  3.754557e+000 
4159375000  -2.622775e+001  8.155887e+000 
4162500000  -2.512849e+001  1.250272e+001 
4165625000  -2.392807e+001  8.519756e+000 
4168750000  -2.337256e+001  1.314533e+000 
4171875000  -2.331172e+001  -7.863812e+000 
4175000000  -2.392737e+001  -1.377387e+001 
4178125000  -2.452713e+001  -1.352581e+001 
4181250000  -2.443285e+001  -1.384124e+001 
4184375000  -2.431409e+001  -1.697470e+001 
4187500000  -2.435735e+001  -1.933785e+001 
4190625000  -2.411975e+001  -2.491247e+001 
4193750000  -2.487441e+001  -2.887399e+001 
4196875000  -2.556749e+001  -2.928122e+001 
4200000000  -2.632094e+001  -2.728471e+001 
4203125000  -2.658084e+001  -1.481414e+001 
4206250000  -2.324090e+001  -1.150670e+001 
4209375000  -2.197309e+001  -3.168968e+001 
4212500000  -2.377146e+001  -4.136286e+001 
4215625000  -2.485637e+001  -3.559871e+001 
4218750000  -2.357099e+001  -2.832694e+001 
4221875000  -2.126645e+001  -3.728102e+001 
4225000000  -2.244983e+001  -5.015156e+001 
4228125000  -2.319525e+001  -4.504236e+001 
4231250000  -2.166981e+001  -4.855573e+001 
4234375000  -2.158940e+001  -5.681376e+001 
4237500000  -2.113079e+001  -6.040725e+001 
4240625000  -2.113431e+001  -6.873174e+001 
4243750000  -2.201616e+001  -7.515340e+001 
4246875000  -2.291474e+001  -7.573327e+001 
4250000000  -2.301981e+001  -7.263720e+001 
4253125000  -2.240291e+001  -7.478686e+001 
4256250000  -2.265651e+001  -7.879542e+001 
4259375000  -2.249595e+001  -8.133892e+001 
4262500000  -2.250021e+001  -8.447265e+001 
4265625000  -2.268166e+001  -8.431131e+001 
4268750000  -2.184894e+001  -8.835977e+001 
4271875000  -2.154364e+001  -9.378317e+001 
4275000000  -2.093116e+001  -1.003988e+002 
4278125000  -2.150050e+001  -1.114967e+002 
4281250000  -2.333487e+001  -1.137486e+002 
4284375000  -2.303834e+001  -1.127235e+002 
4287500000  -2.371146e+001  -1.165107e+002 
4290625000  -2.507599e+001  -1.076396e+002 
4293750000  -2.314222e+001  -1.010806e+002 
4296875000  -2.173424e+001  -1.124292e+002 
4300000000  -2.254505e+001  -1.216916e+002 
4303125000  -2.369378e+001  -1.210702e+002 
4306250000  -2.321366e+001  -1.150050e+002 
4309375000  -2.178766e+001  -1.165296e+002 
4312500000  -2.166488e+001  -1.247684e+002 
4315625000  -2.188773e+001  -1.306793e+002 
4318750000  -2.216878e+001  -1.343305e+002 
4321875000  -2.235869e+001  -1.339188e+002 
4325000000  -2.181426e+001  -1.331719e+002 
4328125000  -2.129194e+001  -1.393010e+002 
4331250000  -2.123331e+001  -1.474447e+002 
4334375000  -2.161867e+001  -1.523274e+002 
4337500000  -2.241865e+001  -1.544810e+002 
4340625000  -2.299235e+001  -1.515846e+002 
4343750000  -2.248252e+001  -1.507454e+002 
4346875000  -2.209498e+001  -1.563298e+002 
4350000000  -2.203496e+001  -1.609745e+002 
4353125000  -2.202911e+001  -1.684784e+002 
4356250000  -2.371139e+001  -1.697896e+002 
4359375000  -2.445370e+001  -1.571611e+002 
4362500000  -2.185915e+001  -1.548065e+002 
4365625000  -2.016811e+001  -1.656040e+002 
4368750000  -2.076001e+001  -1.782409e+002 
4371875000  -2.206071e+001  -1.777722e+002 
4375000000  -2.171115e+001  -1.760732e+002 
4378125000  -2.112809e+001  1.778678e+002 
4381250000  -2.127194e+001  1.725550e+002 
4384375000  -2.108198e+001  1.680372e+002 
4387500000  -2.173367e+001  1.621234e+002 
4390625000  -2.284736e+001  1.628853e+002 
4393750000  -2.208584e+001  1.649175e+002 
4396875000  -2.148057e+001  1.629405e+002 
4400000000  -2.099979e+001  1.559704e+002 
4403125000  -2.151511e+001  1.484767e+002 
4406250000  -2.236729e+001  1.468676e+002 
4409375000  -2.234514e+001  1.447850e+002 
4412500000  -2.336038e+001  1.419524e+002 
4415625000  -2.380160e+001  1.466211e+002 
4418750000  -2.263835e+001  1.513210e+002 
