!Agilent Technologies,E8363B,MY43030201,A.06.04.32
!Agilent E8363B: A.06.04.32
!Date: Tuesday, November 11, 2014 20:44:05
!Correction: S21(Response(S21)) 
!S1P File: Measurement: S21:
# Hz S  dB   R 50
3000000000  -2.652001e+001  1.589376e+002 
3003125000  -2.788041e+001  1.547289e+002 
3006250000  -2.794777e+001  1.515396e+002 
3009375000  -2.830719e+001  1.566602e+002 
3012500000  -2.782432e+001  1.564007e+002 
3015625000  -2.678679e+001  1.493630e+002 
3018750000  -2.766794e+001  1.482391e+002 
3021875000  -2.645645e+001  1.496042e+002 
3025000000  -2.511691e+001  1.468227e+002 
3028125000  -2.414829e+001  1.420982e+002 
3031250000  -2.313293e+001  1.309361e+002 
3034375000  -2.275393e+001  1.180083e+002 
3037500000  -2.304109e+001  1.060361e+002 
3040625000  -2.435921e+001  1.010007e+002 
3043750000  -2.510305e+001  9.660154e+001 
3046875000  -2.519264e+001  9.014305e+001 
3050000000  -2.694201e+001  8.289027e+001 
3053125000  -2.716702e+001  8.956292e+001 
3056250000  -2.637980e+001  9.256319e+001 
3059375000  -2.673055e+001  9.206693e+001 
3062500000  -2.529177e+001  8.809293e+001 
3065625000  -2.500756e+001  8.301461e+001 
3068750000  -2.469568e+001  7.603119e+001 
3071875000  -2.464791e+001  7.289856e+001 
3075000000  -2.465417e+001  6.907835e+001 
3078125000  -2.436106e+001  6.460647e+001 
3081250000  -2.498990e+001  6.050851e+001 
3084375000  -2.427382e+001  5.673311e+001 
3087500000  -2.411892e+001  5.339307e+001 
3090625000  -2.390096e+001  4.381207e+001 
3093750000  -2.421869e+001  3.594431e+001 
3096875000  -2.553376e+001  2.944881e+001 
3100000000  -2.571167e+001  2.811634e+001 
3103125000  -2.608725e+001  2.948737e+001 
3106250000  -2.582422e+001  2.610358e+001 
3109375000  -2.603108e+001  2.268071e+001 
3112500000  -2.619251e+001  2.184853e+001 
3115625000  -2.595762e+001  1.725953e+001 
3118750000  -2.645031e+001  1.886305e+001 
3121875000  -2.580774e+001  1.087211e+001 
3125000000  -2.687396e+001  7.052081e+000 
3128125000  -2.819197e+001  1.474845e+001 
3131250000  -2.604202e+001  1.574185e+001 
3134375000  -2.465096e+001  2.483186e+000 
3137500000  -2.526870e+001  -1.159340e+001 
3140625000  -2.693060e+001  -1.368209e+001 
3143750000  -2.797283e+001  -9.247490e+000 
3146875000  -2.755493e+001  -7.357142e+000 
3150000000  -2.652177e+001  -4.881886e+000 
3153125000  -2.650445e+001  -1.283852e+001 
3156250000  -2.751143e+001  -7.576854e+000 
3159375000  -2.596384e+001  -4.472754e+000 
3162500000  -2.386922e+001  -1.709826e+001 
3165625000  -2.478555e+001  -2.824299e+001 
3168750000  -2.527331e+001  -2.753252e+001 
3171875000  -2.429722e+001  -3.139622e+001 
3175000000  -2.489550e+001  -3.917799e+001 
3178125000  -2.474278e+001  -3.759655e+001 
3181250000  -2.356271e+001  -4.134850e+001 
3184375000  -2.269398e+001  -5.356585e+001 
3187500000  -2.376072e+001  -6.880367e+001 
3190625000  -2.662898e+001  -7.699673e+001 
3193750000  -2.725607e+001  -6.728323e+001 
3196875000  -2.679295e+001  -6.156993e+001 
3200000000  -2.599113e+001  -6.341584e+001 
3203125000  -2.508176e+001  -6.886531e+001 
3206250000  -2.532317e+001  -7.527101e+001 
3209375000  -2.490053e+001  -8.011031e+001 
3212500000  -2.498765e+001  -8.653624e+001 
3215625000  -2.511339e+001  -9.121409e+001 
3218750000  -2.591493e+001  -9.754971e+001 
3221875000  -2.692068e+001  -1.026684e+002 
3225000000  -2.654727e+001  -1.029163e+002 
3228125000  -2.678681e+001  -1.073375e+002 
3231250000  -2.751321e+001  -1.107252e+002 
3234375000  -2.739975e+001  -1.095239e+002 
3237500000  -2.750150e+001  -1.111863e+002 
3240625000  -2.718637e+001  -1.124774e+002 
3243750000  -2.675668e+001  -1.189777e+002 
3246875000  -2.724179e+001  -1.259268e+002 
3250000000  -2.776532e+001  -1.275149e+002 
3253125000  -2.786835e+001  -1.291492e+002 
3256250000  -2.773786e+001  -1.352859e+002 
3259375000  -2.801298e+001  -1.428145e+002 
3262500000  -2.932215e+001  -1.460599e+002 
3265625000  -3.002036e+001  -1.427752e+002 
3268750000  -2.999010e+001  -1.399557e+002 
3271875000  -2.977615e+001  -1.385040e+002 
3275000000  -2.866267e+001  -1.434166e+002 
3278125000  -2.913212e+001  -1.500493e+002 
3281250000  -2.939262e+001  -1.477358e+002 
3284375000  -2.899967e+001  -1.535396e+002 
3287500000  -2.910226e+001  -1.569663e+002 
3290625000  -2.961131e+001  -1.611984e+002 
3293750000  -2.926396e+001  -1.666760e+002 
3296875000  -3.022552e+001  -1.665190e+002 
3300000000  -3.022980e+001  -1.657690e+002 
3303125000  -2.905034e+001  -1.693761e+002 
3306250000  -2.881975e+001  -1.759799e+002 
3309375000  -2.857313e+001  1.796272e+002 
3312500000  -2.859081e+001  1.690038e+002 
3315625000  -2.955556e+001  1.606496e+002 
3318750000  -3.095032e+001  1.581812e+002 
3321875000  -3.213911e+001  1.583622e+002 
3325000000  -3.280955e+001  1.618149e+002 
3328125000  -3.263741e+001  1.644009e+002 
3331250000  -3.147392e+001  1.723895e+002 
3334375000  -2.890785e+001  1.629147e+002 
3337500000  -2.885617e+001  1.448403e+002 
3340625000  -3.016478e+001  1.334926e+002 
3343750000  -3.211329e+001  1.316603e+002 
3346875000  -3.279782e+001  1.335252e+002 
3350000000  -3.208184e+001  1.323577e+002 
3353125000  -3.220855e+001  1.276927e+002 
3356250000  -3.186857e+001  1.201947e+002 
3359375000  -3.276181e+001  1.121111e+002 
3362500000  -3.407598e+001  1.066383e+002 
3365625000  -3.461802e+001  1.047962e+002 
3368750000  -3.565937e+001  1.031192e+002 
3371875000  -3.610004e+001  9.968266e+001 
3375000000  -3.759874e+001  9.769721e+001 
3378125000  -3.867154e+001  9.796123e+001 
3381250000  -4.011042e+001  1.044426e+002 
3384375000  -3.954055e+001  1.250914e+002 
3387500000  -3.622751e+001  1.120997e+002 
3390625000  -3.815738e+001  9.343479e+001 
3393750000  -4.011929e+001  9.704751e+001 
3396875000  -3.930950e+001  1.006281e+002 
3400000000  -3.895248e+001  9.313739e+001 
3403125000  -4.008610e+001  9.044456e+001 
3406250000  -4.074197e+001  9.189542e+001 
3409375000  -4.172853e+001  8.857361e+001 
3412500000  -4.279820e+001  8.831245e+001 
3415625000  -4.351608e+001  9.492434e+001 
3418750000  -4.352945e+001  9.848084e+001 
3421875000  -4.390981e+001  1.042941e+002 
3425000000  -4.309512e+001  1.092191e+002 
3428125000  -4.169313e+001  1.075653e+002 
3431250000  -4.211114e+001  1.045376e+002 
3434375000  -4.165981e+001  1.019882e+002 
3437500000  -4.243044e+001  1.008248e+002 
3440625000  -4.274327e+001  1.039259e+002 
3443750000  -4.129607e+001  1.043075e+002 
3446875000  -4.036103e+001  9.949375e+001 
3450000000  -4.041831e+001  9.061038e+001 
3453125000  -4.071502e+001  8.260715e+001 
3456250000  -4.179198e+001  7.905318e+001 
3459375000  -4.267034e+001  8.038377e+001 
3462500000  -4.306951e+001  8.139360e+001 
3465625000  -4.287211e+001  7.589259e+001 
3468750000  -4.330505e+001  7.462552e+001 
3471875000  -4.308410e+001  7.545644e+001 
3475000000  -4.364059e+001  6.834715e+001 
3478125000  -4.430633e+001  6.565781e+001 
3481250000  -4.521073e+001  6.646264e+001 
3484375000  -4.673149e+001  7.108604e+001 
3487500000  -4.635780e+001  7.520708e+001 
3490625000  -4.577566e+001  6.947258e+001 
3493750000  -4.664385e+001  6.828820e+001 
3496875000  -4.720931e+001  7.389165e+001 
3500000000  -4.930077e+001  7.895273e+001 
3503125000  -4.828571e+001  8.519821e+001 
3506250000  -4.745719e+001  8.314783e+001 
3509375000  -4.731907e+001  8.462099e+001 
3512500000  -4.810210e+001  8.244885e+001 
3515625000  -4.833287e+001  8.579064e+001 
3518750000  -4.809159e+001  8.930777e+001 
3521875000  -4.757792e+001  9.451352e+001 
3525000000  -4.769314e+001  9.330573e+001 
3528125000  -4.800654e+001  1.105881e+002 
3531250000  -4.631572e+001  1.081630e+002 
3534375000  -4.484408e+001  9.678317e+001 
3537500000  -4.538113e+001  9.503490e+001 
3540625000  -4.537694e+001  9.260459e+001 
3543750000  -4.654580e+001  9.673653e+001 
3546875000  -4.546905e+001  1.090525e+002 
3550000000  -4.312441e+001  1.115489e+002 
3553125000  -4.176300e+001  9.479023e+001 
3556250000  -4.275284e+001  8.910017e+001 
3559375000  -4.220237e+001  9.259544e+001 
3562500000  -4.096988e+001  8.438248e+001 
3565625000  -4.186934e+001  7.585979e+001 
3568750000  -4.198733e+001  8.042343e+001 
3571875000  -4.154782e+001  8.164334e+001 
3575000000  -4.106358e+001  7.643857e+001 
3578125000  -4.166701e+001  7.132402e+001 
3581250000  -4.151230e+001  7.344912e+001 
3584375000  -4.070443e+001  7.257104e+001 
3587500000  -3.985119e+001  6.694520e+001 
3590625000  -4.013348e+001  5.635382e+001 
3593750000  -4.135089e+001  5.504740e+001 
3596875000  -4.132005e+001  6.438336e+001 
3600000000  -3.960289e+001  6.024938e+001 
3603125000  -3.983264e+001  4.732473e+001 
3606250000  -4.072522e+001  4.538086e+001 
3609375000  -4.105306e+001  4.410674e+001 
3612500000  -4.126729e+001  4.227468e+001 
3615625000  -4.119232e+001  4.071774e+001 
3618750000  -4.194408e+001  4.049405e+001 
3621875000  -4.165495e+001  4.120461e+001 
3625000000  -4.189885e+001  4.006718e+001 
3628125000  -4.173623e+001  4.172918e+001 
3631250000  -4.145544e+001  3.591426e+001 
3634375000  -4.249694e+001  3.772165e+001 
3637500000  -4.215328e+001  4.198664e+001 
3640625000  -4.108368e+001  4.462982e+001 
3643750000  -4.069610e+001  3.678171e+001 
3646875000  -4.137825e+001  3.364888e+001 
3650000000  -4.175694e+001  3.213331e+001 
3653125000  -4.164820e+001  3.332707e+001 
3656250000  -4.190351e+001  3.119311e+001 
3659375000  -4.209120e+001  3.303100e+001 
3662500000  -4.138735e+001  3.470001e+001 
3665625000  -4.119309e+001  3.473838e+001 
3668750000  -4.031131e+001  3.734470e+001 
3671875000  -3.951564e+001  3.202187e+001 
3675000000  -3.960022e+001  2.668337e+001 
3678125000  -4.027910e+001  2.684551e+001 
3681250000  -3.986503e+001  2.771694e+001 
3684375000  -3.973429e+001  2.525178e+001 
3687500000  -3.982534e+001  2.429051e+001 
3690625000  -3.962385e+001  2.295464e+001 
3693750000  -4.029561e+001  2.276512e+001 
3696875000  -4.014192e+001  2.723628e+001 
3700000000  -3.887236e+001  2.395280e+001 
3703125000  -3.844227e+001  2.070941e+001 
3706250000  -3.914315e+001  2.359867e+001 
3709375000  -3.865879e+001  2.617960e+001 
3712500000  -3.758191e+001  2.609676e+001 
3715625000  -3.641446e+001  2.072773e+001 
3718750000  -3.550452e+001  1.721446e+001 
3721875000  -3.528339e+001  1.113986e+001 
3725000000  -3.517609e+001  6.805123e+000 
3728125000  -3.526534e+001  6.978649e+000 
3731250000  -3.461240e+001  6.160115e+000 
3734375000  -3.366215e+001  -1.025207e+000 
3737500000  -3.422065e+001  -7.827121e+000 
3740625000  -3.485820e+001  -1.059609e+001 
3743750000  -3.449471e+001  -1.257211e+001 
3746875000  -3.455227e+001  -1.661781e+001 
3750000000  -3.494788e+001  -1.610132e+001 
3753125000  -3.455408e+001  -1.701395e+001 
3756250000  -3.442162e+001  -1.796076e+001 
3759375000  -3.429923e+001  -1.826217e+001 
3762500000  -3.382582e+001  -2.259053e+001 
3765625000  -3.422707e+001  -2.538315e+001 
3768750000  -3.432923e+001  -2.324467e+001 
3771875000  -3.266333e+001  -2.535809e+001 
3775000000  -3.236021e+001  -3.284459e+001 
3778125000  -3.257296e+001  -3.485574e+001 
3781250000  -3.232244e+001  -3.659530e+001 
3784375000  -3.227242e+001  -3.891160e+001 
3787500000  -3.164949e+001  -4.261814e+001 
3790625000  -3.227318e+001  -4.891404e+001 
3793750000  -3.233977e+001  -4.840256e+001 
3796875000  -3.144485e+001  -5.036190e+001 
3800000000  -3.002412e+001  -5.461696e+001 
3803125000  -3.078747e+001  -6.109944e+001 
3806250000  -3.142214e+001  -6.341583e+001 
3809375000  -3.114816e+001  -6.406744e+001 
3812500000  -3.028916e+001  -6.951034e+001 
3815625000  -3.093290e+001  -7.661274e+001 
3818750000  -3.195001e+001  -7.832088e+001 
3821875000  -3.204819e+001  -7.008814e+001 
3825000000  -3.023778e+001  -6.591844e+001 
3828125000  -2.881409e+001  -7.896445e+001 
3831250000  -2.934212e+001  -9.308897e+001 
3834375000  -3.058475e+001  -9.469270e+001 
3837500000  -3.143336e+001  -9.000805e+001 
3840625000  -3.044702e+001  -9.047024e+001 
3843750000  -2.931982e+001  -1.003369e+002 
3846875000  -2.997273e+001  -1.076155e+002 
3850000000  -3.107711e+001  -1.018259e+002 
3853125000  -3.045531e+001  -9.996014e+001 
3856250000  -3.044958e+001  -1.047191e+002 
3859375000  -2.981561e+001  -1.085195e+002 
3862500000  -2.934318e+001  -1.151627e+002 
3865625000  -2.951736e+001  -1.203319e+002 
3868750000  -2.967015e+001  -1.212757e+002 
3871875000  -2.901533e+001  -1.233097e+002 
3875000000  -2.893896e+001  -1.313272e+002 
3878125000  -2.993798e+001  -1.350219e+002 
3881250000  -3.009611e+001  -1.316130e+002 
3884375000  -2.968917e+001  -1.357045e+002 
3887500000  -2.970317e+001  -1.396832e+002 
3890625000  -3.019689e+001  -1.425706e+002 
3893750000  -3.057212e+001  -1.441366e+002 
3896875000  -3.079305e+001  -1.432879e+002 
3900000000  -3.112496e+001  -1.446686e+002 
3903125000  -3.064097e+001  -1.460026e+002 
3906250000  -3.034898e+001  -1.475275e+002 
3909375000  -2.972568e+001  -1.489265e+002 
3912500000  -2.960413e+001  -1.570591e+002 
3915625000  -3.082137e+001  -1.557000e+002 
3918750000  -3.086497e+001  -1.543642e+002 
3921875000  -3.068917e+001  -1.562798e+002 
3925000000  -2.986914e+001  -1.563954e+002 
3928125000  -2.904543e+001  -1.614751e+002 
3931250000  -2.939398e+001  -1.656529e+002 
3934375000  -2.970042e+001  -1.661745e+002 
3937500000  -2.979058e+001  -1.661833e+002 
3940625000  -3.027053e+001  -1.666702e+002 
3943750000  -2.938104e+001  -1.651376e+002 
3946875000  -2.816405e+001  -1.708774e+002 
3950000000  -2.860431e+001  -1.782510e+002 
3953125000  -2.951946e+001  -1.776259e+002 
3956250000  -2.860503e+001  -1.747572e+002 
3959375000  -2.737719e+001  -1.785954e+002 
3962500000  -2.690437e+001  1.782996e+002 
3965625000  -2.647759e+001  1.691974e+002 
3968750000  -2.739544e+001  1.629121e+002 
3971875000  -2.778999e+001  1.608161e+002 
3975000000  -2.712074e+001  1.588408e+002 
3978125000  -2.697412e+001  1.579131e+002 
3981250000  -2.663277e+001  1.536427e+002 
3984375000  -2.689669e+001  1.471396e+002 
3987500000  -2.737881e+001  1.449203e+002 
3990625000  -2.751381e+001  1.438783e+002 
3993750000  -2.766100e+001  1.409428e+002 
3996875000  -2.765754e+001  1.387403e+002 
4000000000  -2.775221e+001  1.360150e+002 
4003125000  -2.834515e+001  1.382541e+002 
4006250000  -2.702841e+001  1.388437e+002 
4009375000  -2.578272e+001  1.271447e+002 
4012500000  -2.673706e+001  1.195603e+002 
4015625000  -2.800039e+001  1.200996e+002 
4018750000  -2.826982e+001  1.226182e+002 
4021875000  -2.753180e+001  1.212914e+002 
4025000000  -2.714642e+001  1.160408e+002 
4028125000  -2.717002e+001  1.123756e+002 
4031250000  -2.756124e+001  1.093774e+002 
4034375000  -2.782050e+001  1.093237e+002 
4037500000  -2.737096e+001  1.111389e+002 
4040625000  -2.720414e+001  1.076382e+002 
4043750000  -2.760426e+001  1.068584e+002 
4046875000  -2.716195e+001  1.069498e+002 
4050000000  -2.654458e+001  1.010165e+002 
4053125000  -2.703596e+001  9.898662e+001 
4056250000  -2.764695e+001  1.022090e+002 
4059375000  -2.656102e+001  1.050641e+002 
4062500000  -2.507104e+001  1.005907e+002 
4065625000  -2.491151e+001  9.546677e+001 
4068750000  -2.467505e+001  9.112953e+001 
4071875000  -2.405152e+001  8.350143e+001 
4075000000  -2.431135e+001  7.731110e+001 
4078125000  -2.490827e+001  7.576112e+001 
4081250000  -2.442335e+001  7.362218e+001 
4084375000  -2.402131e+001  6.746086e+001 
4087500000  -2.434369e+001  6.102977e+001 
4090625000  -2.493648e+001  5.924665e+001 
4093750000  -2.482684e+001  6.012807e+001 
4096875000  -2.434039e+001  5.439498e+001 
4100000000  -2.500118e+001  4.752427e+001 
4103125000  -2.587484e+001  4.771286e+001 
4106250000  -2.579289e+001  5.225797e+001 
4109375000  -2.495798e+001  5.208036e+001 
4112500000  -2.433600e+001  4.571364e+001 
4115625000  -2.463746e+001  4.125891e+001 
4118750000  -2.475926e+001  3.852193e+001 
4121875000  -2.444193e+001  3.398754e+001 
4125000000  -2.471878e+001  2.889928e+001 
4128125000  -2.571084e+001  2.831394e+001 
4131250000  -2.553003e+001  3.653079e+001 
4134375000  -2.321756e+001  3.286477e+001 
4137500000  -2.290652e+001  1.442711e+001 
4140625000  -2.501842e+001  7.087428e+000 
4143750000  -2.639437e+001  1.122435e+001 
4146875000  -2.604068e+001  1.870903e+001 
4150000000  -2.515622e+001  1.612284e+001 
4153125000  -2.491662e+001  9.743768e+000 
4156250000  -2.576523e+001  7.178088e+000 
4159375000  -2.606241e+001  1.096636e+001 
4162500000  -2.493637e+001  1.566880e+001 
4165625000  -2.379720e+001  1.205476e+001 
4168750000  -2.319147e+001  5.057797e+000 
4171875000  -2.317464e+001  -4.537843e+000 
4175000000  -2.374840e+001  -1.038691e+001 
4178125000  -2.436586e+001  -1.051071e+001 
4181250000  -2.420648e+001  -1.087770e+001 
4184375000  -2.403892e+001  -1.403969e+001 
4187500000  -2.411869e+001  -1.668856e+001 
4190625000  -2.388372e+001  -2.188447e+001 
4193750000  -2.458002e+001  -2.579020e+001 
4196875000  -2.533304e+001  -2.668644e+001 
4200000000  -2.611800e+001  -2.456995e+001 
4203125000  -2.631233e+001  -1.193012e+001 
4206250000  -2.306801e+001  -9.277189e+000 
4209375000  -2.173605e+001  -2.939155e+001 
4212500000  -2.360557e+001  -3.905273e+001 
4215625000  -2.464136e+001  -3.292316e+001 
4218750000  -2.342717e+001  -2.565634e+001 
4221875000  -2.102746e+001  -3.460265e+001 
4225000000  -2.218595e+001  -4.817808e+001 
4228125000  -2.301392e+001  -4.287878e+001 
4231250000  -2.144545e+001  -4.605537e+001 
4234375000  -2.134335e+001  -5.442651e+001 
4237500000  -2.092711e+001  -5.783020e+001 
4240625000  -2.090523e+001  -6.622287e+001 
4243750000  -2.194373e+001  -7.276602e+001 
4246875000  -2.272237e+001  -7.307044e+001 
4250000000  -2.285789e+001  -7.041728e+001 
4253125000  -2.220739e+001  -7.235491e+001 
4256250000  -2.254522e+001  -7.679897e+001 
4259375000  -2.230684e+001  -7.846962e+001 
4262500000  -2.224568e+001  -8.207565e+001 
4265625000  -2.247791e+001  -8.196268e+001 
4268750000  -2.168878e+001  -8.592397e+001 
4271875000  -2.139675e+001  -9.121796e+001 
4275000000  -2.071764e+001  -9.735294e+001 
4278125000  -2.125317e+001  -1.086649e+002 
4281250000  -2.307803e+001  -1.111322e+002 
4284375000  -2.284313e+001  -1.100720e+002 
4287500000  -2.348231e+001  -1.135154e+002 
4290625000  -2.485684e+001  -1.049122e+002 
4293750000  -2.296531e+001  -9.859704e+001 
4296875000  -2.153052e+001  -1.098251e+002 
4300000000  -2.235858e+001  -1.191302e+002 
4303125000  -2.341815e+001  -1.180709e+002 
4306250000  -2.295020e+001  -1.124267e+002 
4309375000  -2.152693e+001  -1.139553e+002 
4312500000  -2.137986e+001  -1.221672e+002 
4315625000  -2.158707e+001  -1.280701e+002 
4318750000  -2.190062e+001  -1.319257e+002 
4321875000  -2.206341e+001  -1.314135e+002 
4325000000  -2.147792e+001  -1.307742e+002 
4328125000  -2.095690e+001  -1.371365e+002 
4331250000  -2.092517e+001  -1.451383e+002 
4334375000  -2.134888e+001  -1.502397e+002 
4337500000  -2.212962e+001  -1.524526e+002 
4340625000  -2.269139e+001  -1.493899e+002 
4343750000  -2.216303e+001  -1.491656e+002 
4346875000  -2.177741e+001  -1.541510e+002 
4350000000  -2.177152e+001  -1.588399e+002 
4353125000  -2.168657e+001  -1.664701e+002 
4356250000  -2.332209e+001  -1.684129e+002 
4359375000  -2.419123e+001  -1.557664e+002 
4362500000  -2.169602e+001  -1.531326e+002 
4365625000  -1.997953e+001  -1.641721e+002 
4368750000  -2.055646e+001  -1.763541e+002 
4371875000  -2.181749e+001  -1.762167e+002 
4375000000  -2.153533e+001  -1.748161e+002 
4378125000  -2.085403e+001  1.795608e+002 
4381250000  -2.105142e+001  1.744410e+002 
4384375000  -2.085772e+001  1.696935e+002 
4387500000  -2.153195e+001  1.640996e+002 
4390625000  -2.254762e+001  1.649380e+002 
4393750000  -2.193970e+001  1.668116e+002 
4396875000  -2.122861e+001  1.644384e+002 
4400000000  -2.074970e+001  1.579270e+002 
4403125000  -2.126668e+001  1.505017e+002 
4406250000  -2.216519e+001  1.491428e+002 
4409375000  -2.208966e+001  1.470378e+002 
4412500000  -2.308364e+001  1.440246e+002 
4415625000  -2.356902e+001  1.486788e+002 
4418750000  -2.244291e+001  1.533331e+002 
