!Agilent Technologies,E8363B,MY43030201,A.06.04.32
!Agilent E8363B: A.06.04.32
!Date: Tuesday, November 11, 2014 20:53:01
!Correction: S21(Response(S21)) 
!S1P File: Measurement: S21:
# Hz S  dB   R 50
3000000000  -2.653263e+001  1.502825e+002 
3003125000  -2.793274e+001  1.457130e+002 
3006250000  -2.800121e+001  1.432899e+002 
3009375000  -2.840337e+001  1.483242e+002 
3012500000  -2.781520e+001  1.479704e+002 
3015625000  -2.687420e+001  1.407070e+002 
3018750000  -2.771481e+001  1.399644e+002 
3021875000  -2.642960e+001  1.413795e+002 
3025000000  -2.514835e+001  1.385693e+002 
3028125000  -2.416834e+001  1.331759e+002 
3031250000  -2.312249e+001  1.219531e+002 
3034375000  -2.278410e+001  1.089954e+002 
3037500000  -2.316923e+001  9.710549e+001 
3040625000  -2.446922e+001  9.201598e+001 
3043750000  -2.517374e+001  8.744975e+001 
3046875000  -2.525993e+001  8.137717e+001 
3050000000  -2.704436e+001  7.464334e+001 
3053125000  -2.715335e+001  8.095322e+001 
3056250000  -2.650821e+001  8.398020e+001 
3059375000  -2.671267e+001  8.380512e+001 
3062500000  -2.524028e+001  7.972272e+001 
3065625000  -2.501182e+001  7.420933e+001 
3068750000  -2.471540e+001  6.724529e+001 
3071875000  -2.469678e+001  6.420784e+001 
3075000000  -2.464670e+001  6.030097e+001 
3078125000  -2.440272e+001  5.585503e+001 
3081250000  -2.503148e+001  5.137599e+001 
3084375000  -2.425000e+001  4.783223e+001 
3087500000  -2.413959e+001  4.427192e+001 
3090625000  -2.381475e+001  3.439507e+001 
3093750000  -2.429843e+001  2.674072e+001 
3096875000  -2.558902e+001  2.072195e+001 
3100000000  -2.573472e+001  1.928162e+001 
3103125000  -2.604380e+001  2.062207e+001 
3106250000  -2.579688e+001  1.714411e+001 
3109375000  -2.605017e+001  1.375709e+001 
3112500000  -2.617704e+001  1.238657e+001 
3115625000  -2.601758e+001  8.274756e+000 
3118750000  -2.649122e+001  9.776822e+000 
3121875000  -2.578770e+001  1.641445e+000 
3125000000  -2.700164e+001  -1.762258e+000 
3128125000  -2.816852e+001  6.247561e+000 
3131250000  -2.599159e+001  6.883352e+000 
3134375000  -2.464608e+001  -6.909343e+000 
3137500000  -2.531216e+001  -2.053370e+001 
3140625000  -2.691970e+001  -2.215807e+001 
3143750000  -2.794755e+001  -1.854115e+001 
3146875000  -2.753409e+001  -1.620504e+001 
3150000000  -2.649785e+001  -1.388814e+001 
3153125000  -2.654411e+001  -2.191858e+001 
3156250000  -2.751419e+001  -1.622353e+001 
3159375000  -2.588758e+001  -1.333156e+001 
3162500000  -2.388826e+001  -2.622670e+001 
3165625000  -2.483953e+001  -3.725878e+001 
3168750000  -2.521066e+001  -3.606102e+001 
3171875000  -2.427479e+001  -4.054956e+001 
3175000000  -2.490556e+001  -4.838239e+001 
3178125000  -2.468360e+001  -4.656997e+001 
3181250000  -2.353707e+001  -5.087886e+001 
3184375000  -2.275346e+001  -6.285092e+001 
3187500000  -2.390704e+001  -7.795354e+001 
3190625000  -2.659386e+001  -8.538525e+001 
3193750000  -2.718775e+001  -7.573739e+001 
3196875000  -2.680140e+001  -7.026958e+001 
3200000000  -2.591010e+001  -7.207594e+001 
3203125000  -2.506175e+001  -7.809056e+001 
3206250000  -2.531796e+001  -8.417709e+001 
3209375000  -2.487466e+001  -8.928217e+001 
3212500000  -2.500674e+001  -9.602781e+001 
3215625000  -2.517617e+001  -1.000193e+002 
3218750000  -2.589536e+001  -1.062454e+002 
3221875000  -2.685143e+001  -1.115954e+002 
3225000000  -2.647641e+001  -1.117954e+002 
3228125000  -2.679788e+001  -1.166149e+002 
3231250000  -2.751330e+001  -1.193226e+002 
3234375000  -2.741235e+001  -1.180716e+002 
3237500000  -2.742278e+001  -1.197262e+002 
3240625000  -2.708146e+001  -1.217444e+002 
3243750000  -2.674198e+001  -1.282883e+002 
3246875000  -2.720164e+001  -1.347625e+002 
3250000000  -2.769415e+001  -1.365211e+002 
3253125000  -2.785122e+001  -1.383733e+002 
3256250000  -2.766900e+001  -1.442520e+002 
3259375000  -2.803861e+001  -1.514694e+002 
3262500000  -2.927797e+001  -1.545388e+002 
3265625000  -2.991114e+001  -1.513355e+002 
3268750000  -2.990994e+001  -1.490559e+002 
3271875000  -2.968990e+001  -1.473875e+002 
3275000000  -2.861459e+001  -1.526791e+002 
3278125000  -2.907921e+001  -1.590889e+002 
3281250000  -2.933307e+001  -1.568926e+002 
3284375000  -2.887770e+001  -1.633334e+002 
3287500000  -2.908774e+001  -1.655248e+002 
3290625000  -2.948760e+001  -1.700337e+002 
3293750000  -2.918439e+001  -1.750908e+002 
3296875000  -3.018991e+001  -1.754273e+002 
3300000000  -3.010563e+001  -1.737910e+002 
3303125000  -2.891570e+001  -1.783995e+002 
3306250000  -2.873585e+001  1.753257e+002 
3309375000  -2.845257e+001  1.701631e+002 
3312500000  -2.856673e+001  1.595948e+002 
3315625000  -2.956615e+001  1.520119e+002 
3318750000  -3.089381e+001  1.492914e+002 
3321875000  -3.215701e+001  1.495361e+002 
3325000000  -3.269280e+001  1.547505e+002 
3328125000  -3.256099e+001  1.558602e+002 
3331250000  -3.127439e+001  1.636143e+002 
3334375000  -2.866903e+001  1.538598e+002 
3337500000  -2.870044e+001  1.356036e+002 
3340625000  -3.012594e+001  1.244733e+002 
3343750000  -3.207326e+001  1.234083e+002 
3346875000  -3.252921e+001  1.251851e+002 
3350000000  -3.194133e+001  1.238879e+002 
3353125000  -3.205692e+001  1.190675e+002 
3356250000  -3.178707e+001  1.111646e+002 
3359375000  -3.257100e+001  1.031115e+002 
3362500000  -3.392773e+001  9.767519e+001 
3365625000  -3.441062e+001  9.580526e+001 
3368750000  -3.553249e+001  9.465501e+001 
3371875000  -3.582888e+001  9.166759e+001 
3375000000  -3.730107e+001  8.969592e+001 
3378125000  -3.868692e+001  8.924959e+001 
3381250000  -4.015381e+001  9.757528e+001 
3384375000  -3.931246e+001  1.171709e+002 
3387500000  -3.586375e+001  1.043535e+002 
3390625000  -3.768083e+001  8.524443e+001 
3393750000  -3.957327e+001  8.911460e+001 
3396875000  -3.875960e+001  9.379029e+001 
3400000000  -3.854678e+001  8.549307e+001 
3403125000  -3.980169e+001  8.159859e+001 
3406250000  -4.036507e+001  8.503059e+001 
3409375000  -4.096647e+001  7.917664e+001 
3412500000  -4.214277e+001  8.038060e+001 
3415625000  -4.289442e+001  8.505980e+001 
3418750000  -4.287523e+001  8.927722e+001 
3421875000  -4.335605e+001  9.708224e+001 
3425000000  -4.262729e+001  9.965892e+001 
3428125000  -4.151279e+001  9.774712e+001 
3431250000  -4.173333e+001  9.461110e+001 
3434375000  -4.128566e+001  9.190456e+001 
3437500000  -4.154287e+001  8.804738e+001 
3440625000  -4.221698e+001  9.397456e+001 
3443750000  -4.075602e+001  9.405753e+001 
3446875000  -4.003247e+001  8.975616e+001 
3450000000  -3.970905e+001  8.045370e+001 
3453125000  -4.013617e+001  7.185324e+001 
3456250000  -4.113158e+001  6.623081e+001 
3459375000  -4.219839e+001  6.994208e+001 
3462500000  -4.217223e+001  6.994312e+001 
3465625000  -4.248733e+001  6.471635e+001 
3468750000  -4.284227e+001  6.391906e+001 
3471875000  -4.281372e+001  6.441758e+001 
3475000000  -4.289874e+001  5.953691e+001 
3478125000  -4.352393e+001  5.264106e+001 
3481250000  -4.457398e+001  5.270993e+001 
3484375000  -4.661762e+001  5.880832e+001 
3487500000  -4.565809e+001  6.355564e+001 
3490625000  -4.488666e+001  5.770904e+001 
3493750000  -4.565562e+001  5.783886e+001 
3496875000  -4.692065e+001  5.917830e+001 
3500000000  -4.743615e+001  6.270194e+001 
3503125000  -4.775061e+001  7.269820e+001 
3506250000  -4.676402e+001  7.096957e+001 
3509375000  -4.744434e+001  6.319794e+001 
3512500000  -4.748287e+001  6.707268e+001 
3515625000  -4.800389e+001  7.041748e+001 
3518750000  -4.795860e+001  7.018867e+001 
3521875000  -4.812939e+001  7.960938e+001 
3525000000  -4.844155e+001  8.410844e+001 
3528125000  -4.761482e+001  9.128130e+001 
3531250000  -4.596771e+001  9.209059e+001 
3534375000  -4.537405e+001  8.346930e+001 
3537500000  -4.526523e+001  8.021385e+001 
3540625000  -4.631567e+001  7.963242e+001 
3543750000  -4.632555e+001  8.323148e+001 
3546875000  -4.576467e+001  9.718291e+001 
3550000000  -4.355242e+001  9.761565e+001 
3553125000  -4.159412e+001  8.191097e+001 
3556250000  -4.266718e+001  7.851837e+001 
3559375000  -4.239098e+001  7.972485e+001 
3562500000  -4.120249e+001  7.234792e+001 
3565625000  -4.198207e+001  6.514872e+001 
3568750000  -4.185554e+001  6.911091e+001 
3571875000  -4.167896e+001  7.007253e+001 
3575000000  -4.111185e+001  6.348788e+001 
3578125000  -4.171380e+001  5.987142e+001 
3581250000  -4.169832e+001  6.034237e+001 
3584375000  -4.092534e+001  5.866737e+001 
3587500000  -3.993461e+001  5.333518e+001 
3590625000  -4.017347e+001  4.558258e+001 
3593750000  -4.132826e+001  4.340104e+001 
3596875000  -4.146712e+001  5.323054e+001 
3600000000  -3.970944e+001  4.705315e+001 
3603125000  -3.995129e+001  3.653524e+001 
3606250000  -4.044525e+001  3.287419e+001 
3609375000  -4.094641e+001  3.295504e+001 
3612500000  -4.136473e+001  3.086326e+001 
3615625000  -4.145809e+001  2.696117e+001 
3618750000  -4.186216e+001  3.048619e+001 
3621875000  -4.168947e+001  2.876022e+001 
3625000000  -4.166009e+001  2.801295e+001 
3628125000  -4.183230e+001  2.815748e+001 
3631250000  -4.140984e+001  2.382408e+001 
3634375000  -4.267877e+001  2.491765e+001 
3637500000  -4.208948e+001  2.990442e+001 
3640625000  -4.088835e+001  3.140492e+001 
3643750000  -4.055514e+001  2.571729e+001 
3646875000  -4.139647e+001  1.992284e+001 
3650000000  -4.156214e+001  2.187849e+001 
3653125000  -4.150065e+001  1.976659e+001 
3656250000  -4.191412e+001  1.904037e+001 
3659375000  -4.190468e+001  2.382513e+001 
3662500000  -4.143895e+001  2.004606e+001 
3665625000  -4.129917e+001  2.121872e+001 
3668750000  -4.022123e+001  2.435709e+001 
3671875000  -3.926694e+001  1.737069e+001 
3675000000  -3.968436e+001  1.306904e+001 
3678125000  -4.027665e+001  1.519400e+001 
3681250000  -3.990816e+001  1.475910e+001 
3684375000  -3.959898e+001  1.365786e+001 
3687500000  -3.977188e+001  1.115851e+001 
3690625000  -3.958732e+001  9.191430e+000 
3693750000  -4.002668e+001  1.211737e+001 
3696875000  -3.995277e+001  1.421868e+001 
3700000000  -3.869619e+001  1.181988e+001 
3703125000  -3.869335e+001  1.025920e+001 
3706250000  -3.921872e+001  1.087958e+001 
3709375000  -3.853502e+001  1.327815e+001 
3712500000  -3.742648e+001  1.473116e+001 
3715625000  -3.628566e+001  8.491652e+000 
3718750000  -3.556420e+001  6.123193e+000 
3721875000  -3.511538e+001  6.270057e-001 
3725000000  -3.507199e+001  -4.741060e+000 
3728125000  -3.536258e+001  -5.592968e+000 
3731250000  -3.462379e+001  -6.475085e+000 
3734375000  -3.363113e+001  -1.272014e+001 
3737500000  -3.427723e+001  -1.934183e+001 
3740625000  -3.470138e+001  -2.205628e+001 
3743750000  -3.460406e+001  -2.498233e+001 
3746875000  -3.461805e+001  -2.798173e+001 
3750000000  -3.492734e+001  -2.857308e+001 
3753125000  -3.455074e+001  -2.962559e+001 
3756250000  -3.455157e+001  -3.052722e+001 
3759375000  -3.428211e+001  -3.054246e+001 
3762500000  -3.369588e+001  -3.483935e+001 
3765625000  -3.414551e+001  -3.696250e+001 
3768750000  -3.424002e+001  -3.575735e+001 
3771875000  -3.261147e+001  -3.728507e+001 
3775000000  -3.221043e+001  -4.574323e+001 
3778125000  -3.267674e+001  -4.647849e+001 
3781250000  -3.230083e+001  -5.077977e+001 
3784375000  -3.228315e+001  -5.210687e+001 
3787500000  -3.167956e+001  -5.571288e+001 
3790625000  -3.230199e+001  -6.168737e+001 
3793750000  -3.238430e+001  -6.185936e+001 
3796875000  -3.152029e+001  -6.265567e+001 
3800000000  -2.997591e+001  -6.670956e+001 
3803125000  -3.080311e+001  -7.359637e+001 
3806250000  -3.136139e+001  -7.577933e+001 
3809375000  -3.110305e+001  -7.700859e+001 
3812500000  -3.050588e+001  -8.196076e+001 
3815625000  -3.106523e+001  -8.944296e+001 
3818750000  -3.197113e+001  -9.085777e+001 
3821875000  -3.204695e+001  -8.217120e+001 
3825000000  -3.016936e+001  -7.807652e+001 
3828125000  -2.875756e+001  -9.226627e+001 
3831250000  -2.930909e+001  -1.058201e+002 
3834375000  -3.072143e+001  -1.064222e+002 
3837500000  -3.162188e+001  -1.018058e+002 
3840625000  -3.043740e+001  -1.023314e+002 
3843750000  -2.936122e+001  -1.128139e+002 
3846875000  -2.994578e+001  -1.193275e+002 
3850000000  -3.126906e+001  -1.142122e+002 
3853125000  -3.046418e+001  -1.118609e+002 
3856250000  -3.040561e+001  -1.165860e+002 
3859375000  -2.968527e+001  -1.207924e+002 
3862500000  -2.926478e+001  -1.284964e+002 
3865625000  -2.953388e+001  -1.329842e+002 
3868750000  -2.953967e+001  -1.334026e+002 
3871875000  -2.890814e+001  -1.363675e+002 
3875000000  -2.893711e+001  -1.448042e+002 
3878125000  -3.001601e+001  -1.469128e+002 
3881250000  -3.011603e+001  -1.441680e+002 
3884375000  -2.954518e+001  -1.491532e+002 
3887500000  -2.978590e+001  -1.530721e+002 
3890625000  -3.024457e+001  -1.556372e+002 
3893750000  -3.067974e+001  -1.566916e+002 
3896875000  -3.074236e+001  -1.564485e+002 
3900000000  -3.106303e+001  -1.569593e+002 
3903125000  -3.067381e+001  -1.585705e+002 
3906250000  -3.039684e+001  -1.603178e+002 
3909375000  -2.965441e+001  -1.624698e+002 
3912500000  -2.979142e+001  -1.695206e+002 
3915625000  -3.095289e+001  -1.691115e+002 
3918750000  -3.099271e+001  -1.668810e+002 
3921875000  -3.062032e+001  -1.686562e+002 
3925000000  -2.980310e+001  -1.695925e+002 
3928125000  -2.909179e+001  -1.752836e+002 
3931250000  -2.951764e+001  -1.789571e+002 
3934375000  -2.982878e+001  -1.792988e+002 
3937500000  -2.988257e+001  -1.790593e+002 
3940625000  -3.036620e+001  -1.790551e+002 
3943750000  -2.950397e+001  -1.774697e+002 
3946875000  -2.816656e+001  1.766267e+002 
3950000000  -2.868544e+001  1.694407e+002 
3953125000  -2.970440e+001  1.697126e+002 
3956250000  -2.875515e+001  1.727965e+002 
3959375000  -2.748001e+001  1.692773e+002 
3962500000  -2.685946e+001  1.657922e+002 
3965625000  -2.659274e+001  1.564870e+002 
3968750000  -2.749136e+001  1.497560e+002 
3971875000  -2.782351e+001  1.485116e+002 
3975000000  -2.717635e+001  1.465655e+002 
3978125000  -2.694592e+001  1.447597e+002 
3981250000  -2.678000e+001  1.407467e+002 
3984375000  -2.698708e+001  1.346210e+002 
3987500000  -2.751079e+001  1.326707e+002 
3990625000  -2.749534e+001  1.316033e+002 
3993750000  -2.767027e+001  1.279020e+002 
3996875000  -2.755151e+001  1.258552e+002 
4000000000  -2.779240e+001  1.240423e+002 
4003125000  -2.835400e+001  1.262448e+002 
4006250000  -2.695028e+001  1.260607e+002 
4009375000  -2.570490e+001  1.138125e+002 
4012500000  -2.679604e+001  1.067969e+002 
4015625000  -2.803624e+001  1.070665e+002 
4018750000  -2.824597e+001  1.095427e+002 
4021875000  -2.762460e+001  1.080728e+002 
4025000000  -2.725423e+001  1.035642e+002 
4028125000  -2.715518e+001  9.939706e+001 
4031250000  -2.772739e+001  9.633726e+001 
4034375000  -2.790272e+001  9.572210e+001 
4037500000  -2.742435e+001  9.797501e+001 
4040625000  -2.729525e+001  9.471609e+001 
4043750000  -2.764212e+001  9.436275e+001 
4046875000  -2.721801e+001  9.367704e+001 
4050000000  -2.671320e+001  8.868006e+001 
4053125000  -2.715886e+001  8.676509e+001 
4056250000  -2.779600e+001  9.018861e+001 
4059375000  -2.655532e+001  9.234319e+001 
4062500000  -2.519315e+001  8.732678e+001 
4065625000  -2.501651e+001  8.295444e+001 
4068750000  -2.479163e+001  7.837627e+001 
4071875000  -2.412006e+001  7.077798e+001 
4075000000  -2.445139e+001  6.455564e+001 
4078125000  -2.502724e+001  6.358080e+001 
4081250000  -2.450169e+001  6.127162e+001 
4084375000  -2.405186e+001  5.486060e+001 
4087500000  -2.443719e+001  4.831285e+001 
4090625000  -2.500466e+001  4.724992e+001 
4093750000  -2.482439e+001  4.781422e+001 
4096875000  -2.439520e+001  4.199263e+001 
4100000000  -2.505656e+001  3.528733e+001 
4103125000  -2.594905e+001  3.565433e+001 
4106250000  -2.581750e+001  4.043502e+001 
4109375000  -2.488586e+001  3.988658e+001 
4112500000  -2.436378e+001  3.321699e+001 
4115625000  -2.469971e+001  2.908392e+001 
4118750000  -2.476313e+001  2.603340e+001 
4121875000  -2.436343e+001  2.124099e+001 
4125000000  -2.475015e+001  1.617622e+001 
4128125000  -2.576662e+001  1.646339e+001 
4131250000  -2.547897e+001  2.453269e+001 
4134375000  -2.312505e+001  1.988721e+001 
4137500000  -2.297930e+001  1.435431e+000 
4140625000  -2.502287e+001  -6.388236e+000 
4143750000  -2.641366e+001  -9.229329e-001 
4146875000  -2.598363e+001  6.697537e+000 
4150000000  -2.503897e+001  3.089489e+000 
4153125000  -2.489043e+001  -3.412017e+000 
4156250000  -2.581997e+001  -5.943742e+000 
4159375000  -2.606674e+001  -1.668906e+000 
4162500000  -2.489118e+001  2.574908e+000 
4165625000  -2.381348e+001  -1.246308e+000 
4168750000  -2.324231e+001  -8.514651e+000 
4171875000  -2.315237e+001  -1.754521e+001 
4175000000  -2.373090e+001  -2.328050e+001 
4178125000  -2.435921e+001  -2.333060e+001 
4181250000  -2.422284e+001  -2.379712e+001 
4184375000  -2.407023e+001  -2.714450e+001 
4187500000  -2.411564e+001  -2.993824e+001 
4190625000  -2.392589e+001  -3.499193e+001 
4193750000  -2.470863e+001  -3.902904e+001 
4196875000  -2.549805e+001  -3.933300e+001 
4200000000  -2.634967e+001  -3.666251e+001 
4203125000  -2.631283e+001  -2.333287e+001 
4206250000  -2.296861e+001  -2.200788e+001 
4209375000  -2.175221e+001  -4.245605e+001 
4212500000  -2.371164e+001  -5.136899e+001 
4215625000  -2.473904e+001  -4.507233e+001 
4218750000  -2.335307e+001  -3.851855e+001 
4221875000  -2.100920e+001  -4.710635e+001 
4225000000  -2.224242e+001  -5.986452e+001 
4228125000  -2.292500e+001  -5.529919e+001 
4231250000  -2.135704e+001  -5.882108e+001 
4234375000  -2.130355e+001  -6.717902e+001 
4237500000  -2.085613e+001  -7.065958e+001 
4240625000  -2.089355e+001  -7.915870e+001 
4243750000  -2.186616e+001  -8.589269e+001 
4246875000  -2.272667e+001  -8.608978e+001 
4250000000  -2.278522e+001  -8.306246e+001 
4253125000  -2.217213e+001  -8.506216e+001 
4256250000  -2.245344e+001  -8.924031e+001 
4259375000  -2.221436e+001  -9.129739e+001 
4262500000  -2.225812e+001  -9.488630e+001 
4265625000  -2.239518e+001  -9.451746e+001 
4268750000  -2.158666e+001  -9.895599e+001 
4271875000  -2.130981e+001  -1.044817e+002 
4275000000  -2.066320e+001  -1.105932e+002 
4278125000  -2.126148e+001  -1.221486e+002 
4281250000  -2.302998e+001  -1.240181e+002 
4284375000  -2.272454e+001  -1.236784e+002 
4287500000  -2.353862e+001  -1.272409e+002 
4290625000  -2.484160e+001  -1.174306e+002 
4293750000  -2.291198e+001  -1.116679e+002 
4296875000  -2.146973e+001  -1.234721e+002 
4300000000  -2.230791e+001  -1.326832e+002 
4303125000  -2.344161e+001  -1.312669e+002 
4306250000  -2.280322e+001  -1.251825e+002 
4309375000  -2.141199e+001  -1.272556e+002 
4312500000  -2.132021e+001  -1.359698e+002 
4315625000  -2.153178e+001  -1.420457e+002 
4318750000  -2.191598e+001  -1.455026e+002 
4321875000  -2.205226e+001  -1.447953e+002 
4325000000  -2.146327e+001  -1.441959e+002 
4328125000  -2.092129e+001  -1.504526e+002 
4331250000  -2.090952e+001  -1.586203e+002 
4334375000  -2.133997e+001  -1.636951e+002 
4337500000  -2.215802e+001  -1.656005e+002 
4340625000  -2.268584e+001  -1.625129e+002 
4343750000  -2.211810e+001  -1.620098e+002 
4346875000  -2.171462e+001  -1.674132e+002 
4350000000  -2.169360e+001  -1.721533e+002 
4353125000  -2.174971e+001  -1.799551e+002 
4356250000  -2.348975e+001  1.789590e+002 
4359375000  -2.411075e+001  -1.674756e+002 
4362500000  -2.140094e+001  -1.656928e+002 
4365625000  -1.978693e+001  -1.778958e+002 
4368750000  -2.051957e+001  1.705276e+002 
4371875000  -2.171172e+001  1.713012e+002 
4375000000  -2.138214e+001  1.722793e+002 
4378125000  -2.075179e+001  1.663806e+002 
4381250000  -2.087636e+001  1.610697e+002 
4384375000  -2.070650e+001  1.562535e+002 
4387500000  -2.145657e+001  1.507989e+002 
4390625000  -2.243265e+001  1.514875e+002 
4393750000  -2.179227e+001  1.534280e+002 
4396875000  -2.115185e+001  1.512758e+002 
4400000000  -2.062770e+001  1.443959e+002 
4403125000  -2.120261e+001  1.368634e+002 
4406250000  -2.207709e+001  1.353499e+002 
4409375000  -2.199602e+001  1.331519e+002 
4412500000  -2.299046e+001  1.305016e+002 
4415625000  -2.340881e+001  1.351353e+002 
4418750000  -2.222904e+001  1.397460e+002 
