!Agilent Technologies,E8363B,MY43030201,A.06.04.32
!Agilent E8363B: A.06.04.32
!Date: Tuesday, November 11, 2014 20:48:33
!Correction: S21(Response(S21)) 
!S1P File: Measurement: S21:
# Hz S  dB   R 50
3000000000  -2.656342e+001  1.553555e+002 
3003125000  -2.793758e+001  1.508267e+002 
3006250000  -2.798219e+001  1.481693e+002 
3009375000  -2.831269e+001  1.530942e+002 
3012500000  -2.780058e+001  1.528799e+002 
3015625000  -2.684076e+001  1.457546e+002 
3018750000  -2.770556e+001  1.446923e+002 
3021875000  -2.646770e+001  1.463026e+002 
3025000000  -2.514675e+001  1.431369e+002 
3028125000  -2.417494e+001  1.381794e+002 
3031250000  -2.311616e+001  1.269734e+002 
3034375000  -2.276887e+001  1.141193e+002 
3037500000  -2.311581e+001  1.022202e+002 
3040625000  -2.446514e+001  9.699315e+001 
3043750000  -2.516328e+001  9.272211e+001 
3046875000  -2.522125e+001  8.620123e+001 
3050000000  -2.699719e+001  7.916513e+001 
3053125000  -2.714485e+001  8.601946e+001 
3056250000  -2.646932e+001  8.909856e+001 
3059375000  -2.675218e+001  8.845247e+001 
3062500000  -2.522860e+001  8.485358e+001 
3065625000  -2.503344e+001  7.922805e+001 
3068750000  -2.471168e+001  7.212983e+001 
3071875000  -2.466726e+001  6.894814e+001 
3075000000  -2.465916e+001  6.535222e+001 
3078125000  -2.435766e+001  6.062186e+001 
3081250000  -2.500319e+001  5.657430e+001 
3084375000  -2.427661e+001  5.299990e+001 
3087500000  -2.410535e+001  4.946098e+001 
3090625000  -2.382164e+001  3.972277e+001 
3093750000  -2.424880e+001  3.168031e+001 
3096875000  -2.556359e+001  2.545740e+001 
3100000000  -2.567054e+001  2.435529e+001 
3103125000  -2.606675e+001  2.560573e+001 
3106250000  -2.581256e+001  2.218146e+001 
3109375000  -2.605449e+001  1.868564e+001 
3112500000  -2.617858e+001  1.770269e+001 
3115625000  -2.594444e+001  1.354473e+001 
3118750000  -2.643797e+001  1.484782e+001 
3121875000  -2.580898e+001  6.797054e+000 
3125000000  -2.689863e+001  3.097873e+000 
3128125000  -2.819865e+001  1.134655e+001 
3131250000  -2.600358e+001  1.201414e+001 
3134375000  -2.461199e+001  -1.746635e+000 
3137500000  -2.525221e+001  -1.555927e+001 
3140625000  -2.693344e+001  -1.748736e+001 
3143750000  -2.793361e+001  -1.296593e+001 
3146875000  -2.752720e+001  -1.107025e+001 
3150000000  -2.655364e+001  -8.650266e+000 
3153125000  -2.647101e+001  -1.652020e+001 
3156250000  -2.744857e+001  -1.125245e+001 
3159375000  -2.594493e+001  -8.208250e+000 
3162500000  -2.393332e+001  -2.108305e+001 
3165625000  -2.479756e+001  -3.212690e+001 
3168750000  -2.522791e+001  -3.132130e+001 
3171875000  -2.428303e+001  -3.533904e+001 
3175000000  -2.488159e+001  -4.306416e+001 
3178125000  -2.471418e+001  -4.150111e+001 
3181250000  -2.349077e+001  -4.531502e+001 
3184375000  -2.270586e+001  -5.786773e+001 
3187500000  -2.380396e+001  -7.293135e+001 
3190625000  -2.663115e+001  -8.087778e+001 
3193750000  -2.722902e+001  -7.109579e+001 
3196875000  -2.678027e+001  -6.539893e+001 
3200000000  -2.592056e+001  -6.718648e+001 
3203125000  -2.504723e+001  -7.281413e+001 
3206250000  -2.532843e+001  -7.907260e+001 
3209375000  -2.484094e+001  -8.411400e+001 
3212500000  -2.497387e+001  -9.067948e+001 
3215625000  -2.508326e+001  -9.514526e+001 
3218750000  -2.589473e+001  -1.013813e+002 
3221875000  -2.686010e+001  -1.065868e+002 
3225000000  -2.651136e+001  -1.067653e+002 
3228125000  -2.680154e+001  -1.116562e+002 
3231250000  -2.752815e+001  -1.143305e+002 
3234375000  -2.739424e+001  -1.132096e+002 
3237500000  -2.743118e+001  -1.148651e+002 
3240625000  -2.711143e+001  -1.163428e+002 
3243750000  -2.671590e+001  -1.230942e+002 
3246875000  -2.722573e+001  -1.297513e+002 
3250000000  -2.770379e+001  -1.315630e+002 
3253125000  -2.782304e+001  -1.332324e+002 
3256250000  -2.773782e+001  -1.390591e+002 
3259375000  -2.799398e+001  -1.467730e+002 
3262500000  -2.928164e+001  -1.498925e+002 
3265625000  -2.999582e+001  -1.463340e+002 
3268750000  -2.989883e+001  -1.436458e+002 
3271875000  -2.971233e+001  -1.422639e+002 
3275000000  -2.858121e+001  -1.474693e+002 
3278125000  -2.905057e+001  -1.539483e+002 
3281250000  -2.940224e+001  -1.517570e+002 
3284375000  -2.892347e+001  -1.573208e+002 
3287500000  -2.915481e+001  -1.606645e+002 
3290625000  -2.947952e+001  -1.645378e+002 
3293750000  -2.921194e+001  -1.703206e+002 
3296875000  -3.020522e+001  -1.703380e+002 
3300000000  -3.012009e+001  -1.696579e+002 
3303125000  -2.895331e+001  -1.733787e+002 
3306250000  -2.872292e+001  -1.799442e+002 
3309375000  -2.852802e+001  1.752023e+002 
3312500000  -2.854980e+001  1.646945e+002 
3315625000  -2.956421e+001  1.568539e+002 
3318750000  -3.089766e+001  1.542881e+002 
3321875000  -3.205878e+001  1.541343e+002 
3325000000  -3.271004e+001  1.590331e+002 
3328125000  -3.252143e+001  1.607927e+002 
3331250000  -3.130271e+001  1.684700e+002 
3334375000  -2.871116e+001  1.586062e+002 
3337500000  -2.882910e+001  1.404135e+002 
3340625000  -3.009604e+001  1.292834e+002 
3343750000  -3.205267e+001  1.282764e+002 
3346875000  -3.261404e+001  1.297240e+002 
3350000000  -3.206029e+001  1.283284e+002 
3353125000  -3.207265e+001  1.242310e+002 
3356250000  -3.177908e+001  1.160135e+002 
3359375000  -3.270348e+001  1.079763e+002 
3362500000  -3.398356e+001  1.025650e+002 
3365625000  -3.454236e+001  1.004997e+002 
3368750000  -3.551235e+001  9.936198e+001 
3371875000  -3.602208e+001  9.646159e+001 
3375000000  -3.758536e+001  9.449618e+001 
3378125000  -3.871498e+001  9.320630e+001 
3381250000  -4.011959e+001  9.992054e+001 
3384375000  -3.921529e+001  1.222202e+002 
3387500000  -3.614444e+001  1.096136e+002 
3390625000  -3.795528e+001  8.992300e+001 
3393750000  -3.982319e+001  9.196124e+001 
3396875000  -3.902806e+001  9.771417e+001 
3400000000  -3.894717e+001  8.994569e+001 
3403125000  -4.008448e+001  8.554887e+001 
3406250000  -4.063762e+001  8.880268e+001 
3409375000  -4.141683e+001  8.296204e+001 
3412500000  -4.224991e+001  8.565592e+001 
3415625000  -4.299450e+001  8.940819e+001 
3418750000  -4.329177e+001  9.451213e+001 
3421875000  -4.346888e+001  1.003021e+002 
3425000000  -4.303373e+001  1.050032e+002 
3428125000  -4.172440e+001  1.039658e+002 
3431250000  -4.189511e+001  9.915496e+001 
3434375000  -4.158113e+001  9.787784e+001 
3437500000  -4.194970e+001  9.766958e+001 
3440625000  -4.240072e+001  9.801475e+001 
3443750000  -4.126073e+001  9.981236e+001 
3446875000  -4.034169e+001  9.596782e+001 
3450000000  -4.028303e+001  8.731625e+001 
3453125000  -4.034840e+001  7.853079e+001 
3456250000  -4.157643e+001  7.267510e+001 
3459375000  -4.263549e+001  7.589213e+001 
3462500000  -4.291382e+001  7.542750e+001 
3465625000  -4.290050e+001  7.400621e+001 
3468750000  -4.328593e+001  6.986206e+001 
3471875000  -4.320041e+001  6.935809e+001 
3475000000  -4.320430e+001  6.671813e+001 
3478125000  -4.375698e+001  6.406394e+001 
3481250000  -4.499340e+001  6.107460e+001 
3484375000  -4.643506e+001  6.531558e+001 
3487500000  -4.605111e+001  6.820185e+001 
3490625000  -4.567747e+001  6.403727e+001 
3493750000  -4.620592e+001  6.189614e+001 
3496875000  -4.701075e+001  6.450771e+001 
3500000000  -4.832635e+001  7.086762e+001 
3503125000  -4.770229e+001  7.705135e+001 
3506250000  -4.701693e+001  7.797395e+001 
3509375000  -4.702466e+001  7.847253e+001 
3512500000  -4.746618e+001  7.600592e+001 
3515625000  -4.736023e+001  7.894585e+001 
3518750000  -4.857639e+001  8.395993e+001 
3521875000  -4.778130e+001  8.700427e+001 
3525000000  -4.827442e+001  8.809311e+001 
3528125000  -4.776642e+001  9.794283e+001 
3531250000  -4.614932e+001  9.822954e+001 
3534375000  -4.513579e+001  9.198298e+001 
3537500000  -4.526448e+001  8.982709e+001 
3540625000  -4.576958e+001  8.830000e+001 
3543750000  -4.614317e+001  9.011829e+001 
3546875000  -4.555534e+001  1.041541e+002 
3550000000  -4.288812e+001  1.051728e+002 
3553125000  -4.147942e+001  8.913637e+001 
3556250000  -4.231615e+001  8.335276e+001 
3559375000  -4.196209e+001  8.715643e+001 
3562500000  -4.067202e+001  7.925304e+001 
3565625000  -4.157925e+001  7.353534e+001 
3568750000  -4.175646e+001  7.610579e+001 
3571875000  -4.151680e+001  7.606606e+001 
3575000000  -4.088224e+001  7.110022e+001 
3578125000  -4.124043e+001  6.694279e+001 
3581250000  -4.125274e+001  6.776992e+001 
3584375000  -4.061734e+001  6.544369e+001 
3587500000  -3.968545e+001  5.943280e+001 
3590625000  -4.002088e+001  5.161963e+001 
3593750000  -4.091345e+001  4.912892e+001 
3596875000  -4.100244e+001  5.867278e+001 
3600000000  -3.978086e+001  5.537072e+001 
3603125000  -3.958113e+001  4.243835e+001 
3606250000  -4.035986e+001  3.749710e+001 
3609375000  -4.074411e+001  3.851334e+001 
3612500000  -4.124575e+001  3.631763e+001 
3615625000  -4.136977e+001  3.322007e+001 
3618750000  -4.188887e+001  3.445883e+001 
3621875000  -4.170648e+001  3.372006e+001 
3625000000  -4.183480e+001  3.447460e+001 
3628125000  -4.172485e+001  3.309388e+001 
3631250000  -4.134576e+001  2.904475e+001 
3634375000  -4.237587e+001  3.095243e+001 
3637500000  -4.178726e+001  3.512436e+001 
3640625000  -4.115265e+001  3.599345e+001 
3643750000  -4.050443e+001  3.075998e+001 
3646875000  -4.135799e+001  2.529161e+001 
3650000000  -4.166979e+001  2.513022e+001 
3653125000  -4.163031e+001  2.536778e+001 
3656250000  -4.166872e+001  2.470495e+001 
3659375000  -4.215643e+001  2.906003e+001 
3662500000  -4.129478e+001  2.686011e+001 
3665625000  -4.148598e+001  2.927601e+001 
3668750000  -4.046501e+001  3.001975e+001 
3671875000  -3.943809e+001  2.628299e+001 
3675000000  -4.018631e+001  2.044915e+001 
3678125000  -4.037492e+001  2.005447e+001 
3681250000  -4.009347e+001  2.169472e+001 
3684375000  -3.949807e+001  1.905017e+001 
3687500000  -3.982623e+001  1.916013e+001 
3690625000  -3.975632e+001  1.661621e+001 
3693750000  -4.042648e+001  1.891660e+001 
3696875000  -4.009868e+001  2.144905e+001 
3700000000  -3.885131e+001  1.942232e+001 
3703125000  -3.857470e+001  1.568143e+001 
3706250000  -3.951348e+001  1.667129e+001 
3709375000  -3.883123e+001  1.957614e+001 
3712500000  -3.752171e+001  2.046582e+001 
3715625000  -3.637650e+001  1.498171e+001 
3718750000  -3.577143e+001  1.087186e+001 
3721875000  -3.515741e+001  6.026957e+000 
3725000000  -3.524495e+001  2.126885e+000 
3728125000  -3.550655e+001  8.623115e-001 
3731250000  -3.474067e+001  5.851391e-001 
3734375000  -3.366626e+001  -6.318829e+000 
3737500000  -3.430116e+001  -1.363346e+001 
3740625000  -3.498610e+001  -1.638416e+001 
3743750000  -3.482651e+001  -1.878497e+001 
3746875000  -3.461693e+001  -2.108932e+001 
3750000000  -3.509784e+001  -2.213247e+001 
3753125000  -3.458482e+001  -2.348647e+001 
3756250000  -3.473037e+001  -2.367758e+001 
3759375000  -3.443722e+001  -2.442575e+001 
3762500000  -3.377546e+001  -2.814938e+001 
3765625000  -3.430206e+001  -3.061328e+001 
3768750000  -3.436512e+001  -2.845955e+001 
3771875000  -3.266637e+001  -3.034918e+001 
3775000000  -3.237349e+001  -3.811615e+001 
3778125000  -3.266484e+001  -4.069086e+001 
3781250000  -3.252697e+001  -4.279811e+001 
3784375000  -3.238323e+001  -4.472380e+001 
3787500000  -3.187185e+001  -4.824126e+001 
3790625000  -3.233791e+001  -5.427805e+001 
3793750000  -3.248038e+001  -5.478098e+001 
3796875000  -3.159763e+001  -5.576559e+001 
3800000000  -3.001246e+001  -5.924723e+001 
3803125000  -3.077530e+001  -6.629816e+001 
3806250000  -3.144187e+001  -6.840180e+001 
3809375000  -3.120194e+001  -6.992864e+001 
3812500000  -3.045191e+001  -7.449409e+001 
3815625000  -3.106295e+001  -8.144144e+001 
3818750000  -3.197100e+001  -8.303851e+001 
3821875000  -3.224347e+001  -7.597828e+001 
3825000000  -3.024796e+001  -7.071557e+001 
3828125000  -2.895002e+001  -8.399635e+001 
3831250000  -2.926952e+001  -9.870982e+001 
3834375000  -3.061691e+001  -1.002324e+002 
3837500000  -3.164557e+001  -9.493412e+001 
3840625000  -3.052392e+001  -9.574771e+001 
3843750000  -2.929158e+001  -1.051577e+002 
3846875000  -2.996465e+001  -1.127602e+002 
3850000000  -3.131012e+001  -1.074303e+002 
3853125000  -3.042795e+001  -1.053099e+002 
3856250000  -3.032490e+001  -1.096554e+002 
3859375000  -2.976884e+001  -1.136546e+002 
3862500000  -2.935032e+001  -1.215166e+002 
3865625000  -2.959026e+001  -1.265022e+002 
3868750000  -2.967666e+001  -1.264760e+002 
3871875000  -2.898787e+001  -1.295161e+002 
3875000000  -2.897531e+001  -1.380311e+002 
3878125000  -3.003546e+001  -1.404633e+002 
3881250000  -3.012723e+001  -1.371972e+002 
3884375000  -2.963436e+001  -1.416984e+002 
3887500000  -2.974864e+001  -1.463210e+002 
3890625000  -3.029382e+001  -1.482689e+002 
3893750000  -3.076298e+001  -1.496554e+002 
3896875000  -3.076955e+001  -1.492565e+002 
3900000000  -3.106468e+001  -1.497725e+002 
3903125000  -3.070567e+001  -1.515182e+002 
3906250000  -3.051286e+001  -1.529585e+002 
3909375000  -2.972436e+001  -1.547835e+002 
3912500000  -2.977632e+001  -1.621238e+002 
3915625000  -3.095087e+001  -1.617304e+002 
3918750000  -3.105308e+001  -1.600395e+002 
3921875000  -3.068691e+001  -1.610572e+002 
3925000000  -2.984982e+001  -1.622368e+002 
3928125000  -2.907917e+001  -1.676944e+002 
3931250000  -2.949754e+001  -1.716177e+002 
3934375000  -2.973137e+001  -1.711154e+002 
3937500000  -2.990545e+001  -1.723083e+002 
3940625000  -3.031643e+001  -1.720891e+002 
3943750000  -2.946304e+001  -1.706169e+002 
3946875000  -2.819040e+001  -1.762284e+002 
3950000000  -2.866120e+001  1.764187e+002 
3953125000  -2.951674e+001  1.765946e+002 
3956250000  -2.867277e+001  1.795744e+002 
3959375000  -2.741725e+001  1.759470e+002 
3962500000  -2.694997e+001  1.724847e+002 
3965625000  -2.656768e+001  1.633632e+002 
3968750000  -2.742564e+001  1.571161e+002 
3971875000  -2.787267e+001  1.551122e+002 
3975000000  -2.720678e+001  1.533521e+002 
3978125000  -2.698843e+001  1.522228e+002 
3981250000  -2.680760e+001  1.475409e+002 
3984375000  -2.698904e+001  1.413912e+002 
3987500000  -2.757856e+001  1.391034e+002 
3990625000  -2.748689e+001  1.382729e+002 
3993750000  -2.767879e+001  1.352165e+002 
3996875000  -2.765030e+001  1.324186e+002 
4000000000  -2.776826e+001  1.307719e+002 
4003125000  -2.837453e+001  1.326584e+002 
4006250000  -2.710106e+001  1.333410e+002 
4009375000  -2.579337e+001  1.212923e+002 
4012500000  -2.682711e+001  1.137095e+002 
4015625000  -2.810151e+001  1.143658e+002 
4018750000  -2.828706e+001  1.166119e+002 
4021875000  -2.761587e+001  1.152606e+002 
4025000000  -2.729100e+001  1.105816e+002 
4028125000  -2.718370e+001  1.064023e+002 
4031250000  -2.767872e+001  1.032003e+002 
4034375000  -2.798188e+001  1.030487e+002 
4037500000  -2.734505e+001  1.051038e+002 
4040625000  -2.735755e+001  1.016837e+002 
4043750000  -2.764562e+001  1.013667e+002 
4046875000  -2.723846e+001  1.010587e+002 
4050000000  -2.672441e+001  9.549046e+001 
4053125000  -2.715827e+001  9.340374e+001 
4056250000  -2.778907e+001  9.730640e+001 
4059375000  -2.659198e+001  9.914581e+001 
4062500000  -2.519515e+001  9.500343e+001 
4065625000  -2.503664e+001  9.012943e+001 
4068750000  -2.471334e+001  8.578486e+001 
4071875000  -2.409027e+001  7.786910e+001 
4075000000  -2.445445e+001  7.130219e+001 
4078125000  -2.499445e+001  7.013417e+001 
4081250000  -2.448164e+001  6.816690e+001 
4084375000  -2.407822e+001  6.113454e+001 
4087500000  -2.440907e+001  5.504214e+001 
4090625000  -2.502355e+001  5.363169e+001 
4093750000  -2.488332e+001  5.466738e+001 
4096875000  -2.439446e+001  4.878343e+001 
4100000000  -2.509976e+001  4.177749e+001 
4103125000  -2.598094e+001  4.195151e+001 
4106250000  -2.585476e+001  4.680594e+001 
4109375000  -2.498509e+001  4.647339e+001 
4112500000  -2.442511e+001  3.974557e+001 
4115625000  -2.472622e+001  3.553794e+001 
4118750000  -2.486274e+001  3.273298e+001 
4121875000  -2.450379e+001  2.781608e+001 
4125000000  -2.476179e+001  2.286186e+001 
4128125000  -2.578346e+001  2.267968e+001 
4131250000  -2.555909e+001  3.117080e+001 
4134375000  -2.329002e+001  2.667883e+001 
4137500000  -2.301276e+001  7.977229e+000 
4140625000  -2.515775e+001  9.445777e-001 
4143750000  -2.648090e+001  5.279618e+000 
4146875000  -2.609502e+001  1.275311e+001 
4150000000  -2.524320e+001  1.003875e+001 
4153125000  -2.503541e+001  3.941938e+000 
4156250000  -2.589714e+001  1.321592e+000 
4159375000  -2.619887e+001  5.390798e+000 
4162500000  -2.506343e+001  9.537459e+000 
4165625000  -2.394116e+001  5.477318e+000 
4168750000  -2.329481e+001  -1.049806e+000 
4171875000  -2.327028e+001  -1.072191e+001 
4175000000  -2.383637e+001  -1.621346e+001 
4178125000  -2.444335e+001  -1.631500e+001 
4181250000  -2.434535e+001  -1.675669e+001 
4184375000  -2.416745e+001  -2.004043e+001 
4187500000  -2.421303e+001  -2.238640e+001 
4190625000  -2.403238e+001  -2.792284e+001 
4193750000  -2.478679e+001  -3.191747e+001 
4196875000  -2.547049e+001  -3.215882e+001 
4200000000  -2.632208e+001  -3.012629e+001 
4203125000  -2.644195e+001  -1.738072e+001 
4206250000  -2.309915e+001  -1.511333e+001 
4209375000  -2.186987e+001  -3.529513e+001 
4212500000  -2.374234e+001  -4.431742e+001 
4215625000  -2.473142e+001  -3.836712e+001 
4218750000  -2.350498e+001  -3.184432e+001 
4221875000  -2.111499e+001  -4.071926e+001 
4225000000  -2.234565e+001  -5.357377e+001 
4228125000  -2.307479e+001  -4.860939e+001 
4231250000  -2.151879e+001  -5.214522e+001 
4234375000  -2.143935e+001  -6.034428e+001 
4237500000  -2.101890e+001  -6.356028e+001 
4240625000  -2.102396e+001  -7.210833e+001 
4243750000  -2.197697e+001  -7.881813e+001 
4246875000  -2.288011e+001  -7.909435e+001 
4250000000  -2.293782e+001  -7.630532e+001 
4253125000  -2.236712e+001  -7.807732e+001 
4256250000  -2.263173e+001  -8.204841e+001 
4259375000  -2.234239e+001  -8.420006e+001 
4262500000  -2.239432e+001  -8.808632e+001 
4265625000  -2.256919e+001  -8.773103e+001 
4268750000  -2.173339e+001  -9.189573e+001 
4271875000  -2.145748e+001  -9.703306e+001 
4275000000  -2.086072e+001  -1.038058e+002 
4278125000  -2.143094e+001  -1.148160e+002 
4281250000  -2.321920e+001  -1.165168e+002 
4284375000  -2.297487e+001  -1.159937e+002 
4287500000  -2.370067e+001  -1.197402e+002 
4290625000  -2.499960e+001  -1.105051e+002 
4293750000  -2.304581e+001  -1.042776e+002 
4296875000  -2.163621e+001  -1.156466e+002 
4300000000  -2.247468e+001  -1.249212e+002 
4303125000  -2.361376e+001  -1.242554e+002 
4306250000  -2.302768e+001  -1.179892e+002 
4309375000  -2.164546e+001  -1.196167e+002 
4312500000  -2.153291e+001  -1.280230e+002 
4315625000  -2.172580e+001  -1.343253e+002 
4318750000  -2.202229e+001  -1.378260e+002 
4321875000  -2.220009e+001  -1.372058e+002 
4325000000  -2.159251e+001  -1.363950e+002 
4328125000  -2.112304e+001  -1.427397e+002 
4331250000  -2.108615e+001  -1.509185e+002 
4334375000  -2.144832e+001  -1.559718e+002 
4337500000  -2.230191e+001  -1.582306e+002 
4340625000  -2.280480e+001  -1.547698e+002 
4343750000  -2.227444e+001  -1.544915e+002 
4346875000  -2.184898e+001  -1.600162e+002 
4350000000  -2.187674e+001  -1.643455e+002 
4353125000  -2.191114e+001  -1.723197e+002 
4356250000  -2.362851e+001  -1.737524e+002 
4359375000  -2.428212e+001  -1.606704e+002 
4362500000  -2.168818e+001  -1.584404e+002 
4365625000  -2.000412e+001  -1.699553e+002 
4368750000  -2.071170e+001  1.781354e+002 
4371875000  -2.191225e+001  1.787262e+002 
4375000000  -2.159752e+001  1.798386e+002 
4378125000  -2.094217e+001  1.739457e+002 
4381250000  -2.109167e+001  1.686955e+002 
4384375000  -2.093525e+001  1.640455e+002 
4387500000  -2.162367e+001  1.584002e+002 
4390625000  -2.267663e+001  1.592065e+002 
4393750000  -2.198381e+001  1.613669e+002 
4396875000  -2.135574e+001  1.589536e+002 
4400000000  -2.089302e+001  1.521658e+002 
4403125000  -2.139766e+001  1.449290e+002 
4406250000  -2.228884e+001  1.431848e+002 
4409375000  -2.222803e+001  1.411163e+002 
4412500000  -2.321305e+001  1.383673e+002 
4415625000  -2.363338e+001  1.430966e+002 
4418750000  -2.246136e+001  1.477942e+002 
4421875000  -2.106330e+001  1.442289e+002 
