!Agilent Technologies,E8363B,MY43030201,A.06.04.32
!Agilent E8363B: A.06.04.32
!Date: Tuesday, November 11, 2014 20:57:54
!Correction: S21(Response(S21)) 
!S1P File: Measurement: S21:
# Hz S  dB   R 50
3000000000  -2.650605e+001  1.468949e+002 
3003125000  -2.793020e+001  1.421291e+002 
3006250000  -2.797884e+001  1.397335e+002 
3009375000  -2.833073e+001  1.448524e+002 
3012500000  -2.774134e+001  1.441430e+002 
3015625000  -2.684147e+001  1.371018e+002 
3018750000  -2.767937e+001  1.364486e+002 
3021875000  -2.637341e+001  1.378376e+002 
3025000000  -2.506191e+001  1.344606e+002 
3028125000  -2.412274e+001  1.292759e+002 
3031250000  -2.308561e+001  1.182763e+002 
3034375000  -2.274355e+001  1.051098e+002 
3037500000  -2.312736e+001  9.325768e+001 
3040625000  -2.445624e+001  8.817155e+001 
3043750000  -2.517609e+001  8.386416e+001 
3046875000  -2.529871e+001  7.754351e+001 
3050000000  -2.703036e+001  7.095241e+001 
3053125000  -2.711893e+001  7.735247e+001 
3056250000  -2.648517e+001  8.038850e+001 
3059375000  -2.667578e+001  7.985538e+001 
3062500000  -2.515479e+001  7.625159e+001 
3065625000  -2.497977e+001  7.028426e+001 
3068750000  -2.467352e+001  6.328074e+001 
3071875000  -2.462057e+001  6.079737e+001 
3075000000  -2.458564e+001  5.655296e+001 
3078125000  -2.434119e+001  5.228460e+001 
3081250000  -2.495568e+001  4.780899e+001 
3084375000  -2.417280e+001  4.418457e+001 
3087500000  -2.409861e+001  4.037683e+001 
3090625000  -2.376993e+001  3.061778e+001 
3093750000  -2.426945e+001  2.286359e+001 
3096875000  -2.556673e+001  1.713745e+001 
3100000000  -2.563619e+001  1.558541e+001 
3103125000  -2.602656e+001  1.696545e+001 
3106250000  -2.576454e+001  1.325655e+001 
3109375000  -2.602331e+001  9.830494e+000 
3112500000  -2.613862e+001  8.640638e+000 
3115625000  -2.595942e+001  4.667247e+000 
3118750000  -2.642545e+001  5.885290e+000 
3121875000  -2.575656e+001  -2.401439e+000 
3125000000  -2.701524e+001  -5.686484e+000 
3128125000  -2.809489e+001  2.506484e+000 
3131250000  -2.591065e+001  2.721523e+000 
3134375000  -2.461576e+001  -1.102801e+001 
3137500000  -2.533522e+001  -2.431425e+001 
3140625000  -2.693491e+001  -2.570907e+001 
3143750000  -2.791085e+001  -2.241697e+001 
3146875000  -2.747146e+001  -1.979907e+001 
3150000000  -2.646888e+001  -1.788594e+001 
3153125000  -2.652176e+001  -2.569672e+001 
3156250000  -2.748265e+001  -1.973486e+001 
3159375000  -2.586043e+001  -1.716606e+001 
3162500000  -2.381747e+001  -2.988342e+001 
3165625000  -2.478624e+001  -4.094756e+001 
3168750000  -2.516264e+001  -3.990140e+001 
3171875000  -2.421058e+001  -4.428673e+001 
3175000000  -2.488233e+001  -5.216357e+001 
3178125000  -2.462086e+001  -5.038782e+001 
3181250000  -2.346816e+001  -5.475348e+001 
3184375000  -2.274128e+001  -6.673422e+001 
3187500000  -2.389564e+001  -8.188639e+001 
3190625000  -2.654349e+001  -8.907771e+001 
3193750000  -2.716663e+001  -7.946263e+001 
3196875000  -2.673241e+001  -7.421757e+001 
3200000000  -2.582738e+001  -7.611261e+001 
3203125000  -2.499102e+001  -8.202409e+001 
3206250000  -2.528193e+001  -8.809110e+001 
3209375000  -2.480892e+001  -9.326690e+001 
3212500000  -2.499580e+001  -9.965475e+001 
3215625000  -2.511174e+001  -1.038175e+002 
3218750000  -2.585805e+001  -1.101403e+002 
3221875000  -2.681301e+001  -1.153890e+002 
3225000000  -2.643020e+001  -1.160991e+002 
3228125000  -2.677642e+001  -1.206714e+002 
3231250000  -2.752883e+001  -1.230279e+002 
3234375000  -2.735543e+001  -1.221004e+002 
3237500000  -2.738341e+001  -1.238054e+002 
3240625000  -2.702836e+001  -1.259025e+002 
3243750000  -2.674071e+001  -1.322536e+002 
3246875000  -2.719231e+001  -1.388533e+002 
3250000000  -2.768049e+001  -1.408436e+002 
3253125000  -2.784511e+001  -1.423895e+002 
3256250000  -2.765443e+001  -1.482675e+002 
3259375000  -2.802237e+001  -1.558465e+002 
3262500000  -2.926487e+001  -1.586267e+002 
3265625000  -2.996268e+001  -1.553140e+002 
3268750000  -2.996402e+001  -1.519337e+002 
3271875000  -2.959296e+001  -1.517537e+002 
3275000000  -2.857922e+001  -1.567675e+002 
3278125000  -2.905076e+001  -1.627469e+002 
3281250000  -2.928676e+001  -1.606156e+002 
3284375000  -2.889789e+001  -1.668349e+002 
3287500000  -2.904986e+001  -1.695249e+002 
3290625000  -2.944690e+001  -1.736592e+002 
3293750000  -2.911807e+001  -1.795152e+002 
3296875000  -3.014979e+001  -1.795560e+002 
3300000000  -2.997729e+001  -1.783431e+002 
3303125000  -2.886086e+001  1.776871e+002 
3306250000  -2.866193e+001  1.714498e+002 
3309375000  -2.841982e+001  1.660557e+002 
3312500000  -2.847642e+001  1.557421e+002 
3315625000  -2.949714e+001  1.480112e+002 
3318750000  -3.095491e+001  1.453521e+002 
3321875000  -3.212252e+001  1.460770e+002 
3325000000  -3.256225e+001  1.511923e+002 
3328125000  -3.238671e+001  1.522176e+002 
3331250000  -3.122679e+001  1.596413e+002 
3334375000  -2.855443e+001  1.493882e+002 
3337500000  -2.864753e+001  1.315060e+002 
3340625000  -3.007530e+001  1.201881e+002 
3343750000  -3.206527e+001  1.196327e+002 
3346875000  -3.247735e+001  1.209364e+002 
3350000000  -3.178347e+001  1.195401e+002 
3353125000  -3.194260e+001  1.150318e+002 
3356250000  -3.163372e+001  1.076625e+002 
3359375000  -3.249176e+001  9.919382e+001 
3362500000  -3.387254e+001  9.394952e+001 
3365625000  -3.436013e+001  9.245801e+001 
3368750000  -3.532565e+001  9.035792e+001 
3371875000  -3.585248e+001  8.688356e+001 
3375000000  -3.740891e+001  8.491140e+001 
3378125000  -3.854542e+001  8.446078e+001 
3381250000  -4.014916e+001  9.331064e+001 
3384375000  -3.901434e+001  1.133320e+002 
3387500000  -3.610088e+001  9.972235e+001 
3390625000  -3.779897e+001  8.029837e+001 
3393750000  -3.955214e+001  8.655727e+001 
3396875000  -3.866752e+001  8.861040e+001 
3400000000  -3.855676e+001  8.125288e+001 
3403125000  -3.981307e+001  7.776195e+001 
3406250000  -4.043279e+001  7.924518e+001 
3409375000  -4.083965e+001  7.492789e+001 
3412500000  -4.190511e+001  7.611396e+001 
3415625000  -4.280810e+001  8.029936e+001 
3418750000  -4.300265e+001  8.512874e+001 
3421875000  -4.354095e+001  9.169462e+001 
3425000000  -4.242914e+001  9.504032e+001 
3428125000  -4.131198e+001  9.592461e+001 
3431250000  -4.132137e+001  8.955382e+001 
3434375000  -4.113456e+001  8.897728e+001 
3437500000  -4.170885e+001  8.651463e+001 
3440625000  -4.193173e+001  8.912140e+001 
3443750000  -4.059547e+001  9.180994e+001 
3446875000  -3.965055e+001  8.558312e+001 
3450000000  -3.953235e+001  7.625552e+001 
3453125000  -3.986087e+001  6.891755e+001 
3456250000  -4.104318e+001  6.271677e+001 
3459375000  -4.204036e+001  6.470059e+001 
3462500000  -4.219180e+001  6.775768e+001 
3465625000  -4.205406e+001  6.246262e+001 
3468750000  -4.237430e+001  5.902477e+001 
3471875000  -4.272020e+001  5.784567e+001 
3475000000  -4.255433e+001  5.637968e+001 
3478125000  -4.300127e+001  4.996222e+001 
3481250000  -4.407978e+001  4.971043e+001 
3484375000  -4.590216e+001  5.508395e+001 
3487500000  -4.572764e+001  5.781496e+001 
3490625000  -4.518357e+001  5.333257e+001 
3493750000  -4.603304e+001  4.827893e+001 
3496875000  -4.687640e+001  5.157385e+001 
3500000000  -4.799420e+001  5.904775e+001 
3503125000  -4.772984e+001  6.134829e+001 
3506250000  -4.643441e+001  6.489542e+001 
3509375000  -4.707463e+001  6.099422e+001 
3512500000  -4.766203e+001  6.253667e+001 
3515625000  -4.774958e+001  6.228009e+001 
3518750000  -4.852410e+001  6.902656e+001 
3521875000  -4.782909e+001  7.201495e+001 
3525000000  -4.792694e+001  7.478024e+001 
3528125000  -4.776529e+001  8.984465e+001 
3531250000  -4.581845e+001  8.665156e+001 
3534375000  -4.499494e+001  7.933189e+001 
3537500000  -4.511042e+001  7.450591e+001 
3540625000  -4.579760e+001  7.523919e+001 
3543750000  -4.560255e+001  8.087034e+001 
3546875000  -4.567051e+001  9.164585e+001 
3550000000  -4.296113e+001  9.372048e+001 
3553125000  -4.164332e+001  7.754286e+001 
3556250000  -4.245166e+001  7.110538e+001 
3559375000  -4.214872e+001  7.273984e+001 
3562500000  -4.100321e+001  6.572716e+001 
3565625000  -4.161891e+001  5.942588e+001 
3568750000  -4.182061e+001  6.269610e+001 
3571875000  -4.164122e+001  6.297204e+001 
3575000000  -4.094002e+001  5.845387e+001 
3578125000  -4.177093e+001  5.417302e+001 
3581250000  -4.152876e+001  5.540357e+001 
3584375000  -4.058464e+001  5.472258e+001 
3587500000  -4.010928e+001  4.684923e+001 
3590625000  -4.030467e+001  3.841418e+001 
3593750000  -4.159392e+001  3.847344e+001 
3596875000  -4.131842e+001  4.596382e+001 
3600000000  -3.979609e+001  4.351293e+001 
3603125000  -3.989375e+001  2.997063e+001 
3606250000  -4.044404e+001  2.720434e+001 
3609375000  -4.095368e+001  2.576909e+001 
3612500000  -4.159266e+001  2.528575e+001 
3615625000  -4.135926e+001  2.387428e+001 
3618750000  -4.215232e+001  2.572679e+001 
3621875000  -4.153837e+001  2.391917e+001 
3625000000  -4.204268e+001  2.537369e+001 
3628125000  -4.175163e+001  2.567817e+001 
3631250000  -4.125977e+001  1.792890e+001 
3634375000  -4.245210e+001  2.077836e+001 
3637500000  -4.186914e+001  2.685196e+001 
3640625000  -4.066848e+001  2.756010e+001 
3643750000  -4.059636e+001  2.171454e+001 
3646875000  -4.111821e+001  1.688541e+001 
3650000000  -4.154160e+001  1.526350e+001 
3653125000  -4.135138e+001  1.547916e+001 
3656250000  -4.144550e+001  1.268612e+001 
3659375000  -4.153026e+001  1.644311e+001 
3662500000  -4.088671e+001  1.582572e+001 
3665625000  -4.132074e+001  1.535857e+001 
3668750000  -3.998898e+001  1.798993e+001 
3671875000  -3.904444e+001  1.169074e+001 
3675000000  -3.981754e+001  6.562913e+000 
3678125000  -4.004342e+001  8.424014e+000 
3681250000  -3.955713e+001  9.065847e+000 
3684375000  -3.968006e+001  7.214638e+000 
3687500000  -3.961302e+001  6.071080e+000 
3690625000  -3.977398e+001  2.405924e+000 
3693750000  -4.042834e+001  4.474425e+000 
3696875000  -4.005275e+001  9.078671e+000 
3700000000  -3.877954e+001  7.265374e+000 
3703125000  -3.888073e+001  3.042374e+000 
3706250000  -3.951291e+001  5.964442e+000 
3709375000  -3.882820e+001  9.084690e+000 
3712500000  -3.747728e+001  8.902268e+000 
3715625000  -3.648842e+001  2.398330e+000 
3718750000  -3.576131e+001  -2.116369e-001 
3721875000  -3.535349e+001  -5.321234e+000 
3725000000  -3.536835e+001  -9.399249e+000 
3728125000  -3.545026e+001  -1.060388e+001 
3731250000  -3.467775e+001  -1.071090e+001 
3734375000  -3.369203e+001  -1.741013e+001 
3737500000  -3.427444e+001  -2.417737e+001 
3740625000  -3.500279e+001  -2.705143e+001 
3743750000  -3.465593e+001  -2.966360e+001 
3746875000  -3.452968e+001  -3.246367e+001 
3750000000  -3.499398e+001  -3.371344e+001 
3753125000  -3.468229e+001  -3.373149e+001 
3756250000  -3.448277e+001  -3.464452e+001 
3759375000  -3.429066e+001  -3.522956e+001 
3762500000  -3.378583e+001  -3.976387e+001 
3765625000  -3.411058e+001  -4.213307e+001 
3768750000  -3.433067e+001  -4.012840e+001 
3771875000  -3.238165e+001  -4.181029e+001 
3775000000  -3.227478e+001  -4.960918e+001 
3778125000  -3.257531e+001  -5.207303e+001 
3781250000  -3.236203e+001  -5.483489e+001 
3784375000  -3.237697e+001  -5.711554e+001 
3787500000  -3.158177e+001  -6.041476e+001 
3790625000  -3.229559e+001  -6.625820e+001 
3793750000  -3.242452e+001  -6.667790e+001 
3796875000  -3.145218e+001  -6.804673e+001 
3800000000  -2.987555e+001  -7.159621e+001 
3803125000  -3.071670e+001  -7.912544e+001 
3806250000  -3.137567e+001  -8.109047e+001 
3809375000  -3.107434e+001  -8.205550e+001 
3812500000  -3.043512e+001  -8.729093e+001 
3815625000  -3.098544e+001  -9.491531e+001 
3818750000  -3.212767e+001  -9.602478e+001 
3821875000  -3.207137e+001  -8.731725e+001 
3825000000  -3.018287e+001  -8.346542e+001 
3828125000  -2.874793e+001  -9.742468e+001 
3831250000  -2.939247e+001  -1.114552e+002 
3834375000  -3.071412e+001  -1.122043e+002 
3837500000  -3.163277e+001  -1.066581e+002 
3840625000  -3.048497e+001  -1.077340e+002 
3843750000  -2.931478e+001  -1.179322e+002 
3846875000  -3.006111e+001  -1.251292e+002 
3850000000  -3.139002e+001  -1.187813e+002 
3853125000  -3.059559e+001  -1.169334e+002 
3856250000  -3.040875e+001  -1.214326e+002 
3859375000  -2.966003e+001  -1.266683e+002 
3862500000  -2.922717e+001  -1.335034e+002 
3865625000  -2.957234e+001  -1.381036e+002 
3868750000  -2.958130e+001  -1.388605e+002 
3871875000  -2.885628e+001  -1.415176e+002 
3875000000  -2.902834e+001  -1.496694e+002 
3878125000  -3.006846e+001  -1.527899e+002 
3881250000  -3.010106e+001  -1.491727e+002 
3884375000  -2.961045e+001  -1.542336e+002 
3887500000  -2.967367e+001  -1.582407e+002 
3890625000  -3.029577e+001  -1.602721e+002 
3893750000  -3.065065e+001  -1.623941e+002 
3896875000  -3.076999e+001  -1.615401e+002 
3900000000  -3.102124e+001  -1.621325e+002 
3903125000  -3.068758e+001  -1.641246e+002 
3906250000  -3.032137e+001  -1.652095e+002 
3909375000  -2.954554e+001  -1.681543e+002 
3912500000  -2.975290e+001  -1.756577e+002 
3915625000  -3.093304e+001  -1.745010e+002 
3918750000  -3.090708e+001  -1.721949e+002 
3921875000  -3.059641e+001  -1.745854e+002 
3925000000  -2.971739e+001  -1.751139e+002 
3928125000  -2.909100e+001  1.790943e+002 
3931250000  -2.947858e+001  1.747780e+002 
3934375000  -2.989639e+001  1.753277e+002 
3937500000  -3.002072e+001  1.744256e+002 
3940625000  -3.040862e+001  1.751449e+002 
3943750000  -2.951553e+001  1.761626e+002 
3946875000  -2.819179e+001  1.709584e+002 
3950000000  -2.878808e+001  1.633064e+002 
3953125000  -2.986654e+001  1.641552e+002 
3956250000  -2.883307e+001  1.667726e+002 
3959375000  -2.753130e+001  1.639504e+002 
3962500000  -2.701780e+001  1.597414e+002 
3965625000  -2.666106e+001  1.508013e+002 
3968750000  -2.757432e+001  1.444459e+002 
3971875000  -2.796151e+001  1.429168e+002 
3975000000  -2.727847e+001  1.408572e+002 
3978125000  -2.712389e+001  1.393101e+002 
3981250000  -2.683076e+001  1.351370e+002 
3984375000  -2.710003e+001  1.288277e+002 
3987500000  -2.760830e+001  1.268506e+002 
3990625000  -2.759407e+001  1.262053e+002 
3993750000  -2.784818e+001  1.234871e+002 
3996875000  -2.772063e+001  1.206115e+002 
4000000000  -2.795119e+001  1.185630e+002 
4003125000  -2.845376e+001  1.207374e+002 
4006250000  -2.702719e+001  1.212112e+002 
4009375000  -2.582697e+001  1.084861e+002 
4012500000  -2.689960e+001  1.013956e+002 
4015625000  -2.817952e+001  1.017177e+002 
4018750000  -2.835836e+001  1.045821e+002 
4021875000  -2.766466e+001  1.027410e+002 
4025000000  -2.732168e+001  9.798366e+001 
4028125000  -2.719412e+001  9.371131e+001 
4031250000  -2.773827e+001  9.019089e+001 
4034375000  -2.801125e+001  9.052232e+001 
4037500000  -2.746316e+001  9.257675e+001 
4040625000  -2.738409e+001  8.886543e+001 
4043750000  -2.776403e+001  8.879740e+001 
4046875000  -2.731784e+001  8.815248e+001 
4050000000  -2.680783e+001  8.272604e+001 
4053125000  -2.725147e+001  8.068692e+001 
4056250000  -2.785606e+001  8.497380e+001 
4059375000  -2.660699e+001  8.704598e+001 
4062500000  -2.527934e+001  8.184836e+001 
4065625000  -2.513619e+001  7.759471e+001 
4068750000  -2.486608e+001  7.299224e+001 
4071875000  -2.422478e+001  6.513905e+001 
4075000000  -2.458202e+001  5.881527e+001 
4078125000  -2.516558e+001  5.769677e+001 
4081250000  -2.464425e+001  5.535891e+001 
4084375000  -2.423805e+001  4.888448e+001 
4087500000  -2.455024e+001  4.231489e+001 
4090625000  -2.517919e+001  4.146704e+001 
4093750000  -2.498002e+001  4.238913e+001 
4096875000  -2.451195e+001  3.598092e+001 
4100000000  -2.525957e+001  2.935392e+001 
4103125000  -2.611706e+001  3.021803e+001 
4106250000  -2.599671e+001  3.499174e+001 
4109375000  -2.508807e+001  3.424571e+001 
4112500000  -2.451896e+001  2.739692e+001 
4115625000  -2.482044e+001  2.332715e+001 
4118750000  -2.492679e+001  2.063995e+001 
4121875000  -2.455726e+001  1.591668e+001 
4125000000  -2.493472e+001  1.079755e+001 
4128125000  -2.596412e+001  1.096579e+001 
4131250000  -2.557351e+001  1.914077e+001 
4134375000  -2.326103e+001  1.473713e+001 
4137500000  -2.310128e+001  -4.314145e+000 
4140625000  -2.534639e+001  -1.137061e+001 
4143750000  -2.658865e+001  -6.243078e+000 
4146875000  -2.615884e+001  1.648787e+000 
4150000000  -2.516443e+001  -2.302026e+000 
4153125000  -2.501719e+001  -9.131022e+000 
4156250000  -2.595279e+001  -1.136613e+001 
4159375000  -2.620615e+001  -7.045802e+000 
4162500000  -2.503734e+001  -2.624340e+000 
4165625000  -2.392565e+001  -6.954386e+000 
4168750000  -2.336694e+001  -1.393934e+001 
4171875000  -2.330882e+001  -2.313595e+001 
4175000000  -2.393162e+001  -2.873556e+001 
4178125000  -2.453853e+001  -2.870517e+001 
4181250000  -2.439391e+001  -2.949171e+001 
4184375000  -2.427183e+001  -3.287553e+001 
4187500000  -2.430818e+001  -3.564027e+001 
4190625000  -2.416296e+001  -4.094639e+001 
4193750000  -2.493368e+001  -4.464692e+001 
4196875000  -2.561877e+001  -4.510228e+001 
4200000000  -2.652856e+001  -4.255502e+001 
4203125000  -2.657683e+001  -2.892785e+001 
4206250000  -2.307613e+001  -2.768407e+001 
4209375000  -2.191870e+001  -4.852716e+001 
4212500000  -2.388387e+001  -5.718509e+001 
4215625000  -2.491068e+001  -5.084173e+001 
4218750000  -2.353460e+001  -4.396267e+001 
4221875000  -2.121852e+001  -5.315146e+001 
4225000000  -2.250089e+001  -6.559106e+001 
4228125000  -2.311507e+001  -6.063940e+001 
4231250000  -2.157961e+001  -6.466122e+001 
4234375000  -2.150727e+001  -7.281139e+001 
4237500000  -2.108258e+001  -7.593026e+001 
4240625000  -2.110832e+001  -8.466035e+001 
4243750000  -2.210737e+001  -9.138607e+001 
4246875000  -2.297660e+001  -9.138532e+001 
4250000000  -2.299658e+001  -8.884736e+001 
4253125000  -2.245420e+001  -9.044866e+001 
4256250000  -2.272342e+001  -9.462545e+001 
4259375000  -2.244316e+001  -9.678471e+001 
4262500000  -2.244858e+001  -1.003268e+002 
4265625000  -2.257109e+001  -9.993399e+001 
4268750000  -2.168092e+001  -1.039658e+002 
4271875000  -2.146063e+001  -1.095945e+002 
4275000000  -2.085567e+001  -1.162039e+002 
4278125000  -2.149755e+001  -1.275056e+002 
4281250000  -2.329584e+001  -1.289055e+002 
4284375000  -2.296873e+001  -1.286551e+002 
4287500000  -2.378350e+001  -1.320922e+002 
4290625000  -2.501680e+001  -1.224439e+002 
4293750000  -2.298576e+001  -1.172914e+002 
4296875000  -2.165989e+001  -1.288003e+002 
4300000000  -2.253304e+001  -1.376230e+002 
4303125000  -2.365027e+001  -1.364029e+002 
4306250000  -2.299106e+001  -1.303038e+002 
4309375000  -2.159846e+001  -1.328672e+002 
4312500000  -2.154684e+001  -1.410314e+002 
4315625000  -2.170125e+001  -1.473217e+002 
4318750000  -2.208081e+001  -1.506308e+002 
4321875000  -2.225063e+001  -1.500472e+002 
4325000000  -2.167971e+001  -1.493605e+002 
4328125000  -2.117113e+001  -1.559787e+002 
4331250000  -2.110391e+001  -1.639356e+002 
4334375000  -2.154308e+001  -1.691815e+002 
4337500000  -2.240883e+001  -1.709276e+002 
4340625000  -2.295324e+001  -1.675694e+002 
4343750000  -2.233562e+001  -1.671957e+002 
4346875000  -2.195480e+001  -1.732002e+002 
4350000000  -2.196733e+001  -1.777688e+002 
4353125000  -2.206240e+001  1.745349e+002 
4356250000  -2.383603e+001  1.741563e+002 
4359375000  -2.439907e+001  -1.721086e+002 
4362500000  -2.159813e+001  -1.707251e+002 
4365625000  -2.003011e+001  1.771549e+002 
4368750000  -2.077392e+001  1.655125e+002 
4371875000  -2.198369e+001  1.661970e+002 
4375000000  -2.160567e+001  1.672903e+002 
4378125000  -2.096349e+001  1.613288e+002 
4381250000  -2.116423e+001  1.560211e+002 
4384375000  -2.097343e+001  1.514665e+002 
4387500000  -2.173460e+001  1.457389e+002 
4390625000  -2.270986e+001  1.463751e+002 
4393750000  -2.203354e+001  1.486866e+002 
4396875000  -2.135878e+001  1.464195e+002 
4400000000  -2.087898e+001  1.394593e+002 
4403125000  -2.148095e+001  1.317913e+002 
4406250000  -2.229315e+001  1.306027e+002 
4409375000  -2.226591e+001  1.281653e+002 
4412500000  -2.331094e+001  1.255555e+002 
4415625000  -2.363350e+001  1.308008e+002 
4418750000  -2.241942e+001  1.354401e+002 
