!Agilent Technologies,E8363B,MY43030201,A.06.04.32
!Agilent E8363B: A.06.04.32
!Date: Tuesday, November 11, 2014 20:47:03
!Correction: S21(Response(S21)) 
!S1P File: Measurement: S21:
# Hz S  dB   R 50
3000000000  -2.642338e+001  1.557997e+002 
3003125000  -2.784083e+001  1.513585e+002 
3006250000  -2.789956e+001  1.486964e+002 
3009375000  -2.821632e+001  1.536062e+002 
3012500000  -2.775777e+001  1.532221e+002 
3015625000  -2.674685e+001  1.464244e+002 
3018750000  -2.762216e+001  1.453341e+002 
3021875000  -2.638360e+001  1.469312e+002 
3025000000  -2.507154e+001  1.436326e+002 
3028125000  -2.407894e+001  1.386995e+002 
3031250000  -2.305424e+001  1.277781e+002 
3034375000  -2.267420e+001  1.148316e+002 
3037500000  -2.300397e+001  1.026399e+002 
3040625000  -2.434281e+001  9.753754e+001 
3043750000  -2.505794e+001  9.338023e+001 
3046875000  -2.516393e+001  8.704373e+001 
3050000000  -2.692262e+001  7.996864e+001 
3053125000  -2.708647e+001  8.622018e+001 
3056250000  -2.640847e+001  8.931850e+001 
3059375000  -2.669861e+001  8.900464e+001 
3062500000  -2.522750e+001  8.501340e+001 
3065625000  -2.497755e+001  7.979117e+001 
3068750000  -2.469873e+001  7.283985e+001 
3071875000  -2.464932e+001  6.974591e+001 
3075000000  -2.466512e+001  6.595718e+001 
3078125000  -2.435701e+001  6.159097e+001 
3081250000  -2.496753e+001  5.717352e+001 
3084375000  -2.424280e+001  5.380622e+001 
3087500000  -2.407674e+001  5.027274e+001 
3090625000  -2.382627e+001  4.074573e+001 
3093750000  -2.423740e+001  3.260457e+001 
3096875000  -2.553944e+001  2.634505e+001 
3100000000  -2.569806e+001  2.514906e+001 
3103125000  -2.608960e+001  2.647222e+001 
3106250000  -2.580078e+001  2.315493e+001 
3109375000  -2.604240e+001  1.946340e+001 
3112500000  -2.617317e+001  1.866593e+001 
3115625000  -2.595008e+001  1.429717e+001 
3118750000  -2.646794e+001  1.568955e+001 
3121875000  -2.578759e+001  7.692851e+000 
3125000000  -2.692441e+001  4.051148e+000 
3128125000  -2.813910e+001  1.199539e+001 
3131250000  -2.603378e+001  1.280720e+001 
3134375000  -2.464350e+001  -6.092201e-001 
3137500000  -2.529153e+001  -1.450015e+001 
3140625000  -2.694564e+001  -1.632368e+001 
3143750000  -2.796789e+001  -1.189280e+001 
3146875000  -2.755123e+001  -1.015053e+001 
3150000000  -2.651168e+001  -7.905268e+000 
3153125000  -2.649160e+001  -1.551208e+001 
3156250000  -2.748144e+001  -1.011179e+001 
3159375000  -2.597160e+001  -7.305399e+000 
3162500000  -2.387826e+001  -2.000601e+001 
3165625000  -2.481709e+001  -3.093002e+001 
3168750000  -2.527167e+001  -3.028948e+001 
3171875000  -2.427980e+001  -3.439235e+001 
3175000000  -2.488993e+001  -4.217202e+001 
3178125000  -2.472209e+001  -4.054843e+001 
3181250000  -2.353289e+001  -4.439115e+001 
3184375000  -2.271536e+001  -5.644651e+001 
3187500000  -2.378401e+001  -7.211053e+001 
3190625000  -2.661497e+001  -7.977583e+001 
3193750000  -2.725887e+001  -7.001858e+001 
3196875000  -2.678191e+001  -6.440363e+001 
3200000000  -2.598764e+001  -6.613995e+001 
3203125000  -2.508619e+001  -7.203013e+001 
3206250000  -2.538703e+001  -7.822059e+001 
3209375000  -2.487593e+001  -8.302007e+001 
3212500000  -2.501294e+001  -9.006151e+001 
3215625000  -2.517344e+001  -9.436300e+001 
3218750000  -2.592695e+001  -1.003636e+002 
3221875000  -2.693972e+001  -1.054575e+002 
3225000000  -2.651353e+001  -1.061502e+002 
3228125000  -2.679885e+001  -1.107001e+002 
3231250000  -2.757932e+001  -1.135259e+002 
3234375000  -2.749308e+001  -1.125697e+002 
3237500000  -2.748647e+001  -1.139355e+002 
3240625000  -2.719481e+001  -1.154617e+002 
3243750000  -2.680583e+001  -1.221580e+002 
3246875000  -2.728645e+001  -1.287287e+002 
3250000000  -2.772834e+001  -1.304391e+002 
3253125000  -2.789231e+001  -1.323920e+002 
3256250000  -2.777381e+001  -1.382938e+002 
3259375000  -2.809955e+001  -1.456044e+002 
3262500000  -2.938201e+001  -1.488031e+002 
3265625000  -3.005620e+001  -1.456627e+002 
3268750000  -3.000021e+001  -1.429145e+002 
3271875000  -2.983126e+001  -1.414484e+002 
3275000000  -2.872269e+001  -1.462525e+002 
3278125000  -2.910117e+001  -1.527480e+002 
3281250000  -2.942451e+001  -1.511042e+002 
3284375000  -2.905784e+001  -1.566911e+002 
3287500000  -2.912833e+001  -1.598569e+002 
3290625000  -2.958164e+001  -1.640559e+002 
3293750000  -2.927476e+001  -1.689514e+002 
3296875000  -3.030321e+001  -1.695420e+002 
3300000000  -3.028693e+001  -1.680677e+002 
3303125000  -2.905406e+001  -1.719910e+002 
3306250000  -2.882280e+001  -1.787416e+002 
3309375000  -2.863134e+001  1.760108e+002 
3312500000  -2.866663e+001  1.661398e+002 
3315625000  -2.963301e+001  1.576989e+002 
3318750000  -3.098642e+001  1.552473e+002 
3321875000  -3.223497e+001  1.542418e+002 
3325000000  -3.281739e+001  1.601001e+002 
3328125000  -3.269214e+001  1.619185e+002 
3331250000  -3.162339e+001  1.684124e+002 
3334375000  -2.888171e+001  1.595336e+002 
3337500000  -2.904357e+001  1.415432e+002 
3340625000  -3.032145e+001  1.308819e+002 
3343750000  -3.221856e+001  1.286263e+002 
3346875000  -3.287897e+001  1.306905e+002 
3350000000  -3.212906e+001  1.296442e+002 
3353125000  -3.224065e+001  1.251610e+002 
3356250000  -3.203555e+001  1.172805e+002 
3359375000  -3.285184e+001  1.082680e+002 
3362500000  -3.421032e+001  1.035316e+002 
3365625000  -3.484383e+001  1.018748e+002 
3368750000  -3.581837e+001  1.001445e+002 
3371875000  -3.620507e+001  9.598228e+001 
3375000000  -3.776500e+001  9.457343e+001 
3378125000  -3.887311e+001  9.423675e+001 
3381250000  -4.064182e+001  1.012990e+002 
3384375000  -3.970864e+001  1.237421e+002 
3387500000  -3.660126e+001  1.086607e+002 
3390625000  -3.849261e+001  9.069672e+001 
3393750000  -4.030327e+001  9.438492e+001 
3396875000  -3.942156e+001  9.829826e+001 
3400000000  -3.927811e+001  9.177146e+001 
3403125000  -4.044427e+001  8.818884e+001 
3406250000  -4.142958e+001  9.085519e+001 
3409375000  -4.184288e+001  8.573145e+001 
3412500000  -4.296252e+001  8.848019e+001 
3415625000  -4.369044e+001  9.458887e+001 
3418750000  -4.410744e+001  9.667563e+001 
3421875000  -4.424927e+001  1.050591e+002 
3425000000  -4.356942e+001  1.082148e+002 
3428125000  -4.254351e+001  1.092760e+002 
3431250000  -4.245799e+001  1.034670e+002 
3434375000  -4.221476e+001  1.014645e+002 
3437500000  -4.245881e+001  1.002876e+002 
3440625000  -4.252294e+001  1.030724e+002 
3443750000  -4.151885e+001  1.048881e+002 
3446875000  -4.068938e+001  1.001561e+002 
3450000000  -4.057604e+001  9.257520e+001 
3453125000  -4.077716e+001  8.191617e+001 
3456250000  -4.186576e+001  7.805452e+001 
3459375000  -4.304042e+001  8.090336e+001 
3462500000  -4.289499e+001  8.185220e+001 
3465625000  -4.290542e+001  7.602837e+001 
3468750000  -4.337439e+001  7.417570e+001 
3471875000  -4.328176e+001  7.379734e+001 
3475000000  -4.323690e+001  7.009361e+001 
3478125000  -4.402891e+001  6.572127e+001 
3481250000  -4.483004e+001  6.564777e+001 
3484375000  -4.668280e+001  6.912144e+001 
3487500000  -4.637260e+001  7.570339e+001 
3490625000  -4.584989e+001  7.208236e+001 
3493750000  -4.633723e+001  7.060783e+001 
3496875000  -4.680334e+001  7.140594e+001 
3500000000  -4.847123e+001  8.057008e+001 
3503125000  -4.853823e+001  8.151028e+001 
3506250000  -4.720668e+001  8.559071e+001 
3509375000  -4.699696e+001  8.167471e+001 
3512500000  -4.785474e+001  8.613615e+001 
3515625000  -4.813186e+001  8.359684e+001 
3518750000  -4.804132e+001  9.062172e+001 
3521875000  -4.740580e+001  9.686012e+001 
3525000000  -4.741325e+001  9.766864e+001 
3528125000  -4.759971e+001  1.084565e+002 
3531250000  -4.538155e+001  1.035860e+002 
3534375000  -4.469292e+001  9.798323e+001 
3537500000  -4.468569e+001  9.304758e+001 
3540625000  -4.519260e+001  9.205652e+001 
3543750000  -4.531613e+001  9.676469e+001 
3546875000  -4.507138e+001  1.093034e+002 
3550000000  -4.274066e+001  1.110293e+002 
3553125000  -4.111728e+001  9.327866e+001 
3556250000  -4.198607e+001  8.680365e+001 
3559375000  -4.159291e+001  8.825703e+001 
3562500000  -4.054512e+001  8.069380e+001 
3565625000  -4.117900e+001  7.379289e+001 
3568750000  -4.137835e+001  7.849626e+001 
3571875000  -4.106187e+001  7.876630e+001 
3575000000  -4.058156e+001  7.106457e+001 
3578125000  -4.093790e+001  6.883718e+001 
3581250000  -4.101880e+001  6.748289e+001 
3584375000  -4.034528e+001  6.819720e+001 
3587500000  -3.956841e+001  6.253683e+001 
3590625000  -3.977548e+001  5.336528e+001 
3593750000  -4.099957e+001  5.036123e+001 
3596875000  -4.100301e+001  5.796435e+001 
3600000000  -3.977142e+001  5.535645e+001 
3603125000  -3.945396e+001  4.188324e+001 
3606250000  -4.018884e+001  3.852660e+001 
3609375000  -4.066929e+001  3.904040e+001 
3612500000  -4.124460e+001  3.786607e+001 
3615625000  -4.124832e+001  3.525793e+001 
3618750000  -4.195953e+001  3.720433e+001 
3621875000  -4.150957e+001  3.624757e+001 
3625000000  -4.172770e+001  3.477177e+001 
3628125000  -4.180101e+001  3.614421e+001 
3631250000  -4.155544e+001  3.215005e+001 
3634375000  -4.279927e+001  3.430731e+001 
3637500000  -4.244609e+001  3.907929e+001 
3640625000  -4.150663e+001  3.955886e+001 
3643750000  -4.092051e+001  3.431463e+001 
3646875000  -4.133618e+001  2.959951e+001 
3650000000  -4.199729e+001  3.004467e+001 
3653125000  -4.147852e+001  3.082324e+001 
3656250000  -4.187888e+001  2.799242e+001 
3659375000  -4.213050e+001  3.168649e+001 
3662500000  -4.125231e+001  2.986924e+001 
3665625000  -4.134731e+001  3.125079e+001 
3668750000  -4.043309e+001  3.215617e+001 
3671875000  -3.937478e+001  2.745783e+001 
3675000000  -3.963598e+001  2.315474e+001 
3678125000  -4.034828e+001  2.287370e+001 
3681250000  -3.999649e+001  2.393292e+001 
3684375000  -3.976851e+001  2.310741e+001 
3687500000  -3.984558e+001  2.046688e+001 
3690625000  -3.980215e+001  1.776807e+001 
3693750000  -4.042545e+001  2.091561e+001 
3696875000  -3.990219e+001  2.413307e+001 
3700000000  -3.887419e+001  2.190512e+001 
3703125000  -3.876173e+001  1.875948e+001 
3706250000  -3.929018e+001  1.889805e+001 
3709375000  -3.852052e+001  2.329978e+001 
3712500000  -3.752584e+001  2.289615e+001 
3715625000  -3.643848e+001  1.592071e+001 
3718750000  -3.573647e+001  1.379991e+001 
3721875000  -3.533677e+001  8.396043e+000 
3725000000  -3.520766e+001  4.025508e+000 
3728125000  -3.546059e+001  3.196273e+000 
3731250000  -3.487974e+001  1.762089e+000 
3734375000  -3.375634e+001  -2.953233e+000 
3737500000  -3.419473e+001  -1.045197e+001 
3740625000  -3.494216e+001  -1.342328e+001 
3743750000  -3.470790e+001  -1.620284e+001 
3746875000  -3.465085e+001  -1.926859e+001 
3750000000  -3.512904e+001  -1.952991e+001 
3753125000  -3.478059e+001  -1.958272e+001 
3756250000  -3.458179e+001  -2.036386e+001 
3759375000  -3.450402e+001  -2.095588e+001 
3762500000  -3.383975e+001  -2.515085e+001 
3765625000  -3.416827e+001  -2.817461e+001 
3768750000  -3.439089e+001  -2.604979e+001 
3771875000  -3.273624e+001  -2.772816e+001 
3775000000  -3.229280e+001  -3.498428e+001 
3778125000  -3.263620e+001  -3.711023e+001 
3781250000  -3.242175e+001  -4.031136e+001 
3784375000  -3.237190e+001  -4.133983e+001 
3787500000  -3.171506e+001  -4.569949e+001 
3790625000  -3.213886e+001  -5.149385e+001 
3793750000  -3.239428e+001  -5.181153e+001 
3796875000  -3.145994e+001  -5.322361e+001 
3800000000  -3.002111e+001  -5.652153e+001 
3803125000  -3.068533e+001  -6.342037e+001 
3806250000  -3.123758e+001  -6.532795e+001 
3809375000  -3.096389e+001  -6.733375e+001 
3812500000  -3.034581e+001  -7.252748e+001 
3815625000  -3.093918e+001  -7.956491e+001 
3818750000  -3.182045e+001  -8.079587e+001 
3821875000  -3.200402e+001  -7.288297e+001 
3825000000  -3.012158e+001  -6.826292e+001 
3828125000  -2.871865e+001  -8.221950e+001 
3831250000  -2.932750e+001  -9.644228e+001 
3834375000  -3.051336e+001  -9.801981e+001 
3837500000  -3.151884e+001  -9.283930e+001 
3840625000  -3.051234e+001  -9.342287e+001 
3843750000  -2.930894e+001  -1.032230e+002 
3846875000  -2.990454e+001  -1.106623e+002 
3850000000  -3.123411e+001  -1.057275e+002 
3853125000  -3.046183e+001  -1.021694e+002 
3856250000  -3.042411e+001  -1.076151e+002 
3859375000  -2.982284e+001  -1.118019e+002 
3862500000  -2.931139e+001  -1.184935e+002 
3865625000  -2.965400e+001  -1.236452e+002 
3868750000  -2.963276e+001  -1.242813e+002 
3871875000  -2.893922e+001  -1.264372e+002 
3875000000  -2.904527e+001  -1.349106e+002 
3878125000  -2.996036e+001  -1.379336e+002 
3881250000  -3.012538e+001  -1.349092e+002 
3884375000  -2.967709e+001  -1.387838e+002 
3887500000  -2.970657e+001  -1.427475e+002 
3890625000  -3.022463e+001  -1.451080e+002 
3893750000  -3.067713e+001  -1.464057e+002 
3896875000  -3.072979e+001  -1.459272e+002 
3900000000  -3.094374e+001  -1.466693e+002 
3903125000  -3.066234e+001  -1.486648e+002 
3906250000  -3.040027e+001  -1.500957e+002 
3909375000  -2.966819e+001  -1.519500e+002 
3912500000  -2.954569e+001  -1.594696e+002 
3915625000  -3.079047e+001  -1.591375e+002 
3918750000  -3.078776e+001  -1.573558e+002 
3921875000  -3.047127e+001  -1.590044e+002 
3925000000  -2.972287e+001  -1.596138e+002 
3928125000  -2.890794e+001  -1.651724e+002 
3931250000  -2.940611e+001  -1.693292e+002 
3934375000  -2.954473e+001  -1.690477e+002 
3937500000  -2.973751e+001  -1.701252e+002 
3940625000  -3.016838e+001  -1.700592e+002 
3943750000  -2.926781e+001  -1.687306e+002 
3946875000  -2.796901e+001  -1.741684e+002 
3950000000  -2.850497e+001  1.783286e+002 
3953125000  -2.946756e+001  1.776218e+002 
3956250000  -2.876893e+001  -1.794064e+002 
3959375000  -2.738904e+001  1.778327e+002 
3962500000  -2.683191e+001  1.736637e+002 
3965625000  -2.652649e+001  1.649487e+002 
3968750000  -2.739714e+001  1.579053e+002 
3971875000  -2.782367e+001  1.568548e+002 
3975000000  -2.718186e+001  1.550061e+002 
3978125000  -2.699443e+001  1.533857e+002 
3981250000  -2.679298e+001  1.492782e+002 
3984375000  -2.700721e+001  1.431480e+002 
3987500000  -2.748289e+001  1.406238e+002 
3990625000  -2.755611e+001  1.396628e+002 
3993750000  -2.775045e+001  1.369262e+002 
3996875000  -2.778049e+001  1.351137e+002 
4000000000  -2.781099e+001  1.329277e+002 
4003125000  -2.837120e+001  1.351810e+002 
4006250000  -2.705652e+001  1.351585e+002 
4009375000  -2.580561e+001  1.230524e+002 
4012500000  -2.691011e+001  1.165139e+002 
4015625000  -2.806781e+001  1.164948e+002 
4018750000  -2.826477e+001  1.192993e+002 
4021875000  -2.759958e+001  1.179375e+002 
4025000000  -2.724053e+001  1.132134e+002 
4028125000  -2.713451e+001  1.091506e+002 
4031250000  -2.760300e+001  1.058318e+002 
4034375000  -2.787018e+001  1.056938e+002 
4037500000  -2.733877e+001  1.076891e+002 
4040625000  -2.724853e+001  1.042557e+002 
4043750000  -2.749248e+001  1.035841e+002 
4046875000  -2.713730e+001  1.034526e+002 
4050000000  -2.660838e+001  9.742124e+001 
4053125000  -2.709711e+001  9.569621e+001 
4056250000  -2.768157e+001  9.893085e+001 
4059375000  -2.649197e+001  1.010066e+002 
4062500000  -2.510327e+001  9.629615e+001 
4065625000  -2.488496e+001  9.183247e+001 
4068750000  -2.463760e+001  8.696641e+001 
4071875000  -2.403162e+001  7.909579e+001 
4075000000  -2.434659e+001  7.283349e+001 
4078125000  -2.491763e+001  7.160562e+001 
4081250000  -2.450871e+001  6.933655e+001 
4084375000  -2.408595e+001  6.261025e+001 
4087500000  -2.441939e+001  5.624550e+001 
4090625000  -2.503555e+001  5.505914e+001 
4093750000  -2.492097e+001  5.564603e+001 
4096875000  -2.446394e+001  4.991915e+001 
4100000000  -2.511665e+001  4.298344e+001 
4103125000  -2.604479e+001  4.313589e+001 
4106250000  -2.596858e+001  4.799141e+001 
4109375000  -2.512514e+001  4.798115e+001 
4112500000  -2.453664e+001  4.121357e+001 
4115625000  -2.480557e+001  3.710233e+001 
4118750000  -2.498553e+001  3.423619e+001 
4121875000  -2.460225e+001  2.994634e+001 
4125000000  -2.493238e+001  2.501373e+001 
4128125000  -2.592709e+001  2.455615e+001 
4131250000  -2.573850e+001  3.273116e+001 
4134375000  -2.337059e+001  2.884204e+001 
4137500000  -2.315511e+001  1.036689e+001 
4140625000  -2.533998e+001  2.840160e+000 
4143750000  -2.659433e+001  7.643256e+000 
4146875000  -2.621871e+001  1.540306e+001 
4150000000  -2.529206e+001  1.237305e+001 
4153125000  -2.511572e+001  5.742406e+000 
4156250000  -2.598224e+001  3.022542e+000 
4159375000  -2.624903e+001  7.571436e+000 
4162500000  -2.510502e+001  1.191938e+001 
4165625000  -2.400462e+001  8.213224e+000 
4168750000  -2.333294e+001  1.109390e+000 
4171875000  -2.328303e+001  -8.200413e+000 
4175000000  -2.383497e+001  -1.419638e+001 
4178125000  -2.445605e+001  -1.418907e+001 
4181250000  -2.437847e+001  -1.460592e+001 
4184375000  -2.416386e+001  -1.772248e+001 
4187500000  -2.422715e+001  -2.045842e+001 
4190625000  -2.399818e+001  -2.600543e+001 
4193750000  -2.474830e+001  -3.009608e+001 
4196875000  -2.549875e+001  -3.074659e+001 
4200000000  -2.627176e+001  -2.883238e+001 
4203125000  -2.640666e+001  -1.660320e+001 
4206250000  -2.319429e+001  -1.367072e+001 
4209375000  -2.191422e+001  -3.404271e+001 
4212500000  -2.377051e+001  -4.323035e+001 
4215625000  -2.480437e+001  -3.768255e+001 
4218750000  -2.362014e+001  -3.028866e+001 
4221875000  -2.126406e+001  -3.967968e+001 
4225000000  -2.243349e+001  -5.227549e+001 
4228125000  -2.319399e+001  -4.704899e+001 
4231250000  -2.172347e+001  -5.071065e+001 
4234375000  -2.161098e+001  -5.896114e+001 
4237500000  -2.123111e+001  -6.194875e+001 
4240625000  -2.120323e+001  -7.033775e+001 
4243750000  -2.215306e+001  -7.711614e+001 
4246875000  -2.305519e+001  -7.707326e+001 
4250000000  -2.317064e+001  -7.442031e+001 
4253125000  -2.255412e+001  -7.637141e+001 
4256250000  -2.282194e+001  -8.057001e+001 
4259375000  -2.259102e+001  -8.268437e+001 
4262500000  -2.260185e+001  -8.593343e+001 
4265625000  -2.277262e+001  -8.541722e+001 
4268750000  -2.191685e+001  -8.950144e+001 
4271875000  -2.166260e+001  -9.469353e+001 
4275000000  -2.103169e+001  -1.012369e+002 
4278125000  -2.159829e+001  -1.126394e+002 
4281250000  -2.341574e+001  -1.146960e+002 
4284375000  -2.315944e+001  -1.133949e+002 
4287500000  -2.380368e+001  -1.170855e+002 
4290625000  -2.512924e+001  -1.076774e+002 
4293750000  -2.314127e+001  -1.017820e+002 
4296875000  -2.176594e+001  -1.131029e+002 
4300000000  -2.257692e+001  -1.223541e+002 
4303125000  -2.367466e+001  -1.217808e+002 
4306250000  -2.315759e+001  -1.158726e+002 
4309375000  -2.173465e+001  -1.175771e+002 
4312500000  -2.158406e+001  -1.256602e+002 
4315625000  -2.178734e+001  -1.319037e+002 
4318750000  -2.207563e+001  -1.353721e+002 
4321875000  -2.227928e+001  -1.352074e+002 
4325000000  -2.169771e+001  -1.345364e+002 
4328125000  -2.122750e+001  -1.410093e+002 
4331250000  -2.119431e+001  -1.487604e+002 
4334375000  -2.155231e+001  -1.538186e+002 
4337500000  -2.237127e+001  -1.564611e+002 
4340625000  -2.292935e+001  -1.536393e+002 
4343750000  -2.244819e+001  -1.530274e+002 
4346875000  -2.202295e+001  -1.584139e+002 
4350000000  -2.205094e+001  -1.630851e+002 
4353125000  -2.209362e+001  -1.707788e+002 
4356250000  -2.374895e+001  -1.721797e+002 
4359375000  -2.451027e+001  -1.592869e+002 
4362500000  -2.194320e+001  -1.567217e+002 
4365625000  -2.030243e+001  -1.678696e+002 
4368750000  -2.088897e+001  -1.797643e+002 
4371875000  -2.215785e+001  -1.798222e+002 
4375000000  -2.188033e+001  -1.780632e+002 
4378125000  -2.122956e+001  1.760710e+002 
4381250000  -2.141226e+001  1.706324e+002 
4384375000  -2.122460e+001  1.662665e+002 
4387500000  -2.192124e+001  1.604883e+002 
4390625000  -2.298643e+001  1.613468e+002 
4393750000  -2.228979e+001  1.639780e+002 
4396875000  -2.163915e+001  1.615625e+002 
4400000000  -2.115704e+001  1.548683e+002 
4403125000  -2.168783e+001  1.471306e+002 
4406250000  -2.254354e+001  1.459340e+002 
4409375000  -2.250350e+001  1.438128e+002 
4412500000  -2.351943e+001  1.410551e+002 
4415625000  -2.395162e+001  1.458158e+002 
4418750000  -2.270059e+001  1.508927e+002 
