!Agilent Technologies,E8363B,MY43030201,A.06.04.32
!Agilent E8363B: A.06.04.32
!Date: Tuesday, November 11, 2014 21:11:39
!Correction: S21(Response(S21)) 
!S1P File: Measurement: S21:
# Hz S  dB   R 50
3000000000  -3.659968e+001  -5.624376e+001 
3003125000  -3.776930e+001  -6.247480e+001 
3006250000  -3.768994e+001  -6.467632e+001 
3009375000  -3.785055e+001  -6.032721e+001 
3012500000  -3.714524e+001  -6.307068e+001 
3015625000  -3.625949e+001  -6.956143e+001 
3018750000  -3.695676e+001  -7.075099e+001 
3021875000  -3.556597e+001  -6.950008e+001 
3025000000  -3.423046e+001  -7.378049e+001 
3028125000  -3.325961e+001  -8.085847e+001 
3031250000  -3.217327e+001  -9.175429e+001 
3034375000  -3.183712e+001  -1.053828e+002 
3037500000  -3.235686e+001  -1.172701e+002 
3040625000  -3.373173e+001  -1.223773e+002 
3043750000  -3.429562e+001  -1.275477e+002 
3046875000  -3.459860e+001  -1.335807e+002 
3050000000  -3.615090e+001  -1.383753e+002 
3053125000  -3.602438e+001  -1.333274e+002 
3056250000  -3.554333e+001  -1.298167e+002 
3059375000  -3.552703e+001  -1.301882e+002 
3062500000  -3.414050e+001  -1.345749e+002 
3065625000  -3.386496e+001  -1.403936e+002 
3068750000  -3.359832e+001  -1.474977e+002 
3071875000  -3.355364e+001  -1.497331e+002 
3075000000  -3.327533e+001  -1.542814e+002 
3078125000  -3.305824e+001  -1.583268e+002 
3081250000  -3.356739e+001  -1.630081e+002 
3084375000  -3.269532e+001  -1.660627e+002 
3087500000  -3.251587e+001  -1.702448e+002 
3090625000  -3.201185e+001  1.792667e+002 
3093750000  -3.261051e+001  1.722735e+002 
3096875000  -3.346709e+001  1.666091e+002 
3100000000  -3.333379e+001  1.644721e+002 
3103125000  -3.372309e+001  1.644878e+002 
3106250000  -3.328028e+001  1.610952e+002 
3109375000  -3.320596e+001  1.569003e+002 
3112500000  -3.316461e+001  1.545230e+002 
3115625000  -3.289068e+001  1.497857e+002 
3118750000  -3.316576e+001  1.497624e+002 
3121875000  -3.229942e+001  1.400865e+002 
3125000000  -3.368244e+001  1.369229e+002 
3128125000  -3.447773e+001  1.440909e+002 
3131250000  -3.197750e+001  1.416785e+002 
3134375000  -3.079002e+001  1.265178e+002 
3137500000  -3.143372e+001  1.128224e+002 
3140625000  -3.284793e+001  1.094523e+002 
3143750000  -3.380472e+001  1.112304e+002 
3146875000  -3.324698e+001  1.122918e+002 
3150000000  -3.228525e+001  1.119938e+002 
3153125000  -3.231654e+001  1.030427e+002 
3156250000  -3.331677e+001  1.078069e+002 
3159375000  -3.148895e+001  1.089771e+002 
3162500000  -2.967497e+001  9.430729e+001 
3165625000  -3.078426e+001  8.248276e+001 
3168750000  -3.098274e+001  8.235445e+001 
3171875000  -3.011577e+001  7.706343e+001 
3175000000  -3.088553e+001  6.821766e+001 
3178125000  -3.060473e+001  6.868864e+001 
3181250000  -2.956315e+001  6.321965e+001 
3184375000  -2.894824e+001  5.085279e+001 
3187500000  -3.014003e+001  3.492237e+001 
3190625000  -3.276476e+001  2.780126e+001 
3193750000  -3.329313e+001  3.647651e+001 
3196875000  -3.292278e+001  4.100840e+001 
3200000000  -3.192492e+001  3.781679e+001 
3203125000  -3.121088e+001  3.134073e+001 
3206250000  -3.153328e+001  2.435350e+001 
3209375000  -3.106726e+001  1.813296e+001 
3212500000  -3.132192e+001  1.179762e+001 
3215625000  -3.124741e+001  8.254390e+000 
3218750000  -3.216876e+001  3.153484e-001 
3221875000  -3.292399e+001  -5.203324e+000 
3225000000  -3.247995e+001  -5.882069e+000 
3228125000  -3.294845e+001  -1.182541e+001 
3231250000  -3.357486e+001  -1.328767e+001 
3234375000  -3.324615e+001  -1.376645e+001 
3237500000  -3.330288e+001  -1.598025e+001 
3240625000  -3.285308e+001  -1.854096e+001 
3243750000  -3.242492e+001  -2.645225e+001 
3246875000  -3.286881e+001  -3.377079e+001 
3250000000  -3.327364e+001  -3.583877e+001 
3253125000  -3.355351e+001  -3.767199e+001 
3256250000  -3.296428e+001  -4.416014e+001 
3259375000  -3.329430e+001  -5.330318e+001 
3262500000  -3.455851e+001  -5.694069e+001 
3265625000  -3.515857e+001  -5.447937e+001 
3268750000  -3.503369e+001  -5.130848e+001 
3271875000  -3.462921e+001  -5.305040e+001 
3275000000  -3.366737e+001  -5.910564e+001 
3278125000  -3.415715e+001  -6.541771e+001 
3281250000  -3.433973e+001  -6.521735e+001 
3284375000  -3.382790e+001  -7.165299e+001 
3287500000  -3.405133e+001  -7.499514e+001 
3290625000  -3.429401e+001  -8.080726e+001 
3293750000  -3.411064e+001  -8.725418e+001 
3296875000  -3.510640e+001  -8.787172e+001 
3300000000  -3.478394e+001  -8.701151e+001 
3303125000  -3.362346e+001  -9.291682e+001 
3306250000  -3.348045e+001  -9.933909e+001 
3309375000  -3.310333e+001  -1.062207e+002 
3312500000  -3.331952e+001  -1.170749e+002 
3315625000  -3.436022e+001  -1.247295e+002 
3318750000  -3.585297e+001  -1.277898e+002 
3321875000  -3.684428e+001  -1.271973e+002 
3325000000  -3.733963e+001  -1.214462e+002 
3328125000  -3.681041e+001  -1.214379e+002 
3331250000  -3.556391e+001  -1.146374e+002 
3334375000  -3.277172e+001  -1.262202e+002 
3337500000  -3.291677e+001  -1.459838e+002 
3340625000  -3.445507e+001  -1.564484e+002 
3343750000  -3.647213e+001  -1.576239e+002 
3346875000  -3.654537e+001  -1.556923e+002 
3350000000  -3.586586e+001  -1.568528e+002 
3353125000  -3.595422e+001  -1.625772e+002 
3356250000  -3.540683e+001  -1.716214e+002 
3359375000  -3.629296e+001  -1.792160e+002 
3362500000  -3.739902e+001  1.750639e+002 
3365625000  -3.782196e+001  1.742297e+002 
3368750000  -3.860765e+001  1.707058e+002 
3371875000  -3.889176e+001  1.686929e+002 
3375000000  -4.029180e+001  1.662356e+002 
3378125000  -4.130048e+001  1.654818e+002 
3381250000  -4.237500e+001  1.751349e+002 
3384375000  -4.077625e+001  -1.642357e+002 
3387500000  -3.737782e+001  1.792935e+002 
3390625000  -3.895381e+001  1.596631e+002 
3393750000  -4.031461e+001  1.638839e+002 
3396875000  -3.914159e+001  1.637566e+002 
3400000000  -3.830880e+001  1.572899e+002 
3403125000  -3.912254e+001  1.500322e+002 
3406250000  -3.952681e+001  1.502564e+002 
3409375000  -3.967023e+001  1.442809e+002 
3412500000  -4.008587e+001  1.425019e+002 
3415625000  -4.090348e+001  1.407532e+002 
3418750000  -4.098981e+001  1.432626e+002 
3421875000  -4.121962e+001  1.454724e+002 
3425000000  -4.024397e+001  1.458441e+002 
3428125000  -3.930086e+001  1.404044e+002 
3431250000  -3.904333e+001  1.344957e+002 
3434375000  -3.894220e+001  1.293458e+002 
3437500000  -3.969628e+001  1.251194e+002 
3440625000  -3.984388e+001  1.262756e+002 
3443750000  -3.861316e+001  1.263464e+002 
3446875000  -3.777435e+001  1.181552e+002 
3450000000  -3.745631e+001  1.087284e+002 
3453125000  -3.791157e+001  9.865195e+001 
3456250000  -3.901042e+001  9.276191e+001 
3459375000  -4.003450e+001  9.375155e+001 
3462500000  -3.976394e+001  9.422043e+001 
3465625000  -3.965564e+001  8.833107e+001 
3468750000  -4.015551e+001  8.425489e+001 
3471875000  -4.014346e+001  8.371194e+001 
3475000000  -3.964127e+001  7.727489e+001 
3478125000  -4.008835e+001  6.931881e+001 
3481250000  -4.104452e+001  6.747711e+001 
3484375000  -4.195958e+001  7.102622e+001 
3487500000  -4.116836e+001  7.007000e+001 
3490625000  -4.066993e+001  6.573998e+001 
3493750000  -4.100146e+001  5.885528e+001 
3496875000  -4.172515e+001  5.881820e+001 
3500000000  -4.219496e+001  6.126413e+001 
3503125000  -4.190017e+001  6.124889e+001 
3506250000  -4.074314e+001  5.567846e+001 
3509375000  -4.063484e+001  4.651325e+001 
3512500000  -4.100677e+001  3.856159e+001 
3515625000  -4.196646e+001  3.577469e+001 
3518750000  -4.241277e+001  3.673500e+001 
3521875000  -4.249226e+001  3.475734e+001 
3525000000  -4.322703e+001  3.000922e+001 
3528125000  -4.308638e+001  3.852790e+001 
3531250000  -4.194519e+001  3.633862e+001 
3534375000  -4.206339e+001  2.675463e+001 
3537500000  -4.249475e+001  2.063487e+001 
3540625000  -4.372991e+001  2.045358e+001 
3543750000  -4.416048e+001  2.446902e+001 
3546875000  -4.405666e+001  3.652056e+001 
3550000000  -4.124088e+001  3.668237e+001 
3553125000  -4.029553e+001  2.036434e+001 
3556250000  -4.183498e+001  1.332313e+001 
3559375000  -4.113609e+001  1.432973e+001 
3562500000  -4.039330e+001  6.803112e+000 
3565625000  -4.127624e+001  -6.739569e-001 
3568750000  -4.134392e+001  1.933435e-001 
3571875000  -4.116046e+001  -1.831054e-001 
3575000000  -4.075057e+001  -5.866286e+000 
3578125000  -4.112246e+001  -1.104759e+001 
3581250000  -4.149202e+001  -1.205204e+001 
3584375000  -4.043304e+001  -1.632018e+001 
3587500000  -3.983258e+001  -2.425858e+001 
3590625000  -4.040698e+001  -3.460168e+001 
3593750000  -4.169289e+001  -3.651877e+001 
3596875000  -4.169180e+001  -3.159734e+001 
3600000000  -4.005518e+001  -3.811206e+001 
3603125000  -4.063050e+001  -5.114618e+001 
3606250000  -4.159303e+001  -5.424062e+001 
3609375000  -4.203089e+001  -5.816810e+001 
3612500000  -4.268254e+001  -6.037285e+001 
3615625000  -4.238494e+001  -6.514727e+001 
3618750000  -4.328214e+001  -6.640086e+001 
3621875000  -4.331512e+001  -6.931207e+001 
3625000000  -4.397866e+001  -7.080186e+001 
3628125000  -4.451118e+001  -7.120878e+001 
3631250000  -4.406020e+001  -7.723204e+001 
3634375000  -4.539505e+001  -7.661670e+001 
3637500000  -4.503383e+001  -6.796430e+001 
3640625000  -4.451881e+001  -7.033889e+001 
3643750000  -4.424333e+001  -7.491633e+001 
3646875000  -4.465437e+001  -8.257208e+001 
3650000000  -4.602873e+001  -8.204372e+001 
3653125000  -4.534750e+001  -8.663406e+001 
3656250000  -4.579444e+001  -8.295644e+001 
3659375000  -4.590528e+001  -8.214333e+001 
3662500000  -4.514200e+001  -8.211929e+001 
3665625000  -4.539253e+001  -8.135564e+001 
3668750000  -4.434210e+001  -8.246239e+001 
3671875000  -4.288807e+001  -8.750013e+001 
3675000000  -4.335391e+001  -9.587257e+001 
3678125000  -4.361403e+001  -9.478647e+001 
3681250000  -4.315890e+001  -9.707303e+001 
3684375000  -4.314332e+001  -1.029914e+002 
3687500000  -4.323157e+001  -1.076693e+002 
3690625000  -4.305204e+001  -1.098796e+002 
3693750000  -4.414128e+001  -1.123143e+002 
3696875000  -4.350174e+001  -1.100466e+002 
3700000000  -4.276234e+001  -1.149612e+002 
3703125000  -4.328048e+001  -1.203558e+002 
3706250000  -4.366049e+001  -1.195468e+002 
3709375000  -4.339390e+001  -1.191767e+002 
3712500000  -4.238480e+001  -1.220351e+002 
3715625000  -4.156353e+001  -1.278531e+002 
3718750000  -4.128786e+001  -1.329170e+002 
3721875000  -4.135330e+001  -1.403819e+002 
3725000000  -4.164165e+001  -1.457960e+002 
3728125000  -4.192254e+001  -1.469404e+002 
3731250000  -4.142978e+001  -1.495019e+002 
3734375000  -4.112685e+001  -1.570448e+002 
3737500000  -4.190067e+001  -1.670031e+002 
3740625000  -4.298932e+001  -1.692931e+002 
3743750000  -4.283813e+001  -1.742519e+002 
3746875000  -4.340284e+001  -1.726840e+002 
3750000000  -4.378605e+001  -1.759212e+002 
3753125000  -4.410727e+001  -1.759200e+002 
3756250000  -4.421723e+001  -1.767865e+002 
3759375000  -4.448953e+001  -1.728747e+002 
3762500000  -4.440477e+001  -1.784304e+002 
3765625000  -4.472641e+001  -1.779698e+002 
3768750000  -4.489328e+001  -1.734030e+002 
3771875000  -4.308708e+001  -1.763088e+002 
3775000000  -4.349451e+001  1.774060e+002 
3778125000  -4.311348e+001  1.759780e+002 
3781250000  -4.293331e+001  1.750003e+002 
3784375000  -4.288609e+001  1.726195e+002 
3787500000  -4.205883e+001  1.711288e+002 
3790625000  -4.238829e+001  1.644860e+002 
3793750000  -4.269633e+001  1.629224e+002 
3796875000  -4.143994e+001  1.632353e+002 
3800000000  -3.972282e+001  1.616986e+002 
3803125000  -4.042717e+001  1.514368e+002 
3806250000  -4.134501e+001  1.497981e+002 
3809375000  -4.074697e+001  1.477190e+002 
3812500000  -4.003703e+001  1.399857e+002 
3815625000  -4.051443e+001  1.303512e+002 
3818750000  -4.136026e+001  1.298959e+002 
3821875000  -4.116998e+001  1.387770e+002 
3825000000  -3.973375e+001  1.393399e+002 
3828125000  -3.815881e+001  1.229475e+002 
3831250000  -3.864907e+001  1.092661e+002 
3834375000  -4.023249e+001  1.083824e+002 
3837500000  -4.157821e+001  1.127217e+002 
3840625000  -3.994686e+001  1.117543e+002 
3843750000  -3.900048e+001  9.933666e+001 
3846875000  -3.975399e+001  9.034316e+001 
3850000000  -4.097446e+001  9.676205e+001 
3853125000  -4.043554e+001  9.746935e+001 
3856250000  -4.011396e+001  9.259650e+001 
3859375000  -3.955555e+001  8.550900e+001 
3862500000  -3.946984e+001  7.827231e+001 
3865625000  -3.961282e+001  7.376733e+001 
3868750000  -3.990909e+001  7.070891e+001 
3871875000  -3.898489e+001  6.845696e+001 
3875000000  -3.954776e+001  5.877499e+001 
3878125000  -4.049043e+001  5.662093e+001 
3881250000  -4.046534e+001  5.823858e+001 
3884375000  -4.017908e+001  5.304155e+001 
3887500000  -4.037634e+001  4.980355e+001 
3890625000  -4.097716e+001  4.686430e+001 
3893750000  -4.089035e+001  4.534335e+001 
3896875000  -4.128907e+001  4.667305e+001 
3900000000  -4.184800e+001  4.573959e+001 
3903125000  -4.162271e+001  4.268892e+001 
3906250000  -4.069403e+001  3.983101e+001 
3909375000  -4.001175e+001  3.658739e+001 
3912500000  -4.000800e+001  2.922405e+001 
3915625000  -4.171145e+001  2.823026e+001 
3918750000  -4.112600e+001  3.196856e+001 
3921875000  -4.053799e+001  2.879565e+001 
3925000000  -3.962236e+001  2.607973e+001 
3928125000  -3.921672e+001  1.937672e+001 
3931250000  -3.973864e+001  1.454096e+001 
3934375000  -4.009915e+001  1.479375e+001 
3937500000  -4.035217e+001  9.786539e+000 
3940625000  -4.069186e+001  9.855618e+000 
3943750000  -3.930130e+001  9.048693e+000 
3946875000  -3.832766e+001  3.064358e+000 
3950000000  -3.892058e+001  -6.416592e+000 
3953125000  -4.008592e+001  -5.455019e+000 
3956250000  -3.912296e+001  -4.555546e+000 
3959375000  -3.778795e+001  -7.797819e+000 
3962500000  -3.743273e+001  -1.327693e+001 
3965625000  -3.730265e+001  -2.402806e+001 
3968750000  -3.800384e+001  -3.050388e+001 
3971875000  -3.823080e+001  -3.312843e+001 
3975000000  -3.796983e+001  -3.570712e+001 
3978125000  -3.787685e+001  -3.879580e+001 
3981250000  -3.778544e+001  -4.351862e+001 
3984375000  -3.811526e+001  -4.989578e+001 
3987500000  -3.869954e+001  -5.328678e+001 
3990625000  -3.871189e+001  -5.521604e+001 
3993750000  -3.890457e+001  -5.862371e+001 
3996875000  -3.905450e+001  -6.427144e+001 
4000000000  -3.919457e+001  -6.380385e+001 
4003125000  -3.978885e+001  -6.268014e+001 
4006250000  -3.826052e+001  -6.225704e+001 
4009375000  -3.727685e+001  -7.662045e+001 
4012500000  -3.850991e+001  -8.306656e+001 
4015625000  -3.988926e+001  -8.218900e+001 
4018750000  -4.001699e+001  -8.274146e+001 
4021875000  -3.918462e+001  -8.328371e+001 
4025000000  -3.893940e+001  -9.042068e+001 
4028125000  -3.895761e+001  -9.444244e+001 
4031250000  -3.942662e+001  -9.761282e+001 
4034375000  -3.966346e+001  -9.852898e+001 
4037500000  -3.935195e+001  -9.538145e+001 
4040625000  -3.916746e+001  -1.020621e+002 
4043750000  -3.919167e+001  -1.019949e+002 
4046875000  -3.907623e+001  -1.033990e+002 
4050000000  -3.823922e+001  -1.092289e+002 
4053125000  -3.930376e+001  -1.111969e+002 
4056250000  -3.957839e+001  -1.084192e+002 
4059375000  -3.826886e+001  -1.070343e+002 
4062500000  -3.680576e+001  -1.141880e+002 
4065625000  -3.687960e+001  -1.174774e+002 
4068750000  -3.625203e+001  -1.231605e+002 
4071875000  -3.569602e+001  -1.326824e+002 
4075000000  -3.593935e+001  -1.383709e+002 
4078125000  -3.680349e+001  -1.406395e+002 
4081250000  -3.610216e+001  -1.445620e+002 
4084375000  -3.581373e+001  -1.530344e+002 
4087500000  -3.614647e+001  -1.595192e+002 
4090625000  -3.680606e+001  -1.601007e+002 
4093750000  -3.669859e+001  -1.617927e+002 
4096875000  -3.635491e+001  -1.689832e+002 
4100000000  -3.705901e+001  -1.758143e+002 
4103125000  -3.804374e+001  -1.749503e+002 
4106250000  -3.779465e+001  -1.717888e+002 
4109375000  -3.666236e+001  -1.737888e+002 
4112500000  -3.605806e+001  1.784995e+002 
4115625000  -3.661621e+001  1.728419e+002 
4118750000  -3.687545e+001  1.694871e+002 
4121875000  -3.623534e+001  1.637390e+002 
4125000000  -3.689012e+001  1.591403e+002 
4128125000  -3.764586e+001  1.581151e+002 
4131250000  -3.772985e+001  1.654845e+002 
4134375000  -3.523014e+001  1.591638e+002 
4137500000  -3.521677e+001  1.386072e+002 
4140625000  -3.745555e+001  1.315875e+002 
4143750000  -3.861566e+001  1.376473e+002 
4146875000  -3.839669e+001  1.429259e+002 
4150000000  -3.757368e+001  1.383353e+002 
4153125000  -3.755312e+001  1.315696e+002 
4156250000  -3.847614e+001  1.275225e+002 
4159375000  -3.868580e+001  1.330493e+002 
4162500000  -3.761962e+001  1.361557e+002 
4165625000  -3.647844e+001  1.316535e+002 
4168750000  -3.585898e+001  1.235173e+002 
4171875000  -3.593956e+001  1.144252e+002 
4175000000  -3.656415e+001  1.082379e+002 
4178125000  -3.717158e+001  1.069401e+002 
4181250000  -3.679554e+001  1.077662e+002 
4184375000  -3.681059e+001  1.032937e+002 
4187500000  -3.662285e+001  9.935863e+001 
4190625000  -3.664394e+001  9.446104e+001 
4193750000  -3.752822e+001  8.995966e+001 
4196875000  -3.807554e+001  8.958250e+001 
4200000000  -3.918367e+001  9.143713e+001 
4203125000  -3.904329e+001  1.055303e+002 
4206250000  -3.506960e+001  1.030955e+002 
4209375000  -3.437650e+001  8.229256e+001 
4212500000  -3.621740e+001  7.431953e+001 
4215625000  -3.709171e+001  7.878944e+001 
4218750000  -3.543593e+001  8.526180e+001 
4221875000  -3.342289e+001  7.436248e+001 
4225000000  -3.471378e+001  6.201367e+001 
4228125000  -3.515410e+001  6.587778e+001 
4231250000  -3.337859e+001  5.988454e+001 
4234375000  -3.344085e+001  5.097395e+001 
4237500000  -3.296248e+001  4.711132e+001 
4240625000  -3.307318e+001  3.636842e+001 
4243750000  -3.421064e+001  2.770806e+001 
4246875000  -3.488381e+001  2.714637e+001 
4250000000  -3.505252e+001  2.941834e+001 
4253125000  -3.439764e+001  2.552233e+001 
4256250000  -3.483606e+001  2.082456e+001 
4259375000  -3.454651e+001  1.809028e+001 
4262500000  -3.496338e+001  1.496122e+001 
4265625000  -3.484892e+001  1.083922e+001 
4268750000  -3.391513e+001  7.215054e+000 
4271875000  -3.390585e+001  -6.833901e-002 
4275000000  -3.343473e+001  -8.648781e+000 
4278125000  -3.417673e+001  -1.882534e+001 
4281250000  -3.611776e+001  -2.151910e+001 
4284375000  -3.590729e+001  -2.307799e+001 
4287500000  -3.683762e+001  -2.588600e+001 
4290625000  -3.797987e+001  -1.450070e+001 
4293750000  -3.598151e+001  -1.190191e+001 
4296875000  -3.504145e+001  -2.325189e+001 
4300000000  -3.582249e+001  -3.171471e+001 
4303125000  -3.716084e+001  -2.995304e+001 
4306250000  -3.639244e+001  -2.601358e+001 
4309375000  -3.498803e+001  -2.775970e+001 
4312500000  -3.496864e+001  -3.437971e+001 
4315625000  -3.502711e+001  -4.144267e+001 
4318750000  -3.545516e+001  -4.477421e+001 
4321875000  -3.562209e+001  -4.342997e+001 
4325000000  -3.479522e+001  -4.408680e+001 
4328125000  -3.415664e+001  -5.228395e+001 
4331250000  -3.410690e+001  -6.046118e+001 
4334375000  -3.450292e+001  -6.458330e+001 
4337500000  -3.532156e+001  -6.742604e+001 
4340625000  -3.573499e+001  -6.419386e+001 
4343750000  -3.488939e+001  -6.521832e+001 
4346875000  -3.451803e+001  -7.230300e+001 
4350000000  -3.431656e+001  -7.704673e+001 
4353125000  -3.446398e+001  -8.737655e+001 
4356250000  -3.614362e+001  -8.711780e+001 
4359375000  -3.651986e+001  -7.403276e+001 
4362500000  -3.348731e+001  -7.356554e+001 
4365625000  -3.201905e+001  -8.824927e+001 
4368750000  -3.280118e+001  -1.011200e+002 
4371875000  -3.376978e+001  -1.008355e+002 
4375000000  -3.332006e+001  -1.020247e+002 
4378125000  -3.267276e+001  -1.091512e+002 
4381250000  -3.303769e+001  -1.163533e+002 
4384375000  -3.276421e+001  -1.226926e+002 
4387500000  -3.364658e+001  -1.296009e+002 
4390625000  -3.437929e+001  -1.294460e+002 
4393750000  -3.374565e+001  -1.285815e+002 
4396875000  -3.332446e+001  -1.311873e+002 
4400000000  -3.278073e+001  -1.410256e+002 
4403125000  -3.353536e+001  -1.495593e+002 
4406250000  -3.432594e+001  -1.513078e+002 
4409375000  -3.468422e+001  -1.552863e+002 
4412500000  -3.563968e+001  -1.578237e+002 
4415625000  -3.586989e+001  -1.542629e+002 
