!Agilent Technologies,E8363B,MY43030201,A.06.04.32
!Agilent E8363B: A.06.04.32
!Date: Tuesday, November 11, 2014 21:02:00
!Correction: S21(Response(S21)) 
!S1P File: Measurement: S21:
# Hz S  dB   R 50
3000000000  -3.624031e+001  -4.741672e+001 
3003125000  -3.732586e+001  -5.284723e+001 
3006250000  -3.731339e+001  -5.530202e+001 
3009375000  -3.749102e+001  -5.145459e+001 
3012500000  -3.684649e+001  -5.270789e+001 
3015625000  -3.588525e+001  -5.964752e+001 
3018750000  -3.673163e+001  -6.160118e+001 
3021875000  -3.538821e+001  -6.021225e+001 
3025000000  -3.408440e+001  -6.410479e+001 
3028125000  -3.311858e+001  -7.052516e+001 
3031250000  -3.214306e+001  -8.156290e+001 
3034375000  -3.175573e+001  -9.527097e+001 
3037500000  -3.215937e+001  -1.065339e+002 
3040625000  -3.350469e+001  -1.117174e+002 
3043750000  -3.422398e+001  -1.168254e+002 
3046875000  -3.435949e+001  -1.224095e+002 
3050000000  -3.602771e+001  -1.291243e+002 
3053125000  -3.601227e+001  -1.228799e+002 
3056250000  -3.555754e+001  -1.198392e+002 
3059375000  -3.560417e+001  -1.207334e+002 
3062500000  -3.422334e+001  -1.238436e+002 
3065625000  -3.402705e+001  -1.297930e+002 
3068750000  -3.350101e+001  -1.368696e+002 
3071875000  -3.348870e+001  -1.394120e+002 
3075000000  -3.324567e+001  -1.433720e+002 
3078125000  -3.303357e+001  -1.468302e+002 
3081250000  -3.352368e+001  -1.517894e+002 
3084375000  -3.265884e+001  -1.549444e+002 
3087500000  -3.234642e+001  -1.590004e+002 
3090625000  -3.190983e+001  -1.688857e+002 
3093750000  -3.239671e+001  -1.764857e+002 
3096875000  -3.341313e+001  1.777588e+002 
3100000000  -3.335464e+001  1.754600e+002 
3103125000  -3.355401e+001  1.763555e+002 
3106250000  -3.315106e+001  1.717267e+002 
3109375000  -3.326197e+001  1.682588e+002 
3112500000  -3.322000e+001  1.661690e+002 
3115625000  -3.278515e+001  1.605144e+002 
3118750000  -3.313537e+001  1.607641e+002 
3121875000  -3.222165e+001  1.520285e+002 
3125000000  -3.343204e+001  1.473139e+002 
3128125000  -3.446476e+001  1.539521e+002 
3131250000  -3.212691e+001  1.525961e+002 
3134375000  -3.071335e+001  1.375459e+002 
3137500000  -3.135073e+001  1.236424e+002 
3140625000  -3.285053e+001  1.204890e+002 
3143750000  -3.373464e+001  1.220359e+002 
3146875000  -3.326819e+001  1.228003e+002 
3150000000  -3.227660e+001  1.231065e+002 
3153125000  -3.224818e+001  1.142458e+002 
3156250000  -3.337211e+001  1.187274e+002 
3159375000  -3.164064e+001  1.192082e+002 
3162500000  -2.980149e+001  1.052139e+002 
3165625000  -3.077014e+001  9.300482e+001 
3168750000  -3.111500e+001  9.330151e+001 
3171875000  -3.023544e+001  8.798655e+001 
3175000000  -3.098676e+001  7.886581e+001 
3178125000  -3.081984e+001  7.986256e+001 
3181250000  -2.964955e+001  7.459785e+001 
3184375000  -2.896397e+001  6.175799e+001 
3187500000  -3.013194e+001  4.604239e+001 
3190625000  -3.289740e+001  3.859053e+001 
3193750000  -3.342090e+001  4.699880e+001 
3196875000  -3.313684e+001  5.138886e+001 
3200000000  -3.223156e+001  4.896533e+001 
3203125000  -3.138957e+001  4.253010e+001 
3206250000  -3.177761e+001  3.591574e+001 
3209375000  -3.128969e+001  3.017708e+001 
3212500000  -3.143941e+001  2.328591e+001 
3215625000  -3.151701e+001  1.916912e+001 
3218750000  -3.229071e+001  1.193530e+001 
3221875000  -3.312751e+001  6.508851e+000 
3225000000  -3.278252e+001  5.977767e+000 
3228125000  -3.312521e+001  7.571167e-001 
3231250000  -3.384772e+001  -1.888432e+000 
3234375000  -3.353554e+001  -1.579333e+000 
3237500000  -3.353483e+001  -3.589430e+000 
3240625000  -3.319040e+001  -5.828937e+000 
3243750000  -3.274282e+001  -1.349256e+001 
3246875000  -3.320700e+001  -2.035684e+001 
3250000000  -3.352546e+001  -2.327971e+001 
3253125000  -3.360627e+001  -2.520028e+001 
3256250000  -3.322482e+001  -3.230663e+001 
3259375000  -3.355493e+001  -4.019282e+001 
3262500000  -3.476590e+001  -4.382042e+001 
3265625000  -3.530428e+001  -4.195414e+001 
3268750000  -3.515389e+001  -3.922726e+001 
3271875000  -3.489695e+001  -4.009119e+001 
3275000000  -3.382715e+001  -4.655495e+001 
3278125000  -3.426299e+001  -5.300969e+001 
3281250000  -3.446868e+001  -5.241923e+001 
3284375000  -3.403290e+001  -5.982613e+001 
3287500000  -3.409138e+001  -6.282543e+001 
3290625000  -3.440692e+001  -6.850516e+001 
3293750000  -3.415869e+001  -7.373814e+001 
3296875000  -3.528045e+001  -7.584590e+001 
3300000000  -3.506366e+001  -7.462976e+001 
3303125000  -3.377077e+001  -7.989735e+001 
3306250000  -3.364378e+001  -8.654153e+001 
3309375000  -3.339893e+001  -9.327840e+001 
3312500000  -3.335195e+001  -1.038189e+002 
3315625000  -3.444928e+001  -1.121319e+002 
3318750000  -3.575785e+001  -1.158900e+002 
3321875000  -3.689275e+001  -1.155689e+002 
3325000000  -3.745453e+001  -1.100733e+002 
3328125000  -3.707856e+001  -1.106845e+002 
3331250000  -3.591566e+001  -1.038791e+002 
3334375000  -3.317880e+001  -1.142490e+002 
3337500000  -3.325388e+001  -1.322432e+002 
3340625000  -3.465249e+001  -1.435380e+002 
3343750000  -3.652927e+001  -1.457207e+002 
3346875000  -3.690926e+001  -1.430728e+002 
3350000000  -3.618727e+001  -1.447113e+002 
3353125000  -3.621762e+001  -1.496347e+002 
3356250000  -3.581408e+001  -1.579292e+002 
3359375000  -3.677549e+001  -1.663263e+002 
3362500000  -3.768395e+001  -1.729889e+002 
3365625000  -3.817359e+001  -1.733381e+002 
3368750000  -3.882241e+001  -1.754202e+002 
3371875000  -3.916410e+001  -1.778840e+002 
3375000000  -4.037662e+001  1.796408e+002 
3378125000  -4.132253e+001  1.791106e+002 
3381250000  -4.259825e+001  -1.733100e+002 
3384375000  -4.133652e+001  -1.524568e+002 
3387500000  -3.785223e+001  -1.675788e+002 
3390625000  -3.945441e+001  1.746534e+002 
3393750000  -4.070477e+001  1.779609e+002 
3396875000  -3.966398e+001  -1.786501e+002 
3400000000  -3.878113e+001  1.714174e+002 
3403125000  -3.941002e+001  1.664607e+002 
3406250000  -3.985023e+001  1.655614e+002 
3409375000  -4.001565e+001  1.566820e+002 
3412500000  -4.038493e+001  1.559628e+002 
3415625000  -4.102906e+001  1.578167e+002 
3418750000  -4.113424e+001  1.567086e+002 
3421875000  -4.143910e+001  1.600455e+002 
3425000000  -4.031263e+001  1.618094e+002 
3428125000  -3.947670e+001  1.557556e+002 
3431250000  -3.944313e+001  1.491541e+002 
3434375000  -3.912491e+001  1.425620e+002 
3437500000  -3.998475e+001  1.398607e+002 
3440625000  -4.011337e+001  1.409679e+002 
3443750000  -3.892148e+001  1.400247e+002 
3446875000  -3.807858e+001  1.336189e+002 
3450000000  -3.757490e+001  1.231519e+002 
3453125000  -3.798273e+001  1.142098e+002 
3456250000  -3.929199e+001  1.065287e+002 
3459375000  -4.025731e+001  1.083033e+002 
3462500000  -4.009760e+001  1.071696e+002 
3465625000  -3.996996e+001  1.029904e+002 
3468750000  -4.033414e+001  9.857898e+001 
3471875000  -3.996686e+001  9.802676e+001 
3475000000  -3.991421e+001  9.142817e+001 
3478125000  -4.061632e+001  8.561364e+001 
3481250000  -4.130673e+001  8.222867e+001 
3484375000  -4.247352e+001  8.536266e+001 
3487500000  -4.150722e+001  8.607699e+001 
3490625000  -4.126953e+001  8.255979e+001 
3493750000  -4.154946e+001  7.535173e+001 
3496875000  -4.210305e+001  7.204342e+001 
3500000000  -4.273206e+001  7.531143e+001 
3503125000  -4.237958e+001  7.953790e+001 
3506250000  -4.081361e+001  7.325042e+001 
3509375000  -4.098264e+001  6.516062e+001 
3512500000  -4.130336e+001  5.468756e+001 
3515625000  -4.199276e+001  5.345578e+001 
3518750000  -4.266082e+001  5.515018e+001 
3521875000  -4.261770e+001  5.157694e+001 
3525000000  -4.355858e+001  4.845805e+001 
3528125000  -4.295716e+001  5.613655e+001 
3531250000  -4.155538e+001  5.426642e+001 
3534375000  -4.179741e+001  4.490390e+001 
3537500000  -4.245510e+001  3.973439e+001 
3540625000  -4.332333e+001  3.613055e+001 
3543750000  -4.394466e+001  3.976604e+001 
3546875000  -4.388726e+001  5.309631e+001 
3550000000  -4.106427e+001  5.324401e+001 
3553125000  -3.966297e+001  3.505972e+001 
3556250000  -4.143249e+001  2.775788e+001 
3559375000  -4.108910e+001  3.048084e+001 
3562500000  -3.996346e+001  2.210789e+001 
3565625000  -4.075191e+001  1.272056e+001 
3568750000  -4.118590e+001  1.357121e+001 
3571875000  -4.108042e+001  1.453632e+001 
3575000000  -4.056465e+001  5.262981e+000 
3578125000  -4.099281e+001  4.538548e-001 
3581250000  -4.133616e+001  -1.114108e+000 
3584375000  -4.051455e+001  -2.263093e+000 
3587500000  -4.014176e+001  -1.059665e+001 
3590625000  -4.043076e+001  -2.246101e+001 
3593750000  -4.202303e+001  -2.603024e+001 
3596875000  -4.197606e+001  -1.859450e+001 
3600000000  -4.051546e+001  -2.422080e+001 
3603125000  -4.114351e+001  -3.984511e+001 
3606250000  -4.207890e+001  -4.331993e+001 
3609375000  -4.261127e+001  -4.685275e+001 
3612500000  -4.327142e+001  -4.894441e+001 
3615625000  -4.350126e+001  -5.131107e+001 
3618750000  -4.427184e+001  -5.082233e+001 
3621875000  -4.403882e+001  -5.408564e+001 
3625000000  -4.452545e+001  -5.245258e+001 
3628125000  -4.527435e+001  -5.199836e+001 
3631250000  -4.478369e+001  -5.919614e+001 
3634375000  -4.604764e+001  -5.851997e+001 
3637500000  -4.588417e+001  -5.542022e+001 
3640625000  -4.537244e+001  -4.927089e+001 
3643750000  -4.500961e+001  -5.568645e+001 
3646875000  -4.505873e+001  -6.006178e+001 
3650000000  -4.604941e+001  -6.206502e+001 
3653125000  -4.546615e+001  -5.990181e+001 
3656250000  -4.594963e+001  -6.193910e+001 
3659375000  -4.601488e+001  -5.904723e+001 
3662500000  -4.481820e+001  -6.253935e+001 
3665625000  -4.453179e+001  -6.249799e+001 
3668750000  -4.355802e+001  -6.181752e+001 
3671875000  -4.246823e+001  -6.881241e+001 
3675000000  -4.285520e+001  -7.609117e+001 
3678125000  -4.321492e+001  -8.011687e+001 
3681250000  -4.286260e+001  -8.066394e+001 
3684375000  -4.302822e+001  -8.547807e+001 
3687500000  -4.295470e+001  -9.083426e+001 
3690625000  -4.267902e+001  -9.550095e+001 
3693750000  -4.367003e+001  -9.762595e+001 
3696875000  -4.333847e+001  -9.454546e+001 
3700000000  -4.284126e+001  -9.910931e+001 
3703125000  -4.278413e+001  -1.058199e+002 
3706250000  -4.362261e+001  -1.066566e+002 
3709375000  -4.345892e+001  -1.052478e+002 
3712500000  -4.264906e+001  -1.097147e+002 
3715625000  -4.176487e+001  -1.163042e+002 
3718750000  -4.152761e+001  -1.203593e+002 
3721875000  -4.143644e+001  -1.249111e+002 
3725000000  -4.197476e+001  -1.328242e+002 
3728125000  -4.251370e+001  -1.319963e+002 
3731250000  -4.195645e+001  -1.365583e+002 
3734375000  -4.120103e+001  -1.437642e+002 
3737500000  -4.226548e+001  -1.512741e+002 
3740625000  -4.375141e+001  -1.533926e+002 
3743750000  -4.337209e+001  -1.541477e+002 
3746875000  -4.389516e+001  -1.564508e+002 
3750000000  -4.448748e+001  -1.579520e+002 
3753125000  -4.459290e+001  -1.600279e+002 
3756250000  -4.482556e+001  -1.542895e+002 
3759375000  -4.493401e+001  -1.542834e+002 
3762500000  -4.437214e+001  -1.558998e+002 
3765625000  -4.528220e+001  -1.549869e+002 
3768750000  -4.510003e+001  -1.492352e+002 
3771875000  -4.349575e+001  -1.534799e+002 
3775000000  -4.319961e+001  -1.594387e+002 
3778125000  -4.343996e+001  -1.585658e+002 
3781250000  -4.295638e+001  -1.640974e+002 
3784375000  -4.250186e+001  -1.648913e+002 
3787500000  -4.155569e+001  -1.681536e+002 
3790625000  -4.208890e+001  -1.762960e+002 
3793750000  -4.185475e+001  -1.754021e+002 
3796875000  -4.077046e+001  -1.773740e+002 
3800000000  -3.943829e+001  1.783710e+002 
3803125000  -4.006132e+001  1.686713e+002 
3806250000  -4.055307e+001  1.674458e+002 
3809375000  -4.019877e+001  1.652033e+002 
3812500000  -3.928148e+001  1.574124e+002 
3815625000  -3.983435e+001  1.470996e+002 
3818750000  -4.113678e+001  1.463505e+002 
3821875000  -4.077868e+001  1.546823e+002 
3825000000  -3.914881e+001  1.551316e+002 
3828125000  -3.763648e+001  1.406105e+002 
3831250000  -3.847610e+001  1.244433e+002 
3834375000  -3.991419e+001  1.246888e+002 
3837500000  -4.091334e+001  1.254675e+002 
3840625000  -3.969436e+001  1.272162e+002 
3843750000  -3.860971e+001  1.137086e+002 
3846875000  -3.962132e+001  1.079961e+002 
3850000000  -4.098381e+001  1.122164e+002 
3853125000  -4.063601e+001  1.129667e+002 
3856250000  -4.049051e+001  1.061570e+002 
3859375000  -3.952319e+001  1.008377e+002 
3862500000  -3.957748e+001  9.398277e+001 
3865625000  -3.987331e+001  8.822571e+001 
3868750000  -3.962860e+001  8.859235e+001 
3871875000  -3.897188e+001  8.386592e+001 
3875000000  -3.953451e+001  7.384379e+001 
3878125000  -4.061800e+001  7.312721e+001 
3881250000  -4.083972e+001  7.520288e+001 
3884375000  -4.060309e+001  7.135217e+001 
3887500000  -4.052808e+001  6.593577e+001 
3890625000  -4.086900e+001  6.365844e+001 
3893750000  -4.076211e+001  6.104358e+001 
3896875000  -4.161960e+001  6.275139e+001 
3900000000  -4.168254e+001  6.209608e+001 
3903125000  -4.105321e+001  6.098191e+001 
3906250000  -4.076653e+001  5.852998e+001 
3909375000  -3.995597e+001  5.482975e+001 
3912500000  -4.012759e+001  4.596052e+001 
3915625000  -4.143723e+001  4.750086e+001 
3918750000  -4.097381e+001  4.678836e+001 
3921875000  -4.073534e+001  4.596575e+001 
3925000000  -3.981232e+001  4.304343e+001 
3928125000  -3.911892e+001  3.683125e+001 
3931250000  -3.925792e+001  3.105997e+001 
3934375000  -3.963374e+001  3.158721e+001 
3937500000  -3.981374e+001  2.939852e+001 
3940625000  -4.031760e+001  2.689461e+001 
3943750000  -3.911219e+001  2.566922e+001 
3946875000  -3.789194e+001  2.214227e+001 
3950000000  -3.864243e+001  1.199654e+001 
3953125000  -3.967029e+001  8.537224e+000 
3956250000  -3.912963e+001  1.226198e+001 
3959375000  -3.759991e+001  8.583038e+000 
3962500000  -3.718135e+001  2.587180e+000 
3965625000  -3.697556e+001  -8.826601e+000 
3968750000  -3.780239e+001  -1.586240e+001 
3971875000  -3.840377e+001  -1.833623e+001 
3975000000  -3.764079e+001  -2.021626e+001 
3978125000  -3.751715e+001  -2.269510e+001 
3981250000  -3.770126e+001  -2.946747e+001 
3984375000  -3.782211e+001  -3.563481e+001 
3987500000  -3.845671e+001  -3.881192e+001 
3990625000  -3.845192e+001  -3.885034e+001 
3993750000  -3.887780e+001  -4.349413e+001 
3996875000  -3.897365e+001  -4.722437e+001 
4000000000  -3.928273e+001  -4.820275e+001 
4003125000  -3.974571e+001  -4.744960e+001 
4006250000  -3.833585e+001  -4.734473e+001 
4009375000  -3.744244e+001  -6.120570e+001 
4012500000  -3.867430e+001  -6.855904e+001 
4015625000  -3.992175e+001  -6.635934e+001 
4018750000  -4.016369e+001  -6.581027e+001 
4021875000  -3.946553e+001  -6.647729e+001 
4025000000  -3.909797e+001  -7.126907e+001 
4028125000  -3.885289e+001  -7.643314e+001 
4031250000  -3.966975e+001  -7.914101e+001 
4034375000  -3.999925e+001  -7.969964e+001 
4037500000  -3.923383e+001  -7.747642e+001 
4040625000  -3.930377e+001  -8.203851e+001 
4043750000  -3.964178e+001  -8.367693e+001 
4046875000  -3.902627e+001  -8.330723e+001 
4050000000  -3.847482e+001  -9.009978e+001 
4053125000  -3.898844e+001  -9.238910e+001 
4056250000  -3.919427e+001  -8.966653e+001 
4059375000  -3.801871e+001  -8.786309e+001 
4062500000  -3.643365e+001  -9.405214e+001 
4065625000  -3.662707e+001  -9.871220e+001 
4068750000  -3.604585e+001  -1.044664e+002 
4071875000  -3.548193e+001  -1.140219e+002 
4075000000  -3.596193e+001  -1.203995e+002 
4078125000  -3.643102e+001  -1.224086e+002 
4081250000  -3.595816e+001  -1.263147e+002 
4084375000  -3.552293e+001  -1.336298e+002 
4087500000  -3.578394e+001  -1.413401e+002 
4090625000  -3.654795e+001  -1.429143e+002 
4093750000  -3.628854e+001  -1.451558e+002 
4096875000  -3.593348e+001  -1.515415e+002 
4100000000  -3.674818e+001  -1.594288e+002 
4103125000  -3.761166e+001  -1.598430e+002 
4106250000  -3.736495e+001  -1.557501e+002 
4109375000  -3.660587e+001  -1.573451e+002 
4112500000  -3.593387e+001  -1.654796e+002 
4115625000  -3.658194e+001  -1.702316e+002 
4118750000  -3.655520e+001  -1.740200e+002 
4121875000  -3.632866e+001  1.794848e+002 
4125000000  -3.676206e+001  1.757358e+002 
4128125000  -3.766800e+001  1.746365e+002 
4131250000  -3.755394e+001  1.793132e+002 
4134375000  -3.533140e+001  1.732849e+002 
4137500000  -3.520099e+001  1.543955e+002 
4140625000  -3.747453e+001  1.467112e+002 
4143750000  -3.886500e+001  1.508968e+002 
4146875000  -3.854252e+001  1.593377e+002 
4150000000  -3.780367e+001  1.534825e+002 
4153125000  -3.756335e+001  1.469205e+002 
4156250000  -3.864743e+001  1.454530e+002 
4159375000  -3.911435e+001  1.482865e+002 
4162500000  -3.775104e+001  1.525164e+002 
4165625000  -3.654080e+001  1.496222e+002 
4168750000  -3.626726e+001  1.412079e+002 
4171875000  -3.618607e+001  1.318077e+002 
4175000000  -3.680709e+001  1.263160e+002 
4178125000  -3.741497e+001  1.261843e+002 
4181250000  -3.712983e+001  1.258172e+002 
4184375000  -3.685637e+001  1.225411e+002 
4187500000  -3.690913e+001  1.191370e+002 
4190625000  -3.665385e+001  1.136095e+002 
4193750000  -3.757505e+001  1.084198e+002 
4196875000  -3.832624e+001  1.089923e+002 
4200000000  -3.915495e+001  1.100730e+002 
4203125000  -3.896587e+001  1.219348e+002 
4206250000  -3.513355e+001  1.230355e+002 
4209375000  -3.420476e+001  1.020147e+002 
4212500000  -3.613943e+001  9.143439e+001 
4215625000  -3.707840e+001  9.697549e+001 
4218750000  -3.569994e+001  1.040452e+002 
4221875000  -3.319900e+001  9.335474e+001 
4225000000  -3.439955e+001  7.889613e+001 
4228125000  -3.505256e+001  8.285632e+001 
4231250000  -3.362547e+001  8.007005e+001 
4234375000  -3.332509e+001  6.943194e+001 
4237500000  -3.285593e+001  6.468047e+001 
4240625000  -3.290646e+001  5.369835e+001 
4243750000  -3.394456e+001  4.576735e+001 
4246875000  -3.487835e+001  4.591376e+001 
4250000000  -3.497554e+001  4.558732e+001 
4253125000  -3.448074e+001  4.307154e+001 
4256250000  -3.453284e+001  3.787844e+001 
4259375000  -3.455415e+001  3.511084e+001 
4262500000  -3.443224e+001  2.925719e+001 
4265625000  -3.471090e+001  2.913333e+001 
4268750000  -3.403694e+001  2.363630e+001 
4271875000  -3.384843e+001  1.598619e+001 
4275000000  -3.331124e+001  8.121208e+000 
4278125000  -3.408036e+001  -3.510441e+000 
4281250000  -3.603254e+001  -5.837525e+000 
4284375000  -3.572438e+001  -5.694138e+000 
4287500000  -3.688625e+001  -1.009431e+001 
4290625000  -3.836379e+001  -5.882875e-001 
4293750000  -3.643419e+001  6.025204e+000 
4296875000  -3.502592e+001  -5.085185e+000 
4300000000  -3.593340e+001  -1.554010e+001 
4303125000  -3.710345e+001  -1.412488e+001 
4306250000  -3.675533e+001  -7.524244e+000 
4309375000  -3.555856e+001  -8.773261e+000 
4312500000  -3.508525e+001  -1.751363e+001 
4315625000  -3.542755e+001  -2.321676e+001 
4318750000  -3.559259e+001  -2.668718e+001 
4321875000  -3.576290e+001  -2.543241e+001 
4325000000  -3.516339e+001  -2.592371e+001 
4328125000  -3.440844e+001  -3.223645e+001 
4331250000  -3.427719e+001  -4.088471e+001 
4334375000  -3.460224e+001  -4.590051e+001 
4337500000  -3.545358e+001  -4.833811e+001 
4340625000  -3.581867e+001  -4.600676e+001 
4343750000  -3.508047e+001  -4.604429e+001 
4346875000  -3.443832e+001  -5.174152e+001 
4350000000  -3.422380e+001  -5.766057e+001 
4353125000  -3.447344e+001  -6.639053e+001 
4356250000  -3.608517e+001  -6.787764e+001 
4359375000  -3.640542e+001  -5.493383e+001 
4362500000  -3.324744e+001  -5.485164e+001 
4365625000  -3.194957e+001  -6.920920e+001 
4368750000  -3.266002e+001  -8.140904e+001 
4371875000  -3.396779e+001  -8.279589e+001 
4375000000  -3.327062e+001  -8.366862e+001 
4378125000  -3.272758e+001  -9.069836e+001 
4381250000  -3.282701e+001  -9.705244e+001 
4384375000  -3.262846e+001  -1.036623e+002 
4387500000  -3.338607e+001  -1.112966e+002 
4390625000  -3.443768e+001  -1.115697e+002 
4393750000  -3.376952e+001  -1.105147e+002 
4396875000  -3.309600e+001  -1.137725e+002 
4400000000  -3.264220e+001  -1.224088e+002 
4403125000  -3.330558e+001  -1.316792e+002 
4406250000  -3.417610e+001  -1.338314e+002 
4409375000  -3.437722e+001  -1.382299e+002 
4412500000  -3.566445e+001  -1.417872e+002 
4415625000  -3.586446e+001  -1.370719e+002 
