!Agilent Technologies,E8363B,MY43030201,A.06.04.32
!Agilent E8363B: A.06.04.32
!Date: Tuesday, November 11, 2014 21:10:24
!Correction: S21(Response(S21)) 
!S1P File: Measurement: S21:
# Hz S  dB   R 50
3000000000  -3.655058e+001  -5.443085e+001 
3003125000  -3.773883e+001  -6.043037e+001 
3006250000  -3.761832e+001  -6.397373e+001 
3009375000  -3.785361e+001  -5.854717e+001 
3012500000  -3.696539e+001  -6.100416e+001 
3015625000  -3.617545e+001  -6.760267e+001 
3018750000  -3.683431e+001  -6.903957e+001 
3021875000  -3.544444e+001  -6.859212e+001 
3025000000  -3.411664e+001  -7.180545e+001 
3028125000  -3.312662e+001  -7.835703e+001 
3031250000  -3.219682e+001  -9.002320e+001 
3034375000  -3.184808e+001  -1.033275e+002 
3037500000  -3.228122e+001  -1.153109e+002 
3040625000  -3.361341e+001  -1.203494e+002 
3043750000  -3.428484e+001  -1.256836e+002 
3046875000  -3.449464e+001  -1.311927e+002 
3050000000  -3.622977e+001  -1.375470e+002 
3053125000  -3.607120e+001  -1.309294e+002 
3056250000  -3.556502e+001  -1.278933e+002 
3059375000  -3.559533e+001  -1.293469e+002 
3062500000  -3.419681e+001  -1.323170e+002 
3065625000  -3.397215e+001  -1.391096e+002 
3068750000  -3.357845e+001  -1.453494e+002 
3071875000  -3.353860e+001  -1.478415e+002 
3075000000  -3.339358e+001  -1.525147e+002 
3078125000  -3.302458e+001  -1.559783e+002 
3081250000  -3.353767e+001  -1.608494e+002 
3084375000  -3.268594e+001  -1.642500e+002 
3087500000  -3.245948e+001  -1.679696e+002 
3090625000  -3.202174e+001  -1.787059e+002 
3093750000  -3.255476e+001  1.743461e+002 
3096875000  -3.355074e+001  1.686163e+002 
3100000000  -3.342234e+001  1.660211e+002 
3103125000  -3.366590e+001  1.668456e+002 
3106250000  -3.319403e+001  1.625339e+002 
3109375000  -3.329914e+001  1.585250e+002 
3112500000  -3.326384e+001  1.570983e+002 
3115625000  -3.285344e+001  1.524005e+002 
3118750000  -3.325824e+001  1.519533e+002 
3121875000  -3.231860e+001  1.425320e+002 
3125000000  -3.355265e+001  1.388856e+002 
3128125000  -3.451413e+001  1.460078e+002 
3131250000  -3.207754e+001  1.437632e+002 
3134375000  -3.075074e+001  1.281792e+002 
3137500000  -3.137060e+001  1.146425e+002 
3140625000  -3.275217e+001  1.125164e+002 
3143750000  -3.384368e+001  1.136196e+002 
3146875000  -3.328761e+001  1.139288e+002 
3150000000  -3.226067e+001  1.142895e+002 
3153125000  -3.229744e+001  1.049091e+002 
3156250000  -3.331348e+001  1.101172e+002 
3159375000  -3.154302e+001  1.113347e+002 
3162500000  -2.967960e+001  9.610753e+001 
3165625000  -3.076233e+001  8.412775e+001 
3168750000  -3.098570e+001  8.437980e+001 
3171875000  -3.012745e+001  7.879364e+001 
3175000000  -3.089005e+001  6.988343e+001 
3178125000  -3.061038e+001  7.088788e+001 
3181250000  -2.953402e+001  6.514662e+001 
3184375000  -2.890553e+001  5.214450e+001 
3187500000  -3.004512e+001  3.685468e+001 
3190625000  -3.265485e+001  2.986117e+001 
3193750000  -3.323214e+001  3.803448e+001 
3196875000  -3.293534e+001  4.221840e+001 
3200000000  -3.195150e+001  3.983638e+001 
3203125000  -3.115613e+001  3.308581e+001 
3206250000  -3.153306e+001  2.623117e+001 
3209375000  -3.105380e+001  2.070940e+001 
3212500000  -3.132703e+001  1.315635e+001 
3215625000  -3.142545e+001  1.004438e+001 
3218750000  -3.209399e+001  2.350483e+000 
3221875000  -3.291459e+001  -2.598570e+000 
3225000000  -3.250052e+001  -4.197284e+000 
3228125000  -3.297433e+001  -9.533268e+000 
3231250000  -3.361492e+001  -1.189904e+001 
3234375000  -3.330102e+001  -1.146116e+001 
3237500000  -3.325021e+001  -1.414185e+001 
3240625000  -3.288382e+001  -1.605560e+001 
3243750000  -3.252533e+001  -2.389811e+001 
3246875000  -3.293797e+001  -3.056033e+001 
3250000000  -3.335771e+001  -3.361919e+001 
3253125000  -3.347612e+001  -3.547272e+001 
3256250000  -3.304015e+001  -4.226101e+001 
3259375000  -3.336465e+001  -5.098384e+001 
3262500000  -3.453598e+001  -5.428220e+001 
3265625000  -3.525027e+001  -5.163628e+001 
3268750000  -3.505893e+001  -4.930610e+001 
3271875000  -3.463670e+001  -5.025086e+001 
3275000000  -3.361744e+001  -5.719255e+001 
3278125000  -3.411385e+001  -6.372678e+001 
3281250000  -3.425896e+001  -6.264249e+001 
3284375000  -3.381087e+001  -6.978246e+001 
3287500000  -3.408089e+001  -7.301458e+001 
3290625000  -3.428455e+001  -7.875143e+001 
3293750000  -3.406697e+001  -8.502615e+001 
3296875000  -3.512652e+001  -8.494416e+001 
3300000000  -3.476166e+001  -8.442863e+001 
3303125000  -3.353879e+001  -9.035190e+001 
3306250000  -3.343906e+001  -9.731152e+001 
3309375000  -3.318769e+001  -1.037310e+002 
3312500000  -3.326178e+001  -1.145742e+002 
3315625000  -3.426465e+001  -1.232796e+002 
3318750000  -3.575581e+001  -1.258637e+002 
3321875000  -3.682920e+001  -1.258940e+002 
3325000000  -3.708849e+001  -1.205060e+002 
3328125000  -3.680550e+001  -1.182312e+002 
3331250000  -3.545930e+001  -1.133320e+002 
3334375000  -3.297593e+001  -1.242644e+002 
3337500000  -3.301900e+001  -1.437239e+002 
3340625000  -3.436081e+001  -1.545793e+002 
3343750000  -3.636386e+001  -1.552542e+002 
3346875000  -3.658995e+001  -1.531508e+002 
3350000000  -3.591192e+001  -1.561539e+002 
3353125000  -3.596699e+001  -1.605016e+002 
3356250000  -3.544311e+001  -1.685474e+002 
3359375000  -3.622319e+001  -1.774792e+002 
3362500000  -3.741287e+001  1.771583e+002 
3365625000  -3.783297e+001  1.762308e+002 
3368750000  -3.863142e+001  1.740130e+002 
3371875000  -3.900349e+001  1.703392e+002 
3375000000  -4.022845e+001  1.682417e+002 
3378125000  -4.127916e+001  1.685064e+002 
3381250000  -4.219263e+001  1.766316e+002 
3384375000  -4.077727e+001  -1.623669e+002 
3387500000  -3.734380e+001  -1.785120e+002 
3390625000  -3.905885e+001  1.631877e+002 
3393750000  -4.019673e+001  1.664771e+002 
3396875000  -3.924164e+001  1.673665e+002 
3400000000  -3.854223e+001  1.579027e+002 
3403125000  -3.916280e+001  1.528754e+002 
3406250000  -3.958670e+001  1.526145e+002 
3409375000  -3.964886e+001  1.441796e+002 
3412500000  -4.023706e+001  1.437502e+002 
3415625000  -4.093656e+001  1.438102e+002 
3418750000  -4.083563e+001  1.450241e+002 
3421875000  -4.107582e+001  1.470692e+002 
3425000000  -4.020771e+001  1.493407e+002 
3428125000  -3.920274e+001  1.441555e+002 
3431250000  -3.923672e+001  1.372333e+002 
3434375000  -3.921847e+001  1.309627e+002 
3437500000  -3.967423e+001  1.275113e+002 
3440625000  -3.984121e+001  1.295155e+002 
3443750000  -3.880095e+001  1.296199e+002 
3446875000  -3.793843e+001  1.217848e+002 
3450000000  -3.755128e+001  1.110599e+002 
3453125000  -3.801466e+001  1.020096e+002 
3456250000  -3.911791e+001  9.506744e+001 
3459375000  -4.012187e+001  9.608077e+001 
3462500000  -3.982661e+001  9.636803e+001 
3465625000  -3.979549e+001  9.230572e+001 
3468750000  -4.001675e+001  8.597942e+001 
3471875000  -4.008122e+001  8.567490e+001 
3475000000  -3.966607e+001  8.021533e+001 
3478125000  -4.028868e+001  7.174819e+001 
3481250000  -4.116755e+001  7.059016e+001 
3484375000  -4.205604e+001  7.576524e+001 
3487500000  -4.122769e+001  7.322672e+001 
3490625000  -4.066846e+001  6.872926e+001 
3493750000  -4.122568e+001  6.203905e+001 
3496875000  -4.161543e+001  6.144340e+001 
3500000000  -4.233512e+001  6.316738e+001 
3503125000  -4.189012e+001  6.473694e+001 
3506250000  -4.068013e+001  5.996186e+001 
3509375000  -4.062455e+001  5.045014e+001 
3512500000  -4.102388e+001  4.123803e+001 
3515625000  -4.210601e+001  3.969628e+001 
3518750000  -4.265833e+001  4.026686e+001 
3521875000  -4.250481e+001  3.680692e+001 
3525000000  -4.322954e+001  3.318974e+001 
3528125000  -4.331201e+001  4.345432e+001 
3531250000  -4.189352e+001  4.014344e+001 
3534375000  -4.209384e+001  2.942453e+001 
3537500000  -4.250349e+001  2.377434e+001 
3540625000  -4.345346e+001  2.358690e+001 
3543750000  -4.411174e+001  2.810473e+001 
3546875000  -4.412529e+001  3.818017e+001 
3550000000  -4.125128e+001  4.117806e+001 
3553125000  -4.020560e+001  2.298689e+001 
3556250000  -4.189789e+001  1.622486e+001 
3559375000  -4.126962e+001  1.784319e+001 
3562500000  -4.030251e+001  8.414171e+000 
3565625000  -4.123678e+001  1.336069e+000 
3568750000  -4.137878e+001  3.606029e+000 
3571875000  -4.079963e+001  1.632319e-001 
3575000000  -4.066158e+001  -4.145815e+000 
3578125000  -4.110637e+001  -1.203750e+001 
3581250000  -4.102029e+001  -8.701674e+000 
3584375000  -4.057546e+001  -1.337020e+001 
3587500000  -3.986507e+001  -2.282435e+001 
3590625000  -4.043405e+001  -3.346256e+001 
3593750000  -4.176900e+001  -3.559922e+001 
3596875000  -4.159596e+001  -2.790788e+001 
3600000000  -3.988395e+001  -3.428401e+001 
3603125000  -4.064207e+001  -4.952534e+001 
3606250000  -4.124295e+001  -5.188081e+001 
3609375000  -4.205777e+001  -5.545725e+001 
3612500000  -4.261687e+001  -5.794059e+001 
3615625000  -4.299130e+001  -6.258118e+001 
3618750000  -4.343986e+001  -6.191221e+001 
3621875000  -4.358595e+001  -6.631492e+001 
3625000000  -4.439189e+001  -6.799493e+001 
3628125000  -4.414386e+001  -7.042885e+001 
3631250000  -4.393665e+001  -7.257383e+001 
3634375000  -4.539102e+001  -7.272018e+001 
3637500000  -4.545310e+001  -6.852518e+001 
3640625000  -4.487127e+001  -6.718649e+001 
3643750000  -4.414404e+001  -7.355807e+001 
3646875000  -4.448753e+001  -7.982802e+001 
3650000000  -4.574820e+001  -7.856934e+001 
3653125000  -4.587981e+001  -8.016648e+001 
3656250000  -4.611359e+001  -7.862368e+001 
3659375000  -4.580444e+001  -7.705143e+001 
3662500000  -4.488502e+001  -7.577580e+001 
3665625000  -4.481581e+001  -7.499139e+001 
3668750000  -4.349572e+001  -7.811507e+001 
3671875000  -4.279902e+001  -8.406341e+001 
3675000000  -4.324289e+001  -9.150284e+001 
3678125000  -4.348300e+001  -9.275227e+001 
3681250000  -4.266835e+001  -9.424514e+001 
3684375000  -4.302068e+001  -9.995237e+001 
3687500000  -4.289719e+001  -1.048556e+002 
3690625000  -4.296413e+001  -1.088219e+002 
3693750000  -4.391951e+001  -1.070326e+002 
3696875000  -4.349879e+001  -1.069714e+002 
3700000000  -4.276615e+001  -1.143588e+002 
3703125000  -4.296367e+001  -1.166621e+002 
3706250000  -4.412445e+001  -1.172133e+002 
3709375000  -4.342545e+001  -1.186785e+002 
3712500000  -4.251868e+001  -1.192354e+002 
3715625000  -4.157376e+001  -1.278210e+002 
3718750000  -4.095713e+001  -1.329686e+002 
3721875000  -4.117048e+001  -1.376975e+002 
3725000000  -4.133958e+001  -1.450343e+002 
3728125000  -4.203987e+001  -1.469433e+002 
3731250000  -4.152724e+001  -1.485533e+002 
3734375000  -4.141481e+001  -1.552679e+002 
3737500000  -4.186090e+001  -1.641874e+002 
3740625000  -4.313477e+001  -1.655180e+002 
3743750000  -4.346853e+001  -1.684354e+002 
3746875000  -4.382172e+001  -1.725722e+002 
3750000000  -4.426836e+001  -1.725957e+002 
3753125000  -4.384492e+001  -1.726770e+002 
3756250000  -4.423471e+001  -1.725483e+002 
3759375000  -4.450220e+001  -1.712652e+002 
3762500000  -4.457457e+001  -1.747338e+002 
3765625000  -4.496390e+001  -1.784051e+002 
3768750000  -4.488233e+001  -1.721648e+002 
3771875000  -4.318652e+001  -1.740444e+002 
3775000000  -4.320996e+001  -1.796486e+002 
3778125000  -4.336393e+001  -1.795862e+002 
3781250000  -4.304776e+001  1.789213e+002 
3784375000  -4.327925e+001  1.783150e+002 
3787500000  -4.210232e+001  1.734581e+002 
3790625000  -4.257917e+001  1.699791e+002 
3793750000  -4.256381e+001  1.677156e+002 
3796875000  -4.141233e+001  1.640621e+002 
3800000000  -3.949377e+001  1.648665e+002 
3803125000  -4.024105e+001  1.535496e+002 
3806250000  -4.112936e+001  1.503771e+002 
3809375000  -4.078360e+001  1.499569e+002 
3812500000  -3.977237e+001  1.436901e+002 
3815625000  -4.059733e+001  1.317503e+002 
3818750000  -4.162381e+001  1.305715e+002 
3821875000  -4.125826e+001  1.386542e+002 
3825000000  -3.961628e+001  1.419743e+002 
3828125000  -3.814208e+001  1.265048e+002 
3831250000  -3.878630e+001  1.114659e+002 
3834375000  -4.032383e+001  1.111667e+002 
3837500000  -4.117266e+001  1.151962e+002 
3840625000  -4.007127e+001  1.115123e+002 
3843750000  -3.881782e+001  9.981552e+001 
3846875000  -3.981559e+001  9.282230e+001 
3850000000  -4.149133e+001  9.793452e+001 
3853125000  -4.055227e+001  9.963470e+001 
3856250000  -4.047997e+001  9.244365e+001 
3859375000  -3.951268e+001  8.897810e+001 
3862500000  -3.933459e+001  8.089014e+001 
3865625000  -3.993383e+001  7.689260e+001 
3868750000  -3.975188e+001  7.490126e+001 
3871875000  -3.911488e+001  6.977200e+001 
3875000000  -3.953882e+001  6.056047e+001 
3878125000  -4.065971e+001  5.892349e+001 
3881250000  -4.058812e+001  6.054400e+001 
3884375000  -4.031417e+001  5.558625e+001 
3887500000  -4.039132e+001  5.188348e+001 
3890625000  -4.103870e+001  4.786942e+001 
3893750000  -4.142102e+001  4.670628e+001 
3896875000  -4.148203e+001  4.886000e+001 
3900000000  -4.177716e+001  4.703473e+001 
3903125000  -4.103461e+001  4.651974e+001 
3906250000  -4.091636e+001  4.279953e+001 
3909375000  -4.034219e+001  4.052416e+001 
3912500000  -4.020828e+001  3.120105e+001 
3915625000  -4.183157e+001  3.171336e+001 
3918750000  -4.122969e+001  3.445760e+001 
3921875000  -4.080470e+001  2.992286e+001 
3925000000  -3.967748e+001  2.793161e+001 
3928125000  -3.929647e+001  2.046074e+001 
3931250000  -3.948784e+001  1.492749e+001 
3934375000  -3.979837e+001  1.642251e+001 
3937500000  -4.029026e+001  1.402272e+001 
3940625000  -4.045916e+001  1.270945e+001 
3943750000  -3.945534e+001  1.298277e+001 
3946875000  -3.822705e+001  6.299586e+000 
3950000000  -3.907767e+001  -2.058291e+000 
3953125000  -3.977798e+001  -3.793409e+000 
3956250000  -3.900621e+001  -1.580827e+000 
3959375000  -3.764992e+001  -4.775782e+000 
3962500000  -3.727636e+001  -1.155718e+001 
3965625000  -3.730793e+001  -2.216542e+001 
3968750000  -3.797436e+001  -2.842795e+001 
3971875000  -3.827935e+001  -3.285444e+001 
3975000000  -3.777895e+001  -3.239437e+001 
3978125000  -3.799226e+001  -3.704924e+001 
3981250000  -3.773407e+001  -4.199071e+001 
3984375000  -3.804045e+001  -4.719851e+001 
3987500000  -3.871081e+001  -5.180434e+001 
3990625000  -3.838859e+001  -5.271457e+001 
3993750000  -3.922423e+001  -5.767909e+001 
3996875000  -3.910140e+001  -6.077793e+001 
4000000000  -3.934428e+001  -6.267353e+001 
4003125000  -3.981623e+001  -6.283847e+001 
4006250000  -3.810843e+001  -6.206783e+001 
4009375000  -3.733948e+001  -7.491287e+001 
4012500000  -3.838290e+001  -8.225616e+001 
4015625000  -3.994014e+001  -7.990652e+001 
4018750000  -4.021155e+001  -7.882063e+001 
4021875000  -3.926534e+001  -8.272859e+001 
4025000000  -3.887002e+001  -8.569930e+001 
4028125000  -3.885543e+001  -9.200005e+001 
4031250000  -3.947353e+001  -9.460258e+001 
4034375000  -4.003180e+001  -9.407414e+001 
4037500000  -3.923830e+001  -9.460803e+001 
4040625000  -3.904998e+001  -9.671375e+001 
4043750000  -3.952925e+001  -9.709821e+001 
4046875000  -3.918552e+001  -1.010869e+002 
4050000000  -3.844932e+001  -1.055395e+002 
4053125000  -3.910171e+001  -1.079783e+002 
4056250000  -3.970559e+001  -1.033760e+002 
4059375000  -3.810597e+001  -1.039160e+002 
4062500000  -3.683206e+001  -1.090102e+002 
4065625000  -3.673017e+001  -1.143739e+002 
4068750000  -3.643761e+001  -1.208392e+002 
4071875000  -3.577528e+001  -1.292046e+002 
4075000000  -3.632734e+001  -1.360467e+002 
4078125000  -3.673508e+001  -1.374571e+002 
4081250000  -3.630410e+001  -1.424545e+002 
4084375000  -3.569213e+001  -1.494774e+002 
4087500000  -3.614576e+001  -1.562620e+002 
4090625000  -3.677231e+001  -1.576730e+002 
4093750000  -3.655236e+001  -1.594116e+002 
4096875000  -3.617321e+001  -1.660606e+002 
4100000000  -3.688443e+001  -1.726113e+002 
4103125000  -3.791394e+001  -1.729871e+002 
4106250000  -3.744938e+001  -1.682739e+002 
4109375000  -3.662911e+001  -1.715768e+002 
4112500000  -3.612682e+001  -1.798891e+002 
4115625000  -3.644461e+001  1.764323e+002 
4118750000  -3.683493e+001  1.715160e+002 
4121875000  -3.638696e+001  1.659904e+002 
4125000000  -3.681955e+001  1.594035e+002 
4128125000  -3.780388e+001  1.606651e+002 
4131250000  -3.770613e+001  1.659012e+002 
4134375000  -3.525705e+001  1.607068e+002 
4137500000  -3.513331e+001  1.403959e+002 
4140625000  -3.751514e+001  1.341731e+002 
4143750000  -3.868232e+001  1.385644e+002 
4146875000  -3.821980e+001  1.445785e+002 
4150000000  -3.753788e+001  1.411732e+002 
4153125000  -3.741259e+001  1.335150e+002 
4156250000  -3.868923e+001  1.307112e+002 
4159375000  -3.872412e+001  1.357607e+002 
4162500000  -3.790948e+001  1.389901e+002 
4165625000  -3.668129e+001  1.352710e+002 
4168750000  -3.603201e+001  1.263029e+002 
4171875000  -3.598286e+001  1.155363e+002 
4175000000  -3.677671e+001  1.113316e+002 
4178125000  -3.737104e+001  1.112718e+002 
4181250000  -3.702936e+001  1.104217e+002 
4184375000  -3.696336e+001  1.051639e+002 
4187500000  -3.684543e+001  1.019007e+002 
4190625000  -3.690918e+001  9.686575e+001 
4193750000  -3.756175e+001  9.353206e+001 
4196875000  -3.824575e+001  9.156191e+001 
4200000000  -3.906050e+001  9.364390e+001 
4203125000  -3.882069e+001  1.070165e+002 
4206250000  -3.526696e+001  1.079031e+002 
4209375000  -3.438467e+001  8.607940e+001 
4212500000  -3.626497e+001  7.718457e+001 
4215625000  -3.702307e+001  8.154241e+001 
4218750000  -3.572901e+001  8.810709e+001 
4221875000  -3.341809e+001  7.721259e+001 
4225000000  -3.454822e+001  6.430795e+001 
4228125000  -3.503503e+001  6.892465e+001 
4231250000  -3.325433e+001  6.414788e+001 
4234375000  -3.350772e+001  5.482389e+001 
4237500000  -3.301031e+001  4.966106e+001 
4240625000  -3.293166e+001  3.928492e+001 
4243750000  -3.391671e+001  3.124682e+001 
4246875000  -3.491633e+001  3.067150e+001 
4250000000  -3.486495e+001  3.074142e+001 
4253125000  -3.440495e+001  2.819308e+001 
4256250000  -3.460476e+001  2.281670e+001 
4259375000  -3.438221e+001  2.030496e+001 
4262500000  -3.462719e+001  1.520762e+001 
4265625000  -3.471113e+001  1.397949e+001 
4268750000  -3.378654e+001  8.441067e+000 
4271875000  -3.373298e+001  7.898884e-001 
4275000000  -3.331358e+001  -7.279196e+000 
4278125000  -3.416588e+001  -1.978073e+001 
4281250000  -3.603375e+001  -2.057130e+001 
4284375000  -3.575912e+001  -2.073558e+001 
4287500000  -3.685238e+001  -2.457673e+001 
4290625000  -3.821205e+001  -1.526155e+001 
4293750000  -3.615846e+001  -1.098023e+001 
4296875000  -3.517022e+001  -2.210694e+001 
4300000000  -3.612856e+001  -3.156757e+001 
4303125000  -3.728570e+001  -3.002454e+001 
4306250000  -3.671984e+001  -2.244730e+001 
4309375000  -3.557446e+001  -2.644387e+001 
4312500000  -3.524562e+001  -3.344554e+001 
4315625000  -3.539526e+001  -3.860674e+001 
4318750000  -3.592037e+001  -4.214790e+001 
4321875000  -3.591613e+001  -4.145771e+001 
4325000000  -3.528946e+001  -4.120920e+001 
4328125000  -3.458990e+001  -4.806820e+001 
4331250000  -3.443592e+001  -5.573105e+001 
4334375000  -3.478436e+001  -6.075277e+001 
4337500000  -3.557764e+001  -6.333206e+001 
4340625000  -3.605558e+001  -6.035302e+001 
4343750000  -3.515980e+001  -6.119440e+001 
4346875000  -3.467744e+001  -6.732431e+001 
4350000000  -3.460545e+001  -7.339644e+001 
4353125000  -3.469341e+001  -8.155949e+001 
4356250000  -3.645463e+001  -8.290782e+001 
4359375000  -3.661336e+001  -6.718231e+001 
4362500000  -3.358140e+001  -7.069372e+001 
4365625000  -3.200597e+001  -8.440535e+001 
4368750000  -3.265454e+001  -9.578066e+001 
4371875000  -3.373724e+001  -9.679494e+001 
4375000000  -3.331622e+001  -9.791765e+001 
4378125000  -3.257656e+001  -1.049382e+002 
4381250000  -3.280964e+001  -1.120824e+002 
4384375000  -3.273956e+001  -1.185483e+002 
4387500000  -3.352525e+001  -1.256797e+002 
4390625000  -3.449295e+001  -1.263606e+002 
4393750000  -3.373122e+001  -1.265182e+002 
4396875000  -3.307238e+001  -1.296371e+002 
4400000000  -3.261027e+001  -1.383643e+002 
4403125000  -3.342796e+001  -1.474725e+002 
4406250000  -3.407156e+001  -1.495066e+002 
4409375000  -3.430019e+001  -1.528136e+002 
4412500000  -3.560899e+001  -1.559947e+002 
4415625000  -3.589422e+001  -1.520755e+002 
