!Agilent Technologies,E8363B,MY43030201,A.06.04.32
!Agilent E8363B: A.06.04.32
!Date: Tuesday, November 11, 2014 21:06:48
!Correction: S21(Response(S21)) 
!S1P File: Measurement: S21:
# Hz S  dB   R 50
3000000000  -3.645115e+001  -4.984762e+001 
3003125000  -3.747755e+001  -5.628263e+001 
3006250000  -3.753272e+001  -5.894868e+001 
3009375000  -3.783665e+001  -5.405196e+001 
3012500000  -3.714027e+001  -5.484979e+001 
3015625000  -3.609105e+001  -6.332250e+001 
3018750000  -3.692085e+001  -6.387171e+001 
3021875000  -3.541140e+001  -6.296704e+001 
3025000000  -3.415708e+001  -6.718159e+001 
3028125000  -3.319775e+001  -7.341539e+001 
3031250000  -3.213740e+001  -8.482040e+001 
3034375000  -3.177365e+001  -9.818483e+001 
3037500000  -3.220835e+001  -1.104114e+002 
3040625000  -3.359018e+001  -1.154224e+002 
3043750000  -3.414208e+001  -1.205308e+002 
3046875000  -3.438359e+001  -1.262534e+002 
3050000000  -3.610187e+001  -1.330173e+002 
3053125000  -3.598970e+001  -1.273470e+002 
3056250000  -3.559035e+001  -1.237990e+002 
3059375000  -3.569870e+001  -1.238002e+002 
3062500000  -3.411759e+001  -1.272690e+002 
3065625000  -3.381477e+001  -1.333512e+002 
3068750000  -3.359001e+001  -1.401496e+002 
3071875000  -3.349697e+001  -1.432518e+002 
3075000000  -3.330984e+001  -1.473859e+002 
3078125000  -3.299715e+001  -1.512411e+002 
3081250000  -3.358587e+001  -1.557413e+002 
3084375000  -3.261642e+001  -1.593636e+002 
3087500000  -3.250832e+001  -1.630378e+002 
3090625000  -3.194559e+001  -1.732518e+002 
3093750000  -3.243921e+001  1.792005e+002 
3096875000  -3.348365e+001  1.728889e+002 
3100000000  -3.340703e+001  1.717371e+002 
3103125000  -3.370404e+001  1.722399e+002 
3106250000  -3.313583e+001  1.678994e+002 
3109375000  -3.330400e+001  1.642397e+002 
3112500000  -3.322147e+001  1.619308e+002 
3115625000  -3.282174e+001  1.570920e+002 
3118750000  -3.321352e+001  1.572458e+002 
3121875000  -3.234344e+001  1.475987e+002 
3125000000  -3.353951e+001  1.436798e+002 
3128125000  -3.449533e+001  1.504536e+002 
3131250000  -3.207841e+001  1.490251e+002 
3134375000  -3.071007e+001  1.335701e+002 
3137500000  -3.133114e+001  1.191164e+002 
3140625000  -3.282512e+001  1.166508e+002 
3143750000  -3.376815e+001  1.185920e+002 
3146875000  -3.339223e+001  1.191023e+002 
3150000000  -3.231194e+001  1.195587e+002 
3153125000  -3.229250e+001  1.102332e+002 
3156250000  -3.334574e+001  1.147070e+002 
3159375000  -3.165224e+001  1.162726e+002 
3162500000  -2.966217e+001  1.020262e+002 
3165625000  -3.075580e+001  8.971891e+001 
3168750000  -3.103659e+001  8.995855e+001 
3171875000  -3.009294e+001  8.415530e+001 
3175000000  -3.086294e+001  7.517648e+001 
3178125000  -3.061262e+001  7.605045e+001 
3181250000  -2.951798e+001  7.068196e+001 
3184375000  -2.880448e+001  5.755249e+001 
3187500000  -2.995648e+001  4.244134e+001 
3190625000  -3.272850e+001  3.426697e+001 
3193750000  -3.334989e+001  4.318060e+001 
3196875000  -3.296705e+001  4.771650e+001 
3200000000  -3.198747e+001  4.480387e+001 
3203125000  -3.121205e+001  3.847920e+001 
3206250000  -3.153009e+001  3.147127e+001 
3209375000  -3.106038e+001  2.674396e+001 
3212500000  -3.121969e+001  1.884898e+001 
3215625000  -3.130791e+001  1.488323e+001 
3218750000  -3.216499e+001  8.026676e+000 
3221875000  -3.293977e+001  2.697293e+000 
3225000000  -3.264700e+001  1.946233e+000 
3228125000  -3.292515e+001  -4.189630e+000 
3231250000  -3.364130e+001  -6.562019e+000 
3234375000  -3.335999e+001  -6.166386e+000 
3237500000  -3.342306e+001  -8.268047e+000 
3240625000  -3.299664e+001  -1.091701e+001 
3243750000  -3.253609e+001  -1.864966e+001 
3246875000  -3.301587e+001  -2.608745e+001 
3250000000  -3.339369e+001  -2.807813e+001 
3253125000  -3.350431e+001  -3.070867e+001 
3256250000  -3.312388e+001  -3.650230e+001 
3259375000  -3.337965e+001  -4.534882e+001 
3262500000  -3.455045e+001  -4.894036e+001 
3265625000  -3.518877e+001  -4.649855e+001 
3268750000  -3.509099e+001  -4.513947e+001 
3271875000  -3.474426e+001  -4.444730e+001 
3275000000  -3.367530e+001  -5.134768e+001 
3278125000  -3.419406e+001  -5.810630e+001 
3281250000  -3.433141e+001  -5.756767e+001 
3284375000  -3.384447e+001  -6.412037e+001 
3287500000  -3.408730e+001  -6.757223e+001 
3290625000  -3.433551e+001  -7.305350e+001 
3293750000  -3.408286e+001  -7.969136e+001 
3296875000  -3.520892e+001  -7.983389e+001 
3300000000  -3.482422e+001  -7.998524e+001 
3303125000  -3.363054e+001  -8.441632e+001 
3306250000  -3.354690e+001  -9.171928e+001 
3309375000  -3.322107e+001  -9.815047e+001 
3312500000  -3.336625e+001  -1.093498e+002 
3315625000  -3.438564e+001  -1.174501e+002 
3318750000  -3.574649e+001  -1.201018e+002 
3321875000  -3.684900e+001  -1.208168e+002 
3325000000  -3.740937e+001  -1.152390e+002 
3328125000  -3.673307e+001  -1.148034e+002 
3331250000  -3.566712e+001  -1.076778e+002 
3334375000  -3.298947e+001  -1.182230e+002 
3337500000  -3.303416e+001  -1.376031e+002 
3340625000  -3.449583e+001  -1.486418e+002 
3343750000  -3.638145e+001  -1.494316e+002 
3346875000  -3.639194e+001  -1.482565e+002 
3350000000  -3.597020e+001  -1.497389e+002 
3353125000  -3.589157e+001  -1.547324e+002 
3356250000  -3.551178e+001  -1.623524e+002 
3359375000  -3.642531e+001  -1.715190e+002 
3362500000  -3.748461e+001  -1.766788e+002 
3365625000  -3.788410e+001  -1.788820e+002 
3368750000  -3.865802e+001  1.793599e+002 
3371875000  -3.881870e+001  1.764861e+002 
3375000000  -4.041537e+001  1.741704e+002 
3378125000  -4.106040e+001  1.733168e+002 
3381250000  -4.221282e+001  -1.767234e+002 
3384375000  -4.128122e+001  -1.578469e+002 
3387500000  -3.759319e+001  -1.741261e+002 
3390625000  -3.903404e+001  1.681810e+002 
3393750000  -4.027331e+001  1.730981e+002 
3396875000  -3.918877e+001  1.736191e+002 
3400000000  -3.864210e+001  1.635301e+002 
3403125000  -3.912946e+001  1.588190e+002 
3406250000  -3.961538e+001  1.586517e+002 
3409375000  -3.976682e+001  1.508269e+002 
3412500000  -4.033700e+001  1.491778e+002 
3415625000  -4.105801e+001  1.503815e+002 
3418750000  -4.091647e+001  1.512325e+002 
3421875000  -4.102679e+001  1.518638e+002 
3425000000  -4.041139e+001  1.548731e+002 
3428125000  -3.955145e+001  1.489392e+002 
3431250000  -3.928878e+001  1.433530e+002 
3434375000  -3.906411e+001  1.372478e+002 
3437500000  -3.965869e+001  1.331384e+002 
3440625000  -3.984755e+001  1.353056e+002 
3443750000  -3.895217e+001  1.350144e+002 
3446875000  -3.798288e+001  1.279928e+002 
3450000000  -3.762968e+001  1.173755e+002 
3453125000  -3.794692e+001  1.068028e+002 
3456250000  -3.909252e+001  1.017259e+002 
3459375000  -4.003560e+001  1.017139e+002 
3462500000  -3.995955e+001  1.027242e+002 
3465625000  -3.979359e+001  9.608529e+001 
3468750000  -4.010162e+001  9.341441e+001 
3471875000  -3.999907e+001  9.121916e+001 
3475000000  -3.958429e+001  8.649039e+001 
3478125000  -4.021689e+001  7.879884e+001 
3481250000  -4.117168e+001  7.752244e+001 
3484375000  -4.228487e+001  8.093851e+001 
3487500000  -4.133632e+001  7.878181e+001 
3490625000  -4.086558e+001  7.462664e+001 
3493750000  -4.134909e+001  6.815978e+001 
3496875000  -4.164366e+001  6.613939e+001 
3500000000  -4.241357e+001  7.026374e+001 
3503125000  -4.208797e+001  7.047942e+001 
3506250000  -4.063768e+001  6.575131e+001 
3509375000  -4.052014e+001  5.485228e+001 
3512500000  -4.100546e+001  4.885158e+001 
3515625000  -4.201797e+001  4.578436e+001 
3518750000  -4.232073e+001  4.409711e+001 
3521875000  -4.244605e+001  4.345842e+001 
3525000000  -4.397643e+001  3.875047e+001 
3528125000  -4.350922e+001  4.698296e+001 
3531250000  -4.226567e+001  4.629031e+001 
3534375000  -4.186855e+001  3.604724e+001 
3537500000  -4.242814e+001  2.899597e+001 
3540625000  -4.342395e+001  2.999420e+001 
3543750000  -4.437431e+001  3.361295e+001 
3546875000  -4.417448e+001  4.637135e+001 
3550000000  -4.168396e+001  4.665318e+001 
3553125000  -4.027600e+001  2.709596e+001 
3556250000  -4.179231e+001  2.133158e+001 
3559375000  -4.139768e+001  2.430405e+001 
3562500000  -4.032620e+001  1.392537e+001 
3565625000  -4.118068e+001  8.995101e+000 
3568750000  -4.137836e+001  8.951521e+000 
3571875000  -4.133220e+001  7.415454e+000 
3575000000  -4.089271e+001  1.544788e+000 
3578125000  -4.141565e+001  -4.064126e+000 
3581250000  -4.168597e+001  -5.552175e+000 
3584375000  -4.071378e+001  -7.244925e+000 
3587500000  -3.996450e+001  -1.540839e+001 
3590625000  -4.055115e+001  -2.628216e+001 
3593750000  -4.189053e+001  -2.743264e+001 
3596875000  -4.184650e+001  -2.270862e+001 
3600000000  -4.024437e+001  -2.744287e+001 
3603125000  -4.054279e+001  -4.392768e+001 
3606250000  -4.158795e+001  -4.773745e+001 
3609375000  -4.219624e+001  -5.002130e+001 
3612500000  -4.243701e+001  -5.344523e+001 
3615625000  -4.297436e+001  -5.647967e+001 
3618750000  -4.368560e+001  -5.723793e+001 
3621875000  -4.348876e+001  -6.044029e+001 
3625000000  -4.403755e+001  -6.121746e+001 
3628125000  -4.451775e+001  -6.241257e+001 
3631250000  -4.428759e+001  -6.724590e+001 
3634375000  -4.568550e+001  -6.738374e+001 
3637500000  -4.549886e+001  -6.260007e+001 
3640625000  -4.443761e+001  -5.981568e+001 
3643750000  -4.420275e+001  -6.715819e+001 
3646875000  -4.473836e+001  -7.246819e+001 
3650000000  -4.556567e+001  -7.380232e+001 
3653125000  -4.561432e+001  -7.269228e+001 
3656250000  -4.601605e+001  -7.437640e+001 
3659375000  -4.589259e+001  -7.002859e+001 
3662500000  -4.513764e+001  -6.971656e+001 
3665625000  -4.485634e+001  -7.180079e+001 
3668750000  -4.404164e+001  -7.364374e+001 
3671875000  -4.283891e+001  -7.894464e+001 
3675000000  -4.312957e+001  -8.653089e+001 
3678125000  -4.355940e+001  -8.725713e+001 
3681250000  -4.322615e+001  -8.766909e+001 
3684375000  -4.299798e+001  -9.182840e+001 
3687500000  -4.306706e+001  -9.834330e+001 
3690625000  -4.288149e+001  -1.011345e+002 
3693750000  -4.419336e+001  -9.891860e+001 
3696875000  -4.394612e+001  -9.929965e+001 
3700000000  -4.296216e+001  -1.046565e+002 
3703125000  -4.316561e+001  -1.115684e+002 
3706250000  -4.398451e+001  -1.089350e+002 
3709375000  -4.323249e+001  -1.117169e+002 
3712500000  -4.220900e+001  -1.107933e+002 
3715625000  -4.155207e+001  -1.191052e+002 
3718750000  -4.133002e+001  -1.243963e+002 
3721875000  -4.140910e+001  -1.300509e+002 
3725000000  -4.118891e+001  -1.373756e+002 
3728125000  -4.194184e+001  -1.382805e+002 
3731250000  -4.153085e+001  -1.420812e+002 
3734375000  -4.118148e+001  -1.471003e+002 
3737500000  -4.184834e+001  -1.568001e+002 
3740625000  -4.302980e+001  -1.590136e+002 
3743750000  -4.284853e+001  -1.622866e+002 
3746875000  -4.328588e+001  -1.643561e+002 
3750000000  -4.412375e+001  -1.648413e+002 
3753125000  -4.383716e+001  -1.644363e+002 
3756250000  -4.427694e+001  -1.637276e+002 
3759375000  -4.480561e+001  -1.659700e+002 
3762500000  -4.396492e+001  -1.676009e+002 
3765625000  -4.448734e+001  -1.696501e+002 
3768750000  -4.477719e+001  -1.638229e+002 
3771875000  -4.348912e+001  -1.651499e+002 
3775000000  -4.286287e+001  -1.720832e+002 
3778125000  -4.320709e+001  -1.734076e+002 
3781250000  -4.280856e+001  -1.733051e+002 
3784375000  -4.311852e+001  -1.768559e+002 
3787500000  -4.179724e+001  -1.783752e+002 
3790625000  -4.279629e+001  1.755455e+002 
3793750000  -4.255365e+001  1.738242e+002 
3796875000  -4.126787e+001  1.714350e+002 
3800000000  -3.972266e+001  1.703675e+002 
3803125000  -4.008688e+001  1.609606e+002 
3806250000  -4.106609e+001  1.582500e+002 
3809375000  -4.066343e+001  1.562081e+002 
3812500000  -3.981495e+001  1.495367e+002 
3815625000  -4.059945e+001  1.386210e+002 
3818750000  -4.137658e+001  1.401206e+002 
3821875000  -4.106610e+001  1.496707e+002 
3825000000  -3.937328e+001  1.480199e+002 
3828125000  -3.811317e+001  1.340081e+002 
3831250000  -3.877106e+001  1.186636e+002 
3834375000  -4.049209e+001  1.169777e+002 
3837500000  -4.140673e+001  1.206983e+002 
3840625000  -3.996617e+001  1.203848e+002 
3843750000  -3.900156e+001  1.067050e+002 
3846875000  -3.993001e+001  9.993631e+001 
3850000000  -4.124098e+001  1.072314e+002 
3853125000  -4.038390e+001  1.060055e+002 
3856250000  -4.022991e+001  1.018892e+002 
3859375000  -3.954385e+001  9.594505e+001 
3862500000  -3.939300e+001  8.658281e+001 
3865625000  -3.979378e+001  8.393983e+001 
3868750000  -3.958051e+001  8.161604e+001 
3871875000  -3.917254e+001  7.795767e+001 
3875000000  -3.942153e+001  6.900466e+001 
3878125000  -4.061937e+001  6.454570e+001 
3881250000  -4.034140e+001  6.908105e+001 
3884375000  -3.998432e+001  6.339253e+001 
3887500000  -4.020068e+001  5.898782e+001 
3890625000  -4.070940e+001  5.655003e+001 
3893750000  -4.096685e+001  5.478098e+001 
3896875000  -4.146885e+001  5.691521e+001 
3900000000  -4.136319e+001  5.291013e+001 
3903125000  -4.103056e+001  5.151817e+001 
3906250000  -4.090529e+001  5.001963e+001 
3909375000  -3.995966e+001  4.740862e+001 
3912500000  -3.986706e+001  3.849304e+001 
3915625000  -4.129714e+001  3.956706e+001 
3918750000  -4.100373e+001  4.070324e+001 
3921875000  -4.085525e+001  3.606667e+001 
3925000000  -3.970704e+001  3.407879e+001 
3928125000  -3.921952e+001  2.780888e+001 
3931250000  -3.949569e+001  2.307397e+001 
3934375000  -3.997785e+001  2.323154e+001 
3937500000  -4.002139e+001  2.150963e+001 
3940625000  -4.038967e+001  1.739519e+001 
3943750000  -3.945714e+001  1.904659e+001 
3946875000  -3.825871e+001  1.397060e+001 
3950000000  -3.904433e+001  5.225054e+000 
3953125000  -4.007718e+001  1.826573e+000 
3956250000  -3.889731e+001  5.112163e+000 
3959375000  -3.774378e+001  4.545400e-001 
3962500000  -3.742822e+001  -3.592353e+000 
3965625000  -3.728139e+001  -1.391492e+001 
3968750000  -3.834918e+001  -2.071665e+001 
3971875000  -3.848946e+001  -2.381382e+001 
3975000000  -3.776313e+001  -2.514993e+001 
3978125000  -3.783486e+001  -2.907555e+001 
3981250000  -3.783894e+001  -3.483723e+001 
3984375000  -3.795346e+001  -4.092785e+001 
3987500000  -3.860511e+001  -4.371983e+001 
3990625000  -3.872638e+001  -4.513213e+001 
3993750000  -3.893826e+001  -4.799292e+001 
3996875000  -3.897281e+001  -5.205831e+001 
4000000000  -3.921732e+001  -5.400138e+001 
4003125000  -3.960304e+001  -5.221841e+001 
4006250000  -3.829675e+001  -5.456387e+001 
4009375000  -3.720465e+001  -6.626962e+001 
4012500000  -3.846906e+001  -7.309483e+001 
4015625000  -3.983850e+001  -7.280133e+001 
4018750000  -3.992914e+001  -7.146490e+001 
4021875000  -3.900921e+001  -7.364564e+001 
4025000000  -3.882058e+001  -7.842252e+001 
4028125000  -3.887394e+001  -8.321760e+001 
4031250000  -3.942171e+001  -8.795870e+001 
4034375000  -3.973134e+001  -8.831158e+001 
4037500000  -3.914455e+001  -8.577383e+001 
4040625000  -3.909656e+001  -9.101775e+001 
4043750000  -3.942145e+001  -9.128134e+001 
4046875000  -3.880045e+001  -9.331770e+001 
4050000000  -3.828545e+001  -9.712686e+001 
4053125000  -3.894895e+001  -1.016490e+002 
4056250000  -3.935612e+001  -9.839117e+001 
4059375000  -3.814896e+001  -9.646198e+001 
4062500000  -3.673553e+001  -1.031362e+002 
4065625000  -3.663336e+001  -1.078856e+002 
4068750000  -3.630952e+001  -1.141273e+002 
4071875000  -3.577996e+001  -1.226288e+002 
4075000000  -3.612085e+001  -1.302827e+002 
4078125000  -3.673556e+001  -1.303119e+002 
4081250000  -3.601740e+001  -1.348375e+002 
4084375000  -3.567031e+001  -1.426013e+002 
4087500000  -3.610432e+001  -1.495096e+002 
4090625000  -3.654689e+001  -1.514528e+002 
4093750000  -3.658470e+001  -1.519804e+002 
4096875000  -3.620425e+001  -1.586707e+002 
4100000000  -3.684043e+001  -1.672131e+002 
4103125000  -3.776990e+001  -1.668573e+002 
4106250000  -3.782883e+001  -1.609333e+002 
4109375000  -3.668206e+001  -1.628752e+002 
4112500000  -3.620081e+001  -1.710650e+002 
4115625000  -3.659890e+001  -1.767581e+002 
4118750000  -3.678032e+001  1.795880e+002 
4121875000  -3.646375e+001  1.733113e+002 
4125000000  -3.687967e+001  1.674750e+002 
4128125000  -3.787806e+001  1.677650e+002 
4131250000  -3.740471e+001  1.752750e+002 
4134375000  -3.531251e+001  1.692471e+002 
4137500000  -3.515887e+001  1.498826e+002 
4140625000  -3.758867e+001  1.420623e+002 
4143750000  -3.900001e+001  1.445554e+002 
4146875000  -3.828832e+001  1.550425e+002 
4150000000  -3.731937e+001  1.482631e+002 
4153125000  -3.752289e+001  1.409064e+002 
4156250000  -3.848214e+001  1.389094e+002 
4159375000  -3.843744e+001  1.442204e+002 
4162500000  -3.761166e+001  1.464396e+002 
4165625000  -3.623829e+001  1.429450e+002 
4168750000  -3.584143e+001  1.344803e+002 
4171875000  -3.604098e+001  1.242483e+002 
4175000000  -3.654647e+001  1.186229e+002 
4178125000  -3.710012e+001  1.182816e+002 
4181250000  -3.692886e+001  1.177328e+002 
4184375000  -3.680220e+001  1.139993e+002 
4187500000  -3.685675e+001  1.096831e+002 
4190625000  -3.666040e+001  1.037045e+002 
4193750000  -3.746400e+001  1.005271e+002 
4196875000  -3.791449e+001  9.988642e+001 
4200000000  -3.883275e+001  1.012822e+002 
4203125000  -3.859679e+001  1.127866e+002 
4206250000  -3.522865e+001  1.141560e+002 
4209375000  -3.430419e+001  9.231267e+001 
4212500000  -3.618683e+001  8.234242e+001 
4215625000  -3.703633e+001  8.939783e+001 
4218750000  -3.559244e+001  9.471596e+001 
4221875000  -3.347258e+001  8.554053e+001 
4225000000  -3.454443e+001  7.178960e+001 
4228125000  -3.526810e+001  7.548174e+001 
4231250000  -3.371590e+001  7.008135e+001 
4234375000  -3.338648e+001  6.215373e+001 
4237500000  -3.301298e+001  5.730273e+001 
4240625000  -3.309199e+001  4.695127e+001 
4243750000  -3.422271e+001  3.819000e+001 
4246875000  -3.526074e+001  3.762454e+001 
4250000000  -3.495413e+001  3.962258e+001 
4253125000  -3.448815e+001  3.617802e+001 
4256250000  -3.497590e+001  3.020237e+001 
4259375000  -3.454565e+001  2.859007e+001 
4262500000  -3.466995e+001  2.406190e+001 
4265625000  -3.492186e+001  2.311812e+001 
4268750000  -3.406541e+001  1.767025e+001 
4271875000  -3.398374e+001  1.087400e+001 
4275000000  -3.340318e+001  1.905696e+000 
4278125000  -3.428989e+001  -9.055845e+000 
4281250000  -3.627568e+001  -1.127938e+001 
4284375000  -3.575374e+001  -1.053212e+001 
4287500000  -3.665459e+001  -1.482136e+001 
4290625000  -3.786783e+001  -6.241081e+000 
4293750000  -3.603307e+001  1.894091e-001 
4296875000  -3.501385e+001  -1.242515e+001 
4300000000  -3.592599e+001  -2.193662e+001 
4303125000  -3.711957e+001  -1.888386e+001 
4306250000  -3.637123e+001  -1.499337e+001 
4309375000  -3.500207e+001  -1.712399e+001 
4312500000  -3.495275e+001  -2.478202e+001 
4315625000  -3.520767e+001  -3.162220e+001 
4318750000  -3.541018e+001  -3.421655e+001 
4321875000  -3.541286e+001  -3.352088e+001 
4325000000  -3.476124e+001  -3.407193e+001 
4328125000  -3.440315e+001  -4.060891e+001 
4331250000  -3.411579e+001  -4.892640e+001 
4334375000  -3.454384e+001  -5.501743e+001 
4337500000  -3.534679e+001  -5.641208e+001 
4340625000  -3.553501e+001  -5.446421e+001 
4343750000  -3.489936e+001  -5.479814e+001 
4346875000  -3.451919e+001  -6.096683e+001 
4350000000  -3.441615e+001  -6.652879e+001 
4353125000  -3.448229e+001  -7.560300e+001 
4356250000  -3.627856e+001  -7.691020e+001 
4359375000  -3.630705e+001  -6.287918e+001 
4362500000  -3.347034e+001  -6.518698e+001 
4365625000  -3.197089e+001  -7.729509e+001 
4368750000  -3.274006e+001  -9.084180e+001 
4371875000  -3.394189e+001  -9.056466e+001 
4375000000  -3.351207e+001  -9.090218e+001 
4378125000  -3.273243e+001  -9.831647e+001 
4381250000  -3.310399e+001  -1.064208e+002 
4384375000  -3.277382e+001  -1.111497e+002 
4387500000  -3.367075e+001  -1.182048e+002 
4390625000  -3.468393e+001  -1.189530e+002 
4393750000  -3.400429e+001  -1.175076e+002 
4396875000  -3.339745e+001  -1.208797e+002 
4400000000  -3.281770e+001  -1.296709e+002 
4403125000  -3.358579e+001  -1.392536e+002 
4406250000  -3.442435e+001  -1.407995e+002 
4409375000  -3.456486e+001  -1.441698e+002 
4412500000  -3.556232e+001  -1.467920e+002 
4415625000  -3.601403e+001  -1.424989e+002 
