!Agilent Technologies,E8363B,MY43030201,A.06.04.32
!Agilent E8363B: A.06.04.32
!Date: Tuesday, November 11, 2014 21:01:25
!Correction: S21(Response(S21)) 
!S1P File: Measurement: S21:
# Hz S  dB   R 50
3000000000  -3.640296e+001  -4.369069e+001 
3003125000  -3.750164e+001  -5.008573e+001 
3006250000  -3.734955e+001  -5.199434e+001 
3009375000  -3.761091e+001  -4.890746e+001 
3012500000  -3.698864e+001  -4.986039e+001 
3015625000  -3.593198e+001  -5.690398e+001 
3018750000  -3.690455e+001  -5.824505e+001 
3021875000  -3.536666e+001  -5.787677e+001 
3025000000  -3.399017e+001  -6.121021e+001 
3028125000  -3.301033e+001  -6.762827e+001 
3031250000  -3.203252e+001  -7.855525e+001 
3034375000  -3.168645e+001  -9.242760e+001 
3037500000  -3.203025e+001  -1.046961e+002 
3040625000  -3.340630e+001  -1.095594e+002 
3043750000  -3.410889e+001  -1.142753e+002 
3046875000  -3.420239e+001  -1.209290e+002 
3050000000  -3.591795e+001  -1.270889e+002 
3053125000  -3.592754e+001  -1.214785e+002 
3056250000  -3.537286e+001  -1.186928e+002 
3059375000  -3.550121e+001  -1.178068e+002 
3062500000  -3.396930e+001  -1.215476e+002 
3065625000  -3.383102e+001  -1.284951e+002 
3068750000  -3.341988e+001  -1.351055e+002 
3071875000  -3.335037e+001  -1.383031e+002 
3075000000  -3.325031e+001  -1.421439e+002 
3078125000  -3.301383e+001  -1.459771e+002 
3081250000  -3.347176e+001  -1.502478e+002 
3084375000  -3.263493e+001  -1.540412e+002 
3087500000  -3.236476e+001  -1.573814e+002 
3090625000  -3.195504e+001  -1.677876e+002 
3093750000  -3.233080e+001  -1.752013e+002 
3096875000  -3.344702e+001  1.789245e+002 
3100000000  -3.341161e+001  1.764025e+002 
3103125000  -3.361292e+001  1.780410e+002 
3106250000  -3.316816e+001  1.734809e+002 
3109375000  -3.326900e+001  1.697094e+002 
3112500000  -3.320368e+001  1.673380e+002 
3115625000  -3.288547e+001  1.623938e+002 
3118750000  -3.325216e+001  1.623915e+002 
3121875000  -3.244238e+001  1.535420e+002 
3125000000  -3.352415e+001  1.492733e+002 
3128125000  -3.446143e+001  1.554951e+002 
3131250000  -3.221290e+001  1.543997e+002 
3134375000  -3.079024e+001  1.399012e+002 
3137500000  -3.132197e+001  1.253647e+002 
3140625000  -3.285720e+001  1.220993e+002 
3143750000  -3.385574e+001  1.243418e+002 
3146875000  -3.339206e+001  1.251205e+002 
3150000000  -3.235560e+001  1.252225e+002 
3153125000  -3.232453e+001  1.160316e+002 
3156250000  -3.340872e+001  1.216363e+002 
3159375000  -3.178929e+001  1.220960e+002 
3162500000  -2.977086e+001  1.078641e+002 
3165625000  -3.077622e+001  9.593710e+001 
3168750000  -3.108270e+001  9.569051e+001 
3171875000  -3.024791e+001  9.032288e+001 
3175000000  -3.095457e+001  8.127341e+001 
3178125000  -3.067724e+001  8.226251e+001 
3181250000  -2.957321e+001  7.691948e+001 
3184375000  -2.883267e+001  6.399369e+001 
3187500000  -3.002473e+001  4.801733e+001 
3190625000  -3.283667e+001  4.102696e+001 
3193750000  -3.334551e+001  4.856536e+001 
3196875000  -3.298991e+001  5.395152e+001 
3200000000  -3.205478e+001  5.131716e+001 
3203125000  -3.130774e+001  4.504372e+001 
3206250000  -3.155247e+001  3.791995e+001 
3209375000  -3.114730e+001  3.267495e+001 
3212500000  -3.131836e+001  2.450751e+001 
3215625000  -3.142897e+001  2.047565e+001 
3218750000  -3.211074e+001  1.362547e+001 
3221875000  -3.297092e+001  8.736913e+000 
3225000000  -3.264817e+001  7.167338e+000 
3228125000  -3.302818e+001  2.023676e+000 
3231250000  -3.372165e+001  -7.256492e-001 
3234375000  -3.336869e+001  -1.893139e-002 
3237500000  -3.346340e+001  -2.627546e+000 
3240625000  -3.299981e+001  -5.796582e+000 
3243750000  -3.264365e+001  -1.271378e+001 
3246875000  -3.300455e+001  -1.978796e+001 
3250000000  -3.349262e+001  -2.244387e+001 
3253125000  -3.365848e+001  -2.440203e+001 
3256250000  -3.320286e+001  -3.114574e+001 
3259375000  -3.353902e+001  -4.003193e+001 
3262500000  -3.467966e+001  -4.316547e+001 
3265625000  -3.543290e+001  -4.030573e+001 
3268750000  -3.531243e+001  -3.867860e+001 
3271875000  -3.495588e+001  -3.903716e+001 
3275000000  -3.385094e+001  -4.540809e+001 
3278125000  -3.429151e+001  -5.188873e+001 
3281250000  -3.445422e+001  -5.108934e+001 
3284375000  -3.412633e+001  -5.790698e+001 
3287500000  -3.416052e+001  -6.172092e+001 
3290625000  -3.457126e+001  -6.730622e+001 
3293750000  -3.426597e+001  -7.272785e+001 
3296875000  -3.539956e+001  -7.349152e+001 
3300000000  -3.503966e+001  -7.271429e+001 
3303125000  -3.386150e+001  -7.758479e+001 
3306250000  -3.363017e+001  -8.524166e+001 
3309375000  -3.341828e+001  -9.121394e+001 
3312500000  -3.350187e+001  -1.024417e+002 
3315625000  -3.436197e+001  -1.112140e+002 
3318750000  -3.576780e+001  -1.131407e+002 
3321875000  -3.692035e+001  -1.131548e+002 
3325000000  -3.736504e+001  -1.089323e+002 
3328125000  -3.704734e+001  -1.076053e+002 
3331250000  -3.591504e+001  -1.009856e+002 
3334375000  -3.311501e+001  -1.117075e+002 
3337500000  -3.327223e+001  -1.307168e+002 
3340625000  -3.462073e+001  -1.415170e+002 
3343750000  -3.655015e+001  -1.421798e+002 
3346875000  -3.671657e+001  -1.408909e+002 
3350000000  -3.607082e+001  -1.435266e+002 
3353125000  -3.617795e+001  -1.471598e+002 
3356250000  -3.567963e+001  -1.556407e+002 
3359375000  -3.644383e+001  -1.638016e+002 
3362500000  -3.757238e+001  -1.703399e+002 
3365625000  -3.806161e+001  -1.706990e+002 
3368750000  -3.880289e+001  -1.734109e+002 
3371875000  -3.913132e+001  -1.767339e+002 
3375000000  -4.024870e+001  -1.781776e+002 
3378125000  -4.117200e+001  -1.794688e+002 
3381250000  -4.252670e+001  -1.718414e+002 
3384375000  -4.130790e+001  -1.502684e+002 
3387500000  -3.750679e+001  -1.650715e+002 
3390625000  -3.933965e+001  1.757278e+002 
3393750000  -4.050010e+001  1.782661e+002 
3396875000  -3.927826e+001  -1.793368e+002 
3400000000  -3.881256e+001  1.712888e+002 
3403125000  -3.928879e+001  1.659637e+002 
3406250000  -3.981033e+001  1.672708e+002 
3409375000  -3.979531e+001  1.589525e+002 
3412500000  -4.025559e+001  1.560539e+002 
3415625000  -4.116393e+001  1.568499e+002 
3418750000  -4.112375e+001  1.580901e+002 
3421875000  -4.128951e+001  1.600572e+002 
3425000000  -4.041803e+001  1.616586e+002 
3428125000  -3.946495e+001  1.574684e+002 
3431250000  -3.936680e+001  1.504917e+002 
3434375000  -3.929058e+001  1.445714e+002 
3437500000  -3.968807e+001  1.411705e+002 
3440625000  -4.006924e+001  1.427286e+002 
3443750000  -3.900694e+001  1.446641e+002 
3446875000  -3.800397e+001  1.348186e+002 
3450000000  -3.758747e+001  1.246292e+002 
3453125000  -3.781977e+001  1.150617e+002 
3456250000  -3.904460e+001  1.079869e+002 
3459375000  -4.003799e+001  1.092407e+002 
3462500000  -3.952264e+001  1.096446e+002 
3465625000  -3.983307e+001  1.034865e+002 
3468750000  -4.018779e+001  9.914856e+001 
3471875000  -3.997730e+001  9.862197e+001 
3475000000  -3.962505e+001  9.357268e+001 
3478125000  -4.017072e+001  8.454093e+001 
3481250000  -4.110784e+001  8.357252e+001 
3484375000  -4.236185e+001  8.737718e+001 
3487500000  -4.131051e+001  8.605418e+001 
3490625000  -4.070827e+001  8.209650e+001 
3493750000  -4.096733e+001  7.482772e+001 
3496875000  -4.169602e+001  7.155887e+001 
3500000000  -4.232177e+001  7.614621e+001 
3503125000  -4.182375e+001  7.795892e+001 
3506250000  -4.055956e+001  7.207849e+001 
3509375000  -4.058410e+001  6.252188e+001 
3512500000  -4.101363e+001  5.498561e+001 
3515625000  -4.190499e+001  5.072304e+001 
3518750000  -4.274694e+001  5.035189e+001 
3521875000  -4.251830e+001  4.713971e+001 
3525000000  -4.336363e+001  4.762094e+001 
3528125000  -4.349218e+001  5.287302e+001 
3531250000  -4.246124e+001  5.091305e+001 
3534375000  -4.236065e+001  4.116686e+001 
3537500000  -4.258419e+001  3.630237e+001 
3540625000  -4.403680e+001  3.519860e+001 
3543750000  -4.448763e+001  3.806334e+001 
3546875000  -4.451281e+001  5.026321e+001 
3550000000  -4.177785e+001  5.132061e+001 
3553125000  -4.058723e+001  3.525475e+001 
3556250000  -4.198744e+001  2.730224e+001 
3559375000  -4.177702e+001  2.958981e+001 
3562500000  -4.072268e+001  2.175768e+001 
3565625000  -4.138285e+001  1.345395e+001 
3568750000  -4.154501e+001  1.659579e+001 
3571875000  -4.129817e+001  1.368502e+001 
3575000000  -4.110938e+001  9.090019e+000 
3578125000  -4.142965e+001  3.681878e+000 
3581250000  -4.158207e+001  2.639879e+000 
3584375000  -4.076238e+001  1.190545e+000 
3587500000  -4.047647e+001  -8.546996e+000 
3590625000  -4.088459e+001  -1.967187e+001 
3593750000  -4.196757e+001  -2.206837e+001 
3596875000  -4.195809e+001  -1.463632e+001 
3600000000  -4.065012e+001  -2.154464e+001 
3603125000  -4.105078e+001  -3.604841e+001 
3606250000  -4.177453e+001  -3.762677e+001 
3609375000  -4.231049e+001  -4.262383e+001 
3612500000  -4.304832e+001  -4.494833e+001 
3615625000  -4.323197e+001  -4.821543e+001 
3618750000  -4.417230e+001  -5.047445e+001 
3621875000  -4.387383e+001  -5.253001e+001 
3625000000  -4.419422e+001  -5.382273e+001 
3628125000  -4.473275e+001  -5.462078e+001 
3631250000  -4.439668e+001  -6.092009e+001 
3634375000  -4.582120e+001  -6.350779e+001 
3637500000  -4.595270e+001  -5.658524e+001 
3640625000  -4.552172e+001  -5.379277e+001 
3643750000  -4.515732e+001  -6.090573e+001 
3646875000  -4.585469e+001  -6.513029e+001 
3650000000  -4.646952e+001  -6.674716e+001 
3653125000  -4.620728e+001  -6.368255e+001 
3656250000  -4.661936e+001  -6.508268e+001 
3659375000  -4.702948e+001  -6.323339e+001 
3662500000  -4.632114e+001  -6.289197e+001 
3665625000  -4.571638e+001  -6.273909e+001 
3668750000  -4.440875e+001  -6.420816e+001 
3671875000  -4.358878e+001  -6.764510e+001 
3675000000  -4.378730e+001  -7.378565e+001 
3678125000  -4.445258e+001  -7.578371e+001 
3681250000  -4.359624e+001  -7.695701e+001 
3684375000  -4.367191e+001  -8.189426e+001 
3687500000  -4.415863e+001  -8.573466e+001 
3690625000  -4.370810e+001  -8.924914e+001 
3693750000  -4.478279e+001  -8.941698e+001 
3696875000  -4.439348e+001  -9.054263e+001 
3700000000  -4.366726e+001  -9.448976e+001 
3703125000  -4.374786e+001  -1.000367e+002 
3706250000  -4.429827e+001  -1.002338e+002 
3709375000  -4.393311e+001  -9.940823e+001 
3712500000  -4.289221e+001  -1.025703e+002 
3715625000  -4.205474e+001  -1.074849e+002 
3718750000  -4.159576e+001  -1.120745e+002 
3721875000  -4.164112e+001  -1.183034e+002 
3725000000  -4.183119e+001  -1.283015e+002 
3728125000  -4.228923e+001  -1.265464e+002 
3731250000  -4.205118e+001  -1.282638e+002 
3734375000  -4.156108e+001  -1.369920e+002 
3737500000  -4.249768e+001  -1.426375e+002 
3740625000  -4.369110e+001  -1.491665e+002 
3743750000  -4.329566e+001  -1.492892e+002 
3746875000  -4.350275e+001  -1.514320e+002 
3750000000  -4.452295e+001  -1.529912e+002 
3753125000  -4.431687e+001  -1.529432e+002 
3756250000  -4.442440e+001  -1.518207e+002 
3759375000  -4.464211e+001  -1.525986e+002 
3762500000  -4.402621e+001  -1.557853e+002 
3765625000  -4.473668e+001  -1.559229e+002 
3768750000  -4.467651e+001  -1.537230e+002 
3771875000  -4.285329e+001  -1.549444e+002 
3775000000  -4.304807e+001  -1.595999e+002 
3778125000  -4.312727e+001  -1.622132e+002 
3781250000  -4.310394e+001  -1.634730e+002 
3784375000  -4.276257e+001  -1.628706e+002 
3787500000  -4.177037e+001  -1.659347e+002 
3790625000  -4.221639e+001  -1.755335e+002 
3793750000  -4.242074e+001  -1.724536e+002 
3796875000  -4.173079e+001  -1.782366e+002 
3800000000  -3.965462e+001  -1.779820e+002 
3803125000  -4.044342e+001  1.713789e+002 
3806250000  -4.091372e+001  1.692018e+002 
3809375000  -4.046041e+001  1.658778e+002 
3812500000  -3.985793e+001  1.600609e+002 
3815625000  -4.035879e+001  1.505747e+002 
3818750000  -4.157410e+001  1.484277e+002 
3821875000  -4.120967e+001  1.578261e+002 
3825000000  -3.939747e+001  1.616983e+002 
3828125000  -3.800008e+001  1.445713e+002 
3831250000  -3.867904e+001  1.308852e+002 
3834375000  -4.019020e+001  1.286555e+002 
3837500000  -4.106052e+001  1.305009e+002 
3840625000  -3.971394e+001  1.279577e+002 
3843750000  -3.887701e+001  1.183263e+002 
3846875000  -3.953299e+001  1.104073e+002 
3850000000  -4.098951e+001  1.155571e+002 
3853125000  -4.019489e+001  1.165594e+002 
3856250000  -3.989488e+001  1.095749e+002 
3859375000  -3.958389e+001  1.079645e+002 
3862500000  -3.906975e+001  9.837410e+001 
3865625000  -3.957591e+001  9.265530e+001 
3868750000  -3.944420e+001  9.132599e+001 
3871875000  -3.880665e+001  8.746007e+001 
3875000000  -3.920209e+001  7.853320e+001 
3878125000  -4.047163e+001  7.664331e+001 
3881250000  -4.030988e+001  7.915932e+001 
3884375000  -3.977864e+001  7.345378e+001 
3887500000  -3.973280e+001  6.821979e+001 
3890625000  -4.052297e+001  6.649612e+001 
3893750000  -4.071619e+001  6.453250e+001 
3896875000  -4.125942e+001  6.633715e+001 
3900000000  -4.138139e+001  6.193922e+001 
3903125000  -4.103133e+001  5.983956e+001 
3906250000  -4.060917e+001  5.912748e+001 
3909375000  -3.972451e+001  5.614653e+001 
3912500000  -3.988918e+001  4.800691e+001 
3915625000  -4.116100e+001  4.956790e+001 
3918750000  -4.107454e+001  4.856525e+001 
3921875000  -4.042673e+001  4.576509e+001 
3925000000  -3.956365e+001  4.385400e+001 
3928125000  -3.888398e+001  3.779842e+001 
3931250000  -3.929551e+001  3.358641e+001 
3934375000  -3.972204e+001  3.142238e+001 
3937500000  -4.002254e+001  3.040453e+001 
3940625000  -4.043593e+001  2.921257e+001 
3943750000  -3.929882e+001  2.864316e+001 
3946875000  -3.789761e+001  2.242112e+001 
3950000000  -3.885730e+001  1.289510e+001 
3953125000  -3.952133e+001  1.377117e+001 
3956250000  -3.875523e+001  1.523417e+001 
3959375000  -3.759456e+001  9.099469e+000 
3962500000  -3.721286e+001  6.204235e+000 
3965625000  -3.709284e+001  -4.352863e+000 
3968750000  -3.801800e+001  -1.163688e+001 
3971875000  -3.843964e+001  -1.399984e+001 
3975000000  -3.779908e+001  -1.573952e+001 
3978125000  -3.776699e+001  -1.921417e+001 
3981250000  -3.762593e+001  -2.524724e+001 
3984375000  -3.786877e+001  -2.996018e+001 
3987500000  -3.839463e+001  -3.314973e+001 
3990625000  -3.838670e+001  -3.513886e+001 
3993750000  -3.891256e+001  -3.890540e+001 
3996875000  -3.863629e+001  -4.318909e+001 
4000000000  -3.912471e+001  -4.485094e+001 
4003125000  -3.951395e+001  -4.290310e+001 
4006250000  -3.805932e+001  -4.365420e+001 
4009375000  -3.703738e+001  -5.770015e+001 
4012500000  -3.826160e+001  -6.385859e+001 
4015625000  -3.960546e+001  -6.417472e+001 
4018750000  -3.959899e+001  -6.285237e+001 
4021875000  -3.910455e+001  -6.486452e+001 
4025000000  -3.852571e+001  -7.003022e+001 
4028125000  -3.883966e+001  -7.528282e+001 
4031250000  -3.916365e+001  -7.744799e+001 
4034375000  -3.947038e+001  -7.876069e+001 
4037500000  -3.891856e+001  -7.787440e+001 
4040625000  -3.871384e+001  -8.234830e+001 
4043750000  -3.917958e+001  -8.181677e+001 
4046875000  -3.882771e+001  -8.412863e+001 
4050000000  -3.827657e+001  -9.154086e+001 
4053125000  -3.896246e+001  -9.428915e+001 
4056250000  -3.930283e+001  -8.886913e+001 
4059375000  -3.795677e+001  -8.861983e+001 
4062500000  -3.670771e+001  -9.500446e+001 
4065625000  -3.640829e+001  -9.826234e+001 
4068750000  -3.611155e+001  -1.043237e+002 
4071875000  -3.556066e+001  -1.147067e+002 
4075000000  -3.589933e+001  -1.219489e+002 
4078125000  -3.655859e+001  -1.223889e+002 
4081250000  -3.612054e+001  -1.265164e+002 
4084375000  -3.562801e+001  -1.337736e+002 
4087500000  -3.601520e+001  -1.410836e+002 
4090625000  -3.665994e+001  -1.422695e+002 
4093750000  -3.654880e+001  -1.425076e+002 
4096875000  -3.613378e+001  -1.497049e+002 
4100000000  -3.688909e+001  -1.575735e+002 
4103125000  -3.768314e+001  -1.570190e+002 
4106250000  -3.754250e+001  -1.518641e+002 
4109375000  -3.678012e+001  -1.543788e+002 
4112500000  -3.610992e+001  -1.623183e+002 
4115625000  -3.651147e+001  -1.681881e+002 
4118750000  -3.678555e+001  -1.705517e+002 
4121875000  -3.626737e+001  -1.758484e+002 
4125000000  -3.672438e+001  1.778314e+002 
4128125000  -3.767568e+001  1.771157e+002 
4131250000  -3.737878e+001  -1.759017e+002 
4134375000  -3.516231e+001  1.783225e+002 
4137500000  -3.511553e+001  1.594065e+002 
4140625000  -3.710851e+001  1.513257e+002 
4143750000  -3.852260e+001  1.556245e+002 
4146875000  -3.838620e+001  1.616146e+002 
4150000000  -3.739921e+001  1.569545e+002 
4153125000  -3.710928e+001  1.508963e+002 
4156250000  -3.830755e+001  1.479101e+002 
4159375000  -3.853572e+001  1.510695e+002 
4162500000  -3.752362e+001  1.559069e+002 
4165625000  -3.619632e+001  1.514951e+002 
4168750000  -3.572420e+001  1.428949e+002 
4171875000  -3.584747e+001  1.329463e+002 
4175000000  -3.651164e+001  1.290261e+002 
4178125000  -3.677291e+001  1.278533e+002 
4181250000  -3.685005e+001  1.266178e+002 
4184375000  -3.661242e+001  1.226961e+002 
4187500000  -3.670311e+001  1.198632e+002 
4190625000  -3.646749e+001  1.130345e+002 
4193750000  -3.723472e+001  1.088491e+002 
4196875000  -3.793136e+001  1.075459e+002 
4200000000  -3.886865e+001  1.096619e+002 
4203125000  -3.878213e+001  1.250320e+002 
4206250000  -3.534740e+001  1.226045e+002 
4209375000  -3.417595e+001  1.007604e+002 
4212500000  -3.612220e+001  9.290028e+001 
4215625000  -3.698063e+001  9.899772e+001 
4218750000  -3.560673e+001  1.030570e+002 
4221875000  -3.337536e+001  9.322272e+001 
4225000000  -3.466009e+001  7.915852e+001 
4228125000  -3.511767e+001  8.440746e+001 
4231250000  -3.366785e+001  8.047256e+001 
4234375000  -3.345784e+001  7.068458e+001 
4237500000  -3.302007e+001  6.537151e+001 
4240625000  -3.296142e+001  5.559995e+001 
4243750000  -3.417451e+001  4.783548e+001 
4246875000  -3.490726e+001  4.755394e+001 
4250000000  -3.508633e+001  4.990424e+001 
4253125000  -3.447106e+001  4.632583e+001 
4256250000  -3.477696e+001  4.106857e+001 
4259375000  -3.442928e+001  3.860366e+001 
4262500000  -3.463032e+001  3.374237e+001 
4265625000  -3.491681e+001  3.324766e+001 
4268750000  -3.397570e+001  2.740893e+001 
4271875000  -3.384999e+001  2.016901e+001 
4275000000  -3.350470e+001  1.277843e+001 
4278125000  -3.393197e+001  6.536793e-001 
4281250000  -3.603920e+001  -6.554272e-001 
4284375000  -3.589020e+001  -5.504192e-001 
4287500000  -3.678069e+001  -5.632875e+000 
4290625000  -3.811915e+001  1.876357e+000 
4293750000  -3.598468e+001  9.144624e+000 
4296875000  -3.505016e+001  -3.051193e+000 
4300000000  -3.579833e+001  -1.305312e+001 
4303125000  -3.677280e+001  -1.077362e+001 
4306250000  -3.644614e+001  -5.771007e+000 
4309375000  -3.509415e+001  -7.643397e+000 
4312500000  -3.478376e+001  -1.520061e+001 
4315625000  -3.478889e+001  -2.153312e+001 
4318750000  -3.538185e+001  -2.620759e+001 
4321875000  -3.545943e+001  -2.545936e+001 
4325000000  -3.479629e+001  -2.470960e+001 
4328125000  -3.417495e+001  -3.093093e+001 
4331250000  -3.400079e+001  -3.898632e+001 
4334375000  -3.444665e+001  -4.600690e+001 
4337500000  -3.508920e+001  -4.804091e+001 
4340625000  -3.554815e+001  -4.558997e+001 
4343750000  -3.481569e+001  -4.591145e+001 
4346875000  -3.438845e+001  -5.163520e+001 
4350000000  -3.433317e+001  -5.807134e+001 
4353125000  -3.427819e+001  -6.684582e+001 
4356250000  -3.615327e+001  -6.789748e+001 
4359375000  -3.644165e+001  -5.456907e+001 
4362500000  -3.354343e+001  -5.333365e+001 
4365625000  -3.195161e+001  -6.834782e+001 
4368750000  -3.272695e+001  -8.068279e+001 
4371875000  -3.380275e+001  -8.094907e+001 
4375000000  -3.342519e+001  -8.147923e+001 
4378125000  -3.275362e+001  -8.837582e+001 
4381250000  -3.306274e+001  -9.600672e+001 
4384375000  -3.275277e+001  -1.017690e+002 
4387500000  -3.363596e+001  -1.096037e+002 
4390625000  -3.448683e+001  -1.084113e+002 
4393750000  -3.389345e+001  -1.072407e+002 
4396875000  -3.328501e+001  -1.113427e+002 
4400000000  -3.287140e+001  -1.200932e+002 
4403125000  -3.355737e+001  -1.284972e+002 
4406250000  -3.430241e+001  -1.308589e+002 
4409375000  -3.447800e+001  -1.340503e+002 
4412500000  -3.568359e+001  -1.379766e+002 
4415625000  -3.592952e+001  -1.343317e+002 
