!Agilent Technologies,E8363B,MY43030201,A.06.04.32
!Agilent E8363B: A.06.04.32
!Date: Tuesday, November 11, 2014 21:08:53
!Correction: S21(Response(S21)) 
!S1P File: Measurement: S21:
# Hz S  dB   R 50
3000000000  -3.656854e+001  -5.393183e+001 
3003125000  -3.774611e+001  -5.962101e+001 
3006250000  -3.744575e+001  -6.266811e+001 
3009375000  -3.779597e+001  -5.814205e+001 
3012500000  -3.701695e+001  -6.067768e+001 
3015625000  -3.608296e+001  -6.747160e+001 
3018750000  -3.693867e+001  -6.813898e+001 
3021875000  -3.554840e+001  -6.730579e+001 
3025000000  -3.407110e+001  -7.153061e+001 
3028125000  -3.320238e+001  -7.773802e+001 
3031250000  -3.218261e+001  -8.924264e+001 
3034375000  -3.189735e+001  -1.026386e+002 
3037500000  -3.229632e+001  -1.147764e+002 
3040625000  -3.365347e+001  -1.192838e+002 
3043750000  -3.432529e+001  -1.249192e+002 
3046875000  -3.455724e+001  -1.306597e+002 
3050000000  -3.622798e+001  -1.360592e+002 
3053125000  -3.614009e+001  -1.299839e+002 
3056250000  -3.559118e+001  -1.279110e+002 
3059375000  -3.565137e+001  -1.277251e+002 
3062500000  -3.418700e+001  -1.317966e+002 
3065625000  -3.396846e+001  -1.379279e+002 
3068750000  -3.363871e+001  -1.445899e+002 
3071875000  -3.347076e+001  -1.470093e+002 
3075000000  -3.334781e+001  -1.506607e+002 
3078125000  -3.306375e+001  -1.547180e+002 
3081250000  -3.345802e+001  -1.598798e+002 
3084375000  -3.262519e+001  -1.625269e+002 
3087500000  -3.245077e+001  -1.668518e+002 
3090625000  -3.198586e+001  -1.772692e+002 
3093750000  -3.242451e+001  1.756338e+002 
3096875000  -3.349687e+001  1.691527e+002 
3100000000  -3.339375e+001  1.677331e+002 
3103125000  -3.369349e+001  1.684364e+002 
3106250000  -3.319020e+001  1.638883e+002 
3109375000  -3.320878e+001  1.599885e+002 
3112500000  -3.315916e+001  1.575755e+002 
3115625000  -3.284820e+001  1.532342e+002 
3118750000  -3.318045e+001  1.531802e+002 
3121875000  -3.231061e+001  1.439461e+002 
3125000000  -3.351138e+001  1.392855e+002 
3128125000  -3.453734e+001  1.472092e+002 
3131250000  -3.198305e+001  1.450530e+002 
3134375000  -3.069893e+001  1.292702e+002 
3137500000  -3.126898e+001  1.159795e+002 
3140625000  -3.289248e+001  1.122064e+002 
3143750000  -3.388427e+001  1.139852e+002 
3146875000  -3.338275e+001  1.156548e+002 
3150000000  -3.226445e+001  1.155249e+002 
3153125000  -3.228000e+001  1.059753e+002 
3156250000  -3.345965e+001  1.107253e+002 
3159375000  -3.166799e+001  1.121224e+002 
3162500000  -2.972408e+001  9.754893e+001 
3165625000  -3.073994e+001  8.517885e+001 
3168750000  -3.106508e+001  8.537093e+001 
3171875000  -3.021530e+001  8.018545e+001 
3175000000  -3.087890e+001  7.052288e+001 
3178125000  -3.065961e+001  7.172324e+001 
3181250000  -2.958493e+001  6.600246e+001 
3184375000  -2.896560e+001  5.359035e+001 
3187500000  -3.016894e+001  3.777467e+001 
3190625000  -3.273879e+001  3.026307e+001 
3193750000  -3.338144e+001  3.856445e+001 
3196875000  -3.305254e+001  4.358584e+001 
3200000000  -3.205022e+001  4.093809e+001 
3203125000  -3.135143e+001  3.434656e+001 
3206250000  -3.159320e+001  2.780553e+001 
3209375000  -3.117296e+001  2.161563e+001 
3212500000  -3.141066e+001  1.469128e+001 
3215625000  -3.148001e+001  1.134418e+001 
3218750000  -3.223507e+001  3.282655e+000 
3221875000  -3.311608e+001  -1.370825e+000 
3225000000  -3.261945e+001  -2.930327e+000 
3228125000  -3.303463e+001  -8.192681e+000 
3231250000  -3.374656e+001  -1.008610e+001 
3234375000  -3.341898e+001  -1.023985e+001 
3237500000  -3.345772e+001  -1.188656e+001 
3240625000  -3.309218e+001  -1.501739e+001 
3243750000  -3.256546e+001  -2.238901e+001 
3246875000  -3.303479e+001  -2.953746e+001 
3250000000  -3.341901e+001  -3.221667e+001 
3253125000  -3.358106e+001  -3.383986e+001 
3256250000  -3.311200e+001  -4.098244e+001 
3259375000  -3.341975e+001  -4.960381e+001 
3262500000  -3.469444e+001  -5.317455e+001 
3265625000  -3.526543e+001  -5.002029e+001 
3268750000  -3.505400e+001  -4.801881e+001 
3271875000  -3.470930e+001  -4.880663e+001 
3275000000  -3.369300e+001  -5.528851e+001 
3278125000  -3.424588e+001  -6.159117e+001 
3281250000  -3.436429e+001  -6.167946e+001 
3284375000  -3.387563e+001  -6.868129e+001 
3287500000  -3.406466e+001  -7.150241e+001 
3290625000  -3.421183e+001  -7.783551e+001 
3293750000  -3.403791e+001  -8.353306e+001 
3296875000  -3.521982e+001  -8.447215e+001 
3300000000  -3.486357e+001  -8.358602e+001 
3303125000  -3.364557e+001  -8.921967e+001 
3306250000  -3.350640e+001  -9.584747e+001 
3309375000  -3.324012e+001  -1.025356e+002 
3312500000  -3.328061e+001  -1.136746e+002 
3315625000  -3.436545e+001  -1.214019e+002 
3318750000  -3.576389e+001  -1.234893e+002 
3321875000  -3.685446e+001  -1.239092e+002 
3325000000  -3.731367e+001  -1.186091e+002 
3328125000  -3.691930e+001  -1.187485e+002 
3331250000  -3.563150e+001  -1.117704e+002 
3334375000  -3.297194e+001  -1.228906e+002 
3337500000  -3.304155e+001  -1.426399e+002 
3340625000  -3.447808e+001  -1.536893e+002 
3343750000  -3.654016e+001  -1.537597e+002 
3346875000  -3.668885e+001  -1.518817e+002 
3350000000  -3.604066e+001  -1.540527e+002 
3353125000  -3.601365e+001  -1.591424e+002 
3356250000  -3.561605e+001  -1.675735e+002 
3359375000  -3.634870e+001  -1.761486e+002 
3362500000  -3.758270e+001  1.784590e+002 
3365625000  -3.788995e+001  1.772831e+002 
3368750000  -3.876060e+001  1.748464e+002 
3371875000  -3.905970e+001  1.729995e+002 
3375000000  -4.038791e+001  1.698649e+002 
3378125000  -4.106084e+001  1.695119e+002 
3381250000  -4.269232e+001  1.795261e+002 
3384375000  -4.107693e+001  -1.609462e+002 
3387500000  -3.751664e+001  -1.759236e+002 
3390625000  -3.938494e+001  1.651877e+002 
3393750000  -4.031244e+001  1.674351e+002 
3396875000  -3.919229e+001  1.684159e+002 
3400000000  -3.871726e+001  1.612355e+002 
3403125000  -3.936552e+001  1.554525e+002 
3406250000  -3.960220e+001  1.556272e+002 
3409375000  -3.970725e+001  1.469499e+002 
3412500000  -4.018822e+001  1.462034e+002 
3415625000  -4.104500e+001  1.459104e+002 
3418750000  -4.093908e+001  1.462889e+002 
3421875000  -4.138117e+001  1.498326e+002 
3425000000  -4.031861e+001  1.499026e+002 
3428125000  -3.923631e+001  1.460478e+002 
3431250000  -3.912273e+001  1.389620e+002 
3434375000  -3.916736e+001  1.331873e+002 
3437500000  -3.955590e+001  1.295499e+002 
3440625000  -3.995644e+001  1.293528e+002 
3443750000  -3.855519e+001  1.312453e+002 
3446875000  -3.791136e+001  1.238174e+002 
3450000000  -3.761491e+001  1.131086e+002 
3453125000  -3.812354e+001  1.033170e+002 
3456250000  -3.911451e+001  9.629961e+001 
3459375000  -4.006009e+001  9.782697e+001 
3462500000  -3.972285e+001  9.756789e+001 
3465625000  -3.982727e+001  9.185696e+001 
3468750000  -4.015818e+001  8.926038e+001 
3471875000  -4.005317e+001  8.661927e+001 
3475000000  -3.974855e+001  8.167660e+001 
3478125000  -4.026735e+001  7.429986e+001 
3481250000  -4.131279e+001  7.445663e+001 
3484375000  -4.245162e+001  7.623872e+001 
3487500000  -4.150804e+001  7.471359e+001 
3490625000  -4.082146e+001  7.080087e+001 
3493750000  -4.117757e+001  6.425134e+001 
3496875000  -4.190653e+001  6.332316e+001 
3500000000  -4.276933e+001  6.595901e+001 
3503125000  -4.229525e+001  6.814137e+001 
3506250000  -4.061296e+001  6.268058e+001 
3509375000  -4.071999e+001  5.374183e+001 
3512500000  -4.123009e+001  4.579893e+001 
3515625000  -4.204306e+001  4.301354e+001 
3518750000  -4.263972e+001  4.424867e+001 
3521875000  -4.255288e+001  3.820687e+001 
3525000000  -4.338372e+001  3.746089e+001 
3528125000  -4.325329e+001  4.526241e+001 
3531250000  -4.194996e+001  4.222967e+001 
3534375000  -4.206252e+001  3.178770e+001 
3537500000  -4.228555e+001  2.888563e+001 
3540625000  -4.329927e+001  2.717995e+001 
3543750000  -4.439456e+001  2.962514e+001 
3546875000  -4.390773e+001  4.235585e+001 
3550000000  -4.087139e+001  4.242176e+001 
3553125000  -4.019165e+001  2.463068e+001 
3556250000  -4.137578e+001  1.717890e+001 
3559375000  -4.126250e+001  1.949170e+001 
3562500000  -4.022485e+001  9.907507e+000 
3565625000  -4.094376e+001  3.130026e+000 
3568750000  -4.122161e+001  5.839742e+000 
3571875000  -4.085957e+001  2.220093e+000 
3575000000  -4.070353e+001  -2.252767e+000 
3578125000  -4.114571e+001  -9.225089e+000 
3581250000  -4.140984e+001  -1.103400e+001 
3584375000  -4.045147e+001  -1.138109e+001 
3587500000  -3.994580e+001  -2.251261e+001 
3590625000  -4.060735e+001  -3.209492e+001 
3593750000  -4.188094e+001  -3.136782e+001 
3596875000  -4.167048e+001  -3.013422e+001 
3600000000  -4.062956e+001  -3.234542e+001 
3603125000  -4.070142e+001  -4.739764e+001 
3606250000  -4.168005e+001  -5.291291e+001 
3609375000  -4.229474e+001  -5.479267e+001 
3612500000  -4.279684e+001  -5.874871e+001 
3615625000  -4.317724e+001  -6.118581e+001 
3618750000  -4.398829e+001  -6.144278e+001 
3621875000  -4.400764e+001  -6.191675e+001 
3625000000  -4.471568e+001  -6.418895e+001 
3628125000  -4.466272e+001  -6.849171e+001 
3631250000  -4.429994e+001  -7.033689e+001 
3634375000  -4.587617e+001  -7.170181e+001 
3637500000  -4.613332e+001  -6.356124e+001 
3640625000  -4.482420e+001  -6.106927e+001 
3643750000  -4.504026e+001  -6.760247e+001 
3646875000  -4.486066e+001  -7.543700e+001 
3650000000  -4.586541e+001  -7.636433e+001 
3653125000  -4.491335e+001  -7.690993e+001 
3656250000  -4.520670e+001  -7.406605e+001 
3659375000  -4.597257e+001  -7.091315e+001 
3662500000  -4.495303e+001  -7.239204e+001 
3665625000  -4.476059e+001  -7.384081e+001 
3668750000  -4.358854e+001  -7.341579e+001 
3671875000  -4.248026e+001  -8.022687e+001 
3675000000  -4.263228e+001  -8.856969e+001 
3678125000  -4.304561e+001  -8.778696e+001 
3681250000  -4.298247e+001  -9.330798e+001 
3684375000  -4.265231e+001  -9.909331e+001 
3687500000  -4.257592e+001  -1.013480e+002 
3690625000  -4.273708e+001  -1.071025e+002 
3693750000  -4.369698e+001  -1.072437e+002 
3696875000  -4.350582e+001  -1.068691e+002 
3700000000  -4.274887e+001  -1.098945e+002 
3703125000  -4.256504e+001  -1.154302e+002 
3706250000  -4.349759e+001  -1.151172e+002 
3709375000  -4.292064e+001  -1.161003e+002 
3712500000  -4.216698e+001  -1.186540e+002 
3715625000  -4.168370e+001  -1.252194e+002 
3718750000  -4.130910e+001  -1.306009e+002 
3721875000  -4.108905e+001  -1.387839e+002 
3725000000  -4.156345e+001  -1.453674e+002 
3728125000  -4.217333e+001  -1.448211e+002 
3731250000  -4.169311e+001  -1.464086e+002 
3734375000  -4.145708e+001  -1.540084e+002 
3737500000  -4.260892e+001  -1.626416e+002 
3740625000  -4.343756e+001  -1.647356e+002 
3743750000  -4.302369e+001  -1.668322e+002 
3746875000  -4.363423e+001  -1.698964e+002 
3750000000  -4.453294e+001  -1.698748e+002 
3753125000  -4.436053e+001  -1.674304e+002 
3756250000  -4.501044e+001  -1.714616e+002 
3759375000  -4.466278e+001  -1.664640e+002 
3762500000  -4.463096e+001  -1.717677e+002 
3765625000  -4.476921e+001  -1.700709e+002 
3768750000  -4.472295e+001  -1.655581e+002 
3771875000  -4.336937e+001  -1.675766e+002 
3775000000  -4.334306e+001  -1.731356e+002 
3778125000  -4.327161e+001  -1.786812e+002 
3781250000  -4.291609e+001  -1.770820e+002 
3784375000  -4.260372e+001  -1.786573e+002 
3787500000  -4.179471e+001  1.782172e+002 
3790625000  -4.237340e+001  1.727163e+002 
3793750000  -4.270880e+001  1.713844e+002 
3796875000  -4.084922e+001  1.695146e+002 
3800000000  -3.938701e+001  1.660538e+002 
3803125000  -3.998163e+001  1.558846e+002 
3806250000  -4.102859e+001  1.549814e+002 
3809375000  -4.023073e+001  1.517254e+002 
3812500000  -3.949406e+001  1.452877e+002 
3815625000  -4.017667e+001  1.344776e+002 
3818750000  -4.156150e+001  1.325895e+002 
3821875000  -4.130868e+001  1.430953e+002 
3825000000  -3.941323e+001  1.444781e+002 
3828125000  -3.766069e+001  1.268233e+002 
3831250000  -3.859612e+001  1.130038e+002 
3834375000  -4.040304e+001  1.113778e+002 
3837500000  -4.118931e+001  1.156116e+002 
3840625000  -3.948145e+001  1.135275e+002 
3843750000  -3.895157e+001  9.978823e+001 
3846875000  -3.988473e+001  9.469118e+001 
3850000000  -4.096387e+001  1.002694e+002 
3853125000  -4.056946e+001  1.020596e+002 
3856250000  -4.023208e+001  9.355556e+001 
3859375000  -3.970479e+001  8.928185e+001 
3862500000  -3.936557e+001  8.005933e+001 
3865625000  -3.990146e+001  7.615641e+001 
3868750000  -3.981671e+001  7.663284e+001 
3871875000  -3.943554e+001  7.211785e+001 
3875000000  -3.949302e+001  6.236666e+001 
3878125000  -4.082153e+001  5.987666e+001 
3881250000  -4.059439e+001  6.390161e+001 
3884375000  -4.068406e+001  5.902443e+001 
3887500000  -4.037928e+001  5.432116e+001 
3890625000  -4.101233e+001  5.042410e+001 
3893750000  -4.114748e+001  5.096078e+001 
3896875000  -4.187441e+001  5.136166e+001 
3900000000  -4.170389e+001  5.081721e+001 
3903125000  -4.146329e+001  4.764109e+001 
3906250000  -4.110321e+001  4.577670e+001 
3909375000  -4.024107e+001  4.330528e+001 
3912500000  -4.023364e+001  3.262240e+001 
3915625000  -4.143982e+001  3.656951e+001 
3918750000  -4.126573e+001  3.923131e+001 
3921875000  -4.086375e+001  3.440615e+001 
3925000000  -3.996641e+001  3.259644e+001 
3928125000  -3.908619e+001  2.415738e+001 
3931250000  -3.971762e+001  1.930357e+001 
3934375000  -3.990585e+001  1.957840e+001 
3937500000  -3.975225e+001  1.679521e+001 
3940625000  -4.028883e+001  1.499285e+001 
3943750000  -3.920577e+001  1.613022e+001 
3946875000  -3.805433e+001  9.749308e+000 
3950000000  -3.892485e+001  2.084967e-001 
3953125000  -3.978423e+001  -3.077033e-001 
3956250000  -3.889902e+001  6.072848e-001 
3959375000  -3.765512e+001  -3.603266e+000 
3962500000  -3.716380e+001  -9.406024e+000 
3965625000  -3.710932e+001  -2.022510e+001 
3968750000  -3.799543e+001  -2.619054e+001 
3971875000  -3.823893e+001  -3.007119e+001 
3975000000  -3.760779e+001  -3.069966e+001 
3978125000  -3.747749e+001  -3.507880e+001 
3981250000  -3.772118e+001  -4.042727e+001 
3984375000  -3.802391e+001  -4.831639e+001 
3987500000  -3.852598e+001  -5.059845e+001 
3990625000  -3.859967e+001  -5.108665e+001 
3993750000  -3.886313e+001  -5.544905e+001 
3996875000  -3.888152e+001  -6.016479e+001 
4000000000  -3.931173e+001  -6.161364e+001 
4003125000  -3.975032e+001  -5.962900e+001 
4006250000  -3.858802e+001  -6.025417e+001 
4009375000  -3.736474e+001  -7.404684e+001 
4012500000  -3.880844e+001  -8.108380e+001 
4015625000  -4.008708e+001  -7.931557e+001 
4018750000  -4.031178e+001  -7.864318e+001 
4021875000  -3.945773e+001  -8.082043e+001 
4025000000  -3.921252e+001  -8.438907e+001 
4028125000  -3.897869e+001  -8.946399e+001 
4031250000  -3.973684e+001  -9.257934e+001 
4034375000  -4.009085e+001  -9.214913e+001 
4037500000  -3.966143e+001  -9.027576e+001 
4040625000  -3.927653e+001  -9.406563e+001 
4043750000  -3.981673e+001  -9.579442e+001 
4046875000  -3.903139e+001  -9.492462e+001 
4050000000  -3.858546e+001  -1.031588e+002 
4053125000  -3.884877e+001  -1.035614e+002 
4056250000  -3.946727e+001  -1.006204e+002 
4059375000  -3.803180e+001  -9.949603e+001 
4062500000  -3.664567e+001  -1.054225e+002 
4065625000  -3.671813e+001  -1.106431e+002 
4068750000  -3.633105e+001  -1.175146e+002 
4071875000  -3.567337e+001  -1.259580e+002 
4075000000  -3.605601e+001  -1.318707e+002 
4078125000  -3.640046e+001  -1.343619e+002 
4081250000  -3.589890e+001  -1.383945e+002 
4084375000  -3.557565e+001  -1.472161e+002 
4087500000  -3.600834e+001  -1.527177e+002 
4090625000  -3.644493e+001  -1.551374e+002 
4093750000  -3.638301e+001  -1.564206e+002 
4096875000  -3.584585e+001  -1.643133e+002 
4100000000  -3.662039e+001  -1.710189e+002 
4103125000  -3.756718e+001  -1.715217e+002 
4106250000  -3.759419e+001  -1.660247e+002 
4109375000  -3.643186e+001  -1.691570e+002 
4112500000  -3.604235e+001  -1.771919e+002 
4115625000  -3.646324e+001  1.774109e+002 
4118750000  -3.656104e+001  1.743015e+002 
4121875000  -3.616888e+001  1.677864e+002 
4125000000  -3.684239e+001  1.617322e+002 
4128125000  -3.794183e+001  1.617772e+002 
4131250000  -3.751269e+001  1.701038e+002 
4134375000  -3.514807e+001  1.626231e+002 
4137500000  -3.521512e+001  1.420961e+002 
4140625000  -3.746996e+001  1.349084e+002 
4143750000  -3.897779e+001  1.392450e+002 
4146875000  -3.850410e+001  1.466203e+002 
4150000000  -3.763916e+001  1.428412e+002 
4153125000  -3.762322e+001  1.347541e+002 
4156250000  -3.873871e+001  1.325767e+002 
4159375000  -3.870316e+001  1.368135e+002 
4162500000  -3.795649e+001  1.409018e+002 
4165625000  -3.702337e+001  1.365777e+002 
4168750000  -3.601674e+001  1.293271e+002 
4171875000  -3.603065e+001  1.194007e+002 
4175000000  -3.664815e+001  1.152033e+002 
4178125000  -3.747406e+001  1.147691e+002 
4181250000  -3.713548e+001  1.143951e+002 
4184375000  -3.678939e+001  1.095528e+002 
4187500000  -3.680862e+001  1.061485e+002 
4190625000  -3.665119e+001  1.012745e+002 
4193750000  -3.761858e+001  9.762108e+001 
4196875000  -3.818102e+001  9.581996e+001 
4200000000  -3.921847e+001  9.919192e+001 
4203125000  -3.881965e+001  1.123250e+002 
4206250000  -3.536943e+001  1.110990e+002 
4209375000  -3.429338e+001  8.890805e+001 
4212500000  -3.623625e+001  8.095811e+001 
4215625000  -3.689948e+001  8.696194e+001 
4218750000  -3.542792e+001  9.231592e+001 
4221875000  -3.319933e+001  8.033815e+001 
4225000000  -3.448891e+001  6.664496e+001 
4228125000  -3.508575e+001  7.180077e+001 
4231250000  -3.323455e+001  6.711581e+001 
4234375000  -3.316282e+001  5.620264e+001 
4237500000  -3.278540e+001  5.389666e+001 
4240625000  -3.283272e+001  4.121281e+001 
4243750000  -3.387745e+001  3.422966e+001 
4246875000  -3.470446e+001  3.371713e+001 
4250000000  -3.478097e+001  3.505347e+001 
4253125000  -3.432560e+001  3.115536e+001 
4256250000  -3.449611e+001  2.489209e+001 
4259375000  -3.429714e+001  2.275961e+001 
4262500000  -3.443773e+001  1.781097e+001 
4265625000  -3.460814e+001  1.754496e+001 
4268750000  -3.390456e+001  1.077105e+001 
4271875000  -3.363907e+001  4.364100e+000 
4275000000  -3.327480e+001  -3.953236e+000 
4278125000  -3.410277e+001  -1.474110e+001 
4281250000  -3.593829e+001  -1.749277e+001 
4284375000  -3.560089e+001  -1.811343e+001 
4287500000  -3.664907e+001  -2.089816e+001 
4290625000  -3.799113e+001  -1.225040e+001 
4293750000  -3.586232e+001  -7.134017e+000 
4296875000  -3.491917e+001  -1.938490e+001 
4300000000  -3.584514e+001  -2.872372e+001 
4303125000  -3.708090e+001  -2.582376e+001 
4306250000  -3.661814e+001  -2.152070e+001 
4309375000  -3.541389e+001  -2.379831e+001 
4312500000  -3.514334e+001  -3.051861e+001 
4315625000  -3.543110e+001  -3.633287e+001 
4318750000  -3.561256e+001  -3.927779e+001 
4321875000  -3.558738e+001  -3.950170e+001 
4325000000  -3.496909e+001  -3.859447e+001 
4328125000  -3.430535e+001  -4.550546e+001 
4331250000  -3.425385e+001  -5.332819e+001 
4334375000  -3.452706e+001  -5.962972e+001 
4337500000  -3.542221e+001  -6.102632e+001 
4340625000  -3.578783e+001  -5.791214e+001 
4343750000  -3.487094e+001  -5.847823e+001 
4346875000  -3.449355e+001  -6.470304e+001 
4350000000  -3.433208e+001  -7.026487e+001 
4353125000  -3.432816e+001  -7.908419e+001 
4356250000  -3.614939e+001  -7.906003e+001 
4359375000  -3.648367e+001  -6.682986e+001 
4362500000  -3.331567e+001  -6.765450e+001 
4365625000  -3.177245e+001  -8.237795e+001 
4368750000  -3.254671e+001  -9.488352e+001 
4371875000  -3.352172e+001  -9.472953e+001 
4375000000  -3.312153e+001  -9.506581e+001 
4378125000  -3.251590e+001  -1.033892e+002 
4381250000  -3.265601e+001  -1.096950e+002 
4384375000  -3.238363e+001  -1.171156e+002 
4387500000  -3.323950e+001  -1.229767e+002 
4390625000  -3.427978e+001  -1.235102e+002 
4393750000  -3.348499e+001  -1.236403e+002 
4396875000  -3.295258e+001  -1.261546e+002 
4400000000  -3.250241e+001  -1.354852e+002 
4403125000  -3.317178e+001  -1.439662e+002 
4406250000  -3.380531e+001  -1.463505e+002 
4409375000  -3.411979e+001  -1.508850e+002 
4412500000  -3.531377e+001  -1.533183e+002 
4415625000  -3.558794e+001  -1.506560e+002 
