!Agilent Technologies,E8363B,MY43030201,A.06.04.32
!Agilent E8363B: A.06.04.32
!Date: Tuesday, November 11, 2014 21:07:03
!Correction: S21(Response(S21)) 
!S1P File: Measurement: S21:
# Hz S  dB   R 50
3000000000  -3.654645e+001  -5.037685e+001 
3003125000  -3.753964e+001  -5.601569e+001 
3006250000  -3.750741e+001  -5.907740e+001 
3009375000  -3.782000e+001  -5.472343e+001 
3012500000  -3.710570e+001  -5.613826e+001 
3015625000  -3.614508e+001  -6.326739e+001 
3018750000  -3.685111e+001  -6.478722e+001 
3021875000  -3.548278e+001  -6.354578e+001 
3025000000  -3.416319e+001  -6.749669e+001 
3028125000  -3.318660e+001  -7.392178e+001 
3031250000  -3.215373e+001  -8.533702e+001 
3034375000  -3.180831e+001  -9.899716e+001 
3037500000  -3.227784e+001  -1.105070e+002 
3040625000  -3.360201e+001  -1.157189e+002 
3043750000  -3.423171e+001  -1.207888e+002 
3046875000  -3.449501e+001  -1.269554e+002 
3050000000  -3.619039e+001  -1.325485e+002 
3053125000  -3.607231e+001  -1.273875e+002 
3056250000  -3.561189e+001  -1.243302e+002 
3059375000  -3.558149e+001  -1.235541e+002 
3062500000  -3.412553e+001  -1.276132e+002 
3065625000  -3.395735e+001  -1.340813e+002 
3068750000  -3.364433e+001  -1.406848e+002 
3071875000  -3.345883e+001  -1.433947e+002 
3075000000  -3.325388e+001  -1.472349e+002 
3078125000  -3.302956e+001  -1.514548e+002 
3081250000  -3.352184e+001  -1.563034e+002 
3084375000  -3.259148e+001  -1.597098e+002 
3087500000  -3.245259e+001  -1.635844e+002 
3090625000  -3.197564e+001  -1.737606e+002 
3093750000  -3.247347e+001  1.788150e+002 
3096875000  -3.347547e+001  1.730801e+002 
3100000000  -3.335651e+001  1.711417e+002 
3103125000  -3.365536e+001  1.720466e+002 
3106250000  -3.318746e+001  1.679338e+002 
3109375000  -3.324284e+001  1.637842e+002 
3112500000  -3.316418e+001  1.612315e+002 
3115625000  -3.290642e+001  1.562758e+002 
3118750000  -3.316154e+001  1.565746e+002 
3121875000  -3.230382e+001  1.471051e+002 
3125000000  -3.352697e+001  1.433462e+002 
3128125000  -3.451501e+001  1.501460e+002 
3131250000  -3.203632e+001  1.486609e+002 
3134375000  -3.079563e+001  1.330392e+002 
3137500000  -3.136083e+001  1.186144e+002 
3140625000  -3.282555e+001  1.163876e+002 
3143750000  -3.388998e+001  1.176541e+002 
3146875000  -3.334591e+001  1.187726e+002 
3150000000  -3.231935e+001  1.191553e+002 
3153125000  -3.232868e+001  1.098017e+002 
3156250000  -3.335442e+001  1.144140e+002 
3159375000  -3.158030e+001  1.159601e+002 
3162500000  -2.968890e+001  1.012075e+002 
3165625000  -3.073223e+001  8.906389e+001 
3168750000  -3.100282e+001  8.942663e+001 
3171875000  -3.013721e+001  8.340456e+001 
3175000000  -3.084831e+001  7.494150e+001 
3178125000  -3.060806e+001  7.549153e+001 
3181250000  -2.955985e+001  6.981801e+001 
3184375000  -2.892819e+001  5.731689e+001 
3187500000  -3.003273e+001  4.198738e+001 
3190625000  -3.270669e+001  3.382747e+001 
3193750000  -3.325445e+001  4.259768e+001 
3196875000  -3.293229e+001  4.750049e+001 
3200000000  -3.195586e+001  4.477039e+001 
3203125000  -3.126611e+001  3.818958e+001 
3206250000  -3.157441e+001  3.127725e+001 
3209375000  -3.113425e+001  2.567105e+001 
3212500000  -3.139377e+001  1.894489e+001 
3215625000  -3.147549e+001  1.523456e+001 
3218750000  -3.215120e+001  7.256198e+000 
3221875000  -3.298664e+001  1.622070e+000 
3225000000  -3.259127e+001  6.916900e-001 
3228125000  -3.299422e+001  -4.974651e+000 
3231250000  -3.363888e+001  -6.874838e+000 
3234375000  -3.336487e+001  -6.539413e+000 
3237500000  -3.338503e+001  -8.903329e+000 
3240625000  -3.290605e+001  -1.178749e+001 
3243750000  -3.258580e+001  -1.917066e+001 
3246875000  -3.297914e+001  -2.611816e+001 
3250000000  -3.341481e+001  -2.809404e+001 
3253125000  -3.350034e+001  -3.046513e+001 
3256250000  -3.319147e+001  -3.734259e+001 
3259375000  -3.342002e+001  -4.631823e+001 
3262500000  -3.452552e+001  -5.027555e+001 
3265625000  -3.526622e+001  -4.669467e+001 
3268750000  -3.521955e+001  -4.524629e+001 
3271875000  -3.467179e+001  -4.508031e+001 
3275000000  -3.366565e+001  -5.216803e+001 
3278125000  -3.420173e+001  -5.869833e+001 
3281250000  -3.431125e+001  -5.750426e+001 
3284375000  -3.386613e+001  -6.480566e+001 
3287500000  -3.401678e+001  -6.835598e+001 
3290625000  -3.428617e+001  -7.395159e+001 
3293750000  -3.409641e+001  -8.008661e+001 
3296875000  -3.518348e+001  -8.020857e+001 
3300000000  -3.478818e+001  -8.009663e+001 
3303125000  -3.366324e+001  -8.516455e+001 
3306250000  -3.341229e+001  -9.262125e+001 
3309375000  -3.310832e+001  -9.826945e+001 
3312500000  -3.318772e+001  -1.093621e+002 
3315625000  -3.437380e+001  -1.172697e+002 
3318750000  -3.563167e+001  -1.208588e+002 
3321875000  -3.660511e+001  -1.209547e+002 
3325000000  -3.752468e+001  -1.154686e+002 
3328125000  -3.688473e+001  -1.147181e+002 
3331250000  -3.549637e+001  -1.074894e+002 
3334375000  -3.292887e+001  -1.185281e+002 
3337500000  -3.302767e+001  -1.382936e+002 
3340625000  -3.444236e+001  -1.496017e+002 
3343750000  -3.635643e+001  -1.498703e+002 
3346875000  -3.663242e+001  -1.482435e+002 
3350000000  -3.593470e+001  -1.497968e+002 
3353125000  -3.602692e+001  -1.552786e+002 
3356250000  -3.549314e+001  -1.639989e+002 
3359375000  -3.634606e+001  -1.719611e+002 
3362500000  -3.749348e+001  -1.774033e+002 
3365625000  -3.772844e+001  -1.786002e+002 
3368750000  -3.865305e+001  1.778159e+002 
3371875000  -3.894146e+001  1.762372e+002 
3375000000  -4.017135e+001  1.732687e+002 
3378125000  -4.111515e+001  1.722919e+002 
3381250000  -4.228678e+001  -1.788863e+002 
3384375000  -4.113646e+001  -1.545368e+002 
3387500000  -3.756661e+001  -1.734791e+002 
3390625000  -3.909241e+001  1.678301e+002 
3393750000  -4.025058e+001  1.710354e+002 
3396875000  -3.911001e+001  1.733896e+002 
3400000000  -3.878366e+001  1.652825e+002 
3403125000  -3.918448e+001  1.595219e+002 
3406250000  -3.955564e+001  1.583688e+002 
3409375000  -3.978850e+001  1.485232e+002 
3412500000  -4.016973e+001  1.474767e+002 
3415625000  -4.089019e+001  1.498613e+002 
3418750000  -4.109061e+001  1.499257e+002 
3421875000  -4.113047e+001  1.525851e+002 
3425000000  -4.018739e+001  1.531050e+002 
3428125000  -3.934593e+001  1.496278e+002 
3431250000  -3.924360e+001  1.415449e+002 
3434375000  -3.923275e+001  1.357650e+002 
3437500000  -3.967543e+001  1.334448e+002 
3440625000  -3.985961e+001  1.335259e+002 
3443750000  -3.873959e+001  1.351920e+002 
3446875000  -3.799109e+001  1.265940e+002 
3450000000  -3.755286e+001  1.173070e+002 
3453125000  -3.785494e+001  1.071241e+002 
3456250000  -3.905908e+001  9.992052e+001 
3459375000  -4.007101e+001  1.021170e+002 
3462500000  -3.987677e+001  1.007436e+002 
3465625000  -3.980276e+001  9.537770e+001 
3468750000  -4.014753e+001  8.974818e+001 
3471875000  -4.006965e+001  9.025389e+001 
3475000000  -3.960631e+001  8.686494e+001 
3478125000  -4.030867e+001  7.731654e+001 
3481250000  -4.122357e+001  7.599290e+001 
3484375000  -4.238839e+001  7.915617e+001 
3487500000  -4.136879e+001  7.940684e+001 
3490625000  -4.077658e+001  7.483627e+001 
3493750000  -4.137834e+001  6.729494e+001 
3496875000  -4.167595e+001  6.432188e+001 
3500000000  -4.218370e+001  6.698090e+001 
3503125000  -4.196935e+001  6.886985e+001 
3506250000  -4.056409e+001  6.572619e+001 
3509375000  -4.066954e+001  5.601680e+001 
3512500000  -4.113365e+001  4.648040e+001 
3515625000  -4.190236e+001  4.448092e+001 
3518750000  -4.249552e+001  4.558494e+001 
3521875000  -4.269782e+001  4.332319e+001 
3525000000  -4.351588e+001  3.866568e+001 
3528125000  -4.356084e+001  4.622223e+001 
3531250000  -4.207150e+001  4.463268e+001 
3534375000  -4.181244e+001  3.546354e+001 
3537500000  -4.262568e+001  3.004234e+001 
3540625000  -4.367778e+001  2.972089e+001 
3543750000  -4.414762e+001  3.137333e+001 
3546875000  -4.425367e+001  4.331300e+001 
3550000000  -4.130820e+001  4.565076e+001 
3553125000  -4.017932e+001  2.864499e+001 
3556250000  -4.156969e+001  2.055886e+001 
3559375000  -4.130397e+001  2.205796e+001 
3562500000  -4.029708e+001  1.380530e+001 
3565625000  -4.118073e+001  7.624616e+000 
3568750000  -4.148714e+001  8.699253e+000 
3571875000  -4.151955e+001  8.292748e+000 
3575000000  -4.083642e+001  4.394271e-001 
3578125000  -4.134724e+001  -5.545053e+000 
3581250000  -4.155761e+001  -5.990237e+000 
3584375000  -4.041922e+001  -8.853303e+000 
3587500000  -4.014001e+001  -1.790895e+001 
3590625000  -4.052267e+001  -2.600709e+001 
3593750000  -4.168216e+001  -3.122454e+001 
3596875000  -4.159224e+001  -2.408360e+001 
3600000000  -4.023895e+001  -3.002147e+001 
3603125000  -4.053893e+001  -4.354374e+001 
3606250000  -4.148476e+001  -4.632831e+001 
3609375000  -4.210081e+001  -5.192678e+001 
3612500000  -4.275707e+001  -5.512727e+001 
3615625000  -4.313033e+001  -5.592402e+001 
3618750000  -4.380709e+001  -5.548127e+001 
3621875000  -4.366621e+001  -6.094404e+001 
3625000000  -4.459078e+001  -6.087497e+001 
3628125000  -4.436030e+001  -6.248626e+001 
3631250000  -4.410896e+001  -6.827151e+001 
3634375000  -4.516471e+001  -6.762902e+001 
3637500000  -4.577283e+001  -6.395676e+001 
3640625000  -4.438385e+001  -6.001207e+001 
3643750000  -4.440546e+001  -6.661929e+001 
3646875000  -4.510836e+001  -7.501814e+001 
3650000000  -4.542820e+001  -7.373474e+001 
3653125000  -4.547232e+001  -7.205347e+001 
3656250000  -4.600212e+001  -7.198811e+001 
3659375000  -4.628045e+001  -7.202181e+001 
3662500000  -4.498286e+001  -7.147016e+001 
3665625000  -4.490811e+001  -7.101868e+001 
3668750000  -4.394501e+001  -7.179246e+001 
3671875000  -4.294052e+001  -7.904976e+001 
3675000000  -4.328738e+001  -8.507241e+001 
3678125000  -4.353999e+001  -8.592342e+001 
3681250000  -4.326233e+001  -8.858449e+001 
3684375000  -4.306445e+001  -9.129283e+001 
3687500000  -4.352425e+001  -9.842965e+001 
3690625000  -4.326650e+001  -1.008798e+002 
3693750000  -4.399009e+001  -1.027674e+002 
3696875000  -4.384801e+001  -1.011433e+002 
3700000000  -4.274874e+001  -1.063633e+002 
3703125000  -4.280917e+001  -1.109400e+002 
3706250000  -4.393913e+001  -1.110661e+002 
3709375000  -4.350691e+001  -1.096654e+002 
3712500000  -4.283904e+001  -1.137811e+002 
3715625000  -4.168250e+001  -1.204592e+002 
3718750000  -4.122273e+001  -1.251100e+002 
3721875000  -4.086336e+001  -1.331015e+002 
3725000000  -4.157018e+001  -1.380180e+002 
3728125000  -4.204708e+001  -1.389683e+002 
3731250000  -4.142613e+001  -1.426566e+002 
3734375000  -4.114103e+001  -1.497190e+002 
3737500000  -4.199269e+001  -1.578668e+002 
3740625000  -4.300578e+001  -1.591444e+002 
3743750000  -4.306780e+001  -1.619411e+002 
3746875000  -4.334549e+001  -1.657677e+002 
3750000000  -4.405087e+001  -1.643647e+002 
3753125000  -4.418063e+001  -1.668670e+002 
3756250000  -4.457814e+001  -1.666563e+002 
3759375000  -4.468848e+001  -1.649716e+002 
3762500000  -4.420564e+001  -1.683711e+002 
3765625000  -4.503973e+001  -1.679903e+002 
3768750000  -4.463265e+001  -1.635020e+002 
3771875000  -4.346573e+001  -1.652511e+002 
3775000000  -4.316351e+001  -1.717902e+002 
3778125000  -4.313963e+001  -1.733975e+002 
3781250000  -4.264215e+001  -1.750804e+002 
3784375000  -4.275507e+001  -1.749355e+002 
3787500000  -4.195457e+001  -1.798537e+002 
3790625000  -4.252615e+001  1.728972e+002 
3793750000  -4.267839e+001  1.733098e+002 
3796875000  -4.096394e+001  1.723863e+002 
3800000000  -3.966347e+001  1.690539e+002 
3803125000  -4.052060e+001  1.610799e+002 
3806250000  -4.107307e+001  1.568951e+002 
3809375000  -4.080269e+001  1.547651e+002 
3812500000  -3.966311e+001  1.506075e+002 
3815625000  -4.023415e+001  1.392749e+002 
3818750000  -4.136869e+001  1.392005e+002 
3821875000  -4.129523e+001  1.478606e+002 
3825000000  -3.955552e+001  1.483903e+002 
3828125000  -3.788705e+001  1.332448e+002 
3831250000  -3.855708e+001  1.187426e+002 
3834375000  -4.025636e+001  1.161742e+002 
3837500000  -4.118682e+001  1.216268e+002 
3840625000  -3.985466e+001  1.181958e+002 
3843750000  -3.903460e+001  1.068636e+002 
3846875000  -3.982299e+001  1.008792e+002 
3850000000  -4.099425e+001  1.062471e+002 
3853125000  -4.020110e+001  1.071521e+002 
3856250000  -4.047342e+001  1.004763e+002 
3859375000  -3.957471e+001  9.511313e+001 
3862500000  -3.955276e+001  8.694176e+001 
3865625000  -3.967331e+001  8.162546e+001 
3868750000  -3.958175e+001  8.054205e+001 
3871875000  -3.887790e+001  7.804614e+001 
3875000000  -3.954354e+001  6.777597e+001 
3878125000  -4.053757e+001  6.503927e+001 
3881250000  -4.065449e+001  6.816245e+001 
3884375000  -3.996497e+001  6.316788e+001 
3887500000  -4.014166e+001  6.052345e+001 
3890625000  -4.081948e+001  5.556898e+001 
3893750000  -4.112827e+001  5.174783e+001 
3896875000  -4.132188e+001  5.554749e+001 
3900000000  -4.158496e+001  5.395748e+001 
3903125000  -4.118142e+001  5.075240e+001 
3906250000  -4.082369e+001  4.754388e+001 
3909375000  -4.000682e+001  4.693669e+001 
3912500000  -4.029730e+001  3.764764e+001 
3915625000  -4.123520e+001  3.807623e+001 
3918750000  -4.078815e+001  3.933583e+001 
3921875000  -4.072631e+001  3.700517e+001 
3925000000  -3.978686e+001  3.439960e+001 
3928125000  -3.917294e+001  2.775682e+001 
3931250000  -3.957107e+001  2.350631e+001 
3934375000  -3.978850e+001  2.186648e+001 
3937500000  -3.990250e+001  2.120868e+001 
3940625000  -4.059386e+001  1.793069e+001 
3943750000  -3.944239e+001  1.999234e+001 
3946875000  -3.806231e+001  1.313943e+001 
3950000000  -3.901674e+001  3.521744e+000 
3953125000  -4.004993e+001  3.237966e+000 
3956250000  -3.887314e+001  5.319694e+000 
3959375000  -3.783258e+001  1.381059e+000 
3962500000  -3.737308e+001  -4.300643e+000 
3965625000  -3.710693e+001  -1.418041e+001 
3968750000  -3.809148e+001  -2.206902e+001 
3971875000  -3.832451e+001  -2.397387e+001 
3975000000  -3.786193e+001  -2.684612e+001 
3978125000  -3.787204e+001  -2.936316e+001 
3981250000  -3.762180e+001  -3.350297e+001 
3984375000  -3.788398e+001  -4.234648e+001 
3987500000  -3.848341e+001  -4.375169e+001 
3990625000  -3.847937e+001  -4.503450e+001 
3993750000  -3.894455e+001  -5.098201e+001 
3996875000  -3.883973e+001  -5.421851e+001 
4000000000  -3.946386e+001  -5.677896e+001 
4003125000  -3.962705e+001  -5.381397e+001 
4006250000  -3.836983e+001  -5.522330e+001 
4009375000  -3.720377e+001  -6.712875e+001 
4012500000  -3.857505e+001  -7.428708e+001 
4015625000  -4.006466e+001  -7.373140e+001 
4018750000  -4.009290e+001  -7.269394e+001 
4021875000  -3.910011e+001  -7.600378e+001 
4025000000  -3.902843e+001  -7.947372e+001 
4028125000  -3.902264e+001  -8.381490e+001 
4031250000  -3.941645e+001  -8.809380e+001 
4034375000  -3.955371e+001  -8.856579e+001 
4037500000  -3.919526e+001  -8.778663e+001 
4040625000  -3.904821e+001  -8.936546e+001 
4043750000  -3.957338e+001  -9.386581e+001 
4046875000  -3.887281e+001  -9.283198e+001 
4050000000  -3.825311e+001  -9.911424e+001 
4053125000  -3.905767e+001  -1.027209e+002 
4056250000  -3.927484e+001  -9.749778e+001 
4059375000  -3.828047e+001  -9.608952e+001 
4062500000  -3.680535e+001  -1.018526e+002 
4065625000  -3.672765e+001  -1.080795e+002 
4068750000  -3.629765e+001  -1.142170e+002 
4071875000  -3.571326e+001  -1.224454e+002 
4075000000  -3.598213e+001  -1.304911e+002 
4078125000  -3.649186e+001  -1.300698e+002 
4081250000  -3.619218e+001  -1.355489e+002 
4084375000  -3.573944e+001  -1.423681e+002 
4087500000  -3.608889e+001  -1.502196e+002 
4090625000  -3.666537e+001  -1.508010e+002 
4093750000  -3.656180e+001  -1.531218e+002 
4096875000  -3.621639e+001  -1.601005e+002 
4100000000  -3.690746e+001  -1.680932e+002 
4103125000  -3.769112e+001  -1.667565e+002 
4106250000  -3.751501e+001  -1.619555e+002 
4109375000  -3.671635e+001  -1.651525e+002 
4112500000  -3.620786e+001  -1.726925e+002 
4115625000  -3.654404e+001  -1.759141e+002 
4118750000  -3.690065e+001  1.790491e+002 
4121875000  -3.630664e+001  1.731843e+002 
4125000000  -3.685020e+001  1.666693e+002 
4128125000  -3.785093e+001  1.665990e+002 
4131250000  -3.770038e+001  1.757366e+002 
4134375000  -3.513459e+001  1.680651e+002 
4137500000  -3.518052e+001  1.476381e+002 
4140625000  -3.764788e+001  1.402207e+002 
4143750000  -3.877519e+001  1.442304e+002 
4146875000  -3.826672e+001  1.531387e+002 
4150000000  -3.745687e+001  1.468647e+002 
4153125000  -3.734438e+001  1.397432e+002 
4156250000  -3.857432e+001  1.382706e+002 
4159375000  -3.869443e+001  1.410865e+002 
4162500000  -3.770173e+001  1.478281e+002 
4165625000  -3.667210e+001  1.407457e+002 
4168750000  -3.597802e+001  1.340321e+002 
4171875000  -3.587643e+001  1.230812e+002 
4175000000  -3.676750e+001  1.179902e+002 
4178125000  -3.711049e+001  1.159200e+002 
4181250000  -3.688806e+001  1.165593e+002 
4184375000  -3.684796e+001  1.132418e+002 
4187500000  -3.673233e+001  1.107655e+002 
4190625000  -3.667268e+001  1.044695e+002 
4193750000  -3.729428e+001  9.997436e+001 
4196875000  -3.829348e+001  9.944537e+001 
4200000000  -3.872287e+001  1.001721e+002 
4203125000  -3.872197e+001  1.135132e+002 
4206250000  -3.517960e+001  1.141950e+002 
4209375000  -3.422469e+001  9.096242e+001 
4212500000  -3.634014e+001  8.380607e+001 
4215625000  -3.699623e+001  8.940425e+001 
4218750000  -3.557048e+001  9.363693e+001 
4221875000  -3.346439e+001  8.457050e+001 
4225000000  -3.469235e+001  7.050572e+001 
4228125000  -3.527895e+001  7.400145e+001 
4231250000  -3.349765e+001  7.024361e+001 
4234375000  -3.324982e+001  6.096642e+001 
4237500000  -3.297315e+001  5.631600e+001 
4240625000  -3.298668e+001  4.572579e+001 
4243750000  -3.413117e+001  3.853413e+001 
4246875000  -3.517756e+001  3.689717e+001 
4250000000  -3.495443e+001  3.812205e+001 
4253125000  -3.453215e+001  3.594170e+001 
4256250000  -3.483120e+001  3.020262e+001 
4259375000  -3.453646e+001  2.765017e+001 
4262500000  -3.470430e+001  2.268516e+001 
4265625000  -3.484202e+001  2.273586e+001 
4268750000  -3.397719e+001  1.641792e+001 
4271875000  -3.378349e+001  9.194983e+000 
4275000000  -3.336268e+001  1.498386e+000 
4278125000  -3.420942e+001  -9.877996e+000 
4281250000  -3.617400e+001  -1.108766e+001 
4284375000  -3.592961e+001  -1.186657e+001 
4287500000  -3.677771e+001  -1.575666e+001 
4290625000  -3.809776e+001  -7.768818e+000 
4293750000  -3.632935e+001  -1.594941e+000 
4296875000  -3.496760e+001  -1.430399e+001 
4300000000  -3.589140e+001  -2.235822e+001 
4303125000  -3.694949e+001  -2.152230e+001 
4306250000  -3.645241e+001  -1.661445e+001 
4309375000  -3.512590e+001  -1.801721e+001 
4312500000  -3.488881e+001  -2.519577e+001 
4315625000  -3.519368e+001  -3.181742e+001 
4318750000  -3.535970e+001  -3.521062e+001 
4321875000  -3.564522e+001  -3.460770e+001 
4325000000  -3.506831e+001  -3.419205e+001 
4328125000  -3.430940e+001  -4.042891e+001 
4331250000  -3.420073e+001  -5.086708e+001 
4334375000  -3.459765e+001  -5.531364e+001 
4337500000  -3.537700e+001  -5.742417e+001 
4340625000  -3.599322e+001  -5.476868e+001 
4343750000  -3.493750e+001  -5.450206e+001 
4346875000  -3.463976e+001  -6.080547e+001 
4350000000  -3.453314e+001  -6.685311e+001 
4353125000  -3.452883e+001  -7.668858e+001 
4356250000  -3.610605e+001  -7.919147e+001 
4359375000  -3.648395e+001  -6.369817e+001 
4362500000  -3.358261e+001  -6.269825e+001 
4365625000  -3.209636e+001  -7.719015e+001 
4368750000  -3.277050e+001  -9.108656e+001 
4371875000  -3.390310e+001  -9.031689e+001 
4375000000  -3.345123e+001  -9.170094e+001 
4378125000  -3.271601e+001  -9.815375e+001 
4381250000  -3.301685e+001  -1.049924e+002 
4384375000  -3.282423e+001  -1.116980e+002 
4387500000  -3.368192e+001  -1.190947e+002 
4390625000  -3.452828e+001  -1.193876e+002 
4393750000  -3.394268e+001  -1.180645e+002 
4396875000  -3.320052e+001  -1.226389e+002 
4400000000  -3.287755e+001  -1.307720e+002 
4403125000  -3.357983e+001  -1.392003e+002 
4406250000  -3.444044e+001  -1.425045e+002 
4409375000  -3.450199e+001  -1.451637e+002 
4412500000  -3.575461e+001  -1.483277e+002 
4415625000  -3.609508e+001  -1.437774e+002 
