!Agilent Technologies,E8363B,MY43030201,A.06.04.32
!Agilent E8363B: A.06.04.32
!Date: Tuesday, November 11, 2014 21:01:40
!Correction: S21(Response(S21)) 
!S1P File: Measurement: S21:
# Hz S  dB   R 50
3000000000  -3.621077e+001  -4.780127e+001 
3003125000  -3.735132e+001  -5.312639e+001 
3006250000  -3.714380e+001  -5.650427e+001 
3009375000  -3.748716e+001  -5.165115e+001 
3012500000  -3.683557e+001  -5.355596e+001 
3015625000  -3.580380e+001  -6.082611e+001 
3018750000  -3.669213e+001  -6.262495e+001 
3021875000  -3.537579e+001  -6.108227e+001 
3025000000  -3.405211e+001  -6.452576e+001 
3028125000  -3.305950e+001  -7.032765e+001 
3031250000  -3.205161e+001  -8.198498e+001 
3034375000  -3.173185e+001  -9.598363e+001 
3037500000  -3.210973e+001  -1.073148e+002 
3040625000  -3.353681e+001  -1.121496e+002 
3043750000  -3.411733e+001  -1.166284e+002 
3046875000  -3.432748e+001  -1.228893e+002 
3050000000  -3.604071e+001  -1.292478e+002 
3053125000  -3.601545e+001  -1.240362e+002 
3056250000  -3.554079e+001  -1.203085e+002 
3059375000  -3.567162e+001  -1.206881e+002 
3062500000  -3.414670e+001  -1.238201e+002 
3065625000  -3.392648e+001  -1.296687e+002 
3068750000  -3.347537e+001  -1.366026e+002 
3071875000  -3.350992e+001  -1.393831e+002 
3075000000  -3.329232e+001  -1.429636e+002 
3078125000  -3.299899e+001  -1.470436e+002 
3081250000  -3.347143e+001  -1.508660e+002 
3084375000  -3.260542e+001  -1.551249e+002 
3087500000  -3.244126e+001  -1.582057e+002 
3090625000  -3.193773e+001  -1.689817e+002 
3093750000  -3.237124e+001  -1.762944e+002 
3096875000  -3.340722e+001  1.776589e+002 
3100000000  -3.332324e+001  1.753724e+002 
3103125000  -3.356432e+001  1.765409e+002 
3106250000  -3.307665e+001  1.718151e+002 
3109375000  -3.320566e+001  1.682578e+002 
3112500000  -3.316989e+001  1.657762e+002 
3115625000  -3.279585e+001  1.607613e+002 
3118750000  -3.315456e+001  1.613490e+002 
3121875000  -3.227754e+001  1.513451e+002 
3125000000  -3.344289e+001  1.472963e+002 
3128125000  -3.441571e+001  1.541273e+002 
3131250000  -3.204457e+001  1.524524e+002 
3134375000  -3.068463e+001  1.375181e+002 
3137500000  -3.121972e+001  1.226855e+002 
3140625000  -3.285333e+001  1.194903e+002 
3143750000  -3.384880e+001  1.213555e+002 
3146875000  -3.336437e+001  1.224819e+002 
3150000000  -3.236539e+001  1.229392e+002 
3153125000  -3.236025e+001  1.135600e+002 
3156250000  -3.335581e+001  1.180953e+002 
3159375000  -3.176406e+001  1.196365e+002 
3162500000  -2.976497e+001  1.053483e+002 
3165625000  -3.082508e+001  9.265997e+001 
3168750000  -3.112153e+001  9.349658e+001 
3171875000  -3.030006e+001  8.737752e+001 
3175000000  -3.105202e+001  7.884591e+001 
3178125000  -3.079134e+001  7.948505e+001 
3181250000  -2.973356e+001  7.402873e+001 
3184375000  -2.905202e+001  6.197430e+001 
3187500000  -3.019676e+001  4.621953e+001 
3190625000  -3.287204e+001  3.775372e+001 
3193750000  -3.353966e+001  4.638771e+001 
3196875000  -3.319724e+001  5.164581e+001 
3200000000  -3.227925e+001  4.879558e+001 
3203125000  -3.156840e+001  4.266651e+001 
3206250000  -3.176962e+001  3.582799e+001 
3209375000  -3.138613e+001  3.025307e+001 
3212500000  -3.152916e+001  2.341828e+001 
3215625000  -3.161067e+001  1.947490e+001 
3218750000  -3.233772e+001  1.246052e+001 
3221875000  -3.323942e+001  7.081261e+000 
3225000000  -3.289173e+001  6.011868e+000 
3228125000  -3.319254e+001  1.313190e+000 
3231250000  -3.392488e+001  -1.842214e+000 
3234375000  -3.353782e+001  -1.086097e+000 
3237500000  -3.357883e+001  -3.172574e+000 
3240625000  -3.323073e+001  -5.215432e+000 
3243750000  -3.276208e+001  -1.375784e+001 
3246875000  -3.317625e+001  -2.012449e+001 
3250000000  -3.360175e+001  -2.239170e+001 
3253125000  -3.372025e+001  -2.446335e+001 
3256250000  -3.328571e+001  -3.136543e+001 
3259375000  -3.363388e+001  -4.024894e+001 
3262500000  -3.469532e+001  -4.368180e+001 
3265625000  -3.540630e+001  -4.101740e+001 
3268750000  -3.518306e+001  -3.922850e+001 
3271875000  -3.493940e+001  -3.942545e+001 
3275000000  -3.385460e+001  -4.611258e+001 
3278125000  -3.432539e+001  -5.253716e+001 
3281250000  -3.448232e+001  -5.169796e+001 
3284375000  -3.398574e+001  -5.867868e+001 
3287500000  -3.418143e+001  -6.208247e+001 
3290625000  -3.450042e+001  -6.858350e+001 
3293750000  -3.420163e+001  -7.445227e+001 
3296875000  -3.524479e+001  -7.592690e+001 
3300000000  -3.508849e+001  -7.464584e+001 
3303125000  -3.384067e+001  -7.944444e+001 
3306250000  -3.360520e+001  -8.678487e+001 
3309375000  -3.343233e+001  -9.316338e+001 
3312500000  -3.347170e+001  -1.038878e+002 
3315625000  -3.436820e+001  -1.118723e+002 
3318750000  -3.591082e+001  -1.146571e+002 
3321875000  -3.695621e+001  -1.152220e+002 
3325000000  -3.731999e+001  -1.103344e+002 
3328125000  -3.740116e+001  -1.084579e+002 
3331250000  -3.608887e+001  -1.025212e+002 
3334375000  -3.321318e+001  -1.127285e+002 
3337500000  -3.340915e+001  -1.320000e+002 
3340625000  -3.485905e+001  -1.434059e+002 
3343750000  -3.663603e+001  -1.447867e+002 
3346875000  -3.695936e+001  -1.426181e+002 
3350000000  -3.632495e+001  -1.438236e+002 
3353125000  -3.633009e+001  -1.488443e+002 
3356250000  -3.580493e+001  -1.574341e+002 
3359375000  -3.666133e+001  -1.659315e+002 
3362500000  -3.782810e+001  -1.711237e+002 
3365625000  -3.821394e+001  -1.715202e+002 
3368750000  -3.913396e+001  -1.748999e+002 
3371875000  -3.939030e+001  -1.773629e+002 
3375000000  -4.074621e+001  1.786126e+002 
3378125000  -4.162883e+001  -1.782442e+002 
3381250000  -4.264700e+001  -1.719358e+002 
3384375000  -4.143384e+001  -1.515429e+002 
3387500000  -3.783565e+001  -1.655361e+002 
3390625000  -3.958213e+001  1.748017e+002 
3393750000  -4.093240e+001  1.781635e+002 
3396875000  -3.943500e+001  -1.798211e+002 
3400000000  -3.892480e+001  1.726331e+002 
3403125000  -3.938794e+001  1.670024e+002 
3406250000  -3.982373e+001  1.663518e+002 
3409375000  -3.999690e+001  1.588425e+002 
3412500000  -4.036113e+001  1.579803e+002 
3415625000  -4.111768e+001  1.586966e+002 
3418750000  -4.119708e+001  1.587209e+002 
3421875000  -4.141330e+001  1.611142e+002 
3425000000  -4.044197e+001  1.604784e+002 
3428125000  -3.964580e+001  1.577639e+002 
3431250000  -3.948604e+001  1.503172e+002 
3434375000  -3.926984e+001  1.432551e+002 
3437500000  -3.978016e+001  1.405638e+002 
3440625000  -3.998670e+001  1.422604e+002 
3443750000  -3.880057e+001  1.417309e+002 
3446875000  -3.828013e+001  1.350899e+002 
3450000000  -3.772068e+001  1.244436e+002 
3453125000  -3.806133e+001  1.138898e+002 
3456250000  -3.915041e+001  1.063014e+002 
3459375000  -4.023677e+001  1.082296e+002 
3462500000  -4.003648e+001  1.095003e+002 
3465625000  -4.005955e+001  1.034320e+002 
3468750000  -4.045906e+001  9.953255e+001 
3471875000  -4.030153e+001  9.777541e+001 
3475000000  -3.989906e+001  9.321870e+001 
3478125000  -4.053648e+001  8.613416e+001 
3481250000  -4.145282e+001  8.355201e+001 
3484375000  -4.240591e+001  8.781402e+001 
3487500000  -4.159326e+001  8.593153e+001 
3490625000  -4.093216e+001  8.347259e+001 
3493750000  -4.161992e+001  7.766805e+001 
3496875000  -4.212079e+001  7.620387e+001 
3500000000  -4.250558e+001  7.904871e+001 
3503125000  -4.198872e+001  7.930003e+001 
3506250000  -4.078576e+001  7.763268e+001 
3509375000  -4.085085e+001  6.711526e+001 
3512500000  -4.127942e+001  5.721074e+001 
3515625000  -4.199066e+001  5.594265e+001 
3518750000  -4.266153e+001  5.444297e+001 
3521875000  -4.254513e+001  5.389213e+001 
3525000000  -4.318725e+001  4.888312e+001 
3528125000  -4.317660e+001  5.900437e+001 
3531250000  -4.175386e+001  5.742684e+001 
3534375000  -4.192882e+001  4.533329e+001 
3537500000  -4.227874e+001  3.959367e+001 
3540625000  -4.331969e+001  3.646927e+001 
3543750000  -4.396899e+001  4.092236e+001 
3546875000  -4.365154e+001  5.267423e+001 
3550000000  -4.088874e+001  5.358708e+001 
3553125000  -3.975096e+001  3.628124e+001 
3556250000  -4.120713e+001  2.610109e+001 
3559375000  -4.112915e+001  2.921733e+001 
3562500000  -3.991895e+001  1.924882e+001 
3565625000  -4.079688e+001  1.016952e+001 
3568750000  -4.096567e+001  1.366888e+001 
3571875000  -4.091613e+001  1.257809e+001 
3575000000  -4.060063e+001  5.154961e+000 
3578125000  -4.092794e+001  5.175255e-001 
3581250000  -4.120183e+001  -2.945124e+000 
3584375000  -4.057683e+001  -4.762635e+000 
3587500000  -3.999334e+001  -1.443121e+001 
3590625000  -4.071001e+001  -2.320872e+001 
3593750000  -4.205880e+001  -2.596660e+001 
3596875000  -4.228687e+001  -2.026842e+001 
3600000000  -4.050911e+001  -2.587387e+001 
3603125000  -4.084838e+001  -4.116550e+001 
3606250000  -4.190477e+001  -4.546728e+001 
3609375000  -4.279751e+001  -4.691360e+001 
3612500000  -4.371159e+001  -4.986765e+001 
3615625000  -4.362193e+001  -5.263020e+001 
3618750000  -4.448372e+001  -5.170162e+001 
3621875000  -4.445569e+001  -5.238333e+001 
3625000000  -4.519220e+001  -5.515793e+001 
3628125000  -4.575568e+001  -5.280852e+001 
3631250000  -4.520705e+001  -5.589326e+001 
3634375000  -4.650416e+001  -5.830718e+001 
3637500000  -4.691616e+001  -4.918758e+001 
3640625000  -4.574829e+001  -4.677659e+001 
3643750000  -4.541356e+001  -5.094455e+001 
3646875000  -4.582040e+001  -5.711361e+001 
3650000000  -4.646027e+001  -5.568644e+001 
3653125000  -4.535278e+001  -5.702732e+001 
3656250000  -4.571004e+001  -5.823722e+001 
3659375000  -4.582507e+001  -5.437294e+001 
3662500000  -4.449920e+001  -6.014559e+001 
3665625000  -4.417927e+001  -5.888459e+001 
3668750000  -4.311328e+001  -6.035459e+001 
3671875000  -4.233256e+001  -6.662273e+001 
3675000000  -4.230610e+001  -7.585521e+001 
3678125000  -4.280816e+001  -7.742120e+001 
3681250000  -4.246063e+001  -7.624325e+001 
3684375000  -4.216892e+001  -8.521168e+001 
3687500000  -4.243777e+001  -9.105177e+001 
3690625000  -4.245788e+001  -9.537375e+001 
3693750000  -4.322086e+001  -9.388563e+001 
3696875000  -4.307713e+001  -9.676578e+001 
3700000000  -4.245527e+001  -1.018426e+002 
3703125000  -4.253118e+001  -1.076915e+002 
3706250000  -4.356564e+001  -1.071643e+002 
3709375000  -4.314518e+001  -1.060332e+002 
3712500000  -4.251218e+001  -1.091955e+002 
3715625000  -4.169370e+001  -1.165937e+002 
3718750000  -4.118333e+001  -1.211283e+002 
3721875000  -4.144287e+001  -1.278601e+002 
3725000000  -4.181115e+001  -1.354149e+002 
3728125000  -4.255655e+001  -1.351775e+002 
3731250000  -4.220289e+001  -1.371842e+002 
3734375000  -4.187128e+001  -1.462977e+002 
3737500000  -4.315237e+001  -1.538677e+002 
3740625000  -4.401698e+001  -1.547887e+002 
3743750000  -4.382712e+001  -1.571867e+002 
3746875000  -4.433154e+001  -1.583319e+002 
3750000000  -4.526709e+001  -1.558510e+002 
3753125000  -4.522181e+001  -1.551182e+002 
3756250000  -4.508780e+001  -1.527393e+002 
3759375000  -4.550824e+001  -1.501266e+002 
3762500000  -4.456391e+001  -1.547626e+002 
3765625000  -4.510401e+001  -1.538649e+002 
3768750000  -4.541475e+001  -1.496128e+002 
3771875000  -4.354251e+001  -1.513515e+002 
3775000000  -4.317380e+001  -1.596815e+002 
3778125000  -4.352618e+001  -1.561302e+002 
3781250000  -4.257320e+001  -1.606043e+002 
3784375000  -4.238656e+001  -1.617733e+002 
3787500000  -4.137199e+001  -1.657940e+002 
3790625000  -4.189314e+001  -1.709603e+002 
3793750000  -4.225483e+001  -1.744329e+002 
3796875000  -4.062635e+001  -1.753758e+002 
3800000000  -3.915398e+001  -1.793292e+002 
3803125000  -3.975481e+001  1.700723e+002 
3806250000  -4.051391e+001  1.675269e+002 
3809375000  -4.009252e+001  1.654237e+002 
3812500000  -3.927573e+001  1.590676e+002 
3815625000  -3.973790e+001  1.486873e+002 
3818750000  -4.080749e+001  1.472635e+002 
3821875000  -4.066041e+001  1.558843e+002 
3825000000  -3.900667e+001  1.573456e+002 
3828125000  -3.795174e+001  1.391862e+002 
3831250000  -3.803728e+001  1.256734e+002 
3834375000  -3.999370e+001  1.229456e+002 
3837500000  -4.076999e+001  1.271082e+002 
3840625000  -3.939154e+001  1.241581e+002 
3843750000  -3.863390e+001  1.121209e+002 
3846875000  -3.948152e+001  1.046923e+002 
3850000000  -4.073996e+001  1.112282e+002 
3853125000  -4.024931e+001  1.132577e+002 
3856250000  -4.058662e+001  1.055403e+002 
3859375000  -3.954884e+001  1.016258e+002 
3862500000  -3.958520e+001  9.358803e+001 
3865625000  -3.970629e+001  8.838285e+001 
3868750000  -3.996605e+001  8.721181e+001 
3871875000  -3.927286e+001  8.296200e+001 
3875000000  -3.979866e+001  7.409091e+001 
3878125000  -4.077998e+001  7.250135e+001 
3881250000  -4.086765e+001  7.559738e+001 
3884375000  -4.066052e+001  7.057646e+001 
3887500000  -4.053708e+001  6.684717e+001 
3890625000  -4.096127e+001  6.471868e+001 
3893750000  -4.140092e+001  6.340263e+001 
3896875000  -4.187183e+001  6.775355e+001 
3900000000  -4.168703e+001  6.340059e+001 
3903125000  -4.135681e+001  6.271944e+001 
3906250000  -4.097136e+001  6.079797e+001 
3909375000  -4.022378e+001  5.863256e+001 
3912500000  -4.018629e+001  5.078651e+001 
3915625000  -4.136406e+001  4.961373e+001 
3918750000  -4.119516e+001  5.132725e+001 
3921875000  -4.055131e+001  4.870463e+001 
3925000000  -3.964328e+001  4.593153e+001 
3928125000  -3.883564e+001  3.878505e+001 
3931250000  -3.937695e+001  3.398370e+001 
3934375000  -3.959037e+001  3.326429e+001 
3937500000  -3.945031e+001  3.041168e+001 
3940625000  -3.995746e+001  2.844245e+001 
3943750000  -3.908299e+001  2.991521e+001 
3946875000  -3.771831e+001  2.275825e+001 
3950000000  -3.830057e+001  1.380676e+001 
3953125000  -3.931425e+001  1.377290e+001 
3956250000  -3.854726e+001  1.300412e+001 
3959375000  -3.709187e+001  9.023920e+000 
3962500000  -3.681626e+001  3.382931e+000 
3965625000  -3.669616e+001  -6.171328e+000 
3968750000  -3.768550e+001  -1.387673e+001 
3971875000  -3.789122e+001  -1.728999e+001 
3975000000  -3.734459e+001  -2.089724e+001 
3978125000  -3.729732e+001  -2.334978e+001 
3981250000  -3.747017e+001  -2.834617e+001 
3984375000  -3.776836e+001  -3.580100e+001 
3987500000  -3.816021e+001  -3.857917e+001 
3990625000  -3.851149e+001  -4.125630e+001 
3993750000  -3.867017e+001  -4.521224e+001 
3996875000  -3.880453e+001  -4.954700e+001 
4000000000  -3.917326e+001  -5.171268e+001 
4003125000  -3.968783e+001  -4.893289e+001 
4006250000  -3.842826e+001  -5.024441e+001 
4009375000  -3.760575e+001  -6.354353e+001 
4012500000  -3.878354e+001  -7.028295e+001 
4015625000  -4.012335e+001  -6.809521e+001 
4018750000  -4.064500e+001  -6.713823e+001 
4021875000  -3.977354e+001  -6.847527e+001 
4025000000  -3.936683e+001  -7.254575e+001 
4028125000  -3.957326e+001  -7.598994e+001 
4031250000  -3.992686e+001  -8.012592e+001 
4034375000  -4.044411e+001  -8.055809e+001 
4037500000  -3.978085e+001  -7.634110e+001 
4040625000  -3.950089e+001  -8.145402e+001 
4043750000  -3.992640e+001  -8.245098e+001 
4046875000  -3.943704e+001  -8.238181e+001 
4050000000  -3.883279e+001  -8.912638e+001 
4053125000  -3.911287e+001  -9.113540e+001 
4056250000  -3.958735e+001  -8.717702e+001 
4059375000  -3.805949e+001  -8.499184e+001 
4062500000  -3.676699e+001  -9.135298e+001 
4065625000  -3.649390e+001  -9.650600e+001 
4068750000  -3.604174e+001  -1.029382e+002 
4071875000  -3.547554e+001  -1.111911e+002 
4075000000  -3.570284e+001  -1.189706e+002 
4078125000  -3.629381e+001  -1.201985e+002 
4081250000  -3.573794e+001  -1.246208e+002 
4084375000  -3.530981e+001  -1.333593e+002 
4087500000  -3.557809e+001  -1.405750e+002 
4090625000  -3.617828e+001  -1.417454e+002 
4093750000  -3.593065e+001  -1.426047e+002 
4096875000  -3.545983e+001  -1.503124e+002 
4100000000  -3.663834e+001  -1.587752e+002 
4103125000  -3.712461e+001  -1.587987e+002 
4106250000  -3.713328e+001  -1.553277e+002 
4109375000  -3.626553e+001  -1.579948e+002 
4112500000  -3.581116e+001  -1.655862e+002 
4115625000  -3.607206e+001  -1.716356e+002 
4118750000  -3.657078e+001  -1.745224e+002 
4121875000  -3.589613e+001  1.795058e+002 
4125000000  -3.645617e+001  1.732895e+002 
4128125000  -3.763910e+001  1.725150e+002 
4131250000  -3.741630e+001  1.794655e+002 
4134375000  -3.519533e+001  1.738366e+002 
4137500000  -3.524137e+001  1.527776e+002 
4140625000  -3.739551e+001  1.456793e+002 
4143750000  -3.896473e+001  1.499670e+002 
4146875000  -3.842568e+001  1.554589e+002 
4150000000  -3.777385e+001  1.518801e+002 
4153125000  -3.775660e+001  1.445651e+002 
4156250000  -3.869938e+001  1.435130e+002 
4159375000  -3.908402e+001  1.471481e+002 
4162500000  -3.832159e+001  1.523007e+002 
4165625000  -3.717379e+001  1.491140e+002 
4168750000  -3.642117e+001  1.404627e+002 
4171875000  -3.653445e+001  1.317399e+002 
4175000000  -3.716497e+001  1.285674e+002 
4178125000  -3.774133e+001  1.279600e+002 
4181250000  -3.746847e+001  1.264519e+002 
4184375000  -3.711518e+001  1.242134e+002 
4187500000  -3.733488e+001  1.206406e+002 
4190625000  -3.700540e+001  1.140648e+002 
4193750000  -3.784631e+001  1.118826e+002 
4196875000  -3.842086e+001  1.115918e+002 
4200000000  -3.925383e+001  1.129149e+002 
4203125000  -3.876426e+001  1.251694e+002 
4206250000  -3.549761e+001  1.263581e+002 
4209375000  -3.420805e+001  1.032823e+002 
4212500000  -3.614878e+001  9.475539e+001 
4215625000  -3.712836e+001  1.000636e+002 
4218750000  -3.542239e+001  1.053866e+002 
4221875000  -3.311842e+001  9.489896e+001 
4225000000  -3.428553e+001  8.108957e+001 
4228125000  -3.493336e+001  8.527489e+001 
4231250000  -3.301071e+001  8.059305e+001 
4234375000  -3.298031e+001  7.100389e+001 
4237500000  -3.263756e+001  6.636029e+001 
4240625000  -3.273543e+001  5.599110e+001 
4243750000  -3.371750e+001  4.710390e+001 
4246875000  -3.460963e+001  4.595438e+001 
4250000000  -3.460115e+001  4.723445e+001 
4253125000  -3.400813e+001  4.365731e+001 
4256250000  -3.443113e+001  3.873341e+001 
4259375000  -3.413975e+001  3.429942e+001 
4262500000  -3.425890e+001  2.998048e+001 
4265625000  -3.452617e+001  2.916671e+001 
4268750000  -3.359119e+001  2.254373e+001 
4271875000  -3.351201e+001  1.536947e+001 
4275000000  -3.314279e+001  7.856495e+000 
4278125000  -3.384132e+001  -4.824187e+000 
4281250000  -3.588708e+001  -6.612524e+000 
4284375000  -3.566848e+001  -7.699421e+000 
4287500000  -3.668822e+001  -1.077007e+001 
4290625000  -3.819800e+001  -2.351271e+000 
4293750000  -3.651221e+001  3.013932e+000 
4296875000  -3.521626e+001  -7.589762e+000 
4300000000  -3.613377e+001  -1.588691e+001 
4303125000  -3.762185e+001  -1.599574e+001 
4306250000  -3.701809e+001  -9.570229e+000 
4309375000  -3.589968e+001  -1.067297e+001 
4312500000  -3.550801e+001  -1.926833e+001 
4315625000  -3.584370e+001  -2.308574e+001 
4318750000  -3.624214e+001  -2.803510e+001 
4321875000  -3.639102e+001  -2.534965e+001 
4325000000  -3.557199e+001  -2.502901e+001 
4328125000  -3.493311e+001  -3.059216e+001 
4331250000  -3.463015e+001  -3.764207e+001 
4334375000  -3.505106e+001  -4.389123e+001 
4337500000  -3.571979e+001  -4.691920e+001 
4340625000  -3.615889e+001  -4.293030e+001 
4343750000  -3.552395e+001  -4.212578e+001 
4346875000  -3.477393e+001  -4.867583e+001 
4350000000  -3.459832e+001  -5.550602e+001 
4353125000  -3.446336e+001  -6.225147e+001 
4356250000  -3.632769e+001  -6.494945e+001 
4359375000  -3.643359e+001  -5.163791e+001 
4362500000  -3.340298e+001  -5.254359e+001 
4365625000  -3.181614e+001  -6.512204e+001 
4368750000  -3.250892e+001  -7.946072e+001 
4371875000  -3.351300e+001  -7.978793e+001 
4375000000  -3.316109e+001  -8.011607e+001 
4378125000  -3.228527e+001  -8.739340e+001 
4381250000  -3.252311e+001  -9.489226e+001 
4384375000  -3.245281e+001  -1.015563e+002 
4387500000  -3.312312e+001  -1.101430e+002 
4390625000  -3.403551e+001  -1.095484e+002 
4393750000  -3.340353e+001  -1.094485e+002 
4396875000  -3.277155e+001  -1.132612e+002 
4400000000  -3.215694e+001  -1.223510e+002 
4403125000  -3.290961e+001  -1.307871e+002 
4406250000  -3.380935e+001  -1.347347e+002 
4409375000  -3.382501e+001  -1.386175e+002 
4412500000  -3.506076e+001  -1.425335e+002 
4415625000  -3.542027e+001  -1.396109e+002 
