!Agilent Technologies,E8363B,MY43030201,A.06.04.32
!Agilent E8363B: A.06.04.32
!Date: Tuesday, November 11, 2014 21:08:56
!Correction: S21(Response(S21)) 
!S1P File: Measurement: S21:
# Hz S  dB   R 50
3000000000  -3.637778e+001  -5.400974e+001 
3003125000  -3.755381e+001  -5.946092e+001 
3006250000  -3.745903e+001  -6.277343e+001 
3009375000  -3.783589e+001  -5.776411e+001 
3012500000  -3.711411e+001  -5.942735e+001 
3015625000  -3.614106e+001  -6.717573e+001 
3018750000  -3.687715e+001  -6.891535e+001 
3021875000  -3.543340e+001  -6.748276e+001 
3025000000  -3.412860e+001  -7.092517e+001 
3028125000  -3.319063e+001  -7.798162e+001 
3031250000  -3.213845e+001  -8.907928e+001 
3034375000  -3.180254e+001  -1.027487e+002 
3037500000  -3.233621e+001  -1.141984e+002 
3040625000  -3.364627e+001  -1.191552e+002 
3043750000  -3.431255e+001  -1.248646e+002 
3046875000  -3.450365e+001  -1.305303e+002 
3050000000  -3.612657e+001  -1.361011e+002 
3053125000  -3.612790e+001  -1.306287e+002 
3056250000  -3.567641e+001  -1.269882e+002 
3059375000  -3.563011e+001  -1.281604e+002 
3062500000  -3.414211e+001  -1.314763e+002 
3065625000  -3.390674e+001  -1.372214e+002 
3068750000  -3.358785e+001  -1.442582e+002 
3071875000  -3.349208e+001  -1.465739e+002 
3075000000  -3.328857e+001  -1.508247e+002 
3078125000  -3.312687e+001  -1.552014e+002 
3081250000  -3.348363e+001  -1.600806e+002 
3084375000  -3.263315e+001  -1.628581e+002 
3087500000  -3.248635e+001  -1.674918e+002 
3090625000  -3.200135e+001  -1.772767e+002 
3093750000  -3.248247e+001  1.756421e+002 
3096875000  -3.346712e+001  1.696887e+002 
3100000000  -3.335196e+001  1.678951e+002 
3103125000  -3.366040e+001  1.684102e+002 
3106250000  -3.316946e+001  1.638863e+002 
3109375000  -3.330717e+001  1.603609e+002 
3112500000  -3.317340e+001  1.575743e+002 
3115625000  -3.285005e+001  1.527704e+002 
3118750000  -3.316491e+001  1.529618e+002 
3121875000  -3.226557e+001  1.434035e+002 
3125000000  -3.358900e+001  1.398510e+002 
3128125000  -3.449084e+001  1.467654e+002 
3131250000  -3.207632e+001  1.445244e+002 
3134375000  -3.080444e+001  1.289267e+002 
3137500000  -3.144168e+001  1.151947e+002 
3140625000  -3.284378e+001  1.127103e+002 
3143750000  -3.380038e+001  1.140940e+002 
3146875000  -3.327930e+001  1.152712e+002 
3150000000  -3.231700e+001  1.154499e+002 
3153125000  -3.236534e+001  1.058972e+002 
3156250000  -3.337370e+001  1.104016e+002 
3159375000  -3.158796e+001  1.118004e+002 
3162500000  -2.965840e+001  9.740259e+001 
3165625000  -3.077901e+001  8.527257e+001 
3168750000  -3.102676e+001  8.536777e+001 
3171875000  -3.018961e+001  7.956219e+001 
3175000000  -3.100260e+001  7.124078e+001 
3178125000  -3.067772e+001  7.145061e+001 
3181250000  -2.962076e+001  6.610093e+001 
3184375000  -2.900279e+001  5.363986e+001 
3187500000  -3.019074e+001  3.786028e+001 
3190625000  -3.283279e+001  3.046610e+001 
3193750000  -3.335657e+001  3.943494e+001 
3196875000  -3.303267e+001  4.369410e+001 
3200000000  -3.206417e+001  4.069492e+001 
3203125000  -3.135681e+001  3.471890e+001 
3206250000  -3.163334e+001  2.743820e+001 
3209375000  -3.116072e+001  2.185609e+001 
3212500000  -3.137808e+001  1.472481e+001 
3215625000  -3.147082e+001  1.132980e+001 
3218750000  -3.218592e+001  3.749437e+000 
3221875000  -3.297520e+001  -1.064002e+000 
3225000000  -3.263797e+001  -2.392242e+000 
3228125000  -3.300657e+001  -8.021912e+000 
3231250000  -3.368282e+001  -1.022586e+001 
3234375000  -3.344345e+001  -9.841887e+000 
3237500000  -3.338345e+001  -1.201482e+001 
3240625000  -3.292663e+001  -1.481564e+001 
3243750000  -3.262469e+001  -2.202724e+001 
3246875000  -3.307792e+001  -2.958619e+001 
3250000000  -3.340575e+001  -3.228203e+001 
3253125000  -3.351993e+001  -3.411186e+001 
3256250000  -3.313438e+001  -4.057629e+001 
3259375000  -3.346806e+001  -5.019949e+001 
3262500000  -3.466274e+001  -5.311639e+001 
3265625000  -3.524881e+001  -5.009775e+001 
3268750000  -3.508029e+001  -4.862636e+001 
3271875000  -3.475738e+001  -4.799446e+001 
3275000000  -3.365127e+001  -5.562155e+001 
3278125000  -3.416752e+001  -6.210500e+001 
3281250000  -3.427700e+001  -6.075577e+001 
3284375000  -3.377460e+001  -6.794263e+001 
3287500000  -3.405384e+001  -7.107404e+001 
3290625000  -3.429605e+001  -7.713564e+001 
3293750000  -3.404147e+001  -8.353323e+001 
3296875000  -3.516297e+001  -8.405355e+001 
3300000000  -3.492634e+001  -8.274582e+001 
3303125000  -3.367257e+001  -8.833586e+001 
3306250000  -3.356051e+001  -9.587626e+001 
3309375000  -3.321137e+001  -1.024785e+002 
3312500000  -3.331772e+001  -1.130203e+002 
3315625000  -3.432365e+001  -1.216347e+002 
3318750000  -3.578045e+001  -1.246871e+002 
3321875000  -3.682909e+001  -1.239354e+002 
3325000000  -3.730340e+001  -1.177189e+002 
3328125000  -3.695878e+001  -1.181241e+002 
3331250000  -3.562028e+001  -1.115800e+002 
3334375000  -3.289537e+001  -1.225819e+002 
3337500000  -3.309827e+001  -1.421808e+002 
3340625000  -3.456804e+001  -1.528276e+002 
3343750000  -3.660275e+001  -1.540340e+002 
3346875000  -3.655901e+001  -1.523457e+002 
3350000000  -3.598608e+001  -1.544045e+002 
3353125000  -3.599196e+001  -1.592912e+002 
3356250000  -3.552237e+001  -1.673659e+002 
3359375000  -3.635390e+001  -1.751649e+002 
3362500000  -3.754338e+001  1.788571e+002 
3365625000  -3.796212e+001  1.780479e+002 
3368750000  -3.883396e+001  1.756317e+002 
3371875000  -3.904113e+001  1.735636e+002 
3375000000  -4.029323e+001  1.707550e+002 
3378125000  -4.136060e+001  1.698048e+002 
3381250000  -4.243510e+001  1.791280e+002 
3384375000  -4.104881e+001  -1.603147e+002 
3387500000  -3.730054e+001  -1.764068e+002 
3390625000  -3.960269e+001  1.644022e+002 
3393750000  -4.064656e+001  1.682962e+002 
3396875000  -3.919728e+001  1.689568e+002 
3400000000  -3.869582e+001  1.602820e+002 
3403125000  -3.928655e+001  1.556526e+002 
3406250000  -3.949114e+001  1.560807e+002 
3409375000  -3.983748e+001  1.480554e+002 
3412500000  -4.031797e+001  1.448291e+002 
3415625000  -4.080766e+001  1.458830e+002 
3418750000  -4.109923e+001  1.477656e+002 
3421875000  -4.137371e+001  1.499541e+002 
3425000000  -4.011934e+001  1.515325e+002 
3428125000  -3.903888e+001  1.450960e+002 
3431250000  -3.936246e+001  1.373445e+002 
3434375000  -3.908759e+001  1.332474e+002 
3437500000  -3.976045e+001  1.294962e+002 
3440625000  -3.983503e+001  1.311864e+002 
3443750000  -3.867771e+001  1.331771e+002 
3446875000  -3.801590e+001  1.232130e+002 
3450000000  -3.742531e+001  1.142608e+002 
3453125000  -3.796082e+001  1.028763e+002 
3456250000  -3.916530e+001  9.732774e+001 
3459375000  -4.007732e+001  9.680212e+001 
3462500000  -3.985245e+001  9.782737e+001 
3465625000  -3.974920e+001  9.250809e+001 
3468750000  -4.019610e+001  8.856702e+001 
3471875000  -4.013527e+001  8.728439e+001 
3475000000  -3.974844e+001  8.137086e+001 
3478125000  -4.027095e+001  7.375803e+001 
3481250000  -4.132281e+001  7.196368e+001 
3484375000  -4.216780e+001  7.656561e+001 
3487500000  -4.142459e+001  7.480127e+001 
3490625000  -4.074865e+001  7.157946e+001 
3493750000  -4.150098e+001  6.338791e+001 
3496875000  -4.186495e+001  6.178860e+001 
3500000000  -4.230942e+001  6.617756e+001 
3503125000  -4.176561e+001  6.801216e+001 
3506250000  -4.052426e+001  6.378884e+001 
3509375000  -4.054861e+001  5.282624e+001 
3512500000  -4.111217e+001  4.685516e+001 
3515625000  -4.183545e+001  4.216835e+001 
3518750000  -4.248355e+001  4.269197e+001 
3521875000  -4.225873e+001  4.009873e+001 
3525000000  -4.331511e+001  3.940864e+001 
3528125000  -4.333558e+001  4.499238e+001 
3531250000  -4.212504e+001  4.396209e+001 
3534375000  -4.204650e+001  3.314800e+001 
3537500000  -4.247037e+001  2.777273e+001 
3540625000  -4.314141e+001  2.682950e+001 
3543750000  -4.393520e+001  3.063798e+001 
3546875000  -4.372234e+001  4.080660e+001 
3550000000  -4.114548e+001  4.130178e+001 
3553125000  -3.993217e+001  2.498049e+001 
3556250000  -4.147299e+001  1.844774e+001 
3559375000  -4.102104e+001  1.906423e+001 
3562500000  -4.013076e+001  9.298125e+000 
3565625000  -4.107858e+001  2.203417e+000 
3568750000  -4.108709e+001  5.063503e+000 
3571875000  -4.097253e+001  3.135932e+000 
3575000000  -4.043417e+001  -3.349048e+000 
3578125000  -4.101596e+001  -8.751126e+000 
3581250000  -4.113305e+001  -1.022537e+001 
3584375000  -4.050851e+001  -1.370132e+001 
3587500000  -3.992290e+001  -2.302695e+001 
3590625000  -4.036143e+001  -3.246548e+001 
3593750000  -4.192228e+001  -3.416564e+001 
3596875000  -4.184134e+001  -2.839906e+001 
3600000000  -4.027205e+001  -3.507474e+001 
3603125000  -4.076502e+001  -4.955715e+001 
3606250000  -4.176831e+001  -5.223281e+001 
3609375000  -4.221884e+001  -5.629576e+001 
3612500000  -4.295652e+001  -5.819985e+001 
3615625000  -4.312472e+001  -6.085872e+001 
3618750000  -4.377520e+001  -6.214690e+001 
3621875000  -4.378391e+001  -6.470210e+001 
3625000000  -4.459345e+001  -6.447995e+001 
3628125000  -4.432076e+001  -6.702688e+001 
3631250000  -4.440234e+001  -7.240073e+001 
3634375000  -4.621610e+001  -7.109778e+001 
3637500000  -4.556932e+001  -6.341793e+001 
3640625000  -4.492797e+001  -6.141838e+001 
3643750000  -4.448238e+001  -6.997793e+001 
3646875000  -4.495827e+001  -7.363132e+001 
3650000000  -4.561415e+001  -7.001904e+001 
3653125000  -4.581993e+001  -7.276929e+001 
3656250000  -4.581814e+001  -7.464005e+001 
3659375000  -4.601281e+001  -6.991521e+001 
3662500000  -4.482964e+001  -7.051323e+001 
3665625000  -4.473742e+001  -7.230045e+001 
3668750000  -4.352859e+001  -7.298854e+001 
3671875000  -4.252499e+001  -7.977797e+001 
3675000000  -4.279010e+001  -8.630330e+001 
3678125000  -4.316978e+001  -8.887454e+001 
3681250000  -4.278751e+001  -9.315047e+001 
3684375000  -4.242759e+001  -9.563389e+001 
3687500000  -4.286875e+001  -1.029622e+002 
3690625000  -4.268201e+001  -1.054404e+002 
3693750000  -4.366903e+001  -1.062087e+002 
3696875000  -4.328339e+001  -1.072650e+002 
3700000000  -4.249338e+001  -1.119837e+002 
3703125000  -4.275374e+001  -1.163734e+002 
3706250000  -4.362547e+001  -1.155684e+002 
3709375000  -4.314980e+001  -1.162868e+002 
3712500000  -4.248815e+001  -1.158412e+002 
3715625000  -4.130590e+001  -1.259049e+002 
3718750000  -4.112513e+001  -1.310304e+002 
3721875000  -4.101773e+001  -1.385360e+002 
3725000000  -4.151871e+001  -1.448236e+002 
3728125000  -4.214950e+001  -1.464991e+002 
3731250000  -4.153736e+001  -1.478617e+002 
3734375000  -4.106052e+001  -1.546708e+002 
3737500000  -4.200442e+001  -1.635576e+002 
3740625000  -4.335640e+001  -1.671742e+002 
3743750000  -4.347372e+001  -1.670700e+002 
3746875000  -4.370676e+001  -1.712676e+002 
3750000000  -4.431616e+001  -1.702501e+002 
3753125000  -4.458389e+001  -1.708698e+002 
3756250000  -4.498064e+001  -1.668202e+002 
3759375000  -4.473191e+001  -1.682614e+002 
3762500000  -4.455304e+001  -1.708359e+002 
3765625000  -4.540597e+001  -1.706865e+002 
3768750000  -4.491825e+001  -1.680807e+002 
3771875000  -4.329285e+001  -1.659904e+002 
3775000000  -4.291959e+001  -1.721625e+002 
3778125000  -4.343625e+001  -1.751856e+002 
3781250000  -4.327390e+001  -1.780496e+002 
3784375000  -4.313419e+001  -1.763579e+002 
3787500000  -4.195998e+001  1.774423e+002 
3790625000  -4.245110e+001  1.722403e+002 
3793750000  -4.233808e+001  1.709280e+002 
3796875000  -4.130339e+001  1.688675e+002 
3800000000  -3.928556e+001  1.675681e+002 
3803125000  -4.013221e+001  1.575213e+002 
3806250000  -4.067666e+001  1.539569e+002 
3809375000  -4.043025e+001  1.528580e+002 
3812500000  -3.969230e+001  1.452673e+002 
3815625000  -4.039742e+001  1.359863e+002 
3818750000  -4.143145e+001  1.350907e+002 
3821875000  -4.101633e+001  1.437696e+002 
3825000000  -3.911355e+001  1.446284e+002 
3828125000  -3.809207e+001  1.279208e+002 
3831250000  -3.855092e+001  1.142941e+002 
3834375000  -4.016354e+001  1.135078e+002 
3837500000  -4.103492e+001  1.154193e+002 
3840625000  -3.955560e+001  1.143317e+002 
3843750000  -3.872562e+001  1.022467e+002 
3846875000  -3.964605e+001  9.293596e+001 
3850000000  -4.085364e+001  1.008206e+002 
3853125000  -4.045049e+001  1.040770e+002 
3856250000  -4.028602e+001  9.517056e+001 
3859375000  -3.924861e+001  9.009443e+001 
3862500000  -3.968879e+001  8.226047e+001 
3865625000  -3.994326e+001  7.595641e+001 
3868750000  -3.986269e+001  7.503693e+001 
3871875000  -3.925204e+001  7.163033e+001 
3875000000  -3.950816e+001  6.282805e+001 
3878125000  -4.073975e+001  6.124361e+001 
3881250000  -4.086356e+001  6.290294e+001 
3884375000  -4.054448e+001  5.944022e+001 
3887500000  -4.057742e+001  5.617555e+001 
3890625000  -4.117005e+001  5.187575e+001 
3893750000  -4.130010e+001  4.990366e+001 
3896875000  -4.170506e+001  5.305497e+001 
3900000000  -4.188543e+001  5.005052e+001 
3903125000  -4.134170e+001  5.087553e+001 
3906250000  -4.115770e+001  4.946053e+001 
3909375000  -4.020183e+001  4.316224e+001 
3912500000  -4.023147e+001  3.527840e+001 
3915625000  -4.140233e+001  3.726876e+001 
3918750000  -4.118264e+001  3.954772e+001 
3921875000  -4.092312e+001  3.518455e+001 
3925000000  -3.973500e+001  3.247517e+001 
3928125000  -3.890336e+001  2.616969e+001 
3931250000  -3.937909e+001  2.033129e+001 
3934375000  -3.987223e+001  2.135240e+001 
3937500000  -4.002934e+001  1.964664e+001 
3940625000  -4.053377e+001  1.617806e+001 
3943750000  -3.927879e+001  1.468397e+001 
3946875000  -3.823718e+001  1.083398e+001 
3950000000  -3.881639e+001  3.471841e-001 
3953125000  -3.984944e+001  -8.878325e-001 
3956250000  -3.871208e+001  2.190211e+000 
3959375000  -3.762343e+001  -2.504588e+000 
3962500000  -3.690298e+001  -9.990214e+000 
3965625000  -3.698986e+001  -1.725665e+001 
3968750000  -3.798378e+001  -2.539455e+001 
3971875000  -3.819990e+001  -2.776556e+001 
3975000000  -3.744658e+001  -3.179571e+001 
3978125000  -3.750594e+001  -3.515390e+001 
3981250000  -3.772117e+001  -4.016682e+001 
3984375000  -3.784123e+001  -4.715728e+001 
3987500000  -3.843618e+001  -5.106276e+001 
3990625000  -3.831683e+001  -5.227318e+001 
3993750000  -3.900811e+001  -5.559572e+001 
3996875000  -3.894887e+001  -5.827002e+001 
4000000000  -3.921915e+001  -5.908462e+001 
4003125000  -3.969197e+001  -5.926749e+001 
4006250000  -3.826657e+001  -6.142220e+001 
4009375000  -3.740847e+001  -7.528973e+001 
4012500000  -3.862529e+001  -8.096305e+001 
4015625000  -3.995403e+001  -7.984401e+001 
4018750000  -4.014833e+001  -7.889890e+001 
4021875000  -3.954897e+001  -7.996792e+001 
4025000000  -3.936001e+001  -8.578524e+001 
4028125000  -3.924982e+001  -8.778137e+001 
4031250000  -3.955323e+001  -9.100829e+001 
4034375000  -4.009849e+001  -9.180476e+001 
4037500000  -3.935791e+001  -9.025629e+001 
4040625000  -3.936176e+001  -9.448270e+001 
4043750000  -3.991129e+001  -9.626810e+001 
4046875000  -3.930801e+001  -9.534894e+001 
4050000000  -3.869122e+001  -1.017352e+002 
4053125000  -3.911869e+001  -1.039482e+002 
4056250000  -3.958006e+001  -9.959689e+001 
4059375000  -3.841664e+001  -1.000435e+002 
4062500000  -3.691566e+001  -1.038241e+002 
4065625000  -3.687230e+001  -1.103719e+002 
4068750000  -3.643664e+001  -1.175811e+002 
4071875000  -3.561435e+001  -1.246528e+002 
4075000000  -3.590810e+001  -1.308893e+002 
4078125000  -3.650611e+001  -1.335052e+002 
4081250000  -3.596122e+001  -1.375725e+002 
4084375000  -3.557082e+001  -1.457531e+002 
4087500000  -3.602318e+001  -1.530406e+002 
4090625000  -3.656589e+001  -1.530341e+002 
4093750000  -3.624447e+001  -1.548978e+002 
4096875000  -3.591756e+001  -1.632951e+002 
4100000000  -3.672334e+001  -1.697847e+002 
4103125000  -3.760316e+001  -1.702495e+002 
4106250000  -3.739567e+001  -1.654277e+002 
4109375000  -3.643504e+001  -1.675270e+002 
4112500000  -3.594521e+001  -1.763373e+002 
4115625000  -3.616385e+001  1.790436e+002 
4118750000  -3.664677e+001  1.736340e+002 
4121875000  -3.613691e+001  1.690962e+002 
4125000000  -3.665872e+001  1.622554e+002 
4128125000  -3.764653e+001  1.622587e+002 
4131250000  -3.743231e+001  1.696162e+002 
4134375000  -3.495163e+001  1.620430e+002 
4137500000  -3.504757e+001  1.429356e+002 
4140625000  -3.739702e+001  1.353228e+002 
4143750000  -3.875282e+001  1.397415e+002 
4146875000  -3.843876e+001  1.446577e+002 
4150000000  -3.745589e+001  1.418748e+002 
4153125000  -3.755780e+001  1.334581e+002 
4156250000  -3.867145e+001  1.322540e+002 
4159375000  -3.903925e+001  1.350298e+002 
4162500000  -3.767085e+001  1.408468e+002 
4165625000  -3.682045e+001  1.363618e+002 
4168750000  -3.620350e+001  1.306230e+002 
4171875000  -3.638768e+001  1.191370e+002 
4175000000  -3.698155e+001  1.138728e+002 
4178125000  -3.759682e+001  1.150308e+002 
4181250000  -3.725742e+001  1.126215e+002 
4184375000  -3.683822e+001  1.113736e+002 
4187500000  -3.701735e+001  1.062178e+002 
4190625000  -3.700967e+001  1.017411e+002 
4193750000  -3.748498e+001  9.722762e+001 
4196875000  -3.840603e+001  9.557658e+001 
4200000000  -3.930569e+001  9.891682e+001 
4203125000  -3.873520e+001  1.133736e+002 
4206250000  -3.510004e+001  1.109497e+002 
4209375000  -3.431658e+001  8.926539e+001 
4212500000  -3.623078e+001  8.022980e+001 
4215625000  -3.703953e+001  8.743485e+001 
4218750000  -3.568979e+001  9.169611e+001 
4221875000  -3.313427e+001  8.252927e+001 
4225000000  -3.453043e+001  6.985886e+001 
4228125000  -3.504269e+001  7.265678e+001 
4231250000  -3.326476e+001  6.731709e+001 
4234375000  -3.323918e+001  5.763472e+001 
4237500000  -3.274404e+001  5.287579e+001 
4240625000  -3.272300e+001  4.250431e+001 
4243750000  -3.365243e+001  3.492723e+001 
4246875000  -3.472146e+001  3.394685e+001 
4250000000  -3.456501e+001  3.497594e+001 
4253125000  -3.412645e+001  3.162977e+001 
4256250000  -3.435071e+001  2.637336e+001 
4259375000  -3.409427e+001  2.253630e+001 
4262500000  -3.434421e+001  1.832009e+001 
4265625000  -3.449124e+001  1.722370e+001 
4268750000  -3.373726e+001  1.222351e+001 
4271875000  -3.358684e+001  4.671396e+000 
4275000000  -3.313285e+001  -3.169956e+000 
4278125000  -3.378340e+001  -1.496010e+001 
4281250000  -3.582015e+001  -1.683922e+001 
4284375000  -3.557253e+001  -1.882203e+001 
4287500000  -3.668559e+001  -2.281463e+001 
4290625000  -3.796459e+001  -1.230298e+001 
4293750000  -3.610468e+001  -9.572956e+000 
4296875000  -3.498185e+001  -1.932461e+001 
4300000000  -3.585158e+001  -2.988424e+001 
4303125000  -3.736967e+001  -2.736889e+001 
4306250000  -3.666578e+001  -2.155014e+001 
4309375000  -3.519250e+001  -2.339649e+001 
4312500000  -3.508094e+001  -3.148339e+001 
4315625000  -3.555730e+001  -3.751171e+001 
4318750000  -3.580641e+001  -4.088604e+001 
4321875000  -3.571747e+001  -3.882425e+001 
4325000000  -3.522213e+001  -3.881914e+001 
4328125000  -3.448046e+001  -4.485973e+001 
4331250000  -3.430576e+001  -5.302792e+001 
4334375000  -3.484710e+001  -5.811814e+001 
4337500000  -3.548444e+001  -5.957176e+001 
4340625000  -3.599622e+001  -5.678138e+001 
4343750000  -3.501852e+001  -5.753090e+001 
4346875000  -3.471007e+001  -6.374725e+001 
4350000000  -3.444761e+001  -6.869565e+001 
4353125000  -3.431985e+001  -7.774450e+001 
4356250000  -3.610004e+001  -7.873249e+001 
4359375000  -3.637605e+001  -6.489027e+001 
4362500000  -3.329401e+001  -6.607652e+001 
4365625000  -3.186740e+001  -8.118603e+001 
4368750000  -3.257437e+001  -9.217835e+001 
4371875000  -3.330457e+001  -9.300600e+001 
4375000000  -3.297628e+001  -9.448789e+001 
4378125000  -3.233516e+001  -1.013409e+002 
4381250000  -3.247488e+001  -1.080040e+002 
4384375000  -3.229545e+001  -1.147070e+002 
4387500000  -3.299610e+001  -1.217980e+002 
4390625000  -3.401368e+001  -1.221290e+002 
4393750000  -3.331009e+001  -1.213356e+002 
4396875000  -3.279084e+001  -1.255993e+002 
4400000000  -3.227325e+001  -1.348932e+002 
4403125000  -3.297110e+001  -1.431632e+002 
4406250000  -3.380564e+001  -1.465827e+002 
4409375000  -3.381313e+001  -1.503569e+002 
4412500000  -3.505396e+001  -1.540877e+002 
4415625000  -3.541008e+001  -1.492551e+002 
