!Agilent Technologies,E8363B,MY43030201,A.06.04.32
!Agilent E8363B: A.06.04.32
!Date: Tuesday, November 11, 2014 21:06:17
!Correction: S21(Response(S21)) 
!S1P File: Measurement: S21:
# Hz S  dB   R 50
3000000000  -3.648038e+001  -5.004394e+001 
3003125000  -3.750205e+001  -5.562729e+001 
3006250000  -3.748084e+001  -5.793638e+001 
3009375000  -3.775526e+001  -5.370993e+001 
3012500000  -3.700838e+001  -5.568505e+001 
3015625000  -3.615218e+001  -6.331705e+001 
3018750000  -3.685406e+001  -6.338987e+001 
3021875000  -3.538563e+001  -6.347708e+001 
3025000000  -3.410360e+001  -6.644891e+001 
3028125000  -3.313715e+001  -7.269611e+001 
3031250000  -3.215358e+001  -8.502250e+001 
3034375000  -3.176552e+001  -9.837060e+001 
3037500000  -3.224524e+001  -1.102856e+002 
3040625000  -3.356657e+001  -1.149504e+002 
3043750000  -3.426016e+001  -1.194404e+002 
3046875000  -3.441474e+001  -1.259644e+002 
3050000000  -3.613511e+001  -1.321971e+002 
3053125000  -3.613547e+001  -1.261027e+002 
3056250000  -3.554731e+001  -1.236010e+002 
3059375000  -3.571933e+001  -1.242619e+002 
3062500000  -3.415208e+001  -1.263436e+002 
3065625000  -3.397508e+001  -1.334054e+002 
3068750000  -3.367507e+001  -1.396924e+002 
3071875000  -3.342743e+001  -1.430448e+002 
3075000000  -3.339672e+001  -1.472653e+002 
3078125000  -3.311110e+001  -1.506734e+002 
3081250000  -3.356666e+001  -1.552850e+002 
3084375000  -3.263893e+001  -1.589379e+002 
3087500000  -3.240490e+001  -1.621379e+002 
3090625000  -3.194174e+001  -1.726548e+002 
3093750000  -3.244973e+001  1.799225e+002 
3096875000  -3.348956e+001  1.738368e+002 
3100000000  -3.341531e+001  1.721173e+002 
3103125000  -3.362586e+001  1.726574e+002 
3106250000  -3.307868e+001  1.688151e+002 
3109375000  -3.325335e+001  1.646894e+002 
3112500000  -3.320071e+001  1.621154e+002 
3115625000  -3.284322e+001  1.573660e+002 
3118750000  -3.320056e+001  1.575275e+002 
3121875000  -3.226471e+001  1.481933e+002 
3125000000  -3.347190e+001  1.439252e+002 
3128125000  -3.454943e+001  1.513196e+002 
3131250000  -3.206185e+001  1.497317e+002 
3134375000  -3.069520e+001  1.342319e+002 
3137500000  -3.138833e+001  1.199785e+002 
3140625000  -3.281437e+001  1.170950e+002 
3143750000  -3.382076e+001  1.189518e+002 
3146875000  -3.331725e+001  1.205158e+002 
3150000000  -3.232227e+001  1.200203e+002 
3153125000  -3.230288e+001  1.109155e+002 
3156250000  -3.335071e+001  1.148438e+002 
3159375000  -3.156722e+001  1.167498e+002 
3162500000  -2.969165e+001  1.019787e+002 
3165625000  -3.068973e+001  9.006448e+001 
3168750000  -3.109293e+001  9.008615e+001 
3171875000  -3.017265e+001  8.484213e+001 
3175000000  -3.096102e+001  7.590607e+001 
3178125000  -3.065575e+001  7.665897e+001 
3181250000  -2.957177e+001  7.114799e+001 
3184375000  -2.890927e+001  5.821838e+001 
3187500000  -3.011055e+001  4.289307e+001 
3190625000  -3.282960e+001  3.467707e+001 
3193750000  -3.341822e+001  4.361297e+001 
3196875000  -3.301164e+001  4.834004e+001 
3200000000  -3.207243e+001  4.573247e+001 
3203125000  -3.122582e+001  3.928392e+001 
3206250000  -3.162379e+001  3.280606e+001 
3209375000  -3.123161e+001  2.670926e+001 
3212500000  -3.133331e+001  1.982342e+001 
3215625000  -3.147178e+001  1.575396e+001 
3218750000  -3.224749e+001  8.724285e+000 
3221875000  -3.310366e+001  3.293366e+000 
3225000000  -3.269463e+001  1.887445e+000 
3228125000  -3.305989e+001  -3.343304e+000 
3231250000  -3.373201e+001  -5.577033e+000 
3234375000  -3.341188e+001  -5.684496e+000 
3237500000  -3.337057e+001  -7.361323e+000 
3240625000  -3.295763e+001  -1.031379e+001 
3243750000  -3.261584e+001  -1.792241e+001 
3246875000  -3.304965e+001  -2.504818e+001 
3250000000  -3.335688e+001  -2.725177e+001 
3253125000  -3.349152e+001  -2.941665e+001 
3256250000  -3.308317e+001  -3.595397e+001 
3259375000  -3.341944e+001  -4.496873e+001 
3262500000  -3.464959e+001  -4.871997e+001 
3265625000  -3.533804e+001  -4.536502e+001 
3268750000  -3.515274e+001  -4.377631e+001 
3271875000  -3.472660e+001  -4.375384e+001 
3275000000  -3.381799e+001  -4.993469e+001 
3278125000  -3.413805e+001  -5.734524e+001 
3281250000  -3.439465e+001  -5.594990e+001 
3284375000  -3.382221e+001  -6.249484e+001 
3287500000  -3.407476e+001  -6.622654e+001 
3290625000  -3.427978e+001  -7.217683e+001 
3293750000  -3.405129e+001  -7.864056e+001 
3296875000  -3.510046e+001  -7.901434e+001 
3300000000  -3.495405e+001  -7.877703e+001 
3303125000  -3.373950e+001  -8.384116e+001 
3306250000  -3.350689e+001  -9.127588e+001 
3309375000  -3.327809e+001  -9.784708e+001 
3312500000  -3.330448e+001  -1.075365e+002 
3315625000  -3.435775e+001  -1.173969e+002 
3318750000  -3.568390e+001  -1.192326e+002 
3321875000  -3.692172e+001  -1.191022e+002 
3325000000  -3.746753e+001  -1.140457e+002 
3328125000  -3.689095e+001  -1.145738e+002 
3331250000  -3.568001e+001  -1.076579e+002 
3334375000  -3.295249e+001  -1.168608e+002 
3337500000  -3.314190e+001  -1.367418e+002 
3340625000  -3.451859e+001  -1.475598e+002 
3343750000  -3.634970e+001  -1.493863e+002 
3346875000  -3.678199e+001  -1.471728e+002 
3350000000  -3.600546e+001  -1.485920e+002 
3353125000  -3.619687e+001  -1.540193e+002 
3356250000  -3.548071e+001  -1.622587e+002 
3359375000  -3.633872e+001  -1.705273e+002 
3362500000  -3.745876e+001  -1.766236e+002 
3365625000  -3.803271e+001  -1.771386e+002 
3368750000  -3.877594e+001  -1.798800e+002 
3371875000  -3.912862e+001  1.772528e+002 
3375000000  -4.047848e+001  1.741436e+002 
3378125000  -4.111015e+001  1.755099e+002 
3381250000  -4.214352e+001  -1.756316e+002 
3384375000  -4.116405e+001  -1.552323e+002 
3387500000  -3.764139e+001  -1.702779e+002 
3390625000  -3.928251e+001  1.691622e+002 
3393750000  -4.048353e+001  1.728103e+002 
3396875000  -3.923115e+001  1.738730e+002 
3400000000  -3.869463e+001  1.650605e+002 
3403125000  -3.929782e+001  1.603579e+002 
3406250000  -3.967320e+001  1.597253e+002 
3409375000  -3.993048e+001  1.519764e+002 
3412500000  -4.025788e+001  1.504893e+002 
3415625000  -4.094037e+001  1.508939e+002 
3418750000  -4.120847e+001  1.525124e+002 
3421875000  -4.126175e+001  1.549494e+002 
3425000000  -4.020497e+001  1.549429e+002 
3428125000  -3.937219e+001  1.513978e+002 
3431250000  -3.926438e+001  1.444762e+002 
3434375000  -3.908146e+001  1.394933e+002 
3437500000  -3.981316e+001  1.336399e+002 
3440625000  -4.005103e+001  1.356680e+002 
3443750000  -3.883716e+001  1.366581e+002 
3446875000  -3.801580e+001  1.288044e+002 
3450000000  -3.755920e+001  1.173195e+002 
3453125000  -3.806120e+001  1.093684e+002 
3456250000  -3.911298e+001  1.015983e+002 
3459375000  -4.013012e+001  1.033693e+002 
3462500000  -4.005105e+001  1.030063e+002 
3465625000  -3.984739e+001  9.722769e+001 
3468750000  -4.020024e+001  9.391936e+001 
3471875000  -4.014900e+001  9.122874e+001 
3475000000  -3.976113e+001  8.901921e+001 
3478125000  -4.051201e+001  8.079423e+001 
3481250000  -4.125892e+001  7.706487e+001 
3484375000  -4.229955e+001  8.174464e+001 
3487500000  -4.154517e+001  7.991238e+001 
3490625000  -4.089439e+001  7.534997e+001 
3493750000  -4.139733e+001  6.939201e+001 
3496875000  -4.204745e+001  6.705151e+001 
3500000000  -4.245461e+001  7.058823e+001 
3503125000  -4.210348e+001  7.133920e+001 
3506250000  -4.070350e+001  6.717407e+001 
3509375000  -4.051263e+001  5.681010e+001 
3512500000  -4.132517e+001  4.893250e+001 
3515625000  -4.195864e+001  4.647965e+001 
3518750000  -4.243233e+001  4.861251e+001 
3521875000  -4.253700e+001  4.637953e+001 
3525000000  -4.326221e+001  4.474179e+001 
3528125000  -4.337902e+001  5.144808e+001 
3531250000  -4.219725e+001  4.651823e+001 
3534375000  -4.199066e+001  3.842182e+001 
3537500000  -4.234550e+001  3.316791e+001 
3540625000  -4.350883e+001  3.216667e+001 
3543750000  -4.397034e+001  3.303109e+001 
3546875000  -4.399612e+001  4.717237e+001 
3550000000  -4.165161e+001  4.717764e+001 
3553125000  -3.996964e+001  3.077348e+001 
3556250000  -4.161388e+001  2.191891e+001 
3559375000  -4.139154e+001  2.397789e+001 
3562500000  -4.026993e+001  1.583402e+001 
3565625000  -4.095052e+001  8.278131e+000 
3568750000  -4.121316e+001  1.142524e+001 
3571875000  -4.106723e+001  9.543325e+000 
3575000000  -4.058584e+001  1.743800e+000 
3578125000  -4.117496e+001  -2.713744e+000 
3581250000  -4.124812e+001  -4.243546e+000 
3584375000  -4.057162e+001  -6.835416e+000 
3587500000  -4.010441e+001  -1.539625e+001 
3590625000  -4.054149e+001  -2.570474e+001 
3593750000  -4.168611e+001  -2.932097e+001 
3596875000  -4.195478e+001  -2.146854e+001 
3600000000  -4.032405e+001  -2.786582e+001 
3603125000  -4.065290e+001  -4.234492e+001 
3606250000  -4.170230e+001  -4.727535e+001 
3609375000  -4.210117e+001  -4.973967e+001 
3612500000  -4.258680e+001  -5.373114e+001 
3615625000  -4.304336e+001  -5.558135e+001 
3618750000  -4.367409e+001  -5.561679e+001 
3621875000  -4.378306e+001  -5.885557e+001 
3625000000  -4.440759e+001  -6.016066e+001 
3628125000  -4.473087e+001  -6.114944e+001 
3631250000  -4.430508e+001  -6.811264e+001 
3634375000  -4.603640e+001  -6.804877e+001 
3637500000  -4.578603e+001  -5.965203e+001 
3640625000  -4.504783e+001  -5.689842e+001 
3643750000  -4.482840e+001  -6.489265e+001 
3646875000  -4.455857e+001  -6.871365e+001 
3650000000  -4.580717e+001  -6.862628e+001 
3653125000  -4.541096e+001  -6.751067e+001 
3656250000  -4.579454e+001  -6.913512e+001 
3659375000  -4.565239e+001  -6.911092e+001 
3662500000  -4.475520e+001  -6.798397e+001 
3665625000  -4.437484e+001  -6.771191e+001 
3668750000  -4.341007e+001  -6.842234e+001 
3671875000  -4.258786e+001  -7.541312e+001 
3675000000  -4.275447e+001  -8.349284e+001 
3678125000  -4.293627e+001  -8.454787e+001 
3681250000  -4.308946e+001  -8.602170e+001 
3684375000  -4.262119e+001  -9.120329e+001 
3687500000  -4.292941e+001  -9.649088e+001 
3690625000  -4.293076e+001  -9.989185e+001 
3693750000  -4.377515e+001  -1.014625e+002 
3696875000  -4.350131e+001  -9.972096e+001 
3700000000  -4.294209e+001  -1.038309e+002 
3703125000  -4.283437e+001  -1.117207e+002 
3706250000  -4.362625e+001  -1.105839e+002 
3709375000  -4.338285e+001  -1.101053e+002 
3712500000  -4.231347e+001  -1.144794e+002 
3715625000  -4.162011e+001  -1.196165e+002 
3718750000  -4.143276e+001  -1.247902e+002 
3721875000  -4.128945e+001  -1.306212e+002 
3725000000  -4.153712e+001  -1.385390e+002 
3728125000  -4.207981e+001  -1.398570e+002 
3731250000  -4.158017e+001  -1.418159e+002 
3734375000  -4.121774e+001  -1.490767e+002 
3737500000  -4.231923e+001  -1.539588e+002 
3740625000  -4.359641e+001  -1.577377e+002 
3743750000  -4.329116e+001  -1.609421e+002 
3746875000  -4.375755e+001  -1.641155e+002 
3750000000  -4.438124e+001  -1.672217e+002 
3753125000  -4.409782e+001  -1.645079e+002 
3756250000  -4.492761e+001  -1.608516e+002 
3759375000  -4.486678e+001  -1.633192e+002 
3762500000  -4.416006e+001  -1.667868e+002 
3765625000  -4.488011e+001  -1.645068e+002 
3768750000  -4.496476e+001  -1.611960e+002 
3771875000  -4.338067e+001  -1.633422e+002 
3775000000  -4.315970e+001  -1.694044e+002 
3778125000  -4.351193e+001  -1.714765e+002 
3781250000  -4.294319e+001  -1.727089e+002 
3784375000  -4.303380e+001  -1.721960e+002 
3787500000  -4.180611e+001  -1.774097e+002 
3790625000  -4.231071e+001  1.773331e+002 
3793750000  -4.223292e+001  1.777322e+002 
3796875000  -4.157485e+001  1.748490e+002 
3800000000  -3.957373e+001  1.718775e+002 
3803125000  -4.041550e+001  1.620906e+002 
3806250000  -4.089975e+001  1.605139e+002 
3809375000  -4.033677e+001  1.583955e+002 
3812500000  -3.969602e+001  1.504786e+002 
3815625000  -4.036322e+001  1.397185e+002 
3818750000  -4.096183e+001  1.396389e+002 
3821875000  -4.115759e+001  1.473609e+002 
3825000000  -3.951991e+001  1.500952e+002 
3828125000  -3.802067e+001  1.337470e+002 
3831250000  -3.860825e+001  1.193329e+002 
3834375000  -4.019796e+001  1.182772e+002 
3837500000  -4.095816e+001  1.216097e+002 
3840625000  -3.985929e+001  1.216909e+002 
3843750000  -3.896260e+001  1.081978e+002 
3846875000  -3.974861e+001  1.016376e+002 
3850000000  -4.094415e+001  1.069844e+002 
3853125000  -4.004023e+001  1.078283e+002 
3856250000  -4.024630e+001  9.935518e+001 
3859375000  -3.954455e+001  9.458043e+001 
3862500000  -3.927355e+001  8.756122e+001 
3865625000  -3.995665e+001  8.192983e+001 
3868750000  -3.971493e+001  8.189281e+001 
3871875000  -3.908016e+001  7.824168e+001 
3875000000  -3.942529e+001  6.865801e+001 
3878125000  -4.073603e+001  6.738495e+001 
3881250000  -4.052667e+001  6.927209e+001 
3884375000  -4.012175e+001  6.528635e+001 
3887500000  -4.060472e+001  5.990125e+001 
3890625000  -4.086287e+001  5.852129e+001 
3893750000  -4.129721e+001  5.547961e+001 
3896875000  -4.130440e+001  5.871419e+001 
3900000000  -4.156695e+001  5.461219e+001 
3903125000  -4.136776e+001  5.450036e+001 
3906250000  -4.098296e+001  5.227432e+001 
3909375000  -4.042908e+001  4.841286e+001 
3912500000  -4.020252e+001  4.051063e+001 
3915625000  -4.140598e+001  4.192072e+001 
3918750000  -4.125677e+001  4.345827e+001 
3921875000  -4.062856e+001  3.840038e+001 
3925000000  -3.984036e+001  3.734705e+001 
3928125000  -3.912677e+001  3.000186e+001 
3931250000  -3.941254e+001  2.537451e+001 
3934375000  -3.976804e+001  2.406065e+001 
3937500000  -4.005752e+001  2.326991e+001 
3940625000  -4.045922e+001  2.089656e+001 
3943750000  -3.946941e+001  2.160510e+001 
3946875000  -3.818189e+001  1.336781e+001 
3950000000  -3.899413e+001  5.442503e+000 
3953125000  -3.986628e+001  2.516689e+000 
3956250000  -3.889931e+001  6.477155e+000 
3959375000  -3.751719e+001  1.882197e+000 
3962500000  -3.708347e+001  -2.421340e+000 
3965625000  -3.693801e+001  -1.398709e+001 
3968750000  -3.789068e+001  -1.989124e+001 
3971875000  -3.820940e+001  -2.363759e+001 
3975000000  -3.764631e+001  -2.505344e+001 
3978125000  -3.769003e+001  -2.796789e+001 
3981250000  -3.766838e+001  -3.506202e+001 
3984375000  -3.792012e+001  -4.018066e+001 
3987500000  -3.832996e+001  -4.365067e+001 
3990625000  -3.853876e+001  -4.436241e+001 
3993750000  -3.887127e+001  -4.994715e+001 
3996875000  -3.889093e+001  -5.453100e+001 
4000000000  -3.921107e+001  -5.466996e+001 
4003125000  -3.967562e+001  -5.276901e+001 
4006250000  -3.827562e+001  -5.461895e+001 
4009375000  -3.739641e+001  -6.759511e+001 
4012500000  -3.861610e+001  -7.422703e+001 
4015625000  -3.999377e+001  -7.292558e+001 
4018750000  -4.023392e+001  -7.148077e+001 
4021875000  -3.949580e+001  -7.490536e+001 
4025000000  -3.915255e+001  -7.797744e+001 
4028125000  -3.888053e+001  -8.271398e+001 
4031250000  -3.950746e+001  -8.598483e+001 
4034375000  -3.995641e+001  -8.563573e+001 
4037500000  -3.927765e+001  -8.572411e+001 
4040625000  -3.938617e+001  -8.827792e+001 
4043750000  -3.956900e+001  -8.999450e+001 
4046875000  -3.924921e+001  -9.038023e+001 
4050000000  -3.847871e+001  -9.770754e+001 
4053125000  -3.880212e+001  -9.866096e+001 
4056250000  -3.942322e+001  -9.486990e+001 
4059375000  -3.829491e+001  -9.482370e+001 
4062500000  -3.665878e+001  -1.003670e+002 
4065625000  -3.695937e+001  -1.050029e+002 
4068750000  -3.627827e+001  -1.111450e+002 
4071875000  -3.568432e+001  -1.200335e+002 
4075000000  -3.604920e+001  -1.274024e+002 
4078125000  -3.659776e+001  -1.286368e+002 
4081250000  -3.594481e+001  -1.315481e+002 
4084375000  -3.551375e+001  -1.401697e+002 
4087500000  -3.596146e+001  -1.481566e+002 
4090625000  -3.673342e+001  -1.488696e+002 
4093750000  -3.653268e+001  -1.498136e+002 
4096875000  -3.597031e+001  -1.569556e+002 
4100000000  -3.685711e+001  -1.646317e+002 
4103125000  -3.755684e+001  -1.638097e+002 
4106250000  -3.744275e+001  -1.616330e+002 
4109375000  -3.659041e+001  -1.618041e+002 
4112500000  -3.609270e+001  -1.710273e+002 
4115625000  -3.653595e+001  -1.763132e+002 
4118750000  -3.663533e+001  -1.793100e+002 
4121875000  -3.627698e+001  1.740687e+002 
4125000000  -3.667345e+001  1.677463e+002 
4128125000  -3.782687e+001  1.677695e+002 
4131250000  -3.766368e+001  1.755524e+002 
4134375000  -3.527154e+001  1.689548e+002 
4137500000  -3.512643e+001  1.491721e+002 
4140625000  -3.738704e+001  1.419220e+002 
4143750000  -3.875175e+001  1.463592e+002 
4146875000  -3.845269e+001  1.535790e+002 
4150000000  -3.765816e+001  1.478806e+002 
4153125000  -3.779048e+001  1.421801e+002 
4156250000  -3.881933e+001  1.393928e+002 
4159375000  -3.872982e+001  1.427878e+002 
4162500000  -3.780707e+001  1.480100e+002 
4165625000  -3.661267e+001  1.419569e+002 
4168750000  -3.626542e+001  1.350080e+002 
4171875000  -3.615172e+001  1.250326e+002 
4175000000  -3.699384e+001  1.207369e+002 
4178125000  -3.731873e+001  1.203916e+002 
4181250000  -3.718824e+001  1.200015e+002 
4184375000  -3.683633e+001  1.160118e+002 
4187500000  -3.684204e+001  1.117419e+002 
4190625000  -3.679531e+001  1.070462e+002 
4193750000  -3.751553e+001  1.018392e+002 
4196875000  -3.819633e+001  1.012346e+002 
4200000000  -3.925903e+001  1.038260e+002 
4203125000  -3.871972e+001  1.171649e+002 
4206250000  -3.518212e+001  1.163000e+002 
4209375000  -3.421545e+001  9.463159e+001 
4212500000  -3.621769e+001  8.513187e+001 
4215625000  -3.699127e+001  9.097379e+001 
4218750000  -3.561443e+001  9.691565e+001 
4221875000  -3.322736e+001  8.669140e+001 
4225000000  -3.453663e+001  7.466935e+001 
4228125000  -3.504973e+001  7.723161e+001 
4231250000  -3.349256e+001  7.281023e+001 
4234375000  -3.330740e+001  6.368474e+001 
4237500000  -3.301701e+001  5.842735e+001 
4240625000  -3.293545e+001  4.773277e+001 
4243750000  -3.393019e+001  4.005490e+001 
4246875000  -3.494347e+001  3.903632e+001 
4250000000  -3.486310e+001  4.103955e+001 
4253125000  -3.428614e+001  3.734322e+001 
4256250000  -3.470465e+001  3.234669e+001 
4259375000  -3.447348e+001  3.019587e+001 
4262500000  -3.468438e+001  2.342379e+001 
4265625000  -3.477264e+001  2.383537e+001 
4268750000  -3.376669e+001  1.781483e+001 
4271875000  -3.369812e+001  1.079366e+001 
4275000000  -3.327690e+001  2.023549e+000 
4278125000  -3.417539e+001  -9.308875e+000 
4281250000  -3.595377e+001  -1.034090e+001 
4284375000  -3.582887e+001  -1.041379e+001 
4287500000  -3.691668e+001  -1.531277e+001 
4290625000  -3.809503e+001  -6.322799e+000 
4293750000  -3.617896e+001  2.110482e-001 
4296875000  -3.498988e+001  -1.166056e+001 
4300000000  -3.603595e+001  -2.120064e+001 
4303125000  -3.705363e+001  -1.912148e+001 
4306250000  -3.674631e+001  -1.300339e+001 
4309375000  -3.527445e+001  -1.706410e+001 
4312500000  -3.501448e+001  -2.363931e+001 
4315625000  -3.528247e+001  -2.947535e+001 
4318750000  -3.549644e+001  -3.315613e+001 
4321875000  -3.556988e+001  -3.227379e+001 
4325000000  -3.507612e+001  -3.284969e+001 
4328125000  -3.439694e+001  -3.931936e+001 
4331250000  -3.425988e+001  -4.854385e+001 
4334375000  -3.467855e+001  -5.258707e+001 
4337500000  -3.543437e+001  -5.522861e+001 
4340625000  -3.582581e+001  -5.188543e+001 
4343750000  -3.490978e+001  -5.261673e+001 
4346875000  -3.465026e+001  -5.805793e+001 
4350000000  -3.454976e+001  -6.531145e+001 
4353125000  -3.459676e+001  -7.366480e+001 
4356250000  -3.608632e+001  -7.435857e+001 
4359375000  -3.658487e+001  -6.096862e+001 
4362500000  -3.357671e+001  -6.195064e+001 
4365625000  -3.205783e+001  -7.469791e+001 
4368750000  -3.275502e+001  -8.790658e+001 
4371875000  -3.385426e+001  -8.922543e+001 
4375000000  -3.336816e+001  -8.877645e+001 
4378125000  -3.280389e+001  -9.607766e+001 
4381250000  -3.285643e+001  -1.034317e+002 
4384375000  -3.265826e+001  -1.094709e+002 
4387500000  -3.345288e+001  -1.173197e+002 
4390625000  -3.439550e+001  -1.169086e+002 
4393750000  -3.378335e+001  -1.157857e+002 
4396875000  -3.306863e+001  -1.199466e+002 
4400000000  -3.264742e+001  -1.286384e+002 
4403125000  -3.339121e+001  -1.380682e+002 
4406250000  -3.417737e+001  -1.401959e+002 
4409375000  -3.436963e+001  -1.434699e+002 
4412500000  -3.558123e+001  -1.474908e+002 
4415625000  -3.588586e+001  -1.428284e+002 
