!Agilent Technologies,E8363B,MY43030201,A.06.04.32
!Agilent E8363B: A.06.04.32
!Date: Tuesday, November 11, 2014 21:05:43
!Correction: S21(Response(S21)) 
!S1P File: Measurement: S21:
# Hz S  dB   R 50
3000000000  -3.644090e+001  -4.881991e+001 
3003125000  -3.758970e+001  -5.464756e+001 
3006250000  -3.735707e+001  -5.729041e+001 
3009375000  -3.769159e+001  -5.242319e+001 
3012500000  -3.706462e+001  -5.535343e+001 
3015625000  -3.602172e+001  -6.228855e+001 
3018750000  -3.687215e+001  -6.327948e+001 
3021875000  -3.536826e+001  -6.226517e+001 
3025000000  -3.413232e+001  -6.622023e+001 
3028125000  -3.317239e+001  -7.221914e+001 
3031250000  -3.219057e+001  -8.385564e+001 
3034375000  -3.179130e+001  -9.755482e+001 
3037500000  -3.225983e+001  -1.093669e+002 
3040625000  -3.357211e+001  -1.142151e+002 
3043750000  -3.426978e+001  -1.193449e+002 
3046875000  -3.436513e+001  -1.254012e+002 
3050000000  -3.607446e+001  -1.312000e+002 
3053125000  -3.616755e+001  -1.252883e+002 
3056250000  -3.560929e+001  -1.231481e+002 
3059375000  -3.568553e+001  -1.236745e+002 
3062500000  -3.410375e+001  -1.266651e+002 
3065625000  -3.393338e+001  -1.322811e+002 
3068750000  -3.360162e+001  -1.393337e+002 
3071875000  -3.353525e+001  -1.412406e+002 
3075000000  -3.329632e+001  -1.453501e+002 
3078125000  -3.308151e+001  -1.501680e+002 
3081250000  -3.350495e+001  -1.545364e+002 
3084375000  -3.258379e+001  -1.577202e+002 
3087500000  -3.247142e+001  -1.619464e+002 
3090625000  -3.198245e+001  -1.720608e+002 
3093750000  -3.243238e+001  -1.791654e+002 
3096875000  -3.347057e+001  1.750872e+002 
3100000000  -3.339244e+001  1.728881e+002 
3103125000  -3.363183e+001  1.734227e+002 
3106250000  -3.319826e+001  1.696610e+002 
3109375000  -3.322820e+001  1.650641e+002 
3112500000  -3.321176e+001  1.634133e+002 
3115625000  -3.287217e+001  1.582531e+002 
3118750000  -3.319901e+001  1.584783e+002 
3121875000  -3.231696e+001  1.491960e+002 
3125000000  -3.350586e+001  1.449776e+002 
3128125000  -3.444484e+001  1.517636e+002 
3131250000  -3.212317e+001  1.506349e+002 
3134375000  -3.072857e+001  1.348857e+002 
3137500000  -3.130990e+001  1.204138e+002 
3140625000  -3.283039e+001  1.175439e+002 
3143750000  -3.385812e+001  1.199086e+002 
3146875000  -3.336143e+001  1.206681e+002 
3150000000  -3.234751e+001  1.209593e+002 
3153125000  -3.231174e+001  1.111195e+002 
3156250000  -3.332621e+001  1.163368e+002 
3159375000  -3.166193e+001  1.175063e+002 
3162500000  -2.974361e+001  1.024929e+002 
3165625000  -3.073245e+001  9.086799e+001 
3168750000  -3.107428e+001  9.095445e+001 
3171875000  -3.015511e+001  8.528516e+001 
3175000000  -3.089051e+001  7.620220e+001 
3178125000  -3.068554e+001  7.731760e+001 
3181250000  -2.957597e+001  7.183305e+001 
3184375000  -2.886101e+001  5.928081e+001 
3187500000  -3.005691e+001  4.295261e+001 
3190625000  -3.274677e+001  3.567512e+001 
3193750000  -3.334983e+001  4.419550e+001 
3196875000  -3.299118e+001  4.911555e+001 
3200000000  -3.210195e+001  4.640959e+001 
3203125000  -3.126054e+001  3.980398e+001 
3206250000  -3.155396e+001  3.330372e+001 
3209375000  -3.110406e+001  2.764564e+001 
3212500000  -3.134055e+001  2.028534e+001 
3215625000  -3.139148e+001  1.696343e+001 
3218750000  -3.221588e+001  9.791159e+000 
3221875000  -3.298890e+001  4.030365e+000 
3225000000  -3.264780e+001  2.934515e+000 
3228125000  -3.305289e+001  -2.210160e+000 
3231250000  -3.366743e+001  -5.161546e+000 
3234375000  -3.340020e+001  -4.738824e+000 
3237500000  -3.333790e+001  -7.087737e+000 
3240625000  -3.303999e+001  -9.498734e+000 
3243750000  -3.258991e+001  -1.694150e+001 
3246875000  -3.296216e+001  -2.424817e+001 
3250000000  -3.340356e+001  -2.654162e+001 
3253125000  -3.343626e+001  -2.813321e+001 
3256250000  -3.331736e+001  -3.529441e+001 
3259375000  -3.338000e+001  -4.451473e+001 
3262500000  -3.465653e+001  -4.781083e+001 
3265625000  -3.522890e+001  -4.461207e+001 
3268750000  -3.510619e+001  -4.260880e+001 
3271875000  -3.475217e+001  -4.332742e+001 
3275000000  -3.367036e+001  -4.962645e+001 
3278125000  -3.428941e+001  -5.618605e+001 
3281250000  -3.439427e+001  -5.594790e+001 
3284375000  -3.393417e+001  -6.251940e+001 
3287500000  -3.404171e+001  -6.585342e+001 
3290625000  -3.431678e+001  -7.157887e+001 
3293750000  -3.405177e+001  -7.795995e+001 
3296875000  -3.518267e+001  -7.807236e+001 
3300000000  -3.498837e+001  -7.810869e+001 
3303125000  -3.372478e+001  -8.291085e+001 
3306250000  -3.356688e+001  -9.007162e+001 
3309375000  -3.321768e+001  -9.625841e+001 
3312500000  -3.336053e+001  -1.072815e+002 
3315625000  -3.431608e+001  -1.158552e+002 
3318750000  -3.574073e+001  -1.186828e+002 
3321875000  -3.675500e+001  -1.192166e+002 
3325000000  -3.729103e+001  -1.140669e+002 
3328125000  -3.698069e+001  -1.126669e+002 
3331250000  -3.565665e+001  -1.065461e+002 
3334375000  -3.291756e+001  -1.169163e+002 
3337500000  -3.320354e+001  -1.362321e+002 
3340625000  -3.454397e+001  -1.470056e+002 
3343750000  -3.653767e+001  -1.490762e+002 
3346875000  -3.676509e+001  -1.467720e+002 
3350000000  -3.602027e+001  -1.486461e+002 
3353125000  -3.605628e+001  -1.533874e+002 
3356250000  -3.559466e+001  -1.613651e+002 
3359375000  -3.635644e+001  -1.692791e+002 
3362500000  -3.734369e+001  -1.746434e+002 
3365625000  -3.786295e+001  -1.760196e+002 
3368750000  -3.885184e+001  -1.789157e+002 
3371875000  -3.889303e+001  1.782763e+002 
3375000000  -4.045879e+001  1.760548e+002 
3378125000  -4.133831e+001  1.755815e+002 
3381250000  -4.243027e+001  -1.740859e+002 
3384375000  -4.121482e+001  -1.552563e+002 
3387500000  -3.745354e+001  -1.719518e+002 
3390625000  -3.925212e+001  1.685580e+002 
3393750000  -4.060861e+001  1.732160e+002 
3396875000  -3.920756e+001  1.762976e+002 
3400000000  -3.857803e+001  1.673799e+002 
3403125000  -3.908308e+001  1.610482e+002 
3406250000  -3.960936e+001  1.606317e+002 
3409375000  -3.986645e+001  1.527825e+002 
3412500000  -4.029767e+001  1.515781e+002 
3415625000  -4.093198e+001  1.521413e+002 
3418750000  -4.117394e+001  1.526706e+002 
3421875000  -4.121252e+001  1.560756e+002 
3425000000  -4.033920e+001  1.566885e+002 
3428125000  -3.949986e+001  1.517936e+002 
3431250000  -3.915805e+001  1.442970e+002 
3434375000  -3.897051e+001  1.386659e+002 
3437500000  -3.974820e+001  1.352079e+002 
3440625000  -4.003208e+001  1.351393e+002 
3443750000  -3.873885e+001  1.377972e+002 
3446875000  -3.777569e+001  1.287450e+002 
3450000000  -3.760360e+001  1.197748e+002 
3453125000  -3.798215e+001  1.099228e+002 
3456250000  -3.912556e+001  1.033616e+002 
3459375000  -3.998342e+001  1.027628e+002 
3462500000  -3.980336e+001  1.033739e+002 
3465625000  -3.969981e+001  9.825695e+001 
3468750000  -3.996136e+001  9.567188e+001 
3471875000  -4.021999e+001  9.229279e+001 
3475000000  -3.980297e+001  8.772659e+001 
3478125000  -4.032709e+001  8.044296e+001 
3481250000  -4.124661e+001  7.787431e+001 
3484375000  -4.242072e+001  8.216415e+001 
3487500000  -4.140318e+001  8.027737e+001 
3490625000  -4.077158e+001  7.764732e+001 
3493750000  -4.137379e+001  6.951311e+001 
3496875000  -4.193629e+001  6.965584e+001 
3500000000  -4.268699e+001  7.125610e+001 
3503125000  -4.182648e+001  7.302612e+001 
3506250000  -4.055161e+001  6.809364e+001 
3509375000  -4.057549e+001  5.835299e+001 
3512500000  -4.089437e+001  5.104665e+001 
3515625000  -4.208972e+001  4.925118e+001 
3518750000  -4.264042e+001  4.840669e+001 
3521875000  -4.275485e+001  4.673761e+001 
3525000000  -4.300489e+001  4.236438e+001 
3528125000  -4.348432e+001  4.992917e+001 
3531250000  -4.217605e+001  4.894395e+001 
3534375000  -4.205906e+001  3.749790e+001 
3537500000  -4.258950e+001  3.358502e+001 
3540625000  -4.365541e+001  3.209837e+001 
3543750000  -4.416183e+001  3.651281e+001 
3546875000  -4.432342e+001  4.757850e+001 
3550000000  -4.122451e+001  4.839944e+001 
3553125000  -4.010355e+001  3.144372e+001 
3556250000  -4.136134e+001  2.430115e+001 
3559375000  -4.150460e+001  2.508512e+001 
3562500000  -4.036010e+001  1.642474e+001 
3565625000  -4.102762e+001  8.849714e+000 
3568750000  -4.124106e+001  1.265508e+001 
3571875000  -4.110535e+001  1.033075e+001 
3575000000  -4.085965e+001  3.710668e+000 
3578125000  -4.127964e+001  -2.706648e+000 
3581250000  -4.143841e+001  -3.495792e+000 
3584375000  -4.042373e+001  -6.061283e+000 
3587500000  -4.006273e+001  -1.434131e+001 
3590625000  -4.037735e+001  -2.632406e+001 
3593750000  -4.192554e+001  -2.631123e+001 
3596875000  -4.197001e+001  -2.224856e+001 
3600000000  -4.023779e+001  -2.827713e+001 
3603125000  -4.090392e+001  -4.226571e+001 
3606250000  -4.169144e+001  -4.556528e+001 
3609375000  -4.227032e+001  -4.752998e+001 
3612500000  -4.272836e+001  -5.024965e+001 
3615625000  -4.339413e+001  -5.542007e+001 
3618750000  -4.380075e+001  -5.591437e+001 
3621875000  -4.354585e+001  -5.748024e+001 
3625000000  -4.449487e+001  -5.812798e+001 
3628125000  -4.459867e+001  -6.202059e+001 
3631250000  -4.493290e+001  -6.284615e+001 
3634375000  -4.541369e+001  -6.530910e+001 
3637500000  -4.549882e+001  -6.082307e+001 
3640625000  -4.501461e+001  -5.816097e+001 
3643750000  -4.479906e+001  -6.289058e+001 
3646875000  -4.504583e+001  -6.879485e+001 
3650000000  -4.576144e+001  -6.809936e+001 
3653125000  -4.559929e+001  -7.108678e+001 
3656250000  -4.582576e+001  -6.851937e+001 
3659375000  -4.559440e+001  -6.718835e+001 
3662500000  -4.493988e+001  -6.635358e+001 
3665625000  -4.467517e+001  -6.777120e+001 
3668750000  -4.393113e+001  -6.729069e+001 
3671875000  -4.278817e+001  -7.507605e+001 
3675000000  -4.282611e+001  -8.261544e+001 
3678125000  -4.309731e+001  -8.221716e+001 
3681250000  -4.302991e+001  -8.566072e+001 
3684375000  -4.294609e+001  -9.129632e+001 
3687500000  -4.294047e+001  -9.692604e+001 
3690625000  -4.299441e+001  -1.006453e+002 
3693750000  -4.394724e+001  -9.902787e+001 
3696875000  -4.375725e+001  -9.880392e+001 
3700000000  -4.273347e+001  -1.055393e+002 
3703125000  -4.270356e+001  -1.098747e+002 
3706250000  -4.409637e+001  -1.093956e+002 
3709375000  -4.349316e+001  -1.089172e+002 
3712500000  -4.238720e+001  -1.101100e+002 
3715625000  -4.139398e+001  -1.188710e+002 
3718750000  -4.122430e+001  -1.239261e+002 
3721875000  -4.100214e+001  -1.295147e+002 
3725000000  -4.160314e+001  -1.357352e+002 
3728125000  -4.208824e+001  -1.387866e+002 
3731250000  -4.183577e+001  -1.411443e+002 
3734375000  -4.117500e+001  -1.460292e+002 
3737500000  -4.203765e+001  -1.556368e+002 
3740625000  -4.325073e+001  -1.568268e+002 
3743750000  -4.313676e+001  -1.607699e+002 
3746875000  -4.355635e+001  -1.628930e+002 
3750000000  -4.420100e+001  -1.639341e+002 
3753125000  -4.444694e+001  -1.646863e+002 
3756250000  -4.431465e+001  -1.615122e+002 
3759375000  -4.479486e+001  -1.605710e+002 
3762500000  -4.435596e+001  -1.672501e+002 
3765625000  -4.499084e+001  -1.651673e+002 
3768750000  -4.491256e+001  -1.620282e+002 
3771875000  -4.342656e+001  -1.657228e+002 
3775000000  -4.305774e+001  -1.665048e+002 
3778125000  -4.316961e+001  -1.708582e+002 
3781250000  -4.311469e+001  -1.697832e+002 
3784375000  -4.267022e+001  -1.725398e+002 
3787500000  -4.198381e+001  -1.774713e+002 
3790625000  -4.233561e+001  1.764877e+002 
3793750000  -4.237140e+001  1.753754e+002 
3796875000  -4.100471e+001  1.732251e+002 
3800000000  -3.964249e+001  1.727677e+002 
3803125000  -4.039271e+001  1.641563e+002 
3806250000  -4.076286e+001  1.599711e+002 
3809375000  -4.061729e+001  1.587277e+002 
3812500000  -3.970230e+001  1.531975e+002 
3815625000  -4.031308e+001  1.412505e+002 
3818750000  -4.130303e+001  1.402980e+002 
3821875000  -4.119285e+001  1.502186e+002 
3825000000  -3.937966e+001  1.509051e+002 
3828125000  -3.808529e+001  1.347409e+002 
3831250000  -3.861116e+001  1.208527e+002 
3834375000  -4.024821e+001  1.197227e+002 
3837500000  -4.100085e+001  1.221347e+002 
3840625000  -3.982688e+001  1.200154e+002 
3843750000  -3.870235e+001  1.082573e+002 
3846875000  -3.961726e+001  1.021536e+002 
3850000000  -4.081313e+001  1.046959e+002 
3853125000  -4.021884e+001  1.084201e+002 
3856250000  -4.044512e+001  1.012726e+002 
3859375000  -3.949751e+001  9.571383e+001 
3862500000  -3.956660e+001  8.739492e+001 
3865625000  -3.981532e+001  8.335593e+001 
3868750000  -3.976259e+001  8.288993e+001 
3871875000  -3.910902e+001  7.930293e+001 
3875000000  -3.944594e+001  6.960116e+001 
3878125000  -4.046442e+001  6.691400e+001 
3881250000  -4.088045e+001  6.994668e+001 
3884375000  -4.048338e+001  6.582796e+001 
3887500000  -4.036856e+001  5.988436e+001 
3890625000  -4.094199e+001  5.897491e+001 
3893750000  -4.110809e+001  5.753574e+001 
3896875000  -4.141015e+001  5.632277e+001 
3900000000  -4.148439e+001  5.370609e+001 
3903125000  -4.116594e+001  5.402469e+001 
3906250000  -4.082072e+001  5.313963e+001 
3909375000  -4.022920e+001  4.796386e+001 
3912500000  -3.989814e+001  4.071190e+001 
3915625000  -4.155479e+001  4.260606e+001 
3918750000  -4.136956e+001  4.329000e+001 
3921875000  -4.083539e+001  3.948462e+001 
3925000000  -3.968069e+001  3.839969e+001 
3928125000  -3.932873e+001  3.099224e+001 
3931250000  -3.953595e+001  2.535762e+001 
3934375000  -3.976813e+001  2.555844e+001 
3937500000  -3.992421e+001  2.403754e+001 
3940625000  -4.041230e+001  2.172402e+001 
3943750000  -3.941487e+001  2.336317e+001 
3946875000  -3.820922e+001  1.479594e+001 
3950000000  -3.880279e+001  6.482753e+000 
3953125000  -3.995595e+001  4.915965e+000 
3956250000  -3.932555e+001  6.304748e+000 
3959375000  -3.767429e+001  4.083813e+000 
3962500000  -3.737226e+001  -1.544932e+000 
3965625000  -3.717898e+001  -1.155815e+001 
3968750000  -3.802468e+001  -1.961783e+001 
3971875000  -3.850573e+001  -2.238425e+001 
3975000000  -3.763458e+001  -2.368866e+001 
3978125000  -3.774267e+001  -2.821883e+001 
3981250000  -3.779212e+001  -3.240163e+001 
3984375000  -3.799665e+001  -3.901321e+001 
3987500000  -3.850322e+001  -4.255119e+001 
3990625000  -3.851059e+001  -4.322408e+001 
3993750000  -3.895594e+001  -4.845209e+001 
3996875000  -3.890257e+001  -5.129132e+001 
4000000000  -3.931938e+001  -5.467085e+001 
4003125000  -3.972028e+001  -5.041272e+001 
4006250000  -3.857375e+001  -5.351558e+001 
4009375000  -3.757367e+001  -6.673618e+001 
4012500000  -3.858113e+001  -7.128486e+001 
4015625000  -4.011504e+001  -7.158620e+001 
4018750000  -4.003450e+001  -6.986337e+001 
4021875000  -3.942104e+001  -7.299290e+001 
4025000000  -3.898826e+001  -7.712425e+001 
4028125000  -3.917901e+001  -8.303004e+001 
4031250000  -3.952807e+001  -8.505358e+001 
4034375000  -3.976443e+001  -8.711999e+001 
4037500000  -3.902940e+001  -8.386081e+001 
4040625000  -3.914647e+001  -8.756229e+001 
4043750000  -3.930614e+001  -8.933339e+001 
4046875000  -3.878418e+001  -8.856281e+001 
4050000000  -3.837267e+001  -9.693468e+001 
4053125000  -3.921711e+001  -9.817775e+001 
4056250000  -3.977596e+001  -9.456753e+001 
4059375000  -3.804028e+001  -9.353033e+001 
4062500000  -3.679895e+001  -1.005420e+002 
4065625000  -3.646902e+001  -1.038846e+002 
4068750000  -3.615713e+001  -1.104624e+002 
4071875000  -3.556915e+001  -1.192240e+002 
4075000000  -3.599889e+001  -1.257897e+002 
4078125000  -3.659002e+001  -1.280112e+002 
4081250000  -3.598851e+001  -1.324485e+002 
4084375000  -3.561818e+001  -1.405307e+002 
4087500000  -3.605714e+001  -1.467471e+002 
4090625000  -3.658572e+001  -1.487648e+002 
4093750000  -3.639802e+001  -1.491646e+002 
4096875000  -3.608739e+001  -1.556205e+002 
4100000000  -3.680633e+001  -1.639768e+002 
4103125000  -3.771589e+001  -1.624063e+002 
4106250000  -3.752983e+001  -1.603016e+002 
4109375000  -3.669709e+001  -1.617804e+002 
4112500000  -3.617787e+001  -1.701525e+002 
4115625000  -3.634836e+001  -1.750266e+002 
4118750000  -3.669107e+001  -1.780843e+002 
4121875000  -3.624104e+001  1.757546e+002 
4125000000  -3.668373e+001  1.700924e+002 
4128125000  -3.777965e+001  1.695340e+002 
4131250000  -3.758826e+001  1.757018e+002 
4134375000  -3.537874e+001  1.701440e+002 
4137500000  -3.517992e+001  1.519663e+002 
4140625000  -3.760168e+001  1.435611e+002 
4143750000  -3.883350e+001  1.474657e+002 
4146875000  -3.837395e+001  1.549635e+002 
4150000000  -3.753407e+001  1.494804e+002 
4153125000  -3.747310e+001  1.419028e+002 
4156250000  -3.868101e+001  1.399073e+002 
4159375000  -3.880846e+001  1.455075e+002 
4162500000  -3.773912e+001  1.499043e+002 
4165625000  -3.664426e+001  1.442574e+002 
4168750000  -3.595034e+001  1.354773e+002 
4171875000  -3.621386e+001  1.269648e+002 
4175000000  -3.655778e+001  1.221761e+002 
4178125000  -3.731411e+001  1.220624e+002 
4181250000  -3.702468e+001  1.204656e+002 
4184375000  -3.681680e+001  1.162231e+002 
4187500000  -3.698846e+001  1.137831e+002 
4190625000  -3.683475e+001  1.076739e+002 
4193750000  -3.755420e+001  1.028682e+002 
4196875000  -3.831292e+001  1.034957e+002 
4200000000  -3.893171e+001  1.046824e+002 
4203125000  -3.885960e+001  1.186596e+002 
4206250000  -3.524538e+001  1.179069e+002 
4209375000  -3.408260e+001  9.591724e+001 
4212500000  -3.620045e+001  8.693633e+001 
4215625000  -3.702644e+001  9.321976e+001 
4218750000  -3.555556e+001  9.708749e+001 
4221875000  -3.333243e+001  8.799374e+001 
4225000000  -3.446325e+001  7.396790e+001 
4228125000  -3.516203e+001  7.839369e+001 
4231250000  -3.343634e+001  7.323140e+001 
4234375000  -3.328382e+001  6.342635e+001 
4237500000  -3.284911e+001  5.933823e+001 
4240625000  -3.293060e+001  4.844280e+001 
4243750000  -3.413538e+001  4.109921e+001 
4246875000  -3.488760e+001  3.979248e+001 
4250000000  -3.483132e+001  4.078573e+001 
4253125000  -3.432381e+001  3.811199e+001 
4256250000  -3.473552e+001  3.323356e+001 
4259375000  -3.444979e+001  3.167793e+001 
4262500000  -3.458026e+001  2.604146e+001 
4265625000  -3.488515e+001  2.458807e+001 
4268750000  -3.392797e+001  1.971191e+001 
4271875000  -3.364549e+001  1.239255e+001 
4275000000  -3.332145e+001  4.959327e+000 
4278125000  -3.409565e+001  -6.841469e+000 
4281250000  -3.584627e+001  -1.056721e+001 
4284375000  -3.585781e+001  -9.932615e+000 
4287500000  -3.677170e+001  -1.331288e+001 
4290625000  -3.830949e+001  -4.874304e+000 
4293750000  -3.614207e+001  3.697098e-001 
4296875000  -3.500502e+001  -1.129400e+001 
4300000000  -3.609527e+001  -2.181563e+001 
4303125000  -3.708743e+001  -1.896983e+001 
4306250000  -3.642618e+001  -1.264647e+001 
4309375000  -3.532254e+001  -1.446959e+001 
4312500000  -3.494441e+001  -2.326750e+001 
4315625000  -3.524784e+001  -3.009896e+001 
4318750000  -3.553209e+001  -3.167336e+001 
4321875000  -3.564608e+001  -3.184122e+001 
4325000000  -3.490530e+001  -3.113465e+001 
4328125000  -3.428675e+001  -3.719801e+001 
4331250000  -3.416711e+001  -4.668245e+001 
4334375000  -3.451295e+001  -5.113052e+001 
4337500000  -3.540167e+001  -5.369394e+001 
4340625000  -3.568404e+001  -5.057804e+001 
4343750000  -3.486249e+001  -5.216353e+001 
4346875000  -3.442034e+001  -5.918645e+001 
4350000000  -3.457288e+001  -6.276400e+001 
4353125000  -3.427636e+001  -7.290122e+001 
4356250000  -3.601678e+001  -7.381278e+001 
4359375000  -3.630084e+001  -6.174810e+001 
4362500000  -3.340868e+001  -6.178824e+001 
4365625000  -3.190163e+001  -7.422192e+001 
4368750000  -3.279578e+001  -8.755180e+001 
4371875000  -3.374508e+001  -8.855597e+001 
4375000000  -3.331936e+001  -8.893296e+001 
4378125000  -3.273976e+001  -9.527945e+001 
4381250000  -3.286580e+001  -1.019657e+002 
4384375000  -3.257976e+001  -1.090018e+002 
4387500000  -3.353582e+001  -1.159087e+002 
4390625000  -3.439482e+001  -1.165462e+002 
4393750000  -3.387447e+001  -1.149669e+002 
4396875000  -3.326431e+001  -1.184606e+002 
4400000000  -3.265288e+001  -1.269242e+002 
4403125000  -3.340397e+001  -1.363554e+002 
4406250000  -3.425705e+001  -1.379562e+002 
4409375000  -3.431232e+001  -1.419401e+002 
4412500000  -3.549715e+001  -1.468283e+002 
4415625000  -3.577886e+001  -1.414504e+002 
