!Agilent Technologies,E8363B,MY43030201,A.06.04.32
!Agilent E8363B: A.06.04.32
!Date: Tuesday, November 11, 2014 21:00:30
!Correction: S21(Response(S21)) 
!S1P File: Measurement: S21:
# Hz S  dB   R 50
3000000000  -3.633686e+001  -4.275755e+001 
3003125000  -3.753203e+001  -4.861223e+001 
3006250000  -3.726202e+001  -5.220975e+001 
3009375000  -3.749665e+001  -4.781399e+001 
3012500000  -3.683255e+001  -4.813621e+001 
3015625000  -3.591091e+001  -5.581435e+001 
3018750000  -3.661496e+001  -5.758043e+001 
3021875000  -3.531045e+001  -5.647631e+001 
3025000000  -3.403517e+001  -6.042490e+001 
3028125000  -3.304482e+001  -6.591626e+001 
3031250000  -3.204678e+001  -7.770415e+001 
3034375000  -3.158739e+001  -9.138705e+001 
3037500000  -3.202808e+001  -1.033657e+002 
3040625000  -3.343570e+001  -1.087325e+002 
3043750000  -3.413116e+001  -1.132143e+002 
3046875000  -3.423123e+001  -1.199629e+002 
3050000000  -3.582465e+001  -1.260014e+002 
3053125000  -3.586291e+001  -1.189015e+002 
3056250000  -3.538993e+001  -1.172080e+002 
3059375000  -3.548520e+001  -1.176752e+002 
3062500000  -3.402541e+001  -1.215414e+002 
3065625000  -3.376114e+001  -1.269416e+002 
3068750000  -3.342602e+001  -1.347966e+002 
3071875000  -3.340890e+001  -1.372160e+002 
3075000000  -3.321903e+001  -1.407993e+002 
3078125000  -3.298263e+001  -1.447412e+002 
3081250000  -3.344096e+001  -1.493437e+002 
3084375000  -3.264382e+001  -1.529112e+002 
3087500000  -3.238639e+001  -1.563456e+002 
3090625000  -3.188556e+001  -1.666561e+002 
3093750000  -3.231385e+001  -1.738141e+002 
3096875000  -3.344946e+001  1.796106e+002 
3100000000  -3.340667e+001  1.775224e+002 
3103125000  -3.361530e+001  1.787862e+002 
3106250000  -3.319985e+001  1.746396e+002 
3109375000  -3.327549e+001  1.706294e+002 
3112500000  -3.323540e+001  1.683969e+002 
3115625000  -3.285905e+001  1.636496e+002 
3118750000  -3.320662e+001  1.638338e+002 
3121875000  -3.233566e+001  1.544008e+002 
3125000000  -3.349121e+001  1.499702e+002 
3128125000  -3.454241e+001  1.574386e+002 
3131250000  -3.215664e+001  1.559899e+002 
3134375000  -3.084614e+001  1.407761e+002 
3137500000  -3.138982e+001  1.255012e+002 
3140625000  -3.288617e+001  1.236635e+002 
3143750000  -3.390239e+001  1.256688e+002 
3146875000  -3.345768e+001  1.263615e+002 
3150000000  -3.239819e+001  1.267935e+002 
3153125000  -3.241323e+001  1.175304e+002 
3156250000  -3.330583e+001  1.221376e+002 
3159375000  -3.169570e+001  1.233295e+002 
3162500000  -2.976101e+001  1.091930e+002 
3165625000  -3.076292e+001  9.656152e+001 
3168750000  -3.111876e+001  9.688391e+001 
3171875000  -3.016259e+001  9.147186e+001 
3175000000  -3.092107e+001  8.313496e+001 
3178125000  -3.072004e+001  8.328116e+001 
3181250000  -2.965768e+001  7.808709e+001 
3184375000  -2.884510e+001  6.567900e+001 
3187500000  -3.002981e+001  4.956288e+001 
3190625000  -3.278685e+001  4.174628e+001 
3193750000  -3.336339e+001  4.979978e+001 
3196875000  -3.301408e+001  5.483812e+001 
3200000000  -3.218517e+001  5.239851e+001 
3203125000  -3.123008e+001  4.599385e+001 
3206250000  -3.156212e+001  3.918293e+001 
3209375000  -3.113275e+001  3.340447e+001 
3212500000  -3.137114e+001  2.645657e+001 
3215625000  -3.143754e+001  2.173589e+001 
3218750000  -3.214170e+001  1.481813e+001 
3221875000  -3.313942e+001  9.533087e+000 
3225000000  -3.272621e+001  8.428834e+000 
3228125000  -3.303202e+001  3.342763e+000 
3231250000  -3.365551e+001  4.628280e-002 
3234375000  -3.351071e+001  8.676435e-001 
3237500000  -3.344990e+001  -1.327601e+000 
3240625000  -3.305257e+001  -3.710498e+000 
3243750000  -3.262900e+001  -1.135670e+001 
3246875000  -3.309550e+001  -1.846628e+001 
3250000000  -3.350788e+001  -2.081366e+001 
3253125000  -3.361879e+001  -2.247084e+001 
3256250000  -3.320091e+001  -2.946107e+001 
3259375000  -3.363200e+001  -3.884311e+001 
3262500000  -3.474097e+001  -4.222483e+001 
3265625000  -3.542294e+001  -3.955008e+001 
3268750000  -3.527426e+001  -3.790124e+001 
3271875000  -3.490262e+001  -3.743277e+001 
3275000000  -3.395878e+001  -4.375664e+001 
3278125000  -3.436572e+001  -5.099899e+001 
3281250000  -3.452067e+001  -4.938517e+001 
3284375000  -3.411052e+001  -5.578992e+001 
3287500000  -3.425421e+001  -6.011116e+001 
3290625000  -3.453399e+001  -6.564447e+001 
3293750000  -3.427607e+001  -7.182235e+001 
3296875000  -3.537227e+001  -7.195873e+001 
3300000000  -3.516341e+001  -7.168715e+001 
3303125000  -3.396814e+001  -7.660624e+001 
3306250000  -3.365680e+001  -8.377388e+001 
3309375000  -3.348705e+001  -8.928990e+001 
3312500000  -3.355225e+001  -1.002165e+002 
3315625000  -3.447139e+001  -1.089483e+002 
3318750000  -3.584357e+001  -1.111683e+002 
3321875000  -3.690939e+001  -1.129941e+002 
3325000000  -3.752195e+001  -1.067467e+002 
3328125000  -3.733725e+001  -1.067296e+002 
3331250000  -3.595124e+001  -9.921900e+001 
3334375000  -3.319830e+001  -1.096254e+002 
3337500000  -3.332130e+001  -1.285857e+002 
3340625000  -3.459230e+001  -1.397146e+002 
3343750000  -3.655245e+001  -1.411538e+002 
3346875000  -3.682237e+001  -1.392690e+002 
3350000000  -3.600018e+001  -1.422499e+002 
3353125000  -3.609780e+001  -1.457218e+002 
3356250000  -3.570700e+001  -1.533918e+002 
3359375000  -3.649213e+001  -1.625894e+002 
3362500000  -3.770773e+001  -1.686048e+002 
3365625000  -3.812181e+001  -1.689631e+002 
3368750000  -3.881595e+001  -1.715967e+002 
3371875000  -3.903601e+001  -1.742511e+002 
3375000000  -4.044161e+001  -1.770010e+002 
3378125000  -4.129119e+001  -1.770670e+002 
3381250000  -4.266461e+001  -1.715712e+002 
3384375000  -4.107343e+001  -1.482382e+002 
3387500000  -3.762658e+001  -1.635156e+002 
3390625000  -3.937885e+001  1.766968e+002 
3393750000  -4.067591e+001  -1.793635e+002 
3396875000  -3.925146e+001  -1.772181e+002 
3400000000  -3.878468e+001  1.738490e+002 
3403125000  -3.953356e+001  1.691558e+002 
3406250000  -3.975258e+001  1.683208e+002 
3409375000  -3.987687e+001  1.596707e+002 
3412500000  -4.034758e+001  1.583271e+002 
3415625000  -4.118623e+001  1.591789e+002 
3418750000  -4.125205e+001  1.586855e+002 
3421875000  -4.151089e+001  1.626025e+002 
3425000000  -4.056820e+001  1.635805e+002 
3428125000  -3.956326e+001  1.587288e+002 
3431250000  -3.941544e+001  1.524915e+002 
3434375000  -3.949846e+001  1.464693e+002 
3437500000  -3.988332e+001  1.419558e+002 
3440625000  -4.000252e+001  1.437510e+002 
3443750000  -3.879290e+001  1.442038e+002 
3446875000  -3.808302e+001  1.379028e+002 
3450000000  -3.760235e+001  1.273159e+002 
3453125000  -3.796834e+001  1.179735e+002 
3456250000  -3.907669e+001  1.110388e+002 
3459375000  -3.994355e+001  1.114696e+002 
3462500000  -3.966688e+001  1.114252e+002 
3465625000  -3.994712e+001  1.066065e+002 
3468750000  -3.982398e+001  1.020690e+002 
3471875000  -3.986893e+001  1.007441e+002 
3475000000  -3.934428e+001  9.497300e+001 
3478125000  -4.012098e+001  8.894215e+001 
3481250000  -4.082437e+001  8.476954e+001 
3484375000  -4.231656e+001  9.013267e+001 
3487500000  -4.114645e+001  8.648109e+001 
3490625000  -4.064379e+001  8.322838e+001 
3493750000  -4.122153e+001  7.564018e+001 
3496875000  -4.138366e+001  7.495218e+001 
3500000000  -4.216045e+001  7.725869e+001 
3503125000  -4.182622e+001  7.758280e+001 
3506250000  -4.051880e+001  7.208979e+001 
3509375000  -4.052128e+001  6.357780e+001 
3512500000  -4.115948e+001  5.603343e+001 
3515625000  -4.167683e+001  5.269555e+001 
3518750000  -4.260530e+001  5.301860e+001 
3521875000  -4.252029e+001  5.169239e+001 
3525000000  -4.333703e+001  4.535490e+001 
3528125000  -4.332812e+001  5.332171e+001 
3531250000  -4.237112e+001  5.313901e+001 
3534375000  -4.231742e+001  4.401361e+001 
3537500000  -4.281963e+001  3.599311e+001 
3540625000  -4.377518e+001  3.717748e+001 
3543750000  -4.503204e+001  4.270356e+001 
3546875000  -4.455124e+001  5.411910e+001 
3550000000  -4.173203e+001  5.337623e+001 
3553125000  -4.051243e+001  3.505708e+001 
3556250000  -4.231720e+001  2.997788e+001 
3559375000  -4.196280e+001  3.020671e+001 
3562500000  -4.070713e+001  2.376741e+001 
3565625000  -4.150004e+001  1.527821e+001 
3568750000  -4.195351e+001  1.900381e+001 
3571875000  -4.162793e+001  1.537713e+001 
3575000000  -4.128856e+001  9.861595e+000 
3578125000  -4.151369e+001  5.900166e+000 
3581250000  -4.161560e+001  5.062630e+000 
3584375000  -4.074131e+001  3.255611e+000 
3587500000  -4.038099e+001  -7.649609e+000 
3590625000  -4.081495e+001  -1.731201e+001 
3593750000  -4.185604e+001  -2.076824e+001 
3596875000  -4.220702e+001  -1.415374e+001 
3600000000  -4.061510e+001  -2.149716e+001 
3603125000  -4.109585e+001  -3.296729e+001 
3606250000  -4.191979e+001  -3.770268e+001 
3609375000  -4.236157e+001  -4.145509e+001 
3612500000  -4.306542e+001  -4.565555e+001 
3615625000  -4.342375e+001  -4.736229e+001 
3618750000  -4.437907e+001  -4.937381e+001 
3621875000  -4.417253e+001  -5.000638e+001 
3625000000  -4.465616e+001  -5.336688e+001 
3628125000  -4.476337e+001  -5.232256e+001 
3631250000  -4.461145e+001  -6.020465e+001 
3634375000  -4.573611e+001  -6.146325e+001 
3637500000  -4.621397e+001  -5.569235e+001 
3640625000  -4.556174e+001  -5.318404e+001 
3643750000  -4.484385e+001  -5.643752e+001 
3646875000  -4.610629e+001  -6.446545e+001 
3650000000  -4.658960e+001  -6.301638e+001 
3653125000  -4.614054e+001  -6.733696e+001 
3656250000  -4.705721e+001  -6.429039e+001 
3659375000  -4.780280e+001  -5.990598e+001 
3662500000  -4.656015e+001  -6.401608e+001 
3665625000  -4.587193e+001  -6.307875e+001 
3668750000  -4.484572e+001  -5.787144e+001 
3671875000  -4.401796e+001  -6.617661e+001 
3675000000  -4.406033e+001  -7.376299e+001 
3678125000  -4.415092e+001  -7.323660e+001 
3681250000  -4.433323e+001  -7.604679e+001 
3684375000  -4.401911e+001  -8.119696e+001 
3687500000  -4.408292e+001  -8.532312e+001 
3690625000  -4.362714e+001  -8.831023e+001 
3693750000  -4.493734e+001  -8.808205e+001 
3696875000  -4.433528e+001  -8.716139e+001 
3700000000  -4.370023e+001  -9.280313e+001 
3703125000  -4.369283e+001  -9.836833e+001 
3706250000  -4.452095e+001  -9.646764e+001 
3709375000  -4.374757e+001  -9.429664e+001 
3712500000  -4.251001e+001  -9.977808e+001 
3715625000  -4.208532e+001  -1.033226e+002 
3718750000  -4.201004e+001  -1.102832e+002 
3721875000  -4.182952e+001  -1.160871e+002 
3725000000  -4.178490e+001  -1.217834e+002 
3728125000  -4.220490e+001  -1.247736e+002 
3731250000  -4.190053e+001  -1.274124e+002 
3734375000  -4.156418e+001  -1.345962e+002 
3737500000  -4.223786e+001  -1.402610e+002 
3740625000  -4.349445e+001  -1.417300e+002 
3743750000  -4.309774e+001  -1.471357e+002 
3746875000  -4.365607e+001  -1.508547e+002 
3750000000  -4.428017e+001  -1.501824e+002 
3753125000  -4.434347e+001  -1.503097e+002 
3756250000  -4.435986e+001  -1.505802e+002 
3759375000  -4.476109e+001  -1.498754e+002 
3762500000  -4.438098e+001  -1.540433e+002 
3765625000  -4.474776e+001  -1.528767e+002 
3768750000  -4.481640e+001  -1.504123e+002 
3771875000  -4.285030e+001  -1.511099e+002 
3775000000  -4.278926e+001  -1.570274e+002 
3778125000  -4.338264e+001  -1.597619e+002 
3781250000  -4.288755e+001  -1.603798e+002 
3784375000  -4.258557e+001  -1.611552e+002 
3787500000  -4.191123e+001  -1.646317e+002 
3790625000  -4.236186e+001  -1.710242e+002 
3793750000  -4.209198e+001  -1.726895e+002 
3796875000  -4.116035e+001  -1.728102e+002 
3800000000  -3.965797e+001  -1.752354e+002 
3803125000  -4.025588e+001  1.760399e+002 
3806250000  -4.102359e+001  1.720214e+002 
3809375000  -4.056039e+001  1.718364e+002 
3812500000  -3.986940e+001  1.640194e+002 
3815625000  -4.040899e+001  1.550418e+002 
3818750000  -4.122256e+001  1.544632e+002 
3821875000  -4.139722e+001  1.622123e+002 
3825000000  -3.953138e+001  1.623886e+002 
3828125000  -3.809322e+001  1.476591e+002 
3831250000  -3.859365e+001  1.300581e+002 
3834375000  -3.982645e+001  1.313692e+002 
3837500000  -4.089734e+001  1.357204e+002 
3840625000  -3.979791e+001  1.323753e+002 
3843750000  -3.886231e+001  1.210744e+002 
3846875000  -3.963494e+001  1.144246e+002 
3850000000  -4.074246e+001  1.193756e+002 
3853125000  -4.013708e+001  1.214497e+002 
3856250000  -4.007128e+001  1.156656e+002 
3859375000  -3.951125e+001  1.091726e+002 
3862500000  -3.925403e+001  9.950603e+001 
3865625000  -3.954877e+001  9.550571e+001 
3868750000  -3.956437e+001  9.654581e+001 
3871875000  -3.899892e+001  9.091023e+001 
3875000000  -3.907255e+001  8.252454e+001 
3878125000  -4.006630e+001  7.909637e+001 
3881250000  -4.020665e+001  8.234641e+001 
3884375000  -3.975550e+001  7.617535e+001 
3887500000  -4.006508e+001  7.183620e+001 
3890625000  -4.053312e+001  6.957287e+001 
3893750000  -4.074397e+001  6.740747e+001 
3896875000  -4.098679e+001  6.977255e+001 
3900000000  -4.105644e+001  6.475763e+001 
3903125000  -4.091204e+001  6.408089e+001 
3906250000  -4.075902e+001  6.076056e+001 
3909375000  -3.957693e+001  5.901526e+001 
3912500000  -3.971752e+001  5.187306e+001 
3915625000  -4.106174e+001  5.121838e+001 
3918750000  -4.085116e+001  5.174719e+001 
3921875000  -4.026627e+001  4.901373e+001 
3925000000  -3.963704e+001  4.688897e+001 
3928125000  -3.900975e+001  4.007435e+001 
3931250000  -3.942195e+001  3.542110e+001 
3934375000  -3.988142e+001  3.373463e+001 
3937500000  -3.973176e+001  3.145811e+001 
3940625000  -4.056022e+001  3.005071e+001 
3943750000  -3.939418e+001  3.040141e+001 
3946875000  -3.799115e+001  2.446414e+001 
3950000000  -3.876799e+001  1.809845e+001 
3953125000  -3.975978e+001  1.513784e+001 
3956250000  -3.892135e+001  1.662626e+001 
3959375000  -3.774692e+001  1.216304e+001 
3962500000  -3.736175e+001  9.106966e+000 
3965625000  -3.702594e+001  -2.500962e+000 
3968750000  -3.805740e+001  -1.004253e+001 
3971875000  -3.824143e+001  -1.196839e+001 
3975000000  -3.749084e+001  -1.333958e+001 
3978125000  -3.766699e+001  -1.639374e+001 
3981250000  -3.754150e+001  -2.053288e+001 
3984375000  -3.782814e+001  -2.931083e+001 
3987500000  -3.841591e+001  -3.027588e+001 
3990625000  -3.816952e+001  -3.344663e+001 
3993750000  -3.870765e+001  -3.871783e+001 
3996875000  -3.858171e+001  -3.979885e+001 
4000000000  -3.893898e+001  -4.067408e+001 
4003125000  -3.914867e+001  -4.148096e+001 
4006250000  -3.811054e+001  -4.105762e+001 
4009375000  -3.697680e+001  -5.362585e+001 
4012500000  -3.806844e+001  -6.040294e+001 
4015625000  -3.927459e+001  -6.143836e+001 
4018750000  -3.977907e+001  -6.039298e+001 
4021875000  -3.889581e+001  -6.300445e+001 
4025000000  -3.859425e+001  -6.708564e+001 
4028125000  -3.865434e+001  -7.223039e+001 
4031250000  -3.887049e+001  -7.710486e+001 
4034375000  -3.923366e+001  -7.667151e+001 
4037500000  -3.877672e+001  -7.634300e+001 
4040625000  -3.876515e+001  -7.961185e+001 
4043750000  -3.914368e+001  -8.052631e+001 
4046875000  -3.873122e+001  -8.088181e+001 
4050000000  -3.806861e+001  -8.714177e+001 
4053125000  -3.856085e+001  -9.153613e+001 
4056250000  -3.935356e+001  -8.860688e+001 
4059375000  -3.785875e+001  -8.673496e+001 
4062500000  -3.647517e+001  -9.178036e+001 
4065625000  -3.654519e+001  -9.683058e+001 
4068750000  -3.618570e+001  -1.026640e+002 
4071875000  -3.570534e+001  -1.112376e+002 
4075000000  -3.574936e+001  -1.184258e+002 
4078125000  -3.638659e+001  -1.210144e+002 
4081250000  -3.606212e+001  -1.229936e+002 
4084375000  -3.555703e+001  -1.317166e+002 
4087500000  -3.601812e+001  -1.387377e+002 
4090625000  -3.665638e+001  -1.392574e+002 
4093750000  -3.645818e+001  -1.408832e+002 
4096875000  -3.610705e+001  -1.471303e+002 
4100000000  -3.665098e+001  -1.548262e+002 
4103125000  -3.770983e+001  -1.552779e+002 
4106250000  -3.767597e+001  -1.502731e+002 
4109375000  -3.648485e+001  -1.509743e+002 
4112500000  -3.611513e+001  -1.594046e+002 
4115625000  -3.655227e+001  -1.654876e+002 
4118750000  -3.662650e+001  -1.688193e+002 
4121875000  -3.623238e+001  -1.735655e+002 
4125000000  -3.671695e+001  1.791451e+002 
4128125000  -3.768534e+001  -1.797156e+002 
4131250000  -3.733776e+001  -1.738400e+002 
4134375000  -3.513428e+001  -1.780289e+002 
4137500000  -3.485228e+001  1.604806e+002 
4140625000  -3.709580e+001  1.527948e+002 
4143750000  -3.857880e+001  1.552195e+002 
4146875000  -3.819326e+001  1.635318e+002 
4150000000  -3.729479e+001  1.592266e+002 
4153125000  -3.722918e+001  1.531777e+002 
4156250000  -3.823410e+001  1.505058e+002 
4159375000  -3.829821e+001  1.534649e+002 
4162500000  -3.725820e+001  1.584274e+002 
4165625000  -3.625312e+001  1.538093e+002 
4168750000  -3.559862e+001  1.459048e+002 
4171875000  -3.567220e+001  1.356367e+002 
4175000000  -3.641721e+001  1.300099e+002 
4178125000  -3.693953e+001  1.293138e+002 
4181250000  -3.676165e+001  1.285326e+002 
4184375000  -3.670724e+001  1.240500e+002 
4187500000  -3.657150e+001  1.207126e+002 
4190625000  -3.637049e+001  1.155143e+002 
4193750000  -3.724223e+001  1.111081e+002 
4196875000  -3.801163e+001  1.100314e+002 
4200000000  -3.900581e+001  1.129843e+002 
4203125000  -3.876062e+001  1.255796e+002 
4206250000  -3.527114e+001  1.255663e+002 
4209375000  -3.417804e+001  1.039958e+002 
4212500000  -3.614867e+001  9.421883e+001 
4215625000  -3.704701e+001  1.000498e+002 
4218750000  -3.567673e+001  1.069721e+002 
4221875000  -3.332224e+001  9.566059e+001 
4225000000  -3.466486e+001  8.157125e+001 
4228125000  -3.524201e+001  8.503775e+001 
4231250000  -3.361411e+001  8.161250e+001 
4234375000  -3.345987e+001  7.317677e+001 
4237500000  -3.312352e+001  6.839240e+001 
4240625000  -3.302571e+001  5.880202e+001 
4243750000  -3.404538e+001  5.123402e+001 
4246875000  -3.501164e+001  4.977798e+001 
4250000000  -3.498868e+001  5.211591e+001 
4253125000  -3.443672e+001  4.869670e+001 
4256250000  -3.480322e+001  4.288040e+001 
4259375000  -3.452137e+001  4.011699e+001 
4262500000  -3.473879e+001  3.531102e+001 
4265625000  -3.493252e+001  3.492807e+001 
4268750000  -3.397615e+001  2.890807e+001 
4271875000  -3.374554e+001  2.177362e+001 
4275000000  -3.334726e+001  1.525216e+001 
4278125000  -3.395752e+001  2.912764e+000 
4281250000  -3.588252e+001  5.063736e-001 
4284375000  -3.576126e+001  1.717988e+000 
4287500000  -3.658750e+001  -3.256850e+000 
4290625000  -3.798833e+001  3.927715e+000 
4293750000  -3.605700e+001  1.154588e+001 
4296875000  -3.459880e+001  -3.852725e-001 
4300000000  -3.559482e+001  -9.115730e+000 
4303125000  -3.672894e+001  -9.561153e+000 
4306250000  -3.618646e+001  -2.604083e+000 
4309375000  -3.500629e+001  -5.911643e+000 
4312500000  -3.465864e+001  -1.276366e+001 
4315625000  -3.494753e+001  -1.943191e+001 
4318750000  -3.522663e+001  -2.357845e+001 
4321875000  -3.545819e+001  -2.151644e+001 
4325000000  -3.470847e+001  -2.327869e+001 
4328125000  -3.409452e+001  -2.891339e+001 
4331250000  -3.394120e+001  -3.818150e+001 
4334375000  -3.431830e+001  -4.365256e+001 
4337500000  -3.508879e+001  -4.551687e+001 
4340625000  -3.566751e+001  -4.328762e+001 
4343750000  -3.488404e+001  -4.374983e+001 
4346875000  -3.441787e+001  -4.890047e+001 
4350000000  -3.435153e+001  -5.528323e+001 
4353125000  -3.422821e+001  -6.360350e+001 
4356250000  -3.591737e+001  -6.570974e+001 
4359375000  -3.648981e+001  -5.231377e+001 
4362500000  -3.351332e+001  -5.287497e+001 
4365625000  -3.204218e+001  -6.570579e+001 
4368750000  -3.269827e+001  -7.851635e+001 
4371875000  -3.377532e+001  -7.904215e+001 
4375000000  -3.332388e+001  -8.032696e+001 
4378125000  -3.274030e+001  -8.593862e+001 
4381250000  -3.299079e+001  -9.294878e+001 
4384375000  -3.260754e+001  -9.911103e+001 
4387500000  -3.349314e+001  -1.070230e+002 
4390625000  -3.449129e+001  -1.071339e+002 
4393750000  -3.384288e+001  -1.050353e+002 
4396875000  -3.328427e+001  -1.082737e+002 
4400000000  -3.261007e+001  -1.164948e+002 
4403125000  -3.338488e+001  -1.255962e+002 
4406250000  -3.426370e+001  -1.287749e+002 
4409375000  -3.429392e+001  -1.322853e+002 
4412500000  -3.566754e+001  -1.351494e+002 
4415625000  -3.592303e+001  -1.309361e+002 
