!Agilent Technologies,E8363B,MY43030201,A.06.04.32
!Agilent E8363B: A.06.04.32
!Date: Tuesday, November 11, 2014 21:04:11
!Correction: S21(Response(S21)) 
!S1P File: Measurement: S21:
# Hz S  dB   R 50
3000000000  -3.643224e+001  -4.743575e+001 
3003125000  -3.763205e+001  -5.317302e+001 
3006250000  -3.747645e+001  -5.584230e+001 
3009375000  -3.770947e+001  -5.133865e+001 
3012500000  -3.705070e+001  -5.310906e+001 
3015625000  -3.603460e+001  -6.022458e+001 
3018750000  -3.684393e+001  -6.135260e+001 
3021875000  -3.542882e+001  -6.085250e+001 
3025000000  -3.411319e+001  -6.451511e+001 
3028125000  -3.321899e+001  -7.044400e+001 
3031250000  -3.213977e+001  -8.166199e+001 
3034375000  -3.176077e+001  -9.565818e+001 
3037500000  -3.220953e+001  -1.074805e+002 
3040625000  -3.356495e+001  -1.117386e+002 
3043750000  -3.425040e+001  -1.173564e+002 
3046875000  -3.434168e+001  -1.235699e+002 
3050000000  -3.608078e+001  -1.300334e+002 
3053125000  -3.608886e+001  -1.232394e+002 
3056250000  -3.553531e+001  -1.208359e+002 
3059375000  -3.561779e+001  -1.209685e+002 
3062500000  -3.402003e+001  -1.239999e+002 
3065625000  -3.392830e+001  -1.301447e+002 
3068750000  -3.352541e+001  -1.373973e+002 
3071875000  -3.355094e+001  -1.402048e+002 
3075000000  -3.327039e+001  -1.439033e+002 
3078125000  -3.301203e+001  -1.481659e+002 
3081250000  -3.348327e+001  -1.524447e+002 
3084375000  -3.267430e+001  -1.561307e+002 
3087500000  -3.244859e+001  -1.595579e+002 
3090625000  -3.197794e+001  -1.697893e+002 
3093750000  -3.233033e+001  -1.773152e+002 
3096875000  -3.343564e+001  1.766219e+002 
3100000000  -3.340453e+001  1.745345e+002 
3103125000  -3.365741e+001  1.748512e+002 
3106250000  -3.315690e+001  1.709999e+002 
3109375000  -3.315888e+001  1.669688e+002 
3112500000  -3.324296e+001  1.644960e+002 
3115625000  -3.278531e+001  1.604781e+002 
3118750000  -3.317243e+001  1.604777e+002 
3121875000  -3.232827e+001  1.510805e+002 
3125000000  -3.346556e+001  1.468962e+002 
3128125000  -3.453043e+001  1.537641e+002 
3131250000  -3.211782e+001  1.526340e+002 
3134375000  -3.080970e+001  1.371260e+002 
3137500000  -3.129537e+001  1.225353e+002 
3140625000  -3.279066e+001  1.200270e+002 
3143750000  -3.390338e+001  1.214519e+002 
3146875000  -3.326538e+001  1.227455e+002 
3150000000  -3.231225e+001  1.227635e+002 
3153125000  -3.230319e+001  1.133980e+002 
3156250000  -3.329470e+001  1.183820e+002 
3159375000  -3.166697e+001  1.195914e+002 
3162500000  -2.969915e+001  1.052580e+002 
3165625000  -3.073506e+001  9.306907e+001 
3168750000  -3.106355e+001  9.271603e+001 
3171875000  -3.014713e+001  8.735996e+001 
3175000000  -3.093331e+001  7.836849e+001 
3178125000  -3.074124e+001  7.946054e+001 
3181250000  -2.955097e+001  7.387633e+001 
3184375000  -2.886460e+001  6.122037e+001 
3187500000  -3.002317e+001  4.566885e+001 
3190625000  -3.274586e+001  3.747811e+001 
3193750000  -3.335922e+001  4.607578e+001 
3196875000  -3.301364e+001  5.087005e+001 
3200000000  -3.208860e+001  4.784857e+001 
3203125000  -3.128130e+001  4.178166e+001 
3206250000  -3.157169e+001  3.536434e+001 
3209375000  -3.111341e+001  2.903792e+001 
3212500000  -3.134991e+001  2.236732e+001 
3215625000  -3.140907e+001  1.872577e+001 
3218750000  -3.216635e+001  1.104032e+001 
3221875000  -3.302382e+001  5.981527e+000 
3225000000  -3.255332e+001  5.202056e+000 
3228125000  -3.298549e+001  -3.952113e-001 
3231250000  -3.361571e+001  -2.947115e+000 
3234375000  -3.335882e+001  -2.672783e+000 
3237500000  -3.342820e+001  -5.403353e+000 
3240625000  -3.303143e+001  -7.907986e+000 
3243750000  -3.253916e+001  -1.501100e+001 
3246875000  -3.298988e+001  -2.264740e+001 
3250000000  -3.342538e+001  -2.418937e+001 
3253125000  -3.346550e+001  -2.619780e+001 
3256250000  -3.320238e+001  -3.351271e+001 
3259375000  -3.333393e+001  -4.221595e+001 
3262500000  -3.461766e+001  -4.572076e+001 
3265625000  -3.520101e+001  -4.341287e+001 
3268750000  -3.514606e+001  -4.124847e+001 
3271875000  -3.481756e+001  -4.139235e+001 
3275000000  -3.383054e+001  -4.823764e+001 
3278125000  -3.420571e+001  -5.438408e+001 
3281250000  -3.433025e+001  -5.378960e+001 
3284375000  -3.384911e+001  -6.106372e+001 
3287500000  -3.408560e+001  -6.417558e+001 
3290625000  -3.441025e+001  -6.984218e+001 
3293750000  -3.410189e+001  -7.637885e+001 
3296875000  -3.520624e+001  -7.684858e+001 
3300000000  -3.501664e+001  -7.595818e+001 
3303125000  -3.372503e+001  -8.079418e+001 
3306250000  -3.347157e+001  -8.801824e+001 
3309375000  -3.321646e+001  -9.428336e+001 
3312500000  -3.335609e+001  -1.051320e+002 
3315625000  -3.435090e+001  -1.137589e+002 
3318750000  -3.571252e+001  -1.166049e+002 
3321875000  -3.677489e+001  -1.176154e+002 
3325000000  -3.707386e+001  -1.120734e+002 
3328125000  -3.686496e+001  -1.111530e+002 
3331250000  -3.571922e+001  -1.035798e+002 
3334375000  -3.311877e+001  -1.145526e+002 
3337500000  -3.303276e+001  -1.336219e+002 
3340625000  -3.450013e+001  -1.445532e+002 
3343750000  -3.640051e+001  -1.458932e+002 
3346875000  -3.669396e+001  -1.449657e+002 
3350000000  -3.599100e+001  -1.457347e+002 
3353125000  -3.596855e+001  -1.509246e+002 
3356250000  -3.557278e+001  -1.591755e+002 
3359375000  -3.620306e+001  -1.677725e+002 
3362500000  -3.749689e+001  -1.729903e+002 
3365625000  -3.804757e+001  -1.749904e+002 
3368750000  -3.855900e+001  -1.762778e+002 
3371875000  -3.895577e+001  -1.796727e+002 
3375000000  -4.040447e+001  1.769750e+002 
3378125000  -4.122514e+001  1.779990e+002 
3381250000  -4.221437e+001  -1.732136e+002 
3384375000  -4.111415e+001  -1.521927e+002 
3387500000  -3.750110e+001  -1.698485e+002 
3390625000  -3.903897e+001  1.724115e+002 
3393750000  -4.039190e+001  1.740663e+002 
3396875000  -3.923940e+001  1.773614e+002 
3400000000  -3.858100e+001  1.688252e+002 
3403125000  -3.940851e+001  1.630350e+002 
3406250000  -3.974513e+001  1.629604e+002 
3409375000  -3.987157e+001  1.555644e+002 
3412500000  -4.027934e+001  1.524227e+002 
3415625000  -4.106032e+001  1.538034e+002 
3418750000  -4.101889e+001  1.551974e+002 
3421875000  -4.135796e+001  1.579103e+002 
3425000000  -4.045049e+001  1.586956e+002 
3428125000  -3.942933e+001  1.537731e+002 
3431250000  -3.928509e+001  1.464343e+002 
3434375000  -3.931951e+001  1.410035e+002 
3437500000  -3.955631e+001  1.373658e+002 
3440625000  -3.991202e+001  1.382801e+002 
3443750000  -3.891193e+001  1.394359e+002 
3446875000  -3.798501e+001  1.321456e+002 
3450000000  -3.770276e+001  1.214137e+002 
3453125000  -3.785835e+001  1.117378e+002 
3456250000  -3.905841e+001  1.061872e+002 
3459375000  -3.992373e+001  1.061713e+002 
3462500000  -3.982662e+001  1.066451e+002 
3465625000  -3.971144e+001  9.979491e+001 
3468750000  -4.022678e+001  9.678060e+001 
3471875000  -3.987500e+001  9.524855e+001 
3475000000  -3.961715e+001  8.951215e+001 
3478125000  -4.036829e+001  8.304179e+001 
3481250000  -4.103308e+001  8.059859e+001 
3484375000  -4.219327e+001  8.415739e+001 
3487500000  -4.158956e+001  8.268196e+001 
3490625000  -4.083478e+001  7.885190e+001 
3493750000  -4.137969e+001  7.153454e+001 
3496875000  -4.170291e+001  6.924398e+001 
3500000000  -4.240707e+001  7.237894e+001 
3503125000  -4.178012e+001  7.432948e+001 
3506250000  -4.070089e+001  7.149303e+001 
3509375000  -4.050790e+001  6.167726e+001 
3512500000  -4.108112e+001  5.192257e+001 
3515625000  -4.165907e+001  4.891681e+001 
3518750000  -4.240866e+001  4.963906e+001 
3521875000  -4.280935e+001  4.735804e+001 
3525000000  -4.334322e+001  4.282734e+001 
3528125000  -4.319717e+001  5.182103e+001 
3531250000  -4.210274e+001  5.017100e+001 
3534375000  -4.234195e+001  3.909951e+001 
3537500000  -4.254147e+001  3.374774e+001 
3540625000  -4.334319e+001  3.301332e+001 
3543750000  -4.423081e+001  3.626633e+001 
3546875000  -4.427170e+001  4.877055e+001 
3550000000  -4.134547e+001  4.868694e+001 
3553125000  -4.027396e+001  3.203004e+001 
3556250000  -4.162422e+001  2.730560e+001 
3559375000  -4.130945e+001  2.715765e+001 
3562500000  -4.026032e+001  1.748079e+001 
3565625000  -4.107817e+001  1.168427e+001 
3568750000  -4.132694e+001  1.441915e+001 
3571875000  -4.113107e+001  1.366766e+001 
3575000000  -4.089164e+001  5.519533e+000 
3578125000  -4.122388e+001  3.853996e-001 
3581250000  -4.142621e+001  -3.371370e-001 
3584375000  -4.060875e+001  -3.240724e+000 
3587500000  -3.998251e+001  -1.161301e+001 
3590625000  -4.059320e+001  -2.333740e+001 
3593750000  -4.193782e+001  -2.315603e+001 
3596875000  -4.169020e+001  -1.773113e+001 
3600000000  -4.019328e+001  -2.521246e+001 
3603125000  -4.075464e+001  -3.882037e+001 
3606250000  -4.165947e+001  -4.325002e+001 
3609375000  -4.214577e+001  -4.576519e+001 
3612500000  -4.254103e+001  -4.813153e+001 
3615625000  -4.279648e+001  -5.137486e+001 
3618750000  -4.380314e+001  -5.228820e+001 
3621875000  -4.379652e+001  -5.576765e+001 
3625000000  -4.418053e+001  -5.815752e+001 
3628125000  -4.417678e+001  -5.665331e+001 
3631250000  -4.396962e+001  -6.158092e+001 
3634375000  -4.562238e+001  -6.365637e+001 
3637500000  -4.577964e+001  -5.776490e+001 
3640625000  -4.462476e+001  -5.461813e+001 
3643750000  -4.475927e+001  -6.237770e+001 
3646875000  -4.486877e+001  -6.615691e+001 
3650000000  -4.580645e+001  -6.883848e+001 
3653125000  -4.623550e+001  -6.686794e+001 
3656250000  -4.591510e+001  -6.779749e+001 
3659375000  -4.593882e+001  -6.356758e+001 
3662500000  -4.523407e+001  -6.603328e+001 
3665625000  -4.503172e+001  -6.682460e+001 
3668750000  -4.397174e+001  -6.618886e+001 
3671875000  -4.271054e+001  -7.333488e+001 
3675000000  -4.341113e+001  -7.749726e+001 
3678125000  -4.328730e+001  -8.351344e+001 
3681250000  -4.318664e+001  -8.271635e+001 
3684375000  -4.301746e+001  -8.961074e+001 
3687500000  -4.354726e+001  -9.172916e+001 
3690625000  -4.318695e+001  -9.703195e+001 
3693750000  -4.381861e+001  -9.684581e+001 
3696875000  -4.374809e+001  -9.388006e+001 
3700000000  -4.274924e+001  -1.001878e+002 
3703125000  -4.292482e+001  -1.073466e+002 
3706250000  -4.397931e+001  -1.048546e+002 
3709375000  -4.352436e+001  -1.064364e+002 
3712500000  -4.246536e+001  -1.090493e+002 
3715625000  -4.182614e+001  -1.139784e+002 
3718750000  -4.132384e+001  -1.209840e+002 
3721875000  -4.109456e+001  -1.283326e+002 
3725000000  -4.166199e+001  -1.346003e+002 
3728125000  -4.218642e+001  -1.361542e+002 
3731250000  -4.140939e+001  -1.374760e+002 
3734375000  -4.116351e+001  -1.428629e+002 
3737500000  -4.185069e+001  -1.518605e+002 
3740625000  -4.305262e+001  -1.535129e+002 
3743750000  -4.333150e+001  -1.560141e+002 
3746875000  -4.369684e+001  -1.597884e+002 
3750000000  -4.403144e+001  -1.599520e+002 
3753125000  -4.385241e+001  -1.624755e+002 
3756250000  -4.459860e+001  -1.604100e+002 
3759375000  -4.435051e+001  -1.602070e+002 
3762500000  -4.385105e+001  -1.638029e+002 
3765625000  -4.496931e+001  -1.622376e+002 
3768750000  -4.499404e+001  -1.596424e+002 
3771875000  -4.348423e+001  -1.625124e+002 
3775000000  -4.321549e+001  -1.678413e+002 
3778125000  -4.331467e+001  -1.687246e+002 
3781250000  -4.284864e+001  -1.702377e+002 
3784375000  -4.262918e+001  -1.706283e+002 
3787500000  -4.203825e+001  -1.739233e+002 
3790625000  -4.243037e+001  -1.798412e+002 
3793750000  -4.264057e+001  -1.798587e+002 
3796875000  -4.117544e+001  1.776680e+002 
3800000000  -3.974265e+001  1.738919e+002 
3803125000  -4.031008e+001  1.653391e+002 
3806250000  -4.098299e+001  1.624783e+002 
3809375000  -4.078934e+001  1.619004e+002 
3812500000  -3.989323e+001  1.541342e+002 
3815625000  -4.049094e+001  1.431965e+002 
3818750000  -4.157358e+001  1.455919e+002 
3821875000  -4.127563e+001  1.519876e+002 
3825000000  -3.931213e+001  1.546513e+002 
3828125000  -3.811459e+001  1.381330e+002 
3831250000  -3.859490e+001  1.226529e+002 
3834375000  -4.053104e+001  1.217429e+002 
3837500000  -4.103504e+001  1.242634e+002 
3840625000  -3.962729e+001  1.246119e+002 
3843750000  -3.911307e+001  1.116105e+002 
3846875000  -4.003960e+001  1.034455e+002 
3850000000  -4.104767e+001  1.106036e+002 
3853125000  -4.045808e+001  1.118653e+002 
3856250000  -4.006520e+001  1.045555e+002 
3859375000  -3.940865e+001  9.956780e+001 
3862500000  -3.944596e+001  9.216027e+001 
3865625000  -3.979807e+001  8.831471e+001 
3868750000  -3.965252e+001  8.584578e+001 
3871875000  -3.912785e+001  8.141755e+001 
3875000000  -3.897783e+001  7.270631e+001 
3878125000  -4.051300e+001  6.969933e+001 
3881250000  -4.054033e+001  7.437224e+001 
3884375000  -4.017557e+001  6.946748e+001 
3887500000  -4.039291e+001  6.411547e+001 
3890625000  -4.066220e+001  6.019829e+001 
3893750000  -4.118694e+001  5.935071e+001 
3896875000  -4.142208e+001  5.841176e+001 
3900000000  -4.136974e+001  5.867617e+001 
3903125000  -4.087299e+001  5.695916e+001 
3906250000  -4.064070e+001  5.456627e+001 
3909375000  -4.018237e+001  5.178524e+001 
3912500000  -4.022974e+001  4.336723e+001 
3915625000  -4.144588e+001  4.447190e+001 
3918750000  -4.089396e+001  4.542926e+001 
3921875000  -4.083434e+001  4.312939e+001 
3925000000  -3.978399e+001  3.951628e+001 
3928125000  -3.919839e+001  3.337637e+001 
3931250000  -3.945407e+001  2.867813e+001 
3934375000  -3.988537e+001  2.760932e+001 
3937500000  -4.006686e+001  2.495645e+001 
3940625000  -4.008107e+001  2.384319e+001 
3943750000  -3.952386e+001  2.467454e+001 
3946875000  -3.821461e+001  1.852973e+001 
3950000000  -3.905993e+001  8.835379e+000 
3953125000  -4.006441e+001  7.352112e+000 
3956250000  -3.898803e+001  9.600801e+000 
3959375000  -3.796830e+001  5.905085e+000 
3962500000  -3.734676e+001  2.071870e-002 
3965625000  -3.712379e+001  -7.983877e+000 
3968750000  -3.817877e+001  -1.569525e+001 
3971875000  -3.833207e+001  -1.831649e+001 
3975000000  -3.781083e+001  -2.089202e+001 
3978125000  -3.791047e+001  -2.255895e+001 
3981250000  -3.764900e+001  -2.841426e+001 
3984375000  -3.811497e+001  -3.631424e+001 
3987500000  -3.863896e+001  -3.986781e+001 
3990625000  -3.844482e+001  -3.953249e+001 
3993750000  -3.891705e+001  -4.370416e+001 
3996875000  -3.911551e+001  -4.799405e+001 
4000000000  -3.928149e+001  -5.119836e+001 
4003125000  -3.973642e+001  -4.986631e+001 
4006250000  -3.820119e+001  -4.840964e+001 
4009375000  -3.771888e+001  -6.263504e+001 
4012500000  -3.830310e+001  -6.847529e+001 
4015625000  -3.983183e+001  -6.815903e+001 
4018750000  -3.994886e+001  -6.611452e+001 
4021875000  -3.940242e+001  -6.999587e+001 
4025000000  -3.908998e+001  -7.479855e+001 
4028125000  -3.880251e+001  -7.848099e+001 
4031250000  -3.925368e+001  -8.286152e+001 
4034375000  -3.948838e+001  -8.246564e+001 
4037500000  -3.934254e+001  -8.239369e+001 
4040625000  -3.904009e+001  -8.523777e+001 
4043750000  -3.943205e+001  -8.654166e+001 
4046875000  -3.890601e+001  -8.696525e+001 
4050000000  -3.822921e+001  -9.422396e+001 
4053125000  -3.872546e+001  -9.579823e+001 
4056250000  -3.927573e+001  -9.212502e+001 
4059375000  -3.791734e+001  -9.140136e+001 
4062500000  -3.684396e+001  -9.686068e+001 
4065625000  -3.644057e+001  -1.015200e+002 
4068750000  -3.647643e+001  -1.073277e+002 
4071875000  -3.576041e+001  -1.171355e+002 
4075000000  -3.599406e+001  -1.232747e+002 
4078125000  -3.660844e+001  -1.254325e+002 
4081250000  -3.606395e+001  -1.301394e+002 
4084375000  -3.561424e+001  -1.371369e+002 
4087500000  -3.601344e+001  -1.436460e+002 
4090625000  -3.674924e+001  -1.454609e+002 
4093750000  -3.643073e+001  -1.465103e+002 
4096875000  -3.604102e+001  -1.532920e+002 
4100000000  -3.697490e+001  -1.606267e+002 
4103125000  -3.768349e+001  -1.616280e+002 
4106250000  -3.761880e+001  -1.566443e+002 
4109375000  -3.673194e+001  -1.578013e+002 
4112500000  -3.591829e+001  -1.661063e+002 
4115625000  -3.646721e+001  -1.708971e+002 
4118750000  -3.673611e+001  -1.759902e+002 
4121875000  -3.627120e+001  1.795673e+002 
4125000000  -3.670251e+001  1.742542e+002 
4128125000  -3.763133e+001  1.735198e+002 
4131250000  -3.757452e+001  -1.774115e+002 
4134375000  -3.512664e+001  1.736434e+002 
4137500000  -3.511280e+001  1.545230e+002 
4140625000  -3.732240e+001  1.470902e+002 
4143750000  -3.878622e+001  1.508785e+002 
4146875000  -3.850486e+001  1.583154e+002 
4150000000  -3.743237e+001  1.546322e+002 
4153125000  -3.754368e+001  1.465197e+002 
4156250000  -3.845822e+001  1.442012e+002 
4159375000  -3.868427e+001  1.486464e+002 
4162500000  -3.750755e+001  1.523880e+002 
4165625000  -3.660316e+001  1.477952e+002 
4168750000  -3.583951e+001  1.386609e+002 
4171875000  -3.587355e+001  1.298684e+002 
4175000000  -3.650614e+001  1.244057e+002 
4178125000  -3.720673e+001  1.242903e+002 
4181250000  -3.701078e+001  1.237564e+002 
4184375000  -3.677770e+001  1.202544e+002 
4187500000  -3.679226e+001  1.155254e+002 
4190625000  -3.654761e+001  1.105483e+002 
4193750000  -3.747012e+001  1.060359e+002 
4196875000  -3.804502e+001  1.058345e+002 
4200000000  -3.893256e+001  1.073204e+002 
4203125000  -3.860154e+001  1.208461e+002 
4206250000  -3.521344e+001  1.181583e+002 
4209375000  -3.399404e+001  9.786369e+001 
4212500000  -3.598861e+001  8.938240e+001 
4215625000  -3.704866e+001  9.493842e+001 
4218750000  -3.530391e+001  1.006109e+002 
4221875000  -3.317396e+001  9.033117e+001 
4225000000  -3.448543e+001  7.777559e+001 
4228125000  -3.498096e+001  8.094303e+001 
4231250000  -3.350159e+001  7.644701e+001 
4234375000  -3.343608e+001  6.700444e+001 
4237500000  -3.297570e+001  6.244322e+001 
4240625000  -3.302212e+001  5.199507e+001 
4243750000  -3.391397e+001  4.380752e+001 
4246875000  -3.503138e+001  4.294622e+001 
4250000000  -3.496381e+001  4.570434e+001 
4253125000  -3.435037e+001  4.202647e+001 
4256250000  -3.481817e+001  3.692145e+001 
4259375000  -3.444083e+001  3.430370e+001 
4262500000  -3.469495e+001  2.860966e+001 
4265625000  -3.485690e+001  2.769942e+001 
4268750000  -3.402742e+001  2.300907e+001 
4271875000  -3.367582e+001  1.573599e+001 
4275000000  -3.349248e+001  7.964033e+000 
4278125000  -3.417624e+001  -4.544292e+000 
4281250000  -3.592131e+001  -5.076195e+000 
4284375000  -3.554301e+001  -5.529169e+000 
4287500000  -3.660043e+001  -8.202193e+000 
4290625000  -3.787711e+001  -4.972579e-001 
4293750000  -3.608896e+001  4.323200e+000 
4296875000  -3.493506e+001  -6.634337e+000 
4300000000  -3.573548e+001  -1.606763e+001 
4303125000  -3.715126e+001  -1.663086e+001 
4306250000  -3.626703e+001  -8.641219e+000 
4309375000  -3.501126e+001  -1.229579e+001 
4312500000  -3.472738e+001  -2.021213e+001 
4315625000  -3.495314e+001  -2.534260e+001 
4318750000  -3.527847e+001  -2.789376e+001 
4321875000  -3.528433e+001  -2.837876e+001 
4325000000  -3.467357e+001  -2.883696e+001 
4328125000  -3.418238e+001  -3.420596e+001 
4331250000  -3.387874e+001  -4.259804e+001 
4334375000  -3.431152e+001  -4.907526e+001 
4337500000  -3.513320e+001  -5.131767e+001 
4340625000  -3.566771e+001  -4.840085e+001 
4343750000  -3.475459e+001  -4.913843e+001 
4346875000  -3.413628e+001  -5.480669e+001 
4350000000  -3.430235e+001  -6.115704e+001 
4353125000  -3.422219e+001  -6.844740e+001 
4356250000  -3.603603e+001  -7.141350e+001 
4359375000  -3.600349e+001  -5.765007e+001 
4362500000  -3.337210e+001  -5.765325e+001 
4365625000  -3.175555e+001  -7.240281e+001 
4368750000  -3.250502e+001  -8.366857e+001 
4371875000  -3.346597e+001  -8.495437e+001 
4375000000  -3.321351e+001  -8.623279e+001 
4378125000  -3.254758e+001  -9.252345e+001 
4381250000  -3.280067e+001  -9.999503e+001 
4384375000  -3.243493e+001  -1.058443e+002 
4387500000  -3.335941e+001  -1.124067e+002 
4390625000  -3.429032e+001  -1.125429e+002 
4393750000  -3.366749e+001  -1.120012e+002 
4396875000  -3.307134e+001  -1.159256e+002 
4400000000  -3.257841e+001  -1.243050e+002 
4403125000  -3.329004e+001  -1.326115e+002 
4406250000  -3.414796e+001  -1.353374e+002 
4409375000  -3.409165e+001  -1.384345e+002 
4412500000  -3.536536e+001  -1.422829e+002 
4415625000  -3.574239e+001  -1.368041e+002 
