!Agilent Technologies,E8363B,MY43030201,A.06.04.32
!Agilent E8363B: A.06.04.32
!Date: Tuesday, November 11, 2014 21:01:48
!Correction: S21(Response(S21)) 
!S1P File: Measurement: S21:
# Hz S  dB   R 50
3000000000  -3.633930e+001  -4.661279e+001 
3003125000  -3.741206e+001  -5.143326e+001 
3006250000  -3.724040e+001  -5.454742e+001 
3009375000  -3.751275e+001  -5.037900e+001 
3012500000  -3.678597e+001  -5.169030e+001 
3015625000  -3.589374e+001  -5.913839e+001 
3018750000  -3.672759e+001  -6.065257e+001 
3021875000  -3.535897e+001  -5.985324e+001 
3025000000  -3.409830e+001  -6.324155e+001 
3028125000  -3.313137e+001  -6.909198e+001 
3031250000  -3.210302e+001  -8.105658e+001 
3034375000  -3.166634e+001  -9.415396e+001 
3037500000  -3.205278e+001  -1.068088e+002 
3040625000  -3.350831e+001  -1.106508e+002 
3043750000  -3.422131e+001  -1.165560e+002 
3046875000  -3.428051e+001  -1.219199e+002 
3050000000  -3.602468e+001  -1.283964e+002 
3053125000  -3.587751e+001  -1.225785e+002 
3056250000  -3.547676e+001  -1.200113e+002 
3059375000  -3.555152e+001  -1.191658e+002 
3062500000  -3.397047e+001  -1.234553e+002 
3065625000  -3.389405e+001  -1.295276e+002 
3068750000  -3.348638e+001  -1.364065e+002 
3071875000  -3.338274e+001  -1.388848e+002 
3075000000  -3.327775e+001  -1.428580e+002 
3078125000  -3.302639e+001  -1.468531e+002 
3081250000  -3.348652e+001  -1.511683e+002 
3084375000  -3.255010e+001  -1.549574e+002 
3087500000  -3.238643e+001  -1.587287e+002 
3090625000  -3.191985e+001  -1.685711e+002 
3093750000  -3.235384e+001  -1.762638e+002 
3096875000  -3.351418e+001  1.776063e+002 
3100000000  -3.337278e+001  1.759089e+002 
3103125000  -3.361486e+001  1.767019e+002 
3106250000  -3.315097e+001  1.724115e+002 
3109375000  -3.327075e+001  1.684172e+002 
3112500000  -3.320593e+001  1.659798e+002 
3115625000  -3.284101e+001  1.610243e+002 
3118750000  -3.312803e+001  1.617514e+002 
3121875000  -3.229471e+001  1.523920e+002 
3125000000  -3.348336e+001  1.484713e+002 
3128125000  -3.451016e+001  1.549417e+002 
3131250000  -3.211170e+001  1.537010e+002 
3134375000  -3.075088e+001  1.383086e+002 
3137500000  -3.129018e+001  1.240809e+002 
3140625000  -3.287754e+001  1.207378e+002 
3143750000  -3.384855e+001  1.226186e+002 
3146875000  -3.336022e+001  1.232949e+002 
3150000000  -3.226915e+001  1.237157e+002 
3153125000  -3.240994e+001  1.152135e+002 
3156250000  -3.333322e+001  1.191609e+002 
3159375000  -3.166690e+001  1.207749e+002 
3162500000  -2.976448e+001  1.063749e+002 
3165625000  -3.079432e+001  9.386914e+001 
3168750000  -3.109701e+001  9.380129e+001 
3171875000  -3.017654e+001  8.805509e+001 
3175000000  -3.091290e+001  7.995409e+001 
3178125000  -3.067621e+001  8.051268e+001 
3181250000  -2.959751e+001  7.524500e+001 
3184375000  -2.886414e+001  6.236443e+001 
3187500000  -3.012786e+001  4.672159e+001 
3190625000  -3.287198e+001  3.872113e+001 
3193750000  -3.341424e+001  4.721281e+001 
3196875000  -3.315996e+001  5.222530e+001 
3200000000  -3.214426e+001  4.971339e+001 
3203125000  -3.133258e+001  4.348493e+001 
3206250000  -3.168494e+001  3.679308e+001 
3209375000  -3.118144e+001  3.082862e+001 
3212500000  -3.145578e+001  2.390549e+001 
3215625000  -3.151080e+001  1.930014e+001 
3218750000  -3.224511e+001  1.263571e+001 
3221875000  -3.314171e+001  7.319364e+000 
3225000000  -3.269364e+001  6.523401e+000 
3228125000  -3.304564e+001  1.238391e+000 
3231250000  -3.378666e+001  -1.917853e+000 
3234375000  -3.351714e+001  -1.270244e+000 
3237500000  -3.349687e+001  -3.423465e+000 
3240625000  -3.305635e+001  -5.799309e+000 
3243750000  -3.262917e+001  -1.299296e+001 
3246875000  -3.306656e+001  -2.059080e+001 
3250000000  -3.350494e+001  -2.268988e+001 
3253125000  -3.361472e+001  -2.513761e+001 
3256250000  -3.328327e+001  -3.160239e+001 
3259375000  -3.361328e+001  -4.026163e+001 
3262500000  -3.463125e+001  -4.383565e+001 
3265625000  -3.537503e+001  -4.163480e+001 
3268750000  -3.522551e+001  -3.900347e+001 
3271875000  -3.477573e+001  -3.905738e+001 
3275000000  -3.380520e+001  -4.623828e+001 
3278125000  -3.424917e+001  -5.316842e+001 
3281250000  -3.441813e+001  -5.140687e+001 
3284375000  -3.399405e+001  -5.864051e+001 
3287500000  -3.415352e+001  -6.156839e+001 
3290625000  -3.446426e+001  -6.737491e+001 
3293750000  -3.416558e+001  -7.420370e+001 
3296875000  -3.520875e+001  -7.470191e+001 
3300000000  -3.488950e+001  -7.376373e+001 
3303125000  -3.372475e+001  -7.968885e+001 
3306250000  -3.360353e+001  -8.644411e+001 
3309375000  -3.334857e+001  -9.226559e+001 
3312500000  -3.339631e+001  -1.032744e+002 
3315625000  -3.437830e+001  -1.120262e+002 
3318750000  -3.581521e+001  -1.144075e+002 
3321875000  -3.682830e+001  -1.146797e+002 
3325000000  -3.725287e+001  -1.107673e+002 
3328125000  -3.696415e+001  -1.091450e+002 
3331250000  -3.581544e+001  -1.026986e+002 
3334375000  -3.307775e+001  -1.131089e+002 
3337500000  -3.328811e+001  -1.308461e+002 
3340625000  -3.454518e+001  -1.435159e+002 
3343750000  -3.668884e+001  -1.447063e+002 
3346875000  -3.677142e+001  -1.433399e+002 
3350000000  -3.624433e+001  -1.449435e+002 
3353125000  -3.617265e+001  -1.488959e+002 
3356250000  -3.572853e+001  -1.572652e+002 
3359375000  -3.637046e+001  -1.659648e+002 
3362500000  -3.771094e+001  -1.707424e+002 
3365625000  -3.817104e+001  -1.719968e+002 
3368750000  -3.877223e+001  -1.743110e+002 
3371875000  -3.912240e+001  -1.774706e+002 
3375000000  -4.035426e+001  -1.797545e+002 
3378125000  -4.127243e+001  1.797867e+002 
3381250000  -4.239500e+001  -1.710342e+002 
3384375000  -4.155231e+001  -1.486612e+002 
3387500000  -3.777497e+001  -1.665787e+002 
3390625000  -3.927402e+001  1.735390e+002 
3393750000  -4.056127e+001  1.779543e+002 
3396875000  -3.922977e+001  1.796023e+002 
3400000000  -3.875383e+001  1.725356e+002 
3403125000  -3.945128e+001  1.660329e+002 
3406250000  -3.958757e+001  1.666699e+002 
3409375000  -4.009809e+001  1.574094e+002 
3412500000  -4.024815e+001  1.552994e+002 
3415625000  -4.100870e+001  1.572497e+002 
3418750000  -4.110373e+001  1.577940e+002 
3421875000  -4.137069e+001  1.603664e+002 
3425000000  -4.049673e+001  1.614066e+002 
3428125000  -3.943068e+001  1.570479e+002 
3431250000  -3.944228e+001  1.489987e+002 
3434375000  -3.922776e+001  1.442245e+002 
3437500000  -3.976179e+001  1.398436e+002 
3440625000  -4.000362e+001  1.414324e+002 
3443750000  -3.874295e+001  1.425471e+002 
3446875000  -3.814236e+001  1.354804e+002 
3450000000  -3.773030e+001  1.236415e+002 
3453125000  -3.796571e+001  1.140942e+002 
3456250000  -3.906912e+001  1.077247e+002 
3459375000  -3.995647e+001  1.096775e+002 
3462500000  -3.999593e+001  1.083803e+002 
3465625000  -3.985518e+001  1.031112e+002 
3468750000  -4.028461e+001  9.916529e+001 
3471875000  -4.003898e+001  9.735954e+001 
3475000000  -3.972484e+001  9.305416e+001 
3478125000  -4.050167e+001  8.611800e+001 
3481250000  -4.123696e+001  8.208310e+001 
3484375000  -4.242698e+001  8.612084e+001 
3487500000  -4.123354e+001  8.461683e+001 
3490625000  -4.076889e+001  8.204408e+001 
3493750000  -4.128180e+001  7.418217e+001 
3496875000  -4.181686e+001  7.365436e+001 
3500000000  -4.246535e+001  7.499357e+001 
3503125000  -4.221069e+001  7.673761e+001 
3506250000  -4.090736e+001  7.373856e+001 
3509375000  -4.074128e+001  6.403635e+001 
3512500000  -4.129275e+001  5.477740e+001 
3515625000  -4.179453e+001  5.158226e+001 
3518750000  -4.247491e+001  5.441819e+001 
3521875000  -4.232898e+001  5.129132e+001 
3525000000  -4.352847e+001  4.759481e+001 
3528125000  -4.380454e+001  5.213492e+001 
3531250000  -4.208220e+001  5.234299e+001 
3534375000  -4.242645e+001  4.250113e+001 
3537500000  -4.247221e+001  3.730853e+001 
3540625000  -4.349465e+001  3.687543e+001 
3543750000  -4.409668e+001  4.149911e+001 
3546875000  -4.434160e+001  5.261747e+001 
3550000000  -4.142794e+001  5.207451e+001 
3553125000  -3.999247e+001  3.515471e+001 
3556250000  -4.157041e+001  2.798780e+001 
3559375000  -4.149390e+001  2.785435e+001 
3562500000  -4.032713e+001  1.980694e+001 
3565625000  -4.111682e+001  1.361510e+001 
3568750000  -4.126629e+001  1.535026e+001 
3571875000  -4.119965e+001  1.350711e+001 
3575000000  -4.079254e+001  6.728192e+000 
3578125000  -4.112710e+001  8.172954e-001 
3581250000  -4.137887e+001  -8.317947e-001 
3584375000  -4.076095e+001  -3.016235e+000 
3587500000  -3.990730e+001  -1.229564e+001 
3590625000  -4.065074e+001  -2.183826e+001 
3593750000  -4.188298e+001  -2.368447e+001 
3596875000  -4.186435e+001  -1.585912e+001 
3600000000  -4.055300e+001  -2.336569e+001 
3603125000  -4.103111e+001  -3.710252e+001 
3606250000  -4.188673e+001  -4.289164e+001 
3609375000  -4.233907e+001  -4.476484e+001 
3612500000  -4.313060e+001  -4.864549e+001 
3615625000  -4.334262e+001  -5.219423e+001 
3618750000  -4.384941e+001  -5.229431e+001 
3621875000  -4.391043e+001  -5.480866e+001 
3625000000  -4.452254e+001  -5.524185e+001 
3628125000  -4.464887e+001  -5.708781e+001 
3631250000  -4.484497e+001  -6.056436e+001 
3634375000  -4.608582e+001  -5.913881e+001 
3637500000  -4.583554e+001  -5.468843e+001 
3640625000  -4.536760e+001  -5.291098e+001 
3643750000  -4.513899e+001  -5.795750e+001 
3646875000  -4.541568e+001  -6.383773e+001 
3650000000  -4.623306e+001  -6.332753e+001 
3653125000  -4.603256e+001  -6.418886e+001 
3656250000  -4.579995e+001  -6.197895e+001 
3659375000  -4.618912e+001  -5.985584e+001 
3662500000  -4.516862e+001  -6.104928e+001 
3665625000  -4.518060e+001  -6.277065e+001 
3668750000  -4.402928e+001  -6.238675e+001 
3671875000  -4.281615e+001  -6.907281e+001 
3675000000  -4.314817e+001  -7.622445e+001 
3678125000  -4.358256e+001  -7.645036e+001 
3681250000  -4.306332e+001  -7.996497e+001 
3684375000  -4.287313e+001  -8.495091e+001 
3687500000  -4.346594e+001  -8.789142e+001 
3690625000  -4.311544e+001  -9.441377e+001 
3693750000  -4.393134e+001  -9.490771e+001 
3696875000  -4.381019e+001  -9.270170e+001 
3700000000  -4.280460e+001  -9.587029e+001 
3703125000  -4.323546e+001  -1.055589e+002 
3706250000  -4.402472e+001  -1.080328e+002 
3709375000  -4.365138e+001  -1.024028e+002 
3712500000  -4.272968e+001  -1.042666e+002 
3715625000  -4.170384e+001  -1.135817e+002 
3718750000  -4.142668e+001  -1.192824e+002 
3721875000  -4.145526e+001  -1.234489e+002 
3725000000  -4.178820e+001  -1.296535e+002 
3728125000  -4.251864e+001  -1.325363e+002 
3731250000  -4.178368e+001  -1.358595e+002 
3734375000  -4.139003e+001  -1.414772e+002 
3737500000  -4.201372e+001  -1.479221e+002 
3740625000  -4.346215e+001  -1.515410e+002 
3743750000  -4.361506e+001  -1.549030e+002 
3746875000  -4.402719e+001  -1.573732e+002 
3750000000  -4.431684e+001  -1.574168e+002 
3753125000  -4.451960e+001  -1.575858e+002 
3756250000  -4.482750e+001  -1.569455e+002 
3759375000  -4.456090e+001  -1.558144e+002 
3762500000  -4.461763e+001  -1.564005e+002 
3765625000  -4.505621e+001  -1.566471e+002 
3768750000  -4.528397e+001  -1.542332e+002 
3771875000  -4.342466e+001  -1.538887e+002 
3775000000  -4.303626e+001  -1.617759e+002 
3778125000  -4.325177e+001  -1.638295e+002 
3781250000  -4.306864e+001  -1.633816e+002 
3784375000  -4.244473e+001  -1.648335e+002 
3787500000  -4.178574e+001  -1.681656e+002 
3790625000  -4.231815e+001  -1.762404e+002 
3793750000  -4.206936e+001  -1.736021e+002 
3796875000  -4.107696e+001  -1.774069e+002 
3800000000  -3.963541e+001  1.793178e+002 
3803125000  -4.017163e+001  1.695216e+002 
3806250000  -4.101022e+001  1.665673e+002 
3809375000  -4.037011e+001  1.643211e+002 
3812500000  -3.989385e+001  1.587651e+002 
3815625000  -4.019085e+001  1.487954e+002 
3818750000  -4.136694e+001  1.480781e+002 
3821875000  -4.111917e+001  1.544177e+002 
3825000000  -3.930321e+001  1.593382e+002 
3828125000  -3.790021e+001  1.414967e+002 
3831250000  -3.841306e+001  1.275523e+002 
3834375000  -4.037809e+001  1.242196e+002 
3837500000  -4.112236e+001  1.292500e+002 
3840625000  -3.976208e+001  1.272684e+002 
3843750000  -3.893766e+001  1.147415e+002 
3846875000  -3.967932e+001  1.071819e+002 
3850000000  -4.081845e+001  1.127445e+002 
3853125000  -4.013208e+001  1.145353e+002 
3856250000  -4.043892e+001  1.089456e+002 
3859375000  -3.973662e+001  1.016560e+002 
3862500000  -3.919759e+001  9.489169e+001 
3865625000  -3.956233e+001  8.895269e+001 
3868750000  -3.991090e+001  8.959094e+001 
3871875000  -3.919949e+001  8.577023e+001 
3875000000  -3.950850e+001  7.332059e+001 
3878125000  -4.073753e+001  7.382477e+001 
3881250000  -4.067956e+001  7.617257e+001 
3884375000  -4.016089e+001  7.048382e+001 
3887500000  -4.006261e+001  6.700835e+001 
3890625000  -4.086710e+001  6.383143e+001 
3893750000  -4.128907e+001  6.244602e+001 
3896875000  -4.142825e+001  6.479788e+001 
3900000000  -4.154468e+001  6.409595e+001 
3903125000  -4.110493e+001  5.919097e+001 
3906250000  -4.097823e+001  5.723366e+001 
3909375000  -3.975192e+001  5.626045e+001 
3912500000  -4.029070e+001  4.622245e+001 
3915625000  -4.113577e+001  5.065446e+001 
3918750000  -4.099719e+001  4.929730e+001 
3921875000  -4.068071e+001  4.518016e+001 
3925000000  -3.979294e+001  4.341716e+001 
3928125000  -3.907453e+001  3.710389e+001 
3931250000  -3.946606e+001  3.213099e+001 
3934375000  -3.978743e+001  3.105036e+001 
3937500000  -3.992458e+001  2.912517e+001 
3940625000  -4.036666e+001  2.764085e+001 
3943750000  -3.937481e+001  2.856849e+001 
3946875000  -3.796843e+001  2.088588e+001 
3950000000  -3.888280e+001  1.275154e+001 
3953125000  -3.997231e+001  1.274525e+001 
3956250000  -3.903459e+001  1.464850e+001 
3959375000  -3.749521e+001  8.614113e+000 
3962500000  -3.736917e+001  4.700921e+000 
3965625000  -3.701187e+001  -5.498435e+000 
3968750000  -3.785053e+001  -1.290709e+001 
3971875000  -3.813178e+001  -1.670772e+001 
3975000000  -3.760794e+001  -1.926056e+001 
3978125000  -3.775948e+001  -2.247244e+001 
3981250000  -3.754442e+001  -2.700824e+001 
3984375000  -3.783755e+001  -3.428509e+001 
3987500000  -3.832109e+001  -3.470029e+001 
3990625000  -3.835987e+001  -3.919372e+001 
3993750000  -3.877204e+001  -4.231394e+001 
3996875000  -3.892862e+001  -4.606977e+001 
4000000000  -3.911196e+001  -4.913549e+001 
4003125000  -3.973001e+001  -4.552777e+001 
4006250000  -3.816893e+001  -4.615901e+001 
4009375000  -3.730264e+001  -5.889046e+001 
4012500000  -3.848561e+001  -6.700850e+001 
4015625000  -3.991578e+001  -6.707560e+001 
4018750000  -3.999306e+001  -6.603410e+001 
4021875000  -3.926648e+001  -6.688160e+001 
4025000000  -3.898071e+001  -7.221785e+001 
4028125000  -3.892003e+001  -7.622472e+001 
4031250000  -3.952483e+001  -8.045013e+001 
4034375000  -3.981343e+001  -7.872655e+001 
4037500000  -3.932256e+001  -7.945442e+001 
4040625000  -3.907357e+001  -8.255844e+001 
4043750000  -3.946228e+001  -8.503056e+001 
4046875000  -3.915358e+001  -8.483817e+001 
4050000000  -3.838794e+001  -9.046506e+001 
4053125000  -3.883487e+001  -9.351591e+001 
4056250000  -3.934714e+001  -8.947904e+001 
4059375000  -3.797707e+001  -8.826567e+001 
4062500000  -3.658280e+001  -9.465528e+001 
4065625000  -3.646972e+001  -9.943275e+001 
4068750000  -3.615990e+001  -1.047415e+002 
4071875000  -3.574538e+001  -1.142045e+002 
4075000000  -3.616870e+001  -1.211990e+002 
4078125000  -3.655503e+001  -1.227448e+002 
4081250000  -3.613503e+001  -1.263834e+002 
4084375000  -3.563666e+001  -1.333662e+002 
4087500000  -3.596619e+001  -1.415267e+002 
4090625000  -3.665046e+001  -1.427053e+002 
4093750000  -3.637305e+001  -1.443404e+002 
4096875000  -3.582055e+001  -1.505633e+002 
4100000000  -3.677253e+001  -1.586387e+002 
4103125000  -3.767416e+001  -1.590167e+002 
4106250000  -3.737602e+001  -1.534763e+002 
4109375000  -3.639334e+001  -1.558989e+002 
4112500000  -3.584803e+001  -1.641839e+002 
4115625000  -3.641578e+001  -1.684285e+002 
4118750000  -3.664034e+001  -1.731313e+002 
4121875000  -3.624274e+001  -1.784905e+002 
4125000000  -3.664883e+001  1.750493e+002 
4128125000  -3.762110e+001  1.753396e+002 
4131250000  -3.737685e+001  -1.785047e+002 
4134375000  -3.501239e+001  1.756830e+002 
4137500000  -3.512127e+001  1.568817e+002 
4140625000  -3.737785e+001  1.481133e+002 
4143750000  -3.867532e+001  1.517057e+002 
4146875000  -3.840054e+001  1.598970e+002 
4150000000  -3.774347e+001  1.564783e+002 
4153125000  -3.746260e+001  1.475137e+002 
4156250000  -3.856331e+001  1.453917e+002 
4159375000  -3.866852e+001  1.495706e+002 
4162500000  -3.775929e+001  1.547554e+002 
4165625000  -3.665201e+001  1.485976e+002 
4168750000  -3.601324e+001  1.422145e+002 
4171875000  -3.600034e+001  1.317444e+002 
4175000000  -3.672766e+001  1.268934e+002 
4178125000  -3.717097e+001  1.264038e+002 
4181250000  -3.701380e+001  1.253478e+002 
4184375000  -3.681331e+001  1.236763e+002 
4187500000  -3.694470e+001  1.188189e+002 
4190625000  -3.692970e+001  1.122631e+002 
4193750000  -3.742431e+001  1.086230e+002 
4196875000  -3.815542e+001  1.067900e+002 
4200000000  -3.928081e+001  1.099562e+002 
4203125000  -3.901399e+001  1.231597e+002 
4206250000  -3.536145e+001  1.230039e+002 
4209375000  -3.426753e+001  9.999728e+001 
4212500000  -3.617063e+001  9.271326e+001 
4215625000  -3.711223e+001  9.699144e+001 
4218750000  -3.574860e+001  1.040559e+002 
4221875000  -3.331252e+001  9.323554e+001 
4225000000  -3.465897e+001  8.158186e+001 
4228125000  -3.531989e+001  8.351613e+001 
4231250000  -3.355331e+001  7.965140e+001 
4234375000  -3.339583e+001  6.928838e+001 
4237500000  -3.286232e+001  6.641181e+001 
4240625000  -3.305245e+001  5.521790e+001 
4243750000  -3.408971e+001  4.681006e+001 
4246875000  -3.490063e+001  4.598883e+001 
4250000000  -3.489880e+001  4.719366e+001 
4253125000  -3.446210e+001  4.426159e+001 
4256250000  -3.462142e+001  3.929469e+001 
4259375000  -3.450565e+001  3.661893e+001 
4262500000  -3.453600e+001  3.112864e+001 
4265625000  -3.449781e+001  3.079618e+001 
4268750000  -3.377549e+001  2.494582e+001 
4271875000  -3.370108e+001  1.735782e+001 
4275000000  -3.335170e+001  1.019797e+001 
4278125000  -3.399348e+001  -1.717957e+000 
4281250000  -3.596877e+001  -3.944636e+000 
4284375000  -3.564062e+001  -4.194178e+000 
4287500000  -3.701909e+001  -9.088526e+000 
4290625000  -3.829950e+001  -4.942667e-001 
4293750000  -3.605814e+001  4.765602e+000 
4296875000  -3.492634e+001  -7.080559e+000 
4300000000  -3.603080e+001  -1.586520e+001 
4303125000  -3.733375e+001  -1.374991e+001 
4306250000  -3.653797e+001  -7.849008e+000 
4309375000  -3.533111e+001  -8.884000e+000 
4312500000  -3.520195e+001  -1.666253e+001 
4315625000  -3.529135e+001  -2.404693e+001 
4318750000  -3.572000e+001  -2.734944e+001 
4321875000  -3.572010e+001  -2.662258e+001 
4325000000  -3.512102e+001  -2.499626e+001 
4328125000  -3.441148e+001  -3.205376e+001 
4331250000  -3.435017e+001  -4.123391e+001 
4334375000  -3.464796e+001  -4.517186e+001 
4337500000  -3.540448e+001  -4.856590e+001 
4340625000  -3.586026e+001  -4.399922e+001 
4343750000  -3.507412e+001  -4.569667e+001 
4346875000  -3.446383e+001  -5.146006e+001 
4350000000  -3.461090e+001  -5.741364e+001 
4353125000  -3.456039e+001  -6.570749e+001 
4356250000  -3.616693e+001  -6.754933e+001 
4359375000  -3.634437e+001  -5.398389e+001 
4362500000  -3.357571e+001  -5.443148e+001 
4365625000  -3.196942e+001  -6.809048e+001 
4368750000  -3.268523e+001  -8.036194e+001 
4371875000  -3.389201e+001  -7.969233e+001 
4375000000  -3.327126e+001  -8.166221e+001 
4378125000  -3.280428e+001  -8.859216e+001 
4381250000  -3.285793e+001  -9.553902e+001 
4384375000  -3.264670e+001  -1.027178e+002 
4387500000  -3.336210e+001  -1.094863e+002 
4390625000  -3.442302e+001  -1.098555e+002 
4393750000  -3.364838e+001  -1.089842e+002 
4396875000  -3.306789e+001  -1.129304e+002 
4400000000  -3.264404e+001  -1.209397e+002 
4403125000  -3.322253e+001  -1.295238e+002 
4406250000  -3.401246e+001  -1.333651e+002 
4409375000  -3.412765e+001  -1.363713e+002 
4412500000  -3.550347e+001  -1.405717e+002 
4415625000  -3.578496e+001  -1.353276e+002 
