!Agilent Technologies,E8363B,MY43030201,A.06.04.32
!Agilent E8363B: A.06.04.32
!Date: Tuesday, November 11, 2014 21:10:40
!Correction: S21(Response(S21)) 
!S1P File: Measurement: S21:
# Hz S  dB   R 50
3000000000  -3.659258e+001  -5.578683e+001 
3003125000  -3.769341e+001  -6.016943e+001 
3006250000  -3.761557e+001  -6.363337e+001 
3009375000  -3.789003e+001  -5.849516e+001 
3012500000  -3.701941e+001  -6.056240e+001 
3015625000  -3.615673e+001  -6.836016e+001 
3018750000  -3.700383e+001  -6.920619e+001 
3021875000  -3.545060e+001  -6.913418e+001 
3025000000  -3.407958e+001  -7.225625e+001 
3028125000  -3.326965e+001  -7.919456e+001 
3031250000  -3.218715e+001  -9.030567e+001 
3034375000  -3.180552e+001  -1.043093e+002 
3037500000  -3.228388e+001  -1.155841e+002 
3040625000  -3.363226e+001  -1.208377e+002 
3043750000  -3.434315e+001  -1.259752e+002 
3046875000  -3.451106e+001  -1.321733e+002 
3050000000  -3.626151e+001  -1.381355e+002 
3053125000  -3.617450e+001  -1.314838e+002 
3056250000  -3.571510e+001  -1.287511e+002 
3059375000  -3.571065e+001  -1.293211e+002 
3062500000  -3.413390e+001  -1.330685e+002 
3065625000  -3.388927e+001  -1.389756e+002 
3068750000  -3.362780e+001  -1.456777e+002 
3071875000  -3.352613e+001  -1.485481e+002 
3075000000  -3.328765e+001  -1.525218e+002 
3078125000  -3.299600e+001  -1.568239e+002 
3081250000  -3.355222e+001  -1.613448e+002 
3084375000  -3.266014e+001  -1.641958e+002 
3087500000  -3.255067e+001  -1.684645e+002 
3090625000  -3.200592e+001  -1.786326e+002 
3093750000  -3.255135e+001  1.740199e+002 
3096875000  -3.354268e+001  1.682632e+002 
3100000000  -3.340142e+001  1.661210e+002 
3103125000  -3.367430e+001  1.667970e+002 
3106250000  -3.320525e+001  1.626694e+002 
3109375000  -3.328504e+001  1.586207e+002 
3112500000  -3.326199e+001  1.562032e+002 
3115625000  -3.281085e+001  1.517940e+002 
3118750000  -3.323255e+001  1.519649e+002 
3121875000  -3.230909e+001  1.424109e+002 
3125000000  -3.360349e+001  1.384343e+002 
3128125000  -3.450887e+001  1.460192e+002 
3131250000  -3.208859e+001  1.438524e+002 
3134375000  -3.077539e+001  1.282658e+002 
3137500000  -3.131965e+001  1.136965e+002 
3140625000  -3.282500e+001  1.115270e+002 
3143750000  -3.380793e+001  1.126349e+002 
3146875000  -3.325271e+001  1.140587e+002 
3150000000  -3.232817e+001  1.140000e+002 
3153125000  -3.234118e+001  1.053171e+002 
3156250000  -3.326822e+001  1.091256e+002 
3159375000  -3.152169e+001  1.109585e+002 
3162500000  -2.964553e+001  9.647370e+001 
3165625000  -3.078602e+001  8.401644e+001 
3168750000  -3.102745e+001  8.420522e+001 
3171875000  -3.007841e+001  7.879297e+001 
3175000000  -3.086505e+001  6.969546e+001 
3178125000  -3.057378e+001  7.059122e+001 
3181250000  -2.952619e+001  6.510359e+001 
3184375000  -2.888497e+001  5.195939e+001 
3187500000  -3.008916e+001  3.694274e+001 
3190625000  -3.270522e+001  2.901588e+001 
3193750000  -3.326457e+001  3.766595e+001 
3196875000  -3.300254e+001  4.236045e+001 
3200000000  -3.195996e+001  3.960407e+001 
3203125000  -3.121485e+001  3.294321e+001 
3206250000  -3.158656e+001  2.646712e+001 
3209375000  -3.103193e+001  2.011386e+001 
3212500000  -3.138276e+001  1.351560e+001 
3215625000  -3.131303e+001  1.028476e+001 
3218750000  -3.212831e+001  1.985292e+000 
3221875000  -3.294509e+001  -3.134098e+000 
3225000000  -3.252181e+001  -4.288524e+000 
3228125000  -3.286760e+001  -9.473948e+000 
3231250000  -3.365795e+001  -1.230219e+001 
3234375000  -3.331311e+001  -1.188788e+001 
3237500000  -3.320514e+001  -1.374836e+001 
3240625000  -3.286429e+001  -1.683352e+001 
3243750000  -3.250254e+001  -2.448916e+001 
3246875000  -3.290461e+001  -3.165603e+001 
3250000000  -3.329076e+001  -3.401291e+001 
3253125000  -3.345378e+001  -3.577383e+001 
3256250000  -3.311357e+001  -4.275749e+001 
3259375000  -3.337613e+001  -5.092229e+001 
3262500000  -3.468259e+001  -5.482358e+001 
3265625000  -3.513652e+001  -5.221322e+001 
3268750000  -3.491483e+001  -5.026164e+001 
3271875000  -3.469625e+001  -5.029517e+001 
3275000000  -3.373201e+001  -5.758553e+001 
3278125000  -3.417205e+001  -6.443148e+001 
3281250000  -3.431336e+001  -6.326508e+001 
3284375000  -3.384558e+001  -7.018730e+001 
3287500000  -3.398851e+001  -7.350868e+001 
3290625000  -3.426726e+001  -7.957587e+001 
3293750000  -3.400707e+001  -8.508385e+001 
3296875000  -3.510549e+001  -8.531391e+001 
3300000000  -3.476412e+001  -8.555108e+001 
3303125000  -3.363041e+001  -9.074302e+001 
3306250000  -3.349304e+001  -9.725264e+001 
3309375000  -3.318077e+001  -1.034495e+002 
3312500000  -3.326838e+001  -1.158437e+002 
3315625000  -3.427524e+001  -1.232987e+002 
3318750000  -3.571583e+001  -1.259509e+002 
3321875000  -3.673689e+001  -1.257459e+002 
3325000000  -3.735233e+001  -1.207269e+002 
3328125000  -3.653985e+001  -1.196409e+002 
3331250000  -3.539153e+001  -1.131633e+002 
3334375000  -3.283488e+001  -1.246150e+002 
3337500000  -3.301418e+001  -1.438251e+002 
3340625000  -3.444238e+001  -1.547413e+002 
3343750000  -3.647243e+001  -1.558824e+002 
3346875000  -3.658998e+001  -1.536218e+002 
3350000000  -3.579489e+001  -1.556160e+002 
3353125000  -3.585981e+001  -1.606084e+002 
3356250000  -3.548812e+001  -1.683164e+002 
3359375000  -3.633182e+001  -1.772092e+002 
3362500000  -3.734322e+001  1.770896e+002 
3365625000  -3.785354e+001  1.751998e+002 
3368750000  -3.857718e+001  1.729692e+002 
3371875000  -3.891492e+001  1.700988e+002 
3375000000  -4.024236e+001  1.681614e+002 
3378125000  -4.111955e+001  1.668417e+002 
3381250000  -4.247583e+001  1.775898e+002 
3384375000  -4.062511e+001  -1.618467e+002 
3387500000  -3.726002e+001  -1.784467e+002 
3390625000  -3.917223e+001  1.613362e+002 
3393750000  -4.035552e+001  1.651428e+002 
3396875000  -3.920527e+001  1.664165e+002 
3400000000  -3.866515e+001  1.581234e+002 
3403125000  -3.913868e+001  1.521563e+002 
3406250000  -3.967057e+001  1.525518e+002 
3409375000  -3.968960e+001  1.443015e+002 
3412500000  -4.026503e+001  1.445111e+002 
3415625000  -4.091938e+001  1.440246e+002 
3418750000  -4.118869e+001  1.431679e+002 
3421875000  -4.113989e+001  1.476261e+002 
3425000000  -4.020333e+001  1.476779e+002 
3428125000  -3.938171e+001  1.429855e+002 
3431250000  -3.924339e+001  1.375460e+002 
3434375000  -3.909987e+001  1.301284e+002 
3437500000  -3.966721e+001  1.269577e+002 
3440625000  -3.994421e+001  1.281811e+002 
3443750000  -3.858390e+001  1.295958e+002 
3446875000  -3.797267e+001  1.222307e+002 
3450000000  -3.750455e+001  1.097721e+002 
3453125000  -3.795045e+001  1.014187e+002 
3456250000  -3.911790e+001  9.495760e+001 
3459375000  -4.013752e+001  9.700060e+001 
3462500000  -3.985067e+001  9.821867e+001 
3465625000  -3.957475e+001  9.055537e+001 
3468750000  -3.996883e+001  8.707870e+001 
3471875000  -4.002030e+001  8.370150e+001 
3475000000  -3.939574e+001  7.931369e+001 
3478125000  -4.020102e+001  7.177525e+001 
3481250000  -4.107594e+001  7.017725e+001 
3484375000  -4.218287e+001  7.623362e+001 
3487500000  -4.133973e+001  7.350689e+001 
3490625000  -4.076167e+001  6.767800e+001 
3493750000  -4.129671e+001  6.171167e+001 
3496875000  -4.185628e+001  6.090619e+001 
3500000000  -4.218563e+001  6.512238e+001 
3503125000  -4.181651e+001  6.542361e+001 
3506250000  -4.036952e+001  5.974092e+001 
3509375000  -4.048065e+001  4.934798e+001 
3512500000  -4.105628e+001  4.077756e+001 
3515625000  -4.172233e+001  3.940122e+001 
3518750000  -4.245127e+001  3.916273e+001 
3521875000  -4.237778e+001  3.561146e+001 
3525000000  -4.346949e+001  3.428401e+001 
3528125000  -4.327392e+001  4.372300e+001 
3531250000  -4.233103e+001  3.916143e+001 
3534375000  -4.195890e+001  2.886889e+001 
3537500000  -4.278360e+001  2.485803e+001 
3540625000  -4.353149e+001  2.211026e+001 
3543750000  -4.443756e+001  2.695341e+001 
3546875000  -4.416131e+001  3.849718e+001 
3550000000  -4.136788e+001  4.024539e+001 
3553125000  -4.034156e+001  1.961602e+001 
3556250000  -4.146408e+001  1.588533e+001 
3559375000  -4.134658e+001  1.704415e+001 
3562500000  -4.009056e+001  6.940300e+000 
3565625000  -4.123160e+001  1.348778e+000 
3568750000  -4.132811e+001  3.818889e+000 
3571875000  -4.098310e+001  2.212057e+000 
3575000000  -4.056830e+001  -4.722841e+000 
3578125000  -4.131049e+001  -1.031085e+001 
3581250000  -4.157134e+001  -1.045360e+001 
3584375000  -4.049154e+001  -1.590456e+001 
3587500000  -3.988102e+001  -2.343616e+001 
3590625000  -4.043948e+001  -3.273046e+001 
3593750000  -4.166247e+001  -3.454639e+001 
3596875000  -4.154602e+001  -2.800393e+001 
3600000000  -4.013430e+001  -3.705073e+001 
3603125000  -4.033404e+001  -4.859484e+001 
3606250000  -4.127715e+001  -5.293687e+001 
3609375000  -4.184163e+001  -5.518346e+001 
3612500000  -4.256066e+001  -5.872944e+001 
3615625000  -4.290891e+001  -6.209889e+001 
3618750000  -4.367239e+001  -6.396343e+001 
3621875000  -4.334505e+001  -6.516879e+001 
3625000000  -4.393901e+001  -6.509381e+001 
3628125000  -4.414153e+001  -6.781763e+001 
3631250000  -4.374702e+001  -7.353109e+001 
3634375000  -4.567123e+001  -7.472139e+001 
3637500000  -4.524268e+001  -6.634781e+001 
3640625000  -4.413526e+001  -6.709602e+001 
3643750000  -4.418332e+001  -7.513571e+001 
3646875000  -4.459114e+001  -8.024182e+001 
3650000000  -4.547432e+001  -7.773756e+001 
3653125000  -4.545056e+001  -7.982026e+001 
3656250000  -4.598618e+001  -8.122513e+001 
3659375000  -4.580295e+001  -7.748032e+001 
3662500000  -4.528086e+001  -7.857674e+001 
3665625000  -4.516444e+001  -7.874788e+001 
3668750000  -4.371278e+001  -7.922650e+001 
3671875000  -4.241006e+001  -8.335894e+001 
3675000000  -4.332490e+001  -9.446120e+001 
3678125000  -4.325343e+001  -9.280734e+001 
3681250000  -4.336736e+001  -9.305755e+001 
3684375000  -4.285728e+001  -1.012381e+002 
3687500000  -4.271116e+001  -1.043426e+002 
3690625000  -4.313583e+001  -1.088358e+002 
3693750000  -4.399025e+001  -1.079265e+002 
3696875000  -4.331058e+001  -1.076288e+002 
3700000000  -4.284644e+001  -1.122109e+002 
3703125000  -4.321110e+001  -1.175821e+002 
3706250000  -4.379092e+001  -1.188287e+002 
3709375000  -4.350713e+001  -1.157721e+002 
3712500000  -4.256015e+001  -1.177291e+002 
3715625000  -4.119749e+001  -1.271908e+002 
3718750000  -4.134438e+001  -1.316577e+002 
3721875000  -4.103262e+001  -1.384929e+002 
3725000000  -4.121828e+001  -1.450551e+002 
3728125000  -4.199225e+001  -1.471734e+002 
3731250000  -4.167518e+001  -1.483091e+002 
3734375000  -4.114350e+001  -1.554017e+002 
3737500000  -4.195861e+001  -1.642150e+002 
3740625000  -4.289840e+001  -1.664042e+002 
3743750000  -4.303963e+001  -1.701318e+002 
3746875000  -4.350537e+001  -1.716335e+002 
3750000000  -4.393728e+001  -1.741992e+002 
3753125000  -4.409964e+001  -1.724864e+002 
3756250000  -4.401729e+001  -1.686024e+002 
3759375000  -4.441386e+001  -1.705321e+002 
3762500000  -4.405770e+001  -1.737769e+002 
3765625000  -4.436617e+001  -1.734769e+002 
3768750000  -4.446748e+001  -1.702825e+002 
3771875000  -4.304625e+001  -1.737699e+002 
3775000000  -4.340014e+001  -1.799305e+002 
3778125000  -4.319947e+001  1.767362e+002 
3781250000  -4.274758e+001  1.777175e+002 
3784375000  -4.268615e+001  1.757302e+002 
3787500000  -4.199623e+001  1.761124e+002 
3790625000  -4.215704e+001  1.678013e+002 
3793750000  -4.216273e+001  1.678711e+002 
3796875000  -4.149315e+001  1.647518e+002 
3800000000  -3.975516e+001  1.632793e+002 
3803125000  -4.043874e+001  1.528598e+002 
3806250000  -4.105067e+001  1.503347e+002 
3809375000  -4.084977e+001  1.473098e+002 
3812500000  -3.983167e+001  1.425950e+002 
3815625000  -4.058153e+001  1.315091e+002 
3818750000  -4.142042e+001  1.317540e+002 
3821875000  -4.129151e+001  1.394764e+002 
3825000000  -3.933752e+001  1.413842e+002 
3828125000  -3.826742e+001  1.250127e+002 
3831250000  -3.887608e+001  1.125298e+002 
3834375000  -4.042556e+001  1.099525e+002 
3837500000  -4.139112e+001  1.148517e+002 
3840625000  -4.003899e+001  1.096940e+002 
3843750000  -3.917662e+001  9.930470e+001 
3846875000  -3.961160e+001  9.291713e+001 
3850000000  -4.119910e+001  9.821658e+001 
3853125000  -4.041713e+001  1.016149e+002 
3856250000  -4.019021e+001  9.447758e+001 
3859375000  -3.955082e+001  8.773165e+001 
3862500000  -3.915703e+001  8.090627e+001 
3865625000  -3.983372e+001  7.593555e+001 
3868750000  -3.981729e+001  7.362760e+001 
3871875000  -3.905315e+001  7.003333e+001 
3875000000  -3.942108e+001  5.883849e+001 
3878125000  -4.056193e+001  5.732586e+001 
3881250000  -4.069057e+001  6.199249e+001 
3884375000  -4.014690e+001  5.453026e+001 
3887500000  -4.040384e+001  5.349012e+001 
3890625000  -4.122599e+001  4.868096e+001 
3893750000  -4.116026e+001  4.785311e+001 
3896875000  -4.150376e+001  5.035429e+001 
3900000000  -4.175219e+001  4.825134e+001 
3903125000  -4.115683e+001  4.562814e+001 
3906250000  -4.086225e+001  4.305505e+001 
3909375000  -4.024434e+001  3.996148e+001 
3912500000  -4.026373e+001  3.025463e+001 
3915625000  -4.172796e+001  3.462713e+001 
3918750000  -4.102549e+001  3.211465e+001 
3921875000  -4.066878e+001  3.095904e+001 
3925000000  -3.972970e+001  2.838772e+001 
3928125000  -3.939270e+001  2.100648e+001 
3931250000  -3.967143e+001  1.587893e+001 
3934375000  -4.001559e+001  1.518221e+001 
3937500000  -4.015011e+001  1.356072e+001 
3940625000  -4.050477e+001  1.099201e+001 
3943750000  -3.952107e+001  1.181907e+001 
3946875000  -3.828925e+001  5.241144e+000 
3950000000  -3.905030e+001  -2.563791e+000 
3953125000  -3.999252e+001  -3.909767e+000 
3956250000  -3.901695e+001  -1.960194e+000 
3959375000  -3.790213e+001  -6.514683e+000 
3962500000  -3.730092e+001  -1.176777e+001 
3965625000  -3.730874e+001  -2.060033e+001 
3968750000  -3.835627e+001  -2.975486e+001 
3971875000  -3.825006e+001  -3.106844e+001 
3975000000  -3.795798e+001  -3.328236e+001 
3978125000  -3.793641e+001  -3.707884e+001 
3981250000  -3.782117e+001  -4.169752e+001 
3984375000  -3.819487e+001  -4.884328e+001 
3987500000  -3.863096e+001  -5.045647e+001 
3990625000  -3.861078e+001  -5.191232e+001 
3993750000  -3.902639e+001  -5.707835e+001 
3996875000  -3.893488e+001  -6.172258e+001 
4000000000  -3.925761e+001  -6.082688e+001 
4003125000  -3.966771e+001  -5.998032e+001 
4006250000  -3.831126e+001  -6.122747e+001 
4009375000  -3.732138e+001  -7.345905e+001 
4012500000  -3.831303e+001  -8.127652e+001 
4015625000  -3.990573e+001  -8.112767e+001 
4018750000  -4.010320e+001  -7.889641e+001 
4021875000  -3.942975e+001  -8.213632e+001 
4025000000  -3.884008e+001  -8.706543e+001 
4028125000  -3.913893e+001  -8.968183e+001 
4031250000  -3.964069e+001  -9.488932e+001 
4034375000  -3.983162e+001  -9.510272e+001 
4037500000  -3.921086e+001  -9.491177e+001 
4040625000  -3.905126e+001  -9.824062e+001 
4043750000  -3.944516e+001  -9.826911e+001 
4046875000  -3.882331e+001  -9.807816e+001 
4050000000  -3.840569e+001  -1.071202e+002 
4053125000  -3.910791e+001  -1.085738e+002 
4056250000  -3.929766e+001  -1.041281e+002 
4059375000  -3.807764e+001  -1.036122e+002 
4062500000  -3.682420e+001  -1.099021e+002 
4065625000  -3.668979e+001  -1.158181e+002 
4068750000  -3.640918e+001  -1.217067e+002 
4071875000  -3.570091e+001  -1.300726e+002 
4075000000  -3.618066e+001  -1.362615e+002 
4078125000  -3.671266e+001  -1.381761e+002 
4081250000  -3.608929e+001  -1.420541e+002 
4084375000  -3.564430e+001  -1.501372e+002 
4087500000  -3.622727e+001  -1.567603e+002 
4090625000  -3.680367e+001  -1.585016e+002 
4093750000  -3.652759e+001  -1.605662e+002 
4096875000  -3.632330e+001  -1.665959e+002 
4100000000  -3.692682e+001  -1.753399e+002 
4103125000  -3.769541e+001  -1.718278e+002 
4106250000  -3.759735e+001  -1.694028e+002 
4109375000  -3.665698e+001  -1.726825e+002 
4112500000  -3.633393e+001  -1.793333e+002 
4115625000  -3.653852e+001  1.758403e+002 
4118750000  -3.690241e+001  1.710986e+002 
4121875000  -3.631921e+001  1.654269e+002 
4125000000  -3.695237e+001  1.600754e+002 
4128125000  -3.770321e+001  1.597936e+002 
4131250000  -3.744146e+001  1.676697e+002 
4134375000  -3.522442e+001  1.617587e+002 
4137500000  -3.535327e+001  1.412278e+002 
4140625000  -3.758177e+001  1.340521e+002 
4143750000  -3.904733e+001  1.395399e+002 
4146875000  -3.828001e+001  1.459971e+002 
4150000000  -3.749628e+001  1.410562e+002 
4153125000  -3.767049e+001  1.329220e+002 
4156250000  -3.858667e+001  1.304373e+002 
4159375000  -3.885705e+001  1.353639e+002 
4162500000  -3.767461e+001  1.404991e+002 
4165625000  -3.664838e+001  1.349972e+002 
4168750000  -3.595102e+001  1.258535e+002 
4171875000  -3.596252e+001  1.163232e+002 
4175000000  -3.671400e+001  1.111071e+002 
4178125000  -3.732199e+001  1.105191e+002 
4181250000  -3.703644e+001  1.100472e+002 
4184375000  -3.667646e+001  1.053447e+002 
4187500000  -3.683527e+001  1.025016e+002 
4190625000  -3.679110e+001  9.670954e+001 
4193750000  -3.759254e+001  9.086332e+001 
4196875000  -3.832571e+001  9.142119e+001 
4200000000  -3.906281e+001  9.282852e+001 
4203125000  -3.865514e+001  1.071435e+002 
4206250000  -3.531072e+001  1.064631e+002 
4209375000  -3.413094e+001  8.360693e+001 
4212500000  -3.631157e+001  7.552019e+001 
4215625000  -3.707177e+001  8.080126e+001 
4218750000  -3.564275e+001  8.652425e+001 
4221875000  -3.335963e+001  7.690623e+001 
4225000000  -3.470422e+001  6.432791e+001 
4228125000  -3.509556e+001  6.786829e+001 
4231250000  -3.367308e+001  6.240523e+001 
4234375000  -3.343307e+001  5.343431e+001 
4237500000  -3.285830e+001  4.872793e+001 
4240625000  -3.310643e+001  3.914892e+001 
4243750000  -3.414591e+001  3.023676e+001 
4246875000  -3.514792e+001  3.014511e+001 
4250000000  -3.504853e+001  3.125338e+001 
4253125000  -3.447436e+001  2.827027e+001 
4256250000  -3.481402e+001  2.402433e+001 
4259375000  -3.457135e+001  1.997000e+001 
4262500000  -3.479603e+001  1.508866e+001 
4265625000  -3.482575e+001  1.563087e+001 
4268750000  -3.405932e+001  9.313436e+000 
4271875000  -3.398767e+001  1.891742e+000 
4275000000  -3.344405e+001  -5.809223e+000 
4278125000  -3.425836e+001  -1.673472e+001 
4281250000  -3.610577e+001  -1.867504e+001 
4284375000  -3.589986e+001  -1.986604e+001 
4287500000  -3.690232e+001  -2.348870e+001 
4290625000  -3.818542e+001  -1.475698e+001 
4293750000  -3.620609e+001  -8.787773e+000 
4296875000  -3.493209e+001  -2.103997e+001 
4300000000  -3.599034e+001  -2.927081e+001 
4303125000  -3.709938e+001  -2.839697e+001 
4306250000  -3.639672e+001  -2.127369e+001 
4309375000  -3.505500e+001  -2.359974e+001 
4312500000  -3.499519e+001  -3.253100e+001 
4315625000  -3.508120e+001  -3.863744e+001 
4318750000  -3.550023e+001  -4.237188e+001 
4321875000  -3.554805e+001  -4.196339e+001 
4325000000  -3.501205e+001  -4.198547e+001 
4328125000  -3.431197e+001  -4.781257e+001 
4331250000  -3.409880e+001  -5.799718e+001 
4334375000  -3.450809e+001  -6.312195e+001 
4337500000  -3.534057e+001  -6.520760e+001 
4340625000  -3.585577e+001  -6.162529e+001 
4343750000  -3.490589e+001  -6.303584e+001 
4346875000  -3.453814e+001  -6.914918e+001 
4350000000  -3.451455e+001  -7.541370e+001 
4353125000  -3.449035e+001  -8.386757e+001 
4356250000  -3.631193e+001  -8.306367e+001 
4359375000  -3.657705e+001  -6.877108e+001 
4362500000  -3.333847e+001  -7.238004e+001 
4365625000  -3.191426e+001  -8.494289e+001 
4368750000  -3.288404e+001  -9.901633e+001 
4371875000  -3.394932e+001  -9.851680e+001 
4375000000  -3.325045e+001  -9.962103e+001 
4378125000  -3.276494e+001  -1.064254e+002 
4381250000  -3.296061e+001  -1.132575e+002 
4384375000  -3.278901e+001  -1.199775e+002 
4387500000  -3.360803e+001  -1.271084e+002 
4390625000  -3.449910e+001  -1.259122e+002 
4393750000  -3.409066e+001  -1.253908e+002 
4396875000  -3.327530e+001  -1.298419e+002 
4400000000  -3.293061e+001  -1.378397e+002 
4403125000  -3.356971e+001  -1.464219e+002 
4406250000  -3.427980e+001  -1.493856e+002 
4409375000  -3.446883e+001  -1.528563e+002 
4412500000  -3.572828e+001  -1.562162e+002 
4415625000  -3.611376e+001  -1.515290e+002 
