!Agilent Technologies,E8363B,MY43030201,A.06.04.32
!Agilent E8363B: A.06.04.32
!Date: Tuesday, November 11, 2014 21:11:42
!Correction: S21(Response(S21)) 
!S1P File: Measurement: S21:
# Hz S  dB   R 50
3000000000  -3.661141e+001  -5.740099e+001 
3003125000  -3.780408e+001  -6.343267e+001 
3006250000  -3.754049e+001  -6.604299e+001 
3009375000  -3.792118e+001  -6.118648e+001 
3012500000  -3.718042e+001  -6.359096e+001 
3015625000  -3.624305e+001  -7.043771e+001 
3018750000  -3.688651e+001  -7.204417e+001 
3021875000  -3.543048e+001  -7.074717e+001 
3025000000  -3.408644e+001  -7.415176e+001 
3028125000  -3.319457e+001  -8.133213e+001 
3031250000  -3.218949e+001  -9.272750e+001 
3034375000  -3.186248e+001  -1.063237e+002 
3037500000  -3.236371e+001  -1.181528e+002 
3040625000  -3.370663e+001  -1.228778e+002 
3043750000  -3.428611e+001  -1.281654e+002 
3046875000  -3.464010e+001  -1.337699e+002 
3050000000  -3.635031e+001  -1.398783e+002 
3053125000  -3.611413e+001  -1.330164e+002 
3056250000  -3.562670e+001  -1.307637e+002 
3059375000  -3.564251e+001  -1.313006e+002 
3062500000  -3.412354e+001  -1.347338e+002 
3065625000  -3.403670e+001  -1.409214e+002 
3068750000  -3.367677e+001  -1.481513e+002 
3071875000  -3.361632e+001  -1.505820e+002 
3075000000  -3.333490e+001  -1.545003e+002 
3078125000  -3.304203e+001  -1.580031e+002 
3081250000  -3.359625e+001  -1.633119e+002 
3084375000  -3.265323e+001  -1.663538e+002 
3087500000  -3.248952e+001  -1.705488e+002 
3090625000  -3.202328e+001  1.787508e+002 
3093750000  -3.252495e+001  1.722607e+002 
3096875000  -3.347395e+001  1.662120e+002 
3100000000  -3.335406e+001  1.638387e+002 
3103125000  -3.370910e+001  1.648306e+002 
3106250000  -3.319215e+001  1.606866e+002 
3109375000  -3.325447e+001  1.565132e+002 
3112500000  -3.320537e+001  1.540659e+002 
3115625000  -3.294560e+001  1.490778e+002 
3118750000  -3.321800e+001  1.494492e+002 
3121875000  -3.226959e+001  1.402999e+002 
3125000000  -3.363459e+001  1.360826e+002 
3128125000  -3.440545e+001  1.436163e+002 
3131250000  -3.209132e+001  1.419262e+002 
3134375000  -3.084532e+001  1.260488e+002 
3137500000  -3.141543e+001  1.118892e+002 
3140625000  -3.283170e+001  1.095107e+002 
3143750000  -3.386221e+001  1.107929e+002 
3146875000  -3.328061e+001  1.118556e+002 
3150000000  -3.227380e+001  1.116666e+002 
3153125000  -3.233907e+001  1.027824e+002 
3156250000  -3.338314e+001  1.077935e+002 
3159375000  -3.162643e+001  1.081889e+002 
3162500000  -2.968893e+001  9.365532e+001 
3165625000  -3.077586e+001  8.154305e+001 
3168750000  -3.101834e+001  8.219730e+001 
3171875000  -3.010409e+001  7.644205e+001 
3175000000  -3.094343e+001  6.767946e+001 
3178125000  -3.063201e+001  6.830614e+001 
3181250000  -2.957182e+001  6.225276e+001 
3184375000  -2.889637e+001  5.022982e+001 
3187500000  -3.018271e+001  3.434896e+001 
3190625000  -3.281012e+001  2.724172e+001 
3193750000  -3.324046e+001  3.551679e+001 
3196875000  -3.299042e+001  3.968976e+001 
3200000000  -3.196201e+001  3.699162e+001 
3203125000  -3.122593e+001  3.099776e+001 
3206250000  -3.159576e+001  2.401810e+001 
3209375000  -3.112297e+001  1.789885e+001 
3212500000  -3.141874e+001  1.061145e+001 
3215625000  -3.136484e+001  7.825493e+000 
3218750000  -3.216093e+001  1.279146e-001 
3221875000  -3.295472e+001  -4.992123e+000 
3225000000  -3.246106e+001  -6.569562e+000 
3228125000  -3.303817e+001  -1.261791e+001 
3231250000  -3.370741e+001  -1.427844e+001 
3234375000  -3.337940e+001  -1.399574e+001 
3237500000  -3.337305e+001  -1.567169e+001 
3240625000  -3.290966e+001  -1.901382e+001 
3243750000  -3.261972e+001  -2.675378e+001 
3246875000  -3.292024e+001  -3.347001e+001 
3250000000  -3.330877e+001  -3.632134e+001 
3253125000  -3.356052e+001  -3.809423e+001 
3256250000  -3.314929e+001  -4.443047e+001 
3259375000  -3.342585e+001  -5.387252e+001 
3262500000  -3.453100e+001  -5.778599e+001 
3265625000  -3.525817e+001  -5.396841e+001 
3268750000  -3.502709e+001  -5.212856e+001 
3271875000  -3.471198e+001  -5.234006e+001 
3275000000  -3.359479e+001  -5.972780e+001 
3278125000  -3.412237e+001  -6.559780e+001 
3281250000  -3.429527e+001  -6.444084e+001 
3284375000  -3.379577e+001  -7.177166e+001 
3287500000  -3.414071e+001  -7.488579e+001 
3290625000  -3.426711e+001  -8.137141e+001 
3293750000  -3.401706e+001  -8.703179e+001 
3296875000  -3.517521e+001  -8.780293e+001 
3300000000  -3.486692e+001  -8.668024e+001 
3303125000  -3.359318e+001  -9.311253e+001 
3306250000  -3.341259e+001  -9.940139e+001 
3309375000  -3.312628e+001  -1.060352e+002 
3312500000  -3.326335e+001  -1.179069e+002 
3315625000  -3.437148e+001  -1.258766e+002 
3318750000  -3.569774e+001  -1.285211e+002 
3321875000  -3.679469e+001  -1.281551e+002 
3325000000  -3.740207e+001  -1.225013e+002 
3328125000  -3.642990e+001  -1.225667e+002 
3331250000  -3.543283e+001  -1.150145e+002 
3334375000  -3.284302e+001  -1.264877e+002 
3337500000  -3.297158e+001  -1.465710e+002 
3340625000  -3.437669e+001  -1.569024e+002 
3343750000  -3.652274e+001  -1.578520e+002 
3346875000  -3.647531e+001  -1.561080e+002 
3350000000  -3.587777e+001  -1.579945e+002 
3353125000  -3.595655e+001  -1.638366e+002 
3356250000  -3.557872e+001  -1.704431e+002 
3359375000  -3.634316e+001  -1.796045e+002 
3362500000  -3.731699e+001  1.749196e+002 
3365625000  -3.788504e+001  1.742184e+002 
3368750000  -3.861720e+001  1.713312e+002 
3371875000  -3.887693e+001  1.683989e+002 
3375000000  -4.041150e+001  1.660789e+002 
3378125000  -4.123510e+001  1.648275e+002 
3381250000  -4.228379e+001  1.752722e+002 
3384375000  -4.087862e+001  -1.640944e+002 
3387500000  -3.713678e+001  1.790246e+002 
3390625000  -3.894894e+001  1.592726e+002 
3393750000  -4.018487e+001  1.621829e+002 
3396875000  -3.910059e+001  1.639080e+002 
3400000000  -3.842004e+001  1.554866e+002 
3403125000  -3.925486e+001  1.506568e+002 
3406250000  -3.961065e+001  1.499530e+002 
3409375000  -3.973247e+001  1.433291e+002 
3412500000  -4.025159e+001  1.415610e+002 
3415625000  -4.095189e+001  1.401959e+002 
3418750000  -4.086251e+001  1.427237e+002 
3421875000  -4.128316e+001  1.465730e+002 
3425000000  -4.025413e+001  1.446111e+002 
3428125000  -3.931736e+001  1.411817e+002 
3431250000  -3.920581e+001  1.345479e+002 
3434375000  -3.915657e+001  1.285751e+002 
3437500000  -3.959052e+001  1.254200e+002 
3440625000  -3.997582e+001  1.263779e+002 
3443750000  -3.870329e+001  1.258423e+002 
3446875000  -3.795623e+001  1.190948e+002 
3450000000  -3.750563e+001  1.095514e+002 
3453125000  -3.789894e+001  9.822640e+001 
3456250000  -3.913625e+001  9.320886e+001 
3459375000  -4.023059e+001  9.328168e+001 
3462500000  -3.991736e+001  9.366206e+001 
3465625000  -3.982270e+001  8.838912e+001 
3468750000  -4.007397e+001  8.400436e+001 
3471875000  -4.007806e+001  8.196307e+001 
3475000000  -3.956422e+001  7.750938e+001 
3478125000  -4.042199e+001  7.062610e+001 
3481250000  -4.130589e+001  6.858762e+001 
3484375000  -4.204223e+001  7.142893e+001 
3487500000  -4.121156e+001  7.004076e+001 
3490625000  -4.085875e+001  6.628716e+001 
3493750000  -4.119741e+001  5.940368e+001 
3496875000  -4.161766e+001  5.854061e+001 
3500000000  -4.255534e+001  6.109803e+001 
3503125000  -4.183768e+001  6.227341e+001 
3506250000  -4.070505e+001  5.620682e+001 
3509375000  -4.069985e+001  4.772034e+001 
3512500000  -4.112403e+001  3.846807e+001 
3515625000  -4.172892e+001  3.650454e+001 
3518750000  -4.249993e+001  3.685907e+001 
3521875000  -4.299478e+001  3.655950e+001 
3525000000  -4.347056e+001  3.375303e+001 
3528125000  -4.336418e+001  3.924962e+001 
3531250000  -4.209087e+001  3.672934e+001 
3534375000  -4.186465e+001  2.723846e+001 
3537500000  -4.247950e+001  2.210764e+001 
3540625000  -4.347864e+001  2.259920e+001 
3543750000  -4.372691e+001  2.551725e+001 
3546875000  -4.401693e+001  3.803858e+001 
3550000000  -4.142474e+001  3.693398e+001 
3553125000  -4.006031e+001  1.950966e+001 
3556250000  -4.170217e+001  1.387232e+001 
3559375000  -4.137189e+001  1.490933e+001 
3562500000  -4.032753e+001  5.063995e+000 
3565625000  -4.102752e+001  -2.646815e-001 
3568750000  -4.155939e+001  1.262950e+000 
3571875000  -4.095681e+001  -4.640722e-001 
3575000000  -4.059484e+001  -7.680955e+000 
3578125000  -4.125126e+001  -1.244917e+001 
3581250000  -4.131265e+001  -1.310618e+001 
3584375000  -4.050551e+001  -1.584170e+001 
3587500000  -3.983689e+001  -2.567040e+001 
3590625000  -4.050361e+001  -3.412685e+001 
3593750000  -4.149688e+001  -3.720428e+001 
3596875000  -4.166112e+001  -3.183580e+001 
3600000000  -4.013066e+001  -3.638087e+001 
3603125000  -4.070379e+001  -4.953894e+001 
3606250000  -4.146365e+001  -5.349269e+001 
3609375000  -4.194176e+001  -5.845480e+001 
3612500000  -4.270092e+001  -6.268778e+001 
3615625000  -4.286351e+001  -6.444757e+001 
3618750000  -4.374789e+001  -6.552058e+001 
3621875000  -4.327715e+001  -7.031779e+001 
3625000000  -4.402844e+001  -7.063522e+001 
3628125000  -4.416632e+001  -6.914314e+001 
3631250000  -4.418097e+001  -7.626445e+001 
3634375000  -4.538879e+001  -7.689182e+001 
3637500000  -4.513661e+001  -7.115112e+001 
3640625000  -4.462078e+001  -6.905129e+001 
3643750000  -4.387762e+001  -7.311282e+001 
3646875000  -4.461485e+001  -8.033230e+001 
3650000000  -4.547158e+001  -7.922479e+001 
3653125000  -4.523216e+001  -8.247166e+001 
3656250000  -4.556919e+001  -8.440731e+001 
3659375000  -4.550045e+001  -7.926927e+001 
3662500000  -4.521462e+001  -8.029165e+001 
3665625000  -4.507865e+001  -8.137454e+001 
3668750000  -4.366442e+001  -8.085077e+001 
3671875000  -4.265568e+001  -8.793163e+001 
3675000000  -4.321070e+001  -9.552480e+001 
3678125000  -4.327951e+001  -9.417251e+001 
3681250000  -4.290372e+001  -9.718822e+001 
3684375000  -4.281441e+001  -1.037126e+002 
3687500000  -4.294696e+001  -1.069950e+002 
3690625000  -4.297277e+001  -1.088262e+002 
3693750000  -4.381091e+001  -1.111754e+002 
3696875000  -4.384799e+001  -1.102920e+002 
3700000000  -4.253160e+001  -1.166644e+002 
3703125000  -4.293059e+001  -1.197125e+002 
3706250000  -4.391710e+001  -1.240298e+002 
3709375000  -4.326983e+001  -1.192330e+002 
3712500000  -4.236189e+001  -1.212777e+002 
3715625000  -4.147392e+001  -1.293963e+002 
3718750000  -4.151094e+001  -1.351365e+002 
3721875000  -4.109528e+001  -1.416161e+002 
3725000000  -4.156257e+001  -1.477323e+002 
3728125000  -4.183863e+001  -1.474666e+002 
3731250000  -4.155109e+001  -1.507498e+002 
3734375000  -4.088818e+001  -1.582548e+002 
3737500000  -4.193837e+001  -1.636143e+002 
3740625000  -4.299533e+001  -1.668583e+002 
3743750000  -4.279255e+001  -1.705396e+002 
3746875000  -4.321668e+001  -1.734994e+002 
3750000000  -4.396038e+001  -1.760865e+002 
3753125000  -4.416758e+001  -1.762023e+002 
3756250000  -4.415708e+001  -1.752370e+002 
3759375000  -4.450748e+001  -1.730894e+002 
3762500000  -4.403168e+001  1.798905e+002 
3765625000  -4.481973e+001  -1.754395e+002 
3768750000  -4.470727e+001  -1.738250e+002 
3771875000  -4.300926e+001  -1.775163e+002 
3775000000  -4.306367e+001  1.763730e+002 
3778125000  -4.306538e+001  1.762209e+002 
3781250000  -4.306564e+001  1.752562e+002 
3784375000  -4.274405e+001  1.735528e+002 
3787500000  -4.218813e+001  1.713298e+002 
3790625000  -4.249074e+001  1.643970e+002 
3793750000  -4.236864e+001  1.662353e+002 
3796875000  -4.125213e+001  1.620825e+002 
3800000000  -3.961777e+001  1.605844e+002 
3803125000  -4.040742e+001  1.494233e+002 
3806250000  -4.091169e+001  1.488665e+002 
3809375000  -4.059315e+001  1.458144e+002 
3812500000  -3.990128e+001  1.394041e+002 
3815625000  -4.066645e+001  1.283301e+002 
3818750000  -4.173039e+001  1.287632e+002 
3821875000  -4.132909e+001  1.385013e+002 
3825000000  -3.974624e+001  1.383484e+002 
3828125000  -3.810481e+001  1.225359e+002 
3831250000  -3.867051e+001  1.092218e+002 
3834375000  -4.011221e+001  1.061319e+002 
3837500000  -4.113252e+001  1.111599e+002 
3840625000  -3.989025e+001  1.082696e+002 
3843750000  -3.895500e+001  9.708519e+001 
3846875000  -3.969747e+001  9.010768e+001 
3850000000  -4.103815e+001  9.684380e+001 
3853125000  -4.048079e+001  9.738388e+001 
3856250000  -4.043116e+001  8.974197e+001 
3859375000  -3.924263e+001  8.659873e+001 
3862500000  -3.952512e+001  7.714935e+001 
3865625000  -3.980784e+001  7.344899e+001 
3868750000  -3.978846e+001  6.999535e+001 
3871875000  -3.925447e+001  6.765490e+001 
3875000000  -3.940197e+001  5.793030e+001 
3878125000  -4.053457e+001  5.563069e+001 
3881250000  -4.055957e+001  5.908765e+001 
3884375000  -3.999514e+001  5.247475e+001 
3887500000  -4.061834e+001  4.903600e+001 
3890625000  -4.130481e+001  4.739328e+001 
3893750000  -4.127525e+001  4.510875e+001 
3896875000  -4.143454e+001  4.370214e+001 
3900000000  -4.171441e+001  4.474274e+001 
3903125000  -4.066917e+001  4.142696e+001 
3906250000  -4.070760e+001  4.264340e+001 
3909375000  -3.998132e+001  3.757191e+001 
3912500000  -4.017818e+001  2.739404e+001 
3915625000  -4.155951e+001  2.992805e+001 
3918750000  -4.113697e+001  3.045695e+001 
3921875000  -4.080126e+001  2.834723e+001 
3925000000  -3.989938e+001  2.457877e+001 
3928125000  -3.935908e+001  1.723285e+001 
3931250000  -3.978896e+001  1.403347e+001 
3934375000  -3.985426e+001  1.308774e+001 
3937500000  -4.002250e+001  1.131161e+001 
3940625000  -4.051236e+001  7.796259e+000 
3943750000  -3.933364e+001  9.052038e+000 
3946875000  -3.820449e+001  1.905346e+000 
3950000000  -3.912980e+001  -6.082021e+000 
3953125000  -3.981882e+001  -5.229945e+000 
3956250000  -3.910829e+001  -3.410498e+000 
3959375000  -3.753370e+001  -9.017950e+000 
3962500000  -3.735046e+001  -1.440224e+001 
3965625000  -3.730094e+001  -2.399419e+001 
3968750000  -3.813195e+001  -3.143554e+001 
3971875000  -3.878364e+001  -3.479668e+001 
3975000000  -3.796041e+001  -3.726691e+001 
3978125000  -3.778697e+001  -3.983113e+001 
3981250000  -3.780961e+001  -4.534324e+001 
3984375000  -3.802972e+001  -5.027436e+001 
3987500000  -3.879436e+001  -5.393914e+001 
3990625000  -3.895078e+001  -5.492223e+001 
3993750000  -3.903051e+001  -5.891328e+001 
3996875000  -3.895477e+001  -6.385599e+001 
4000000000  -3.939549e+001  -6.427455e+001 
4003125000  -3.967223e+001  -6.274836e+001 
4006250000  -3.824599e+001  -6.291819e+001 
4009375000  -3.717402e+001  -7.642965e+001 
4012500000  -3.850760e+001  -8.335225e+001 
4015625000  -3.975339e+001  -8.297116e+001 
4018750000  -4.000448e+001  -8.204053e+001 
4021875000  -3.909660e+001  -8.360194e+001 
4025000000  -3.912560e+001  -8.822649e+001 
4028125000  -3.897864e+001  -9.356527e+001 
4031250000  -3.938660e+001  -9.842700e+001 
4034375000  -3.969310e+001  -9.773205e+001 
4037500000  -3.923195e+001  -9.622306e+001 
4040625000  -3.896827e+001  -1.005440e+002 
4043750000  -3.932994e+001  -1.022011e+002 
4046875000  -3.899774e+001  -1.020063e+002 
4050000000  -3.853734e+001  -1.079605e+002 
4053125000  -3.917562e+001  -1.108960e+002 
4056250000  -3.938244e+001  -1.085120e+002 
4059375000  -3.803794e+001  -1.073156e+002 
4062500000  -3.683376e+001  -1.134160e+002 
4065625000  -3.663252e+001  -1.176197e+002 
4068750000  -3.631631e+001  -1.234336e+002 
4071875000  -3.568182e+001  -1.330292e+002 
4075000000  -3.631787e+001  -1.395119e+002 
4078125000  -3.679096e+001  -1.413344e+002 
4081250000  -3.618595e+001  -1.446988e+002 
4084375000  -3.561854e+001  -1.526617e+002 
4087500000  -3.617679e+001  -1.600688e+002 
4090625000  -3.679016e+001  -1.620910e+002 
4093750000  -3.649202e+001  -1.613156e+002 
4096875000  -3.609453e+001  -1.692451e+002 
4100000000  -3.692272e+001  -1.763648e+002 
4103125000  -3.801971e+001  -1.756036e+002 
4106250000  -3.748626e+001  -1.714291e+002 
4109375000  -3.655904e+001  -1.740157e+002 
4112500000  -3.631515e+001  1.787825e+002 
4115625000  -3.666454e+001  1.733968e+002 
4118750000  -3.687836e+001  1.693433e+002 
4121875000  -3.637387e+001  1.634933e+002 
4125000000  -3.682677e+001  1.590489e+002 
4128125000  -3.772390e+001  1.580668e+002 
4131250000  -3.765148e+001  1.651583e+002 
4134375000  -3.518391e+001  1.576564e+002 
4137500000  -3.542632e+001  1.386555e+002 
4140625000  -3.752568e+001  1.313638e+002 
4143750000  -3.870098e+001  1.364755e+002 
4146875000  -3.843940e+001  1.436445e+002 
4150000000  -3.738637e+001  1.379799e+002 
4153125000  -3.735150e+001  1.303376e+002 
4156250000  -3.848109e+001  1.278698e+002 
4159375000  -3.843090e+001  1.344690e+002 
4162500000  -3.762798e+001  1.380787e+002 
4165625000  -3.650788e+001  1.329252e+002 
4168750000  -3.585460e+001  1.257155e+002 
4171875000  -3.578205e+001  1.140958e+002 
4175000000  -3.660900e+001  1.085836e+002 
4178125000  -3.721481e+001  1.090004e+002 
4181250000  -3.686926e+001  1.078466e+002 
4184375000  -3.686771e+001  1.027199e+002 
4187500000  -3.684045e+001  1.005344e+002 
4190625000  -3.653444e+001  9.298813e+001 
4193750000  -3.734237e+001  8.876115e+001 
4196875000  -3.810278e+001  8.896655e+001 
4200000000  -3.918166e+001  9.150819e+001 
4203125000  -3.859431e+001  1.060340e+002 
4206250000  -3.519936e+001  1.031054e+002 
4209375000  -3.430615e+001  8.037128e+001 
4212500000  -3.625770e+001  7.408949e+001 
4215625000  -3.716278e+001  7.919102e+001 
4218750000  -3.542185e+001  8.473244e+001 
4221875000  -3.349698e+001  7.399557e+001 
4225000000  -3.488053e+001  5.999825e+001 
4228125000  -3.512261e+001  6.430913e+001 
4231250000  -3.368740e+001  5.899773e+001 
4234375000  -3.362878e+001  5.146035e+001 
4237500000  -3.308482e+001  4.602393e+001 
4240625000  -3.306898e+001  3.590133e+001 
4243750000  -3.406725e+001  2.803326e+001 
4246875000  -3.510546e+001  2.729251e+001 
4250000000  -3.501133e+001  2.908734e+001 
4253125000  -3.460931e+001  2.558814e+001 
4256250000  -3.483441e+001  2.162720e+001 
4259375000  -3.456786e+001  1.739770e+001 
4262500000  -3.491788e+001  1.268270e+001 
4265625000  -3.496353e+001  1.203383e+001 
4268750000  -3.397987e+001  6.586395e+000 
4271875000  -3.376716e+001  -6.013219e-001 
4275000000  -3.331620e+001  -8.552322e+000 
4278125000  -3.424811e+001  -2.022716e+001 
4281250000  -3.586792e+001  -2.062960e+001 
4284375000  -3.580306e+001  -2.094538e+001 
4287500000  -3.673462e+001  -2.581411e+001 
4290625000  -3.812833e+001  -1.656261e+001 
4293750000  -3.601699e+001  -1.130441e+001 
4296875000  -3.497159e+001  -2.276958e+001 
4300000000  -3.608603e+001  -3.213433e+001 
4303125000  -3.697169e+001  -2.920788e+001 
4306250000  -3.610439e+001  -2.599063e+001 
4309375000  -3.498762e+001  -2.694383e+001 
4312500000  -3.492606e+001  -3.514573e+001 
4315625000  -3.495110e+001  -4.151563e+001 
4318750000  -3.537440e+001  -4.563187e+001 
4321875000  -3.545834e+001  -4.427695e+001 
4325000000  -3.467334e+001  -4.397129e+001 
4328125000  -3.407322e+001  -5.171399e+001 
4331250000  -3.381860e+001  -5.971148e+001 
4334375000  -3.450210e+001  -6.607983e+001 
4337500000  -3.525491e+001  -6.787527e+001 
4340625000  -3.564832e+001  -6.544534e+001 
4343750000  -3.476023e+001  -6.414187e+001 
4346875000  -3.450627e+001  -7.237299e+001 
4350000000  -3.423871e+001  -7.768952e+001 
4353125000  -3.448984e+001  -8.642266e+001 
4356250000  -3.625458e+001  -8.627169e+001 
4359375000  -3.634003e+001  -7.278241e+001 
4362500000  -3.337240e+001  -7.379168e+001 
4365625000  -3.186411e+001  -8.883898e+001 
4368750000  -3.284605e+001  -1.015541e+002 
4371875000  -3.396613e+001  -1.010317e+002 
4375000000  -3.335391e+001  -1.020854e+002 
4378125000  -3.277942e+001  -1.087661e+002 
4381250000  -3.291938e+001  -1.161282e+002 
4384375000  -3.267910e+001  -1.219267e+002 
4387500000  -3.357760e+001  -1.294465e+002 
4390625000  -3.442601e+001  -1.290953e+002 
4393750000  -3.385412e+001  -1.280543e+002 
4396875000  -3.340491e+001  -1.326994e+002 
4400000000  -3.270550e+001  -1.402096e+002 
4403125000  -3.354036e+001  -1.490829e+002 
4406250000  -3.437160e+001  -1.516355e+002 
4409375000  -3.454639e+001  -1.545334e+002 
4412500000  -3.565073e+001  -1.577805e+002 
4415625000  -3.597818e+001  -1.533019e+002 
