!Agilent Technologies,E8363B,MY43030201,A.06.04.32
!Agilent E8363B: A.06.04.32
!Date: Tuesday, November 11, 2014 21:07:20
!Correction: S21(Response(S21)) 
!S1P File: Measurement: S21:
# Hz S  dB   R 50
3000000000  -3.654692e+001  -5.085864e+001 
3003125000  -3.778820e+001  -5.748734e+001 
3006250000  -3.746437e+001  -5.977985e+001 
3009375000  -3.776073e+001  -5.489660e+001 
3012500000  -3.700768e+001  -5.691651e+001 
3015625000  -3.612356e+001  -6.470823e+001 
3018750000  -3.686661e+001  -6.496167e+001 
3021875000  -3.551769e+001  -6.419389e+001 
3025000000  -3.409322e+001  -6.843897e+001 
3028125000  -3.321077e+001  -7.456489e+001 
3031250000  -3.207479e+001  -8.609105e+001 
3034375000  -3.180895e+001  -9.984807e+001 
3037500000  -3.231018e+001  -1.117868e+002 
3040625000  -3.353651e+001  -1.160123e+002 
3043750000  -3.419992e+001  -1.217277e+002 
3046875000  -3.437367e+001  -1.276928e+002 
3050000000  -3.616301e+001  -1.344962e+002 
3053125000  -3.605557e+001  -1.281872e+002 
3056250000  -3.552172e+001  -1.245599e+002 
3059375000  -3.557014e+001  -1.251262e+002 
3062500000  -3.400856e+001  -1.289643e+002 
3065625000  -3.380173e+001  -1.350976e+002 
3068750000  -3.352227e+001  -1.418272e+002 
3071875000  -3.350971e+001  -1.442646e+002 
3075000000  -3.326357e+001  -1.476066e+002 
3078125000  -3.307848e+001  -1.522782e+002 
3081250000  -3.365021e+001  -1.573105e+002 
3084375000  -3.272623e+001  -1.598896e+002 
3087500000  -3.244782e+001  -1.641736e+002 
3090625000  -3.195068e+001  -1.741459e+002 
3093750000  -3.246854e+001  1.785128e+002 
3096875000  -3.351794e+001  1.726840e+002 
3100000000  -3.340542e+001  1.704043e+002 
3103125000  -3.366595e+001  1.709579e+002 
3106250000  -3.316264e+001  1.670370e+002 
3109375000  -3.329560e+001  1.629613e+002 
3112500000  -3.321164e+001  1.607462e+002 
3115625000  -3.294397e+001  1.556240e+002 
3118750000  -3.318163e+001  1.559989e+002 
3121875000  -3.232610e+001  1.463397e+002 
3125000000  -3.355341e+001  1.425430e+002 
3128125000  -3.443449e+001  1.498510e+002 
3131250000  -3.205198e+001  1.479455e+002 
3134375000  -3.081488e+001  1.325674e+002 
3137500000  -3.134622e+001  1.185226e+002 
3140625000  -3.281476e+001  1.152133e+002 
3143750000  -3.385420e+001  1.164965e+002 
3146875000  -3.332976e+001  1.178990e+002 
3150000000  -3.232651e+001  1.183451e+002 
3153125000  -3.234276e+001  1.088016e+002 
3156250000  -3.340821e+001  1.142256e+002 
3159375000  -3.160537e+001  1.153340e+002 
3162500000  -2.966954e+001  1.003304e+002 
3165625000  -3.074070e+001  8.870329e+001 
3168750000  -3.102938e+001  8.820605e+001 
3171875000  -3.011472e+001  8.273403e+001 
3175000000  -3.092996e+001  7.390179e+001 
3178125000  -3.060637e+001  7.486615e+001 
3181250000  -2.959889e+001  6.940115e+001 
3184375000  -2.886648e+001  5.666542e+001 
3187500000  -3.007009e+001  4.130593e+001 
3190625000  -3.267389e+001  3.333345e+001 
3193750000  -3.337154e+001  4.166927e+001 
3196875000  -3.290724e+001  4.657314e+001 
3200000000  -3.200439e+001  4.384536e+001 
3203125000  -3.121994e+001  3.744217e+001 
3206250000  -3.148297e+001  3.041487e+001 
3209375000  -3.110290e+001  2.454974e+001 
3212500000  -3.133520e+001  1.781479e+001 
3215625000  -3.139500e+001  1.369196e+001 
3218750000  -3.224962e+001  6.104208e+000 
3221875000  -3.294119e+001  1.570951e+000 
3225000000  -3.253556e+001  6.640415e-003 
3228125000  -3.296968e+001  -5.277344e+000 
3231250000  -3.363319e+001  -7.629362e+000 
3234375000  -3.328827e+001  -7.899910e+000 
3237500000  -3.338582e+001  -9.192131e+000 
3240625000  -3.284463e+001  -1.209558e+001 
3243750000  -3.256133e+001  -1.976896e+001 
3246875000  -3.296914e+001  -2.694969e+001 
3250000000  -3.336683e+001  -2.935853e+001 
3253125000  -3.354250e+001  -3.105817e+001 
3256250000  -3.312410e+001  -3.855368e+001 
3259375000  -3.339707e+001  -4.671512e+001 
3262500000  -3.457797e+001  -5.051155e+001 
3265625000  -3.516357e+001  -4.837977e+001 
3268750000  -3.503483e+001  -4.640237e+001 
3271875000  -3.476665e+001  -4.588239e+001 
3275000000  -3.373484e+001  -5.289328e+001 
3278125000  -3.415665e+001  -5.934137e+001 
3281250000  -3.429857e+001  -5.854587e+001 
3284375000  -3.386836e+001  -6.586939e+001 
3287500000  -3.409224e+001  -6.862486e+001 
3290625000  -3.434304e+001  -7.525696e+001 
3293750000  -3.399116e+001  -8.004870e+001 
3296875000  -3.514392e+001  -8.119526e+001 
3300000000  -3.489326e+001  -8.032389e+001 
3303125000  -3.364901e+001  -8.529936e+001 
3306250000  -3.347282e+001  -9.301899e+001 
3309375000  -3.328408e+001  -9.950804e+001 
3312500000  -3.324314e+001  -1.106757e+002 
3315625000  -3.429519e+001  -1.185760e+002 
3318750000  -3.573660e+001  -1.210145e+002 
3321875000  -3.678386e+001  -1.214070e+002 
3325000000  -3.737965e+001  -1.151983e+002 
3328125000  -3.680303e+001  -1.157472e+002 
3331250000  -3.560550e+001  -1.084773e+002 
3334375000  -3.294743e+001  -1.186326e+002 
3337500000  -3.300412e+001  -1.387938e+002 
3340625000  -3.449155e+001  -1.497009e+002 
3343750000  -3.641924e+001  -1.518682e+002 
3346875000  -3.652860e+001  -1.488894e+002 
3350000000  -3.596623e+001  -1.514507e+002 
3353125000  -3.599840e+001  -1.562716e+002 
3356250000  -3.555991e+001  -1.642573e+002 
3359375000  -3.622742e+001  -1.716562e+002 
3362500000  -3.743280e+001  -1.782925e+002 
3365625000  -3.797625e+001  -1.790533e+002 
3368750000  -3.861817e+001  1.784528e+002 
3371875000  -3.875183e+001  1.769371e+002 
3375000000  -4.029133e+001  1.728072e+002 
3378125000  -4.093478e+001  1.738338e+002 
3381250000  -4.242599e+001  -1.791982e+002 
3384375000  -4.070093e+001  -1.572510e+002 
3387500000  -3.715774e+001  -1.745870e+002 
3390625000  -3.907578e+001  1.660116e+002 
3393750000  -4.017649e+001  1.698059e+002 
3396875000  -3.925365e+001  1.718624e+002 
3400000000  -3.862702e+001  1.617423e+002 
3403125000  -3.937958e+001  1.571281e+002 
3406250000  -3.963219e+001  1.577048e+002 
3409375000  -3.970625e+001  1.506377e+002 
3412500000  -4.025201e+001  1.474597e+002 
3415625000  -4.091503e+001  1.497171e+002 
3418750000  -4.106124e+001  1.491820e+002 
3421875000  -4.145634e+001  1.523149e+002 
3425000000  -4.038242e+001  1.526835e+002 
3428125000  -3.924868e+001  1.481258e+002 
3431250000  -3.931923e+001  1.408721e+002 
3434375000  -3.916970e+001  1.360121e+002 
3437500000  -3.968539e+001  1.311069e+002 
3440625000  -3.993615e+001  1.327254e+002 
3443750000  -3.856974e+001  1.349254e+002 
3446875000  -3.797096e+001  1.260383e+002 
3450000000  -3.753872e+001  1.165032e+002 
3453125000  -3.793385e+001  1.059785e+002 
3456250000  -3.908723e+001  9.958394e+001 
3459375000  -3.994661e+001  1.012859e+002 
3462500000  -3.977665e+001  1.009011e+002 
3465625000  -3.974984e+001  9.540557e+001 
3468750000  -4.010310e+001  9.204742e+001 
3471875000  -4.005048e+001  8.920029e+001 
3475000000  -3.963593e+001  8.576022e+001 
3478125000  -4.023665e+001  7.762266e+001 
3481250000  -4.130233e+001  7.426881e+001 
3484375000  -4.239799e+001  7.921098e+001 
3487500000  -4.127229e+001  7.765649e+001 
3490625000  -4.069487e+001  7.335713e+001 
3493750000  -4.140413e+001  6.630937e+001 
3496875000  -4.168105e+001  6.554340e+001 
3500000000  -4.242807e+001  6.739530e+001 
3503125000  -4.185774e+001  6.832903e+001 
3506250000  -4.061033e+001  6.580389e+001 
3509375000  -4.040359e+001  5.455755e+001 
3512500000  -4.104409e+001  4.559211e+001 
3515625000  -4.186837e+001  4.382752e+001 
3518750000  -4.252794e+001  4.476125e+001 
3521875000  -4.237919e+001  4.145247e+001 
3525000000  -4.357586e+001  3.807174e+001 
3528125000  -4.343447e+001  4.748282e+001 
3531250000  -4.232589e+001  4.261373e+001 
3534375000  -4.207863e+001  3.386099e+001 
3537500000  -4.254523e+001  2.965347e+001 
3540625000  -4.336663e+001  2.911462e+001 
3543750000  -4.434199e+001  3.259776e+001 
3546875000  -4.417592e+001  4.593963e+001 
3550000000  -4.164545e+001  4.400581e+001 
3553125000  -4.011430e+001  2.719735e+001 
3556250000  -4.169320e+001  2.014553e+001 
3559375000  -4.150636e+001  2.218631e+001 
3562500000  -4.026912e+001  1.243874e+001 
3565625000  -4.120831e+001  5.703633e+000 
3568750000  -4.144865e+001  8.233253e+000 
3571875000  -4.095301e+001  6.735640e+000 
3575000000  -4.086773e+001  1.126488e+000 
3578125000  -4.142926e+001  -5.212166e+000 
3581250000  -4.141462e+001  -5.321209e+000 
3584375000  -4.059343e+001  -8.074077e+000 
3587500000  -3.992598e+001  -1.770411e+001 
3590625000  -4.065572e+001  -2.861113e+001 
3593750000  -4.178342e+001  -2.945504e+001 
3596875000  -4.147907e+001  -2.321306e+001 
3600000000  -4.028978e+001  -2.868370e+001 
3603125000  -4.055138e+001  -4.437054e+001 
3606250000  -4.147482e+001  -4.767395e+001 
3609375000  -4.211640e+001  -5.231230e+001 
3612500000  -4.260798e+001  -5.543624e+001 
3615625000  -4.289152e+001  -5.679478e+001 
3618750000  -4.365672e+001  -5.875060e+001 
3621875000  -4.334758e+001  -6.174631e+001 
3625000000  -4.420350e+001  -6.116205e+001 
3628125000  -4.413060e+001  -6.335546e+001 
3631250000  -4.433891e+001  -6.829965e+001 
3634375000  -4.555144e+001  -6.902365e+001 
3637500000  -4.554216e+001  -6.335323e+001 
3640625000  -4.491991e+001  -6.198149e+001 
3643750000  -4.441596e+001  -6.903829e+001 
3646875000  -4.506593e+001  -7.331072e+001 
3650000000  -4.623288e+001  -7.204099e+001 
3653125000  -4.562283e+001  -7.566112e+001 
3656250000  -4.580128e+001  -7.585076e+001 
3659375000  -4.577737e+001  -7.227690e+001 
3662500000  -4.545903e+001  -7.444958e+001 
3665625000  -4.496083e+001  -7.276221e+001 
3668750000  -4.423317e+001  -7.312143e+001 
3671875000  -4.294627e+001  -7.764661e+001 
3675000000  -4.315636e+001  -8.657518e+001 
3678125000  -4.360464e+001  -8.527159e+001 
3681250000  -4.303214e+001  -8.938008e+001 
3684375000  -4.318456e+001  -9.387705e+001 
3687500000  -4.315203e+001  -9.924517e+001 
3690625000  -4.306212e+001  -1.011724e+002 
3693750000  -4.413658e+001  -1.012430e+002 
3696875000  -4.371095e+001  -1.030442e+002 
3700000000  -4.274958e+001  -1.054250e+002 
3703125000  -4.273550e+001  -1.107649e+002 
3706250000  -4.401823e+001  -1.119037e+002 
3709375000  -4.317899e+001  -1.092375e+002 
3712500000  -4.274135e+001  -1.127331e+002 
3715625000  -4.177850e+001  -1.202922e+002 
3718750000  -4.133851e+001  -1.259909e+002 
3721875000  -4.121646e+001  -1.316418e+002 
3725000000  -4.171980e+001  -1.396790e+002 
3728125000  -4.194939e+001  -1.419805e+002 
3731250000  -4.156330e+001  -1.419852e+002 
3734375000  -4.129309e+001  -1.494205e+002 
3737500000  -4.212967e+001  -1.571571e+002 
3740625000  -4.334473e+001  -1.609155e+002 
3743750000  -4.330572e+001  -1.631546e+002 
3746875000  -4.353917e+001  -1.639717e+002 
3750000000  -4.406459e+001  -1.659552e+002 
3753125000  -4.395935e+001  -1.678018e+002 
3756250000  -4.418502e+001  -1.695599e+002 
3759375000  -4.471826e+001  -1.644828e+002 
3762500000  -4.422399e+001  -1.686498e+002 
3765625000  -4.492833e+001  -1.708620e+002 
3768750000  -4.495470e+001  -1.648380e+002 
3771875000  -4.335755e+001  -1.671058e+002 
3775000000  -4.294832e+001  -1.727416e+002 
3778125000  -4.336757e+001  -1.752111e+002 
3781250000  -4.309725e+001  -1.765397e+002 
3784375000  -4.264223e+001  -1.750984e+002 
3787500000  -4.183778e+001  -1.781700e+002 
3790625000  -4.237730e+001  1.727149e+002 
3793750000  -4.241766e+001  1.738294e+002 
3796875000  -4.109084e+001  1.709868e+002 
3800000000  -3.978877e+001  1.681346e+002 
3803125000  -4.026646e+001  1.591112e+002 
3806250000  -4.105884e+001  1.552798e+002 
3809375000  -4.052360e+001  1.550627e+002 
3812500000  -3.968064e+001  1.484045e+002 
3815625000  -4.059510e+001  1.399233e+002 
3818750000  -4.116328e+001  1.364657e+002 
3821875000  -4.143739e+001  1.446844e+002 
3825000000  -3.974229e+001  1.485117e+002 
3828125000  -3.808777e+001  1.307215e+002 
3831250000  -3.881521e+001  1.164423e+002 
3834375000  -4.035773e+001  1.152449e+002 
3837500000  -4.107339e+001  1.202357e+002 
3840625000  -3.995467e+001  1.173817e+002 
3843750000  -3.879698e+001  1.046101e+002 
3846875000  -3.985127e+001  9.978612e+001 
3850000000  -4.134832e+001  1.049698e+002 
3853125000  -4.048788e+001  1.070204e+002 
3856250000  -4.040551e+001  9.839701e+001 
3859375000  -3.977973e+001  9.331654e+001 
3862500000  -3.906275e+001  8.475731e+001 
3865625000  -3.972752e+001  8.199665e+001 
3868750000  -3.983506e+001  8.038543e+001 
3871875000  -3.885554e+001  7.634987e+001 
3875000000  -3.930843e+001  6.560974e+001 
3878125000  -4.039199e+001  6.774755e+001 
3881250000  -4.055309e+001  6.796918e+001 
3884375000  -4.015898e+001  6.180341e+001 
3887500000  -4.022028e+001  5.617496e+001 
3890625000  -4.065041e+001  5.450195e+001 
3893750000  -4.110711e+001  5.291207e+001 
3896875000  -4.143304e+001  5.514997e+001 
3900000000  -4.139185e+001  5.122756e+001 
3903125000  -4.109184e+001  5.177542e+001 
3906250000  -4.075107e+001  4.963855e+001 
3909375000  -3.991596e+001  4.509722e+001 
3912500000  -4.001416e+001  3.728950e+001 
3915625000  -4.134269e+001  3.882883e+001 
3918750000  -4.102368e+001  3.958902e+001 
3921875000  -4.067475e+001  3.646722e+001 
3925000000  -3.964510e+001  3.238107e+001 
3928125000  -3.910558e+001  2.624893e+001 
3931250000  -3.968475e+001  2.226446e+001 
3934375000  -3.987243e+001  2.180796e+001 
3937500000  -4.026137e+001  1.876766e+001 
3940625000  -4.053121e+001  1.788309e+001 
3943750000  -3.925821e+001  1.872158e+001 
3946875000  -3.826596e+001  1.132620e+001 
3950000000  -3.899636e+001  3.286906e+000 
3953125000  -4.007898e+001  4.298090e-001 
3956250000  -3.899874e+001  3.123165e+000 
3959375000  -3.754929e+001  5.347756e-001 
3962500000  -3.732521e+001  -5.878529e+000 
3965625000  -3.727998e+001  -1.610194e+001 
3968750000  -3.832576e+001  -2.208029e+001 
3971875000  -3.858541e+001  -2.491900e+001 
3975000000  -3.782234e+001  -2.677872e+001 
3978125000  -3.766379e+001  -3.115473e+001 
3981250000  -3.795352e+001  -3.634676e+001 
3984375000  -3.798718e+001  -4.264791e+001 
3987500000  -3.859368e+001  -4.355583e+001 
3990625000  -3.853040e+001  -4.714577e+001 
3993750000  -3.893045e+001  -5.085415e+001 
3996875000  -3.900034e+001  -5.493135e+001 
4000000000  -3.911082e+001  -5.529128e+001 
4003125000  -3.987460e+001  -5.394441e+001 
4006250000  -3.827338e+001  -5.570508e+001 
4009375000  -3.730164e+001  -6.855056e+001 
4012500000  -3.864815e+001  -7.561652e+001 
4015625000  -3.971018e+001  -7.492856e+001 
4018750000  -3.980576e+001  -7.317786e+001 
4021875000  -3.919959e+001  -7.609554e+001 
4025000000  -3.878779e+001  -8.106479e+001 
4028125000  -3.910974e+001  -8.508746e+001 
4031250000  -3.936187e+001  -8.975724e+001 
4034375000  -3.981252e+001  -8.922714e+001 
4037500000  -3.903395e+001  -8.852391e+001 
4040625000  -3.909340e+001  -9.195027e+001 
4043750000  -3.939416e+001  -9.379123e+001 
4046875000  -3.879547e+001  -9.420998e+001 
4050000000  -3.831097e+001  -1.004233e+002 
4053125000  -3.871956e+001  -1.025665e+002 
4056250000  -3.924344e+001  -9.940368e+001 
4059375000  -3.806287e+001  -9.876982e+001 
4062500000  -3.683125e+001  -1.048594e+002 
4065625000  -3.651448e+001  -1.097543e+002 
4068750000  -3.627273e+001  -1.161487e+002 
4071875000  -3.574367e+001  -1.245337e+002 
4075000000  -3.590455e+001  -1.317212e+002 
4078125000  -3.646107e+001  -1.326073e+002 
4081250000  -3.612892e+001  -1.365428e+002 
4084375000  -3.562447e+001  -1.452585e+002 
4087500000  -3.616547e+001  -1.506944e+002 
4090625000  -3.667270e+001  -1.526193e+002 
4093750000  -3.655161e+001  -1.538371e+002 
4096875000  -3.605126e+001  -1.605434e+002 
4100000000  -3.690871e+001  -1.687884e+002 
4103125000  -3.774771e+001  -1.677770e+002 
4106250000  -3.764799e+001  -1.632298e+002 
4109375000  -3.658458e+001  -1.650659e+002 
4112500000  -3.631758e+001  -1.736696e+002 
4115625000  -3.664797e+001  -1.776820e+002 
4118750000  -3.689418e+001  1.779649e+002 
4121875000  -3.632541e+001  1.725541e+002 
4125000000  -3.700340e+001  1.668380e+002 
4128125000  -3.779200e+001  1.657377e+002 
4131250000  -3.748299e+001  1.742555e+002 
4134375000  -3.530967e+001  1.666175e+002 
4137500000  -3.516178e+001  1.471753e+002 
4140625000  -3.748109e+001  1.395460e+002 
4143750000  -3.871088e+001  1.441033e+002 
4146875000  -3.811884e+001  1.512414e+002 
4150000000  -3.734744e+001  1.461972e+002 
4153125000  -3.757035e+001  1.398139e+002 
4156250000  -3.846602e+001  1.353938e+002 
4159375000  -3.870814e+001  1.413355e+002 
4162500000  -3.757857e+001  1.457151e+002 
4165625000  -3.639392e+001  1.396385e+002 
4168750000  -3.599299e+001  1.314552e+002 
4171875000  -3.589992e+001  1.230604e+002 
4175000000  -3.661694e+001  1.169210e+002 
4178125000  -3.726353e+001  1.171387e+002 
4181250000  -3.696242e+001  1.166646e+002 
4184375000  -3.678473e+001  1.115046e+002 
4187500000  -3.677127e+001  1.070117e+002 
4190625000  -3.656634e+001  1.026172e+002 
4193750000  -3.745957e+001  9.863971e+001 
4196875000  -3.832291e+001  9.636344e+001 
4200000000  -3.918473e+001  1.007258e+002 
4203125000  -3.894750e+001  1.131369e+002 
4206250000  -3.512176e+001  1.116449e+002 
4209375000  -3.426178e+001  9.058759e+001 
4212500000  -3.619007e+001  8.139879e+001 
4215625000  -3.729982e+001  8.798360e+001 
4218750000  -3.561794e+001  9.271732e+001 
4221875000  -3.339775e+001  8.361700e+001 
4225000000  -3.474052e+001  7.006042e+001 
4228125000  -3.519661e+001  7.332063e+001 
4231250000  -3.361121e+001  6.844730e+001 
4234375000  -3.345701e+001  5.943904e+001 
4237500000  -3.301498e+001  5.548952e+001 
4240625000  -3.303602e+001  4.389835e+001 
4243750000  -3.424314e+001  3.637985e+001 
4246875000  -3.509818e+001  3.682735e+001 
4250000000  -3.501588e+001  3.750356e+001 
4253125000  -3.454304e+001  3.442360e+001 
4256250000  -3.489802e+001  2.974088e+001 
4259375000  -3.456122e+001  2.668814e+001 
4262500000  -3.467659e+001  2.168148e+001 
4265625000  -3.475597e+001  2.155795e+001 
4268750000  -3.388504e+001  1.593702e+001 
4271875000  -3.395593e+001  8.564152e+000 
4275000000  -3.344101e+001  4.364957e-001 
4278125000  -3.425859e+001  -1.186175e+001 
4281250000  -3.625258e+001  -1.267894e+001 
4284375000  -3.576313e+001  -1.239128e+001 
4287500000  -3.687002e+001  -1.725811e+001 
4290625000  -3.814975e+001  -6.779835e+000 
4293750000  -3.595944e+001  -2.674443e+000 
4296875000  -3.509560e+001  -1.489778e+001 
4300000000  -3.597706e+001  -2.434021e+001 
4303125000  -3.715497e+001  -2.173878e+001 
4306250000  -3.639909e+001  -1.635236e+001 
4309375000  -3.531337e+001  -1.844430e+001 
4312500000  -3.511938e+001  -2.711310e+001 
4315625000  -3.511674e+001  -3.283854e+001 
4318750000  -3.532084e+001  -3.618960e+001 
4321875000  -3.565829e+001  -3.563126e+001 
4325000000  -3.507987e+001  -3.666475e+001 
4328125000  -3.429893e+001  -4.265128e+001 
4331250000  -3.428010e+001  -5.014594e+001 
4334375000  -3.451633e+001  -5.708482e+001 
4337500000  -3.539168e+001  -5.866848e+001 
4340625000  -3.577649e+001  -5.540241e+001 
4343750000  -3.492262e+001  -5.650970e+001 
4346875000  -3.455946e+001  -6.292773e+001 
4350000000  -3.444152e+001  -6.906626e+001 
4353125000  -3.444947e+001  -7.727393e+001 
4356250000  -3.626876e+001  -7.921009e+001 
4359375000  -3.646436e+001  -6.414935e+001 
4362500000  -3.342965e+001  -6.615437e+001 
4365625000  -3.194716e+001  -7.801052e+001 
4368750000  -3.289031e+001  -9.163548e+001 
4371875000  -3.409445e+001  -9.232274e+001 
4375000000  -3.346990e+001  -9.307196e+001 
4378125000  -3.278007e+001  -9.967052e+001 
4381250000  -3.306765e+001  -1.072836e+002 
4384375000  -3.275554e+001  -1.127903e+002 
4387500000  -3.362513e+001  -1.209508e+002 
4390625000  -3.474267e+001  -1.211892e+002 
4393750000  -3.404377e+001  -1.197159e+002 
4396875000  -3.341419e+001  -1.225648e+002 
4400000000  -3.289234e+001  -1.309928e+002 
4403125000  -3.360395e+001  -1.385303e+002 
4406250000  -3.458667e+001  -1.420979e+002 
4409375000  -3.455492e+001  -1.457031e+002 
4412500000  -3.581137e+001  -1.482464e+002 
4415625000  -3.622148e+001  -1.442228e+002 
