!Agilent Technologies,E8363B,MY43030201,A.06.04.32
!Agilent E8363B: A.06.04.32
!Date: Tuesday, November 11, 2014 21:10:17
!Correction: S21(Response(S21)) 
!S1P File: Measurement: S21:
# Hz S  dB   R 50
3000000000  -3.645522e+001  -5.595279e+001 
3003125000  -3.758977e+001  -6.177132e+001 
3006250000  -3.748190e+001  -6.361606e+001 
3009375000  -3.788063e+001  -5.967363e+001 
3012500000  -3.706730e+001  -6.180840e+001 
3015625000  -3.611193e+001  -6.939977e+001 
3018750000  -3.691952e+001  -7.007094e+001 
3021875000  -3.550863e+001  -6.961335e+001 
3025000000  -3.416613e+001  -7.228967e+001 
3028125000  -3.322346e+001  -7.991845e+001 
3031250000  -3.219115e+001  -9.071682e+001 
3034375000  -3.181648e+001  -1.040253e+002 
3037500000  -3.240034e+001  -1.165380e+002 
3040625000  -3.365685e+001  -1.208581e+002 
3043750000  -3.430965e+001  -1.264898e+002 
3046875000  -3.445251e+001  -1.319168e+002 
3050000000  -3.615011e+001  -1.380013e+002 
3053125000  -3.620028e+001  -1.322024e+002 
3056250000  -3.562166e+001  -1.292148e+002 
3059375000  -3.569593e+001  -1.289708e+002 
3062500000  -3.419707e+001  -1.323240e+002 
3065625000  -3.405427e+001  -1.391094e+002 
3068750000  -3.371329e+001  -1.464254e+002 
3071875000  -3.356911e+001  -1.476274e+002 
3075000000  -3.335630e+001  -1.524815e+002 
3078125000  -3.309145e+001  -1.563217e+002 
3081250000  -3.363582e+001  -1.608251e+002 
3084375000  -3.267671e+001  -1.641686e+002 
3087500000  -3.247178e+001  -1.683040e+002 
3090625000  -3.200567e+001  -1.787570e+002 
3093750000  -3.256184e+001  1.739184e+002 
3096875000  -3.351519e+001  1.680271e+002 
3100000000  -3.336478e+001  1.666969e+002 
3103125000  -3.362312e+001  1.669929e+002 
3106250000  -3.314660e+001  1.628207e+002 
3109375000  -3.318227e+001  1.590670e+002 
3112500000  -3.320831e+001  1.560565e+002 
3115625000  -3.292415e+001  1.521202e+002 
3118750000  -3.329503e+001  1.518378e+002 
3121875000  -3.229869e+001  1.424327e+002 
3125000000  -3.352245e+001  1.380304e+002 
3128125000  -3.449325e+001  1.454090e+002 
3131250000  -3.203698e+001  1.437303e+002 
3134375000  -3.080360e+001  1.276740e+002 
3137500000  -3.140713e+001  1.139812e+002 
3140625000  -3.272775e+001  1.112926e+002 
3143750000  -3.385107e+001  1.126572e+002 
3146875000  -3.322343e+001  1.132686e+002 
3150000000  -3.226978e+001  1.134110e+002 
3153125000  -3.232864e+001  1.042818e+002 
3156250000  -3.343425e+001  1.092177e+002 
3159375000  -3.155332e+001  1.104866e+002 
3162500000  -2.967957e+001  9.568781e+001 
3165625000  -3.082210e+001  8.341917e+001 
3168750000  -3.100441e+001  8.368830e+001 
3171875000  -3.015067e+001  7.843797e+001 
3175000000  -3.095827e+001  6.951601e+001 
3178125000  -3.070576e+001  7.011102e+001 
3181250000  -2.957112e+001  6.435494e+001 
3184375000  -2.895888e+001  5.215008e+001 
3187500000  -3.018352e+001  3.661312e+001 
3190625000  -3.282124e+001  2.946865e+001 
3193750000  -3.329697e+001  3.767645e+001 
3196875000  -3.307563e+001  4.209634e+001 
3200000000  -3.199231e+001  3.914815e+001 
3203125000  -3.130458e+001  3.295782e+001 
3206250000  -3.167280e+001  2.611912e+001 
3209375000  -3.116276e+001  2.057971e+001 
3212500000  -3.143459e+001  1.315069e+001 
3215625000  -3.146741e+001  9.216352e+000 
3218750000  -3.229269e+001  1.817293e+000 
3221875000  -3.304576e+001  -2.810705e+000 
3225000000  -3.263995e+001  -3.802820e+000 
3228125000  -3.306142e+001  -9.794683e+000 
3231250000  -3.369394e+001  -1.166646e+001 
3234375000  -3.343955e+001  -1.130360e+001 
3237500000  -3.340454e+001  -1.352745e+001 
3240625000  -3.301802e+001  -1.681066e+001 
3243750000  -3.262866e+001  -2.377519e+001 
3246875000  -3.299420e+001  -3.135951e+001 
3250000000  -3.339761e+001  -3.336516e+001 
3253125000  -3.360831e+001  -3.508685e+001 
3256250000  -3.301857e+001  -4.252267e+001 
3259375000  -3.343904e+001  -5.092604e+001 
3262500000  -3.462872e+001  -5.478745e+001 
3265625000  -3.525101e+001  -5.134867e+001 
3268750000  -3.504536e+001  -4.956074e+001 
3271875000  -3.474641e+001  -5.079906e+001 
3275000000  -3.364093e+001  -5.667992e+001 
3278125000  -3.417606e+001  -6.330510e+001 
3281250000  -3.431201e+001  -6.258517e+001 
3284375000  -3.382136e+001  -6.872617e+001 
3287500000  -3.406944e+001  -7.300071e+001 
3290625000  -3.423110e+001  -7.918919e+001 
3293750000  -3.408669e+001  -8.542513e+001 
3296875000  -3.508479e+001  -8.533965e+001 
3300000000  -3.481580e+001  -8.550670e+001 
3303125000  -3.365432e+001  -9.079893e+001 
3306250000  -3.347891e+001  -9.725486e+001 
3309375000  -3.311992e+001  -1.045428e+002 
3312500000  -3.329823e+001  -1.156686e+002 
3315625000  -3.424307e+001  -1.236699e+002 
3318750000  -3.580200e+001  -1.258933e+002 
3321875000  -3.696972e+001  -1.250871e+002 
3325000000  -3.717812e+001  -1.214681e+002 
3328125000  -3.675199e+001  -1.206469e+002 
3331250000  -3.572170e+001  -1.135665e+002 
3334375000  -3.299908e+001  -1.251557e+002 
3337500000  -3.306860e+001  -1.449067e+002 
3340625000  -3.448165e+001  -1.546079e+002 
3343750000  -3.658149e+001  -1.562076e+002 
3346875000  -3.653670e+001  -1.543250e+002 
3350000000  -3.597018e+001  -1.559544e+002 
3353125000  -3.605537e+001  -1.602177e+002 
3356250000  -3.557670e+001  -1.686346e+002 
3359375000  -3.651778e+001  -1.774224e+002 
3362500000  -3.763538e+001  1.772855e+002 
3365625000  -3.804360e+001  1.762705e+002 
3368750000  -3.873840e+001  1.726416e+002 
3371875000  -3.897134e+001  1.708111e+002 
3375000000  -4.042573e+001  1.682885e+002 
3378125000  -4.129392e+001  1.690764e+002 
3381250000  -4.222478e+001  1.789030e+002 
3384375000  -4.101617e+001  -1.627758e+002 
3387500000  -3.742285e+001  1.796132e+002 
3390625000  -3.931726e+001  1.623057e+002 
3393750000  -4.047575e+001  1.666654e+002 
3396875000  -3.920061e+001  1.669199e+002 
3400000000  -3.865354e+001  1.586282e+002 
3403125000  -3.952913e+001  1.536021e+002 
3406250000  -3.982055e+001  1.533338e+002 
3409375000  -3.983010e+001  1.461133e+002 
3412500000  -4.030352e+001  1.436170e+002 
3415625000  -4.100141e+001  1.445281e+002 
3418750000  -4.075479e+001  1.449503e+002 
3421875000  -4.136190e+001  1.490867e+002 
3425000000  -4.029428e+001  1.484906e+002 
3428125000  -3.931573e+001  1.437555e+002 
3431250000  -3.924108e+001  1.365347e+002 
3434375000  -3.912629e+001  1.309483e+002 
3437500000  -3.977729e+001  1.254484e+002 
3440625000  -3.987323e+001  1.284371e+002 
3443750000  -3.881167e+001  1.305426e+002 
3446875000  -3.774597e+001  1.216001e+002 
3450000000  -3.746964e+001  1.122850e+002 
3453125000  -3.809533e+001  1.003396e+002 
3456250000  -3.937003e+001  9.526852e+001 
3459375000  -4.010380e+001  9.625925e+001 
3462500000  -4.010897e+001  9.692737e+001 
3465625000  -3.994314e+001  9.101294e+001 
3468750000  -4.029087e+001  8.651692e+001 
3471875000  -4.017855e+001  8.449410e+001 
3475000000  -3.977083e+001  8.049789e+001 
3478125000  -4.073622e+001  7.225864e+001 
3481250000  -4.128682e+001  7.079285e+001 
3484375000  -4.266006e+001  7.445480e+001 
3487500000  -4.148608e+001  7.437453e+001 
3490625000  -4.087001e+001  6.953458e+001 
3493750000  -4.159138e+001  6.390016e+001 
3496875000  -4.200262e+001  6.136801e+001 
3500000000  -4.277429e+001  6.453657e+001 
3503125000  -4.170369e+001  6.592596e+001 
3506250000  -4.071956e+001  6.049861e+001 
3509375000  -4.074161e+001  5.200349e+001 
3512500000  -4.129242e+001  4.349297e+001 
3515625000  -4.208131e+001  4.171862e+001 
3518750000  -4.267304e+001  4.266796e+001 
3521875000  -4.248016e+001  3.959683e+001 
3525000000  -4.366610e+001  3.765149e+001 
3528125000  -4.314931e+001  4.426298e+001 
3531250000  -4.183960e+001  4.241064e+001 
3534375000  -4.193211e+001  3.255166e+001 
3537500000  -4.251568e+001  2.744716e+001 
3540625000  -4.308158e+001  2.627593e+001 
3543750000  -4.397945e+001  2.920230e+001 
3546875000  -4.360872e+001  4.025826e+001 
3550000000  -4.116388e+001  3.933894e+001 
3553125000  -3.991256e+001  2.247628e+001 
3556250000  -4.117971e+001  1.636846e+001 
3559375000  -4.095678e+001  1.675407e+001 
3562500000  -4.012309e+001  7.878465e+000 
3565625000  -4.064423e+001  9.499491e-001 
3568750000  -4.092484e+001  3.362233e+000 
3571875000  -4.065760e+001  2.366752e+000 
3575000000  -4.057675e+001  -6.302520e+000 
3578125000  -4.098521e+001  -1.056559e+001 
3581250000  -4.109621e+001  -1.024056e+001 
3584375000  -4.017975e+001  -1.524016e+001 
3587500000  -3.965075e+001  -2.405224e+001 
3590625000  -4.066138e+001  -3.441307e+001 
3593750000  -4.175182e+001  -3.713754e+001 
3596875000  -4.174659e+001  -2.973692e+001 
3600000000  -4.036062e+001  -3.692839e+001 
3603125000  -4.070518e+001  -5.139471e+001 
3606250000  -4.167170e+001  -5.544773e+001 
3609375000  -4.248841e+001  -5.675705e+001 
3612500000  -4.303838e+001  -6.083397e+001 
3615625000  -4.290350e+001  -6.361510e+001 
3618750000  -4.376553e+001  -6.231496e+001 
3621875000  -4.383862e+001  -6.549209e+001 
3625000000  -4.453135e+001  -6.528889e+001 
3628125000  -4.433771e+001  -6.559730e+001 
3631250000  -4.407979e+001  -7.301715e+001 
3634375000  -4.549505e+001  -7.157192e+001 
3637500000  -4.564206e+001  -6.382708e+001 
3640625000  -4.481830e+001  -6.329742e+001 
3643750000  -4.464929e+001  -7.111003e+001 
3646875000  -4.514822e+001  -7.593667e+001 
3650000000  -4.543018e+001  -7.251749e+001 
3653125000  -4.477601e+001  -7.114747e+001 
3656250000  -4.580296e+001  -7.525416e+001 
3659375000  -4.578479e+001  -7.261526e+001 
3662500000  -4.471103e+001  -7.524866e+001 
3665625000  -4.439256e+001  -7.502663e+001 
3668750000  -4.343338e+001  -7.571756e+001 
3671875000  -4.233004e+001  -8.494888e+001 
3675000000  -4.270159e+001  -9.032890e+001 
3678125000  -4.267907e+001  -9.165070e+001 
3681250000  -4.232857e+001  -9.465833e+001 
3684375000  -4.249937e+001  -1.004402e+002 
3687500000  -4.275968e+001  -1.035887e+002 
3690625000  -4.261265e+001  -1.082911e+002 
3693750000  -4.376283e+001  -1.092128e+002 
3696875000  -4.355263e+001  -1.080522e+002 
3700000000  -4.254457e+001  -1.165818e+002 
3703125000  -4.279384e+001  -1.210858e+002 
3706250000  -4.371814e+001  -1.209734e+002 
3709375000  -4.307780e+001  -1.174082e+002 
3712500000  -4.221592e+001  -1.221317e+002 
3715625000  -4.118044e+001  -1.290793e+002 
3718750000  -4.102629e+001  -1.336746e+002 
3721875000  -4.108704e+001  -1.408662e+002 
3725000000  -4.180439e+001  -1.483786e+002 
3728125000  -4.194304e+001  -1.488003e+002 
3731250000  -4.169907e+001  -1.500511e+002 
3734375000  -4.123897e+001  -1.571512e+002 
3737500000  -4.220937e+001  -1.633276e+002 
3740625000  -4.338131e+001  -1.655988e+002 
3743750000  -4.339917e+001  -1.705807e+002 
3746875000  -4.382947e+001  -1.727663e+002 
3750000000  -4.439508e+001  -1.733573e+002 
3753125000  -4.390402e+001  -1.739626e+002 
3756250000  -4.484190e+001  -1.711206e+002 
3759375000  -4.487248e+001  -1.715678e+002 
3762500000  -4.413774e+001  -1.730720e+002 
3765625000  -4.498262e+001  -1.727554e+002 
3768750000  -4.486975e+001  -1.710221e+002 
3771875000  -4.315152e+001  -1.699287e+002 
3775000000  -4.298273e+001  -1.762357e+002 
3778125000  -4.327630e+001  -1.773887e+002 
3781250000  -4.319052e+001  -1.786328e+002 
3784375000  -4.249193e+001  -1.798427e+002 
3787500000  -4.181005e+001  1.762833e+002 
3790625000  -4.224004e+001  1.673676e+002 
3793750000  -4.229353e+001  1.687663e+002 
3796875000  -4.093411e+001  1.670163e+002 
3800000000  -3.947395e+001  1.639800e+002 
3803125000  -4.027998e+001  1.546771e+002 
3806250000  -4.072515e+001  1.510681e+002 
3809375000  -4.014623e+001  1.481801e+002 
3812500000  -3.969799e+001  1.418144e+002 
3815625000  -4.037328e+001  1.312800e+002 
3818750000  -4.147889e+001  1.318536e+002 
3821875000  -4.125447e+001  1.394890e+002 
3825000000  -3.928540e+001  1.425627e+002 
3828125000  -3.788871e+001  1.245763e+002 
3831250000  -3.884354e+001  1.093079e+002 
3834375000  -4.032756e+001  1.094544e+002 
3837500000  -4.109857e+001  1.136582e+002 
3840625000  -3.973513e+001  1.113316e+002 
3843750000  -3.903190e+001  9.771227e+001 
3846875000  -3.979189e+001  8.906908e+001 
3850000000  -4.121513e+001  9.599219e+001 
3853125000  -4.042735e+001  1.010740e+002 
3856250000  -4.032451e+001  9.337932e+001 
3859375000  -3.970008e+001  8.713826e+001 
3862500000  -3.928022e+001  7.821178e+001 
3865625000  -4.000241e+001  7.403296e+001 
3868750000  -3.989213e+001  7.186059e+001 
3871875000  -3.945266e+001  6.988162e+001 
3875000000  -3.963466e+001  6.024888e+001 
3878125000  -4.087826e+001  5.999289e+001 
3881250000  -4.085411e+001  6.082278e+001 
3884375000  -4.052440e+001  5.665389e+001 
3887500000  -4.039603e+001  5.189463e+001 
3890625000  -4.116320e+001  4.885656e+001 
3893750000  -4.142735e+001  4.875240e+001 
3896875000  -4.174960e+001  4.819162e+001 
3900000000  -4.207027e+001  4.469891e+001 
3903125000  -4.147882e+001  4.667422e+001 
3906250000  -4.079506e+001  4.350548e+001 
3909375000  -4.027958e+001  4.151382e+001 
3912500000  -4.008446e+001  3.390347e+001 
3915625000  -4.134333e+001  3.478194e+001 
3918750000  -4.120239e+001  3.527527e+001 
3921875000  -4.077861e+001  3.182302e+001 
3925000000  -3.974611e+001  2.804184e+001 
3928125000  -3.929065e+001  2.165714e+001 
3931250000  -3.962214e+001  1.533838e+001 
3934375000  -3.980471e+001  1.636713e+001 
3937500000  -4.009685e+001  1.455695e+001 
3940625000  -4.042305e+001  1.389151e+001 
3943750000  -3.943481e+001  1.278095e+001 
3946875000  -3.803133e+001  5.365788e+000 
3950000000  -3.880719e+001  -1.823384e+000 
3953125000  -3.981935e+001  -4.554779e+000 
3956250000  -3.864496e+001  -3.544765e+000 
3959375000  -3.770863e+001  -5.816520e+000 
3962500000  -3.730228e+001  -1.150032e+001 
3965625000  -3.695974e+001  -2.280029e+001 
3968750000  -3.819585e+001  -2.910467e+001 
3971875000  -3.831059e+001  -3.152322e+001 
3975000000  -3.774418e+001  -3.461880e+001 
3978125000  -3.767393e+001  -3.811674e+001 
3981250000  -3.766229e+001  -4.277760e+001 
3984375000  -3.805829e+001  -5.029676e+001 
3987500000  -3.875154e+001  -5.229359e+001 
3990625000  -3.858320e+001  -5.331400e+001 
3993750000  -3.919256e+001  -5.933080e+001 
3996875000  -3.924683e+001  -6.137317e+001 
4000000000  -3.945004e+001  -6.358507e+001 
4003125000  -3.991060e+001  -6.192271e+001 
4006250000  -3.846665e+001  -6.408396e+001 
4009375000  -3.766032e+001  -7.624809e+001 
4012500000  -3.869014e+001  -8.310423e+001 
4015625000  -4.024393e+001  -8.155647e+001 
4018750000  -4.043029e+001  -7.915369e+001 
4021875000  -3.932927e+001  -8.306073e+001 
4025000000  -3.925623e+001  -8.749836e+001 
4028125000  -3.916795e+001  -9.079406e+001 
4031250000  -3.954762e+001  -9.535722e+001 
4034375000  -3.996673e+001  -9.386414e+001 
4037500000  -3.961158e+001  -9.214102e+001 
4040625000  -3.935867e+001  -9.775491e+001 
4043750000  -3.963152e+001  -9.875359e+001 
4046875000  -3.908551e+001  -9.795647e+001 
4050000000  -3.839353e+001  -1.050802e+002 
4053125000  -3.910149e+001  -1.061788e+002 
4056250000  -3.935074e+001  -1.023411e+002 
4059375000  -3.818072e+001  -1.032056e+002 
4062500000  -3.675324e+001  -1.077744e+002 
4065625000  -3.664651e+001  -1.121134e+002 
4068750000  -3.622422e+001  -1.197251e+002 
4071875000  -3.572132e+001  -1.280297e+002 
4075000000  -3.609490e+001  -1.348024e+002 
4078125000  -3.643889e+001  -1.375409e+002 
4081250000  -3.583002e+001  -1.399864e+002 
4084375000  -3.560686e+001  -1.490892e+002 
4087500000  -3.590976e+001  -1.567049e+002 
4090625000  -3.668578e+001  -1.566302e+002 
4093750000  -3.638659e+001  -1.582224e+002 
4096875000  -3.610230e+001  -1.655580e+002 
4100000000  -3.675043e+001  -1.740531e+002 
4103125000  -3.770237e+001  -1.719217e+002 
4106250000  -3.745736e+001  -1.696734e+002 
4109375000  -3.659108e+001  -1.707960e+002 
4112500000  -3.614714e+001  -1.787509e+002 
4115625000  -3.637814e+001  1.747070e+002 
4118750000  -3.667981e+001  1.706122e+002 
4121875000  -3.632281e+001  1.663075e+002 
4125000000  -3.680488e+001  1.585142e+002 
4128125000  -3.777163e+001  1.606165e+002 
4131250000  -3.767818e+001  1.669994e+002 
4134375000  -3.542094e+001  1.609138e+002 
4137500000  -3.517844e+001  1.415117e+002 
4140625000  -3.768995e+001  1.328573e+002 
4143750000  -3.907877e+001  1.381511e+002 
4146875000  -3.848639e+001  1.445185e+002 
4150000000  -3.777788e+001  1.401824e+002 
4153125000  -3.779681e+001  1.336878e+002 
4156250000  -3.877192e+001  1.315312e+002 
4159375000  -3.901168e+001  1.349405e+002 
4162500000  -3.766887e+001  1.415196e+002 
4165625000  -3.692597e+001  1.349260e+002 
4168750000  -3.625569e+001  1.272349e+002 
4171875000  -3.620309e+001  1.171634e+002 
4175000000  -3.685713e+001  1.138970e+002 
4178125000  -3.737260e+001  1.131106e+002 
4181250000  -3.709517e+001  1.110473e+002 
4184375000  -3.705993e+001  1.055885e+002 
4187500000  -3.683460e+001  1.039337e+002 
4190625000  -3.683937e+001  9.914946e+001 
4193750000  -3.757391e+001  9.530481e+001 
4196875000  -3.823262e+001  9.331197e+001 
4200000000  -3.913859e+001  9.502081e+001 
4203125000  -3.860825e+001  1.102054e+002 
4206250000  -3.519701e+001  1.091299e+002 
4209375000  -3.413954e+001  8.567535e+001 
4212500000  -3.626017e+001  7.691609e+001 
4215625000  -3.708630e+001  8.289046e+001 
4218750000  -3.535981e+001  8.768687e+001 
4221875000  -3.339840e+001  7.791776e+001 
4225000000  -3.450902e+001  6.523344e+001 
4228125000  -3.484594e+001  7.025603e+001 
4231250000  -3.335402e+001  6.378247e+001 
4234375000  -3.336677e+001  5.362581e+001 
4237500000  -3.292210e+001  4.957476e+001 
4240625000  -3.293614e+001  3.942479e+001 
4243750000  -3.386393e+001  3.184461e+001 
4246875000  -3.479953e+001  2.977020e+001 
4250000000  -3.492207e+001  3.143162e+001 
4253125000  -3.448587e+001  2.860369e+001 
4256250000  -3.473317e+001  2.402884e+001 
4259375000  -3.432221e+001  2.050919e+001 
4262500000  -3.461130e+001  1.530115e+001 
4265625000  -3.484855e+001  1.340210e+001 
4268750000  -3.381948e+001  9.401103e+000 
4271875000  -3.371029e+001  1.560872e+000 
4275000000  -3.340795e+001  -4.751832e+000 
4278125000  -3.414443e+001  -1.762071e+001 
4281250000  -3.617285e+001  -1.894359e+001 
4284375000  -3.581450e+001  -2.034260e+001 
4287500000  -3.715495e+001  -2.436724e+001 
4290625000  -3.809235e+001  -1.518269e+001 
4293750000  -3.608894e+001  -1.058182e+001 
4296875000  -3.512169e+001  -2.037456e+001 
4300000000  -3.620979e+001  -3.055723e+001 
4303125000  -3.731157e+001  -2.883943e+001 
4306250000  -3.644082e+001  -2.215469e+001 
4309375000  -3.534502e+001  -2.390834e+001 
4312500000  -3.501138e+001  -3.274378e+001 
4315625000  -3.520875e+001  -3.830360e+001 
4318750000  -3.574394e+001  -4.165380e+001 
4321875000  -3.574375e+001  -3.951677e+001 
4325000000  -3.515444e+001  -4.011207e+001 
4328125000  -3.435442e+001  -4.712543e+001 
4331250000  -3.417572e+001  -5.602648e+001 
4334375000  -3.474154e+001  -6.179998e+001 
4337500000  -3.544846e+001  -6.396273e+001 
4340625000  -3.578436e+001  -6.015668e+001 
4343750000  -3.490939e+001  -6.109727e+001 
4346875000  -3.443201e+001  -6.740560e+001 
4350000000  -3.446276e+001  -7.265731e+001 
4353125000  -3.429231e+001  -8.137228e+001 
4356250000  -3.621238e+001  -8.231123e+001 
4359375000  -3.635052e+001  -6.797630e+001 
4362500000  -3.331768e+001  -6.938342e+001 
4365625000  -3.178969e+001  -8.440311e+001 
4368750000  -3.270622e+001  -9.742522e+001 
4371875000  -3.356649e+001  -9.730133e+001 
4375000000  -3.315577e+001  -9.941344e+001 
4378125000  -3.255454e+001  -1.057447e+002 
4381250000  -3.284029e+001  -1.122820e+002 
4384375000  -3.252419e+001  -1.191916e+002 
4387500000  -3.346387e+001  -1.258787e+002 
4390625000  -3.429245e+001  -1.264671e+002 
4393750000  -3.372308e+001  -1.260804e+002 
4396875000  -3.305790e+001  -1.290214e+002 
4400000000  -3.257231e+001  -1.383073e+002 
4403125000  -3.332803e+001  -1.464276e+002 
4406250000  -3.424739e+001  -1.488400e+002 
4409375000  -3.445044e+001  -1.528999e+002 
4412500000  -3.557585e+001  -1.566329e+002 
4415625000  -3.588178e+001  -1.516591e+002 
