!Agilent Technologies,E8363B,MY43030201,A.06.04.32
!Agilent E8363B: A.06.04.32
!Date: Tuesday, November 11, 2014 21:07:01
!Correction: S21(Response(S21)) 
!S1P File: Measurement: S21:
# Hz S  dB   R 50
3000000000  -3.649773e+001  -5.017045e+001 
3003125000  -3.767554e+001  -5.625489e+001 
3006250000  -3.750470e+001  -5.862408e+001 
3009375000  -3.781859e+001  -5.455476e+001 
3012500000  -3.710701e+001  -5.608126e+001 
3015625000  -3.617646e+001  -6.368902e+001 
3018750000  -3.689690e+001  -6.484170e+001 
3021875000  -3.548372e+001  -6.371385e+001 
3025000000  -3.416990e+001  -6.694080e+001 
3028125000  -3.319947e+001  -7.334436e+001 
3031250000  -3.214095e+001  -8.535421e+001 
3034375000  -3.174738e+001  -9.875753e+001 
3037500000  -3.224481e+001  -1.111154e+002 
3040625000  -3.352388e+001  -1.156651e+002 
3043750000  -3.419874e+001  -1.206895e+002 
3046875000  -3.437745e+001  -1.267928e+002 
3050000000  -3.605156e+001  -1.335909e+002 
3053125000  -3.609255e+001  -1.272729e+002 
3056250000  -3.554390e+001  -1.239467e+002 
3059375000  -3.576144e+001  -1.242311e+002 
3062500000  -3.413747e+001  -1.276947e+002 
3065625000  -3.394014e+001  -1.340347e+002 
3068750000  -3.363570e+001  -1.404018e+002 
3071875000  -3.350583e+001  -1.437583e+002 
3075000000  -3.332213e+001  -1.472253e+002 
3078125000  -3.306148e+001  -1.515977e+002 
3081250000  -3.359635e+001  -1.562864e+002 
3084375000  -3.260640e+001  -1.595679e+002 
3087500000  -3.242936e+001  -1.633295e+002 
3090625000  -3.198855e+001  -1.732511e+002 
3093750000  -3.244269e+001  1.789722e+002 
3096875000  -3.345599e+001  1.734601e+002 
3100000000  -3.335896e+001  1.709347e+002 
3103125000  -3.362877e+001  1.714822e+002 
3106250000  -3.320152e+001  1.669568e+002 
3109375000  -3.327803e+001  1.632464e+002 
3112500000  -3.325666e+001  1.610390e+002 
3115625000  -3.286334e+001  1.567408e+002 
3118750000  -3.315119e+001  1.570410e+002 
3121875000  -3.230152e+001  1.472366e+002 
3125000000  -3.348752e+001  1.426899e+002 
3128125000  -3.450983e+001  1.497881e+002 
3131250000  -3.206494e+001  1.488283e+002 
3134375000  -3.069835e+001  1.331162e+002 
3137500000  -3.130828e+001  1.191183e+002 
3140625000  -3.278143e+001  1.162996e+002 
3143750000  -3.384500e+001  1.172825e+002 
3146875000  -3.332993e+001  1.189646e+002 
3150000000  -3.228631e+001  1.189324e+002 
3153125000  -3.235199e+001  1.098858e+002 
3156250000  -3.336630e+001  1.145501e+002 
3159375000  -3.156577e+001  1.156597e+002 
3162500000  -2.967256e+001  1.015241e+002 
3165625000  -3.073347e+001  8.878780e+001 
3168750000  -3.100734e+001  8.960343e+001 
3171875000  -3.013315e+001  8.356271e+001 
3175000000  -3.083372e+001  7.448272e+001 
3178125000  -3.061528e+001  7.551723e+001 
3181250000  -2.951015e+001  7.050050e+001 
3184375000  -2.885815e+001  5.738136e+001 
3187500000  -3.011958e+001  4.158973e+001 
3190625000  -3.273125e+001  3.393207e+001 
3193750000  -3.329093e+001  4.254713e+001 
3196875000  -3.291065e+001  4.738544e+001 
3200000000  -3.200827e+001  4.483656e+001 
3203125000  -3.121276e+001  3.811484e+001 
3206250000  -3.151496e+001  3.114123e+001 
3209375000  -3.097674e+001  2.540178e+001 
3212500000  -3.129353e+001  1.836794e+001 
3215625000  -3.137241e+001  1.485640e+001 
3218750000  -3.208657e+001  7.353585e+000 
3221875000  -3.304141e+001  1.973877e+000 
3225000000  -3.256803e+001  8.167905e-001 
3228125000  -3.307733e+001  -4.994930e+000 
3231250000  -3.361756e+001  -7.335989e+000 
3234375000  -3.332883e+001  -7.282817e+000 
3237500000  -3.331880e+001  -9.046594e+000 
3240625000  -3.294926e+001  -1.170882e+001 
3243750000  -3.259942e+001  -1.878107e+001 
3246875000  -3.299363e+001  -2.683920e+001 
3250000000  -3.335168e+001  -2.866831e+001 
3253125000  -3.351649e+001  -3.075854e+001 
3256250000  -3.311518e+001  -3.737749e+001 
3259375000  -3.340588e+001  -4.582484e+001 
3262500000  -3.466351e+001  -5.020940e+001 
3265625000  -3.521841e+001  -4.755964e+001 
3268750000  -3.516889e+001  -4.525764e+001 
3271875000  -3.471983e+001  -4.553655e+001 
3275000000  -3.370310e+001  -5.186677e+001 
3278125000  -3.412336e+001  -5.869513e+001 
3281250000  -3.433953e+001  -5.749128e+001 
3284375000  -3.384487e+001  -6.440067e+001 
3287500000  -3.407936e+001  -6.824481e+001 
3290625000  -3.425866e+001  -7.469099e+001 
3293750000  -3.408391e+001  -7.977013e+001 
3296875000  -3.514917e+001  -8.052442e+001 
3300000000  -3.491496e+001  -8.003334e+001 
3303125000  -3.371028e+001  -8.553115e+001 
3306250000  -3.349494e+001  -9.147499e+001 
3309375000  -3.321534e+001  -9.838714e+001 
3312500000  -3.330985e+001  -1.097907e+002 
3315625000  -3.424492e+001  -1.173348e+002 
3318750000  -3.573180e+001  -1.202898e+002 
3321875000  -3.679133e+001  -1.203863e+002 
3325000000  -3.715329e+001  -1.149730e+002 
3328125000  -3.690537e+001  -1.152360e+002 
3331250000  -3.556724e+001  -1.082096e+002 
3334375000  -3.293714e+001  -1.197900e+002 
3337500000  -3.302457e+001  -1.385787e+002 
3340625000  -3.443038e+001  -1.493780e+002 
3343750000  -3.645230e+001  -1.503426e+002 
3346875000  -3.647660e+001  -1.483543e+002 
3350000000  -3.596278e+001  -1.502856e+002 
3353125000  -3.593174e+001  -1.549263e+002 
3356250000  -3.552146e+001  -1.638416e+002 
3359375000  -3.629847e+001  -1.714145e+002 
3362500000  -3.743896e+001  -1.777556e+002 
3365625000  -3.786448e+001  -1.779493e+002 
3368750000  -3.865755e+001  1.791128e+002 
3371875000  -3.883309e+001  1.766668e+002 
3375000000  -4.038355e+001  1.747197e+002 
3378125000  -4.118623e+001  1.732493e+002 
3381250000  -4.250932e+001  -1.764298e+002 
3384375000  -4.136933e+001  -1.561713e+002 
3387500000  -3.746148e+001  -1.723819e+002 
3390625000  -3.908754e+001  1.689315e+002 
3393750000  -4.027888e+001  1.701121e+002 
3396875000  -3.903302e+001  1.727252e+002 
3400000000  -3.865331e+001  1.648619e+002 
3403125000  -3.930230e+001  1.579856e+002 
3406250000  -3.952620e+001  1.577891e+002 
3409375000  -3.978855e+001  1.501451e+002 
3412500000  -4.021236e+001  1.486398e+002 
3415625000  -4.106540e+001  1.497344e+002 
3418750000  -4.099022e+001  1.508433e+002 
3421875000  -4.134035e+001  1.535854e+002 
3425000000  -4.044424e+001  1.538456e+002 
3428125000  -3.926167e+001  1.486809e+002 
3431250000  -3.908080e+001  1.427054e+002 
3434375000  -3.916352e+001  1.376887e+002 
3437500000  -3.958332e+001  1.323831e+002 
3440625000  -3.997227e+001  1.333658e+002 
3443750000  -3.868704e+001  1.341418e+002 
3446875000  -3.788649e+001  1.264926e+002 
3450000000  -3.753194e+001  1.166184e+002 
3453125000  -3.804480e+001  1.075571e+002 
3456250000  -3.909028e+001  1.019375e+002 
3459375000  -4.002233e+001  1.012230e+002 
3462500000  -3.998457e+001  1.014987e+002 
3465625000  -3.973172e+001  9.630246e+001 
3468750000  -4.009584e+001  9.239597e+001 
3471875000  -3.993521e+001  9.073145e+001 
3475000000  -3.954229e+001  8.541625e+001 
3478125000  -4.012941e+001  7.957860e+001 
3481250000  -4.116129e+001  7.615855e+001 
3484375000  -4.215284e+001  7.986636e+001 
3487500000  -4.140010e+001  7.879958e+001 
3490625000  -4.060894e+001  7.244154e+001 
3493750000  -4.123787e+001  6.696049e+001 
3496875000  -4.168977e+001  6.586828e+001 
3500000000  -4.225663e+001  6.913857e+001 
3503125000  -4.161981e+001  7.112318e+001 
3506250000  -4.080518e+001  6.397463e+001 
3509375000  -4.039747e+001  5.499816e+001 
3512500000  -4.108615e+001  4.675111e+001 
3515625000  -4.195329e+001  4.452338e+001 
3518750000  -4.251662e+001  4.426024e+001 
3521875000  -4.223011e+001  4.253454e+001 
3525000000  -4.362040e+001  3.883756e+001 
3528125000  -4.364487e+001  4.775992e+001 
3531250000  -4.220512e+001  4.479699e+001 
3534375000  -4.260521e+001  3.413407e+001 
3537500000  -4.264792e+001  3.028498e+001 
3540625000  -4.374541e+001  2.953723e+001 
3543750000  -4.424656e+001  3.191349e+001 
3546875000  -4.427111e+001  4.477253e+001 
3550000000  -4.144182e+001  4.559338e+001 
3553125000  -4.014127e+001  2.840661e+001 
3556250000  -4.164690e+001  2.114938e+001 
3559375000  -4.161016e+001  2.358265e+001 
3562500000  -4.020161e+001  1.447536e+001 
3565625000  -4.126385e+001  5.260027e+000 
3568750000  -4.151653e+001  1.024662e+001 
3571875000  -4.127442e+001  8.877264e+000 
3575000000  -4.070360e+001  1.510298e+000 
3578125000  -4.126162e+001  -3.814783e+000 
3581250000  -4.153434e+001  -4.130872e+000 
3584375000  -4.058926e+001  -8.595621e+000 
3587500000  -4.003780e+001  -1.603241e+001 
3590625000  -4.055184e+001  -2.764712e+001 
3593750000  -4.163440e+001  -2.804777e+001 
3596875000  -4.173776e+001  -2.266054e+001 
3600000000  -4.028150e+001  -2.841154e+001 
3603125000  -4.053731e+001  -4.322691e+001 
3606250000  -4.153204e+001  -4.704488e+001 
3609375000  -4.205641e+001  -4.975558e+001 
3612500000  -4.265062e+001  -5.299061e+001 
3615625000  -4.261395e+001  -5.685427e+001 
3618750000  -4.373999e+001  -5.746470e+001 
3621875000  -4.351623e+001  -5.961793e+001 
3625000000  -4.412953e+001  -6.195533e+001 
3628125000  -4.413851e+001  -6.200567e+001 
3631250000  -4.407182e+001  -6.962693e+001 
3634375000  -4.587578e+001  -6.818794e+001 
3637500000  -4.558161e+001  -6.042346e+001 
3640625000  -4.476757e+001  -6.194912e+001 
3643750000  -4.428421e+001  -6.662183e+001 
3646875000  -4.502881e+001  -7.361462e+001 
3650000000  -4.583453e+001  -7.127821e+001 
3653125000  -4.519514e+001  -7.596508e+001 
3656250000  -4.562842e+001  -7.338953e+001 
3659375000  -4.642618e+001  -7.142459e+001 
3662500000  -4.559265e+001  -7.078751e+001 
3665625000  -4.508660e+001  -6.928180e+001 
3668750000  -4.433387e+001  -7.177049e+001 
3671875000  -4.276419e+001  -7.790400e+001 
3675000000  -4.350930e+001  -8.469628e+001 
3678125000  -4.354670e+001  -8.536137e+001 
3681250000  -4.309069e+001  -8.814394e+001 
3684375000  -4.327311e+001  -9.061428e+001 
3687500000  -4.318192e+001  -9.735355e+001 
3690625000  -4.295445e+001  -1.020659e+002 
3693750000  -4.411251e+001  -1.008416e+002 
3696875000  -4.396202e+001  -1.024892e+002 
3700000000  -4.287377e+001  -1.041882e+002 
3703125000  -4.293891e+001  -1.102571e+002 
3706250000  -4.390337e+001  -1.114941e+002 
3709375000  -4.332566e+001  -1.105630e+002 
3712500000  -4.241761e+001  -1.132197e+002 
3715625000  -4.117283e+001  -1.185936e+002 
3718750000  -4.142554e+001  -1.246070e+002 
3721875000  -4.100449e+001  -1.311280e+002 
3725000000  -4.159229e+001  -1.367272e+002 
3728125000  -4.220081e+001  -1.385463e+002 
3731250000  -4.138876e+001  -1.433011e+002 
3734375000  -4.105281e+001  -1.486185e+002 
3737500000  -4.202423e+001  -1.564374e+002 
3740625000  -4.315800e+001  -1.595943e+002 
3743750000  -4.340231e+001  -1.597823e+002 
3746875000  -4.337020e+001  -1.651664e+002 
3750000000  -4.409640e+001  -1.659196e+002 
3753125000  -4.417241e+001  -1.630435e+002 
3756250000  -4.460871e+001  -1.640070e+002 
3759375000  -4.449455e+001  -1.651132e+002 
3762500000  -4.420382e+001  -1.691191e+002 
3765625000  -4.499477e+001  -1.668761e+002 
3768750000  -4.461149e+001  -1.652757e+002 
3771875000  -4.312394e+001  -1.639722e+002 
3775000000  -4.308099e+001  -1.726469e+002 
3778125000  -4.350898e+001  -1.727896e+002 
3781250000  -4.306533e+001  -1.755489e+002 
3784375000  -4.312188e+001  -1.760316e+002 
3787500000  -4.179811e+001  -1.775762e+002 
3790625000  -4.215612e+001  1.742673e+002 
3793750000  -4.241665e+001  1.739074e+002 
3796875000  -4.155152e+001  1.716309e+002 
3800000000  -3.980419e+001  1.700707e+002 
3803125000  -4.031634e+001  1.588132e+002 
3806250000  -4.110859e+001  1.575536e+002 
3809375000  -4.081135e+001  1.568282e+002 
3812500000  -3.995200e+001  1.477357e+002 
3815625000  -4.034811e+001  1.394843e+002 
3818750000  -4.136200e+001  1.396297e+002 
3821875000  -4.130746e+001  1.481110e+002 
3825000000  -3.940810e+001  1.479360e+002 
3828125000  -3.802795e+001  1.350215e+002 
3831250000  -3.860938e+001  1.169966e+002 
3834375000  -4.019313e+001  1.171038e+002 
3837500000  -4.094684e+001  1.202117e+002 
3840625000  -3.996695e+001  1.179510e+002 
3843750000  -3.879597e+001  1.066488e+002 
3846875000  -3.974757e+001  9.955750e+001 
3850000000  -4.111904e+001  1.038763e+002 
3853125000  -4.019787e+001  1.076738e+002 
3856250000  -4.029310e+001  9.916827e+001 
3859375000  -3.956290e+001  9.475884e+001 
3862500000  -3.954635e+001  8.763211e+001 
3865625000  -3.992224e+001  8.285863e+001 
3868750000  -3.967760e+001  8.071374e+001 
3871875000  -3.902967e+001  7.649305e+001 
3875000000  -3.935371e+001  6.848288e+001 
3878125000  -4.051367e+001  6.499294e+001 
3881250000  -4.050800e+001  6.909189e+001 
3884375000  -4.000262e+001  6.329010e+001 
3887500000  -4.018292e+001  5.911692e+001 
3890625000  -4.086610e+001  5.775805e+001 
3893750000  -4.093553e+001  5.470889e+001 
3896875000  -4.137904e+001  5.522704e+001 
3900000000  -4.193167e+001  5.419790e+001 
3903125000  -4.095799e+001  5.190031e+001 
3906250000  -4.087288e+001  5.102272e+001 
3909375000  -3.994899e+001  4.646712e+001 
3912500000  -4.018727e+001  3.898161e+001 
3915625000  -4.139413e+001  3.941963e+001 
3918750000  -4.114151e+001  4.160852e+001 
3921875000  -4.079377e+001  3.747734e+001 
3925000000  -3.967104e+001  3.465445e+001 
3928125000  -3.922550e+001  2.686779e+001 
3931250000  -3.970798e+001  2.353340e+001 
3934375000  -4.004469e+001  2.094572e+001 
3937500000  -4.006374e+001  2.123638e+001 
3940625000  -4.038198e+001  1.947906e+001 
3943750000  -3.921058e+001  1.843419e+001 
3946875000  -3.821400e+001  1.295538e+001 
3950000000  -3.894226e+001  4.857102e+000 
3953125000  -4.018000e+001  2.601704e+000 
3956250000  -3.891024e+001  5.551335e+000 
3959375000  -3.796888e+001  1.496851e+000 
3962500000  -3.741338e+001  -4.544382e+000 
3965625000  -3.707307e+001  -1.425678e+001 
3968750000  -3.816940e+001  -2.189725e+001 
3971875000  -3.837872e+001  -2.345758e+001 
3975000000  -3.774989e+001  -2.538620e+001 
3978125000  -3.785874e+001  -3.031784e+001 
3981250000  -3.788664e+001  -3.357983e+001 
3984375000  -3.800759e+001  -4.129077e+001 
3987500000  -3.863314e+001  -4.372486e+001 
3990625000  -3.868242e+001  -4.596317e+001 
3993750000  -3.902009e+001  -4.787059e+001 
3996875000  -3.906352e+001  -5.284095e+001 
4000000000  -3.926147e+001  -5.490968e+001 
4003125000  -3.957946e+001  -5.356834e+001 
4006250000  -3.817836e+001  -5.435132e+001 
4009375000  -3.699752e+001  -6.858990e+001 
4012500000  -3.858670e+001  -7.441572e+001 
4015625000  -3.988088e+001  -7.273570e+001 
4018750000  -3.992814e+001  -7.458234e+001 
4021875000  -3.912604e+001  -7.495609e+001 
4025000000  -3.887112e+001  -7.960069e+001 
4028125000  -3.895490e+001  -8.310770e+001 
4031250000  -3.935485e+001  -8.801186e+001 
4034375000  -3.959338e+001  -8.936958e+001 
4037500000  -3.909054e+001  -8.652248e+001 
4040625000  -3.905610e+001  -9.123547e+001 
4043750000  -3.932582e+001  -9.324503e+001 
4046875000  -3.885144e+001  -9.358064e+001 
4050000000  -3.854567e+001  -9.971830e+001 
4053125000  -3.893200e+001  -1.027959e+002 
4056250000  -3.939647e+001  -9.707672e+001 
4059375000  -3.806821e+001  -9.811935e+001 
4062500000  -3.679769e+001  -1.032260e+002 
4065625000  -3.667739e+001  -1.085613e+002 
4068750000  -3.636927e+001  -1.147707e+002 
4071875000  -3.575200e+001  -1.230235e+002 
4075000000  -3.612270e+001  -1.282355e+002 
4078125000  -3.662579e+001  -1.313976e+002 
4081250000  -3.606895e+001  -1.354624e+002 
4084375000  -3.556571e+001  -1.435480e+002 
4087500000  -3.611390e+001  -1.509752e+002 
4090625000  -3.666659e+001  -1.513360e+002 
4093750000  -3.644608e+001  -1.517668e+002 
4096875000  -3.620965e+001  -1.591200e+002 
4100000000  -3.684465e+001  -1.668525e+002 
4103125000  -3.781775e+001  -1.665616e+002 
4106250000  -3.760286e+001  -1.624996e+002 
4109375000  -3.677388e+001  -1.650360e+002 
4112500000  -3.606731e+001  -1.729246e+002 
4115625000  -3.663908e+001  -1.776556e+002 
4118750000  -3.678422e+001  1.777596e+002 
4121875000  -3.617288e+001  1.742381e+002 
4125000000  -3.676572e+001  1.667437e+002 
4128125000  -3.782935e+001  1.677299e+002 
4131250000  -3.743742e+001  1.733829e+002 
4134375000  -3.515091e+001  1.680244e+002 
4137500000  -3.533194e+001  1.500160e+002 
4140625000  -3.730915e+001  1.397521e+002 
4143750000  -3.891710e+001  1.451028e+002 
4146875000  -3.838975e+001  1.524759e+002 
4150000000  -3.739780e+001  1.480309e+002 
4153125000  -3.754935e+001  1.403336e+002 
4156250000  -3.845316e+001  1.380139e+002 
4159375000  -3.877701e+001  1.439843e+002 
4162500000  -3.744421e+001  1.460506e+002 
4165625000  -3.651473e+001  1.421308e+002 
4168750000  -3.583332e+001  1.320341e+002 
4171875000  -3.603505e+001  1.244993e+002 
4175000000  -3.659130e+001  1.179832e+002 
4178125000  -3.723758e+001  1.179651e+002 
4181250000  -3.695024e+001  1.170194e+002 
4184375000  -3.690002e+001  1.130173e+002 
4187500000  -3.671443e+001  1.082568e+002 
4190625000  -3.671883e+001  1.035699e+002 
4193750000  -3.751862e+001  1.009423e+002 
4196875000  -3.807760e+001  9.845142e+001 
4200000000  -3.903923e+001  1.003826e+002 
4203125000  -3.857692e+001  1.144730e+002 
4206250000  -3.541109e+001  1.145580e+002 
4209375000  -3.439050e+001  9.269800e+001 
4212500000  -3.618924e+001  8.212548e+001 
4215625000  -3.695412e+001  8.948075e+001 
4218750000  -3.578211e+001  9.488969e+001 
4221875000  -3.338136e+001  8.412962e+001 
4225000000  -3.469143e+001  7.078336e+001 
4228125000  -3.503099e+001  7.542991e+001 
4231250000  -3.357499e+001  7.072120e+001 
4234375000  -3.358599e+001  6.062462e+001 
4237500000  -3.305257e+001  5.613147e+001 
4240625000  -3.308249e+001  4.553727e+001 
4243750000  -3.417361e+001  3.821041e+001 
4246875000  -3.506253e+001  3.773638e+001 
4250000000  -3.506649e+001  3.880143e+001 
4253125000  -3.444558e+001  3.588701e+001 
4256250000  -3.494521e+001  2.999530e+001 
4259375000  -3.461814e+001  2.754991e+001 
4262500000  -3.480848e+001  2.343791e+001 
4265625000  -3.477119e+001  2.244711e+001 
4268750000  -3.404266e+001  1.702712e+001 
4271875000  -3.385252e+001  1.034055e+001 
4275000000  -3.343132e+001  1.448531e+000 
4278125000  -3.430508e+001  -9.968004e+000 
4281250000  -3.590091e+001  -1.207322e+001 
4284375000  -3.581540e+001  -1.092981e+001 
4287500000  -3.674433e+001  -1.537354e+001 
4290625000  -3.816125e+001  -7.009675e+000 
4293750000  -3.602473e+001  -3.310650e+000 
4296875000  -3.475492e+001  -1.404443e+001 
4300000000  -3.582901e+001  -2.300177e+001 
4303125000  -3.712389e+001  -2.041320e+001 
4306250000  -3.640469e+001  -1.500233e+001 
4309375000  -3.498639e+001  -1.679304e+001 
4312500000  -3.493933e+001  -2.532421e+001 
4315625000  -3.512160e+001  -3.254709e+001 
4318750000  -3.555890e+001  -3.565808e+001 
4321875000  -3.557065e+001  -3.534361e+001 
4325000000  -3.495860e+001  -3.486660e+001 
4328125000  -3.442489e+001  -4.194040e+001 
4331250000  -3.420065e+001  -4.990993e+001 
4334375000  -3.457347e+001  -5.445634e+001 
4337500000  -3.544405e+001  -5.783462e+001 
4340625000  -3.570332e+001  -5.540815e+001 
4343750000  -3.503962e+001  -5.528146e+001 
4346875000  -3.467617e+001  -6.187819e+001 
4350000000  -3.454399e+001  -6.767180e+001 
4353125000  -3.445306e+001  -7.628174e+001 
4356250000  -3.620604e+001  -7.635674e+001 
4359375000  -3.694360e+001  -6.276384e+001 
4362500000  -3.353754e+001  -6.394380e+001 
4365625000  -3.219402e+001  -7.812000e+001 
4368750000  -3.300765e+001  -9.067137e+001 
4371875000  -3.390768e+001  -9.005334e+001 
4375000000  -3.340516e+001  -9.238018e+001 
4378125000  -3.272478e+001  -9.820058e+001 
4381250000  -3.297519e+001  -1.056003e+002 
4384375000  -3.282866e+001  -1.125412e+002 
4387500000  -3.365387e+001  -1.190207e+002 
4390625000  -3.463960e+001  -1.193139e+002 
4393750000  -3.385116e+001  -1.181132e+002 
4396875000  -3.338984e+001  -1.223134e+002 
4400000000  -3.291463e+001  -1.305767e+002 
4403125000  -3.365380e+001  -1.382778e+002 
4406250000  -3.451135e+001  -1.417969e+002 
4409375000  -3.445985e+001  -1.453920e+002 
4412500000  -3.584005e+001  -1.477407e+002 
4415625000  -3.597654e+001  -1.434772e+002 
