!Agilent Technologies,E8363B,MY43030201,A.06.04.32
!Agilent E8363B: A.06.04.32
!Date: Tuesday, November 11, 2014 21:07:36
!Correction: S21(Response(S21)) 
!S1P File: Measurement: S21:
# Hz S  dB   R 50
3000000000  -3.646535e+001  -5.189105e+001 
3003125000  -3.754334e+001  -5.786646e+001 
3006250000  -3.740847e+001  -6.024380e+001 
3009375000  -3.770513e+001  -5.586544e+001 
3012500000  -3.697118e+001  -5.769451e+001 
3015625000  -3.611706e+001  -6.481637e+001 
3018750000  -3.680029e+001  -6.595139e+001 
3021875000  -3.549911e+001  -6.548319e+001 
3025000000  -3.417297e+001  -6.886561e+001 
3028125000  -3.325275e+001  -7.546401e+001 
3031250000  -3.213773e+001  -8.731827e+001 
3034375000  -3.180593e+001  -1.007026e+002 
3037500000  -3.230576e+001  -1.126423e+002 
3040625000  -3.361744e+001  -1.171173e+002 
3043750000  -3.420455e+001  -1.224797e+002 
3046875000  -3.441162e+001  -1.283381e+002 
3050000000  -3.614129e+001  -1.337066e+002 
3053125000  -3.609010e+001  -1.286958e+002 
3056250000  -3.568346e+001  -1.258407e+002 
3059375000  -3.561102e+001  -1.258332e+002 
3062500000  -3.405142e+001  -1.297343e+002 
3065625000  -3.390006e+001  -1.355107e+002 
3068750000  -3.350380e+001  -1.421416e+002 
3071875000  -3.350920e+001  -1.448757e+002 
3075000000  -3.324461e+001  -1.490748e+002 
3078125000  -3.303780e+001  -1.529112e+002 
3081250000  -3.352951e+001  -1.573368e+002 
3084375000  -3.265312e+001  -1.609476e+002 
3087500000  -3.250492e+001  -1.644500e+002 
3090625000  -3.193827e+001  -1.751306e+002 
3093750000  -3.255318e+001  1.773429e+002 
3096875000  -3.349411e+001  1.714332e+002 
3100000000  -3.336045e+001  1.694724e+002 
3103125000  -3.365676e+001  1.703853e+002 
3106250000  -3.321938e+001  1.658667e+002 
3109375000  -3.326753e+001  1.619370e+002 
3112500000  -3.314633e+001  1.600949e+002 
3115625000  -3.287087e+001  1.549483e+002 
3118750000  -3.318071e+001  1.556978e+002 
3121875000  -3.227331e+001  1.463565e+002 
3125000000  -3.351341e+001  1.419879e+002 
3128125000  -3.439999e+001  1.490894e+002 
3131250000  -3.207418e+001  1.470553e+002 
3134375000  -3.075257e+001  1.317210e+002 
3137500000  -3.135954e+001  1.173801e+002 
3140625000  -3.288836e+001  1.145536e+002 
3143750000  -3.388748e+001  1.161499e+002 
3146875000  -3.323676e+001  1.170807e+002 
3150000000  -3.230050e+001  1.171314e+002 
3153125000  -3.236771e+001  1.078087e+002 
3156250000  -3.332445e+001  1.128188e+002 
3159375000  -3.167260e+001  1.146608e+002 
3162500000  -2.970050e+001  9.978201e+001 
3165625000  -3.082551e+001  8.695357e+001 
3168750000  -3.105076e+001  8.753340e+001 
3171875000  -3.019144e+001  8.216325e+001 
3175000000  -3.093069e+001  7.319923e+001 
3178125000  -3.061480e+001  7.388934e+001 
3181250000  -2.954641e+001  6.827568e+001 
3184375000  -2.892632e+001  5.553477e+001 
3187500000  -3.008015e+001  4.026192e+001 
3190625000  -3.278231e+001  3.242512e+001 
3193750000  -3.335230e+001  4.074783e+001 
3196875000  -3.298078e+001  4.578630e+001 
3200000000  -3.201397e+001  4.288232e+001 
3203125000  -3.129809e+001  3.644320e+001 
3206250000  -3.152675e+001  3.003655e+001 
3209375000  -3.112312e+001  2.392762e+001 
3212500000  -3.131932e+001  1.685923e+001 
3215625000  -3.139063e+001  1.313815e+001 
3218750000  -3.214320e+001  5.757036e+000 
3221875000  -3.299544e+001  8.130656e-001 
3225000000  -3.256189e+001  -3.594560e-001 
3228125000  -3.302436e+001  -6.204150e+000 
3231250000  -3.363624e+001  -8.490422e+000 
3234375000  -3.332359e+001  -8.021136e+000 
3237500000  -3.333134e+001  -1.004176e+001 
3240625000  -3.296017e+001  -1.308325e+001 
3243750000  -3.263890e+001  -2.038371e+001 
3246875000  -3.300425e+001  -2.760698e+001 
3250000000  -3.346383e+001  -2.956587e+001 
3253125000  -3.353473e+001  -3.167193e+001 
3256250000  -3.315228e+001  -3.944838e+001 
3259375000  -3.338357e+001  -4.773965e+001 
3262500000  -3.466733e+001  -5.142505e+001 
3265625000  -3.529042e+001  -4.871295e+001 
3268750000  -3.511533e+001  -4.651854e+001 
3271875000  -3.475904e+001  -4.655945e+001 
3275000000  -3.368388e+001  -5.297676e+001 
3278125000  -3.418246e+001  -6.020335e+001 
3281250000  -3.435585e+001  -5.931046e+001 
3284375000  -3.383129e+001  -6.610652e+001 
3287500000  -3.398400e+001  -6.956750e+001 
3290625000  -3.438914e+001  -7.585921e+001 
3293750000  -3.407425e+001  -8.162587e+001 
3296875000  -3.518789e+001  -8.165929e+001 
3300000000  -3.484486e+001  -8.126060e+001 
3303125000  -3.368236e+001  -8.666106e+001 
3306250000  -3.351003e+001  -9.348403e+001 
3309375000  -3.322569e+001  -9.962656e+001 
3312500000  -3.325661e+001  -1.112009e+002 
3315625000  -3.440337e+001  -1.194814e+002 
3318750000  -3.576771e+001  -1.222072e+002 
3321875000  -3.686304e+001  -1.221800e+002 
3325000000  -3.717666e+001  -1.168977e+002 
3328125000  -3.675443e+001  -1.159853e+002 
3331250000  -3.554446e+001  -1.095361e+002 
3334375000  -3.296484e+001  -1.205480e+002 
3337500000  -3.309764e+001  -1.401012e+002 
3340625000  -3.447429e+001  -1.508156e+002 
3343750000  -3.645893e+001  -1.525090e+002 
3346875000  -3.657534e+001  -1.493849e+002 
3350000000  -3.591994e+001  -1.517054e+002 
3353125000  -3.594159e+001  -1.565293e+002 
3356250000  -3.550738e+001  -1.652325e+002 
3359375000  -3.616142e+001  -1.732784e+002 
3362500000  -3.742736e+001  -1.787276e+002 
3365625000  -3.802181e+001  -1.794524e+002 
3368750000  -3.876018e+001  1.772436e+002 
3371875000  -3.906742e+001  1.750439e+002 
3375000000  -4.039594e+001  1.705285e+002 
3378125000  -4.118154e+001  1.705163e+002 
3381250000  -4.275553e+001  1.794995e+002 
3384375000  -4.074347e+001  -1.567190e+002 
3387500000  -3.748896e+001  -1.764721e+002 
3390625000  -3.921085e+001  1.663139e+002 
3393750000  -4.034647e+001  1.700844e+002 
3396875000  -3.920580e+001  1.707809e+002 
3400000000  -3.858821e+001  1.624704e+002 
3403125000  -3.929471e+001  1.566902e+002 
3406250000  -3.953251e+001  1.578120e+002 
3409375000  -3.996383e+001  1.498367e+002 
3412500000  -4.024371e+001  1.469797e+002 
3415625000  -4.116901e+001  1.483334e+002 
3418750000  -4.091675e+001  1.483569e+002 
3421875000  -4.124577e+001  1.517938e+002 
3425000000  -4.012405e+001  1.516670e+002 
3428125000  -3.939898e+001  1.479758e+002 
3431250000  -3.945224e+001  1.417284e+002 
3434375000  -3.915619e+001  1.347997e+002 
3437500000  -3.967663e+001  1.319266e+002 
3440625000  -3.983955e+001  1.326063e+002 
3443750000  -3.875977e+001  1.328717e+002 
3446875000  -3.799212e+001  1.251291e+002 
3450000000  -3.759269e+001  1.157540e+002 
3453125000  -3.798834e+001  1.047407e+002 
3456250000  -3.912292e+001  9.945900e+001 
3459375000  -3.998035e+001  9.928690e+001 
3462500000  -3.995259e+001  1.007632e+002 
3465625000  -3.986374e+001  9.459000e+001 
3468750000  -4.032923e+001  8.922769e+001 
3471875000  -4.014376e+001  8.988219e+001 
3475000000  -3.954991e+001  8.427798e+001 
3478125000  -4.049722e+001  7.712271e+001 
3481250000  -4.120971e+001  7.349220e+001 
3484375000  -4.235855e+001  7.761660e+001 
3487500000  -4.146910e+001  7.812029e+001 
3490625000  -4.080902e+001  7.401665e+001 
3493750000  -4.114264e+001  6.740717e+001 
3496875000  -4.213507e+001  6.524190e+001 
3500000000  -4.243992e+001  6.821437e+001 
3503125000  -4.213772e+001  6.843348e+001 
3506250000  -4.064357e+001  6.278533e+001 
3509375000  -4.047511e+001  5.359106e+001 
3512500000  -4.087561e+001  4.676057e+001 
3515625000  -4.191695e+001  4.506461e+001 
3518750000  -4.274582e+001  4.474966e+001 
3521875000  -4.253516e+001  4.086868e+001 
3525000000  -4.321052e+001  3.954495e+001 
3528125000  -4.323840e+001  4.737458e+001 
3531250000  -4.213019e+001  4.368106e+001 
3534375000  -4.185305e+001  3.424684e+001 
3537500000  -4.262481e+001  2.900377e+001 
3540625000  -4.348225e+001  2.788269e+001 
3543750000  -4.406551e+001  3.161018e+001 
3546875000  -4.398674e+001  4.368685e+001 
3550000000  -4.138987e+001  4.261562e+001 
3553125000  -4.031497e+001  2.599544e+001 
3556250000  -4.172306e+001  2.069678e+001 
3559375000  -4.132635e+001  2.136245e+001 
3562500000  -4.012142e+001  1.207748e+001 
3565625000  -4.110572e+001  3.107445e+000 
3568750000  -4.148664e+001  7.002249e+000 
3571875000  -4.129200e+001  5.681917e+000 
3575000000  -4.059949e+001  -1.777316e+000 
3578125000  -4.112881e+001  -6.506663e+000 
3581250000  -4.143895e+001  -6.256537e+000 
3584375000  -4.038249e+001  -9.784527e+000 
3587500000  -4.005518e+001  -1.757344e+001 
3590625000  -4.076366e+001  -2.894441e+001 
3593750000  -4.193652e+001  -3.095751e+001 
3596875000  -4.167067e+001  -2.592908e+001 
3600000000  -4.045801e+001  -3.070778e+001 
3603125000  -4.090010e+001  -4.487151e+001 
3606250000  -4.163511e+001  -5.095156e+001 
3609375000  -4.217106e+001  -5.114489e+001 
3612500000  -4.292210e+001  -5.443543e+001 
3615625000  -4.307327e+001  -5.994452e+001 
3618750000  -4.385393e+001  -5.811555e+001 
3621875000  -4.365676e+001  -6.163338e+001 
3625000000  -4.423736e+001  -6.192970e+001 
3628125000  -4.424466e+001  -6.236451e+001 
3631250000  -4.444732e+001  -6.899194e+001 
3634375000  -4.570662e+001  -6.902431e+001 
3637500000  -4.562501e+001  -6.251765e+001 
3640625000  -4.504006e+001  -6.368415e+001 
3643750000  -4.411926e+001  -6.667573e+001 
3646875000  -4.515679e+001  -7.348365e+001 
3650000000  -4.545241e+001  -7.348746e+001 
3653125000  -4.532370e+001  -7.391421e+001 
3656250000  -4.598991e+001  -7.562238e+001 
3659375000  -4.589023e+001  -7.147176e+001 
3662500000  -4.496038e+001  -7.031176e+001 
3665625000  -4.510234e+001  -7.446148e+001 
3668750000  -4.392650e+001  -7.130812e+001 
3671875000  -4.274496e+001  -7.924407e+001 
3675000000  -4.297670e+001  -8.807096e+001 
3678125000  -4.330441e+001  -8.945276e+001 
3681250000  -4.304954e+001  -9.081351e+001 
3684375000  -4.316921e+001  -9.565160e+001 
3687500000  -4.301048e+001  -1.001688e+002 
3690625000  -4.299805e+001  -1.039739e+002 
3693750000  -4.384638e+001  -1.027875e+002 
3696875000  -4.361827e+001  -1.037943e+002 
3700000000  -4.271927e+001  -1.065057e+002 
3703125000  -4.305882e+001  -1.167272e+002 
3706250000  -4.377394e+001  -1.141488e+002 
3709375000  -4.317996e+001  -1.123781e+002 
3712500000  -4.237548e+001  -1.133710e+002 
3715625000  -4.126044e+001  -1.211368e+002 
3718750000  -4.136269e+001  -1.262830e+002 
3721875000  -4.107645e+001  -1.336207e+002 
3725000000  -4.165526e+001  -1.404956e+002 
3728125000  -4.215005e+001  -1.407488e+002 
3731250000  -4.145445e+001  -1.449675e+002 
3734375000  -4.116573e+001  -1.514872e+002 
3737500000  -4.215744e+001  -1.573086e+002 
3740625000  -4.330402e+001  -1.621451e+002 
3743750000  -4.293657e+001  -1.641953e+002 
3746875000  -4.395901e+001  -1.671743e+002 
3750000000  -4.427624e+001  -1.692461e+002 
3753125000  -4.429499e+001  -1.673508e+002 
3756250000  -4.433278e+001  -1.668150e+002 
3759375000  -4.471714e+001  -1.664219e+002 
3762500000  -4.373100e+001  -1.697689e+002 
3765625000  -4.524009e+001  -1.721790e+002 
3768750000  -4.480668e+001  -1.658512e+002 
3771875000  -4.327226e+001  -1.673300e+002 
3775000000  -4.306157e+001  -1.738517e+002 
3778125000  -4.293610e+001  -1.750857e+002 
3781250000  -4.320846e+001  -1.777418e+002 
3784375000  -4.267809e+001  -1.773937e+002 
3787500000  -4.211831e+001  -1.793076e+002 
3790625000  -4.252178e+001  1.732745e+002 
3793750000  -4.238099e+001  1.743127e+002 
3796875000  -4.141765e+001  1.702038e+002 
3800000000  -3.954032e+001  1.687126e+002 
3803125000  -4.027748e+001  1.571149e+002 
3806250000  -4.118465e+001  1.544426e+002 
3809375000  -4.097712e+001  1.541211e+002 
3812500000  -3.979948e+001  1.475766e+002 
3815625000  -4.055262e+001  1.385261e+002 
3818750000  -4.162460e+001  1.368845e+002 
3821875000  -4.145955e+001  1.446511e+002 
3825000000  -3.945901e+001  1.473849e+002 
3828125000  -3.789851e+001  1.319264e+002 
3831250000  -3.882860e+001  1.168745e+002 
3834375000  -4.002259e+001  1.178640e+002 
3837500000  -4.140884e+001  1.174835e+002 
3840625000  -3.988916e+001  1.170111e+002 
3843750000  -3.897990e+001  1.046733e+002 
3846875000  -3.955531e+001  9.753462e+001 
3850000000  -4.119735e+001  1.048092e+002 
3853125000  -4.010084e+001  1.055193e+002 
3856250000  -4.004897e+001  1.003994e+002 
3859375000  -3.949259e+001  9.173502e+001 
3862500000  -3.946753e+001  8.703711e+001 
3865625000  -3.978360e+001  7.885434e+001 
3868750000  -3.943865e+001  7.905497e+001 
3871875000  -3.906798e+001  7.563253e+001 
3875000000  -3.925531e+001  6.628483e+001 
3878125000  -4.105356e+001  6.323223e+001 
3881250000  -4.062598e+001  6.592152e+001 
3884375000  -4.020059e+001  6.201408e+001 
3887500000  -4.038834e+001  5.754183e+001 
3890625000  -4.094637e+001  5.589938e+001 
3893750000  -4.104977e+001  5.223718e+001 
3896875000  -4.153380e+001  5.305729e+001 
3900000000  -4.175515e+001  5.000370e+001 
3903125000  -4.101326e+001  4.966399e+001 
3906250000  -4.068783e+001  4.651654e+001 
3909375000  -4.015686e+001  4.452285e+001 
3912500000  -4.022252e+001  3.549898e+001 
3915625000  -4.142735e+001  3.515924e+001 
3918750000  -4.118547e+001  4.053299e+001 
3921875000  -4.080567e+001  3.658899e+001 
3925000000  -3.970792e+001  3.264642e+001 
3928125000  -3.906184e+001  2.505914e+001 
3931250000  -3.948589e+001  2.203737e+001 
3934375000  -3.980495e+001  2.040100e+001 
3937500000  -4.012762e+001  1.999847e+001 
3940625000  -4.054649e+001  1.698713e+001 
3943750000  -3.918498e+001  1.742295e+001 
3946875000  -3.830577e+001  9.163574e+000 
3950000000  -3.901535e+001  3.420941e+000 
3953125000  -4.003515e+001  1.086018e+000 
3956250000  -3.893787e+001  1.172804e+000 
3959375000  -3.777763e+001  9.285242e-002 
3962500000  -3.723206e+001  -4.770935e+000 
3965625000  -3.713675e+001  -1.546208e+001 
3968750000  -3.817677e+001  -2.378559e+001 
3971875000  -3.843487e+001  -2.532363e+001 
3975000000  -3.792652e+001  -2.869165e+001 
3978125000  -3.788288e+001  -3.234235e+001 
3981250000  -3.777828e+001  -3.676987e+001 
3984375000  -3.790197e+001  -4.347623e+001 
3987500000  -3.871551e+001  -4.613829e+001 
3990625000  -3.854650e+001  -4.655746e+001 
3993750000  -3.878954e+001  -5.180691e+001 
3996875000  -3.895712e+001  -5.658446e+001 
4000000000  -3.910010e+001  -5.693042e+001 
4003125000  -3.961071e+001  -5.529927e+001 
4006250000  -3.848723e+001  -5.765226e+001 
4009375000  -3.714251e+001  -7.049974e+001 
4012500000  -3.854251e+001  -7.555998e+001 
4015625000  -4.000682e+001  -7.669726e+001 
4018750000  -3.986229e+001  -7.458254e+001 
4021875000  -3.929089e+001  -7.584827e+001 
4025000000  -3.889026e+001  -8.218260e+001 
4028125000  -3.891684e+001  -8.647688e+001 
4031250000  -3.922944e+001  -9.013754e+001 
4034375000  -3.959377e+001  -9.085549e+001 
4037500000  -3.945173e+001  -8.927625e+001 
4040625000  -3.916815e+001  -9.328119e+001 
4043750000  -3.925499e+001  -9.376786e+001 
4046875000  -3.886124e+001  -9.395513e+001 
4050000000  -3.848594e+001  -1.010070e+002 
4053125000  -3.910200e+001  -1.030635e+002 
4056250000  -3.934982e+001  -1.002083e+002 
4059375000  -3.787495e+001  -9.942731e+001 
4062500000  -3.678453e+001  -1.059191e+002 
4065625000  -3.668482e+001  -1.093302e+002 
4068750000  -3.641510e+001  -1.166975e+002 
4071875000  -3.571390e+001  -1.254845e+002 
4075000000  -3.590141e+001  -1.325363e+002 
4078125000  -3.673071e+001  -1.345074e+002 
4081250000  -3.601410e+001  -1.358748e+002 
4084375000  -3.560307e+001  -1.449333e+002 
4087500000  -3.611851e+001  -1.528245e+002 
4090625000  -3.668559e+001  -1.539921e+002 
4093750000  -3.642164e+001  -1.550358e+002 
4096875000  -3.596984e+001  -1.621104e+002 
4100000000  -3.697763e+001  -1.693278e+002 
4103125000  -3.773109e+001  -1.679465e+002 
4106250000  -3.763425e+001  -1.635664e+002 
4109375000  -3.667276e+001  -1.655541e+002 
4112500000  -3.626406e+001  -1.736050e+002 
4115625000  -3.657907e+001  -1.792600e+002 
4118750000  -3.669566e+001  1.763396e+002 
4121875000  -3.635306e+001  1.706251e+002 
4125000000  -3.676528e+001  1.652207e+002 
4128125000  -3.788306e+001  1.652633e+002 
4131250000  -3.755186e+001  1.718988e+002 
4134375000  -3.517056e+001  1.654244e+002 
4137500000  -3.534200e+001  1.468453e+002 
4140625000  -3.741196e+001  1.396637e+002 
4143750000  -3.886256e+001  1.440015e+002 
4146875000  -3.842424e+001  1.492515e+002 
4150000000  -3.763121e+001  1.447854e+002 
4153125000  -3.746068e+001  1.384057e+002 
4156250000  -3.867096e+001  1.352953e+002 
4159375000  -3.891126e+001  1.399525e+002 
4162500000  -3.755375e+001  1.431722e+002 
4165625000  -3.658817e+001  1.386552e+002 
4168750000  -3.570442e+001  1.320968e+002 
4171875000  -3.596816e+001  1.220905e+002 
4175000000  -3.670948e+001  1.160143e+002 
4178125000  -3.720561e+001  1.165810e+002 
4181250000  -3.693954e+001  1.159001e+002 
4184375000  -3.689059e+001  1.103357e+002 
4187500000  -3.680996e+001  1.076698e+002 
4190625000  -3.670293e+001  1.027047e+002 
4193750000  -3.752131e+001  9.722493e+001 
4196875000  -3.825764e+001  9.646035e+001 
4200000000  -3.897345e+001  9.916479e+001 
4203125000  -3.871846e+001  1.117038e+002 
4206250000  -3.527972e+001  1.135681e+002 
4209375000  -3.426896e+001  8.932159e+001 
4212500000  -3.617524e+001  8.008602e+001 
4215625000  -3.714767e+001  8.745896e+001 
4218750000  -3.570869e+001  9.100249e+001 
4221875000  -3.340535e+001  8.061459e+001 
4225000000  -3.474350e+001  6.886460e+001 
4228125000  -3.530973e+001  7.274175e+001 
4231250000  -3.362841e+001  6.927283e+001 
4234375000  -3.343448e+001  5.851153e+001 
4237500000  -3.317198e+001  5.399257e+001 
4240625000  -3.304859e+001  4.299280e+001 
4243750000  -3.415461e+001  3.568217e+001 
4246875000  -3.515543e+001  3.591587e+001 
4250000000  -3.523239e+001  3.677319e+001 
4253125000  -3.462566e+001  3.392890e+001 
4256250000  -3.490538e+001  2.819987e+001 
4259375000  -3.457434e+001  2.459113e+001 
4262500000  -3.472711e+001  2.097375e+001 
4265625000  -3.493000e+001  1.884975e+001 
4268750000  -3.409327e+001  1.379934e+001 
4271875000  -3.382905e+001  7.701571e+000 
4275000000  -3.357528e+001  -2.426954e-001 
4278125000  -3.429347e+001  -1.202432e+001 
4281250000  -3.616105e+001  -1.405105e+001 
4284375000  -3.589915e+001  -1.515721e+001 
4287500000  -3.676867e+001  -1.906190e+001 
4290625000  -3.829813e+001  -9.159313e+000 
4293750000  -3.625669e+001  -3.589164e+000 
4296875000  -3.503263e+001  -1.564801e+001 
4300000000  -3.586614e+001  -2.641139e+001 
4303125000  -3.738622e+001  -2.286596e+001 
4306250000  -3.636605e+001  -1.654690e+001 
4309375000  -3.505301e+001  -2.078160e+001 
4312500000  -3.504176e+001  -2.909738e+001 
4315625000  -3.524329e+001  -3.459613e+001 
4318750000  -3.556414e+001  -3.745473e+001 
4321875000  -3.562342e+001  -3.715491e+001 
4325000000  -3.511419e+001  -3.762712e+001 
4328125000  -3.434237e+001  -4.360287e+001 
4331250000  -3.423251e+001  -5.167752e+001 
4334375000  -3.465181e+001  -5.658792e+001 
4337500000  -3.545983e+001  -5.912874e+001 
4340625000  -3.592710e+001  -5.676181e+001 
4343750000  -3.509261e+001  -5.768101e+001 
4346875000  -3.470625e+001  -6.473596e+001 
4350000000  -3.452487e+001  -6.989255e+001 
4353125000  -3.459187e+001  -7.899028e+001 
4356250000  -3.665947e+001  -7.974371e+001 
4359375000  -3.652513e+001  -6.544653e+001 
4362500000  -3.350606e+001  -6.641357e+001 
4365625000  -3.226416e+001  -8.056154e+001 
4368750000  -3.294598e+001  -9.264577e+001 
4371875000  -3.391228e+001  -9.294308e+001 
4375000000  -3.351683e+001  -9.476138e+001 
4378125000  -3.286550e+001  -1.007552e+002 
4381250000  -3.304677e+001  -1.089537e+002 
4384375000  -3.278230e+001  -1.138783e+002 
4387500000  -3.383020e+001  -1.207836e+002 
4390625000  -3.471139e+001  -1.213326e+002 
4393750000  -3.402315e+001  -1.209617e+002 
4396875000  -3.330363e+001  -1.239146e+002 
4400000000  -3.285056e+001  -1.322741e+002 
4403125000  -3.360899e+001  -1.405150e+002 
4406250000  -3.434006e+001  -1.433364e+002 
4409375000  -3.457190e+001  -1.468843e+002 
4412500000  -3.575896e+001  -1.509092e+002 
4415625000  -3.598460e+001  -1.462720e+002 
