!Agilent Technologies,E8363B,MY43030201,A.06.04.32
!Agilent E8363B: A.06.04.32
!Date: Tuesday, November 11, 2014 21:12:46
!Correction: S21(Response(S21)) 
!S1P File: Measurement: S21:
# Hz S  dB   R 50
3000000000  -3.639054e+001  -6.138042e+001 
3003125000  -3.763689e+001  -6.744496e+001 
3006250000  -3.743899e+001  -6.917930e+001 
3009375000  -3.784019e+001  -6.421066e+001 
3012500000  -3.700104e+001  -6.696160e+001 
3015625000  -3.629624e+001  -7.444035e+001 
3018750000  -3.681176e+001  -7.503768e+001 
3021875000  -3.550463e+001  -7.335919e+001 
3025000000  -3.416427e+001  -7.788168e+001 
3028125000  -3.321856e+001  -8.441254e+001 
3031250000  -3.226365e+001  -9.626343e+001 
3034375000  -3.189887e+001  -1.092659e+002 
3037500000  -3.244225e+001  -1.208248e+002 
3040625000  -3.381675e+001  -1.261882e+002 
3043750000  -3.434985e+001  -1.305840e+002 
3046875000  -3.468706e+001  -1.366381e+002 
3050000000  -3.635413e+001  -1.421300e+002 
3053125000  -3.606894e+001  -1.360559e+002 
3056250000  -3.570470e+001  -1.324037e+002 
3059375000  -3.570534e+001  -1.339476e+002 
3062500000  -3.430547e+001  -1.372398e+002 
3065625000  -3.400772e+001  -1.432741e+002 
3068750000  -3.362304e+001  -1.501049e+002 
3071875000  -3.367224e+001  -1.524312e+002 
3075000000  -3.338597e+001  -1.564766e+002 
3078125000  -3.307349e+001  -1.605093e+002 
3081250000  -3.364774e+001  -1.649528e+002 
3084375000  -3.260727e+001  -1.686623e+002 
3087500000  -3.259155e+001  -1.725836e+002 
3090625000  -3.200494e+001  1.769774e+002 
3093750000  -3.252633e+001  1.697464e+002 
3096875000  -3.348438e+001  1.646070e+002 
3100000000  -3.332065e+001  1.622259e+002 
3103125000  -3.372776e+001  1.625577e+002 
3106250000  -3.319934e+001  1.584333e+002 
3109375000  -3.324239e+001  1.544622e+002 
3112500000  -3.317532e+001  1.515164e+002 
3115625000  -3.282140e+001  1.473678e+002 
3118750000  -3.318293e+001  1.467855e+002 
3121875000  -3.227335e+001  1.372646e+002 
3125000000  -3.364343e+001  1.336044e+002 
3128125000  -3.446112e+001  1.414820e+002 
3131250000  -3.193284e+001  1.382896e+002 
3134375000  -3.077658e+001  1.231321e+002 
3137500000  -3.142731e+001  1.096222e+002 
3140625000  -3.273649e+001  1.062571e+002 
3143750000  -3.373553e+001  1.079513e+002 
3146875000  -3.326118e+001  1.085598e+002 
3150000000  -3.233369e+001  1.087798e+002 
3153125000  -3.243730e+001  9.952815e+001 
3156250000  -3.343946e+001  1.043480e+002 
3159375000  -3.154988e+001  1.054606e+002 
3162500000  -2.974601e+001  9.115234e+001 
3165625000  -3.083298e+001  7.900964e+001 
3168750000  -3.104415e+001  7.950524e+001 
3171875000  -3.012991e+001  7.322259e+001 
3175000000  -3.090906e+001  6.463487e+001 
3178125000  -3.065251e+001  6.562675e+001 
3181250000  -2.966570e+001  5.953560e+001 
3184375000  -2.903832e+001  4.706760e+001 
3187500000  -3.026338e+001  3.246406e+001 
3190625000  -3.290792e+001  2.483903e+001 
3193750000  -3.342875e+001  3.291939e+001 
3196875000  -3.309883e+001  3.736848e+001 
3200000000  -3.213828e+001  3.440720e+001 
3203125000  -3.134901e+001  2.760364e+001 
3206250000  -3.170660e+001  2.150949e+001 
3209375000  -3.123633e+001  1.585162e+001 
3212500000  -3.155957e+001  8.956100e+000 
3215625000  -3.155421e+001  5.765174e+000 
3218750000  -3.227719e+001  -2.144745e+000 
3221875000  -3.310573e+001  -7.108468e+000 
3225000000  -3.276011e+001  -8.437977e+000 
3228125000  -3.310564e+001  -1.421279e+001 
3231250000  -3.377828e+001  -1.612740e+001 
3234375000  -3.342699e+001  -1.606503e+001 
3237500000  -3.339165e+001  -1.767218e+001 
3240625000  -3.292585e+001  -2.064044e+001 
3243750000  -3.262169e+001  -2.830851e+001 
3246875000  -3.305475e+001  -3.554307e+001 
3250000000  -3.341474e+001  -3.817234e+001 
3253125000  -3.367108e+001  -3.959958e+001 
3256250000  -3.308267e+001  -4.655075e+001 
3259375000  -3.343655e+001  -5.572813e+001 
3262500000  -3.458062e+001  -5.889055e+001 
3265625000  -3.526019e+001  -5.575721e+001 
3268750000  -3.516311e+001  -5.409704e+001 
3271875000  -3.467691e+001  -5.496439e+001 
3275000000  -3.374981e+001  -6.180973e+001 
3278125000  -3.416382e+001  -6.774451e+001 
3281250000  -3.432776e+001  -6.764716e+001 
3284375000  -3.384254e+001  -7.393327e+001 
3287500000  -3.399180e+001  -7.731115e+001 
3290625000  -3.413019e+001  -8.391010e+001 
3293750000  -3.393530e+001  -8.941598e+001 
3296875000  -3.516642e+001  -9.010776e+001 
3300000000  -3.487183e+001  -8.969760e+001 
3303125000  -3.361605e+001  -9.536236e+001 
3306250000  -3.346445e+001  -1.019399e+002 
3309375000  -3.310830e+001  -1.088084e+002 
3312500000  -3.331657e+001  -1.201107e+002 
3315625000  -3.434750e+001  -1.281237e+002 
3318750000  -3.582851e+001  -1.308124e+002 
3321875000  -3.695284e+001  -1.308014e+002 
3325000000  -3.726937e+001  -1.242435e+002 
3328125000  -3.669691e+001  -1.255832e+002 
3331250000  -3.550208e+001  -1.186872e+002 
3334375000  -3.292170e+001  -1.293676e+002 
3337500000  -3.320768e+001  -1.495531e+002 
3340625000  -3.453400e+001  -1.593074e+002 
3343750000  -3.668173e+001  -1.603754e+002 
3346875000  -3.670411e+001  -1.586123e+002 
3350000000  -3.593930e+001  -1.612381e+002 
3353125000  -3.606383e+001  -1.650026e+002 
3356250000  -3.565290e+001  -1.742607e+002 
3359375000  -3.637981e+001  1.782100e+002 
3362500000  -3.770354e+001  1.722713e+002 
3365625000  -3.810968e+001  1.708897e+002 
3368750000  -3.878036e+001  1.682079e+002 
3371875000  -3.911639e+001  1.666501e+002 
3375000000  -4.055265e+001  1.635157e+002 
3378125000  -4.132180e+001  1.622899e+002 
3381250000  -4.260392e+001  1.741788e+002 
3384375000  -4.100089e+001  -1.665485e+002 
3387500000  -3.773323e+001  1.766213e+002 
3390625000  -3.950916e+001  1.587982e+002 
3393750000  -4.034330e+001  1.609882e+002 
3396875000  -3.931567e+001  1.629911e+002 
3400000000  -3.871951e+001  1.550047e+002 
3403125000  -3.955229e+001  1.502505e+002 
3406250000  -3.973526e+001  1.500415e+002 
3409375000  -3.989259e+001  1.406383e+002 
3412500000  -4.036427e+001  1.392138e+002 
3415625000  -4.108128e+001  1.413414e+002 
3418750000  -4.117674e+001  1.412242e+002 
3421875000  -4.131701e+001  1.450202e+002 
3425000000  -4.023807e+001  1.437663e+002 
3428125000  -3.927287e+001  1.397848e+002 
3431250000  -3.918303e+001  1.321171e+002 
3434375000  -3.913142e+001  1.269560e+002 
3437500000  -3.976332e+001  1.227124e+002 
3440625000  -4.008403e+001  1.246538e+002 
3443750000  -3.874467e+001  1.242037e+002 
3446875000  -3.792458e+001  1.161909e+002 
3450000000  -3.762756e+001  1.057892e+002 
3453125000  -3.795907e+001  9.662653e+001 
3456250000  -3.928447e+001  8.969447e+001 
3459375000  -4.030153e+001  9.152746e+001 
3462500000  -3.996772e+001  9.063992e+001 
3465625000  -3.987421e+001  8.554312e+001 
3468750000  -4.028781e+001  8.257336e+001 
3471875000  -4.036903e+001  8.001252e+001 
3475000000  -3.990684e+001  7.529394e+001 
3478125000  -4.056733e+001  6.788500e+001 
3481250000  -4.157410e+001  6.636639e+001 
3484375000  -4.276635e+001  7.082786e+001 
3487500000  -4.189305e+001  6.997110e+001 
3490625000  -4.103191e+001  6.479022e+001 
3493750000  -4.161639e+001  5.914416e+001 
3496875000  -4.199841e+001  5.750045e+001 
3500000000  -4.298270e+001  5.981653e+001 
3503125000  -4.221016e+001  6.418579e+001 
3506250000  -4.071222e+001  5.742046e+001 
3509375000  -4.090751e+001  4.926652e+001 
3512500000  -4.116338e+001  4.059758e+001 
3515625000  -4.227917e+001  3.943128e+001 
3518750000  -4.247299e+001  3.822651e+001 
3521875000  -4.238330e+001  3.496146e+001 
3525000000  -4.309568e+001  3.555603e+001 
3528125000  -4.331498e+001  4.280092e+001 
3531250000  -4.199604e+001  3.957370e+001 
3534375000  -4.150739e+001  2.955663e+001 
3537500000  -4.223678e+001  2.332230e+001 
3540625000  -4.311656e+001  2.123038e+001 
3543750000  -4.388139e+001  2.787162e+001 
3546875000  -4.352740e+001  3.822979e+001 
3550000000  -4.073862e+001  3.665901e+001 
3553125000  -3.963362e+001  1.828267e+001 
3556250000  -4.122492e+001  1.106128e+001 
3559375000  -4.089272e+001  1.252358e+001 
3562500000  -3.996053e+001  3.186639e+000 
3565625000  -4.063732e+001  -4.729511e+000 
3568750000  -4.103225e+001  -2.435240e+000 
3571875000  -4.088251e+001  -4.019076e+000 
3575000000  -4.041231e+001  -1.131495e+001 
3578125000  -4.104878e+001  -1.674605e+001 
3581250000  -4.117927e+001  -1.652048e+001 
3584375000  -4.025381e+001  -2.102965e+001 
3587500000  -3.972826e+001  -2.983866e+001 
3590625000  -4.048072e+001  -4.060758e+001 
3593750000  -4.179686e+001  -4.260789e+001 
3596875000  -4.169960e+001  -3.673843e+001 
3600000000  -4.023000e+001  -4.157266e+001 
3603125000  -4.086462e+001  -5.717286e+001 
3606250000  -4.166161e+001  -5.928891e+001 
3609375000  -4.212218e+001  -6.181420e+001 
3612500000  -4.307738e+001  -6.402193e+001 
3615625000  -4.303262e+001  -6.791954e+001 
3618750000  -4.425517e+001  -6.606196e+001 
3621875000  -4.410418e+001  -7.097099e+001 
3625000000  -4.474307e+001  -6.887272e+001 
3628125000  -4.489182e+001  -7.000274e+001 
3631250000  -4.471115e+001  -7.673696e+001 
3634375000  -4.646180e+001  -7.328429e+001 
3637500000  -4.572473e+001  -6.767769e+001 
3640625000  -4.480416e+001  -6.622124e+001 
3643750000  -4.450196e+001  -7.178951e+001 
3646875000  -4.525788e+001  -7.790473e+001 
3650000000  -4.559237e+001  -7.745792e+001 
3653125000  -4.493925e+001  -7.800299e+001 
3656250000  -4.542562e+001  -7.746008e+001 
3659375000  -4.545506e+001  -7.641422e+001 
3662500000  -4.427762e+001  -7.894251e+001 
3665625000  -4.424963e+001  -8.091422e+001 
3668750000  -4.299266e+001  -8.136674e+001 
3671875000  -4.207246e+001  -8.824277e+001 
3675000000  -4.221292e+001  -9.610049e+001 
3678125000  -4.224000e+001  -9.652649e+001 
3681250000  -4.230714e+001  -1.001147e+002 
3684375000  -4.237280e+001  -1.045598e+002 
3687500000  -4.245757e+001  -1.107207e+002 
3690625000  -4.244238e+001  -1.147155e+002 
3693750000  -4.358398e+001  -1.169175e+002 
3696875000  -4.309892e+001  -1.120993e+002 
3700000000  -4.205534e+001  -1.205468e+002 
3703125000  -4.265241e+001  -1.259938e+002 
3706250000  -4.374638e+001  -1.264347e+002 
3709375000  -4.317113e+001  -1.272013e+002 
3712500000  -4.201955e+001  -1.269880e+002 
3715625000  -4.114020e+001  -1.343847e+002 
3718750000  -4.112661e+001  -1.407781e+002 
3721875000  -4.141974e+001  -1.473893e+002 
3725000000  -4.172374e+001  -1.520106e+002 
3728125000  -4.198734e+001  -1.537225e+002 
3731250000  -4.156604e+001  -1.560281e+002 
3734375000  -4.148105e+001  -1.635671e+002 
3737500000  -4.232875e+001  -1.698604e+002 
3740625000  -4.308112e+001  -1.721670e+002 
3743750000  -4.364895e+001  -1.746763e+002 
3746875000  -4.382567e+001  -1.797427e+002 
3750000000  -4.455659e+001  -1.795162e+002 
3753125000  -4.459449e+001  -1.765235e+002 
3756250000  -4.482944e+001  -1.761204e+002 
3759375000  -4.464833e+001  -1.758432e+002 
3762500000  -4.437719e+001  -1.776137e+002 
3765625000  -4.515463e+001  -1.795553e+002 
3768750000  -4.476819e+001  -1.714505e+002 
3771875000  -4.279489e+001  -1.735687e+002 
3775000000  -4.297721e+001  -1.798336e+002 
3778125000  -4.310892e+001  1.778856e+002 
3781250000  -4.291478e+001  1.768983e+002 
3784375000  -4.230474e+001  1.752442e+002 
3787500000  -4.191384e+001  1.700756e+002 
3790625000  -4.201555e+001  1.668952e+002 
3793750000  -4.225797e+001  1.645138e+002 
3796875000  -4.088592e+001  1.607881e+002 
3800000000  -3.915998e+001  1.597032e+002 
3803125000  -4.003159e+001  1.478131e+002 
3806250000  -4.055055e+001  1.476462e+002 
3809375000  -4.022836e+001  1.429319e+002 
3812500000  -3.948624e+001  1.373079e+002 
3815625000  -4.045490e+001  1.268504e+002 
3818750000  -4.141989e+001  1.255433e+002 
3821875000  -4.101917e+001  1.345547e+002 
3825000000  -3.935796e+001  1.352788e+002 
3828125000  -3.789533e+001  1.174392e+002 
3831250000  -3.839496e+001  1.040290e+002 
3834375000  -4.019618e+001  1.034398e+002 
3837500000  -4.098622e+001  1.083002e+002 
3840625000  -3.944123e+001  1.040929e+002 
3843750000  -3.869566e+001  9.131281e+001 
3846875000  -3.992045e+001  8.519635e+001 
3850000000  -4.131730e+001  8.868210e+001 
3853125000  -4.024477e+001  9.405112e+001 
3856250000  -4.020215e+001  8.635989e+001 
3859375000  -3.987993e+001  8.202743e+001 
3862500000  -3.951350e+001  7.149529e+001 
3865625000  -3.972795e+001  6.831422e+001 
3868750000  -3.967096e+001  6.785181e+001 
3871875000  -3.927374e+001  6.486418e+001 
3875000000  -3.992859e+001  5.333963e+001 
3878125000  -4.083275e+001  5.339997e+001 
3881250000  -4.079469e+001  5.462563e+001 
3884375000  -4.063489e+001  5.062418e+001 
3887500000  -4.038598e+001  4.693517e+001 
3890625000  -4.100657e+001  4.461923e+001 
3893750000  -4.146209e+001  4.271853e+001 
3896875000  -4.197698e+001  4.550563e+001 
3900000000  -4.160386e+001  4.217684e+001 
3903125000  -4.143073e+001  4.031405e+001 
3906250000  -4.083200e+001  4.043824e+001 
3909375000  -4.035400e+001  3.548124e+001 
3912500000  -4.054163e+001  2.725295e+001 
3915625000  -4.145640e+001  3.031814e+001 
3918750000  -4.121240e+001  3.126858e+001 
3921875000  -4.050814e+001  2.762355e+001 
3925000000  -3.966782e+001  2.336530e+001 
3928125000  -3.899562e+001  1.914582e+001 
3931250000  -3.935850e+001  1.217858e+001 
3934375000  -3.980921e+001  1.182791e+001 
3937500000  -4.001981e+001  9.201692e+000 
3940625000  -4.049749e+001  7.773716e+000 
3943750000  -3.911177e+001  7.688670e+000 
3946875000  -3.807989e+001  1.621055e+000 
3950000000  -3.906137e+001  -9.852561e+000 
3953125000  -3.987126e+001  -1.011410e+001 
3956250000  -3.872382e+001  -7.287663e+000 
3959375000  -3.749567e+001  -1.182082e+001 
3962500000  -3.701928e+001  -1.623761e+001 
3965625000  -3.685019e+001  -2.817120e+001 
3968750000  -3.783261e+001  -3.212604e+001 
3971875000  -3.816540e+001  -3.758722e+001 
3975000000  -3.751069e+001  -3.967479e+001 
3978125000  -3.770023e+001  -4.384666e+001 
3981250000  -3.762616e+001  -4.968126e+001 
3984375000  -3.787268e+001  -5.513806e+001 
3987500000  -3.849874e+001  -5.890677e+001 
3990625000  -3.853550e+001  -5.926038e+001 
3993750000  -3.879790e+001  -6.454675e+001 
3996875000  -3.907021e+001  -6.758906e+001 
4000000000  -3.955510e+001  -6.933141e+001 
4003125000  -4.021664e+001  -6.790653e+001 
4006250000  -3.845267e+001  -7.009414e+001 
4009375000  -3.741148e+001  -8.235576e+001 
4012500000  -3.905381e+001  -8.747399e+001 
4015625000  -4.024099e+001  -8.626275e+001 
4018750000  -4.031151e+001  -8.732187e+001 
4021875000  -3.958360e+001  -8.727095e+001 
4025000000  -3.919516e+001  -9.143335e+001 
4028125000  -3.922772e+001  -9.603494e+001 
4031250000  -4.008413e+001  -1.003757e+002 
4034375000  -4.002937e+001  -9.932613e+001 
4037500000  -3.956171e+001  -9.951361e+001 
4040625000  -3.936469e+001  -1.036733e+002 
4043750000  -3.967604e+001  -1.024555e+002 
4046875000  -3.910283e+001  -1.032341e+002 
4050000000  -3.894439e+001  -1.092878e+002 
4053125000  -3.950441e+001  -1.127827e+002 
4056250000  -3.963194e+001  -1.068716e+002 
4059375000  -3.796745e+001  -1.072455e+002 
4062500000  -3.691819e+001  -1.154650e+002 
4065625000  -3.642225e+001  -1.185863e+002 
4068750000  -3.618335e+001  -1.243115e+002 
4071875000  -3.548515e+001  -1.332465e+002 
4075000000  -3.571658e+001  -1.393112e+002 
4078125000  -3.637136e+001  -1.425429e+002 
4081250000  -3.595476e+001  -1.466342e+002 
4084375000  -3.544093e+001  -1.541450e+002 
4087500000  -3.592336e+001  -1.608163e+002 
4090625000  -3.662225e+001  -1.635429e+002 
4093750000  -3.631404e+001  -1.649989e+002 
4096875000  -3.591549e+001  -1.712803e+002 
4100000000  -3.668229e+001  -1.781685e+002 
4103125000  -3.750899e+001  -1.791755e+002 
4106250000  -3.747446e+001  -1.745953e+002 
4109375000  -3.646338e+001  -1.769863e+002 
4112500000  -3.604470e+001  1.744768e+002 
4115625000  -3.633035e+001  1.694357e+002 
4118750000  -3.649475e+001  1.643269e+002 
4121875000  -3.610102e+001  1.593523e+002 
4125000000  -3.680161e+001  1.534666e+002 
4128125000  -3.767215e+001  1.533199e+002 
4131250000  -3.737050e+001  1.604584e+002 
4134375000  -3.522115e+001  1.535994e+002 
4137500000  -3.510230e+001  1.340453e+002 
4140625000  -3.761313e+001  1.274682e+002 
4143750000  -3.902570e+001  1.317598e+002 
4146875000  -3.844596e+001  1.389273e+002 
4150000000  -3.781575e+001  1.332959e+002 
4153125000  -3.775634e+001  1.264202e+002 
4156250000  -3.870517e+001  1.241030e+002 
4159375000  -3.889159e+001  1.287087e+002 
4162500000  -3.786438e+001  1.333616e+002 
4165625000  -3.695029e+001  1.279084e+002 
4168750000  -3.637174e+001  1.198208e+002 
4171875000  -3.633565e+001  1.112864e+002 
4175000000  -3.697995e+001  1.075427e+002 
4178125000  -3.760963e+001  1.064142e+002 
4181250000  -3.721675e+001  1.053010e+002 
4184375000  -3.720193e+001  1.011321e+002 
4187500000  -3.726635e+001  9.972320e+001 
4190625000  -3.674135e+001  9.200311e+001 
4193750000  -3.767467e+001  8.839906e+001 
4196875000  -3.825412e+001  8.747778e+001 
4200000000  -3.929741e+001  9.047761e+001 
4203125000  -3.890235e+001  1.046222e+002 
4206250000  -3.523985e+001  1.040763e+002 
4209375000  -3.414883e+001  8.174335e+001 
4212500000  -3.608144e+001  7.400498e+001 
4215625000  -3.707162e+001  8.067963e+001 
4218750000  -3.533276e+001  8.465299e+001 
4221875000  -3.311163e+001  7.334747e+001 
4225000000  -3.446674e+001  6.101242e+001 
4228125000  -3.486658e+001  6.492524e+001 
4231250000  -3.321814e+001  5.766740e+001 
4234375000  -3.312989e+001  4.986757e+001 
4237500000  -3.255156e+001  4.375661e+001 
4240625000  -3.264567e+001  3.442418e+001 
4243750000  -3.367208e+001  2.541080e+001 
4246875000  -3.464135e+001  2.548097e+001 
4250000000  -3.470523e+001  2.697108e+001 
4253125000  -3.411722e+001  2.255327e+001 
4256250000  -3.454075e+001  1.777852e+001 
4259375000  -3.418851e+001  1.229825e+001 
4262500000  -3.440147e+001  8.564219e+000 
4265625000  -3.467480e+001  8.208259e+000 
4268750000  -3.364604e+001  2.841134e+000 
4271875000  -3.353812e+001  -4.989585e+000 
4275000000  -3.322046e+001  -1.364563e+001 
4278125000  -3.420523e+001  -2.538916e+001 
4281250000  -3.577732e+001  -2.737047e+001 
4284375000  -3.560518e+001  -2.776383e+001 
4287500000  -3.675412e+001  -3.299060e+001 
4290625000  -3.840489e+001  -2.230930e+001 
4293750000  -3.622608e+001  -1.619298e+001 
4296875000  -3.534281e+001  -2.895265e+001 
4300000000  -3.629734e+001  -3.719510e+001 
4303125000  -3.768879e+001  -3.629706e+001 
4306250000  -3.687470e+001  -2.911312e+001 
4309375000  -3.548794e+001  -3.270787e+001 
4312500000  -3.538462e+001  -3.915704e+001 
4315625000  -3.560098e+001  -4.497557e+001 
4318750000  -3.598530e+001  -4.800958e+001 
4321875000  -3.622289e+001  -4.650368e+001 
4325000000  -3.534927e+001  -4.619420e+001 
4328125000  -3.480938e+001  -5.281286e+001 
4331250000  -3.458088e+001  -6.097660e+001 
4334375000  -3.489898e+001  -6.699648e+001 
4337500000  -3.580886e+001  -6.913961e+001 
4340625000  -3.607082e+001  -6.531628e+001 
4343750000  -3.504229e+001  -6.571265e+001 
4346875000  -3.463668e+001  -7.201162e+001 
4350000000  -3.457755e+001  -7.888023e+001 
4353125000  -3.442780e+001  -8.647839e+001 
4356250000  -3.642171e+001  -8.771072e+001 
4359375000  -3.633118e+001  -7.128989e+001 
4362500000  -3.321509e+001  -7.473557e+001 
4365625000  -3.175972e+001  -8.925857e+001 
4368750000  -3.258229e+001  -1.014116e+002 
4371875000  -3.358254e+001  -1.011394e+002 
4375000000  -3.301109e+001  -1.039565e+002 
4378125000  -3.237241e+001  -1.108371e+002 
4381250000  -3.258111e+001  -1.181946e+002 
4384375000  -3.242309e+001  -1.242253e+002 
4387500000  -3.326732e+001  -1.316065e+002 
4390625000  -3.416594e+001  -1.324075e+002 
4393750000  -3.359750e+001  -1.315444e+002 
4396875000  -3.285674e+001  -1.354054e+002 
4400000000  -3.231122e+001  -1.442268e+002 
4403125000  -3.329751e+001  -1.537930e+002 
4406250000  -3.392609e+001  -1.569577e+002 
4409375000  -3.428053e+001  -1.608928e+002 
4412500000  -3.545058e+001  -1.635571e+002 
4415625000  -3.576130e+001  -1.597523e+002 
