!Agilent Technologies,E8363B,MY43030201,A.06.04.32
!Agilent E8363B: A.06.04.32
!Date: Tuesday, November 11, 2014 21:12:58
!Correction: S21(Response(S21)) 
!S1P File: Measurement: S21:
# Hz S  dB   R 50
3000000000  -3.644697e+001  -5.970839e+001 
3003125000  -3.764579e+001  -6.642455e+001 
3006250000  -3.759252e+001  -6.864931e+001 
3009375000  -3.789315e+001  -6.228150e+001 
3012500000  -3.705259e+001  -6.532742e+001 
3015625000  -3.620467e+001  -7.276593e+001 
3018750000  -3.690947e+001  -7.395077e+001 
3021875000  -3.545658e+001  -7.294586e+001 
3025000000  -3.411135e+001  -7.646754e+001 
3028125000  -3.321002e+001  -8.329932e+001 
3031250000  -3.222940e+001  -9.461771e+001 
3034375000  -3.184146e+001  -1.084442e+002 
3037500000  -3.242117e+001  -1.196603e+002 
3040625000  -3.370744e+001  -1.249919e+002 
3043750000  -3.429559e+001  -1.303834e+002 
3046875000  -3.463129e+001  -1.359822e+002 
3050000000  -3.621539e+001  -1.417133e+002 
3053125000  -3.614167e+001  -1.365878e+002 
3056250000  -3.573030e+001  -1.323337e+002 
3059375000  -3.579029e+001  -1.328211e+002 
3062500000  -3.419045e+001  -1.368244e+002 
3065625000  -3.388168e+001  -1.431574e+002 
3068750000  -3.367170e+001  -1.497507e+002 
3071875000  -3.357830e+001  -1.523037e+002 
3075000000  -3.327910e+001  -1.568300e+002 
3078125000  -3.306935e+001  -1.604041e+002 
3081250000  -3.357507e+001  -1.647977e+002 
3084375000  -3.262877e+001  -1.684782e+002 
3087500000  -3.255593e+001  -1.721172e+002 
3090625000  -3.204242e+001  1.771372e+002 
3093750000  -3.255917e+001  1.702123e+002 
3096875000  -3.353002e+001  1.639039e+002 
3100000000  -3.336154e+001  1.626339e+002 
3103125000  -3.368075e+001  1.629640e+002 
3106250000  -3.318089e+001  1.588855e+002 
3109375000  -3.320900e+001  1.544839e+002 
3112500000  -3.316372e+001  1.520343e+002 
3115625000  -3.286434e+001  1.479536e+002 
3118750000  -3.313094e+001  1.473385e+002 
3121875000  -3.227428e+001  1.376115e+002 
3125000000  -3.364703e+001  1.342462e+002 
3128125000  -3.448614e+001  1.414627e+002 
3131250000  -3.198015e+001  1.394377e+002 
3134375000  -3.083171e+001  1.235597e+002 
3137500000  -3.134892e+001  1.094875e+002 
3140625000  -3.265850e+001  1.071490e+002 
3143750000  -3.380394e+001  1.089151e+002 
3146875000  -3.328316e+001  1.098345e+002 
3150000000  -3.225059e+001  1.089980e+002 
3153125000  -3.238665e+001  1.005219e+002 
3156250000  -3.342058e+001  1.050845e+002 
3159375000  -3.158816e+001  1.064109e+002 
3162500000  -2.963072e+001  9.178574e+001 
3165625000  -3.079669e+001  7.993327e+001 
3168750000  -3.101805e+001  7.985307e+001 
3171875000  -3.015269e+001  7.391956e+001 
3175000000  -3.094299e+001  6.513427e+001 
3178125000  -3.067027e+001  6.578683e+001 
3181250000  -2.962030e+001  6.025375e+001 
3184375000  -2.903208e+001  4.744933e+001 
3187500000  -3.028732e+001  3.248150e+001 
3190625000  -3.276019e+001  2.522066e+001 
3193750000  -3.336486e+001  3.355951e+001 
3196875000  -3.296461e+001  3.759340e+001 
3200000000  -3.202193e+001  3.495467e+001 
3203125000  -3.131947e+001  2.848989e+001 
3206250000  -3.162859e+001  2.160267e+001 
3209375000  -3.114146e+001  1.610081e+001 
3212500000  -3.136598e+001  9.528800e+000 
3215625000  -3.151244e+001  6.301333e+000 
3218750000  -3.221901e+001  -1.580838e+000 
3221875000  -3.303823e+001  -7.138527e+000 
3225000000  -3.259031e+001  -8.435362e+000 
3228125000  -3.301162e+001  -1.401309e+001 
3231250000  -3.369225e+001  -1.629179e+001 
3234375000  -3.337382e+001  -1.592146e+001 
3237500000  -3.335619e+001  -1.739135e+001 
3240625000  -3.289932e+001  -2.089188e+001 
3243750000  -3.264039e+001  -2.817707e+001 
3246875000  -3.300771e+001  -3.557122e+001 
3250000000  -3.338713e+001  -3.758576e+001 
3253125000  -3.355142e+001  -3.918876e+001 
3256250000  -3.309261e+001  -4.664273e+001 
3259375000  -3.340878e+001  -5.540916e+001 
3262500000  -3.461215e+001  -5.937817e+001 
3265625000  -3.514552e+001  -5.562070e+001 
3268750000  -3.498727e+001  -5.347924e+001 
3271875000  -3.461131e+001  -5.467948e+001 
3275000000  -3.374633e+001  -6.174525e+001 
3278125000  -3.419065e+001  -6.779457e+001 
3281250000  -3.427563e+001  -6.713935e+001 
3284375000  -3.376693e+001  -7.384059e+001 
3287500000  -3.404368e+001  -7.703281e+001 
3290625000  -3.420030e+001  -8.301297e+001 
3293750000  -3.402634e+001  -8.976357e+001 
3296875000  -3.517463e+001  -9.048234e+001 
3300000000  -3.479442e+001  -8.940881e+001 
3303125000  -3.362065e+001  -9.481336e+001 
3306250000  -3.347535e+001  -1.015175e+002 
3309375000  -3.319111e+001  -1.089260e+002 
3312500000  -3.331162e+001  -1.193710e+002 
3315625000  -3.433893e+001  -1.274595e+002 
3318750000  -3.588670e+001  -1.309254e+002 
3321875000  -3.707454e+001  -1.299932e+002 
3325000000  -3.719035e+001  -1.244519e+002 
3328125000  -3.675848e+001  -1.240630e+002 
3331250000  -3.551089e+001  -1.173884e+002 
3334375000  -3.294250e+001  -1.298660e+002 
3337500000  -3.306908e+001  -1.489613e+002 
3340625000  -3.456545e+001  -1.592712e+002 
3343750000  -3.646125e+001  -1.596036e+002 
3346875000  -3.666857e+001  -1.580785e+002 
3350000000  -3.595308e+001  -1.606167e+002 
3353125000  -3.597195e+001  -1.654533e+002 
3356250000  -3.554988e+001  -1.739164e+002 
3359375000  -3.642924e+001  1.777326e+002 
3362500000  -3.754887e+001  1.730090e+002 
3365625000  -3.803892e+001  1.725184e+002 
3368750000  -3.886390e+001  1.688577e+002 
3371875000  -3.902635e+001  1.668982e+002 
3375000000  -4.046629e+001  1.648833e+002 
3378125000  -4.152248e+001  1.640666e+002 
3381250000  -4.252907e+001  1.735344e+002 
3384375000  -4.081700e+001  -1.658092e+002 
3387500000  -3.756213e+001  1.771888e+002 
3390625000  -3.900848e+001  1.594197e+002 
3393750000  -4.037194e+001  1.614764e+002 
3396875000  -3.913216e+001  1.627628e+002 
3400000000  -3.860278e+001  1.539476e+002 
3403125000  -3.915518e+001  1.491996e+002 
3406250000  -3.973487e+001  1.492622e+002 
3409375000  -3.969204e+001  1.418643e+002 
3412500000  -4.040893e+001  1.395646e+002 
3415625000  -4.087177e+001  1.397748e+002 
3418750000  -4.110092e+001  1.410795e+002 
3421875000  -4.113805e+001  1.419918e+002 
3425000000  -4.019543e+001  1.432843e+002 
3428125000  -3.943351e+001  1.390606e+002 
3431250000  -3.928785e+001  1.315895e+002 
3434375000  -3.903051e+001  1.260950e+002 
3437500000  -3.974878e+001  1.237288e+002 
3440625000  -3.997350e+001  1.247024e+002 
3443750000  -3.857192e+001  1.260639e+002 
3446875000  -3.787496e+001  1.156845e+002 
3450000000  -3.746001e+001  1.075267e+002 
3453125000  -3.799733e+001  9.751133e+001 
3456250000  -3.910665e+001  9.085500e+001 
3459375000  -4.009714e+001  9.078276e+001 
3462500000  -3.991320e+001  9.154250e+001 
3465625000  -3.984297e+001  8.544090e+001 
3468750000  -4.012353e+001  8.151149e+001 
3471875000  -4.008444e+001  8.086442e+001 
3475000000  -3.953074e+001  7.534863e+001 
3478125000  -4.038509e+001  6.770666e+001 
3481250000  -4.131499e+001  6.614053e+001 
3484375000  -4.238032e+001  7.084063e+001 
3487500000  -4.159387e+001  7.019273e+001 
3490625000  -4.104614e+001  6.295091e+001 
3493750000  -4.142986e+001  5.872132e+001 
3496875000  -4.220842e+001  5.701860e+001 
3500000000  -4.258479e+001  5.941013e+001 
3503125000  -4.204261e+001  6.350549e+001 
3506250000  -4.073381e+001  5.664097e+001 
3509375000  -4.060014e+001  4.679646e+001 
3512500000  -4.123225e+001  3.787199e+001 
3515625000  -4.203125e+001  3.721074e+001 
3518750000  -4.237212e+001  3.837452e+001 
3521875000  -4.256244e+001  3.394624e+001 
3525000000  -4.381231e+001  3.005978e+001 
3528125000  -4.328304e+001  3.747833e+001 
3531250000  -4.178297e+001  3.686761e+001 
3534375000  -4.180902e+001  2.600371e+001 
3537500000  -4.252480e+001  2.020556e+001 
3540625000  -4.316375e+001  2.257722e+001 
3543750000  -4.384454e+001  2.408426e+001 
3546875000  -4.378775e+001  3.570758e+001 
3550000000  -4.129070e+001  3.684982e+001 
3553125000  -3.972393e+001  1.781833e+001 
3556250000  -4.130942e+001  1.022196e+001 
3559375000  -4.099739e+001  1.220201e+001 
3562500000  -3.992499e+001  1.731270e+000 
3565625000  -4.090792e+001  -4.085544e+000 
3568750000  -4.115932e+001  -5.005633e-001 
3571875000  -4.085728e+001  -5.164369e+000 
3575000000  -4.062984e+001  -1.101175e+001 
3578125000  -4.130753e+001  -1.629525e+001 
3581250000  -4.120015e+001  -1.735074e+001 
3584375000  -4.030897e+001  -1.999409e+001 
3587500000  -3.989351e+001  -2.832044e+001 
3590625000  -4.051271e+001  -3.840130e+001 
3593750000  -4.180566e+001  -4.080275e+001 
3596875000  -4.148597e+001  -3.348255e+001 
3600000000  -4.023650e+001  -4.144257e+001 
3603125000  -4.072180e+001  -5.521655e+001 
3606250000  -4.139108e+001  -5.839117e+001 
3609375000  -4.234080e+001  -6.216588e+001 
3612500000  -4.281443e+001  -6.572362e+001 
3615625000  -4.313481e+001  -6.814388e+001 
3618750000  -4.402819e+001  -6.917188e+001 
3621875000  -4.412681e+001  -7.121710e+001 
3625000000  -4.479439e+001  -7.091646e+001 
3628125000  -4.454434e+001  -7.153302e+001 
3631250000  -4.433986e+001  -7.723267e+001 
3634375000  -4.579665e+001  -7.665559e+001 
3637500000  -4.589314e+001  -7.088090e+001 
3640625000  -4.521276e+001  -7.123145e+001 
3643750000  -4.493205e+001  -7.567905e+001 
3646875000  -4.513079e+001  -8.208212e+001 
3650000000  -4.573712e+001  -7.949844e+001 
3653125000  -4.543548e+001  -8.100888e+001 
3656250000  -4.616364e+001  -8.338007e+001 
3659375000  -4.548079e+001  -7.795589e+001 
3662500000  -4.454533e+001  -7.895155e+001 
3665625000  -4.448021e+001  -8.012618e+001 
3668750000  -4.338535e+001  -8.090257e+001 
3671875000  -4.239905e+001  -8.534322e+001 
3675000000  -4.278441e+001  -9.417002e+001 
3678125000  -4.294048e+001  -9.774998e+001 
3681250000  -4.219407e+001  -1.002561e+002 
3684375000  -4.269766e+001  -1.054456e+002 
3687500000  -4.270271e+001  -1.087346e+002 
3690625000  -4.268764e+001  -1.122909e+002 
3693750000  -4.391810e+001  -1.150758e+002 
3696875000  -4.312265e+001  -1.126972e+002 
3700000000  -4.226601e+001  -1.176165e+002 
3703125000  -4.256576e+001  -1.243230e+002 
3706250000  -4.363552e+001  -1.231448e+002 
3709375000  -4.311613e+001  -1.238974e+002 
3712500000  -4.240882e+001  -1.266118e+002 
3715625000  -4.145282e+001  -1.338575e+002 
3718750000  -4.111195e+001  -1.395512e+002 
3721875000  -4.132143e+001  -1.481916e+002 
3725000000  -4.158764e+001  -1.525300e+002 
3728125000  -4.203750e+001  -1.510779e+002 
3731250000  -4.144276e+001  -1.547344e+002 
3734375000  -4.118312e+001  -1.629025e+002 
3737500000  -4.219730e+001  -1.708342e+002 
3740625000  -4.343629e+001  -1.724646e+002 
3743750000  -4.317767e+001  -1.739503e+002 
3746875000  -4.362083e+001  -1.756285e+002 
3750000000  -4.442419e+001  -1.778642e+002 
3753125000  -4.434315e+001  -1.788523e+002 
3756250000  -4.442093e+001  -1.764807e+002 
3759375000  -4.532992e+001  -1.757866e+002 
3762500000  -4.448098e+001  -1.793773e+002 
3765625000  -4.528217e+001  -1.799169e+002 
3768750000  -4.490816e+001  -1.739815e+002 
3771875000  -4.296057e+001  -1.773259e+002 
3775000000  -4.321641e+001  1.775375e+002 
3778125000  -4.300356e+001  1.780490e+002 
3781250000  -4.306229e+001  1.752068e+002 
3784375000  -4.240695e+001  1.734587e+002 
3787500000  -4.188425e+001  1.723144e+002 
3790625000  -4.264791e+001  1.626142e+002 
3793750000  -4.218985e+001  1.657684e+002 
3796875000  -4.129493e+001  1.606042e+002 
3800000000  -3.923129e+001  1.605742e+002 
3803125000  -4.038887e+001  1.489361e+002 
3806250000  -4.075522e+001  1.479860e+002 
3809375000  -4.026270e+001  1.429200e+002 
3812500000  -3.975188e+001  1.373964e+002 
3815625000  -4.027444e+001  1.264672e+002 
3818750000  -4.129989e+001  1.279801e+002 
3821875000  -4.087169e+001  1.346757e+002 
3825000000  -3.933747e+001  1.381593e+002 
3828125000  -3.776351e+001  1.202513e+002 
3831250000  -3.860732e+001  1.044506e+002 
3834375000  -4.013515e+001  1.041111e+002 
3837500000  -4.059153e+001  1.087320e+002 
3840625000  -3.967497e+001  1.066873e+002 
3843750000  -3.886132e+001  9.557887e+001 
3846875000  -3.986866e+001  8.641855e+001 
3850000000  -4.143966e+001  9.032870e+001 
3853125000  -4.042444e+001  9.448071e+001 
3856250000  -4.018670e+001  8.697910e+001 
3859375000  -3.967302e+001  8.299393e+001 
3862500000  -3.925373e+001  7.250560e+001 
3865625000  -3.975908e+001  7.069789e+001 
3868750000  -3.977752e+001  6.800520e+001 
3871875000  -3.904718e+001  6.421160e+001 
3875000000  -3.937562e+001  5.282261e+001 
3878125000  -4.065407e+001  5.381383e+001 
3881250000  -4.093049e+001  5.550200e+001 
3884375000  -4.030999e+001  5.191592e+001 
3887500000  -4.069348e+001  4.670116e+001 
3890625000  -4.127795e+001  4.251973e+001 
3893750000  -4.109640e+001  4.281581e+001 
3896875000  -4.168474e+001  4.398603e+001 
3900000000  -4.186254e+001  4.275068e+001 
3903125000  -4.137609e+001  4.050432e+001 
3906250000  -4.114111e+001  4.130692e+001 
3909375000  -4.013779e+001  3.535640e+001 
3912500000  -4.024815e+001  2.794418e+001 
3915625000  -4.152843e+001  2.906125e+001 
3918750000  -4.145690e+001  2.951188e+001 
3921875000  -4.067796e+001  2.656550e+001 
3925000000  -3.973864e+001  2.634174e+001 
3928125000  -3.932250e+001  1.577769e+001 
3931250000  -3.967878e+001  1.086130e+001 
3934375000  -3.987301e+001  1.205563e+001 
3937500000  -4.008543e+001  1.080567e+001 
3940625000  -4.031645e+001  8.819876e+000 
3943750000  -3.946225e+001  8.645359e+000 
3946875000  -3.813163e+001  1.533867e-001 
3950000000  -3.876008e+001  -8.874510e+000 
3953125000  -3.980717e+001  -9.828155e+000 
3956250000  -3.881294e+001  -5.832140e+000 
3959375000  -3.766319e+001  -1.027321e+001 
3962500000  -3.716414e+001  -1.740361e+001 
3965625000  -3.709011e+001  -2.758809e+001 
3968750000  -3.785699e+001  -3.381229e+001 
3971875000  -3.829642e+001  -3.639660e+001 
3975000000  -3.784247e+001  -3.930809e+001 
3978125000  -3.775640e+001  -4.288972e+001 
3981250000  -3.771055e+001  -4.811115e+001 
3984375000  -3.819535e+001  -5.385271e+001 
3987500000  -3.832602e+001  -5.758669e+001 
3990625000  -3.863807e+001  -6.083326e+001 
3993750000  -3.893026e+001  -6.348397e+001 
3996875000  -3.871047e+001  -6.698716e+001 
4000000000  -3.925175e+001  -6.929869e+001 
4003125000  -3.988498e+001  -6.762180e+001 
4006250000  -3.842862e+001  -6.836492e+001 
4009375000  -3.731367e+001  -8.121201e+001 
4012500000  -3.876582e+001  -8.887295e+001 
4015625000  -4.012543e+001  -8.816847e+001 
4018750000  -4.038375e+001  -8.449776e+001 
4021875000  -3.948941e+001  -8.888644e+001 
4025000000  -3.915860e+001  -9.412740e+001 
4028125000  -3.936562e+001  -9.679774e+001 
4031250000  -3.969035e+001  -1.006372e+002 
4034375000  -3.977981e+001  -9.994830e+001 
4037500000  -3.947153e+001  -9.817570e+001 
4040625000  -3.928091e+001  -1.037183e+002 
4043750000  -3.967800e+001  -1.037440e+002 
4046875000  -3.907906e+001  -1.043649e+002 
4050000000  -3.854772e+001  -1.118938e+002 
4053125000  -3.918449e+001  -1.126410e+002 
4056250000  -3.946280e+001  -1.076959e+002 
4059375000  -3.759673e+001  -1.075798e+002 
4062500000  -3.673341e+001  -1.132839e+002 
4065625000  -3.662727e+001  -1.182347e+002 
4068750000  -3.633323e+001  -1.239560e+002 
4071875000  -3.539856e+001  -1.343144e+002 
4075000000  -3.586769e+001  -1.405182e+002 
4078125000  -3.651097e+001  -1.428316e+002 
4081250000  -3.590257e+001  -1.471878e+002 
4084375000  -3.547783e+001  -1.545618e+002 
4087500000  -3.584851e+001  -1.620490e+002 
4090625000  -3.672031e+001  -1.631756e+002 
4093750000  -3.621167e+001  -1.639656e+002 
4096875000  -3.595148e+001  -1.726287e+002 
4100000000  -3.686765e+001  1.797118e+002 
4103125000  -3.756298e+001  -1.790336e+002 
4106250000  -3.750288e+001  -1.744178e+002 
4109375000  -3.653411e+001  -1.765600e+002 
4112500000  -3.592236e+001  1.738752e+002 
4115625000  -3.646054e+001  1.686861e+002 
4118750000  -3.669556e+001  1.661196e+002 
4121875000  -3.622939e+001  1.589515e+002 
4125000000  -3.696471e+001  1.535578e+002 
4128125000  -3.771431e+001  1.543638e+002 
4131250000  -3.765517e+001  1.610197e+002 
4134375000  -3.528238e+001  1.537014e+002 
4137500000  -3.544517e+001  1.353884e+002 
4140625000  -3.743923e+001  1.274525e+002 
4143750000  -3.882586e+001  1.331991e+002 
4146875000  -3.834984e+001  1.368845e+002 
4150000000  -3.758155e+001  1.334433e+002 
4153125000  -3.765718e+001  1.267073e+002 
4156250000  -3.870519e+001  1.232602e+002 
4159375000  -3.886121e+001  1.300621e+002 
4162500000  -3.783209e+001  1.340218e+002 
4165625000  -3.660365e+001  1.278553e+002 
4168750000  -3.614762e+001  1.193113e+002 
4171875000  -3.629225e+001  1.110862e+002 
4175000000  -3.686903e+001  1.056345e+002 
4178125000  -3.764997e+001  1.050914e+002 
4181250000  -3.724432e+001  1.051196e+002 
4184375000  -3.699311e+001  1.005275e+002 
4187500000  -3.699014e+001  9.810136e+001 
4190625000  -3.708492e+001  9.252689e+001 
4193750000  -3.758925e+001  8.746817e+001 
4196875000  -3.820842e+001  8.705401e+001 
4200000000  -3.923394e+001  8.946472e+001 
4203125000  -3.872235e+001  1.039113e+002 
4206250000  -3.528802e+001  1.017858e+002 
4209375000  -3.431522e+001  7.879197e+001 
4212500000  -3.614509e+001  7.040631e+001 
4215625000  -3.714091e+001  7.779680e+001 
4218750000  -3.548106e+001  8.303439e+001 
4221875000  -3.321642e+001  7.280035e+001 
4225000000  -3.477527e+001  5.915836e+001 
4228125000  -3.495857e+001  6.289901e+001 
4231250000  -3.337753e+001  5.797155e+001 
4234375000  -3.335123e+001  4.841082e+001 
4237500000  -3.293323e+001  4.337450e+001 
4240625000  -3.287527e+001  3.296356e+001 
4243750000  -3.404313e+001  2.468060e+001 
4246875000  -3.497256e+001  2.448118e+001 
4250000000  -3.482545e+001  2.617799e+001 
4253125000  -3.438227e+001  2.217347e+001 
4256250000  -3.475969e+001  1.827086e+001 
4259375000  -3.446809e+001  1.438747e+001 
4262500000  -3.473983e+001  9.480218e+000 
4265625000  -3.478781e+001  8.704037e+000 
4268750000  -3.376435e+001  2.992476e+000 
4271875000  -3.375021e+001  -5.411105e+000 
4275000000  -3.342081e+001  -1.256911e+001 
4278125000  -3.423878e+001  -2.423075e+001 
4281250000  -3.601795e+001  -2.679652e+001 
4284375000  -3.580661e+001  -2.745957e+001 
4287500000  -3.694251e+001  -3.015922e+001 
4290625000  -3.823944e+001  -2.058998e+001 
4293750000  -3.628243e+001  -1.715384e+001 
4296875000  -3.500387e+001  -2.779573e+001 
4300000000  -3.613066e+001  -3.695657e+001 
4303125000  -3.745894e+001  -3.455742e+001 
4306250000  -3.653291e+001  -2.913247e+001 
4309375000  -3.533065e+001  -3.072979e+001 
4312500000  -3.532088e+001  -4.009902e+001 
4315625000  -3.533018e+001  -4.514518e+001 
4318750000  -3.585587e+001  -4.864228e+001 
4321875000  -3.582254e+001  -4.738999e+001 
4325000000  -3.521859e+001  -4.696850e+001 
4328125000  -3.436776e+001  -5.324850e+001 
4331250000  -3.438913e+001  -6.169254e+001 
4334375000  -3.491543e+001  -6.838301e+001 
4337500000  -3.564555e+001  -6.871242e+001 
4340625000  -3.594566e+001  -6.574892e+001 
4343750000  -3.507185e+001  -6.700324e+001 
4346875000  -3.466845e+001  -7.421875e+001 
4350000000  -3.462012e+001  -7.930730e+001 
4353125000  -3.467916e+001  -8.692673e+001 
4356250000  -3.659759e+001  -8.873785e+001 
4359375000  -3.649710e+001  -7.403072e+001 
4362500000  -3.335077e+001  -7.600962e+001 
4365625000  -3.186685e+001  -9.026001e+001 
4368750000  -3.279130e+001  -1.029526e+002 
4371875000  -3.360540e+001  -1.030204e+002 
4375000000  -3.330634e+001  -1.045749e+002 
4378125000  -3.257241e+001  -1.111559e+002 
4381250000  -3.284356e+001  -1.186047e+002 
4384375000  -3.273426e+001  -1.251734e+002 
4387500000  -3.359570e+001  -1.322303e+002 
4390625000  -3.438939e+001  -1.321222e+002 
4393750000  -3.372873e+001  -1.315230e+002 
4396875000  -3.317603e+001  -1.348293e+002 
4400000000  -3.260271e+001  -1.446497e+002 
4403125000  -3.346779e+001  -1.528838e+002 
4406250000  -3.431230e+001  -1.547000e+002 
4409375000  -3.450822e+001  -1.594898e+002 
4412500000  -3.570156e+001  -1.627064e+002 
4415625000  -3.586917e+001  -1.576751e+002 
