!Agilent Technologies,E8363B,MY43030201,A.06.04.32
!Agilent E8363B: A.06.04.32
!Date: Tuesday, November 11, 2014 21:07:25
!Correction: S21(Response(S21)) 
!S1P File: Measurement: S21:
# Hz S  dB   R 50
3000000000  -3.652935e+001  -5.138260e+001 
3003125000  -3.774179e+001  -5.751743e+001 
3006250000  -3.752238e+001  -5.955072e+001 
3009375000  -3.774361e+001  -5.583880e+001 
3012500000  -3.722387e+001  -5.586140e+001 
3015625000  -3.620779e+001  -6.401706e+001 
3018750000  -3.683605e+001  -6.560435e+001 
3021875000  -3.546335e+001  -6.445344e+001 
3025000000  -3.410310e+001  -6.852157e+001 
3028125000  -3.319004e+001  -7.504321e+001 
3031250000  -3.215428e+001  -8.584420e+001 
3034375000  -3.181265e+001  -9.954038e+001 
3037500000  -3.222199e+001  -1.116648e+002 
3040625000  -3.357086e+001  -1.169466e+002 
3043750000  -3.425388e+001  -1.216059e+002 
3046875000  -3.439447e+001  -1.278628e+002 
3050000000  -3.609469e+001  -1.337387e+002 
3053125000  -3.599289e+001  -1.278858e+002 
3056250000  -3.554104e+001  -1.249759e+002 
3059375000  -3.565221e+001  -1.252100e+002 
3062500000  -3.420565e+001  -1.289261e+002 
3065625000  -3.390220e+001  -1.351024e+002 
3068750000  -3.356375e+001  -1.420584e+002 
3071875000  -3.359178e+001  -1.443632e+002 
3075000000  -3.332640e+001  -1.485193e+002 
3078125000  -3.298797e+001  -1.527215e+002 
3081250000  -3.347320e+001  -1.575508e+002 
3084375000  -3.267244e+001  -1.606733e+002 
3087500000  -3.253458e+001  -1.639031e+002 
3090625000  -3.199826e+001  -1.743169e+002 
3093750000  -3.246256e+001  1.783952e+002 
3096875000  -3.347735e+001  1.719149e+002 
3100000000  -3.336008e+001  1.700042e+002 
3103125000  -3.360967e+001  1.706855e+002 
3106250000  -3.320780e+001  1.664319e+002 
3109375000  -3.328092e+001  1.625705e+002 
3112500000  -3.327771e+001  1.601183e+002 
3115625000  -3.286020e+001  1.557200e+002 
3118750000  -3.329327e+001  1.553844e+002 
3121875000  -3.228996e+001  1.467065e+002 
3125000000  -3.352976e+001  1.421932e+002 
3128125000  -3.447918e+001  1.496035e+002 
3131250000  -3.206410e+001  1.475910e+002 
3134375000  -3.082405e+001  1.327248e+002 
3137500000  -3.125683e+001  1.184138e+002 
3140625000  -3.275145e+001  1.156052e+002 
3143750000  -3.380751e+001  1.169400e+002 
3146875000  -3.328702e+001  1.180748e+002 
3150000000  -3.226088e+001  1.178746e+002 
3153125000  -3.234956e+001  1.092669e+002 
3156250000  -3.332828e+001  1.135409e+002 
3159375000  -3.161753e+001  1.152533e+002 
3162500000  -2.973190e+001  1.005591e+002 
3165625000  -3.069797e+001  8.780579e+001 
3168750000  -3.098419e+001  8.814845e+001 
3171875000  -3.009528e+001  8.241290e+001 
3175000000  -3.085750e+001  7.382494e+001 
3178125000  -3.064829e+001  7.447273e+001 
3181250000  -2.956418e+001  6.923582e+001 
3184375000  -2.886464e+001  5.625146e+001 
3187500000  -3.005988e+001  4.059789e+001 
3190625000  -3.266924e+001  3.322213e+001 
3193750000  -3.322926e+001  4.167598e+001 
3196875000  -3.296477e+001  4.619917e+001 
3200000000  -3.200104e+001  4.336989e+001 
3203125000  -3.127141e+001  3.704797e+001 
3206250000  -3.147866e+001  3.044730e+001 
3209375000  -3.105315e+001  2.421970e+001 
3212500000  -3.128154e+001  1.783605e+001 
3215625000  -3.132790e+001  1.406767e+001 
3218750000  -3.206398e+001  6.097605e+000 
3221875000  -3.291990e+001  1.076961e+000 
3225000000  -3.259457e+001  -7.926808e-002 
3228125000  -3.295852e+001  -5.488979e+000 
3231250000  -3.355567e+001  -8.187467e+000 
3234375000  -3.340354e+001  -7.783848e+000 
3237500000  -3.335833e+001  -9.866220e+000 
3240625000  -3.294036e+001  -1.248854e+001 
3243750000  -3.262005e+001  -2.000894e+001 
3246875000  -3.293463e+001  -2.741167e+001 
3250000000  -3.336507e+001  -2.927136e+001 
3253125000  -3.346258e+001  -3.147032e+001 
3256250000  -3.309400e+001  -3.843763e+001 
3259375000  -3.347530e+001  -4.650320e+001 
3262500000  -3.467039e+001  -5.068426e+001 
3265625000  -3.525438e+001  -4.804037e+001 
3268750000  -3.512985e+001  -4.580390e+001 
3271875000  -3.469294e+001  -4.626999e+001 
3275000000  -3.372836e+001  -5.275849e+001 
3278125000  -3.405456e+001  -5.965747e+001 
3281250000  -3.429600e+001  -5.847795e+001 
3284375000  -3.383347e+001  -6.622767e+001 
3287500000  -3.407022e+001  -6.828551e+001 
3290625000  -3.428518e+001  -7.478748e+001 
3293750000  -3.409729e+001  -8.110992e+001 
3296875000  -3.509295e+001  -8.151816e+001 
3300000000  -3.487672e+001  -8.015952e+001 
3303125000  -3.365482e+001  -8.625529e+001 
3306250000  -3.356239e+001  -9.306876e+001 
3309375000  -3.316767e+001  -9.933450e+001 
3312500000  -3.334718e+001  -1.102790e+002 
3315625000  -3.429401e+001  -1.182078e+002 
3318750000  -3.566317e+001  -1.208183e+002 
3321875000  -3.684899e+001  -1.213781e+002 
3325000000  -3.727630e+001  -1.161968e+002 
3328125000  -3.678687e+001  -1.161215e+002 
3331250000  -3.564927e+001  -1.086705e+002 
3334375000  -3.288530e+001  -1.200850e+002 
3337500000  -3.311854e+001  -1.391899e+002 
3340625000  -3.445594e+001  -1.501614e+002 
3343750000  -3.647237e+001  -1.523087e+002 
3346875000  -3.664572e+001  -1.492524e+002 
3350000000  -3.598422e+001  -1.521032e+002 
3353125000  -3.594354e+001  -1.560019e+002 
3356250000  -3.543303e+001  -1.642332e+002 
3359375000  -3.628329e+001  -1.730544e+002 
3362500000  -3.746243e+001  -1.783107e+002 
3365625000  -3.784987e+001  -1.794312e+002 
3368750000  -3.861584e+001  1.776742e+002 
3371875000  -3.889970e+001  1.749860e+002 
3375000000  -4.039048e+001  1.721518e+002 
3378125000  -4.126583e+001  1.735672e+002 
3381250000  -4.246881e+001  -1.770454e+002 
3384375000  -4.093776e+001  -1.590390e+002 
3387500000  -3.751851e+001  -1.746616e+002 
3390625000  -3.921739e+001  1.676114e+002 
3393750000  -4.017070e+001  1.698525e+002 
3396875000  -3.916279e+001  1.704582e+002 
3400000000  -3.878943e+001  1.618107e+002 
3403125000  -3.926771e+001  1.559537e+002 
3406250000  -3.975863e+001  1.587438e+002 
3409375000  -3.981005e+001  1.502749e+002 
3412500000  -4.025352e+001  1.476502e+002 
3415625000  -4.094985e+001  1.477015e+002 
3418750000  -4.095158e+001  1.499255e+002 
3421875000  -4.120868e+001  1.509574e+002 
3425000000  -4.018662e+001  1.516747e+002 
3428125000  -3.920925e+001  1.483136e+002 
3431250000  -3.921317e+001  1.402362e+002 
3434375000  -3.914510e+001  1.351574e+002 
3437500000  -3.970580e+001  1.310918e+002 
3440625000  -3.991705e+001  1.328800e+002 
3443750000  -3.867992e+001  1.333508e+002 
3446875000  -3.802552e+001  1.260609e+002 
3450000000  -3.750004e+001  1.156259e+002 
3453125000  -3.798344e+001  1.059658e+002 
3456250000  -3.913474e+001  1.002918e+002 
3459375000  -4.016264e+001  1.003543e+002 
3462500000  -3.973537e+001  1.008687e+002 
3465625000  -3.985416e+001  9.503233e+001 
3468750000  -4.028140e+001  9.038181e+001 
3471875000  -4.019978e+001  8.913575e+001 
3475000000  -3.952384e+001  8.413474e+001 
3478125000  -4.039085e+001  7.740076e+001 
3481250000  -4.129509e+001  7.447115e+001 
3484375000  -4.229987e+001  8.035600e+001 
3487500000  -4.140776e+001  7.783449e+001 
3490625000  -4.076738e+001  7.424349e+001 
3493750000  -4.116236e+001  6.558200e+001 
3496875000  -4.188831e+001  6.591689e+001 
3500000000  -4.272182e+001  6.926351e+001 
3503125000  -4.205260e+001  6.998215e+001 
3506250000  -4.066800e+001  6.591034e+001 
3509375000  -4.058245e+001  5.544460e+001 
3512500000  -4.114888e+001  4.772983e+001 
3515625000  -4.192244e+001  4.401507e+001 
3518750000  -4.250479e+001  4.329348e+001 
3521875000  -4.227417e+001  4.263348e+001 
3525000000  -4.357072e+001  4.114874e+001 
3528125000  -4.342412e+001  4.616291e+001 
3531250000  -4.213603e+001  4.340797e+001 
3534375000  -4.213285e+001  3.370340e+001 
3537500000  -4.234253e+001  2.974515e+001 
3540625000  -4.325227e+001  2.873506e+001 
3543750000  -4.438289e+001  3.285991e+001 
3546875000  -4.401863e+001  4.596075e+001 
3550000000  -4.170093e+001  4.419241e+001 
3553125000  -3.991450e+001  2.737410e+001 
3556250000  -4.161790e+001  2.077401e+001 
3559375000  -4.117595e+001  2.198497e+001 
3562500000  -4.019491e+001  1.290672e+001 
3565625000  -4.121210e+001  6.441238e+000 
3568750000  -4.135258e+001  7.377047e+000 
3571875000  -4.098225e+001  7.645728e+000 
3575000000  -4.071259e+001  -1.030142e+000 
3578125000  -4.140605e+001  -4.603969e+000 
3581250000  -4.160376e+001  -5.208103e+000 
3584375000  -4.066372e+001  -8.151641e+000 
3587500000  -3.977788e+001  -1.836446e+001 
3590625000  -4.035562e+001  -2.720693e+001 
3593750000  -4.200344e+001  -3.108567e+001 
3596875000  -4.152887e+001  -2.395464e+001 
3600000000  -4.008912e+001  -3.064063e+001 
3603125000  -4.070343e+001  -4.415908e+001 
3606250000  -4.179593e+001  -4.694371e+001 
3609375000  -4.195930e+001  -4.924725e+001 
3612500000  -4.285038e+001  -5.544082e+001 
3615625000  -4.252153e+001  -5.765944e+001 
3618750000  -4.340686e+001  -5.809081e+001 
3621875000  -4.385576e+001  -6.050888e+001 
3625000000  -4.412410e+001  -6.164660e+001 
3628125000  -4.423555e+001  -6.301561e+001 
3631250000  -4.429708e+001  -6.718866e+001 
3634375000  -4.545454e+001  -6.898952e+001 
3637500000  -4.586555e+001  -6.579193e+001 
3640625000  -4.464890e+001  -6.131811e+001 
3643750000  -4.429103e+001  -6.873970e+001 
3646875000  -4.511528e+001  -7.129950e+001 
3650000000  -4.576151e+001  -7.295007e+001 
3653125000  -4.537298e+001  -7.111642e+001 
3656250000  -4.610509e+001  -7.151367e+001 
3659375000  -4.600330e+001  -6.975835e+001 
3662500000  -4.461361e+001  -7.257297e+001 
3665625000  -4.458370e+001  -7.311346e+001 
3668750000  -4.389114e+001  -7.390466e+001 
3671875000  -4.266702e+001  -7.929748e+001 
3675000000  -4.296724e+001  -8.564804e+001 
3678125000  -4.327458e+001  -8.845908e+001 
3681250000  -4.317279e+001  -8.912981e+001 
3684375000  -4.297876e+001  -9.458626e+001 
3687500000  -4.308110e+001  -9.704552e+001 
3690625000  -4.294448e+001  -1.010722e+002 
3693750000  -4.401596e+001  -1.010179e+002 
3696875000  -4.350551e+001  -1.029858e+002 
3700000000  -4.304330e+001  -1.063421e+002 
3703125000  -4.272323e+001  -1.117190e+002 
3706250000  -4.408024e+001  -1.126440e+002 
3709375000  -4.327151e+001  -1.095784e+002 
3712500000  -4.239787e+001  -1.137001e+002 
3715625000  -4.160574e+001  -1.215919e+002 
3718750000  -4.125747e+001  -1.266673e+002 
3721875000  -4.125600e+001  -1.323279e+002 
3725000000  -4.137280e+001  -1.396790e+002 
3728125000  -4.189361e+001  -1.416880e+002 
3731250000  -4.176684e+001  -1.419614e+002 
3734375000  -4.144755e+001  -1.479014e+002 
3737500000  -4.189740e+001  -1.554300e+002 
3740625000  -4.294306e+001  -1.601460e+002 
3743750000  -4.316020e+001  -1.625170e+002 
3746875000  -4.355355e+001  -1.668451e+002 
3750000000  -4.416954e+001  -1.654923e+002 
3753125000  -4.399674e+001  -1.675377e+002 
3756250000  -4.479913e+001  -1.636540e+002 
3759375000  -4.468915e+001  -1.662484e+002 
3762500000  -4.401278e+001  -1.701380e+002 
3765625000  -4.457274e+001  -1.686742e+002 
3768750000  -4.476951e+001  -1.636975e+002 
3771875000  -4.287953e+001  -1.676706e+002 
3775000000  -4.298034e+001  -1.743691e+002 
3778125000  -4.336397e+001  -1.757714e+002 
3781250000  -4.289788e+001  -1.758219e+002 
3784375000  -4.279250e+001  -1.764436e+002 
3787500000  -4.210836e+001  1.783017e+002 
3790625000  -4.236596e+001  1.738137e+002 
3793750000  -4.267033e+001  1.738746e+002 
3796875000  -4.102232e+001  1.725599e+002 
3800000000  -3.981453e+001  1.685184e+002 
3803125000  -4.017543e+001  1.597032e+002 
3806250000  -4.075126e+001  1.586153e+002 
3809375000  -4.044629e+001  1.540300e+002 
3812500000  -3.975392e+001  1.478148e+002 
3815625000  -4.033562e+001  1.389745e+002 
3818750000  -4.131298e+001  1.367005e+002 
3821875000  -4.147078e+001  1.462201e+002 
3825000000  -3.975153e+001  1.446432e+002 
3828125000  -3.826833e+001  1.311342e+002 
3831250000  -3.845413e+001  1.160806e+002 
3834375000  -4.013662e+001  1.157973e+002 
3837500000  -4.132088e+001  1.189936e+002 
3840625000  -3.976919e+001  1.176123e+002 
3843750000  -3.886409e+001  1.048734e+002 
3846875000  -3.954172e+001  9.741460e+001 
3850000000  -4.099213e+001  1.029013e+002 
3853125000  -4.039838e+001  1.043885e+002 
3856250000  -4.021371e+001  1.001662e+002 
3859375000  -3.956158e+001  9.374705e+001 
3862500000  -3.934591e+001  8.406364e+001 
3865625000  -3.965071e+001  8.110384e+001 
3868750000  -3.964367e+001  7.985883e+001 
3871875000  -3.918305e+001  7.622458e+001 
3875000000  -3.926006e+001  6.642363e+001 
3878125000  -4.064514e+001  6.504389e+001 
3881250000  -4.050543e+001  6.717751e+001 
3884375000  -4.013089e+001  6.145744e+001 
3887500000  -4.015989e+001  5.770627e+001 
3890625000  -4.065250e+001  5.572966e+001 
3893750000  -4.101041e+001  5.281385e+001 
3896875000  -4.173350e+001  5.530770e+001 
3900000000  -4.157321e+001  5.081176e+001 
3903125000  -4.106883e+001  5.102553e+001 
3906250000  -4.070458e+001  4.959137e+001 
3909375000  -3.989243e+001  4.468766e+001 
3912500000  -3.996442e+001  3.709563e+001 
3915625000  -4.144837e+001  3.778321e+001 
3918750000  -4.120860e+001  3.894265e+001 
3921875000  -4.093043e+001  3.566249e+001 
3925000000  -3.953653e+001  3.273960e+001 
3928125000  -3.891080e+001  2.736651e+001 
3931250000  -3.954900e+001  2.136751e+001 
3934375000  -3.957967e+001  2.149601e+001 
3937500000  -4.036134e+001  1.879244e+001 
3940625000  -4.018927e+001  1.823908e+001 
3943750000  -3.928778e+001  1.765402e+001 
3946875000  -3.803879e+001  1.201011e+001 
3950000000  -3.918486e+001  2.893070e+000 
3953125000  -4.005008e+001  2.386746e+000 
3956250000  -3.875455e+001  3.626193e+000 
3959375000  -3.796914e+001  2.357656e-001 
3962500000  -3.735985e+001  -5.137803e+000 
3965625000  -3.701550e+001  -1.610169e+001 
3968750000  -3.814666e+001  -2.304850e+001 
3971875000  -3.849174e+001  -2.583178e+001 
3975000000  -3.773578e+001  -2.772454e+001 
3978125000  -3.778185e+001  -3.143120e+001 
3981250000  -3.770541e+001  -3.656374e+001 
3984375000  -3.804746e+001  -4.253014e+001 
3987500000  -3.850268e+001  -4.511161e+001 
3990625000  -3.851154e+001  -4.708808e+001 
3993750000  -3.881162e+001  -5.206160e+001 
3996875000  -3.902588e+001  -5.524218e+001 
4000000000  -3.933091e+001  -5.641413e+001 
4003125000  -3.996513e+001  -5.386812e+001 
4006250000  -3.817041e+001  -5.698445e+001 
4009375000  -3.719933e+001  -6.796395e+001 
4012500000  -3.840204e+001  -7.562855e+001 
4015625000  -4.004352e+001  -7.659991e+001 
4018750000  -4.015963e+001  -7.424837e+001 
4021875000  -3.910741e+001  -7.505836e+001 
4025000000  -3.895808e+001  -8.224567e+001 
4028125000  -3.868843e+001  -8.503027e+001 
4031250000  -3.938984e+001  -9.021836e+001 
4034375000  -3.975014e+001  -9.004873e+001 
4037500000  -3.930635e+001  -8.732635e+001 
4040625000  -3.887918e+001  -9.218150e+001 
4043750000  -3.948362e+001  -9.306178e+001 
4046875000  -3.876178e+001  -9.350146e+001 
4050000000  -3.847403e+001  -1.002036e+002 
4053125000  -3.893638e+001  -1.027461e+002 
4056250000  -3.946376e+001  -9.913147e+001 
4059375000  -3.818785e+001  -9.803745e+001 
4062500000  -3.668087e+001  -1.025393e+002 
4065625000  -3.668217e+001  -1.089005e+002 
4068750000  -3.633775e+001  -1.157241e+002 
4071875000  -3.571781e+001  -1.242121e+002 
4075000000  -3.614114e+001  -1.321347e+002 
4078125000  -3.659908e+001  -1.333368e+002 
4081250000  -3.594116e+001  -1.363620e+002 
4084375000  -3.578114e+001  -1.445888e+002 
4087500000  -3.610785e+001  -1.514814e+002 
4090625000  -3.666639e+001  -1.538266e+002 
4093750000  -3.651879e+001  -1.551577e+002 
4096875000  -3.618872e+001  -1.608155e+002 
4100000000  -3.686610e+001  -1.683582e+002 
4103125000  -3.760786e+001  -1.674203e+002 
4106250000  -3.751212e+001  -1.646775e+002 
4109375000  -3.662642e+001  -1.660916e+002 
4112500000  -3.610300e+001  -1.742384e+002 
4115625000  -3.664304e+001  -1.796996e+002 
4118750000  -3.682967e+001  1.764892e+002 
4121875000  -3.629736e+001  1.715528e+002 
4125000000  -3.687946e+001  1.665216e+002 
4128125000  -3.796426e+001  1.657988e+002 
4131250000  -3.747906e+001  1.723828e+002 
4134375000  -3.543565e+001  1.664185e+002 
4137500000  -3.535651e+001  1.468536e+002 
4140625000  -3.746502e+001  1.395249e+002 
4143750000  -3.859473e+001  1.437114e+002 
4146875000  -3.850511e+001  1.514137e+002 
4150000000  -3.753757e+001  1.471561e+002 
4153125000  -3.745730e+001  1.387099e+002 
4156250000  -3.851538e+001  1.359892e+002 
4159375000  -3.879191e+001  1.425885e+002 
4162500000  -3.760789e+001  1.437496e+002 
4165625000  -3.653734e+001  1.389868e+002 
4168750000  -3.567048e+001  1.323610e+002 
4171875000  -3.581775e+001  1.223295e+002 
4175000000  -3.667958e+001  1.167250e+002 
4178125000  -3.722226e+001  1.172489e+002 
4181250000  -3.690868e+001  1.146263e+002 
4184375000  -3.688682e+001  1.124451e+002 
4187500000  -3.683464e+001  1.090098e+002 
4190625000  -3.666968e+001  1.015721e+002 
4193750000  -3.738780e+001  9.894899e+001 
4196875000  -3.821450e+001  9.804646e+001 
4200000000  -3.891704e+001  1.020865e+002 
4203125000  -3.870123e+001  1.131750e+002 
4206250000  -3.505433e+001  1.128417e+002 
4209375000  -3.430979e+001  9.077586e+001 
4212500000  -3.607516e+001  8.185345e+001 
4215625000  -3.729250e+001  8.710703e+001 
4218750000  -3.565039e+001  9.356651e+001 
4221875000  -3.329545e+001  8.219697e+001 
4225000000  -3.445526e+001  7.002905e+001 
4228125000  -3.514959e+001  7.292153e+001 
4231250000  -3.363853e+001  6.930674e+001 
4234375000  -3.349187e+001  5.843771e+001 
4237500000  -3.292641e+001  5.447562e+001 
4240625000  -3.321290e+001  4.525491e+001 
4243750000  -3.403857e+001  3.730091e+001 
4246875000  -3.505922e+001  3.555278e+001 
4250000000  -3.513255e+001  3.775126e+001 
4253125000  -3.460229e+001  3.407327e+001 
4256250000  -3.491726e+001  2.854531e+001 
4259375000  -3.469653e+001  2.627094e+001 
4262500000  -3.476983e+001  2.149861e+001 
4265625000  -3.489977e+001  2.034531e+001 
4268750000  -3.405547e+001  1.489285e+001 
4271875000  -3.396215e+001  7.758750e+000 
4275000000  -3.341242e+001  -9.141145e-002 
4278125000  -3.444980e+001  -1.149463e+001 
4281250000  -3.622342e+001  -1.329805e+001 
4284375000  -3.604563e+001  -1.355541e+001 
4287500000  -3.690319e+001  -1.785397e+001 
4290625000  -3.816335e+001  -7.284248e+000 
4293750000  -3.617955e+001  -1.901951e+000 
4296875000  -3.502342e+001  -1.609440e+001 
4300000000  -3.597627e+001  -2.535648e+001 
4303125000  -3.700217e+001  -2.275998e+001 
4306250000  -3.667150e+001  -1.692370e+001 
4309375000  -3.500713e+001  -1.848204e+001 
4312500000  -3.518657e+001  -2.864802e+001 
4315625000  -3.525570e+001  -3.311534e+001 
4318750000  -3.560566e+001  -3.645430e+001 
4321875000  -3.567887e+001  -3.639895e+001 
4325000000  -3.518074e+001  -3.594149e+001 
4328125000  -3.434784e+001  -4.291238e+001 
4331250000  -3.418250e+001  -5.031675e+001 
4334375000  -3.473446e+001  -5.720683e+001 
4337500000  -3.535809e+001  -5.936437e+001 
4340625000  -3.592145e+001  -5.459931e+001 
4343750000  -3.499201e+001  -5.583040e+001 
4346875000  -3.442330e+001  -6.338512e+001 
4350000000  -3.450536e+001  -6.863843e+001 
4353125000  -3.461854e+001  -7.674648e+001 
4356250000  -3.626424e+001  -7.785895e+001 
4359375000  -3.654661e+001  -6.534894e+001 
4362500000  -3.367862e+001  -6.503278e+001 
4365625000  -3.206962e+001  -7.967015e+001 
4368750000  -3.286480e+001  -9.359982e+001 
4371875000  -3.404601e+001  -9.173203e+001 
4375000000  -3.358459e+001  -9.301453e+001 
4378125000  -3.280916e+001  -1.009943e+002 
4381250000  -3.309704e+001  -1.080579e+002 
4384375000  -3.284702e+001  -1.136683e+002 
4387500000  -3.361884e+001  -1.205693e+002 
4390625000  -3.456311e+001  -1.207385e+002 
4393750000  -3.393540e+001  -1.197167e+002 
4396875000  -3.324945e+001  -1.229793e+002 
4400000000  -3.281450e+001  -1.316790e+002 
4403125000  -3.372956e+001  -1.404618e+002 
4406250000  -3.443034e+001  -1.431841e+002 
4409375000  -3.458778e+001  -1.463794e+002 
4412500000  -3.582771e+001  -1.506789e+002 
4415625000  -3.619289e+001  -1.454720e+002 
