!Agilent Technologies,E8363B,MY43030201,A.06.04.32
!Agilent E8363B: A.06.04.32
!Date: Tuesday, November 11, 2014 21:05:42
!Correction: S21(Response(S21)) 
!S1P File: Measurement: S21:
# Hz S  dB   R 50
3000000000  -3.639669e+001  -4.927702e+001 
3003125000  -3.762978e+001  -5.506812e+001 
3006250000  -3.736623e+001  -5.769395e+001 
3009375000  -3.784171e+001  -5.338879e+001 
3012500000  -3.705791e+001  -5.482119e+001 
3015625000  -3.611050e+001  -6.269033e+001 
3018750000  -3.689495e+001  -6.344278e+001 
3021875000  -3.529257e+001  -6.248632e+001 
3025000000  -3.411449e+001  -6.623226e+001 
3028125000  -3.316334e+001  -7.271955e+001 
3031250000  -3.218509e+001  -8.397585e+001 
3034375000  -3.181373e+001  -9.719569e+001 
3037500000  -3.223700e+001  -1.096516e+002 
3040625000  -3.359256e+001  -1.142945e+002 
3043750000  -3.423815e+001  -1.191272e+002 
3046875000  -3.441562e+001  -1.252784e+002 
3050000000  -3.618295e+001  -1.318412e+002 
3053125000  -3.609501e+001  -1.254959e+002 
3056250000  -3.558434e+001  -1.226029e+002 
3059375000  -3.560541e+001  -1.224025e+002 
3062500000  -3.415744e+001  -1.265721e+002 
3065625000  -3.391161e+001  -1.329423e+002 
3068750000  -3.350544e+001  -1.394769e+002 
3071875000  -3.356075e+001  -1.420595e+002 
3075000000  -3.338929e+001  -1.454912e+002 
3078125000  -3.296035e+001  -1.498529e+002 
3081250000  -3.355388e+001  -1.543158e+002 
3084375000  -3.268929e+001  -1.576548e+002 
3087500000  -3.239412e+001  -1.613841e+002 
3090625000  -3.195547e+001  -1.721532e+002 
3093750000  -3.240065e+001  -1.796567e+002 
3096875000  -3.349620e+001  1.745536e+002 
3100000000  -3.333844e+001  1.726827e+002 
3103125000  -3.360011e+001  1.734336e+002 
3106250000  -3.319410e+001  1.694393e+002 
3109375000  -3.327773e+001  1.651997e+002 
3112500000  -3.319353e+001  1.635034e+002 
3115625000  -3.286111e+001  1.579674e+002 
3118750000  -3.316363e+001  1.582799e+002 
3121875000  -3.230539e+001  1.490230e+002 
3125000000  -3.348592e+001  1.446163e+002 
3128125000  -3.448161e+001  1.513294e+002 
3131250000  -3.213025e+001  1.507208e+002 
3134375000  -3.071504e+001  1.348796e+002 
3137500000  -3.128904e+001  1.204614e+002 
3140625000  -3.282430e+001  1.172841e+002 
3143750000  -3.378644e+001  1.196851e+002 
3146875000  -3.335144e+001  1.202796e+002 
3150000000  -3.239999e+001  1.201423e+002 
3153125000  -3.232276e+001  1.109431e+002 
3156250000  -3.329602e+001  1.164984e+002 
3159375000  -3.166488e+001  1.170766e+002 
3162500000  -2.974244e+001  1.028841e+002 
3165625000  -3.071216e+001  9.082212e+001 
3168750000  -3.105704e+001  9.053706e+001 
3171875000  -3.018338e+001  8.520095e+001 
3175000000  -3.093307e+001  7.618865e+001 
3178125000  -3.067479e+001  7.747842e+001 
3181250000  -2.959868e+001  7.162622e+001 
3184375000  -2.891142e+001  5.876076e+001 
3187500000  -3.013263e+001  4.345245e+001 
3190625000  -3.274774e+001  3.578955e+001 
3193750000  -3.330877e+001  4.465749e+001 
3196875000  -3.301676e+001  4.923710e+001 
3200000000  -3.205310e+001  4.618921e+001 
3203125000  -3.134387e+001  4.003306e+001 
3206250000  -3.162240e+001  3.282276e+001 
3209375000  -3.114578e+001  2.693493e+001 
3212500000  -3.134492e+001  2.032267e+001 
3215625000  -3.145542e+001  1.647268e+001 
3218750000  -3.218541e+001  8.868735e+000 
3221875000  -3.299757e+001  3.721869e+000 
3225000000  -3.266150e+001  2.874375e+000 
3228125000  -3.303629e+001  -2.504112e+000 
3231250000  -3.364136e+001  -5.421851e+000 
3234375000  -3.344484e+001  -4.854151e+000 
3237500000  -3.341259e+001  -6.902171e+000 
3240625000  -3.298436e+001  -9.559258e+000 
3243750000  -3.257119e+001  -1.698879e+001 
3246875000  -3.301666e+001  -2.416857e+001 
3250000000  -3.344833e+001  -2.683460e+001 
3253125000  -3.360014e+001  -2.826599e+001 
3256250000  -3.316975e+001  -3.603617e+001 
3259375000  -3.346298e+001  -4.415558e+001 
3262500000  -3.460262e+001  -4.825846e+001 
3265625000  -3.528892e+001  -4.494318e+001 
3268750000  -3.502956e+001  -4.318832e+001 
3271875000  -3.477284e+001  -4.318417e+001 
3275000000  -3.375050e+001  -4.981541e+001 
3278125000  -3.419474e+001  -5.653425e+001 
3281250000  -3.431848e+001  -5.537214e+001 
3284375000  -3.387055e+001  -6.243690e+001 
3287500000  -3.401698e+001  -6.616493e+001 
3290625000  -3.439897e+001  -7.150900e+001 
3293750000  -3.417654e+001  -7.838314e+001 
3296875000  -3.510294e+001  -7.866440e+001 
3300000000  -3.489790e+001  -7.814204e+001 
3303125000  -3.360737e+001  -8.297187e+001 
3306250000  -3.349305e+001  -8.996287e+001 
3309375000  -3.328997e+001  -9.663720e+001 
3312500000  -3.333421e+001  -1.077481e+002 
3315625000  -3.433213e+001  -1.157320e+002 
3318750000  -3.575368e+001  -1.184692e+002 
3321875000  -3.676383e+001  -1.179853e+002 
3325000000  -3.718793e+001  -1.131747e+002 
3328125000  -3.692818e+001  -1.144545e+002 
3331250000  -3.572147e+001  -1.068763e+002 
3334375000  -3.296864e+001  -1.171464e+002 
3337500000  -3.311838e+001  -1.358799e+002 
3340625000  -3.447587e+001  -1.465634e+002 
3343750000  -3.647359e+001  -1.486316e+002 
3346875000  -3.663738e+001  -1.470406e+002 
3350000000  -3.596786e+001  -1.486366e+002 
3353125000  -3.606038e+001  -1.533831e+002 
3356250000  -3.561494e+001  -1.616053e+002 
3359375000  -3.642522e+001  -1.695866e+002 
3362500000  -3.751407e+001  -1.752187e+002 
3365625000  -3.801044e+001  -1.766346e+002 
3368750000  -3.874770e+001  -1.794106e+002 
3371875000  -3.896038e+001  1.778825e+002 
3375000000  -4.038554e+001  1.756286e+002 
3378125000  -4.147512e+001  1.750107e+002 
3381250000  -4.261573e+001  -1.758200e+002 
3384375000  -4.117754e+001  -1.555439e+002 
3387500000  -3.753014e+001  -1.704772e+002 
3390625000  -3.931525e+001  1.694676e+002 
3393750000  -4.051233e+001  1.735282e+002 
3396875000  -3.920612e+001  1.748888e+002 
3400000000  -3.856799e+001  1.669449e+002 
3403125000  -3.926059e+001  1.611380e+002 
3406250000  -3.966946e+001  1.612050e+002 
3409375000  -3.987032e+001  1.539294e+002 
3412500000  -4.036604e+001  1.502809e+002 
3415625000  -4.109168e+001  1.521728e+002 
3418750000  -4.100755e+001  1.528745e+002 
3421875000  -4.127838e+001  1.559003e+002 
3425000000  -4.033504e+001  1.564466e+002 
3428125000  -3.939768e+001  1.509769e+002 
3431250000  -3.929215e+001  1.452601e+002 
3434375000  -3.926888e+001  1.390959e+002 
3437500000  -3.976619e+001  1.344175e+002 
3440625000  -4.004907e+001  1.363143e+002 
3443750000  -3.883704e+001  1.379740e+002 
3446875000  -3.803159e+001  1.294586e+002 
3450000000  -3.757578e+001  1.196054e+002 
3453125000  -3.793572e+001  1.092051e+002 
3456250000  -3.914489e+001  1.028823e+002 
3459375000  -4.003344e+001  1.034976e+002 
3462500000  -3.991806e+001  1.030721e+002 
3465625000  -3.987082e+001  9.698037e+001 
3468750000  -4.021238e+001  9.334624e+001 
3471875000  -4.002625e+001  9.195898e+001 
3475000000  -3.954250e+001  8.910510e+001 
3478125000  -4.031624e+001  8.109881e+001 
3481250000  -4.128160e+001  7.660335e+001 
3484375000  -4.221007e+001  8.222242e+001 
3487500000  -4.143253e+001  8.071436e+001 
3490625000  -4.089726e+001  7.683678e+001 
3493750000  -4.125132e+001  7.151924e+001 
3496875000  -4.214877e+001  6.853167e+001 
3500000000  -4.232567e+001  7.113392e+001 
3503125000  -4.219630e+001  7.361331e+001 
3506250000  -4.050250e+001  6.870225e+001 
3509375000  -4.064858e+001  6.001148e+001 
3512500000  -4.125128e+001  5.089399e+001 
3515625000  -4.203867e+001  4.969758e+001 
3518750000  -4.259088e+001  4.963197e+001 
3521875000  -4.268573e+001  4.681348e+001 
3525000000  -4.373482e+001  4.306876e+001 
3528125000  -4.324015e+001  4.891489e+001 
3531250000  -4.214754e+001  4.955530e+001 
3534375000  -4.185684e+001  3.669814e+001 
3537500000  -4.260292e+001  3.446492e+001 
3540625000  -4.344292e+001  3.098755e+001 
3543750000  -4.427935e+001  3.493398e+001 
3546875000  -4.386304e+001  4.680660e+001 
3550000000  -4.132132e+001  4.881868e+001 
3553125000  -4.013429e+001  2.897687e+001 
3556250000  -4.134795e+001  2.512697e+001 
3559375000  -4.152671e+001  2.512633e+001 
3562500000  -4.020945e+001  1.644842e+001 
3565625000  -4.097528e+001  7.380374e+000 
3568750000  -4.137870e+001  1.151555e+001 
3571875000  -4.111782e+001  9.561637e+000 
3575000000  -4.059008e+001  3.024791e+000 
3578125000  -4.111623e+001  -3.221526e+000 
3581250000  -4.128433e+001  -4.006777e+000 
3584375000  -4.052880e+001  -6.671095e+000 
3587500000  -4.008789e+001  -1.431461e+001 
3590625000  -4.035822e+001  -2.550359e+001 
3593750000  -4.211541e+001  -2.711450e+001 
3596875000  -4.186543e+001  -2.210232e+001 
3600000000  -4.026257e+001  -2.809449e+001 
3603125000  -4.071383e+001  -4.048351e+001 
3606250000  -4.174828e+001  -4.653066e+001 
3609375000  -4.203464e+001  -4.911663e+001 
3612500000  -4.311991e+001  -5.360323e+001 
3615625000  -4.318553e+001  -5.393773e+001 
3618750000  -4.395440e+001  -5.399355e+001 
3621875000  -4.382862e+001  -5.678056e+001 
3625000000  -4.454905e+001  -5.904492e+001 
3628125000  -4.470673e+001  -5.831490e+001 
3631250000  -4.435585e+001  -6.589973e+001 
3634375000  -4.606430e+001  -6.202402e+001 
3637500000  -4.617707e+001  -5.962343e+001 
3640625000  -4.481378e+001  -5.707762e+001 
3643750000  -4.475380e+001  -6.278250e+001 
3646875000  -4.516103e+001  -6.831263e+001 
3650000000  -4.556894e+001  -6.898853e+001 
3653125000  -4.553731e+001  -6.751219e+001 
3656250000  -4.532074e+001  -6.933142e+001 
3659375000  -4.585290e+001  -6.688940e+001 
3662500000  -4.513668e+001  -6.585268e+001 
3665625000  -4.441221e+001  -6.692425e+001 
3668750000  -4.366489e+001  -6.729931e+001 
3671875000  -4.268455e+001  -7.457388e+001 
3675000000  -4.270914e+001  -8.331846e+001 
3678125000  -4.315202e+001  -8.391547e+001 
3681250000  -4.302795e+001  -8.628930e+001 
3684375000  -4.292773e+001  -9.038984e+001 
3687500000  -4.286982e+001  -9.471040e+001 
3690625000  -4.277176e+001  -1.011938e+002 
3693750000  -4.366042e+001  -9.800269e+001 
3696875000  -4.356820e+001  -9.858168e+001 
3700000000  -4.272554e+001  -1.050670e+002 
3703125000  -4.282079e+001  -1.102307e+002 
3706250000  -4.405326e+001  -1.096460e+002 
3709375000  -4.328546e+001  -1.097489e+002 
3712500000  -4.232477e+001  -1.117318e+002 
3715625000  -4.141475e+001  -1.175543e+002 
3718750000  -4.119095e+001  -1.249229e+002 
3721875000  -4.124483e+001  -1.307590e+002 
3725000000  -4.146224e+001  -1.358812e+002 
3728125000  -4.220213e+001  -1.388357e+002 
3731250000  -4.158636e+001  -1.404986e+002 
3734375000  -4.117318e+001  -1.483619e+002 
3737500000  -4.228333e+001  -1.555654e+002 
3740625000  -4.328856e+001  -1.594784e+002 
3743750000  -4.325188e+001  -1.610658e+002 
3746875000  -4.365652e+001  -1.623908e+002 
3750000000  -4.430008e+001  -1.634645e+002 
3753125000  -4.427670e+001  -1.622868e+002 
3756250000  -4.452296e+001  -1.612124e+002 
3759375000  -4.505964e+001  -1.605258e+002 
3762500000  -4.441900e+001  -1.641874e+002 
3765625000  -4.473474e+001  -1.643232e+002 
3768750000  -4.481711e+001  -1.615558e+002 
3771875000  -4.321833e+001  -1.636042e+002 
3775000000  -4.322655e+001  -1.685736e+002 
3778125000  -4.294609e+001  -1.689376e+002 
3781250000  -4.303588e+001  -1.715897e+002 
3784375000  -4.275617e+001  -1.716443e+002 
3787500000  -4.197378e+001  -1.771082e+002 
3790625000  -4.233730e+001  1.768967e+002 
3793750000  -4.226624e+001  1.760822e+002 
3796875000  -4.125344e+001  1.770114e+002 
3800000000  -3.968448e+001  1.735858e+002 
3803125000  -4.011242e+001  1.621510e+002 
3806250000  -4.079671e+001  1.597025e+002 
3809375000  -4.049612e+001  1.583331e+002 
3812500000  -3.952729e+001  1.518894e+002 
3815625000  -4.007283e+001  1.422862e+002 
3818750000  -4.138143e+001  1.403930e+002 
3821875000  -4.119340e+001  1.515916e+002 
3825000000  -3.913474e+001  1.523770e+002 
3828125000  -3.787160e+001  1.338112e+002 
3831250000  -3.840449e+001  1.185540e+002 
3834375000  -4.024126e+001  1.183004e+002 
3837500000  -4.102061e+001  1.228734e+002 
3840625000  -4.013961e+001  1.214873e+002 
3843750000  -3.891866e+001  1.083064e+002 
3846875000  -3.946764e+001  1.013521e+002 
3850000000  -4.093149e+001  1.052409e+002 
3853125000  -4.013483e+001  1.087659e+002 
3856250000  -4.033698e+001  9.884705e+001 
3859375000  -3.957798e+001  9.492083e+001 
3862500000  -3.961880e+001  8.848601e+001 
3865625000  -4.004070e+001  8.428951e+001 
3868750000  -3.986787e+001  8.164393e+001 
3871875000  -3.918311e+001  7.802818e+001 
3875000000  -3.934007e+001  7.065112e+001 
3878125000  -4.092835e+001  6.540641e+001 
3881250000  -4.037138e+001  7.018562e+001 
3884375000  -4.015478e+001  6.568925e+001 
3887500000  -4.040495e+001  6.108969e+001 
3890625000  -4.119559e+001  5.902257e+001 
3893750000  -4.143412e+001  5.865372e+001 
3896875000  -4.170410e+001  5.847540e+001 
3900000000  -4.211438e+001  5.652418e+001 
3903125000  -4.120026e+001  5.281548e+001 
3906250000  -4.075620e+001  5.135821e+001 
3909375000  -4.016493e+001  4.782338e+001 
3912500000  -3.992715e+001  4.070946e+001 
3915625000  -4.137238e+001  4.343439e+001 
3918750000  -4.112794e+001  4.380846e+001 
3921875000  -4.081712e+001  4.104421e+001 
3925000000  -3.989389e+001  3.829139e+001 
3928125000  -3.912010e+001  3.137907e+001 
3931250000  -3.962242e+001  2.523897e+001 
3934375000  -4.002757e+001  2.527706e+001 
3937500000  -4.016432e+001  2.373445e+001 
3940625000  -4.053141e+001  2.023420e+001 
3943750000  -3.910349e+001  2.293909e+001 
3946875000  -3.804917e+001  1.673537e+001 
3950000000  -3.890443e+001  5.983428e+000 
3953125000  -4.002514e+001  4.512637e+000 
3956250000  -3.875398e+001  7.088661e+000 
3959375000  -3.759496e+001  4.524085e+000 
3962500000  -3.717256e+001  -2.407242e+000 
3965625000  -3.705914e+001  -1.322909e+001 
3968750000  -3.806119e+001  -2.011439e+001 
3971875000  -3.831347e+001  -2.207408e+001 
3975000000  -3.778489e+001  -2.406391e+001 
3978125000  -3.776748e+001  -2.706358e+001 
3981250000  -3.777892e+001  -3.240375e+001 
3984375000  -3.791224e+001  -4.017782e+001 
3987500000  -3.861829e+001  -4.120424e+001 
3990625000  -3.854261e+001  -4.279006e+001 
3993750000  -3.898169e+001  -4.847432e+001 
3996875000  -3.917034e+001  -5.227735e+001 
4000000000  -3.939974e+001  -5.324359e+001 
4003125000  -4.003524e+001  -5.077310e+001 
4006250000  -3.838960e+001  -5.189344e+001 
4009375000  -3.737586e+001  -6.572953e+001 
4012500000  -3.862781e+001  -7.272009e+001 
4015625000  -4.006138e+001  -7.248756e+001 
4018750000  -4.024701e+001  -6.995103e+001 
4021875000  -3.938884e+001  -7.181361e+001 
4025000000  -3.908726e+001  -7.633079e+001 
4028125000  -3.919705e+001  -8.143780e+001 
4031250000  -3.965665e+001  -8.656450e+001 
4034375000  -3.987857e+001  -8.706415e+001 
4037500000  -3.953135e+001  -8.364271e+001 
4040625000  -3.901120e+001  -8.747716e+001 
4043750000  -3.953818e+001  -8.871024e+001 
4046875000  -3.901898e+001  -8.782312e+001 
4050000000  -3.850225e+001  -9.526870e+001 
4053125000  -3.924015e+001  -9.776246e+001 
4056250000  -3.917367e+001  -9.362617e+001 
4059375000  -3.801336e+001  -9.366900e+001 
4062500000  -3.663567e+001  -9.981460e+001 
4065625000  -3.656565e+001  -1.034361e+002 
4068750000  -3.646469e+001  -1.107782e+002 
4071875000  -3.571125e+001  -1.199448e+002 
4075000000  -3.603746e+001  -1.259305e+002 
4078125000  -3.665709e+001  -1.280554e+002 
4081250000  -3.599197e+001  -1.316584e+002 
4084375000  -3.563042e+001  -1.392903e+002 
4087500000  -3.605377e+001  -1.465447e+002 
4090625000  -3.660065e+001  -1.485495e+002 
4093750000  -3.642253e+001  -1.492117e+002 
4096875000  -3.605818e+001  -1.554646e+002 
4100000000  -3.677739e+001  -1.634691e+002 
4103125000  -3.779808e+001  -1.627888e+002 
4106250000  -3.749051e+001  -1.604918e+002 
4109375000  -3.660452e+001  -1.617778e+002 
4112500000  -3.607073e+001  -1.697870e+002 
4115625000  -3.639550e+001  -1.744842e+002 
4118750000  -3.670372e+001  -1.780146e+002 
4121875000  -3.625616e+001  1.742911e+002 
4125000000  -3.681780e+001  1.685813e+002 
4128125000  -3.779317e+001  1.694231e+002 
4131250000  -3.757284e+001  1.774038e+002 
4134375000  -3.544897e+001  1.707482e+002 
4137500000  -3.516259e+001  1.494711e+002 
4140625000  -3.733316e+001  1.429830e+002 
4143750000  -3.887967e+001  1.482064e+002 
4146875000  -3.857563e+001  1.548286e+002 
4150000000  -3.768085e+001  1.504272e+002 
4153125000  -3.769328e+001  1.428293e+002 
4156250000  -3.853377e+001  1.402899e+002 
4159375000  -3.887566e+001  1.455549e+002 
4162500000  -3.782186e+001  1.483730e+002 
4165625000  -3.665097e+001  1.432290e+002 
4168750000  -3.611772e+001  1.364552e+002 
4171875000  -3.605616e+001  1.276838e+002 
4175000000  -3.671902e+001  1.230271e+002 
4178125000  -3.724456e+001  1.224087e+002 
4181250000  -3.699734e+001  1.205815e+002 
4184375000  -3.666323e+001  1.165580e+002 
4187500000  -3.684946e+001  1.129016e+002 
4190625000  -3.661690e+001  1.075496e+002 
4193750000  -3.749778e+001  1.043581e+002 
4196875000  -3.819173e+001  1.031018e+002 
4200000000  -3.881245e+001  1.055812e+002 
4203125000  -3.901560e+001  1.172853e+002 
4206250000  -3.519770e+001  1.179413e+002 
4209375000  -3.408659e+001  9.576850e+001 
4212500000  -3.608208e+001  8.611849e+001 
4215625000  -3.695253e+001  9.325407e+001 
4218750000  -3.546629e+001  9.659612e+001 
4221875000  -3.331825e+001  8.765009e+001 
4225000000  -3.468941e+001  7.500540e+001 
4228125000  -3.502926e+001  7.878584e+001 
4231250000  -3.348190e+001  7.383165e+001 
4234375000  -3.328010e+001  6.451354e+001 
4237500000  -3.278555e+001  5.947897e+001 
4240625000  -3.294582e+001  4.892117e+001 
4243750000  -3.393494e+001  4.200531e+001 
4246875000  -3.500877e+001  4.075138e+001 
4250000000  -3.472430e+001  4.212543e+001 
4253125000  -3.427962e+001  3.878991e+001 
4256250000  -3.490189e+001  3.446644e+001 
4259375000  -3.445702e+001  2.988052e+001 
4262500000  -3.468858e+001  2.493866e+001 
4265625000  -3.476494e+001  2.398395e+001 
4268750000  -3.403161e+001  2.028091e+001 
4271875000  -3.374855e+001  1.215415e+001 
4275000000  -3.338873e+001  4.576332e+000 
4278125000  -3.414538e+001  -6.304282e+000 
4281250000  -3.583826e+001  -8.629682e+000 
4284375000  -3.571498e+001  -9.723863e+000 
4287500000  -3.673742e+001  -1.406337e+001 
4290625000  -3.810595e+001  -3.641203e+000 
4293750000  -3.622565e+001  7.069382e-001 
4296875000  -3.497714e+001  -9.771509e+000 
4300000000  -3.598713e+001  -1.961702e+001 
4303125000  -3.736063e+001  -1.908992e+001 
4306250000  -3.658083e+001  -1.179001e+001 
4309375000  -3.529797e+001  -1.491694e+001 
4312500000  -3.505352e+001  -2.163734e+001 
4315625000  -3.507988e+001  -2.900682e+001 
4318750000  -3.565498e+001  -3.066408e+001 
4321875000  -3.568853e+001  -3.101956e+001 
4325000000  -3.507874e+001  -3.102716e+001 
4328125000  -3.440976e+001  -3.687534e+001 
4331250000  -3.413034e+001  -4.618592e+001 
4334375000  -3.456376e+001  -5.174791e+001 
4337500000  -3.522537e+001  -5.429585e+001 
4340625000  -3.571602e+001  -5.023756e+001 
4343750000  -3.481641e+001  -5.181953e+001 
4346875000  -3.444063e+001  -5.702246e+001 
4350000000  -3.418224e+001  -6.255890e+001 
4353125000  -3.450262e+001  -7.166489e+001 
4356250000  -3.600648e+001  -7.443818e+001 
4359375000  -3.608406e+001  -6.197335e+001 
4362500000  -3.350178e+001  -5.970180e+001 
4365625000  -3.192166e+001  -7.460966e+001 
4368750000  -3.266368e+001  -8.786967e+001 
4371875000  -3.373112e+001  -8.898998e+001 
4375000000  -3.334223e+001  -8.842746e+001 
4378125000  -3.268664e+001  -9.553736e+001 
4381250000  -3.284199e+001  -1.020503e+002 
4384375000  -3.269435e+001  -1.085178e+002 
4387500000  -3.343726e+001  -1.155240e+002 
4390625000  -3.438499e+001  -1.160941e+002 
4393750000  -3.378953e+001  -1.147682e+002 
4396875000  -3.294983e+001  -1.184582e+002 
4400000000  -3.255217e+001  -1.276579e+002 
4403125000  -3.335183e+001  -1.367664e+002 
4406250000  -3.425999e+001  -1.393501e+002 
4409375000  -3.428234e+001  -1.419216e+002 
4412500000  -3.556242e+001  -1.458111e+002 
4415625000  -3.590169e+001  -1.419392e+002 
