!Agilent Technologies,E8363B,MY43030201,A.06.04.32
!Agilent E8363B: A.06.04.32
!Date: Tuesday, November 11, 2014 21:03:15
!Correction: S21(Response(S21)) 
!S1P File: Measurement: S21:
# Hz S  dB   R 50
3000000000  -3.609276e+001  -4.984415e+001 
3003125000  -3.726575e+001  -5.624349e+001 
3006250000  -3.732383e+001  -5.877132e+001 
3009375000  -3.760608e+001  -5.388351e+001 
3012500000  -3.686422e+001  -5.577204e+001 
3015625000  -3.594185e+001  -6.264256e+001 
3018750000  -3.665716e+001  -6.342104e+001 
3021875000  -3.540205e+001  -6.312639e+001 
3025000000  -3.412237e+001  -6.652165e+001 
3028125000  -3.311146e+001  -7.226948e+001 
3031250000  -3.217451e+001  -8.358171e+001 
3034375000  -3.177275e+001  -9.724030e+001 
3037500000  -3.219183e+001  -1.095298e+002 
3040625000  -3.355905e+001  -1.139937e+002 
3043750000  -3.425111e+001  -1.183247e+002 
3046875000  -3.442462e+001  -1.240961e+002 
3050000000  -3.609237e+001  -1.313567e+002 
3053125000  -3.615787e+001  -1.248094e+002 
3056250000  -3.557211e+001  -1.219204e+002 
3059375000  -3.575207e+001  -1.221439e+002 
3062500000  -3.420797e+001  -1.249618e+002 
3065625000  -3.391293e+001  -1.306803e+002 
3068750000  -3.364949e+001  -1.375972e+002 
3071875000  -3.351474e+001  -1.408672e+002 
3075000000  -3.333604e+001  -1.439229e+002 
3078125000  -3.291924e+001  -1.484757e+002 
3081250000  -3.351868e+001  -1.528466e+002 
3084375000  -3.266607e+001  -1.560091e+002 
3087500000  -3.242282e+001  -1.603318e+002 
3090625000  -3.195491e+001  -1.698413e+002 
3093750000  -3.232830e+001  -1.776720e+002 
3096875000  -3.340355e+001  1.767235e+002 
3100000000  -3.329942e+001  1.743601e+002 
3103125000  -3.355494e+001  1.750677e+002 
3106250000  -3.306052e+001  1.705127e+002 
3109375000  -3.313476e+001  1.666402e+002 
3112500000  -3.300314e+001  1.648275e+002 
3115625000  -3.279766e+001  1.595184e+002 
3118750000  -3.305802e+001  1.595778e+002 
3121875000  -3.223550e+001  1.501155e+002 
3125000000  -3.340313e+001  1.457795e+002 
3128125000  -3.437074e+001  1.530283e+002 
3131250000  -3.200752e+001  1.512101e+002 
3134375000  -3.062529e+001  1.359622e+002 
3137500000  -3.122777e+001  1.211040e+002 
3140625000  -3.280957e+001  1.185279e+002 
3143750000  -3.373818e+001  1.205324e+002 
3146875000  -3.327968e+001  1.211141e+002 
3150000000  -3.224773e+001  1.212018e+002 
3153125000  -3.240789e+001  1.119656e+002 
3156250000  -3.336544e+001  1.163293e+002 
3159375000  -3.174245e+001  1.176380e+002 
3162500000  -2.972355e+001  1.033189e+002 
3165625000  -3.081641e+001  9.140462e+001 
3168750000  -3.112403e+001  9.122066e+001 
3171875000  -3.020108e+001  8.564870e+001 
3175000000  -3.102647e+001  7.725195e+001 
3178125000  -3.082730e+001  7.814494e+001 
3181250000  -2.971830e+001  7.262876e+001 
3184375000  -2.905231e+001  5.986345e+001 
3187500000  -3.028851e+001  4.419296e+001 
3190625000  -3.304344e+001  3.655162e+001 
3193750000  -3.362081e+001  4.545841e+001 
3196875000  -3.318761e+001  5.055727e+001 
3200000000  -3.234155e+001  4.738504e+001 
3203125000  -3.152891e+001  4.135234e+001 
3206250000  -3.185285e+001  3.459223e+001 
3209375000  -3.139712e+001  2.907008e+001 
3212500000  -3.158406e+001  2.202049e+001 
3215625000  -3.159764e+001  1.825233e+001 
3218750000  -3.245034e+001  1.085271e+001 
3221875000  -3.329124e+001  5.937402e+000 
3225000000  -3.292772e+001  4.974868e+000 
3228125000  -3.323686e+001  1.864327e-001 
3231250000  -3.398844e+001  -2.994742e+000 
3234375000  -3.364496e+001  -1.901352e+000 
3237500000  -3.368647e+001  -4.160746e+000 
3240625000  -3.316284e+001  -6.832817e+000 
3243750000  -3.272209e+001  -1.384470e+001 
3246875000  -3.321706e+001  -2.126631e+001 
3250000000  -3.352059e+001  -2.348728e+001 
3253125000  -3.372303e+001  -2.494095e+001 
3256250000  -3.325515e+001  -3.215530e+001 
3259375000  -3.357516e+001  -4.061666e+001 
3262500000  -3.469277e+001  -4.447154e+001 
3265625000  -3.528634e+001  -4.177856e+001 
3268750000  -3.509489e+001  -3.990392e+001 
3271875000  -3.480989e+001  -4.031321e+001 
3275000000  -3.384774e+001  -4.724310e+001 
3278125000  -3.423231e+001  -5.451118e+001 
3281250000  -3.434442e+001  -5.292744e+001 
3284375000  -3.387418e+001  -6.001119e+001 
3287500000  -3.409756e+001  -6.341908e+001 
3290625000  -3.438256e+001  -6.974009e+001 
3293750000  -3.413399e+001  -7.584421e+001 
3296875000  -3.508005e+001  -7.643379e+001 
3300000000  -3.488911e+001  -7.638110e+001 
3303125000  -3.376263e+001  -8.155180e+001 
3306250000  -3.359211e+001  -8.812064e+001 
3309375000  -3.326458e+001  -9.480378e+001 
3312500000  -3.334303e+001  -1.058465e+002 
3315625000  -3.438614e+001  -1.145443e+002 
3318750000  -3.572454e+001  -1.169750e+002 
3321875000  -3.696514e+001  -1.168071e+002 
3325000000  -3.759395e+001  -1.129146e+002 
3328125000  -3.728661e+001  -1.117629e+002 
3331250000  -3.601414e+001  -1.053502e+002 
3334375000  -3.322168e+001  -1.159960e+002 
3337500000  -3.331234e+001  -1.346520e+002 
3340625000  -3.469219e+001  -1.456026e+002 
3343750000  -3.668125e+001  -1.471946e+002 
3346875000  -3.697750e+001  -1.460747e+002 
3350000000  -3.637682e+001  -1.470224e+002 
3353125000  -3.640291e+001  -1.508732e+002 
3356250000  -3.592815e+001  -1.592495e+002 
3359375000  -3.675346e+001  -1.677840e+002 
3362500000  -3.802145e+001  -1.731133e+002 
3365625000  -3.858385e+001  -1.745584e+002 
3368750000  -3.918697e+001  -1.767075e+002 
3371875000  -3.947982e+001  -1.789547e+002 
3375000000  -4.083100e+001  1.791472e+002 
3378125000  -4.187128e+001  1.784882e+002 
3381250000  -4.317790e+001  -1.719101e+002 
3384375000  -4.170552e+001  -1.497621e+002 
3387500000  -3.801044e+001  -1.663563e+002 
3390625000  -3.953133e+001  1.742282e+002 
3393750000  -4.091618e+001  1.774304e+002 
3396875000  -3.961069e+001  1.780941e+002 
3400000000  -3.910849e+001  1.701291e+002 
3403125000  -3.963779e+001  1.655587e+002 
3406250000  -3.978241e+001  1.659262e+002 
3409375000  -3.993709e+001  1.576272e+002 
3412500000  -4.037495e+001  1.564272e+002 
3415625000  -4.105309e+001  1.572187e+002 
3418750000  -4.135753e+001  1.579256e+002 
3421875000  -4.138722e+001  1.603919e+002 
3425000000  -4.038020e+001  1.605322e+002 
3428125000  -3.922039e+001  1.564735e+002 
3431250000  -3.936624e+001  1.481531e+002 
3434375000  -3.921814e+001  1.426171e+002 
3437500000  -3.968424e+001  1.377140e+002 
3440625000  -4.018602e+001  1.405208e+002 
3443750000  -3.884629e+001  1.410320e+002 
3446875000  -3.797061e+001  1.322598e+002 
3450000000  -3.781055e+001  1.215564e+002 
3453125000  -3.802176e+001  1.122049e+002 
3456250000  -3.922816e+001  1.062757e+002 
3459375000  -4.043000e+001  1.065612e+002 
3462500000  -4.027036e+001  1.065053e+002 
3465625000  -4.016635e+001  1.009358e+002 
3468750000  -4.050448e+001  9.812291e+001 
3471875000  -4.053824e+001  9.588867e+001 
3475000000  -4.011226e+001  9.216747e+001 
3478125000  -4.079494e+001  8.606372e+001 
3481250000  -4.190073e+001  8.156604e+001 
3484375000  -4.283854e+001  8.747771e+001 
3487500000  -4.220942e+001  8.846948e+001 
3490625000  -4.154559e+001  8.423743e+001 
3493750000  -4.183074e+001  7.671663e+001 
3496875000  -4.243511e+001  7.477730e+001 
3500000000  -4.298662e+001  8.043610e+001 
3503125000  -4.253738e+001  8.106184e+001 
3506250000  -4.111366e+001  7.711839e+001 
3509375000  -4.072417e+001  6.870330e+001 
3512500000  -4.136545e+001  6.031536e+001 
3515625000  -4.163282e+001  5.838647e+001 
3518750000  -4.253186e+001  5.966068e+001 
3521875000  -4.213821e+001  5.772111e+001 
3525000000  -4.295959e+001  5.201183e+001 
3528125000  -4.264951e+001  6.150510e+001 
3531250000  -4.120871e+001  5.878889e+001 
3534375000  -4.120811e+001  4.660048e+001 
3537500000  -4.171963e+001  3.944529e+001 
3540625000  -4.241477e+001  3.843988e+001 
3543750000  -4.307512e+001  4.207109e+001 
3546875000  -4.315911e+001  5.108431e+001 
3550000000  -4.026253e+001  5.305894e+001 
3553125000  -3.902994e+001  3.435303e+001 
3556250000  -4.058648e+001  2.686307e+001 
3559375000  -4.056660e+001  2.727200e+001 
3562500000  -3.916091e+001  1.698925e+001 
3565625000  -4.027861e+001  9.311247e+000 
3568750000  -4.050336e+001  1.190739e+001 
3571875000  -4.031522e+001  9.725435e+000 
3575000000  -4.012421e+001  2.082394e+000 
3578125000  -4.054312e+001  -3.439118e+000 
3581250000  -4.076128e+001  -5.233285e+000 
3584375000  -4.048053e+001  -8.678553e+000 
3587500000  -3.973466e+001  -1.680182e+001 
3590625000  -4.033353e+001  -2.747641e+001 
3593750000  -4.188469e+001  -3.029535e+001 
3596875000  -4.189126e+001  -2.360139e+001 
3600000000  -4.068253e+001  -2.918410e+001 
3603125000  -4.116933e+001  -4.400509e+001 
3606250000  -4.208842e+001  -4.673503e+001 
3609375000  -4.291290e+001  -4.938317e+001 
3612500000  -4.362812e+001  -5.088212e+001 
3615625000  -4.403720e+001  -5.368975e+001 
3618750000  -4.514838e+001  -5.236564e+001 
3621875000  -4.529430e+001  -5.356156e+001 
3625000000  -4.557414e+001  -5.069496e+001 
3628125000  -4.552835e+001  -5.125788e+001 
3631250000  -4.515585e+001  -5.479034e+001 
3634375000  -4.677611e+001  -5.066720e+001 
3637500000  -4.660813e+001  -4.530314e+001 
3640625000  -4.552943e+001  -4.290084e+001 
3643750000  -4.454785e+001  -4.577026e+001 
3646875000  -4.452935e+001  -5.255183e+001 
3650000000  -4.480175e+001  -5.482584e+001 
3653125000  -4.437457e+001  -5.521693e+001 
3656250000  -4.464008e+001  -5.622738e+001 
3659375000  -4.439352e+001  -5.503484e+001 
3662500000  -4.349623e+001  -5.724844e+001 
3665625000  -4.330573e+001  -6.144132e+001 
3668750000  -4.201056e+001  -6.005355e+001 
3671875000  -4.077252e+001  -6.890945e+001 
3675000000  -4.141678e+001  -7.855962e+001 
3678125000  -4.146926e+001  -8.149979e+001 
3681250000  -4.109210e+001  -8.512302e+001 
3684375000  -4.149963e+001  -9.094398e+001 
3687500000  -4.137799e+001  -9.482339e+001 
3690625000  -4.166998e+001  -9.955056e+001 
3693750000  -4.259994e+001  -1.011488e+002 
3696875000  -4.259434e+001  -1.008612e+002 
3700000000  -4.156887e+001  -1.067172e+002 
3703125000  -4.178001e+001  -1.122540e+002 
3706250000  -4.285940e+001  -1.129642e+002 
3709375000  -4.258791e+001  -1.122464e+002 
3712500000  -4.134235e+001  -1.170987e+002 
3715625000  -4.138576e+001  -1.237394e+002 
3718750000  -4.124879e+001  -1.296147e+002 
3721875000  -4.092748e+001  -1.352297e+002 
3725000000  -4.169021e+001  -1.415059e+002 
3728125000  -4.234459e+001  -1.413790e+002 
3731250000  -4.214893e+001  -1.436863e+002 
3734375000  -4.187553e+001  -1.486732e+002 
3737500000  -4.286749e+001  -1.574407e+002 
3740625000  -4.404769e+001  -1.596473e+002 
3743750000  -4.434836e+001  -1.614122e+002 
3746875000  -4.452428e+001  -1.592916e+002 
3750000000  -4.526427e+001  -1.595031e+002 
3753125000  -4.517861e+001  -1.601488e+002 
3756250000  -4.584130e+001  -1.577516e+002 
3759375000  -4.550785e+001  -1.539601e+002 
3762500000  -4.536683e+001  -1.578436e+002 
3765625000  -4.533572e+001  -1.550761e+002 
3768750000  -4.458696e+001  -1.505180e+002 
3771875000  -4.302768e+001  -1.550989e+002 
3775000000  -4.289258e+001  -1.611681e+002 
3778125000  -4.298391e+001  -1.616737e+002 
3781250000  -4.250385e+001  -1.637164e+002 
3784375000  -4.202154e+001  -1.675699e+002 
3787500000  -4.099193e+001  -1.692595e+002 
3790625000  -4.130965e+001  -1.767545e+002 
3793750000  -4.146838e+001  -1.791222e+002 
3796875000  -4.019174e+001  1.785916e+002 
3800000000  -3.879636e+001  1.768657e+002 
3803125000  -3.935509e+001  1.641039e+002 
3806250000  -4.029393e+001  1.619883e+002 
3809375000  -3.975821e+001  1.601095e+002 
3812500000  -3.922478e+001  1.524578e+002 
3815625000  -3.947743e+001  1.429032e+002 
3818750000  -4.086651e+001  1.413840e+002 
3821875000  -4.051651e+001  1.484997e+002 
3825000000  -3.892439e+001  1.506391e+002 
3828125000  -3.740894e+001  1.340915e+002 
3831250000  -3.816849e+001  1.173362e+002 
3834375000  -3.973256e+001  1.180335e+002 
3837500000  -4.066271e+001  1.229141e+002 
3840625000  -3.961523e+001  1.190369e+002 
3843750000  -3.869051e+001  1.084073e+002 
3846875000  -3.962985e+001  1.008594e+002 
3850000000  -4.098128e+001  1.022203e+002 
3853125000  -4.034378e+001  1.060217e+002 
3856250000  -4.049645e+001  9.876531e+001 
3859375000  -4.000539e+001  9.662595e+001 
3862500000  -3.983992e+001  8.602738e+001 
3865625000  -4.043890e+001  8.246651e+001 
3868750000  -4.044245e+001  8.131859e+001 
3871875000  -3.951069e+001  7.782806e+001 
3875000000  -4.001602e+001  7.057194e+001 
3878125000  -4.104477e+001  6.850209e+001 
3881250000  -4.150409e+001  6.983430e+001 
3884375000  -4.108810e+001  6.730790e+001 
3887500000  -4.104464e+001  6.554218e+001 
3890625000  -4.165891e+001  6.023716e+001 
3893750000  -4.191891e+001  5.994882e+001 
3896875000  -4.224967e+001  6.448396e+001 
3900000000  -4.226018e+001  6.396700e+001 
3903125000  -4.161589e+001  5.980330e+001 
3906250000  -4.114706e+001  5.890097e+001 
3909375000  -4.039000e+001  5.450289e+001 
3912500000  -4.036475e+001  4.687954e+001 
3915625000  -4.160773e+001  4.920626e+001 
3918750000  -4.109184e+001  4.897018e+001 
3921875000  -4.068607e+001  4.835894e+001 
3925000000  -3.949075e+001  4.299454e+001 
3928125000  -3.909874e+001  3.752212e+001 
3931250000  -3.922792e+001  3.238240e+001 
3934375000  -3.922226e+001  3.099757e+001 
3937500000  -3.961510e+001  2.789380e+001 
3940625000  -4.005333e+001  2.655005e+001 
3943750000  -3.892442e+001  2.521722e+001 
3946875000  -3.757893e+001  1.983053e+001 
3950000000  -3.845047e+001  9.239368e+000 
3953125000  -3.938755e+001  8.312435e+000 
3956250000  -3.845879e+001  1.020415e+001 
3959375000  -3.724046e+001  4.543729e+000 
3962500000  -3.661277e+001  7.656197e-001 
3965625000  -3.639886e+001  -1.143635e+001 
3968750000  -3.759626e+001  -1.886812e+001 
3971875000  -3.797732e+001  -2.124884e+001 
3975000000  -3.737925e+001  -2.411343e+001 
3978125000  -3.737092e+001  -2.824514e+001 
3981250000  -3.733477e+001  -3.348273e+001 
3984375000  -3.776505e+001  -3.964420e+001 
3987500000  -3.835191e+001  -4.415195e+001 
3990625000  -3.856555e+001  -4.701953e+001 
3993750000  -3.883385e+001  -5.064008e+001 
3996875000  -3.926659e+001  -5.474142e+001 
4000000000  -3.972289e+001  -5.586753e+001 
4003125000  -4.038358e+001  -5.464081e+001 
4006250000  -3.908246e+001  -5.382302e+001 
4009375000  -3.810312e+001  -6.714005e+001 
4012500000  -3.945208e+001  -7.362620e+001 
4015625000  -4.081301e+001  -7.250809e+001 
4018750000  -4.102595e+001  -6.954404e+001 
4021875000  -4.050055e+001  -7.140197e+001 
4025000000  -4.009910e+001  -7.450426e+001 
4028125000  -4.058096e+001  -7.730151e+001 
4031250000  -4.074807e+001  -8.027068e+001 
4034375000  -4.092448e+001  -7.876717e+001 
4037500000  -4.027121e+001  -7.731739e+001 
4040625000  -3.989467e+001  -7.835777e+001 
4043750000  -4.011256e+001  -8.137936e+001 
4046875000  -3.967883e+001  -7.979415e+001 
4050000000  -3.902776e+001  -8.717599e+001 
4053125000  -3.923020e+001  -8.807444e+001 
4056250000  -3.950898e+001  -8.538510e+001 
4059375000  -3.821819e+001  -8.402280e+001 
4062500000  -3.667688e+001  -9.023019e+001 
4065625000  -3.651059e+001  -9.565767e+001 
4068750000  -3.623649e+001  -1.017116e+002 
4071875000  -3.533044e+001  -1.112875e+002 
4075000000  -3.559874e+001  -1.169922e+002 
4078125000  -3.620899e+001  -1.214990e+002 
4081250000  -3.538719e+001  -1.252852e+002 
4084375000  -3.497012e+001  -1.329635e+002 
4087500000  -3.548044e+001  -1.404241e+002 
4090625000  -3.598699e+001  -1.427413e+002 
4093750000  -3.582667e+001  -1.453837e+002 
4096875000  -3.529101e+001  -1.523211e+002 
4100000000  -3.619162e+001  -1.611864e+002 
4103125000  -3.729536e+001  -1.616356e+002 
4106250000  -3.702836e+001  -1.564323e+002 
4109375000  -3.600601e+001  -1.594276e+002 
4112500000  -3.566328e+001  -1.684770e+002 
4115625000  -3.597425e+001  -1.732433e+002 
4118750000  -3.623856e+001  -1.789088e+002 
4121875000  -3.603060e+001  1.757902e+002 
4125000000  -3.642926e+001  1.693285e+002 
4128125000  -3.747158e+001  1.689958e+002 
4131250000  -3.745834e+001  1.753444e+002 
4134375000  -3.522990e+001  1.705049e+002 
4137500000  -3.540102e+001  1.509064e+002 
4140625000  -3.770808e+001  1.433654e+002 
4143750000  -3.902095e+001  1.472695e+002 
4146875000  -3.890555e+001  1.542644e+002 
4150000000  -3.812697e+001  1.501095e+002 
4153125000  -3.809168e+001  1.459189e+002 
4156250000  -3.932972e+001  1.419671e+002 
4159375000  -3.954327e+001  1.465726e+002 
4162500000  -3.863270e+001  1.543572e+002 
4165625000  -3.746972e+001  1.488412e+002 
4168750000  -3.700285e+001  1.424405e+002 
4171875000  -3.679564e+001  1.337423e+002 
4175000000  -3.737342e+001  1.278015e+002 
4178125000  -3.784042e+001  1.278390e+002 
4181250000  -3.750390e+001  1.300536e+002 
4184375000  -3.722883e+001  1.250528e+002 
4187500000  -3.714082e+001  1.228171e+002 
4190625000  -3.685994e+001  1.178773e+002 
4193750000  -3.757719e+001  1.138677e+002 
4196875000  -3.817848e+001  1.117514e+002 
4200000000  -3.875764e+001  1.151086e+002 
4203125000  -3.847252e+001  1.259080e+002 
4206250000  -3.489220e+001  1.279995e+002 
4209375000  -3.384946e+001  1.042276e+002 
4212500000  -3.562684e+001  9.458253e+001 
4215625000  -3.665154e+001  1.002617e+002 
4218750000  -3.499528e+001  1.059527e+002 
4221875000  -3.253814e+001  9.506460e+001 
4225000000  -3.370532e+001  8.073042e+001 
4228125000  -3.436448e+001  8.477065e+001 
4231250000  -3.268084e+001  7.925182e+001 
4234375000  -3.257150e+001  6.969867e+001 
4237500000  -3.217443e+001  6.394088e+001 
4240625000  -3.219682e+001  5.355514e+001 
4243750000  -3.317964e+001  4.452343e+001 
4246875000  -3.407387e+001  4.417213e+001 
4250000000  -3.401968e+001  4.517239e+001 
4253125000  -3.362926e+001  4.113254e+001 
4256250000  -3.409112e+001  3.526829e+001 
4259375000  -3.388885e+001  3.295617e+001 
4262500000  -3.400160e+001  2.639428e+001 
4265625000  -3.427944e+001  2.536660e+001 
4268750000  -3.327668e+001  1.934527e+001 
4271875000  -3.318572e+001  1.227215e+001 
4275000000  -3.306265e+001  5.678647e+000 
4278125000  -3.366912e+001  -7.361700e+000 
4281250000  -3.589213e+001  -9.518540e+000 
4284375000  -3.563212e+001  -1.007017e+001 
4287500000  -3.683728e+001  -1.501837e+001 
4290625000  -3.830162e+001  -5.315847e+000 
4293750000  -3.628909e+001  -2.944906e-001 
4296875000  -3.531993e+001  -1.096590e+001 
4300000000  -3.629635e+001  -1.966530e+001 
4303125000  -3.738059e+001  -1.698743e+001 
4306250000  -3.708723e+001  -1.047056e+001 
4309375000  -3.588176e+001  -1.197758e+001 
4312500000  -3.566103e+001  -1.930092e+001 
4315625000  -3.591384e+001  -2.418066e+001 
4318750000  -3.611816e+001  -2.639251e+001 
4321875000  -3.618173e+001  -2.419048e+001 
4325000000  -3.531873e+001  -2.502087e+001 
4328125000  -3.488275e+001  -3.135840e+001 
4331250000  -3.443606e+001  -3.825349e+001 
4334375000  -3.476156e+001  -4.432849e+001 
4337500000  -3.545446e+001  -4.532253e+001 
4340625000  -3.568872e+001  -4.205447e+001 
4343750000  -3.482782e+001  -4.423169e+001 
4346875000  -3.430228e+001  -4.854015e+001 
4350000000  -3.408087e+001  -5.534851e+001 
4353125000  -3.386103e+001  -6.346936e+001 
4356250000  -3.571243e+001  -6.573162e+001 
4359375000  -3.562346e+001  -5.336427e+001 
4362500000  -3.280942e+001  -5.446138e+001 
4365625000  -3.122464e+001  -6.813598e+001 
4368750000  -3.206110e+001  -8.134708e+001 
4371875000  -3.307030e+001  -8.128250e+001 
4375000000  -3.233356e+001  -8.160847e+001 
4378125000  -3.169659e+001  -9.043927e+001 
4381250000  -3.191765e+001  -9.688739e+001 
4384375000  -3.165956e+001  -1.040821e+002 
4387500000  -3.246059e+001  -1.117627e+002 
4390625000  -3.322776e+001  -1.133533e+002 
4393750000  -3.280405e+001  -1.118867e+002 
4396875000  -3.219582e+001  -1.158891e+002 
4400000000  -3.174954e+001  -1.263181e+002 
4403125000  -3.250045e+001  -1.354178e+002 
4406250000  -3.327671e+001  -1.381934e+002 
4409375000  -3.342625e+001  -1.419344e+002 
4412500000  -3.467593e+001  -1.462487e+002 
4415625000  -3.488853e+001  -1.430965e+002 
