!Agilent Technologies,E8363B,MY43030201,A.06.04.32
!Agilent E8363B: A.06.04.32
!Date: Tuesday, November 11, 2014 21:05:54
!Correction: S21(Response(S21)) 
!S1P File: Measurement: S21:
# Hz S  dB   R 50
3000000000  -3.635283e+001  -5.026695e+001 
3003125000  -3.751623e+001  -5.578550e+001 
3006250000  -3.735288e+001  -5.889032e+001 
3009375000  -3.775757e+001  -5.419071e+001 
3012500000  -3.692597e+001  -5.555632e+001 
3015625000  -3.608159e+001  -6.294776e+001 
3018750000  -3.686005e+001  -6.402663e+001 
3021875000  -3.550815e+001  -6.316561e+001 
3025000000  -3.412876e+001  -6.683384e+001 
3028125000  -3.314342e+001  -7.342652e+001 
3031250000  -3.209641e+001  -8.481894e+001 
3034375000  -3.173529e+001  -9.789622e+001 
3037500000  -3.228723e+001  -1.106414e+002 
3040625000  -3.365413e+001  -1.146571e+002 
3043750000  -3.430812e+001  -1.195627e+002 
3046875000  -3.440322e+001  -1.262036e+002 
3050000000  -3.621695e+001  -1.323642e+002 
3053125000  -3.616803e+001  -1.254989e+002 
3056250000  -3.555615e+001  -1.238746e+002 
3059375000  -3.567288e+001  -1.237798e+002 
3062500000  -3.407917e+001  -1.270405e+002 
3065625000  -3.389900e+001  -1.329202e+002 
3068750000  -3.357263e+001  -1.402930e+002 
3071875000  -3.351079e+001  -1.422593e+002 
3075000000  -3.328614e+001  -1.465165e+002 
3078125000  -3.301385e+001  -1.502770e+002 
3081250000  -3.354389e+001  -1.546107e+002 
3084375000  -3.264791e+001  -1.580456e+002 
3087500000  -3.242701e+001  -1.622726e+002 
3090625000  -3.200706e+001  -1.721148e+002 
3093750000  -3.240723e+001  -1.797574e+002 
3096875000  -3.348302e+001  1.743616e+002 
3100000000  -3.333119e+001  1.722552e+002 
3103125000  -3.364032e+001  1.732051e+002 
3106250000  -3.313501e+001  1.689818e+002 
3109375000  -3.326121e+001  1.648930e+002 
3112500000  -3.325238e+001  1.629443e+002 
3115625000  -3.277026e+001  1.580015e+002 
3118750000  -3.313914e+001  1.580219e+002 
3121875000  -3.229501e+001  1.484985e+002 
3125000000  -3.347259e+001  1.440194e+002 
3128125000  -3.447454e+001  1.513485e+002 
3131250000  -3.209224e+001  1.498951e+002 
3134375000  -3.076129e+001  1.348495e+002 
3137500000  -3.130678e+001  1.198901e+002 
3140625000  -3.286198e+001  1.166160e+002 
3143750000  -3.385780e+001  1.188680e+002 
3146875000  -3.333568e+001  1.198916e+002 
3150000000  -3.224024e+001  1.198981e+002 
3153125000  -3.231592e+001  1.108503e+002 
3156250000  -3.335378e+001  1.156290e+002 
3159375000  -3.168407e+001  1.164813e+002 
3162500000  -2.975077e+001  1.021687e+002 
3165625000  -3.070341e+001  9.009749e+001 
3168750000  -3.109961e+001  8.966668e+001 
3171875000  -3.017353e+001  8.461216e+001 
3175000000  -3.101199e+001  7.588648e+001 
3178125000  -3.067462e+001  7.684035e+001 
3181250000  -2.960218e+001  7.116676e+001 
3184375000  -2.899809e+001  5.848144e+001 
3187500000  -3.017580e+001  4.232069e+001 
3190625000  -3.290033e+001  3.509690e+001 
3193750000  -3.341139e+001  4.398943e+001 
3196875000  -3.310532e+001  4.850869e+001 
3200000000  -3.213474e+001  4.609362e+001 
3203125000  -3.134393e+001  3.926105e+001 
3206250000  -3.168355e+001  3.281311e+001 
3209375000  -3.116731e+001  2.705753e+001 
3212500000  -3.152434e+001  1.971367e+001 
3215625000  -3.153489e+001  1.608804e+001 
3218750000  -3.229184e+001  8.852308e+000 
3221875000  -3.311034e+001  3.109470e+000 
3225000000  -3.276262e+001  2.732175e+000 
3228125000  -3.310892e+001  -2.537276e+000 
3231250000  -3.375722e+001  -5.404588e+000 
3234375000  -3.350105e+001  -4.804047e+000 
3237500000  -3.345089e+001  -7.617937e+000 
3240625000  -3.308688e+001  -9.389438e+000 
3243750000  -3.265139e+001  -1.706081e+001 
3246875000  -3.307058e+001  -2.402159e+001 
3250000000  -3.343575e+001  -2.619618e+001 
3253125000  -3.358135e+001  -2.888614e+001 
3256250000  -3.321036e+001  -3.566681e+001 
3259375000  -3.342845e+001  -4.459737e+001 
3262500000  -3.461580e+001  -4.749994e+001 
3265625000  -3.529080e+001  -4.554185e+001 
3268750000  -3.520457e+001  -4.319275e+001 
3271875000  -3.464951e+001  -4.312967e+001 
3275000000  -3.366951e+001  -5.008856e+001 
3278125000  -3.415841e+001  -5.700395e+001 
3281250000  -3.433757e+001  -5.572395e+001 
3284375000  -3.390036e+001  -6.265681e+001 
3287500000  -3.402449e+001  -6.653303e+001 
3290625000  -3.435218e+001  -7.157622e+001 
3293750000  -3.417870e+001  -7.787617e+001 
3296875000  -3.516805e+001  -7.915508e+001 
3300000000  -3.494101e+001  -7.833931e+001 
3303125000  -3.366555e+001  -8.416090e+001 
3306250000  -3.349108e+001  -9.079155e+001 
3309375000  -3.318970e+001  -9.731685e+001 
3312500000  -3.330472e+001  -1.076919e+002 
3315625000  -3.430694e+001  -1.164634e+002 
3318750000  -3.577110e+001  -1.191050e+002 
3321875000  -3.676337e+001  -1.186932e+002 
3325000000  -3.725932e+001  -1.146152e+002 
3328125000  -3.702632e+001  -1.147171e+002 
3331250000  -3.574554e+001  -1.068605e+002 
3334375000  -3.310374e+001  -1.175092e+002 
3337500000  -3.321887e+001  -1.365484e+002 
3340625000  -3.449504e+001  -1.481425e+002 
3343750000  -3.660751e+001  -1.494818e+002 
3346875000  -3.680563e+001  -1.471437e+002 
3350000000  -3.612881e+001  -1.489800e+002 
3353125000  -3.624099e+001  -1.534492e+002 
3356250000  -3.575303e+001  -1.618779e+002 
3359375000  -3.644605e+001  -1.700837e+002 
3362500000  -3.751327e+001  -1.754920e+002 
3365625000  -3.806810e+001  -1.764255e+002 
3368750000  -3.891343e+001  -1.795341e+002 
3371875000  -3.923842e+001  1.783260e+002 
3375000000  -4.048214e+001  1.754177e+002 
3378125000  -4.124664e+001  1.760648e+002 
3381250000  -4.283879e+001  -1.742702e+002 
3384375000  -4.134692e+001  -1.539603e+002 
3387500000  -3.752985e+001  -1.707753e+002 
3390625000  -3.915351e+001  1.683458e+002 
3393750000  -4.050401e+001  1.731534e+002 
3396875000  -3.935649e+001  1.743921e+002 
3400000000  -3.903204e+001  1.678889e+002 
3403125000  -3.938935e+001  1.606472e+002 
3406250000  -3.969603e+001  1.614144e+002 
3409375000  -3.993730e+001  1.525143e+002 
3412500000  -4.037053e+001  1.511710e+002 
3415625000  -4.105198e+001  1.522678e+002 
3418750000  -4.127253e+001  1.522403e+002 
3421875000  -4.136465e+001  1.562825e+002 
3425000000  -4.036905e+001  1.561008e+002 
3428125000  -3.942489e+001  1.513107e+002 
3431250000  -3.913207e+001  1.460425e+002 
3434375000  -3.935060e+001  1.383801e+002 
3437500000  -3.964159e+001  1.348803e+002 
3440625000  -3.987278e+001  1.374701e+002 
3443750000  -3.868777e+001  1.370800e+002 
3446875000  -3.806374e+001  1.291176e+002 
3450000000  -3.771946e+001  1.188190e+002 
3453125000  -3.793846e+001  1.086947e+002 
3456250000  -3.930102e+001  1.015891e+002 
3459375000  -4.034575e+001  1.037594e+002 
3462500000  -3.985252e+001  1.035809e+002 
3465625000  -3.989635e+001  9.847416e+001 
3468750000  -4.042386e+001  9.501859e+001 
3471875000  -4.020645e+001  9.219264e+001 
3475000000  -3.992463e+001  8.877011e+001 
3478125000  -4.067529e+001  8.058802e+001 
3481250000  -4.152127e+001  7.932404e+001 
3484375000  -4.237219e+001  8.164290e+001 
3487500000  -4.155478e+001  8.140458e+001 
3490625000  -4.099194e+001  7.807745e+001 
3493750000  -4.144036e+001  7.249841e+001 
3496875000  -4.220602e+001  6.960770e+001 
3500000000  -4.260167e+001  7.149597e+001 
3503125000  -4.234800e+001  7.518682e+001 
3506250000  -4.073862e+001  6.872127e+001 
3509375000  -4.081982e+001  6.158654e+001 
3512500000  -4.134407e+001  5.322742e+001 
3515625000  -4.193781e+001  5.136927e+001 
3518750000  -4.253293e+001  5.008567e+001 
3521875000  -4.256633e+001  4.889129e+001 
3525000000  -4.321459e+001  4.360384e+001 
3528125000  -4.329747e+001  5.124979e+001 
3531250000  -4.171636e+001  5.012658e+001 
3534375000  -4.180540e+001  3.942981e+001 
3537500000  -4.219232e+001  3.560280e+001 
3540625000  -4.345557e+001  3.286657e+001 
3543750000  -4.358849e+001  3.654076e+001 
3546875000  -4.372305e+001  4.838875e+001 
3550000000  -4.111736e+001  4.968303e+001 
3553125000  -3.961943e+001  3.177229e+001 
3556250000  -4.125856e+001  2.398511e+001 
3559375000  -4.106436e+001  2.395478e+001 
3562500000  -4.005713e+001  1.542181e+001 
3565625000  -4.082549e+001  8.184586e+000 
3568750000  -4.104558e+001  1.010758e+001 
3571875000  -4.091112e+001  8.405833e+000 
3575000000  -4.056030e+001  6.835601e-001 
3578125000  -4.124317e+001  -3.918463e+000 
3581250000  -4.112774e+001  -5.810167e+000 
3584375000  -4.042539e+001  -8.097030e+000 
3587500000  -4.003361e+001  -1.646055e+001 
3590625000  -4.043956e+001  -2.779775e+001 
3593750000  -4.176881e+001  -3.044965e+001 
3596875000  -4.202866e+001  -2.285793e+001 
3600000000  -4.033864e+001  -3.003438e+001 
3603125000  -4.094918e+001  -4.466330e+001 
3606250000  -4.156003e+001  -4.838851e+001 
3609375000  -4.246577e+001  -5.182101e+001 
3612500000  -4.327321e+001  -5.271821e+001 
3615625000  -4.347628e+001  -5.552509e+001 
3618750000  -4.398677e+001  -5.499626e+001 
3621875000  -4.403325e+001  -5.858351e+001 
3625000000  -4.463776e+001  -5.832366e+001 
3628125000  -4.494056e+001  -5.980428e+001 
3631250000  -4.498468e+001  -6.341867e+001 
3634375000  -4.603700e+001  -6.317028e+001 
3637500000  -4.586982e+001  -5.671138e+001 
3640625000  -4.510365e+001  -5.442896e+001 
3643750000  -4.456746e+001  -5.935247e+001 
3646875000  -4.509985e+001  -6.554198e+001 
3650000000  -4.597023e+001  -6.652187e+001 
3653125000  -4.548694e+001  -6.486525e+001 
3656250000  -4.560694e+001  -6.718489e+001 
3659375000  -4.555128e+001  -6.148218e+001 
3662500000  -4.474814e+001  -6.512032e+001 
3665625000  -4.459761e+001  -6.642994e+001 
3668750000  -4.316717e+001  -6.557591e+001 
3671875000  -4.226066e+001  -7.223480e+001 
3675000000  -4.249897e+001  -8.311414e+001 
3678125000  -4.253151e+001  -8.196850e+001 
3681250000  -4.249999e+001  -8.405770e+001 
3684375000  -4.233140e+001  -9.133554e+001 
3687500000  -4.252723e+001  -9.474770e+001 
3690625000  -4.241112e+001  -1.006563e+002 
3693750000  -4.332432e+001  -1.000583e+002 
3696875000  -4.310872e+001  -1.014856e+002 
3700000000  -4.239422e+001  -1.070285e+002 
3703125000  -4.271951e+001  -1.110341e+002 
3706250000  -4.347136e+001  -1.119624e+002 
3709375000  -4.298314e+001  -1.115917e+002 
3712500000  -4.213986e+001  -1.145371e+002 
3715625000  -4.136630e+001  -1.209770e+002 
3718750000  -4.133726e+001  -1.272459e+002 
3721875000  -4.124315e+001  -1.342023e+002 
3725000000  -4.151159e+001  -1.401432e+002 
3728125000  -4.215723e+001  -1.401393e+002 
3731250000  -4.177322e+001  -1.433616e+002 
3734375000  -4.160465e+001  -1.475314e+002 
3737500000  -4.265671e+001  -1.553400e+002 
3740625000  -4.315681e+001  -1.566643e+002 
3743750000  -4.396264e+001  -1.636074e+002 
3746875000  -4.377777e+001  -1.642190e+002 
3750000000  -4.454119e+001  -1.650538e+002 
3753125000  -4.422074e+001  -1.633467e+002 
3756250000  -4.463759e+001  -1.619856e+002 
3759375000  -4.508565e+001  -1.627979e+002 
3762500000  -4.468806e+001  -1.640113e+002 
3765625000  -4.472368e+001  -1.639422e+002 
3768750000  -4.518653e+001  -1.578169e+002 
3771875000  -4.389775e+001  -1.598772e+002 
3775000000  -4.315374e+001  -1.675397e+002 
3778125000  -4.356741e+001  -1.679367e+002 
3781250000  -4.280704e+001  -1.686264e+002 
3784375000  -4.249803e+001  -1.709948e+002 
3787500000  -4.151023e+001  -1.741645e+002 
3790625000  -4.227934e+001  1.768104e+002 
3793750000  -4.239489e+001  1.770019e+002 
3796875000  -4.089690e+001  1.747913e+002 
3800000000  -3.931551e+001  1.737454e+002 
3803125000  -4.002205e+001  1.631719e+002 
3806250000  -4.079372e+001  1.594662e+002 
3809375000  -4.023065e+001  1.572874e+002 
3812500000  -3.966723e+001  1.513997e+002 
3815625000  -4.008029e+001  1.415151e+002 
3818750000  -4.095819e+001  1.401290e+002 
3821875000  -4.082177e+001  1.493514e+002 
3825000000  -3.910990e+001  1.515186e+002 
3828125000  -3.770079e+001  1.349249e+002 
3831250000  -3.861691e+001  1.195414e+002 
3834375000  -4.007714e+001  1.176720e+002 
3837500000  -4.101693e+001  1.204150e+002 
3840625000  -3.964567e+001  1.187068e+002 
3843750000  -3.890424e+001  1.081324e+002 
3846875000  -3.973226e+001  9.841223e+001 
3850000000  -4.108794e+001  1.049095e+002 
3853125000  -4.029266e+001  1.056463e+002 
3856250000  -4.021824e+001  9.880476e+001 
3859375000  -3.987207e+001  9.528522e+001 
3862500000  -3.939718e+001  8.742159e+001 
3865625000  -4.007348e+001  8.216579e+001 
3868750000  -3.971541e+001  8.089258e+001 
3871875000  -3.928824e+001  7.809010e+001 
3875000000  -3.978571e+001  6.839782e+001 
3878125000  -4.082507e+001  6.550958e+001 
3881250000  -4.083909e+001  6.948292e+001 
3884375000  -4.030276e+001  6.499081e+001 
3887500000  -4.089041e+001  6.101101e+001 
3890625000  -4.130647e+001  5.743184e+001 
3893750000  -4.126583e+001  5.705039e+001 
3896875000  -4.172134e+001  5.798399e+001 
3900000000  -4.201335e+001  5.723064e+001 
3903125000  -4.141120e+001  5.526125e+001 
3906250000  -4.084132e+001  5.262178e+001 
3909375000  -4.003347e+001  4.991958e+001 
3912500000  -4.025674e+001  4.296162e+001 
3915625000  -4.139553e+001  4.374886e+001 
3918750000  -4.131239e+001  4.312980e+001 
3921875000  -4.079468e+001  4.057772e+001 
3925000000  -3.993169e+001  3.867136e+001 
3928125000  -3.923201e+001  3.188517e+001 
3931250000  -3.959555e+001  2.719392e+001 
3934375000  -3.980433e+001  2.515573e+001 
3937500000  -3.999382e+001  2.367904e+001 
3940625000  -4.041272e+001  2.224677e+001 
3943750000  -3.904442e+001  2.368239e+001 
3946875000  -3.807469e+001  1.633275e+001 
3950000000  -3.868467e+001  7.949686e+000 
3953125000  -3.943108e+001  6.545360e+000 
3956250000  -3.875872e+001  6.599517e+000 
3959375000  -3.728032e+001  2.713647e+000 
3962500000  -3.713748e+001  -2.058912e+000 
3965625000  -3.694115e+001  -1.231158e+001 
3968750000  -3.787045e+001  -2.011101e+001 
3971875000  -3.808929e+001  -2.344512e+001 
3975000000  -3.778532e+001  -2.595686e+001 
3978125000  -3.757385e+001  -2.924615e+001 
3981250000  -3.766378e+001  -3.471917e+001 
3984375000  -3.782679e+001  -4.107409e+001 
3987500000  -3.842913e+001  -4.423830e+001 
3990625000  -3.839908e+001  -4.653941e+001 
3993750000  -3.870976e+001  -4.985413e+001 
3996875000  -3.899976e+001  -5.309172e+001 
4000000000  -3.940123e+001  -5.584735e+001 
4003125000  -3.974781e+001  -5.472407e+001 
4006250000  -3.864475e+001  -5.521569e+001 
4009375000  -3.744664e+001  -6.687949e+001 
4012500000  -3.882152e+001  -7.417333e+001 
4015625000  -4.034195e+001  -7.307288e+001 
4018750000  -4.026932e+001  -7.140417e+001 
4021875000  -3.971652e+001  -7.293093e+001 
4025000000  -3.911106e+001  -7.844514e+001 
4028125000  -3.921202e+001  -8.186251e+001 
4031250000  -3.996834e+001  -8.640951e+001 
4034375000  -4.024975e+001  -8.549240e+001 
4037500000  -3.956414e+001  -8.486420e+001 
4040625000  -3.934198e+001  -8.669310e+001 
4043750000  -3.975314e+001  -8.838294e+001 
4046875000  -3.911269e+001  -8.697247e+001 
4050000000  -3.854059e+001  -9.319657e+001 
4053125000  -3.897855e+001  -9.704243e+001 
4056250000  -3.926251e+001  -9.396914e+001 
4059375000  -3.812263e+001  -9.185724e+001 
4062500000  -3.676657e+001  -9.958782e+001 
4065625000  -3.652008e+001  -1.024673e+002 
4068750000  -3.629550e+001  -1.094509e+002 
4071875000  -3.543527e+001  -1.192911e+002 
4075000000  -3.595276e+001  -1.254836e+002 
4078125000  -3.639587e+001  -1.267571e+002 
4081250000  -3.603458e+001  -1.309690e+002 
4084375000  -3.534083e+001  -1.386510e+002 
4087500000  -3.580520e+001  -1.469522e+002 
4090625000  -3.650320e+001  -1.476766e+002 
4093750000  -3.625909e+001  -1.489113e+002 
4096875000  -3.577246e+001  -1.566828e+002 
4100000000  -3.645979e+001  -1.642643e+002 
4103125000  -3.740591e+001  -1.656007e+002 
4106250000  -3.723220e+001  -1.599382e+002 
4109375000  -3.641449e+001  -1.620972e+002 
4112500000  -3.587920e+001  -1.708369e+002 
4115625000  -3.631633e+001  -1.754339e+002 
4118750000  -3.644427e+001  -1.799476e+002 
4121875000  -3.623363e+001  1.738464e+002 
4125000000  -3.659523e+001  1.688085e+002 
4128125000  -3.755309e+001  1.684526e+002 
4131250000  -3.771210e+001  1.747833e+002 
4134375000  -3.513268e+001  1.684628e+002 
4137500000  -3.533918e+001  1.496744e+002 
4140625000  -3.746976e+001  1.414454e+002 
4143750000  -3.890330e+001  1.449205e+002 
4146875000  -3.835415e+001  1.522135e+002 
4150000000  -3.788597e+001  1.489764e+002 
4153125000  -3.780013e+001  1.410170e+002 
4156250000  -3.870032e+001  1.384835e+002 
4159375000  -3.911794e+001  1.434886e+002 
4162500000  -3.806036e+001  1.483915e+002 
4165625000  -3.703556e+001  1.437894e+002 
4168750000  -3.630956e+001  1.352669e+002 
4171875000  -3.642846e+001  1.264621e+002 
4175000000  -3.700802e+001  1.218711e+002 
4178125000  -3.749748e+001  1.235161e+002 
4181250000  -3.726697e+001  1.202689e+002 
4184375000  -3.714176e+001  1.166942e+002 
4187500000  -3.715651e+001  1.152796e+002 
4190625000  -3.689815e+001  1.083444e+002 
4193750000  -3.752759e+001  1.047315e+002 
4196875000  -3.817721e+001  1.042317e+002 
4200000000  -3.918998e+001  1.062896e+002 
4203125000  -3.903091e+001  1.193527e+002 
4206250000  -3.524052e+001  1.174271e+002 
4209375000  -3.429578e+001  9.498784e+001 
4212500000  -3.630204e+001  8.716938e+001 
4215625000  -3.698463e+001  9.219816e+001 
4218750000  -3.548332e+001  9.854819e+001 
4221875000  -3.312328e+001  8.752528e+001 
4225000000  -3.438622e+001  7.462762e+001 
4228125000  -3.503872e+001  7.888327e+001 
4231250000  -3.362242e+001  7.314247e+001 
4234375000  -3.332780e+001  6.438168e+001 
4237500000  -3.286182e+001  6.105548e+001 
4240625000  -3.283885e+001  4.863159e+001 
4243750000  -3.389568e+001  4.056828e+001 
4246875000  -3.490092e+001  4.058276e+001 
4250000000  -3.476925e+001  4.164722e+001 
4253125000  -3.429264e+001  3.881973e+001 
4256250000  -3.452327e+001  3.268442e+001 
4259375000  -3.429309e+001  2.943504e+001 
4262500000  -3.460117e+001  2.547018e+001 
4265625000  -3.484400e+001  2.301706e+001 
4268750000  -3.382465e+001  1.944025e+001 
4271875000  -3.368117e+001  1.080152e+001 
4275000000  -3.351544e+001  3.593995e+000 
4278125000  -3.405818e+001  -7.783288e+000 
4281250000  -3.598860e+001  -1.037991e+001 
4284375000  -3.586726e+001  -1.090580e+001 
4287500000  -3.693042e+001  -1.546207e+001 
4290625000  -3.811132e+001  -5.688070e+000 
4293750000  -3.629568e+001  9.557319e-002 
4296875000  -3.500468e+001  -1.159554e+001 
4300000000  -3.595602e+001  -2.130227e+001 
4303125000  -3.724903e+001  -2.035023e+001 
4306250000  -3.657209e+001  -1.423012e+001 
4309375000  -3.519159e+001  -1.542050e+001 
4312500000  -3.516502e+001  -2.406405e+001 
4315625000  -3.526113e+001  -2.956426e+001 
4318750000  -3.563766e+001  -3.163153e+001 
4321875000  -3.567565e+001  -3.079788e+001 
4325000000  -3.507708e+001  -3.151104e+001 
4328125000  -3.438131e+001  -3.758471e+001 
4331250000  -3.432560e+001  -4.637725e+001 
4334375000  -3.458359e+001  -5.224352e+001 
4337500000  -3.545396e+001  -5.374632e+001 
4340625000  -3.576463e+001  -5.047409e+001 
4343750000  -3.489021e+001  -5.141463e+001 
4346875000  -3.449143e+001  -5.796398e+001 
4350000000  -3.445770e+001  -6.379265e+001 
4353125000  -3.438018e+001  -7.173166e+001 
4356250000  -3.609726e+001  -7.251559e+001 
4359375000  -3.633427e+001  -6.066375e+001 
4362500000  -3.366412e+001  -6.086857e+001 
4365625000  -3.204391e+001  -7.425774e+001 
4368750000  -3.275494e+001  -8.736684e+001 
4371875000  -3.382053e+001  -8.757853e+001 
4375000000  -3.324971e+001  -8.836277e+001 
4378125000  -3.254555e+001  -9.459798e+001 
4381250000  -3.276312e+001  -1.020172e+002 
4384375000  -3.262345e+001  -1.086711e+002 
4387500000  -3.347429e+001  -1.161718e+002 
4390625000  -3.423462e+001  -1.158856e+002 
4393750000  -3.380031e+001  -1.149537e+002 
4396875000  -3.301729e+001  -1.197432e+002 
4400000000  -3.256495e+001  -1.280456e+002 
4403125000  -3.325901e+001  -1.357955e+002 
4406250000  -3.412443e+001  -1.402024e+002 
4409375000  -3.418073e+001  -1.433326e+002 
4412500000  -3.552398e+001  -1.472584e+002 
4415625000  -3.577245e+001  -1.415481e+002 
