!Agilent Technologies,E8363B,MY43030201,A.06.04.32
!Agilent E8363B: A.06.04.32
!Date: Tuesday, November 11, 2014 21:07:00
!Correction: S21(Response(S21)) 
!S1P File: Measurement: S21:
# Hz S  dB   R 50
3000000000  -3.650049e+001  -4.999666e+001 
3003125000  -3.770852e+001  -5.628458e+001 
3006250000  -3.756972e+001  -5.812395e+001 
3009375000  -3.772205e+001  -5.410349e+001 
3012500000  -3.698534e+001  -5.575219e+001 
3015625000  -3.617423e+001  -6.375598e+001 
3018750000  -3.685065e+001  -6.535406e+001 
3021875000  -3.543019e+001  -6.434010e+001 
3025000000  -3.413237e+001  -6.721431e+001 
3028125000  -3.314433e+001  -7.350930e+001 
3031250000  -3.222956e+001  -8.529744e+001 
3034375000  -3.177632e+001  -9.872729e+001 
3037500000  -3.226530e+001  -1.105235e+002 
3040625000  -3.361470e+001  -1.160622e+002 
3043750000  -3.415591e+001  -1.205202e+002 
3046875000  -3.444028e+001  -1.268176e+002 
3050000000  -3.607473e+001  -1.329605e+002 
3053125000  -3.612338e+001  -1.270060e+002 
3056250000  -3.556660e+001  -1.246071e+002 
3059375000  -3.565043e+001  -1.237728e+002 
3062500000  -3.411946e+001  -1.288823e+002 
3065625000  -3.402180e+001  -1.340357e+002 
3068750000  -3.363686e+001  -1.413977e+002 
3071875000  -3.351935e+001  -1.434028e+002 
3075000000  -3.328162e+001  -1.476275e+002 
3078125000  -3.305355e+001  -1.521396e+002 
3081250000  -3.354613e+001  -1.560823e+002 
3084375000  -3.268581e+001  -1.596308e+002 
3087500000  -3.251708e+001  -1.632792e+002 
3090625000  -3.195752e+001  -1.736431e+002 
3093750000  -3.246664e+001  1.791673e+002 
3096875000  -3.350314e+001  1.732983e+002 
3100000000  -3.336395e+001  1.711109e+002 
3103125000  -3.362810e+001  1.715911e+002 
3106250000  -3.318302e+001  1.675298e+002 
3109375000  -3.326664e+001  1.635125e+002 
3112500000  -3.319120e+001  1.611120e+002 
3115625000  -3.284647e+001  1.566443e+002 
3118750000  -3.316496e+001  1.570386e+002 
3121875000  -3.230216e+001  1.475014e+002 
3125000000  -3.350015e+001  1.438328e+002 
3128125000  -3.447007e+001  1.503006e+002 
3131250000  -3.204781e+001  1.484132e+002 
3134375000  -3.077226e+001  1.333342e+002 
3137500000  -3.135506e+001  1.183953e+002 
3140625000  -3.285789e+001  1.162603e+002 
3143750000  -3.382994e+001  1.175290e+002 
3146875000  -3.334308e+001  1.187348e+002 
3150000000  -3.224973e+001  1.193710e+002 
3153125000  -3.230450e+001  1.098236e+002 
3156250000  -3.336084e+001  1.150096e+002 
3159375000  -3.161695e+001  1.162243e+002 
3162500000  -2.973367e+001  1.011660e+002 
3165625000  -3.070984e+001  8.905359e+001 
3168750000  -3.104991e+001  8.926092e+001 
3171875000  -3.011156e+001  8.375934e+001 
3175000000  -3.086852e+001  7.475604e+001 
3178125000  -3.063797e+001  7.557990e+001 
3181250000  -2.953534e+001  6.983733e+001 
3184375000  -2.887112e+001  5.745582e+001 
3187500000  -3.000879e+001  4.193307e+001 
3190625000  -3.274365e+001  3.399730e+001 
3193750000  -3.332639e+001  4.277849e+001 
3196875000  -3.292399e+001  4.713021e+001 
3200000000  -3.199646e+001  4.449395e+001 
3203125000  -3.124944e+001  3.863134e+001 
3206250000  -3.154108e+001  3.178187e+001 
3209375000  -3.108899e+001  2.526765e+001 
3212500000  -3.123234e+001  1.812728e+001 
3215625000  -3.137948e+001  1.491539e+001 
3218750000  -3.203942e+001  7.321434e+000 
3221875000  -3.295884e+001  1.906001e+000 
3225000000  -3.252815e+001  1.296419e+000 
3228125000  -3.296777e+001  -4.281207e+000 
3231250000  -3.366880e+001  -7.364867e+000 
3234375000  -3.332233e+001  -6.763247e+000 
3237500000  -3.335201e+001  -8.519731e+000 
3240625000  -3.292586e+001  -1.210772e+001 
3243750000  -3.251780e+001  -1.896676e+001 
3246875000  -3.297176e+001  -2.601344e+001 
3250000000  -3.339290e+001  -2.844404e+001 
3253125000  -3.349265e+001  -3.064168e+001 
3256250000  -3.300488e+001  -3.748006e+001 
3259375000  -3.340682e+001  -4.619894e+001 
3262500000  -3.464992e+001  -4.913805e+001 
3265625000  -3.525729e+001  -4.639622e+001 
3268750000  -3.512618e+001  -4.543598e+001 
3271875000  -3.476685e+001  -4.512448e+001 
3275000000  -3.365874e+001  -5.206199e+001 
3278125000  -3.414505e+001  -5.818834e+001 
3281250000  -3.441366e+001  -5.787836e+001 
3284375000  -3.387558e+001  -6.429594e+001 
3287500000  -3.408721e+001  -6.820352e+001 
3290625000  -3.429892e+001  -7.395772e+001 
3293750000  -3.408962e+001  -7.965063e+001 
3296875000  -3.515048e+001  -8.037820e+001 
3300000000  -3.491345e+001  -7.956274e+001 
3303125000  -3.370102e+001  -8.480436e+001 
3306250000  -3.346066e+001  -9.190152e+001 
3309375000  -3.323599e+001  -9.800653e+001 
3312500000  -3.326230e+001  -1.093322e+002 
3315625000  -3.421465e+001  -1.181102e+002 
3318750000  -3.570185e+001  -1.201926e+002 
3321875000  -3.675452e+001  -1.205252e+002 
3325000000  -3.737405e+001  -1.149621e+002 
3328125000  -3.686384e+001  -1.142869e+002 
3331250000  -3.572951e+001  -1.077274e+002 
3334375000  -3.294887e+001  -1.185664e+002 
3337500000  -3.304198e+001  -1.380104e+002 
3340625000  -3.440746e+001  -1.488073e+002 
3343750000  -3.634012e+001  -1.496382e+002 
3346875000  -3.656187e+001  -1.489113e+002 
3350000000  -3.592223e+001  -1.505395e+002 
3353125000  -3.602387e+001  -1.545095e+002 
3356250000  -3.552374e+001  -1.636434e+002 
3359375000  -3.625552e+001  -1.719626e+002 
3362500000  -3.748243e+001  -1.773035e+002 
3365625000  -3.780188e+001  -1.786653e+002 
3368750000  -3.870926e+001  1.793633e+002 
3371875000  -3.889024e+001  1.771630e+002 
3375000000  -4.021932e+001  1.732868e+002 
3378125000  -4.110772e+001  1.731555e+002 
3381250000  -4.244217e+001  -1.761946e+002 
3384375000  -4.070616e+001  -1.564222e+002 
3387500000  -3.737711e+001  -1.717926e+002 
3390625000  -3.922146e+001  1.671735e+002 
3393750000  -4.033755e+001  1.703003e+002 
3396875000  -3.912100e+001  1.715909e+002 
3400000000  -3.852000e+001  1.633098e+002 
3403125000  -3.919000e+001  1.583974e+002 
3406250000  -3.951638e+001  1.587910e+002 
3409375000  -3.971349e+001  1.504655e+002 
3412500000  -4.014157e+001  1.481877e+002 
3415625000  -4.087681e+001  1.504017e+002 
3418750000  -4.099503e+001  1.499673e+002 
3421875000  -4.112741e+001  1.528486e+002 
3425000000  -4.027088e+001  1.539464e+002 
3428125000  -3.932295e+001  1.491177e+002 
3431250000  -3.917370e+001  1.416058e+002 
3434375000  -3.908357e+001  1.355822e+002 
3437500000  -3.951981e+001  1.332002e+002 
3440625000  -3.989362e+001  1.333736e+002 
3443750000  -3.863118e+001  1.342858e+002 
3446875000  -3.788003e+001  1.268644e+002 
3450000000  -3.747980e+001  1.174062e+002 
3453125000  -3.801375e+001  1.080101e+002 
3456250000  -3.925092e+001  1.007392e+002 
3459375000  -4.011406e+001  1.021154e+002 
3462500000  -3.983411e+001  1.027644e+002 
3465625000  -3.978234e+001  9.831771e+001 
3468750000  -4.001421e+001  9.292937e+001 
3471875000  -4.019561e+001  9.049236e+001 
3475000000  -3.971317e+001  8.662350e+001 
3478125000  -4.041785e+001  7.851864e+001 
3481250000  -4.141950e+001  7.660882e+001 
3484375000  -4.212886e+001  7.917682e+001 
3487500000  -4.137941e+001  7.833739e+001 
3490625000  -4.067472e+001  7.413010e+001 
3493750000  -4.103407e+001  6.737628e+001 
3496875000  -4.195112e+001  6.666080e+001 
3500000000  -4.238608e+001  6.658530e+001 
3503125000  -4.194856e+001  6.927955e+001 
3506250000  -4.072038e+001  6.489559e+001 
3509375000  -4.040973e+001  5.602706e+001 
3512500000  -4.114918e+001  4.845952e+001 
3515625000  -4.175328e+001  4.375085e+001 
3518750000  -4.248987e+001  4.563478e+001 
3521875000  -4.243629e+001  4.166204e+001 
3525000000  -4.337614e+001  4.171367e+001 
3528125000  -4.335781e+001  4.755204e+001 
3531250000  -4.198244e+001  4.366650e+001 
3534375000  -4.213911e+001  3.439383e+001 
3537500000  -4.251625e+001  3.108403e+001 
3540625000  -4.370830e+001  3.008537e+001 
3543750000  -4.429424e+001  3.291415e+001 
3546875000  -4.417637e+001  4.443814e+001 
3550000000  -4.138926e+001  4.561229e+001 
3553125000  -4.019489e+001  2.907391e+001 
3556250000  -4.144647e+001  2.112709e+001 
3559375000  -4.144779e+001  2.252369e+001 
3562500000  -4.020634e+001  1.338944e+001 
3565625000  -4.118163e+001  7.084726e+000 
3568750000  -4.140720e+001  1.054640e+001 
3571875000  -4.111588e+001  8.013943e+000 
3575000000  -4.064278e+001  1.377049e+000 
3578125000  -4.130830e+001  -3.273588e+000 
3581250000  -4.152546e+001  -4.800526e+000 
3584375000  -4.066710e+001  -5.933219e+000 
3587500000  -3.989602e+001  -1.667970e+001 
3590625000  -4.038791e+001  -2.749536e+001 
3593750000  -4.169255e+001  -2.904132e+001 
3596875000  -4.173815e+001  -2.245854e+001 
3600000000  -4.026217e+001  -2.825547e+001 
3603125000  -4.074789e+001  -4.416985e+001 
3606250000  -4.169195e+001  -4.722995e+001 
3609375000  -4.207214e+001  -5.035424e+001 
3612500000  -4.238522e+001  -5.100633e+001 
3615625000  -4.273709e+001  -5.657334e+001 
3618750000  -4.358150e+001  -5.637135e+001 
3621875000  -4.344061e+001  -5.815401e+001 
3625000000  -4.410080e+001  -6.064305e+001 
3628125000  -4.412154e+001  -6.072837e+001 
3631250000  -4.442406e+001  -6.568097e+001 
3634375000  -4.560719e+001  -6.779373e+001 
3637500000  -4.515428e+001  -6.361728e+001 
3640625000  -4.473116e+001  -5.979710e+001 
3643750000  -4.455847e+001  -6.515484e+001 
3646875000  -4.507048e+001  -7.237083e+001 
3650000000  -4.589093e+001  -7.159203e+001 
3653125000  -4.576070e+001  -7.255030e+001 
3656250000  -4.578448e+001  -7.197079e+001 
3659375000  -4.586610e+001  -7.078808e+001 
3662500000  -4.501904e+001  -7.299018e+001 
3665625000  -4.491906e+001  -7.163247e+001 
3668750000  -4.419701e+001  -7.333610e+001 
3671875000  -4.315722e+001  -7.785056e+001 
3675000000  -4.334085e+001  -8.356739e+001 
3678125000  -4.347490e+001  -8.628680e+001 
3681250000  -4.314520e+001  -8.681550e+001 
3684375000  -4.313104e+001  -9.242836e+001 
3687500000  -4.333878e+001  -9.773971e+001 
3690625000  -4.348259e+001  -1.015707e+002 
3693750000  -4.410426e+001  -1.010898e+002 
3696875000  -4.332412e+001  -1.003320e+002 
3700000000  -4.277789e+001  -1.053916e+002 
3703125000  -4.313198e+001  -1.125526e+002 
3706250000  -4.391235e+001  -1.109352e+002 
3709375000  -4.350464e+001  -1.089336e+002 
3712500000  -4.231871e+001  -1.106027e+002 
3715625000  -4.149281e+001  -1.198027e+002 
3718750000  -4.149779e+001  -1.253046e+002 
3721875000  -4.116710e+001  -1.306981e+002 
3725000000  -4.113269e+001  -1.388930e+002 
3728125000  -4.200795e+001  -1.386510e+002 
3731250000  -4.152366e+001  -1.417389e+002 
3734375000  -4.103724e+001  -1.486400e+002 
3737500000  -4.197862e+001  -1.549012e+002 
3740625000  -4.310673e+001  -1.600178e+002 
3743750000  -4.300368e+001  -1.614854e+002 
3746875000  -4.358228e+001  -1.641842e+002 
3750000000  -4.399018e+001  -1.648721e+002 
3753125000  -4.412209e+001  -1.639512e+002 
3756250000  -4.453869e+001  -1.636325e+002 
3759375000  -4.453421e+001  -1.652499e+002 
3762500000  -4.419699e+001  -1.692158e+002 
3765625000  -4.476849e+001  -1.677588e+002 
3768750000  -4.471707e+001  -1.653412e+002 
3771875000  -4.355720e+001  -1.653311e+002 
3775000000  -4.280780e+001  -1.706718e+002 
3778125000  -4.344991e+001  -1.744245e+002 
3781250000  -4.308084e+001  -1.752202e+002 
3784375000  -4.290095e+001  -1.762480e+002 
3787500000  -4.192448e+001  -1.760652e+002 
3790625000  -4.259619e+001  1.759690e+002 
3793750000  -4.245486e+001  1.747444e+002 
3796875000  -4.126296e+001  1.723347e+002 
3800000000  -3.986552e+001  1.706399e+002 
3803125000  -4.018454e+001  1.609039e+002 
3806250000  -4.091588e+001  1.575689e+002 
3809375000  -4.079120e+001  1.555291e+002 
3812500000  -4.008114e+001  1.497160e+002 
3815625000  -4.041909e+001  1.383566e+002 
3818750000  -4.159876e+001  1.392020e+002 
3821875000  -4.135005e+001  1.468878e+002 
3825000000  -3.934830e+001  1.504176e+002 
3828125000  -3.821488e+001  1.345161e+002 
3831250000  -3.868950e+001  1.189306e+002 
3834375000  -4.027375e+001  1.164224e+002 
3837500000  -4.092562e+001  1.205792e+002 
3840625000  -3.996320e+001  1.210136e+002 
3843750000  -3.878279e+001  1.056948e+002 
3846875000  -3.994804e+001  9.912917e+001 
3850000000  -4.085894e+001  1.038901e+002 
3853125000  -4.012851e+001  1.068397e+002 
3856250000  -4.019779e+001  9.968347e+001 
3859375000  -3.964536e+001  9.564240e+001 
3862500000  -3.919030e+001  8.543125e+001 
3865625000  -3.975127e+001  8.171926e+001 
3868750000  -3.983352e+001  8.093809e+001 
3871875000  -3.897289e+001  7.773984e+001 
3875000000  -3.935161e+001  6.775902e+001 
3878125000  -4.054691e+001  6.578072e+001 
3881250000  -4.063169e+001  6.769986e+001 
3884375000  -4.017795e+001  6.207421e+001 
3887500000  -4.025201e+001  5.965244e+001 
3890625000  -4.056559e+001  5.531204e+001 
3893750000  -4.106383e+001  5.431833e+001 
3896875000  -4.140879e+001  5.678361e+001 
3900000000  -4.153258e+001  5.300041e+001 
3903125000  -4.125843e+001  5.322025e+001 
3906250000  -4.083993e+001  5.099788e+001 
3909375000  -4.011373e+001  4.682671e+001 
3912500000  -4.003707e+001  3.802649e+001 
3915625000  -4.131969e+001  4.069053e+001 
3918750000  -4.142415e+001  4.208749e+001 
3921875000  -4.076947e+001  3.625929e+001 
3925000000  -3.977871e+001  3.453555e+001 
3928125000  -3.930712e+001  2.836653e+001 
3931250000  -3.937764e+001  2.366289e+001 
3934375000  -4.006325e+001  2.250879e+001 
3937500000  -4.022296e+001  1.988216e+001 
3940625000  -4.044387e+001  1.736613e+001 
3943750000  -3.947513e+001  1.945096e+001 
3946875000  -3.834204e+001  1.211277e+001 
3950000000  -3.898252e+001  4.482978e+000 
3953125000  -3.997639e+001  2.421215e+000 
3956250000  -3.899886e+001  3.208939e+000 
3959375000  -3.787989e+001  -1.182659e-001 
3962500000  -3.718293e+001  -4.675025e+000 
3965625000  -3.713513e+001  -1.447446e+001 
3968750000  -3.834297e+001  -2.168025e+001 
3971875000  -3.841465e+001  -2.281269e+001 
3975000000  -3.786323e+001  -2.595750e+001 
3978125000  -3.771408e+001  -2.992556e+001 
3981250000  -3.776210e+001  -3.507225e+001 
3984375000  -3.797217e+001  -4.092580e+001 
3987500000  -3.861982e+001  -4.377173e+001 
3990625000  -3.843906e+001  -4.530708e+001 
3993750000  -3.920726e+001  -5.055092e+001 
3996875000  -3.891560e+001  -5.188044e+001 
4000000000  -3.938360e+001  -5.547002e+001 
4003125000  -3.986097e+001  -5.246695e+001 
4006250000  -3.837375e+001  -5.456234e+001 
4009375000  -3.734261e+001  -6.821471e+001 
4012500000  -3.852217e+001  -7.351315e+001 
4015625000  -3.989074e+001  -7.602238e+001 
4018750000  -4.001202e+001  -7.277991e+001 
4021875000  -3.892022e+001  -7.539755e+001 
4025000000  -3.884436e+001  -7.890410e+001 
4028125000  -3.885153e+001  -8.469224e+001 
4031250000  -3.920260e+001  -8.694298e+001 
4034375000  -3.968051e+001  -9.001715e+001 
4037500000  -3.918386e+001  -8.725255e+001 
4040625000  -3.875623e+001  -9.104722e+001 
4043750000  -3.940322e+001  -9.258638e+001 
4046875000  -3.880023e+001  -9.171122e+001 
4050000000  -3.855678e+001  -9.992706e+001 
4053125000  -3.908177e+001  -1.014708e+002 
4056250000  -3.956684e+001  -9.881747e+001 
4059375000  -3.807867e+001  -9.673290e+001 
4062500000  -3.683495e+001  -1.018685e+002 
4065625000  -3.654316e+001  -1.079843e+002 
4068750000  -3.625544e+001  -1.139458e+002 
4071875000  -3.560426e+001  -1.225711e+002 
4075000000  -3.602381e+001  -1.299725e+002 
4078125000  -3.671029e+001  -1.322531e+002 
4081250000  -3.622102e+001  -1.355620e+002 
4084375000  -3.579852e+001  -1.427237e+002 
4087500000  -3.601967e+001  -1.500694e+002 
4090625000  -3.670035e+001  -1.514701e+002 
4093750000  -3.660635e+001  -1.520059e+002 
4096875000  -3.615418e+001  -1.596597e+002 
4100000000  -3.696732e+001  -1.674364e+002 
4103125000  -3.764611e+001  -1.670365e+002 
4106250000  -3.781235e+001  -1.632539e+002 
4109375000  -3.644878e+001  -1.650295e+002 
4112500000  -3.636631e+001  -1.728753e+002 
4115625000  -3.643274e+001  -1.765819e+002 
4118750000  -3.684308e+001  1.781638e+002 
4121875000  -3.621693e+001  1.736797e+002 
4125000000  -3.690449e+001  1.672369e+002 
4128125000  -3.775237e+001  1.671275e+002 
4131250000  -3.755048e+001  1.759333e+002 
4134375000  -3.523644e+001  1.693845e+002 
4137500000  -3.519103e+001  1.490615e+002 
4140625000  -3.757302e+001  1.411091e+002 
4143750000  -3.872475e+001  1.445246e+002 
4146875000  -3.845989e+001  1.511272e+002 
4150000000  -3.760746e+001  1.489517e+002 
4153125000  -3.743828e+001  1.407179e+002 
4156250000  -3.856375e+001  1.368881e+002 
4159375000  -3.851904e+001  1.419570e+002 
4162500000  -3.765009e+001  1.456321e+002 
4165625000  -3.647715e+001  1.406980e+002 
4168750000  -3.586227e+001  1.335786e+002 
4171875000  -3.600179e+001  1.232384e+002 
4175000000  -3.659405e+001  1.185559e+002 
4178125000  -3.733899e+001  1.184965e+002 
4181250000  -3.676369e+001  1.163846e+002 
4184375000  -3.692197e+001  1.128994e+002 
4187500000  -3.679810e+001  1.097061e+002 
4190625000  -3.669771e+001  1.026119e+002 
4193750000  -3.746939e+001  9.906663e+001 
4196875000  -3.810001e+001  9.970619e+001 
4200000000  -3.919910e+001  1.021569e+002 
4203125000  -3.876270e+001  1.150815e+002 
4206250000  -3.524903e+001  1.133389e+002 
4209375000  -3.426272e+001  9.240534e+001 
4212500000  -3.626378e+001  8.365454e+001 
4215625000  -3.709687e+001  8.926591e+001 
4218750000  -3.567728e+001  9.331619e+001 
4221875000  -3.339404e+001  8.506940e+001 
4225000000  -3.467599e+001  7.088071e+001 
4228125000  -3.513961e+001  7.479312e+001 
4231250000  -3.353465e+001  6.923773e+001 
4234375000  -3.352932e+001  6.046557e+001 
4237500000  -3.307856e+001  5.694091e+001 
4240625000  -3.318699e+001  4.589525e+001 
4243750000  -3.410650e+001  3.824144e+001 
4246875000  -3.511982e+001  3.660125e+001 
4250000000  -3.506716e+001  3.967079e+001 
4253125000  -3.462560e+001  3.637110e+001 
4256250000  -3.472952e+001  3.100141e+001 
4259375000  -3.443985e+001  2.592665e+001 
4262500000  -3.479266e+001  2.263023e+001 
4265625000  -3.487152e+001  2.174850e+001 
4268750000  -3.392409e+001  1.802293e+001 
4271875000  -3.400753e+001  9.753912e+000 
4275000000  -3.345439e+001  2.172548e+000 
4278125000  -3.424270e+001  -9.485967e+000 
4281250000  -3.601992e+001  -1.113738e+001 
4284375000  -3.580067e+001  -1.231061e+001 
4287500000  -3.683479e+001  -1.698372e+001 
4290625000  -3.821930e+001  -6.624018e+000 
4293750000  -3.632540e+001  -2.724855e+000 
4296875000  -3.499596e+001  -1.390814e+001 
4300000000  -3.596336e+001  -2.242610e+001 
4303125000  -3.701410e+001  -2.255843e+001 
4306250000  -3.662373e+001  -1.537542e+001 
4309375000  -3.523178e+001  -1.816908e+001 
4312500000  -3.500865e+001  -2.623177e+001 
4315625000  -3.515089e+001  -3.181383e+001 
4318750000  -3.546791e+001  -3.468226e+001 
4321875000  -3.553550e+001  -3.535508e+001 
4325000000  -3.497557e+001  -3.407039e+001 
4328125000  -3.444276e+001  -4.055344e+001 
4331250000  -3.406275e+001  -4.949572e+001 
4334375000  -3.457601e+001  -5.546370e+001 
4337500000  -3.528154e+001  -5.733524e+001 
4340625000  -3.567222e+001  -5.537664e+001 
4343750000  -3.492596e+001  -5.545432e+001 
4346875000  -3.462429e+001  -6.153836e+001 
4350000000  -3.462843e+001  -6.839654e+001 
4353125000  -3.436689e+001  -7.574644e+001 
4356250000  -3.627302e+001  -7.743528e+001 
4359375000  -3.653228e+001  -6.385286e+001 
4362500000  -3.367123e+001  -6.323536e+001 
4365625000  -3.202398e+001  -7.804591e+001 
4368750000  -3.290011e+001  -9.180090e+001 
4371875000  -3.377868e+001  -9.127921e+001 
4375000000  -3.341888e+001  -9.198724e+001 
4378125000  -3.276283e+001  -9.808043e+001 
4381250000  -3.308009e+001  -1.059022e+002 
4384375000  -3.280280e+001  -1.111401e+002 
4387500000  -3.364055e+001  -1.187922e+002 
4390625000  -3.453664e+001  -1.183737e+002 
4393750000  -3.379919e+001  -1.186051e+002 
4396875000  -3.329890e+001  -1.213711e+002 
4400000000  -3.282666e+001  -1.309086e+002 
4403125000  -3.361533e+001  -1.394726e+002 
4406250000  -3.435038e+001  -1.412886e+002 
4409375000  -3.460164e+001  -1.448041e+002 
4412500000  -3.582701e+001  -1.492386e+002 
4415625000  -3.609005e+001  -1.443439e+002 
