!Agilent Technologies,E8363B,MY43030201,A.06.04.32
!Agilent E8363B: A.06.04.32
!Date: Tuesday, November 11, 2014 21:10:45
!Correction: S21(Response(S21)) 
!S1P File: Measurement: S21:
# Hz S  dB   R 50
3000000000  -3.656437e+001  -5.529516e+001 
3003125000  -3.770182e+001  -6.123346e+001 
3006250000  -3.751508e+001  -6.395602e+001 
3009375000  -3.787099e+001  -5.944563e+001 
3012500000  -3.715741e+001  -6.143367e+001 
3015625000  -3.628366e+001  -6.893594e+001 
3018750000  -3.693129e+001  -6.942709e+001 
3021875000  -3.543361e+001  -6.881789e+001 
3025000000  -3.408046e+001  -7.210745e+001 
3028125000  -3.321692e+001  -7.899958e+001 
3031250000  -3.221272e+001  -9.080832e+001 
3034375000  -3.185318e+001  -1.040346e+002 
3037500000  -3.228064e+001  -1.161720e+002 
3040625000  -3.360261e+001  -1.209174e+002 
3043750000  -3.425746e+001  -1.260233e+002 
3046875000  -3.457071e+001  -1.320348e+002 
3050000000  -3.615968e+001  -1.373166e+002 
3053125000  -3.598817e+001  -1.313248e+002 
3056250000  -3.567230e+001  -1.286866e+002 
3059375000  -3.566896e+001  -1.293526e+002 
3062500000  -3.414677e+001  -1.332062e+002 
3065625000  -3.400248e+001  -1.388889e+002 
3068750000  -3.357637e+001  -1.459517e+002 
3071875000  -3.361748e+001  -1.485638e+002 
3075000000  -3.337203e+001  -1.528009e+002 
3078125000  -3.302231e+001  -1.570709e+002 
3081250000  -3.351493e+001  -1.612981e+002 
3084375000  -3.268153e+001  -1.646515e+002 
3087500000  -3.252919e+001  -1.686386e+002 
3090625000  -3.199518e+001  -1.788225e+002 
3093750000  -3.254308e+001  1.738326e+002 
3096875000  -3.351791e+001  1.682348e+002 
3100000000  -3.341184e+001  1.664201e+002 
3103125000  -3.366794e+001  1.663073e+002 
3106250000  -3.329735e+001  1.627013e+002 
3109375000  -3.326522e+001  1.587948e+002 
3112500000  -3.317364e+001  1.560217e+002 
3115625000  -3.285802e+001  1.515587e+002 
3118750000  -3.324219e+001  1.515285e+002 
3121875000  -3.232713e+001  1.419239e+002 
3125000000  -3.361407e+001  1.384309e+002 
3128125000  -3.445835e+001  1.459113e+002 
3131250000  -3.207978e+001  1.433896e+002 
3134375000  -3.072113e+001  1.274611e+002 
3137500000  -3.139039e+001  1.138437e+002 
3140625000  -3.281403e+001  1.114136e+002 
3143750000  -3.387939e+001  1.127997e+002 
3146875000  -3.322578e+001  1.132269e+002 
3150000000  -3.228908e+001  1.134178e+002 
3153125000  -3.239605e+001  1.048681e+002 
3156250000  -3.337895e+001  1.095531e+002 
3159375000  -3.160144e+001  1.110843e+002 
3162500000  -2.961105e+001  9.575459e+001 
3165625000  -3.080532e+001  8.406319e+001 
3168750000  -3.100361e+001  8.401109e+001 
3171875000  -3.014225e+001  7.820708e+001 
3175000000  -3.089602e+001  6.943213e+001 
3178125000  -3.065745e+001  6.998141e+001 
3181250000  -2.955257e+001  6.485841e+001 
3184375000  -2.895796e+001  5.165269e+001 
3187500000  -3.008227e+001  3.685149e+001 
3190625000  -3.264044e+001  2.862330e+001 
3193750000  -3.320409e+001  3.748840e+001 
3196875000  -3.294160e+001  4.138521e+001 
3200000000  -3.206723e+001  3.894871e+001 
3203125000  -3.118942e+001  3.265549e+001 
3206250000  -3.154803e+001  2.603308e+001 
3209375000  -3.107872e+001  1.985166e+001 
3212500000  -3.138503e+001  1.294404e+001 
3215625000  -3.142438e+001  9.350543e+000 
3218750000  -3.209321e+001  1.546041e+000 
3221875000  -3.293309e+001  -2.786214e+000 
3225000000  -3.250259e+001  -4.498599e+000 
3228125000  -3.298254e+001  -1.005514e+001 
3231250000  -3.369905e+001  -1.206336e+001 
3234375000  -3.341380e+001  -1.201320e+001 
3237500000  -3.339394e+001  -1.411658e+001 
3240625000  -3.291307e+001  -1.699024e+001 
3243750000  -3.254260e+001  -2.463233e+001 
3246875000  -3.294828e+001  -3.180557e+001 
3250000000  -3.338459e+001  -3.393010e+001 
3253125000  -3.348190e+001  -3.605484e+001 
3256250000  -3.314947e+001  -4.353780e+001 
3259375000  -3.339291e+001  -5.222520e+001 
3262500000  -3.460038e+001  -5.524643e+001 
3265625000  -3.524983e+001  -5.118975e+001 
3268750000  -3.507553e+001  -5.069021e+001 
3271875000  -3.479530e+001  -5.067532e+001 
3275000000  -3.363931e+001  -5.796456e+001 
3278125000  -3.418694e+001  -6.460606e+001 
3281250000  -3.435126e+001  -6.342532e+001 
3284375000  -3.379778e+001  -7.018130e+001 
3287500000  -3.408884e+001  -7.327307e+001 
3290625000  -3.421311e+001  -7.939336e+001 
3293750000  -3.402422e+001  -8.509013e+001 
3296875000  -3.515322e+001  -8.639841e+001 
3300000000  -3.484298e+001  -8.499197e+001 
3303125000  -3.359262e+001  -9.037580e+001 
3306250000  -3.341777e+001  -9.802454e+001 
3309375000  -3.319316e+001  -1.044354e+002 
3312500000  -3.326729e+001  -1.158702e+002 
3315625000  -3.430526e+001  -1.233000e+002 
3318750000  -3.579724e+001  -1.255821e+002 
3321875000  -3.699494e+001  -1.259541e+002 
3325000000  -3.723407e+001  -1.203251e+002 
3328125000  -3.679559e+001  -1.188144e+002 
3331250000  -3.565548e+001  -1.142132e+002 
3334375000  -3.286082e+001  -1.244755e+002 
3337500000  -3.291561e+001  -1.451754e+002 
3340625000  -3.440657e+001  -1.552017e+002 
3343750000  -3.648085e+001  -1.560050e+002 
3346875000  -3.643113e+001  -1.535605e+002 
3350000000  -3.589656e+001  -1.558129e+002 
3353125000  -3.581035e+001  -1.605147e+002 
3356250000  -3.530021e+001  -1.692211e+002 
3359375000  -3.626598e+001  -1.771123e+002 
3362500000  -3.737361e+001  1.774156e+002 
3365625000  -3.787249e+001  1.759612e+002 
3368750000  -3.869793e+001  1.735248e+002 
3371875000  -3.883607e+001  1.700990e+002 
3375000000  -4.022437e+001  1.673342e+002 
3378125000  -4.109801e+001  1.688187e+002 
3381250000  -4.221607e+001  1.758728e+002 
3384375000  -4.103885e+001  -1.618813e+002 
3387500000  -3.722259e+001  -1.790081e+002 
3390625000  -3.887635e+001  1.619572e+002 
3393750000  -4.033986e+001  1.648803e+002 
3396875000  -3.896471e+001  1.661756e+002 
3400000000  -3.850333e+001  1.583457e+002 
3403125000  -3.916079e+001  1.526221e+002 
3406250000  -3.959912e+001  1.524426e+002 
3409375000  -3.982145e+001  1.450278e+002 
3412500000  -4.007726e+001  1.428433e+002 
3415625000  -4.088448e+001  1.430831e+002 
3418750000  -4.092890e+001  1.432963e+002 
3421875000  -4.106757e+001  1.473565e+002 
3425000000  -4.016879e+001  1.469762e+002 
3428125000  -3.932721e+001  1.436707e+002 
3431250000  -3.914595e+001  1.361800e+002 
3434375000  -3.918100e+001  1.300649e+002 
3437500000  -3.982098e+001  1.259240e+002 
3440625000  -3.999917e+001  1.287616e+002 
3443750000  -3.869176e+001  1.281826e+002 
3446875000  -3.796796e+001  1.202430e+002 
3450000000  -3.752626e+001  1.101418e+002 
3453125000  -3.799749e+001  1.010246e+002 
3456250000  -3.909129e+001  9.422374e+001 
3459375000  -4.010537e+001  9.502829e+001 
3462500000  -3.990492e+001  9.476346e+001 
3465625000  -3.969410e+001  9.199974e+001 
3468750000  -4.015157e+001  8.615266e+001 
3471875000  -4.017360e+001  8.595677e+001 
3475000000  -3.970454e+001  7.951492e+001 
3478125000  -4.038528e+001  7.217177e+001 
3481250000  -4.113747e+001  7.019999e+001 
3484375000  -4.216724e+001  7.362612e+001 
3487500000  -4.141413e+001  7.205544e+001 
3490625000  -4.085368e+001  6.724493e+001 
3493750000  -4.123386e+001  6.029533e+001 
3496875000  -4.165158e+001  6.121062e+001 
3500000000  -4.251227e+001  6.241418e+001 
3503125000  -4.202004e+001  6.503080e+001 
3506250000  -4.091357e+001  6.045229e+001 
3509375000  -4.061941e+001  4.986236e+001 
3512500000  -4.121053e+001  4.090960e+001 
3515625000  -4.207130e+001  3.865235e+001 
3518750000  -4.252468e+001  3.895780e+001 
3521875000  -4.240838e+001  3.674805e+001 
3525000000  -4.363866e+001  3.306843e+001 
3528125000  -4.323097e+001  4.133190e+001 
3531250000  -4.203588e+001  3.844696e+001 
3534375000  -4.199516e+001  3.003797e+001 
3537500000  -4.260238e+001  2.314331e+001 
3540625000  -4.341440e+001  2.234161e+001 
3543750000  -4.426457e+001  2.787033e+001 
3546875000  -4.429676e+001  3.942815e+001 
3550000000  -4.143444e+001  3.884692e+001 
3553125000  -4.009792e+001  2.249317e+001 
3556250000  -4.145382e+001  1.625982e+001 
3559375000  -4.131942e+001  1.658084e+001 
3562500000  -4.043955e+001  8.730536e+000 
3565625000  -4.109661e+001  7.894228e-001 
3568750000  -4.122914e+001  3.639255e+000 
3571875000  -4.103469e+001  1.558835e+000 
3575000000  -4.058696e+001  -5.535330e+000 
3578125000  -4.108141e+001  -1.029107e+001 
3581250000  -4.131015e+001  -1.124154e+001 
3584375000  -4.051770e+001  -1.542148e+001 
3587500000  -3.999163e+001  -2.177986e+001 
3590625000  -4.060618e+001  -3.329409e+001 
3593750000  -4.200246e+001  -3.572240e+001 
3596875000  -4.165355e+001  -2.859899e+001 
3600000000  -4.025443e+001  -3.618042e+001 
3603125000  -4.056190e+001  -4.920955e+001 
3606250000  -4.144084e+001  -5.346561e+001 
3609375000  -4.195964e+001  -5.610519e+001 
3612500000  -4.269366e+001  -6.034183e+001 
3615625000  -4.250741e+001  -6.261010e+001 
3618750000  -4.367050e+001  -6.421990e+001 
3621875000  -4.333928e+001  -6.756198e+001 
3625000000  -4.377832e+001  -6.633788e+001 
3628125000  -4.428613e+001  -6.783478e+001 
3631250000  -4.418620e+001  -7.371521e+001 
3634375000  -4.525390e+001  -7.375657e+001 
3637500000  -4.528682e+001  -6.863408e+001 
3640625000  -4.476105e+001  -6.830444e+001 
3643750000  -4.432815e+001  -7.079342e+001 
3646875000  -4.443903e+001  -7.795694e+001 
3650000000  -4.549706e+001  -7.703585e+001 
3653125000  -4.549655e+001  -7.631550e+001 
3656250000  -4.536411e+001  -8.035989e+001 
3659375000  -4.603321e+001  -7.866371e+001 
3662500000  -4.453750e+001  -7.908836e+001 
3665625000  -4.438886e+001  -7.663140e+001 
3668750000  -4.409774e+001  -7.868076e+001 
3671875000  -4.256622e+001  -8.295547e+001 
3675000000  -4.327831e+001  -9.133660e+001 
3678125000  -4.312758e+001  -9.254532e+001 
3681250000  -4.322057e+001  -9.683450e+001 
3684375000  -4.278442e+001  -9.942234e+001 
3687500000  -4.319861e+001  -1.044895e+002 
3690625000  -4.313829e+001  -1.088842e+002 
3693750000  -4.415601e+001  -1.073261e+002 
3696875000  -4.359298e+001  -1.066213e+002 
3700000000  -4.275529e+001  -1.142623e+002 
3703125000  -4.289066e+001  -1.179433e+002 
3706250000  -4.376273e+001  -1.182239e+002 
3709375000  -4.339131e+001  -1.165371e+002 
3712500000  -4.252424e+001  -1.201949e+002 
3715625000  -4.162238e+001  -1.271038e+002 
3718750000  -4.130682e+001  -1.321000e+002 
3721875000  -4.106902e+001  -1.390932e+002 
3725000000  -4.158183e+001  -1.455276e+002 
3728125000  -4.195147e+001  -1.460206e+002 
3731250000  -4.163268e+001  -1.484039e+002 
3734375000  -4.119773e+001  -1.548875e+002 
3737500000  -4.202840e+001  -1.621694e+002 
3740625000  -4.336737e+001  -1.658651e+002 
3743750000  -4.329279e+001  -1.700405e+002 
3746875000  -4.350643e+001  -1.713855e+002 
3750000000  -4.373311e+001  -1.734967e+002 
3753125000  -4.434246e+001  -1.739769e+002 
3756250000  -4.447475e+001  -1.728767e+002 
3759375000  -4.448178e+001  -1.731411e+002 
3762500000  -4.397964e+001  -1.745955e+002 
3765625000  -4.476255e+001  -1.757292e+002 
3768750000  -4.474533e+001  -1.729284e+002 
3771875000  -4.318005e+001  -1.728181e+002 
3775000000  -4.295993e+001  1.798925e+002 
3778125000  -4.349123e+001  1.786784e+002 
3781250000  -4.302785e+001  1.783375e+002 
3784375000  -4.290903e+001  1.754738e+002 
3787500000  -4.180660e+001  1.725552e+002 
3790625000  -4.244191e+001  1.681568e+002 
3793750000  -4.242015e+001  1.655513e+002 
3796875000  -4.140604e+001  1.658315e+002 
3800000000  -3.961636e+001  1.633453e+002 
3803125000  -4.033483e+001  1.524880e+002 
3806250000  -4.105812e+001  1.496819e+002 
3809375000  -4.057088e+001  1.489936e+002 
3812500000  -3.958923e+001  1.422869e+002 
3815625000  -4.073072e+001  1.309131e+002 
3818750000  -4.134659e+001  1.321911e+002 
3821875000  -4.128719e+001  1.411320e+002 
3825000000  -3.941829e+001  1.415657e+002 
3828125000  -3.799617e+001  1.251888e+002 
3831250000  -3.859374e+001  1.107832e+002 
3834375000  -4.021491e+001  1.095619e+002 
3837500000  -4.110437e+001  1.137958e+002 
3840625000  -3.987481e+001  1.125387e+002 
3843750000  -3.898254e+001  1.005758e+002 
3846875000  -3.988295e+001  9.516396e+001 
3850000000  -4.123870e+001  9.749236e+001 
3853125000  -4.030938e+001  9.966752e+001 
3856250000  -4.018401e+001  9.281548e+001 
3859375000  -3.959360e+001  8.837194e+001 
3862500000  -3.944368e+001  7.966331e+001 
3865625000  -3.988173e+001  7.460607e+001 
3868750000  -3.969806e+001  7.460329e+001 
3871875000  -3.916236e+001  7.030264e+001 
3875000000  -3.956645e+001  6.013358e+001 
3878125000  -4.071524e+001  5.810872e+001 
3881250000  -4.072247e+001  6.147388e+001 
3884375000  -4.003651e+001  5.592788e+001 
3887500000  -4.028496e+001  5.204730e+001 
3890625000  -4.098324e+001  4.919285e+001 
3893750000  -4.104873e+001  4.714521e+001 
3896875000  -4.172875e+001  5.025413e+001 
3900000000  -4.179452e+001  4.693045e+001 
3903125000  -4.117744e+001  4.432981e+001 
3906250000  -4.067703e+001  4.215403e+001 
3909375000  -4.051995e+001  3.866107e+001 
3912500000  -4.036459e+001  3.120849e+001 
3915625000  -4.144856e+001  3.247532e+001 
3918750000  -4.106526e+001  3.383031e+001 
3921875000  -4.095977e+001  3.184671e+001 
3925000000  -3.983425e+001  2.762298e+001 
3928125000  -3.914674e+001  2.056013e+001 
3931250000  -3.957984e+001  1.776671e+001 
3934375000  -3.994376e+001  1.541809e+001 
3937500000  -4.032814e+001  1.217077e+001 
3940625000  -4.059136e+001  1.193627e+001 
3943750000  -3.940583e+001  1.217050e+001 
3946875000  -3.811547e+001  5.652346e+000 
3950000000  -3.912454e+001  -3.334623e+000 
3953125000  -4.008762e+001  -5.563859e+000 
3956250000  -3.897037e+001  -1.598459e+000 
3959375000  -3.770448e+001  -5.537109e+000 
3962500000  -3.724501e+001  -1.149710e+001 
3965625000  -3.744602e+001  -2.203690e+001 
3968750000  -3.817228e+001  -3.036819e+001 
3971875000  -3.847181e+001  -3.271599e+001 
3975000000  -3.779523e+001  -3.258168e+001 
3978125000  -3.788862e+001  -3.818295e+001 
3981250000  -3.780440e+001  -4.368322e+001 
3984375000  -3.830630e+001  -5.088830e+001 
3987500000  -3.880359e+001  -5.139260e+001 
3990625000  -3.871991e+001  -5.250532e+001 
3993750000  -3.910618e+001  -5.664245e+001 
3996875000  -3.888495e+001  -6.211373e+001 
4000000000  -3.951935e+001  -6.216184e+001 
4003125000  -3.974271e+001  -6.094285e+001 
4006250000  -3.828169e+001  -6.225471e+001 
4009375000  -3.738432e+001  -7.611649e+001 
4012500000  -3.887093e+001  -8.225552e+001 
4015625000  -3.962374e+001  -8.128015e+001 
4018750000  -3.995945e+001  -7.976935e+001 
4021875000  -3.919549e+001  -8.289687e+001 
4025000000  -3.896501e+001  -8.862285e+001 
4028125000  -3.885212e+001  -9.131571e+001 
4031250000  -3.934534e+001  -9.487462e+001 
4034375000  -3.974678e+001  -9.501105e+001 
4037500000  -3.938906e+001  -9.461124e+001 
4040625000  -3.912465e+001  -9.733866e+001 
4043750000  -3.955067e+001  -1.005254e+002 
4046875000  -3.891050e+001  -1.010814e+002 
4050000000  -3.851338e+001  -1.059280e+002 
4053125000  -3.904718e+001  -1.080044e+002 
4056250000  -3.957750e+001  -1.062843e+002 
4059375000  -3.798237e+001  -1.049416e+002 
4062500000  -3.678014e+001  -1.103819e+002 
4065625000  -3.664701e+001  -1.145484e+002 
4068750000  -3.642325e+001  -1.207990e+002 
4071875000  -3.566856e+001  -1.295786e+002 
4075000000  -3.624157e+001  -1.360108e+002 
4078125000  -3.655258e+001  -1.391423e+002 
4081250000  -3.611589e+001  -1.419123e+002 
4084375000  -3.580370e+001  -1.511483e+002 
4087500000  -3.609147e+001  -1.567201e+002 
4090625000  -3.689399e+001  -1.584614e+002 
4093750000  -3.653862e+001  -1.600708e+002 
4096875000  -3.618840e+001  -1.667397e+002 
4100000000  -3.703711e+001  -1.745979e+002 
4103125000  -3.780596e+001  -1.743380e+002 
4106250000  -3.767265e+001  -1.691906e+002 
4109375000  -3.642082e+001  -1.724375e+002 
4112500000  -3.618349e+001  -1.799621e+002 
4115625000  -3.658455e+001  1.745710e+002 
4118750000  -3.683745e+001  1.704717e+002 
4121875000  -3.627858e+001  1.655413e+002 
4125000000  -3.693103e+001  1.595889e+002 
4128125000  -3.779166e+001  1.596368e+002 
4131250000  -3.756522e+001  1.665962e+002 
4134375000  -3.520025e+001  1.605444e+002 
4137500000  -3.519835e+001  1.408283e+002 
4140625000  -3.752779e+001  1.328559e+002 
4143750000  -3.888712e+001  1.400333e+002 
4146875000  -3.834555e+001  1.458185e+002 
4150000000  -3.761730e+001  1.390239e+002 
4153125000  -3.745593e+001  1.324857e+002 
4156250000  -3.886294e+001  1.306545e+002 
4159375000  -3.884450e+001  1.345609e+002 
4162500000  -3.794196e+001  1.390454e+002 
4165625000  -3.665457e+001  1.338708e+002 
4168750000  -3.588150e+001  1.272204e+002 
4171875000  -3.598958e+001  1.158643e+002 
4175000000  -3.670415e+001  1.113850e+002 
4178125000  -3.716983e+001  1.115513e+002 
4181250000  -3.702438e+001  1.108022e+002 
4184375000  -3.693944e+001  1.055327e+002 
4187500000  -3.683012e+001  1.024165e+002 
4190625000  -3.650901e+001  9.599529e+001 
4193750000  -3.736604e+001  9.250727e+001 
4196875000  -3.829062e+001  9.019161e+001 
4200000000  -3.911536e+001  9.269319e+001 
4203125000  -3.867962e+001  1.064170e+002 
4206250000  -3.515749e+001  1.073284e+002 
4209375000  -3.446610e+001  8.445446e+001 
4212500000  -3.621810e+001  7.556033e+001 
4215625000  -3.707444e+001  8.016769e+001 
4218750000  -3.565756e+001  8.687782e+001 
4221875000  -3.341777e+001  7.636887e+001 
4225000000  -3.441555e+001  6.393471e+001 
4228125000  -3.521161e+001  6.792189e+001 
4231250000  -3.353930e+001  6.230315e+001 
4234375000  -3.339746e+001  5.386263e+001 
4237500000  -3.326949e+001  4.889855e+001 
4240625000  -3.307309e+001  3.864090e+001 
4243750000  -3.404324e+001  3.017312e+001 
4246875000  -3.518453e+001  2.951110e+001 
4250000000  -3.503608e+001  3.083621e+001 
4253125000  -3.449159e+001  2.737798e+001 
4256250000  -3.472749e+001  2.212815e+001 
4259375000  -3.463094e+001  1.959840e+001 
4262500000  -3.477070e+001  1.496644e+001 
4265625000  -3.488161e+001  1.455681e+001 
4268750000  -3.384629e+001  7.907804e+000 
4271875000  -3.382021e+001  1.716633e+000 
4275000000  -3.346008e+001  -6.659090e+000 
4278125000  -3.424900e+001  -1.731143e+001 
4281250000  -3.600503e+001  -1.977486e+001 
4284375000  -3.599369e+001  -1.954041e+001 
4287500000  -3.689815e+001  -2.282664e+001 
4290625000  -3.823026e+001  -1.406355e+001 
4293750000  -3.630053e+001  -9.513314e+000 
4296875000  -3.531154e+001  -2.050842e+001 
4300000000  -3.609655e+001  -3.096415e+001 
4303125000  -3.721325e+001  -2.849631e+001 
4306250000  -3.647464e+001  -2.261065e+001 
4309375000  -3.524883e+001  -2.587823e+001 
4312500000  -3.497419e+001  -3.429853e+001 
4315625000  -3.512835e+001  -3.920951e+001 
4318750000  -3.567250e+001  -4.232869e+001 
4321875000  -3.562210e+001  -4.231997e+001 
4325000000  -3.505709e+001  -4.239928e+001 
4328125000  -3.437577e+001  -4.832469e+001 
4331250000  -3.415760e+001  -5.744814e+001 
4334375000  -3.461789e+001  -6.261512e+001 
4337500000  -3.538520e+001  -6.533062e+001 
4340625000  -3.598023e+001  -6.172711e+001 
4343750000  -3.485317e+001  -6.240654e+001 
4346875000  -3.462043e+001  -6.875304e+001 
4350000000  -3.470313e+001  -7.562753e+001 
4353125000  -3.461247e+001  -8.298440e+001 
4356250000  -3.648048e+001  -8.470335e+001 
4359375000  -3.669765e+001  -7.013021e+001 
4362500000  -3.349294e+001  -7.225272e+001 
4365625000  -3.205681e+001  -8.545190e+001 
4368750000  -3.290531e+001  -9.807874e+001 
4371875000  -3.389940e+001  -9.850436e+001 
4375000000  -3.337828e+001  -1.000476e+002 
4378125000  -3.287844e+001  -1.060013e+002 
4381250000  -3.300832e+001  -1.134530e+002 
4384375000  -3.276617e+001  -1.200882e+002 
4387500000  -3.360414e+001  -1.274809e+002 
4390625000  -3.476068e+001  -1.260105e+002 
4393750000  -3.390851e+001  -1.264982e+002 
4396875000  -3.341629e+001  -1.290736e+002 
4400000000  -3.280561e+001  -1.385664e+002 
4403125000  -3.363321e+001  -1.472300e+002 
4406250000  -3.424208e+001  -1.494451e+002 
4409375000  -3.450623e+001  -1.530237e+002 
4412500000  -3.566477e+001  -1.567241e+002 
4415625000  -3.614188e+001  -1.502248e+002 
