!Agilent Technologies,E8363B,MY43030201,A.06.04.32
!Agilent E8363B: A.06.04.32
!Date: Tuesday, November 11, 2014 21:10:01
!Correction: S21(Response(S21)) 
!S1P File: Measurement: S21:
# Hz S  dB   R 50
3000000000  -3.642441e+001  -5.638623e+001 
3003125000  -3.761568e+001  -6.214307e+001 
3006250000  -3.745020e+001  -6.477111e+001 
3009375000  -3.777771e+001  -6.054746e+001 
3012500000  -3.692497e+001  -6.122780e+001 
3015625000  -3.621035e+001  -6.983384e+001 
3018750000  -3.683801e+001  -7.054188e+001 
3021875000  -3.550898e+001  -6.929652e+001 
3025000000  -3.418837e+001  -7.331163e+001 
3028125000  -3.322824e+001  -8.015609e+001 
3031250000  -3.224311e+001  -9.076685e+001 
3034375000  -3.190715e+001  -1.043786e+002 
3037500000  -3.231137e+001  -1.166509e+002 
3040625000  -3.372093e+001  -1.213813e+002 
3043750000  -3.435712e+001  -1.273642e+002 
3046875000  -3.453903e+001  -1.322427e+002 
3050000000  -3.618660e+001  -1.384239e+002 
3053125000  -3.622164e+001  -1.318756e+002 
3056250000  -3.561694e+001  -1.294797e+002 
3059375000  -3.580797e+001  -1.296605e+002 
3062500000  -3.429921e+001  -1.324475e+002 
3065625000  -3.397402e+001  -1.387106e+002 
3068750000  -3.355349e+001  -1.458383e+002 
3071875000  -3.356901e+001  -1.481372e+002 
3075000000  -3.332620e+001  -1.524687e+002 
3078125000  -3.309562e+001  -1.566351e+002 
3081250000  -3.360320e+001  -1.613048e+002 
3084375000  -3.267875e+001  -1.643070e+002 
3087500000  -3.253084e+001  -1.684563e+002 
3090625000  -3.200872e+001  -1.789405e+002 
3093750000  -3.250630e+001  1.738342e+002 
3096875000  -3.339500e+001  1.682307e+002 
3100000000  -3.337198e+001  1.662261e+002 
3103125000  -3.362724e+001  1.667355e+002 
3106250000  -3.315280e+001  1.629381e+002 
3109375000  -3.321077e+001  1.591438e+002 
3112500000  -3.327408e+001  1.560919e+002 
3115625000  -3.285592e+001  1.519410e+002 
3118750000  -3.313251e+001  1.514182e+002 
3121875000  -3.220705e+001  1.422397e+002 
3125000000  -3.362771e+001  1.376201e+002 
3128125000  -3.447781e+001  1.454641e+002 
3131250000  -3.191899e+001  1.438285e+002 
3134375000  -3.076079e+001  1.279467e+002 
3137500000  -3.134913e+001  1.139569e+002 
3140625000  -3.286526e+001  1.110975e+002 
3143750000  -3.385539e+001  1.121044e+002 
3146875000  -3.328214e+001  1.132722e+002 
3150000000  -3.230792e+001  1.135116e+002 
3153125000  -3.238527e+001  1.041131e+002 
3156250000  -3.345167e+001  1.093674e+002 
3159375000  -3.156990e+001  1.100533e+002 
3162500000  -2.971628e+001  9.538758e+001 
3165625000  -3.079723e+001  8.351752e+001 
3168750000  -3.106698e+001  8.341263e+001 
3171875000  -3.018933e+001  7.801271e+001 
3175000000  -3.098228e+001  6.878942e+001 
3178125000  -3.069497e+001  6.975386e+001 
3181250000  -2.961542e+001  6.421194e+001 
3184375000  -2.898026e+001  5.219367e+001 
3187500000  -3.018558e+001  3.660590e+001 
3190625000  -3.282386e+001  2.863217e+001 
3193750000  -3.339338e+001  3.763257e+001 
3196875000  -3.310062e+001  4.145898e+001 
3200000000  -3.208268e+001  3.896806e+001 
3203125000  -3.137235e+001  3.294838e+001 
3206250000  -3.168605e+001  2.606316e+001 
3209375000  -3.116344e+001  1.997028e+001 
3212500000  -3.147441e+001  1.310057e+001 
3215625000  -3.156735e+001  9.590398e+000 
3218750000  -3.228326e+001  2.409854e+000 
3221875000  -3.306843e+001  -2.640588e+000 
3225000000  -3.269340e+001  -4.500922e+000 
3228125000  -3.308711e+001  -9.620749e+000 
3231250000  -3.387184e+001  -1.176030e+001 
3234375000  -3.345647e+001  -1.202985e+001 
3237500000  -3.346643e+001  -1.392703e+001 
3240625000  -3.298787e+001  -1.623490e+001 
3243750000  -3.266851e+001  -2.347382e+001 
3246875000  -3.302377e+001  -3.132906e+001 
3250000000  -3.345078e+001  -3.334180e+001 
3253125000  -3.360189e+001  -3.588889e+001 
3256250000  -3.319838e+001  -4.145467e+001 
3259375000  -3.344225e+001  -4.985277e+001 
3262500000  -3.467578e+001  -5.496181e+001 
3265625000  -3.541719e+001  -5.129689e+001 
3268750000  -3.514773e+001  -4.922621e+001 
3271875000  -3.465510e+001  -4.955346e+001 
3275000000  -3.372908e+001  -5.715334e+001 
3278125000  -3.419774e+001  -6.381272e+001 
3281250000  -3.431656e+001  -6.268427e+001 
3284375000  -3.389427e+001  -6.921520e+001 
3287500000  -3.400079e+001  -7.274340e+001 
3290625000  -3.420479e+001  -7.888681e+001 
3293750000  -3.410098e+001  -8.534800e+001 
3296875000  -3.507282e+001  -8.512147e+001 
3300000000  -3.486504e+001  -8.514189e+001 
3303125000  -3.359596e+001  -9.116212e+001 
3306250000  -3.352071e+001  -9.814349e+001 
3309375000  -3.312969e+001  -1.042197e+002 
3312500000  -3.337030e+001  -1.154431e+002 
3315625000  -3.434206e+001  -1.231346e+002 
3318750000  -3.569929e+001  -1.258001e+002 
3321875000  -3.685135e+001  -1.270559e+002 
3325000000  -3.714307e+001  -1.209738e+002 
3328125000  -3.674083e+001  -1.185732e+002 
3331250000  -3.568213e+001  -1.139635e+002 
3334375000  -3.295898e+001  -1.248055e+002 
3337500000  -3.313669e+001  -1.446020e+002 
3340625000  -3.462615e+001  -1.551073e+002 
3343750000  -3.652505e+001  -1.561362e+002 
3346875000  -3.669103e+001  -1.541393e+002 
3350000000  -3.590234e+001  -1.557734e+002 
3353125000  -3.604300e+001  -1.604962e+002 
3356250000  -3.575588e+001  -1.688850e+002 
3359375000  -3.656738e+001  -1.774201e+002 
3362500000  -3.782857e+001  1.768943e+002 
3365625000  -3.822896e+001  1.770104e+002 
3368750000  -3.873825e+001  1.733843e+002 
3371875000  -3.904568e+001  1.719337e+002 
3375000000  -4.057348e+001  1.678902e+002 
3378125000  -4.138488e+001  1.685943e+002 
3381250000  -4.255415e+001  1.772330e+002 
3384375000  -4.084652e+001  -1.611634e+002 
3387500000  -3.763552e+001  -1.775355e+002 
3390625000  -3.935118e+001  1.639654e+002 
3393750000  -4.048159e+001  1.673808e+002 
3396875000  -3.932996e+001  1.679374e+002 
3400000000  -3.870194e+001  1.609514e+002 
3403125000  -3.945000e+001  1.527010e+002 
3406250000  -3.982764e+001  1.532607e+002 
3409375000  -3.980748e+001  1.462495e+002 
3412500000  -4.024240e+001  1.433911e+002 
3415625000  -4.103691e+001  1.456559e+002 
3418750000  -4.116280e+001  1.460408e+002 
3421875000  -4.129942e+001  1.484668e+002 
3425000000  -4.042307e+001  1.486776e+002 
3428125000  -3.930428e+001  1.440089e+002 
3431250000  -3.924813e+001  1.375186e+002 
3434375000  -3.911547e+001  1.307833e+002 
3437500000  -3.981682e+001  1.271592e+002 
3440625000  -3.998820e+001  1.288186e+002 
3443750000  -3.875775e+001  1.293275e+002 
3446875000  -3.799171e+001  1.214361e+002 
3450000000  -3.760505e+001  1.117058e+002 
3453125000  -3.798990e+001  1.025501e+002 
3456250000  -3.927882e+001  9.510596e+001 
3459375000  -4.024891e+001  9.622214e+001 
3462500000  -3.999081e+001  9.511600e+001 
3465625000  -3.997386e+001  9.088036e+001 
3468750000  -4.026277e+001  8.756560e+001 
3471875000  -4.042752e+001  8.412775e+001 
3475000000  -3.991761e+001  8.061990e+001 
3478125000  -4.054847e+001  7.436308e+001 
3481250000  -4.162725e+001  7.152993e+001 
3484375000  -4.254070e+001  7.481792e+001 
3487500000  -4.178818e+001  7.485620e+001 
3490625000  -4.112544e+001  6.999152e+001 
3493750000  -4.155762e+001  6.347782e+001 
3496875000  -4.209093e+001  6.231971e+001 
3500000000  -4.298951e+001  6.447129e+001 
3503125000  -4.220033e+001  6.874737e+001 
3506250000  -4.096001e+001  6.318726e+001 
3509375000  -4.105634e+001  5.430874e+001 
3512500000  -4.138820e+001  4.564528e+001 
3515625000  -4.208726e+001  4.485013e+001 
3518750000  -4.268821e+001  4.548277e+001 
3521875000  -4.225232e+001  4.227824e+001 
3525000000  -4.319442e+001  3.891693e+001 
3528125000  -4.312613e+001  4.706597e+001 
3531250000  -4.182816e+001  4.556841e+001 
3534375000  -4.159461e+001  3.351205e+001 
3537500000  -4.202276e+001  2.786610e+001 
3540625000  -4.300249e+001  2.644049e+001 
3543750000  -4.371943e+001  3.123846e+001 
3546875000  -4.363508e+001  4.257037e+001 
3550000000  -4.080182e+001  4.285642e+001 
3553125000  -3.977013e+001  2.376353e+001 
3556250000  -4.121461e+001  1.484855e+001 
3559375000  -4.082951e+001  1.971196e+001 
3562500000  -4.001196e+001  8.473414e+000 
3565625000  -4.082213e+001  -3.984403e-001 
3568750000  -4.100269e+001  2.163395e+000 
3571875000  -4.073692e+001  1.307806e+000 
3575000000  -4.030010e+001  -6.891805e+000 
3578125000  -4.093212e+001  -1.099309e+001 
3581250000  -4.110973e+001  -1.358542e+001 
3584375000  -4.042310e+001  -1.678851e+001 
3587500000  -3.998536e+001  -2.440212e+001 
3590625000  -4.032925e+001  -3.410024e+001 
3593750000  -4.189117e+001  -3.637757e+001 
3596875000  -4.160301e+001  -3.054984e+001 
3600000000  -4.027171e+001  -3.610249e+001 
3603125000  -4.080650e+001  -5.197913e+001 
3606250000  -4.185101e+001  -5.388560e+001 
3609375000  -4.247253e+001  -5.703936e+001 
3612500000  -4.305213e+001  -6.015389e+001 
3615625000  -4.339787e+001  -6.374284e+001 
3618750000  -4.417873e+001  -6.137354e+001 
3621875000  -4.389869e+001  -6.475735e+001 
3625000000  -4.482523e+001  -6.438060e+001 
3628125000  -4.510656e+001  -6.585328e+001 
3631250000  -4.463348e+001  -7.170179e+001 
3634375000  -4.612321e+001  -6.883125e+001 
3637500000  -4.588481e+001  -6.278384e+001 
3640625000  -4.500665e+001  -6.185694e+001 
3643750000  -4.449148e+001  -6.576194e+001 
3646875000  -4.502364e+001  -6.930223e+001 
3650000000  -4.552354e+001  -6.958679e+001 
3653125000  -4.544927e+001  -7.244998e+001 
3656250000  -4.506452e+001  -7.217197e+001 
3659375000  -4.522280e+001  -7.033590e+001 
3662500000  -4.455055e+001  -7.157100e+001 
3665625000  -4.403384e+001  -7.578040e+001 
3668750000  -4.326111e+001  -7.520105e+001 
3671875000  -4.202084e+001  -8.341325e+001 
3675000000  -4.234683e+001  -9.093413e+001 
3678125000  -4.267460e+001  -9.281429e+001 
3681250000  -4.229265e+001  -9.466994e+001 
3684375000  -4.218058e+001  -9.931957e+001 
3687500000  -4.259216e+001  -1.060098e+002 
3690625000  -4.232162e+001  -1.084302e+002 
3693750000  -4.337484e+001  -1.113156e+002 
3696875000  -4.309248e+001  -1.103096e+002 
3700000000  -4.226185e+001  -1.142798e+002 
3703125000  -4.252248e+001  -1.213311e+002 
3706250000  -4.334962e+001  -1.200975e+002 
3709375000  -4.300187e+001  -1.187883e+002 
3712500000  -4.219579e+001  -1.216565e+002 
3715625000  -4.144930e+001  -1.294734e+002 
3718750000  -4.125237e+001  -1.372752e+002 
3721875000  -4.111288e+001  -1.418404e+002 
3725000000  -4.153339e+001  -1.475026e+002 
3728125000  -4.194066e+001  -1.483162e+002 
3731250000  -4.168901e+001  -1.508335e+002 
3734375000  -4.131824e+001  -1.560787e+002 
3737500000  -4.219312e+001  -1.669346e+002 
3740625000  -4.344415e+001  -1.655128e+002 
3743750000  -4.365533e+001  -1.713618e+002 
3746875000  -4.365379e+001  -1.727986e+002 
3750000000  -4.468108e+001  -1.732871e+002 
3753125000  -4.469702e+001  -1.727276e+002 
3756250000  -4.495652e+001  -1.706548e+002 
3759375000  -4.470161e+001  -1.697828e+002 
3762500000  -4.459187e+001  -1.734909e+002 
3765625000  -4.556371e+001  -1.720512e+002 
3768750000  -4.487998e+001  -1.681423e+002 
3771875000  -4.344344e+001  -1.719717e+002 
3775000000  -4.305665e+001  -1.741224e+002 
3778125000  -4.339930e+001  -1.766696e+002 
3781250000  -4.277999e+001  -1.784623e+002 
3784375000  -4.245794e+001  1.797299e+002 
3787500000  -4.167217e+001  1.761483e+002 
3790625000  -4.204542e+001  1.698374e+002 
3793750000  -4.197601e+001  1.691663e+002 
3796875000  -4.104207e+001  1.671071e+002 
3800000000  -3.912265e+001  1.654189e+002 
3803125000  -3.990464e+001  1.518377e+002 
3806250000  -4.051058e+001  1.508937e+002 
3809375000  -4.014984e+001  1.495274e+002 
3812500000  -3.957868e+001  1.422039e+002 
3815625000  -4.018917e+001  1.316366e+002 
3818750000  -4.100732e+001  1.305296e+002 
3821875000  -4.110416e+001  1.388360e+002 
3825000000  -3.919622e+001  1.403393e+002 
3828125000  -3.783069e+001  1.248931e+002 
3831250000  -3.855894e+001  1.110317e+002 
3834375000  -4.003339e+001  1.077586e+002 
3837500000  -4.095902e+001  1.108073e+002 
3840625000  -3.979651e+001  1.109059e+002 
3843750000  -3.861558e+001  9.790995e+001 
3846875000  -3.967343e+001  9.053165e+001 
3850000000  -4.105276e+001  9.527074e+001 
3853125000  -4.024697e+001  9.661431e+001 
3856250000  -4.007671e+001  9.123057e+001 
3859375000  -3.970359e+001  8.745384e+001 
3862500000  -3.993515e+001  7.764117e+001 
3865625000  -3.994456e+001  7.499510e+001 
3868750000  -3.980205e+001  7.248312e+001 
3871875000  -3.951576e+001  6.912873e+001 
3875000000  -3.956273e+001  6.039410e+001 
3878125000  -4.083922e+001  5.817865e+001 
3881250000  -4.080541e+001  5.985511e+001 
3884375000  -4.051863e+001  5.865634e+001 
3887500000  -4.072008e+001  5.230805e+001 
3890625000  -4.126614e+001  4.994347e+001 
3893750000  -4.172017e+001  4.896117e+001 
3896875000  -4.199416e+001  4.959576e+001 
3900000000  -4.205037e+001  4.784378e+001 
3903125000  -4.165289e+001  4.649204e+001 
3906250000  -4.122226e+001  4.496677e+001 
3909375000  -4.004272e+001  4.135873e+001 
3912500000  -4.040765e+001  3.374096e+001 
3915625000  -4.154200e+001  3.508093e+001 
3918750000  -4.116151e+001  3.637757e+001 
3921875000  -4.062541e+001  3.274111e+001 
3925000000  -3.974101e+001  3.068336e+001 
3928125000  -3.908540e+001  2.370466e+001 
3931250000  -3.960818e+001  1.703085e+001 
3934375000  -3.959363e+001  1.765047e+001 
3937500000  -4.000686e+001  1.469878e+001 
3940625000  -4.018672e+001  1.266246e+001 
3943750000  -3.896374e+001  1.282378e+001 
3946875000  -3.808931e+001  7.206705e+000 
3950000000  -3.858831e+001  -1.414683e+000 
3953125000  -3.968762e+001  -3.883049e+000 
3956250000  -3.862250e+001  -1.332551e+000 
3959375000  -3.721119e+001  -5.862580e+000 
3962500000  -3.722182e+001  -1.241477e+001 
3965625000  -3.688210e+001  -2.233941e+001 
3968750000  -3.804606e+001  -3.012889e+001 
3971875000  -3.820403e+001  -3.195074e+001 
3975000000  -3.774696e+001  -3.499416e+001 
3978125000  -3.781845e+001  -3.885682e+001 
3981250000  -3.769181e+001  -4.442521e+001 
3984375000  -3.803134e+001  -5.041121e+001 
3987500000  -3.861390e+001  -5.202633e+001 
3990625000  -3.865004e+001  -5.536124e+001 
3993750000  -3.899601e+001  -6.031047e+001 
3996875000  -3.903479e+001  -6.351234e+001 
4000000000  -3.924315e+001  -6.372146e+001 
4003125000  -3.986609e+001  -6.259702e+001 
4006250000  -3.861441e+001  -6.247004e+001 
4009375000  -3.738241e+001  -7.771410e+001 
4012500000  -3.892415e+001  -8.140806e+001 
4015625000  -4.058075e+001  -8.104807e+001 
4018750000  -4.035354e+001  -7.962385e+001 
4021875000  -3.965021e+001  -8.221312e+001 
4025000000  -3.934902e+001  -8.544535e+001 
4028125000  -3.931715e+001  -9.054482e+001 
4031250000  -3.967225e+001  -9.380031e+001 
4034375000  -4.019832e+001  -9.341557e+001 
4037500000  -3.995409e+001  -9.128660e+001 
4040625000  -3.947085e+001  -9.579272e+001 
4043750000  -3.965267e+001  -9.629615e+001 
4046875000  -3.928640e+001  -9.611233e+001 
4050000000  -3.850165e+001  -1.029227e+002 
4053125000  -3.926502e+001  -1.053216e+002 
4056250000  -3.953051e+001  -1.019445e+002 
4059375000  -3.787666e+001  -1.008717e+002 
4062500000  -3.668336e+001  -1.083501e+002 
4065625000  -3.666898e+001  -1.112164e+002 
4068750000  -3.621835e+001  -1.198581e+002 
4071875000  -3.541644e+001  -1.271232e+002 
4075000000  -3.588641e+001  -1.349961e+002 
4078125000  -3.642533e+001  -1.357127e+002 
4081250000  -3.592941e+001  -1.399141e+002 
4084375000  -3.538542e+001  -1.475823e+002 
4087500000  -3.587573e+001  -1.548921e+002 
4090625000  -3.650108e+001  -1.569143e+002 
4093750000  -3.615456e+001  -1.591072e+002 
4096875000  -3.583207e+001  -1.660908e+002 
4100000000  -3.680158e+001  -1.744631e+002 
4103125000  -3.773859e+001  -1.734194e+002 
4106250000  -3.740047e+001  -1.690907e+002 
4109375000  -3.642339e+001  -1.718127e+002 
4112500000  -3.605756e+001  -1.793729e+002 
4115625000  -3.634370e+001  1.753673e+002 
4118750000  -3.663084e+001  1.717643e+002 
4121875000  -3.620959e+001  1.655164e+002 
4125000000  -3.669618e+001  1.585731e+002 
4128125000  -3.789491e+001  1.585104e+002 
4131250000  -3.737002e+001  1.664793e+002 
4134375000  -3.532785e+001  1.602916e+002 
4137500000  -3.531385e+001  1.407366e+002 
4140625000  -3.768791e+001  1.325666e+002 
4143750000  -3.888284e+001  1.373073e+002 
4146875000  -3.849472e+001  1.421363e+002 
4150000000  -3.773128e+001  1.398839e+002 
4153125000  -3.779156e+001  1.325197e+002 
4156250000  -3.890191e+001  1.313517e+002 
4159375000  -3.894867e+001  1.345646e+002 
4162500000  -3.809324e+001  1.401878e+002 
4165625000  -3.701969e+001  1.353504e+002 
4168750000  -3.621204e+001  1.274280e+002 
4171875000  -3.635452e+001  1.180614e+002 
4175000000  -3.691525e+001  1.132673e+002 
4178125000  -3.750213e+001  1.134468e+002 
4181250000  -3.712442e+001  1.131500e+002 
4184375000  -3.693627e+001  1.086638e+002 
4187500000  -3.684177e+001  1.044053e+002 
4190625000  -3.666710e+001  1.003619e+002 
4193750000  -3.756997e+001  9.599757e+001 
4196875000  -3.841503e+001  9.466985e+001 
4200000000  -3.918383e+001  9.692927e+001 
4203125000  -3.872532e+001  1.111305e+002 
4206250000  -3.506952e+001  1.090273e+002 
4209375000  -3.431661e+001  8.684039e+001 
4212500000  -3.606877e+001  7.859979e+001 
4215625000  -3.692845e+001  8.462173e+001 
4218750000  -3.530117e+001  8.867989e+001 
4221875000  -3.312084e+001  7.826183e+001 
4225000000  -3.448352e+001  6.477054e+001 
4228125000  -3.474828e+001  6.953138e+001 
4231250000  -3.329987e+001  6.406640e+001 
4234375000  -3.319347e+001  5.468976e+001 
4237500000  -3.273112e+001  5.073986e+001 
4240625000  -3.274026e+001  3.990834e+001 
4243750000  -3.388316e+001  3.155862e+001 
4246875000  -3.472511e+001  3.089061e+001 
4250000000  -3.478706e+001  3.256160e+001 
4253125000  -3.429995e+001  2.882321e+001 
4256250000  -3.446178e+001  2.328289e+001 
4259375000  -3.446623e+001  1.970457e+001 
4262500000  -3.436054e+001  1.514334e+001 
4265625000  -3.456930e+001  1.373836e+001 
4268750000  -3.388918e+001  9.710281e+000 
4271875000  -3.372279e+001  6.470658e-001 
4275000000  -3.332263e+001  -6.392711e+000 
4278125000  -3.427418e+001  -1.764205e+001 
4281250000  -3.611155e+001  -2.051851e+001 
4284375000  -3.583032e+001  -1.995302e+001 
4287500000  -3.700198e+001  -2.509652e+001 
4290625000  -3.828141e+001  -1.455713e+001 
4293750000  -3.631365e+001  -9.808750e+000 
4296875000  -3.509295e+001  -2.124331e+001 
4300000000  -3.617479e+001  -2.976035e+001 
4303125000  -3.733587e+001  -2.860163e+001 
4306250000  -3.670164e+001  -2.257653e+001 
4309375000  -3.532513e+001  -2.344816e+001 
4312500000  -3.498851e+001  -3.226148e+001 
4315625000  -3.532000e+001  -3.732978e+001 
4318750000  -3.555536e+001  -4.044956e+001 
4321875000  -3.574796e+001  -4.033491e+001 
4325000000  -3.506772e+001  -3.991369e+001 
4328125000  -3.433416e+001  -4.605806e+001 
4331250000  -3.428242e+001  -5.505967e+001 
4334375000  -3.477371e+001  -6.013290e+001 
4337500000  -3.540697e+001  -6.303395e+001 
4340625000  -3.574583e+001  -5.844446e+001 
4343750000  -3.484636e+001  -5.958847e+001 
4346875000  -3.442390e+001  -6.623346e+001 
4350000000  -3.432182e+001  -7.151769e+001 
4353125000  -3.432801e+001  -8.097066e+001 
4356250000  -3.624700e+001  -8.207269e+001 
4359375000  -3.616893e+001  -6.758880e+001 
4362500000  -3.330518e+001  -6.925213e+001 
4365625000  -3.172457e+001  -8.473403e+001 
4368750000  -3.254997e+001  -9.565641e+001 
4371875000  -3.353477e+001  -9.593974e+001 
4375000000  -3.312170e+001  -9.701285e+001 
4378125000  -3.245416e+001  -1.050900e+002 
4381250000  -3.270987e+001  -1.119870e+002 
4384375000  -3.239399e+001  -1.185086e+002 
4387500000  -3.329507e+001  -1.268984e+002 
4390625000  -3.424908e+001  -1.271007e+002 
4393750000  -3.358694e+001  -1.261025e+002 
4396875000  -3.290364e+001  -1.293214e+002 
4400000000  -3.248703e+001  -1.382773e+002 
4403125000  -3.325965e+001  -1.469698e+002 
4406250000  -3.406567e+001  -1.501317e+002 
4409375000  -3.428547e+001  -1.530322e+002 
4412500000  -3.541903e+001  -1.564820e+002 
4415625000  -3.560825e+001  -1.521159e+002 
