!Agilent Technologies,E8363B,MY43030201,A.06.04.32
!Agilent E8363B: A.06.04.32
!Date: Tuesday, November 11, 2014 21:12:32
!Correction: S21(Response(S21)) 
!S1P File: Measurement: S21:
# Hz S  dB   R 50
3000000000  -3.654150e+001  -5.790966e+001 
3003125000  -3.774072e+001  -6.353236e+001 
3006250000  -3.753543e+001  -6.586634e+001 
3009375000  -3.778405e+001  -6.117730e+001 
3012500000  -3.704563e+001  -6.432079e+001 
3015625000  -3.630062e+001  -7.158373e+001 
3018750000  -3.690596e+001  -7.160036e+001 
3021875000  -3.558237e+001  -7.116192e+001 
3025000000  -3.418676e+001  -7.507397e+001 
3028125000  -3.318042e+001  -8.191486e+001 
3031250000  -3.218341e+001  -9.268092e+001 
3034375000  -3.184334e+001  -1.065127e+002 
3037500000  -3.236132e+001  -1.186129e+002 
3040625000  -3.369129e+001  -1.234168e+002 
3043750000  -3.430827e+001  -1.287537e+002 
3046875000  -3.450861e+001  -1.342819e+002 
3050000000  -3.630604e+001  -1.398705e+002 
3053125000  -3.611224e+001  -1.332175e+002 
3056250000  -3.572758e+001  -1.312974e+002 
3059375000  -3.555643e+001  -1.322482e+002 
3062500000  -3.408126e+001  -1.355307e+002 
3065625000  -3.393180e+001  -1.418371e+002 
3068750000  -3.354235e+001  -1.486664e+002 
3071875000  -3.362076e+001  -1.509751e+002 
3075000000  -3.327898e+001  -1.555340e+002 
3078125000  -3.302547e+001  -1.596407e+002 
3081250000  -3.350521e+001  -1.645740e+002 
3084375000  -3.262178e+001  -1.675994e+002 
3087500000  -3.256262e+001  -1.716698e+002 
3090625000  -3.199899e+001  1.780480e+002 
3093750000  -3.254037e+001  1.708342e+002 
3096875000  -3.345758e+001  1.651780e+002 
3100000000  -3.338990e+001  1.631895e+002 
3103125000  -3.367351e+001  1.635899e+002 
3106250000  -3.315900e+001  1.594337e+002 
3109375000  -3.327700e+001  1.554928e+002 
3112500000  -3.317834e+001  1.529377e+002 
3115625000  -3.295475e+001  1.479894e+002 
3118750000  -3.320135e+001  1.484326e+002 
3121875000  -3.242775e+001  1.390193e+002 
3125000000  -3.368415e+001  1.352676e+002 
3128125000  -3.450016e+001  1.429058e+002 
3131250000  -3.208409e+001  1.403083e+002 
3134375000  -3.083422e+001  1.245965e+002 
3137500000  -3.138857e+001  1.109160e+002 
3140625000  -3.283025e+001  1.083436e+002 
3143750000  -3.376783e+001  1.093640e+002 
3146875000  -3.342916e+001  1.105208e+002 
3150000000  -3.227590e+001  1.106785e+002 
3153125000  -3.241105e+001  1.014747e+002 
3156250000  -3.336260e+001  1.060360e+002 
3159375000  -3.152881e+001  1.075322e+002 
3162500000  -2.966498e+001  9.338821e+001 
3165625000  -3.083690e+001  8.068941e+001 
3168750000  -3.102966e+001  8.091176e+001 
3171875000  -3.015202e+001  7.541657e+001 
3175000000  -3.087565e+001  6.658157e+001 
3178125000  -3.061564e+001  6.713309e+001 
3181250000  -2.954997e+001  6.165421e+001 
3184375000  -2.892490e+001  4.893792e+001 
3187500000  -3.017978e+001  3.337498e+001 
3190625000  -3.263015e+001  2.614396e+001 
3193750000  -3.326638e+001  3.472441e+001 
3196875000  -3.294078e+001  3.828158e+001 
3200000000  -3.192243e+001  3.613200e+001 
3203125000  -3.114289e+001  2.986563e+001 
3206250000  -3.156096e+001  2.256115e+001 
3209375000  -3.097942e+001  1.663661e+001 
3212500000  -3.131581e+001  9.663394e+000 
3215625000  -3.135495e+001  5.957102e+000 
3218750000  -3.206585e+001  -1.598628e+000 
3221875000  -3.291758e+001  -5.816155e+000 
3225000000  -3.257775e+001  -7.888257e+000 
3228125000  -3.293170e+001  -1.327901e+001 
3231250000  -3.352739e+001  -1.569955e+001 
3234375000  -3.331544e+001  -1.535702e+001 
3237500000  -3.334115e+001  -1.745073e+001 
3240625000  -3.284801e+001  -2.050580e+001 
3243750000  -3.252142e+001  -2.752740e+001 
3246875000  -3.285622e+001  -3.506736e+001 
3250000000  -3.334018e+001  -3.733949e+001 
3253125000  -3.346210e+001  -3.943373e+001 
3256250000  -3.312348e+001  -4.660458e+001 
3259375000  -3.348241e+001  -5.579410e+001 
3262500000  -3.465465e+001  -5.872300e+001 
3265625000  -3.512254e+001  -5.577090e+001 
3268750000  -3.504039e+001  -5.352130e+001 
3271875000  -3.460699e+001  -5.414987e+001 
3275000000  -3.367321e+001  -6.126784e+001 
3278125000  -3.415073e+001  -6.755815e+001 
3281250000  -3.429124e+001  -6.649802e+001 
3284375000  -3.378881e+001  -7.308330e+001 
3287500000  -3.410646e+001  -7.660616e+001 
3290625000  -3.425957e+001  -8.295363e+001 
3293750000  -3.412453e+001  -8.880365e+001 
3296875000  -3.518153e+001  -8.953160e+001 
3300000000  -3.465586e+001  -8.817850e+001 
3303125000  -3.360884e+001  -9.385281e+001 
3306250000  -3.343566e+001  -1.010349e+002 
3309375000  -3.313129e+001  -1.081015e+002 
3312500000  -3.330960e+001  -1.186932e+002 
3315625000  -3.423003e+001  -1.269558e+002 
3318750000  -3.584909e+001  -1.284225e+002 
3321875000  -3.687035e+001  -1.284645e+002 
3325000000  -3.701929e+001  -1.234274e+002 
3328125000  -3.657566e+001  -1.235722e+002 
3331250000  -3.530684e+001  -1.169729e+002 
3334375000  -3.287809e+001  -1.279760e+002 
3337500000  -3.302731e+001  -1.478522e+002 
3340625000  -3.443386e+001  -1.589629e+002 
3343750000  -3.642689e+001  -1.589507e+002 
3346875000  -3.644225e+001  -1.563522e+002 
3350000000  -3.583324e+001  -1.597853e+002 
3353125000  -3.582117e+001  -1.644002e+002 
3356250000  -3.544626e+001  -1.722307e+002 
3359375000  -3.618145e+001  1.787872e+002 
3362500000  -3.734830e+001  1.737157e+002 
3365625000  -3.781882e+001  1.724623e+002 
3368750000  -3.842308e+001  1.702348e+002 
3371875000  -3.872232e+001  1.661489e+002 
3375000000  -4.026435e+001  1.643282e+002 
3378125000  -4.096378e+001  1.642747e+002 
3381250000  -4.236889e+001  1.733989e+002 
3384375000  -4.093709e+001  -1.625058e+002 
3387500000  -3.718000e+001  1.782436e+002 
3390625000  -3.889975e+001  1.585537e+002 
3393750000  -4.012877e+001  1.612514e+002 
3396875000  -3.885758e+001  1.613423e+002 
3400000000  -3.846027e+001  1.547939e+002 
3403125000  -3.920135e+001  1.497239e+002 
3406250000  -3.958604e+001  1.492823e+002 
3409375000  -3.970161e+001  1.415462e+002 
3412500000  -4.011868e+001  1.390990e+002 
3415625000  -4.081185e+001  1.408303e+002 
3418750000  -4.088432e+001  1.408975e+002 
3421875000  -4.119297e+001  1.443779e+002 
3425000000  -4.010480e+001  1.447866e+002 
3428125000  -3.944265e+001  1.407478e+002 
3431250000  -3.920854e+001  1.328463e+002 
3434375000  -3.898550e+001  1.270381e+002 
3437500000  -3.984458e+001  1.240127e+002 
3440625000  -3.992732e+001  1.240496e+002 
3443750000  -3.859029e+001  1.255452e+002 
3446875000  -3.785993e+001  1.166912e+002 
3450000000  -3.756496e+001  1.082372e+002 
3453125000  -3.780633e+001  9.691494e+001 
3456250000  -3.904604e+001  9.080141e+001 
3459375000  -4.009804e+001  9.276863e+001 
3462500000  -3.976288e+001  9.192215e+001 
3465625000  -3.976504e+001  8.630285e+001 
3468750000  -3.998611e+001  8.329207e+001 
3471875000  -3.973724e+001  7.987965e+001 
3475000000  -3.945411e+001  7.543258e+001 
3478125000  -4.032024e+001  6.816111e+001 
3481250000  -4.091645e+001  6.491966e+001 
3484375000  -4.228300e+001  7.090080e+001 
3487500000  -4.119206e+001  6.786237e+001 
3490625000  -4.055445e+001  6.387637e+001 
3493750000  -4.137808e+001  5.705687e+001 
3496875000  -4.193142e+001  5.605735e+001 
3500000000  -4.220959e+001  5.770173e+001 
3503125000  -4.178011e+001  6.093288e+001 
3506250000  -4.035314e+001  5.332492e+001 
3509375000  -4.047307e+001  4.440984e+001 
3512500000  -4.066582e+001  3.646028e+001 
3515625000  -4.180983e+001  3.416829e+001 
3518750000  -4.238232e+001  3.399430e+001 
3521875000  -4.265305e+001  3.242027e+001 
3525000000  -4.357071e+001  2.929344e+001 
3528125000  -4.352254e+001  3.727921e+001 
3531250000  -4.212421e+001  3.625470e+001 
3534375000  -4.217001e+001  2.297594e+001 
3537500000  -4.259341e+001  1.879321e+001 
3540625000  -4.361574e+001  1.809985e+001 
3543750000  -4.449474e+001  2.199619e+001 
3546875000  -4.415301e+001  3.353166e+001 
3550000000  -4.164330e+001  3.352005e+001 
3553125000  -4.029652e+001  1.678745e+001 
3556250000  -4.149750e+001  1.099890e+001 
3559375000  -4.167385e+001  1.427193e+001 
3562500000  -4.051170e+001  3.614783e+000 
3565625000  -4.109394e+001  -2.096115e+000 
3568750000  -4.124511e+001  7.926853e-001 
3571875000  -4.094585e+001  -3.175231e+000 
3575000000  -4.075980e+001  -9.849918e+000 
3578125000  -4.125033e+001  -1.334535e+001 
3581250000  -4.126651e+001  -1.452199e+001 
3584375000  -4.059922e+001  -1.585466e+001 
3587500000  -3.990927e+001  -2.743088e+001 
3590625000  -4.040828e+001  -3.777752e+001 
3593750000  -4.181048e+001  -3.802299e+001 
3596875000  -4.143937e+001  -3.176200e+001 
3600000000  -4.007196e+001  -3.910735e+001 
3603125000  -4.054594e+001  -5.262602e+001 
3606250000  -4.119294e+001  -5.831700e+001 
3609375000  -4.221883e+001  -6.035063e+001 
3612500000  -4.260867e+001  -6.383442e+001 
3615625000  -4.297829e+001  -6.770689e+001 
3618750000  -4.360235e+001  -6.710007e+001 
3621875000  -4.336120e+001  -7.163734e+001 
3625000000  -4.425380e+001  -6.935870e+001 
3628125000  -4.383333e+001  -7.260902e+001 
3631250000  -4.404900e+001  -7.937336e+001 
3634375000  -4.506773e+001  -7.901620e+001 
3637500000  -4.513577e+001  -7.340157e+001 
3640625000  -4.465547e+001  -7.348078e+001 
3643750000  -4.404599e+001  -7.927200e+001 
3646875000  -4.436647e+001  -8.474935e+001 
3650000000  -4.556588e+001  -8.334290e+001 
3653125000  -4.537430e+001  -8.530036e+001 
3656250000  -4.563160e+001  -8.465878e+001 
3659375000  -4.591373e+001  -8.056864e+001 
3662500000  -4.514393e+001  -8.413599e+001 
3665625000  -4.489528e+001  -8.246912e+001 
3668750000  -4.407369e+001  -8.120486e+001 
3671875000  -4.335239e+001  -8.944200e+001 
3675000000  -4.342258e+001  -9.627927e+001 
3678125000  -4.370293e+001  -9.805664e+001 
3681250000  -4.321109e+001  -9.903080e+001 
3684375000  -4.316861e+001  -1.030734e+002 
3687500000  -4.332374e+001  -1.088358e+002 
3690625000  -4.329236e+001  -1.111651e+002 
3693750000  -4.425060e+001  -1.110477e+002 
3696875000  -4.378107e+001  -1.118888e+002 
3700000000  -4.281954e+001  -1.149679e+002 
3703125000  -4.309983e+001  -1.211955e+002 
3706250000  -4.390454e+001  -1.207259e+002 
3709375000  -4.360704e+001  -1.189675e+002 
3712500000  -4.262415e+001  -1.221551e+002 
3715625000  -4.168829e+001  -1.287927e+002 
3718750000  -4.109290e+001  -1.353808e+002 
3721875000  -4.115567e+001  -1.419193e+002 
3725000000  -4.149775e+001  -1.483076e+002 
3728125000  -4.197366e+001  -1.501335e+002 
3731250000  -4.152265e+001  -1.516884e+002 
3734375000  -4.098065e+001  -1.594379e+002 
3737500000  -4.198045e+001  -1.667645e+002 
3740625000  -4.300195e+001  -1.705083e+002 
3743750000  -4.274911e+001  -1.740843e+002 
3746875000  -4.331961e+001  -1.752765e+002 
3750000000  -4.400736e+001  -1.759063e+002 
3753125000  -4.415090e+001  -1.763522e+002 
3756250000  -4.472248e+001  -1.747500e+002 
3759375000  -4.442477e+001  -1.771089e+002 
3762500000  -4.373112e+001  -1.790004e+002 
3765625000  -4.483147e+001  -1.771578e+002 
3768750000  -4.465012e+001  -1.776912e+002 
3771875000  -4.336044e+001  -1.772531e+002 
3775000000  -4.323483e+001  1.740097e+002 
3778125000  -4.324147e+001  1.745395e+002 
3781250000  -4.298289e+001  1.707938e+002 
3784375000  -4.286739e+001  1.738787e+002 
3787500000  -4.204348e+001  1.692836e+002 
3790625000  -4.238436e+001  1.624536e+002 
3793750000  -4.268487e+001  1.627893e+002 
3796875000  -4.142002e+001  1.606068e+002 
3800000000  -3.987471e+001  1.597491e+002 
3803125000  -4.052906e+001  1.476635e+002 
3806250000  -4.105964e+001  1.461500e+002 
3809375000  -4.083720e+001  1.449465e+002 
3812500000  -4.009332e+001  1.385870e+002 
3815625000  -4.109370e+001  1.287577e+002 
3818750000  -4.128526e+001  1.278999e+002 
3821875000  -4.149210e+001  1.364292e+002 
3825000000  -3.945209e+001  1.390891e+002 
3828125000  -3.811827e+001  1.226941e+002 
3831250000  -3.880754e+001  1.070648e+002 
3834375000  -4.047154e+001  1.058462e+002 
3837500000  -4.124321e+001  1.091817e+002 
3840625000  -3.986518e+001  1.083072e+002 
3843750000  -3.891780e+001  9.584540e+001 
3846875000  -4.008396e+001  8.974044e+001 
3850000000  -4.100648e+001  9.444162e+001 
3853125000  -4.032063e+001  9.654937e+001 
3856250000  -4.011938e+001  8.945256e+001 
3859375000  -3.963287e+001  8.571326e+001 
3862500000  -3.961565e+001  7.638871e+001 
3865625000  -3.972823e+001  7.226282e+001 
3868750000  -3.985601e+001  7.159997e+001 
3871875000  -3.908482e+001  6.681562e+001 
3875000000  -3.951826e+001  5.632125e+001 
3878125000  -4.051448e+001  5.525481e+001 
3881250000  -4.035710e+001  5.816420e+001 
3884375000  -4.012596e+001  5.094823e+001 
3887500000  -4.028588e+001  4.681558e+001 
3890625000  -4.082064e+001  4.474216e+001 
3893750000  -4.126738e+001  4.245835e+001 
3896875000  -4.159761e+001  4.366143e+001 
3900000000  -4.154131e+001  4.222381e+001 
3903125000  -4.118348e+001  3.789864e+001 
3906250000  -4.077478e+001  3.792982e+001 
3909375000  -4.000681e+001  3.466397e+001 
3912500000  -4.024135e+001  2.548503e+001 
3915625000  -4.142070e+001  3.005902e+001 
3918750000  -4.087441e+001  2.870196e+001 
3921875000  -4.085005e+001  2.677172e+001 
3925000000  -3.983461e+001  2.200491e+001 
3928125000  -3.915982e+001  1.602878e+001 
3931250000  -3.976826e+001  1.145400e+001 
3934375000  -4.006721e+001  1.194856e+001 
3937500000  -4.014704e+001  8.092733e+000 
3940625000  -4.083544e+001  6.794300e+000 
3943750000  -3.955226e+001  7.140400e+000 
3946875000  -3.819709e+001  -3.793184e-001 
3950000000  -3.911705e+001  -7.198477e+000 
3953125000  -3.993652e+001  -9.450336e+000 
3956250000  -3.878023e+001  -5.347114e+000 
3959375000  -3.783091e+001  -1.072274e+001 
3962500000  -3.766305e+001  -1.585700e+001 
3965625000  -3.719042e+001  -2.527943e+001 
3968750000  -3.829362e+001  -3.389820e+001 
3971875000  -3.833533e+001  -3.591817e+001 
3975000000  -3.780222e+001  -3.808899e+001 
3978125000  -3.794904e+001  -4.118571e+001 
3981250000  -3.778782e+001  -4.623247e+001 
3984375000  -3.805104e+001  -5.239938e+001 
3987500000  -3.851081e+001  -5.488273e+001 
3990625000  -3.871770e+001  -5.628327e+001 
3993750000  -3.880503e+001  -6.168285e+001 
3996875000  -3.882979e+001  -6.605419e+001 
4000000000  -3.924099e+001  -6.434468e+001 
4003125000  -3.952294e+001  -6.406384e+001 
4006250000  -3.834739e+001  -6.520493e+001 
4009375000  -3.698146e+001  -7.926602e+001 
4012500000  -3.834717e+001  -8.496043e+001 
4015625000  -3.985272e+001  -8.496126e+001 
4018750000  -3.984349e+001  -8.259352e+001 
4021875000  -3.908752e+001  -8.605266e+001 
4025000000  -3.875026e+001  -9.133652e+001 
4028125000  -3.886700e+001  -9.558208e+001 
4031250000  -3.928075e+001  -9.927011e+001 
4034375000  -3.972367e+001  -1.004172e+002 
4037500000  -3.928053e+001  -1.000674e+002 
4040625000  -3.898135e+001  -1.024504e+002 
4043750000  -3.949622e+001  -1.031347e+002 
4046875000  -3.873203e+001  -1.045825e+002 
4050000000  -3.832356e+001  -1.104864e+002 
4053125000  -3.892344e+001  -1.121359e+002 
4056250000  -3.938984e+001  -1.093566e+002 
4059375000  -3.774499e+001  -1.095302e+002 
4062500000  -3.671545e+001  -1.166400e+002 
4065625000  -3.677192e+001  -1.196001e+002 
4068750000  -3.628721e+001  -1.253876e+002 
4071875000  -3.551799e+001  -1.348981e+002 
4075000000  -3.608787e+001  -1.417728e+002 
4078125000  -3.669005e+001  -1.444113e+002 
4081250000  -3.609428e+001  -1.481679e+002 
4084375000  -3.563735e+001  -1.540695e+002 
4087500000  -3.621893e+001  -1.618301e+002 
4090625000  -3.671201e+001  -1.630889e+002 
4093750000  -3.652462e+001  -1.641936e+002 
4096875000  -3.614582e+001  -1.711690e+002 
4100000000  -3.707130e+001  -1.785563e+002 
4103125000  -3.790696e+001  -1.780940e+002 
4106250000  -3.770171e+001  -1.738958e+002 
4109375000  -3.653495e+001  -1.753403e+002 
4112500000  -3.629820e+001  1.763785e+002 
4115625000  -3.659414e+001  1.714685e+002 
4118750000  -3.676032e+001  1.670196e+002 
4121875000  -3.649737e+001  1.618522e+002 
4125000000  -3.694078e+001  1.561078e+002 
4128125000  -3.778034e+001  1.557999e+002 
4131250000  -3.742672e+001  1.634395e+002 
4134375000  -3.506898e+001  1.574408e+002 
4137500000  -3.530557e+001  1.363807e+002 
4140625000  -3.746280e+001  1.293535e+002 
4143750000  -3.872550e+001  1.341989e+002 
4146875000  -3.839640e+001  1.404801e+002 
4150000000  -3.739093e+001  1.357721e+002 
4153125000  -3.738187e+001  1.298370e+002 
4156250000  -3.851831e+001  1.250383e+002 
4159375000  -3.864963e+001  1.308871e+002 
4162500000  -3.753447e+001  1.338317e+002 
4165625000  -3.652129e+001  1.295190e+002 
4168750000  -3.585196e+001  1.200958e+002 
4171875000  -3.577066e+001  1.116842e+002 
4175000000  -3.666106e+001  1.074798e+002 
4178125000  -3.728007e+001  1.066977e+002 
4181250000  -3.690133e+001  1.053448e+002 
4184375000  -3.681104e+001  1.018697e+002 
4187500000  -3.669728e+001  9.722394e+001 
4190625000  -3.688709e+001  9.168587e+001 
4193750000  -3.747495e+001  8.779523e+001 
4196875000  -3.820362e+001  8.557934e+001 
4200000000  -3.913465e+001  8.983046e+001 
4203125000  -3.876449e+001  1.030644e+002 
4206250000  -3.534171e+001  1.005708e+002 
4209375000  -3.426854e+001  8.085480e+001 
4212500000  -3.642702e+001  7.149194e+001 
4215625000  -3.720910e+001  7.714079e+001 
4218750000  -3.560614e+001  8.251540e+001 
4221875000  -3.354650e+001  7.218322e+001 
4225000000  -3.489935e+001  5.888531e+001 
4228125000  -3.520485e+001  6.319603e+001 
4231250000  -3.352831e+001  5.762484e+001 
4234375000  -3.345388e+001  5.053909e+001 
4237500000  -3.310090e+001  4.355894e+001 
4240625000  -3.305640e+001  3.411817e+001 
4243750000  -3.408826e+001  2.596090e+001 
4246875000  -3.514048e+001  2.556670e+001 
4250000000  -3.510191e+001  2.715450e+001 
4253125000  -3.469700e+001  2.464901e+001 
4256250000  -3.488609e+001  1.901947e+001 
4259375000  -3.454307e+001  1.566007e+001 
4262500000  -3.481768e+001  1.054340e+001 
4265625000  -3.496214e+001  1.094952e+001 
4268750000  -3.393999e+001  4.817092e+000 
4271875000  -3.380672e+001  -2.045426e+000 
4275000000  -3.352038e+001  -1.033535e+001 
4278125000  -3.414410e+001  -2.061886e+001 
4281250000  -3.605909e+001  -2.359212e+001 
4284375000  -3.578092e+001  -2.407830e+001 
4287500000  -3.715398e+001  -2.794363e+001 
4290625000  -3.799096e+001  -1.821052e+001 
4293750000  -3.599481e+001  -1.382384e+001 
4296875000  -3.510355e+001  -2.554853e+001 
4300000000  -3.596818e+001  -3.510391e+001 
4303125000  -3.689190e+001  -3.205384e+001 
4306250000  -3.631776e+001  -2.601427e+001 
4309375000  -3.516311e+001  -2.938349e+001 
4312500000  -3.485514e+001  -3.768450e+001 
4315625000  -3.504891e+001  -4.314997e+001 
4318750000  -3.546544e+001  -4.676634e+001 
4321875000  -3.543613e+001  -4.694051e+001 
4325000000  -3.492353e+001  -4.661005e+001 
4328125000  -3.423890e+001  -5.324240e+001 
4331250000  -3.412885e+001  -6.197131e+001 
4334375000  -3.464938e+001  -6.820909e+001 
4337500000  -3.544216e+001  -6.984870e+001 
4340625000  -3.565609e+001  -6.711951e+001 
4343750000  -3.494751e+001  -6.839128e+001 
4346875000  -3.454116e+001  -7.410105e+001 
4350000000  -3.449279e+001  -8.058967e+001 
4353125000  -3.458367e+001  -8.854385e+001 
4356250000  -3.636818e+001  -8.988723e+001 
4359375000  -3.639388e+001  -7.405370e+001 
4362500000  -3.335157e+001  -7.699599e+001 
4365625000  -3.201777e+001  -9.098116e+001 
4368750000  -3.277781e+001  -1.034577e+002 
4371875000  -3.407954e+001  -1.034896e+002 
4375000000  -3.338010e+001  -1.046582e+002 
4378125000  -3.271328e+001  -1.108484e+002 
4381250000  -3.302814e+001  -1.191488e+002 
4384375000  -3.288554e+001  -1.242153e+002 
4387500000  -3.363739e+001  -1.313844e+002 
4390625000  -3.470140e+001  -1.313557e+002 
4393750000  -3.405056e+001  -1.297094e+002 
4396875000  -3.340056e+001  -1.336884e+002 
4400000000  -3.276032e+001  -1.429387e+002 
4403125000  -3.344369e+001  -1.514932e+002 
4406250000  -3.433157e+001  -1.524909e+002 
4409375000  -3.444880e+001  -1.568065e+002 
4412500000  -3.591933e+001  -1.610623e+002 
4415625000  -3.598845e+001  -1.564174e+002 
