!Agilent Technologies,E8363B,MY43030201,A.06.04.32
!Agilent E8363B: A.06.04.32
!Date: Tuesday, November 11, 2014 21:10:39
!Correction: S21(Response(S21)) 
!S1P File: Measurement: S21:
# Hz S  dB   R 50
3000000000  -3.657524e+001  -5.501997e+001 
3003125000  -3.765748e+001  -6.027917e+001 
3006250000  -3.757547e+001  -6.297774e+001 
3009375000  -3.786177e+001  -5.873281e+001 
3012500000  -3.704789e+001  -6.073662e+001 
3015625000  -3.626983e+001  -6.849819e+001 
3018750000  -3.703131e+001  -6.899138e+001 
3021875000  -3.563688e+001  -6.763723e+001 
3025000000  -3.423068e+001  -7.217411e+001 
3028125000  -3.323646e+001  -7.875851e+001 
3031250000  -3.212312e+001  -8.975651e+001 
3034375000  -3.183085e+001  -1.039117e+002 
3037500000  -3.233460e+001  -1.158389e+002 
3040625000  -3.360323e+001  -1.207386e+002 
3043750000  -3.428819e+001  -1.252695e+002 
3046875000  -3.451474e+001  -1.317274e+002 
3050000000  -3.617893e+001  -1.371523e+002 
3053125000  -3.611704e+001  -1.313780e+002 
3056250000  -3.556321e+001  -1.288348e+002 
3059375000  -3.566384e+001  -1.302888e+002 
3062500000  -3.413837e+001  -1.328041e+002 
3065625000  -3.400317e+001  -1.389488e+002 
3068750000  -3.346907e+001  -1.453980e+002 
3071875000  -3.347120e+001  -1.481601e+002 
3075000000  -3.327451e+001  -1.523400e+002 
3078125000  -3.304072e+001  -1.562670e+002 
3081250000  -3.352693e+001  -1.607930e+002 
3084375000  -3.260843e+001  -1.645070e+002 
3087500000  -3.253529e+001  -1.679416e+002 
3090625000  -3.198507e+001  -1.784458e+002 
3093750000  -3.255434e+001  1.739769e+002 
3096875000  -3.349214e+001  1.686632e+002 
3100000000  -3.343306e+001  1.663355e+002 
3103125000  -3.365710e+001  1.663587e+002 
3106250000  -3.317562e+001  1.624940e+002 
3109375000  -3.323687e+001  1.590148e+002 
3112500000  -3.320567e+001  1.560085e+002 
3115625000  -3.286530e+001  1.516755e+002 
3118750000  -3.307262e+001  1.522224e+002 
3121875000  -3.233274e+001  1.422004e+002 
3125000000  -3.357784e+001  1.383037e+002 
3128125000  -3.447321e+001  1.459135e+002 
3131250000  -3.208616e+001  1.438938e+002 
3134375000  -3.079558e+001  1.282365e+002 
3137500000  -3.135034e+001  1.144931e+002 
3140625000  -3.284386e+001  1.113588e+002 
3143750000  -3.384120e+001  1.129266e+002 
3146875000  -3.328359e+001  1.140352e+002 
3150000000  -3.221488e+001  1.141936e+002 
3153125000  -3.235872e+001  1.050558e+002 
3156250000  -3.340314e+001  1.094205e+002 
3159375000  -3.153568e+001  1.110427e+002 
3162500000  -2.957668e+001  9.598067e+001 
3165625000  -3.070640e+001  8.395145e+001 
3168750000  -3.101402e+001  8.454196e+001 
3171875000  -3.013239e+001  7.906364e+001 
3175000000  -3.082971e+001  6.986189e+001 
3178125000  -3.060111e+001  7.034881e+001 
3181250000  -2.953079e+001  6.492202e+001 
3184375000  -2.891339e+001  5.248343e+001 
3187500000  -3.010583e+001  3.689405e+001 
3190625000  -3.270211e+001  2.906611e+001 
3193750000  -3.329947e+001  3.807469e+001 
3196875000  -3.287253e+001  4.255389e+001 
3200000000  -3.190960e+001  3.944738e+001 
3203125000  -3.119591e+001  3.349012e+001 
3206250000  -3.148198e+001  2.642373e+001 
3209375000  -3.102325e+001  2.000403e+001 
3212500000  -3.137657e+001  1.315466e+001 
3215625000  -3.138186e+001  9.600188e+000 
3218750000  -3.215840e+001  2.106767e+000 
3221875000  -3.288836e+001  -2.631757e+000 
3225000000  -3.252754e+001  -4.527678e+000 
3228125000  -3.294724e+001  -9.746795e+000 
3231250000  -3.360871e+001  -1.199803e+001 
3234375000  -3.325357e+001  -1.173528e+001 
3237500000  -3.328756e+001  -1.402567e+001 
3240625000  -3.288321e+001  -1.668102e+001 
3243750000  -3.252686e+001  -2.439997e+001 
3246875000  -3.293122e+001  -3.146893e+001 
3250000000  -3.334700e+001  -3.405402e+001 
3253125000  -3.345565e+001  -3.565945e+001 
3256250000  -3.310389e+001  -4.228534e+001 
3259375000  -3.338602e+001  -5.162531e+001 
3262500000  -3.462544e+001  -5.518514e+001 
3265625000  -3.524891e+001  -5.191233e+001 
3268750000  -3.504134e+001  -5.039180e+001 
3271875000  -3.466346e+001  -5.085796e+001 
3275000000  -3.365161e+001  -5.779891e+001 
3278125000  -3.409802e+001  -6.459814e+001 
3281250000  -3.440261e+001  -6.330273e+001 
3284375000  -3.374004e+001  -6.969014e+001 
3287500000  -3.400179e+001  -7.348864e+001 
3290625000  -3.428484e+001  -7.951601e+001 
3293750000  -3.406817e+001  -8.529507e+001 
3296875000  -3.523822e+001  -8.599699e+001 
3300000000  -3.471745e+001  -8.570600e+001 
3303125000  -3.356844e+001  -9.071043e+001 
3306250000  -3.338022e+001  -9.763338e+001 
3309375000  -3.319230e+001  -1.035133e+002 
3312500000  -3.325927e+001  -1.150104e+002 
3315625000  -3.429352e+001  -1.234642e+002 
3318750000  -3.562230e+001  -1.256380e+002 
3321875000  -3.691521e+001  -1.256089e+002 
3325000000  -3.723998e+001  -1.213588e+002 
3328125000  -3.684751e+001  -1.194415e+002 
3331250000  -3.552621e+001  -1.135220e+002 
3334375000  -3.277508e+001  -1.240538e+002 
3337500000  -3.295147e+001  -1.440914e+002 
3340625000  -3.432970e+001  -1.546475e+002 
3343750000  -3.644345e+001  -1.549936e+002 
3346875000  -3.639775e+001  -1.545254e+002 
3350000000  -3.588858e+001  -1.558157e+002 
3353125000  -3.598944e+001  -1.605132e+002 
3356250000  -3.543652e+001  -1.694668e+002 
3359375000  -3.618105e+001  -1.782174e+002 
3362500000  -3.737604e+001  1.771954e+002 
3365625000  -3.777693e+001  1.757858e+002 
3368750000  -3.869143e+001  1.729557e+002 
3371875000  -3.882221e+001  1.704974e+002 
3375000000  -4.018538e+001  1.675047e+002 
3378125000  -4.098147e+001  1.684076e+002 
3381250000  -4.217676e+001  1.768496e+002 
3384375000  -4.084885e+001  -1.614101e+002 
3387500000  -3.738485e+001  -1.781312e+002 
3390625000  -3.915312e+001  1.604046e+002 
3393750000  -4.011920e+001  1.644470e+002 
3396875000  -3.886378e+001  1.666071e+002 
3400000000  -3.854232e+001  1.574071e+002 
3403125000  -3.918912e+001  1.524389e+002 
3406250000  -3.959685e+001  1.532009e+002 
3409375000  -3.980542e+001  1.451733e+002 
3412500000  -4.007071e+001  1.432077e+002 
3415625000  -4.088589e+001  1.428055e+002 
3418750000  -4.095929e+001  1.443200e+002 
3421875000  -4.121341e+001  1.475807e+002 
3425000000  -4.020296e+001  1.478194e+002 
3428125000  -3.917184e+001  1.424898e+002 
3431250000  -3.920242e+001  1.354853e+002 
3434375000  -3.902352e+001  1.307807e+002 
3437500000  -3.972108e+001  1.264719e+002 
3440625000  -4.005835e+001  1.278123e+002 
3443750000  -3.864012e+001  1.289426e+002 
3446875000  -3.790941e+001  1.201008e+002 
3450000000  -3.766947e+001  1.104992e+002 
3453125000  -3.790490e+001  1.016240e+002 
3456250000  -3.914903e+001  9.483959e+001 
3459375000  -3.994923e+001  9.457233e+001 
3462500000  -3.984529e+001  9.591935e+001 
3465625000  -3.983408e+001  8.931718e+001 
3468750000  -4.024923e+001  8.623501e+001 
3471875000  -3.977472e+001  8.475296e+001 
3475000000  -3.946552e+001  7.959704e+001 
3478125000  -4.024468e+001  7.206290e+001 
3481250000  -4.136947e+001  6.954049e+001 
3484375000  -4.216103e+001  7.254755e+001 
3487500000  -4.124600e+001  7.299827e+001 
3490625000  -4.074767e+001  6.689050e+001 
3493750000  -4.122801e+001  6.034740e+001 
3496875000  -4.164538e+001  5.961256e+001 
3500000000  -4.268806e+001  6.356247e+001 
3503125000  -4.164663e+001  6.499666e+001 
3506250000  -4.051673e+001  5.953560e+001 
3509375000  -4.041396e+001  5.033809e+001 
3512500000  -4.075496e+001  4.070145e+001 
3515625000  -4.172223e+001  3.918997e+001 
3518750000  -4.244410e+001  3.948236e+001 
3521875000  -4.278347e+001  3.708057e+001 
3525000000  -4.365967e+001  3.237923e+001 
3528125000  -4.348295e+001  4.032198e+001 
3531250000  -4.191240e+001  3.923661e+001 
3534375000  -4.202947e+001  2.803542e+001 
3537500000  -4.244825e+001  2.392876e+001 
3540625000  -4.368833e+001  2.307506e+001 
3543750000  -4.411469e+001  2.766174e+001 
3546875000  -4.425980e+001  3.877464e+001 
3550000000  -4.130098e+001  3.882623e+001 
3553125000  -4.032306e+001  2.267122e+001 
3556250000  -4.173777e+001  1.407135e+001 
3559375000  -4.129955e+001  1.738562e+001 
3562500000  -4.019675e+001  8.039097e+000 
3565625000  -4.096762e+001  -4.976725e-001 
3568750000  -4.136347e+001  3.137708e+000 
3571875000  -4.114382e+001  2.705713e+000 
3575000000  -4.089275e+001  -5.734085e+000 
3578125000  -4.147275e+001  -9.856683e+000 
3581250000  -4.129568e+001  -1.096871e+001 
3584375000  -4.061274e+001  -1.558002e+001 
3587500000  -3.982330e+001  -2.166537e+001 
3590625000  -4.077848e+001  -3.214626e+001 
3593750000  -4.157508e+001  -3.503292e+001 
3596875000  -4.164096e+001  -2.821668e+001 
3600000000  -4.033277e+001  -3.634083e+001 
3603125000  -4.050992e+001  -5.120611e+001 
3606250000  -4.125039e+001  -5.271657e+001 
3609375000  -4.192852e+001  -5.662128e+001 
3612500000  -4.236418e+001  -6.075618e+001 
3615625000  -4.286509e+001  -6.304129e+001 
3618750000  -4.392191e+001  -6.336432e+001 
3621875000  -4.349330e+001  -6.498857e+001 
3625000000  -4.415327e+001  -6.735236e+001 
3628125000  -4.409263e+001  -6.785771e+001 
3631250000  -4.421000e+001  -7.389002e+001 
3634375000  -4.505610e+001  -7.618270e+001 
3637500000  -4.522267e+001  -7.118288e+001 
3640625000  -4.458395e+001  -6.929007e+001 
3643750000  -4.406530e+001  -7.449512e+001 
3646875000  -4.490043e+001  -8.063867e+001 
3650000000  -4.546840e+001  -8.009156e+001 
3653125000  -4.556850e+001  -7.860408e+001 
3656250000  -4.561127e+001  -8.159576e+001 
3659375000  -4.599526e+001  -7.870790e+001 
3662500000  -4.510709e+001  -8.077722e+001 
3665625000  -4.505456e+001  -7.773323e+001 
3668750000  -4.387861e+001  -7.801076e+001 
3671875000  -4.281620e+001  -8.690957e+001 
3675000000  -4.301073e+001  -9.388824e+001 
3678125000  -4.357823e+001  -9.343733e+001 
3681250000  -4.307491e+001  -9.470908e+001 
3684375000  -4.329288e+001  -1.003689e+002 
3687500000  -4.328930e+001  -1.034531e+002 
3690625000  -4.331604e+001  -1.067651e+002 
3693750000  -4.407164e+001  -1.091118e+002 
3696875000  -4.373790e+001  -1.064315e+002 
3700000000  -4.309290e+001  -1.146649e+002 
3703125000  -4.279938e+001  -1.194866e+002 
3706250000  -4.408870e+001  -1.178634e+002 
3709375000  -4.336077e+001  -1.158800e+002 
3712500000  -4.262157e+001  -1.187671e+002 
3715625000  -4.165566e+001  -1.264211e+002 
3718750000  -4.111629e+001  -1.328873e+002 
3721875000  -4.126709e+001  -1.399131e+002 
3725000000  -4.163366e+001  -1.447045e+002 
3728125000  -4.204257e+001  -1.451050e+002 
3731250000  -4.164109e+001  -1.473201e+002 
3734375000  -4.130615e+001  -1.544618e+002 
3737500000  -4.261460e+001  -1.630705e+002 
3740625000  -4.303348e+001  -1.644298e+002 
3743750000  -4.311383e+001  -1.676830e+002 
3746875000  -4.333633e+001  -1.709368e+002 
3750000000  -4.421582e+001  -1.721975e+002 
3753125000  -4.410400e+001  -1.718328e+002 
3756250000  -4.448214e+001  -1.702740e+002 
3759375000  -4.441178e+001  -1.716739e+002 
3762500000  -4.408467e+001  -1.729509e+002 
3765625000  -4.517910e+001  -1.750554e+002 
3768750000  -4.457697e+001  -1.720892e+002 
3771875000  -4.283086e+001  -1.744678e+002 
3775000000  -4.339338e+001  -1.797175e+002 
3778125000  -4.340184e+001  1.773808e+002 
3781250000  -4.321928e+001  1.788560e+002 
3784375000  -4.257283e+001  1.766299e+002 
3787500000  -4.207735e+001  1.737913e+002 
3790625000  -4.250784e+001  1.658491e+002 
3793750000  -4.248351e+001  1.688068e+002 
3796875000  -4.124690e+001  1.652670e+002 
3800000000  -3.975942e+001  1.628755e+002 
3803125000  -4.054352e+001  1.514216e+002 
3806250000  -4.098039e+001  1.510049e+002 
3809375000  -4.046175e+001  1.484388e+002 
3812500000  -3.988167e+001  1.417298e+002 
3815625000  -4.075240e+001  1.300590e+002 
3818750000  -4.127733e+001  1.321004e+002 
3821875000  -4.140591e+001  1.403984e+002 
3825000000  -3.935949e+001  1.430940e+002 
3828125000  -3.826838e+001  1.277506e+002 
3831250000  -3.874094e+001  1.100702e+002 
3834375000  -4.043235e+001  1.098481e+002 
3837500000  -4.091905e+001  1.136087e+002 
3840625000  -3.980423e+001  1.124399e+002 
3843750000  -3.901854e+001  9.888826e+001 
3846875000  -3.988956e+001  9.418768e+001 
3850000000  -4.118864e+001  9.814641e+001 
3853125000  -4.054723e+001  9.945562e+001 
3856250000  -4.041965e+001  9.318596e+001 
3859375000  -3.952241e+001  8.916437e+001 
3862500000  -3.972902e+001  7.982187e+001 
3865625000  -3.969743e+001  7.453399e+001 
3868750000  -3.956667e+001  7.385957e+001 
3871875000  -3.916627e+001  7.070819e+001 
3875000000  -3.954623e+001  6.164526e+001 
3878125000  -4.042427e+001  5.809767e+001 
3881250000  -4.058414e+001  6.264346e+001 
3884375000  -4.002824e+001  5.683080e+001 
3887500000  -4.042392e+001  5.106387e+001 
3890625000  -4.085149e+001  4.903464e+001 
3893750000  -4.090305e+001  4.672363e+001 
3896875000  -4.166569e+001  4.939643e+001 
3900000000  -4.169413e+001  4.804255e+001 
3903125000  -4.106911e+001  4.542236e+001 
3906250000  -4.062803e+001  4.325765e+001 
3909375000  -4.002460e+001  3.984148e+001 
3912500000  -4.017364e+001  3.054324e+001 
3915625000  -4.151065e+001  3.502371e+001 
3918750000  -4.114715e+001  3.280265e+001 
3921875000  -4.086160e+001  3.060302e+001 
3925000000  -3.967667e+001  2.753795e+001 
3928125000  -3.902462e+001  2.046515e+001 
3931250000  -3.984420e+001  1.453945e+001 
3934375000  -3.990055e+001  1.568754e+001 
3937500000  -4.016172e+001  1.271459e+001 
3940625000  -4.046192e+001  1.132281e+001 
3943750000  -3.925024e+001  1.223174e+001 
3946875000  -3.816288e+001  3.554353e+000 
3950000000  -3.912450e+001  -4.124202e+000 
3953125000  -4.000727e+001  -2.787237e+000 
3956250000  -3.909626e+001  -1.313398e+000 
3959375000  -3.782870e+001  -6.196375e+000 
3962500000  -3.735337e+001  -1.090506e+001 
3965625000  -3.710968e+001  -2.196046e+001 
3968750000  -3.818177e+001  -2.802256e+001 
3971875000  -3.846980e+001  -3.075499e+001 
3975000000  -3.783827e+001  -3.412177e+001 
3978125000  -3.785234e+001  -3.724432e+001 
3981250000  -3.795040e+001  -4.309712e+001 
3984375000  -3.818409e+001  -4.839349e+001 
3987500000  -3.855119e+001  -5.034817e+001 
3990625000  -3.869461e+001  -5.348367e+001 
3993750000  -3.905152e+001  -5.792844e+001 
3996875000  -3.895990e+001  -5.951223e+001 
4000000000  -3.902957e+001  -6.215752e+001 
4003125000  -3.975836e+001  -6.034127e+001 
4006250000  -3.837054e+001  -6.100709e+001 
4009375000  -3.719132e+001  -7.529758e+001 
4012500000  -3.866560e+001  -8.072572e+001 
4015625000  -3.986996e+001  -8.127853e+001 
4018750000  -4.007046e+001  -7.891393e+001 
4021875000  -3.917960e+001  -8.120995e+001 
4025000000  -3.872407e+001  -8.721490e+001 
4028125000  -3.896407e+001  -9.282188e+001 
4031250000  -3.910226e+001  -9.351530e+001 
4034375000  -3.963222e+001  -9.483016e+001 
4037500000  -3.905680e+001  -9.433876e+001 
4040625000  -3.916521e+001  -9.900510e+001 
4043750000  -3.950954e+001  -1.006021e+002 
4046875000  -3.901776e+001  -1.008179e+002 
4050000000  -3.851530e+001  -1.061981e+002 
4053125000  -3.900486e+001  -1.077668e+002 
4056250000  -3.941912e+001  -1.050859e+002 
4059375000  -3.785757e+001  -1.038259e+002 
4062500000  -3.673709e+001  -1.111562e+002 
4065625000  -3.676963e+001  -1.160608e+002 
4068750000  -3.641050e+001  -1.216256e+002 
4071875000  -3.583393e+001  -1.303640e+002 
4075000000  -3.600680e+001  -1.374627e+002 
4078125000  -3.676313e+001  -1.392703e+002 
4081250000  -3.622953e+001  -1.427036e+002 
4084375000  -3.583286e+001  -1.508217e+002 
4087500000  -3.614211e+001  -1.574431e+002 
4090625000  -3.699407e+001  -1.593570e+002 
4093750000  -3.645527e+001  -1.599221e+002 
4096875000  -3.626305e+001  -1.668910e+002 
4100000000  -3.707080e+001  -1.737841e+002 
4103125000  -3.778845e+001  -1.737254e+002 
4106250000  -3.774780e+001  -1.684167e+002 
4109375000  -3.667853e+001  -1.711592e+002 
4112500000  -3.631995e+001  -1.790211e+002 
4115625000  -3.667237e+001  1.766009e+002 
4118750000  -3.673808e+001  1.709178e+002 
4121875000  -3.647470e+001  1.656038e+002 
4125000000  -3.690074e+001  1.612308e+002 
4128125000  -3.788139e+001  1.588141e+002 
4131250000  -3.765967e+001  1.689095e+002 
4134375000  -3.550047e+001  1.604018e+002 
4137500000  -3.537564e+001  1.407352e+002 
4140625000  -3.752396e+001  1.338396e+002 
4143750000  -3.881648e+001  1.375110e+002 
4146875000  -3.859563e+001  1.450181e+002 
4150000000  -3.745723e+001  1.410567e+002 
4153125000  -3.737343e+001  1.332751e+002 
4156250000  -3.856144e+001  1.305948e+002 
4159375000  -3.871302e+001  1.344935e+002 
4162500000  -3.746758e+001  1.394978e+002 
4165625000  -3.636924e+001  1.343022e+002 
4168750000  -3.585217e+001  1.254225e+002 
4171875000  -3.581773e+001  1.161184e+002 
4175000000  -3.664218e+001  1.109499e+002 
4178125000  -3.733397e+001  1.107845e+002 
4181250000  -3.676525e+001  1.094498e+002 
4184375000  -3.681553e+001  1.052428e+002 
4187500000  -3.670023e+001  1.024179e+002 
4190625000  -3.665101e+001  9.628596e+001 
4193750000  -3.746601e+001  9.153205e+001 
4196875000  -3.818705e+001  8.969330e+001 
4200000000  -3.909089e+001  9.288687e+001 
4203125000  -3.870528e+001  1.076777e+002 
4206250000  -3.513059e+001  1.062296e+002 
4209375000  -3.410018e+001  8.345758e+001 
4212500000  -3.622253e+001  7.538682e+001 
4215625000  -3.716628e+001  8.140756e+001 
4218750000  -3.574029e+001  8.667345e+001 
4221875000  -3.321873e+001  7.704055e+001 
4225000000  -3.478812e+001  6.395174e+001 
4228125000  -3.510218e+001  6.638351e+001 
4231250000  -3.363820e+001  6.237258e+001 
4234375000  -3.349400e+001  5.238827e+001 
4237500000  -3.294585e+001  4.922329e+001 
4240625000  -3.304406e+001  3.928320e+001 
4243750000  -3.416493e+001  2.983092e+001 
4246875000  -3.518541e+001  3.023253e+001 
4250000000  -3.505712e+001  3.086630e+001 
4253125000  -3.470560e+001  2.834247e+001 
4256250000  -3.489366e+001  2.347408e+001 
4259375000  -3.456147e+001  1.948794e+001 
4262500000  -3.481857e+001  1.467719e+001 
4265625000  -3.480405e+001  1.464824e+001 
4268750000  -3.401905e+001  9.259995e+000 
4271875000  -3.384046e+001  1.032926e+000 
4275000000  -3.346370e+001  -5.828794e+000 
4278125000  -3.435316e+001  -1.802087e+001 
4281250000  -3.629351e+001  -2.042257e+001 
4284375000  -3.574820e+001  -1.946563e+001 
4287500000  -3.690997e+001  -2.313919e+001 
4290625000  -3.829772e+001  -1.244350e+001 
4293750000  -3.611842e+001  -9.386614e+000 
4296875000  -3.512651e+001  -1.991946e+001 
4300000000  -3.589653e+001  -3.093829e+001 
4303125000  -3.732485e+001  -2.668282e+001 
4306250000  -3.644005e+001  -2.241704e+001 
4309375000  -3.529210e+001  -2.513819e+001 
4312500000  -3.499895e+001  -3.363530e+001 
4315625000  -3.505938e+001  -3.898370e+001 
4318750000  -3.545083e+001  -4.302557e+001 
4321875000  -3.566983e+001  -4.167018e+001 
4325000000  -3.507920e+001  -4.286998e+001 
4328125000  -3.427349e+001  -4.880177e+001 
4331250000  -3.401800e+001  -5.706622e+001 
4334375000  -3.455110e+001  -6.342258e+001 
4337500000  -3.528788e+001  -6.516502e+001 
4340625000  -3.587011e+001  -6.298831e+001 
4343750000  -3.494710e+001  -6.170388e+001 
4346875000  -3.452866e+001  -6.958652e+001 
4350000000  -3.454974e+001  -7.471172e+001 
4353125000  -3.441562e+001  -8.424511e+001 
4356250000  -3.625578e+001  -8.388661e+001 
4359375000  -3.673724e+001  -7.137969e+001 
4362500000  -3.328767e+001  -7.203038e+001 
4365625000  -3.210324e+001  -8.642550e+001 
4368750000  -3.270608e+001  -9.843903e+001 
4371875000  -3.386042e+001  -9.816731e+001 
4375000000  -3.337721e+001  -9.971833e+001 
4378125000  -3.277153e+001  -1.069709e+002 
4381250000  -3.296091e+001  -1.137397e+002 
4384375000  -3.287868e+001  -1.202287e+002 
4387500000  -3.368488e+001  -1.271834e+002 
4390625000  -3.451675e+001  -1.269246e+002 
4393750000  -3.391620e+001  -1.254246e+002 
4396875000  -3.342548e+001  -1.297037e+002 
4400000000  -3.291380e+001  -1.377277e+002 
4403125000  -3.365065e+001  -1.461291e+002 
4406250000  -3.449331e+001  -1.492495e+002 
4409375000  -3.450824e+001  -1.526590e+002 
4412500000  -3.574283e+001  -1.571395e+002 
4415625000  -3.600611e+001  -1.514336e+002 
