!Agilent Technologies,E8363B,MY43030201,A.06.04.32
!Agilent E8363B: A.06.04.32
!Date: Tuesday, November 11, 2014 21:02:30
!Correction: S21(Response(S21)) 
!S1P File: Measurement: S21:
# Hz S  dB   R 50
3000000000  -3.598665e+001  -5.050946e+001 
3003125000  -3.721126e+001  -5.686682e+001 
3006250000  -3.708031e+001  -5.854645e+001 
3009375000  -3.747137e+001  -5.509483e+001 
3012500000  -3.670947e+001  -5.568877e+001 
3015625000  -3.598760e+001  -6.383487e+001 
3018750000  -3.683990e+001  -6.465559e+001 
3021875000  -3.525963e+001  -6.360574e+001 
3025000000  -3.402303e+001  -6.696008e+001 
3028125000  -3.311005e+001  -7.259895e+001 
3031250000  -3.206382e+001  -8.384839e+001 
3034375000  -3.165294e+001  -9.761946e+001 
3037500000  -3.211151e+001  -1.090975e+002 
3040625000  -3.364704e+001  -1.138549e+002 
3043750000  -3.419914e+001  -1.186912e+002 
3046875000  -3.444807e+001  -1.250250e+002 
3050000000  -3.610527e+001  -1.304663e+002 
3053125000  -3.614458e+001  -1.245744e+002 
3056250000  -3.554855e+001  -1.217425e+002 
3059375000  -3.561340e+001  -1.219730e+002 
3062500000  -3.420363e+001  -1.248800e+002 
3065625000  -3.395665e+001  -1.311461e+002 
3068750000  -3.360335e+001  -1.384436e+002 
3071875000  -3.350701e+001  -1.406506e+002 
3075000000  -3.330915e+001  -1.435358e+002 
3078125000  -3.302320e+001  -1.481897e+002 
3081250000  -3.353925e+001  -1.521174e+002 
3084375000  -3.260630e+001  -1.560040e+002 
3087500000  -3.239361e+001  -1.597288e+002 
3090625000  -3.185023e+001  -1.699469e+002 
3093750000  -3.230341e+001  -1.774454e+002 
3096875000  -3.341110e+001  1.764162e+002 
3100000000  -3.324952e+001  1.744857e+002 
3103125000  -3.354263e+001  1.746333e+002 
3106250000  -3.307252e+001  1.712845e+002 
3109375000  -3.311804e+001  1.667047e+002 
3112500000  -3.313590e+001  1.644581e+002 
3115625000  -3.272395e+001  1.594333e+002 
3118750000  -3.305639e+001  1.598090e+002 
3121875000  -3.220878e+001  1.496110e+002 
3125000000  -3.337371e+001  1.458762e+002 
3128125000  -3.435847e+001  1.520970e+002 
3131250000  -3.199947e+001  1.510818e+002 
3134375000  -3.064322e+001  1.357099e+002 
3137500000  -3.121916e+001  1.209890e+002 
3140625000  -3.274110e+001  1.181596e+002 
3143750000  -3.376332e+001  1.199592e+002 
3146875000  -3.337493e+001  1.204932e+002 
3150000000  -3.230613e+001  1.208220e+002 
3153125000  -3.234303e+001  1.121129e+002 
3156250000  -3.342312e+001  1.166289e+002 
3159375000  -3.177985e+001  1.181236e+002 
3162500000  -2.977544e+001  1.030617e+002 
3165625000  -3.086802e+001  9.135313e+001 
3168750000  -3.118461e+001  9.103886e+001 
3171875000  -3.037380e+001  8.545729e+001 
3175000000  -3.113720e+001  7.671708e+001 
3178125000  -3.093933e+001  7.778529e+001 
3181250000  -2.980939e+001  7.289687e+001 
3184375000  -2.914503e+001  6.015598e+001 
3187500000  -3.028776e+001  4.459743e+001 
3190625000  -3.302440e+001  3.634261e+001 
3193750000  -3.376348e+001  4.545211e+001 
3196875000  -3.330742e+001  5.012189e+001 
3200000000  -3.238927e+001  4.814885e+001 
3203125000  -3.162130e+001  4.133207e+001 
3206250000  -3.196553e+001  3.416392e+001 
3209375000  -3.153639e+001  2.886594e+001 
3212500000  -3.168455e+001  2.185117e+001 
3215625000  -3.176015e+001  1.846990e+001 
3218750000  -3.249091e+001  1.092438e+001 
3221875000  -3.339838e+001  6.442490e+000 
3225000000  -3.304810e+001  5.702747e+000 
3228125000  -3.331816e+001  4.216903e-001 
3231250000  -3.399113e+001  -2.315550e+000 
3234375000  -3.382105e+001  -1.885299e+000 
3237500000  -3.374147e+001  -3.687026e+000 
3240625000  -3.325874e+001  -6.101638e+000 
3243750000  -3.278104e+001  -1.369409e+001 
3246875000  -3.325423e+001  -2.090174e+001 
3250000000  -3.357097e+001  -2.274810e+001 
3253125000  -3.376470e+001  -2.512898e+001 
3256250000  -3.335535e+001  -3.147102e+001 
3259375000  -3.356582e+001  -4.042308e+001 
3262500000  -3.474236e+001  -4.404837e+001 
3265625000  -3.544262e+001  -4.251586e+001 
3268750000  -3.532375e+001  -4.000985e+001 
3271875000  -3.483421e+001  -4.059595e+001 
3275000000  -3.375596e+001  -4.608540e+001 
3278125000  -3.431876e+001  -5.404134e+001 
3281250000  -3.447649e+001  -5.310280e+001 
3284375000  -3.389783e+001  -5.970790e+001 
3287500000  -3.409564e+001  -6.362482e+001 
3290625000  -3.445137e+001  -6.919544e+001 
3293750000  -3.418703e+001  -7.610626e+001 
3296875000  -3.521693e+001  -7.685623e+001 
3300000000  -3.497351e+001  -7.571493e+001 
3303125000  -3.378931e+001  -8.112781e+001 
3306250000  -3.356545e+001  -8.866259e+001 
3309375000  -3.329295e+001  -9.452991e+001 
3312500000  -3.348494e+001  -1.059470e+002 
3315625000  -3.440023e+001  -1.139856e+002 
3318750000  -3.605745e+001  -1.180088e+002 
3321875000  -3.706768e+001  -1.174974e+002 
3325000000  -3.753876e+001  -1.122809e+002 
3328125000  -3.731213e+001  -1.121857e+002 
3331250000  -3.616822e+001  -1.048579e+002 
3334375000  -3.339233e+001  -1.151118e+002 
3337500000  -3.346520e+001  -1.355938e+002 
3340625000  -3.484748e+001  -1.453912e+002 
3343750000  -3.693269e+001  -1.473539e+002 
3346875000  -3.717303e+001  -1.447542e+002 
3350000000  -3.645089e+001  -1.467471e+002 
3353125000  -3.660504e+001  -1.511671e+002 
3356250000  -3.626581e+001  -1.590891e+002 
3359375000  -3.668833e+001  -1.668988e+002 
3362500000  -3.783200e+001  -1.735105e+002 
3365625000  -3.838710e+001  -1.741353e+002 
3368750000  -3.911752e+001  -1.762151e+002 
3371875000  -3.944094e+001  -1.788866e+002 
3375000000  -4.043363e+001  1.790378e+002 
3378125000  -4.158268e+001  1.789562e+002 
3381250000  -4.271214e+001  -1.726486e+002 
3384375000  -4.130559e+001  -1.524205e+002 
3387500000  -3.782118e+001  -1.687346e+002 
3390625000  -3.946592e+001  1.737829e+002 
3393750000  -4.085165e+001  1.766420e+002 
3396875000  -3.963211e+001  1.792532e+002 
3400000000  -3.894404e+001  1.713325e+002 
3403125000  -3.962935e+001  1.652618e+002 
3406250000  -4.015949e+001  1.654506e+002 
3409375000  -3.993627e+001  1.568838e+002 
3412500000  -4.038072e+001  1.538376e+002 
3415625000  -4.109039e+001  1.559112e+002 
3418750000  -4.111855e+001  1.581436e+002 
3421875000  -4.147838e+001  1.605818e+002 
3425000000  -4.050018e+001  1.596606e+002 
3428125000  -3.949125e+001  1.544034e+002 
3431250000  -3.930465e+001  1.494896e+002 
3434375000  -3.922930e+001  1.423961e+002 
3437500000  -3.987749e+001  1.389218e+002 
3440625000  -4.038503e+001  1.389314e+002 
3443750000  -3.880673e+001  1.406892e+002 
3446875000  -3.803231e+001  1.317455e+002 
3450000000  -3.789502e+001  1.227410e+002 
3453125000  -3.815595e+001  1.121138e+002 
3456250000  -3.933501e+001  1.064927e+002 
3459375000  -4.027031e+001  1.059675e+002 
3462500000  -4.031680e+001  1.084089e+002 
3465625000  -4.011636e+001  1.017412e+002 
3468750000  -4.042144e+001  9.863824e+001 
3471875000  -4.049535e+001  9.610259e+001 
3475000000  -4.014821e+001  9.265647e+001 
3478125000  -4.074981e+001  8.403710e+001 
3481250000  -4.165755e+001  8.315149e+001 
3484375000  -4.260479e+001  8.671095e+001 
3487500000  -4.194771e+001  8.550912e+001 
3490625000  -4.120137e+001  8.175789e+001 
3493750000  -4.191082e+001  7.644166e+001 
3496875000  -4.254744e+001  7.651817e+001 
3500000000  -4.283329e+001  7.668932e+001 
3503125000  -4.250163e+001  8.001829e+001 
3506250000  -4.082001e+001  7.623341e+001 
3509375000  -4.105963e+001  6.713799e+001 
3512500000  -4.137742e+001  5.820921e+001 
3515625000  -4.221535e+001  5.627487e+001 
3518750000  -4.250335e+001  5.623945e+001 
3521875000  -4.263631e+001  5.698849e+001 
3525000000  -4.337488e+001  5.084785e+001 
3528125000  -4.301455e+001  5.931717e+001 
3531250000  -4.148407e+001  5.513736e+001 
3534375000  -4.170327e+001  4.615474e+001 
3537500000  -4.197390e+001  4.096792e+001 
3540625000  -4.285341e+001  3.765428e+001 
3543750000  -4.372006e+001  4.329898e+001 
3546875000  -4.334183e+001  5.187464e+001 
3550000000  -4.106080e+001  5.423729e+001 
3553125000  -3.950040e+001  3.545089e+001 
3556250000  -4.129885e+001  2.702608e+001 
3559375000  -4.091686e+001  2.835608e+001 
3562500000  -3.983498e+001  1.854761e+001 
3565625000  -4.045012e+001  1.133269e+001 
3568750000  -4.072540e+001  1.335430e+001 
3571875000  -4.099232e+001  1.291600e+001 
3575000000  -4.047428e+001  4.028748e+000 
3578125000  -4.066340e+001  -1.624050e+000 
3581250000  -4.121484e+001  -1.586447e+000 
3584375000  -4.048093e+001  -5.799126e+000 
3587500000  -4.007670e+001  -1.476965e+001 
3590625000  -4.065727e+001  -2.507085e+001 
3593750000  -4.203570e+001  -2.506157e+001 
3596875000  -4.198752e+001  -2.110064e+001 
3600000000  -4.069286e+001  -2.541916e+001 
3603125000  -4.100006e+001  -3.725609e+001 
3606250000  -4.194316e+001  -4.303318e+001 
3609375000  -4.267072e+001  -4.548740e+001 
3612500000  -4.331182e+001  -4.858742e+001 
3615625000  -4.356802e+001  -5.251728e+001 
3618750000  -4.449394e+001  -5.050607e+001 
3621875000  -4.442516e+001  -5.324520e+001 
3625000000  -4.511375e+001  -4.980301e+001 
3628125000  -4.550915e+001  -5.198922e+001 
3631250000  -4.498740e+001  -5.509392e+001 
3634375000  -4.598282e+001  -5.572258e+001 
3637500000  -4.578797e+001  -4.854108e+001 
3640625000  -4.504421e+001  -4.794915e+001 
3643750000  -4.457642e+001  -5.149699e+001 
3646875000  -4.516177e+001  -5.932888e+001 
3650000000  -4.554046e+001  -5.831103e+001 
3653125000  -4.479327e+001  -5.857769e+001 
3656250000  -4.578773e+001  -6.098919e+001 
3659375000  -4.530165e+001  -5.748146e+001 
3662500000  -4.421487e+001  -6.024247e+001 
3665625000  -4.381112e+001  -6.119539e+001 
3668750000  -4.307095e+001  -6.280654e+001 
3671875000  -4.165319e+001  -6.977039e+001 
3675000000  -4.214986e+001  -7.820610e+001 
3678125000  -4.240168e+001  -8.013522e+001 
3681250000  -4.201490e+001  -8.443448e+001 
3684375000  -4.193050e+001  -8.935911e+001 
3687500000  -4.222684e+001  -9.274998e+001 
3690625000  -4.234072e+001  -9.788957e+001 
3693750000  -4.329912e+001  -9.961207e+001 
3696875000  -4.294239e+001  -9.650527e+001 
3700000000  -4.251312e+001  -1.038510e+002 
3703125000  -4.238264e+001  -1.092888e+002 
3706250000  -4.335500e+001  -1.086331e+002 
3709375000  -4.320456e+001  -1.065224e+002 
3712500000  -4.225170e+001  -1.119897e+002 
3715625000  -4.187314e+001  -1.189374e+002 
3718750000  -4.135139e+001  -1.244069e+002 
3721875000  -4.135477e+001  -1.298932e+002 
3725000000  -4.169476e+001  -1.352754e+002 
3728125000  -4.197898e+001  -1.368924e+002 
3731250000  -4.174032e+001  -1.374477e+002 
3734375000  -4.138068e+001  -1.435261e+002 
3737500000  -4.280747e+001  -1.514987e+002 
3740625000  -4.370917e+001  -1.565856e+002 
3743750000  -4.370877e+001  -1.559505e+002 
3746875000  -4.427040e+001  -1.587715e+002 
3750000000  -4.501387e+001  -1.574237e+002 
3753125000  -4.466811e+001  -1.578707e+002 
3756250000  -4.488181e+001  -1.562971e+002 
3759375000  -4.512614e+001  -1.553188e+002 
3762500000  -4.422750e+001  -1.587367e+002 
3765625000  -4.506738e+001  -1.573920e+002 
3768750000  -4.491226e+001  -1.541099e+002 
3771875000  -4.279546e+001  -1.567719e+002 
3775000000  -4.302261e+001  -1.615242e+002 
3778125000  -4.330568e+001  -1.627527e+002 
3781250000  -4.235909e+001  -1.645869e+002 
3784375000  -4.251079e+001  -1.652273e+002 
3787500000  -4.126871e+001  -1.712187e+002 
3790625000  -4.176163e+001  -1.748641e+002 
3793750000  -4.178786e+001  -1.776033e+002 
3796875000  -4.055979e+001  1.797277e+002 
3800000000  -3.908532e+001  1.749527e+002 
3803125000  -3.961657e+001  1.668553e+002 
3806250000  -4.034324e+001  1.638033e+002 
3809375000  -4.022889e+001  1.614070e+002 
3812500000  -3.947277e+001  1.535208e+002 
3815625000  -4.003156e+001  1.451137e+002 
3818750000  -4.101004e+001  1.420703e+002 
3821875000  -4.090709e+001  1.487637e+002 
3825000000  -3.927627e+001  1.538723e+002 
3828125000  -3.772050e+001  1.360237e+002 
3831250000  -3.840681e+001  1.218132e+002 
3834375000  -3.996088e+001  1.192392e+002 
3837500000  -4.073856e+001  1.239568e+002 
3840625000  -3.965029e+001  1.226524e+002 
3843750000  -3.881860e+001  1.098833e+002 
3846875000  -3.967462e+001  1.030766e+002 
3850000000  -4.096701e+001  1.077218e+002 
3853125000  -4.036489e+001  1.096545e+002 
3856250000  -4.039962e+001  1.044040e+002 
3859375000  -3.968799e+001  9.792030e+001 
3862500000  -3.943148e+001  9.064764e+001 
3865625000  -3.996323e+001  8.696841e+001 
3868750000  -3.985557e+001  8.389594e+001 
3871875000  -3.925780e+001  8.144395e+001 
3875000000  -3.988762e+001  7.302946e+001 
3878125000  -4.088300e+001  7.066510e+001 
3881250000  -4.077314e+001  7.266287e+001 
3884375000  -4.065970e+001  7.038523e+001 
3887500000  -4.089194e+001  6.441563e+001 
3890625000  -4.113687e+001  6.240726e+001 
3893750000  -4.160427e+001  5.958163e+001 
3896875000  -4.174016e+001  6.361388e+001 
3900000000  -4.210535e+001  6.203252e+001 
3903125000  -4.136278e+001  5.799663e+001 
3906250000  -4.079338e+001  5.895298e+001 
3909375000  -4.008052e+001  5.359393e+001 
3912500000  -3.993191e+001  4.589455e+001 
3915625000  -4.136145e+001  4.780417e+001 
3918750000  -4.113617e+001  4.899318e+001 
3921875000  -4.046650e+001  4.409023e+001 
3925000000  -3.956120e+001  4.398694e+001 
3928125000  -3.902832e+001  3.577372e+001 
3931250000  -3.969572e+001  3.028470e+001 
3934375000  -3.964483e+001  2.902120e+001 
3937500000  -3.987218e+001  2.678997e+001 
3940625000  -3.991232e+001  2.713754e+001 
3943750000  -3.913964e+001  2.673535e+001 
3946875000  -3.804019e+001  1.927060e+001 
3950000000  -3.878498e+001  9.759748e+000 
3953125000  -3.951813e+001  9.060834e+000 
3956250000  -3.863874e+001  9.311292e+000 
3959375000  -3.739433e+001  5.945989e+000 
3962500000  -3.716967e+001  1.298561e+000 
3965625000  -3.695186e+001  -9.419661e+000 
3968750000  -3.797026e+001  -1.706584e+001 
3971875000  -3.818705e+001  -2.110398e+001 
3975000000  -3.766579e+001  -2.244773e+001 
3978125000  -3.764283e+001  -2.633914e+001 
3981250000  -3.768310e+001  -3.141241e+001 
3984375000  -3.793344e+001  -3.763918e+001 
3987500000  -3.871632e+001  -4.071957e+001 
3990625000  -3.850137e+001  -4.181685e+001 
3993750000  -3.899452e+001  -4.729261e+001 
3996875000  -3.952077e+001  -5.125387e+001 
4000000000  -3.947266e+001  -5.240782e+001 
4003125000  -3.995275e+001  -5.103980e+001 
4006250000  -3.861132e+001  -5.059945e+001 
4009375000  -3.772837e+001  -6.449612e+001 
4012500000  -3.915364e+001  -6.984563e+001 
4015625000  -4.039585e+001  -7.110703e+001 
4018750000  -4.071452e+001  -6.601535e+001 
4021875000  -3.956034e+001  -6.811449e+001 
4025000000  -3.938122e+001  -7.253396e+001 
4028125000  -3.948983e+001  -7.500539e+001 
4031250000  -4.005025e+001  -8.104849e+001 
4034375000  -4.008106e+001  -7.808309e+001 
4037500000  -3.935386e+001  -7.799152e+001 
4040625000  -3.949028e+001  -8.195769e+001 
4043750000  -3.963173e+001  -8.234618e+001 
4046875000  -3.914101e+001  -8.399172e+001 
4050000000  -3.856155e+001  -8.908910e+001 
4053125000  -3.880907e+001  -9.153477e+001 
4056250000  -3.957864e+001  -8.739678e+001 
4059375000  -3.796695e+001  -8.812355e+001 
4062500000  -3.674863e+001  -9.408103e+001 
4065625000  -3.631646e+001  -9.813044e+001 
4068750000  -3.622313e+001  -1.050716e+002 
4071875000  -3.543408e+001  -1.146149e+002 
4075000000  -3.577646e+001  -1.220866e+002 
4078125000  -3.625433e+001  -1.235604e+002 
4081250000  -3.568245e+001  -1.283925e+002 
4084375000  -3.540182e+001  -1.351346e+002 
4087500000  -3.583517e+001  -1.420545e+002 
4090625000  -3.646023e+001  -1.453180e+002 
4093750000  -3.620201e+001  -1.459097e+002 
4096875000  -3.569181e+001  -1.542089e+002 
4100000000  -3.646660e+001  -1.605344e+002 
4103125000  -3.745376e+001  -1.597045e+002 
4106250000  -3.731505e+001  -1.585063e+002 
4109375000  -3.642436e+001  -1.590380e+002 
4112500000  -3.577603e+001  -1.676721e+002 
4115625000  -3.641570e+001  -1.743768e+002 
4118750000  -3.658945e+001  -1.766589e+002 
4121875000  -3.621722e+001  1.768760e+002 
4125000000  -3.666070e+001  1.717923e+002 
4128125000  -3.781433e+001  1.718157e+002 
4131250000  -3.757536e+001  1.783641e+002 
4134375000  -3.534784e+001  1.725461e+002 
4137500000  -3.527680e+001  1.532538e+002 
4140625000  -3.763227e+001  1.453081e+002 
4143750000  -3.897361e+001  1.491017e+002 
4146875000  -3.878699e+001  1.562238e+002 
4150000000  -3.805469e+001  1.517180e+002 
4153125000  -3.794851e+001  1.468191e+002 
4156250000  -3.868416e+001  1.439402e+002 
4159375000  -3.899086e+001  1.487270e+002 
4162500000  -3.814045e+001  1.528121e+002 
4165625000  -3.688160e+001  1.490637e+002 
4168750000  -3.631950e+001  1.407690e+002 
4171875000  -3.621515e+001  1.321501e+002 
4175000000  -3.688380e+001  1.265522e+002 
4178125000  -3.738868e+001  1.270036e+002 
4181250000  -3.706894e+001  1.257754e+002 
4184375000  -3.685572e+001  1.210961e+002 
4187500000  -3.703165e+001  1.190079e+002 
4190625000  -3.666520e+001  1.124073e+002 
4193750000  -3.748877e+001  1.094621e+002 
4196875000  -3.789801e+001  1.077867e+002 
4200000000  -3.875626e+001  1.099403e+002 
4203125000  -3.871718e+001  1.230409e+002 
4206250000  -3.512440e+001  1.226572e+002 
4209375000  -3.407344e+001  1.005642e+002 
4212500000  -3.589117e+001  9.181640e+001 
4215625000  -3.683703e+001  9.568824e+001 
4218750000  -3.522298e+001  1.023044e+002 
4221875000  -3.320000e+001  9.173646e+001 
4225000000  -3.431142e+001  7.771433e+001 
4228125000  -3.496038e+001  8.228131e+001 
4231250000  -3.324683e+001  7.685162e+001 
4234375000  -3.311209e+001  6.686449e+001 
4237500000  -3.282755e+001  6.231037e+001 
4240625000  -3.265369e+001  5.127795e+001 
4243750000  -3.381419e+001  4.450541e+001 
4246875000  -3.472918e+001  4.323397e+001 
4250000000  -3.481651e+001  4.442473e+001 
4253125000  -3.423350e+001  4.137680e+001 
4256250000  -3.465353e+001  3.456157e+001 
4259375000  -3.441159e+001  3.314240e+001 
4262500000  -3.452050e+001  2.735349e+001 
4265625000  -3.465408e+001  2.632028e+001 
4268750000  -3.401878e+001  2.102433e+001 
4271875000  -3.380656e+001  1.432876e+001 
4275000000  -3.353789e+001  5.990378e+000 
4278125000  -3.424212e+001  -6.179626e+000 
4281250000  -3.622798e+001  -7.499143e+000 
4284375000  -3.604719e+001  -6.916379e+000 
4287500000  -3.719428e+001  -1.076605e+001 
4290625000  -3.842044e+001  -2.333033e+000 
4293750000  -3.660036e+001  2.942714e+000 
4296875000  -3.528796e+001  -8.741546e+000 
4300000000  -3.639555e+001  -1.744878e+001 
4303125000  -3.755087e+001  -1.591691e+001 
4306250000  -3.674319e+001  -8.957901e+000 
4309375000  -3.569633e+001  -1.225059e+001 
4312500000  -3.522236e+001  -1.857292e+001 
4315625000  -3.558077e+001  -2.391278e+001 
4318750000  -3.564028e+001  -2.715870e+001 
4321875000  -3.584563e+001  -2.563140e+001 
4325000000  -3.525405e+001  -2.572316e+001 
4328125000  -3.449936e+001  -3.282565e+001 
4331250000  -3.429318e+001  -4.151208e+001 
4334375000  -3.476068e+001  -4.594652e+001 
4337500000  -3.539531e+001  -4.830988e+001 
4340625000  -3.580481e+001  -4.521424e+001 
4343750000  -3.497707e+001  -4.549709e+001 
4346875000  -3.434749e+001  -5.177222e+001 
4350000000  -3.435659e+001  -5.840748e+001 
4353125000  -3.433038e+001  -6.754737e+001 
4356250000  -3.600212e+001  -6.906245e+001 
4359375000  -3.639787e+001  -5.698864e+001 
4362500000  -3.351281e+001  -5.664373e+001 
4365625000  -3.177829e+001  -6.974667e+001 
4368750000  -3.263031e+001  -8.236537e+001 
4371875000  -3.355455e+001  -8.335654e+001 
4375000000  -3.319225e+001  -8.389098e+001 
4378125000  -3.252635e+001  -9.210941e+001 
4381250000  -3.278626e+001  -9.907790e+001 
4384375000  -3.250706e+001  -1.060031e+002 
4387500000  -3.340801e+001  -1.121966e+002 
4390625000  -3.435643e+001  -1.129296e+002 
4393750000  -3.377365e+001  -1.128352e+002 
4396875000  -3.302654e+001  -1.169563e+002 
4400000000  -3.260233e+001  -1.252808e+002 
4403125000  -3.326278e+001  -1.341759e+002 
4406250000  -3.417207e+001  -1.365703e+002 
4409375000  -3.443132e+001  -1.396341e+002 
4412500000  -3.560944e+001  -1.435815e+002 
4415625000  -3.583786e+001  -1.403107e+002 
