!Agilent Technologies,E8363B,MY43030201,A.06.04.32
!Agilent E8363B: A.06.04.32
!Date: Tuesday, November 11, 2014 21:10:55
!Correction: S21(Response(S21)) 
!S1P File: Measurement: S21:
# Hz S  dB   R 50
3000000000  -3.655476e+001  -5.494612e+001 
3003125000  -3.765790e+001  -6.119319e+001 
3006250000  -3.759046e+001  -6.401472e+001 
3009375000  -3.798577e+001  -5.875389e+001 
3012500000  -3.711474e+001  -6.069016e+001 
3015625000  -3.609293e+001  -6.877605e+001 
3018750000  -3.692676e+001  -6.930830e+001 
3021875000  -3.549282e+001  -6.901450e+001 
3025000000  -3.414513e+001  -7.209990e+001 
3028125000  -3.318877e+001  -7.870432e+001 
3031250000  -3.219909e+001  -9.023498e+001 
3034375000  -3.182937e+001  -1.044410e+002 
3037500000  -3.236581e+001  -1.163381e+002 
3040625000  -3.364397e+001  -1.207719e+002 
3043750000  -3.430303e+001  -1.260700e+002 
3046875000  -3.454296e+001  -1.318789e+002 
3050000000  -3.619597e+001  -1.380209e+002 
3053125000  -3.610052e+001  -1.321659e+002 
3056250000  -3.554411e+001  -1.292798e+002 
3059375000  -3.569470e+001  -1.295338e+002 
3062500000  -3.410779e+001  -1.326004e+002 
3065625000  -3.404741e+001  -1.393783e+002 
3068750000  -3.362854e+001  -1.458060e+002 
3071875000  -3.360630e+001  -1.488648e+002 
3075000000  -3.333399e+001  -1.524698e+002 
3078125000  -3.310888e+001  -1.567169e+002 
3081250000  -3.360387e+001  -1.612452e+002 
3084375000  -3.264338e+001  -1.647135e+002 
3087500000  -3.250927e+001  -1.688978e+002 
3090625000  -3.199865e+001  -1.790876e+002 
3093750000  -3.246004e+001  1.733694e+002 
3096875000  -3.349766e+001  1.682499e+002 
3100000000  -3.340962e+001  1.663752e+002 
3103125000  -3.360816e+001  1.662680e+002 
3106250000  -3.318460e+001  1.626916e+002 
3109375000  -3.324051e+001  1.582224e+002 
3112500000  -3.315577e+001  1.562110e+002 
3115625000  -3.287494e+001  1.515406e+002 
3118750000  -3.328160e+001  1.510236e+002 
3121875000  -3.234066e+001  1.417593e+002 
3125000000  -3.360112e+001  1.381990e+002 
3128125000  -3.449462e+001  1.454070e+002 
3131250000  -3.203437e+001  1.432921e+002 
3134375000  -3.079704e+001  1.279104e+002 
3137500000  -3.136554e+001  1.138297e+002 
3140625000  -3.270807e+001  1.116302e+002 
3143750000  -3.376706e+001  1.130083e+002 
3146875000  -3.333273e+001  1.138390e+002 
3150000000  -3.229986e+001  1.132872e+002 
3153125000  -3.234619e+001  1.039999e+002 
3156250000  -3.336341e+001  1.096590e+002 
3159375000  -3.156409e+001  1.109852e+002 
3162500000  -2.965693e+001  9.591102e+001 
3165625000  -3.072017e+001  8.387294e+001 
3168750000  -3.098388e+001  8.381543e+001 
3171875000  -3.010528e+001  7.798337e+001 
3175000000  -3.087306e+001  6.988005e+001 
3178125000  -3.061964e+001  7.036219e+001 
3181250000  -2.952873e+001  6.463187e+001 
3184375000  -2.892622e+001  5.198182e+001 
3187500000  -3.015779e+001  3.659701e+001 
3190625000  -3.267839e+001  2.881338e+001 
3193750000  -3.330475e+001  3.742474e+001 
3196875000  -3.297159e+001  4.199032e+001 
3200000000  -3.196141e+001  3.905438e+001 
3203125000  -3.115614e+001  3.244417e+001 
3206250000  -3.146541e+001  2.590644e+001 
3209375000  -3.111109e+001  1.997533e+001 
3212500000  -3.136106e+001  1.296079e+001 
3215625000  -3.130875e+001  9.742763e+000 
3218750000  -3.209548e+001  1.448428e+000 
3221875000  -3.289160e+001  -2.831944e+000 
3225000000  -3.254671e+001  -4.702428e+000 
3228125000  -3.291880e+001  -1.058087e+001 
3231250000  -3.359314e+001  -1.281471e+001 
3234375000  -3.327043e+001  -1.234582e+001 
3237500000  -3.329198e+001  -1.478225e+001 
3240625000  -3.287369e+001  -1.669057e+001 
3243750000  -3.251377e+001  -2.484581e+001 
3246875000  -3.290301e+001  -3.199142e+001 
3250000000  -3.330254e+001  -3.404633e+001 
3253125000  -3.351342e+001  -3.638116e+001 
3256250000  -3.305028e+001  -4.286642e+001 
3259375000  -3.339251e+001  -5.198537e+001 
3262500000  -3.453767e+001  -5.516172e+001 
3265625000  -3.520982e+001  -5.276161e+001 
3268750000  -3.508160e+001  -5.046207e+001 
3271875000  -3.466808e+001  -5.146023e+001 
3275000000  -3.362624e+001  -5.782191e+001 
3278125000  -3.413582e+001  -6.457693e+001 
3281250000  -3.419153e+001  -6.365678e+001 
3284375000  -3.381924e+001  -6.993736e+001 
3287500000  -3.412331e+001  -7.339184e+001 
3290625000  -3.422572e+001  -8.002960e+001 
3293750000  -3.400890e+001  -8.548637e+001 
3296875000  -3.510953e+001  -8.676072e+001 
3300000000  -3.487008e+001  -8.529269e+001 
3303125000  -3.363066e+001  -9.092743e+001 
3306250000  -3.345980e+001  -9.802760e+001 
3309375000  -3.319003e+001  -1.048968e+002 
3312500000  -3.327570e+001  -1.157438e+002 
3315625000  -3.434544e+001  -1.239831e+002 
3318750000  -3.583174e+001  -1.256769e+002 
3321875000  -3.681041e+001  -1.256496e+002 
3325000000  -3.719952e+001  -1.212394e+002 
3328125000  -3.675163e+001  -1.196953e+002 
3331250000  -3.543251e+001  -1.139847e+002 
3334375000  -3.286788e+001  -1.250556e+002 
3337500000  -3.296141e+001  -1.439647e+002 
3340625000  -3.443197e+001  -1.552598e+002 
3343750000  -3.638952e+001  -1.564934e+002 
3346875000  -3.634225e+001  -1.547331e+002 
3350000000  -3.590443e+001  -1.560720e+002 
3353125000  -3.584712e+001  -1.605382e+002 
3356250000  -3.545198e+001  -1.698829e+002 
3359375000  -3.624704e+001  -1.773866e+002 
3362500000  -3.736720e+001  1.769795e+002 
3365625000  -3.781752e+001  1.752671e+002 
3368750000  -3.859759e+001  1.729836e+002 
3371875000  -3.901981e+001  1.698638e+002 
3375000000  -4.028053e+001  1.671475e+002 
3378125000  -4.078048e+001  1.679147e+002 
3381250000  -4.217416e+001  1.777410e+002 
3384375000  -4.094262e+001  -1.627966e+002 
3387500000  -3.742475e+001  -1.790846e+002 
3390625000  -3.915649e+001  1.623232e+002 
3393750000  -4.021031e+001  1.647896e+002 
3396875000  -3.900863e+001  1.677700e+002 
3400000000  -3.858267e+001  1.566199e+002 
3403125000  -3.914185e+001  1.525412e+002 
3406250000  -3.951514e+001  1.520529e+002 
3409375000  -3.961205e+001  1.451916e+002 
3412500000  -4.010317e+001  1.423049e+002 
3415625000  -4.063528e+001  1.431078e+002 
3418750000  -4.095715e+001  1.435882e+002 
3421875000  -4.129455e+001  1.477287e+002 
3425000000  -4.025888e+001  1.462904e+002 
3428125000  -3.915887e+001  1.425273e+002 
3431250000  -3.933849e+001  1.361801e+002 
3434375000  -3.902845e+001  1.295312e+002 
3437500000  -3.964079e+001  1.266285e+002 
3440625000  -3.997368e+001  1.277223e+002 
3443750000  -3.853921e+001  1.290413e+002 
3446875000  -3.804445e+001  1.203636e+002 
3450000000  -3.741584e+001  1.098868e+002 
3453125000  -3.796185e+001  1.001982e+002 
3456250000  -3.915769e+001  9.376242e+001 
3459375000  -4.000328e+001  9.444747e+001 
3462500000  -4.004935e+001  9.568658e+001 
3465625000  -3.967403e+001  9.158559e+001 
3468750000  -4.008492e+001  8.471803e+001 
3471875000  -4.006283e+001  8.480981e+001 
3475000000  -3.962329e+001  7.861797e+001 
3478125000  -4.044312e+001  7.168098e+001 
3481250000  -4.112703e+001  6.895786e+001 
3484375000  -4.198040e+001  7.320441e+001 
3487500000  -4.124515e+001  7.153561e+001 
3490625000  -4.073111e+001  6.714987e+001 
3493750000  -4.136035e+001  6.110028e+001 
3496875000  -4.169609e+001  5.884756e+001 
3500000000  -4.225256e+001  6.194708e+001 
3503125000  -4.159290e+001  6.214983e+001 
3506250000  -4.032550e+001  6.083901e+001 
3509375000  -4.039985e+001  4.822004e+001 
3512500000  -4.100093e+001  4.260100e+001 
3515625000  -4.202375e+001  3.947550e+001 
3518750000  -4.250758e+001  3.929875e+001 
3521875000  -4.247432e+001  3.674112e+001 
3525000000  -4.326428e+001  3.412223e+001 
3528125000  -4.329547e+001  3.994511e+001 
3531250000  -4.187218e+001  3.749713e+001 
3534375000  -4.203542e+001  2.931343e+001 
3537500000  -4.246066e+001  2.423775e+001 
3540625000  -4.370027e+001  2.193236e+001 
3543750000  -4.419732e+001  2.660710e+001 
3546875000  -4.389716e+001  4.081163e+001 
3550000000  -4.135854e+001  3.981695e+001 
3553125000  -4.043940e+001  2.144340e+001 
3556250000  -4.182866e+001  1.481657e+001 
3559375000  -4.118586e+001  1.570005e+001 
3562500000  -4.025546e+001  8.167744e+000 
3565625000  -4.121918e+001  4.625578e-001 
3568750000  -4.135025e+001  2.971809e+000 
3571875000  -4.107062e+001  3.333605e+000 
3575000000  -4.066437e+001  -5.647395e+000 
3578125000  -4.133956e+001  -1.145366e+001 
3581250000  -4.121212e+001  -1.080601e+001 
3584375000  -4.056940e+001  -1.444221e+001 
3587500000  -3.983321e+001  -2.227445e+001 
3590625000  -4.033295e+001  -3.286014e+001 
3593750000  -4.168427e+001  -3.468581e+001 
3596875000  -4.172594e+001  -2.851989e+001 
3600000000  -4.004819e+001  -3.457229e+001 
3603125000  -4.025389e+001  -4.926776e+001 
3606250000  -4.133358e+001  -5.253367e+001 
3609375000  -4.209965e+001  -5.536010e+001 
3612500000  -4.242523e+001  -5.863993e+001 
3615625000  -4.271470e+001  -6.295237e+001 
3618750000  -4.339780e+001  -6.173862e+001 
3621875000  -4.312651e+001  -6.675526e+001 
3625000000  -4.400376e+001  -6.574826e+001 
3628125000  -4.399146e+001  -6.996312e+001 
3631250000  -4.354581e+001  -7.385617e+001 
3634375000  -4.558302e+001  -7.674959e+001 
3637500000  -4.534939e+001  -6.885860e+001 
3640625000  -4.449792e+001  -6.694145e+001 
3643750000  -4.386704e+001  -7.346696e+001 
3646875000  -4.480025e+001  -8.297450e+001 
3650000000  -4.556054e+001  -8.222412e+001 
3653125000  -4.535941e+001  -8.027531e+001 
3656250000  -4.555838e+001  -8.003044e+001 
3659375000  -4.549112e+001  -7.938604e+001 
3662500000  -4.551476e+001  -8.122935e+001 
3665625000  -4.522716e+001  -8.283947e+001 
3668750000  -4.377566e+001  -7.972880e+001 
3671875000  -4.307896e+001  -8.459785e+001 
3675000000  -4.335557e+001  -9.246318e+001 
3678125000  -4.367497e+001  -9.293751e+001 
3681250000  -4.311736e+001  -9.433380e+001 
3684375000  -4.294503e+001  -1.003788e+002 
3687500000  -4.326769e+001  -1.053187e+002 
3690625000  -4.320704e+001  -1.085920e+002 
3693750000  -4.421989e+001  -1.075084e+002 
3696875000  -4.412026e+001  -1.067009e+002 
3700000000  -4.281075e+001  -1.150986e+002 
3703125000  -4.321326e+001  -1.166344e+002 
3706250000  -4.408949e+001  -1.157142e+002 
3709375000  -4.345493e+001  -1.165269e+002 
3712500000  -4.242480e+001  -1.194317e+002 
3715625000  -4.125246e+001  -1.269157e+002 
3718750000  -4.125074e+001  -1.310979e+002 
3721875000  -4.098220e+001  -1.390445e+002 
3725000000  -4.145640e+001  -1.458435e+002 
3728125000  -4.225701e+001  -1.456041e+002 
3731250000  -4.147381e+001  -1.505731e+002 
3734375000  -4.105445e+001  -1.554471e+002 
3737500000  -4.173294e+001  -1.638447e+002 
3740625000  -4.301064e+001  -1.675354e+002 
3743750000  -4.298331e+001  -1.688521e+002 
3746875000  -4.339003e+001  -1.710408e+002 
3750000000  -4.399756e+001  -1.731468e+002 
3753125000  -4.401527e+001  -1.722537e+002 
3756250000  -4.414058e+001  -1.717694e+002 
3759375000  -4.426222e+001  -1.711826e+002 
3762500000  -4.409594e+001  -1.779490e+002 
3765625000  -4.456762e+001  -1.766098e+002 
3768750000  -4.452502e+001  -1.716390e+002 
3771875000  -4.310477e+001  -1.728038e+002 
3775000000  -4.288203e+001  1.797132e+002 
3778125000  -4.304599e+001  1.770572e+002 
3781250000  -4.306595e+001  1.760481e+002 
3784375000  -4.312309e+001  1.749707e+002 
3787500000  -4.193235e+001  1.729762e+002 
3790625000  -4.216166e+001  1.667188e+002 
3793750000  -4.240520e+001  1.685673e+002 
3796875000  -4.149343e+001  1.640976e+002 
3800000000  -3.978180e+001  1.621562e+002 
3803125000  -4.047425e+001  1.516573e+002 
3806250000  -4.094074e+001  1.501222e+002 
3809375000  -4.113297e+001  1.501126e+002 
3812500000  -4.012339e+001  1.407607e+002 
3815625000  -4.069852e+001  1.313747e+002 
3818750000  -4.147961e+001  1.296273e+002 
3821875000  -4.143790e+001  1.414426e+002 
3825000000  -3.933404e+001  1.416891e+002 
3828125000  -3.803292e+001  1.254784e+002 
3831250000  -3.870653e+001  1.110020e+002 
3834375000  -4.040486e+001  1.109788e+002 
3837500000  -4.121603e+001  1.141702e+002 
3840625000  -4.003100e+001  1.119742e+002 
3843750000  -3.926094e+001  9.925828e+001 
3846875000  -3.996806e+001  9.177116e+001 
3850000000  -4.087496e+001  9.733445e+001 
3853125000  -4.044456e+001  1.015429e+002 
3856250000  -4.044700e+001  9.404950e+001 
3859375000  -3.963623e+001  8.892097e+001 
3862500000  -3.948133e+001  8.072491e+001 
3865625000  -3.964194e+001  7.568162e+001 
3868750000  -3.960710e+001  7.407028e+001 
3871875000  -3.903225e+001  7.002920e+001 
3875000000  -3.931796e+001  6.043980e+001 
3878125000  -4.044494e+001  5.715049e+001 
3881250000  -4.046520e+001  5.999398e+001 
3884375000  -4.016936e+001  5.561139e+001 
3887500000  -4.026988e+001  5.251273e+001 
3890625000  -4.086917e+001  4.999966e+001 
3893750000  -4.117373e+001  4.685888e+001 
3896875000  -4.166844e+001  4.820372e+001 
3900000000  -4.162407e+001  4.527967e+001 
3903125000  -4.114952e+001  4.299520e+001 
3906250000  -4.093855e+001  4.321130e+001 
3909375000  -3.989399e+001  3.861253e+001 
3912500000  -4.007113e+001  2.995334e+001 
3915625000  -4.164014e+001  3.173478e+001 
3918750000  -4.118906e+001  3.443682e+001 
3921875000  -4.071546e+001  2.870196e+001 
3925000000  -3.983955e+001  2.608688e+001 
3928125000  -3.914605e+001  1.932934e+001 
3931250000  -3.977720e+001  1.470970e+001 
3934375000  -3.988643e+001  1.464736e+001 
3937500000  -4.037665e+001  1.331048e+001 
3940625000  -4.061318e+001  1.122796e+001 
3943750000  -3.957730e+001  1.013134e+001 
3946875000  -3.847117e+001  4.444703e+000 
3950000000  -3.892172e+001  -4.965921e+000 
3953125000  -4.012334e+001  -4.358887e+000 
3956250000  -3.937418e+001  -3.212596e+000 
3959375000  -3.793077e+001  -6.868726e+000 
3962500000  -3.743267e+001  -1.142980e+001 
3965625000  -3.751350e+001  -2.222857e+001 
3968750000  -3.840697e+001  -2.896842e+001 
3971875000  -3.849981e+001  -3.013815e+001 
3975000000  -3.787315e+001  -3.316227e+001 
3978125000  -3.796342e+001  -3.730354e+001 
3981250000  -3.808920e+001  -4.253013e+001 
3984375000  -3.815759e+001  -4.817204e+001 
3987500000  -3.870268e+001  -5.088633e+001 
3990625000  -3.890364e+001  -5.247335e+001 
3993750000  -3.894387e+001  -5.735458e+001 
3996875000  -3.914215e+001  -6.176471e+001 
4000000000  -3.905973e+001  -6.210278e+001 
4003125000  -3.961097e+001  -6.047975e+001 
4006250000  -3.835914e+001  -6.167627e+001 
4009375000  -3.736493e+001  -7.490302e+001 
4012500000  -3.857722e+001  -8.241587e+001 
4015625000  -3.974269e+001  -8.015913e+001 
4018750000  -3.990454e+001  -8.076826e+001 
4021875000  -3.898262e+001  -8.390759e+001 
4025000000  -3.879157e+001  -8.738971e+001 
4028125000  -3.895765e+001  -9.145579e+001 
4031250000  -3.930495e+001  -9.577387e+001 
4034375000  -3.963836e+001  -9.549199e+001 
4037500000  -3.912786e+001  -9.472712e+001 
4040625000  -3.896527e+001  -9.839433e+001 
4043750000  -3.950683e+001  -9.833008e+001 
4046875000  -3.896742e+001  -1.007471e+002 
4050000000  -3.843737e+001  -1.076874e+002 
4053125000  -3.914083e+001  -1.088047e+002 
4056250000  -3.934207e+001  -1.062207e+002 
4059375000  -3.813623e+001  -1.057842e+002 
4062500000  -3.657154e+001  -1.119849e+002 
4065625000  -3.690327e+001  -1.158500e+002 
4068750000  -3.643063e+001  -1.229369e+002 
4071875000  -3.578855e+001  -1.312298e+002 
4075000000  -3.614038e+001  -1.372800e+002 
4078125000  -3.671406e+001  -1.392823e+002 
4081250000  -3.611566e+001  -1.420198e+002 
4084375000  -3.577909e+001  -1.514223e+002 
4087500000  -3.635851e+001  -1.588433e+002 
4090625000  -3.696371e+001  -1.579247e+002 
4093750000  -3.655515e+001  -1.604570e+002 
4096875000  -3.628678e+001  -1.675388e+002 
4100000000  -3.698813e+001  -1.735236e+002 
4103125000  -3.774461e+001  -1.736989e+002 
4106250000  -3.780496e+001  -1.690377e+002 
4109375000  -3.661447e+001  -1.719366e+002 
4112500000  -3.637229e+001  -1.798169e+002 
4115625000  -3.660107e+001  1.759007e+002 
4118750000  -3.670986e+001  1.711728e+002 
4121875000  -3.644276e+001  1.660467e+002 
4125000000  -3.707623e+001  1.591212e+002 
4128125000  -3.798283e+001  1.605453e+002 
4131250000  -3.746469e+001  1.673198e+002 
4134375000  -3.535149e+001  1.605471e+002 
4137500000  -3.519416e+001  1.418078e+002 
4140625000  -3.754929e+001  1.342773e+002 
4143750000  -3.891619e+001  1.381905e+002 
4146875000  -3.827882e+001  1.452623e+002 
4150000000  -3.754914e+001  1.397748e+002 
4153125000  -3.740520e+001  1.334399e+002 
4156250000  -3.857885e+001  1.315809e+002 
4159375000  -3.874895e+001  1.348764e+002 
4162500000  -3.764797e+001  1.393735e+002 
4165625000  -3.647602e+001  1.333310e+002 
4168750000  -3.573974e+001  1.256489e+002 
4171875000  -3.577331e+001  1.153544e+002 
4175000000  -3.675347e+001  1.109078e+002 
4178125000  -3.725919e+001  1.113407e+002 
4181250000  -3.673828e+001  1.094346e+002 
4184375000  -3.679800e+001  1.061115e+002 
4187500000  -3.676033e+001  1.005826e+002 
4190625000  -3.657474e+001  9.581052e+001 
4193750000  -3.736127e+001  9.197257e+001 
4196875000  -3.804782e+001  9.085361e+001 
4200000000  -3.934199e+001  9.412070e+001 
4203125000  -3.876343e+001  1.068522e+002 
4206250000  -3.525807e+001  1.052189e+002 
4209375000  -3.423612e+001  8.340457e+001 
4212500000  -3.637976e+001  7.568275e+001 
4215625000  -3.709456e+001  8.040004e+001 
4218750000  -3.551509e+001  8.644921e+001 
4221875000  -3.357593e+001  7.584774e+001 
4225000000  -3.471126e+001  6.169077e+001 
4228125000  -3.512660e+001  6.765817e+001 
4231250000  -3.356161e+001  6.142266e+001 
4234375000  -3.365828e+001  5.308799e+001 
4237500000  -3.307768e+001  4.762183e+001 
4240625000  -3.322681e+001  3.799561e+001 
4243750000  -3.418530e+001  2.973707e+001 
4246875000  -3.495433e+001  2.825804e+001 
4250000000  -3.525496e+001  3.193097e+001 
4253125000  -3.471770e+001  2.732456e+001 
4256250000  -3.505435e+001  2.327066e+001 
4259375000  -3.468558e+001  1.939245e+001 
4262500000  -3.472252e+001  1.529984e+001 
4265625000  -3.492281e+001  1.520181e+001 
4268750000  -3.392940e+001  9.307455e+000 
4271875000  -3.388928e+001  1.283795e+000 
4275000000  -3.353891e+001  -5.489411e+000 
4278125000  -3.434865e+001  -1.784846e+001 
4281250000  -3.630317e+001  -1.870949e+001 
4284375000  -3.570200e+001  -1.944300e+001 
4287500000  -3.715274e+001  -2.437260e+001 
4290625000  -3.812935e+001  -1.463557e+001 
4293750000  -3.608113e+001  -9.363677e+000 
4296875000  -3.491906e+001  -1.982461e+001 
4300000000  -3.583994e+001  -3.024374e+001 
4303125000  -3.704573e+001  -2.877170e+001 
4306250000  -3.614302e+001  -2.212394e+001 
4309375000  -3.499657e+001  -2.456076e+001 
4312500000  -3.492657e+001  -3.400454e+001 
4315625000  -3.503326e+001  -3.990433e+001 
4318750000  -3.545101e+001  -4.233078e+001 
4321875000  -3.553745e+001  -4.291394e+001 
4325000000  -3.493254e+001  -4.192955e+001 
4328125000  -3.426691e+001  -4.888031e+001 
4331250000  -3.400683e+001  -5.850620e+001 
4334375000  -3.460504e+001  -6.366154e+001 
4337500000  -3.524650e+001  -6.614030e+001 
4340625000  -3.588021e+001  -6.299535e+001 
4343750000  -3.479291e+001  -6.418904e+001 
4346875000  -3.455835e+001  -7.118578e+001 
4350000000  -3.444741e+001  -7.701049e+001 
4353125000  -3.463220e+001  -8.461446e+001 
4356250000  -3.640023e+001  -8.518140e+001 
4359375000  -3.661715e+001  -7.114454e+001 
4362500000  -3.342772e+001  -7.224552e+001 
4365625000  -3.208411e+001  -8.650275e+001 
4368750000  -3.295194e+001  -9.955437e+001 
4371875000  -3.400278e+001  -9.797969e+001 
4375000000  -3.347226e+001  -9.956619e+001 
4378125000  -3.287745e+001  -1.072845e+002 
4381250000  -3.301536e+001  -1.145994e+002 
4384375000  -3.278254e+001  -1.198545e+002 
4387500000  -3.359156e+001  -1.268876e+002 
4390625000  -3.463801e+001  -1.272134e+002 
4393750000  -3.389911e+001  -1.262255e+002 
4396875000  -3.338796e+001  -1.303153e+002 
4400000000  -3.288489e+001  -1.376760e+002 
4403125000  -3.375970e+001  -1.468796e+002 
4406250000  -3.443538e+001  -1.494119e+002 
4409375000  -3.457883e+001  -1.529145e+002 
4412500000  -3.585786e+001  -1.566699e+002 
4415625000  -3.625774e+001  -1.511185e+002 
