!Agilent Technologies,E8363B,MY43030201,A.06.04.32
!Agilent E8363B: A.06.04.32
!Date: Tuesday, November 11, 2014 21:10:48
!Correction: S21(Response(S21)) 
!S1P File: Measurement: S21:
# Hz S  dB   R 50
3000000000  -3.657939e+001  -5.495663e+001 
3003125000  -3.767584e+001  -6.144496e+001 
3006250000  -3.758319e+001  -6.360804e+001 
3009375000  -3.780563e+001  -5.914697e+001 
3012500000  -3.713133e+001  -6.112237e+001 
3015625000  -3.619824e+001  -6.757783e+001 
3018750000  -3.707414e+001  -6.905370e+001 
3021875000  -3.550208e+001  -6.827829e+001 
3025000000  -3.411029e+001  -7.240138e+001 
3028125000  -3.329231e+001  -7.861723e+001 
3031250000  -3.217568e+001  -9.001625e+001 
3034375000  -3.182819e+001  -1.039021e+002 
3037500000  -3.233285e+001  -1.159064e+002 
3040625000  -3.359131e+001  -1.210382e+002 
3043750000  -3.433606e+001  -1.265737e+002 
3046875000  -3.455976e+001  -1.316736e+002 
3050000000  -3.614380e+001  -1.384782e+002 
3053125000  -3.608953e+001  -1.318526e+002 
3056250000  -3.560522e+001  -1.293295e+002 
3059375000  -3.563360e+001  -1.293698e+002 
3062500000  -3.410611e+001  -1.328043e+002 
3065625000  -3.390875e+001  -1.391201e+002 
3068750000  -3.369897e+001  -1.459240e+002 
3071875000  -3.362868e+001  -1.485822e+002 
3075000000  -3.331649e+001  -1.524680e+002 
3078125000  -3.305256e+001  -1.565518e+002 
3081250000  -3.349724e+001  -1.611574e+002 
3084375000  -3.261969e+001  -1.642853e+002 
3087500000  -3.244193e+001  -1.687215e+002 
3090625000  -3.199888e+001  -1.792738e+002 
3093750000  -3.248964e+001  1.741182e+002 
3096875000  -3.354467e+001  1.684149e+002 
3100000000  -3.346470e+001  1.659435e+002 
3103125000  -3.374887e+001  1.668130e+002 
3106250000  -3.329310e+001  1.625231e+002 
3109375000  -3.336267e+001  1.590560e+002 
3112500000  -3.312570e+001  1.565652e+002 
3115625000  -3.290467e+001  1.517834e+002 
3118750000  -3.326291e+001  1.514475e+002 
3121875000  -3.234666e+001  1.422040e+002 
3125000000  -3.358247e+001  1.382684e+002 
3128125000  -3.450890e+001  1.461541e+002 
3131250000  -3.204232e+001  1.434603e+002 
3134375000  -3.085726e+001  1.286111e+002 
3137500000  -3.140268e+001  1.142161e+002 
3140625000  -3.277604e+001  1.113384e+002 
3143750000  -3.376776e+001  1.130727e+002 
3146875000  -3.329921e+001  1.138080e+002 
3150000000  -3.232890e+001  1.140667e+002 
3153125000  -3.232400e+001  1.043750e+002 
3156250000  -3.331417e+001  1.094673e+002 
3159375000  -3.158805e+001  1.113256e+002 
3162500000  -2.963127e+001  9.595529e+001 
3165625000  -3.073066e+001  8.412557e+001 
3168750000  -3.092954e+001  8.438013e+001 
3171875000  -3.010734e+001  7.854581e+001 
3175000000  -3.085531e+001  6.960703e+001 
3178125000  -3.059041e+001  7.039503e+001 
3181250000  -2.954168e+001  6.465324e+001 
3184375000  -2.890939e+001  5.228292e+001 
3187500000  -3.013381e+001  3.691776e+001 
3190625000  -3.276613e+001  2.908227e+001 
3193750000  -3.326158e+001  3.809176e+001 
3196875000  -3.288563e+001  4.234688e+001 
3200000000  -3.194449e+001  3.929660e+001 
3203125000  -3.119057e+001  3.262248e+001 
3206250000  -3.144614e+001  2.589931e+001 
3209375000  -3.106170e+001  2.004371e+001 
3212500000  -3.131456e+001  1.310927e+001 
3215625000  -3.139075e+001  9.800413e+000 
3218750000  -3.208731e+001  2.060274e+000 
3221875000  -3.290707e+001  -3.112866e+000 
3225000000  -3.245124e+001  -4.619699e+000 
3228125000  -3.290831e+001  -1.042114e+001 
3231250000  -3.353680e+001  -1.231047e+001 
3234375000  -3.332476e+001  -1.251311e+001 
3237500000  -3.327856e+001  -1.402088e+001 
3240625000  -3.294456e+001  -1.672355e+001 
3243750000  -3.248497e+001  -2.544786e+001 
3246875000  -3.295625e+001  -3.178932e+001 
3250000000  -3.331456e+001  -3.450487e+001 
3253125000  -3.354313e+001  -3.597649e+001 
3256250000  -3.305452e+001  -4.302182e+001 
3259375000  -3.338034e+001  -5.171323e+001 
3262500000  -3.457496e+001  -5.598818e+001 
3265625000  -3.528543e+001  -5.327983e+001 
3268750000  -3.506293e+001  -5.119272e+001 
3271875000  -3.474135e+001  -5.109458e+001 
3275000000  -3.368167e+001  -5.774373e+001 
3278125000  -3.409554e+001  -6.438769e+001 
3281250000  -3.436488e+001  -6.313447e+001 
3284375000  -3.385494e+001  -7.038398e+001 
3287500000  -3.396475e+001  -7.344965e+001 
3290625000  -3.431361e+001  -7.962778e+001 
3293750000  -3.402306e+001  -8.566886e+001 
3296875000  -3.515186e+001  -8.625731e+001 
3300000000  -3.479631e+001  -8.538419e+001 
3303125000  -3.354993e+001  -9.087733e+001 
3306250000  -3.341816e+001  -9.754603e+001 
3309375000  -3.309254e+001  -1.043711e+002 
3312500000  -3.326637e+001  -1.151552e+002 
3315625000  -3.423054e+001  -1.233040e+002 
3318750000  -3.561906e+001  -1.269335e+002 
3321875000  -3.682815e+001  -1.263840e+002 
3325000000  -3.728649e+001  -1.210703e+002 
3328125000  -3.689682e+001  -1.196682e+002 
3331250000  -3.548175e+001  -1.138341e+002 
3334375000  -3.281200e+001  -1.242757e+002 
3337500000  -3.303929e+001  -1.441589e+002 
3340625000  -3.441288e+001  -1.547305e+002 
3343750000  -3.648429e+001  -1.562239e+002 
3346875000  -3.648298e+001  -1.536005e+002 
3350000000  -3.590438e+001  -1.557760e+002 
3353125000  -3.589488e+001  -1.612841e+002 
3356250000  -3.559866e+001  -1.688186e+002 
3359375000  -3.626638e+001  -1.777706e+002 
3362500000  -3.743121e+001  1.765708e+002 
3365625000  -3.774227e+001  1.761428e+002 
3368750000  -3.863795e+001  1.736967e+002 
3371875000  -3.875890e+001  1.705093e+002 
3375000000  -4.019506e+001  1.670978e+002 
3378125000  -4.119290e+001  1.682409e+002 
3381250000  -4.244988e+001  1.765109e+002 
3384375000  -4.080952e+001  -1.624650e+002 
3387500000  -3.729816e+001  -1.781829e+002 
3390625000  -3.902262e+001  1.605723e+002 
3393750000  -4.025650e+001  1.653826e+002 
3396875000  -3.905640e+001  1.666112e+002 
3400000000  -3.859607e+001  1.581496e+002 
3403125000  -3.920061e+001  1.521919e+002 
3406250000  -3.963326e+001  1.524361e+002 
3409375000  -3.958425e+001  1.448845e+002 
3412500000  -4.018995e+001  1.435396e+002 
3415625000  -4.088111e+001  1.440946e+002 
3418750000  -4.109831e+001  1.440838e+002 
3421875000  -4.127502e+001  1.481547e+002 
3425000000  -4.025561e+001  1.478490e+002 
3428125000  -3.926303e+001  1.425471e+002 
3431250000  -3.919645e+001  1.354500e+002 
3434375000  -3.910202e+001  1.302243e+002 
3437500000  -3.978967e+001  1.262982e+002 
3440625000  -3.997461e+001  1.274772e+002 
3443750000  -3.857520e+001  1.280070e+002 
3446875000  -3.779186e+001  1.196768e+002 
3450000000  -3.748832e+001  1.102130e+002 
3453125000  -3.797373e+001  1.014626e+002 
3456250000  -3.906051e+001  9.372118e+001 
3459375000  -4.018519e+001  9.601574e+001 
3462500000  -3.988777e+001  9.646395e+001 
3465625000  -3.979651e+001  9.005875e+001 
3468750000  -4.012976e+001  8.695333e+001 
3471875000  -4.005320e+001  8.464797e+001 
3475000000  -3.959649e+001  7.932323e+001 
3478125000  -4.023495e+001  7.145698e+001 
3481250000  -4.132420e+001  7.033238e+001 
3484375000  -4.203921e+001  7.452197e+001 
3487500000  -4.133061e+001  7.280210e+001 
3490625000  -4.078987e+001  6.824314e+001 
3493750000  -4.152339e+001  6.136194e+001 
3496875000  -4.189799e+001  6.062060e+001 
3500000000  -4.215831e+001  6.361773e+001 
3503125000  -4.178387e+001  6.522176e+001 
3506250000  -4.059576e+001  6.001102e+001 
3509375000  -4.055545e+001  4.842828e+001 
3512500000  -4.105687e+001  4.097589e+001 
3515625000  -4.182751e+001  3.950007e+001 
3518750000  -4.270580e+001  3.993090e+001 
3521875000  -4.248897e+001  3.756070e+001 
3525000000  -4.348952e+001  3.438914e+001 
3528125000  -4.376588e+001  4.086264e+001 
3531250000  -4.187928e+001  3.998405e+001 
3534375000  -4.204817e+001  2.773251e+001 
3537500000  -4.255707e+001  2.282083e+001 
3540625000  -4.355526e+001  2.186388e+001 
3543750000  -4.435225e+001  2.789146e+001 
3546875000  -4.427494e+001  3.829370e+001 
3550000000  -4.158078e+001  3.816461e+001 
3553125000  -4.021619e+001  2.178362e+001 
3556250000  -4.170937e+001  1.541159e+001 
3559375000  -4.154525e+001  1.642222e+001 
3562500000  -4.032914e+001  7.997044e+000 
3565625000  -4.085754e+001  8.253435e-001 
3568750000  -4.121703e+001  5.186146e+000 
3571875000  -4.119530e+001  8.244686e-001 
3575000000  -4.050212e+001  -4.517475e+000 
3578125000  -4.131710e+001  -1.008078e+001 
3581250000  -4.132590e+001  -9.855873e+000 
3584375000  -4.059044e+001  -1.312593e+001 
3587500000  -3.980709e+001  -2.232695e+001 
3590625000  -4.063135e+001  -3.124219e+001 
3593750000  -4.180099e+001  -3.588349e+001 
3596875000  -4.156416e+001  -3.007586e+001 
3600000000  -4.025105e+001  -3.410458e+001 
3603125000  -4.056008e+001  -4.910125e+001 
3606250000  -4.129571e+001  -5.294773e+001 
3609375000  -4.196729e+001  -5.714968e+001 
3612500000  -4.276348e+001  -5.855931e+001 
3615625000  -4.270269e+001  -6.368184e+001 
3618750000  -4.351262e+001  -6.311406e+001 
3621875000  -4.315022e+001  -6.598466e+001 
3625000000  -4.397007e+001  -6.872343e+001 
3628125000  -4.385790e+001  -6.930256e+001 
3631250000  -4.387594e+001  -7.398133e+001 
3634375000  -4.546030e+001  -7.566927e+001 
3637500000  -4.538876e+001  -6.768391e+001 
3640625000  -4.451275e+001  -6.966433e+001 
3643750000  -4.399179e+001  -7.193690e+001 
3646875000  -4.465700e+001  -7.880820e+001 
3650000000  -4.553212e+001  -7.924924e+001 
3653125000  -4.537307e+001  -8.246067e+001 
3656250000  -4.563312e+001  -8.031059e+001 
3659375000  -4.569656e+001  -7.716995e+001 
3662500000  -4.492173e+001  -7.912846e+001 
3665625000  -4.485408e+001  -7.984365e+001 
3668750000  -4.408425e+001  -7.802730e+001 
3671875000  -4.272781e+001  -8.592031e+001 
3675000000  -4.325302e+001  -9.322409e+001 
3678125000  -4.346643e+001  -9.371278e+001 
3681250000  -4.314347e+001  -9.436443e+001 
3684375000  -4.291599e+001  -1.006259e+002 
3687500000  -4.320064e+001  -1.049115e+002 
3690625000  -4.338879e+001  -1.070529e+002 
3693750000  -4.392929e+001  -1.084258e+002 
3696875000  -4.372564e+001  -1.060030e+002 
3700000000  -4.297338e+001  -1.136665e+002 
3703125000  -4.322614e+001  -1.176535e+002 
3706250000  -4.394455e+001  -1.180631e+002 
3709375000  -4.354523e+001  -1.184508e+002 
3712500000  -4.231636e+001  -1.181993e+002 
3715625000  -4.139483e+001  -1.265883e+002 
3718750000  -4.123603e+001  -1.313882e+002 
3721875000  -4.105201e+001  -1.380973e+002 
3725000000  -4.151726e+001  -1.443063e+002 
3728125000  -4.196968e+001  -1.467029e+002 
3731250000  -4.128637e+001  -1.483307e+002 
3734375000  -4.095932e+001  -1.559341e+002 
3737500000  -4.153172e+001  -1.636267e+002 
3740625000  -4.299630e+001  -1.694668e+002 
3743750000  -4.302534e+001  -1.705656e+002 
3746875000  -4.346216e+001  -1.718011e+002 
3750000000  -4.383120e+001  -1.730872e+002 
3753125000  -4.394324e+001  -1.746458e+002 
3756250000  -4.415729e+001  -1.726196e+002 
3759375000  -4.422588e+001  -1.726504e+002 
3762500000  -4.390086e+001  -1.761063e+002 
3765625000  -4.448322e+001  -1.771163e+002 
3768750000  -4.452137e+001  -1.721788e+002 
3771875000  -4.284267e+001  -1.729693e+002 
3775000000  -4.307068e+001  1.795144e+002 
3778125000  -4.321447e+001  1.774282e+002 
3781250000  -4.306275e+001  1.771047e+002 
3784375000  -4.267347e+001  1.742116e+002 
3787500000  -4.184948e+001  1.732193e+002 
3790625000  -4.216708e+001  1.658412e+002 
3793750000  -4.254348e+001  1.663919e+002 
3796875000  -4.129320e+001  1.647217e+002 
3800000000  -3.963777e+001  1.634504e+002 
3803125000  -4.032888e+001  1.511433e+002 
3806250000  -4.105019e+001  1.499274e+002 
3809375000  -4.053745e+001  1.483653e+002 
3812500000  -3.982609e+001  1.432297e+002 
3815625000  -4.072689e+001  1.325468e+002 
3818750000  -4.185227e+001  1.314175e+002 
3821875000  -4.140684e+001  1.403757e+002 
3825000000  -3.961411e+001  1.433650e+002 
3828125000  -3.816232e+001  1.241600e+002 
3831250000  -3.886535e+001  1.115370e+002 
3834375000  -4.044250e+001  1.093983e+002 
3837500000  -4.133941e+001  1.140765e+002 
3840625000  -3.993505e+001  1.105408e+002 
3843750000  -3.883525e+001  1.002823e+002 
3846875000  -3.991428e+001  9.316784e+001 
3850000000  -4.124088e+001  9.716981e+001 
3853125000  -4.044360e+001  1.009789e+002 
3856250000  -4.007079e+001  9.357832e+001 
3859375000  -3.959678e+001  8.812314e+001 
3862500000  -3.916548e+001  7.960020e+001 
3865625000  -3.976883e+001  7.562910e+001 
3868750000  -3.974372e+001  7.325274e+001 
3871875000  -3.910605e+001  6.999053e+001 
3875000000  -3.956265e+001  6.109412e+001 
3878125000  -4.081231e+001  5.735798e+001 
3881250000  -4.051532e+001  6.145948e+001 
3884375000  -4.014298e+001  5.727392e+001 
3887500000  -4.028672e+001  5.205167e+001 
3890625000  -4.109418e+001  4.637542e+001 
3893750000  -4.109654e+001  4.795982e+001 
3896875000  -4.171492e+001  4.898286e+001 
3900000000  -4.158490e+001  4.804457e+001 
3903125000  -4.124670e+001  4.444401e+001 
3906250000  -4.121166e+001  4.322017e+001 
3909375000  -4.018561e+001  3.900942e+001 
3912500000  -4.016570e+001  2.970495e+001 
3915625000  -4.127710e+001  3.144905e+001 
3918750000  -4.131520e+001  3.294490e+001 
3921875000  -4.100008e+001  2.969548e+001 
3925000000  -3.986300e+001  2.765788e+001 
3928125000  -3.908789e+001  1.914920e+001 
3931250000  -3.971055e+001  1.589122e+001 
3934375000  -3.983325e+001  1.508211e+001 
3937500000  -4.021590e+001  1.429328e+001 
3940625000  -4.050431e+001  1.220957e+001 
3943750000  -3.970924e+001  1.017194e+001 
3946875000  -3.847377e+001  3.854685e+000 
3950000000  -3.936164e+001  -4.199803e+000 
3953125000  -4.021895e+001  -5.312428e+000 
3956250000  -3.892741e+001  -2.295455e+000 
3959375000  -3.801054e+001  -6.435431e+000 
3962500000  -3.737527e+001  -1.161332e+001 
3965625000  -3.737860e+001  -2.175287e+001 
3968750000  -3.813530e+001  -3.054746e+001 
3971875000  -3.841204e+001  -3.078720e+001 
3975000000  -3.787788e+001  -3.380019e+001 
3978125000  -3.791461e+001  -3.705272e+001 
3981250000  -3.788346e+001  -4.258480e+001 
3984375000  -3.793796e+001  -4.850877e+001 
3987500000  -3.860229e+001  -5.032785e+001 
3990625000  -3.866197e+001  -5.237771e+001 
3993750000  -3.902754e+001  -5.691486e+001 
3996875000  -3.925603e+001  -6.131583e+001 
4000000000  -3.938857e+001  -6.247725e+001 
4003125000  -3.985904e+001  -6.126842e+001 
4006250000  -3.824649e+001  -6.293032e+001 
4009375000  -3.729748e+001  -7.518299e+001 
4012500000  -3.860624e+001  -8.129902e+001 
4015625000  -4.000550e+001  -8.052020e+001 
4018750000  -3.986775e+001  -8.099294e+001 
4021875000  -3.910630e+001  -8.286596e+001 
4025000000  -3.883718e+001  -8.710071e+001 
4028125000  -3.890241e+001  -9.234595e+001 
4031250000  -3.922601e+001  -9.537195e+001 
4034375000  -3.959824e+001  -9.676497e+001 
4037500000  -3.919456e+001  -9.354996e+001 
4040625000  -3.899398e+001  -9.858476e+001 
4043750000  -3.933843e+001  -9.879689e+001 
4046875000  -3.888305e+001  -1.001672e+002 
4050000000  -3.843204e+001  -1.067443e+002 
4053125000  -3.909872e+001  -1.102643e+002 
4056250000  -3.932044e+001  -1.052785e+002 
4059375000  -3.802877e+001  -1.055975e+002 
4062500000  -3.681019e+001  -1.110619e+002 
4065625000  -3.668034e+001  -1.155196e+002 
4068750000  -3.654388e+001  -1.231294e+002 
4071875000  -3.577589e+001  -1.314600e+002 
4075000000  -3.599922e+001  -1.377874e+002 
4078125000  -3.672806e+001  -1.390391e+002 
4081250000  -3.608479e+001  -1.422236e+002 
4084375000  -3.573905e+001  -1.511262e+002 
4087500000  -3.627488e+001  -1.582679e+002 
4090625000  -3.686523e+001  -1.595851e+002 
4093750000  -3.671338e+001  -1.587568e+002 
4096875000  -3.624358e+001  -1.673549e+002 
4100000000  -3.701530e+001  -1.743194e+002 
4103125000  -3.781483e+001  -1.733007e+002 
4106250000  -3.770488e+001  -1.688434e+002 
4109375000  -3.677213e+001  -1.711744e+002 
4112500000  -3.633885e+001  -1.790204e+002 
4115625000  -3.661966e+001  1.748122e+002 
4118750000  -3.678344e+001  1.708632e+002 
4121875000  -3.636537e+001  1.653743e+002 
4125000000  -3.677505e+001  1.602662e+002 
4128125000  -3.802814e+001  1.600868e+002 
4131250000  -3.759629e+001  1.674481e+002 
4134375000  -3.533651e+001  1.616351e+002 
4137500000  -3.530617e+001  1.422363e+002 
4140625000  -3.744719e+001  1.339915e+002 
4143750000  -3.904601e+001  1.386864e+002 
4146875000  -3.845765e+001  1.451202e+002 
4150000000  -3.759500e+001  1.418806e+002 
4153125000  -3.743870e+001  1.331824e+002 
4156250000  -3.849456e+001  1.315562e+002 
4159375000  -3.849918e+001  1.355944e+002 
4162500000  -3.762493e+001  1.391543e+002 
4165625000  -3.639888e+001  1.361367e+002 
4168750000  -3.579665e+001  1.251011e+002 
4171875000  -3.595932e+001  1.154882e+002 
4175000000  -3.660905e+001  1.113217e+002 
4178125000  -3.714219e+001  1.106080e+002 
4181250000  -3.684747e+001  1.096159e+002 
4184375000  -3.687562e+001  1.055009e+002 
4187500000  -3.671638e+001  1.010417e+002 
4190625000  -3.668159e+001  9.515383e+001 
4193750000  -3.754201e+001  9.194727e+001 
4196875000  -3.828096e+001  9.105582e+001 
4200000000  -3.900244e+001  9.322371e+001 
4203125000  -3.893748e+001  1.071404e+002 
4206250000  -3.521954e+001  1.059108e+002 
4209375000  -3.428310e+001  8.320635e+001 
4212500000  -3.643169e+001  7.628085e+001 
4215625000  -3.729238e+001  8.173498e+001 
4218750000  -3.572756e+001  8.516693e+001 
4221875000  -3.347885e+001  7.678288e+001 
4225000000  -3.481629e+001  6.288335e+001 
4228125000  -3.533966e+001  6.711521e+001 
4231250000  -3.366460e+001  6.275520e+001 
4234375000  -3.348561e+001  5.326761e+001 
4237500000  -3.296810e+001  4.804970e+001 
4240625000  -3.313180e+001  3.850363e+001 
4243750000  -3.405544e+001  3.018925e+001 
4246875000  -3.514467e+001  2.966901e+001 
4250000000  -3.520934e+001  3.123336e+001 
4253125000  -3.464957e+001  2.860270e+001 
4256250000  -3.495304e+001  2.337757e+001 
4259375000  -3.464223e+001  1.988435e+001 
4262500000  -3.483809e+001  1.510390e+001 
4265625000  -3.487340e+001  1.659787e+001 
4268750000  -3.418497e+001  9.302768e+000 
4271875000  -3.394263e+001  1.269910e+000 
4275000000  -3.360239e+001  -5.631473e+000 
4278125000  -3.428272e+001  -1.648985e+001 
4281250000  -3.602676e+001  -2.007836e+001 
4284375000  -3.579423e+001  -1.998613e+001 
4287500000  -3.680342e+001  -2.340482e+001 
4290625000  -3.812397e+001  -1.354172e+001 
4293750000  -3.589922e+001  -9.658632e+000 
4296875000  -3.486248e+001  -2.195884e+001 
4300000000  -3.614557e+001  -2.983298e+001 
4303125000  -3.723285e+001  -2.756942e+001 
4306250000  -3.613917e+001  -2.313313e+001 
4309375000  -3.507913e+001  -2.580494e+001 
4312500000  -3.487246e+001  -3.333124e+001 
4315625000  -3.515383e+001  -3.916705e+001 
4318750000  -3.544172e+001  -4.168518e+001 
4321875000  -3.545404e+001  -4.258905e+001 
4325000000  -3.489762e+001  -4.257833e+001 
4328125000  -3.430335e+001  -4.890726e+001 
4331250000  -3.392182e+001  -5.776673e+001 
4334375000  -3.464321e+001  -6.360168e+001 
4337500000  -3.543605e+001  -6.504871e+001 
4340625000  -3.585921e+001  -6.248470e+001 
4343750000  -3.506457e+001  -6.313572e+001 
4346875000  -3.444411e+001  -7.000128e+001 
4350000000  -3.440457e+001  -7.570345e+001 
4353125000  -3.458915e+001  -8.428837e+001 
4356250000  -3.645452e+001  -8.653796e+001 
4359375000  -3.655045e+001  -7.179336e+001 
4362500000  -3.320476e+001  -7.228262e+001 
4365625000  -3.199236e+001  -8.707550e+001 
4368750000  -3.281947e+001  -9.945451e+001 
4371875000  -3.375187e+001  -9.902563e+001 
4375000000  -3.334579e+001  -1.005165e+002 
4378125000  -3.283462e+001  -1.066544e+002 
4381250000  -3.316467e+001  -1.143936e+002 
4384375000  -3.293310e+001  -1.205711e+002 
4387500000  -3.366191e+001  -1.276818e+002 
4390625000  -3.467246e+001  -1.261263e+002 
4393750000  -3.411770e+001  -1.261816e+002 
4396875000  -3.353686e+001  -1.295583e+002 
4400000000  -3.298085e+001  -1.386039e+002 
4403125000  -3.368121e+001  -1.465550e+002 
4406250000  -3.446696e+001  -1.493186e+002 
4409375000  -3.455476e+001  -1.521545e+002 
4412500000  -3.585258e+001  -1.568895e+002 
4415625000  -3.619714e+001  -1.505361e+002 
