!Agilent Technologies,E8363B,MY43030201,A.06.04.32
!Agilent E8363B: A.06.04.32
!Date: Tuesday, November 11, 2014 21:03:54
!Correction: S21(Response(S21)) 
!S1P File: Measurement: S21:
# Hz S  dB   R 50
3000000000  -3.647177e+001  -4.663572e+001 
3003125000  -3.752435e+001  -5.252356e+001 
3006250000  -3.740370e+001  -5.581528e+001 
3009375000  -3.767094e+001  -5.165696e+001 
3012500000  -3.691586e+001  -5.203865e+001 
3015625000  -3.599289e+001  -5.989558e+001 
3018750000  -3.679084e+001  -6.130397e+001 
3021875000  -3.543858e+001  -6.059025e+001 
3025000000  -3.409436e+001  -6.437790e+001 
3028125000  -3.309781e+001  -6.975504e+001 
3031250000  -3.208202e+001  -8.124037e+001 
3034375000  -3.173211e+001  -9.521425e+001 
3037500000  -3.224366e+001  -1.069176e+002 
3040625000  -3.353371e+001  -1.120894e+002 
3043750000  -3.426331e+001  -1.170042e+002 
3046875000  -3.431835e+001  -1.230987e+002 
3050000000  -3.593010e+001  -1.295356e+002 
3053125000  -3.607716e+001  -1.232933e+002 
3056250000  -3.542132e+001  -1.206001e+002 
3059375000  -3.558610e+001  -1.212633e+002 
3062500000  -3.415145e+001  -1.244246e+002 
3065625000  -3.382637e+001  -1.298372e+002 
3068750000  -3.353478e+001  -1.371738e+002 
3071875000  -3.349137e+001  -1.401186e+002 
3075000000  -3.333091e+001  -1.437768e+002 
3078125000  -3.303653e+001  -1.480376e+002 
3081250000  -3.357849e+001  -1.524143e+002 
3084375000  -3.265467e+001  -1.555105e+002 
3087500000  -3.248361e+001  -1.597504e+002 
3090625000  -3.200433e+001  -1.696058e+002 
3093750000  -3.239192e+001  -1.769557e+002 
3096875000  -3.344717e+001  1.772214e+002 
3100000000  -3.336604e+001  1.754480e+002 
3103125000  -3.364799e+001  1.757276e+002 
3106250000  -3.316121e+001  1.715946e+002 
3109375000  -3.326032e+001  1.674921e+002 
3112500000  -3.322231e+001  1.652744e+002 
3115625000  -3.279414e+001  1.605195e+002 
3118750000  -3.315408e+001  1.606090e+002 
3121875000  -3.226551e+001  1.504789e+002 
3125000000  -3.343334e+001  1.468335e+002 
3128125000  -3.443023e+001  1.541653e+002 
3131250000  -3.210297e+001  1.530475e+002 
3134375000  -3.067703e+001  1.374523e+002 
3137500000  -3.124200e+001  1.224871e+002 
3140625000  -3.278322e+001  1.201824e+002 
3143750000  -3.382983e+001  1.220199e+002 
3146875000  -3.332369e+001  1.228378e+002 
3150000000  -3.234916e+001  1.232600e+002 
3153125000  -3.235361e+001  1.136259e+002 
3156250000  -3.332370e+001  1.187084e+002 
3159375000  -3.161588e+001  1.196742e+002 
3162500000  -2.972208e+001  1.052534e+002 
3165625000  -3.068895e+001  9.318828e+001 
3168750000  -3.105337e+001  9.363002e+001 
3171875000  -3.016115e+001  8.739354e+001 
3175000000  -3.089124e+001  7.860746e+001 
3178125000  -3.068932e+001  7.920110e+001 
3181250000  -2.956295e+001  7.447281e+001 
3184375000  -2.883519e+001  6.155378e+001 
3187500000  -3.005406e+001  4.615227e+001 
3190625000  -3.279191e+001  3.775922e+001 
3193750000  -3.340943e+001  4.614653e+001 
3196875000  -3.299155e+001  5.114725e+001 
3200000000  -3.208705e+001  4.859574e+001 
3203125000  -3.129754e+001  4.250266e+001 
3206250000  -3.155074e+001  3.563406e+001 
3209375000  -3.114855e+001  2.964540e+001 
3212500000  -3.125420e+001  2.256382e+001 
3215625000  -3.137675e+001  1.848551e+001 
3218750000  -3.209138e+001  1.109406e+001 
3221875000  -3.302804e+001  6.080365e+000 
3225000000  -3.258106e+001  5.323259e+000 
3228125000  -3.295639e+001  -5.639197e-001 
3231250000  -3.365623e+001  -3.759503e+000 
3234375000  -3.333120e+001  -2.400862e+000 
3237500000  -3.340281e+001  -4.404196e+000 
3240625000  -3.297000e+001  -7.036645e+000 
3243750000  -3.257422e+001  -1.482552e+001 
3246875000  -3.295937e+001  -2.174234e+001 
3250000000  -3.339339e+001  -2.385776e+001 
3253125000  -3.353524e+001  -2.603981e+001 
3256250000  -3.319305e+001  -3.302525e+001 
3259375000  -3.344770e+001  -4.232453e+001 
3262500000  -3.455135e+001  -4.541832e+001 
3265625000  -3.530969e+001  -4.263857e+001 
3268750000  -3.506358e+001  -4.078459e+001 
3271875000  -3.485857e+001  -4.115527e+001 
3275000000  -3.363726e+001  -4.760965e+001 
3278125000  -3.420697e+001  -5.438251e+001 
3281250000  -3.427872e+001  -5.330850e+001 
3284375000  -3.392535e+001  -6.027946e+001 
3287500000  -3.401848e+001  -6.408700e+001 
3290625000  -3.431888e+001  -6.978037e+001 
3293750000  -3.406746e+001  -7.528894e+001 
3296875000  -3.520059e+001  -7.646004e+001 
3300000000  -3.490490e+001  -7.527033e+001 
3303125000  -3.369848e+001  -8.085267e+001 
3306250000  -3.356675e+001  -8.802987e+001 
3309375000  -3.311946e+001  -9.393141e+001 
3312500000  -3.327416e+001  -1.049431e+002 
3315625000  -3.426268e+001  -1.132908e+002 
3318750000  -3.561477e+001  -1.154366e+002 
3321875000  -3.676826e+001  -1.164648e+002 
3325000000  -3.729335e+001  -1.115096e+002 
3328125000  -3.675574e+001  -1.113463e+002 
3331250000  -3.565622e+001  -1.036840e+002 
3334375000  -3.303547e+001  -1.143035e+002 
3337500000  -3.316846e+001  -1.338116e+002 
3340625000  -3.450603e+001  -1.442895e+002 
3343750000  -3.639376e+001  -1.450241e+002 
3346875000  -3.657796e+001  -1.437402e+002 
3350000000  -3.586833e+001  -1.462117e+002 
3353125000  -3.598695e+001  -1.506625e+002 
3356250000  -3.558544e+001  -1.589263e+002 
3359375000  -3.641154e+001  -1.670052e+002 
3362500000  -3.747032e+001  -1.725524e+002 
3365625000  -3.790576e+001  -1.743554e+002 
3368750000  -3.865849e+001  -1.764796e+002 
3371875000  -3.891204e+001  -1.788051e+002 
3375000000  -4.026397e+001  1.781727e+002 
3378125000  -4.111263e+001  1.786749e+002 
3381250000  -4.242687e+001  -1.718178e+002 
3384375000  -4.115825e+001  -1.530240e+002 
3387500000  -3.748780e+001  -1.691567e+002 
3390625000  -3.912748e+001  1.725350e+002 
3393750000  -4.055018e+001  1.751302e+002 
3396875000  -3.906821e+001  1.777144e+002 
3400000000  -3.834328e+001  1.690882e+002 
3403125000  -3.914201e+001  1.633724e+002 
3406250000  -3.969469e+001  1.634920e+002 
3409375000  -3.999411e+001  1.556987e+002 
3412500000  -4.029188e+001  1.542331e+002 
3415625000  -4.106527e+001  1.551287e+002 
3418750000  -4.130437e+001  1.554529e+002 
3421875000  -4.129105e+001  1.565565e+002 
3425000000  -4.041261e+001  1.580351e+002 
3428125000  -3.936566e+001  1.536214e+002 
3431250000  -3.915049e+001  1.467630e+002 
3434375000  -3.925919e+001  1.418398e+002 
3437500000  -3.973511e+001  1.374851e+002 
3440625000  -3.994845e+001  1.384473e+002 
3443750000  -3.883573e+001  1.398295e+002 
3446875000  -3.790712e+001  1.317844e+002 
3450000000  -3.748880e+001  1.221573e+002 
3453125000  -3.792383e+001  1.120066e+002 
3456250000  -3.903959e+001  1.058541e+002 
3459375000  -3.995360e+001  1.056302e+002 
3462500000  -3.987684e+001  1.061025e+002 
3465625000  -3.979553e+001  1.014417e+002 
3468750000  -4.028334e+001  9.705400e+001 
3471875000  -3.991882e+001  9.550983e+001 
3475000000  -3.967934e+001  9.198377e+001 
3478125000  -4.033220e+001  8.315795e+001 
3481250000  -4.135164e+001  8.026152e+001 
3484375000  -4.220398e+001  8.473892e+001 
3487500000  -4.155268e+001  8.343082e+001 
3490625000  -4.058971e+001  7.981506e+001 
3493750000  -4.128770e+001  7.273035e+001 
3496875000  -4.184038e+001  6.988196e+001 
3500000000  -4.261017e+001  7.512965e+001 
3503125000  -4.194227e+001  7.490405e+001 
3506250000  -4.077575e+001  6.955070e+001 
3509375000  -4.053991e+001  6.078583e+001 
3512500000  -4.116842e+001  5.228423e+001 
3515625000  -4.195881e+001  4.994225e+001 
3518750000  -4.266785e+001  5.069505e+001 
3521875000  -4.236102e+001  4.818207e+001 
3525000000  -4.367829e+001  4.337035e+001 
3528125000  -4.356325e+001  5.172165e+001 
3531250000  -4.207384e+001  5.067236e+001 
3534375000  -4.187360e+001  4.216139e+001 
3537500000  -4.230555e+001  3.490905e+001 
3540625000  -4.350938e+001  3.442644e+001 
3543750000  -4.397768e+001  3.785565e+001 
3546875000  -4.398459e+001  5.013987e+001 
3550000000  -4.149567e+001  5.011116e+001 
3553125000  -4.038609e+001  3.445239e+001 
3556250000  -4.165350e+001  2.690483e+001 
3559375000  -4.136740e+001  2.953936e+001 
3562500000  -4.014042e+001  1.970511e+001 
3565625000  -4.109668e+001  1.170302e+001 
3568750000  -4.123517e+001  1.301405e+001 
3571875000  -4.128982e+001  1.233061e+001 
3575000000  -4.085048e+001  5.541694e+000 
3578125000  -4.133349e+001  7.777585e-001 
3581250000  -4.136209e+001  -6.791136e-002 
3584375000  -4.054306e+001  -6.676701e-001 
3587500000  -3.992958e+001  -1.277698e+001 
3590625000  -4.046098e+001  -2.239120e+001 
3593750000  -4.177308e+001  -2.562065e+001 
3596875000  -4.200450e+001  -1.642099e+001 
3600000000  -4.040290e+001  -2.448769e+001 
3603125000  -4.062872e+001  -4.003216e+001 
3606250000  -4.169275e+001  -4.338276e+001 
3609375000  -4.210559e+001  -4.434026e+001 
3612500000  -4.269875e+001  -4.809014e+001 
3615625000  -4.296505e+001  -5.270686e+001 
3618750000  -4.372256e+001  -5.216308e+001 
3621875000  -4.348995e+001  -5.575838e+001 
3625000000  -4.408221e+001  -5.534455e+001 
3628125000  -4.451963e+001  -5.625882e+001 
3631250000  -4.415691e+001  -6.147609e+001 
3634375000  -4.563832e+001  -6.460362e+001 
3637500000  -4.594890e+001  -5.711531e+001 
3640625000  -4.474698e+001  -5.373357e+001 
3643750000  -4.444749e+001  -6.251154e+001 
3646875000  -4.493192e+001  -6.555044e+001 
3650000000  -4.593225e+001  -6.943641e+001 
3653125000  -4.530442e+001  -6.965923e+001 
3656250000  -4.595432e+001  -6.889835e+001 
3659375000  -4.616504e+001  -6.460376e+001 
3662500000  -4.519784e+001  -6.572258e+001 
3665625000  -4.528526e+001  -6.789812e+001 
3668750000  -4.379169e+001  -6.554068e+001 
3671875000  -4.272405e+001  -7.238527e+001 
3675000000  -4.290313e+001  -8.043807e+001 
3678125000  -4.333519e+001  -8.140526e+001 
3681250000  -4.319334e+001  -8.220972e+001 
3684375000  -4.287309e+001  -8.685207e+001 
3687500000  -4.316846e+001  -9.380882e+001 
3690625000  -4.289374e+001  -9.515004e+001 
3693750000  -4.405765e+001  -9.648396e+001 
3696875000  -4.371428e+001  -9.545041e+001 
3700000000  -4.282511e+001  -1.018127e+002 
3703125000  -4.283563e+001  -1.062745e+002 
3706250000  -4.401589e+001  -1.076980e+002 
3709375000  -4.328345e+001  -1.050889e+002 
3712500000  -4.217737e+001  -1.096493e+002 
3715625000  -4.147069e+001  -1.158120e+002 
3718750000  -4.118487e+001  -1.217608e+002 
3721875000  -4.106980e+001  -1.273898e+002 
3725000000  -4.160043e+001  -1.335094e+002 
3728125000  -4.208084e+001  -1.341711e+002 
3731250000  -4.154666e+001  -1.378601e+002 
3734375000  -4.123343e+001  -1.420652e+002 
3737500000  -4.230202e+001  -1.519218e+002 
3740625000  -4.316256e+001  -1.547859e+002 
3743750000  -4.292627e+001  -1.564102e+002 
3746875000  -4.366724e+001  -1.607157e+002 
3750000000  -4.402191e+001  -1.619131e+002 
3753125000  -4.403553e+001  -1.623514e+002 
3756250000  -4.473503e+001  -1.580457e+002 
3759375000  -4.436309e+001  -1.591530e+002 
3762500000  -4.393394e+001  -1.638533e+002 
3765625000  -4.498569e+001  -1.607418e+002 
3768750000  -4.496812e+001  -1.585755e+002 
3771875000  -4.333194e+001  -1.589058e+002 
3775000000  -4.309111e+001  -1.651707e+002 
3778125000  -4.289396e+001  -1.677962e+002 
3781250000  -4.275700e+001  -1.699419e+002 
3784375000  -4.270135e+001  -1.690831e+002 
3787500000  -4.198491e+001  -1.742386e+002 
3790625000  -4.228852e+001  -1.783966e+002 
3793750000  -4.225076e+001  -1.793595e+002 
3796875000  -4.136226e+001  1.784246e+002 
3800000000  -3.949690e+001  1.747984e+002 
3803125000  -4.045927e+001  1.653678e+002 
3806250000  -4.085773e+001  1.622804e+002 
3809375000  -4.045686e+001  1.616202e+002 
3812500000  -3.973220e+001  1.539657e+002 
3815625000  -4.028608e+001  1.462962e+002 
3818750000  -4.131105e+001  1.433911e+002 
3821875000  -4.132208e+001  1.529283e+002 
3825000000  -3.945526e+001  1.545861e+002 
3828125000  -3.769482e+001  1.396075e+002 
3831250000  -3.882090e+001  1.222402e+002 
3834375000  -4.009969e+001  1.215265e+002 
3837500000  -4.122536e+001  1.255422e+002 
3840625000  -4.000591e+001  1.215296e+002 
3843750000  -3.882666e+001  1.115269e+002 
3846875000  -3.967031e+001  1.041921e+002 
3850000000  -4.086907e+001  1.087457e+002 
3853125000  -4.047631e+001  1.107966e+002 
3856250000  -4.035066e+001  1.041718e+002 
3859375000  -3.959313e+001  9.868944e+001 
3862500000  -3.953128e+001  9.072623e+001 
3865625000  -4.002717e+001  8.767336e+001 
3868750000  -3.964717e+001  8.559147e+001 
3871875000  -3.916585e+001  8.246528e+001 
3875000000  -3.932060e+001  7.326989e+001 
3878125000  -4.050919e+001  7.093750e+001 
3881250000  -4.048157e+001  7.291960e+001 
3884375000  -4.028993e+001  6.774947e+001 
3887500000  -4.040245e+001  6.350748e+001 
3890625000  -4.105521e+001  6.203626e+001 
3893750000  -4.110521e+001  5.897783e+001 
3896875000  -4.153717e+001  6.151489e+001 
3900000000  -4.149207e+001  6.001671e+001 
3903125000  -4.144674e+001  5.774234e+001 
3906250000  -4.084430e+001  5.543473e+001 
3909375000  -4.016553e+001  5.197004e+001 
3912500000  -4.028656e+001  4.377715e+001 
3915625000  -4.139124e+001  4.476116e+001 
3918750000  -4.119264e+001  4.712186e+001 
3921875000  -4.081972e+001  4.317817e+001 
3925000000  -3.968989e+001  4.059147e+001 
3928125000  -3.907145e+001  3.468494e+001 
3931250000  -3.949326e+001  2.850366e+001 
3934375000  -3.974634e+001  2.933683e+001 
3937500000  -3.988548e+001  2.647604e+001 
3940625000  -4.046500e+001  2.536053e+001 
3943750000  -3.956121e+001  2.367706e+001 
3946875000  -3.830183e+001  1.787347e+001 
3950000000  -3.886066e+001  1.008774e+001 
3953125000  -3.974800e+001  6.410444e+000 
3956250000  -3.899208e+001  1.110626e+001 
3959375000  -3.755696e+001  6.022491e+000 
3962500000  -3.749103e+001  6.811156e-001 
3965625000  -3.716583e+001  -9.067294e+000 
3968750000  -3.799226e+001  -1.662237e+001 
3971875000  -3.839191e+001  -1.944996e+001 
3975000000  -3.771904e+001  -2.084665e+001 
3978125000  -3.780894e+001  -2.365866e+001 
3981250000  -3.785169e+001  -2.908162e+001 
3984375000  -3.795896e+001  -3.538771e+001 
3987500000  -3.864757e+001  -3.876532e+001 
3990625000  -3.863659e+001  -4.054184e+001 
3993750000  -3.909573e+001  -4.451533e+001 
3996875000  -3.906062e+001  -4.813114e+001 
4000000000  -3.921795e+001  -5.016059e+001 
4003125000  -3.975188e+001  -4.767813e+001 
4006250000  -3.841753e+001  -5.076606e+001 
4009375000  -3.736193e+001  -6.228527e+001 
4012500000  -3.860008e+001  -6.810265e+001 
4015625000  -4.017522e+001  -6.875501e+001 
4018750000  -4.005830e+001  -6.853327e+001 
4021875000  -3.915319e+001  -6.936382e+001 
4025000000  -3.901928e+001  -7.448663e+001 
4028125000  -3.912767e+001  -7.696067e+001 
4031250000  -3.946368e+001  -8.218118e+001 
4034375000  -3.964448e+001  -8.238378e+001 
4037500000  -3.922638e+001  -8.085983e+001 
4040625000  -3.922337e+001  -8.530020e+001 
4043750000  -3.951825e+001  -8.575206e+001 
4046875000  -3.889417e+001  -8.646216e+001 
4050000000  -3.851743e+001  -9.148180e+001 
4053125000  -3.896618e+001  -9.623701e+001 
4056250000  -3.964114e+001  -9.231949e+001 
4059375000  -3.801961e+001  -9.079421e+001 
4062500000  -3.700980e+001  -9.710258e+001 
4065625000  -3.659288e+001  -1.011374e+002 
4068750000  -3.634053e+001  -1.062101e+002 
4071875000  -3.561148e+001  -1.169476e+002 
4075000000  -3.593078e+001  -1.232527e+002 
4078125000  -3.653743e+001  -1.249653e+002 
4081250000  -3.613997e+001  -1.284246e+002 
4084375000  -3.556358e+001  -1.374403e+002 
4087500000  -3.598642e+001  -1.431203e+002 
4090625000  -3.661385e+001  -1.446085e+002 
4093750000  -3.644871e+001  -1.464269e+002 
4096875000  -3.609262e+001  -1.524975e+002 
4100000000  -3.671700e+001  -1.606270e+002 
4103125000  -3.769967e+001  -1.600900e+002 
4106250000  -3.750798e+001  -1.565517e+002 
4109375000  -3.662342e+001  -1.579336e+002 
4112500000  -3.601102e+001  -1.663001e+002 
4115625000  -3.652866e+001  -1.712618e+002 
4118750000  -3.691750e+001  -1.753810e+002 
4121875000  -3.641876e+001  1.787992e+002 
4125000000  -3.667492e+001  1.728055e+002 
4128125000  -3.762261e+001  1.728999e+002 
4131250000  -3.739516e+001  -1.799410e+002 
4134375000  -3.509109e+001  1.754970e+002 
4137500000  -3.525258e+001  1.552032e+002 
4140625000  -3.708528e+001  1.464833e+002 
4143750000  -3.860151e+001  1.507345e+002 
4146875000  -3.839228e+001  1.582212e+002 
4150000000  -3.742750e+001  1.537256e+002 
4153125000  -3.760044e+001  1.464950e+002 
4156250000  -3.860162e+001  1.429219e+002 
4159375000  -3.881342e+001  1.485105e+002 
4162500000  -3.761946e+001  1.537689e+002 
4165625000  -3.671020e+001  1.486807e+002 
4168750000  -3.598859e+001  1.415313e+002 
4171875000  -3.596343e+001  1.299855e+002 
4175000000  -3.663306e+001  1.268416e+002 
4178125000  -3.725056e+001  1.252753e+002 
4181250000  -3.693008e+001  1.243980e+002 
4184375000  -3.681250e+001  1.207333e+002 
4187500000  -3.679294e+001  1.173823e+002 
4190625000  -3.670632e+001  1.110709e+002 
4193750000  -3.741563e+001  1.072922e+002 
4196875000  -3.785015e+001  1.058484e+002 
4200000000  -3.883721e+001  1.087411e+002 
4203125000  -3.899699e+001  1.223963e+002 
4206250000  -3.526511e+001  1.216477e+002 
4209375000  -3.413782e+001  9.892410e+001 
4212500000  -3.598103e+001  8.951444e+001 
4215625000  -3.701408e+001  9.552572e+001 
4218750000  -3.557098e+001  1.006959e+002 
4221875000  -3.320308e+001  9.199390e+001 
4225000000  -3.417961e+001  7.843029e+001 
4228125000  -3.495151e+001  8.207404e+001 
4231250000  -3.352899e+001  7.768876e+001 
4234375000  -3.326839e+001  6.739623e+001 
4237500000  -3.301703e+001  6.326735e+001 
4240625000  -3.291286e+001  5.323360e+001 
4243750000  -3.393940e+001  4.520748e+001 
4246875000  -3.493535e+001  4.465838e+001 
4250000000  -3.484834e+001  4.615748e+001 
4253125000  -3.442474e+001  4.259438e+001 
4256250000  -3.453305e+001  3.675011e+001 
4259375000  -3.439823e+001  3.372469e+001 
4262500000  -3.468940e+001  3.006658e+001 
4265625000  -3.485584e+001  2.858855e+001 
4268750000  -3.389777e+001  2.361687e+001 
4271875000  -3.372482e+001  1.567775e+001 
4275000000  -3.336336e+001  6.859901e+000 
4278125000  -3.408408e+001  -3.707246e+000 
4281250000  -3.598564e+001  -4.898578e+000 
4284375000  -3.566987e+001  -5.227848e+000 
4287500000  -3.663517e+001  -9.667027e+000 
4290625000  -3.804552e+001  -1.503824e+000 
4293750000  -3.594972e+001  3.911517e+000 
4296875000  -3.485007e+001  -6.235857e+000 
4300000000  -3.599906e+001  -1.716785e+001 
4303125000  -3.702841e+001  -1.508409e+001 
4306250000  -3.644157e+001  -8.245493e+000 
4309375000  -3.497079e+001  -9.596663e+000 
4312500000  -3.483175e+001  -1.912984e+001 
4315625000  -3.512053e+001  -2.522193e+001 
4318750000  -3.548159e+001  -2.854112e+001 
4321875000  -3.544065e+001  -2.758977e+001 
4325000000  -3.491595e+001  -2.782637e+001 
4328125000  -3.412149e+001  -3.383231e+001 
4331250000  -3.396902e+001  -4.251953e+001 
4334375000  -3.437540e+001  -4.742505e+001 
4337500000  -3.511677e+001  -5.047232e+001 
4340625000  -3.563668e+001  -4.901385e+001 
4343750000  -3.466617e+001  -4.873640e+001 
4346875000  -3.432536e+001  -5.311277e+001 
4350000000  -3.422468e+001  -6.059695e+001 
4353125000  -3.407796e+001  -6.903680e+001 
4356250000  -3.601251e+001  -6.952217e+001 
4359375000  -3.624130e+001  -5.730534e+001 
4362500000  -3.358397e+001  -5.771061e+001 
4365625000  -3.197942e+001  -7.125520e+001 
4368750000  -3.252866e+001  -8.353455e+001 
4371875000  -3.363055e+001  -8.493230e+001 
4375000000  -3.324677e+001  -8.471995e+001 
4378125000  -3.242911e+001  -9.177155e+001 
4381250000  -3.277873e+001  -9.886410e+001 
4384375000  -3.249476e+001  -1.057420e+002 
4387500000  -3.319201e+001  -1.123481e+002 
4390625000  -3.430040e+001  -1.130306e+002 
4393750000  -3.360381e+001  -1.112339e+002 
4396875000  -3.302592e+001  -1.147590e+002 
4400000000  -3.261587e+001  -1.249118e+002 
4403125000  -3.311255e+001  -1.331455e+002 
4406250000  -3.412540e+001  -1.346727e+002 
4409375000  -3.416245e+001  -1.386036e+002 
4412500000  -3.532745e+001  -1.431718e+002 
4415625000  -3.564534e+001  -1.380860e+002 
