!Agilent Technologies,E8363B,MY43030201,A.06.04.32
!Agilent E8363B: A.06.04.32
!Date: Tuesday, November 11, 2014 21:05:24
!Correction: S21(Response(S21)) 
!S1P File: Measurement: S21:
# Hz S  dB   R 50
3000000000  -3.639556e+001  -4.929417e+001 
3003125000  -3.753020e+001  -5.522686e+001 
3006250000  -3.739916e+001  -5.852189e+001 
3009375000  -3.769443e+001  -5.358979e+001 
3012500000  -3.685145e+001  -5.509980e+001 
3015625000  -3.614626e+001  -6.265232e+001 
3018750000  -3.682246e+001  -6.426749e+001 
3021875000  -3.542555e+001  -6.259026e+001 
3025000000  -3.412434e+001  -6.631657e+001 
3028125000  -3.319180e+001  -7.246175e+001 
3031250000  -3.215310e+001  -8.348218e+001 
3034375000  -3.174030e+001  -9.735790e+001 
3037500000  -3.221594e+001  -1.093508e+002 
3040625000  -3.350126e+001  -1.143553e+002 
3043750000  -3.421157e+001  -1.191968e+002 
3046875000  -3.442949e+001  -1.251639e+002 
3050000000  -3.616074e+001  -1.318045e+002 
3053125000  -3.609085e+001  -1.253558e+002 
3056250000  -3.565506e+001  -1.223955e+002 
3059375000  -3.562949e+001  -1.230435e+002 
3062500000  -3.406694e+001  -1.264988e+002 
3065625000  -3.390918e+001  -1.323473e+002 
3068750000  -3.360985e+001  -1.392462e+002 
3071875000  -3.348438e+001  -1.419602e+002 
3075000000  -3.334109e+001  -1.457499e+002 
3078125000  -3.305761e+001  -1.497892e+002 
3081250000  -3.358693e+001  -1.538840e+002 
3084375000  -3.261547e+001  -1.575393e+002 
3087500000  -3.243577e+001  -1.613731e+002 
3090625000  -3.194059e+001  -1.718338e+002 
3093750000  -3.233628e+001  -1.790874e+002 
3096875000  -3.348222e+001  1.749349e+002 
3100000000  -3.344483e+001  1.730195e+002 
3103125000  -3.361320e+001  1.739808e+002 
3106250000  -3.311324e+001  1.691870e+002 
3109375000  -3.320067e+001  1.660679e+002 
3112500000  -3.324002e+001  1.636790e+002 
3115625000  -3.284958e+001  1.585442e+002 
3118750000  -3.318072e+001  1.583717e+002 
3121875000  -3.233521e+001  1.493715e+002 
3125000000  -3.357926e+001  1.443601e+002 
3128125000  -3.444495e+001  1.516953e+002 
3131250000  -3.203630e+001  1.503545e+002 
3134375000  -3.078099e+001  1.351590e+002 
3137500000  -3.129428e+001  1.205242e+002 
3140625000  -3.284603e+001  1.178146e+002 
3143750000  -3.379315e+001  1.193860e+002 
3146875000  -3.336686e+001  1.207393e+002 
3150000000  -3.226492e+001  1.205688e+002 
3153125000  -3.225523e+001  1.124549e+002 
3156250000  -3.333812e+001  1.161862e+002 
3159375000  -3.165992e+001  1.175306e+002 
3162500000  -2.970431e+001  1.026151e+002 
3165625000  -3.076812e+001  9.079486e+001 
3168750000  -3.105292e+001  9.087209e+001 
3171875000  -3.015752e+001  8.536395e+001 
3175000000  -3.093573e+001  7.658729e+001 
3178125000  -3.070146e+001  7.710492e+001 
3181250000  -2.961102e+001  7.213080e+001 
3184375000  -2.890316e+001  5.935238e+001 
3187500000  -3.005398e+001  4.385042e+001 
3190625000  -3.278621e+001  3.609523e+001 
3193750000  -3.335635e+001  4.455424e+001 
3196875000  -3.308829e+001  4.930945e+001 
3200000000  -3.207513e+001  4.659679e+001 
3203125000  -3.121981e+001  4.017607e+001 
3206250000  -3.160868e+001  3.311600e+001 
3209375000  -3.115102e+001  2.776486e+001 
3212500000  -3.136051e+001  2.075773e+001 
3215625000  -3.137696e+001  1.643479e+001 
3218750000  -3.222073e+001  9.106433e+000 
3221875000  -3.314040e+001  3.938567e+000 
3225000000  -3.270516e+001  2.814232e+000 
3228125000  -3.306098e+001  -2.612866e+000 
3231250000  -3.366857e+001  -4.880911e+000 
3234375000  -3.344722e+001  -4.346135e+000 
3237500000  -3.348064e+001  -6.224548e+000 
3240625000  -3.302784e+001  -9.188086e+000 
3243750000  -3.264187e+001  -1.647794e+001 
3246875000  -3.303481e+001  -2.359912e+001 
3250000000  -3.346764e+001  -2.661408e+001 
3253125000  -3.351010e+001  -2.778127e+001 
3256250000  -3.320084e+001  -3.543700e+001 
3259375000  -3.341626e+001  -4.316306e+001 
3262500000  -3.469081e+001  -4.715534e+001 
3265625000  -3.523683e+001  -4.489726e+001 
3268750000  -3.511743e+001  -4.210162e+001 
3271875000  -3.473260e+001  -4.245974e+001 
3275000000  -3.378358e+001  -4.982798e+001 
3278125000  -3.417704e+001  -5.663055e+001 
3281250000  -3.439319e+001  -5.566336e+001 
3284375000  -3.386633e+001  -6.207520e+001 
3287500000  -3.407135e+001  -6.534542e+001 
3290625000  -3.426646e+001  -7.160252e+001 
3293750000  -3.411932e+001  -7.796623e+001 
3296875000  -3.511653e+001  -7.751904e+001 
3300000000  -3.480183e+001  -7.778890e+001 
3303125000  -3.373715e+001  -8.291156e+001 
3306250000  -3.358805e+001  -8.991496e+001 
3309375000  -3.327965e+001  -9.604378e+001 
3312500000  -3.339759e+001  -1.073916e+002 
3315625000  -3.434813e+001  -1.150525e+002 
3318750000  -3.575490e+001  -1.184272e+002 
3321875000  -3.691393e+001  -1.185503e+002 
3325000000  -3.724379e+001  -1.135961e+002 
3328125000  -3.693023e+001  -1.132590e+002 
3331250000  -3.571168e+001  -1.053476e+002 
3334375000  -3.301062e+001  -1.168827e+002 
3337500000  -3.323111e+001  -1.361034e+002 
3340625000  -3.458209e+001  -1.468163e+002 
3343750000  -3.643002e+001  -1.479405e+002 
3346875000  -3.664944e+001  -1.463073e+002 
3350000000  -3.608908e+001  -1.481406e+002 
3353125000  -3.610714e+001  -1.527571e+002 
3356250000  -3.563497e+001  -1.609371e+002 
3359375000  -3.642328e+001  -1.705307e+002 
3362500000  -3.749844e+001  -1.753673e+002 
3365625000  -3.806998e+001  -1.754766e+002 
3368750000  -3.882494e+001  -1.777217e+002 
3371875000  -3.907281e+001  1.783655e+002 
3375000000  -4.044460e+001  1.759006e+002 
3378125000  -4.116574e+001  1.771810e+002 
3381250000  -4.221841e+001  -1.755469e+002 
3384375000  -4.128427e+001  -1.545835e+002 
3387500000  -3.753709e+001  -1.706707e+002 
3390625000  -3.927917e+001  1.705710e+002 
3393750000  -4.059116e+001  1.741436e+002 
3396875000  -3.937922e+001  1.755685e+002 
3400000000  -3.883273e+001  1.669334e+002 
3403125000  -3.945570e+001  1.604474e+002 
3406250000  -3.959689e+001  1.624205e+002 
3409375000  -3.986361e+001  1.546341e+002 
3412500000  -4.027377e+001  1.515506e+002 
3415625000  -4.115537e+001  1.522216e+002 
3418750000  -4.113905e+001  1.536974e+002 
3421875000  -4.129134e+001  1.563739e+002 
3425000000  -4.032302e+001  1.565368e+002 
3428125000  -3.946126e+001  1.520041e+002 
3431250000  -3.919153e+001  1.454635e+002 
3434375000  -3.933005e+001  1.390506e+002 
3437500000  -3.978389e+001  1.351387e+002 
3440625000  -4.001497e+001  1.371309e+002 
3443750000  -3.874357e+001  1.368668e+002 
3446875000  -3.796350e+001  1.290538e+002 
3450000000  -3.758467e+001  1.198058e+002 
3453125000  -3.795780e+001  1.098699e+002 
3456250000  -3.919646e+001  1.023448e+002 
3459375000  -4.028584e+001  1.045622e+002 
3462500000  -3.998580e+001  1.039533e+002 
3465625000  -3.984921e+001  9.923798e+001 
3468750000  -4.015377e+001  9.492615e+001 
3471875000  -4.021446e+001  9.352608e+001 
3475000000  -3.959063e+001  8.951604e+001 
3478125000  -4.052516e+001  8.080352e+001 
3481250000  -4.147008e+001  7.853914e+001 
3484375000  -4.223146e+001  8.206018e+001 
3487500000  -4.165663e+001  8.271332e+001 
3490625000  -4.108606e+001  7.732804e+001 
3493750000  -4.142714e+001  7.046728e+001 
3496875000  -4.187843e+001  7.000642e+001 
3500000000  -4.263305e+001  7.272148e+001 
3503125000  -4.207321e+001  7.435773e+001 
3506250000  -4.067342e+001  6.967094e+001 
3509375000  -4.084332e+001  6.017528e+001 
3512500000  -4.126287e+001  5.210295e+001 
3515625000  -4.188063e+001  5.140779e+001 
3518750000  -4.248821e+001  5.074100e+001 
3521875000  -4.245023e+001  4.847774e+001 
3525000000  -4.332233e+001  4.406210e+001 
3528125000  -4.362442e+001  5.269672e+001 
3531250000  -4.189095e+001  5.000205e+001 
3534375000  -4.186532e+001  4.083364e+001 
3537500000  -4.254427e+001  3.419444e+001 
3540625000  -4.315701e+001  3.331933e+001 
3543750000  -4.410369e+001  3.809094e+001 
3546875000  -4.376052e+001  4.938647e+001 
3550000000  -4.136724e+001  4.861230e+001 
3553125000  -3.998224e+001  3.179296e+001 
3556250000  -4.148067e+001  2.438916e+001 
3559375000  -4.128972e+001  2.578550e+001 
3562500000  -3.994294e+001  1.562422e+001 
3565625000  -4.087702e+001  8.197894e+000 
3568750000  -4.110454e+001  1.047038e+001 
3571875000  -4.107011e+001  1.098514e+001 
3575000000  -4.075261e+001  2.655629e+000 
3578125000  -4.085521e+001  -1.216154e+000 
3581250000  -4.145598e+001  -3.785316e+000 
3584375000  -4.037895e+001  -6.833227e+000 
3587500000  -4.005619e+001  -1.543751e+001 
3590625000  -4.068144e+001  -2.591696e+001 
3593750000  -4.176836e+001  -2.827287e+001 
3596875000  -4.204299e+001  -2.109926e+001 
3600000000  -4.064739e+001  -2.620678e+001 
3603125000  -4.103307e+001  -4.111449e+001 
3606250000  -4.156242e+001  -4.675205e+001 
3609375000  -4.236409e+001  -4.874215e+001 
3612500000  -4.298716e+001  -5.140563e+001 
3615625000  -4.347448e+001  -5.533347e+001 
3618750000  -4.407706e+001  -5.529105e+001 
3621875000  -4.399649e+001  -5.823257e+001 
3625000000  -4.458308e+001  -5.870341e+001 
3628125000  -4.491063e+001  -5.948220e+001 
3631250000  -4.448937e+001  -6.358796e+001 
3634375000  -4.605511e+001  -6.181227e+001 
3637500000  -4.603729e+001  -5.766975e+001 
3640625000  -4.476322e+001  -5.520152e+001 
3643750000  -4.487001e+001  -5.873473e+001 
3646875000  -4.501414e+001  -6.667388e+001 
3650000000  -4.618681e+001  -6.577211e+001 
3653125000  -4.546188e+001  -6.525820e+001 
3656250000  -4.593712e+001  -6.655593e+001 
3659375000  -4.561409e+001  -6.482569e+001 
3662500000  -4.490957e+001  -6.448360e+001 
3665625000  -4.463311e+001  -6.683881e+001 
3668750000  -4.324746e+001  -6.746151e+001 
3671875000  -4.231279e+001  -7.466384e+001 
3675000000  -4.269777e+001  -7.988680e+001 
3678125000  -4.321869e+001  -8.344211e+001 
3681250000  -4.221639e+001  -8.493548e+001 
3684375000  -4.295675e+001  -9.107768e+001 
3687500000  -4.282482e+001  -9.377430e+001 
3690625000  -4.277512e+001  -9.836372e+001 
3693750000  -4.345111e+001  -9.889347e+001 
3696875000  -4.345898e+001  -9.953307e+001 
3700000000  -4.238400e+001  -1.050357e+002 
3703125000  -4.239156e+001  -1.109952e+002 
3706250000  -4.372294e+001  -1.114456e+002 
3709375000  -4.310444e+001  -1.096579e+002 
3712500000  -4.217963e+001  -1.126129e+002 
3715625000  -4.153464e+001  -1.197209e+002 
3718750000  -4.131070e+001  -1.245174e+002 
3721875000  -4.103669e+001  -1.328619e+002 
3725000000  -4.183205e+001  -1.366893e+002 
3728125000  -4.201864e+001  -1.390509e+002 
3731250000  -4.178290e+001  -1.410132e+002 
3734375000  -4.120386e+001  -1.484379e+002 
3737500000  -4.234719e+001  -1.556221e+002 
3740625000  -4.390414e+001  -1.597237e+002 
3743750000  -4.321249e+001  -1.604558e+002 
3746875000  -4.369354e+001  -1.640073e+002 
3750000000  -4.442762e+001  -1.626260e+002 
3753125000  -4.455605e+001  -1.634440e+002 
3756250000  -4.470785e+001  -1.619666e+002 
3759375000  -4.438946e+001  -1.605849e+002 
3762500000  -4.451215e+001  -1.630094e+002 
3765625000  -4.502515e+001  -1.634290e+002 
3768750000  -4.512693e+001  -1.605755e+002 
3771875000  -4.330463e+001  -1.617411e+002 
3775000000  -4.276392e+001  -1.676544e+002 
3778125000  -4.343691e+001  -1.701019e+002 
3781250000  -4.285078e+001  -1.698421e+002 
3784375000  -4.246248e+001  -1.709945e+002 
3787500000  -4.136835e+001  -1.734241e+002 
3790625000  -4.218964e+001  1.786390e+002 
3793750000  -4.186193e+001  1.785974e+002 
3796875000  -4.090102e+001  1.763117e+002 
3800000000  -3.952685e+001  1.727041e+002 
3803125000  -4.040707e+001  1.644021e+002 
3806250000  -4.070089e+001  1.614750e+002 
3809375000  -4.059613e+001  1.575188e+002 
3812500000  -3.940355e+001  1.530567e+002 
3815625000  -3.996907e+001  1.417688e+002 
3818750000  -4.108165e+001  1.418491e+002 
3821875000  -4.103436e+001  1.481184e+002 
3825000000  -3.915114e+001  1.511117e+002 
3828125000  -3.783628e+001  1.347377e+002 
3831250000  -3.879435e+001  1.207566e+002 
3834375000  -3.980003e+001  1.181646e+002 
3837500000  -4.115860e+001  1.220039e+002 
3840625000  -3.968017e+001  1.206044e+002 
3843750000  -3.892218e+001  1.092071e+002 
3846875000  -3.972034e+001  1.003325e+002 
3850000000  -4.088668e+001  1.069036e+002 
3853125000  -4.017448e+001  1.091015e+002 
3856250000  -4.059393e+001  1.006411e+002 
3859375000  -3.992930e+001  9.592823e+001 
3862500000  -3.945850e+001  8.855748e+001 
3865625000  -3.970243e+001  8.423068e+001 
3868750000  -4.011131e+001  8.254873e+001 
3871875000  -3.915357e+001  7.967081e+001 
3875000000  -3.971739e+001  7.003820e+001 
3878125000  -4.068927e+001  6.797205e+001 
3881250000  -4.080594e+001  7.049068e+001 
3884375000  -4.044064e+001  6.703855e+001 
3887500000  -4.054929e+001  6.173445e+001 
3890625000  -4.109509e+001  5.784331e+001 
3893750000  -4.130740e+001  5.742199e+001 
3896875000  -4.194953e+001  5.950606e+001 
3900000000  -4.160633e+001  5.631662e+001 
3903125000  -4.133289e+001  5.352553e+001 
3906250000  -4.082015e+001  5.283799e+001 
3909375000  -4.038666e+001  5.037632e+001 
3912500000  -4.040568e+001  4.235839e+001 
3915625000  -4.132519e+001  4.576881e+001 
3918750000  -4.086828e+001  4.508878e+001 
3921875000  -4.066586e+001  4.112321e+001 
3925000000  -3.978051e+001  4.028727e+001 
3928125000  -3.932607e+001  3.123427e+001 
3931250000  -3.942890e+001  2.771149e+001 
3934375000  -3.968320e+001  2.614472e+001 
3937500000  -3.987069e+001  2.404023e+001 
3940625000  -4.032643e+001  2.336005e+001 
3943750000  -3.934687e+001  2.248805e+001 
3946875000  -3.799446e+001  1.564516e+001 
3950000000  -3.866520e+001  7.054782e+000 
3953125000  -3.969820e+001  6.010770e+000 
3956250000  -3.883051e+001  7.358458e+000 
3959375000  -3.742308e+001  3.323006e+000 
3962500000  -3.698236e+001  -1.957440e-001 
3965625000  -3.694929e+001  -1.159930e+001 
3968750000  -3.790427e+001  -1.897222e+001 
3971875000  -3.830870e+001  -2.271854e+001 
3975000000  -3.776531e+001  -2.375732e+001 
3978125000  -3.766701e+001  -2.829710e+001 
3981250000  -3.760912e+001  -3.241386e+001 
3984375000  -3.814135e+001  -3.922375e+001 
3987500000  -3.842522e+001  -4.263157e+001 
3990625000  -3.863272e+001  -4.472655e+001 
3993750000  -3.884431e+001  -4.655616e+001 
3996875000  -3.915741e+001  -5.200094e+001 
4000000000  -3.927686e+001  -5.399452e+001 
4003125000  -3.970871e+001  -5.191759e+001 
4006250000  -3.859144e+001  -5.303174e+001 
4009375000  -3.748528e+001  -6.664977e+001 
4012500000  -3.877320e+001  -7.256745e+001 
4015625000  -4.024590e+001  -7.163350e+001 
4018750000  -4.030191e+001  -6.991592e+001 
4021875000  -3.951187e+001  -7.232345e+001 
4025000000  -3.928028e+001  -7.695169e+001 
4028125000  -3.931117e+001  -8.144617e+001 
4031250000  -3.987109e+001  -8.499894e+001 
4034375000  -4.018493e+001  -8.561953e+001 
4037500000  -3.959469e+001  -8.183482e+001 
4040625000  -3.955500e+001  -8.662532e+001 
4043750000  -3.962585e+001  -8.843269e+001 
4046875000  -3.918076e+001  -8.785809e+001 
4050000000  -3.857266e+001  -9.554806e+001 
4053125000  -3.923163e+001  -9.501616e+001 
4056250000  -3.949936e+001  -9.253962e+001 
4059375000  -3.818680e+001  -9.084689e+001 
4062500000  -3.682208e+001  -9.787684e+001 
4065625000  -3.676464e+001  -1.037420e+002 
4068750000  -3.633754e+001  -1.087387e+002 
4071875000  -3.565664e+001  -1.179102e+002 
4075000000  -3.594662e+001  -1.243905e+002 
4078125000  -3.643316e+001  -1.261182e+002 
4081250000  -3.592882e+001  -1.309519e+002 
4084375000  -3.561665e+001  -1.381162e+002 
4087500000  -3.593535e+001  -1.446025e+002 
4090625000  -3.640821e+001  -1.473785e+002 
4093750000  -3.635394e+001  -1.483540e+002 
4096875000  -3.599454e+001  -1.559746e+002 
4100000000  -3.673119e+001  -1.632319e+002 
4103125000  -3.756866e+001  -1.629095e+002 
4106250000  -3.738853e+001  -1.603385e+002 
4109375000  -3.644859e+001  -1.621717e+002 
4112500000  -3.591318e+001  -1.685829e+002 
4115625000  -3.631833e+001  -1.754885e+002 
4118750000  -3.670935e+001  -1.795640e+002 
4121875000  -3.631083e+001  1.758906e+002 
4125000000  -3.675848e+001  1.695099e+002 
4128125000  -3.773346e+001  1.691972e+002 
4131250000  -3.751935e+001  1.768967e+002 
4134375000  -3.504947e+001  1.696524e+002 
4137500000  -3.515128e+001  1.509146e+002 
4140625000  -3.738316e+001  1.424222e+002 
4143750000  -3.861030e+001  1.474469e+002 
4146875000  -3.834356e+001  1.548501e+002 
4150000000  -3.780783e+001  1.488766e+002 
4153125000  -3.770517e+001  1.420185e+002 
4156250000  -3.876223e+001  1.406358e+002 
4159375000  -3.887146e+001  1.437619e+002 
4162500000  -3.790324e+001  1.505723e+002 
4165625000  -3.678850e+001  1.449913e+002 
4168750000  -3.625836e+001  1.383274e+002 
4171875000  -3.633383e+001  1.274309e+002 
4175000000  -3.694399e+001  1.238225e+002 
4178125000  -3.733314e+001  1.216877e+002 
4181250000  -3.731791e+001  1.219280e+002 
4184375000  -3.703280e+001  1.181328e+002 
4187500000  -3.695844e+001  1.143758e+002 
4190625000  -3.687795e+001  1.092670e+002 
4193750000  -3.753378e+001  1.042822e+002 
4196875000  -3.811120e+001  1.037352e+002 
4200000000  -3.907715e+001  1.063157e+002 
4203125000  -3.849961e+001  1.202087e+002 
4206250000  -3.534129e+001  1.194017e+002 
4209375000  -3.411617e+001  9.650850e+001 
4212500000  -3.608209e+001  8.789575e+001 
4215625000  -3.694970e+001  9.479391e+001 
4218750000  -3.534233e+001  1.005050e+002 
4221875000  -3.320415e+001  8.926214e+001 
4225000000  -3.427990e+001  7.511695e+001 
4228125000  -3.487582e+001  8.051332e+001 
4231250000  -3.338969e+001  7.515770e+001 
4234375000  -3.320967e+001  6.548859e+001 
4237500000  -3.271942e+001  6.061831e+001 
4240625000  -3.288711e+001  4.956701e+001 
4243750000  -3.392270e+001  4.306274e+001 
4246875000  -3.496835e+001  4.154533e+001 
4250000000  -3.480807e+001  4.295412e+001 
4253125000  -3.415590e+001  3.926498e+001 
4256250000  -3.460525e+001  3.376509e+001 
4259375000  -3.429456e+001  2.990664e+001 
4262500000  -3.454949e+001  2.482211e+001 
4265625000  -3.474051e+001  2.407241e+001 
4268750000  -3.375304e+001  1.993069e+001 
4271875000  -3.367538e+001  1.190203e+001 
4275000000  -3.324614e+001  4.362334e+000 
4278125000  -3.401958e+001  -6.667649e+000 
4281250000  -3.602957e+001  -9.730050e+000 
4284375000  -3.576966e+001  -9.636749e+000 
4287500000  -3.687131e+001  -1.472684e+001 
4290625000  -3.818719e+001  -4.573249e+000 
4293750000  -3.612867e+001  -2.878722e-001 
4296875000  -3.494850e+001  -1.069083e+001 
4300000000  -3.627739e+001  -1.921539e+001 
4303125000  -3.723478e+001  -1.925523e+001 
4306250000  -3.664542e+001  -1.307171e+001 
4309375000  -3.542640e+001  -1.534105e+001 
4312500000  -3.515639e+001  -2.322357e+001 
4315625000  -3.531247e+001  -2.697641e+001 
4318750000  -3.555647e+001  -3.195279e+001 
4321875000  -3.560278e+001  -3.083879e+001 
4325000000  -3.521529e+001  -3.000074e+001 
4328125000  -3.438148e+001  -3.660534e+001 
4331250000  -3.432552e+001  -4.482924e+001 
4334375000  -3.466824e+001  -5.005581e+001 
4337500000  -3.543003e+001  -5.255000e+001 
4340625000  -3.581997e+001  -5.028553e+001 
4343750000  -3.495157e+001  -4.940010e+001 
4346875000  -3.448928e+001  -5.668920e+001 
4350000000  -3.455183e+001  -6.186992e+001 
4353125000  -3.445333e+001  -7.035675e+001 
4356250000  -3.621735e+001  -7.245300e+001 
4359375000  -3.623462e+001  -5.720545e+001 
4362500000  -3.362270e+001  -6.054517e+001 
4365625000  -3.196352e+001  -7.385657e+001 
4368750000  -3.261740e+001  -8.628713e+001 
4371875000  -3.378910e+001  -8.698132e+001 
4375000000  -3.320921e+001  -8.777616e+001 
4378125000  -3.233965e+001  -9.456485e+001 
4381250000  -3.269540e+001  -1.011346e+002 
4384375000  -3.243941e+001  -1.084165e+002 
4387500000  -3.330384e+001  -1.148140e+002 
4390625000  -3.409423e+001  -1.163352e+002 
4393750000  -3.360550e+001  -1.148476e+002 
4396875000  -3.296434e+001  -1.191955e+002 
4400000000  -3.250963e+001  -1.271662e+002 
4403125000  -3.319399e+001  -1.366556e+002 
4406250000  -3.397596e+001  -1.397341e+002 
4409375000  -3.423509e+001  -1.430100e+002 
4412500000  -3.544625e+001  -1.458338e+002 
4415625000  -3.568867e+001  -1.420195e+002 
