!Agilent Technologies,E8363B,MY43030201,A.06.04.32
!Agilent E8363B: A.06.04.32
!Date: Tuesday, November 11, 2014 21:02:57
!Correction: S21(Response(S21)) 
!S1P File: Measurement: S21:
# Hz S  dB   R 50
3000000000  -3.642377e+001  -4.579361e+001 
3003125000  -3.753757e+001  -5.121425e+001 
3006250000  -3.740240e+001  -5.372287e+001 
3009375000  -3.767140e+001  -5.010174e+001 
3012500000  -3.699823e+001  -5.173458e+001 
3015625000  -3.599557e+001  -5.896672e+001 
3018750000  -3.687299e+001  -6.057249e+001 
3021875000  -3.539751e+001  -5.954352e+001 
3025000000  -3.415411e+001  -6.334040e+001 
3028125000  -3.316383e+001  -6.882002e+001 
3031250000  -3.212299e+001  -8.041051e+001 
3034375000  -3.174009e+001  -9.391178e+001 
3037500000  -3.220465e+001  -1.064748e+002 
3040625000  -3.348359e+001  -1.110662e+002 
3043750000  -3.412215e+001  -1.161597e+002 
3046875000  -3.424220e+001  -1.221453e+002 
3050000000  -3.602368e+001  -1.283756e+002 
3053125000  -3.613823e+001  -1.232005e+002 
3056250000  -3.546722e+001  -1.196343e+002 
3059375000  -3.567372e+001  -1.200217e+002 
3062500000  -3.409975e+001  -1.233494e+002 
3065625000  -3.389668e+001  -1.295376e+002 
3068750000  -3.356780e+001  -1.366931e+002 
3071875000  -3.349361e+001  -1.387699e+002 
3075000000  -3.326715e+001  -1.431449e+002 
3078125000  -3.306261e+001  -1.473483e+002 
3081250000  -3.352656e+001  -1.512960e+002 
3084375000  -3.266285e+001  -1.553677e+002 
3087500000  -3.241052e+001  -1.590270e+002 
3090625000  -3.201582e+001  -1.687210e+002 
3093750000  -3.232482e+001  -1.762518e+002 
3096875000  -3.345105e+001  1.775602e+002 
3100000000  -3.330290e+001  1.756775e+002 
3103125000  -3.359607e+001  1.759462e+002 
3106250000  -3.316733e+001  1.724221e+002 
3109375000  -3.327669e+001  1.683537e+002 
3112500000  -3.319072e+001  1.660717e+002 
3115625000  -3.287667e+001  1.606819e+002 
3118750000  -3.318228e+001  1.612635e+002 
3121875000  -3.237939e+001  1.519802e+002 
3125000000  -3.344925e+001  1.482157e+002 
3128125000  -3.449638e+001  1.549668e+002 
3131250000  -3.217495e+001  1.534912e+002 
3134375000  -3.075572e+001  1.377987e+002 
3137500000  -3.133325e+001  1.234648e+002 
3140625000  -3.287882e+001  1.207319e+002 
3143750000  -3.384616e+001  1.227414e+002 
3146875000  -3.336784e+001  1.233440e+002 
3150000000  -3.232631e+001  1.237960e+002 
3153125000  -3.234079e+001  1.147349e+002 
3156250000  -3.332494e+001  1.192965e+002 
3159375000  -3.169963e+001  1.206077e+002 
3162500000  -2.973820e+001  1.059280e+002 
3165625000  -3.075701e+001  9.416470e+001 
3168750000  -3.100097e+001  9.397842e+001 
3171875000  -3.011627e+001  8.864510e+001 
3175000000  -3.094875e+001  7.972729e+001 
3178125000  -3.067618e+001  8.064535e+001 
3181250000  -2.953562e+001  7.543138e+001 
3184375000  -2.878251e+001  6.260239e+001 
3187500000  -3.007755e+001  4.736298e+001 
3190625000  -3.279966e+001  3.884296e+001 
3193750000  -3.336628e+001  4.751106e+001 
3196875000  -3.295329e+001  5.194528e+001 
3200000000  -3.209384e+001  4.945012e+001 
3203125000  -3.124239e+001  4.304004e+001 
3206250000  -3.160356e+001  3.622758e+001 
3209375000  -3.108595e+001  3.065174e+001 
3212500000  -3.136679e+001  2.296699e+001 
3215625000  -3.138083e+001  1.943504e+001 
3218750000  -3.209314e+001  1.237024e+001 
3221875000  -3.294869e+001  6.712106e+000 
3225000000  -3.256554e+001  5.693914e+000 
3228125000  -3.290982e+001  4.136554e-001 
3231250000  -3.364284e+001  -1.941510e+000 
3234375000  -3.344720e+001  -2.501220e+000 
3237500000  -3.343348e+001  -3.759599e+000 
3240625000  -3.304020e+001  -6.481171e+000 
3243750000  -3.258133e+001  -1.437683e+001 
3246875000  -3.296426e+001  -2.148243e+001 
3250000000  -3.344041e+001  -2.388510e+001 
3253125000  -3.360863e+001  -2.578342e+001 
3256250000  -3.323227e+001  -3.183152e+001 
3259375000  -3.343256e+001  -4.109794e+001 
3262500000  -3.467886e+001  -4.506106e+001 
3265625000  -3.531802e+001  -4.197853e+001 
3268750000  -3.512885e+001  -4.040217e+001 
3271875000  -3.478646e+001  -4.042322e+001 
3275000000  -3.376745e+001  -4.642211e+001 
3278125000  -3.424809e+001  -5.343439e+001 
3281250000  -3.442813e+001  -5.230092e+001 
3284375000  -3.393168e+001  -5.974607e+001 
3287500000  -3.420015e+001  -6.228071e+001 
3290625000  -3.443409e+001  -6.874480e+001 
3293750000  -3.403189e+001  -7.494678e+001 
3296875000  -3.513897e+001  -7.465935e+001 
3300000000  -3.485793e+001  -7.483102e+001 
3303125000  -3.370824e+001  -8.016928e+001 
3306250000  -3.354080e+001  -8.682560e+001 
3309375000  -3.329082e+001  -9.322392e+001 
3312500000  -3.341917e+001  -1.038352e+002 
3315625000  -3.427991e+001  -1.119671e+002 
3318750000  -3.574218e+001  -1.147854e+002 
3321875000  -3.691998e+001  -1.161616e+002 
3325000000  -3.740575e+001  -1.092022e+002 
3328125000  -3.698021e+001  -1.099588e+002 
3331250000  -3.584002e+001  -1.037563e+002 
3334375000  -3.306786e+001  -1.121949e+002 
3337500000  -3.304996e+001  -1.324386e+002 
3340625000  -3.448009e+001  -1.434011e+002 
3343750000  -3.637926e+001  -1.444231e+002 
3346875000  -3.666399e+001  -1.431234e+002 
3350000000  -3.601680e+001  -1.445805e+002 
3353125000  -3.595512e+001  -1.494096e+002 
3356250000  -3.564637e+001  -1.571850e+002 
3359375000  -3.640283e+001  -1.656989e+002 
3362500000  -3.741818e+001  -1.719991e+002 
3365625000  -3.797258e+001  -1.738252e+002 
3368750000  -3.873884e+001  -1.760103e+002 
3371875000  -3.904864e+001  -1.775486e+002 
3375000000  -4.009434e+001  1.794285e+002 
3378125000  -4.105929e+001  1.793745e+002 
3381250000  -4.220095e+001  -1.738900e+002 
3384375000  -4.107958e+001  -1.522623e+002 
3387500000  -3.772139e+001  -1.671566e+002 
3390625000  -3.930851e+001  1.741930e+002 
3393750000  -4.059893e+001  1.759613e+002 
3396875000  -3.931699e+001  1.786279e+002 
3400000000  -3.868953e+001  1.710365e+002 
3403125000  -3.915742e+001  1.650845e+002 
3406250000  -3.966697e+001  1.639707e+002 
3409375000  -3.974222e+001  1.561371e+002 
3412500000  -4.030919e+001  1.551510e+002 
3415625000  -4.102102e+001  1.558862e+002 
3418750000  -4.104589e+001  1.547660e+002 
3421875000  -4.121019e+001  1.591438e+002 
3425000000  -4.063746e+001  1.598443e+002 
3428125000  -3.951996e+001  1.552608e+002 
3431250000  -3.942446e+001  1.481538e+002 
3434375000  -3.918431e+001  1.420686e+002 
3437500000  -3.961160e+001  1.390143e+002 
3440625000  -4.012268e+001  1.386647e+002 
3443750000  -3.882970e+001  1.418389e+002 
3446875000  -3.804019e+001  1.328745e+002 
3450000000  -3.773435e+001  1.225633e+002 
3453125000  -3.787739e+001  1.136407e+002 
3456250000  -3.911157e+001  1.065576e+002 
3459375000  -3.989021e+001  1.080490e+002 
3462500000  -4.004667e+001  1.079584e+002 
3465625000  -3.987246e+001  1.038387e+002 
3468750000  -3.994493e+001  9.790189e+001 
3471875000  -4.020058e+001  9.636021e+001 
3475000000  -3.950381e+001  9.234061e+001 
3478125000  -4.032796e+001  8.402749e+001 
3481250000  -4.126914e+001  8.058767e+001 
3484375000  -4.233155e+001  8.518675e+001 
3487500000  -4.123542e+001  8.523161e+001 
3490625000  -4.083226e+001  8.012667e+001 
3493750000  -4.117575e+001  7.413714e+001 
3496875000  -4.177963e+001  7.163409e+001 
3500000000  -4.243845e+001  7.358020e+001 
3503125000  -4.191415e+001  7.632188e+001 
3506250000  -4.058662e+001  7.173491e+001 
3509375000  -4.058694e+001  6.151090e+001 
3512500000  -4.099754e+001  5.218910e+001 
3515625000  -4.183067e+001  5.143399e+001 
3518750000  -4.251877e+001  5.086688e+001 
3521875000  -4.257803e+001  4.867246e+001 
3525000000  -4.343547e+001  4.688280e+001 
3528125000  -4.330063e+001  5.506363e+001 
3531250000  -4.229636e+001  5.160889e+001 
3534375000  -4.204675e+001  3.955898e+001 
3537500000  -4.265025e+001  3.434146e+001 
3540625000  -4.341502e+001  3.587394e+001 
3543750000  -4.434962e+001  4.040487e+001 
3546875000  -4.411889e+001  4.938819e+001 
3550000000  -4.152396e+001  5.085759e+001 
3553125000  -4.043536e+001  3.282440e+001 
3556250000  -4.186156e+001  2.690021e+001 
3559375000  -4.170390e+001  2.725699e+001 
3562500000  -4.048477e+001  1.960258e+001 
3565625000  -4.100665e+001  1.368447e+001 
3568750000  -4.144016e+001  1.477984e+001 
3571875000  -4.139761e+001  1.265786e+001 
3575000000  -4.079306e+001  7.163339e+000 
3578125000  -4.122853e+001  1.887444e+000 
3581250000  -4.140266e+001  -7.132680e-001 
3584375000  -4.041088e+001  -7.083255e-001 
3587500000  -4.018325e+001  -1.093352e+001 
3590625000  -4.057986e+001  -2.100368e+001 
3593750000  -4.181009e+001  -2.227010e+001 
3596875000  -4.180598e+001  -1.656081e+001 
3600000000  -4.025769e+001  -2.051832e+001 
3603125000  -4.055898e+001  -3.734862e+001 
3606250000  -4.151732e+001  -4.010994e+001 
3609375000  -4.240310e+001  -4.399979e+001 
3612500000  -4.279743e+001  -4.557821e+001 
3615625000  -4.285365e+001  -4.977543e+001 
3618750000  -4.355865e+001  -5.148149e+001 
3621875000  -4.351895e+001  -5.314891e+001 
3625000000  -4.424740e+001  -5.477581e+001 
3628125000  -4.446060e+001  -5.434059e+001 
3631250000  -4.414212e+001  -6.106424e+001 
3634375000  -4.557178e+001  -6.290680e+001 
3637500000  -4.536228e+001  -5.970975e+001 
3640625000  -4.468258e+001  -5.669893e+001 
3643750000  -4.455309e+001  -6.034293e+001 
3646875000  -4.517899e+001  -6.807277e+001 
3650000000  -4.577447e+001  -6.894324e+001 
3653125000  -4.552186e+001  -6.962195e+001 
3656250000  -4.626088e+001  -6.903886e+001 
3659375000  -4.620679e+001  -6.701598e+001 
3662500000  -4.572602e+001  -6.773195e+001 
3665625000  -4.545042e+001  -6.517133e+001 
3668750000  -4.427591e+001  -6.851763e+001 
3671875000  -4.319818e+001  -7.116015e+001 
3675000000  -4.360930e+001  -7.978519e+001 
3678125000  -4.333969e+001  -7.823075e+001 
3681250000  -4.320497e+001  -8.255109e+001 
3684375000  -4.333794e+001  -8.543864e+001 
3687500000  -4.341816e+001  -8.900285e+001 
3690625000  -4.330148e+001  -9.409319e+001 
3693750000  -4.420279e+001  -9.316416e+001 
3696875000  -4.390020e+001  -9.303394e+001 
3700000000  -4.302322e+001  -9.691281e+001 
3703125000  -4.281880e+001  -1.063155e+002 
3706250000  -4.410946e+001  -1.035689e+002 
3709375000  -4.377278e+001  -1.010632e+002 
3712500000  -4.242349e+001  -1.048806e+002 
3715625000  -4.174992e+001  -1.123237e+002 
3718750000  -4.136996e+001  -1.182765e+002 
3721875000  -4.123977e+001  -1.244328e+002 
3725000000  -4.123792e+001  -1.300041e+002 
3728125000  -4.206486e+001  -1.314241e+002 
3731250000  -4.149548e+001  -1.332300e+002 
3734375000  -4.132005e+001  -1.389230e+002 
3737500000  -4.231445e+001  -1.487218e+002 
3740625000  -4.290939e+001  -1.529000e+002 
3743750000  -4.285364e+001  -1.525294e+002 
3746875000  -4.350534e+001  -1.563027e+002 
3750000000  -4.405917e+001  -1.582503e+002 
3753125000  -4.384436e+001  -1.581765e+002 
3756250000  -4.406696e+001  -1.587602e+002 
3759375000  -4.424133e+001  -1.584807e+002 
3762500000  -4.389433e+001  -1.638391e+002 
3765625000  -4.469059e+001  -1.612471e+002 
3768750000  -4.491745e+001  -1.585194e+002 
3771875000  -4.319646e+001  -1.597046e+002 
3775000000  -4.310659e+001  -1.657804e+002 
3778125000  -4.336438e+001  -1.693082e+002 
3781250000  -4.296715e+001  -1.691712e+002 
3784375000  -4.301155e+001  -1.707107e+002 
3787500000  -4.180322e+001  -1.710439e+002 
3790625000  -4.252588e+001  -1.778888e+002 
3793750000  -4.246098e+001  1.799111e+002 
3796875000  -4.113064e+001  1.778015e+002 
3800000000  -4.005518e+001  1.768501e+002 
3803125000  -4.025615e+001  1.652997e+002 
3806250000  -4.113187e+001  1.652158e+002 
3809375000  -4.048171e+001  1.621678e+002 
3812500000  -3.976582e+001  1.554590e+002 
3815625000  -4.037426e+001  1.449455e+002 
3818750000  -4.140498e+001  1.464628e+002 
3821875000  -4.156171e+001  1.532204e+002 
3825000000  -3.944640e+001  1.551356e+002 
3828125000  -3.814339e+001  1.404201e+002 
3831250000  -3.878326e+001  1.255718e+002 
3834375000  -4.020338e+001  1.239720e+002 
3837500000  -4.129109e+001  1.287633e+002 
3840625000  -3.994791e+001  1.259637e+002 
3843750000  -3.889999e+001  1.153124e+002 
3846875000  -3.981511e+001  1.076055e+002 
3850000000  -4.091480e+001  1.122340e+002 
3853125000  -4.062872e+001  1.137683e+002 
3856250000  -4.023014e+001  1.065790e+002 
3859375000  -3.947628e+001  1.008970e+002 
3862500000  -3.943145e+001  9.406330e+001 
3865625000  -3.982913e+001  8.967754e+001 
3868750000  -3.957654e+001  8.907529e+001 
3871875000  -3.900774e+001  8.290584e+001 
3875000000  -3.926983e+001  7.486754e+001 
3878125000  -4.052511e+001  7.174986e+001 
3881250000  -4.023469e+001  7.614246e+001 
3884375000  -3.989061e+001  7.044343e+001 
3887500000  -4.020444e+001  6.568349e+001 
3890625000  -4.076531e+001  6.224689e+001 
3893750000  -4.084089e+001  6.072813e+001 
3896875000  -4.164624e+001  6.342648e+001 
3900000000  -4.143943e+001  6.062776e+001 
3903125000  -4.123762e+001  5.797474e+001 
3906250000  -4.056682e+001  5.759237e+001 
3909375000  -3.992202e+001  5.336219e+001 
3912500000  -3.980036e+001  4.570107e+001 
3915625000  -4.118708e+001  4.662503e+001 
3918750000  -4.122010e+001  4.639948e+001 
3921875000  -4.051833e+001  4.114280e+001 
3925000000  -3.981908e+001  4.195670e+001 
3928125000  -3.920740e+001  3.591123e+001 
3931250000  -3.967955e+001  3.055527e+001 
3934375000  -3.991839e+001  2.857215e+001 
3937500000  -3.989626e+001  2.783162e+001 
3940625000  -4.062554e+001  2.468900e+001 
3943750000  -3.970383e+001  2.632422e+001 
3946875000  -3.831616e+001  2.052304e+001 
3950000000  -3.921453e+001  1.070186e+001 
3953125000  -3.981940e+001  1.047007e+001 
3956250000  -3.889896e+001  1.240564e+001 
3959375000  -3.785021e+001  7.619155e+000 
3962500000  -3.742419e+001  2.777664e+000 
3965625000  -3.715176e+001  -8.031298e+000 
3968750000  -3.807743e+001  -1.269600e+001 
3971875000  -3.856093e+001  -1.703354e+001 
3975000000  -3.779400e+001  -1.866970e+001 
3978125000  -3.785249e+001  -2.289633e+001 
3981250000  -3.790287e+001  -2.784186e+001 
3984375000  -3.800183e+001  -3.355498e+001 
3987500000  -3.844296e+001  -3.630796e+001 
3990625000  -3.857083e+001  -3.653322e+001 
3993750000  -3.893997e+001  -4.045425e+001 
3996875000  -3.895136e+001  -4.579395e+001 
4000000000  -3.900691e+001  -4.630111e+001 
4003125000  -3.973777e+001  -4.445495e+001 
4006250000  -3.845090e+001  -4.568624e+001 
4009375000  -3.736390e+001  -5.938971e+001 
4012500000  -3.843165e+001  -6.543954e+001 
4015625000  -3.959548e+001  -6.559581e+001 
4018750000  -3.980367e+001  -6.440605e+001 
4021875000  -3.921952e+001  -6.605166e+001 
4025000000  -3.880732e+001  -7.023805e+001 
4028125000  -3.869831e+001  -7.521383e+001 
4031250000  -3.918164e+001  -7.906384e+001 
4034375000  -3.947649e+001  -7.986037e+001 
4037500000  -3.899128e+001  -8.097476e+001 
4040625000  -3.882966e+001  -8.379659e+001 
4043750000  -3.919806e+001  -8.446803e+001 
4046875000  -3.891796e+001  -8.478471e+001 
4050000000  -3.830067e+001  -9.186336e+001 
4053125000  -3.903135e+001  -9.458145e+001 
4056250000  -3.918039e+001  -9.117117e+001 
4059375000  -3.808677e+001  -9.069590e+001 
4062500000  -3.653055e+001  -9.603867e+001 
4065625000  -3.650431e+001  -1.018600e+002 
4068750000  -3.640208e+001  -1.071404e+002 
4071875000  -3.563591e+001  -1.141647e+002 
4075000000  -3.596976e+001  -1.223615e+002 
4078125000  -3.658390e+001  -1.240921e+002 
4081250000  -3.604170e+001  -1.273431e+002 
4084375000  -3.573558e+001  -1.354988e+002 
4087500000  -3.615679e+001  -1.423727e+002 
4090625000  -3.677934e+001  -1.442293e+002 
4093750000  -3.646748e+001  -1.439142e+002 
4096875000  -3.616756e+001  -1.512698e+002 
4100000000  -3.698571e+001  -1.589468e+002 
4103125000  -3.764956e+001  -1.590160e+002 
4106250000  -3.760719e+001  -1.547975e+002 
4109375000  -3.651788e+001  -1.573724e+002 
4112500000  -3.633510e+001  -1.650716e+002 
4115625000  -3.660048e+001  -1.686550e+002 
4118750000  -3.677127e+001  -1.735098e+002 
4121875000  -3.623155e+001  -1.783645e+002 
4125000000  -3.676105e+001  1.751472e+002 
4128125000  -3.778420e+001  1.768736e+002 
4131250000  -3.760961e+001  -1.779190e+002 
4134375000  -3.507518e+001  1.778317e+002 
4137500000  -3.504448e+001  1.583235e+002 
4140625000  -3.722591e+001  1.494576e+002 
4143750000  -3.860303e+001  1.530154e+002 
4146875000  -3.807316e+001  1.599915e+002 
4150000000  -3.731299e+001  1.575714e+002 
4153125000  -3.726404e+001  1.496113e+002 
4156250000  -3.818512e+001  1.463374e+002 
4159375000  -3.828026e+001  1.514817e+002 
4162500000  -3.747602e+001  1.538223e+002 
4165625000  -3.632188e+001  1.512333e+002 
4168750000  -3.559086e+001  1.421708e+002 
4171875000  -3.585355e+001  1.323682e+002 
4175000000  -3.648119e+001  1.272448e+002 
4178125000  -3.699397e+001  1.267299e+002 
4181250000  -3.673096e+001  1.262976e+002 
4184375000  -3.649158e+001  1.212753e+002 
4187500000  -3.648369e+001  1.176904e+002 
4190625000  -3.631311e+001  1.109488e+002 
4193750000  -3.716036e+001  1.082120e+002 
4196875000  -3.774059e+001  1.072877e+002 
4200000000  -3.879559e+001  1.091105e+002 
4203125000  -3.872729e+001  1.218335e+002 
4206250000  -3.514135e+001  1.223220e+002 
4209375000  -3.408710e+001  1.006826e+002 
4212500000  -3.610200e+001  9.138003e+001 
4215625000  -3.694408e+001  9.707042e+001 
4218750000  -3.536934e+001  1.024158e+002 
4221875000  -3.311354e+001  9.252635e+001 
4225000000  -3.429483e+001  7.870833e+001 
4228125000  -3.514477e+001  8.301791e+001 
4231250000  -3.339717e+001  7.867569e+001 
4234375000  -3.332373e+001  6.956004e+001 
4237500000  -3.285879e+001  6.396604e+001 
4240625000  -3.291822e+001  5.357803e+001 
4243750000  -3.400439e+001  4.579014e+001 
4246875000  -3.469304e+001  4.547769e+001 
4250000000  -3.493829e+001  4.774654e+001 
4253125000  -3.438947e+001  4.392106e+001 
4256250000  -3.473301e+001  3.954575e+001 
4259375000  -3.464075e+001  3.695658e+001 
4262500000  -3.442904e+001  3.262994e+001 
4265625000  -3.472515e+001  2.966866e+001 
4268750000  -3.375902e+001  2.531292e+001 
4271875000  -3.364196e+001  2.022010e+001 
4275000000  -3.310524e+001  1.126365e+001 
4278125000  -3.375762e+001  -7.863398e-001 
4281250000  -3.563865e+001  -3.089237e+000 
4284375000  -3.549084e+001  -2.649977e+000 
4287500000  -3.651714e+001  -6.908906e+000 
4290625000  -3.787796e+001  1.450694e+000 
4293750000  -3.566919e+001  8.181431e+000 
4296875000  -3.456940e+001  -3.755822e+000 
4300000000  -3.553710e+001  -1.320380e+001 
4303125000  -3.680580e+001  -1.285481e+001 
4306250000  -3.605692e+001  -7.803387e+000 
4309375000  -3.462893e+001  -9.344891e+000 
4312500000  -3.453117e+001  -1.654663e+001 
4315625000  -3.469493e+001  -2.327386e+001 
4318750000  -3.494229e+001  -2.702284e+001 
4321875000  -3.512277e+001  -2.664576e+001 
4325000000  -3.439112e+001  -2.599409e+001 
4328125000  -3.384401e+001  -3.364272e+001 
4331250000  -3.350061e+001  -4.149141e+001 
4334375000  -3.409258e+001  -4.755869e+001 
4337500000  -3.497119e+001  -5.000348e+001 
4340625000  -3.547270e+001  -4.750272e+001 
4343750000  -3.450648e+001  -4.698203e+001 
4346875000  -3.418427e+001  -5.484971e+001 
4350000000  -3.400933e+001  -5.936112e+001 
4353125000  -3.399879e+001  -6.869168e+001 
4356250000  -3.563172e+001  -6.824355e+001 
4359375000  -3.606035e+001  -5.733731e+001 
4362500000  -3.317166e+001  -5.710974e+001 
4365625000  -3.169048e+001  -7.087164e+001 
4368750000  -3.242762e+001  -8.424146e+001 
4371875000  -3.362614e+001  -8.384579e+001 
4375000000  -3.318801e+001  -8.486896e+001 
4378125000  -3.256523e+001  -9.110186e+001 
4381250000  -3.265927e+001  -9.745055e+001 
4384375000  -3.251945e+001  -1.049402e+002 
4387500000  -3.330551e+001  -1.108122e+002 
4390625000  -3.429048e+001  -1.115955e+002 
4393750000  -3.354451e+001  -1.105355e+002 
4396875000  -3.297599e+001  -1.134073e+002 
4400000000  -3.243311e+001  -1.221395e+002 
4403125000  -3.328188e+001  -1.305349e+002 
4406250000  -3.402198e+001  -1.326462e+002 
4409375000  -3.404421e+001  -1.367420e+002 
4412500000  -3.528042e+001  -1.391611e+002 
4415625000  -3.552677e+001  -1.351744e+002 
