!Agilent Technologies,E8363B,MY43030201,A.06.04.32
!Agilent E8363B: A.06.04.32
!Date: Tuesday, November 11, 2014 21:12:27
!Correction: S21(Response(S21)) 
!S1P File: Measurement: S21:
# Hz S  dB   R 50
3000000000  -3.652325e+001  -5.877818e+001 
3003125000  -3.765598e+001  -6.502029e+001 
3006250000  -3.752196e+001  -6.688456e+001 
3009375000  -3.780957e+001  -6.244191e+001 
3012500000  -3.708507e+001  -6.396585e+001 
3015625000  -3.620940e+001  -7.216188e+001 
3018750000  -3.696910e+001  -7.233252e+001 
3021875000  -3.552773e+001  -7.173833e+001 
3025000000  -3.411412e+001  -7.539472e+001 
3028125000  -3.328644e+001  -8.298636e+001 
3031250000  -3.223169e+001  -9.374075e+001 
3034375000  -3.181646e+001  -1.077254e+002 
3037500000  -3.226579e+001  -1.194281e+002 
3040625000  -3.371729e+001  -1.243682e+002 
3043750000  -3.429837e+001  -1.294074e+002 
3046875000  -3.456904e+001  -1.346829e+002 
3050000000  -3.617901e+001  -1.408139e+002 
3053125000  -3.601864e+001  -1.355549e+002 
3056250000  -3.574328e+001  -1.320396e+002 
3059375000  -3.574263e+001  -1.324297e+002 
3062500000  -3.411029e+001  -1.361993e+002 
3065625000  -3.402642e+001  -1.424633e+002 
3068750000  -3.358242e+001  -1.494736e+002 
3071875000  -3.356392e+001  -1.513244e+002 
3075000000  -3.340483e+001  -1.557439e+002 
3078125000  -3.311627e+001  -1.599400e+002 
3081250000  -3.358433e+001  -1.641260e+002 
3084375000  -3.262565e+001  -1.676818e+002 
3087500000  -3.250793e+001  -1.717180e+002 
3090625000  -3.198482e+001  1.778037e+002 
3093750000  -3.254611e+001  1.707555e+002 
3096875000  -3.365051e+001  1.652027e+002 
3100000000  -3.340937e+001  1.623971e+002 
3103125000  -3.363367e+001  1.629084e+002 
3106250000  -3.320259e+001  1.590904e+002 
3109375000  -3.320290e+001  1.549770e+002 
3112500000  -3.325821e+001  1.528191e+002 
3115625000  -3.295282e+001  1.480715e+002 
3118750000  -3.322523e+001  1.484410e+002 
3121875000  -3.237981e+001  1.386443e+002 
3125000000  -3.367764e+001  1.347385e+002 
3128125000  -3.439742e+001  1.428393e+002 
3131250000  -3.197526e+001  1.403920e+002 
3134375000  -3.086776e+001  1.245200e+002 
3137500000  -3.132401e+001  1.112755e+002 
3140625000  -3.281001e+001  1.085022e+002 
3143750000  -3.382281e+001  1.092537e+002 
3146875000  -3.332235e+001  1.104442e+002 
3150000000  -3.229128e+001  1.101000e+002 
3153125000  -3.231718e+001  1.015438e+002 
3156250000  -3.336576e+001  1.062818e+002 
3159375000  -3.150035e+001  1.073647e+002 
3162500000  -2.969695e+001  9.249311e+001 
3165625000  -3.075346e+001  8.028129e+001 
3168750000  -3.097094e+001  8.063266e+001 
3171875000  -3.010595e+001  7.520966e+001 
3175000000  -3.095913e+001  6.633183e+001 
3178125000  -3.062017e+001  6.695841e+001 
3181250000  -2.958403e+001  6.091320e+001 
3184375000  -2.890872e+001  4.830819e+001 
3187500000  -3.023829e+001  3.380458e+001 
3190625000  -3.272946e+001  2.564338e+001 
3193750000  -3.331380e+001  3.449298e+001 
3196875000  -3.299162e+001  3.854541e+001 
3200000000  -3.196142e+001  3.590055e+001 
3203125000  -3.124673e+001  2.943796e+001 
3206250000  -3.151735e+001  2.258388e+001 
3209375000  -3.106815e+001  1.651184e+001 
3212500000  -3.142347e+001  9.592319e+000 
3215625000  -3.137003e+001  6.787293e+000 
3218750000  -3.220036e+001  -1.807749e+000 
3221875000  -3.292675e+001  -6.445432e+000 
3225000000  -3.263733e+001  -8.190078e+000 
3228125000  -3.300580e+001  -1.365137e+001 
3231250000  -3.370579e+001  -1.575864e+001 
3234375000  -3.331966e+001  -1.562127e+001 
3237500000  -3.335367e+001  -1.750501e+001 
3240625000  -3.287264e+001  -1.981763e+001 
3243750000  -3.249505e+001  -2.803537e+001 
3246875000  -3.288080e+001  -3.454444e+001 
3250000000  -3.344353e+001  -3.734915e+001 
3253125000  -3.351433e+001  -3.928875e+001 
3256250000  -3.309201e+001  -4.596655e+001 
3259375000  -3.335138e+001  -5.514734e+001 
3262500000  -3.461890e+001  -5.867551e+001 
3265625000  -3.517111e+001  -5.518816e+001 
3268750000  -3.515374e+001  -5.340099e+001 
3271875000  -3.454977e+001  -5.405537e+001 
3275000000  -3.365653e+001  -6.144232e+001 
3278125000  -3.412651e+001  -6.744916e+001 
3281250000  -3.432312e+001  -6.651532e+001 
3284375000  -3.382273e+001  -7.363348e+001 
3287500000  -3.406284e+001  -7.696796e+001 
3290625000  -3.428484e+001  -8.329417e+001 
3293750000  -3.403862e+001  -8.928142e+001 
3296875000  -3.515734e+001  -8.985232e+001 
3300000000  -3.477500e+001  -8.882798e+001 
3303125000  -3.360399e+001  -9.432497e+001 
3306250000  -3.349562e+001  -1.014809e+002 
3309375000  -3.311582e+001  -1.078938e+002 
3312500000  -3.323510e+001  -1.191086e+002 
3315625000  -3.432062e+001  -1.268721e+002 
3318750000  -3.573459e+001  -1.296504e+002 
3321875000  -3.688788e+001  -1.290097e+002 
3325000000  -3.710492e+001  -1.237627e+002 
3328125000  -3.677663e+001  -1.224445e+002 
3331250000  -3.548987e+001  -1.172502e+002 
3334375000  -3.280607e+001  -1.282546e+002 
3337500000  -3.301296e+001  -1.479458e+002 
3340625000  -3.453783e+001  -1.584706e+002 
3343750000  -3.637334e+001  -1.595958e+002 
3346875000  -3.659859e+001  -1.579871e+002 
3350000000  -3.581952e+001  -1.593526e+002 
3353125000  -3.593488e+001  -1.652928e+002 
3356250000  -3.541980e+001  -1.727835e+002 
3359375000  -3.630169e+001  1.795228e+002 
3362500000  -3.743518e+001  1.735802e+002 
3365625000  -3.783588e+001  1.720345e+002 
3368750000  -3.859397e+001  1.689913e+002 
3371875000  -3.905052e+001  1.676166e+002 
3375000000  -4.031245e+001  1.642306e+002 
3378125000  -4.115310e+001  1.641573e+002 
3381250000  -4.247596e+001  1.742299e+002 
3384375000  -4.088741e+001  -1.669244e+002 
3387500000  -3.743793e+001  1.769574e+002 
3390625000  -3.905257e+001  1.581522e+002 
3393750000  -4.003974e+001  1.622263e+002 
3396875000  -3.910892e+001  1.630046e+002 
3400000000  -3.840793e+001  1.545338e+002 
3403125000  -3.919818e+001  1.495027e+002 
3406250000  -3.966488e+001  1.499625e+002 
3409375000  -3.978778e+001  1.416643e+002 
3412500000  -4.028836e+001  1.394558e+002 
3415625000  -4.100280e+001  1.408765e+002 
3418750000  -4.103146e+001  1.411566e+002 
3421875000  -4.135334e+001  1.433841e+002 
3425000000  -4.019733e+001  1.445358e+002 
3428125000  -3.930442e+001  1.390137e+002 
3431250000  -3.920807e+001  1.332332e+002 
3434375000  -3.914665e+001  1.265558e+002 
3437500000  -3.953081e+001  1.225853e+002 
3440625000  -3.978767e+001  1.251569e+002 
3443750000  -3.863226e+001  1.254633e+002 
3446875000  -3.793032e+001  1.173476e+002 
3450000000  -3.754916e+001  1.078944e+002 
3453125000  -3.786660e+001  9.659969e+001 
3456250000  -3.916150e+001  9.067239e+001 
3459375000  -4.021651e+001  9.092310e+001 
3462500000  -3.993953e+001  9.158115e+001 
3465625000  -3.985429e+001  8.699908e+001 
3468750000  -4.012042e+001  8.286092e+001 
3471875000  -3.997121e+001  8.105488e+001 
3475000000  -3.957063e+001  7.573274e+001 
3478125000  -4.039874e+001  6.782333e+001 
3481250000  -4.133854e+001  6.485928e+001 
3484375000  -4.213402e+001  6.955394e+001 
3487500000  -4.150256e+001  6.968248e+001 
3490625000  -4.089030e+001  6.526778e+001 
3493750000  -4.137736e+001  5.831628e+001 
3496875000  -4.172837e+001  5.609295e+001 
3500000000  -4.235673e+001  5.907256e+001 
3503125000  -4.183911e+001  6.085453e+001 
3506250000  -4.043433e+001  5.681459e+001 
3509375000  -4.045740e+001  4.655620e+001 
3512500000  -4.121455e+001  3.800245e+001 
3515625000  -4.175279e+001  3.558607e+001 
3518750000  -4.260452e+001  3.773171e+001 
3521875000  -4.257003e+001  3.371987e+001 
3525000000  -4.385891e+001  3.120339e+001 
3528125000  -4.341611e+001  3.904855e+001 
3531250000  -4.198843e+001  3.517261e+001 
3534375000  -4.201874e+001  2.548989e+001 
3537500000  -4.264265e+001  2.055134e+001 
3540625000  -4.366869e+001  1.894455e+001 
3543750000  -4.452396e+001  2.228326e+001 
3546875000  -4.382385e+001  3.689317e+001 
3550000000  -4.114041e+001  3.483731e+001 
3553125000  -4.000607e+001  1.548947e+001 
3556250000  -4.156605e+001  1.230716e+001 
3559375000  -4.126762e+001  1.335154e+001 
3562500000  -4.021418e+001  3.774397e+000 
3565625000  -4.106013e+001  -1.928599e+000 
3568750000  -4.130208e+001  -1.218003e-001 
3571875000  -4.120902e+001  -1.396348e+000 
3575000000  -4.075533e+001  -7.666536e+000 
3578125000  -4.130397e+001  -1.456847e+001 
3581250000  -4.113286e+001  -1.426424e+001 
3584375000  -4.019810e+001  -1.841776e+001 
3587500000  -3.988584e+001  -2.817104e+001 
3590625000  -4.043090e+001  -3.622142e+001 
3593750000  -4.172260e+001  -3.706388e+001 
3596875000  -4.158305e+001  -3.410038e+001 
3600000000  -4.004477e+001  -3.971290e+001 
3603125000  -4.073407e+001  -5.449390e+001 
3606250000  -4.132175e+001  -5.798151e+001 
3609375000  -4.192645e+001  -6.036421e+001 
3612500000  -4.269913e+001  -6.406228e+001 
3615625000  -4.303371e+001  -6.663153e+001 
3618750000  -4.372995e+001  -6.619250e+001 
3621875000  -4.352789e+001  -6.956244e+001 
3625000000  -4.436815e+001  -7.026886e+001 
3628125000  -4.410588e+001  -7.233988e+001 
3631250000  -4.383931e+001  -7.703833e+001 
3634375000  -4.570865e+001  -7.732000e+001 
3637500000  -4.540086e+001  -7.307597e+001 
3640625000  -4.457520e+001  -6.843082e+001 
3643750000  -4.418153e+001  -7.568681e+001 
3646875000  -4.472701e+001  -8.346671e+001 
3650000000  -4.612363e+001  -8.187359e+001 
3653125000  -4.549387e+001  -8.205266e+001 
3656250000  -4.555368e+001  -8.707632e+001 
3659375000  -4.571030e+001  -8.039198e+001 
3662500000  -4.489185e+001  -8.162755e+001 
3665625000  -4.469392e+001  -8.259750e+001 
3668750000  -4.371676e+001  -8.086983e+001 
3671875000  -4.272882e+001  -8.895717e+001 
3675000000  -4.326566e+001  -9.605460e+001 
3678125000  -4.349351e+001  -9.690752e+001 
3681250000  -4.299664e+001  -9.901308e+001 
3684375000  -4.278657e+001  -1.052902e+002 
3687500000  -4.302905e+001  -1.093278e+002 
3690625000  -4.305584e+001  -1.131385e+002 
3693750000  -4.412870e+001  -1.124037e+002 
3696875000  -4.363114e+001  -1.114467e+002 
3700000000  -4.241280e+001  -1.147824e+002 
3703125000  -4.303047e+001  -1.235168e+002 
3706250000  -4.368963e+001  -1.222010e+002 
3709375000  -4.340573e+001  -1.201117e+002 
3712500000  -4.216838e+001  -1.255780e+002 
3715625000  -4.177568e+001  -1.306316e+002 
3718750000  -4.112960e+001  -1.355844e+002 
3721875000  -4.097950e+001  -1.416757e+002 
3725000000  -4.153363e+001  -1.496686e+002 
3728125000  -4.228767e+001  -1.513206e+002 
3731250000  -4.161843e+001  -1.536612e+002 
3734375000  -4.121571e+001  -1.586810e+002 
3737500000  -4.197991e+001  -1.668061e+002 
3740625000  -4.325122e+001  -1.700587e+002 
3743750000  -4.318138e+001  -1.734131e+002 
3746875000  -4.328801e+001  -1.775869e+002 
3750000000  -4.393559e+001  -1.775138e+002 
3753125000  -4.420791e+001  -1.754530e+002 
3756250000  -4.445640e+001  -1.750432e+002 
3759375000  -4.469000e+001  -1.766240e+002 
3762500000  -4.416956e+001  1.795663e+002 
3765625000  -4.479300e+001  -1.784444e+002 
3768750000  -4.500127e+001  -1.752296e+002 
3771875000  -4.326539e+001  -1.760849e+002 
3775000000  -4.335921e+001  1.780513e+002 
3778125000  -4.315954e+001  1.732063e+002 
3781250000  -4.315163e+001  1.734702e+002 
3784375000  -4.282748e+001  1.721475e+002 
3787500000  -4.215364e+001  1.720240e+002 
3790625000  -4.244448e+001  1.635695e+002 
3793750000  -4.231122e+001  1.630297e+002 
3796875000  -4.109947e+001  1.620706e+002 
3800000000  -3.960318e+001  1.593312e+002 
3803125000  -4.019974e+001  1.492963e+002 
3806250000  -4.117204e+001  1.468794e+002 
3809375000  -4.056253e+001  1.438528e+002 
3812500000  -3.979551e+001  1.374821e+002 
3815625000  -4.052807e+001  1.292841e+002 
3818750000  -4.150591e+001  1.257751e+002 
3821875000  -4.142539e+001  1.348164e+002 
3825000000  -3.936079e+001  1.377996e+002 
3828125000  -3.780703e+001  1.215069e+002 
3831250000  -3.874273e+001  1.049878e+002 
3834375000  -4.027253e+001  1.057340e+002 
3837500000  -4.111530e+001  1.091227e+002 
3840625000  -3.987029e+001  1.076444e+002 
3843750000  -3.869980e+001  9.483182e+001 
3846875000  -3.998400e+001  8.778725e+001 
3850000000  -4.129767e+001  9.481949e+001 
3853125000  -4.011700e+001  9.567638e+001 
3856250000  -4.002092e+001  8.906815e+001 
3859375000  -3.944107e+001  8.270459e+001 
3862500000  -3.942778e+001  7.529765e+001 
3865625000  -3.986456e+001  7.089632e+001 
3868750000  -3.978778e+001  6.939387e+001 
3871875000  -3.918935e+001  6.529361e+001 
3875000000  -3.938751e+001  5.600292e+001 
3878125000  -4.066238e+001  5.527326e+001 
3881250000  -4.069770e+001  5.637266e+001 
3884375000  -4.011005e+001  5.071759e+001 
3887500000  -4.040359e+001  4.838230e+001 
3890625000  -4.080633e+001  4.481196e+001 
3893750000  -4.141335e+001  4.309548e+001 
3896875000  -4.141385e+001  4.461658e+001 
3900000000  -4.174062e+001  4.170276e+001 
3903125000  -4.130242e+001  4.251138e+001 
3906250000  -4.076495e+001  3.843316e+001 
3909375000  -4.004287e+001  3.625477e+001 
3912500000  -4.005372e+001  2.619530e+001 
3915625000  -4.124445e+001  2.879171e+001 
3918750000  -4.145164e+001  2.982141e+001 
3921875000  -4.081869e+001  2.741857e+001 
3925000000  -3.967892e+001  2.348156e+001 
3928125000  -3.950399e+001  1.599897e+001 
3931250000  -3.958836e+001  1.093002e+001 
3934375000  -3.983729e+001  1.236979e+001 
3937500000  -4.011255e+001  8.968572e+000 
3940625000  -4.066618e+001  6.304064e+000 
3943750000  -3.908150e+001  7.140483e+000 
3946875000  -3.826112e+001  1.882404e+000 
3950000000  -3.931926e+001  -7.720117e+000 
3953125000  -4.004680e+001  -8.305811e+000 
3956250000  -3.878212e+001  -5.333735e+000 
3959375000  -3.767536e+001  -1.085822e+001 
3962500000  -3.737627e+001  -1.525685e+001 
3965625000  -3.710984e+001  -2.711106e+001 
3968750000  -3.827959e+001  -3.332554e+001 
3971875000  -3.844693e+001  -3.549780e+001 
3975000000  -3.774688e+001  -4.003267e+001 
3978125000  -3.800021e+001  -4.210558e+001 
3981250000  -3.761894e+001  -4.656744e+001 
3984375000  -3.821973e+001  -5.283323e+001 
3987500000  -3.856804e+001  -5.604541e+001 
3990625000  -3.864332e+001  -5.699019e+001 
3993750000  -3.879362e+001  -6.129190e+001 
3996875000  -3.881323e+001  -6.655278e+001 
4000000000  -3.937296e+001  -6.707310e+001 
4003125000  -3.983691e+001  -6.504807e+001 
4006250000  -3.838911e+001  -6.699971e+001 
4009375000  -3.720247e+001  -7.942115e+001 
4012500000  -3.869361e+001  -8.636191e+001 
4015625000  -3.978518e+001  -8.565382e+001 
4018750000  -4.031664e+001  -8.403988e+001 
4021875000  -3.935429e+001  -8.610410e+001 
4025000000  -3.904022e+001  -9.129953e+001 
4028125000  -3.900569e+001  -9.534451e+001 
4031250000  -3.965072e+001  -9.907445e+001 
4034375000  -3.971556e+001  -9.821544e+001 
4037500000  -3.943774e+001  -9.826625e+001 
4040625000  -3.908123e+001  -1.029153e+002 
4043750000  -3.936121e+001  -1.035079e+002 
4046875000  -3.892028e+001  -1.040595e+002 
4050000000  -3.848444e+001  -1.104128e+002 
4053125000  -3.873080e+001  -1.132156e+002 
4056250000  -3.946426e+001  -1.089228e+002 
4059375000  -3.806078e+001  -1.074787e+002 
4062500000  -3.664788e+001  -1.147914e+002 
4065625000  -3.665689e+001  -1.194097e+002 
4068750000  -3.616851e+001  -1.250200e+002 
4071875000  -3.551201e+001  -1.338023e+002 
4075000000  -3.608246e+001  -1.403132e+002 
4078125000  -3.671341e+001  -1.417041e+002 
4081250000  -3.607156e+001  -1.455770e+002 
4084375000  -3.563718e+001  -1.543918e+002 
4087500000  -3.618162e+001  -1.611069e+002 
4090625000  -3.684791e+001  -1.614733e+002 
4093750000  -3.650457e+001  -1.636694e+002 
4096875000  -3.621542e+001  -1.705098e+002 
4100000000  -3.693380e+001  -1.784727e+002 
4103125000  -3.790705e+001  -1.781579e+002 
4106250000  -3.769413e+001  -1.743888e+002 
4109375000  -3.661029e+001  -1.766709e+002 
4112500000  -3.619062e+001  1.757538e+002 
4115625000  -3.653448e+001  1.711794e+002 
4118750000  -3.671543e+001  1.676534e+002 
4121875000  -3.629885e+001  1.613975e+002 
4125000000  -3.688315e+001  1.552908e+002 
4128125000  -3.784672e+001  1.555294e+002 
4131250000  -3.755746e+001  1.621056e+002 
4134375000  -3.523562e+001  1.566592e+002 
4137500000  -3.529165e+001  1.369618e+002 
4140625000  -3.735851e+001  1.284347e+002 
4143750000  -3.919059e+001  1.324378e+002 
4146875000  -3.848697e+001  1.404115e+002 
4150000000  -3.747931e+001  1.357564e+002 
4153125000  -3.767333e+001  1.293222e+002 
4156250000  -3.846200e+001  1.253857e+002 
4159375000  -3.862189e+001  1.311896e+002 
4162500000  -3.765363e+001  1.357912e+002 
4165625000  -3.664067e+001  1.307241e+002 
4168750000  -3.589958e+001  1.217577e+002 
4171875000  -3.608138e+001  1.117219e+002 
4175000000  -3.666685e+001  1.063979e+002 
4178125000  -3.723445e+001  1.061080e+002 
4181250000  -3.680688e+001  1.054116e+002 
4184375000  -3.674926e+001  1.007704e+002 
4187500000  -3.665359e+001  9.719676e+001 
4190625000  -3.667131e+001  9.218896e+001 
4193750000  -3.755541e+001  8.843724e+001 
4196875000  -3.830572e+001  8.810144e+001 
4200000000  -3.925019e+001  8.970170e+001 
4203125000  -3.864533e+001  1.037520e+002 
4206250000  -3.502491e+001  1.027646e+002 
4209375000  -3.427197e+001  7.969331e+001 
4212500000  -3.628768e+001  7.088407e+001 
4215625000  -3.690926e+001  7.770183e+001 
4218750000  -3.564143e+001  8.141032e+001 
4221875000  -3.326905e+001  7.241688e+001 
4225000000  -3.465790e+001  6.022213e+001 
4228125000  -3.500143e+001  6.276019e+001 
4231250000  -3.346851e+001  5.790902e+001 
4234375000  -3.346804e+001  4.935369e+001 
4237500000  -3.298122e+001  4.495115e+001 
4240625000  -3.298682e+001  3.514837e+001 
4243750000  -3.414585e+001  2.576853e+001 
4246875000  -3.504926e+001  2.625910e+001 
4250000000  -3.481279e+001  2.694854e+001 
4253125000  -3.440366e+001  2.482620e+001 
4256250000  -3.477008e+001  1.945576e+001 
4259375000  -3.445639e+001  1.484903e+001 
4262500000  -3.457685e+001  1.106775e+001 
4265625000  -3.480583e+001  1.036343e+001 
4268750000  -3.394217e+001  4.338774e+000 
4271875000  -3.388543e+001  -2.108760e+000 
4275000000  -3.350393e+001  -1.020148e+001 
4278125000  -3.428632e+001  -2.242512e+001 
4281250000  -3.588100e+001  -2.472764e+001 
4284375000  -3.580817e+001  -2.504399e+001 
4287500000  -3.699970e+001  -2.720572e+001 
4290625000  -3.818313e+001  -1.838723e+001 
4293750000  -3.592461e+001  -1.453069e+001 
4296875000  -3.494432e+001  -2.604122e+001 
4300000000  -3.600044e+001  -3.515041e+001 
4303125000  -3.710043e+001  -3.266290e+001 
4306250000  -3.642086e+001  -2.795662e+001 
4309375000  -3.512677e+001  -2.999944e+001 
4312500000  -3.480303e+001  -3.749027e+001 
4315625000  -3.515106e+001  -4.419521e+001 
4318750000  -3.555734e+001  -4.749789e+001 
4321875000  -3.568246e+001  -4.648174e+001 
4325000000  -3.494072e+001  -4.665181e+001 
4328125000  -3.412316e+001  -5.285095e+001 
4331250000  -3.407897e+001  -6.212046e+001 
4334375000  -3.464109e+001  -6.714577e+001 
4337500000  -3.520379e+001  -6.968864e+001 
4340625000  -3.581101e+001  -6.590796e+001 
4343750000  -3.474440e+001  -6.737484e+001 
4346875000  -3.454823e+001  -7.251643e+001 
4350000000  -3.452468e+001  -8.004206e+001 
4353125000  -3.437609e+001  -8.745689e+001 
4356250000  -3.642278e+001  -8.807107e+001 
4359375000  -3.657648e+001  -7.345505e+001 
4362500000  -3.342290e+001  -7.608852e+001 
4365625000  -3.196403e+001  -9.034582e+001 
4368750000  -3.280723e+001  -1.023737e+002 
4371875000  -3.376860e+001  -1.016576e+002 
4375000000  -3.319582e+001  -1.030639e+002 
4378125000  -3.266154e+001  -1.123893e+002 
4381250000  -3.286815e+001  -1.179441e+002 
4384375000  -3.260760e+001  -1.242406e+002 
4387500000  -3.349158e+001  -1.312897e+002 
4390625000  -3.440653e+001  -1.317080e+002 
4393750000  -3.378492e+001  -1.315325e+002 
4396875000  -3.313243e+001  -1.346665e+002 
4400000000  -3.271354e+001  -1.422618e+002 
4403125000  -3.345348e+001  -1.514220e+002 
4406250000  -3.427291e+001  -1.536805e+002 
4409375000  -3.445961e+001  -1.571521e+002 
4412500000  -3.571572e+001  -1.610309e+002 
4415625000  -3.582283e+001  -1.564636e+002 
