!Agilent Technologies,E8363B,MY43030201,A.06.04.32
!Agilent E8363B: A.06.04.32
!Date: Tuesday, November 11, 2014 21:05:21
!Correction: S21(Response(S21)) 
!S1P File: Measurement: S21:
# Hz S  dB   R 50
3000000000  -3.642324e+001  -4.890312e+001 
3003125000  -3.759364e+001  -5.460751e+001 
3006250000  -3.737235e+001  -5.733283e+001 
3009375000  -3.776357e+001  -5.289725e+001 
3012500000  -3.703679e+001  -5.419609e+001 
3015625000  -3.604436e+001  -6.178066e+001 
3018750000  -3.694938e+001  -6.316045e+001 
3021875000  -3.538221e+001  -6.230994e+001 
3025000000  -3.410531e+001  -6.603192e+001 
3028125000  -3.319062e+001  -7.215775e+001 
3031250000  -3.214706e+001  -8.315017e+001 
3034375000  -3.177242e+001  -9.747968e+001 
3037500000  -3.223344e+001  -1.094712e+002 
3040625000  -3.351287e+001  -1.142710e+002 
3043750000  -3.430017e+001  -1.187208e+002 
3046875000  -3.435268e+001  -1.249023e+002 
3050000000  -3.606151e+001  -1.312467e+002 
3053125000  -3.617104e+001  -1.253161e+002 
3056250000  -3.556403e+001  -1.227125e+002 
3059375000  -3.569774e+001  -1.218116e+002 
3062500000  -3.423569e+001  -1.253911e+002 
3065625000  -3.396721e+001  -1.323653e+002 
3068750000  -3.365995e+001  -1.385686e+002 
3071875000  -3.347832e+001  -1.418086e+002 
3075000000  -3.336660e+001  -1.450077e+002 
3078125000  -3.302353e+001  -1.491750e+002 
3081250000  -3.356644e+001  -1.537493e+002 
3084375000  -3.263759e+001  -1.571838e+002 
3087500000  -3.244190e+001  -1.610198e+002 
3090625000  -3.193446e+001  -1.714082e+002 
3093750000  -3.238239e+001  -1.787861e+002 
3096875000  -3.350581e+001  1.752695e+002 
3100000000  -3.336237e+001  1.730184e+002 
3103125000  -3.365254e+001  1.738115e+002 
3106250000  -3.315397e+001  1.695183e+002 
3109375000  -3.323873e+001  1.652442e+002 
3112500000  -3.320545e+001  1.639009e+002 
3115625000  -3.292241e+001  1.586935e+002 
3118750000  -3.320039e+001  1.587551e+002 
3121875000  -3.224435e+001  1.491543e+002 
3125000000  -3.345387e+001  1.452885e+002 
3128125000  -3.442518e+001  1.523322e+002 
3131250000  -3.208236e+001  1.507482e+002 
3134375000  -3.074698e+001  1.356387e+002 
3137500000  -3.133169e+001  1.208114e+002 
3140625000  -3.285577e+001  1.177377e+002 
3143750000  -3.384119e+001  1.202174e+002 
3146875000  -3.333578e+001  1.209134e+002 
3150000000  -3.224754e+001  1.208909e+002 
3153125000  -3.229581e+001  1.118095e+002 
3156250000  -3.335719e+001  1.164972e+002 
3159375000  -3.158102e+001  1.180041e+002 
3162500000  -2.968759e+001  1.031142e+002 
3165625000  -3.071748e+001  9.157790e+001 
3168750000  -3.103931e+001  9.143922e+001 
3171875000  -3.019879e+001  8.550857e+001 
3175000000  -3.093778e+001  7.677543e+001 
3178125000  -3.063987e+001  7.757478e+001 
3181250000  -2.958110e+001  7.234501e+001 
3184375000  -2.890797e+001  5.957083e+001 
3187500000  -3.002773e+001  4.359528e+001 
3190625000  -3.279274e+001  3.600622e+001 
3193750000  -3.339843e+001  4.443437e+001 
3196875000  -3.294286e+001  4.946138e+001 
3200000000  -3.206577e+001  4.612185e+001 
3203125000  -3.125577e+001  4.060356e+001 
3206250000  -3.157365e+001  3.392727e+001 
3209375000  -3.115666e+001  2.786710e+001 
3212500000  -3.130684e+001  2.086988e+001 
3215625000  -3.137328e+001  1.625439e+001 
3218750000  -3.218956e+001  9.951283e+000 
3221875000  -3.306797e+001  4.472435e+000 
3225000000  -3.266193e+001  3.045546e+000 
3228125000  -3.301521e+001  -1.918251e+000 
3231250000  -3.369910e+001  -4.228920e+000 
3234375000  -3.334626e+001  -4.780499e+000 
3237500000  -3.340881e+001  -5.966665e+000 
3240625000  -3.301272e+001  -8.695137e+000 
3243750000  -3.264732e+001  -1.665961e+001 
3246875000  -3.301845e+001  -2.369980e+001 
3250000000  -3.342070e+001  -2.636934e+001 
3253125000  -3.352172e+001  -2.842174e+001 
3256250000  -3.323822e+001  -3.508337e+001 
3259375000  -3.347794e+001  -4.334740e+001 
3262500000  -3.455761e+001  -4.738316e+001 
3265625000  -3.524387e+001  -4.489051e+001 
3268750000  -3.511910e+001  -4.227624e+001 
3271875000  -3.481167e+001  -4.305214e+001 
3275000000  -3.375085e+001  -4.914496e+001 
3278125000  -3.414219e+001  -5.618940e+001 
3281250000  -3.432036e+001  -5.522644e+001 
3284375000  -3.383221e+001  -6.231933e+001 
3287500000  -3.412784e+001  -6.543221e+001 
3290625000  -3.426870e+001  -7.150932e+001 
3293750000  -3.411951e+001  -7.755962e+001 
3296875000  -3.507955e+001  -7.787527e+001 
3300000000  -3.485213e+001  -7.709279e+001 
3303125000  -3.371545e+001  -8.294921e+001 
3306250000  -3.352996e+001  -8.997806e+001 
3309375000  -3.329258e+001  -9.601842e+001 
3312500000  -3.334129e+001  -1.074954e+002 
3315625000  -3.436706e+001  -1.154296e+002 
3318750000  -3.583709e+001  -1.187305e+002 
3321875000  -3.680099e+001  -1.189101e+002 
3325000000  -3.729536e+001  -1.140225e+002 
3328125000  -3.698431e+001  -1.128990e+002 
3331250000  -3.572106e+001  -1.060634e+002 
3334375000  -3.298997e+001  -1.172176e+002 
3337500000  -3.307780e+001  -1.358566e+002 
3340625000  -3.444097e+001  -1.464980e+002 
3343750000  -3.645325e+001  -1.476408e+002 
3346875000  -3.670502e+001  -1.463159e+002 
3350000000  -3.594036e+001  -1.477272e+002 
3353125000  -3.607800e+001  -1.527968e+002 
3356250000  -3.564280e+001  -1.602951e+002 
3359375000  -3.636514e+001  -1.693157e+002 
3362500000  -3.762951e+001  -1.748424e+002 
3365625000  -3.796532e+001  -1.762963e+002 
3368750000  -3.876606e+001  -1.785687e+002 
3371875000  -3.901762e+001  1.790152e+002 
3375000000  -4.016575e+001  1.752370e+002 
3378125000  -4.128456e+001  1.759241e+002 
3381250000  -4.223524e+001  -1.746859e+002 
3384375000  -4.106434e+001  -1.549037e+002 
3387500000  -3.750785e+001  -1.710837e+002 
3390625000  -3.923084e+001  1.706047e+002 
3393750000  -4.047931e+001  1.735947e+002 
3396875000  -3.924987e+001  1.739891e+002 
3400000000  -3.844039e+001  1.675459e+002 
3403125000  -3.929369e+001  1.611969e+002 
3406250000  -3.969135e+001  1.608838e+002 
3409375000  -3.975099e+001  1.527522e+002 
3412500000  -4.020882e+001  1.520390e+002 
3415625000  -4.112932e+001  1.525000e+002 
3418750000  -4.106343e+001  1.535457e+002 
3421875000  -4.124890e+001  1.548917e+002 
3425000000  -4.029569e+001  1.557950e+002 
3428125000  -3.936795e+001  1.523855e+002 
3431250000  -3.925772e+001  1.453194e+002 
3434375000  -3.927632e+001  1.388916e+002 
3437500000  -3.965922e+001  1.353360e+002 
3440625000  -4.005170e+001  1.363839e+002 
3443750000  -3.888731e+001  1.376736e+002 
3446875000  -3.787490e+001  1.303145e+002 
3450000000  -3.759597e+001  1.189468e+002 
3453125000  -3.785008e+001  1.093789e+002 
3456250000  -3.900910e+001  1.032777e+002 
3459375000  -3.993019e+001  1.040188e+002 
3462500000  -3.985777e+001  1.041493e+002 
3465625000  -3.984588e+001  9.818910e+001 
3468750000  -4.028783e+001  9.522777e+001 
3471875000  -3.995136e+001  9.326845e+001 
3475000000  -3.971176e+001  8.846786e+001 
3478125000  -4.050558e+001  8.028289e+001 
3481250000  -4.115545e+001  7.754742e+001 
3484375000  -4.210248e+001  8.326473e+001 
3487500000  -4.146238e+001  8.298082e+001 
3490625000  -4.071388e+001  7.639999e+001 
3493750000  -4.130196e+001  7.060593e+001 
3496875000  -4.209731e+001  6.696962e+001 
3500000000  -4.251504e+001  7.160285e+001 
3503125000  -4.189529e+001  7.298898e+001 
3506250000  -4.056496e+001  6.973341e+001 
3509375000  -4.059774e+001  6.081990e+001 
3512500000  -4.107826e+001  5.080168e+001 
3515625000  -4.178742e+001  4.853091e+001 
3518750000  -4.263198e+001  4.882215e+001 
3521875000  -4.243212e+001  4.544159e+001 
3525000000  -4.392300e+001  4.272209e+001 
3528125000  -4.322479e+001  5.049870e+001 
3531250000  -4.209755e+001  4.999083e+001 
3534375000  -4.179044e+001  3.880285e+001 
3537500000  -4.225772e+001  3.443589e+001 
3540625000  -4.330989e+001  3.217793e+001 
3543750000  -4.423974e+001  3.693948e+001 
3546875000  -4.420720e+001  4.898182e+001 
3550000000  -4.145691e+001  4.785141e+001 
3553125000  -4.030555e+001  3.153650e+001 
3556250000  -4.143501e+001  2.443078e+001 
3559375000  -4.115627e+001  2.350080e+001 
3562500000  -4.015693e+001  1.750056e+001 
3565625000  -4.110328e+001  9.955197e+000 
3568750000  -4.135648e+001  1.216420e+001 
3571875000  -4.124675e+001  1.152916e+001 
3575000000  -4.102776e+001  4.313962e+000 
3578125000  -4.112996e+001  -2.161064e+000 
3581250000  -4.130458e+001  -1.116739e+000 
3584375000  -4.046426e+001  -5.567592e+000 
3587500000  -4.015286e+001  -1.412351e+001 
3590625000  -4.068003e+001  -2.565968e+001 
3593750000  -4.179136e+001  -2.709464e+001 
3596875000  -4.167825e+001  -2.140637e+001 
3600000000  -4.039017e+001  -2.612741e+001 
3603125000  -4.081747e+001  -4.219942e+001 
3606250000  -4.159078e+001  -4.638198e+001 
3609375000  -4.210524e+001  -4.821423e+001 
3612500000  -4.269316e+001  -5.008542e+001 
3615625000  -4.285877e+001  -5.523214e+001 
3618750000  -4.403617e+001  -5.530591e+001 
3621875000  -4.389161e+001  -5.609558e+001 
3625000000  -4.432107e+001  -5.816792e+001 
3628125000  -4.466045e+001  -6.007507e+001 
3631250000  -4.435989e+001  -6.471718e+001 
3634375000  -4.605026e+001  -6.449302e+001 
3637500000  -4.605363e+001  -6.014285e+001 
3640625000  -4.493997e+001  -5.648140e+001 
3643750000  -4.452385e+001  -6.183523e+001 
3646875000  -4.549019e+001  -6.779130e+001 
3650000000  -4.575750e+001  -6.751402e+001 
3653125000  -4.549816e+001  -6.880917e+001 
3656250000  -4.595904e+001  -6.828984e+001 
3659375000  -4.613474e+001  -6.471094e+001 
3662500000  -4.516423e+001  -6.837292e+001 
3665625000  -4.451022e+001  -6.688241e+001 
3668750000  -4.361025e+001  -6.759351e+001 
3671875000  -4.249375e+001  -7.394489e+001 
3675000000  -4.311725e+001  -8.277326e+001 
3678125000  -4.317267e+001  -8.164697e+001 
3681250000  -4.282650e+001  -8.484921e+001 
3684375000  -4.275139e+001  -9.105122e+001 
3687500000  -4.292146e+001  -9.499026e+001 
3690625000  -4.285787e+001  -9.858018e+001 
3693750000  -4.372513e+001  -9.622580e+001 
3696875000  -4.401354e+001  -9.908426e+001 
3700000000  -4.258092e+001  -1.033014e+002 
3703125000  -4.295681e+001  -1.099463e+002 
3706250000  -4.381786e+001  -1.077848e+002 
3709375000  -4.306593e+001  -1.067690e+002 
3712500000  -4.248662e+001  -1.111157e+002 
3715625000  -4.153056e+001  -1.189077e+002 
3718750000  -4.132032e+001  -1.244196e+002 
3721875000  -4.135504e+001  -1.299770e+002 
3725000000  -4.174060e+001  -1.378221e+002 
3728125000  -4.208735e+001  -1.379555e+002 
3731250000  -4.195020e+001  -1.388497e+002 
3734375000  -4.137223e+001  -1.478232e+002 
3737500000  -4.200936e+001  -1.555358e+002 
3740625000  -4.313834e+001  -1.564028e+002 
3743750000  -4.295652e+001  -1.609848e+002 
3746875000  -4.340903e+001  -1.634013e+002 
3750000000  -4.429869e+001  -1.636026e+002 
3753125000  -4.427757e+001  -1.622516e+002 
3756250000  -4.484179e+001  -1.641075e+002 
3759375000  -4.450801e+001  -1.598153e+002 
3762500000  -4.415078e+001  -1.628327e+002 
3765625000  -4.469260e+001  -1.669731e+002 
3768750000  -4.454220e+001  -1.603812e+002 
3771875000  -4.340165e+001  -1.627743e+002 
3775000000  -4.322443e+001  -1.678864e+002 
3778125000  -4.345549e+001  -1.698437e+002 
3781250000  -4.301129e+001  -1.734576e+002 
3784375000  -4.255111e+001  -1.718163e+002 
3787500000  -4.207571e+001  -1.739266e+002 
3790625000  -4.243870e+001  1.780081e+002 
3793750000  -4.235504e+001  1.760396e+002 
3796875000  -4.133979e+001  1.756507e+002 
3800000000  -3.962625e+001  1.726334e+002 
3803125000  -4.028175e+001  1.626112e+002 
3806250000  -4.099315e+001  1.607644e+002 
3809375000  -4.053994e+001  1.592720e+002 
3812500000  -3.985690e+001  1.523987e+002 
3815625000  -4.044274e+001  1.418835e+002 
3818750000  -4.135162e+001  1.438642e+002 
3821875000  -4.127436e+001  1.499787e+002 
3825000000  -3.947609e+001  1.519547e+002 
3828125000  -3.797457e+001  1.363120e+002 
3831250000  -3.889294e+001  1.211695e+002 
3834375000  -4.024120e+001  1.207041e+002 
3837500000  -4.101475e+001  1.217471e+002 
3840625000  -3.984935e+001  1.221845e+002 
3843750000  -3.896180e+001  1.102913e+002 
3846875000  -3.957916e+001  1.028308e+002 
3850000000  -4.106950e+001  1.066030e+002 
3853125000  -4.047627e+001  1.093058e+002 
3856250000  -4.016523e+001  1.028161e+002 
3859375000  -3.937828e+001  9.855545e+001 
3862500000  -3.944208e+001  9.012141e+001 
3865625000  -3.979445e+001  8.527096e+001 
3868750000  -3.964775e+001  8.362325e+001 
3871875000  -3.917635e+001  8.024628e+001 
3875000000  -3.932568e+001  7.080099e+001 
3878125000  -4.062299e+001  6.952405e+001 
3881250000  -4.073562e+001  7.222678e+001 
3884375000  -3.995715e+001  6.619456e+001 
3887500000  -4.040028e+001  6.156153e+001 
3890625000  -4.100977e+001  5.855973e+001 
3893750000  -4.099923e+001  5.710870e+001 
3896875000  -4.119491e+001  5.867174e+001 
3900000000  -4.190968e+001  5.723525e+001 
3903125000  -4.121174e+001  5.444934e+001 
3906250000  -4.092542e+001  5.386334e+001 
3909375000  -4.041532e+001  4.905423e+001 
3912500000  -4.002854e+001  4.162825e+001 
3915625000  -4.154013e+001  4.439031e+001 
3918750000  -4.116894e+001  4.313739e+001 
3921875000  -4.073513e+001  4.058172e+001 
3925000000  -3.982442e+001  3.820753e+001 
3928125000  -3.918283e+001  3.105202e+001 
3931250000  -3.982249e+001  2.600760e+001 
3934375000  -3.994129e+001  2.619975e+001 
3937500000  -4.021753e+001  2.359326e+001 
3940625000  -4.047538e+001  2.244354e+001 
3943750000  -3.950358e+001  2.203259e+001 
3946875000  -3.825793e+001  1.574250e+001 
3950000000  -3.910650e+001  8.038153e+000 
3953125000  -3.963077e+001  5.631458e+000 
3956250000  -3.902497e+001  7.715017e+000 
3959375000  -3.774505e+001  4.327046e+000 
3962500000  -3.738937e+001  -9.731790e-001 
3965625000  -3.687753e+001  -1.108751e+001 
3968750000  -3.815453e+001  -1.897583e+001 
3971875000  -3.854086e+001  -2.097672e+001 
3975000000  -3.795650e+001  -2.379296e+001 
3978125000  -3.766194e+001  -2.555703e+001 
3981250000  -3.776902e+001  -3.249311e+001 
3984375000  -3.795734e+001  -3.762757e+001 
3987500000  -3.852367e+001  -4.141828e+001 
3990625000  -3.855527e+001  -4.227353e+001 
3993750000  -3.920727e+001  -4.748370e+001 
3996875000  -3.919039e+001  -5.066800e+001 
4000000000  -3.920716e+001  -5.284413e+001 
4003125000  -3.970893e+001  -5.009443e+001 
4006250000  -3.842566e+001  -5.124497e+001 
4009375000  -3.723252e+001  -6.500878e+001 
4012500000  -3.874394e+001  -7.187858e+001 
4015625000  -3.990234e+001  -7.105527e+001 
4018750000  -3.986911e+001  -7.085119e+001 
4021875000  -3.952118e+001  -7.147440e+001 
4025000000  -3.895834e+001  -7.757031e+001 
4028125000  -3.911721e+001  -8.185073e+001 
4031250000  -3.968537e+001  -8.305424e+001 
4034375000  -3.980793e+001  -8.419786e+001 
4037500000  -3.911464e+001  -8.398840e+001 
4040625000  -3.933734e+001  -8.825747e+001 
4043750000  -3.958209e+001  -8.842439e+001 
4046875000  -3.914967e+001  -8.931266e+001 
4050000000  -3.854014e+001  -9.603191e+001 
4053125000  -3.898873e+001  -1.004305e+002 
4056250000  -3.946172e+001  -9.362627e+001 
4059375000  -3.797118e+001  -9.322904e+001 
4062500000  -3.690232e+001  -9.938422e+001 
4065625000  -3.679289e+001  -1.036795e+002 
4068750000  -3.651869e+001  -1.103547e+002 
4071875000  -3.559454e+001  -1.190532e+002 
4075000000  -3.616455e+001  -1.264526e+002 
4078125000  -3.639260e+001  -1.285128e+002 
4081250000  -3.606064e+001  -1.315255e+002 
4084375000  -3.570675e+001  -1.384572e+002 
4087500000  -3.621923e+001  -1.455644e+002 
4090625000  -3.688636e+001  -1.471592e+002 
4093750000  -3.648030e+001  -1.473275e+002 
4096875000  -3.613066e+001  -1.541248e+002 
4100000000  -3.703719e+001  -1.635495e+002 
4103125000  -3.765921e+001  -1.634094e+002 
4106250000  -3.771602e+001  -1.581613e+002 
4109375000  -3.663648e+001  -1.606537e+002 
4112500000  -3.616054e+001  -1.679355e+002 
4115625000  -3.647459e+001  -1.725637e+002 
4118750000  -3.659161e+001  -1.775020e+002 
4121875000  -3.637496e+001  1.768082e+002 
4125000000  -3.681298e+001  1.710822e+002 
4128125000  -3.773674e+001  1.710143e+002 
4131250000  -3.751538e+001  1.776245e+002 
4134375000  -3.528380e+001  1.710796e+002 
4137500000  -3.509347e+001  1.532215e+002 
4140625000  -3.759881e+001  1.437505e+002 
4143750000  -3.873781e+001  1.491408e+002 
4146875000  -3.859492e+001  1.542871e+002 
4150000000  -3.727529e+001  1.509027e+002 
4153125000  -3.759916e+001  1.441837e+002 
4156250000  -3.858892e+001  1.422393e+002 
4159375000  -3.887237e+001  1.461921e+002 
4162500000  -3.768528e+001  1.493941e+002 
4165625000  -3.663788e+001  1.449730e+002 
4168750000  -3.580669e+001  1.362245e+002 
4171875000  -3.578478e+001  1.269118e+002 
4175000000  -3.676857e+001  1.210739e+002 
4178125000  -3.733681e+001  1.219741e+002 
4181250000  -3.695033e+001  1.211531e+002 
4184375000  -3.689273e+001  1.158092e+002 
4187500000  -3.682056e+001  1.136075e+002 
4190625000  -3.674155e+001  1.073930e+002 
4193750000  -3.748209e+001  1.044404e+002 
4196875000  -3.826373e+001  1.033306e+002 
4200000000  -3.896995e+001  1.048548e+002 
4203125000  -3.869923e+001  1.174737e+002 
4206250000  -3.537652e+001  1.188621e+002 
4209375000  -3.417266e+001  9.596793e+001 
4212500000  -3.635504e+001  8.639614e+001 
4215625000  -3.720769e+001  9.313892e+001 
4218750000  -3.554712e+001  9.848452e+001 
4221875000  -3.335329e+001  8.844398e+001 
4225000000  -3.464131e+001  7.445943e+001 
4228125000  -3.520517e+001  7.863905e+001 
4231250000  -3.342908e+001  7.513839e+001 
4234375000  -3.343786e+001  6.497928e+001 
4237500000  -3.292498e+001  6.062600e+001 
4240625000  -3.301954e+001  4.964777e+001 
4243750000  -3.396492e+001  4.218075e+001 
4246875000  -3.486788e+001  4.207456e+001 
4250000000  -3.495984e+001  4.328043e+001 
4253125000  -3.428182e+001  3.917136e+001 
4256250000  -3.474289e+001  3.460743e+001 
4259375000  -3.432889e+001  3.005845e+001 
4262500000  -3.468177e+001  2.723219e+001 
4265625000  -3.488634e+001  2.534109e+001 
4268750000  -3.389764e+001  2.128756e+001 
4271875000  -3.382434e+001  1.384175e+001 
4275000000  -3.326712e+001  6.199024e+000 
4278125000  -3.403424e+001  -6.350698e+000 
4281250000  -3.586627e+001  -7.548163e+000 
4284375000  -3.558222e+001  -8.643520e+000 
4287500000  -3.685038e+001  -1.212184e+001 
4290625000  -3.796279e+001  -2.763869e+000 
4293750000  -3.599491e+001  1.356067e+000 
4296875000  -3.501564e+001  -1.110823e+001 
4300000000  -3.598125e+001  -1.841274e+001 
4303125000  -3.721259e+001  -1.814122e+001 
4306250000  -3.642162e+001  -1.248229e+001 
4309375000  -3.526302e+001  -1.391865e+001 
4312500000  -3.485348e+001  -2.205319e+001 
4315625000  -3.516794e+001  -2.783255e+001 
4318750000  -3.537155e+001  -3.162572e+001 
4321875000  -3.568928e+001  -3.119587e+001 
4325000000  -3.506847e+001  -3.069434e+001 
4328125000  -3.435155e+001  -3.713631e+001 
4331250000  -3.420248e+001  -4.464823e+001 
4334375000  -3.454182e+001  -5.135141e+001 
4337500000  -3.537722e+001  -5.363799e+001 
4340625000  -3.578827e+001  -5.056510e+001 
4343750000  -3.485583e+001  -5.236873e+001 
4346875000  -3.448027e+001  -5.656730e+001 
4350000000  -3.431894e+001  -6.252962e+001 
4353125000  -3.443238e+001  -7.231709e+001 
4356250000  -3.621202e+001  -7.329104e+001 
4359375000  -3.639182e+001  -5.891652e+001 
4362500000  -3.344558e+001  -6.085930e+001 
4365625000  -3.191078e+001  -7.371293e+001 
4368750000  -3.277798e+001  -8.598611e+001 
4371875000  -3.384272e+001  -8.554324e+001 
4375000000  -3.331776e+001  -8.731684e+001 
4378125000  -3.255551e+001  -9.461057e+001 
4381250000  -3.292413e+001  -1.011835e+002 
4384375000  -3.266196e+001  -1.081726e+002 
4387500000  -3.342009e+001  -1.143605e+002 
4390625000  -3.437551e+001  -1.150468e+002 
4393750000  -3.373744e+001  -1.134755e+002 
4396875000  -3.306615e+001  -1.176573e+002 
4400000000  -3.267335e+001  -1.274218e+002 
4403125000  -3.330511e+001  -1.354960e+002 
4406250000  -3.420384e+001  -1.383063e+002 
4409375000  -3.424377e+001  -1.405678e+002 
4412500000  -3.546093e+001  -1.448290e+002 
4415625000  -3.559235e+001  -1.407304e+002 
