!Agilent Technologies,E8363B,MY43030201,A.06.04.32
!Agilent E8363B: A.06.04.32
!Date: Tuesday, November 11, 2014 21:08:28
!Correction: S21(Response(S21)) 
!S1P File: Measurement: S21:
# Hz S  dB   R 50
3000000000  -3.644465e+001  -5.373130e+001 
3003125000  -3.763836e+001  -5.928988e+001 
3006250000  -3.754657e+001  -6.251273e+001 
3009375000  -3.782959e+001  -5.836884e+001 
3012500000  -3.704700e+001  -5.885152e+001 
3015625000  -3.613018e+001  -6.712538e+001 
3018750000  -3.697936e+001  -6.879283e+001 
3021875000  -3.535912e+001  -6.766769e+001 
3025000000  -3.418828e+001  -7.102088e+001 
3028125000  -3.310960e+001  -7.718702e+001 
3031250000  -3.206979e+001  -8.866267e+001 
3034375000  -3.183341e+001  -1.022411e+002 
3037500000  -3.229615e+001  -1.143158e+002 
3040625000  -3.364608e+001  -1.192774e+002 
3043750000  -3.427718e+001  -1.242076e+002 
3046875000  -3.453204e+001  -1.301323e+002 
3050000000  -3.612233e+001  -1.363268e+002 
3053125000  -3.594619e+001  -1.300900e+002 
3056250000  -3.552137e+001  -1.276654e+002 
3059375000  -3.551301e+001  -1.283218e+002 
3062500000  -3.417197e+001  -1.311310e+002 
3065625000  -3.392959e+001  -1.367064e+002 
3068750000  -3.370672e+001  -1.438042e+002 
3071875000  -3.364948e+001  -1.462256e+002 
3075000000  -3.329288e+001  -1.507096e+002 
3078125000  -3.303004e+001  -1.544512e+002 
3081250000  -3.352168e+001  -1.592899e+002 
3084375000  -3.263270e+001  -1.626273e+002 
3087500000  -3.246459e+001  -1.668657e+002 
3090625000  -3.200505e+001  -1.769203e+002 
3093750000  -3.247898e+001  1.756941e+002 
3096875000  -3.346074e+001  1.702873e+002 
3100000000  -3.337001e+001  1.683068e+002 
3103125000  -3.367992e+001  1.688740e+002 
3106250000  -3.318255e+001  1.643826e+002 
3109375000  -3.320438e+001  1.603476e+002 
3112500000  -3.324948e+001  1.579078e+002 
3115625000  -3.293837e+001  1.534324e+002 
3118750000  -3.323799e+001  1.531615e+002 
3121875000  -3.231717e+001  1.441119e+002 
3125000000  -3.354607e+001  1.404010e+002 
3128125000  -3.449633e+001  1.473649e+002 
3131250000  -3.212240e+001  1.446205e+002 
3134375000  -3.076171e+001  1.298143e+002 
3137500000  -3.135763e+001  1.157533e+002 
3140625000  -3.282461e+001  1.130025e+002 
3143750000  -3.385334e+001  1.140094e+002 
3146875000  -3.334245e+001  1.154778e+002 
3150000000  -3.227041e+001  1.150795e+002 
3153125000  -3.231728e+001  1.064742e+002 
3156250000  -3.339777e+001  1.113536e+002 
3159375000  -3.161096e+001  1.125486e+002 
3162500000  -2.968004e+001  9.781521e+001 
3165625000  -3.076360e+001  8.600021e+001 
3168750000  -3.096612e+001  8.613322e+001 
3171875000  -3.019439e+001  8.016811e+001 
3175000000  -3.092992e+001  7.166882e+001 
3178125000  -3.071978e+001  7.234705e+001 
3181250000  -2.959790e+001  6.668864e+001 
3184375000  -2.892696e+001  5.380440e+001 
3187500000  -3.010460e+001  3.826596e+001 
3190625000  -3.285780e+001  3.035184e+001 
3193750000  -3.331652e+001  3.943320e+001 
3196875000  -3.304513e+001  4.384259e+001 
3200000000  -3.206245e+001  4.097534e+001 
3203125000  -3.129504e+001  3.503438e+001 
3206250000  -3.159464e+001  2.844462e+001 
3209375000  -3.110730e+001  2.223806e+001 
3212500000  -3.143468e+001  1.517792e+001 
3215625000  -3.143946e+001  1.159085e+001 
3218750000  -3.222141e+001  3.811218e+000 
3221875000  -3.297608e+001  -1.040307e+000 
3225000000  -3.261251e+001  -2.382193e+000 
3228125000  -3.302823e+001  -7.846660e+000 
3231250000  -3.372835e+001  -1.051340e+001 
3234375000  -3.342676e+001  -1.007721e+001 
3237500000  -3.339458e+001  -1.187089e+001 
3240625000  -3.302570e+001  -1.428976e+001 
3243750000  -3.261942e+001  -2.228603e+001 
3246875000  -3.301368e+001  -2.944530e+001 
3250000000  -3.346573e+001  -3.180836e+001 
3253125000  -3.348960e+001  -3.335910e+001 
3256250000  -3.316336e+001  -4.097781e+001 
3259375000  -3.352427e+001  -4.946817e+001 
3262500000  -3.461090e+001  -5.336847e+001 
3265625000  -3.521302e+001  -4.978036e+001 
3268750000  -3.512245e+001  -4.845114e+001 
3271875000  -3.474976e+001  -4.866758e+001 
3275000000  -3.383451e+001  -5.511164e+001 
3278125000  -3.420182e+001  -6.154375e+001 
3281250000  -3.430008e+001  -6.128955e+001 
3284375000  -3.385904e+001  -6.758769e+001 
3287500000  -3.413052e+001  -7.122630e+001 
3290625000  -3.429569e+001  -7.742497e+001 
3293750000  -3.419288e+001  -8.323254e+001 
3296875000  -3.519870e+001  -8.375734e+001 
3300000000  -3.485661e+001  -8.273746e+001 
3303125000  -3.364749e+001  -8.851296e+001 
3306250000  -3.355097e+001  -9.530360e+001 
3309375000  -3.318980e+001  -1.021646e+002 
3312500000  -3.334081e+001  -1.128317e+002 
3315625000  -3.433736e+001  -1.212446e+002 
3318750000  -3.567730e+001  -1.238336e+002 
3321875000  -3.698918e+001  -1.247044e+002 
3325000000  -3.725503e+001  -1.185435e+002 
3328125000  -3.704043e+001  -1.182022e+002 
3331250000  -3.551944e+001  -1.120651e+002 
3334375000  -3.296205e+001  -1.221733e+002 
3337500000  -3.313366e+001  -1.423284e+002 
3340625000  -3.452819e+001  -1.529943e+002 
3343750000  -3.649515e+001  -1.532928e+002 
3346875000  -3.667076e+001  -1.514035e+002 
3350000000  -3.606826e+001  -1.539551e+002 
3353125000  -3.594294e+001  -1.596962e+002 
3356250000  -3.562365e+001  -1.671086e+002 
3359375000  -3.641269e+001  -1.759937e+002 
3362500000  -3.743797e+001  1.791273e+002 
3365625000  -3.785175e+001  1.769689e+002 
3368750000  -3.885948e+001  1.753570e+002 
3371875000  -3.905522e+001  1.739674e+002 
3375000000  -4.047576e+001  1.693201e+002 
3378125000  -4.128741e+001  1.695992e+002 
3381250000  -4.251369e+001  -1.799310e+002 
3384375000  -4.071454e+001  -1.593412e+002 
3387500000  -3.737361e+001  -1.765727e+002 
3390625000  -3.918839e+001  1.653222e+002 
3393750000  -4.041237e+001  1.660543e+002 
3396875000  -3.905145e+001  1.679265e+002 
3400000000  -3.887392e+001  1.602744e+002 
3403125000  -3.939360e+001  1.551122e+002 
3406250000  -3.975851e+001  1.554507e+002 
3409375000  -3.966062e+001  1.465625e+002 
3412500000  -4.025954e+001  1.467257e+002 
3415625000  -4.115459e+001  1.454560e+002 
3418750000  -4.106327e+001  1.471753e+002 
3421875000  -4.114994e+001  1.496564e+002 
3425000000  -4.034098e+001  1.506221e+002 
3428125000  -3.948190e+001  1.456253e+002 
3431250000  -3.933451e+001  1.388586e+002 
3434375000  -3.911504e+001  1.342368e+002 
3437500000  -3.975609e+001  1.293146e+002 
3440625000  -3.995243e+001  1.323079e+002 
3443750000  -3.880880e+001  1.317850e+002 
3446875000  -3.780044e+001  1.237850e+002 
3450000000  -3.763238e+001  1.134083e+002 
3453125000  -3.781594e+001  1.033743e+002 
3456250000  -3.912459e+001  9.680993e+001 
3459375000  -4.010601e+001  9.678553e+001 
3462500000  -4.002665e+001  9.763158e+001 
3465625000  -3.974634e+001  9.244927e+001 
3468750000  -4.004456e+001  8.845268e+001 
3471875000  -4.025936e+001  8.787585e+001 
3475000000  -3.976636e+001  8.283619e+001 
3478125000  -4.043420e+001  7.404960e+001 
3481250000  -4.144304e+001  7.177146e+001 
3484375000  -4.231227e+001  7.546895e+001 
3487500000  -4.143771e+001  7.520157e+001 
3490625000  -4.072809e+001  7.001588e+001 
3493750000  -4.135147e+001  6.394862e+001 
3496875000  -4.176396e+001  6.253375e+001 
3500000000  -4.280395e+001  6.535042e+001 
3503125000  -4.190079e+001  6.824385e+001 
3506250000  -4.076986e+001  6.366639e+001 
3509375000  -4.029718e+001  5.275510e+001 
3512500000  -4.102686e+001  4.364828e+001 
3515625000  -4.238879e+001  4.292175e+001 
3518750000  -4.245916e+001  4.421895e+001 
3521875000  -4.251783e+001  4.227734e+001 
3525000000  -4.309484e+001  3.664479e+001 
3528125000  -4.382583e+001  4.350938e+001 
3531250000  -4.211944e+001  4.214102e+001 
3534375000  -4.188785e+001  3.145565e+001 
3537500000  -4.262927e+001  2.648204e+001 
3540625000  -4.321442e+001  2.541106e+001 
3543750000  -4.387773e+001  3.027911e+001 
3546875000  -4.405787e+001  4.145826e+001 
3550000000  -4.151015e+001  4.285882e+001 
3553125000  -4.006034e+001  2.496549e+001 
3556250000  -4.150861e+001  1.770970e+001 
3559375000  -4.133673e+001  2.031117e+001 
3562500000  -4.021278e+001  1.198916e+001 
3565625000  -4.118002e+001  2.968448e+000 
3568750000  -4.137347e+001  6.215405e+000 
3571875000  -4.112648e+001  4.457422e+000 
3575000000  -4.062321e+001  -3.960866e+000 
3578125000  -4.134898e+001  -7.505774e+000 
3581250000  -4.142985e+001  -9.546699e+000 
3584375000  -4.061600e+001  -1.179829e+001 
3587500000  -4.012733e+001  -2.183866e+001 
3590625000  -4.063758e+001  -3.006040e+001 
3593750000  -4.190768e+001  -3.414025e+001 
3596875000  -4.169975e+001  -2.770526e+001 
3600000000  -4.058644e+001  -3.346397e+001 
3603125000  -4.044997e+001  -4.797141e+001 
3606250000  -4.182082e+001  -5.157549e+001 
3609375000  -4.221445e+001  -5.524898e+001 
3612500000  -4.293109e+001  -5.873589e+001 
3615625000  -4.317175e+001  -6.045901e+001 
3618750000  -4.366415e+001  -5.895605e+001 
3621875000  -4.381702e+001  -6.511022e+001 
3625000000  -4.443653e+001  -6.486401e+001 
3628125000  -4.429625e+001  -6.398860e+001 
3631250000  -4.452333e+001  -7.026789e+001 
3634375000  -4.586693e+001  -6.994103e+001 
3637500000  -4.562405e+001  -6.472578e+001 
3640625000  -4.480175e+001  -6.320650e+001 
3643750000  -4.425400e+001  -6.835019e+001 
3646875000  -4.510437e+001  -7.675745e+001 
3650000000  -4.561047e+001  -7.297646e+001 
3653125000  -4.564795e+001  -7.403492e+001 
3656250000  -4.583918e+001  -7.468599e+001 
3659375000  -4.603359e+001  -7.317462e+001 
3662500000  -4.519475e+001  -7.375069e+001 
3665625000  -4.502332e+001  -7.504485e+001 
3668750000  -4.414252e+001  -7.540672e+001 
3671875000  -4.240093e+001  -8.123281e+001 
3675000000  -4.283767e+001  -8.906139e+001 
3678125000  -4.307681e+001  -9.074458e+001 
3681250000  -4.262653e+001  -9.302895e+001 
3684375000  -4.254184e+001  -9.703242e+001 
3687500000  -4.285196e+001  -1.016721e+002 
3690625000  -4.304028e+001  -1.046547e+002 
3693750000  -4.410843e+001  -1.050476e+002 
3696875000  -4.344742e+001  -1.041364e+002 
3700000000  -4.271393e+001  -1.105056e+002 
3703125000  -4.268449e+001  -1.168902e+002 
3706250000  -4.382619e+001  -1.149111e+002 
3709375000  -4.311711e+001  -1.162379e+002 
3712500000  -4.220875e+001  -1.179351e+002 
3715625000  -4.143113e+001  -1.237591e+002 
3718750000  -4.141201e+001  -1.328675e+002 
3721875000  -4.109035e+001  -1.368573e+002 
3725000000  -4.158497e+001  -1.432457e+002 
3728125000  -4.205353e+001  -1.451819e+002 
3731250000  -4.169830e+001  -1.475634e+002 
3734375000  -4.114671e+001  -1.560867e+002 
3737500000  -4.175706e+001  -1.603880e+002 
3740625000  -4.330892e+001  -1.625096e+002 
3743750000  -4.313255e+001  -1.656995e+002 
3746875000  -4.387679e+001  -1.719980e+002 
3750000000  -4.419798e+001  -1.700057e+002 
3753125000  -4.436811e+001  -1.708241e+002 
3756250000  -4.464070e+001  -1.689034e+002 
3759375000  -4.448232e+001  -1.688701e+002 
3762500000  -4.436016e+001  -1.729900e+002 
3765625000  -4.457890e+001  -1.737935e+002 
3768750000  -4.454300e+001  -1.679776e+002 
3771875000  -4.298974e+001  -1.678177e+002 
3775000000  -4.282521e+001  -1.760585e+002 
3778125000  -4.340200e+001  -1.762136e+002 
3781250000  -4.287282e+001  -1.790270e+002 
3784375000  -4.280148e+001  -1.779804e+002 
3787500000  -4.203526e+001  1.781776e+002 
3790625000  -4.277919e+001  1.717299e+002 
3793750000  -4.221053e+001  1.709680e+002 
3796875000  -4.123199e+001  1.696346e+002 
3800000000  -3.943812e+001  1.666495e+002 
3803125000  -4.021570e+001  1.564459e+002 
3806250000  -4.066785e+001  1.538152e+002 
3809375000  -4.058468e+001  1.526298e+002 
3812500000  -3.979387e+001  1.461337e+002 
3815625000  -4.041776e+001  1.336487e+002 
3818750000  -4.124884e+001  1.365746e+002 
3821875000  -4.091230e+001  1.438418e+002 
3825000000  -3.927522e+001  1.455710e+002 
3828125000  -3.795982e+001  1.296617e+002 
3831250000  -3.852791e+001  1.124436e+002 
3834375000  -4.023093e+001  1.128055e+002 
3837500000  -4.117548e+001  1.157823e+002 
3840625000  -3.976091e+001  1.147782e+002 
3843750000  -3.880668e+001  1.007731e+002 
3846875000  -3.981673e+001  9.460497e+001 
3850000000  -4.109326e+001  1.008993e+002 
3853125000  -4.042628e+001  1.009438e+002 
3856250000  -4.025214e+001  9.560207e+001 
3859375000  -3.962454e+001  9.058727e+001 
3862500000  -3.927976e+001  8.128875e+001 
3865625000  -3.993400e+001  7.770961e+001 
3868750000  -3.987822e+001  7.663542e+001 
3871875000  -3.935340e+001  7.071215e+001 
3875000000  -3.953996e+001  6.292207e+001 
3878125000  -4.062152e+001  6.138653e+001 
3881250000  -4.060990e+001  6.241753e+001 
3884375000  -4.026944e+001  5.966366e+001 
3887500000  -4.049192e+001  5.423390e+001 
3890625000  -4.122137e+001  5.161562e+001 
3893750000  -4.101077e+001  5.083853e+001 
3896875000  -4.185145e+001  5.208234e+001 
3900000000  -4.154134e+001  5.025453e+001 
3903125000  -4.114835e+001  4.943871e+001 
3906250000  -4.086586e+001  4.536577e+001 
3909375000  -4.003857e+001  4.343871e+001 
3912500000  -4.025280e+001  3.452859e+001 
3915625000  -4.140078e+001  3.561924e+001 
3918750000  -4.124632e+001  3.766750e+001 
3921875000  -4.053125e+001  3.168838e+001 
3925000000  -3.969174e+001  3.183470e+001 
3928125000  -3.921658e+001  2.343547e+001 
3931250000  -3.946162e+001  2.002338e+001 
3934375000  -3.977356e+001  1.734275e+001 
3937500000  -4.004147e+001  1.707439e+001 
3940625000  -4.053377e+001  1.535469e+001 
3943750000  -3.918633e+001  1.384524e+001 
3946875000  -3.812291e+001  8.031456e+000 
3950000000  -3.905161e+001  1.910395e+000 
3953125000  -3.987451e+001  -1.273848e+000 
3956250000  -3.881598e+001  1.914177e+000 
3959375000  -3.777158e+001  -3.305287e+000 
3962500000  -3.715314e+001  -9.196536e+000 
3965625000  -3.707682e+001  -1.858847e+001 
3968750000  -3.795975e+001  -2.524857e+001 
3971875000  -3.843497e+001  -2.857407e+001 
3975000000  -3.798004e+001  -3.005636e+001 
3978125000  -3.770105e+001  -3.443227e+001 
3981250000  -3.769732e+001  -3.978060e+001 
3984375000  -3.796581e+001  -4.688894e+001 
3987500000  -3.856034e+001  -4.871912e+001 
3990625000  -3.848484e+001  -5.079963e+001 
3993750000  -3.897478e+001  -5.488726e+001 
3996875000  -3.896362e+001  -5.946186e+001 
4000000000  -3.925509e+001  -6.047349e+001 
4003125000  -3.967429e+001  -5.801647e+001 
4006250000  -3.838274e+001  -5.925249e+001 
4009375000  -3.735027e+001  -7.202801e+001 
4012500000  -3.855234e+001  -7.913814e+001 
4015625000  -4.008145e+001  -7.827135e+001 
4018750000  -4.025296e+001  -7.582551e+001 
4021875000  -3.938389e+001  -8.172833e+001 
4025000000  -3.908625e+001  -8.512561e+001 
4028125000  -3.904109e+001  -8.922314e+001 
4031250000  -3.965943e+001  -9.161292e+001 
4034375000  -3.981137e+001  -9.402550e+001 
4037500000  -3.930007e+001  -9.120454e+001 
4040625000  -3.916940e+001  -9.520850e+001 
4043750000  -3.963247e+001  -9.561746e+001 
4046875000  -3.905453e+001  -9.576848e+001 
4050000000  -3.859071e+001  -1.025904e+002 
4053125000  -3.893826e+001  -1.052002e+002 
4056250000  -3.951123e+001  -1.020608e+002 
4059375000  -3.807102e+001  -1.007401e+002 
4062500000  -3.677505e+001  -1.058828e+002 
4065625000  -3.659619e+001  -1.128621e+002 
4068750000  -3.657426e+001  -1.180751e+002 
4071875000  -3.553918e+001  -1.268384e+002 
4075000000  -3.596706e+001  -1.329471e+002 
4078125000  -3.665793e+001  -1.361340e+002 
4081250000  -3.592551e+001  -1.394177e+002 
4084375000  -3.549867e+001  -1.474537e+002 
4087500000  -3.607619e+001  -1.532158e+002 
4090625000  -3.674041e+001  -1.554232e+002 
4093750000  -3.651348e+001  -1.561025e+002 
4096875000  -3.598018e+001  -1.642911e+002 
4100000000  -3.680479e+001  -1.719966e+002 
4103125000  -3.790120e+001  -1.706304e+002 
4106250000  -3.760885e+001  -1.657157e+002 
4109375000  -3.664967e+001  -1.690459e+002 
4112500000  -3.624750e+001  -1.770067e+002 
4115625000  -3.657709e+001  1.781182e+002 
4118750000  -3.672836e+001  1.743920e+002 
4121875000  -3.633181e+001  1.680739e+002 
4125000000  -3.691726e+001  1.621146e+002 
4128125000  -3.784891e+001  1.619182e+002 
4131250000  -3.755423e+001  1.708703e+002 
4134375000  -3.524529e+001  1.635803e+002 
4137500000  -3.516546e+001  1.425172e+002 
4140625000  -3.742126e+001  1.350265e+002 
4143750000  -3.871704e+001  1.383069e+002 
4146875000  -3.864286e+001  1.461709e+002 
4150000000  -3.756699e+001  1.413973e+002 
4153125000  -3.755559e+001  1.359878e+002 
4156250000  -3.838548e+001  1.317000e+002 
4159375000  -3.897684e+001  1.388397e+002 
4162500000  -3.767300e+001  1.424301e+002 
4165625000  -3.662706e+001  1.361577e+002 
4168750000  -3.600169e+001  1.290585e+002 
4171875000  -3.596943e+001  1.181535e+002 
4175000000  -3.654409e+001  1.133828e+002 
4178125000  -3.730400e+001  1.130001e+002 
4181250000  -3.708130e+001  1.123713e+002 
4184375000  -3.691710e+001  1.086039e+002 
4187500000  -3.707580e+001  1.058707e+002 
4190625000  -3.666792e+001  1.000190e+002 
4193750000  -3.764394e+001  9.664639e+001 
4196875000  -3.803630e+001  9.440116e+001 
4200000000  -3.925010e+001  9.641196e+001 
4203125000  -3.875618e+001  1.100882e+002 
4206250000  -3.530420e+001  1.089629e+002 
4209375000  -3.432492e+001  8.783221e+001 
4212500000  -3.601479e+001  7.765122e+001 
4215625000  -3.686893e+001  8.447349e+001 
4218750000  -3.568570e+001  8.922440e+001 
4221875000  -3.344428e+001  8.004104e+001 
4225000000  -3.460945e+001  6.681239e+001 
4228125000  -3.498959e+001  7.167912e+001 
4231250000  -3.346622e+001  6.635064e+001 
4234375000  -3.354919e+001  5.683010e+001 
4237500000  -3.292493e+001  5.128729e+001 
4240625000  -3.295011e+001  4.115617e+001 
4243750000  -3.408513e+001  3.291859e+001 
4246875000  -3.512741e+001  3.199311e+001 
4250000000  -3.511465e+001  3.353913e+001 
4253125000  -3.448806e+001  3.069109e+001 
4256250000  -3.494987e+001  2.533239e+001 
4259375000  -3.446688e+001  2.214489e+001 
4262500000  -3.479304e+001  1.781840e+001 
4265625000  -3.492634e+001  1.627085e+001 
4268750000  -3.394454e+001  1.264718e+001 
4271875000  -3.399057e+001  4.086124e+000 
4275000000  -3.353801e+001  -4.189533e+000 
4278125000  -3.423719e+001  -1.477985e+001 
4281250000  -3.603476e+001  -1.708113e+001 
4284375000  -3.607542e+001  -1.732205e+001 
4287500000  -3.716957e+001  -2.244989e+001 
4290625000  -3.797283e+001  -1.277321e+001 
4293750000  -3.620115e+001  -6.860246e+000 
4296875000  -3.511261e+001  -1.817922e+001 
4300000000  -3.594676e+001  -2.858217e+001 
4303125000  -3.723967e+001  -2.740651e+001 
4306250000  -3.661240e+001  -2.170926e+001 
4309375000  -3.536229e+001  -2.198690e+001 
4312500000  -3.505903e+001  -3.116671e+001 
4315625000  -3.536451e+001  -3.599537e+001 
4318750000  -3.551157e+001  -3.927016e+001 
4321875000  -3.572435e+001  -3.962477e+001 
4325000000  -3.513517e+001  -3.949106e+001 
4328125000  -3.444799e+001  -4.525983e+001 
4331250000  -3.425704e+001  -5.439861e+001 
4334375000  -3.470879e+001  -6.001582e+001 
4337500000  -3.552589e+001  -6.271640e+001 
4340625000  -3.598643e+001  -5.906871e+001 
4343750000  -3.512113e+001  -5.951575e+001 
4346875000  -3.459715e+001  -6.667592e+001 
4350000000  -3.455816e+001  -7.163867e+001 
4353125000  -3.453216e+001  -8.018734e+001 
4356250000  -3.652803e+001  -8.200337e+001 
4359375000  -3.629974e+001  -6.704134e+001 
4362500000  -3.369245e+001  -6.804695e+001 
4365625000  -3.209945e+001  -8.295972e+001 
4368750000  -3.292287e+001  -9.645693e+001 
4371875000  -3.394755e+001  -9.523894e+001 
4375000000  -3.358550e+001  -9.575626e+001 
4378125000  -3.284119e+001  -1.040292e+002 
4381250000  -3.294571e+001  -1.102622e+002 
4384375000  -3.291255e+001  -1.165172e+002 
4387500000  -3.360512e+001  -1.244245e+002 
4390625000  -3.462316e+001  -1.252173e+002 
4393750000  -3.404397e+001  -1.234212e+002 
4396875000  -3.350441e+001  -1.267161e+002 
4400000000  -3.286927e+001  -1.356344e+002 
4403125000  -3.366018e+001  -1.439239e+002 
4406250000  -3.454773e+001  -1.471309e+002 
4409375000  -3.460538e+001  -1.501398e+002 
4412500000  -3.569098e+001  -1.526723e+002 
4415625000  -3.615835e+001  -1.494254e+002 
