!Agilent Technologies,E8363B,MY43030201,A.06.04.32
!Agilent E8363B: A.06.04.32
!Date: Tuesday, November 11, 2014 21:09:09
!Correction: S21(Response(S21)) 
!S1P File: Measurement: S21:
# Hz S  dB   R 50
3000000000  -3.622419e+001  -5.717577e+001 
3003125000  -3.744802e+001  -6.330319e+001 
3006250000  -3.735257e+001  -6.623219e+001 
3009375000  -3.766046e+001  -6.046305e+001 
3012500000  -3.698099e+001  -6.326573e+001 
3015625000  -3.607887e+001  -7.007209e+001 
3018750000  -3.688737e+001  -7.098762e+001 
3021875000  -3.553929e+001  -6.978797e+001 
3025000000  -3.410757e+001  -7.336058e+001 
3028125000  -3.318345e+001  -7.992216e+001 
3031250000  -3.223658e+001  -9.143727e+001 
3034375000  -3.189312e+001  -1.051319e+002 
3037500000  -3.234329e+001  -1.164977e+002 
3040625000  -3.365329e+001  -1.215658e+002 
3043750000  -3.434970e+001  -1.265002e+002 
3046875000  -3.456934e+001  -1.315533e+002 
3050000000  -3.621825e+001  -1.378597e+002 
3053125000  -3.613265e+001  -1.311647e+002 
3056250000  -3.568727e+001  -1.284307e+002 
3059375000  -3.585601e+001  -1.291011e+002 
3062500000  -3.426308e+001  -1.320361e+002 
3065625000  -3.408099e+001  -1.390551e+002 
3068750000  -3.366141e+001  -1.456038e+002 
3071875000  -3.359951e+001  -1.474886e+002 
3075000000  -3.331445e+001  -1.519065e+002 
3078125000  -3.313207e+001  -1.558078e+002 
3081250000  -3.358648e+001  -1.603360e+002 
3084375000  -3.271988e+001  -1.632649e+002 
3087500000  -3.252967e+001  -1.679012e+002 
3090625000  -3.197215e+001  -1.779290e+002 
3093750000  -3.241592e+001  1.745838e+002 
3096875000  -3.342075e+001  1.687451e+002 
3100000000  -3.329076e+001  1.666028e+002 
3103125000  -3.357809e+001  1.668102e+002 
3106250000  -3.316086e+001  1.630211e+002 
3109375000  -3.322413e+001  1.590567e+002 
3112500000  -3.320565e+001  1.567000e+002 
3115625000  -3.285931e+001  1.514803e+002 
3118750000  -3.312849e+001  1.519863e+002 
3121875000  -3.224917e+001  1.419356e+002 
3125000000  -3.354741e+001  1.384003e+002 
3128125000  -3.446070e+001  1.457825e+002 
3131250000  -3.200624e+001  1.435382e+002 
3134375000  -3.079719e+001  1.280100e+002 
3137500000  -3.139100e+001  1.138025e+002 
3140625000  -3.277422e+001  1.112145e+002 
3143750000  -3.379631e+001  1.123255e+002 
3146875000  -3.329560e+001  1.138348e+002 
3150000000  -3.230030e+001  1.134769e+002 
3153125000  -3.233762e+001  1.037433e+002 
3156250000  -3.334118e+001  1.090698e+002 
3159375000  -3.167784e+001  1.108174e+002 
3162500000  -2.976466e+001  9.600387e+001 
3165625000  -3.084649e+001  8.312041e+001 
3168750000  -3.107246e+001  8.359914e+001 
3171875000  -3.029090e+001  7.780778e+001 
3175000000  -3.103168e+001  6.929842e+001 
3178125000  -3.076975e+001  6.988239e+001 
3181250000  -2.970679e+001  6.439951e+001 
3184375000  -2.904469e+001  5.153540e+001 
3187500000  -3.026771e+001  3.717171e+001 
3190625000  -3.288871e+001  2.864647e+001 
3193750000  -3.356762e+001  3.760111e+001 
3196875000  -3.315778e+001  4.171586e+001 
3200000000  -3.213463e+001  3.955626e+001 
3203125000  -3.146052e+001  3.285123e+001 
3206250000  -3.181336e+001  2.636821e+001 
3209375000  -3.130241e+001  2.055257e+001 
3212500000  -3.163919e+001  1.393275e+001 
3215625000  -3.168055e+001  1.047751e+001 
3218750000  -3.237647e+001  3.449390e+000 
3221875000  -3.313083e+001  -1.996802e+000 
3225000000  -3.282267e+001  -3.586020e+000 
3228125000  -3.322781e+001  -9.308275e+000 
3231250000  -3.383726e+001  -1.050878e+001 
3234375000  -3.352642e+001  -1.072783e+001 
3237500000  -3.357841e+001  -1.251428e+001 
3240625000  -3.308185e+001  -1.509500e+001 
3243750000  -3.275763e+001  -2.274026e+001 
3246875000  -3.311885e+001  -2.931360e+001 
3250000000  -3.355512e+001  -3.198199e+001 
3253125000  -3.365350e+001  -3.377850e+001 
3256250000  -3.317507e+001  -4.129805e+001 
3259375000  -3.353834e+001  -4.960120e+001 
3262500000  -3.460615e+001  -5.322678e+001 
3265625000  -3.530804e+001  -4.988696e+001 
3268750000  -3.500850e+001  -4.804284e+001 
3271875000  -3.458911e+001  -4.875853e+001 
3275000000  -3.362971e+001  -5.571673e+001 
3278125000  -3.422471e+001  -6.304978e+001 
3281250000  -3.434129e+001  -6.114478e+001 
3284375000  -3.379181e+001  -6.842479e+001 
3287500000  -3.405360e+001  -7.203810e+001 
3290625000  -3.428563e+001  -7.869627e+001 
3293750000  -3.406467e+001  -8.486674e+001 
3296875000  -3.513359e+001  -8.456895e+001 
3300000000  -3.478967e+001  -8.445867e+001 
3303125000  -3.368649e+001  -9.016877e+001 
3306250000  -3.357541e+001  -9.725456e+001 
3309375000  -3.317445e+001  -1.035810e+002 
3312500000  -3.343719e+001  -1.141708e+002 
3315625000  -3.423580e+001  -1.228397e+002 
3318750000  -3.576088e+001  -1.259383e+002 
3321875000  -3.693237e+001  -1.260126e+002 
3325000000  -3.730262e+001  -1.196807e+002 
3328125000  -3.692508e+001  -1.202014e+002 
3331250000  -3.566270e+001  -1.133406e+002 
3334375000  -3.297394e+001  -1.243787e+002 
3337500000  -3.322638e+001  -1.439238e+002 
3340625000  -3.462849e+001  -1.536275e+002 
3343750000  -3.670831e+001  -1.557389e+002 
3346875000  -3.688434e+001  -1.535788e+002 
3350000000  -3.614238e+001  -1.555896e+002 
3353125000  -3.624466e+001  -1.603517e+002 
3356250000  -3.585287e+001  -1.689347e+002 
3359375000  -3.665446e+001  -1.775921e+002 
3362500000  -3.777834e+001  1.780482e+002 
3365625000  -3.824224e+001  1.770849e+002 
3368750000  -3.897880e+001  1.751817e+002 
3371875000  -3.942651e+001  1.709065e+002 
3375000000  -4.081287e+001  1.695019e+002 
3378125000  -4.166900e+001  1.692765e+002 
3381250000  -4.296495e+001  1.797939e+002 
3384375000  -4.123891e+001  -1.604295e+002 
3387500000  -3.791156e+001  -1.764074e+002 
3390625000  -3.954655e+001  1.650003e+002 
3393750000  -4.060390e+001  1.669094e+002 
3396875000  -3.940755e+001  1.681961e+002 
3400000000  -3.885965e+001  1.626478e+002 
3403125000  -3.954667e+001  1.563140e+002 
3406250000  -3.994856e+001  1.556667e+002 
3409375000  -4.004038e+001  1.479818e+002 
3412500000  -4.040449e+001  1.464191e+002 
3415625000  -4.116170e+001  1.452343e+002 
3418750000  -4.097144e+001  1.472158e+002 
3421875000  -4.134091e+001  1.499253e+002 
3425000000  -4.048806e+001  1.509294e+002 
3428125000  -3.950499e+001  1.462251e+002 
3431250000  -3.932408e+001  1.388835e+002 
3434375000  -3.911883e+001  1.335408e+002 
3437500000  -3.962544e+001  1.289443e+002 
3440625000  -4.009539e+001  1.298904e+002 
3443750000  -3.876824e+001  1.312123e+002 
3446875000  -3.809781e+001  1.226039e+002 
3450000000  -3.771819e+001  1.129885e+002 
3453125000  -3.804013e+001  1.020373e+002 
3456250000  -3.933810e+001  9.671306e+001 
3459375000  -4.029042e+001  9.793989e+001 
3462500000  -4.007310e+001  9.593813e+001 
3465625000  -4.009970e+001  9.217594e+001 
3468750000  -4.035233e+001  8.833275e+001 
3471875000  -4.028889e+001  8.801591e+001 
3475000000  -3.994650e+001  8.208585e+001 
3478125000  -4.081873e+001  7.490558e+001 
3481250000  -4.163512e+001  7.255055e+001 
3484375000  -4.283405e+001  7.802199e+001 
3487500000  -4.166953e+001  7.553624e+001 
3490625000  -4.119846e+001  7.221713e+001 
3493750000  -4.175494e+001  6.601571e+001 
3496875000  -4.235297e+001  6.641744e+001 
3500000000  -4.259634e+001  6.924886e+001 
3503125000  -4.231881e+001  6.948504e+001 
3506250000  -4.085392e+001  6.536407e+001 
3509375000  -4.101044e+001  5.767079e+001 
3512500000  -4.135402e+001  4.960402e+001 
3515625000  -4.207899e+001  4.668379e+001 
3518750000  -4.244416e+001  4.868283e+001 
3521875000  -4.226987e+001  4.593306e+001 
3525000000  -4.288371e+001  4.363425e+001 
3528125000  -4.281419e+001  5.045167e+001 
3531250000  -4.150479e+001  4.692614e+001 
3534375000  -4.132565e+001  3.539402e+001 
3537500000  -4.167686e+001  2.996466e+001 
3540625000  -4.284929e+001  2.824229e+001 
3543750000  -4.333958e+001  3.325096e+001 
3546875000  -4.334353e+001  4.425079e+001 
3550000000  -4.054295e+001  4.260949e+001 
3553125000  -3.920067e+001  2.404960e+001 
3556250000  -4.069653e+001  1.610800e+001 
3559375000  -4.032137e+001  1.881429e+001 
3562500000  -3.950220e+001  8.029380e+000 
3565625000  -4.055016e+001  -4.508918e-002 
3568750000  -4.071586e+001  3.899462e+000 
3571875000  -4.047717e+001  1.933452e+000 
3575000000  -4.025042e+001  -7.300557e+000 
3578125000  -4.088462e+001  -1.158137e+001 
3581250000  -4.102752e+001  -1.200581e+001 
3584375000  -4.003536e+001  -1.679073e+001 
3587500000  -3.978984e+001  -2.559229e+001 
3590625000  -4.048954e+001  -3.397532e+001 
3593750000  -4.183040e+001  -3.905064e+001 
3596875000  -4.198060e+001  -3.232942e+001 
3600000000  -4.045418e+001  -3.967062e+001 
3603125000  -4.104716e+001  -5.234138e+001 
3606250000  -4.192724e+001  -5.479509e+001 
3609375000  -4.302043e+001  -5.894692e+001 
3612500000  -4.326453e+001  -5.973893e+001 
3615625000  -4.370719e+001  -6.194818e+001 
3618750000  -4.452629e+001  -6.259781e+001 
3621875000  -4.433649e+001  -6.290839e+001 
3625000000  -4.545621e+001  -6.249472e+001 
3628125000  -4.488366e+001  -6.175807e+001 
3631250000  -4.503445e+001  -6.553413e+001 
3634375000  -4.629066e+001  -6.692674e+001 
3637500000  -4.627475e+001  -6.043595e+001 
3640625000  -4.491042e+001  -5.730174e+001 
3643750000  -4.439983e+001  -6.088290e+001 
3646875000  -4.466560e+001  -6.913863e+001 
3650000000  -4.516395e+001  -6.416769e+001 
3653125000  -4.460274e+001  -6.781321e+001 
3656250000  -4.463242e+001  -6.704015e+001 
3659375000  -4.484985e+001  -6.652036e+001 
3662500000  -4.389047e+001  -6.835471e+001 
3665625000  -4.350211e+001  -6.903989e+001 
3668750000  -4.251254e+001  -7.380115e+001 
3671875000  -4.111440e+001  -7.947462e+001 
3675000000  -4.170634e+001  -8.849698e+001 
3678125000  -4.184258e+001  -9.099061e+001 
3681250000  -4.153555e+001  -9.379825e+001 
3684375000  -4.168605e+001  -1.006630e+002 
3687500000  -4.192172e+001  -1.050079e+002 
3690625000  -4.203921e+001  -1.093783e+002 
3693750000  -4.301938e+001  -1.116790e+002 
3696875000  -4.257724e+001  -1.109373e+002 
3700000000  -4.165229e+001  -1.147951e+002 
3703125000  -4.189947e+001  -1.230167e+002 
3706250000  -4.312326e+001  -1.234673e+002 
3709375000  -4.266393e+001  -1.219927e+002 
3712500000  -4.187405e+001  -1.236855e+002 
3715625000  -4.126865e+001  -1.312595e+002 
3718750000  -4.090085e+001  -1.359476e+002 
3721875000  -4.124367e+001  -1.438518e+002 
3725000000  -4.177698e+001  -1.501065e+002 
3728125000  -4.213478e+001  -1.516400e+002 
3731250000  -4.189573e+001  -1.540284e+002 
3734375000  -4.155264e+001  -1.595293e+002 
3737500000  -4.236903e+001  -1.660908e+002 
3740625000  -4.386209e+001  -1.682020e+002 
3743750000  -4.380999e+001  -1.721595e+002 
3746875000  -4.424600e+001  -1.724069e+002 
3750000000  -4.525841e+001  -1.711940e+002 
3753125000  -4.531173e+001  -1.705416e+002 
3756250000  -4.538828e+001  -1.692540e+002 
3759375000  -4.524683e+001  -1.670586e+002 
3762500000  -4.491075e+001  -1.675340e+002 
3765625000  -4.525159e+001  -1.676494e+002 
3768750000  -4.495008e+001  -1.639087e+002 
3771875000  -4.336794e+001  -1.659627e+002 
3775000000  -4.271175e+001  -1.726309e+002 
3778125000  -4.299144e+001  -1.736651e+002 
3781250000  -4.244647e+001  -1.755631e+002 
3784375000  -4.265780e+001  1.797754e+002 
3787500000  -4.140157e+001  1.796561e+002 
3790625000  -4.179390e+001  1.714527e+002 
3793750000  -4.176404e+001  1.704769e+002 
3796875000  -4.080083e+001  1.670727e+002 
3800000000  -3.896052e+001  1.658268e+002 
3803125000  -3.946257e+001  1.549808e+002 
3806250000  -4.015479e+001  1.530210e+002 
3809375000  -3.990008e+001  1.500131e+002 
3812500000  -3.951503e+001  1.428565e+002 
3815625000  -3.972879e+001  1.323126e+002 
3818750000  -4.116690e+001  1.300619e+002 
3821875000  -4.090473e+001  1.405822e+002 
3825000000  -3.895011e+001  1.404062e+002 
3828125000  -3.778449e+001  1.243172e+002 
3831250000  -3.832365e+001  1.095199e+002 
3834375000  -3.981796e+001  1.061002e+002 
3837500000  -4.087531e+001  1.114943e+002 
3840625000  -3.951352e+001  1.077362e+002 
3843750000  -3.861470e+001  9.671342e+001 
3846875000  -3.977432e+001  8.992999e+001 
3850000000  -4.124410e+001  9.545129e+001 
3853125000  -4.047946e+001  9.770837e+001 
3856250000  -4.066972e+001  9.170647e+001 
3859375000  -3.967098e+001  8.569527e+001 
3862500000  -3.967981e+001  7.657481e+001 
3865625000  -4.014864e+001  7.346856e+001 
3868750000  -4.015422e+001  7.208893e+001 
3871875000  -3.932686e+001  7.020650e+001 
3875000000  -3.980334e+001  5.990055e+001 
3878125000  -4.108509e+001  5.734691e+001 
3881250000  -4.103263e+001  6.113188e+001 
3884375000  -4.074209e+001  5.529617e+001 
3887500000  -4.083005e+001  5.335749e+001 
3890625000  -4.125467e+001  5.069112e+001 
3893750000  -4.192186e+001  4.735485e+001 
3896875000  -4.197833e+001  5.284225e+001 
3900000000  -4.219303e+001  5.011442e+001 
3903125000  -4.168354e+001  4.787291e+001 
3906250000  -4.119211e+001  4.630985e+001 
3909375000  -4.030928e+001  4.228734e+001 
3912500000  -4.020429e+001  3.510570e+001 
3915625000  -4.163112e+001  3.566809e+001 
3918750000  -4.118318e+001  3.963786e+001 
3921875000  -4.076816e+001  3.406703e+001 
3925000000  -3.967010e+001  3.155591e+001 
3928125000  -3.907077e+001  2.417007e+001 
3931250000  -3.951801e+001  2.049643e+001 
3934375000  -3.979008e+001  1.912980e+001 
3937500000  -3.996718e+001  1.715812e+001 
3940625000  -4.007377e+001  1.432901e+001 
3943750000  -3.906530e+001  1.551368e+001 
3946875000  -3.811173e+001  8.025627e+000 
3950000000  -3.851197e+001  -1.845526e+000 
3953125000  -3.950262e+001  -3.390366e+000 
3956250000  -3.847027e+001  -2.125171e+000 
3959375000  -3.717933e+001  -5.880400e+000 
3962500000  -3.682907e+001  -1.201308e+001 
3965625000  -3.675361e+001  -2.190693e+001 
3968750000  -3.787073e+001  -2.880561e+001 
3971875000  -3.813674e+001  -3.069679e+001 
3975000000  -3.762676e+001  -3.468512e+001 
3978125000  -3.741168e+001  -3.897745e+001 
3981250000  -3.764409e+001  -4.439181e+001 
3984375000  -3.773567e+001  -5.254703e+001 
3987500000  -3.858210e+001  -5.272442e+001 
3990625000  -3.868593e+001  -5.536055e+001 
3993750000  -3.890955e+001  -5.966235e+001 
3996875000  -3.921637e+001  -6.421605e+001 
4000000000  -3.939380e+001  -6.522290e+001 
4003125000  -4.011181e+001  -6.325619e+001 
4006250000  -3.891514e+001  -6.660471e+001 
4009375000  -3.762148e+001  -7.600143e+001 
4012500000  -3.930445e+001  -8.255318e+001 
4015625000  -4.071981e+001  -8.219729e+001 
4018750000  -4.065060e+001  -8.082420e+001 
4021875000  -3.998880e+001  -8.190341e+001 
4025000000  -3.966433e+001  -8.767389e+001 
4028125000  -3.994726e+001  -8.899458e+001 
4031250000  -4.017301e+001  -9.168360e+001 
4034375000  -4.041865e+001  -9.099187e+001 
4037500000  -4.005862e+001  -9.120383e+001 
4040625000  -3.985752e+001  -9.288834e+001 
4043750000  -4.010649e+001  -9.336050e+001 
4046875000  -3.960270e+001  -9.418037e+001 
4050000000  -3.887879e+001  -1.006598e+002 
4053125000  -3.925359e+001  -1.021597e+002 
4056250000  -3.961738e+001  -9.770081e+001 
4059375000  -3.810415e+001  -9.842111e+001 
4062500000  -3.685807e+001  -1.037812e+002 
4065625000  -3.668917e+001  -1.093322e+002 
4068750000  -3.613309e+001  -1.158461e+002 
4071875000  -3.552058e+001  -1.243617e+002 
4075000000  -3.580847e+001  -1.317653e+002 
4078125000  -3.641949e+001  -1.329124e+002 
4081250000  -3.563638e+001  -1.383721e+002 
4084375000  -3.529254e+001  -1.457196e+002 
4087500000  -3.562963e+001  -1.530923e+002 
4090625000  -3.636316e+001  -1.549641e+002 
4093750000  -3.604803e+001  -1.571590e+002 
4096875000  -3.565496e+001  -1.640856e+002 
4100000000  -3.658366e+001  -1.717988e+002 
4103125000  -3.726849e+001  -1.726769e+002 
4106250000  -3.702077e+001  -1.682422e+002 
4109375000  -3.621940e+001  -1.708441e+002 
4112500000  -3.578968e+001  -1.791105e+002 
4115625000  -3.634254e+001  1.756593e+002 
4118750000  -3.654692e+001  1.710277e+002 
4121875000  -3.617357e+001  1.651189e+002 
4125000000  -3.680347e+001  1.589369e+002 
4128125000  -3.768569e+001  1.593449e+002 
4131250000  -3.758708e+001  1.669232e+002 
4134375000  -3.523559e+001  1.580992e+002 
4137500000  -3.540347e+001  1.392018e+002 
4140625000  -3.776653e+001  1.319521e+002 
4143750000  -3.912308e+001  1.369328e+002 
4146875000  -3.870028e+001  1.450852e+002 
4150000000  -3.787995e+001  1.391621e+002 
4153125000  -3.800439e+001  1.328945e+002 
4156250000  -3.901245e+001  1.307242e+002 
4159375000  -3.944374e+001  1.355373e+002 
4162500000  -3.824226e+001  1.411985e+002 
4165625000  -3.704600e+001  1.367532e+002 
4168750000  -3.632497e+001  1.281684e+002 
4171875000  -3.663371e+001  1.191209e+002 
4175000000  -3.734760e+001  1.148974e+002 
4178125000  -3.771531e+001  1.157745e+002 
4181250000  -3.741507e+001  1.141078e+002 
4184375000  -3.708607e+001  1.116608e+002 
4187500000  -3.737347e+001  1.085191e+002 
4190625000  -3.698806e+001  1.018090e+002 
4193750000  -3.778488e+001  9.875446e+001 
4196875000  -3.836344e+001  9.712553e+001 
4200000000  -3.912228e+001  1.003634e+002 
4203125000  -3.883808e+001  1.136806e+002 
4206250000  -3.518156e+001  1.125933e+002 
4209375000  -3.396931e+001  9.084930e+001 
4212500000  -3.609696e+001  8.132183e+001 
4215625000  -3.682140e+001  8.765723e+001 
4218750000  -3.534645e+001  9.208334e+001 
4221875000  -3.290192e+001  8.156435e+001 
4225000000  -3.438042e+001  6.788752e+001 
4228125000  -3.473002e+001  7.100885e+001 
4231250000  -3.292363e+001  6.601570e+001 
4234375000  -3.291735e+001  5.543903e+001 
4237500000  -3.244327e+001  5.197406e+001 
4240625000  -3.252411e+001  4.104790e+001 
4243750000  -3.355201e+001  3.306766e+001 
4246875000  -3.446198e+001  3.118660e+001 
4250000000  -3.455117e+001  3.392049e+001 
4253125000  -3.402829e+001  2.913930e+001 
4256250000  -3.450005e+001  2.443277e+001 
4259375000  -3.396455e+001  2.068396e+001 
4262500000  -3.432325e+001  1.512121e+001 
4265625000  -3.440541e+001  1.556686e+001 
4268750000  -3.355310e+001  8.566960e+000 
4271875000  -3.357375e+001  1.638109e+000 
4275000000  -3.318369e+001  -5.923616e+000 
4278125000  -3.378814e+001  -1.800522e+001 
4281250000  -3.606332e+001  -2.139123e+001 
4284375000  -3.578212e+001  -2.045196e+001 
4287500000  -3.679288e+001  -2.536515e+001 
4290625000  -3.826022e+001  -1.667698e+001 
4293750000  -3.621387e+001  -1.002061e+001 
4296875000  -3.501182e+001  -2.344195e+001 
4300000000  -3.614183e+001  -3.158116e+001 
4303125000  -3.742461e+001  -2.976463e+001 
4306250000  -3.673526e+001  -2.100559e+001 
4309375000  -3.579404e+001  -2.330792e+001 
4312500000  -3.533932e+001  -3.139620e+001 
4315625000  -3.558374e+001  -3.698548e+001 
4318750000  -3.591674e+001  -3.978767e+001 
4321875000  -3.616117e+001  -3.895216e+001 
4325000000  -3.549538e+001  -3.818117e+001 
4328125000  -3.450260e+001  -4.444214e+001 
4331250000  -3.447401e+001  -5.225589e+001 
4334375000  -3.497041e+001  -5.731801e+001 
4337500000  -3.569599e+001  -6.025909e+001 
4340625000  -3.591131e+001  -5.696397e+001 
4343750000  -3.491815e+001  -5.708202e+001 
4346875000  -3.448053e+001  -6.333087e+001 
4350000000  -3.439820e+001  -6.919481e+001 
4353125000  -3.436780e+001  -7.747885e+001 
4356250000  -3.592035e+001  -7.777494e+001 
4359375000  -3.605309e+001  -6.501976e+001 
4362500000  -3.320293e+001  -6.739049e+001 
4365625000  -3.152642e+001  -8.116206e+001 
4368750000  -3.244498e+001  -9.394237e+001 
4371875000  -3.344263e+001  -9.421877e+001 
4375000000  -3.289027e+001  -9.583953e+001 
4378125000  -3.220494e+001  -1.025983e+002 
4381250000  -3.239806e+001  -1.099491e+002 
4384375000  -3.225709e+001  -1.171012e+002 
4387500000  -3.298257e+001  -1.242142e+002 
4390625000  -3.392068e+001  -1.244548e+002 
4393750000  -3.317984e+001  -1.240472e+002 
4396875000  -3.267339e+001  -1.275437e+002 
4400000000  -3.208467e+001  -1.367815e+002 
4403125000  -3.281962e+001  -1.465145e+002 
4406250000  -3.360760e+001  -1.491146e+002 
4409375000  -3.391558e+001  -1.534854e+002 
4412500000  -3.519003e+001  -1.562458e+002 
4415625000  -3.527719e+001  -1.530067e+002 
