!Agilent Technologies,E8363B,MY43030201,A.06.04.32
!Agilent E8363B: A.06.04.32
!Date: Tuesday, November 11, 2014 21:13:38
!Correction: S21(Response(S21)) 
!S1P File: Measurement: S21:
# Hz S  dB   R 50
3000000000  -3.651841e+001  -5.903996e+001 
3003125000  -3.767292e+001  -6.561565e+001 
3006250000  -3.745836e+001  -6.778922e+001 
3009375000  -3.782461e+001  -6.349242e+001 
3012500000  -3.695889e+001  -6.542262e+001 
3015625000  -3.614484e+001  -7.285802e+001 
3018750000  -3.696481e+001  -7.351549e+001 
3021875000  -3.538903e+001  -7.290165e+001 
3025000000  -3.406199e+001  -7.651672e+001 
3028125000  -3.323320e+001  -8.371787e+001 
3031250000  -3.221915e+001  -9.499977e+001 
3034375000  -3.190680e+001  -1.085069e+002 
3037500000  -3.236525e+001  -1.200433e+002 
3040625000  -3.376389e+001  -1.251694e+002 
3043750000  -3.437253e+001  -1.299405e+002 
3046875000  -3.454871e+001  -1.362435e+002 
3050000000  -3.626763e+001  -1.414550e+002 
3053125000  -3.596600e+001  -1.355589e+002 
3056250000  -3.550021e+001  -1.325010e+002 
3059375000  -3.569953e+001  -1.321366e+002 
3062500000  -3.407934e+001  -1.373501e+002 
3065625000  -3.394936e+001  -1.431564e+002 
3068750000  -3.360550e+001  -1.498553e+002 
3071875000  -3.355162e+001  -1.521120e+002 
3075000000  -3.321536e+001  -1.561643e+002 
3078125000  -3.312070e+001  -1.607534e+002 
3081250000  -3.352635e+001  -1.649234e+002 
3084375000  -3.270938e+001  -1.682493e+002 
3087500000  -3.256173e+001  -1.726679e+002 
3090625000  -3.203425e+001  1.768659e+002 
3093750000  -3.255035e+001  1.698465e+002 
3096875000  -3.350654e+001  1.645413e+002 
3100000000  -3.339103e+001  1.618554e+002 
3103125000  -3.365741e+001  1.621354e+002 
3106250000  -3.317863e+001  1.578464e+002 
3109375000  -3.326152e+001  1.546376e+002 
3112500000  -3.317020e+001  1.516890e+002 
3115625000  -3.289376e+001  1.474650e+002 
3118750000  -3.319989e+001  1.472879e+002 
3121875000  -3.230359e+001  1.377334e+002 
3125000000  -3.368472e+001  1.342325e+002 
3128125000  -3.451019e+001  1.411976e+002 
3131250000  -3.200324e+001  1.393219e+002 
3134375000  -3.078071e+001  1.234986e+002 
3137500000  -3.129902e+001  1.101656e+002 
3140625000  -3.278439e+001  1.070768e+002 
3143750000  -3.388220e+001  1.083880e+002 
3146875000  -3.332844e+001  1.096498e+002 
3150000000  -3.225528e+001  1.088775e+002 
3153125000  -3.228924e+001  9.991570e+001 
3156250000  -3.334492e+001  1.060088e+002 
3159375000  -3.142906e+001  1.067815e+002 
3162500000  -2.963025e+001  9.150400e+001 
3165625000  -3.076853e+001  7.931239e+001 
3168750000  -3.102545e+001  7.938741e+001 
3171875000  -3.007164e+001  7.409536e+001 
3175000000  -3.087493e+001  6.529163e+001 
3178125000  -3.062064e+001  6.590056e+001 
3181250000  -2.962979e+001  5.989395e+001 
3184375000  -2.899794e+001  4.807542e+001 
3187500000  -3.026921e+001  3.271684e+001 
3190625000  -3.265738e+001  2.533277e+001 
3193750000  -3.325526e+001  3.334388e+001 
3196875000  -3.297337e+001  3.766815e+001 
3200000000  -3.191354e+001  3.468413e+001 
3203125000  -3.120418e+001  2.843606e+001 
3206250000  -3.163265e+001  2.159993e+001 
3209375000  -3.101582e+001  1.587191e+001 
3212500000  -3.139425e+001  8.394227e+000 
3215625000  -3.136869e+001  5.771587e+000 
3218750000  -3.212704e+001  -2.604147e+000 
3221875000  -3.292043e+001  -7.485848e+000 
3225000000  -3.248143e+001  -9.030663e+000 
3228125000  -3.296461e+001  -1.448146e+001 
3231250000  -3.363994e+001  -1.627297e+001 
3234375000  -3.342406e+001  -1.574328e+001 
3237500000  -3.330974e+001  -1.803870e+001 
3240625000  -3.286147e+001  -2.129273e+001 
3243750000  -3.247519e+001  -2.877343e+001 
3246875000  -3.294604e+001  -3.604504e+001 
3250000000  -3.336704e+001  -3.845632e+001 
3253125000  -3.349858e+001  -4.034574e+001 
3256250000  -3.303751e+001  -4.703613e+001 
3259375000  -3.337097e+001  -5.608903e+001 
3262500000  -3.452149e+001  -5.972536e+001 
3265625000  -3.518043e+001  -5.645808e+001 
3268750000  -3.501174e+001  -5.466953e+001 
3271875000  -3.460065e+001  -5.505501e+001 
3275000000  -3.356092e+001  -6.164415e+001 
3278125000  -3.412857e+001  -6.872651e+001 
3281250000  -3.427892e+001  -6.799997e+001 
3284375000  -3.381952e+001  -7.414555e+001 
3287500000  -3.403600e+001  -7.770017e+001 
3290625000  -3.429114e+001  -8.435355e+001 
3293750000  -3.408636e+001  -8.982182e+001 
3296875000  -3.517146e+001  -9.109740e+001 
3300000000  -3.477026e+001  -8.924571e+001 
3303125000  -3.362074e+001  -9.529561e+001 
3306250000  -3.333855e+001  -1.026153e+002 
3309375000  -3.310341e+001  -1.088369e+002 
3312500000  -3.329395e+001  -1.206061e+002 
3315625000  -3.424303e+001  -1.280547e+002 
3318750000  -3.574903e+001  -1.309794e+002 
3321875000  -3.674754e+001  -1.305905e+002 
3325000000  -3.734158e+001  -1.242372e+002 
3328125000  -3.662047e+001  -1.240757e+002 
3331250000  -3.549078e+001  -1.181752e+002 
3334375000  -3.278223e+001  -1.286772e+002 
3337500000  -3.295174e+001  -1.490028e+002 
3340625000  -3.444844e+001  -1.595585e+002 
3343750000  -3.632145e+001  -1.610194e+002 
3346875000  -3.640984e+001  -1.587173e+002 
3350000000  -3.580940e+001  -1.611343e+002 
3353125000  -3.599178e+001  -1.649427e+002 
3356250000  -3.554944e+001  -1.737374e+002 
3359375000  -3.646056e+001  1.778027e+002 
3362500000  -3.744836e+001  1.718661e+002 
3365625000  -3.788894e+001  1.707611e+002 
3368750000  -3.854399e+001  1.684139e+002 
3371875000  -3.904801e+001  1.649868e+002 
3375000000  -4.026551e+001  1.618117e+002 
3378125000  -4.135451e+001  1.635433e+002 
3381250000  -4.262353e+001  1.730997e+002 
3384375000  -4.080750e+001  -1.671789e+002 
3387500000  -3.750441e+001  1.754448e+002 
3390625000  -3.891046e+001  1.580450e+002 
3393750000  -4.033457e+001  1.606697e+002 
3396875000  -3.905281e+001  1.612650e+002 
3400000000  -3.859109e+001  1.547223e+002 
3403125000  -3.923578e+001  1.490935e+002 
3406250000  -3.979554e+001  1.493661e+002 
3409375000  -3.973031e+001  1.412202e+002 
3412500000  -4.023635e+001  1.384693e+002 
3415625000  -4.099823e+001  1.381001e+002 
3418750000  -4.117708e+001  1.386425e+002 
3421875000  -4.093209e+001  1.424804e+002 
3425000000  -4.017387e+001  1.431518e+002 
3428125000  -3.919163e+001  1.397962e+002 
3431250000  -3.897298e+001  1.306986e+002 
3434375000  -3.910347e+001  1.262863e+002 
3437500000  -3.979168e+001  1.236238e+002 
3440625000  -3.982084e+001  1.245862e+002 
3443750000  -3.866151e+001  1.250286e+002 
3446875000  -3.793635e+001  1.161422e+002 
3450000000  -3.754065e+001  1.057342e+002 
3453125000  -3.806231e+001  9.540497e+001 
3456250000  -3.927079e+001  9.006853e+001 
3459375000  -4.015964e+001  9.142849e+001 
3462500000  -3.986311e+001  9.069641e+001 
3465625000  -3.966835e+001  8.618424e+001 
3468750000  -4.024425e+001  8.189790e+001 
3471875000  -4.018528e+001  7.965469e+001 
3475000000  -3.956359e+001  7.534260e+001 
3478125000  -4.036967e+001  6.784566e+001 
3481250000  -4.136055e+001  6.455986e+001 
3484375000  -4.230188e+001  6.858239e+001 
3487500000  -4.145781e+001  7.010445e+001 
3490625000  -4.099423e+001  6.345421e+001 
3493750000  -4.141219e+001  5.657818e+001 
3496875000  -4.181031e+001  5.619410e+001 
3500000000  -4.289659e+001  5.885220e+001 
3503125000  -4.219490e+001  6.043071e+001 
3506250000  -4.068915e+001  5.561426e+001 
3509375000  -4.055777e+001  4.718169e+001 
3512500000  -4.113902e+001  3.840719e+001 
3515625000  -4.201885e+001  3.619898e+001 
3518750000  -4.263856e+001  3.675552e+001 
3521875000  -4.244964e+001  3.219559e+001 
3525000000  -4.350583e+001  2.995099e+001 
3528125000  -4.341020e+001  3.789971e+001 
3531250000  -4.192395e+001  3.905542e+001 
3534375000  -4.198788e+001  2.473505e+001 
3537500000  -4.228410e+001  2.120891e+001 
3540625000  -4.339386e+001  2.067932e+001 
3543750000  -4.409158e+001  2.280034e+001 
3546875000  -4.381754e+001  3.610392e+001 
3550000000  -4.112586e+001  3.525999e+001 
3553125000  -3.990940e+001  1.682144e+001 
3556250000  -4.133017e+001  1.109352e+001 
3559375000  -4.102746e+001  1.139741e+001 
3562500000  -4.004431e+001  2.331411e+000 
3565625000  -4.104528e+001  -4.763980e+000 
3568750000  -4.125843e+001  -1.510622e+000 
3571875000  -4.084999e+001  -4.082561e+000 
3575000000  -4.059386e+001  -1.063654e+001 
3578125000  -4.102278e+001  -1.798007e+001 
3581250000  -4.167895e+001  -1.630739e+001 
3584375000  -4.050660e+001  -1.993657e+001 
3587500000  -3.980779e+001  -2.718485e+001 
3590625000  -4.050536e+001  -3.766925e+001 
3593750000  -4.159226e+001  -4.017654e+001 
3596875000  -4.171986e+001  -3.590997e+001 
3600000000  -3.998330e+001  -4.191923e+001 
3603125000  -4.068570e+001  -5.561998e+001 
3606250000  -4.133635e+001  -5.950959e+001 
3609375000  -4.197464e+001  -6.188832e+001 
3612500000  -4.260532e+001  -6.543346e+001 
3615625000  -4.293344e+001  -6.771543e+001 
3618750000  -4.353284e+001  -6.905050e+001 
3621875000  -4.371351e+001  -6.942503e+001 
3625000000  -4.461337e+001  -7.235359e+001 
3628125000  -4.416106e+001  -7.197298e+001 
3631250000  -4.407801e+001  -7.594514e+001 
3634375000  -4.562396e+001  -7.782307e+001 
3637500000  -4.537081e+001  -6.916351e+001 
3640625000  -4.452602e+001  -7.098790e+001 
3643750000  -4.438938e+001  -7.559258e+001 
3646875000  -4.486723e+001  -8.313335e+001 
3650000000  -4.534302e+001  -8.275096e+001 
3653125000  -4.532237e+001  -8.213247e+001 
3656250000  -4.589912e+001  -8.233501e+001 
3659375000  -4.550726e+001  -7.912424e+001 
3662500000  -4.501746e+001  -8.402939e+001 
3665625000  -4.470908e+001  -8.219900e+001 
3668750000  -4.341792e+001  -8.305104e+001 
3671875000  -4.225427e+001  -8.864019e+001 
3675000000  -4.276756e+001  -9.800048e+001 
3678125000  -4.312040e+001  -9.799476e+001 
3681250000  -4.282762e+001  -1.017790e+002 
3684375000  -4.278264e+001  -1.052732e+002 
3687500000  -4.278472e+001  -1.104219e+002 
3690625000  -4.261662e+001  -1.148796e+002 
3693750000  -4.368132e+001  -1.162548e+002 
3696875000  -4.327352e+001  -1.140148e+002 
3700000000  -4.228575e+001  -1.191083e+002 
3703125000  -4.245909e+001  -1.250207e+002 
3706250000  -4.350634e+001  -1.247762e+002 
3709375000  -4.329802e+001  -1.243617e+002 
3712500000  -4.224154e+001  -1.260586e+002 
3715625000  -4.151757e+001  -1.329479e+002 
3718750000  -4.129541e+001  -1.384756e+002 
3721875000  -4.112374e+001  -1.471945e+002 
3725000000  -4.157845e+001  -1.517158e+002 
3728125000  -4.174859e+001  -1.537298e+002 
3731250000  -4.137450e+001  -1.552203e+002 
3734375000  -4.111755e+001  -1.615172e+002 
3737500000  -4.206926e+001  -1.690975e+002 
3740625000  -4.296898e+001  -1.722850e+002 
3743750000  -4.319810e+001  -1.767559e+002 
3746875000  -4.351809e+001  -1.767386e+002 
3750000000  -4.425364e+001  -1.793500e+002 
3753125000  -4.429599e+001  -1.779011e+002 
3756250000  -4.488195e+001  -1.770900e+002 
3759375000  -4.462987e+001  -1.785436e+002 
3762500000  -4.426169e+001  1.796199e+002 
3765625000  -4.509403e+001  1.799908e+002 
3768750000  -4.502950e+001  -1.778427e+002 
3771875000  -4.313971e+001  -1.773922e+002 
3775000000  -4.288437e+001  1.773489e+002 
3778125000  -4.319373e+001  1.739486e+002 
3781250000  -4.300159e+001  1.736501e+002 
3784375000  -4.248341e+001  1.723093e+002 
3787500000  -4.194907e+001  1.682019e+002 
3790625000  -4.211203e+001  1.594386e+002 
3793750000  -4.245540e+001  1.610960e+002 
3796875000  -4.090695e+001  1.579428e+002 
3800000000  -3.954961e+001  1.574275e+002 
3803125000  -4.009069e+001  1.474473e+002 
3806250000  -4.093818e+001  1.455425e+002 
3809375000  -4.062642e+001  1.425119e+002 
3812500000  -3.950087e+001  1.354534e+002 
3815625000  -4.043175e+001  1.258569e+002 
3818750000  -4.134828e+001  1.259293e+002 
3821875000  -4.137412e+001  1.338162e+002 
3825000000  -3.943160e+001  1.361734e+002 
3828125000  -3.801293e+001  1.191751e+002 
3831250000  -3.866117e+001  1.052543e+002 
3834375000  -4.027586e+001  1.031213e+002 
3837500000  -4.125338e+001  1.077051e+002 
3840625000  -3.950322e+001  1.050813e+002 
3843750000  -3.883408e+001  9.431511e+001 
3846875000  -3.968214e+001  8.581079e+001 
3850000000  -4.093985e+001  9.132195e+001 
3853125000  -4.046720e+001  9.512251e+001 
3856250000  -4.012495e+001  8.620766e+001 
3859375000  -3.951152e+001  8.077160e+001 
3862500000  -3.930900e+001  7.204671e+001 
3865625000  -3.984938e+001  6.840069e+001 
3868750000  -3.971859e+001  6.848061e+001 
3871875000  -3.909870e+001  6.259747e+001 
3875000000  -3.956998e+001  5.412862e+001 
3878125000  -4.062482e+001  5.272424e+001 
3881250000  -4.081242e+001  5.668898e+001 
3884375000  -4.005580e+001  5.142673e+001 
3887500000  -4.042105e+001  4.540483e+001 
3890625000  -4.095300e+001  4.334437e+001 
3893750000  -4.132856e+001  4.118703e+001 
3896875000  -4.180758e+001  4.388591e+001 
3900000000  -4.174026e+001  4.314098e+001 
3903125000  -4.112852e+001  3.913383e+001 
3906250000  -4.115754e+001  3.818418e+001 
3909375000  -4.031868e+001  3.425213e+001 
3912500000  -4.035882e+001  2.719350e+001 
3915625000  -4.131456e+001  2.708189e+001 
3918750000  -4.103704e+001  2.857266e+001 
3921875000  -4.070169e+001  2.472306e+001 
3925000000  -3.986706e+001  2.302255e+001 
3928125000  -3.900455e+001  1.511067e+001 
3931250000  -3.952860e+001  1.018396e+001 
3934375000  -3.995724e+001  1.121754e+001 
3937500000  -3.995265e+001  8.940997e+000 
3940625000  -4.034142e+001  6.811720e+000 
3943750000  -3.904492e+001  6.302164e+000 
3946875000  -3.811111e+001  7.184159e-001 
3950000000  -3.883726e+001  -8.868018e+000 
3953125000  -3.994683e+001  -9.992368e+000 
3956250000  -3.876636e+001  -6.422741e+000 
3959375000  -3.760043e+001  -1.179154e+001 
3962500000  -3.735381e+001  -1.757489e+001 
3965625000  -3.698901e+001  -2.800954e+001 
3968750000  -3.811481e+001  -3.385844e+001 
3971875000  -3.839127e+001  -3.752392e+001 
3975000000  -3.786776e+001  -4.076954e+001 
3978125000  -3.760489e+001  -4.196946e+001 
3981250000  -3.754270e+001  -4.875012e+001 
3984375000  -3.793999e+001  -5.470798e+001 
3987500000  -3.845230e+001  -5.920090e+001 
3990625000  -3.866728e+001  -6.080463e+001 
3993750000  -3.900971e+001  -6.525232e+001 
3996875000  -3.912995e+001  -6.769432e+001 
4000000000  -3.956470e+001  -6.863620e+001 
4003125000  -3.970136e+001  -6.630598e+001 
4006250000  -3.853494e+001  -6.934618e+001 
4009375000  -3.723841e+001  -8.360957e+001 
4012500000  -3.860168e+001  -8.838390e+001 
4015625000  -4.031881e+001  -8.708249e+001 
4018750000  -4.027671e+001  -8.529961e+001 
4021875000  -3.940257e+001  -8.794524e+001 
4025000000  -3.907006e+001  -9.470641e+001 
4028125000  -3.907377e+001  -9.689228e+001 
4031250000  -3.964222e+001  -1.010302e+002 
4034375000  -3.982998e+001  -1.022843e+002 
4037500000  -3.921530e+001  -9.967230e+001 
4040625000  -3.934896e+001  -1.046951e+002 
4043750000  -3.930445e+001  -1.050585e+002 
4046875000  -3.899173e+001  -1.062978e+002 
4050000000  -3.868778e+001  -1.113983e+002 
4053125000  -3.910982e+001  -1.143097e+002 
4056250000  -3.939706e+001  -1.096129e+002 
4059375000  -3.780926e+001  -1.089692e+002 
4062500000  -3.653695e+001  -1.167594e+002 
4065625000  -3.665727e+001  -1.196965e+002 
4068750000  -3.623781e+001  -1.260723e+002 
4071875000  -3.563780e+001  -1.344704e+002 
4075000000  -3.580976e+001  -1.427014e+002 
4078125000  -3.633091e+001  -1.440984e+002 
4081250000  -3.590778e+001  -1.480394e+002 
4084375000  -3.566441e+001  -1.564478e+002 
4087500000  -3.600704e+001  -1.624546e+002 
4090625000  -3.675372e+001  -1.637343e+002 
4093750000  -3.644955e+001  -1.643050e+002 
4096875000  -3.598935e+001  -1.727095e+002 
4100000000  -3.675700e+001  1.786198e+002 
4103125000  -3.768344e+001  -1.795894e+002 
4106250000  -3.749827e+001  -1.748430e+002 
4109375000  -3.656455e+001  -1.788507e+002 
4112500000  -3.610336e+001  1.724552e+002 
4115625000  -3.654424e+001  1.682267e+002 
4118750000  -3.679656e+001  1.650983e+002 
4121875000  -3.618392e+001  1.587101e+002 
4125000000  -3.681749e+001  1.536613e+002 
4128125000  -3.806074e+001  1.542764e+002 
4131250000  -3.752223e+001  1.600255e+002 
4134375000  -3.536525e+001  1.518281e+002 
4137500000  -3.553578e+001  1.340441e+002 
4140625000  -3.759015e+001  1.274468e+002 
4143750000  -3.904079e+001  1.326886e+002 
4146875000  -3.857863e+001  1.376249e+002 
4150000000  -3.766488e+001  1.345721e+002 
4153125000  -3.742413e+001  1.274647e+002 
4156250000  -3.859597e+001  1.242526e+002 
4159375000  -3.894140e+001  1.290029e+002 
4162500000  -3.784454e+001  1.337091e+002 
4165625000  -3.671176e+001  1.280154e+002 
4168750000  -3.604152e+001  1.194612e+002 
4171875000  -3.607937e+001  1.100038e+002 
4175000000  -3.671551e+001  1.057502e+002 
4178125000  -3.746576e+001  1.046984e+002 
4181250000  -3.707429e+001  1.031595e+002 
4184375000  -3.701151e+001  1.006323e+002 
4187500000  -3.697103e+001  9.667628e+001 
4190625000  -3.671392e+001  9.086058e+001 
4193750000  -3.754087e+001  8.746832e+001 
4196875000  -3.823022e+001  8.540693e+001 
4200000000  -3.919264e+001  8.898148e+001 
4203125000  -3.856947e+001  1.031198e+002 
4206250000  -3.522625e+001  1.013243e+002 
4209375000  -3.417724e+001  7.892529e+001 
4212500000  -3.635932e+001  6.960388e+001 
4215625000  -3.719634e+001  7.791439e+001 
4218750000  -3.547959e+001  8.158027e+001 
4221875000  -3.344133e+001  7.068481e+001 
4225000000  -3.477295e+001  5.763623e+001 
4228125000  -3.499682e+001  6.148234e+001 
4231250000  -3.355940e+001  5.595539e+001 
4234375000  -3.326096e+001  4.789828e+001 
4237500000  -3.290334e+001  4.223280e+001 
4240625000  -3.291708e+001  3.232408e+001 
4243750000  -3.395963e+001  2.340169e+001 
4246875000  -3.490951e+001  2.358570e+001 
4250000000  -3.491626e+001  2.512057e+001 
4253125000  -3.456445e+001  2.242720e+001 
4256250000  -3.475871e+001  1.568096e+001 
4259375000  -3.445627e+001  1.229539e+001 
4262500000  -3.478159e+001  7.036162e+000 
4265625000  -3.481932e+001  8.046678e+000 
4268750000  -3.391083e+001  1.884185e+000 
4271875000  -3.369293e+001  -5.524951e+000 
4275000000  -3.334029e+001  -1.288887e+001 
4278125000  -3.431055e+001  -2.473473e+001 
4281250000  -3.615778e+001  -2.585838e+001 
4284375000  -3.586349e+001  -2.727443e+001 
4287500000  -3.690823e+001  -3.051715e+001 
4290625000  -3.797982e+001  -2.082633e+001 
4293750000  -3.610481e+001  -1.719434e+001 
4296875000  -3.512609e+001  -2.833423e+001 
4300000000  -3.618390e+001  -3.866119e+001 
4303125000  -3.706661e+001  -3.552410e+001 
4306250000  -3.653462e+001  -2.968402e+001 
4309375000  -3.530900e+001  -3.272000e+001 
4312500000  -3.529879e+001  -3.973253e+001 
4315625000  -3.528445e+001  -4.591851e+001 
4318750000  -3.577628e+001  -4.935616e+001 
4321875000  -3.568534e+001  -4.757086e+001 
4325000000  -3.514518e+001  -4.746136e+001 
4328125000  -3.449483e+001  -5.473706e+001 
4331250000  -3.425042e+001  -6.349535e+001 
4334375000  -3.479385e+001  -6.967506e+001 
4337500000  -3.568895e+001  -7.157752e+001 
4340625000  -3.622230e+001  -6.708962e+001 
4343750000  -3.505030e+001  -6.940637e+001 
4346875000  -3.468648e+001  -7.414193e+001 
4350000000  -3.452145e+001  -8.068706e+001 
4353125000  -3.471211e+001  -8.880569e+001 
4356250000  -3.654435e+001  -8.866839e+001 
4359375000  -3.653478e+001  -7.550005e+001 
4362500000  -3.318828e+001  -7.704688e+001 
4365625000  -3.186408e+001  -9.143500e+001 
4368750000  -3.289635e+001  -1.036488e+002 
4371875000  -3.385384e+001  -1.038290e+002 
4375000000  -3.331182e+001  -1.055854e+002 
4378125000  -3.268711e+001  -1.127665e+002 
4381250000  -3.293979e+001  -1.202685e+002 
4384375000  -3.272413e+001  -1.260740e+002 
4387500000  -3.371851e+001  -1.327199e+002 
4390625000  -3.448251e+001  -1.325497e+002 
4393750000  -3.385837e+001  -1.327982e+002 
4396875000  -3.325983e+001  -1.367891e+002 
4400000000  -3.263916e+001  -1.448572e+002 
4403125000  -3.349068e+001  -1.536922e+002 
4406250000  -3.434935e+001  -1.563006e+002 
4409375000  -3.466199e+001  -1.592887e+002 
4412500000  -3.588073e+001  -1.624111e+002 
4415625000  -3.624067e+001  -1.590506e+002 
