!Agilent Technologies,E8363B,MY43030201,A.06.04.32
!Agilent E8363B: A.06.04.32
!Date: Tuesday, November 11, 2014 21:04:19
!Correction: S21(Response(S21)) 
!S1P File: Measurement: S21:
# Hz S  dB   R 50
3000000000  -3.634567e+001  -4.776545e+001 
3003125000  -3.748625e+001  -5.385218e+001 
3006250000  -3.732182e+001  -5.691528e+001 
3009375000  -3.771489e+001  -5.288778e+001 
3012500000  -3.704184e+001  -5.383086e+001 
3015625000  -3.602157e+001  -6.128572e+001 
3018750000  -3.675848e+001  -6.269939e+001 
3021875000  -3.539937e+001  -6.255511e+001 
3025000000  -3.406681e+001  -6.534058e+001 
3028125000  -3.312988e+001  -7.097800e+001 
3031250000  -3.210648e+001  -8.298551e+001 
3034375000  -3.177767e+001  -9.652779e+001 
3037500000  -3.221406e+001  -1.085219e+002 
3040625000  -3.352353e+001  -1.132973e+002 
3043750000  -3.420827e+001  -1.178584e+002 
3046875000  -3.437996e+001  -1.237387e+002 
3050000000  -3.619065e+001  -1.304936e+002 
3053125000  -3.601336e+001  -1.242880e+002 
3056250000  -3.552430e+001  -1.212508e+002 
3059375000  -3.560866e+001  -1.224939e+002 
3062500000  -3.410907e+001  -1.252633e+002 
3065625000  -3.395701e+001  -1.310905e+002 
3068750000  -3.356786e+001  -1.381614e+002 
3071875000  -3.355100e+001  -1.405608e+002 
3075000000  -3.338412e+001  -1.448098e+002 
3078125000  -3.302188e+001  -1.484275e+002 
3081250000  -3.355977e+001  -1.529978e+002 
3084375000  -3.267258e+001  -1.566884e+002 
3087500000  -3.241949e+001  -1.604113e+002 
3090625000  -3.193487e+001  -1.702379e+002 
3093750000  -3.236954e+001  -1.779774e+002 
3096875000  -3.349829e+001  1.764959e+002 
3100000000  -3.336165e+001  1.736463e+002 
3103125000  -3.356636e+001  1.751571e+002 
3106250000  -3.311895e+001  1.708071e+002 
3109375000  -3.317246e+001  1.667657e+002 
3112500000  -3.318259e+001  1.645353e+002 
3115625000  -3.286452e+001  1.595396e+002 
3118750000  -3.311805e+001  1.601834e+002 
3121875000  -3.230639e+001  1.505341e+002 
3125000000  -3.351174e+001  1.466299e+002 
3128125000  -3.446347e+001  1.527757e+002 
3131250000  -3.195796e+001  1.519088e+002 
3134375000  -3.071189e+001  1.366291e+002 
3137500000  -3.136709e+001  1.215878e+002 
3140625000  -3.277891e+001  1.191186e+002 
3143750000  -3.380775e+001  1.206106e+002 
3146875000  -3.337771e+001  1.218284e+002 
3150000000  -3.232280e+001  1.218606e+002 
3153125000  -3.230944e+001  1.124311e+002 
3156250000  -3.335160e+001  1.172407e+002 
3159375000  -3.162231e+001  1.187306e+002 
3162500000  -2.969068e+001  1.041716e+002 
3165625000  -3.079242e+001  9.194331e+001 
3168750000  -3.105115e+001  9.228139e+001 
3171875000  -3.018400e+001  8.655505e+001 
3175000000  -3.096969e+001  7.768815e+001 
3178125000  -3.080374e+001  7.804119e+001 
3181250000  -2.957510e+001  7.302905e+001 
3184375000  -2.892015e+001  6.084031e+001 
3187500000  -3.008718e+001  4.508699e+001 
3190625000  -3.276934e+001  3.659448e+001 
3193750000  -3.340622e+001  4.542351e+001 
3196875000  -3.305091e+001  5.087774e+001 
3200000000  -3.209890e+001  4.766413e+001 
3203125000  -3.138959e+001  4.135709e+001 
3206250000  -3.169853e+001  3.445878e+001 
3209375000  -3.119518e+001  2.854538e+001 
3212500000  -3.135258e+001  2.203219e+001 
3215625000  -3.151804e+001  1.771301e+001 
3218750000  -3.229081e+001  1.088933e+001 
3221875000  -3.308697e+001  5.651751e+000 
3225000000  -3.270752e+001  4.142502e+000 
3228125000  -3.306483e+001  -4.100843e-001 
3231250000  -3.370599e+001  -3.911740e+000 
3234375000  -3.350542e+001  -2.986005e+000 
3237500000  -3.342741e+001  -4.983240e+000 
3240625000  -3.305249e+001  -7.975545e+000 
3243750000  -3.265190e+001  -1.528423e+001 
3246875000  -3.307397e+001  -2.221752e+001 
3250000000  -3.342187e+001  -2.513247e+001 
3253125000  -3.361116e+001  -2.694352e+001 
3256250000  -3.311472e+001  -3.332693e+001 
3259375000  -3.354085e+001  -4.204808e+001 
3262500000  -3.463975e+001  -4.588676e+001 
3265625000  -3.532981e+001  -4.350484e+001 
3268750000  -3.518916e+001  -4.094982e+001 
3271875000  -3.475361e+001  -4.192132e+001 
3275000000  -3.380264e+001  -4.763041e+001 
3278125000  -3.415938e+001  -5.532965e+001 
3281250000  -3.436573e+001  -5.432082e+001 
3284375000  -3.395666e+001  -6.135485e+001 
3287500000  -3.399792e+001  -6.473865e+001 
3290625000  -3.430385e+001  -7.008269e+001 
3293750000  -3.406957e+001  -7.660878e+001 
3296875000  -3.516821e+001  -7.677819e+001 
3300000000  -3.495159e+001  -7.685338e+001 
3303125000  -3.374214e+001  -8.165402e+001 
3306250000  -3.360286e+001  -8.836895e+001 
3309375000  -3.323394e+001  -9.475975e+001 
3312500000  -3.337970e+001  -1.063476e+002 
3315625000  -3.436795e+001  -1.143719e+002 
3318750000  -3.565333e+001  -1.168565e+002 
3321875000  -3.688905e+001  -1.174406e+002 
3325000000  -3.742059e+001  -1.135200e+002 
3328125000  -3.702803e+001  -1.123468e+002 
3331250000  -3.555231e+001  -1.047900e+002 
3334375000  -3.303381e+001  -1.153446e+002 
3337500000  -3.307458e+001  -1.342925e+002 
3340625000  -3.448472e+001  -1.456354e+002 
3343750000  -3.643089e+001  -1.465186e+002 
3346875000  -3.681649e+001  -1.451648e+002 
3350000000  -3.605916e+001  -1.469532e+002 
3353125000  -3.604306e+001  -1.509931e+002 
3356250000  -3.568698e+001  -1.596186e+002 
3359375000  -3.643288e+001  -1.682802e+002 
3362500000  -3.755574e+001  -1.727801e+002 
3365625000  -3.805747e+001  -1.744710e+002 
3368750000  -3.881393e+001  -1.778904e+002 
3371875000  -3.920151e+001  -1.795211e+002 
3375000000  -4.041539e+001  1.758189e+002 
3378125000  -4.125085e+001  1.781004e+002 
3381250000  -4.239921e+001  -1.745164e+002 
3384375000  -4.101982e+001  -1.524805e+002 
3387500000  -3.774068e+001  -1.689610e+002 
3390625000  -3.906148e+001  1.711554e+002 
3393750000  -4.058399e+001  1.743296e+002 
3396875000  -3.934991e+001  1.772577e+002 
3400000000  -3.873110e+001  1.687012e+002 
3403125000  -3.932746e+001  1.643962e+002 
3406250000  -3.968358e+001  1.630350e+002 
3409375000  -3.995050e+001  1.553984e+002 
3412500000  -4.049660e+001  1.535559e+002 
3415625000  -4.121455e+001  1.548242e+002 
3418750000  -4.111090e+001  1.551327e+002 
3421875000  -4.123763e+001  1.572002e+002 
3425000000  -4.038950e+001  1.583404e+002 
3428125000  -3.937811e+001  1.533301e+002 
3431250000  -3.910429e+001  1.469015e+002 
3434375000  -3.916520e+001  1.415437e+002 
3437500000  -3.986570e+001  1.375396e+002 
3440625000  -3.990810e+001  1.394089e+002 
3443750000  -3.862888e+001  1.392173e+002 
3446875000  -3.785969e+001  1.316904e+002 
3450000000  -3.766196e+001  1.218785e+002 
3453125000  -3.804459e+001  1.123019e+002 
3456250000  -3.908266e+001  1.055292e+002 
3459375000  -4.019046e+001  1.054761e+002 
3462500000  -3.992750e+001  1.058424e+002 
3465625000  -4.001665e+001  9.992753e+001 
3468750000  -4.028763e+001  9.642126e+001 
3471875000  -4.010474e+001  9.440489e+001 
3475000000  -3.952468e+001  8.883931e+001 
3478125000  -4.045462e+001  8.339520e+001 
3481250000  -4.124273e+001  7.926652e+001 
3484375000  -4.212738e+001  8.510210e+001 
3487500000  -4.147638e+001  8.303899e+001 
3490625000  -4.085963e+001  7.907101e+001 
3493750000  -4.157991e+001  7.297948e+001 
3496875000  -4.190393e+001  7.305857e+001 
3500000000  -4.257829e+001  7.487938e+001 
3503125000  -4.185928e+001  7.678266e+001 
3506250000  -4.072328e+001  7.119295e+001 
3509375000  -4.112770e+001  6.224106e+001 
3512500000  -4.129486e+001  5.246096e+001 
3515625000  -4.208824e+001  5.112231e+001 
3518750000  -4.270219e+001  5.153734e+001 
3521875000  -4.243272e+001  4.926514e+001 
3525000000  -4.337806e+001  4.435138e+001 
3528125000  -4.390336e+001  5.240213e+001 
3531250000  -4.197250e+001  5.103731e+001 
3534375000  -4.200763e+001  4.026274e+001 
3537500000  -4.237849e+001  3.660197e+001 
3540625000  -4.333112e+001  3.457076e+001 
3543750000  -4.433115e+001  3.946378e+001 
3546875000  -4.400215e+001  5.037159e+001 
3550000000  -4.127368e+001  5.140833e+001 
3553125000  -4.000749e+001  3.352304e+001 
3556250000  -4.159708e+001  2.790214e+001 
3559375000  -4.115518e+001  2.737253e+001 
3562500000  -4.026741e+001  1.720712e+001 
3565625000  -4.101821e+001  1.007909e+001 
3568750000  -4.132075e+001  1.417865e+001 
3571875000  -4.105259e+001  1.247639e+001 
3575000000  -4.078191e+001  4.351127e+000 
3578125000  -4.120686e+001  -1.142081e+000 
3581250000  -4.122131e+001  -1.405872e+000 
3584375000  -4.054866e+001  -6.205967e+000 
3587500000  -4.010142e+001  -1.274637e+001 
3590625000  -4.045155e+001  -2.395668e+001 
3593750000  -4.187346e+001  -2.668453e+001 
3596875000  -4.179615e+001  -2.034276e+001 
3600000000  -4.039673e+001  -2.405019e+001 
3603125000  -4.072888e+001  -3.905561e+001 
3606250000  -4.157344e+001  -4.317612e+001 
3609375000  -4.236077e+001  -4.613445e+001 
3612500000  -4.310685e+001  -4.952065e+001 
3615625000  -4.313992e+001  -5.316512e+001 
3618750000  -4.409980e+001  -5.143075e+001 
3621875000  -4.423771e+001  -5.457438e+001 
3625000000  -4.424626e+001  -5.743675e+001 
3628125000  -4.458008e+001  -5.835898e+001 
3631250000  -4.463263e+001  -6.060699e+001 
3634375000  -4.597513e+001  -6.352875e+001 
3637500000  -4.641599e+001  -5.577501e+001 
3640625000  -4.485971e+001  -5.382307e+001 
3643750000  -4.475468e+001  -6.120231e+001 
3646875000  -4.510361e+001  -6.483844e+001 
3650000000  -4.601082e+001  -6.710943e+001 
3653125000  -4.541906e+001  -6.460626e+001 
3656250000  -4.599393e+001  -6.485748e+001 
3659375000  -4.620163e+001  -6.362059e+001 
3662500000  -4.497366e+001  -6.504327e+001 
3665625000  -4.475441e+001  -6.548016e+001 
3668750000  -4.355746e+001  -6.651490e+001 
3671875000  -4.258549e+001  -7.207343e+001 
3675000000  -4.296227e+001  -7.845686e+001 
3678125000  -4.276107e+001  -8.019305e+001 
3681250000  -4.284792e+001  -8.364757e+001 
3684375000  -4.265564e+001  -9.036974e+001 
3687500000  -4.308016e+001  -9.325757e+001 
3690625000  -4.276756e+001  -9.661375e+001 
3693750000  -4.384335e+001  -9.890408e+001 
3696875000  -4.363632e+001  -9.964016e+001 
3700000000  -4.291774e+001  -1.018887e+002 
3703125000  -4.265025e+001  -1.086622e+002 
3706250000  -4.356469e+001  -1.092497e+002 
3709375000  -4.328900e+001  -1.059989e+002 
3712500000  -4.260767e+001  -1.090421e+002 
3715625000  -4.153023e+001  -1.180757e+002 
3718750000  -4.142488e+001  -1.224768e+002 
3721875000  -4.123683e+001  -1.266707e+002 
3725000000  -4.141819e+001  -1.349943e+002 
3728125000  -4.200558e+001  -1.348422e+002 
3731250000  -4.175451e+001  -1.399196e+002 
3734375000  -4.136366e+001  -1.449025e+002 
3737500000  -4.209192e+001  -1.562305e+002 
3740625000  -4.346760e+001  -1.556775e+002 
3743750000  -4.333163e+001  -1.590672e+002 
3746875000  -4.385336e+001  -1.611238e+002 
3750000000  -4.451058e+001  -1.607740e+002 
3753125000  -4.450738e+001  -1.600105e+002 
3756250000  -4.480825e+001  -1.601035e+002 
3759375000  -4.467012e+001  -1.589925e+002 
3762500000  -4.445324e+001  -1.622399e+002 
3765625000  -4.520468e+001  -1.621523e+002 
3768750000  -4.461588e+001  -1.598113e+002 
3771875000  -4.371383e+001  -1.601634e+002 
3775000000  -4.291804e+001  -1.669851e+002 
3778125000  -4.324777e+001  -1.679782e+002 
3781250000  -4.291443e+001  -1.686250e+002 
3784375000  -4.255812e+001  -1.682162e+002 
3787500000  -4.193866e+001  -1.724934e+002 
3790625000  -4.251172e+001  -1.786953e+002 
3793750000  -4.213994e+001  -1.789444e+002 
3796875000  -4.118633e+001  1.787458e+002 
3800000000  -3.955356e+001  1.739291e+002 
3803125000  -4.008210e+001  1.665772e+002 
3806250000  -4.065635e+001  1.638007e+002 
3809375000  -4.034700e+001  1.598570e+002 
3812500000  -3.972001e+001  1.526320e+002 
3815625000  -4.041143e+001  1.435672e+002 
3818750000  -4.122461e+001  1.419229e+002 
3821875000  -4.125069e+001  1.516223e+002 
3825000000  -3.939283e+001  1.539333e+002 
3828125000  -3.793594e+001  1.377244e+002 
3831250000  -3.856170e+001  1.208397e+002 
3834375000  -4.000072e+001  1.209597e+002 
3837500000  -4.114674e+001  1.232557e+002 
3840625000  -3.977729e+001  1.245826e+002 
3843750000  -3.888957e+001  1.119300e+002 
3846875000  -3.980445e+001  1.035025e+002 
3850000000  -4.107344e+001  1.075227e+002 
3853125000  -4.008576e+001  1.116448e+002 
3856250000  -4.052832e+001  1.042264e+002 
3859375000  -3.998791e+001  9.990596e+001 
3862500000  -3.965951e+001  8.927381e+001 
3865625000  -3.969421e+001  8.709220e+001 
3868750000  -3.964076e+001  8.611838e+001 
3871875000  -3.912202e+001  8.171057e+001 
3875000000  -3.946045e+001  7.156840e+001 
3878125000  -4.068361e+001  6.895716e+001 
3881250000  -4.066808e+001  7.291174e+001 
3884375000  -4.043891e+001  6.821828e+001 
3887500000  -4.023285e+001  6.349675e+001 
3890625000  -4.102139e+001  6.119029e+001 
3893750000  -4.119833e+001  5.932424e+001 
3896875000  -4.161927e+001  6.149334e+001 
3900000000  -4.185564e+001  5.755396e+001 
3903125000  -4.132314e+001  5.776171e+001 
3906250000  -4.086650e+001  5.624179e+001 
3909375000  -3.998379e+001  5.067229e+001 
3912500000  -4.011847e+001  4.548335e+001 
3915625000  -4.119276e+001  4.542087e+001 
3918750000  -4.146703e+001  4.712955e+001 
3921875000  -4.050254e+001  4.198262e+001 
3925000000  -3.986242e+001  4.176192e+001 
3928125000  -3.922990e+001  3.465747e+001 
3931250000  -3.962249e+001  2.929862e+001 
3934375000  -3.993532e+001  2.883471e+001 
3937500000  -3.993796e+001  2.736416e+001 
3940625000  -4.037136e+001  2.430062e+001 
3943750000  -3.935765e+001  2.388174e+001 
3946875000  -3.804859e+001  1.834298e+001 
3950000000  -3.884354e+001  9.393182e+000 
3953125000  -3.996804e+001  7.523191e+000 
3956250000  -3.887242e+001  1.131516e+001 
3959375000  -3.773804e+001  7.830894e+000 
3962500000  -3.700156e+001  1.403138e+000 
3965625000  -3.700125e+001  -9.513016e+000 
3968750000  -3.801448e+001  -1.776504e+001 
3971875000  -3.820551e+001  -1.945076e+001 
3975000000  -3.790778e+001  -2.195132e+001 
3978125000  -3.777913e+001  -2.644749e+001 
3981250000  -3.765379e+001  -2.923857e+001 
3984375000  -3.796031e+001  -3.724595e+001 
3987500000  -3.860636e+001  -3.871759e+001 
3990625000  -3.844973e+001  -4.236067e+001 
3993750000  -3.905774e+001  -4.737000e+001 
3996875000  -3.911657e+001  -4.949408e+001 
4000000000  -3.933356e+001  -5.081835e+001 
4003125000  -3.948672e+001  -4.936625e+001 
4006250000  -3.840300e+001  -5.064475e+001 
4009375000  -3.737975e+001  -6.391952e+001 
4012500000  -3.859541e+001  -7.015421e+001 
4015625000  -3.988198e+001  -6.797392e+001 
4018750000  -4.016396e+001  -6.770535e+001 
4021875000  -3.939164e+001  -7.038641e+001 
4025000000  -3.950451e+001  -7.523862e+001 
4028125000  -3.909518e+001  -7.806372e+001 
4031250000  -3.952273e+001  -8.335300e+001 
4034375000  -3.993920e+001  -8.364967e+001 
4037500000  -3.944033e+001  -8.097100e+001 
4040625000  -3.915800e+001  -8.461810e+001 
4043750000  -3.946104e+001  -8.712898e+001 
4046875000  -3.904155e+001  -8.727766e+001 
4050000000  -3.850467e+001  -9.365904e+001 
4053125000  -3.913153e+001  -9.449089e+001 
4056250000  -3.970374e+001  -9.102030e+001 
4059375000  -3.808958e+001  -9.101975e+001 
4062500000  -3.678971e+001  -9.737452e+001 
4065625000  -3.657922e+001  -1.011500e+002 
4068750000  -3.643031e+001  -1.062403e+002 
4071875000  -3.568258e+001  -1.167847e+002 
4075000000  -3.590007e+001  -1.232042e+002 
4078125000  -3.652875e+001  -1.245535e+002 
4081250000  -3.591616e+001  -1.291722e+002 
4084375000  -3.543230e+001  -1.367416e+002 
4087500000  -3.596187e+001  -1.433104e+002 
4090625000  -3.667962e+001  -1.454141e+002 
4093750000  -3.636628e+001  -1.454934e+002 
4096875000  -3.597747e+001  -1.536626e+002 
4100000000  -3.686568e+001  -1.606011e+002 
4103125000  -3.763230e+001  -1.608949e+002 
4106250000  -3.737646e+001  -1.569214e+002 
4109375000  -3.664252e+001  -1.593829e+002 
4112500000  -3.613225e+001  -1.674492e+002 
4115625000  -3.642783e+001  -1.709985e+002 
4118750000  -3.655069e+001  -1.765781e+002 
4121875000  -3.622873e+001  1.786967e+002 
4125000000  -3.682378e+001  1.710579e+002 
4128125000  -3.787565e+001  1.721210e+002 
4131250000  -3.753041e+001  1.794569e+002 
4134375000  -3.525735e+001  1.733754e+002 
4137500000  -3.523385e+001  1.542278e+002 
4140625000  -3.728844e+001  1.454838e+002 
4143750000  -3.885409e+001  1.504815e+002 
4146875000  -3.833780e+001  1.559027e+002 
4150000000  -3.747517e+001  1.527819e+002 
4153125000  -3.759982e+001  1.457923e+002 
4156250000  -3.856237e+001  1.429387e+002 
4159375000  -3.884489e+001  1.466261e+002 
4162500000  -3.765698e+001  1.522897e+002 
4165625000  -3.662230e+001  1.468590e+002 
4168750000  -3.601208e+001  1.396484e+002 
4171875000  -3.598914e+001  1.281476e+002 
4175000000  -3.686024e+001  1.245006e+002 
4178125000  -3.735796e+001  1.255191e+002 
4181250000  -3.688375e+001  1.238296e+002 
4184375000  -3.684017e+001  1.191063e+002 
4187500000  -3.691485e+001  1.163949e+002 
4190625000  -3.678297e+001  1.116232e+002 
4193750000  -3.735881e+001  1.066559e+002 
4196875000  -3.808185e+001  1.054330e+002 
4200000000  -3.877415e+001  1.075955e+002 
4203125000  -3.851158e+001  1.211289e+002 
4206250000  -3.512974e+001  1.200192e+002 
4209375000  -3.432828e+001  9.969053e+001 
4212500000  -3.603582e+001  9.057776e+001 
4215625000  -3.701521e+001  9.611077e+001 
4218750000  -3.556522e+001  1.015528e+002 
4221875000  -3.331852e+001  9.085311e+001 
4225000000  -3.455691e+001  7.813019e+001 
4228125000  -3.505415e+001  8.218737e+001 
4231250000  -3.344440e+001  7.665057e+001 
4234375000  -3.336398e+001  6.658845e+001 
4237500000  -3.282137e+001  6.251654e+001 
4240625000  -3.284771e+001  5.293660e+001 
4243750000  -3.395261e+001  4.429406e+001 
4246875000  -3.494094e+001  4.342465e+001 
4250000000  -3.470716e+001  4.500413e+001 
4253125000  -3.426579e+001  4.117941e+001 
4256250000  -3.451999e+001  3.574835e+001 
4259375000  -3.421803e+001  3.256001e+001 
4262500000  -3.458479e+001  2.747640e+001 
4265625000  -3.462930e+001  2.774512e+001 
4268750000  -3.387048e+001  2.234887e+001 
4271875000  -3.375048e+001  1.547669e+001 
4275000000  -3.328762e+001  7.690715e+000 
4278125000  -3.415543e+001  -4.297970e+000 
4281250000  -3.579294e+001  -7.744463e+000 
4284375000  -3.562833e+001  -7.604750e+000 
4287500000  -3.663198e+001  -1.236307e+001 
4290625000  -3.818194e+001  -9.801540e-001 
4293750000  -3.616496e+001  2.693050e+000 
4296875000  -3.491608e+001  -7.500767e+000 
4300000000  -3.602896e+001  -1.651155e+001 
4303125000  -3.714622e+001  -1.595107e+001 
4306250000  -3.635505e+001  -1.067923e+001 
4309375000  -3.510791e+001  -1.206244e+001 
4312500000  -3.484900e+001  -1.989835e+001 
4315625000  -3.515548e+001  -2.652022e+001 
4318750000  -3.552073e+001  -2.882936e+001 
4321875000  -3.564912e+001  -2.927204e+001 
4325000000  -3.498704e+001  -2.793684e+001 
4328125000  -3.426536e+001  -3.482025e+001 
4331250000  -3.411287e+001  -4.334732e+001 
4334375000  -3.449170e+001  -4.818090e+001 
4337500000  -3.543457e+001  -5.016967e+001 
4340625000  -3.568145e+001  -4.792596e+001 
4343750000  -3.483918e+001  -4.851544e+001 
4346875000  -3.449538e+001  -5.335489e+001 
4350000000  -3.428797e+001  -6.100602e+001 
4353125000  -3.428878e+001  -6.954890e+001 
4356250000  -3.579192e+001  -6.948524e+001 
4359375000  -3.628071e+001  -5.687970e+001 
4362500000  -3.325897e+001  -5.770948e+001 
4365625000  -3.169069e+001  -7.184405e+001 
4368750000  -3.258801e+001  -8.395738e+001 
4371875000  -3.363089e+001  -8.293860e+001 
4375000000  -3.322747e+001  -8.480936e+001 
4378125000  -3.250164e+001  -9.177850e+001 
4381250000  -3.254918e+001  -9.875007e+001 
4384375000  -3.234476e+001  -1.048899e+002 
4387500000  -3.314108e+001  -1.130173e+002 
4390625000  -3.423605e+001  -1.133641e+002 
4393750000  -3.358716e+001  -1.121103e+002 
4396875000  -3.287408e+001  -1.156602e+002 
4400000000  -3.244446e+001  -1.250012e+002 
4403125000  -3.310944e+001  -1.331031e+002 
4406250000  -3.393744e+001  -1.356955e+002 
4409375000  -3.417381e+001  -1.401942e+002 
4412500000  -3.537009e+001  -1.424949e+002 
4415625000  -3.570552e+001  -1.400282e+002 
