!Agilent Technologies,E8363B,MY43030201,A.06.04.32
!Agilent E8363B: A.06.04.32
!Date: Tuesday, November 11, 2014 21:06:47
!Correction: S21(Response(S21)) 
!S1P File: Measurement: S21:
# Hz S  dB   R 50
3000000000  -3.653203e+001  -4.954431e+001 
3003125000  -3.752130e+001  -5.521669e+001 
3006250000  -3.752180e+001  -5.801707e+001 
3009375000  -3.781720e+001  -5.350533e+001 
3012500000  -3.701886e+001  -5.484010e+001 
3015625000  -3.616546e+001  -6.251487e+001 
3018750000  -3.685218e+001  -6.401680e+001 
3021875000  -3.543767e+001  -6.278498e+001 
3025000000  -3.409646e+001  -6.662442e+001 
3028125000  -3.314757e+001  -7.302029e+001 
3031250000  -3.215475e+001  -8.437358e+001 
3034375000  -3.180020e+001  -9.788348e+001 
3037500000  -3.226655e+001  -1.102013e+002 
3040625000  -3.356643e+001  -1.152620e+002 
3043750000  -3.423839e+001  -1.200401e+002 
3046875000  -3.446297e+001  -1.263677e+002 
3050000000  -3.604597e+001  -1.322790e+002 
3053125000  -3.604604e+001  -1.267909e+002 
3056250000  -3.551421e+001  -1.237651e+002 
3059375000  -3.568510e+001  -1.241024e+002 
3062500000  -3.405702e+001  -1.275979e+002 
3065625000  -3.391083e+001  -1.339208e+002 
3068750000  -3.354943e+001  -1.403106e+002 
3071875000  -3.349708e+001  -1.433905e+002 
3075000000  -3.323351e+001  -1.467440e+002 
3078125000  -3.298682e+001  -1.508082e+002 
3081250000  -3.350240e+001  -1.548466e+002 
3084375000  -3.268710e+001  -1.589220e+002 
3087500000  -3.246082e+001  -1.628313e+002 
3090625000  -3.200647e+001  -1.728314e+002 
3093750000  -3.244023e+001  1.794708e+002 
3096875000  -3.342757e+001  1.737024e+002 
3100000000  -3.345346e+001  1.716449e+002 
3103125000  -3.363437e+001  1.726642e+002 
3106250000  -3.323860e+001  1.677660e+002 
3109375000  -3.325414e+001  1.642170e+002 
3112500000  -3.324555e+001  1.623838e+002 
3115625000  -3.290043e+001  1.574131e+002 
3118750000  -3.316293e+001  1.569887e+002 
3121875000  -3.232919e+001  1.478043e+002 
3125000000  -3.362445e+001  1.439233e+002 
3128125000  -3.440221e+001  1.511447e+002 
3131250000  -3.203001e+001  1.496241e+002 
3134375000  -3.078238e+001  1.340585e+002 
3137500000  -3.134318e+001  1.197813e+002 
3140625000  -3.282987e+001  1.164473e+002 
3143750000  -3.377838e+001  1.177098e+002 
3146875000  -3.324263e+001  1.189783e+002 
3150000000  -3.231458e+001  1.198166e+002 
3153125000  -3.224366e+001  1.106575e+002 
3156250000  -3.337025e+001  1.155333e+002 
3159375000  -3.157411e+001  1.163753e+002 
3162500000  -2.966220e+001  1.022900e+002 
3165625000  -3.067912e+001  8.997689e+001 
3168750000  -3.102916e+001  8.998990e+001 
3171875000  -3.010361e+001  8.470558e+001 
3175000000  -3.091065e+001  7.542965e+001 
3178125000  -3.061712e+001  7.652664e+001 
3181250000  -2.954590e+001  7.093162e+001 
3184375000  -2.881507e+001  5.804326e+001 
3187500000  -3.002680e+001  4.282012e+001 
3190625000  -3.276766e+001  3.454158e+001 
3193750000  -3.327332e+001  4.329454e+001 
3196875000  -3.288628e+001  4.810799e+001 
3200000000  -3.196635e+001  4.526601e+001 
3203125000  -3.117352e+001  3.876524e+001 
3206250000  -3.151381e+001  3.174334e+001 
3209375000  -3.106607e+001  2.619775e+001 
3212500000  -3.127168e+001  1.877340e+001 
3215625000  -3.126774e+001  1.534669e+001 
3218750000  -3.211043e+001  7.675472e+000 
3221875000  -3.295813e+001  3.264057e+000 
3225000000  -3.258760e+001  1.763981e+000 
3228125000  -3.285940e+001  -4.188604e+000 
3231250000  -3.363720e+001  -6.588977e+000 
3234375000  -3.331029e+001  -6.294775e+000 
3237500000  -3.334386e+001  -8.008151e+000 
3240625000  -3.287620e+001  -1.085955e+001 
3243750000  -3.254036e+001  -1.876664e+001 
3246875000  -3.300267e+001  -2.589559e+001 
3250000000  -3.337018e+001  -2.852284e+001 
3253125000  -3.339273e+001  -2.998175e+001 
3256250000  -3.307817e+001  -3.733776e+001 
3259375000  -3.336090e+001  -4.554441e+001 
3262500000  -3.456212e+001  -4.950320e+001 
3265625000  -3.511999e+001  -4.630492e+001 
3268750000  -3.503498e+001  -4.511259e+001 
3271875000  -3.479789e+001  -4.496906e+001 
3275000000  -3.371843e+001  -5.162801e+001 
3278125000  -3.423447e+001  -5.841421e+001 
3281250000  -3.424020e+001  -5.700882e+001 
3284375000  -3.386565e+001  -6.404266e+001 
3287500000  -3.409946e+001  -6.764751e+001 
3290625000  -3.437101e+001  -7.287466e+001 
3293750000  -3.407727e+001  -7.923885e+001 
3296875000  -3.516920e+001  -7.975385e+001 
3300000000  -3.488663e+001  -7.865012e+001 
3303125000  -3.359421e+001  -8.516779e+001 
3306250000  -3.350476e+001  -9.161340e+001 
3309375000  -3.316483e+001  -9.835252e+001 
3312500000  -3.331754e+001  -1.088854e+002 
3315625000  -3.428507e+001  -1.167786e+002 
3318750000  -3.571066e+001  -1.194010e+002 
3321875000  -3.689058e+001  -1.197752e+002 
3325000000  -3.725456e+001  -1.141529e+002 
3328125000  -3.676723e+001  -1.142319e+002 
3331250000  -3.557141e+001  -1.066347e+002 
3334375000  -3.286592e+001  -1.182203e+002 
3337500000  -3.300890e+001  -1.367858e+002 
3340625000  -3.438616e+001  -1.485268e+002 
3343750000  -3.636018e+001  -1.496348e+002 
3346875000  -3.644128e+001  -1.482966e+002 
3350000000  -3.582541e+001  -1.497708e+002 
3353125000  -3.603725e+001  -1.540570e+002 
3356250000  -3.538806e+001  -1.630919e+002 
3359375000  -3.626961e+001  -1.711920e+002 
3362500000  -3.727502e+001  -1.770231e+002 
3365625000  -3.790079e+001  -1.781667e+002 
3368750000  -3.866043e+001  -1.799908e+002 
3371875000  -3.892345e+001  1.766512e+002 
3375000000  -4.027661e+001  1.744544e+002 
3378125000  -4.104709e+001  1.729429e+002 
3381250000  -4.230348e+001  -1.777115e+002 
3384375000  -4.102974e+001  -1.580135e+002 
3387500000  -3.727155e+001  -1.722547e+002 
3390625000  -3.898678e+001  1.685616e+002 
3393750000  -4.011522e+001  1.711574e+002 
3396875000  -3.920518e+001  1.726459e+002 
3400000000  -3.866790e+001  1.648938e+002 
3403125000  -3.916539e+001  1.588017e+002 
3406250000  -3.951043e+001  1.583341e+002 
3409375000  -3.980141e+001  1.518245e+002 
3412500000  -4.021574e+001  1.489660e+002 
3415625000  -4.101047e+001  1.503898e+002 
3418750000  -4.111755e+001  1.504627e+002 
3421875000  -4.129215e+001  1.533387e+002 
3425000000  -4.022997e+001  1.524380e+002 
3428125000  -3.944910e+001  1.501432e+002 
3431250000  -3.922439e+001  1.430438e+002 
3434375000  -3.933456e+001  1.365311e+002 
3437500000  -3.971117e+001  1.326537e+002 
3440625000  -3.977756e+001  1.358295e+002 
3443750000  -3.873643e+001  1.347074e+002 
3446875000  -3.791599e+001  1.270402e+002 
3450000000  -3.758479e+001  1.169320e+002 
3453125000  -3.798663e+001  1.078237e+002 
3456250000  -3.903288e+001  1.014624e+002 
3459375000  -3.987814e+001  1.011744e+002 
3462500000  -4.000674e+001  1.024324e+002 
3465625000  -3.968023e+001  9.647957e+001 
3468750000  -4.012244e+001  9.289612e+001 
3471875000  -4.016960e+001  9.142702e+001 
3475000000  -3.949935e+001  8.593283e+001 
3478125000  -4.028154e+001  7.912648e+001 
3481250000  -4.112897e+001  7.661415e+001 
3484375000  -4.213604e+001  8.036271e+001 
3487500000  -4.138465e+001  7.983823e+001 
3490625000  -4.078338e+001  7.577077e+001 
3493750000  -4.123277e+001  6.764021e+001 
3496875000  -4.171474e+001  6.666942e+001 
3500000000  -4.267215e+001  6.775136e+001 
3503125000  -4.215242e+001  7.042312e+001 
3506250000  -4.050073e+001  6.626685e+001 
3509375000  -4.031560e+001  5.543306e+001 
3512500000  -4.107524e+001  4.734139e+001 
3515625000  -4.196200e+001  4.409232e+001 
3518750000  -4.254153e+001  4.600805e+001 
3521875000  -4.250602e+001  4.420164e+001 
3525000000  -4.336925e+001  4.145063e+001 
3528125000  -4.338867e+001  4.494325e+001 
3531250000  -4.235861e+001  4.589063e+001 
3534375000  -4.218631e+001  3.580214e+001 
3537500000  -4.277850e+001  3.024387e+001 
3540625000  -4.356311e+001  2.770705e+001 
3543750000  -4.444982e+001  3.333023e+001 
3546875000  -4.395536e+001  4.702889e+001 
3550000000  -4.165483e+001  4.510523e+001 
3553125000  -4.024128e+001  2.829681e+001 
3556250000  -4.193579e+001  2.233796e+001 
3559375000  -4.161524e+001  2.384901e+001 
3562500000  -4.043866e+001  1.494198e+001 
3565625000  -4.137788e+001  8.142692e+000 
3568750000  -4.148415e+001  1.005385e+001 
3571875000  -4.116044e+001  8.798905e+000 
3575000000  -4.096864e+001  1.747145e+000 
3578125000  -4.151015e+001  -1.443421e+000 
3581250000  -4.132009e+001  -4.498827e+000 
3584375000  -4.070607e+001  -6.328019e+000 
3587500000  -4.029770e+001  -1.481865e+001 
3590625000  -4.049363e+001  -2.590190e+001 
3593750000  -4.200232e+001  -2.840632e+001 
3596875000  -4.166111e+001  -2.020748e+001 
3600000000  -4.012611e+001  -2.806006e+001 
3603125000  -4.058812e+001  -4.289054e+001 
3606250000  -4.117451e+001  -4.655369e+001 
3609375000  -4.212475e+001  -4.817558e+001 
3612500000  -4.237221e+001  -5.180579e+001 
3615625000  -4.277918e+001  -5.547643e+001 
3618750000  -4.330937e+001  -5.416668e+001 
3621875000  -4.347170e+001  -5.907442e+001 
3625000000  -4.409898e+001  -5.880978e+001 
3628125000  -4.423512e+001  -6.123109e+001 
3631250000  -4.397498e+001  -6.736807e+001 
3634375000  -4.556841e+001  -6.926384e+001 
3637500000  -4.520772e+001  -6.481182e+001 
3640625000  -4.465755e+001  -6.079929e+001 
3643750000  -4.387932e+001  -6.777676e+001 
3646875000  -4.495482e+001  -7.485537e+001 
3650000000  -4.558055e+001  -7.209604e+001 
3653125000  -4.549036e+001  -7.615312e+001 
3656250000  -4.594742e+001  -7.469035e+001 
3659375000  -4.622616e+001  -7.182793e+001 
3662500000  -4.521779e+001  -7.180042e+001 
3665625000  -4.535441e+001  -7.259789e+001 
3668750000  -4.414358e+001  -7.109365e+001 
3671875000  -4.318321e+001  -7.743688e+001 
3675000000  -4.342639e+001  -8.589355e+001 
3678125000  -4.357609e+001  -8.656432e+001 
3681250000  -4.330839e+001  -8.832220e+001 
3684375000  -4.312428e+001  -9.147899e+001 
3687500000  -4.345395e+001  -9.671088e+001 
3690625000  -4.314557e+001  -1.005781e+002 
3693750000  -4.432372e+001  -1.007749e+002 
3696875000  -4.393834e+001  -9.777312e+001 
3700000000  -4.296213e+001  -1.060856e+002 
3703125000  -4.325425e+001  -1.118619e+002 
3706250000  -4.411040e+001  -1.084031e+002 
3709375000  -4.357127e+001  -1.098018e+002 
3712500000  -4.267215e+001  -1.122094e+002 
3715625000  -4.148352e+001  -1.179776e+002 
3718750000  -4.162019e+001  -1.246835e+002 
3721875000  -4.156866e+001  -1.311029e+002 
3725000000  -4.141306e+001  -1.373290e+002 
3728125000  -4.217672e+001  -1.391305e+002 
3731250000  -4.174850e+001  -1.388896e+002 
3734375000  -4.125320e+001  -1.471390e+002 
3737500000  -4.220355e+001  -1.538358e+002 
3740625000  -4.295386e+001  -1.579985e+002 
3743750000  -4.266860e+001  -1.606403e+002 
3746875000  -4.337267e+001  -1.637969e+002 
3750000000  -4.403748e+001  -1.648350e+002 
3753125000  -4.410743e+001  -1.661970e+002 
3756250000  -4.427345e+001  -1.634177e+002 
3759375000  -4.411454e+001  -1.635639e+002 
3762500000  -4.412812e+001  -1.665269e+002 
3765625000  -4.502261e+001  -1.676632e+002 
3768750000  -4.452127e+001  -1.624668e+002 
3771875000  -4.317857e+001  -1.669760e+002 
3775000000  -4.274506e+001  -1.727863e+002 
3778125000  -4.318768e+001  -1.737490e+002 
3781250000  -4.310337e+001  -1.758759e+002 
3784375000  -4.286695e+001  -1.764230e+002 
3787500000  -4.203212e+001  -1.776707e+002 
3790625000  -4.272494e+001  1.727619e+002 
3793750000  -4.272369e+001  1.727110e+002 
3796875000  -4.148248e+001  1.716339e+002 
3800000000  -3.987360e+001  1.702765e+002 
3803125000  -4.027227e+001  1.615202e+002 
3806250000  -4.119740e+001  1.578068e+002 
3809375000  -4.087900e+001  1.557678e+002 
3812500000  -3.991598e+001  1.500349e+002 
3815625000  -4.050056e+001  1.382112e+002 
3818750000  -4.150305e+001  1.373480e+002 
3821875000  -4.125171e+001  1.475025e+002 
3825000000  -3.966064e+001  1.503736e+002 
3828125000  -3.804903e+001  1.350983e+002 
3831250000  -3.882333e+001  1.199993e+002 
3834375000  -4.015873e+001  1.180595e+002 
3837500000  -4.126896e+001  1.230265e+002 
3840625000  -3.997857e+001  1.189009e+002 
3843750000  -3.899478e+001  1.072782e+002 
3846875000  -3.975422e+001  1.007524e+002 
3850000000  -4.100385e+001  1.056385e+002 
3853125000  -4.041049e+001  1.074979e+002 
3856250000  -4.048945e+001  1.021870e+002 
3859375000  -3.958589e+001  9.644313e+001 
3862500000  -3.919548e+001  8.740824e+001 
3865625000  -3.976593e+001  8.249224e+001 
3868750000  -3.954696e+001  8.317023e+001 
3871875000  -3.893112e+001  7.906120e+001 
3875000000  -3.946149e+001  6.984425e+001 
3878125000  -4.046154e+001  6.531545e+001 
3881250000  -4.041271e+001  6.860603e+001 
3884375000  -4.015004e+001  6.475237e+001 
3887500000  -4.011144e+001  6.086369e+001 
3890625000  -4.085869e+001  5.808518e+001 
3893750000  -4.094681e+001  5.469778e+001 
3896875000  -4.142451e+001  5.694798e+001 
3900000000  -4.117945e+001  5.386911e+001 
3903125000  -4.107091e+001  5.013059e+001 
3906250000  -4.054855e+001  5.069666e+001 
3909375000  -4.001458e+001  4.652033e+001 
3912500000  -4.006294e+001  3.900981e+001 
3915625000  -4.162163e+001  3.867826e+001 
3918750000  -4.105437e+001  4.093724e+001 
3921875000  -4.065810e+001  3.599458e+001 
3925000000  -3.996116e+001  3.536977e+001 
3928125000  -3.942236e+001  2.792290e+001 
3931250000  -3.924905e+001  2.270686e+001 
3934375000  -3.998417e+001  2.327201e+001 
3937500000  -3.999582e+001  1.896223e+001 
3940625000  -4.066600e+001  2.024226e+001 
3943750000  -3.939909e+001  1.865499e+001 
3946875000  -3.853708e+001  1.276440e+001 
3950000000  -3.912748e+001  4.939198e+000 
3953125000  -4.006424e+001  4.194836e+000 
3956250000  -3.890890e+001  7.082460e+000 
3959375000  -3.789707e+001  1.749178e+000 
3962500000  -3.731526e+001  -2.489455e+000 
3965625000  -3.724404e+001  -1.337492e+001 
3968750000  -3.835954e+001  -2.228711e+001 
3971875000  -3.856993e+001  -2.262237e+001 
3975000000  -3.776853e+001  -2.631795e+001 
3978125000  -3.799442e+001  -2.807402e+001 
3981250000  -3.790897e+001  -3.362953e+001 
3984375000  -3.797234e+001  -3.936389e+001 
3987500000  -3.846020e+001  -4.368808e+001 
3990625000  -3.841475e+001  -4.382094e+001 
3993750000  -3.885680e+001  -4.904639e+001 
3996875000  -3.908130e+001  -5.174504e+001 
4000000000  -3.902477e+001  -5.292403e+001 
4003125000  -3.967194e+001  -5.294436e+001 
4006250000  -3.813468e+001  -5.348396e+001 
4009375000  -3.727082e+001  -6.664705e+001 
4012500000  -3.851112e+001  -7.325355e+001 
4015625000  -3.975299e+001  -7.320315e+001 
4018750000  -4.002532e+001  -7.195951e+001 
4021875000  -3.887431e+001  -7.228620e+001 
4025000000  -3.862040e+001  -7.774329e+001 
4028125000  -3.888047e+001  -8.350796e+001 
4031250000  -3.932215e+001  -8.653812e+001 
4034375000  -3.958079e+001  -8.738760e+001 
4037500000  -3.908701e+001  -8.575729e+001 
4040625000  -3.889591e+001  -9.015273e+001 
4043750000  -3.918686e+001  -9.254289e+001 
4046875000  -3.868744e+001  -9.255757e+001 
4050000000  -3.823234e+001  -9.980225e+001 
4053125000  -3.893497e+001  -1.015588e+002 
4056250000  -3.922922e+001  -9.753389e+001 
4059375000  -3.821701e+001  -9.613894e+001 
4062500000  -3.662986e+001  -1.034811e+002 
4065625000  -3.659922e+001  -1.077659e+002 
4068750000  -3.660476e+001  -1.140285e+002 
4071875000  -3.563092e+001  -1.236246e+002 
4075000000  -3.615533e+001  -1.287784e+002 
4078125000  -3.662749e+001  -1.300221e+002 
4081250000  -3.612873e+001  -1.336035e+002 
4084375000  -3.568473e+001  -1.423370e+002 
4087500000  -3.609366e+001  -1.494423e+002 
4090625000  -3.687730e+001  -1.505498e+002 
4093750000  -3.652656e+001  -1.527690e+002 
4096875000  -3.604148e+001  -1.584998e+002 
4100000000  -3.717627e+001  -1.664192e+002 
4103125000  -3.796020e+001  -1.655439e+002 
4106250000  -3.766831e+001  -1.609174e+002 
4109375000  -3.682476e+001  -1.643430e+002 
4112500000  -3.613882e+001  -1.712101e+002 
4115625000  -3.661727e+001  -1.762245e+002 
4118750000  -3.677620e+001  -1.796349e+002 
4121875000  -3.625238e+001  1.750402e+002 
4125000000  -3.682758e+001  1.687670e+002 
4128125000  -3.791122e+001  1.688952e+002 
4131250000  -3.771070e+001  1.756567e+002 
4134375000  -3.532539e+001  1.680744e+002 
4137500000  -3.520829e+001  1.508273e+002 
4140625000  -3.738288e+001  1.421150e+002 
4143750000  -3.874067e+001  1.470266e+002 
4146875000  -3.854837e+001  1.533023e+002 
4150000000  -3.735300e+001  1.494988e+002 
4153125000  -3.733088e+001  1.411643e+002 
4156250000  -3.844935e+001  1.397194e+002 
4159375000  -3.877314e+001  1.433936e+002 
4162500000  -3.760642e+001  1.475631e+002 
4165625000  -3.634280e+001  1.422173e+002 
4168750000  -3.581834e+001  1.334867e+002 
4171875000  -3.586369e+001  1.234392e+002 
4175000000  -3.642090e+001  1.182609e+002 
4178125000  -3.694492e+001  1.182694e+002 
4181250000  -3.654305e+001  1.166445e+002 
4184375000  -3.680413e+001  1.139711e+002 
4187500000  -3.667362e+001  1.104649e+002 
4190625000  -3.654549e+001  1.042100e+002 
4193750000  -3.732110e+001  9.972390e+001 
4196875000  -3.801765e+001  9.850865e+001 
4200000000  -3.901209e+001  1.010369e+002 
4203125000  -3.867716e+001  1.145327e+002 
4206250000  -3.498921e+001  1.133947e+002 
4209375000  -3.416946e+001  9.194737e+001 
4212500000  -3.618724e+001  8.339030e+001 
4215625000  -3.704710e+001  9.015520e+001 
4218750000  -3.570701e+001  9.588548e+001 
4221875000  -3.342842e+001  8.447195e+001 
4225000000  -3.483382e+001  7.079372e+001 
4228125000  -3.515335e+001  7.575318e+001 
4231250000  -3.352845e+001  7.054852e+001 
4234375000  -3.347878e+001  6.195191e+001 
4237500000  -3.307215e+001  5.688033e+001 
4240625000  -3.315066e+001  4.714173e+001 
4243750000  -3.414042e+001  3.876582e+001 
4246875000  -3.509512e+001  3.879964e+001 
4250000000  -3.504312e+001  4.016254e+001 
4253125000  -3.455626e+001  3.685572e+001 
4256250000  -3.478788e+001  3.063864e+001 
4259375000  -3.443555e+001  2.654587e+001 
4262500000  -3.483458e+001  2.266317e+001 
4265625000  -3.502718e+001  2.398170e+001 
4268750000  -3.394319e+001  1.778829e+001 
4271875000  -3.387897e+001  1.029298e+001 
4275000000  -3.354931e+001  3.158911e+000 
4278125000  -3.413686e+001  -8.096912e+000 
4281250000  -3.582291e+001  -1.133778e+001 
4284375000  -3.591075e+001  -9.981419e+000 
4287500000  -3.677034e+001  -1.545547e+001 
4290625000  -3.822784e+001  -6.949754e+000 
4293750000  -3.614471e+001  -4.469652e-001 
4296875000  -3.505856e+001  -1.173895e+001 
4300000000  -3.585947e+001  -1.955634e+001 
4303125000  -3.700069e+001  -1.994501e+001 
4306250000  -3.640880e+001  -1.507632e+001 
4309375000  -3.499173e+001  -1.568606e+001 
4312500000  -3.470090e+001  -2.542214e+001 
4315625000  -3.508563e+001  -3.070625e+001 
4318750000  -3.544675e+001  -3.470657e+001 
4321875000  -3.538779e+001  -3.344273e+001 
4325000000  -3.496806e+001  -3.407633e+001 
4328125000  -3.428271e+001  -3.982067e+001 
4331250000  -3.402308e+001  -4.793493e+001 
4334375000  -3.440863e+001  -5.393213e+001 
4337500000  -3.517139e+001  -5.700134e+001 
4340625000  -3.555476e+001  -5.437374e+001 
4343750000  -3.480492e+001  -5.322980e+001 
4346875000  -3.455256e+001  -6.082600e+001 
4350000000  -3.436169e+001  -6.574185e+001 
4353125000  -3.458528e+001  -7.437842e+001 
4356250000  -3.632067e+001  -7.718433e+001 
4359375000  -3.646072e+001  -6.337260e+001 
4362500000  -3.356418e+001  -6.363441e+001 
4365625000  -3.190005e+001  -7.771473e+001 
4368750000  -3.280017e+001  -9.071935e+001 
4371875000  -3.389518e+001  -9.106560e+001 
4375000000  -3.327756e+001  -9.167254e+001 
4378125000  -3.284267e+001  -9.807727e+001 
4381250000  -3.296647e+001  -1.052090e+002 
4384375000  -3.272834e+001  -1.110585e+002 
4387500000  -3.357219e+001  -1.183868e+002 
4390625000  -3.457276e+001  -1.189406e+002 
4393750000  -3.389260e+001  -1.173566e+002 
4396875000  -3.346717e+001  -1.209764e+002 
4400000000  -3.285576e+001  -1.292025e+002 
4403125000  -3.344880e+001  -1.390145e+002 
4406250000  -3.439882e+001  -1.403273e+002 
4409375000  -3.445934e+001  -1.436104e+002 
4412500000  -3.580877e+001  -1.473648e+002 
4415625000  -3.604127e+001  -1.436823e+002 
