!Agilent Technologies,E8363B,MY43030201,A.06.04.32
!Agilent E8363B: A.06.04.32
!Date: Tuesday, November 11, 2014 21:04:56
!Correction: S21(Response(S21)) 
!S1P File: Measurement: S21:
# Hz S  dB   R 50
3000000000  -3.624887e+001  -5.168726e+001 
3003125000  -3.741031e+001  -5.714632e+001 
3006250000  -3.723927e+001  -6.037077e+001 
3009375000  -3.753462e+001  -5.528984e+001 
3012500000  -3.693555e+001  -5.727277e+001 
3015625000  -3.597634e+001  -6.398098e+001 
3018750000  -3.693055e+001  -6.503114e+001 
3021875000  -3.543163e+001  -6.425556e+001 
3025000000  -3.410680e+001  -6.820213e+001 
3028125000  -3.318444e+001  -7.397541e+001 
3031250000  -3.214587e+001  -8.519978e+001 
3034375000  -3.185631e+001  -9.838052e+001 
3037500000  -3.227737e+001  -1.102883e+002 
3040625000  -3.359737e+001  -1.155562e+002 
3043750000  -3.433070e+001  -1.194910e+002 
3046875000  -3.442476e+001  -1.257979e+002 
3050000000  -3.611536e+001  -1.326318e+002 
3053125000  -3.614067e+001  -1.261688e+002 
3056250000  -3.558603e+001  -1.234590e+002 
3059375000  -3.568029e+001  -1.231643e+002 
3062500000  -3.417816e+001  -1.265562e+002 
3065625000  -3.400747e+001  -1.329556e+002 
3068750000  -3.365481e+001  -1.397477e+002 
3071875000  -3.350578e+001  -1.422663e+002 
3075000000  -3.326220e+001  -1.459321e+002 
3078125000  -3.311428e+001  -1.495656e+002 
3081250000  -3.359407e+001  -1.540268e+002 
3084375000  -3.267751e+001  -1.576080e+002 
3087500000  -3.247446e+001  -1.615923e+002 
3090625000  -3.189430e+001  -1.716881e+002 
3093750000  -3.236102e+001  -1.794393e+002 
3096875000  -3.342110e+001  1.750018e+002 
3100000000  -3.329444e+001  1.734034e+002 
3103125000  -3.355736e+001  1.733486e+002 
3106250000  -3.311837e+001  1.695412e+002 
3109375000  -3.315971e+001  1.649507e+002 
3112500000  -3.309969e+001  1.629205e+002 
3115625000  -3.275957e+001  1.582836e+002 
3118750000  -3.315139e+001  1.583336e+002 
3121875000  -3.223241e+001  1.482468e+002 
3125000000  -3.350026e+001  1.445338e+002 
3128125000  -3.435315e+001  1.513579e+002 
3131250000  -3.197551e+001  1.498362e+002 
3134375000  -3.064574e+001  1.343914e+002 
3137500000  -3.129160e+001  1.201251e+002 
3140625000  -3.274625e+001  1.171454e+002 
3143750000  -3.374142e+001  1.184986e+002 
3146875000  -3.329944e+001  1.196705e+002 
3150000000  -3.227097e+001  1.197691e+002 
3153125000  -3.230766e+001  1.107399e+002 
3156250000  -3.335314e+001  1.151500e+002 
3159375000  -3.168459e+001  1.164981e+002 
3162500000  -2.978708e+001  1.020271e+002 
3165625000  -3.082040e+001  8.997012e+001 
3168750000  -3.109349e+001  9.004633e+001 
3171875000  -3.022746e+001  8.466988e+001 
3175000000  -3.105125e+001  7.522018e+001 
3178125000  -3.078369e+001  7.608372e+001 
3181250000  -2.965281e+001  7.116010e+001 
3184375000  -2.909696e+001  5.856317e+001 
3187500000  -3.026572e+001  4.281252e+001 
3190625000  -3.295050e+001  3.480485e+001 
3193750000  -3.360224e+001  4.393251e+001 
3196875000  -3.320345e+001  4.881735e+001 
3200000000  -3.228476e+001  4.578887e+001 
3203125000  -3.151874e+001  3.951617e+001 
3206250000  -3.185434e+001  3.297574e+001 
3209375000  -3.135060e+001  2.720814e+001 
3212500000  -3.157822e+001  2.008930e+001 
3215625000  -3.153448e+001  1.602511e+001 
3218750000  -3.241292e+001  9.538056e+000 
3221875000  -3.330024e+001  4.435726e+000 
3225000000  -3.285806e+001  3.692324e+000 
3228125000  -3.319794e+001  -1.977512e+000 
3231250000  -3.379449e+001  -5.261429e+000 
3234375000  -3.357680e+001  -4.181541e+000 
3237500000  -3.352397e+001  -5.906873e+000 
3240625000  -3.317042e+001  -8.581165e+000 
3243750000  -3.269849e+001  -1.620640e+001 
3246875000  -3.309619e+001  -2.314995e+001 
3250000000  -3.354289e+001  -2.530257e+001 
3253125000  -3.359735e+001  -2.720731e+001 
3256250000  -3.329918e+001  -3.394260e+001 
3259375000  -3.346783e+001  -4.267219e+001 
3262500000  -3.455952e+001  -4.658999e+001 
3265625000  -3.527211e+001  -4.366088e+001 
3268750000  -3.516280e+001  -4.170477e+001 
3271875000  -3.479663e+001  -4.259121e+001 
3275000000  -3.382650e+001  -4.897162e+001 
3278125000  -3.411816e+001  -5.538743e+001 
3281250000  -3.434481e+001  -5.451928e+001 
3284375000  -3.386441e+001  -6.183064e+001 
3287500000  -3.411316e+001  -6.544814e+001 
3290625000  -3.431841e+001  -7.109502e+001 
3293750000  -3.411999e+001  -7.772781e+001 
3296875000  -3.509315e+001  -7.827493e+001 
3300000000  -3.491964e+001  -7.779442e+001 
3303125000  -3.364891e+001  -8.315346e+001 
3306250000  -3.348291e+001  -8.984151e+001 
3309375000  -3.328153e+001  -9.662463e+001 
3312500000  -3.333035e+001  -1.079076e+002 
3315625000  -3.428976e+001  -1.164146e+002 
3318750000  -3.572348e+001  -1.192561e+002 
3321875000  -3.678852e+001  -1.187605e+002 
3325000000  -3.726008e+001  -1.125720e+002 
3328125000  -3.695498e+001  -1.126603e+002 
3331250000  -3.584218e+001  -1.063360e+002 
3334375000  -3.315059e+001  -1.163513e+002 
3337500000  -3.328848e+001  -1.369779e+002 
3340625000  -3.467409e+001  -1.480527e+002 
3343750000  -3.664118e+001  -1.491772e+002 
3346875000  -3.699094e+001  -1.471092e+002 
3350000000  -3.623241e+001  -1.490873e+002 
3353125000  -3.628193e+001  -1.530008e+002 
3356250000  -3.578880e+001  -1.610584e+002 
3359375000  -3.663293e+001  -1.693405e+002 
3362500000  -3.788202e+001  -1.741537e+002 
3365625000  -3.826944e+001  -1.751236e+002 
3368750000  -3.914772e+001  -1.784020e+002 
3371875000  -3.936070e+001  1.791140e+002 
3375000000  -4.042648e+001  1.771119e+002 
3378125000  -4.162370e+001  1.767305e+002 
3381250000  -4.248390e+001  -1.743102e+002 
3384375000  -4.178149e+001  -1.526154e+002 
3387500000  -3.818050e+001  -1.697190e+002 
3390625000  -3.946695e+001  1.731068e+002 
3393750000  -4.053824e+001  1.754007e+002 
3396875000  -3.936399e+001  1.771789e+002 
3400000000  -3.881875e+001  1.687919e+002 
3403125000  -3.961021e+001  1.634508e+002 
3406250000  -3.982296e+001  1.626462e+002 
3409375000  -4.002234e+001  1.566180e+002 
3412500000  -4.043916e+001  1.545608e+002 
3415625000  -4.118276e+001  1.531891e+002 
3418750000  -4.114022e+001  1.545476e+002 
3421875000  -4.122977e+001  1.581859e+002 
3425000000  -4.033319e+001  1.578433e+002 
3428125000  -3.936610e+001  1.521538e+002 
3431250000  -3.928997e+001  1.475144e+002 
3434375000  -3.910830e+001  1.405076e+002 
3437500000  -3.973502e+001  1.359771e+002 
3440625000  -4.010119e+001  1.378514e+002 
3443750000  -3.870158e+001  1.380023e+002 
3446875000  -3.802800e+001  1.307520e+002 
3450000000  -3.779380e+001  1.199413e+002 
3453125000  -3.817099e+001  1.108749e+002 
3456250000  -3.943946e+001  1.054543e+002 
3459375000  -4.027237e+001  1.046776e+002 
3462500000  -4.027061e+001  1.043817e+002 
3465625000  -4.012650e+001  9.993176e+001 
3468750000  -4.047388e+001  9.535969e+001 
3471875000  -4.046232e+001  9.437973e+001 
3475000000  -4.015106e+001  9.083798e+001 
3478125000  -4.077853e+001  8.193060e+001 
3481250000  -4.191967e+001  8.087751e+001 
3484375000  -4.246054e+001  8.440347e+001 
3487500000  -4.176356e+001  8.517475e+001 
3490625000  -4.115223e+001  7.914322e+001 
3493750000  -4.193559e+001  7.436324e+001 
3496875000  -4.216285e+001  7.291876e+001 
3500000000  -4.287373e+001  7.585768e+001 
3503125000  -4.224430e+001  7.927892e+001 
3506250000  -4.119096e+001  7.526238e+001 
3509375000  -4.111295e+001  6.518018e+001 
3512500000  -4.135942e+001  5.652060e+001 
3515625000  -4.193077e+001  5.557778e+001 
3518750000  -4.248620e+001  5.580286e+001 
3521875000  -4.208438e+001  5.281606e+001 
3525000000  -4.332171e+001  4.744899e+001 
3528125000  -4.283483e+001  5.470768e+001 
3531250000  -4.144199e+001  5.474909e+001 
3534375000  -4.149454e+001  4.323982e+001 
3537500000  -4.168035e+001  3.874156e+001 
3540625000  -4.271792e+001  3.550196e+001 
3543750000  -4.345431e+001  3.877781e+001 
3546875000  -4.305698e+001  4.946260e+001 
3550000000  -4.043674e+001  5.058545e+001 
3553125000  -3.909248e+001  3.163702e+001 
3556250000  -4.082557e+001  2.419439e+001 
3559375000  -4.057983e+001  2.559490e+001 
3562500000  -3.947589e+001  1.583086e+001 
3565625000  -4.041735e+001  8.229921e+000 
3568750000  -4.078044e+001  1.173322e+001 
3571875000  -4.058606e+001  8.777629e+000 
3575000000  -4.028468e+001  -6.513516e-002 
3578125000  -4.080388e+001  -4.264738e+000 
3581250000  -4.111674e+001  -5.909471e+000 
3584375000  -4.043017e+001  -9.137316e+000 
3587500000  -4.010155e+001  -1.872172e+001 
3590625000  -4.048698e+001  -2.894626e+001 
3593750000  -4.166914e+001  -2.975576e+001 
3596875000  -4.188498e+001  -2.470774e+001 
3600000000  -4.058021e+001  -2.933464e+001 
3603125000  -4.136029e+001  -4.469329e+001 
3606250000  -4.232958e+001  -4.973275e+001 
3609375000  -4.283459e+001  -5.110064e+001 
3612500000  -4.384424e+001  -5.292156e+001 
3615625000  -4.395547e+001  -5.371635e+001 
3618750000  -4.492270e+001  -5.155987e+001 
3621875000  -4.471407e+001  -5.562351e+001 
3625000000  -4.560846e+001  -5.738823e+001 
3628125000  -4.558585e+001  -5.659779e+001 
3631250000  -4.522776e+001  -5.939878e+001 
3634375000  -4.651120e+001  -5.769167e+001 
3637500000  -4.678307e+001  -5.369309e+001 
3640625000  -4.543601e+001  -4.907726e+001 
3643750000  -4.462888e+001  -4.947155e+001 
3646875000  -4.496812e+001  -5.843710e+001 
3650000000  -4.557557e+001  -5.646941e+001 
3653125000  -4.483390e+001  -5.841154e+001 
3656250000  -4.503487e+001  -6.213450e+001 
3659375000  -4.459830e+001  -5.851715e+001 
3662500000  -4.378024e+001  -5.673941e+001 
3665625000  -4.381973e+001  -6.046697e+001 
3668750000  -4.237099e+001  -6.251264e+001 
3671875000  -4.171862e+001  -7.121117e+001 
3675000000  -4.175937e+001  -7.915044e+001 
3678125000  -4.206923e+001  -8.215310e+001 
3681250000  -4.185975e+001  -8.514351e+001 
3684375000  -4.169020e+001  -9.122093e+001 
3687500000  -4.184543e+001  -9.631999e+001 
3690625000  -4.163028e+001  -1.016326e+002 
3693750000  -4.299541e+001  -1.038664e+002 
3696875000  -4.271391e+001  -1.008430e+002 
3700000000  -4.193252e+001  -1.092178e+002 
3703125000  -4.207517e+001  -1.132512e+002 
3706250000  -4.335602e+001  -1.137366e+002 
3709375000  -4.286200e+001  -1.137316e+002 
3712500000  -4.210015e+001  -1.172868e+002 
3715625000  -4.124217e+001  -1.242209e+002 
3718750000  -4.102733e+001  -1.291327e+002 
3721875000  -4.132685e+001  -1.352385e+002 
3725000000  -4.151793e+001  -1.426129e+002 
3728125000  -4.236485e+001  -1.431572e+002 
3731250000  -4.191599e+001  -1.434448e+002 
3734375000  -4.180453e+001  -1.519473e+002 
3737500000  -4.290071e+001  -1.595348e+002 
3740625000  -4.395126e+001  -1.599599e+002 
3743750000  -4.448906e+001  -1.636145e+002 
3746875000  -4.460056e+001  -1.647798e+002 
3750000000  -4.536709e+001  -1.619995e+002 
3753125000  -4.545067e+001  -1.613284e+002 
3756250000  -4.536779e+001  -1.582814e+002 
3759375000  -4.553378e+001  -1.571614e+002 
3762500000  -4.478057e+001  -1.595159e+002 
3765625000  -4.542803e+001  -1.581950e+002 
3768750000  -4.540152e+001  -1.557061e+002 
3771875000  -4.353348e+001  -1.570839e+002 
3775000000  -4.294001e+001  -1.620179e+002 
3778125000  -4.316941e+001  -1.635692e+002 
3781250000  -4.256702e+001  -1.655830e+002 
3784375000  -4.233871e+001  -1.687439e+002 
3787500000  -4.152023e+001  -1.707681e+002 
3790625000  -4.187803e+001  -1.790515e+002 
3793750000  -4.160132e+001  -1.796068e+002 
3796875000  -4.044733e+001  1.772123e+002 
3800000000  -3.886399e+001  1.745810e+002 
3803125000  -3.962178e+001  1.641931e+002 
3806250000  -4.060258e+001  1.603078e+002 
3809375000  -3.996150e+001  1.575394e+002 
3812500000  -3.899435e+001  1.527737e+002 
3815625000  -3.972937e+001  1.418368e+002 
3818750000  -4.080768e+001  1.406269e+002 
3821875000  -4.081826e+001  1.483391e+002 
3825000000  -3.884899e+001  1.491271e+002 
3828125000  -3.771469e+001  1.327382e+002 
3831250000  -3.844786e+001  1.175923e+002 
3834375000  -3.987477e+001  1.164854e+002 
3837500000  -4.079333e+001  1.199964e+002 
3840625000  -3.957761e+001  1.185431e+002 
3843750000  -3.880210e+001  1.065593e+002 
3846875000  -3.933135e+001  9.840282e+001 
3850000000  -4.129060e+001  1.046058e+002 
3853125000  -4.020694e+001  1.051513e+002 
3856250000  -4.013567e+001  9.881005e+001 
3859375000  -3.949794e+001  9.380928e+001 
3862500000  -3.986506e+001  8.464923e+001 
3865625000  -4.011274e+001  8.093029e+001 
3868750000  -4.009925e+001  8.128176e+001 
3871875000  -3.979208e+001  7.573527e+001 
3875000000  -3.993307e+001  6.862198e+001 
3878125000  -4.105614e+001  6.735014e+001 
3881250000  -4.118513e+001  7.087457e+001 
3884375000  -4.107653e+001  6.501272e+001 
3887500000  -4.115437e+001  6.351628e+001 
3890625000  -4.137157e+001  6.072119e+001 
3893750000  -4.204997e+001  5.721254e+001 
3896875000  -4.241188e+001  6.184815e+001 
3900000000  -4.177100e+001  5.972628e+001 
3903125000  -4.145150e+001  5.869932e+001 
3906250000  -4.123878e+001  5.653776e+001 
3909375000  -4.032435e+001  5.330641e+001 
3912500000  -4.064673e+001  4.609261e+001 
3915625000  -4.132309e+001  4.671206e+001 
3918750000  -4.104436e+001  4.678880e+001 
3921875000  -4.088921e+001  4.451971e+001 
3925000000  -3.958354e+001  4.126116e+001 
3928125000  -3.891374e+001  3.479610e+001 
3931250000  -3.935757e+001  2.969197e+001 
3934375000  -3.959375e+001  2.826315e+001 
3937500000  -3.971351e+001  2.583885e+001 
3940625000  -4.001509e+001  2.535217e+001 
3943750000  -3.890694e+001  2.429272e+001 
3946875000  -3.786885e+001  1.880305e+001 
3950000000  -3.842196e+001  8.020246e+000 
3953125000  -3.958776e+001  6.778119e+000 
3956250000  -3.848280e+001  7.897956e+000 
3959375000  -3.714845e+001  4.922710e+000 
3962500000  -3.673046e+001  -2.445401e+000 
3965625000  -3.654859e+001  -1.174135e+001 
3968750000  -3.734441e+001  -2.033231e+001 
3971875000  -3.790841e+001  -2.306538e+001 
3975000000  -3.737926e+001  -2.573447e+001 
3978125000  -3.745800e+001  -2.986171e+001 
3981250000  -3.751699e+001  -3.618301e+001 
3984375000  -3.774478e+001  -4.204433e+001 
3987500000  -3.844635e+001  -4.548254e+001 
3990625000  -3.852940e+001  -4.606638e+001 
3993750000  -3.884250e+001  -5.201130e+001 
3996875000  -3.907291e+001  -5.435585e+001 
4000000000  -3.966780e+001  -5.735562e+001 
4003125000  -3.998441e+001  -5.648137e+001 
4006250000  -3.858825e+001  -5.559427e+001 
4009375000  -3.781234e+001  -6.926527e+001 
4012500000  -3.926104e+001  -7.642553e+001 
4015625000  -4.073717e+001  -7.423627e+001 
4018750000  -4.102975e+001  -7.207221e+001 
4021875000  -4.036811e+001  -7.318904e+001 
4025000000  -3.987183e+001  -7.790043e+001 
4028125000  -3.981600e+001  -8.112747e+001 
4031250000  -4.059420e+001  -8.442899e+001 
4034375000  -4.085341e+001  -8.401407e+001 
4037500000  -4.025084e+001  -7.989476e+001 
4040625000  -3.989914e+001  -8.399673e+001 
4043750000  -4.036531e+001  -8.404561e+001 
4046875000  -3.958405e+001  -8.414434e+001 
4050000000  -3.890996e+001  -9.071334e+001 
4053125000  -3.927110e+001  -9.415083e+001 
4056250000  -3.959798e+001  -8.977962e+001 
4059375000  -3.821737e+001  -9.027981e+001 
4062500000  -3.675745e+001  -9.454540e+001 
4065625000  -3.671989e+001  -9.884573e+001 
4068750000  -3.616116e+001  -1.069153e+002 
4071875000  -3.539392e+001  -1.153362e+002 
4075000000  -3.561646e+001  -1.225572e+002 
4078125000  -3.629952e+001  -1.242265e+002 
4081250000  -3.581268e+001  -1.275713e+002 
4084375000  -3.527873e+001  -1.364913e+002 
4087500000  -3.550414e+001  -1.436565e+002 
4090625000  -3.608453e+001  -1.461678e+002 
4093750000  -3.583689e+001  -1.473403e+002 
4096875000  -3.554406e+001  -1.549623e+002 
4100000000  -3.619249e+001  -1.628551e+002 
4103125000  -3.709314e+001  -1.639310e+002 
4106250000  -3.727714e+001  -1.601016e+002 
4109375000  -3.618507e+001  -1.630564e+002 
4112500000  -3.559994e+001  -1.705045e+002 
4115625000  -3.601751e+001  -1.756648e+002 
4118750000  -3.641479e+001  -1.797740e+002 
4121875000  -3.587450e+001  1.743426e+002 
4125000000  -3.635041e+001  1.672499e+002 
4128125000  -3.750613e+001  1.664824e+002 
4131250000  -3.732797e+001  1.744176e+002 
4134375000  -3.510749e+001  1.678523e+002 
4137500000  -3.506580e+001  1.470740e+002 
4140625000  -3.731567e+001  1.402990e+002 
4143750000  -3.919677e+001  1.454408e+002 
4146875000  -3.863448e+001  1.533158e+002 
4150000000  -3.790438e+001  1.485794e+002 
4153125000  -3.799628e+001  1.395642e+002 
4156250000  -3.906645e+001  1.397123e+002 
4159375000  -3.954720e+001  1.452877e+002 
4162500000  -3.839958e+001  1.475905e+002 
4165625000  -3.731310e+001  1.444510e+002 
4168750000  -3.685772e+001  1.386523e+002 
4171875000  -3.677659e+001  1.286741e+002 
4175000000  -3.744300e+001  1.245520e+002 
4178125000  -3.808393e+001  1.244527e+002 
4181250000  -3.759137e+001  1.236900e+002 
4184375000  -3.733469e+001  1.209643e+002 
4187500000  -3.732870e+001  1.186615e+002 
4190625000  -3.697813e+001  1.123698e+002 
4193750000  -3.781947e+001  1.089608e+002 
4196875000  -3.817902e+001  1.087288e+002 
4200000000  -3.914260e+001  1.099180e+002 
4203125000  -3.873444e+001  1.252865e+002 
4206250000  -3.508022e+001  1.223361e+002 
4209375000  -3.412445e+001  1.010280e+002 
4212500000  -3.614647e+001  9.320546e+001 
4215625000  -3.683801e+001  9.808253e+001 
4218750000  -3.528793e+001  1.033225e+002 
4221875000  -3.274680e+001  9.254742e+001 
4225000000  -3.419577e+001  7.765572e+001 
4228125000  -3.466071e+001  8.206525e+001 
4231250000  -3.307451e+001  7.713851e+001 
4234375000  -3.287619e+001  6.720679e+001 
4237500000  -3.247383e+001  6.214162e+001 
4240625000  -3.234400e+001  5.093708e+001 
4243750000  -3.352454e+001  4.282943e+001 
4246875000  -3.455828e+001  4.137634e+001 
4250000000  -3.451606e+001  4.248661e+001 
4253125000  -3.388964e+001  3.890928e+001 
4256250000  -3.420983e+001  3.413199e+001 
4259375000  -3.411057e+001  3.007140e+001 
4262500000  -3.407481e+001  2.506704e+001 
4265625000  -3.447012e+001  2.353018e+001 
4268750000  -3.350213e+001  1.797149e+001 
4271875000  -3.361570e+001  9.945526e+000 
4275000000  -3.303843e+001  2.841368e+000 
4278125000  -3.367430e+001  -9.200525e+000 
4281250000  -3.597295e+001  -1.208125e+001 
4284375000  -3.555645e+001  -1.228323e+001 
4287500000  -3.679338e+001  -1.654195e+001 
4290625000  -3.840601e+001  -6.967245e+000 
4293750000  -3.653463e+001  -1.980543e+000 
4296875000  -3.519115e+001  -1.317183e+001 
4300000000  -3.633985e+001  -2.204763e+001 
4303125000  -3.782148e+001  -2.128119e+001 
4306250000  -3.693386e+001  -1.369395e+001 
4309375000  -3.593386e+001  -1.622108e+001 
4312500000  -3.566827e+001  -2.357476e+001 
4315625000  -3.580531e+001  -2.871791e+001 
4318750000  -3.643160e+001  -3.142129e+001 
4321875000  -3.618003e+001  -2.931727e+001 
4325000000  -3.572217e+001  -2.809323e+001 
4328125000  -3.496296e+001  -3.432592e+001 
4331250000  -3.463314e+001  -4.242797e+001 
4334375000  -3.505560e+001  -4.786272e+001 
4337500000  -3.568149e+001  -4.906235e+001 
4340625000  -3.600488e+001  -4.551711e+001 
4343750000  -3.503636e+001  -4.574136e+001 
4346875000  -3.467109e+001  -5.319511e+001 
4350000000  -3.441832e+001  -5.769610e+001 
4353125000  -3.438790e+001  -6.672334e+001 
4356250000  -3.597604e+001  -6.903339e+001 
4359375000  -3.636139e+001  -5.472861e+001 
4362500000  -3.326487e+001  -5.593136e+001 
4365625000  -3.172331e+001  -6.976784e+001 
4368750000  -3.227184e+001  -8.282938e+001 
4371875000  -3.346905e+001  -8.300031e+001 
4375000000  -3.271299e+001  -8.429471e+001 
4378125000  -3.208995e+001  -9.204588e+001 
4381250000  -3.224937e+001  -1.003559e+002 
4384375000  -3.208431e+001  -1.057894e+002 
4387500000  -3.298345e+001  -1.133876e+002 
4390625000  -3.374602e+001  -1.148778e+002 
4393750000  -3.319101e+001  -1.139668e+002 
4396875000  -3.237700e+001  -1.183581e+002 
4400000000  -3.206318e+001  -1.277900e+002 
4403125000  -3.261840e+001  -1.370876e+002 
4406250000  -3.365838e+001  -1.395555e+002 
4409375000  -3.376304e+001  -1.433946e+002 
4412500000  -3.506413e+001  -1.474793e+002 
4415625000  -3.547829e+001  -1.440678e+002 
