!Agilent Technologies,E8363B,MY43030201,A.06.04.32
!Agilent E8363B: A.06.04.32
!Date: Tuesday, November 11, 2014 21:02:55
!Correction: S21(Response(S21)) 
!S1P File: Measurement: S21:
# Hz S  dB   R 50
3000000000  -3.642263e+001  -4.534595e+001 
3003125000  -3.762686e+001  -5.187492e+001 
3006250000  -3.745691e+001  -5.439632e+001 
3009375000  -3.762886e+001  -4.963931e+001 
3012500000  -3.698097e+001  -5.188986e+001 
3015625000  -3.597793e+001  -5.972128e+001 
3018750000  -3.683954e+001  -5.986078e+001 
3021875000  -3.532729e+001  -5.977516e+001 
3025000000  -3.414602e+001  -6.262935e+001 
3028125000  -3.309935e+001  -6.925562e+001 
3031250000  -3.209105e+001  -8.037233e+001 
3034375000  -3.169913e+001  -9.440100e+001 
3037500000  -3.215991e+001  -1.060391e+002 
3040625000  -3.345247e+001  -1.107992e+002 
3043750000  -3.423816e+001  -1.158135e+002 
3046875000  -3.431030e+001  -1.221896e+002 
3050000000  -3.591465e+001  -1.283058e+002 
3053125000  -3.595989e+001  -1.223446e+002 
3056250000  -3.539973e+001  -1.198415e+002 
3059375000  -3.564594e+001  -1.196664e+002 
3062500000  -3.407985e+001  -1.233722e+002 
3065625000  -3.386878e+001  -1.296223e+002 
3068750000  -3.358053e+001  -1.366595e+002 
3071875000  -3.346466e+001  -1.394655e+002 
3075000000  -3.326218e+001  -1.429327e+002 
3078125000  -3.302586e+001  -1.468077e+002 
3081250000  -3.352105e+001  -1.517916e+002 
3084375000  -3.266030e+001  -1.546411e+002 
3087500000  -3.246328e+001  -1.588486e+002 
3090625000  -3.196976e+001  -1.689452e+002 
3093750000  -3.234747e+001  -1.760090e+002 
3096875000  -3.341122e+001  1.777917e+002 
3100000000  -3.335753e+001  1.753616e+002 
3103125000  -3.366490e+001  1.764888e+002 
3106250000  -3.322903e+001  1.721427e+002 
3109375000  -3.317897e+001  1.681561e+002 
3112500000  -3.319291e+001  1.662250e+002 
3115625000  -3.284552e+001  1.617979e+002 
3118750000  -3.318291e+001  1.615944e+002 
3121875000  -3.237824e+001  1.523056e+002 
3125000000  -3.352184e+001  1.482950e+002 
3128125000  -3.448684e+001  1.549637e+002 
3131250000  -3.208558e+001  1.536107e+002 
3134375000  -3.074407e+001  1.383981e+002 
3137500000  -3.128484e+001  1.235344e+002 
3140625000  -3.280105e+001  1.210196e+002 
3143750000  -3.395035e+001  1.229157e+002 
3146875000  -3.335729e+001  1.238270e+002 
3150000000  -3.226916e+001  1.241427e+002 
3153125000  -3.228182e+001  1.144259e+002 
3156250000  -3.333348e+001  1.193022e+002 
3159375000  -3.165712e+001  1.205962e+002 
3162500000  -2.970805e+001  1.061896e+002 
3165625000  -3.073625e+001  9.399854e+001 
3168750000  -3.109785e+001  9.422434e+001 
3171875000  -3.017970e+001  8.841708e+001 
3175000000  -3.087291e+001  7.974687e+001 
3178125000  -3.069784e+001  8.047113e+001 
3181250000  -2.956161e+001  7.513398e+001 
3184375000  -2.887662e+001  6.225885e+001 
3187500000  -3.002007e+001  4.708886e+001 
3190625000  -3.276609e+001  3.851887e+001 
3193750000  -3.336314e+001  4.749873e+001 
3196875000  -3.299265e+001  5.215663e+001 
3200000000  -3.204982e+001  4.950596e+001 
3203125000  -3.123236e+001  4.351554e+001 
3206250000  -3.158376e+001  3.662234e+001 
3209375000  -3.108550e+001  3.062981e+001 
3212500000  -3.127161e+001  2.325568e+001 
3215625000  -3.134756e+001  1.928124e+001 
3218750000  -3.207292e+001  1.187906e+001 
3221875000  -3.301296e+001  6.825798e+000 
3225000000  -3.261733e+001  6.060099e+000 
3228125000  -3.296774e+001  7.898803e-001 
3231250000  -3.366396e+001  -2.568445e+000 
3234375000  -3.336422e+001  -2.348929e+000 
3237500000  -3.336613e+001  -4.440678e+000 
3240625000  -3.296566e+001  -6.495035e+000 
3243750000  -3.261897e+001  -1.397102e+001 
3246875000  -3.295518e+001  -2.143950e+001 
3250000000  -3.338107e+001  -2.383641e+001 
3253125000  -3.350416e+001  -2.560504e+001 
3256250000  -3.320787e+001  -3.240806e+001 
3259375000  -3.348555e+001  -4.117023e+001 
3262500000  -3.456327e+001  -4.520034e+001 
3265625000  -3.532227e+001  -4.286954e+001 
3268750000  -3.514983e+001  -3.957468e+001 
3271875000  -3.491148e+001  -4.059077e+001 
3275000000  -3.377764e+001  -4.675256e+001 
3278125000  -3.430510e+001  -5.365788e+001 
3281250000  -3.446495e+001  -5.245622e+001 
3284375000  -3.391278e+001  -5.911725e+001 
3287500000  -3.407590e+001  -6.266982e+001 
3290625000  -3.442209e+001  -6.871883e+001 
3293750000  -3.420563e+001  -7.470050e+001 
3296875000  -3.525429e+001  -7.577164e+001 
3300000000  -3.495152e+001  -7.490183e+001 
3303125000  -3.370126e+001  -7.999785e+001 
3306250000  -3.363397e+001  -8.704549e+001 
3309375000  -3.330330e+001  -9.286311e+001 
3312500000  -3.331325e+001  -1.039840e+002 
3315625000  -3.439386e+001  -1.123744e+002 
3318750000  -3.586898e+001  -1.148501e+002 
3321875000  -3.683713e+001  -1.156305e+002 
3325000000  -3.736471e+001  -1.098152e+002 
3328125000  -3.695433e+001  -1.094592e+002 
3331250000  -3.583227e+001  -1.035842e+002 
3334375000  -3.310934e+001  -1.134417e+002 
3337500000  -3.312506e+001  -1.326953e+002 
3340625000  -3.442733e+001  -1.437001e+002 
3343750000  -3.649727e+001  -1.438935e+002 
3346875000  -3.656440e+001  -1.431694e+002 
3350000000  -3.606096e+001  -1.448358e+002 
3353125000  -3.597194e+001  -1.496302e+002 
3356250000  -3.560691e+001  -1.577968e+002 
3359375000  -3.628780e+001  -1.663004e+002 
3362500000  -3.748667e+001  -1.718596e+002 
3365625000  -3.786161e+001  -1.722770e+002 
3368750000  -3.860499e+001  -1.753462e+002 
3371875000  -3.898931e+001  -1.785054e+002 
3375000000  -4.038352e+001  1.797309e+002 
3378125000  -4.134669e+001  1.790832e+002 
3381250000  -4.243029e+001  -1.702899e+002 
3384375000  -4.121774e+001  -1.512155e+002 
3387500000  -3.766416e+001  -1.673848e+002 
3390625000  -3.913244e+001  1.715825e+002 
3393750000  -4.043593e+001  1.762739e+002 
3396875000  -3.914286e+001  1.782344e+002 
3400000000  -3.874850e+001  1.706884e+002 
3403125000  -3.936755e+001  1.654373e+002 
3406250000  -3.972682e+001  1.649526e+002 
3409375000  -3.984317e+001  1.553402e+002 
3412500000  -4.022891e+001  1.534364e+002 
3415625000  -4.099452e+001  1.543560e+002 
3418750000  -4.121244e+001  1.551381e+002 
3421875000  -4.130993e+001  1.581141e+002 
3425000000  -4.023737e+001  1.591632e+002 
3428125000  -3.940238e+001  1.551743e+002 
3431250000  -3.932918e+001  1.494969e+002 
3434375000  -3.938552e+001  1.405844e+002 
3437500000  -3.971455e+001  1.384583e+002 
3440625000  -4.006646e+001  1.400420e+002 
3443750000  -3.875473e+001  1.414293e+002 
3446875000  -3.793311e+001  1.326056e+002 
3450000000  -3.761425e+001  1.226452e+002 
3453125000  -3.797492e+001  1.124289e+002 
3456250000  -3.897987e+001  1.068441e+002 
3459375000  -4.018463e+001  1.065954e+002 
3462500000  -3.983321e+001  1.062097e+002 
3465625000  -3.975318e+001  1.034789e+002 
3468750000  -4.009337e+001  9.747024e+001 
3471875000  -4.013330e+001  9.677181e+001 
3475000000  -3.958695e+001  9.072825e+001 
3478125000  -4.037957e+001  8.471311e+001 
3481250000  -4.103399e+001  8.257981e+001 
3484375000  -4.222903e+001  8.444253e+001 
3487500000  -4.138329e+001  8.476719e+001 
3490625000  -4.056228e+001  8.053382e+001 
3493750000  -4.132373e+001  7.304076e+001 
3496875000  -4.190651e+001  7.275224e+001 
3500000000  -4.231549e+001  7.513794e+001 
3503125000  -4.165461e+001  7.526794e+001 
3506250000  -4.071299e+001  7.060088e+001 
3509375000  -4.061403e+001  6.172828e+001 
3512500000  -4.120269e+001  5.176445e+001 
3515625000  -4.191141e+001  4.992970e+001 
3518750000  -4.235920e+001  5.058875e+001 
3521875000  -4.261563e+001  4.837941e+001 
3525000000  -4.358514e+001  4.721945e+001 
3528125000  -4.341694e+001  5.232236e+001 
3531250000  -4.218182e+001  5.139936e+001 
3534375000  -4.233294e+001  4.116309e+001 
3537500000  -4.249979e+001  3.699662e+001 
3540625000  -4.358581e+001  3.470009e+001 
3543750000  -4.440324e+001  3.575712e+001 
3546875000  -4.419574e+001  4.926183e+001 
3550000000  -4.161593e+001  5.167442e+001 
3553125000  -4.042719e+001  3.394033e+001 
3556250000  -4.158215e+001  2.750322e+001 
3559375000  -4.164435e+001  2.910536e+001 
3562500000  -4.059638e+001  1.880694e+001 
3565625000  -4.146735e+001  1.297219e+001 
3568750000  -4.160198e+001  1.512012e+001 
3571875000  -4.134978e+001  1.388899e+001 
3575000000  -4.084216e+001  7.212439e+000 
3578125000  -4.152316e+001  1.742008e+000 
3581250000  -4.163475e+001  6.710789e-001 
3584375000  -4.071358e+001  -1.825583e+000 
3587500000  -4.012742e+001  -9.805519e+000 
3590625000  -4.040984e+001  -2.019824e+001 
3593750000  -4.181408e+001  -2.256410e+001 
3596875000  -4.194910e+001  -1.615759e+001 
3600000000  -4.023693e+001  -2.160114e+001 
3603125000  -4.101313e+001  -3.512819e+001 
3606250000  -4.167289e+001  -4.112932e+001 
3609375000  -4.216317e+001  -4.398840e+001 
3612500000  -4.255079e+001  -4.676968e+001 
3615625000  -4.282399e+001  -5.067019e+001 
3618750000  -4.402429e+001  -5.039460e+001 
3621875000  -4.356128e+001  -5.365746e+001 
3625000000  -4.403976e+001  -5.478349e+001 
3628125000  -4.466093e+001  -5.491200e+001 
3631250000  -4.383671e+001  -6.148072e+001 
3634375000  -4.573971e+001  -6.167645e+001 
3637500000  -4.574779e+001  -5.553026e+001 
3640625000  -4.497835e+001  -5.514088e+001 
3643750000  -4.425979e+001  -5.876330e+001 
3646875000  -4.506586e+001  -6.522871e+001 
3650000000  -4.599973e+001  -7.023193e+001 
3653125000  -4.569615e+001  -6.780530e+001 
3656250000  -4.607442e+001  -6.736936e+001 
3659375000  -4.631845e+001  -6.372330e+001 
3662500000  -4.536246e+001  -6.679955e+001 
3665625000  -4.539428e+001  -6.590717e+001 
3668750000  -4.425732e+001  -6.459666e+001 
3671875000  -4.351014e+001  -7.458777e+001 
3675000000  -4.350617e+001  -7.934921e+001 
3678125000  -4.368956e+001  -7.932430e+001 
3681250000  -4.331656e+001  -8.296468e+001 
3684375000  -4.328036e+001  -8.805673e+001 
3687500000  -4.325273e+001  -8.957380e+001 
3690625000  -4.324649e+001  -9.618116e+001 
3693750000  -4.414180e+001  -9.652281e+001 
3696875000  -4.377041e+001  -9.397134e+001 
3700000000  -4.304078e+001  -9.734608e+001 
3703125000  -4.296948e+001  -1.049908e+002 
3706250000  -4.418708e+001  -1.057383e+002 
3709375000  -4.354949e+001  -1.020263e+002 
3712500000  -4.256913e+001  -1.045487e+002 
3715625000  -4.198018e+001  -1.130407e+002 
3718750000  -4.129239e+001  -1.170869e+002 
3721875000  -4.140501e+001  -1.242292e+002 
3725000000  -4.159209e+001  -1.307017e+002 
3728125000  -4.224868e+001  -1.319422e+002 
3731250000  -4.179065e+001  -1.331261e+002 
3734375000  -4.100044e+001  -1.409072e+002 
3737500000  -4.195842e+001  -1.474182e+002 
3740625000  -4.287998e+001  -1.522904e+002 
3743750000  -4.257656e+001  -1.546845e+002 
3746875000  -4.322871e+001  -1.563792e+002 
3750000000  -4.448920e+001  -1.603001e+002 
3753125000  -4.388596e+001  -1.583023e+002 
3756250000  -4.429022e+001  -1.575426e+002 
3759375000  -4.432876e+001  -1.568016e+002 
3762500000  -4.395683e+001  -1.598675e+002 
3765625000  -4.440856e+001  -1.614730e+002 
3768750000  -4.479156e+001  -1.590403e+002 
3771875000  -4.320043e+001  -1.597326e+002 
3775000000  -4.259315e+001  -1.666476e+002 
3778125000  -4.310287e+001  -1.669056e+002 
3781250000  -4.279906e+001  -1.676214e+002 
3784375000  -4.261385e+001  -1.698223e+002 
3787500000  -4.184846e+001  -1.719696e+002 
3790625000  -4.246358e+001  -1.793483e+002 
3793750000  -4.276063e+001  -1.799954e+002 
3796875000  -4.152699e+001  1.794623e+002 
3800000000  -3.970710e+001  1.767290e+002 
3803125000  -4.025945e+001  1.666283e+002 
3806250000  -4.114779e+001  1.649513e+002 
3809375000  -4.069138e+001  1.620292e+002 
3812500000  -3.990321e+001  1.558097e+002 
3815625000  -4.038189e+001  1.481724e+002 
3818750000  -4.142944e+001  1.461754e+002 
3821875000  -4.158946e+001  1.518529e+002 
3825000000  -3.957776e+001  1.578772e+002 
3828125000  -3.821152e+001  1.403280e+002 
3831250000  -3.883716e+001  1.250101e+002 
3834375000  -4.014201e+001  1.238675e+002 
3837500000  -4.093678e+001  1.288884e+002 
3840625000  -4.004494e+001  1.259698e+002 
3843750000  -3.921807e+001  1.126927e+002 
3846875000  -3.985043e+001  1.078785e+002 
3850000000  -4.115108e+001  1.123685e+002 
3853125000  -4.047540e+001  1.132877e+002 
3856250000  -4.012770e+001  1.084868e+002 
3859375000  -3.944790e+001  1.004343e+002 
3862500000  -3.934437e+001  9.519650e+001 
3865625000  -3.959097e+001  8.882591e+001 
3868750000  -3.974128e+001  8.806915e+001 
3871875000  -3.895161e+001  8.424986e+001 
3875000000  -3.937069e+001  7.601575e+001 
3878125000  -4.037925e+001  7.404048e+001 
3881250000  -4.040014e+001  7.522530e+001 
3884375000  -3.989363e+001  7.054128e+001 
3887500000  -4.020415e+001  6.669969e+001 
3890625000  -4.069857e+001  6.419546e+001 
3893750000  -4.126770e+001  6.227016e+001 
3896875000  -4.157335e+001  6.280292e+001 
3900000000  -4.146677e+001  6.341795e+001 
3903125000  -4.141876e+001  6.038945e+001 
3906250000  -4.010074e+001  5.785170e+001 
3909375000  -4.007273e+001  5.395551e+001 
3912500000  -4.007984e+001  4.287257e+001 
3915625000  -4.115639e+001  4.518560e+001 
3918750000  -4.109299e+001  4.762633e+001 
3921875000  -4.062239e+001  4.472771e+001 
3925000000  -3.971031e+001  4.248964e+001 
3928125000  -3.919168e+001  3.458912e+001 
3931250000  -3.965378e+001  3.185192e+001 
3934375000  -3.980048e+001  2.877276e+001 
3937500000  -3.976818e+001  2.789217e+001 
3940625000  -4.061319e+001  2.428765e+001 
3943750000  -3.931282e+001  2.498248e+001 
3946875000  -3.851563e+001  1.845449e+001 
3950000000  -3.899237e+001  1.127933e+001 
3953125000  -3.972019e+001  9.688645e+000 
3956250000  -3.927536e+001  1.335743e+001 
3959375000  -3.784496e+001  8.079992e+000 
3962500000  -3.726437e+001  3.457350e+000 
3965625000  -3.720931e+001  -6.337998e+000 
3968750000  -3.850977e+001  -1.401017e+001 
3971875000  -3.837228e+001  -1.777538e+001 
3975000000  -3.773526e+001  -1.941433e+001 
3978125000  -3.787475e+001  -2.193568e+001 
3981250000  -3.787619e+001  -2.533705e+001 
3984375000  -3.812314e+001  -3.366162e+001 
3987500000  -3.848347e+001  -3.605262e+001 
3990625000  -3.864184e+001  -3.619307e+001 
3993750000  -3.890902e+001  -4.089043e+001 
3996875000  -3.897711e+001  -4.673698e+001 
4000000000  -3.937868e+001  -4.817996e+001 
4003125000  -3.976847e+001  -4.555235e+001 
4006250000  -3.817632e+001  -4.740328e+001 
4009375000  -3.727485e+001  -5.777573e+001 
4012500000  -3.845451e+001  -6.535071e+001 
4015625000  -3.975373e+001  -6.595020e+001 
4018750000  -3.987159e+001  -6.467297e+001 
4021875000  -3.902406e+001  -6.650595e+001 
4025000000  -3.894084e+001  -7.245078e+001 
4028125000  -3.871627e+001  -7.479988e+001 
4031250000  -3.935848e+001  -7.942632e+001 
4034375000  -3.962734e+001  -8.058534e+001 
4037500000  -3.908303e+001  -7.834587e+001 
4040625000  -3.890431e+001  -8.434685e+001 
4043750000  -3.921952e+001  -8.439748e+001 
4046875000  -3.858186e+001  -8.656836e+001 
4050000000  -3.823993e+001  -9.315927e+001 
4053125000  -3.896782e+001  -9.421411e+001 
4056250000  -3.917378e+001  -9.222318e+001 
4059375000  -3.795314e+001  -9.033715e+001 
4062500000  -3.690585e+001  -9.617017e+001 
4065625000  -3.657590e+001  -1.012224e+002 
4068750000  -3.617821e+001  -1.059069e+002 
4071875000  -3.561697e+001  -1.145937e+002 
4075000000  -3.597109e+001  -1.225199e+002 
4078125000  -3.660349e+001  -1.239575e+002 
4081250000  -3.601686e+001  -1.266791e+002 
4084375000  -3.554124e+001  -1.347688e+002 
4087500000  -3.614920e+001  -1.420928e+002 
4090625000  -3.677353e+001  -1.432757e+002 
4093750000  -3.657547e+001  -1.446169e+002 
4096875000  -3.624020e+001  -1.519066e+002 
4100000000  -3.685353e+001  -1.601390e+002 
4103125000  -3.775538e+001  -1.588149e+002 
4106250000  -3.778002e+001  -1.541195e+002 
4109375000  -3.653521e+001  -1.565942e+002 
4112500000  -3.610028e+001  -1.640985e+002 
4115625000  -3.650774e+001  -1.682547e+002 
4118750000  -3.668567e+001  -1.713575e+002 
4121875000  -3.642930e+001  -1.777100e+002 
4125000000  -3.674400e+001  1.770471e+002 
4128125000  -3.794383e+001  1.749941e+002 
4131250000  -3.737008e+001  -1.770347e+002 
4134375000  -3.520991e+001  1.777721e+002 
4137500000  -3.500309e+001  1.576180e+002 
4140625000  -3.726037e+001  1.499650e+002 
4143750000  -3.858679e+001  1.528985e+002 
4146875000  -3.811814e+001  1.598378e+002 
4150000000  -3.734429e+001  1.565506e+002 
4153125000  -3.728897e+001  1.491685e+002 
4156250000  -3.820733e+001  1.480022e+002 
4159375000  -3.859624e+001  1.515128e+002 
4162500000  -3.738455e+001  1.551020e+002 
4165625000  -3.631658e+001  1.500397e+002 
4168750000  -3.565724e+001  1.421468e+002 
4171875000  -3.576700e+001  1.313681e+002 
4175000000  -3.633729e+001  1.264351e+002 
4178125000  -3.680587e+001  1.256858e+002 
4181250000  -3.658873e+001  1.248317e+002 
4184375000  -3.649110e+001  1.214847e+002 
4187500000  -3.677596e+001  1.177926e+002 
4190625000  -3.659140e+001  1.127316e+002 
4193750000  -3.712319e+001  1.070961e+002 
4196875000  -3.789579e+001  1.061307e+002 
4200000000  -3.877007e+001  1.091606e+002 
4203125000  -3.864637e+001  1.220058e+002 
4206250000  -3.531666e+001  1.216351e+002 
4209375000  -3.421563e+001  1.001004e+002 
4212500000  -3.583015e+001  9.171668e+001 
4215625000  -3.687897e+001  9.573974e+001 
4218750000  -3.550423e+001  1.017653e+002 
4221875000  -3.315721e+001  9.185833e+001 
4225000000  -3.437870e+001  7.935310e+001 
4228125000  -3.503468e+001  8.417685e+001 
4231250000  -3.348261e+001  7.853578e+001 
4234375000  -3.325369e+001  6.847720e+001 
4237500000  -3.288148e+001  6.589240e+001 
4240625000  -3.289650e+001  5.442884e+001 
4243750000  -3.387311e+001  4.645668e+001 
4246875000  -3.494429e+001  4.629635e+001 
4250000000  -3.489264e+001  4.796326e+001 
4253125000  -3.421618e+001  4.419738e+001 
4256250000  -3.467248e+001  3.975914e+001 
4259375000  -3.459088e+001  3.589877e+001 
4262500000  -3.459549e+001  3.081564e+001 
4265625000  -3.467868e+001  3.078231e+001 
4268750000  -3.384481e+001  2.508378e+001 
4271875000  -3.363326e+001  1.884220e+001 
4275000000  -3.324982e+001  1.203071e+001 
4278125000  -3.400250e+001  -1.626187e+000 
4281250000  -3.573922e+001  -3.913363e+000 
4284375000  -3.552712e+001  -2.923181e+000 
4287500000  -3.664692e+001  -7.216334e+000 
4290625000  -3.793525e+001  5.789044e-001 
4293750000  -3.576632e+001  7.240931e+000 
4296875000  -3.470241e+001  -4.991497e+000 
4300000000  -3.553962e+001  -1.508354e+001 
4303125000  -3.659912e+001  -1.263219e+001 
4306250000  -3.613623e+001  -7.645666e+000 
4309375000  -3.482973e+001  -8.902767e+000 
4312500000  -3.462361e+001  -1.729308e+001 
4315625000  -3.464030e+001  -2.297857e+001 
4318750000  -3.492917e+001  -2.684365e+001 
4321875000  -3.522953e+001  -2.643735e+001 
4325000000  -3.447022e+001  -2.647527e+001 
4328125000  -3.400089e+001  -3.219951e+001 
4331250000  -3.375502e+001  -4.232951e+001 
4334375000  -3.410424e+001  -4.694381e+001 
4337500000  -3.487139e+001  -5.006471e+001 
4340625000  -3.537255e+001  -4.648506e+001 
4343750000  -3.456588e+001  -4.741204e+001 
4346875000  -3.404490e+001  -5.400451e+001 
4350000000  -3.398658e+001  -5.907214e+001 
4353125000  -3.404540e+001  -6.815194e+001 
4356250000  -3.565234e+001  -6.876525e+001 
4359375000  -3.613212e+001  -5.606575e+001 
4362500000  -3.334048e+001  -5.748661e+001 
4365625000  -3.157510e+001  -7.032497e+001 
4368750000  -3.246136e+001  -8.320740e+001 
4371875000  -3.360355e+001  -8.378043e+001 
4375000000  -3.304768e+001  -8.311088e+001 
4378125000  -3.238215e+001  -9.106117e+001 
4381250000  -3.276353e+001  -9.690698e+001 
4384375000  -3.248993e+001  -1.037778e+002 
4387500000  -3.323841e+001  -1.105870e+002 
4390625000  -3.420457e+001  -1.107958e+002 
4393750000  -3.352190e+001  -1.106263e+002 
4396875000  -3.314278e+001  -1.142370e+002 
4400000000  -3.249180e+001  -1.221913e+002 
4403125000  -3.306310e+001  -1.313947e+002 
4406250000  -3.398154e+001  -1.327069e+002 
4409375000  -3.411173e+001  -1.365475e+002 
4412500000  -3.516854e+001  -1.389503e+002 
4415625000  -3.563100e+001  -1.349914e+002 
