!Agilent Technologies,E8363B,MY43030201,A.06.04.32
!Agilent E8363B: A.06.04.32
!Date: Tuesday, November 11, 2014 21:04:08
!Correction: S21(Response(S21)) 
!S1P File: Measurement: S21:
# Hz S  dB   R 50
3000000000  -3.651575e+001  -4.666386e+001 
3003125000  -3.764057e+001  -5.247268e+001 
3006250000  -3.741092e+001  -5.533354e+001 
3009375000  -3.778791e+001  -5.137785e+001 
3012500000  -3.694610e+001  -5.305909e+001 
3015625000  -3.601480e+001  -5.989290e+001 
3018750000  -3.687985e+001  -6.140780e+001 
3021875000  -3.544372e+001  -6.045287e+001 
3025000000  -3.409737e+001  -6.443591e+001 
3028125000  -3.316945e+001  -6.980547e+001 
3031250000  -3.217036e+001  -8.172545e+001 
3034375000  -3.175423e+001  -9.565783e+001 
3037500000  -3.213203e+001  -1.073103e+002 
3040625000  -3.347816e+001  -1.122672e+002 
3043750000  -3.422580e+001  -1.171252e+002 
3046875000  -3.435202e+001  -1.233322e+002 
3050000000  -3.613795e+001  -1.294693e+002 
3053125000  -3.613166e+001  -1.234286e+002 
3056250000  -3.547847e+001  -1.208621e+002 
3059375000  -3.560224e+001  -1.213022e+002 
3062500000  -3.417521e+001  -1.246277e+002 
3065625000  -3.395449e+001  -1.305233e+002 
3068750000  -3.357258e+001  -1.375219e+002 
3071875000  -3.354370e+001  -1.402603e+002 
3075000000  -3.320438e+001  -1.438134e+002 
3078125000  -3.306276e+001  -1.479576e+002 
3081250000  -3.350129e+001  -1.523951e+002 
3084375000  -3.259479e+001  -1.559634e+002 
3087500000  -3.241181e+001  -1.599638e+002 
3090625000  -3.193791e+001  -1.699801e+002 
3093750000  -3.236825e+001  -1.777324e+002 
3096875000  -3.337942e+001  1.763824e+002 
3100000000  -3.340816e+001  1.744158e+002 
3103125000  -3.366422e+001  1.753101e+002 
3106250000  -3.313911e+001  1.713379e+002 
3109375000  -3.329723e+001  1.674368e+002 
3112500000  -3.322206e+001  1.650439e+002 
3115625000  -3.287306e+001  1.603863e+002 
3118750000  -3.317759e+001  1.601659e+002 
3121875000  -3.233698e+001  1.509688e+002 
3125000000  -3.354698e+001  1.468302e+002 
3128125000  -3.455997e+001  1.539063e+002 
3131250000  -3.212612e+001  1.522980e+002 
3134375000  -3.070872e+001  1.365376e+002 
3137500000  -3.125695e+001  1.229033e+002 
3140625000  -3.277962e+001  1.198260e+002 
3143750000  -3.382979e+001  1.212507e+002 
3146875000  -3.335188e+001  1.224883e+002 
3150000000  -3.231423e+001  1.231102e+002 
3153125000  -3.233589e+001  1.136699e+002 
3156250000  -3.338276e+001  1.181945e+002 
3159375000  -3.160017e+001  1.194674e+002 
3162500000  -2.971288e+001  1.054076e+002 
3165625000  -3.070836e+001  9.287521e+001 
3168750000  -3.103618e+001  9.326029e+001 
3171875000  -3.020114e+001  8.662675e+001 
3175000000  -3.090550e+001  7.883727e+001 
3178125000  -3.066862e+001  7.939214e+001 
3181250000  -2.953584e+001  7.406973e+001 
3184375000  -2.885365e+001  6.149284e+001 
3187500000  -3.002917e+001  4.580119e+001 
3190625000  -3.278164e+001  3.736190e+001 
3193750000  -3.341710e+001  4.656762e+001 
3196875000  -3.291944e+001  5.078959e+001 
3200000000  -3.207201e+001  4.880947e+001 
3203125000  -3.124321e+001  4.213100e+001 
3206250000  -3.156467e+001  3.565526e+001 
3209375000  -3.106392e+001  2.933637e+001 
3212500000  -3.125996e+001  2.246490e+001 
3215625000  -3.137418e+001  1.829313e+001 
3218750000  -3.218191e+001  1.136265e+001 
3221875000  -3.303566e+001  6.019076e+000 
3225000000  -3.263181e+001  4.680868e+000 
3228125000  -3.297091e+001  -7.762850e-001 
3231250000  -3.369588e+001  -3.132096e+000 
3234375000  -3.337278e+001  -2.760755e+000 
3237500000  -3.338713e+001  -5.234096e+000 
3240625000  -3.295706e+001  -7.408659e+000 
3243750000  -3.257414e+001  -1.503458e+001 
3246875000  -3.297687e+001  -2.218142e+001 
3250000000  -3.330901e+001  -2.458791e+001 
3253125000  -3.348497e+001  -2.663105e+001 
3256250000  -3.319465e+001  -3.368093e+001 
3259375000  -3.340689e+001  -4.215733e+001 
3262500000  -3.452296e+001  -4.595750e+001 
3265625000  -3.526828e+001  -4.325706e+001 
3268750000  -3.513748e+001  -4.095858e+001 
3271875000  -3.475447e+001  -4.138360e+001 
3275000000  -3.377125e+001  -4.749810e+001 
3278125000  -3.417042e+001  -5.456629e+001 
3281250000  -3.433950e+001  -5.365141e+001 
3284375000  -3.389957e+001  -6.042278e+001 
3287500000  -3.398892e+001  -6.416455e+001 
3290625000  -3.431514e+001  -6.993932e+001 
3293750000  -3.409769e+001  -7.529633e+001 
3296875000  -3.519390e+001  -7.620015e+001 
3300000000  -3.493661e+001  -7.591032e+001 
3303125000  -3.371854e+001  -8.121940e+001 
3306250000  -3.346849e+001  -8.825240e+001 
3309375000  -3.308728e+001  -9.452503e+001 
3312500000  -3.337006e+001  -1.055057e+002 
3315625000  -3.433694e+001  -1.136400e+002 
3318750000  -3.565484e+001  -1.157585e+002 
3321875000  -3.674129e+001  -1.165885e+002 
3325000000  -3.732109e+001  -1.105654e+002 
3328125000  -3.699609e+001  -1.117267e+002 
3331250000  -3.563884e+001  -1.038723e+002 
3334375000  -3.288029e+001  -1.146684e+002 
3337500000  -3.307977e+001  -1.333197e+002 
3340625000  -3.439584e+001  -1.442981e+002 
3343750000  -3.632177e+001  -1.466564e+002 
3346875000  -3.655991e+001  -1.439397e+002 
3350000000  -3.602749e+001  -1.461838e+002 
3353125000  -3.600997e+001  -1.506858e+002 
3356250000  -3.551854e+001  -1.591549e+002 
3359375000  -3.632241e+001  -1.677344e+002 
3362500000  -3.751324e+001  -1.728548e+002 
3365625000  -3.802478e+001  -1.749803e+002 
3368750000  -3.860957e+001  -1.766001e+002 
3371875000  -3.890606e+001  1.797850e+002 
3375000000  -4.028670e+001  1.786223e+002 
3378125000  -4.114271e+001  1.763219e+002 
3381250000  -4.234652e+001  -1.737025e+002 
3384375000  -4.100539e+001  -1.527185e+002 
3387500000  -3.753203e+001  -1.697787e+002 
3390625000  -3.909019e+001  1.730424e+002 
3393750000  -4.052237e+001  1.746835e+002 
3396875000  -3.904948e+001  1.766449e+002 
3400000000  -3.852646e+001  1.691534e+002 
3403125000  -3.929757e+001  1.619982e+002 
3406250000  -3.959198e+001  1.625741e+002 
3409375000  -3.972989e+001  1.558925e+002 
3412500000  -4.027538e+001  1.520602e+002 
3415625000  -4.114631e+001  1.543394e+002 
3418750000  -4.106656e+001  1.542286e+002 
3421875000  -4.128836e+001  1.567935e+002 
3425000000  -4.040766e+001  1.586808e+002 
3428125000  -3.928979e+001  1.524064e+002 
3431250000  -3.921902e+001  1.471166e+002 
3434375000  -3.906312e+001  1.404713e+002 
3437500000  -3.956549e+001  1.381019e+002 
3440625000  -4.013803e+001  1.386684e+002 
3443750000  -3.887190e+001  1.389404e+002 
3446875000  -3.799658e+001  1.316013e+002 
3450000000  -3.752431e+001  1.215287e+002 
3453125000  -3.793678e+001  1.112741e+002 
3456250000  -3.905992e+001  1.045564e+002 
3459375000  -3.983695e+001  1.064168e+002 
3462500000  -4.000596e+001  1.077187e+002 
3465625000  -3.996191e+001  9.968636e+001 
3468750000  -4.008340e+001  9.734456e+001 
3471875000  -3.992217e+001  9.499049e+001 
3475000000  -3.975639e+001  8.961069e+001 
3478125000  -4.035579e+001  8.223456e+001 
3481250000  -4.132259e+001  8.022791e+001 
3484375000  -4.221569e+001  8.410504e+001 
3487500000  -4.142566e+001  8.306879e+001 
3490625000  -4.077748e+001  7.954099e+001 
3493750000  -4.134163e+001  7.257591e+001 
3496875000  -4.156011e+001  6.953905e+001 
3500000000  -4.232095e+001  7.387311e+001 
3503125000  -4.175690e+001  7.571600e+001 
3506250000  -4.052612e+001  7.052285e+001 
3509375000  -4.039221e+001  6.111174e+001 
3512500000  -4.120322e+001  5.002888e+001 
3515625000  -4.196301e+001  4.890015e+001 
3518750000  -4.259700e+001  4.915784e+001 
3521875000  -4.223284e+001  4.672076e+001 
3525000000  -4.333947e+001  4.443151e+001 
3528125000  -4.346326e+001  5.262225e+001 
3531250000  -4.207674e+001  5.077723e+001 
3534375000  -4.222351e+001  4.048345e+001 
3537500000  -4.253035e+001  3.258276e+001 
3540625000  -4.326047e+001  3.292139e+001 
3543750000  -4.455072e+001  3.960929e+001 
3546875000  -4.456858e+001  4.753395e+001 
3550000000  -4.172045e+001  5.096659e+001 
3553125000  -4.003636e+001  3.358688e+001 
3556250000  -4.171256e+001  2.562187e+001 
3559375000  -4.144977e+001  2.908118e+001 
3562500000  -4.045343e+001  1.892281e+001 
3565625000  -4.127855e+001  1.217185e+001 
3568750000  -4.150572e+001  1.488552e+001 
3571875000  -4.119859e+001  1.222815e+001 
3575000000  -4.075673e+001  6.675026e+000 
3578125000  -4.125877e+001  3.347701e-001 
3581250000  -4.145811e+001  -7.364255e-001 
3584375000  -4.065578e+001  -2.178403e+000 
3587500000  -3.994247e+001  -1.174803e+001 
3590625000  -4.056345e+001  -2.151246e+001 
3593750000  -4.168561e+001  -2.437008e+001 
3596875000  -4.175668e+001  -1.764549e+001 
3600000000  -4.023763e+001  -2.449966e+001 
3603125000  -4.057912e+001  -3.735245e+001 
3606250000  -4.158823e+001  -4.216954e+001 
3609375000  -4.216774e+001  -4.684935e+001 
3612500000  -4.260817e+001  -4.788338e+001 
3615625000  -4.292702e+001  -5.003062e+001 
3618750000  -4.347710e+001  -5.252529e+001 
3621875000  -4.330690e+001  -5.521398e+001 
3625000000  -4.423242e+001  -5.699078e+001 
3628125000  -4.420882e+001  -5.950839e+001 
3631250000  -4.412977e+001  -6.470810e+001 
3634375000  -4.584234e+001  -6.395320e+001 
3637500000  -4.547433e+001  -5.704166e+001 
3640625000  -4.458815e+001  -5.872992e+001 
3643750000  -4.437524e+001  -6.314070e+001 
3646875000  -4.507587e+001  -6.799956e+001 
3650000000  -4.591148e+001  -6.863085e+001 
3653125000  -4.569206e+001  -6.986654e+001 
3656250000  -4.610320e+001  -7.018209e+001 
3659375000  -4.622446e+001  -6.685580e+001 
3662500000  -4.563909e+001  -6.939782e+001 
3665625000  -4.519476e+001  -7.106500e+001 
3668750000  -4.422533e+001  -6.762598e+001 
3671875000  -4.322812e+001  -7.029504e+001 
3675000000  -4.333491e+001  -8.112212e+001 
3678125000  -4.341049e+001  -8.154480e+001 
3681250000  -4.306768e+001  -8.274905e+001 
3684375000  -4.322280e+001  -9.022782e+001 
3687500000  -4.348721e+001  -9.197331e+001 
3690625000  -4.322604e+001  -9.707883e+001 
3693750000  -4.412431e+001  -9.599094e+001 
3696875000  -4.367487e+001  -9.586270e+001 
3700000000  -4.289397e+001  -1.009250e+002 
3703125000  -4.296202e+001  -1.062082e+002 
3706250000  -4.404647e+001  -1.065027e+002 
3709375000  -4.362617e+001  -1.040366e+002 
3712500000  -4.267153e+001  -1.064630e+002 
3715625000  -4.151830e+001  -1.136472e+002 
3718750000  -4.115501e+001  -1.188989e+002 
3721875000  -4.129704e+001  -1.281112e+002 
3725000000  -4.164695e+001  -1.329209e+002 
3728125000  -4.186602e+001  -1.325390e+002 
3731250000  -4.129725e+001  -1.363852e+002 
3734375000  -4.111819e+001  -1.420496e+002 
3737500000  -4.203020e+001  -1.521049e+002 
3740625000  -4.306573e+001  -1.533795e+002 
3743750000  -4.270879e+001  -1.565948e+002 
3746875000  -4.305031e+001  -1.599164e+002 
3750000000  -4.424508e+001  -1.594837e+002 
3753125000  -4.415998e+001  -1.599027e+002 
3756250000  -4.423066e+001  -1.585033e+002 
3759375000  -4.452644e+001  -1.605553e+002 
3762500000  -4.409692e+001  -1.642492e+002 
3765625000  -4.467048e+001  -1.637579e+002 
3768750000  -4.456974e+001  -1.596634e+002 
3771875000  -4.321387e+001  -1.594178e+002 
3775000000  -4.305071e+001  -1.670161e+002 
3778125000  -4.316819e+001  -1.691185e+002 
3781250000  -4.271611e+001  -1.702221e+002 
3784375000  -4.259198e+001  -1.715837e+002 
3787500000  -4.186908e+001  -1.721140e+002 
3790625000  -4.231791e+001  1.780366e+002 
3793750000  -4.245346e+001  1.780528e+002 
3796875000  -4.128632e+001  1.769047e+002 
3800000000  -3.980027e+001  1.751390e+002 
3803125000  -4.058238e+001  1.642982e+002 
3806250000  -4.123499e+001  1.625760e+002 
3809375000  -4.066492e+001  1.604454e+002 
3812500000  -3.972802e+001  1.538097e+002 
3815625000  -4.048134e+001  1.444259e+002 
3818750000  -4.133902e+001  1.439691e+002 
3821875000  -4.125364e+001  1.508741e+002 
3825000000  -3.935196e+001  1.553511e+002 
3828125000  -3.818997e+001  1.378849e+002 
3831250000  -3.876579e+001  1.235914e+002 
3834375000  -4.012340e+001  1.222484e+002 
3837500000  -4.130550e+001  1.263953e+002 
3840625000  -3.975090e+001  1.232453e+002 
3843750000  -3.897130e+001  1.123866e+002 
3846875000  -3.950769e+001  1.040327e+002 
3850000000  -4.084782e+001  1.093865e+002 
3853125000  -4.019622e+001  1.136620e+002 
3856250000  -4.030349e+001  1.046073e+002 
3859375000  -3.964852e+001  1.017393e+002 
3862500000  -3.969163e+001  9.141776e+001 
3865625000  -3.957428e+001  8.861847e+001 
3868750000  -3.985062e+001  8.794261e+001 
3871875000  -3.899393e+001  8.313403e+001 
3875000000  -3.925070e+001  7.308770e+001 
3878125000  -4.055939e+001  7.100714e+001 
3881250000  -4.048494e+001  7.411098e+001 
3884375000  -3.988597e+001  6.960266e+001 
3887500000  -4.041748e+001  6.318045e+001 
3890625000  -4.076014e+001  6.127385e+001 
3893750000  -4.082834e+001  5.971143e+001 
3896875000  -4.145330e+001  5.980177e+001 
3900000000  -4.133629e+001  5.828772e+001 
3903125000  -4.087737e+001  5.583914e+001 
3906250000  -4.077127e+001  5.470490e+001 
3909375000  -3.994558e+001  5.189859e+001 
3912500000  -4.008390e+001  4.407212e+001 
3915625000  -4.122738e+001  4.509732e+001 
3918750000  -4.096825e+001  4.472813e+001 
3921875000  -4.089989e+001  4.088774e+001 
3925000000  -3.983532e+001  3.909851e+001 
3928125000  -3.928815e+001  3.359692e+001 
3931250000  -3.981696e+001  2.870385e+001 
3934375000  -3.998106e+001  2.662758e+001 
3937500000  -4.025236e+001  2.607165e+001 
3940625000  -4.047005e+001  2.368361e+001 
3943750000  -3.939548e+001  2.379773e+001 
3946875000  -3.842527e+001  1.712013e+001 
3950000000  -3.903198e+001  9.619015e+000 
3953125000  -3.983878e+001  9.395804e+000 
3956250000  -3.912866e+001  9.084094e+000 
3959375000  -3.782367e+001  7.081172e+000 
3962500000  -3.730972e+001  9.180601e-001 
3965625000  -3.734829e+001  -9.398058e+000 
3968750000  -3.824238e+001  -1.480294e+001 
3971875000  -3.862575e+001  -2.036639e+001 
3975000000  -3.802345e+001  -2.149790e+001 
3978125000  -3.790070e+001  -2.320690e+001 
3981250000  -3.781120e+001  -2.787026e+001 
3984375000  -3.799452e+001  -3.602592e+001 
3987500000  -3.871515e+001  -3.857194e+001 
3990625000  -3.857187e+001  -3.979247e+001 
3993750000  -3.871599e+001  -4.440168e+001 
3996875000  -3.875330e+001  -4.745123e+001 
4000000000  -3.930233e+001  -4.857853e+001 
4003125000  -3.965070e+001  -4.751471e+001 
4006250000  -3.821400e+001  -4.876201e+001 
4009375000  -3.737401e+001  -6.059423e+001 
4012500000  -3.832920e+001  -6.821610e+001 
4015625000  -3.999179e+001  -6.787926e+001 
4018750000  -3.990848e+001  -6.818738e+001 
4021875000  -3.910719e+001  -6.839740e+001 
4025000000  -3.872849e+001  -7.354405e+001 
4028125000  -3.869453e+001  -7.779603e+001 
4031250000  -3.931379e+001  -8.223593e+001 
4034375000  -3.953877e+001  -8.252070e+001 
4037500000  -3.902947e+001  -8.147568e+001 
4040625000  -3.907299e+001  -8.732803e+001 
4043750000  -3.924366e+001  -8.562518e+001 
4046875000  -3.863421e+001  -8.771778e+001 
4050000000  -3.856287e+001  -9.504278e+001 
4053125000  -3.892017e+001  -9.622770e+001 
4056250000  -3.916707e+001  -9.192550e+001 
4059375000  -3.806761e+001  -9.292696e+001 
4062500000  -3.676684e+001  -9.751394e+001 
4065625000  -3.666232e+001  -1.024736e+002 
4068750000  -3.636284e+001  -1.087563e+002 
4071875000  -3.584836e+001  -1.173241e+002 
4075000000  -3.585961e+001  -1.246520e+002 
4078125000  -3.668133e+001  -1.257064e+002 
4081250000  -3.598906e+001  -1.295824e+002 
4084375000  -3.560850e+001  -1.364472e+002 
4087500000  -3.615257e+001  -1.437949e+002 
4090625000  -3.666726e+001  -1.454141e+002 
4093750000  -3.648795e+001  -1.471794e+002 
4096875000  -3.610669e+001  -1.530110e+002 
4100000000  -3.688543e+001  -1.605552e+002 
4103125000  -3.765049e+001  -1.609902e+002 
4106250000  -3.790206e+001  -1.568705e+002 
4109375000  -3.669024e+001  -1.584112e+002 
4112500000  -3.624564e+001  -1.660128e+002 
4115625000  -3.677485e+001  -1.719640e+002 
4118750000  -3.667810e+001  -1.764597e+002 
4121875000  -3.633244e+001  1.797933e+002 
4125000000  -3.664709e+001  1.737669e+002 
4128125000  -3.774213e+001  1.723607e+002 
4131250000  -3.752099e+001  1.797882e+002 
4134375000  -3.502584e+001  1.749400e+002 
4137500000  -3.516991e+001  1.552776e+002 
4140625000  -3.738866e+001  1.476017e+002 
4143750000  -3.875232e+001  1.507136e+002 
4146875000  -3.825024e+001  1.592796e+002 
4150000000  -3.744060e+001  1.546815e+002 
4153125000  -3.718539e+001  1.468008e+002 
4156250000  -3.839745e+001  1.453524e+002 
4159375000  -3.859057e+001  1.484427e+002 
4162500000  -3.744627e+001  1.523082e+002 
4165625000  -3.657257e+001  1.479663e+002 
4168750000  -3.561241e+001  1.397898e+002 
4171875000  -3.581936e+001  1.296077e+002 
4175000000  -3.655779e+001  1.256696e+002 
4178125000  -3.717163e+001  1.246118e+002 
4181250000  -3.671577e+001  1.230579e+002 
4184375000  -3.671492e+001  1.196710e+002 
4187500000  -3.665315e+001  1.156575e+002 
4190625000  -3.651958e+001  1.099747e+002 
4193750000  -3.714896e+001  1.063710e+002 
4196875000  -3.793315e+001  1.051820e+002 
4200000000  -3.883625e+001  1.065772e+002 
4203125000  -3.855890e+001  1.196954e+002 
4206250000  -3.508702e+001  1.217838e+002 
4209375000  -3.415093e+001  9.812103e+001 
4212500000  -3.605917e+001  8.887954e+001 
4215625000  -3.705227e+001  9.524195e+001 
4218750000  -3.558254e+001  1.000672e+002 
4221875000  -3.316731e+001  9.152219e+001 
4225000000  -3.461833e+001  7.838697e+001 
4228125000  -3.516309e+001  8.100581e+001 
4231250000  -3.342414e+001  7.661243e+001 
4234375000  -3.343459e+001  6.702744e+001 
4237500000  -3.302895e+001  6.258389e+001 
4240625000  -3.303169e+001  5.206858e+001 
4243750000  -3.407692e+001  4.388140e+001 
4246875000  -3.509997e+001  4.368077e+001 
4250000000  -3.492964e+001  4.435232e+001 
4253125000  -3.450428e+001  4.241766e+001 
4256250000  -3.477949e+001  3.721270e+001 
4259375000  -3.450576e+001  3.361209e+001 
4262500000  -3.453462e+001  2.862412e+001 
4265625000  -3.484705e+001  2.902952e+001 
4268750000  -3.386933e+001  2.343345e+001 
4271875000  -3.381672e+001  1.624217e+001 
4275000000  -3.333563e+001  9.014161e+000 
4278125000  -3.399713e+001  -3.110456e+000 
4281250000  -3.599248e+001  -5.526280e+000 
4284375000  -3.583921e+001  -5.000585e+000 
4287500000  -3.668809e+001  -8.923323e+000 
4290625000  -3.790785e+001  1.099725e+000 
4293750000  -3.623299e+001  5.336370e+000 
4296875000  -3.466471e+001  -5.860249e+000 
4300000000  -3.564978e+001  -1.566778e+001 
4303125000  -3.670761e+001  -1.382937e+001 
4306250000  -3.622404e+001  -7.992567e+000 
4309375000  -3.496091e+001  -1.064894e+001 
4312500000  -3.475814e+001  -1.879175e+001 
4315625000  -3.491090e+001  -2.513579e+001 
4318750000  -3.509869e+001  -2.917288e+001 
4321875000  -3.517632e+001  -2.804978e+001 
4325000000  -3.455268e+001  -2.869662e+001 
4328125000  -3.403428e+001  -3.404026e+001 
4331250000  -3.378940e+001  -4.352452e+001 
4334375000  -3.419826e+001  -4.900741e+001 
4337500000  -3.499362e+001  -5.178613e+001 
4340625000  -3.553569e+001  -4.868062e+001 
4343750000  -3.472956e+001  -4.949382e+001 
4346875000  -3.427167e+001  -5.512163e+001 
4350000000  -3.411759e+001  -6.184080e+001 
4353125000  -3.400191e+001  -7.072400e+001 
4356250000  -3.573479e+001  -7.219930e+001 
4359375000  -3.645140e+001  -5.891952e+001 
4362500000  -3.336481e+001  -5.900985e+001 
4365625000  -3.177011e+001  -7.337853e+001 
4368750000  -3.265842e+001  -8.490891e+001 
4371875000  -3.370694e+001  -8.524906e+001 
4375000000  -3.336093e+001  -8.605095e+001 
4378125000  -3.261674e+001  -9.227970e+001 
4381250000  -3.291562e+001  -9.901587e+001 
4384375000  -3.273913e+001  -1.057471e+002 
4387500000  -3.340599e+001  -1.125084e+002 
4390625000  -3.438138e+001  -1.131334e+002 
4393750000  -3.365605e+001  -1.124843e+002 
4396875000  -3.314949e+001  -1.157479e+002 
4400000000  -3.269827e+001  -1.243149e+002 
4403125000  -3.335762e+001  -1.326869e+002 
4406250000  -3.417216e+001  -1.350199e+002 
4409375000  -3.427123e+001  -1.378154e+002 
4412500000  -3.531493e+001  -1.408546e+002 
4415625000  -3.582545e+001  -1.368170e+002 
