!Agilent Technologies,E8363B,MY43030201,A.06.04.32
!Agilent E8363B: A.06.04.32
!Date: Tuesday, November 11, 2014 21:10:19
!Correction: S21(Response(S21)) 
!S1P File: Measurement: S21:
# Hz S  dB   R 50
3000000000  -3.647861e+001  -5.564093e+001 
3003125000  -3.753960e+001  -6.221600e+001 
3006250000  -3.740277e+001  -6.362956e+001 
3009375000  -3.788496e+001  -5.952182e+001 
3012500000  -3.696930e+001  -6.101114e+001 
3015625000  -3.605236e+001  -6.889381e+001 
3018750000  -3.691721e+001  -6.936661e+001 
3021875000  -3.550328e+001  -6.875484e+001 
3025000000  -3.418553e+001  -7.187474e+001 
3028125000  -3.331212e+001  -7.913651e+001 
3031250000  -3.217416e+001  -9.053587e+001 
3034375000  -3.184651e+001  -1.040081e+002 
3037500000  -3.232325e+001  -1.156881e+002 
3040625000  -3.363612e+001  -1.207556e+002 
3043750000  -3.424421e+001  -1.259009e+002 
3046875000  -3.469636e+001  -1.318079e+002 
3050000000  -3.622164e+001  -1.379067e+002 
3053125000  -3.619894e+001  -1.316230e+002 
3056250000  -3.570965e+001  -1.288056e+002 
3059375000  -3.571196e+001  -1.296494e+002 
3062500000  -3.409147e+001  -1.326939e+002 
3065625000  -3.400998e+001  -1.386120e+002 
3068750000  -3.361787e+001  -1.464932e+002 
3071875000  -3.361428e+001  -1.481905e+002 
3075000000  -3.330880e+001  -1.522568e+002 
3078125000  -3.317740e+001  -1.564393e+002 
3081250000  -3.357798e+001  -1.607314e+002 
3084375000  -3.265430e+001  -1.640374e+002 
3087500000  -3.252024e+001  -1.680862e+002 
3090625000  -3.198488e+001  -1.785106e+002 
3093750000  -3.248089e+001  1.741354e+002 
3096875000  -3.356694e+001  1.686367e+002 
3100000000  -3.336478e+001  1.662843e+002 
3103125000  -3.369564e+001  1.672711e+002 
3106250000  -3.311959e+001  1.627593e+002 
3109375000  -3.325248e+001  1.588431e+002 
3112500000  -3.323881e+001  1.564120e+002 
3115625000  -3.293982e+001  1.517036e+002 
3118750000  -3.319814e+001  1.517728e+002 
3121875000  -3.231575e+001  1.424080e+002 
3125000000  -3.356207e+001  1.376766e+002 
3128125000  -3.447316e+001  1.452971e+002 
3131250000  -3.204129e+001  1.436334e+002 
3134375000  -3.077031e+001  1.276339e+002 
3137500000  -3.138068e+001  1.138695e+002 
3140625000  -3.278429e+001  1.115599e+002 
3143750000  -3.378588e+001  1.129152e+002 
3146875000  -3.334393e+001  1.137973e+002 
3150000000  -3.229321e+001  1.137928e+002 
3153125000  -3.227298e+001  1.048261e+002 
3156250000  -3.343424e+001  1.096061e+002 
3159375000  -3.164943e+001  1.108907e+002 
3162500000  -2.966172e+001  9.620766e+001 
3165625000  -3.073656e+001  8.405477e+001 
3168750000  -3.103279e+001  8.419827e+001 
3171875000  -3.013725e+001  7.822896e+001 
3175000000  -3.095165e+001  6.958211e+001 
3178125000  -3.059299e+001  7.016285e+001 
3181250000  -2.961237e+001  6.480078e+001 
3184375000  -2.896439e+001  5.162748e+001 
3187500000  -3.015008e+001  3.674405e+001 
3190625000  -3.278144e+001  2.959347e+001 
3193750000  -3.334701e+001  3.794382e+001 
3196875000  -3.309250e+001  4.268896e+001 
3200000000  -3.200345e+001  3.955852e+001 
3203125000  -3.125017e+001  3.288901e+001 
3206250000  -3.161259e+001  2.604859e+001 
3209375000  -3.113453e+001  2.026227e+001 
3212500000  -3.144503e+001  1.327915e+001 
3215625000  -3.144176e+001  9.991436e+000 
3218750000  -3.218893e+001  2.410333e+000 
3221875000  -3.306722e+001  -3.013173e+000 
3225000000  -3.260609e+001  -4.144881e+000 
3228125000  -3.292163e+001  -9.868183e+000 
3231250000  -3.371163e+001  -1.193760e+001 
3234375000  -3.335582e+001  -1.139040e+001 
3237500000  -3.340825e+001  -1.380599e+001 
3240625000  -3.286329e+001  -1.612586e+001 
3243750000  -3.255713e+001  -2.388282e+001 
3246875000  -3.301258e+001  -3.124901e+001 
3250000000  -3.339737e+001  -3.377265e+001 
3253125000  -3.349007e+001  -3.500483e+001 
3256250000  -3.319219e+001  -4.201062e+001 
3259375000  -3.346176e+001  -5.087385e+001 
3262500000  -3.462888e+001  -5.464096e+001 
3265625000  -3.513808e+001  -5.139340e+001 
3268750000  -3.505851e+001  -4.970860e+001 
3271875000  -3.469445e+001  -5.025454e+001 
3275000000  -3.373112e+001  -5.745265e+001 
3278125000  -3.415432e+001  -6.387990e+001 
3281250000  -3.430418e+001  -6.224643e+001 
3284375000  -3.376271e+001  -6.967203e+001 
3287500000  -3.408837e+001  -7.306443e+001 
3290625000  -3.418540e+001  -7.963798e+001 
3293750000  -3.403397e+001  -8.454612e+001 
3296875000  -3.509957e+001  -8.592495e+001 
3300000000  -3.475340e+001  -8.502449e+001 
3303125000  -3.357107e+001  -9.040843e+001 
3306250000  -3.349449e+001  -9.742813e+001 
3309375000  -3.313563e+001  -1.041611e+002 
3312500000  -3.325805e+001  -1.145730e+002 
3315625000  -3.431483e+001  -1.232060e+002 
3318750000  -3.575887e+001  -1.259147e+002 
3321875000  -3.675383e+001  -1.257554e+002 
3325000000  -3.722604e+001  -1.201596e+002 
3328125000  -3.680739e+001  -1.200184e+002 
3331250000  -3.559093e+001  -1.141676e+002 
3334375000  -3.286838e+001  -1.248007e+002 
3337500000  -3.313227e+001  -1.437701e+002 
3340625000  -3.444653e+001  -1.549618e+002 
3343750000  -3.650920e+001  -1.565321e+002 
3346875000  -3.657988e+001  -1.540995e+002 
3350000000  -3.599321e+001  -1.555864e+002 
3353125000  -3.602493e+001  -1.604045e+002 
3356250000  -3.548114e+001  -1.696682e+002 
3359375000  -3.632824e+001  -1.772594e+002 
3362500000  -3.754570e+001  1.768364e+002 
3365625000  -3.803867e+001  1.769621e+002 
3368750000  -3.873079e+001  1.731976e+002 
3371875000  -3.917222e+001  1.711622e+002 
3375000000  -4.033322e+001  1.677383e+002 
3378125000  -4.139207e+001  1.663503e+002 
3381250000  -4.269213e+001  1.783674e+002 
3384375000  -4.098008e+001  -1.606273e+002 
3387500000  -3.758695e+001  -1.777901e+002 
3390625000  -3.903572e+001  1.632270e+002 
3393750000  -4.041643e+001  1.664238e+002 
3396875000  -3.919205e+001  1.668920e+002 
3400000000  -3.864384e+001  1.600759e+002 
3403125000  -3.937079e+001  1.535630e+002 
3406250000  -3.958663e+001  1.542141e+002 
3409375000  -3.988864e+001  1.461529e+002 
3412500000  -4.014530e+001  1.439676e+002 
3415625000  -4.085577e+001  1.439914e+002 
3418750000  -4.099317e+001  1.467265e+002 
3421875000  -4.104575e+001  1.486951e+002 
3425000000  -4.029406e+001  1.470292e+002 
3428125000  -3.930486e+001  1.434322e+002 
3431250000  -3.917928e+001  1.374616e+002 
3434375000  -3.931882e+001  1.319403e+002 
3437500000  -3.954795e+001  1.276087e+002 
3440625000  -3.998289e+001  1.300148e+002 
3443750000  -3.863722e+001  1.287775e+002 
3446875000  -3.786495e+001  1.203757e+002 
3450000000  -3.755579e+001  1.109465e+002 
3453125000  -3.809570e+001  1.017714e+002 
3456250000  -3.920885e+001  9.553947e+001 
3459375000  -3.998549e+001  9.657040e+001 
3462500000  -3.976548e+001  9.439787e+001 
3465625000  -3.992315e+001  9.081499e+001 
3468750000  -4.034726e+001  8.602890e+001 
3471875000  -4.006748e+001  8.492039e+001 
3475000000  -3.982490e+001  8.030105e+001 
3478125000  -4.059585e+001  7.221612e+001 
3481250000  -4.130904e+001  6.946509e+001 
3484375000  -4.229596e+001  7.390066e+001 
3487500000  -4.150794e+001  7.417264e+001 
3490625000  -4.082926e+001  6.933153e+001 
3493750000  -4.130361e+001  6.168148e+001 
3496875000  -4.186888e+001  6.169283e+001 
3500000000  -4.255687e+001  6.269390e+001 
3503125000  -4.205984e+001  6.643439e+001 
3506250000  -4.082249e+001  6.067924e+001 
3509375000  -4.071157e+001  5.200465e+001 
3512500000  -4.121597e+001  4.222775e+001 
3515625000  -4.183265e+001  4.019530e+001 
3518750000  -4.272093e+001  4.087019e+001 
3521875000  -4.253822e+001  3.687181e+001 
3525000000  -4.352744e+001  3.640683e+001 
3528125000  -4.353811e+001  4.393183e+001 
3531250000  -4.214026e+001  4.244016e+001 
3534375000  -4.192656e+001  3.178295e+001 
3537500000  -4.230025e+001  2.640158e+001 
3540625000  -4.319693e+001  2.366047e+001 
3543750000  -4.394277e+001  2.883183e+001 
3546875000  -4.368284e+001  4.161275e+001 
3550000000  -4.118352e+001  4.142789e+001 
3553125000  -3.999492e+001  2.262830e+001 
3556250000  -4.155440e+001  1.735077e+001 
3559375000  -4.119740e+001  1.811459e+001 
3562500000  -4.005173e+001  6.994380e+000 
3565625000  -4.091656e+001  1.903235e+000 
3568750000  -4.123461e+001  2.437557e+000 
3571875000  -4.096393e+001  2.414581e+000 
3575000000  -4.050037e+001  -6.771701e+000 
3578125000  -4.114410e+001  -1.190295e+001 
3581250000  -4.154679e+001  -1.153206e+001 
3584375000  -4.011662e+001  -1.333380e+001 
3587500000  -3.989986e+001  -2.351927e+001 
3590625000  -4.053604e+001  -3.504149e+001 
3593750000  -4.193297e+001  -3.635144e+001 
3596875000  -4.155772e+001  -2.960882e+001 
3600000000  -4.014584e+001  -3.671161e+001 
3603125000  -4.069009e+001  -4.998625e+001 
3606250000  -4.143568e+001  -5.363487e+001 
3609375000  -4.245535e+001  -5.785556e+001 
3612500000  -4.308922e+001  -5.889855e+001 
3615625000  -4.293621e+001  -6.169834e+001 
3618750000  -4.381598e+001  -6.440977e+001 
3621875000  -4.354193e+001  -6.895935e+001 
3625000000  -4.450401e+001  -6.659611e+001 
3628125000  -4.451630e+001  -6.999670e+001 
3631250000  -4.436955e+001  -7.215305e+001 
3634375000  -4.618101e+001  -7.214951e+001 
3637500000  -4.609087e+001  -6.705946e+001 
3640625000  -4.519102e+001  -6.542269e+001 
3643750000  -4.441813e+001  -6.999388e+001 
3646875000  -4.523011e+001  -7.728621e+001 
3650000000  -4.558868e+001  -7.438104e+001 
3653125000  -4.560834e+001  -7.839311e+001 
3656250000  -4.557243e+001  -7.758265e+001 
3659375000  -4.588216e+001  -7.489758e+001 
3662500000  -4.485374e+001  -7.715634e+001 
3665625000  -4.475556e+001  -7.560307e+001 
3668750000  -4.319986e+001  -7.515582e+001 
3671875000  -4.243704e+001  -8.265137e+001 
3675000000  -4.280907e+001  -9.188010e+001 
3678125000  -4.311413e+001  -9.139235e+001 
3681250000  -4.235040e+001  -9.674686e+001 
3684375000  -4.253648e+001  -9.840508e+001 
3687500000  -4.274533e+001  -1.047824e+002 
3690625000  -4.263698e+001  -1.067391e+002 
3693750000  -4.387049e+001  -1.076324e+002 
3696875000  -4.339280e+001  -1.093686e+002 
3700000000  -4.238462e+001  -1.127224e+002 
3703125000  -4.262583e+001  -1.194074e+002 
3706250000  -4.347583e+001  -1.198615e+002 
3709375000  -4.336850e+001  -1.172755e+002 
3712500000  -4.193381e+001  -1.217578e+002 
3715625000  -4.121799e+001  -1.272122e+002 
3718750000  -4.105299e+001  -1.335614e+002 
3721875000  -4.093405e+001  -1.395521e+002 
3725000000  -4.173397e+001  -1.463500e+002 
3728125000  -4.232132e+001  -1.466057e+002 
3731250000  -4.159585e+001  -1.485698e+002 
3734375000  -4.138690e+001  -1.579969e+002 
3737500000  -4.213631e+001  -1.626205e+002 
3740625000  -4.340299e+001  -1.671281e+002 
3743750000  -4.336055e+001  -1.692107e+002 
3746875000  -4.387815e+001  -1.725940e+002 
3750000000  -4.448845e+001  -1.740644e+002 
3753125000  -4.438181e+001  -1.740033e+002 
3756250000  -4.481608e+001  -1.712986e+002 
3759375000  -4.463364e+001  -1.715022e+002 
3762500000  -4.427549e+001  -1.743137e+002 
3765625000  -4.524827e+001  -1.725854e+002 
3768750000  -4.490054e+001  -1.676636e+002 
3771875000  -4.332609e+001  -1.720576e+002 
3775000000  -4.281692e+001  -1.777379e+002 
3778125000  -4.329712e+001  -1.786407e+002 
3781250000  -4.305310e+001  -1.785070e+002 
3784375000  -4.292509e+001  1.783366e+002 
3787500000  -4.170176e+001  1.771531e+002 
3790625000  -4.238971e+001  1.702250e+002 
3793750000  -4.218146e+001  1.697074e+002 
3796875000  -4.114142e+001  1.660800e+002 
3800000000  -3.945975e+001  1.643724e+002 
3803125000  -4.020296e+001  1.537659e+002 
3806250000  -4.100362e+001  1.516224e+002 
3809375000  -4.035563e+001  1.482230e+002 
3812500000  -3.958167e+001  1.440607e+002 
3815625000  -4.029525e+001  1.337684e+002 
3818750000  -4.140482e+001  1.317368e+002 
3821875000  -4.112087e+001  1.410656e+002 
3825000000  -3.923622e+001  1.412344e+002 
3828125000  -3.798658e+001  1.260699e+002 
3831250000  -3.858461e+001  1.109883e+002 
3834375000  -4.023224e+001  1.098574e+002 
3837500000  -4.086998e+001  1.146683e+002 
3840625000  -3.979486e+001  1.106236e+002 
3843750000  -3.895810e+001  9.941763e+001 
3846875000  -3.984187e+001  9.203447e+001 
3850000000  -4.088749e+001  9.781381e+001 
3853125000  -4.039148e+001  1.007197e+002 
3856250000  -4.022612e+001  9.387010e+001 
3859375000  -3.969604e+001  8.666057e+001 
3862500000  -3.938571e+001  7.814874e+001 
3865625000  -3.998158e+001  7.425776e+001 
3868750000  -3.987632e+001  7.334715e+001 
3871875000  -3.924197e+001  7.070786e+001 
3875000000  -3.967795e+001  5.876855e+001 
3878125000  -4.065279e+001  6.041786e+001 
3881250000  -4.070186e+001  6.074862e+001 
3884375000  -4.025677e+001  5.585924e+001 
3887500000  -4.057618e+001  5.126016e+001 
3890625000  -4.128729e+001  4.984655e+001 
3893750000  -4.154799e+001  4.862334e+001 
3896875000  -4.146638e+001  4.846105e+001 
3900000000  -4.200684e+001  4.684969e+001 
3903125000  -4.180582e+001  4.438407e+001 
3906250000  -4.101141e+001  4.537762e+001 
3909375000  -4.011435e+001  4.114973e+001 
3912500000  -4.036434e+001  3.270386e+001 
3915625000  -4.151202e+001  3.409969e+001 
3918750000  -4.114425e+001  3.464108e+001 
3921875000  -4.085786e+001  3.256604e+001 
3925000000  -3.989314e+001  2.914327e+001 
3928125000  -3.912962e+001  2.090705e+001 
3931250000  -3.958776e+001  1.774068e+001 
3934375000  -3.999336e+001  1.687851e+001 
3937500000  -3.994641e+001  1.437197e+001 
3940625000  -4.060202e+001  1.407226e+001 
3943750000  -3.918329e+001  1.312796e+001 
3946875000  -3.823975e+001  6.969286e+000 
3950000000  -3.886467e+001  -1.125953e+000 
3953125000  -4.005484e+001  -3.906154e+000 
3956250000  -3.881484e+001  -1.288630e+000 
3959375000  -3.747200e+001  -5.272721e+000 
3962500000  -3.731801e+001  -1.038202e+001 
3965625000  -3.720790e+001  -2.166430e+001 
3968750000  -3.795941e+001  -2.829326e+001 
3971875000  -3.831979e+001  -3.168100e+001 
3975000000  -3.764029e+001  -3.351890e+001 
3978125000  -3.774925e+001  -3.844046e+001 
3981250000  -3.767506e+001  -4.348695e+001 
3984375000  -3.779936e+001  -4.799943e+001 
3987500000  -3.885605e+001  -5.073351e+001 
3990625000  -3.878056e+001  -5.382941e+001 
3993750000  -3.896269e+001  -5.832471e+001 
3996875000  -3.895758e+001  -6.211382e+001 
4000000000  -3.928230e+001  -6.295838e+001 
4003125000  -3.969770e+001  -6.103889e+001 
4006250000  -3.830684e+001  -6.282484e+001 
4009375000  -3.744587e+001  -7.594175e+001 
4012500000  -3.883038e+001  -8.261211e+001 
4015625000  -4.020157e+001  -8.207908e+001 
4018750000  -4.018502e+001  -8.007008e+001 
4021875000  -3.966249e+001  -8.331517e+001 
4025000000  -3.936359e+001  -8.612443e+001 
4028125000  -3.931612e+001  -8.972888e+001 
4031250000  -3.998283e+001  -9.469648e+001 
4034375000  -4.006858e+001  -9.360602e+001 
4037500000  -3.954408e+001  -9.060792e+001 
4040625000  -3.934745e+001  -9.709480e+001 
4043750000  -3.975844e+001  -9.862475e+001 
4046875000  -3.923971e+001  -9.919571e+001 
4050000000  -3.869600e+001  -1.060391e+002 
4053125000  -3.884019e+001  -1.060477e+002 
4056250000  -3.954034e+001  -1.034088e+002 
4059375000  -3.809684e+001  -1.020230e+002 
4062500000  -3.679497e+001  -1.078519e+002 
4065625000  -3.659008e+001  -1.130988e+002 
4068750000  -3.626004e+001  -1.192690e+002 
4071875000  -3.568541e+001  -1.282470e+002 
4075000000  -3.595272e+001  -1.341738e+002 
4078125000  -3.661410e+001  -1.372325e+002 
4081250000  -3.597131e+001  -1.413186e+002 
4084375000  -3.533905e+001  -1.486959e+002 
4087500000  -3.628067e+001  -1.557573e+002 
4090625000  -3.669259e+001  -1.571399e+002 
4093750000  -3.647863e+001  -1.587834e+002 
4096875000  -3.610435e+001  -1.655953e+002 
4100000000  -3.669278e+001  -1.732514e+002 
4103125000  -3.771620e+001  -1.728032e+002 
4106250000  -3.750554e+001  -1.686388e+002 
4109375000  -3.649809e+001  -1.709871e+002 
4112500000  -3.593299e+001  -1.796386e+002 
4115625000  -3.646765e+001  1.759197e+002 
4118750000  -3.665896e+001  1.714642e+002 
4121875000  -3.641439e+001  1.656251e+002 
4125000000  -3.669919e+001  1.608239e+002 
4128125000  -3.788313e+001  1.599437e+002 
4131250000  -3.757557e+001  1.671539e+002 
4134375000  -3.520618e+001  1.612987e+002 
4137500000  -3.522256e+001  1.416325e+002 
4140625000  -3.736348e+001  1.324870e+002 
4143750000  -3.881043e+001  1.390704e+002 
4146875000  -3.824162e+001  1.428859e+002 
4150000000  -3.766667e+001  1.389411e+002 
4153125000  -3.749195e+001  1.325267e+002 
4156250000  -3.878980e+001  1.295875e+002 
4159375000  -3.898178e+001  1.351066e+002 
4162500000  -3.792694e+001  1.404817e+002 
4165625000  -3.676493e+001  1.334395e+002 
4168750000  -3.634033e+001  1.279918e+002 
4171875000  -3.623383e+001  1.166204e+002 
4175000000  -3.681500e+001  1.130980e+002 
4178125000  -3.752502e+001  1.132240e+002 
4181250000  -3.698151e+001  1.101734e+002 
4184375000  -3.721021e+001  1.074650e+002 
4187500000  -3.695132e+001  1.036959e+002 
4190625000  -3.685410e+001  9.822937e+001 
4193750000  -3.759248e+001  9.446918e+001 
4196875000  -3.821581e+001  9.215659e+001 
4200000000  -3.931307e+001  9.531583e+001 
4203125000  -3.877597e+001  1.087669e+002 
4206250000  -3.518758e+001  1.093405e+002 
4209375000  -3.424097e+001  8.559050e+001 
4212500000  -3.634925e+001  7.771565e+001 
4215625000  -3.719717e+001  8.296836e+001 
4218750000  -3.554565e+001  8.844626e+001 
4221875000  -3.351395e+001  7.905877e+001 
4225000000  -3.446737e+001  6.510768e+001 
4228125000  -3.514132e+001  6.892304e+001 
4231250000  -3.335915e+001  6.452805e+001 
4234375000  -3.330521e+001  5.469379e+001 
4237500000  -3.279400e+001  5.047504e+001 
4240625000  -3.290651e+001  3.967305e+001 
4243750000  -3.384172e+001  3.129268e+001 
4246875000  -3.497333e+001  3.143780e+001 
4250000000  -3.485563e+001  3.198640e+001 
4253125000  -3.428564e+001  2.882247e+001 
4256250000  -3.477941e+001  2.387159e+001 
4259375000  -3.439024e+001  1.993814e+001 
4262500000  -3.456696e+001  1.500012e+001 
4265625000  -3.494722e+001  1.520090e+001 
4268750000  -3.383892e+001  8.822467e+000 
4271875000  -3.370293e+001  1.834547e+000 
4275000000  -3.335188e+001  -7.053257e+000 
4278125000  -3.414423e+001  -1.735346e+001 
4281250000  -3.597025e+001  -1.975438e+001 
4284375000  -3.579366e+001  -1.840000e+001 
4287500000  -3.691402e+001  -2.398276e+001 
4290625000  -3.818332e+001  -1.520674e+001 
4293750000  -3.602660e+001  -9.832206e+000 
4296875000  -3.528514e+001  -2.181102e+001 
4300000000  -3.603088e+001  -3.010693e+001 
4303125000  -3.732579e+001  -2.736784e+001 
4306250000  -3.665440e+001  -2.355700e+001 
4309375000  -3.535873e+001  -2.473184e+001 
4312500000  -3.516819e+001  -3.385662e+001 
4315625000  -3.542452e+001  -3.902742e+001 
4318750000  -3.575217e+001  -4.265921e+001 
4321875000  -3.595207e+001  -4.119940e+001 
4325000000  -3.530430e+001  -4.077602e+001 
4328125000  -3.444506e+001  -4.735411e+001 
4331250000  -3.430648e+001  -5.601224e+001 
4334375000  -3.483192e+001  -6.054624e+001 
4337500000  -3.557629e+001  -6.331526e+001 
4340625000  -3.595024e+001  -5.958665e+001 
4343750000  -3.501279e+001  -6.039448e+001 
4346875000  -3.447106e+001  -6.573889e+001 
4350000000  -3.458050e+001  -7.223798e+001 
4353125000  -3.442553e+001  -8.146292e+001 
4356250000  -3.633162e+001  -8.048891e+001 
4359375000  -3.663191e+001  -6.867252e+001 
4362500000  -3.348492e+001  -6.974207e+001 
4365625000  -3.203518e+001  -8.457300e+001 
4368750000  -3.260193e+001  -9.690632e+001 
4371875000  -3.364441e+001  -9.748910e+001 
4375000000  -3.337693e+001  -9.830720e+001 
4378125000  -3.270391e+001  -1.047137e+002 
4381250000  -3.277356e+001  -1.117382e+002 
4384375000  -3.258885e+001  -1.184068e+002 
4387500000  -3.344260e+001  -1.251891e+002 
4390625000  -3.428165e+001  -1.267019e+002 
4393750000  -3.371226e+001  -1.256597e+002 
4396875000  -3.309751e+001  -1.275195e+002 
4400000000  -3.258910e+001  -1.371519e+002 
4403125000  -3.339992e+001  -1.467870e+002 
4406250000  -3.406348e+001  -1.495284e+002 
4409375000  -3.444799e+001  -1.519114e+002 
4412500000  -3.546099e+001  -1.563991e+002 
4415625000  -3.590094e+001  -1.524305e+002 
