!Agilent Technologies,E8363B,MY43030201,A.06.04.32
!Agilent E8363B: A.06.04.32
!Date: Tuesday, November 11, 2014 21:11:07
!Correction: S21(Response(S21)) 
!S1P File: Measurement: S21:
# Hz S  dB   R 50
3000000000  -3.656654e+001  -5.517731e+001 
3003125000  -3.781076e+001  -6.152026e+001 
3006250000  -3.751204e+001  -6.410547e+001 
3009375000  -3.796604e+001  -5.966159e+001 
3012500000  -3.703336e+001  -6.127650e+001 
3015625000  -3.618409e+001  -6.853798e+001 
3018750000  -3.693670e+001  -7.009576e+001 
3021875000  -3.545035e+001  -6.932179e+001 
3025000000  -3.410972e+001  -7.256786e+001 
3028125000  -3.319131e+001  -7.962399e+001 
3031250000  -3.216211e+001  -9.125064e+001 
3034375000  -3.182556e+001  -1.051294e+002 
3037500000  -3.237389e+001  -1.169752e+002 
3040625000  -3.371385e+001  -1.213082e+002 
3043750000  -3.429258e+001  -1.268339e+002 
3046875000  -3.449109e+001  -1.322364e+002 
3050000000  -3.625958e+001  -1.381264e+002 
3053125000  -3.605417e+001  -1.320573e+002 
3056250000  -3.558041e+001  -1.294467e+002 
3059375000  -3.558510e+001  -1.297331e+002 
3062500000  -3.412740e+001  -1.337884e+002 
3065625000  -3.398780e+001  -1.396366e+002 
3068750000  -3.367797e+001  -1.469752e+002 
3071875000  -3.349323e+001  -1.493863e+002 
3075000000  -3.327201e+001  -1.532423e+002 
3078125000  -3.302143e+001  -1.574653e+002 
3081250000  -3.363562e+001  -1.617686e+002 
3084375000  -3.265665e+001  -1.648182e+002 
3087500000  -3.247438e+001  -1.692500e+002 
3090625000  -3.199717e+001  -1.795193e+002 
3093750000  -3.247798e+001  1.733461e+002 
3096875000  -3.357393e+001  1.676184e+002 
3100000000  -3.342366e+001  1.658860e+002 
3103125000  -3.363736e+001  1.657727e+002 
3106250000  -3.308638e+001  1.618662e+002 
3109375000  -3.322858e+001  1.579948e+002 
3112500000  -3.320776e+001  1.553338e+002 
3115625000  -3.284243e+001  1.509575e+002 
3118750000  -3.321290e+001  1.509916e+002 
3121875000  -3.232353e+001  1.417233e+002 
3125000000  -3.356979e+001  1.368093e+002 
3128125000  -3.446619e+001  1.448264e+002 
3131250000  -3.206337e+001  1.424264e+002 
3134375000  -3.079923e+001  1.276522e+002 
3137500000  -3.137133e+001  1.134504e+002 
3140625000  -3.275819e+001  1.107934e+002 
3143750000  -3.376759e+001  1.122477e+002 
3146875000  -3.335368e+001  1.131613e+002 
3150000000  -3.230420e+001  1.133872e+002 
3153125000  -3.233699e+001  1.034992e+002 
3156250000  -3.336684e+001  1.091268e+002 
3159375000  -3.159589e+001  1.106559e+002 
3162500000  -2.970939e+001  9.476629e+001 
3165625000  -3.079189e+001  8.263038e+001 
3168750000  -3.099700e+001  8.350471e+001 
3171875000  -3.012518e+001  7.753042e+001 
3175000000  -3.093639e+001  6.895414e+001 
3178125000  -3.062740e+001  6.990208e+001 
3181250000  -2.950970e+001  6.364711e+001 
3184375000  -2.895992e+001  5.130574e+001 
3187500000  -3.016856e+001  3.599063e+001 
3190625000  -3.274243e+001  2.833349e+001 
3193750000  -3.331456e+001  3.769584e+001 
3196875000  -3.294233e+001  4.175898e+001 
3200000000  -3.193847e+001  3.849644e+001 
3203125000  -3.119942e+001  3.226940e+001 
3206250000  -3.154563e+001  2.529817e+001 
3209375000  -3.109791e+001  1.936397e+001 
3212500000  -3.129062e+001  1.231602e+001 
3215625000  -3.133688e+001  9.095505e+000 
3218750000  -3.212139e+001  1.564550e+000 
3221875000  -3.290083e+001  -3.489480e+000 
3225000000  -3.255740e+001  -5.411280e+000 
3228125000  -3.294934e+001  -1.062259e+001 
3231250000  -3.362006e+001  -1.286773e+001 
3234375000  -3.331917e+001  -1.265846e+001 
3237500000  -3.336736e+001  -1.505919e+001 
3240625000  -3.285940e+001  -1.770891e+001 
3243750000  -3.251283e+001  -2.534775e+001 
3246875000  -3.290277e+001  -3.229251e+001 
3250000000  -3.337311e+001  -3.494376e+001 
3253125000  -3.350629e+001  -3.712791e+001 
3256250000  -3.309926e+001  -4.286722e+001 
3259375000  -3.336455e+001  -5.243857e+001 
3262500000  -3.448641e+001  -5.566563e+001 
3265625000  -3.514337e+001  -5.317236e+001 
3268750000  -3.521494e+001  -5.098614e+001 
3271875000  -3.470261e+001  -5.190969e+001 
3275000000  -3.367952e+001  -5.835748e+001 
3278125000  -3.414032e+001  -6.462514e+001 
3281250000  -3.426575e+001  -6.365236e+001 
3284375000  -3.392362e+001  -7.066505e+001 
3287500000  -3.398408e+001  -7.386343e+001 
3290625000  -3.428029e+001  -7.976509e+001 
3293750000  -3.400700e+001  -8.610677e+001 
3296875000  -3.511340e+001  -8.668814e+001 
3300000000  -3.481059e+001  -8.551344e+001 
3303125000  -3.358535e+001  -9.054478e+001 
3306250000  -3.336212e+001  -9.777589e+001 
3309375000  -3.315166e+001  -1.047080e+002 
3312500000  -3.321751e+001  -1.160527e+002 
3315625000  -3.423447e+001  -1.239844e+002 
3318750000  -3.575674e+001  -1.264924e+002 
3321875000  -3.682384e+001  -1.267718e+002 
3325000000  -3.733768e+001  -1.195182e+002 
3328125000  -3.690374e+001  -1.206550e+002 
3331250000  -3.548316e+001  -1.136426e+002 
3334375000  -3.288282e+001  -1.250107e+002 
3337500000  -3.292935e+001  -1.450005e+002 
3340625000  -3.448221e+001  -1.558953e+002 
3343750000  -3.641666e+001  -1.563023e+002 
3346875000  -3.648405e+001  -1.549690e+002 
3350000000  -3.600047e+001  -1.564946e+002 
3353125000  -3.578999e+001  -1.614757e+002 
3356250000  -3.538270e+001  -1.703469e+002 
3359375000  -3.629642e+001  -1.778609e+002 
3362500000  -3.736947e+001  1.761567e+002 
3365625000  -3.785262e+001  1.743328e+002 
3368750000  -3.862741e+001  1.725419e+002 
3371875000  -3.892947e+001  1.703599e+002 
3375000000  -4.034061e+001  1.671849e+002 
3378125000  -4.121392e+001  1.670861e+002 
3381250000  -4.243823e+001  1.761491e+002 
3384375000  -4.063799e+001  -1.629487e+002 
3387500000  -3.719828e+001  -1.796483e+002 
3390625000  -3.921807e+001  1.610533e+002 
3393750000  -4.027575e+001  1.637540e+002 
3396875000  -3.908179e+001  1.668139e+002 
3400000000  -3.862525e+001  1.577697e+002 
3403125000  -3.917162e+001  1.520298e+002 
3406250000  -3.941039e+001  1.526061e+002 
3409375000  -3.977983e+001  1.454977e+002 
3412500000  -4.014015e+001  1.414184e+002 
3415625000  -4.088933e+001  1.429934e+002 
3418750000  -4.107401e+001  1.431680e+002 
3421875000  -4.124510e+001  1.476305e+002 
3425000000  -4.038348e+001  1.466960e+002 
3428125000  -3.931274e+001  1.423548e+002 
3431250000  -3.898268e+001  1.356480e+002 
3434375000  -3.908150e+001  1.303661e+002 
3437500000  -3.980862e+001  1.260469e+002 
3440625000  -3.992370e+001  1.282616e+002 
3443750000  -3.858280e+001  1.292616e+002 
3446875000  -3.778570e+001  1.205288e+002 
3450000000  -3.747942e+001  1.092744e+002 
3453125000  -3.776114e+001  1.001200e+002 
3456250000  -3.907020e+001  9.326482e+001 
3459375000  -4.006706e+001  9.427241e+001 
3462500000  -3.992955e+001  9.608949e+001 
3465625000  -3.959808e+001  8.857063e+001 
3468750000  -4.018975e+001  8.554784e+001 
3471875000  -4.007480e+001  8.458085e+001 
3475000000  -3.970052e+001  7.969238e+001 
3478125000  -4.034593e+001  7.076009e+001 
3481250000  -4.137602e+001  6.897153e+001 
3484375000  -4.210469e+001  7.389504e+001 
3487500000  -4.124560e+001  7.177675e+001 
3490625000  -4.057848e+001  6.683836e+001 
3493750000  -4.107205e+001  6.004697e+001 
3496875000  -4.162806e+001  5.934542e+001 
3500000000  -4.242461e+001  6.364734e+001 
3503125000  -4.202604e+001  6.630230e+001 
3506250000  -4.045835e+001  5.714691e+001 
3509375000  -4.044116e+001  4.980558e+001 
3512500000  -4.107605e+001  3.928799e+001 
3515625000  -4.201421e+001  3.957466e+001 
3518750000  -4.239844e+001  3.814868e+001 
3521875000  -4.259248e+001  3.729198e+001 
3525000000  -4.340022e+001  3.240699e+001 
3528125000  -4.348948e+001  4.090135e+001 
3531250000  -4.192860e+001  3.837712e+001 
3534375000  -4.203783e+001  2.795863e+001 
3537500000  -4.245610e+001  2.426528e+001 
3540625000  -4.351645e+001  2.188185e+001 
3543750000  -4.432837e+001  2.580399e+001 
3546875000  -4.430190e+001  3.883958e+001 
3550000000  -4.145645e+001  3.790420e+001 
3553125000  -3.998456e+001  2.155262e+001 
3556250000  -4.151173e+001  1.301632e+001 
3559375000  -4.138343e+001  1.586881e+001 
3562500000  -4.030717e+001  8.129746e+000 
3565625000  -4.098800e+001  -1.779657e-001 
3568750000  -4.132186e+001  2.676518e+000 
3571875000  -4.083229e+001  1.796466e+000 
3575000000  -4.076898e+001  -5.694525e+000 
3578125000  -4.137003e+001  -1.125314e+001 
3581250000  -4.157182e+001  -1.255132e+001 
3584375000  -4.058773e+001  -1.529209e+001 
3587500000  -3.998671e+001  -2.410699e+001 
3590625000  -4.052192e+001  -3.300166e+001 
3593750000  -4.171265e+001  -3.547997e+001 
3596875000  -4.174684e+001  -2.964087e+001 
3600000000  -4.017268e+001  -3.629807e+001 
3603125000  -4.054613e+001  -5.211651e+001 
3606250000  -4.144445e+001  -5.409746e+001 
3609375000  -4.205767e+001  -5.618028e+001 
3612500000  -4.263132e+001  -6.137205e+001 
3615625000  -4.279390e+001  -6.255666e+001 
3618750000  -4.307308e+001  -6.404532e+001 
3621875000  -4.350217e+001  -6.643988e+001 
3625000000  -4.403109e+001  -6.784647e+001 
3628125000  -4.386793e+001  -6.991164e+001 
3631250000  -4.371769e+001  -7.465756e+001 
3634375000  -4.507905e+001  -7.326030e+001 
3637500000  -4.519543e+001  -7.047483e+001 
3640625000  -4.491016e+001  -6.835345e+001 
3643750000  -4.441665e+001  -7.352158e+001 
3646875000  -4.491718e+001  -7.957535e+001 
3650000000  -4.563792e+001  -7.890020e+001 
3653125000  -4.545269e+001  -8.055696e+001 
3656250000  -4.528525e+001  -8.250906e+001 
3659375000  -4.555354e+001  -7.785513e+001 
3662500000  -4.462790e+001  -7.649998e+001 
3665625000  -4.481336e+001  -7.985281e+001 
3668750000  -4.363028e+001  -8.078910e+001 
3671875000  -4.268916e+001  -8.495064e+001 
3675000000  -4.316300e+001  -9.151315e+001 
3678125000  -4.327312e+001  -9.352345e+001 
3681250000  -4.285714e+001  -9.787478e+001 
3684375000  -4.272831e+001  -1.031496e+002 
3687500000  -4.302248e+001  -1.061496e+002 
3690625000  -4.324946e+001  -1.095722e+002 
3693750000  -4.418920e+001  -1.083860e+002 
3696875000  -4.371217e+001  -1.095959e+002 
3700000000  -4.252832e+001  -1.154686e+002 
3703125000  -4.272710e+001  -1.180927e+002 
3706250000  -4.383011e+001  -1.189206e+002 
3709375000  -4.326950e+001  -1.182120e+002 
3712500000  -4.221375e+001  -1.207183e+002 
3715625000  -4.145858e+001  -1.264760e+002 
3718750000  -4.122351e+001  -1.330208e+002 
3721875000  -4.120644e+001  -1.392991e+002 
3725000000  -4.146149e+001  -1.448842e+002 
3728125000  -4.187002e+001  -1.481780e+002 
3731250000  -4.165630e+001  -1.491013e+002 
3734375000  -4.106403e+001  -1.559429e+002 
3737500000  -4.187424e+001  -1.641580e+002 
3740625000  -4.298615e+001  -1.662522e+002 
3743750000  -4.278360e+001  -1.686778e+002 
3746875000  -4.310576e+001  -1.725518e+002 
3750000000  -4.384911e+001  -1.727400e+002 
3753125000  -4.400486e+001  -1.728977e+002 
3756250000  -4.465744e+001  -1.726132e+002 
3759375000  -4.466146e+001  -1.736292e+002 
3762500000  -4.409929e+001  -1.766460e+002 
3765625000  -4.494943e+001  -1.755894e+002 
3768750000  -4.424231e+001  -1.733619e+002 
3771875000  -4.306276e+001  -1.748687e+002 
3775000000  -4.275895e+001  1.788950e+002 
3778125000  -4.310598e+001  1.781803e+002 
3781250000  -4.286054e+001  1.760395e+002 
3784375000  -4.284834e+001  1.765596e+002 
3787500000  -4.201284e+001  1.714619e+002 
3790625000  -4.236681e+001  1.671216e+002 
3793750000  -4.242021e+001  1.651817e+002 
3796875000  -4.124647e+001  1.645767e+002 
3800000000  -3.994183e+001  1.627016e+002 
3803125000  -4.064845e+001  1.512609e+002 
3806250000  -4.095306e+001  1.502206e+002 
3809375000  -4.052570e+001  1.479473e+002 
3812500000  -3.998952e+001  1.403962e+002 
3815625000  -4.060191e+001  1.308400e+002 
3818750000  -4.175095e+001  1.299321e+002 
3821875000  -4.132200e+001  1.396638e+002 
3825000000  -3.933282e+001  1.411191e+002 
3828125000  -3.792018e+001  1.251391e+002 
3831250000  -3.881084e+001  1.098412e+002 
3834375000  -4.030421e+001  1.084092e+002 
3837500000  -4.130086e+001  1.134658e+002 
3840625000  -3.965852e+001  1.108946e+002 
3843750000  -3.908553e+001  9.859639e+001 
3846875000  -3.989439e+001  9.119998e+001 
3850000000  -4.117519e+001  9.587183e+001 
3853125000  -4.010626e+001  9.921938e+001 
3856250000  -4.002484e+001  9.199426e+001 
3859375000  -3.943977e+001  8.531123e+001 
3862500000  -3.966988e+001  7.814869e+001 
3865625000  -3.961113e+001  7.435606e+001 
3868750000  -3.995467e+001  7.280431e+001 
3871875000  -3.884163e+001  6.951793e+001 
3875000000  -3.943619e+001  6.013739e+001 
3878125000  -4.056082e+001  5.819948e+001 
3881250000  -4.071677e+001  6.210347e+001 
3884375000  -3.987040e+001  5.596812e+001 
3887500000  -4.047198e+001  4.892165e+001 
3890625000  -4.080462e+001  4.866125e+001 
3893750000  -4.102235e+001  4.656918e+001 
3896875000  -4.174983e+001  4.564370e+001 
3900000000  -4.172935e+001  4.490703e+001 
3903125000  -4.141771e+001  4.290530e+001 
3906250000  -4.074078e+001  4.005799e+001 
3909375000  -4.025105e+001  3.841082e+001 
3912500000  -4.021453e+001  2.970336e+001 
3915625000  -4.185497e+001  3.221980e+001 
3918750000  -4.122953e+001  3.196291e+001 
3921875000  -4.075303e+001  2.744029e+001 
3925000000  -3.973272e+001  2.707576e+001 
3928125000  -3.911576e+001  2.110970e+001 
3931250000  -3.959790e+001  1.628712e+001 
3934375000  -3.998510e+001  1.285507e+001 
3937500000  -4.002859e+001  1.328506e+001 
3940625000  -4.051458e+001  1.062202e+001 
3943750000  -3.937936e+001  1.136903e+001 
3946875000  -3.832736e+001  4.903636e+000 
3950000000  -3.909701e+001  -4.753895e+000 
3953125000  -4.022106e+001  -6.737473e+000 
3956250000  -3.897491e+001  -2.843055e+000 
3959375000  -3.782665e+001  -7.278336e+000 
3962500000  -3.748701e+001  -1.184781e+001 
3965625000  -3.719193e+001  -2.346245e+001 
3968750000  -3.814967e+001  -2.863616e+001 
3971875000  -3.846805e+001  -3.299123e+001 
3975000000  -3.797911e+001  -3.469904e+001 
3978125000  -3.795755e+001  -3.722532e+001 
3981250000  -3.781061e+001  -4.381985e+001 
3984375000  -3.821071e+001  -4.945589e+001 
3987500000  -3.871484e+001  -5.094961e+001 
3990625000  -3.850153e+001  -5.498277e+001 
3993750000  -3.891865e+001  -5.762062e+001 
3996875000  -3.889767e+001  -6.039199e+001 
4000000000  -3.928990e+001  -6.308821e+001 
4003125000  -3.990553e+001  -6.086877e+001 
4006250000  -3.823622e+001  -6.232882e+001 
4009375000  -3.719625e+001  -7.597199e+001 
4012500000  -3.877690e+001  -8.167490e+001 
4015625000  -4.018318e+001  -8.327039e+001 
4018750000  -4.010629e+001  -8.199495e+001 
4021875000  -3.900389e+001  -8.262930e+001 
4025000000  -3.903894e+001  -8.842626e+001 
4028125000  -3.878831e+001  -9.043835e+001 
4031250000  -3.943839e+001  -9.573718e+001 
4034375000  -3.966238e+001  -9.513398e+001 
4037500000  -3.912076e+001  -9.557375e+001 
4040625000  -3.899843e+001  -9.964123e+001 
4043750000  -3.951560e+001  -9.890548e+001 
4046875000  -3.901291e+001  -1.004883e+002 
4050000000  -3.852928e+001  -1.070724e+002 
4053125000  -3.893321e+001  -1.083962e+002 
4056250000  -3.956578e+001  -1.064922e+002 
4059375000  -3.789119e+001  -1.049583e+002 
4062500000  -3.681054e+001  -1.114202e+002 
4065625000  -3.662554e+001  -1.154809e+002 
4068750000  -3.640210e+001  -1.221599e+002 
4071875000  -3.561637e+001  -1.305033e+002 
4075000000  -3.603453e+001  -1.376917e+002 
4078125000  -3.680276e+001  -1.397214e+002 
4081250000  -3.603484e+001  -1.444629e+002 
4084375000  -3.592709e+001  -1.515563e+002 
4087500000  -3.624846e+001  -1.575751e+002 
4090625000  -3.673324e+001  -1.600409e+002 
4093750000  -3.643640e+001  -1.602213e+002 
4096875000  -3.616573e+001  -1.674074e+002 
4100000000  -3.707139e+001  -1.755143e+002 
4103125000  -3.802802e+001  -1.747368e+002 
4106250000  -3.769116e+001  -1.695459e+002 
4109375000  -3.677183e+001  -1.714446e+002 
4112500000  -3.613916e+001  1.797430e+002 
4115625000  -3.660642e+001  1.736136e+002 
4118750000  -3.697403e+001  1.702607e+002 
4121875000  -3.639268e+001  1.659071e+002 
4125000000  -3.692833e+001  1.591614e+002 
4128125000  -3.792648e+001  1.598546e+002 
4131250000  -3.766825e+001  1.657904e+002 
4134375000  -3.549088e+001  1.596875e+002 
4137500000  -3.527632e+001  1.414230e+002 
4140625000  -3.740686e+001  1.325358e+002 
4143750000  -3.868302e+001  1.380486e+002 
4146875000  -3.843219e+001  1.426355e+002 
4150000000  -3.752244e+001  1.398520e+002 
4153125000  -3.760886e+001  1.329184e+002 
4156250000  -3.839646e+001  1.291023e+002 
4159375000  -3.882825e+001  1.346506e+002 
4162500000  -3.754340e+001  1.384038e+002 
4165625000  -3.640450e+001  1.343195e+002 
4168750000  -3.620257e+001  1.256392e+002 
4171875000  -3.594942e+001  1.157659e+002 
4175000000  -3.663050e+001  1.096068e+002 
4178125000  -3.714638e+001  1.104683e+002 
4181250000  -3.684437e+001  1.090744e+002 
4184375000  -3.695145e+001  1.042724e+002 
4187500000  -3.670558e+001  1.021126e+002 
4190625000  -3.651346e+001  9.458629e+001 
4193750000  -3.741991e+001  9.175049e+001 
4196875000  -3.807199e+001  9.013331e+001 
4200000000  -3.923039e+001  9.460132e+001 
4203125000  -3.872382e+001  1.071221e+002 
4206250000  -3.518042e+001  1.057608e+002 
4209375000  -3.423926e+001  8.307710e+001 
4212500000  -3.635803e+001  7.461787e+001 
4215625000  -3.707320e+001  8.072607e+001 
4218750000  -3.568716e+001  8.624433e+001 
4221875000  -3.330631e+001  7.602894e+001 
4225000000  -3.466231e+001  6.338273e+001 
4228125000  -3.513592e+001  6.589403e+001 
4231250000  -3.351862e+001  6.195849e+001 
4234375000  -3.328270e+001  5.249934e+001 
4237500000  -3.305027e+001  4.810994e+001 
4240625000  -3.310859e+001  3.786700e+001 
4243750000  -3.401160e+001  3.018177e+001 
4246875000  -3.508689e+001  2.871992e+001 
4250000000  -3.514454e+001  3.068527e+001 
4253125000  -3.441991e+001  2.768517e+001 
4256250000  -3.490671e+001  2.109613e+001 
4259375000  -3.450786e+001  1.849919e+001 
4262500000  -3.474968e+001  1.496400e+001 
4265625000  -3.496027e+001  1.467881e+001 
4268750000  -3.393465e+001  8.471427e+000 
4271875000  -3.385404e+001  5.458368e-001 
4275000000  -3.348035e+001  -7.123985e+000 
4278125000  -3.419042e+001  -1.883906e+001 
4281250000  -3.624414e+001  -2.015002e+001 
4284375000  -3.577866e+001  -1.981231e+001 
4287500000  -3.689093e+001  -2.305610e+001 
4290625000  -3.816670e+001  -1.339227e+001 
4293750000  -3.608328e+001  -1.109978e+001 
4296875000  -3.509470e+001  -2.234659e+001 
4300000000  -3.614029e+001  -2.960675e+001 
4303125000  -3.718225e+001  -2.805787e+001 
4306250000  -3.641928e+001  -2.284482e+001 
4309375000  -3.507917e+001  -2.492912e+001 
4312500000  -3.485986e+001  -3.391559e+001 
4315625000  -3.509846e+001  -4.016161e+001 
4318750000  -3.530140e+001  -4.291896e+001 
4321875000  -3.555577e+001  -4.314990e+001 
4325000000  -3.489985e+001  -4.312419e+001 
4328125000  -3.417282e+001  -5.001039e+001 
4331250000  -3.408787e+001  -5.838608e+001 
4334375000  -3.448632e+001  -6.414985e+001 
4337500000  -3.538309e+001  -6.610458e+001 
4340625000  -3.571727e+001  -6.222703e+001 
4343750000  -3.487862e+001  -6.336992e+001 
4346875000  -3.435442e+001  -6.978130e+001 
4350000000  -3.430526e+001  -7.549117e+001 
4353125000  -3.448896e+001  -8.433305e+001 
4356250000  -3.625133e+001  -8.436337e+001 
4359375000  -3.653510e+001  -7.214996e+001 
4362500000  -3.340965e+001  -7.239721e+001 
4365625000  -3.204515e+001  -8.724968e+001 
4368750000  -3.280740e+001  -9.958947e+001 
4371875000  -3.383030e+001  -9.925621e+001 
4375000000  -3.338443e+001  -1.008989e+002 
4378125000  -3.285064e+001  -1.074032e+002 
4381250000  -3.309241e+001  -1.141752e+002 
4384375000  -3.280849e+001  -1.207775e+002 
4387500000  -3.355663e+001  -1.271821e+002 
4390625000  -3.458847e+001  -1.271532e+002 
4393750000  -3.386180e+001  -1.264180e+002 
4396875000  -3.338252e+001  -1.309522e+002 
4400000000  -3.296342e+001  -1.390468e+002 
4403125000  -3.353228e+001  -1.469353e+002 
4406250000  -3.426937e+001  -1.500092e+002 
4409375000  -3.464119e+001  -1.539626e+002 
4412500000  -3.569519e+001  -1.568082e+002 
4415625000  -3.585655e+001  -1.516812e+002 
