!Agilent Technologies,E8363B,MY43030201,A.06.04.32
!Agilent E8363B: A.06.04.32
!Date: Tuesday, November 11, 2014 21:02:58
!Correction: S21(Response(S21)) 
!S1P File: Measurement: S21:
# Hz S  dB   R 50
3000000000  -3.643581e+001  -4.542749e+001 
3003125000  -3.748643e+001  -5.122990e+001 
3006250000  -3.737804e+001  -5.513505e+001 
3009375000  -3.769038e+001  -4.995654e+001 
3012500000  -3.706455e+001  -5.145577e+001 
3015625000  -3.601495e+001  -5.867154e+001 
3018750000  -3.683180e+001  -6.057244e+001 
3021875000  -3.538879e+001  -5.906586e+001 
3025000000  -3.411372e+001  -6.251224e+001 
3028125000  -3.317411e+001  -6.887685e+001 
3031250000  -3.210587e+001  -8.061061e+001 
3034375000  -3.178514e+001  -9.403262e+001 
3037500000  -3.215807e+001  -1.060068e+002 
3040625000  -3.344504e+001  -1.109153e+002 
3043750000  -3.412126e+001  -1.162166e+002 
3046875000  -3.424745e+001  -1.222451e+002 
3050000000  -3.593017e+001  -1.289329e+002 
3053125000  -3.592403e+001  -1.228902e+002 
3056250000  -3.549541e+001  -1.199774e+002 
3059375000  -3.558530e+001  -1.207014e+002 
3062500000  -3.397996e+001  -1.226782e+002 
3065625000  -3.378407e+001  -1.298364e+002 
3068750000  -3.352014e+001  -1.371626e+002 
3071875000  -3.354127e+001  -1.391551e+002 
3075000000  -3.324895e+001  -1.431317e+002 
3078125000  -3.296516e+001  -1.469199e+002 
3081250000  -3.355880e+001  -1.515227e+002 
3084375000  -3.265156e+001  -1.554087e+002 
3087500000  -3.248093e+001  -1.586543e+002 
3090625000  -3.198429e+001  -1.692416e+002 
3093750000  -3.239789e+001  -1.765599e+002 
3096875000  -3.346896e+001  1.775992e+002 
3100000000  -3.331370e+001  1.758759e+002 
3103125000  -3.361414e+001  1.766634e+002 
3106250000  -3.315987e+001  1.721985e+002 
3109375000  -3.327463e+001  1.683164e+002 
3112500000  -3.321408e+001  1.662665e+002 
3115625000  -3.286224e+001  1.613553e+002 
3118750000  -3.321619e+001  1.615043e+002 
3121875000  -3.231561e+001  1.520149e+002 
3125000000  -3.348059e+001  1.478312e+002 
3128125000  -3.446334e+001  1.547192e+002 
3131250000  -3.212934e+001  1.534317e+002 
3134375000  -3.072454e+001  1.381864e+002 
3137500000  -3.136575e+001  1.238590e+002 
3140625000  -3.293450e+001  1.209591e+002 
3143750000  -3.385839e+001  1.231883e+002 
3146875000  -3.332502e+001  1.230679e+002 
3150000000  -3.229755e+001  1.235502e+002 
3153125000  -3.238770e+001  1.146675e+002 
3156250000  -3.325195e+001  1.194170e+002 
3159375000  -3.165052e+001  1.209854e+002 
3162500000  -2.972553e+001  1.061919e+002 
3165625000  -3.071495e+001  9.372397e+001 
3168750000  -3.107665e+001  9.405872e+001 
3171875000  -3.008049e+001  8.835432e+001 
3175000000  -3.090674e+001  7.976361e+001 
3178125000  -3.073204e+001  8.039540e+001 
3181250000  -2.958368e+001  7.534380e+001 
3184375000  -2.884292e+001  6.263381e+001 
3187500000  -3.002100e+001  4.686118e+001 
3190625000  -3.272320e+001  3.861372e+001 
3193750000  -3.327380e+001  4.794150e+001 
3196875000  -3.298346e+001  5.223547e+001 
3200000000  -3.210079e+001  4.947855e+001 
3203125000  -3.121680e+001  4.318953e+001 
3206250000  -3.153722e+001  3.632720e+001 
3209375000  -3.115290e+001  3.056633e+001 
3212500000  -3.132627e+001  2.340310e+001 
3215625000  -3.138552e+001  1.947567e+001 
3218750000  -3.205658e+001  1.197515e+001 
3221875000  -3.305437e+001  6.500148e+000 
3225000000  -3.261472e+001  5.868284e+000 
3228125000  -3.300619e+001  7.208948e-001 
3231250000  -3.364313e+001  -2.538234e+000 
3234375000  -3.343025e+001  -1.781661e+000 
3237500000  -3.333675e+001  -3.776035e+000 
3240625000  -3.302067e+001  -6.560247e+000 
3243750000  -3.252843e+001  -1.400303e+001 
3246875000  -3.303333e+001  -2.083259e+001 
3250000000  -3.341663e+001  -2.389920e+001 
3253125000  -3.351303e+001  -2.571215e+001 
3256250000  -3.320584e+001  -3.248754e+001 
3259375000  -3.349679e+001  -4.091560e+001 
3262500000  -3.468785e+001  -4.494460e+001 
3265625000  -3.526566e+001  -4.201466e+001 
3268750000  -3.510881e+001  -4.057043e+001 
3271875000  -3.483319e+001  -4.073303e+001 
3275000000  -3.387236e+001  -4.646670e+001 
3278125000  -3.423375e+001  -5.367288e+001 
3281250000  -3.439941e+001  -5.193146e+001 
3284375000  -3.398155e+001  -5.876223e+001 
3287500000  -3.409522e+001  -6.355505e+001 
3290625000  -3.444019e+001  -6.886426e+001 
3293750000  -3.413393e+001  -7.425510e+001 
3296875000  -3.519133e+001  -7.520239e+001 
3300000000  -3.496238e+001  -7.446725e+001 
3303125000  -3.371543e+001  -7.989530e+001 
3306250000  -3.352897e+001  -8.679269e+001 
3309375000  -3.332767e+001  -9.274181e+001 
3312500000  -3.329700e+001  -1.039305e+002 
3315625000  -3.428988e+001  -1.123163e+002 
3318750000  -3.576783e+001  -1.149475e+002 
3321875000  -3.683567e+001  -1.145405e+002 
3325000000  -3.740889e+001  -1.099062e+002 
3328125000  -3.707070e+001  -1.089048e+002 
3331250000  -3.573565e+001  -1.025628e+002 
3334375000  -3.308657e+001  -1.126313e+002 
3337500000  -3.318751e+001  -1.324481e+002 
3340625000  -3.442624e+001  -1.432604e+002 
3343750000  -3.648402e+001  -1.444347e+002 
3346875000  -3.666581e+001  -1.425242e+002 
3350000000  -3.613206e+001  -1.446649e+002 
3353125000  -3.596620e+001  -1.491819e+002 
3356250000  -3.550562e+001  -1.576356e+002 
3359375000  -3.622955e+001  -1.658713e+002 
3362500000  -3.758294e+001  -1.717871e+002 
3365625000  -3.773441e+001  -1.725590e+002 
3368750000  -3.870073e+001  -1.756308e+002 
3371875000  -3.902066e+001  -1.773222e+002 
3375000000  -4.029721e+001  1.795905e+002 
3378125000  -4.104905e+001  1.796531e+002 
3381250000  -4.234797e+001  -1.725504e+002 
3384375000  -4.104163e+001  -1.535456e+002 
3387500000  -3.748360e+001  -1.680619e+002 
3390625000  -3.906113e+001  1.726865e+002 
3393750000  -4.039399e+001  1.767151e+002 
3396875000  -3.927596e+001  1.784401e+002 
3400000000  -3.857972e+001  1.696509e+002 
3403125000  -3.936532e+001  1.651324e+002 
3406250000  -3.976082e+001  1.651759e+002 
3409375000  -3.982161e+001  1.570451e+002 
3412500000  -4.020683e+001  1.542135e+002 
3415625000  -4.109451e+001  1.546971e+002 
3418750000  -4.128347e+001  1.561345e+002 
3421875000  -4.125056e+001  1.592764e+002 
3425000000  -4.042172e+001  1.591784e+002 
3428125000  -3.934299e+001  1.551947e+002 
3431250000  -3.941863e+001  1.488835e+002 
3434375000  -3.922117e+001  1.430070e+002 
3437500000  -3.984298e+001  1.390065e+002 
3440625000  -4.014631e+001  1.396641e+002 
3443750000  -3.872768e+001  1.401459e+002 
3446875000  -3.790385e+001  1.324415e+002 
3450000000  -3.775014e+001  1.226031e+002 
3453125000  -3.785998e+001  1.132033e+002 
3456250000  -3.921327e+001  1.068853e+002 
3459375000  -3.994822e+001  1.084141e+002 
3462500000  -4.000051e+001  1.085947e+002 
3465625000  -3.971709e+001  1.017106e+002 
3468750000  -4.008674e+001  9.823586e+001 
3471875000  -3.998151e+001  9.703381e+001 
3475000000  -3.954580e+001  9.142320e+001 
3478125000  -4.022209e+001  8.385629e+001 
3481250000  -4.111658e+001  8.222677e+001 
3484375000  -4.215964e+001  8.605546e+001 
3487500000  -4.119976e+001  8.465611e+001 
3490625000  -4.068199e+001  7.987437e+001 
3493750000  -4.102775e+001  7.462019e+001 
3496875000  -4.119662e+001  7.067091e+001 
3500000000  -4.244410e+001  7.402522e+001 
3503125000  -4.216386e+001  7.577654e+001 
3506250000  -4.071939e+001  7.072742e+001 
3509375000  -4.056671e+001  6.084423e+001 
3512500000  -4.113932e+001  5.230471e+001 
3515625000  -4.197973e+001  5.084691e+001 
3518750000  -4.251215e+001  4.995629e+001 
3521875000  -4.222464e+001  4.860572e+001 
3525000000  -4.334985e+001  4.476933e+001 
3528125000  -4.381846e+001  5.117745e+001 
3531250000  -4.231944e+001  5.014417e+001 
3534375000  -4.232108e+001  4.094085e+001 
3537500000  -4.267248e+001  3.771074e+001 
3540625000  -4.334239e+001  3.538563e+001 
3543750000  -4.453406e+001  3.675801e+001 
3546875000  -4.438668e+001  4.818305e+001 
3550000000  -4.166819e+001  5.091944e+001 
3553125000  -4.045876e+001  3.291809e+001 
3556250000  -4.188175e+001  2.757204e+001 
3559375000  -4.147075e+001  2.940457e+001 
3562500000  -4.047424e+001  2.220462e+001 
3565625000  -4.127561e+001  1.276911e+001 
3568750000  -4.161834e+001  1.532049e+001 
3571875000  -4.147794e+001  1.352710e+001 
3575000000  -4.077086e+001  7.745765e+000 
3578125000  -4.133921e+001  3.493891e+000 
3581250000  -4.160256e+001  1.507618e+000 
3584375000  -4.057092e+001  -2.039320e+000 
3587500000  -3.999737e+001  -9.447969e+000 
3590625000  -4.071569e+001  -2.014988e+001 
3593750000  -4.196440e+001  -2.305678e+001 
3596875000  -4.172428e+001  -1.651925e+001 
3600000000  -4.038785e+001  -2.225384e+001 
3603125000  -4.078998e+001  -3.624680e+001 
3606250000  -4.178024e+001  -4.048175e+001 
3609375000  -4.215567e+001  -4.395891e+001 
3612500000  -4.275784e+001  -4.711438e+001 
3615625000  -4.278072e+001  -5.002955e+001 
3618750000  -4.356790e+001  -4.915273e+001 
3621875000  -4.350613e+001  -5.519838e+001 
3625000000  -4.427912e+001  -5.703904e+001 
3628125000  -4.430621e+001  -5.734724e+001 
3631250000  -4.423933e+001  -6.018088e+001 
3634375000  -4.552365e+001  -6.246087e+001 
3637500000  -4.556628e+001  -5.572590e+001 
3640625000  -4.469707e+001  -5.552618e+001 
3643750000  -4.457395e+001  -6.069178e+001 
3646875000  -4.502799e+001  -6.622442e+001 
3650000000  -4.594319e+001  -6.843562e+001 
3653125000  -4.559680e+001  -6.918192e+001 
3656250000  -4.601773e+001  -6.694308e+001 
3659375000  -4.610794e+001  -6.421218e+001 
3662500000  -4.553930e+001  -6.667680e+001 
3665625000  -4.526810e+001  -6.461005e+001 
3668750000  -4.440935e+001  -6.513367e+001 
3671875000  -4.321703e+001  -7.156223e+001 
3675000000  -4.362914e+001  -7.986839e+001 
3678125000  -4.389402e+001  -8.109151e+001 
3681250000  -4.333707e+001  -8.188020e+001 
3684375000  -4.345189e+001  -8.606784e+001 
3687500000  -4.363778e+001  -8.911028e+001 
3690625000  -4.339983e+001  -9.408094e+001 
3693750000  -4.417126e+001  -9.272797e+001 
3696875000  -4.408562e+001  -9.448668e+001 
3700000000  -4.302347e+001  -9.869716e+001 
3703125000  -4.304301e+001  -1.045276e+002 
3706250000  -4.412460e+001  -1.041403e+002 
3709375000  -4.352831e+001  -1.037345e+002 
3712500000  -4.251006e+001  -1.054666e+002 
3715625000  -4.177472e+001  -1.140073e+002 
3718750000  -4.149353e+001  -1.180292e+002 
3721875000  -4.134843e+001  -1.230499e+002 
3725000000  -4.167408e+001  -1.301384e+002 
3728125000  -4.191712e+001  -1.316604e+002 
3731250000  -4.171594e+001  -1.326203e+002 
3734375000  -4.112790e+001  -1.401902e+002 
3737500000  -4.207446e+001  -1.484083e+002 
3740625000  -4.295609e+001  -1.539307e+002 
3743750000  -4.315458e+001  -1.551602e+002 
3746875000  -4.346461e+001  -1.579128e+002 
3750000000  -4.408285e+001  -1.563656e+002 
3753125000  -4.369227e+001  -1.567297e+002 
3756250000  -4.413576e+001  -1.560477e+002 
3759375000  -4.445848e+001  -1.582056e+002 
3762500000  -4.395543e+001  -1.602609e+002 
3765625000  -4.447366e+001  -1.617654e+002 
3768750000  -4.445464e+001  -1.578467e+002 
3771875000  -4.313024e+001  -1.593497e+002 
3775000000  -4.291113e+001  -1.657625e+002 
3778125000  -4.324767e+001  -1.668209e+002 
3781250000  -4.293226e+001  -1.676909e+002 
3784375000  -4.290147e+001  -1.709531e+002 
3787500000  -4.184635e+001  -1.728715e+002 
3790625000  -4.234853e+001  -1.781925e+002 
3793750000  -4.221883e+001  -1.778118e+002 
3796875000  -4.140390e+001  1.796963e+002 
3800000000  -3.974916e+001  1.772063e+002 
3803125000  -4.034928e+001  1.671154e+002 
3806250000  -4.090276e+001  1.656638e+002 
3809375000  -4.068924e+001  1.632430e+002 
3812500000  -3.992563e+001  1.567978e+002 
3815625000  -4.049324e+001  1.484680e+002 
3818750000  -4.129929e+001  1.450208e+002 
3821875000  -4.154118e+001  1.522201e+002 
3825000000  -3.971865e+001  1.543504e+002 
3828125000  -3.803374e+001  1.401185e+002 
3831250000  -3.870971e+001  1.256442e+002 
3834375000  -4.024781e+001  1.251031e+002 
3837500000  -4.077630e+001  1.291702e+002 
3840625000  -3.995656e+001  1.242725e+002 
3843750000  -3.913755e+001  1.126073e+002 
3846875000  -3.970794e+001  1.054369e+002 
3850000000  -4.124618e+001  1.115731e+002 
3853125000  -4.041693e+001  1.153329e+002 
3856250000  -4.024574e+001  1.068668e+002 
3859375000  -3.946752e+001  1.033359e+002 
3862500000  -3.940735e+001  9.411708e+001 
3865625000  -3.970507e+001  8.960429e+001 
3868750000  -3.946552e+001  8.810339e+001 
3871875000  -3.909861e+001  8.432658e+001 
3875000000  -3.914186e+001  7.528896e+001 
3878125000  -4.030886e+001  7.378051e+001 
3881250000  -4.050239e+001  7.749044e+001 
3884375000  -3.970350e+001  7.185298e+001 
3887500000  -4.006153e+001  6.775232e+001 
3890625000  -4.078620e+001  6.372553e+001 
3893750000  -4.097797e+001  6.105951e+001 
3896875000  -4.143092e+001  6.238230e+001 
3900000000  -4.153590e+001  5.728768e+001 
3903125000  -4.082717e+001  5.874395e+001 
3906250000  -4.043484e+001  5.528122e+001 
3909375000  -4.009048e+001  5.346742e+001 
3912500000  -3.987284e+001  4.595244e+001 
3915625000  -4.147108e+001  4.500809e+001 
3918750000  -4.119310e+001  4.688090e+001 
3921875000  -4.072141e+001  4.281247e+001 
3925000000  -3.956181e+001  4.133384e+001 
3928125000  -3.911005e+001  3.463121e+001 
3931250000  -3.972043e+001  3.058038e+001 
3934375000  -3.984138e+001  2.842570e+001 
3937500000  -3.997573e+001  2.816842e+001 
3940625000  -4.040131e+001  2.547295e+001 
3943750000  -3.957610e+001  2.724506e+001 
3946875000  -3.834113e+001  2.023211e+001 
3950000000  -3.910909e+001  1.070411e+001 
3953125000  -4.015689e+001  1.024030e+001 
3956250000  -3.917628e+001  1.268568e+001 
3959375000  -3.766812e+001  8.436606e+000 
3962500000  -3.747289e+001  1.968115e+000 
3965625000  -3.728848e+001  -6.817750e+000 
3968750000  -3.812426e+001  -1.404154e+001 
3971875000  -3.848538e+001  -1.644968e+001 
3975000000  -3.772085e+001  -1.855650e+001 
3978125000  -3.784360e+001  -2.174274e+001 
3981250000  -3.777864e+001  -2.777848e+001 
3984375000  -3.813023e+001  -3.294848e+001 
3987500000  -3.867268e+001  -3.627835e+001 
3990625000  -3.840682e+001  -3.741371e+001 
3993750000  -3.870114e+001  -4.127063e+001 
3996875000  -3.912457e+001  -4.554320e+001 
4000000000  -3.944161e+001  -4.646928e+001 
4003125000  -3.958327e+001  -4.559698e+001 
4006250000  -3.841529e+001  -4.571270e+001 
4009375000  -3.721210e+001  -5.861565e+001 
4012500000  -3.819534e+001  -6.596333e+001 
4015625000  -3.967505e+001  -6.547002e+001 
4018750000  -3.982883e+001  -6.496145e+001 
4021875000  -3.935079e+001  -6.598759e+001 
4025000000  -3.892909e+001  -7.139712e+001 
4028125000  -3.878805e+001  -7.622325e+001 
4031250000  -3.911116e+001  -7.933659e+001 
4034375000  -3.959349e+001  -8.062021e+001 
4037500000  -3.887630e+001  -7.859865e+001 
4040625000  -3.895233e+001  -8.191862e+001 
4043750000  -3.925959e+001  -8.323505e+001 
4046875000  -3.873791e+001  -8.583261e+001 
4050000000  -3.819879e+001  -9.221819e+001 
4053125000  -3.878799e+001  -9.458203e+001 
4056250000  -3.943845e+001  -9.204108e+001 
4059375000  -3.800786e+001  -9.029849e+001 
4062500000  -3.672432e+001  -9.673459e+001 
4065625000  -3.654992e+001  -1.000597e+002 
4068750000  -3.622461e+001  -1.070236e+002 
4071875000  -3.568726e+001  -1.161011e+002 
4075000000  -3.596413e+001  -1.217808e+002 
4078125000  -3.650594e+001  -1.232515e+002 
4081250000  -3.613321e+001  -1.285087e+002 
4084375000  -3.557443e+001  -1.345703e+002 
4087500000  -3.614510e+001  -1.423682e+002 
4090625000  -3.665763e+001  -1.435125e+002 
4093750000  -3.646827e+001  -1.450891e+002 
4096875000  -3.606712e+001  -1.504704e+002 
4100000000  -3.696803e+001  -1.582592e+002 
4103125000  -3.766419e+001  -1.592286e+002 
4106250000  -3.761596e+001  -1.534718e+002 
4109375000  -3.660804e+001  -1.560788e+002 
4112500000  -3.625653e+001  -1.646445e+002 
4115625000  -3.643725e+001  -1.692457e+002 
4118750000  -3.670527e+001  -1.724048e+002 
4121875000  -3.626498e+001  -1.773492e+002 
4125000000  -3.656802e+001  1.761481e+002 
4128125000  -3.761193e+001  1.762869e+002 
4131250000  -3.758679e+001  -1.768289e+002 
4134375000  -3.527066e+001  1.769482e+002 
4137500000  -3.513204e+001  1.573199e+002 
4140625000  -3.711283e+001  1.495298e+002 
4143750000  -3.857486e+001  1.539467e+002 
4146875000  -3.825276e+001  1.613509e+002 
4150000000  -3.732088e+001  1.565898e+002 
4153125000  -3.729420e+001  1.494735e+002 
4156250000  -3.844835e+001  1.459041e+002 
4159375000  -3.866891e+001  1.503616e+002 
4162500000  -3.746223e+001  1.564683e+002 
4165625000  -3.625704e+001  1.489141e+002 
4168750000  -3.576733e+001  1.418516e+002 
4171875000  -3.563550e+001  1.328741e+002 
4175000000  -3.635649e+001  1.270205e+002 
4178125000  -3.703785e+001  1.277809e+002 
4181250000  -3.689891e+001  1.252629e+002 
4184375000  -3.638851e+001  1.216374e+002 
4187500000  -3.639898e+001  1.182609e+002 
4190625000  -3.635880e+001  1.120346e+002 
4193750000  -3.713545e+001  1.085662e+002 
4196875000  -3.810681e+001  1.061681e+002 
4200000000  -3.874233e+001  1.096800e+002 
4203125000  -3.859513e+001  1.231111e+002 
4206250000  -3.510148e+001  1.227265e+002 
4209375000  -3.395337e+001  9.961147e+001 
4212500000  -3.614752e+001  9.061453e+001 
4215625000  -3.683791e+001  9.751685e+001 
4218750000  -3.538510e+001  1.036309e+002 
4221875000  -3.322449e+001  9.247028e+001 
4225000000  -3.444219e+001  7.924179e+001 
4228125000  -3.491330e+001  8.391614e+001 
4231250000  -3.351878e+001  7.886523e+001 
4234375000  -3.323616e+001  6.869711e+001 
4237500000  -3.288534e+001  6.465447e+001 
4240625000  -3.295974e+001  5.416402e+001 
4243750000  -3.385357e+001  4.607040e+001 
4246875000  -3.488927e+001  4.586271e+001 
4250000000  -3.504494e+001  4.839607e+001 
4253125000  -3.423986e+001  4.413079e+001 
4256250000  -3.459679e+001  4.014460e+001 
4259375000  -3.432700e+001  3.642229e+001 
4262500000  -3.442197e+001  3.085618e+001 
4265625000  -3.474772e+001  3.132897e+001 
4268750000  -3.374007e+001  2.624657e+001 
4271875000  -3.368629e+001  1.936483e+001 
4275000000  -3.307400e+001  1.106912e+001 
4278125000  -3.399533e+001  -5.063227e-001 
4281250000  -3.567167e+001  -2.139945e+000 
4284375000  -3.547824e+001  -2.777339e+000 
4287500000  -3.650074e+001  -7.466573e+000 
4290625000  -3.764375e+001  1.688433e+000 
4293750000  -3.588839e+001  6.454227e+000 
4296875000  -3.445493e+001  -3.998871e+000 
4300000000  -3.571320e+001  -1.389284e+001 
4303125000  -3.670956e+001  -1.223164e+001 
4306250000  -3.607741e+001  -6.221892e+000 
4309375000  -3.478163e+001  -8.944336e+000 
4312500000  -3.441362e+001  -1.772403e+001 
4315625000  -3.466580e+001  -2.365511e+001 
4318750000  -3.498167e+001  -2.689612e+001 
4321875000  -3.528483e+001  -2.653830e+001 
4325000000  -3.439006e+001  -2.601173e+001 
4328125000  -3.386303e+001  -3.257328e+001 
4331250000  -3.361283e+001  -4.264321e+001 
4334375000  -3.412016e+001  -4.764460e+001 
4337500000  -3.486131e+001  -4.954311e+001 
4340625000  -3.528255e+001  -4.724623e+001 
4343750000  -3.453985e+001  -4.723286e+001 
4346875000  -3.423258e+001  -5.408792e+001 
4350000000  -3.392201e+001  -5.963625e+001 
4353125000  -3.391186e+001  -6.856303e+001 
4356250000  -3.556168e+001  -7.027126e+001 
4359375000  -3.611307e+001  -5.766030e+001 
4362500000  -3.332638e+001  -5.621258e+001 
4365625000  -3.175746e+001  -7.133282e+001 
4368750000  -3.252361e+001  -8.327274e+001 
4371875000  -3.362711e+001  -8.386439e+001 
4375000000  -3.314678e+001  -8.480851e+001 
4378125000  -3.239691e+001  -9.174023e+001 
4381250000  -3.261345e+001  -9.831502e+001 
4384375000  -3.236509e+001  -1.040517e+002 
4387500000  -3.326883e+001  -1.108441e+002 
4390625000  -3.425259e+001  -1.111230e+002 
4393750000  -3.357150e+001  -1.109755e+002 
4396875000  -3.301850e+001  -1.139614e+002 
4400000000  -3.248473e+001  -1.222256e+002 
4403125000  -3.320568e+001  -1.309372e+002 
4406250000  -3.402472e+001  -1.330612e+002 
4409375000  -3.402393e+001  -1.365757e+002 
4412500000  -3.525909e+001  -1.398146e+002 
4415625000  -3.581148e+001  -1.362747e+002 
