!Agilent Technologies,E8363B,MY43030201,A.06.04.32
!Agilent E8363B: A.06.04.32
!Date: Tuesday, November 11, 2014 21:04:16
!Correction: S21(Response(S21)) 
!S1P File: Measurement: S21:
# Hz S  dB   R 50
3000000000  -3.645052e+001  -4.690068e+001 
3003125000  -3.768477e+001  -5.236140e+001 
3006250000  -3.739627e+001  -5.565521e+001 
3009375000  -3.781235e+001  -5.142274e+001 
3012500000  -3.698119e+001  -5.268440e+001 
3015625000  -3.605846e+001  -5.983605e+001 
3018750000  -3.678878e+001  -6.160030e+001 
3021875000  -3.549864e+001  -6.052453e+001 
3025000000  -3.407439e+001  -6.373479e+001 
3028125000  -3.318382e+001  -7.014729e+001 
3031250000  -3.207817e+001  -8.170158e+001 
3034375000  -3.180379e+001  -9.533485e+001 
3037500000  -3.216135e+001  -1.075163e+002 
3040625000  -3.358719e+001  -1.119777e+002 
3043750000  -3.421544e+001  -1.169466e+002 
3046875000  -3.437724e+001  -1.229139e+002 
3050000000  -3.608139e+001  -1.299736e+002 
3053125000  -3.601256e+001  -1.229246e+002 
3056250000  -3.557481e+001  -1.207800e+002 
3059375000  -3.552784e+001  -1.202287e+002 
3062500000  -3.407420e+001  -1.246777e+002 
3065625000  -3.384167e+001  -1.306133e+002 
3068750000  -3.358500e+001  -1.375783e+002 
3071875000  -3.342715e+001  -1.401550e+002 
3075000000  -3.334730e+001  -1.439504e+002 
3078125000  -3.300460e+001  -1.481202e+002 
3081250000  -3.356428e+001  -1.526117e+002 
3084375000  -3.261758e+001  -1.561523e+002 
3087500000  -3.241771e+001  -1.599792e+002 
3090625000  -3.191741e+001  -1.702408e+002 
3093750000  -3.242341e+001  -1.770710e+002 
3096875000  -3.353258e+001  1.765614e+002 
3100000000  -3.335161e+001  1.744519e+002 
3103125000  -3.368169e+001  1.750949e+002 
3106250000  -3.314064e+001  1.712390e+002 
3109375000  -3.324326e+001  1.666833e+002 
3112500000  -3.318292e+001  1.653835e+002 
3115625000  -3.291201e+001  1.598965e+002 
3118750000  -3.314925e+001  1.608540e+002 
3121875000  -3.234704e+001  1.509052e+002 
3125000000  -3.346232e+001  1.467218e+002 
3128125000  -3.456057e+001  1.536322e+002 
3131250000  -3.210842e+001  1.525917e+002 
3134375000  -3.069892e+001  1.370675e+002 
3137500000  -3.128709e+001  1.226979e+002 
3140625000  -3.283055e+001  1.188906e+002 
3143750000  -3.388046e+001  1.207753e+002 
3146875000  -3.335542e+001  1.221353e+002 
3150000000  -3.228760e+001  1.227452e+002 
3153125000  -3.228487e+001  1.132569e+002 
3156250000  -3.332995e+001  1.181228e+002 
3159375000  -3.160838e+001  1.193812e+002 
3162500000  -2.965141e+001  1.049987e+002 
3165625000  -3.068301e+001  9.299651e+001 
3168750000  -3.100350e+001  9.283728e+001 
3171875000  -3.012146e+001  8.730656e+001 
3175000000  -3.087789e+001  7.867537e+001 
3178125000  -3.070067e+001  7.930239e+001 
3181250000  -2.952424e+001  7.432813e+001 
3184375000  -2.879449e+001  6.108421e+001 
3187500000  -3.004814e+001  4.584426e+001 
3190625000  -3.271180e+001  3.769954e+001 
3193750000  -3.338686e+001  4.620552e+001 
3196875000  -3.292551e+001  5.101643e+001 
3200000000  -3.201973e+001  4.827516e+001 
3203125000  -3.120383e+001  4.233846e+001 
3206250000  -3.162536e+001  3.512403e+001 
3209375000  -3.111638e+001  2.940179e+001 
3212500000  -3.130569e+001  2.262793e+001 
3215625000  -3.128901e+001  1.799930e+001 
3218750000  -3.216184e+001  1.079383e+001 
3221875000  -3.297785e+001  5.917328e+000 
3225000000  -3.265313e+001  4.620930e+000 
3228125000  -3.294031e+001  -6.975944e-001 
3231250000  -3.357016e+001  -3.948632e+000 
3234375000  -3.333842e+001  -3.110048e+000 
3237500000  -3.341076e+001  -5.048978e+000 
3240625000  -3.300296e+001  -7.998713e+000 
3243750000  -3.255737e+001  -1.508472e+001 
3246875000  -3.291674e+001  -2.252866e+001 
3250000000  -3.339557e+001  -2.455755e+001 
3253125000  -3.350552e+001  -2.689591e+001 
3256250000  -3.321703e+001  -3.362053e+001 
3259375000  -3.344322e+001  -4.241444e+001 
3262500000  -3.460257e+001  -4.533623e+001 
3265625000  -3.524283e+001  -4.372536e+001 
3268750000  -3.512608e+001  -4.111032e+001 
3271875000  -3.466993e+001  -4.104386e+001 
3275000000  -3.371600e+001  -4.757998e+001 
3278125000  -3.421481e+001  -5.476793e+001 
3281250000  -3.432397e+001  -5.351086e+001 
3284375000  -3.386755e+001  -6.122989e+001 
3287500000  -3.411872e+001  -6.475498e+001 
3290625000  -3.438290e+001  -6.988107e+001 
3293750000  -3.406110e+001  -7.570737e+001 
3296875000  -3.517061e+001  -7.703163e+001 
3300000000  -3.494740e+001  -7.607101e+001 
3303125000  -3.367947e+001  -8.123402e+001 
3306250000  -3.351245e+001  -8.833788e+001 
3309375000  -3.316919e+001  -9.416231e+001 
3312500000  -3.327169e+001  -1.052199e+002 
3315625000  -3.428518e+001  -1.135656e+002 
3318750000  -3.561647e+001  -1.165862e+002 
3321875000  -3.668775e+001  -1.169919e+002 
3325000000  -3.735054e+001  -1.122830e+002 
3328125000  -3.676591e+001  -1.102837e+002 
3331250000  -3.574295e+001  -1.041344e+002 
3334375000  -3.305184e+001  -1.146404e+002 
3337500000  -3.311520e+001  -1.338753e+002 
3340625000  -3.440668e+001  -1.449731e+002 
3343750000  -3.644551e+001  -1.459031e+002 
3346875000  -3.664714e+001  -1.439066e+002 
3350000000  -3.595098e+001  -1.461947e+002 
3353125000  -3.588021e+001  -1.508930e+002 
3356250000  -3.545796e+001  -1.584853e+002 
3359375000  -3.643283e+001  -1.672119e+002 
3362500000  -3.734314e+001  -1.725892e+002 
3365625000  -3.776097e+001  -1.744479e+002 
3368750000  -3.870294e+001  -1.776072e+002 
3371875000  -3.884491e+001  -1.799325e+002 
3375000000  -4.019394e+001  1.776758e+002 
3378125000  -4.120857e+001  1.773192e+002 
3381250000  -4.247315e+001  -1.725796e+002 
3384375000  -4.118562e+001  -1.520513e+002 
3387500000  -3.749506e+001  -1.699840e+002 
3390625000  -3.920408e+001  1.719202e+002 
3393750000  -4.052256e+001  1.746615e+002 
3396875000  -3.913520e+001  1.768230e+002 
3400000000  -3.862931e+001  1.683519e+002 
3403125000  -3.910702e+001  1.626471e+002 
3406250000  -3.965026e+001  1.622003e+002 
3409375000  -3.971669e+001  1.547381e+002 
3412500000  -4.015744e+001  1.519749e+002 
3415625000  -4.091525e+001  1.542550e+002 
3418750000  -4.129074e+001  1.542100e+002 
3421875000  -4.134692e+001  1.573790e+002 
3425000000  -4.037394e+001  1.566449e+002 
3428125000  -3.947703e+001  1.536396e+002 
3431250000  -3.928070e+001  1.463219e+002 
3434375000  -3.907234e+001  1.402456e+002 
3437500000  -3.954388e+001  1.382182e+002 
3440625000  -3.986292e+001  1.385942e+002 
3443750000  -3.879861e+001  1.392059e+002 
3446875000  -3.807385e+001  1.316993e+002 
3450000000  -3.761553e+001  1.218226e+002 
3453125000  -3.802693e+001  1.109942e+002 
3456250000  -3.910470e+001  1.051943e+002 
3459375000  -4.014555e+001  1.057527e+002 
3462500000  -3.998646e+001  1.056231e+002 
3465625000  -3.986940e+001  1.007322e+002 
3468750000  -3.992068e+001  9.585356e+001 
3471875000  -4.001045e+001  9.515569e+001 
3475000000  -3.970720e+001  9.107579e+001 
3478125000  -4.035914e+001  8.316991e+001 
3481250000  -4.122579e+001  8.003018e+001 
3484375000  -4.223945e+001  8.425240e+001 
3487500000  -4.135004e+001  8.392404e+001 
3490625000  -4.060266e+001  8.018943e+001 
3493750000  -4.132792e+001  7.104264e+001 
3496875000  -4.196755e+001  6.952597e+001 
3500000000  -4.227881e+001  7.346120e+001 
3503125000  -4.148763e+001  7.458962e+001 
3506250000  -4.066891e+001  7.053681e+001 
3509375000  -4.064534e+001  5.882399e+001 
3512500000  -4.134377e+001  5.233196e+001 
3515625000  -4.175721e+001  4.959186e+001 
3518750000  -4.242604e+001  4.921975e+001 
3521875000  -4.253119e+001  4.735062e+001 
3525000000  -4.357124e+001  4.322176e+001 
3528125000  -4.337973e+001  4.934882e+001 
3531250000  -4.197432e+001  4.642376e+001 
3534375000  -4.212540e+001  3.765940e+001 
3537500000  -4.262516e+001  3.350580e+001 
3540625000  -4.356585e+001  3.284641e+001 
3543750000  -4.462994e+001  3.571548e+001 
3546875000  -4.434516e+001  4.838015e+001 
3550000000  -4.162201e+001  5.012483e+001 
3553125000  -4.033076e+001  3.214995e+001 
3556250000  -4.171675e+001  2.559781e+001 
3559375000  -4.191751e+001  2.678653e+001 
3562500000  -4.049967e+001  1.778395e+001 
3565625000  -4.129801e+001  1.188140e+001 
3568750000  -4.143744e+001  1.515178e+001 
3571875000  -4.125549e+001  1.232446e+001 
3575000000  -4.106874e+001  4.315054e+000 
3578125000  -4.128767e+001  1.893126e+000 
3581250000  -4.146840e+001  1.417692e-001 
3584375000  -4.060552e+001  -1.238895e+000 
3587500000  -4.007299e+001  -1.116542e+001 
3590625000  -4.053609e+001  -2.176184e+001 
3593750000  -4.160497e+001  -2.499100e+001 
3596875000  -4.171231e+001  -1.698022e+001 
3600000000  -4.028011e+001  -2.465127e+001 
3603125000  -4.086935e+001  -3.716824e+001 
3606250000  -4.136440e+001  -4.293244e+001 
3609375000  -4.220193e+001  -4.639004e+001 
3612500000  -4.262640e+001  -4.717455e+001 
3615625000  -4.269689e+001  -5.191927e+001 
3618750000  -4.353711e+001  -5.178814e+001 
3621875000  -4.338244e+001  -5.518169e+001 
3625000000  -4.395099e+001  -5.462640e+001 
3628125000  -4.435742e+001  -5.919854e+001 
3631250000  -4.388311e+001  -6.076493e+001 
3634375000  -4.580513e+001  -6.314159e+001 
3637500000  -4.537582e+001  -6.004898e+001 
3640625000  -4.471565e+001  -5.733288e+001 
3643750000  -4.467749e+001  -6.522666e+001 
3646875000  -4.491324e+001  -7.005108e+001 
3650000000  -4.575371e+001  -6.839295e+001 
3653125000  -4.583820e+001  -7.049654e+001 
3656250000  -4.625989e+001  -7.172524e+001 
3659375000  -4.582779e+001  -6.838080e+001 
3662500000  -4.550359e+001  -6.858937e+001 
3665625000  -4.493372e+001  -6.842435e+001 
3668750000  -4.436065e+001  -6.632239e+001 
3671875000  -4.301636e+001  -7.257353e+001 
3675000000  -4.310380e+001  -7.925648e+001 
3678125000  -4.378279e+001  -8.114771e+001 
3681250000  -4.331462e+001  -8.390550e+001 
3684375000  -4.328948e+001  -9.079482e+001 
3687500000  -4.344283e+001  -9.518552e+001 
3690625000  -4.305294e+001  -9.604751e+001 
3693750000  -4.410537e+001  -9.641180e+001 
3696875000  -4.376624e+001  -9.465702e+001 
3700000000  -4.300151e+001  -9.902181e+001 
3703125000  -4.310155e+001  -1.079640e+002 
3706250000  -4.402536e+001  -1.059557e+002 
3709375000  -4.377051e+001  -1.033944e+002 
3712500000  -4.268750e+001  -1.072866e+002 
3715625000  -4.172223e+001  -1.152667e+002 
3718750000  -4.138113e+001  -1.193508e+002 
3721875000  -4.141137e+001  -1.264279e+002 
3725000000  -4.143637e+001  -1.326062e+002 
3728125000  -4.194058e+001  -1.326807e+002 
3731250000  -4.177109e+001  -1.362340e+002 
3734375000  -4.124037e+001  -1.411220e+002 
3737500000  -4.177457e+001  -1.500234e+002 
3740625000  -4.311432e+001  -1.533350e+002 
3743750000  -4.303998e+001  -1.560181e+002 
3746875000  -4.323487e+001  -1.618051e+002 
3750000000  -4.427952e+001  -1.612361e+002 
3753125000  -4.407743e+001  -1.603414e+002 
3756250000  -4.431319e+001  -1.579300e+002 
3759375000  -4.446663e+001  -1.629738e+002 
3762500000  -4.384381e+001  -1.641177e+002 
3765625000  -4.454926e+001  -1.643414e+002 
3768750000  -4.476339e+001  -1.598299e+002 
3771875000  -4.328703e+001  -1.623747e+002 
3775000000  -4.293096e+001  -1.688308e+002 
3778125000  -4.318614e+001  -1.693649e+002 
3781250000  -4.291637e+001  -1.708036e+002 
3784375000  -4.292271e+001  -1.707785e+002 
3787500000  -4.221089e+001  -1.747824e+002 
3790625000  -4.266981e+001  1.792631e+002 
3793750000  -4.255236e+001  1.773576e+002 
3796875000  -4.153386e+001  1.752954e+002 
3800000000  -3.977525e+001  1.747593e+002 
3803125000  -4.014748e+001  1.646160e+002 
3806250000  -4.145904e+001  1.605507e+002 
3809375000  -4.066360e+001  1.591922e+002 
3812500000  -4.014822e+001  1.531600e+002 
3815625000  -4.046928e+001  1.445036e+002 
3818750000  -4.159474e+001  1.441588e+002 
3821875000  -4.155010e+001  1.508230e+002 
3825000000  -3.958305e+001  1.543357e+002 
3828125000  -3.858953e+001  1.382567e+002 
3831250000  -3.864324e+001  1.225378e+002 
3834375000  -4.030402e+001  1.219896e+002 
3837500000  -4.117594e+001  1.278192e+002 
3840625000  -4.003637e+001  1.227373e+002 
3843750000  -3.880851e+001  1.117894e+002 
3846875000  -3.950727e+001  1.042907e+002 
3850000000  -4.120753e+001  1.084462e+002 
3853125000  -4.039705e+001  1.135603e+002 
3856250000  -4.032005e+001  1.063853e+002 
3859375000  -3.954272e+001  9.880719e+001 
3862500000  -3.958654e+001  9.089442e+001 
3865625000  -3.987331e+001  8.798775e+001 
3868750000  -3.961449e+001  8.554244e+001 
3871875000  -3.909439e+001  8.204616e+001 
3875000000  -3.924329e+001  7.219884e+001 
3878125000  -4.028828e+001  7.081922e+001 
3881250000  -4.075993e+001  7.390717e+001 
3884375000  -4.015847e+001  6.829617e+001 
3887500000  -4.029141e+001  6.337823e+001 
3890625000  -4.080044e+001  6.093872e+001 
3893750000  -4.114804e+001  6.022566e+001 
3896875000  -4.137338e+001  6.121093e+001 
3900000000  -4.147904e+001  5.876799e+001 
3903125000  -4.132294e+001  5.605877e+001 
3906250000  -4.080192e+001  5.243185e+001 
3909375000  -3.994360e+001  5.202394e+001 
3912500000  -3.989035e+001  4.343089e+001 
3915625000  -4.105175e+001  4.265458e+001 
3918750000  -4.123420e+001  4.536341e+001 
3921875000  -4.086339e+001  4.024630e+001 
3925000000  -3.968491e+001  4.044060e+001 
3928125000  -3.922680e+001  3.309908e+001 
3931250000  -3.985223e+001  2.807022e+001 
3934375000  -4.001860e+001  2.601722e+001 
3937500000  -4.039466e+001  2.449938e+001 
3940625000  -4.032380e+001  2.178914e+001 
3943750000  -3.940648e+001  2.333855e+001 
3946875000  -3.848343e+001  1.644871e+001 
3950000000  -3.887228e+001  8.324223e+000 
3953125000  -4.021758e+001  9.334068e+000 
3956250000  -3.894083e+001  1.097324e+001 
3959375000  -3.792870e+001  5.192296e+000 
3962500000  -3.738335e+001  1.155111e+000 
3965625000  -3.731896e+001  -9.526690e+000 
3968750000  -3.814117e+001  -1.712482e+001 
3971875000  -3.854034e+001  -2.022009e+001 
3975000000  -3.789232e+001  -2.048780e+001 
3978125000  -3.806965e+001  -2.435521e+001 
3981250000  -3.777931e+001  -2.868869e+001 
3984375000  -3.820535e+001  -3.595573e+001 
3987500000  -3.876940e+001  -3.781193e+001 
3990625000  -3.854684e+001  -4.074550e+001 
3993750000  -3.893288e+001  -4.360331e+001 
3996875000  -3.897379e+001  -4.731936e+001 
4000000000  -3.904176e+001  -4.980471e+001 
4003125000  -3.947930e+001  -4.714940e+001 
4006250000  -3.832038e+001  -4.818428e+001 
4009375000  -3.721566e+001  -6.233524e+001 
4012500000  -3.852102e+001  -6.879362e+001 
4015625000  -3.970630e+001  -6.822903e+001 
4018750000  -3.991978e+001  -6.664801e+001 
4021875000  -3.920205e+001  -6.933126e+001 
4025000000  -3.850443e+001  -7.427139e+001 
4028125000  -3.881835e+001  -7.929670e+001 
4031250000  -3.935762e+001  -8.256509e+001 
4034375000  -3.973741e+001  -8.308579e+001 
4037500000  -3.905880e+001  -8.128082e+001 
4040625000  -3.884517e+001  -8.606960e+001 
4043750000  -3.931448e+001  -8.610852e+001 
4046875000  -3.882951e+001  -8.807486e+001 
4050000000  -3.832858e+001  -9.456226e+001 
4053125000  -3.905765e+001  -9.651216e+001 
4056250000  -3.935211e+001  -9.440537e+001 
4059375000  -3.803535e+001  -9.287409e+001 
4062500000  -3.671954e+001  -9.677262e+001 
4065625000  -3.667828e+001  -1.029308e+002 
4068750000  -3.658570e+001  -1.080671e+002 
4071875000  -3.566363e+001  -1.186745e+002 
4075000000  -3.609583e+001  -1.247985e+002 
4078125000  -3.665859e+001  -1.267047e+002 
4081250000  -3.598023e+001  -1.299386e+002 
4084375000  -3.561771e+001  -1.378362e+002 
4087500000  -3.609879e+001  -1.445305e+002 
4090625000  -3.682040e+001  -1.459275e+002 
4093750000  -3.660677e+001  -1.470730e+002 
4096875000  -3.605245e+001  -1.546001e+002 
4100000000  -3.700254e+001  -1.610685e+002 
4103125000  -3.789811e+001  -1.602624e+002 
4106250000  -3.771588e+001  -1.568040e+002 
4109375000  -3.680428e+001  -1.584348e+002 
4112500000  -3.627823e+001  -1.664218e+002 
4115625000  -3.669568e+001  -1.708549e+002 
4118750000  -3.673073e+001  -1.753351e+002 
4121875000  -3.623267e+001  1.788457e+002 
4125000000  -3.670539e+001  1.740162e+002 
4128125000  -3.796612e+001  1.734425e+002 
4131250000  -3.754929e+001  -1.785989e+002 
4134375000  -3.514487e+001  1.741904e+002 
4137500000  -3.515258e+001  1.557959e+002 
4140625000  -3.733772e+001  1.479088e+002 
4143750000  -3.870541e+001  1.511777e+002 
4146875000  -3.814015e+001  1.583417e+002 
4150000000  -3.743604e+001  1.536389e+002 
4153125000  -3.738228e+001  1.458520e+002 
4156250000  -3.829546e+001  1.433777e+002 
4159375000  -3.858746e+001  1.482274e+002 
4162500000  -3.740580e+001  1.525051e+002 
4165625000  -3.643909e+001  1.482951e+002 
4168750000  -3.574505e+001  1.384058e+002 
4171875000  -3.573656e+001  1.289833e+002 
4175000000  -3.644780e+001  1.247638e+002 
4178125000  -3.707937e+001  1.234446e+002 
4181250000  -3.685827e+001  1.230174e+002 
4184375000  -3.657823e+001  1.189602e+002 
4187500000  -3.659773e+001  1.156913e+002 
4190625000  -3.662613e+001  1.090923e+002 
4193750000  -3.728529e+001  1.054954e+002 
4196875000  -3.806678e+001  1.027229e+002 
4200000000  -3.895451e+001  1.059451e+002 
4203125000  -3.857014e+001  1.190013e+002 
4206250000  -3.534950e+001  1.196880e+002 
4209375000  -3.422029e+001  9.802075e+001 
4212500000  -3.609412e+001  8.855280e+001 
4215625000  -3.689334e+001  9.367423e+001 
4218750000  -3.567520e+001  1.003223e+002 
4221875000  -3.324130e+001  8.974807e+001 
4225000000  -3.443948e+001  7.694511e+001 
4228125000  -3.504428e+001  8.009769e+001 
4231250000  -3.357519e+001  7.554694e+001 
4234375000  -3.327137e+001  6.697793e+001 
4237500000  -3.309189e+001  6.166520e+001 
4240625000  -3.305139e+001  5.199593e+001 
4243750000  -3.411172e+001  4.507170e+001 
4246875000  -3.505552e+001  4.346630e+001 
4250000000  -3.503109e+001  4.471239e+001 
4253125000  -3.426469e+001  4.203463e+001 
4256250000  -3.482470e+001  3.668857e+001 
4259375000  -3.443142e+001  3.391550e+001 
4262500000  -3.479099e+001  2.923388e+001 
4265625000  -3.481085e+001  2.799054e+001 
4268750000  -3.400716e+001  2.310500e+001 
4271875000  -3.377814e+001  1.590986e+001 
4275000000  -3.319500e+001  8.715590e+000 
4278125000  -3.417572e+001  -2.911633e+000 
4281250000  -3.586612e+001  -5.369501e+000 
4284375000  -3.570407e+001  -5.534850e+000 
4287500000  -3.686863e+001  -1.005716e+001 
4290625000  -3.785709e+001  2.599608e-001 
4293750000  -3.604414e+001  3.844283e+000 
4296875000  -3.473543e+001  -5.701173e+000 
4300000000  -3.570776e+001  -1.762913e+001 
4303125000  -3.698807e+001  -1.509713e+001 
4306250000  -3.612244e+001  -8.670636e+000 
4309375000  -3.475267e+001  -1.086899e+001 
4312500000  -3.479321e+001  -1.951181e+001 
4315625000  -3.489448e+001  -2.559719e+001 
4318750000  -3.512746e+001  -3.010614e+001 
4321875000  -3.521510e+001  -2.819096e+001 
4325000000  -3.453751e+001  -2.836962e+001 
4328125000  -3.410833e+001  -3.582264e+001 
4331250000  -3.388117e+001  -4.383429e+001 
4334375000  -3.427658e+001  -4.951311e+001 
4337500000  -3.514511e+001  -5.220665e+001 
4340625000  -3.560758e+001  -4.959969e+001 
4343750000  -3.481945e+001  -4.919360e+001 
4346875000  -3.441655e+001  -5.522079e+001 
4350000000  -3.441765e+001  -6.113737e+001 
4353125000  -3.414481e+001  -7.022504e+001 
4356250000  -3.605146e+001  -7.124404e+001 
4359375000  -3.604253e+001  -5.866403e+001 
4362500000  -3.343199e+001  -5.828765e+001 
4365625000  -3.192026e+001  -7.312232e+001 
4368750000  -3.255894e+001  -8.462994e+001 
4371875000  -3.383079e+001  -8.514067e+001 
4375000000  -3.328806e+001  -8.612840e+001 
4378125000  -3.266957e+001  -9.386482e+001 
4381250000  -3.280089e+001  -1.003240e+002 
4384375000  -3.267446e+001  -1.065074e+002 
4387500000  -3.345098e+001  -1.123965e+002 
4390625000  -3.442245e+001  -1.129760e+002 
4393750000  -3.369641e+001  -1.126790e+002 
4396875000  -3.319828e+001  -1.150555e+002 
4400000000  -3.273718e+001  -1.248403e+002 
4403125000  -3.331758e+001  -1.330012e+002 
4406250000  -3.409278e+001  -1.347768e+002 
4409375000  -3.426373e+001  -1.381554e+002 
4412500000  -3.544125e+001  -1.416029e+002 
4415625000  -3.583749e+001  -1.376778e+002 
