!Agilent Technologies,E8363B,MY43030201,A.06.04.32
!Agilent E8363B: A.06.04.32
!Date: Tuesday, November 11, 2014 21:08:01
!Correction: S21(Response(S21)) 
!S1P File: Measurement: S21:
# Hz S  dB   R 50
3000000000  -3.652214e+001  -5.320123e+001 
3003125000  -3.767987e+001  -5.903225e+001 
3006250000  -3.739531e+001  -6.112535e+001 
3009375000  -3.766504e+001  -5.680408e+001 
3012500000  -3.708419e+001  -5.872595e+001 
3015625000  -3.617595e+001  -6.648861e+001 
3018750000  -3.694158e+001  -6.728506e+001 
3021875000  -3.548050e+001  -6.591936e+001 
3025000000  -3.411414e+001  -6.990528e+001 
3028125000  -3.322400e+001  -7.667976e+001 
3031250000  -3.216045e+001  -8.755505e+001 
3034375000  -3.183271e+001  -1.018562e+002 
3037500000  -3.225100e+001  -1.132794e+002 
3040625000  -3.356454e+001  -1.181095e+002 
3043750000  -3.430635e+001  -1.230143e+002 
3046875000  -3.446791e+001  -1.287658e+002 
3050000000  -3.606955e+001  -1.353916e+002 
3053125000  -3.606124e+001  -1.294798e+002 
3056250000  -3.561804e+001  -1.268179e+002 
3059375000  -3.564576e+001  -1.265144e+002 
3062500000  -3.416766e+001  -1.305527e+002 
3065625000  -3.396768e+001  -1.363284e+002 
3068750000  -3.359051e+001  -1.436814e+002 
3071875000  -3.352822e+001  -1.458551e+002 
3075000000  -3.331120e+001  -1.501409e+002 
3078125000  -3.302359e+001  -1.541249e+002 
3081250000  -3.355686e+001  -1.588548e+002 
3084375000  -3.268277e+001  -1.619762e+002 
3087500000  -3.252740e+001  -1.655779e+002 
3090625000  -3.194488e+001  -1.760329e+002 
3093750000  -3.245767e+001  1.766654e+002 
3096875000  -3.345745e+001  1.708080e+002 
3100000000  -3.335098e+001  1.688302e+002 
3103125000  -3.371775e+001  1.692590e+002 
3106250000  -3.315640e+001  1.648696e+002 
3109375000  -3.317436e+001  1.611002e+002 
3112500000  -3.315386e+001  1.588221e+002 
3115625000  -3.288105e+001  1.542027e+002 
3118750000  -3.313205e+001  1.544723e+002 
3121875000  -3.223463e+001  1.449873e+002 
3125000000  -3.358166e+001  1.403765e+002 
3128125000  -3.448098e+001  1.485110e+002 
3131250000  -3.206810e+001  1.460032e+002 
3134375000  -3.072961e+001  1.309363e+002 
3137500000  -3.136551e+001  1.168292e+002 
3140625000  -3.282045e+001  1.134149e+002 
3143750000  -3.384972e+001  1.145744e+002 
3146875000  -3.327578e+001  1.166164e+002 
3150000000  -3.231512e+001  1.165340e+002 
3153125000  -3.237976e+001  1.073152e+002 
3156250000  -3.337818e+001  1.127781e+002 
3159375000  -3.164831e+001  1.136328e+002 
3162500000  -2.968695e+001  9.887727e+001 
3165625000  -3.076171e+001  8.647652e+001 
3168750000  -3.100763e+001  8.684120e+001 
3171875000  -3.020564e+001  8.113229e+001 
3175000000  -3.089350e+001  7.225814e+001 
3178125000  -3.069391e+001  7.281107e+001 
3181250000  -2.954857e+001  6.731154e+001 
3184375000  -2.891443e+001  5.443464e+001 
3187500000  -3.020927e+001  3.987853e+001 
3190625000  -3.277003e+001  3.165074e+001 
3193750000  -3.331737e+001  4.016654e+001 
3196875000  -3.297579e+001  4.427453e+001 
3200000000  -3.202814e+001  4.215068e+001 
3203125000  -3.125391e+001  3.556090e+001 
3206250000  -3.157644e+001  2.892536e+001 
3209375000  -3.107710e+001  2.285157e+001 
3212500000  -3.135850e+001  1.568155e+001 
3215625000  -3.140849e+001  1.229610e+001 
3218750000  -3.218230e+001  5.205183e+000 
3221875000  -3.298461e+001  -4.284581e-002 
3225000000  -3.258568e+001  -1.469237e+000 
3228125000  -3.297797e+001  -6.814461e+000 
3231250000  -3.368436e+001  -9.373317e+000 
3234375000  -3.340491e+001  -9.639718e+000 
3237500000  -3.337937e+001  -1.145125e+001 
3240625000  -3.295309e+001  -1.389704e+001 
3243750000  -3.259086e+001  -2.188175e+001 
3246875000  -3.297137e+001  -2.861448e+001 
3250000000  -3.343375e+001  -3.062717e+001 
3253125000  -3.349661e+001  -3.247427e+001 
3256250000  -3.314988e+001  -3.966285e+001 
3259375000  -3.336773e+001  -4.809761e+001 
3262500000  -3.461729e+001  -5.239083e+001 
3265625000  -3.521145e+001  -4.937086e+001 
3268750000  -3.516179e+001  -4.748735e+001 
3271875000  -3.474943e+001  -4.804622e+001 
3275000000  -3.384203e+001  -5.405584e+001 
3278125000  -3.420742e+001  -6.103495e+001 
3281250000  -3.432269e+001  -5.993138e+001 
3284375000  -3.382242e+001  -6.696559e+001 
3287500000  -3.412570e+001  -7.034348e+001 
3290625000  -3.434580e+001  -7.623048e+001 
3293750000  -3.408877e+001  -8.183032e+001 
3296875000  -3.517527e+001  -8.262790e+001 
3300000000  -3.477800e+001  -8.276833e+001 
3303125000  -3.369184e+001  -8.773664e+001 
3306250000  -3.350491e+001  -9.426799e+001 
3309375000  -3.317878e+001  -1.012118e+002 
3312500000  -3.331419e+001  -1.128036e+002 
3315625000  -3.429181e+001  -1.205406e+002 
3318750000  -3.573598e+001  -1.225345e+002 
3321875000  -3.679141e+001  -1.237561e+002 
3325000000  -3.729971e+001  -1.193624e+002 
3328125000  -3.687202e+001  -1.162514e+002 
3331250000  -3.559538e+001  -1.098212e+002 
3334375000  -3.290380e+001  -1.222856e+002 
3337500000  -3.302731e+001  -1.409501e+002 
3340625000  -3.447012e+001  -1.518374e+002 
3343750000  -3.651117e+001  -1.517514e+002 
3346875000  -3.667962e+001  -1.511362e+002 
3350000000  -3.604341e+001  -1.523179e+002 
3353125000  -3.594001e+001  -1.573992e+002 
3356250000  -3.551143e+001  -1.660519e+002 
3359375000  -3.636939e+001  -1.739409e+002 
3362500000  -3.753655e+001  -1.792459e+002 
3365625000  -3.801356e+001  1.789255e+002 
3368750000  -3.877367e+001  1.774120e+002 
3371875000  -3.903593e+001  1.741754e+002 
3375000000  -4.047892e+001  1.698754e+002 
3378125000  -4.107005e+001  1.721927e+002 
3381250000  -4.244598e+001  -1.796613e+002 
3384375000  -4.107908e+001  -1.589294e+002 
3387500000  -3.747912e+001  -1.752153e+002 
3390625000  -3.900008e+001  1.644903e+002 
3393750000  -4.022200e+001  1.688050e+002 
3396875000  -3.909790e+001  1.704596e+002 
3400000000  -3.874132e+001  1.620073e+002 
3403125000  -3.936489e+001  1.554387e+002 
3406250000  -3.965818e+001  1.551087e+002 
3409375000  -3.979046e+001  1.484815e+002 
3412500000  -4.007392e+001  1.468508e+002 
3415625000  -4.102095e+001  1.481792e+002 
3418750000  -4.100337e+001  1.481127e+002 
3421875000  -4.113255e+001  1.514362e+002 
3425000000  -4.041162e+001  1.501443e+002 
3428125000  -3.937705e+001  1.464652e+002 
3431250000  -3.923909e+001  1.402808e+002 
3434375000  -3.917361e+001  1.346999e+002 
3437500000  -3.963254e+001  1.300708e+002 
3440625000  -3.994582e+001  1.312706e+002 
3443750000  -3.872460e+001  1.330707e+002 
3446875000  -3.801260e+001  1.234463e+002 
3450000000  -3.764165e+001  1.142506e+002 
3453125000  -3.797153e+001  1.042958e+002 
3456250000  -3.915579e+001  9.747239e+001 
3459375000  -4.021963e+001  9.876911e+001 
3462500000  -3.977498e+001  9.967315e+001 
3465625000  -3.982029e+001  9.381478e+001 
3468750000  -3.998524e+001  8.893101e+001 
3471875000  -3.997929e+001  8.838326e+001 
3475000000  -3.956246e+001  8.375576e+001 
3478125000  -4.040318e+001  7.639017e+001 
3481250000  -4.128377e+001  7.213689e+001 
3484375000  -4.209988e+001  7.679617e+001 
3487500000  -4.138217e+001  7.670300e+001 
3490625000  -4.092681e+001  7.139330e+001 
3493750000  -4.126340e+001  6.373639e+001 
3496875000  -4.190783e+001  6.464960e+001 
3500000000  -4.243636e+001  6.702686e+001 
3503125000  -4.198976e+001  6.786881e+001 
3506250000  -4.073207e+001  6.328332e+001 
3509375000  -4.066905e+001  5.394888e+001 
3512500000  -4.124598e+001  4.504713e+001 
3515625000  -4.195419e+001  4.289446e+001 
3518750000  -4.234728e+001  4.315177e+001 
3521875000  -4.263783e+001  4.190200e+001 
3525000000  -4.357710e+001  3.678481e+001 
3528125000  -4.343196e+001  4.535304e+001 
3531250000  -4.201997e+001  4.373471e+001 
3534375000  -4.177025e+001  3.317878e+001 
3537500000  -4.241456e+001  2.717687e+001 
3540625000  -4.375629e+001  2.576367e+001 
3543750000  -4.422891e+001  3.059016e+001 
3546875000  -4.422404e+001  4.304900e+001 
3550000000  -4.146089e+001  4.037492e+001 
3553125000  -4.007974e+001  2.536847e+001 
3556250000  -4.173529e+001  1.908198e+001 
3559375000  -4.141447e+001  1.966893e+001 
3562500000  -4.031689e+001  1.248984e+001 
3565625000  -4.109130e+001  4.128823e+000 
3568750000  -4.125869e+001  7.384890e+000 
3571875000  -4.090203e+001  5.553249e+000 
3575000000  -4.083432e+001  -1.505102e+000 
3578125000  -4.126379e+001  -7.390150e+000 
3581250000  -4.138527e+001  -8.313979e+000 
3584375000  -4.029752e+001  -1.108179e+001 
3587500000  -3.996103e+001  -2.060508e+001 
3590625000  -4.055949e+001  -3.151210e+001 
3593750000  -4.171025e+001  -3.225360e+001 
3596875000  -4.178849e+001  -2.461993e+001 
3600000000  -4.026283e+001  -3.393263e+001 
3603125000  -4.064821e+001  -4.777514e+001 
3606250000  -4.141603e+001  -5.255927e+001 
3609375000  -4.223156e+001  -5.486671e+001 
3612500000  -4.265615e+001  -5.775891e+001 
3615625000  -4.299372e+001  -5.930592e+001 
3618750000  -4.365056e+001  -5.886406e+001 
3621875000  -4.366680e+001  -6.284525e+001 
3625000000  -4.422332e+001  -6.425951e+001 
3628125000  -4.439842e+001  -6.467793e+001 
3631250000  -4.390913e+001  -6.990741e+001 
3634375000  -4.552869e+001  -6.902993e+001 
3637500000  -4.559637e+001  -6.608286e+001 
3640625000  -4.498803e+001  -6.383336e+001 
3643750000  -4.451794e+001  -6.818723e+001 
3646875000  -4.494456e+001  -7.528835e+001 
3650000000  -4.563901e+001  -7.380904e+001 
3653125000  -4.546358e+001  -7.521487e+001 
3656250000  -4.629052e+001  -7.391522e+001 
3659375000  -4.556077e+001  -7.257633e+001 
3662500000  -4.536718e+001  -7.266982e+001 
3665625000  -4.448492e+001  -7.310624e+001 
3668750000  -4.399872e+001  -7.384197e+001 
3671875000  -4.280664e+001  -8.115739e+001 
3675000000  -4.289241e+001  -8.792430e+001 
3678125000  -4.329366e+001  -8.855429e+001 
3681250000  -4.305212e+001  -8.926224e+001 
3684375000  -4.312673e+001  -9.609238e+001 
3687500000  -4.297603e+001  -1.030437e+002 
3690625000  -4.286499e+001  -1.047556e+002 
3693750000  -4.397027e+001  -1.049134e+002 
3696875000  -4.363424e+001  -1.018083e+002 
3700000000  -4.277805e+001  -1.079981e+002 
3703125000  -4.289143e+001  -1.149980e+002 
3706250000  -4.374651e+001  -1.158647e+002 
3709375000  -4.336476e+001  -1.149046e+002 
3712500000  -4.238735e+001  -1.181216e+002 
3715625000  -4.159567e+001  -1.250688e+002 
3718750000  -4.127121e+001  -1.280122e+002 
3721875000  -4.106187e+001  -1.349689e+002 
3725000000  -4.116838e+001  -1.424503e+002 
3728125000  -4.205989e+001  -1.449449e+002 
3731250000  -4.171022e+001  -1.461180e+002 
3734375000  -4.153442e+001  -1.509966e+002 
3737500000  -4.205840e+001  -1.602184e+002 
3740625000  -4.279652e+001  -1.628213e+002 
3743750000  -4.338960e+001  -1.649440e+002 
3746875000  -4.367622e+001  -1.700170e+002 
3750000000  -4.424186e+001  -1.675011e+002 
3753125000  -4.443216e+001  -1.701182e+002 
3756250000  -4.455676e+001  -1.672736e+002 
3759375000  -4.490187e+001  -1.684283e+002 
3762500000  -4.410382e+001  -1.710297e+002 
3765625000  -4.491425e+001  -1.698820e+002 
3768750000  -4.468783e+001  -1.673687e+002 
3771875000  -4.317045e+001  -1.658169e+002 
3775000000  -4.290274e+001  -1.735657e+002 
3778125000  -4.298664e+001  -1.770682e+002 
3781250000  -4.293647e+001  -1.796256e+002 
3784375000  -4.254462e+001  -1.768201e+002 
3787500000  -4.179804e+001  -1.798268e+002 
3790625000  -4.261513e+001  1.713671e+002 
3793750000  -4.238607e+001  1.722382e+002 
3796875000  -4.104190e+001  1.681456e+002 
3800000000  -3.968116e+001  1.678234e+002 
3803125000  -4.042770e+001  1.576513e+002 
3806250000  -4.124100e+001  1.549799e+002 
3809375000  -4.054857e+001  1.539198e+002 
3812500000  -4.007362e+001  1.472575e+002 
3815625000  -4.058234e+001  1.361209e+002 
3818750000  -4.136861e+001  1.344138e+002 
3821875000  -4.139672e+001  1.455168e+002 
3825000000  -3.919920e+001  1.462097e+002 
3828125000  -3.802219e+001  1.303537e+002 
3831250000  -3.867134e+001  1.152570e+002 
3834375000  -4.011544e+001  1.164803e+002 
3837500000  -4.124005e+001  1.180725e+002 
3840625000  -3.972908e+001  1.160072e+002 
3843750000  -3.885953e+001  1.032722e+002 
3846875000  -3.971036e+001  9.604747e+001 
3850000000  -4.130721e+001  1.032773e+002 
3853125000  -4.025630e+001  1.023882e+002 
3856250000  -4.012803e+001  9.617943e+001 
3859375000  -3.962396e+001  9.085407e+001 
3862500000  -3.935278e+001  8.397253e+001 
3865625000  -3.991246e+001  7.862232e+001 
3868750000  -3.967285e+001  7.745289e+001 
3871875000  -3.926237e+001  7.346091e+001 
3875000000  -3.946966e+001  6.324865e+001 
3878125000  -4.052141e+001  6.326514e+001 
3881250000  -4.054842e+001  6.632919e+001 
3884375000  -4.008499e+001  5.953191e+001 
3887500000  -4.050536e+001  5.578168e+001 
3890625000  -4.090002e+001  5.362596e+001 
3893750000  -4.119989e+001  5.199440e+001 
3896875000  -4.189283e+001  5.295466e+001 
3900000000  -4.166424e+001  5.015004e+001 
3903125000  -4.121359e+001  4.857225e+001 
3906250000  -4.073978e+001  4.595502e+001 
3909375000  -4.025515e+001  4.263261e+001 
3912500000  -3.989090e+001  3.474439e+001 
3915625000  -4.142640e+001  3.616965e+001 
3918750000  -4.125559e+001  3.622478e+001 
3921875000  -4.049080e+001  3.348318e+001 
3925000000  -3.979430e+001  3.207234e+001 
3928125000  -3.933231e+001  2.511614e+001 
3931250000  -3.971024e+001  1.911415e+001 
3934375000  -3.997556e+001  1.902464e+001 
3937500000  -3.992588e+001  1.764779e+001 
3940625000  -4.040407e+001  1.589147e+001 
3943750000  -3.938759e+001  1.554457e+001 
3946875000  -3.822820e+001  1.097792e+001 
3950000000  -3.914624e+001  7.976370e-002 
3953125000  -4.005048e+001  1.425548e-001 
3956250000  -3.896539e+001  2.206501e+000 
3959375000  -3.768593e+001  -1.895117e+000 
3962500000  -3.721213e+001  -8.337753e+000 
3965625000  -3.705563e+001  -1.806306e+001 
3968750000  -3.816164e+001  -2.463980e+001 
3971875000  -3.822956e+001  -2.764474e+001 
3975000000  -3.788286e+001  -2.985194e+001 
3978125000  -3.783225e+001  -3.499993e+001 
3981250000  -3.768943e+001  -3.860550e+001 
3984375000  -3.794012e+001  -4.470652e+001 
3987500000  -3.855263e+001  -4.817871e+001 
3990625000  -3.842503e+001  -4.882487e+001 
3993750000  -3.884769e+001  -5.431995e+001 
3996875000  -3.881787e+001  -5.674611e+001 
4000000000  -3.915587e+001  -5.902075e+001 
4003125000  -3.981794e+001  -5.841526e+001 
4006250000  -3.833404e+001  -5.646828e+001 
4009375000  -3.726085e+001  -7.184204e+001 
4012500000  -3.869021e+001  -7.886925e+001 
4015625000  -3.975862e+001  -7.876837e+001 
4018750000  -3.991337e+001  -7.671770e+001 
4021875000  -3.910723e+001  -7.852455e+001 
4025000000  -3.895029e+001  -8.301947e+001 
4028125000  -3.887907e+001  -8.528068e+001 
4031250000  -3.953421e+001  -9.189368e+001 
4034375000  -3.981876e+001  -9.270187e+001 
4037500000  -3.936832e+001  -9.015704e+001 
4040625000  -3.907730e+001  -9.303398e+001 
4043750000  -3.947007e+001  -9.384460e+001 
4046875000  -3.884325e+001  -9.675493e+001 
4050000000  -3.857693e+001  -1.027627e+002 
4053125000  -3.921886e+001  -1.040238e+002 
4056250000  -3.917827e+001  -1.006450e+002 
4059375000  -3.811432e+001  -9.952409e+001 
4062500000  -3.679276e+001  -1.065223e+002 
4065625000  -3.664899e+001  -1.109349e+002 
4068750000  -3.649092e+001  -1.171408e+002 
4071875000  -3.552743e+001  -1.262681e+002 
4075000000  -3.601418e+001  -1.327451e+002 
4078125000  -3.668596e+001  -1.349885e+002 
4081250000  -3.601191e+001  -1.371387e+002 
4084375000  -3.557364e+001  -1.470572e+002 
4087500000  -3.617871e+001  -1.534978e+002 
4090625000  -3.691944e+001  -1.540341e+002 
4093750000  -3.654478e+001  -1.556974e+002 
4096875000  -3.610927e+001  -1.626205e+002 
4100000000  -3.702254e+001  -1.699604e+002 
4103125000  -3.761628e+001  -1.711339e+002 
4106250000  -3.762325e+001  -1.663709e+002 
4109375000  -3.664095e+001  -1.670381e+002 
4112500000  -3.621542e+001  -1.752099e+002 
4115625000  -3.657668e+001  1.791406e+002 
4118750000  -3.680543e+001  1.749329e+002 
4121875000  -3.638554e+001  1.697666e+002 
4125000000  -3.669805e+001  1.633106e+002 
4128125000  -3.799017e+001  1.646307e+002 
4131250000  -3.756821e+001  1.711232e+002 
4134375000  -3.523283e+001  1.644370e+002 
4137500000  -3.519123e+001  1.446616e+002 
4140625000  -3.754543e+001  1.365236e+002 
4143750000  -3.894389e+001  1.411655e+002 
4146875000  -3.844676e+001  1.479748e+002 
4150000000  -3.752568e+001  1.436624e+002 
4153125000  -3.740098e+001  1.354272e+002 
4156250000  -3.835071e+001  1.331028e+002 
4159375000  -3.878662e+001  1.387585e+002 
4162500000  -3.763194e+001  1.418910e+002 
4165625000  -3.661829e+001  1.362220e+002 
4168750000  -3.593792e+001  1.294551e+002 
4171875000  -3.597567e+001  1.193647e+002 
4175000000  -3.677061e+001  1.157267e+002 
4178125000  -3.733804e+001  1.144786e+002 
4181250000  -3.703590e+001  1.125849e+002 
4184375000  -3.683573e+001  1.091820e+002 
4187500000  -3.686260e+001  1.062006e+002 
4190625000  -3.678350e+001  9.892426e+001 
4193750000  -3.760000e+001  9.636343e+001 
4196875000  -3.819284e+001  9.615964e+001 
4200000000  -3.925430e+001  9.728902e+001 
4203125000  -3.874673e+001  1.119564e+002 
4206250000  -3.534234e+001  1.101557e+002 
4209375000  -3.425742e+001  8.798008e+001 
4212500000  -3.615971e+001  7.920211e+001 
4215625000  -3.706664e+001  8.687011e+001 
4218750000  -3.565308e+001  9.161698e+001 
4221875000  -3.331541e+001  8.160348e+001 
4225000000  -3.480268e+001  6.715066e+001 
4228125000  -3.529613e+001  7.170385e+001 
4231250000  -3.362135e+001  6.532376e+001 
4234375000  -3.357860e+001  5.773694e+001 
4237500000  -3.325111e+001  5.245080e+001 
4240625000  -3.309471e+001  4.245745e+001 
4243750000  -3.419869e+001  3.478595e+001 
4246875000  -3.506258e+001  3.414353e+001 
4250000000  -3.498670e+001  3.540845e+001 
4253125000  -3.452821e+001  3.211533e+001 
4256250000  -3.484393e+001  2.800513e+001 
4259375000  -3.463471e+001  2.393773e+001 
4262500000  -3.486606e+001  2.027421e+001 
4265625000  -3.487012e+001  1.873838e+001 
4268750000  -3.394236e+001  1.189935e+001 
4271875000  -3.379498e+001  4.763130e+000 
4275000000  -3.337658e+001  -2.228048e+000 
4278125000  -3.422712e+001  -1.442925e+001 
4281250000  -3.615884e+001  -1.713723e+001 
4284375000  -3.583244e+001  -1.684536e+001 
4287500000  -3.694213e+001  -2.130554e+001 
4290625000  -3.830342e+001  -1.268819e+001 
4293750000  -3.627842e+001  -7.499480e+000 
4296875000  -3.523830e+001  -1.880178e+001 
4300000000  -3.631197e+001  -2.691842e+001 
4303125000  -3.743110e+001  -2.647904e+001 
4306250000  -3.654358e+001  -1.913874e+001 
4309375000  -3.550520e+001  -2.226982e+001 
4312500000  -3.519778e+001  -2.927995e+001 
4315625000  -3.535615e+001  -3.633106e+001 
4318750000  -3.574371e+001  -3.867901e+001 
4321875000  -3.589082e+001  -3.856447e+001 
4325000000  -3.508899e+001  -3.824160e+001 
4328125000  -3.463578e+001  -4.468448e+001 
4331250000  -3.442921e+001  -5.379559e+001 
4334375000  -3.473730e+001  -5.858535e+001 
4337500000  -3.564275e+001  -6.067803e+001 
4340625000  -3.590613e+001  -5.873806e+001 
4343750000  -3.516148e+001  -5.747600e+001 
4346875000  -3.478721e+001  -6.563412e+001 
4350000000  -3.463920e+001  -7.204250e+001 
4353125000  -3.466116e+001  -7.937065e+001 
4356250000  -3.651490e+001  -7.919282e+001 
4359375000  -3.678850e+001  -6.599657e+001 
4362500000  -3.383944e+001  -6.701070e+001 
4365625000  -3.220026e+001  -8.116352e+001 
4368750000  -3.287850e+001  -9.409564e+001 
4371875000  -3.399622e+001  -9.337619e+001 
4375000000  -3.350480e+001  -9.562789e+001 
4378125000  -3.291206e+001  -1.023895e+002 
4381250000  -3.321975e+001  -1.095387e+002 
4384375000  -3.289469e+001  -1.154082e+002 
4387500000  -3.378154e+001  -1.228822e+002 
4390625000  -3.466717e+001  -1.229768e+002 
4393750000  -3.408645e+001  -1.228434e+002 
4396875000  -3.345685e+001  -1.252591e+002 
4400000000  -3.289429e+001  -1.337645e+002 
4403125000  -3.358546e+001  -1.428418e+002 
4406250000  -3.446813e+001  -1.453230e+002 
4409375000  -3.458659e+001  -1.488849e+002 
4412500000  -3.584317e+001  -1.531314e+002 
4415625000  -3.608731e+001  -1.478640e+002 
