!Agilent Technologies,E8363B,MY43030201,A.06.04.32
!Agilent E8363B: A.06.04.32
!Date: Tuesday, November 11, 2014 21:08:51
!Correction: S21(Response(S21)) 
!S1P File: Measurement: S21:
# Hz S  dB   R 50
3000000000  -3.659118e+001  -5.349605e+001 
3003125000  -3.766574e+001  -6.005575e+001 
3006250000  -3.752900e+001  -6.258185e+001 
3009375000  -3.781446e+001  -5.764998e+001 
3012500000  -3.707695e+001  -5.958860e+001 
3015625000  -3.613103e+001  -6.672431e+001 
3018750000  -3.697929e+001  -6.793623e+001 
3021875000  -3.544554e+001  -6.712473e+001 
3025000000  -3.411592e+001  -7.061801e+001 
3028125000  -3.319881e+001  -7.735698e+001 
3031250000  -3.220272e+001  -8.863348e+001 
3034375000  -3.178139e+001  -1.018773e+002 
3037500000  -3.232281e+001  -1.142400e+002 
3040625000  -3.363647e+001  -1.189676e+002 
3043750000  -3.428242e+001  -1.245066e+002 
3046875000  -3.445603e+001  -1.302672e+002 
3050000000  -3.627532e+001  -1.371617e+002 
3053125000  -3.606666e+001  -1.306668e+002 
3056250000  -3.551638e+001  -1.273509e+002 
3059375000  -3.559296e+001  -1.275043e+002 
3062500000  -3.412946e+001  -1.316196e+002 
3065625000  -3.397919e+001  -1.374495e+002 
3068750000  -3.363914e+001  -1.443674e+002 
3071875000  -3.352031e+001  -1.470918e+002 
3075000000  -3.333313e+001  -1.509556e+002 
3078125000  -3.304021e+001  -1.548642e+002 
3081250000  -3.358718e+001  -1.590165e+002 
3084375000  -3.268659e+001  -1.628465e+002 
3087500000  -3.249594e+001  -1.668699e+002 
3090625000  -3.200787e+001  -1.769949e+002 
3093750000  -3.247763e+001  1.752598e+002 
3096875000  -3.349618e+001  1.698503e+002 
3100000000  -3.339447e+001  1.679930e+002 
3103125000  -3.367428e+001  1.689432e+002 
3106250000  -3.312915e+001  1.643296e+002 
3109375000  -3.331161e+001  1.604248e+002 
3112500000  -3.323297e+001  1.579542e+002 
3115625000  -3.290007e+001  1.528669e+002 
3118750000  -3.325070e+001  1.537771e+002 
3121875000  -3.233518e+001  1.435526e+002 
3125000000  -3.357118e+001  1.397361e+002 
3128125000  -3.450453e+001  1.463671e+002 
3131250000  -3.206850e+001  1.452879e+002 
3134375000  -3.070192e+001  1.294399e+002 
3137500000  -3.141427e+001  1.154204e+002 
3140625000  -3.284142e+001  1.129545e+002 
3143750000  -3.380604e+001  1.148300e+002 
3146875000  -3.332961e+001  1.152539e+002 
3150000000  -3.231702e+001  1.154311e+002 
3153125000  -3.231061e+001  1.063277e+002 
3156250000  -3.335269e+001  1.116293e+002 
3159375000  -3.165564e+001  1.122427e+002 
3162500000  -2.975460e+001  9.759158e+001 
3165625000  -3.076708e+001  8.535689e+001 
3168750000  -3.098909e+001  8.596434e+001 
3171875000  -3.008700e+001  8.023778e+001 
3175000000  -3.091072e+001  7.158505e+001 
3178125000  -3.067232e+001  7.196710e+001 
3181250000  -2.960888e+001  6.614849e+001 
3184375000  -2.891851e+001  5.350142e+001 
3187500000  -3.016564e+001  3.861556e+001 
3190625000  -3.281811e+001  3.036015e+001 
3193750000  -3.344657e+001  3.950084e+001 
3196875000  -3.296741e+001  4.354470e+001 
3200000000  -3.200373e+001  4.079893e+001 
3203125000  -3.127761e+001  3.464125e+001 
3206250000  -3.163233e+001  2.837222e+001 
3209375000  -3.107118e+001  2.250796e+001 
3212500000  -3.134931e+001  1.533865e+001 
3215625000  -3.140869e+001  1.102068e+001 
3218750000  -3.219076e+001  3.936294e+000 
3221875000  -3.296819e+001  -1.044885e+000 
3225000000  -3.257785e+001  -2.304575e+000 
3228125000  -3.297263e+001  -8.322770e+000 
3231250000  -3.362788e+001  -1.040228e+001 
3234375000  -3.338277e+001  -9.745790e+000 
3237500000  -3.338068e+001  -1.237259e+001 
3240625000  -3.294271e+001  -1.504335e+001 
3243750000  -3.258010e+001  -2.231241e+001 
3246875000  -3.298235e+001  -2.965823e+001 
3250000000  -3.347372e+001  -3.183322e+001 
3253125000  -3.344451e+001  -3.454748e+001 
3256250000  -3.316064e+001  -4.050453e+001 
3259375000  -3.344916e+001  -4.925772e+001 
3262500000  -3.464573e+001  -5.347064e+001 
3265625000  -3.526119e+001  -5.038903e+001 
3268750000  -3.512583e+001  -4.861069e+001 
3271875000  -3.468633e+001  -4.884363e+001 
3275000000  -3.370864e+001  -5.615597e+001 
3278125000  -3.420051e+001  -6.205972e+001 
3281250000  -3.443688e+001  -6.120819e+001 
3284375000  -3.383986e+001  -6.744199e+001 
3287500000  -3.408483e+001  -7.163562e+001 
3290625000  -3.431038e+001  -7.719231e+001 
3293750000  -3.412749e+001  -8.304342e+001 
3296875000  -3.511018e+001  -8.440263e+001 
3300000000  -3.482707e+001  -8.345634e+001 
3303125000  -3.361099e+001  -8.915086e+001 
3306250000  -3.359382e+001  -9.577410e+001 
3309375000  -3.319126e+001  -1.020676e+002 
3312500000  -3.333058e+001  -1.134342e+002 
3315625000  -3.440223e+001  -1.214963e+002 
3318750000  -3.578446e+001  -1.232648e+002 
3321875000  -3.689854e+001  -1.245267e+002 
3325000000  -3.736733e+001  -1.193349e+002 
3328125000  -3.674596e+001  -1.182505e+002 
3331250000  -3.566330e+001  -1.125161e+002 
3334375000  -3.302578e+001  -1.226670e+002 
3337500000  -3.301423e+001  -1.418754e+002 
3340625000  -3.431975e+001  -1.526997e+002 
3343750000  -3.651299e+001  -1.531678e+002 
3346875000  -3.667281e+001  -1.517681e+002 
3350000000  -3.598358e+001  -1.538947e+002 
3353125000  -3.597202e+001  -1.581420e+002 
3356250000  -3.550029e+001  -1.667441e+002 
3359375000  -3.625666e+001  -1.757252e+002 
3362500000  -3.730790e+001  1.794684e+002 
3365625000  -3.795574e+001  1.782897e+002 
3368750000  -3.872965e+001  1.763508e+002 
3371875000  -3.901418e+001  1.722113e+002 
3375000000  -4.029392e+001  1.688891e+002 
3378125000  -4.128117e+001  1.695959e+002 
3381250000  -4.243083e+001  1.785975e+002 
3384375000  -4.105669e+001  -1.595648e+002 
3387500000  -3.731972e+001  -1.781380e+002 
3390625000  -3.902520e+001  1.646590e+002 
3393750000  -4.033345e+001  1.678728e+002 
3396875000  -3.924109e+001  1.689932e+002 
3400000000  -3.855737e+001  1.601358e+002 
3403125000  -3.926194e+001  1.553440e+002 
3406250000  -3.970259e+001  1.558311e+002 
3409375000  -3.988105e+001  1.468770e+002 
3412500000  -4.020845e+001  1.454784e+002 
3415625000  -4.089719e+001  1.461300e+002 
3418750000  -4.112284e+001  1.464303e+002 
3421875000  -4.140379e+001  1.488020e+002 
3425000000  -4.041317e+001  1.499296e+002 
3428125000  -3.925867e+001  1.455824e+002 
3431250000  -3.927781e+001  1.390485e+002 
3434375000  -3.916359e+001  1.332119e+002 
3437500000  -3.971386e+001  1.297882e+002 
3440625000  -3.999741e+001  1.308885e+002 
3443750000  -3.882927e+001  1.314849e+002 
3446875000  -3.786636e+001  1.234729e+002 
3450000000  -3.747976e+001  1.136846e+002 
3453125000  -3.810006e+001  1.026806e+002 
3456250000  -3.906825e+001  9.645501e+001 
3459375000  -3.990177e+001  9.593594e+001 
3462500000  -4.004261e+001  9.789703e+001 
3465625000  -3.982478e+001  9.248460e+001 
3468750000  -4.025809e+001  8.771440e+001 
3471875000  -4.002833e+001  8.686996e+001 
3475000000  -3.965177e+001  8.303040e+001 
3478125000  -4.043803e+001  7.341476e+001 
3481250000  -4.116961e+001  7.271207e+001 
3484375000  -4.215854e+001  7.697343e+001 
3487500000  -4.132920e+001  7.406783e+001 
3490625000  -4.062329e+001  7.038866e+001 
3493750000  -4.117121e+001  6.261166e+001 
3496875000  -4.196394e+001  6.256961e+001 
3500000000  -4.228469e+001  6.540477e+001 
3503125000  -4.178491e+001  6.557311e+001 
3506250000  -4.058989e+001  6.311395e+001 
3509375000  -4.058185e+001  5.122606e+001 
3512500000  -4.123926e+001  4.430416e+001 
3515625000  -4.195280e+001  3.892828e+001 
3518750000  -4.269664e+001  4.296783e+001 
3521875000  -4.237657e+001  4.002905e+001 
3525000000  -4.360690e+001  3.615520e+001 
3528125000  -4.358023e+001  4.253161e+001 
3531250000  -4.207333e+001  4.020747e+001 
3534375000  -4.199098e+001  3.193175e+001 
3537500000  -4.237066e+001  2.786382e+001 
3540625000  -4.358921e+001  2.575482e+001 
3543750000  -4.392431e+001  3.154345e+001 
3546875000  -4.415640e+001  4.023482e+001 
3550000000  -4.139241e+001  4.190402e+001 
3553125000  -4.020594e+001  2.565253e+001 
3556250000  -4.152691e+001  1.712689e+001 
3559375000  -4.142522e+001  2.069232e+001 
3562500000  -4.027950e+001  1.081192e+001 
3565625000  -4.113649e+001  4.198064e+000 
3568750000  -4.143132e+001  5.835572e+000 
3571875000  -4.105634e+001  4.439661e+000 
3575000000  -4.086117e+001  -2.742210e+000 
3578125000  -4.136615e+001  -7.987846e+000 
3581250000  -4.168169e+001  -8.292459e+000 
3584375000  -4.051259e+001  -1.255556e+001 
3587500000  -3.980626e+001  -2.032093e+001 
3590625000  -4.046633e+001  -3.163726e+001 
3593750000  -4.197222e+001  -3.309105e+001 
3596875000  -4.176000e+001  -2.664818e+001 
3600000000  -4.028001e+001  -3.501834e+001 
3603125000  -4.055618e+001  -4.843686e+001 
3606250000  -4.168154e+001  -5.139936e+001 
3609375000  -4.235238e+001  -5.468432e+001 
3612500000  -4.271001e+001  -5.687420e+001 
3615625000  -4.289869e+001  -6.101773e+001 
3618750000  -4.359537e+001  -6.113168e+001 
3621875000  -4.365250e+001  -6.559371e+001 
3625000000  -4.418846e+001  -6.663342e+001 
3628125000  -4.437436e+001  -6.638750e+001 
3631250000  -4.423589e+001  -7.068327e+001 
3634375000  -4.551203e+001  -7.103043e+001 
3637500000  -4.541281e+001  -6.580485e+001 
3640625000  -4.491151e+001  -6.690339e+001 
3643750000  -4.434461e+001  -7.022636e+001 
3646875000  -4.484946e+001  -7.492945e+001 
3650000000  -4.626984e+001  -7.596398e+001 
3653125000  -4.551573e+001  -7.474179e+001 
3656250000  -4.580079e+001  -7.553805e+001 
3659375000  -4.609811e+001  -7.343475e+001 
3662500000  -4.511430e+001  -7.299300e+001 
3665625000  -4.489609e+001  -7.510773e+001 
3668750000  -4.390678e+001  -7.287420e+001 
3671875000  -4.304696e+001  -8.257096e+001 
3675000000  -4.305217e+001  -8.783105e+001 
3678125000  -4.326024e+001  -8.925657e+001 
3681250000  -4.302891e+001  -9.430226e+001 
3684375000  -4.315979e+001  -9.839124e+001 
3687500000  -4.301071e+001  -1.004931e+002 
3690625000  -4.309369e+001  -1.050903e+002 
3693750000  -4.383312e+001  -1.062470e+002 
3696875000  -4.365252e+001  -1.058576e+002 
3700000000  -4.289361e+001  -1.109914e+002 
3703125000  -4.304215e+001  -1.165660e+002 
3706250000  -4.407950e+001  -1.152743e+002 
3709375000  -4.321948e+001  -1.118705e+002 
3712500000  -4.243846e+001  -1.177408e+002 
3715625000  -4.164348e+001  -1.235224e+002 
3718750000  -4.121706e+001  -1.296060e+002 
3721875000  -4.116215e+001  -1.363484e+002 
3725000000  -4.167900e+001  -1.435084e+002 
3728125000  -4.186642e+001  -1.444636e+002 
3731250000  -4.145086e+001  -1.467728e+002 
3734375000  -4.143358e+001  -1.517073e+002 
3737500000  -4.225298e+001  -1.606595e+002 
3740625000  -4.321064e+001  -1.640279e+002 
3743750000  -4.332796e+001  -1.670478e+002 
3746875000  -4.340189e+001  -1.707598e+002 
3750000000  -4.405563e+001  -1.696016e+002 
3753125000  -4.423418e+001  -1.708547e+002 
3756250000  -4.415454e+001  -1.682220e+002 
3759375000  -4.478030e+001  -1.688284e+002 
3762500000  -4.403455e+001  -1.714945e+002 
3765625000  -4.478782e+001  -1.720333e+002 
3768750000  -4.490229e+001  -1.728914e+002 
3771875000  -4.333431e+001  -1.704219e+002 
3775000000  -4.349293e+001  -1.756364e+002 
3778125000  -4.321838e+001  -1.793124e+002 
3781250000  -4.263519e+001  -1.779801e+002 
3784375000  -4.267457e+001  1.799979e+002 
3787500000  -4.198568e+001  1.761780e+002 
3790625000  -4.195471e+001  1.695786e+002 
3793750000  -4.246839e+001  1.702025e+002 
3796875000  -4.128653e+001  1.684573e+002 
3800000000  -3.952263e+001  1.670401e+002 
3803125000  -4.070006e+001  1.561955e+002 
3806250000  -4.100462e+001  1.545472e+002 
3809375000  -4.033943e+001  1.519441e+002 
3812500000  -4.005627e+001  1.441794e+002 
3815625000  -4.025349e+001  1.347827e+002 
3818750000  -4.155091e+001  1.338957e+002 
3821875000  -4.130273e+001  1.427069e+002 
3825000000  -3.956250e+001  1.442586e+002 
3828125000  -3.811114e+001  1.288395e+002 
3831250000  -3.873537e+001  1.131614e+002 
3834375000  -4.018432e+001  1.124111e+002 
3837500000  -4.132531e+001  1.167745e+002 
3840625000  -3.994206e+001  1.157380e+002 
3843750000  -3.885655e+001  1.020410e+002 
3846875000  -3.976754e+001  9.434079e+001 
3850000000  -4.093506e+001  1.020383e+002 
3853125000  -4.033004e+001  1.029531e+002 
3856250000  -4.009553e+001  9.584843e+001 
3859375000  -3.957986e+001  9.201779e+001 
3862500000  -3.947161e+001  8.161398e+001 
3865625000  -3.987773e+001  7.728169e+001 
3868750000  -3.984071e+001  7.588757e+001 
3871875000  -3.907570e+001  7.297203e+001 
3875000000  -3.926005e+001  6.162781e+001 
3878125000  -4.046990e+001  6.316575e+001 
3881250000  -4.049597e+001  6.420222e+001 
3884375000  -4.007373e+001  5.623278e+001 
3887500000  -4.020497e+001  5.581752e+001 
3890625000  -4.090412e+001  5.224895e+001 
3893750000  -4.122621e+001  5.004985e+001 
3896875000  -4.140280e+001  5.385387e+001 
3900000000  -4.159328e+001  4.892218e+001 
3903125000  -4.128025e+001  4.820894e+001 
3906250000  -4.080861e+001  4.471544e+001 
3909375000  -3.982013e+001  4.233029e+001 
3912500000  -4.002672e+001  3.331002e+001 
3915625000  -4.121974e+001  3.527477e+001 
3918750000  -4.132256e+001  3.492504e+001 
3921875000  -4.056353e+001  3.290963e+001 
3925000000  -3.988441e+001  3.008511e+001 
3928125000  -3.933268e+001  2.352249e+001 
3931250000  -3.980340e+001  1.777087e+001 
3934375000  -3.986153e+001  1.865849e+001 
3937500000  -4.011842e+001  1.559237e+001 
3940625000  -4.040761e+001  1.360290e+001 
3943750000  -3.909483e+001  1.415736e+001 
3946875000  -3.836354e+001  7.887758e+000 
3950000000  -3.919852e+001  -1.965345e-001 
3953125000  -3.997181e+001  -1.654894e+000 
3956250000  -3.891700e+001  9.598861e-001 
3959375000  -3.785959e+001  -3.604729e+000 
3962500000  -3.719746e+001  -7.145503e+000 
3965625000  -3.719590e+001  -1.803349e+001 
3968750000  -3.836391e+001  -2.646760e+001 
3971875000  -3.822113e+001  -2.971646e+001 
3975000000  -3.775995e+001  -3.094631e+001 
3978125000  -3.779279e+001  -3.488823e+001 
3981250000  -3.776134e+001  -3.943776e+001 
3984375000  -3.799665e+001  -4.623135e+001 
3987500000  -3.864700e+001  -4.923120e+001 
3990625000  -3.864236e+001  -5.038509e+001 
3993750000  -3.917203e+001  -5.508771e+001 
3996875000  -3.900985e+001  -5.793214e+001 
4000000000  -3.921063e+001  -5.891317e+001 
4003125000  -3.979038e+001  -5.649315e+001 
4006250000  -3.835164e+001  -6.108752e+001 
4009375000  -3.724760e+001  -7.196577e+001 
4012500000  -3.867911e+001  -7.832992e+001 
4015625000  -3.986009e+001  -7.779472e+001 
4018750000  -4.002827e+001  -7.689438e+001 
4021875000  -3.934947e+001  -7.867587e+001 
4025000000  -3.883084e+001  -8.514828e+001 
4028125000  -3.899057e+001  -8.713239e+001 
4031250000  -3.977512e+001  -9.141088e+001 
4034375000  -3.959408e+001  -9.144858e+001 
4037500000  -3.954031e+001  -9.143069e+001 
4040625000  -3.903911e+001  -9.508482e+001 
4043750000  -3.940796e+001  -9.612885e+001 
4046875000  -3.902707e+001  -9.602191e+001 
4050000000  -3.841126e+001  -1.026740e+002 
4053125000  -3.890846e+001  -1.045091e+002 
4056250000  -3.954494e+001  -1.017376e+002 
4059375000  -3.795456e+001  -1.015652e+002 
4062500000  -3.672902e+001  -1.073081e+002 
4065625000  -3.656835e+001  -1.111172e+002 
4068750000  -3.634720e+001  -1.185863e+002 
4071875000  -3.582688e+001  -1.260409e+002 
4075000000  -3.615002e+001  -1.335129e+002 
4078125000  -3.675555e+001  -1.350631e+002 
4081250000  -3.599337e+001  -1.396059e+002 
4084375000  -3.558258e+001  -1.471750e+002 
4087500000  -3.605776e+001  -1.545419e+002 
4090625000  -3.665014e+001  -1.549692e+002 
4093750000  -3.655145e+001  -1.564023e+002 
4096875000  -3.617688e+001  -1.638383e+002 
4100000000  -3.686231e+001  -1.718374e+002 
4103125000  -3.777723e+001  -1.698160e+002 
4106250000  -3.790620e+001  -1.655786e+002 
4109375000  -3.652589e+001  -1.679675e+002 
4112500000  -3.613882e+001  -1.756854e+002 
4115625000  -3.662707e+001  1.784537e+002 
4118750000  -3.668311e+001  1.735591e+002 
4121875000  -3.634829e+001  1.689188e+002 
4125000000  -3.692757e+001  1.624740e+002 
4128125000  -3.797215e+001  1.634678e+002 
4131250000  -3.762931e+001  1.688025e+002 
4134375000  -3.505867e+001  1.628402e+002 
4137500000  -3.517221e+001  1.450104e+002 
4140625000  -3.735286e+001  1.373240e+002 
4143750000  -3.879664e+001  1.417028e+002 
4146875000  -3.817328e+001  1.476092e+002 
4150000000  -3.757749e+001  1.428067e+002 
4153125000  -3.742705e+001  1.360275e+002 
4156250000  -3.837640e+001  1.339610e+002 
4159375000  -3.855111e+001  1.393614e+002 
4162500000  -3.747815e+001  1.429792e+002 
4165625000  -3.651598e+001  1.368052e+002 
4168750000  -3.603479e+001  1.291212e+002 
4171875000  -3.604670e+001  1.184328e+002 
4175000000  -3.673183e+001  1.130791e+002 
4178125000  -3.733821e+001  1.141566e+002 
4181250000  -3.681069e+001  1.127759e+002 
4184375000  -3.671516e+001  1.082465e+002 
4187500000  -3.694000e+001  1.052853e+002 
4190625000  -3.670084e+001  9.965471e+001 
4193750000  -3.749643e+001  9.504224e+001 
4196875000  -3.818020e+001  9.397495e+001 
4200000000  -3.917613e+001  9.752679e+001 
4203125000  -3.864724e+001  1.128448e+002 
4206250000  -3.513450e+001  1.091900e+002 
4209375000  -3.415064e+001  8.738275e+001 
4212500000  -3.624665e+001  7.902342e+001 
4215625000  -3.705384e+001  8.593375e+001 
4218750000  -3.566934e+001  9.068167e+001 
4221875000  -3.321313e+001  8.015099e+001 
4225000000  -3.453191e+001  6.628823e+001 
4228125000  -3.497927e+001  7.153647e+001 
4231250000  -3.350480e+001  6.575460e+001 
4234375000  -3.333984e+001  5.677868e+001 
4237500000  -3.285335e+001  5.139091e+001 
4240625000  -3.299794e+001  4.193841e+001 
4243750000  -3.397989e+001  3.366663e+001 
4246875000  -3.500584e+001  3.360216e+001 
4250000000  -3.510652e+001  3.593267e+001 
4253125000  -3.435328e+001  3.010118e+001 
4256250000  -3.480359e+001  2.679801e+001 
4259375000  -3.437027e+001  2.160933e+001 
4262500000  -3.472018e+001  1.722374e+001 
4265625000  -3.477240e+001  1.735910e+001 
4268750000  -3.380478e+001  1.226585e+001 
4271875000  -3.362818e+001  4.340776e+000 
4275000000  -3.344095e+001  -3.353799e+000 
4278125000  -3.424789e+001  -1.455184e+001 
4281250000  -3.607650e+001  -1.784794e+001 
4284375000  -3.586407e+001  -1.597164e+001 
4287500000  -3.691264e+001  -2.095002e+001 
4290625000  -3.798175e+001  -1.217890e+001 
4293750000  -3.612769e+001  -7.220457e+000 
4296875000  -3.487406e+001  -1.883036e+001 
4300000000  -3.589389e+001  -2.747407e+001 
4303125000  -3.714658e+001  -2.686378e+001 
4306250000  -3.635992e+001  -2.043844e+001 
4309375000  -3.527128e+001  -2.236117e+001 
4312500000  -3.489243e+001  -3.101128e+001 
4315625000  -3.517776e+001  -3.684818e+001 
4318750000  -3.546551e+001  -3.958553e+001 
4321875000  -3.551644e+001  -3.940940e+001 
4325000000  -3.502040e+001  -3.831231e+001 
4328125000  -3.425812e+001  -4.565166e+001 
4331250000  -3.422406e+001  -5.329623e+001 
4334375000  -3.448914e+001  -5.956509e+001 
4337500000  -3.527480e+001  -6.172592e+001 
4340625000  -3.580902e+001  -5.941259e+001 
4343750000  -3.491589e+001  -5.920275e+001 
4346875000  -3.459900e+001  -6.619698e+001 
4350000000  -3.441354e+001  -7.171655e+001 
4353125000  -3.440176e+001  -7.982442e+001 
4356250000  -3.608984e+001  -8.135799e+001 
4359375000  -3.660793e+001  -6.668437e+001 
4362500000  -3.336844e+001  -6.811239e+001 
4365625000  -3.188444e+001  -8.312308e+001 
4368750000  -3.275735e+001  -9.404856e+001 
4371875000  -3.353478e+001  -9.484267e+001 
4375000000  -3.316877e+001  -9.600262e+001 
4378125000  -3.265375e+001  -1.027609e+002 
4381250000  -3.278579e+001  -1.103333e+002 
4384375000  -3.250968e+001  -1.160391e+002 
4387500000  -3.340098e+001  -1.238904e+002 
4390625000  -3.443403e+001  -1.235930e+002 
4393750000  -3.378959e+001  -1.228330e+002 
4396875000  -3.304657e+001  -1.258965e+002 
4400000000  -3.257991e+001  -1.357211e+002 
4403125000  -3.337336e+001  -1.445889e+002 
4406250000  -3.413281e+001  -1.468252e+002 
4409375000  -3.425645e+001  -1.504811e+002 
4412500000  -3.561115e+001  -1.531450e+002 
4415625000  -3.581943e+001  -1.492847e+002 
