!Agilent Technologies,E8363B,MY43030201,A.06.04.32
!Agilent E8363B: A.06.04.32
!Date: Tuesday, November 11, 2014 21:09:50
!Correction: S21(Response(S21)) 
!S1P File: Measurement: S21:
# Hz S  dB   R 50
3000000000  -3.648454e+001  -5.457229e+001 
3003125000  -3.761841e+001  -6.099679e+001 
3006250000  -3.745929e+001  -6.341327e+001 
3009375000  -3.773745e+001  -5.895224e+001 
3012500000  -3.716452e+001  -6.090514e+001 
3015625000  -3.617298e+001  -6.834631e+001 
3018750000  -3.702459e+001  -6.989188e+001 
3021875000  -3.540786e+001  -6.853558e+001 
3025000000  -3.426551e+001  -7.228317e+001 
3028125000  -3.322252e+001  -7.880087e+001 
3031250000  -3.217054e+001  -9.043356e+001 
3034375000  -3.183361e+001  -1.042402e+002 
3037500000  -3.230606e+001  -1.157687e+002 
3040625000  -3.360785e+001  -1.205534e+002 
3043750000  -3.436016e+001  -1.258808e+002 
3046875000  -3.450547e+001  -1.317083e+002 
3050000000  -3.616587e+001  -1.369827e+002 
3053125000  -3.614578e+001  -1.312409e+002 
3056250000  -3.563391e+001  -1.284934e+002 
3059375000  -3.574934e+001  -1.293463e+002 
3062500000  -3.421877e+001  -1.323059e+002 
3065625000  -3.392747e+001  -1.384047e+002 
3068750000  -3.359213e+001  -1.452709e+002 
3071875000  -3.355273e+001  -1.482576e+002 
3075000000  -3.339185e+001  -1.519480e+002 
3078125000  -3.302808e+001  -1.562498e+002 
3081250000  -3.363423e+001  -1.601761e+002 
3084375000  -3.269704e+001  -1.639175e+002 
3087500000  -3.252878e+001  -1.678432e+002 
3090625000  -3.203591e+001  -1.781305e+002 
3093750000  -3.253159e+001  1.743856e+002 
3096875000  -3.347043e+001  1.690423e+002 
3100000000  -3.337108e+001  1.666079e+002 
3103125000  -3.363130e+001  1.672969e+002 
3106250000  -3.320938e+001  1.628037e+002 
3109375000  -3.324367e+001  1.591868e+002 
3112500000  -3.314742e+001  1.568992e+002 
3115625000  -3.283863e+001  1.519233e+002 
3118750000  -3.323312e+001  1.524504e+002 
3121875000  -3.232563e+001  1.426712e+002 
3125000000  -3.356552e+001  1.387141e+002 
3128125000  -3.457370e+001  1.454908e+002 
3131250000  -3.207992e+001  1.441255e+002 
3134375000  -3.082061e+001  1.281466e+002 
3137500000  -3.133153e+001  1.142119e+002 
3140625000  -3.278822e+001  1.113974e+002 
3143750000  -3.382747e+001  1.137369e+002 
3146875000  -3.323200e+001  1.144971e+002 
3150000000  -3.231409e+001  1.140439e+002 
3153125000  -3.231261e+001  1.048633e+002 
3156250000  -3.330035e+001  1.103302e+002 
3159375000  -3.153458e+001  1.111090e+002 
3162500000  -2.963994e+001  9.613947e+001 
3165625000  -3.076170e+001  8.404277e+001 
3168750000  -3.105221e+001  8.437009e+001 
3171875000  -3.020822e+001  7.871754e+001 
3175000000  -3.093449e+001  7.002261e+001 
3178125000  -3.059388e+001  7.065928e+001 
3181250000  -2.965303e+001  6.473500e+001 
3184375000  -2.898338e+001  5.227536e+001 
3187500000  -3.019006e+001  3.724807e+001 
3190625000  -3.273958e+001  2.997149e+001 
3193750000  -3.334075e+001  3.833819e+001 
3196875000  -3.300319e+001  4.236058e+001 
3200000000  -3.207438e+001  3.932036e+001 
3203125000  -3.133423e+001  3.302259e+001 
3206250000  -3.161277e+001  2.634659e+001 
3209375000  -3.114240e+001  2.077838e+001 
3212500000  -3.146038e+001  1.330583e+001 
3215625000  -3.144364e+001  9.803319e+000 
3218750000  -3.226924e+001  2.992163e+000 
3221875000  -3.304888e+001  -1.910884e+000 
3225000000  -3.266874e+001  -3.953860e+000 
3228125000  -3.306289e+001  -9.616211e+000 
3231250000  -3.367320e+001  -1.161236e+001 
3234375000  -3.337554e+001  -1.100969e+001 
3237500000  -3.341105e+001  -1.299788e+001 
3240625000  -3.298417e+001  -1.565504e+001 
3243750000  -3.253541e+001  -2.376659e+001 
3246875000  -3.301337e+001  -3.050414e+001 
3250000000  -3.342452e+001  -3.341870e+001 
3253125000  -3.353819e+001  -3.493328e+001 
3256250000  -3.306161e+001  -4.169461e+001 
3259375000  -3.345100e+001  -5.079501e+001 
3262500000  -3.462209e+001  -5.442460e+001 
3265625000  -3.524234e+001  -5.104797e+001 
3268750000  -3.504264e+001  -4.946490e+001 
3271875000  -3.476666e+001  -4.996505e+001 
3275000000  -3.365125e+001  -5.699057e+001 
3278125000  -3.416141e+001  -6.285537e+001 
3281250000  -3.421494e+001  -6.224263e+001 
3284375000  -3.383127e+001  -6.934084e+001 
3287500000  -3.402188e+001  -7.212691e+001 
3290625000  -3.432349e+001  -7.847858e+001 
3293750000  -3.418145e+001  -8.465600e+001 
3296875000  -3.514652e+001  -8.510680e+001 
3300000000  -3.488050e+001  -8.424129e+001 
3303125000  -3.362619e+001  -9.037468e+001 
3306250000  -3.349199e+001  -9.699716e+001 
3309375000  -3.328209e+001  -1.038966e+002 
3312500000  -3.325852e+001  -1.151741e+002 
3315625000  -3.422509e+001  -1.230844e+002 
3318750000  -3.586779e+001  -1.251665e+002 
3321875000  -3.676510e+001  -1.262659e+002 
3325000000  -3.716860e+001  -1.199681e+002 
3328125000  -3.663594e+001  -1.182737e+002 
3331250000  -3.554419e+001  -1.137406e+002 
3334375000  -3.285653e+001  -1.243787e+002 
3337500000  -3.313820e+001  -1.433553e+002 
3340625000  -3.450877e+001  -1.548389e+002 
3343750000  -3.657188e+001  -1.551639e+002 
3346875000  -3.662226e+001  -1.537371e+002 
3350000000  -3.590335e+001  -1.559054e+002 
3353125000  -3.606686e+001  -1.600195e+002 
3356250000  -3.556509e+001  -1.687653e+002 
3359375000  -3.634896e+001  -1.769009e+002 
3362500000  -3.746076e+001  1.765740e+002 
3365625000  -3.799286e+001  1.768703e+002 
3368750000  -3.878655e+001  1.741794e+002 
3371875000  -3.911218e+001  1.709597e+002 
3375000000  -4.044690e+001  1.695350e+002 
3378125000  -4.128821e+001  1.683013e+002 
3381250000  -4.218053e+001  1.778691e+002 
3384375000  -4.132598e+001  -1.632336e+002 
3387500000  -3.744330e+001  -1.770309e+002 
3390625000  -3.929620e+001  1.637488e+002 
3393750000  -4.051049e+001  1.663272e+002 
3396875000  -3.939601e+001  1.680044e+002 
3400000000  -3.874748e+001  1.588658e+002 
3403125000  -3.942369e+001  1.547207e+002 
3406250000  -3.966472e+001  1.548024e+002 
3409375000  -3.994595e+001  1.455956e+002 
3412500000  -4.037350e+001  1.446996e+002 
3415625000  -4.097566e+001  1.457493e+002 
3418750000  -4.097623e+001  1.444644e+002 
3421875000  -4.117281e+001  1.484922e+002 
3425000000  -4.032937e+001  1.494247e+002 
3428125000  -3.925157e+001  1.445926e+002 
3431250000  -3.921044e+001  1.374505e+002 
3434375000  -3.898884e+001  1.322524e+002 
3437500000  -3.984868e+001  1.277599e+002 
3440625000  -3.985158e+001  1.301991e+002 
3443750000  -3.883603e+001  1.300813e+002 
3446875000  -3.787179e+001  1.217902e+002 
3450000000  -3.755596e+001  1.123455e+002 
3453125000  -3.801225e+001  1.021973e+002 
3456250000  -3.913683e+001  9.537812e+001 
3459375000  -4.010689e+001  9.587942e+001 
3462500000  -3.977396e+001  9.738781e+001 
3465625000  -3.990712e+001  9.229097e+001 
3468750000  -3.986914e+001  8.740403e+001 
3471875000  -3.993642e+001  8.613032e+001 
3475000000  -3.955709e+001  8.149693e+001 
3478125000  -4.041905e+001  7.395248e+001 
3481250000  -4.128923e+001  7.032876e+001 
3484375000  -4.235860e+001  7.582177e+001 
3487500000  -4.131206e+001  7.391236e+001 
3490625000  -4.084203e+001  7.016119e+001 
3493750000  -4.136629e+001  6.320243e+001 
3496875000  -4.203214e+001  6.220848e+001 
3500000000  -4.251958e+001  6.632349e+001 
3503125000  -4.202787e+001  6.771081e+001 
3506250000  -4.060217e+001  6.166779e+001 
3509375000  -4.048845e+001  5.256812e+001 
3512500000  -4.102187e+001  4.480550e+001 
3515625000  -4.220935e+001  4.226772e+001 
3518750000  -4.267045e+001  4.226537e+001 
3521875000  -4.238354e+001  3.987533e+001 
3525000000  -4.353574e+001  3.521152e+001 
3528125000  -4.354517e+001  4.411551e+001 
3531250000  -4.156313e+001  4.340269e+001 
3534375000  -4.201875e+001  3.123360e+001 
3537500000  -4.231926e+001  2.693313e+001 
3540625000  -4.343571e+001  2.659762e+001 
3543750000  -4.410787e+001  2.936570e+001 
3546875000  -4.398399e+001  4.089191e+001 
3550000000  -4.112390e+001  4.163316e+001 
3553125000  -3.965016e+001  2.281225e+001 
3556250000  -4.116983e+001  1.819117e+001 
3559375000  -4.119364e+001  1.832114e+001 
3562500000  -4.007095e+001  9.578415e+000 
3565625000  -4.085037e+001  2.227770e+000 
3568750000  -4.092283e+001  3.542808e+000 
3571875000  -4.100763e+001  2.326314e+000 
3575000000  -4.039000e+001  -4.769461e+000 
3578125000  -4.107416e+001  -1.158393e+001 
3581250000  -4.126044e+001  -1.227071e+001 
3584375000  -4.034322e+001  -1.425410e+001 
3587500000  -3.980924e+001  -2.307391e+001 
3590625000  -4.044692e+001  -3.397380e+001 
3593750000  -4.181526e+001  -3.642629e+001 
3596875000  -4.158413e+001  -3.100644e+001 
3600000000  -4.017047e+001  -3.652037e+001 
3603125000  -4.068996e+001  -4.997801e+001 
3606250000  -4.172073e+001  -5.387601e+001 
3609375000  -4.207089e+001  -5.623656e+001 
3612500000  -4.286545e+001  -6.111536e+001 
3615625000  -4.317818e+001  -6.428536e+001 
3618750000  -4.401223e+001  -6.100617e+001 
3621875000  -4.390725e+001  -6.487660e+001 
3625000000  -4.448755e+001  -6.663126e+001 
3628125000  -4.471887e+001  -6.482139e+001 
3631250000  -4.494162e+001  -7.243487e+001 
3634375000  -4.588058e+001  -7.037444e+001 
3637500000  -4.561961e+001  -6.465876e+001 
3640625000  -4.504803e+001  -6.566683e+001 
3643750000  -4.452954e+001  -6.897055e+001 
3646875000  -4.491126e+001  -7.539761e+001 
3650000000  -4.583786e+001  -7.449795e+001 
3653125000  -4.520590e+001  -7.609138e+001 
3656250000  -4.536877e+001  -7.675995e+001 
3659375000  -4.532373e+001  -7.146097e+001 
3662500000  -4.495122e+001  -7.581779e+001 
3665625000  -4.444706e+001  -7.508994e+001 
3668750000  -4.328485e+001  -7.311900e+001 
3671875000  -4.264091e+001  -8.353089e+001 
3675000000  -4.278957e+001  -9.048452e+001 
3678125000  -4.266639e+001  -9.232088e+001 
3681250000  -4.285394e+001  -9.461276e+001 
3684375000  -4.258612e+001  -9.886596e+001 
3687500000  -4.271107e+001  -1.021880e+002 
3690625000  -4.286515e+001  -1.071659e+002 
3693750000  -4.385199e+001  -1.086561e+002 
3696875000  -4.335426e+001  -1.080203e+002 
3700000000  -4.242118e+001  -1.129388e+002 
3703125000  -4.273542e+001  -1.184274e+002 
3706250000  -4.351637e+001  -1.200251e+002 
3709375000  -4.324015e+001  -1.147322e+002 
3712500000  -4.230214e+001  -1.218026e+002 
3715625000  -4.152652e+001  -1.283447e+002 
3718750000  -4.108019e+001  -1.341173e+002 
3721875000  -4.114444e+001  -1.394638e+002 
3725000000  -4.144633e+001  -1.450043e+002 
3728125000  -4.193670e+001  -1.465215e+002 
3731250000  -4.146532e+001  -1.485738e+002 
3734375000  -4.114418e+001  -1.571819e+002 
3737500000  -4.228848e+001  -1.641395e+002 
3740625000  -4.346384e+001  -1.679255e+002 
3743750000  -4.287218e+001  -1.710404e+002 
3746875000  -4.356429e+001  -1.725346e+002 
3750000000  -4.418380e+001  -1.718573e+002 
3753125000  -4.426415e+001  -1.716842e+002 
3756250000  -4.465120e+001  -1.687539e+002 
3759375000  -4.480925e+001  -1.711477e+002 
3762500000  -4.460270e+001  -1.715670e+002 
3765625000  -4.496170e+001  -1.721799e+002 
3768750000  -4.452473e+001  -1.705255e+002 
3771875000  -4.322082e+001  -1.704223e+002 
3775000000  -4.283138e+001  -1.765071e+002 
3778125000  -4.317041e+001  -1.762012e+002 
3781250000  -4.298928e+001  -1.799786e+002 
3784375000  -4.234717e+001  -1.800000e+002 
3787500000  -4.210665e+001  1.752546e+002 
3790625000  -4.216135e+001  1.702990e+002 
3793750000  -4.220989e+001  1.694678e+002 
3796875000  -4.111840e+001  1.669548e+002 
3800000000  -3.929358e+001  1.653223e+002 
3803125000  -4.027373e+001  1.551133e+002 
3806250000  -4.110020e+001  1.519174e+002 
3809375000  -4.044380e+001  1.493108e+002 
3812500000  -3.963130e+001  1.433669e+002 
3815625000  -4.044400e+001  1.338242e+002 
3818750000  -4.147757e+001  1.318832e+002 
3821875000  -4.121515e+001  1.408879e+002 
3825000000  -3.926480e+001  1.421329e+002 
3828125000  -3.772323e+001  1.266637e+002 
3831250000  -3.846281e+001  1.115297e+002 
3834375000  -4.023634e+001  1.076527e+002 
3837500000  -4.121612e+001  1.132266e+002 
3840625000  -3.982221e+001  1.104930e+002 
3843750000  -3.880346e+001  9.933818e+001 
3846875000  -3.984079e+001  9.167693e+001 
3850000000  -4.104341e+001  9.831441e+001 
3853125000  -4.027110e+001  9.973856e+001 
3856250000  -4.033451e+001  9.157858e+001 
3859375000  -3.959702e+001  8.731284e+001 
3862500000  -3.944410e+001  7.959492e+001 
3865625000  -3.992657e+001  7.479921e+001 
3868750000  -3.971560e+001  7.319258e+001 
3871875000  -3.951596e+001  7.228610e+001 
3875000000  -3.946840e+001  5.989521e+001 
3878125000  -4.086154e+001  5.947190e+001 
3881250000  -4.071318e+001  6.177400e+001 
3884375000  -4.052526e+001  5.760810e+001 
3887500000  -4.052216e+001  5.213766e+001 
3890625000  -4.100796e+001  4.900194e+001 
3893750000  -4.132052e+001  4.840245e+001 
3896875000  -4.211825e+001  5.004976e+001 
3900000000  -4.175409e+001  4.906134e+001 
3903125000  -4.162551e+001  4.741235e+001 
3906250000  -4.115541e+001  4.519398e+001 
3909375000  -4.026713e+001  4.131802e+001 
3912500000  -4.051127e+001  3.616205e+001 
3915625000  -4.129942e+001  3.597400e+001 
3918750000  -4.109068e+001  3.640093e+001 
3921875000  -4.074753e+001  3.266169e+001 
3925000000  -3.978447e+001  3.021362e+001 
3928125000  -3.933931e+001  2.415727e+001 
3931250000  -3.975427e+001  1.927139e+001 
3934375000  -3.971805e+001  1.736205e+001 
3937500000  -3.993619e+001  1.518525e+001 
3940625000  -4.031653e+001  1.444148e+001 
3943750000  -3.928080e+001  1.385430e+001 
3946875000  -3.813149e+001  6.694720e+000 
3950000000  -3.896143e+001  4.952835e-001 
3953125000  -3.990009e+001  -4.400186e+000 
3956250000  -3.873240e+001  1.679261e+000 
3959375000  -3.745213e+001  -5.675080e+000 
3962500000  -3.715667e+001  -9.948284e+000 
3965625000  -3.697372e+001  -2.133611e+001 
3968750000  -3.812881e+001  -2.742430e+001 
3971875000  -3.834729e+001  -3.183705e+001 
3975000000  -3.762207e+001  -3.294358e+001 
3978125000  -3.779461e+001  -3.640334e+001 
3981250000  -3.758303e+001  -4.162283e+001 
3984375000  -3.817978e+001  -4.857822e+001 
3987500000  -3.868865e+001  -5.177740e+001 
3990625000  -3.841140e+001  -5.256561e+001 
3993750000  -3.893558e+001  -5.707901e+001 
3996875000  -3.892405e+001  -5.995564e+001 
4000000000  -3.927236e+001  -6.258252e+001 
4003125000  -3.971629e+001  -6.145336e+001 
4006250000  -3.868877e+001  -6.360741e+001 
4009375000  -3.733094e+001  -7.636692e+001 
4012500000  -3.877890e+001  -8.161089e+001 
4015625000  -4.042906e+001  -8.059636e+001 
4018750000  -4.026703e+001  -7.934135e+001 
4021875000  -3.933409e+001  -8.170837e+001 
4025000000  -3.917386e+001  -8.618798e+001 
4028125000  -3.918253e+001  -8.918274e+001 
4031250000  -3.975669e+001  -9.386219e+001 
4034375000  -3.988094e+001  -9.345654e+001 
4037500000  -3.942797e+001  -9.197564e+001 
4040625000  -3.944111e+001  -9.370554e+001 
4043750000  -3.957450e+001  -9.846472e+001 
4046875000  -3.913446e+001  -9.602004e+001 
4050000000  -3.873734e+001  -1.035967e+002 
4053125000  -3.915315e+001  -1.067645e+002 
4056250000  -3.938825e+001  -1.007479e+002 
4059375000  -3.819632e+001  -1.002136e+002 
4062500000  -3.687532e+001  -1.068762e+002 
4065625000  -3.672117e+001  -1.130126e+002 
4068750000  -3.645881e+001  -1.191251e+002 
4071875000  -3.566660e+001  -1.273384e+002 
4075000000  -3.602220e+001  -1.341278e+002 
4078125000  -3.642897e+001  -1.356086e+002 
4081250000  -3.593916e+001  -1.408538e+002 
4084375000  -3.553765e+001  -1.473008e+002 
4087500000  -3.605692e+001  -1.547559e+002 
4090625000  -3.661286e+001  -1.559125e+002 
4093750000  -3.639344e+001  -1.580865e+002 
4096875000  -3.599842e+001  -1.653778e+002 
4100000000  -3.670076e+001  -1.714754e+002 
4103125000  -3.763432e+001  -1.732647e+002 
4106250000  -3.745818e+001  -1.691064e+002 
4109375000  -3.653067e+001  -1.698134e+002 
4112500000  -3.603625e+001  -1.777660e+002 
4115625000  -3.654047e+001  1.761689e+002 
4118750000  -3.668747e+001  1.720389e+002 
4121875000  -3.627817e+001  1.673082e+002 
4125000000  -3.665595e+001  1.597668e+002 
4128125000  -3.803049e+001  1.595029e+002 
4131250000  -3.741616e+001  1.685678e+002 
4134375000  -3.517389e+001  1.603119e+002 
4137500000  -3.514447e+001  1.412912e+002 
4140625000  -3.772548e+001  1.339467e+002 
4143750000  -3.896420e+001  1.389418e+002 
4146875000  -3.842908e+001  1.456431e+002 
4150000000  -3.754550e+001  1.399916e+002 
4153125000  -3.755889e+001  1.337456e+002 
4156250000  -3.875012e+001  1.319157e+002 
4159375000  -3.895594e+001  1.379381e+002 
4162500000  -3.785416e+001  1.390836e+002 
4165625000  -3.677827e+001  1.369090e+002 
4168750000  -3.609547e+001  1.277626e+002 
4171875000  -3.614415e+001  1.187080e+002 
4175000000  -3.692228e+001  1.127463e+002 
4178125000  -3.750194e+001  1.129988e+002 
4181250000  -3.715054e+001  1.108693e+002 
4184375000  -3.720021e+001  1.075645e+002 
4187500000  -3.725229e+001  1.060748e+002 
4190625000  -3.670425e+001  9.931634e+001 
4193750000  -3.775504e+001  9.699436e+001 
4196875000  -3.832984e+001  9.424422e+001 
4200000000  -3.890481e+001  9.681563e+001 
4203125000  -3.846512e+001  1.106469e+002 
4206250000  -3.547499e+001  1.090541e+002 
4209375000  -3.446938e+001  8.710903e+001 
4212500000  -3.616771e+001  7.799203e+001 
4215625000  -3.687477e+001  8.405347e+001 
4218750000  -3.536553e+001  9.014375e+001 
4221875000  -3.328190e+001  7.930303e+001 
4225000000  -3.467707e+001  6.780836e+001 
4228125000  -3.496738e+001  7.050601e+001 
4231250000  -3.357906e+001  6.438248e+001 
4234375000  -3.338944e+001  5.517796e+001 
4237500000  -3.267281e+001  5.141978e+001 
4240625000  -3.276751e+001  4.110725e+001 
4243750000  -3.395105e+001  3.163254e+001 
4246875000  -3.478126e+001  3.039697e+001 
4250000000  -3.468926e+001  3.337360e+001 
4253125000  -3.432931e+001  2.922802e+001 
4256250000  -3.469146e+001  2.421642e+001 
4259375000  -3.448704e+001  2.067357e+001 
4262500000  -3.454972e+001  1.653985e+001 
4265625000  -3.457228e+001  1.599869e+001 
4268750000  -3.379030e+001  1.005074e+001 
4271875000  -3.367601e+001  2.722290e+000 
4275000000  -3.325610e+001  -4.348230e+000 
4278125000  -3.404143e+001  -1.703660e+001 
4281250000  -3.600666e+001  -1.861598e+001 
4284375000  -3.572460e+001  -2.024300e+001 
4287500000  -3.678325e+001  -2.390678e+001 
4290625000  -3.822046e+001  -1.347172e+001 
4293750000  -3.610679e+001  -9.898625e+000 
4296875000  -3.487566e+001  -2.036051e+001 
4300000000  -3.608659e+001  -3.012349e+001 
4303125000  -3.717194e+001  -2.769313e+001 
4306250000  -3.638940e+001  -2.231792e+001 
4309375000  -3.509584e+001  -2.394266e+001 
4312500000  -3.500345e+001  -3.146777e+001 
4315625000  -3.524042e+001  -3.866239e+001 
4318750000  -3.566566e+001  -4.089884e+001 
4321875000  -3.559000e+001  -4.100261e+001 
4325000000  -3.516360e+001  -3.967595e+001 
4328125000  -3.440260e+001  -4.622895e+001 
4331250000  -3.423046e+001  -5.446315e+001 
4334375000  -3.466679e+001  -6.005966e+001 
4337500000  -3.532595e+001  -6.321601e+001 
4340625000  -3.592807e+001  -5.953348e+001 
4343750000  -3.500491e+001  -5.992629e+001 
4346875000  -3.442840e+001  -6.582733e+001 
4350000000  -3.450572e+001  -7.204258e+001 
4353125000  -3.447857e+001  -8.080795e+001 
4356250000  -3.634907e+001  -8.276737e+001 
4359375000  -3.629548e+001  -6.759283e+001 
4362500000  -3.329218e+001  -6.861268e+001 
4365625000  -3.173161e+001  -8.391284e+001 
4368750000  -3.259532e+001  -9.538999e+001 
4371875000  -3.373359e+001  -9.608086e+001 
4375000000  -3.300439e+001  -9.714778e+001 
4378125000  -3.254430e+001  -1.043793e+002 
4381250000  -3.262197e+001  -1.109353e+002 
4384375000  -3.252620e+001  -1.178301e+002 
4387500000  -3.333179e+001  -1.248121e+002 
4390625000  -3.425080e+001  -1.251991e+002 
4393750000  -3.361917e+001  -1.241561e+002 
4396875000  -3.291609e+001  -1.275264e+002 
4400000000  -3.253775e+001  -1.375224e+002 
4403125000  -3.326245e+001  -1.457247e+002 
4406250000  -3.406760e+001  -1.482594e+002 
4409375000  -3.432893e+001  -1.519109e+002 
4412500000  -3.532478e+001  -1.555393e+002 
4415625000  -3.565310e+001  -1.514311e+002 
