!Agilent Technologies,E8363B,MY43030201,A.06.04.32
!Agilent E8363B: A.06.04.32
!Date: Tuesday, November 11, 2014 21:13:33
!Correction: S21(Response(S21)) 
!S1P File: Measurement: S21:
# Hz S  dB   R 50
3000000000  -3.636853e+001  -6.170920e+001 
3003125000  -3.781370e+001  -6.802960e+001 
3006250000  -3.742057e+001  -6.973689e+001 
3009375000  -3.775912e+001  -6.485566e+001 
3012500000  -3.706087e+001  -6.762968e+001 
3015625000  -3.614118e+001  -7.393525e+001 
3018750000  -3.688238e+001  -7.521119e+001 
3021875000  -3.548861e+001  -7.490951e+001 
3025000000  -3.408272e+001  -7.862411e+001 
3028125000  -3.321794e+001  -8.501842e+001 
3031250000  -3.217074e+001  -9.636837e+001 
3034375000  -3.176316e+001  -1.099123e+002 
3037500000  -3.239290e+001  -1.211905e+002 
3040625000  -3.375057e+001  -1.266824e+002 
3043750000  -3.440162e+001  -1.315417e+002 
3046875000  -3.466449e+001  -1.371460e+002 
3050000000  -3.630594e+001  -1.426116e+002 
3053125000  -3.610693e+001  -1.363116e+002 
3056250000  -3.570039e+001  -1.341245e+002 
3059375000  -3.577733e+001  -1.343439e+002 
3062500000  -3.425686e+001  -1.374779e+002 
3065625000  -3.391696e+001  -1.435445e+002 
3068750000  -3.366934e+001  -1.504910e+002 
3071875000  -3.353905e+001  -1.529547e+002 
3075000000  -3.328862e+001  -1.570856e+002 
3078125000  -3.302184e+001  -1.613971e+002 
3081250000  -3.359900e+001  -1.653772e+002 
3084375000  -3.269247e+001  -1.688269e+002 
3087500000  -3.250504e+001  -1.728579e+002 
3090625000  -3.205191e+001  1.766888e+002 
3093750000  -3.249540e+001  1.691039e+002 
3096875000  -3.347448e+001  1.639509e+002 
3100000000  -3.335277e+001  1.618754e+002 
3103125000  -3.372491e+001  1.624647e+002 
3106250000  -3.308434e+001  1.580535e+002 
3109375000  -3.310024e+001  1.537919e+002 
3112500000  -3.313940e+001  1.508846e+002 
3115625000  -3.282830e+001  1.466601e+002 
3118750000  -3.317157e+001  1.469026e+002 
3121875000  -3.230420e+001  1.366862e+002 
3125000000  -3.366518e+001  1.328201e+002 
3128125000  -3.440580e+001  1.406913e+002 
3131250000  -3.199454e+001  1.381565e+002 
3134375000  -3.081960e+001  1.225694e+002 
3137500000  -3.135445e+001  1.086717e+002 
3140625000  -3.273483e+001  1.062592e+002 
3143750000  -3.376571e+001  1.073013e+002 
3146875000  -3.323736e+001  1.089068e+002 
3150000000  -3.224728e+001  1.085645e+002 
3153125000  -3.232660e+001  9.902069e+001 
3156250000  -3.342277e+001  1.041979e+002 
3159375000  -3.150062e+001  1.050174e+002 
3162500000  -2.971495e+001  9.065678e+001 
3165625000  -3.080482e+001  7.820551e+001 
3168750000  -3.106436e+001  7.873857e+001 
3171875000  -3.026807e+001  7.258000e+001 
3175000000  -3.103147e+001  6.402654e+001 
3178125000  -3.069367e+001  6.458073e+001 
3181250000  -2.966273e+001  5.920460e+001 
3184375000  -2.904578e+001  4.632779e+001 
3187500000  -3.028372e+001  3.147646e+001 
3190625000  -3.286723e+001  2.405724e+001 
3193750000  -3.345074e+001  3.273558e+001 
3196875000  -3.311826e+001  3.708749e+001 
3200000000  -3.213130e+001  3.434673e+001 
3203125000  -3.139399e+001  2.775395e+001 
3206250000  -3.177936e+001  2.086304e+001 
3209375000  -3.125886e+001  1.521111e+001 
3212500000  -3.154136e+001  8.512173e+000 
3215625000  -3.151613e+001  5.139225e+000 
3218750000  -3.235474e+001  -2.502075e+000 
3221875000  -3.314644e+001  -7.847415e+000 
3225000000  -3.265259e+001  -9.072186e+000 
3228125000  -3.316279e+001  -1.453643e+001 
3231250000  -3.374780e+001  -1.682043e+001 
3234375000  -3.345617e+001  -1.627690e+001 
3237500000  -3.350377e+001  -1.856174e+001 
3240625000  -3.302982e+001  -2.063407e+001 
3243750000  -3.261428e+001  -2.839710e+001 
3246875000  -3.305942e+001  -3.545715e+001 
3250000000  -3.345889e+001  -3.812524e+001 
3253125000  -3.357307e+001  -3.977838e+001 
3256250000  -3.315318e+001  -4.680302e+001 
3259375000  -3.348950e+001  -5.577759e+001 
3262500000  -3.453518e+001  -5.940714e+001 
3265625000  -3.529334e+001  -5.642544e+001 
3268750000  -3.501767e+001  -5.432199e+001 
3271875000  -3.466667e+001  -5.495034e+001 
3275000000  -3.366240e+001  -6.164129e+001 
3278125000  -3.413620e+001  -6.870684e+001 
3281250000  -3.444175e+001  -6.726915e+001 
3284375000  -3.376456e+001  -7.386646e+001 
3287500000  -3.401000e+001  -7.748627e+001 
3290625000  -3.419561e+001  -8.470104e+001 
3293750000  -3.403495e+001  -9.029082e+001 
3296875000  -3.504454e+001  -9.112614e+001 
3300000000  -3.469165e+001  -8.936775e+001 
3303125000  -3.361880e+001  -9.625049e+001 
3306250000  -3.343224e+001  -1.028580e+002 
3309375000  -3.318575e+001  -1.086569e+002 
3312500000  -3.335477e+001  -1.209696e+002 
3315625000  -3.430393e+001  -1.292285e+002 
3318750000  -3.576881e+001  -1.304349e+002 
3321875000  -3.699451e+001  -1.310528e+002 
3325000000  -3.727150e+001  -1.256936e+002 
3328125000  -3.666236e+001  -1.257574e+002 
3331250000  -3.559348e+001  -1.195056e+002 
3334375000  -3.293540e+001  -1.307930e+002 
3337500000  -3.324193e+001  -1.492869e+002 
3340625000  -3.459298e+001  -1.601936e+002 
3343750000  -3.646087e+001  -1.606987e+002 
3346875000  -3.666035e+001  -1.599953e+002 
3350000000  -3.607475e+001  -1.613880e+002 
3353125000  -3.606855e+001  -1.662680e+002 
3356250000  -3.577833e+001  -1.745074e+002 
3359375000  -3.651017e+001  1.775678e+002 
3362500000  -3.766374e+001  1.720606e+002 
3365625000  -3.793934e+001  1.714007e+002 
3368750000  -3.895205e+001  1.679089e+002 
3371875000  -3.923288e+001  1.667887e+002 
3375000000  -4.051953e+001  1.628994e+002 
3378125000  -4.156494e+001  1.633435e+002 
3381250000  -4.294043e+001  1.718777e+002 
3384375000  -4.122844e+001  -1.667649e+002 
3387500000  -3.746531e+001  1.778262e+002 
3390625000  -3.948795e+001  1.590712e+002 
3393750000  -4.056744e+001  1.624074e+002 
3396875000  -3.944397e+001  1.622232e+002 
3400000000  -3.873411e+001  1.535701e+002 
3403125000  -3.920093e+001  1.496921e+002 
3406250000  -3.963858e+001  1.489652e+002 
3409375000  -3.978978e+001  1.397688e+002 
3412500000  -4.013720e+001  1.378996e+002 
3415625000  -4.088968e+001  1.406435e+002 
3418750000  -4.115901e+001  1.429585e+002 
3421875000  -4.122154e+001  1.449390e+002 
3425000000  -4.030685e+001  1.441027e+002 
3428125000  -3.927017e+001  1.383792e+002 
3431250000  -3.933739e+001  1.324706e+002 
3434375000  -3.918052e+001  1.264639e+002 
3437500000  -3.963255e+001  1.229809e+002 
3440625000  -4.008915e+001  1.220948e+002 
3443750000  -3.868933e+001  1.248215e+002 
3446875000  -3.784396e+001  1.163762e+002 
3450000000  -3.774222e+001  1.070760e+002 
3453125000  -3.805215e+001  9.637147e+001 
3456250000  -3.938576e+001  8.882809e+001 
3459375000  -4.024930e+001  9.014926e+001 
3462500000  -4.003753e+001  9.094547e+001 
3465625000  -4.006675e+001  8.557684e+001 
3468750000  -4.035753e+001  8.173405e+001 
3471875000  -4.016467e+001  7.990454e+001 
3475000000  -3.998593e+001  7.564738e+001 
3478125000  -4.065031e+001  6.701030e+001 
3481250000  -4.164428e+001  6.494152e+001 
3484375000  -4.238231e+001  6.977345e+001 
3487500000  -4.167525e+001  6.960844e+001 
3490625000  -4.118763e+001  6.756171e+001 
3493750000  -4.185389e+001  5.761098e+001 
3496875000  -4.207778e+001  5.839967e+001 
3500000000  -4.283693e+001  6.135284e+001 
3503125000  -4.206073e+001  6.507875e+001 
3506250000  -4.098592e+001  5.910970e+001 
3509375000  -4.067426e+001  4.976246e+001 
3512500000  -4.103941e+001  4.240979e+001 
3515625000  -4.227519e+001  4.060633e+001 
3518750000  -4.251622e+001  4.236282e+001 
3521875000  -4.236373e+001  3.798974e+001 
3525000000  -4.322897e+001  3.471437e+001 
3528125000  -4.284295e+001  4.208025e+001 
3531250000  -4.159309e+001  3.950949e+001 
3534375000  -4.165977e+001  2.863558e+001 
3537500000  -4.212111e+001  2.194309e+001 
3540625000  -4.287535e+001  2.123215e+001 
3543750000  -4.340458e+001  2.739704e+001 
3546875000  -4.360113e+001  3.821662e+001 
3550000000  -4.052457e+001  3.579874e+001 
3553125000  -3.968604e+001  1.678543e+001 
3556250000  -4.085919e+001  9.672540e+000 
3559375000  -4.066701e+001  1.167085e+001 
3562500000  -3.978028e+001  2.908866e+000 
3565625000  -4.048717e+001  -5.420962e+000 
3568750000  -4.094812e+001  -3.403465e+000 
3571875000  -4.048508e+001  -5.574804e+000 
3575000000  -4.020171e+001  -1.238891e+001 
3578125000  -4.108702e+001  -1.908125e+001 
3581250000  -4.098664e+001  -1.801943e+001 
3584375000  -4.018367e+001  -2.391254e+001 
3587500000  -3.984759e+001  -3.260191e+001 
3590625000  -4.039211e+001  -4.184250e+001 
3593750000  -4.177946e+001  -4.351989e+001 
3596875000  -4.145548e+001  -3.817798e+001 
3600000000  -4.048474e+001  -4.424945e+001 
3603125000  -4.086172e+001  -5.990400e+001 
3606250000  -4.177462e+001  -6.002269e+001 
3609375000  -4.274283e+001  -6.360199e+001 
3612500000  -4.322581e+001  -6.782696e+001 
3615625000  -4.331320e+001  -6.934509e+001 
3618750000  -4.445443e+001  -6.832050e+001 
3621875000  -4.436329e+001  -7.093478e+001 
3625000000  -4.523503e+001  -6.817441e+001 
3628125000  -4.506581e+001  -6.850915e+001 
3631250000  -4.501518e+001  -7.509416e+001 
3634375000  -4.613176e+001  -7.516147e+001 
3637500000  -4.596332e+001  -6.737846e+001 
3640625000  -4.528992e+001  -6.377109e+001 
3643750000  -4.456135e+001  -6.869657e+001 
3646875000  -4.493336e+001  -7.471797e+001 
3650000000  -4.559048e+001  -7.579863e+001 
3653125000  -4.514601e+001  -7.434122e+001 
3656250000  -4.491962e+001  -7.623590e+001 
3659375000  -4.482464e+001  -7.482969e+001 
3662500000  -4.393148e+001  -7.788907e+001 
3665625000  -4.367599e+001  -7.883276e+001 
3668750000  -4.290304e+001  -7.937905e+001 
3671875000  -4.145763e+001  -8.629948e+001 
3675000000  -4.213326e+001  -9.604858e+001 
3678125000  -4.201818e+001  -9.684663e+001 
3681250000  -4.189605e+001  -1.010250e+002 
3684375000  -4.169112e+001  -1.064711e+002 
3687500000  -4.180624e+001  -1.115931e+002 
3690625000  -4.201904e+001  -1.158217e+002 
3693750000  -4.298450e+001  -1.178410e+002 
3696875000  -4.285670e+001  -1.145870e+002 
3700000000  -4.198915e+001  -1.217650e+002 
3703125000  -4.238016e+001  -1.295236e+002 
3706250000  -4.320765e+001  -1.297690e+002 
3709375000  -4.278244e+001  -1.260682e+002 
3712500000  -4.196977e+001  -1.285909e+002 
3715625000  -4.118238e+001  -1.373308e+002 
3718750000  -4.092013e+001  -1.433705e+002 
3721875000  -4.110806e+001  -1.505948e+002 
3725000000  -4.147402e+001  -1.559094e+002 
3728125000  -4.216811e+001  -1.559540e+002 
3731250000  -4.179325e+001  -1.611464e+002 
3734375000  -4.169468e+001  -1.649888e+002 
3737500000  -4.276197e+001  -1.722829e+002 
3740625000  -4.349798e+001  -1.731903e+002 
3743750000  -4.371292e+001  -1.772150e+002 
3746875000  -4.426242e+001  1.793814e+002 
3750000000  -4.475309e+001  -1.784760e+002 
3753125000  -4.495345e+001  -1.784040e+002 
3756250000  -4.532074e+001  -1.744760e+002 
3759375000  -4.553154e+001  -1.752127e+002 
3762500000  -4.482681e+001  -1.783959e+002 
3765625000  -4.542986e+001  -1.755840e+002 
3768750000  -4.524595e+001  -1.706576e+002 
3771875000  -4.343421e+001  -1.710475e+002 
3775000000  -4.277978e+001  1.796814e+002 
3778125000  -4.293702e+001  1.777229e+002 
3781250000  -4.290119e+001  1.759967e+002 
3784375000  -4.245363e+001  1.761018e+002 
3787500000  -4.143217e+001  1.712557e+002 
3790625000  -4.208925e+001  1.653996e+002 
3793750000  -4.208188e+001  1.659346e+002 
3796875000  -4.065524e+001  1.608207e+002 
3800000000  -3.890606e+001  1.591994e+002 
3803125000  -3.975638e+001  1.477252e+002 
3806250000  -4.054211e+001  1.439565e+002 
3809375000  -3.984734e+001  1.433761e+002 
3812500000  -3.917678e+001  1.352054e+002 
3815625000  -4.025421e+001  1.256605e+002 
3818750000  -4.105813e+001  1.262983e+002 
3821875000  -4.074778e+001  1.346062e+002 
3825000000  -3.893630e+001  1.351795e+002 
3828125000  -3.781484e+001  1.181328e+002 
3831250000  -3.820794e+001  1.023067e+002 
3834375000  -4.018161e+001  1.013461e+002 
3837500000  -4.088991e+001  1.056502e+002 
3840625000  -3.955446e+001  1.048637e+002 
3843750000  -3.858444e+001  9.193707e+001 
3846875000  -3.972165e+001  8.344149e+001 
3850000000  -4.115405e+001  9.032034e+001 
3853125000  -4.040818e+001  9.132111e+001 
3856250000  -3.999346e+001  8.548055e+001 
3859375000  -3.973920e+001  7.852390e+001 
3862500000  -3.982381e+001  7.040520e+001 
3865625000  -3.991676e+001  6.579629e+001 
3868750000  -3.997357e+001  6.629197e+001 
3871875000  -3.936976e+001  6.111812e+001 
3875000000  -3.974258e+001  5.266750e+001 
3878125000  -4.116690e+001  5.080601e+001 
3881250000  -4.104953e+001  5.543308e+001 
3884375000  -4.054464e+001  5.204337e+001 
3887500000  -4.094452e+001  4.601579e+001 
3890625000  -4.138043e+001  4.240681e+001 
3893750000  -4.163348e+001  4.414646e+001 
3896875000  -4.223013e+001  4.270955e+001 
3900000000  -4.206502e+001  4.333070e+001 
3903125000  -4.153302e+001  3.995818e+001 
3906250000  -4.117238e+001  4.135675e+001 
3909375000  -4.014382e+001  3.753121e+001 
3912500000  -3.998069e+001  2.773404e+001 
3915625000  -4.134612e+001  3.077212e+001 
3918750000  -4.119978e+001  3.055043e+001 
3921875000  -4.086120e+001  2.757729e+001 
3925000000  -3.973827e+001  2.607448e+001 
3928125000  -3.905108e+001  1.843252e+001 
3931250000  -3.939247e+001  1.279690e+001 
3934375000  -3.996702e+001  1.276888e+001 
3937500000  -3.981518e+001  9.738791e+000 
3940625000  -4.016686e+001  6.845005e+000 
3943750000  -3.887526e+001  7.992313e+000 
3946875000  -3.780422e+001  -2.424795e-002 
3950000000  -3.864935e+001  -7.815498e+000 
3953125000  -3.953053e+001  -9.529010e+000 
3956250000  -3.848605e+001  -8.151514e+000 
3959375000  -3.741122e+001  -1.188011e+001 
3962500000  -3.699775e+001  -1.793664e+001 
3965625000  -3.665921e+001  -2.827558e+001 
3968750000  -3.766891e+001  -3.617707e+001 
3971875000  -3.803793e+001  -3.874401e+001 
3975000000  -3.751055e+001  -4.132434e+001 
3978125000  -3.762667e+001  -4.655877e+001 
3981250000  -3.764913e+001  -5.178016e+001 
3984375000  -3.784283e+001  -5.737549e+001 
3987500000  -3.843598e+001  -5.993784e+001 
3990625000  -3.867030e+001  -6.216809e+001 
3993750000  -3.886784e+001  -6.758761e+001 
3996875000  -3.905714e+001  -7.067310e+001 
4000000000  -3.947998e+001  -7.232667e+001 
4003125000  -4.008879e+001  -6.989835e+001 
4006250000  -3.852051e+001  -7.164168e+001 
4009375000  -3.762717e+001  -8.389304e+001 
4012500000  -3.922462e+001  -8.965073e+001 
4015625000  -4.041685e+001  -8.827613e+001 
4018750000  -4.049553e+001  -8.960533e+001 
4021875000  -4.001261e+001  -8.969767e+001 
4025000000  -3.953685e+001  -9.473227e+001 
4028125000  -3.964231e+001  -9.805355e+001 
4031250000  -4.023611e+001  -1.009568e+002 
4034375000  -4.027341e+001  -1.007718e+002 
4037500000  -3.984969e+001  -9.756062e+001 
4040625000  -3.952923e+001  -9.925877e+001 
4043750000  -3.975150e+001  -1.027386e+002 
4046875000  -3.932409e+001  -1.027064e+002 
4050000000  -3.854115e+001  -1.092010e+002 
4053125000  -3.956039e+001  -1.103906e+002 
4056250000  -3.969079e+001  -1.069197e+002 
4059375000  -3.799397e+001  -1.048699e+002 
4062500000  -3.664054e+001  -1.137953e+002 
4065625000  -3.663415e+001  -1.164988e+002 
4068750000  -3.620362e+001  -1.240945e+002 
4071875000  -3.549551e+001  -1.312774e+002 
4075000000  -3.576469e+001  -1.393042e+002 
4078125000  -3.628106e+001  -1.419142e+002 
4081250000  -3.569567e+001  -1.461878e+002 
4084375000  -3.539675e+001  -1.538195e+002 
4087500000  -3.587627e+001  -1.616856e+002 
4090625000  -3.633904e+001  -1.628992e+002 
4093750000  -3.595553e+001  -1.653874e+002 
4096875000  -3.552522e+001  -1.721507e+002 
4100000000  -3.644687e+001  -1.792836e+002 
4103125000  -3.739786e+001  1.798591e+002 
4106250000  -3.722380e+001  -1.746717e+002 
4109375000  -3.609174e+001  -1.778279e+002 
4112500000  -3.593429e+001  1.724564e+002 
4115625000  -3.624685e+001  1.684203e+002 
4118750000  -3.642825e+001  1.640723e+002 
4121875000  -3.605370e+001  1.569955e+002 
4125000000  -3.669933e+001  1.513681e+002 
4128125000  -3.764705e+001  1.513179e+002 
4131250000  -3.750547e+001  1.582252e+002 
4134375000  -3.516661e+001  1.507480e+002 
4137500000  -3.529843e+001  1.325382e+002 
4140625000  -3.769551e+001  1.237951e+002 
4143750000  -3.908768e+001  1.295645e+002 
4146875000  -3.826661e+001  1.360991e+002 
4150000000  -3.782323e+001  1.311306e+002 
4153125000  -3.803904e+001  1.231871e+002 
4156250000  -3.919783e+001  1.216067e+002 
4159375000  -3.926542e+001  1.282798e+002 
4162500000  -3.821815e+001  1.321728e+002 
4165625000  -3.707203e+001  1.269899e+002 
4168750000  -3.647664e+001  1.196948e+002 
4171875000  -3.652577e+001  1.108304e+002 
4175000000  -3.727899e+001  1.063383e+002 
4178125000  -3.784892e+001  1.059939e+002 
4181250000  -3.747572e+001  1.063611e+002 
4184375000  -3.726591e+001  1.024825e+002 
4187500000  -3.716653e+001  9.850754e+001 
4190625000  -3.685530e+001  9.290563e+001 
4193750000  -3.764876e+001  9.023026e+001 
4196875000  -3.836027e+001  8.844884e+001 
4200000000  -3.936713e+001  9.040688e+001 
4203125000  -3.872242e+001  1.040057e+002 
4206250000  -3.539090e+001  1.039518e+002 
4209375000  -3.406166e+001  8.076357e+001 
4212500000  -3.605682e+001  7.174745e+001 
4215625000  -3.695987e+001  7.939642e+001 
4218750000  -3.517723e+001  8.401067e+001 
4221875000  -3.311297e+001  7.450043e+001 
4225000000  -3.442035e+001  6.033222e+001 
4228125000  -3.472694e+001  6.345520e+001 
4231250000  -3.305762e+001  5.760131e+001 
4234375000  -3.303215e+001  4.812534e+001 
4237500000  -3.256995e+001  4.371754e+001 
4240625000  -3.247385e+001  3.320600e+001 
4243750000  -3.374609e+001  2.532220e+001 
4246875000  -3.461103e+001  2.437489e+001 
4250000000  -3.473430e+001  2.542274e+001 
4253125000  -3.402554e+001  2.201689e+001 
4256250000  -3.436692e+001  1.520054e+001 
4259375000  -3.405481e+001  1.215688e+001 
4262500000  -3.452418e+001  6.790800e+000 
4265625000  -3.452893e+001  6.457199e+000 
4268750000  -3.358851e+001  3.537938e-001 
4271875000  -3.362249e+001  -7.609955e+000 
4275000000  -3.325187e+001  -1.592133e+001 
4278125000  -3.406834e+001  -2.827729e+001 
4281250000  -3.603070e+001  -2.987320e+001 
4284375000  -3.583127e+001  -2.928602e+001 
4287500000  -3.684169e+001  -3.329706e+001 
4290625000  -3.836483e+001  -2.444099e+001 
4293750000  -3.619088e+001  -2.021475e+001 
4296875000  -3.528267e+001  -3.038272e+001 
4300000000  -3.647303e+001  -3.925036e+001 
4303125000  -3.763407e+001  -3.755177e+001 
4306250000  -3.680777e+001  -3.206487e+001 
4309375000  -3.571333e+001  -3.331433e+001 
4312500000  -3.555918e+001  -3.951718e+001 
4315625000  -3.570837e+001  -4.622730e+001 
4318750000  -3.607291e+001  -4.810135e+001 
4321875000  -3.618705e+001  -4.766384e+001 
4325000000  -3.553912e+001  -4.718895e+001 
4328125000  -3.492290e+001  -5.296821e+001 
4331250000  -3.468987e+001  -6.136934e+001 
4334375000  -3.495330e+001  -6.633304e+001 
4337500000  -3.584304e+001  -6.827465e+001 
4340625000  -3.617094e+001  -6.511542e+001 
4343750000  -3.515671e+001  -6.617632e+001 
4346875000  -3.476471e+001  -7.184996e+001 
4350000000  -3.463573e+001  -7.822480e+001 
4353125000  -3.466127e+001  -8.613621e+001 
4356250000  -3.645013e+001  -8.653077e+001 
4359375000  -3.637636e+001  -7.391888e+001 
4362500000  -3.328019e+001  -7.431883e+001 
4365625000  -3.164567e+001  -8.959448e+001 
4368750000  -3.240236e+001  -1.024397e+002 
4371875000  -3.383969e+001  -1.023757e+002 
4375000000  -3.304803e+001  -1.040247e+002 
4378125000  -3.244361e+001  -1.109881e+002 
4381250000  -3.255068e+001  -1.179994e+002 
4384375000  -3.235687e+001  -1.253797e+002 
4387500000  -3.340970e+001  -1.317488e+002 
4390625000  -3.416405e+001  -1.322420e+002 
4393750000  -3.343074e+001  -1.323212e+002 
4396875000  -3.282762e+001  -1.364961e+002 
4400000000  -3.236608e+001  -1.458722e+002 
4403125000  -3.306050e+001  -1.548643e+002 
4406250000  -3.413512e+001  -1.575535e+002 
4409375000  -3.429264e+001  -1.612436e+002 
4412500000  -3.545720e+001  -1.657803e+002 
4415625000  -3.562008e+001  -1.599364e+002 
