!Agilent Technologies,E8363B,MY43030201,A.06.04.32
!Agilent E8363B: A.06.04.32
!Date: Tuesday, November 11, 2014 21:07:06
!Correction: S21(Response(S21)) 
!S1P File: Measurement: S21:
# Hz S  dB   R 50
3000000000  -3.638969e+001  -5.171029e+001 
3003125000  -3.754653e+001  -5.674792e+001 
3006250000  -3.736730e+001  -6.023377e+001 
3009375000  -3.769972e+001  -5.543083e+001 
3012500000  -3.698589e+001  -5.726247e+001 
3015625000  -3.615710e+001  -6.451006e+001 
3018750000  -3.686033e+001  -6.577332e+001 
3021875000  -3.547816e+001  -6.490071e+001 
3025000000  -3.416306e+001  -6.888216e+001 
3028125000  -3.318587e+001  -7.391611e+001 
3031250000  -3.217006e+001  -8.662362e+001 
3034375000  -3.186249e+001  -9.991866e+001 
3037500000  -3.228592e+001  -1.115071e+002 
3040625000  -3.357119e+001  -1.159617e+002 
3043750000  -3.433760e+001  -1.214403e+002 
3046875000  -3.445079e+001  -1.278109e+002 
3050000000  -3.607053e+001  -1.338995e+002 
3053125000  -3.617739e+001  -1.270945e+002 
3056250000  -3.556113e+001  -1.244613e+002 
3059375000  -3.554741e+001  -1.259551e+002 
3062500000  -3.416750e+001  -1.284392e+002 
3065625000  -3.398470e+001  -1.344278e+002 
3068750000  -3.359638e+001  -1.410336e+002 
3071875000  -3.356376e+001  -1.442634e+002 
3075000000  -3.333321e+001  -1.481251e+002 
3078125000  -3.308330e+001  -1.521654e+002 
3081250000  -3.359164e+001  -1.565547e+002 
3084375000  -3.270264e+001  -1.600648e+002 
3087500000  -3.243714e+001  -1.636024e+002 
3090625000  -3.200478e+001  -1.738827e+002 
3093750000  -3.239531e+001  1.784123e+002 
3096875000  -3.346071e+001  1.727751e+002 
3100000000  -3.338389e+001  1.709047e+002 
3103125000  -3.363547e+001  1.709540e+002 
3106250000  -3.310386e+001  1.672528e+002 
3109375000  -3.323454e+001  1.634134e+002 
3112500000  -3.323967e+001  1.609704e+002 
3115625000  -3.282640e+001  1.559066e+002 
3118750000  -3.319733e+001  1.560807e+002 
3121875000  -3.225001e+001  1.467054e+002 
3125000000  -3.353618e+001  1.425131e+002 
3128125000  -3.443525e+001  1.496138e+002 
3131250000  -3.207731e+001  1.480824e+002 
3134375000  -3.074937e+001  1.324337e+002 
3137500000  -3.124025e+001  1.182915e+002 
3140625000  -3.275198e+001  1.152293e+002 
3143750000  -3.382328e+001  1.170702e+002 
3146875000  -3.330483e+001  1.182216e+002 
3150000000  -3.224346e+001  1.183182e+002 
3153125000  -3.235252e+001  1.090773e+002 
3156250000  -3.335707e+001  1.136169e+002 
3159375000  -3.159207e+001  1.151384e+002 
3162500000  -2.968763e+001  1.008236e+002 
3165625000  -3.071655e+001  8.852214e+001 
3168750000  -3.104920e+001  8.824283e+001 
3171875000  -3.017190e+001  8.291300e+001 
3175000000  -3.091677e+001  7.414891e+001 
3178125000  -3.061702e+001  7.490585e+001 
3181250000  -2.954924e+001  6.937903e+001 
3184375000  -2.893607e+001  5.646738e+001 
3187500000  -3.012071e+001  4.121686e+001 
3190625000  -3.282111e+001  3.388946e+001 
3193750000  -3.332579e+001  4.195680e+001 
3196875000  -3.300000e+001  4.630766e+001 
3200000000  -3.214571e+001  4.386990e+001 
3203125000  -3.127467e+001  3.748883e+001 
3206250000  -3.165320e+001  3.031918e+001 
3209375000  -3.113325e+001  2.540826e+001 
3212500000  -3.138420e+001  1.781190e+001 
3215625000  -3.143630e+001  1.483465e+001 
3218750000  -3.213343e+001  6.916140e+000 
3221875000  -3.300594e+001  1.415210e+000 
3225000000  -3.264144e+001  2.754903e-001 
3228125000  -3.302470e+001  -5.089594e+000 
3231250000  -3.370831e+001  -7.535807e+000 
3234375000  -3.342039e+001  -6.837956e+000 
3237500000  -3.343076e+001  -8.822098e+000 
3240625000  -3.301711e+001  -1.144285e+001 
3243750000  -3.257336e+001  -1.926923e+001 
3246875000  -3.299739e+001  -2.703039e+001 
3250000000  -3.335760e+001  -2.823284e+001 
3253125000  -3.353021e+001  -3.090739e+001 
3256250000  -3.327008e+001  -3.800245e+001 
3259375000  -3.348554e+001  -4.617877e+001 
3262500000  -3.466182e+001  -4.972048e+001 
3265625000  -3.528737e+001  -4.710133e+001 
3268750000  -3.507891e+001  -4.507786e+001 
3271875000  -3.473202e+001  -4.537103e+001 
3275000000  -3.370582e+001  -5.211089e+001 
3278125000  -3.422737e+001  -5.870162e+001 
3281250000  -3.431940e+001  -5.801168e+001 
3284375000  -3.382607e+001  -6.449572e+001 
3287500000  -3.402449e+001  -6.866097e+001 
3290625000  -3.433389e+001  -7.392928e+001 
3293750000  -3.399757e+001  -7.983978e+001 
3296875000  -3.515491e+001  -8.078301e+001 
3300000000  -3.482583e+001  -8.012364e+001 
3303125000  -3.369282e+001  -8.541773e+001 
3306250000  -3.344865e+001  -9.241677e+001 
3309375000  -3.320663e+001  -9.970126e+001 
3312500000  -3.339120e+001  -1.100243e+002 
3315625000  -3.435229e+001  -1.184309e+002 
3318750000  -3.581272e+001  -1.202582e+002 
3321875000  -3.689901e+001  -1.209558e+002 
3325000000  -3.746048e+001  -1.158891e+002 
3328125000  -3.684704e+001  -1.158852e+002 
3331250000  -3.563857e+001  -1.085262e+002 
3334375000  -3.302681e+001  -1.189711e+002 
3337500000  -3.307652e+001  -1.389453e+002 
3340625000  -3.447919e+001  -1.496138e+002 
3343750000  -3.652507e+001  -1.511939e+002 
3346875000  -3.662161e+001  -1.492677e+002 
3350000000  -3.598973e+001  -1.510621e+002 
3353125000  -3.595020e+001  -1.555033e+002 
3356250000  -3.557544e+001  -1.641072e+002 
3359375000  -3.630798e+001  -1.727246e+002 
3362500000  -3.746257e+001  -1.782139e+002 
3365625000  -3.789235e+001  -1.784853e+002 
3368750000  -3.873105e+001  1.776538e+002 
3371875000  -3.890740e+001  1.756553e+002 
3375000000  -4.017620e+001  1.747551e+002 
3378125000  -4.116793e+001  1.742192e+002 
3381250000  -4.225278e+001  -1.764363e+002 
3384375000  -4.105727e+001  -1.564638e+002 
3387500000  -3.748311e+001  -1.748148e+002 
3390625000  -3.917250e+001  1.679939e+002 
3393750000  -4.041964e+001  1.718306e+002 
3396875000  -3.917463e+001  1.729750e+002 
3400000000  -3.869817e+001  1.646108e+002 
3403125000  -3.918877e+001  1.584263e+002 
3406250000  -3.979851e+001  1.586503e+002 
3409375000  -3.966360e+001  1.505733e+002 
3412500000  -4.018600e+001  1.486817e+002 
3415625000  -4.092958e+001  1.499924e+002 
3418750000  -4.115841e+001  1.499888e+002 
3421875000  -4.153733e+001  1.532983e+002 
3425000000  -4.026373e+001  1.522618e+002 
3428125000  -3.943585e+001  1.486482e+002 
3431250000  -3.914803e+001  1.420086e+002 
3434375000  -3.925225e+001  1.362317e+002 
3437500000  -3.965577e+001  1.320623e+002 
3440625000  -4.004099e+001  1.345242e+002 
3443750000  -3.864695e+001  1.353181e+002 
3446875000  -3.788055e+001  1.271321e+002 
3450000000  -3.772324e+001  1.162408e+002 
3453125000  -3.821483e+001  1.065007e+002 
3456250000  -3.919981e+001  1.005212e+002 
3459375000  -4.016047e+001  1.020235e+002 
3462500000  -4.006816e+001  1.020631e+002 
3465625000  -4.002458e+001  9.541168e+001 
3468750000  -4.019769e+001  9.140112e+001 
3471875000  -4.030426e+001  8.966797e+001 
3475000000  -3.957758e+001  8.690260e+001 
3478125000  -4.018813e+001  7.712991e+001 
3481250000  -4.125492e+001  7.589521e+001 
3484375000  -4.234749e+001  7.984722e+001 
3487500000  -4.136268e+001  7.842213e+001 
3490625000  -4.060717e+001  7.533689e+001 
3493750000  -4.117436e+001  6.780468e+001 
3496875000  -4.197678e+001  6.517290e+001 
3500000000  -4.248528e+001  6.991164e+001 
3503125000  -4.206174e+001  7.035674e+001 
3506250000  -4.071508e+001  6.712629e+001 
3509375000  -4.087515e+001  5.760335e+001 
3512500000  -4.118474e+001  4.827649e+001 
3515625000  -4.203600e+001  4.744297e+001 
3518750000  -4.234658e+001  4.580037e+001 
3521875000  -4.225929e+001  4.587992e+001 
3525000000  -4.356703e+001  3.997907e+001 
3528125000  -4.337838e+001  4.956269e+001 
3531250000  -4.190249e+001  4.760656e+001 
3534375000  -4.200705e+001  3.589060e+001 
3537500000  -4.238787e+001  3.067179e+001 
3540625000  -4.345812e+001  2.913970e+001 
3543750000  -4.426609e+001  3.518505e+001 
3546875000  -4.376526e+001  4.585037e+001 
3550000000  -4.147298e+001  4.724165e+001 
3553125000  -4.000031e+001  2.717624e+001 
3556250000  -4.147759e+001  2.163218e+001 
3559375000  -4.117750e+001  2.151070e+001 
3562500000  -4.036884e+001  1.579680e+001 
3565625000  -4.102497e+001  7.048300e+000 
3568750000  -4.125549e+001  8.449944e+000 
3571875000  -4.099052e+001  8.517451e+000 
3575000000  -4.070181e+001  -2.653501e-001 
3578125000  -4.119493e+001  -6.573598e+000 
3581250000  -4.135574e+001  -5.527982e+000 
3584375000  -4.030975e+001  -8.089495e+000 
3587500000  -3.981912e+001  -1.728488e+001 
3590625000  -4.049746e+001  -2.724923e+001 
3593750000  -4.187394e+001  -2.963455e+001 
3596875000  -4.182314e+001  -2.402673e+001 
3600000000  -4.043800e+001  -2.990888e+001 
3603125000  -4.081358e+001  -4.574089e+001 
3606250000  -4.169064e+001  -4.927230e+001 
3609375000  -4.222213e+001  -5.119781e+001 
3612500000  -4.295646e+001  -5.341551e+001 
3615625000  -4.312448e+001  -5.756707e+001 
3618750000  -4.379544e+001  -5.692361e+001 
3621875000  -4.374892e+001  -6.124522e+001 
3625000000  -4.419687e+001  -6.011738e+001 
3628125000  -4.434933e+001  -6.235798e+001 
3631250000  -4.411536e+001  -6.670407e+001 
3634375000  -4.575320e+001  -6.672785e+001 
3637500000  -4.537613e+001  -6.247213e+001 
3640625000  -4.514980e+001  -5.771037e+001 
3643750000  -4.432503e+001  -6.359762e+001 
3646875000  -4.500340e+001  -7.064339e+001 
3650000000  -4.607593e+001  -7.271942e+001 
3653125000  -4.526598e+001  -7.030448e+001 
3656250000  -4.567722e+001  -7.328191e+001 
3659375000  -4.586449e+001  -6.868724e+001 
3662500000  -4.494171e+001  -7.022511e+001 
3665625000  -4.462830e+001  -6.892340e+001 
3668750000  -4.352209e+001  -7.024892e+001 
3671875000  -4.284665e+001  -7.887305e+001 
3675000000  -4.293872e+001  -8.164004e+001 
3678125000  -4.290387e+001  -8.692023e+001 
3681250000  -4.265712e+001  -8.784489e+001 
3684375000  -4.249314e+001  -9.250256e+001 
3687500000  -4.278065e+001  -9.804291e+001 
3690625000  -4.256321e+001  -1.015491e+002 
3693750000  -4.398833e+001  -1.015176e+002 
3696875000  -4.366486e+001  -1.001570e+002 
3700000000  -4.252884e+001  -1.059753e+002 
3703125000  -4.285455e+001  -1.133229e+002 
3706250000  -4.416508e+001  -1.121183e+002 
3709375000  -4.313066e+001  -1.123159e+002 
3712500000  -4.206245e+001  -1.134649e+002 
3715625000  -4.128635e+001  -1.212444e+002 
3718750000  -4.126992e+001  -1.261154e+002 
3721875000  -4.106027e+001  -1.339126e+002 
3725000000  -4.163246e+001  -1.393609e+002 
3728125000  -4.240102e+001  -1.405901e+002 
3731250000  -4.164156e+001  -1.433261e+002 
3734375000  -4.126043e+001  -1.493679e+002 
3737500000  -4.203373e+001  -1.570563e+002 
3740625000  -4.309806e+001  -1.609896e+002 
3743750000  -4.327086e+001  -1.623788e+002 
3746875000  -4.380380e+001  -1.665474e+002 
3750000000  -4.425847e+001  -1.652186e+002 
3753125000  -4.417936e+001  -1.660340e+002 
3756250000  -4.451383e+001  -1.648284e+002 
3759375000  -4.428784e+001  -1.641012e+002 
3762500000  -4.458011e+001  -1.673850e+002 
3765625000  -4.485468e+001  -1.672621e+002 
3768750000  -4.458579e+001  -1.619933e+002 
3771875000  -4.320088e+001  -1.656382e+002 
3775000000  -4.302621e+001  -1.723604e+002 
3778125000  -4.339449e+001  -1.727360e+002 
3781250000  -4.296465e+001  -1.751305e+002 
3784375000  -4.258577e+001  -1.744045e+002 
3787500000  -4.177131e+001  -1.785389e+002 
3790625000  -4.240085e+001  1.727651e+002 
3793750000  -4.240409e+001  1.735562e+002 
3796875000  -4.095222e+001  1.710109e+002 
3800000000  -3.974435e+001  1.707298e+002 
3803125000  -4.014666e+001  1.602821e+002 
3806250000  -4.069979e+001  1.571393e+002 
3809375000  -4.048820e+001  1.550691e+002 
3812500000  -3.962799e+001  1.482050e+002 
3815625000  -4.038302e+001  1.385479e+002 
3818750000  -4.116965e+001  1.382679e+002 
3821875000  -4.104087e+001  1.442305e+002 
3825000000  -3.921944e+001  1.492407e+002 
3828125000  -3.777109e+001  1.296142e+002 
3831250000  -3.842404e+001  1.177255e+002 
3834375000  -4.015932e+001  1.166163e+002 
3837500000  -4.116076e+001  1.184384e+002 
3840625000  -3.995035e+001  1.174224e+002 
3843750000  -3.872791e+001  1.058913e+002 
3846875000  -3.977634e+001  1.003174e+002 
3850000000  -4.116187e+001  1.026881e+002 
3853125000  -4.016690e+001  1.060809e+002 
3856250000  -4.020806e+001  9.912522e+001 
3859375000  -3.967931e+001  9.441370e+001 
3862500000  -3.945175e+001  8.688974e+001 
3865625000  -3.964597e+001  8.071300e+001 
3868750000  -3.991919e+001  7.968783e+001 
3871875000  -3.913190e+001  7.621735e+001 
3875000000  -3.953173e+001  6.686651e+001 
3878125000  -4.056144e+001  6.527197e+001 
3881250000  -4.083130e+001  6.709445e+001 
3884375000  -4.021496e+001  6.406848e+001 
3887500000  -4.043421e+001  5.882283e+001 
3890625000  -4.074011e+001  5.511572e+001 
3893750000  -4.123234e+001  5.303855e+001 
3896875000  -4.170652e+001  5.554926e+001 
3900000000  -4.161482e+001  5.349051e+001 
3903125000  -4.133620e+001  5.288879e+001 
3906250000  -4.090351e+001  4.995379e+001 
3909375000  -4.037764e+001  4.579887e+001 
3912500000  -4.032677e+001  3.767161e+001 
3915625000  -4.145647e+001  4.141203e+001 
3918750000  -4.104745e+001  4.151287e+001 
3921875000  -4.064684e+001  3.704033e+001 
3925000000  -3.971632e+001  3.599641e+001 
3928125000  -3.908382e+001  2.805241e+001 
3931250000  -3.951933e+001  2.332360e+001 
3934375000  -3.983764e+001  2.265433e+001 
3937500000  -4.001728e+001  2.145599e+001 
3940625000  -4.042231e+001  1.859132e+001 
3943750000  -3.921522e+001  1.856530e+001 
3946875000  -3.812125e+001  1.233465e+001 
3950000000  -3.874342e+001  3.737669e+000 
3953125000  -3.981878e+001  2.245130e+000 
3956250000  -3.911173e+001  3.304548e+000 
3959375000  -3.774499e+001  1.875513e+000 
3962500000  -3.716552e+001  -3.089743e+000 
3965625000  -3.719107e+001  -1.502311e+001 
3968750000  -3.808068e+001  -2.277182e+001 
3971875000  -3.831403e+001  -2.602893e+001 
3975000000  -3.777430e+001  -2.647531e+001 
3978125000  -3.772476e+001  -3.116230e+001 
3981250000  -3.772255e+001  -3.571844e+001 
3984375000  -3.792689e+001  -4.222133e+001 
3987500000  -3.846998e+001  -4.559832e+001 
3990625000  -3.876982e+001  -4.560387e+001 
3993750000  -3.901348e+001  -5.237326e+001 
3996875000  -3.880223e+001  -5.571633e+001 
4000000000  -3.937611e+001  -5.752403e+001 
4003125000  -3.959607e+001  -5.545744e+001 
4006250000  -3.837708e+001  -5.574725e+001 
4009375000  -3.743034e+001  -6.946484e+001 
4012500000  -3.867627e+001  -7.472662e+001 
4015625000  -4.002033e+001  -7.333501e+001 
4018750000  -3.987279e+001  -7.224812e+001 
4021875000  -3.940827e+001  -7.481802e+001 
4025000000  -3.906195e+001  -8.041664e+001 
4028125000  -3.932071e+001  -8.365969e+001 
4031250000  -3.962373e+001  -8.771850e+001 
4034375000  -4.001308e+001  -8.949820e+001 
4037500000  -3.921355e+001  -8.744035e+001 
4040625000  -3.935607e+001  -8.984740e+001 
4043750000  -3.943167e+001  -9.131488e+001 
4046875000  -3.898927e+001  -9.252551e+001 
4050000000  -3.836462e+001  -9.918116e+001 
4053125000  -3.920150e+001  -1.000893e+002 
4056250000  -3.934642e+001  -9.656355e+001 
4059375000  -3.797278e+001  -9.724896e+001 
4062500000  -3.672848e+001  -1.025892e+002 
4065625000  -3.663242e+001  -1.076686e+002 
4068750000  -3.633844e+001  -1.137056e+002 
4071875000  -3.558667e+001  -1.227788e+002 
4075000000  -3.596214e+001  -1.298099e+002 
4078125000  -3.652583e+001  -1.301774e+002 
4081250000  -3.600347e+001  -1.342276e+002 
4084375000  -3.559659e+001  -1.426758e+002 
4087500000  -3.588535e+001  -1.491134e+002 
4090625000  -3.674597e+001  -1.499341e+002 
4093750000  -3.647495e+001  -1.530874e+002 
4096875000  -3.587224e+001  -1.593840e+002 
4100000000  -3.674317e+001  -1.667823e+002 
4103125000  -3.748887e+001  -1.674840e+002 
4106250000  -3.772980e+001  -1.625512e+002 
4109375000  -3.668356e+001  -1.641725e+002 
4112500000  -3.604056e+001  -1.729840e+002 
4115625000  -3.638433e+001  -1.779130e+002 
4118750000  -3.659305e+001  1.777087e+002 
4121875000  -3.609150e+001  1.723255e+002 
4125000000  -3.676724e+001  1.663478e+002 
4128125000  -3.777590e+001  1.661357e+002 
4131250000  -3.763174e+001  1.751123e+002 
4134375000  -3.522924e+001  1.673277e+002 
4137500000  -3.529316e+001  1.475287e+002 
4140625000  -3.736414e+001  1.401195e+002 
4143750000  -3.878266e+001  1.441454e+002 
4146875000  -3.829373e+001  1.506971e+002 
4150000000  -3.754961e+001  1.481901e+002 
4153125000  -3.750024e+001  1.399509e+002 
4156250000  -3.848068e+001  1.362763e+002 
4159375000  -3.902662e+001  1.410386e+002 
4162500000  -3.760735e+001  1.463447e+002 
4165625000  -3.656821e+001  1.414705e+002 
4168750000  -3.611058e+001  1.329588e+002 
4171875000  -3.609199e+001  1.226639e+002 
4175000000  -3.680127e+001  1.182918e+002 
4178125000  -3.725598e+001  1.184720e+002 
4181250000  -3.684241e+001  1.168366e+002 
4184375000  -3.689336e+001  1.133371e+002 
4187500000  -3.699724e+001  1.112901e+002 
4190625000  -3.651020e+001  1.043747e+002 
4193750000  -3.746383e+001  9.948340e+001 
4196875000  -3.800633e+001  9.812651e+001 
4200000000  -3.923884e+001  9.956853e+001 
4203125000  -3.858903e+001  1.135714e+002 
4206250000  -3.519158e+001  1.130644e+002 
4209375000  -3.417128e+001  9.303444e+001 
4212500000  -3.619271e+001  8.434247e+001 
4215625000  -3.701789e+001  8.926466e+001 
4218750000  -3.546572e+001  9.455360e+001 
4221875000  -3.321935e+001  8.502192e+001 
4225000000  -3.458616e+001  7.047601e+001 
4228125000  -3.504625e+001  7.475865e+001 
4231250000  -3.351797e+001  6.988737e+001 
4234375000  -3.336948e+001  6.050138e+001 
4237500000  -3.301252e+001  5.682896e+001 
4240625000  -3.297993e+001  4.605947e+001 
4243750000  -3.390791e+001  3.840253e+001 
4246875000  -3.487666e+001  3.738289e+001 
4250000000  -3.492522e+001  3.870487e+001 
4253125000  -3.435046e+001  3.468262e+001 
4256250000  -3.477526e+001  3.046025e+001 
4259375000  -3.445765e+001  2.582921e+001 
4262500000  -3.464531e+001  2.232189e+001 
4265625000  -3.477100e+001  2.208690e+001 
4268750000  -3.382963e+001  1.552149e+001 
4271875000  -3.371620e+001  8.637127e+000 
4275000000  -3.335028e+001  7.716134e-001 
4278125000  -3.418609e+001  -1.044205e+001 
4281250000  -3.587916e+001  -1.244549e+001 
4284375000  -3.563903e+001  -1.337619e+001 
4287500000  -3.678214e+001  -1.762040e+001 
4290625000  -3.813035e+001  -6.932807e+000 
4293750000  -3.620161e+001  -4.068035e+000 
4296875000  -3.483613e+001  -1.325236e+001 
4300000000  -3.582980e+001  -2.215385e+001 
4303125000  -3.722173e+001  -2.111535e+001 
4306250000  -3.660079e+001  -1.568050e+001 
4309375000  -3.520084e+001  -1.752265e+001 
4312500000  -3.488029e+001  -2.622858e+001 
4315625000  -3.515904e+001  -3.280958e+001 
4318750000  -3.542249e+001  -3.549173e+001 
4321875000  -3.572926e+001  -3.507594e+001 
4325000000  -3.487921e+001  -3.428667e+001 
4328125000  -3.442885e+001  -4.110420e+001 
4331250000  -3.409381e+001  -4.957966e+001 
4334375000  -3.453164e+001  -5.545814e+001 
4337500000  -3.542353e+001  -5.746195e+001 
4340625000  -3.581956e+001  -5.439453e+001 
4343750000  -3.499543e+001  -5.536629e+001 
4346875000  -3.445285e+001  -6.185012e+001 
4350000000  -3.446441e+001  -6.724633e+001 
4353125000  -3.432109e+001  -7.532537e+001 
4356250000  -3.624556e+001  -7.643667e+001 
4359375000  -3.669372e+001  -6.467306e+001 
4362500000  -3.345766e+001  -6.425668e+001 
4365625000  -3.215051e+001  -7.749920e+001 
4368750000  -3.284060e+001  -8.980591e+001 
4371875000  -3.382330e+001  -9.183167e+001 
4375000000  -3.341493e+001  -9.228261e+001 
4378125000  -3.270780e+001  -9.736248e+001 
4381250000  -3.296596e+001  -1.057066e+002 
4384375000  -3.263795e+001  -1.116213e+002 
4387500000  -3.355803e+001  -1.193975e+002 
4390625000  -3.446117e+001  -1.187834e+002 
4393750000  -3.394677e+001  -1.185811e+002 
4396875000  -3.327641e+001  -1.224605e+002 
4400000000  -3.268687e+001  -1.306641e+002 
4403125000  -3.357612e+001  -1.398066e+002 
4406250000  -3.424754e+001  -1.425402e+002 
4409375000  -3.443814e+001  -1.460334e+002 
4412500000  -3.578078e+001  -1.483713e+002 
4415625000  -3.603118e+001  -1.439727e+002 
