!Agilent Technologies,E8363B,MY43030201,A.06.04.32
!Agilent E8363B: A.06.04.32
!Date: Tuesday, November 11, 2014 21:08:49
!Correction: S21(Response(S21)) 
!S1P File: Measurement: S21:
# Hz S  dB   R 50
3000000000  -3.644397e+001  -5.379862e+001 
3003125000  -3.760583e+001  -5.988388e+001 
3006250000  -3.748920e+001  -6.256023e+001 
3009375000  -3.786863e+001  -5.844551e+001 
3012500000  -3.704479e+001  -6.081760e+001 
3015625000  -3.605182e+001  -6.721850e+001 
3018750000  -3.681770e+001  -6.823022e+001 
3021875000  -3.550544e+001  -6.794062e+001 
3025000000  -3.415544e+001  -7.075356e+001 
3028125000  -3.319398e+001  -7.784636e+001 
3031250000  -3.219804e+001  -8.937591e+001 
3034375000  -3.183964e+001  -1.028340e+002 
3037500000  -3.237298e+001  -1.143648e+002 
3040625000  -3.357911e+001  -1.193354e+002 
3043750000  -3.430987e+001  -1.245781e+002 
3046875000  -3.451748e+001  -1.305122e+002 
3050000000  -3.628534e+001  -1.365051e+002 
3053125000  -3.610141e+001  -1.308069e+002 
3056250000  -3.565035e+001  -1.275686e+002 
3059375000  -3.564903e+001  -1.275525e+002 
3062500000  -3.406217e+001  -1.310275e+002 
3065625000  -3.399190e+001  -1.376099e+002 
3068750000  -3.361801e+001  -1.444632e+002 
3071875000  -3.349809e+001  -1.464314e+002 
3075000000  -3.334051e+001  -1.508078e+002 
3078125000  -3.315512e+001  -1.548637e+002 
3081250000  -3.349703e+001  -1.594320e+002 
3084375000  -3.261429e+001  -1.630588e+002 
3087500000  -3.247114e+001  -1.669958e+002 
3090625000  -3.204297e+001  -1.770618e+002 
3093750000  -3.248884e+001  1.759834e+002 
3096875000  -3.349393e+001  1.698050e+002 
3100000000  -3.335849e+001  1.672680e+002 
3103125000  -3.372715e+001  1.685229e+002 
3106250000  -3.313948e+001  1.640020e+002 
3109375000  -3.325079e+001  1.601430e+002 
3112500000  -3.318582e+001  1.573489e+002 
3115625000  -3.289956e+001  1.533838e+002 
3118750000  -3.320591e+001  1.535592e+002 
3121875000  -3.220544e+001  1.437036e+002 
3125000000  -3.351347e+001  1.391681e+002 
3128125000  -3.443818e+001  1.466132e+002 
3131250000  -3.203810e+001  1.450606e+002 
3134375000  -3.081733e+001  1.294100e+002 
3137500000  -3.129236e+001  1.150297e+002 
3140625000  -3.283955e+001  1.126250e+002 
3143750000  -3.384153e+001  1.139211e+002 
3146875000  -3.328411e+001  1.149391e+002 
3150000000  -3.224765e+001  1.154150e+002 
3153125000  -3.239265e+001  1.058075e+002 
3156250000  -3.341280e+001  1.109325e+002 
3159375000  -3.165058e+001  1.124775e+002 
3162500000  -2.965218e+001  9.724950e+001 
3165625000  -3.075941e+001  8.508498e+001 
3168750000  -3.106604e+001  8.554650e+001 
3171875000  -3.017795e+001  8.005238e+001 
3175000000  -3.087740e+001  7.114319e+001 
3178125000  -3.066723e+001  7.163473e+001 
3181250000  -2.963263e+001  6.620953e+001 
3184375000  -2.902750e+001  5.372395e+001 
3187500000  -3.013950e+001  3.801998e+001 
3190625000  -3.280431e+001  3.098154e+001 
3193750000  -3.323795e+001  3.898926e+001 
3196875000  -3.300732e+001  4.338439e+001 
3200000000  -3.202648e+001  4.070608e+001 
3203125000  -3.130978e+001  3.418587e+001 
3206250000  -3.162073e+001  2.770448e+001 
3209375000  -3.122649e+001  2.189999e+001 
3212500000  -3.141690e+001  1.493527e+001 
3215625000  -3.145715e+001  1.183489e+001 
3218750000  -3.216494e+001  3.881758e+000 
3221875000  -3.309707e+001  -1.715973e+000 
3225000000  -3.262029e+001  -2.504247e+000 
3228125000  -3.305761e+001  -8.338616e+000 
3231250000  -3.369792e+001  -1.035880e+001 
3234375000  -3.340424e+001  -1.038005e+001 
3237500000  -3.326704e+001  -1.271640e+001 
3240625000  -3.298174e+001  -1.489635e+001 
3243750000  -3.260048e+001  -2.217330e+001 
3246875000  -3.296445e+001  -3.010769e+001 
3250000000  -3.345617e+001  -3.203158e+001 
3253125000  -3.352854e+001  -3.374303e+001 
3256250000  -3.323245e+001  -4.059805e+001 
3259375000  -3.342590e+001  -4.983296e+001 
3262500000  -3.465534e+001  -5.334394e+001 
3265625000  -3.522852e+001  -5.066937e+001 
3268750000  -3.507097e+001  -4.815014e+001 
3271875000  -3.469167e+001  -4.896463e+001 
3275000000  -3.371516e+001  -5.533417e+001 
3278125000  -3.421210e+001  -6.194579e+001 
3281250000  -3.430817e+001  -6.180632e+001 
3284375000  -3.386269e+001  -6.813676e+001 
3287500000  -3.409667e+001  -7.197225e+001 
3290625000  -3.436451e+001  -7.754776e+001 
3293750000  -3.414355e+001  -8.311320e+001 
3296875000  -3.520648e+001  -8.376796e+001 
3300000000  -3.491602e+001  -8.316651e+001 
3303125000  -3.367649e+001  -8.892033e+001 
3306250000  -3.358340e+001  -9.582891e+001 
3309375000  -3.316321e+001  -1.025412e+002 
3312500000  -3.324935e+001  -1.134251e+002 
3315625000  -3.431797e+001  -1.212446e+002 
3318750000  -3.568861e+001  -1.246642e+002 
3321875000  -3.685664e+001  -1.256319e+002 
3325000000  -3.734941e+001  -1.206674e+002 
3328125000  -3.679688e+001  -1.181626e+002 
3331250000  -3.563559e+001  -1.114074e+002 
3334375000  -3.298612e+001  -1.225312e+002 
3337500000  -3.318453e+001  -1.423861e+002 
3340625000  -3.458824e+001  -1.534337e+002 
3343750000  -3.652204e+001  -1.538185e+002 
3346875000  -3.658214e+001  -1.515068e+002 
3350000000  -3.603896e+001  -1.543872e+002 
3353125000  -3.601770e+001  -1.593798e+002 
3356250000  -3.565160e+001  -1.670233e+002 
3359375000  -3.638823e+001  -1.748477e+002 
3362500000  -3.762933e+001  1.785582e+002 
3365625000  -3.798772e+001  1.776392e+002 
3368750000  -3.881724e+001  1.750147e+002 
3371875000  -3.912991e+001  1.733020e+002 
3375000000  -4.037207e+001  1.694794e+002 
3378125000  -4.148424e+001  1.697132e+002 
3381250000  -4.254802e+001  1.787741e+002 
3384375000  -4.094963e+001  -1.611193e+002 
3387500000  -3.748947e+001  -1.775989e+002 
3390625000  -3.921087e+001  1.632292e+002 
3393750000  -4.057710e+001  1.678076e+002 
3396875000  -3.920197e+001  1.688973e+002 
3400000000  -3.867315e+001  1.614797e+002 
3403125000  -3.915993e+001  1.551916e+002 
3406250000  -3.969441e+001  1.558561e+002 
3409375000  -3.987627e+001  1.474314e+002 
3412500000  -4.023614e+001  1.457840e+002 
3415625000  -4.110377e+001  1.447176e+002 
3418750000  -4.114408e+001  1.471317e+002 
3421875000  -4.135345e+001  1.490199e+002 
3425000000  -4.022478e+001  1.514856e+002 
3428125000  -3.929749e+001  1.470314e+002 
3431250000  -3.931913e+001  1.395485e+002 
3434375000  -3.922078e+001  1.330646e+002 
3437500000  -3.970908e+001  1.282489e+002 
3440625000  -4.006911e+001  1.303394e+002 
3443750000  -3.854304e+001  1.312084e+002 
3446875000  -3.798141e+001  1.238250e+002 
3450000000  -3.757110e+001  1.124327e+002 
3453125000  -3.803238e+001  1.032594e+002 
3456250000  -3.913342e+001  9.612742e+001 
3459375000  -4.011068e+001  9.813148e+001 
3462500000  -4.005690e+001  9.910543e+001 
3465625000  -3.975311e+001  9.280598e+001 
3468750000  -4.014166e+001  8.878499e+001 
3471875000  -4.000825e+001  8.741082e+001 
3475000000  -3.978377e+001  8.324252e+001 
3478125000  -4.037740e+001  7.425569e+001 
3481250000  -4.119919e+001  7.154906e+001 
3484375000  -4.221774e+001  7.548746e+001 
3487500000  -4.125235e+001  7.568997e+001 
3490625000  -4.091405e+001  7.141272e+001 
3493750000  -4.151052e+001  6.466648e+001 
3496875000  -4.191752e+001  6.263920e+001 
3500000000  -4.242815e+001  6.374517e+001 
3503125000  -4.212423e+001  6.752056e+001 
3506250000  -4.064072e+001  6.299218e+001 
3509375000  -4.076805e+001  5.228209e+001 
3512500000  -4.103728e+001  4.573531e+001 
3515625000  -4.183448e+001  4.413248e+001 
3518750000  -4.248748e+001  4.400521e+001 
3521875000  -4.235212e+001  3.910861e+001 
3525000000  -4.335118e+001  3.785048e+001 
3528125000  -4.337175e+001  4.604044e+001 
3531250000  -4.194447e+001  4.214568e+001 
3534375000  -4.202833e+001  3.339813e+001 
3537500000  -4.234225e+001  2.730622e+001 
3540625000  -4.338775e+001  2.632424e+001 
3543750000  -4.402737e+001  3.135831e+001 
3546875000  -4.407960e+001  4.218949e+001 
3550000000  -4.143563e+001  4.155050e+001 
3553125000  -3.999476e+001  2.377962e+001 
3556250000  -4.125845e+001  1.722817e+001 
3559375000  -4.118358e+001  1.763579e+001 
3562500000  -4.006906e+001  9.980350e+000 
3565625000  -4.101094e+001  2.521776e+000 
3568750000  -4.135473e+001  6.709753e+000 
3571875000  -4.097166e+001  4.653902e+000 
3575000000  -4.061587e+001  -3.900613e+000 
3578125000  -4.122957e+001  -8.647613e+000 
3581250000  -4.106100e+001  -8.967944e+000 
3584375000  -4.030556e+001  -1.247999e+001 
3587500000  -3.975940e+001  -2.184013e+001 
3590625000  -4.047931e+001  -3.257946e+001 
3593750000  -4.171447e+001  -3.502605e+001 
3596875000  -4.161369e+001  -2.793655e+001 
3600000000  -4.032004e+001  -3.547708e+001 
3603125000  -4.097374e+001  -4.743017e+001 
3606250000  -4.147130e+001  -5.148721e+001 
3609375000  -4.228693e+001  -5.433689e+001 
3612500000  -4.283813e+001  -5.836398e+001 
3615625000  -4.317992e+001  -5.990685e+001 
3618750000  -4.418972e+001  -6.095193e+001 
3621875000  -4.393657e+001  -6.269675e+001 
3625000000  -4.467857e+001  -6.556663e+001 
3628125000  -4.439361e+001  -6.552740e+001 
3631250000  -4.454549e+001  -7.026139e+001 
3634375000  -4.586875e+001  -7.223755e+001 
3637500000  -4.593144e+001  -6.235916e+001 
3640625000  -4.491629e+001  -6.337510e+001 
3643750000  -4.500393e+001  -6.859924e+001 
3646875000  -4.507443e+001  -7.323475e+001 
3650000000  -4.611007e+001  -7.392751e+001 
3653125000  -4.548314e+001  -7.441567e+001 
3656250000  -4.581338e+001  -7.717397e+001 
3659375000  -4.552288e+001  -7.026989e+001 
3662500000  -4.453381e+001  -7.224650e+001 
3665625000  -4.513210e+001  -7.191513e+001 
3668750000  -4.368970e+001  -7.352290e+001 
3671875000  -4.254222e+001  -8.131110e+001 
3675000000  -4.273109e+001  -8.766906e+001 
3678125000  -4.310806e+001  -9.176079e+001 
3681250000  -4.281479e+001  -9.282884e+001 
3684375000  -4.267130e+001  -9.567189e+001 
3687500000  -4.304929e+001  -1.022321e+002 
3690625000  -4.277029e+001  -1.045365e+002 
3693750000  -4.356549e+001  -1.077076e+002 
3696875000  -4.322901e+001  -1.054239e+002 
3700000000  -4.277509e+001  -1.102005e+002 
3703125000  -4.296910e+001  -1.172182e+002 
3706250000  -4.368354e+001  -1.167594e+002 
3709375000  -4.356866e+001  -1.146927e+002 
3712500000  -4.213256e+001  -1.189604e+002 
3715625000  -4.165108e+001  -1.261380e+002 
3718750000  -4.133607e+001  -1.321920e+002 
3721875000  -4.112561e+001  -1.371244e+002 
3725000000  -4.153394e+001  -1.452937e+002 
3728125000  -4.209904e+001  -1.459564e+002 
3731250000  -4.167379e+001  -1.463913e+002 
3734375000  -4.112982e+001  -1.531269e+002 
3737500000  -4.230690e+001  -1.608932e+002 
3740625000  -4.311038e+001  -1.639272e+002 
3743750000  -4.307181e+001  -1.670562e+002 
3746875000  -4.375967e+001  -1.694450e+002 
3750000000  -4.440314e+001  -1.688233e+002 
3753125000  -4.435789e+001  -1.696262e+002 
3756250000  -4.454288e+001  -1.686979e+002 
3759375000  -4.513966e+001  -1.701670e+002 
3762500000  -4.463376e+001  -1.702612e+002 
3765625000  -4.509205e+001  -1.705159e+002 
3768750000  -4.541247e+001  -1.669639e+002 
3771875000  -4.329067e+001  -1.680569e+002 
3775000000  -4.278751e+001  -1.751649e+002 
3778125000  -4.348766e+001  -1.769858e+002 
3781250000  -4.271306e+001  -1.781449e+002 
3784375000  -4.245074e+001  -1.790909e+002 
3787500000  -4.184201e+001  1.765295e+002 
3790625000  -4.225535e+001  1.722908e+002 
3793750000  -4.211777e+001  1.725248e+002 
3796875000  -4.131226e+001  1.683132e+002 
3800000000  -3.947170e+001  1.667937e+002 
3803125000  -4.017431e+001  1.570937e+002 
3806250000  -4.086452e+001  1.541025e+002 
3809375000  -4.035273e+001  1.524441e+002 
3812500000  -3.983371e+001  1.445767e+002 
3815625000  -4.021642e+001  1.357772e+002 
3818750000  -4.150214e+001  1.342136e+002 
3821875000  -4.137804e+001  1.427994e+002 
3825000000  -3.927237e+001  1.437583e+002 
3828125000  -3.787459e+001  1.271558e+002 
3831250000  -3.868108e+001  1.126041e+002 
3834375000  -4.005673e+001  1.107767e+002 
3837500000  -4.122659e+001  1.165360e+002 
3840625000  -4.005433e+001  1.131831e+002 
3843750000  -3.884721e+001  1.000019e+002 
3846875000  -3.980629e+001  9.466802e+001 
3850000000  -4.122612e+001  9.943527e+001 
3853125000  -4.042340e+001  1.024545e+002 
3856250000  -4.026231e+001  9.552871e+001 
3859375000  -3.961375e+001  9.111600e+001 
3862500000  -3.940425e+001  8.109022e+001 
3865625000  -4.000492e+001  7.630381e+001 
3868750000  -3.980890e+001  7.673212e+001 
3871875000  -3.917289e+001  7.164920e+001 
3875000000  -3.944305e+001  6.123431e+001 
3878125000  -4.063297e+001  6.206968e+001 
3881250000  -4.087582e+001  6.299691e+001 
3884375000  -4.039666e+001  5.786279e+001 
3887500000  -4.043556e+001  5.550797e+001 
3890625000  -4.091485e+001  5.136789e+001 
3893750000  -4.093492e+001  5.021361e+001 
3896875000  -4.185837e+001  5.083347e+001 
3900000000  -4.163366e+001  5.129012e+001 
3903125000  -4.105190e+001  4.810173e+001 
3906250000  -4.074162e+001  4.514906e+001 
3909375000  -4.020452e+001  4.317764e+001 
3912500000  -4.004979e+001  3.369766e+001 
3915625000  -4.140010e+001  3.620430e+001 
3918750000  -4.093124e+001  3.897130e+001 
3921875000  -4.079915e+001  3.392754e+001 
3925000000  -3.958731e+001  3.062243e+001 
3928125000  -3.889573e+001  2.499403e+001 
3931250000  -3.940597e+001  1.922907e+001 
3934375000  -4.008312e+001  1.963637e+001 
3937500000  -3.964828e+001  1.700459e+001 
3940625000  -4.035094e+001  1.623146e+001 
3943750000  -3.919977e+001  1.523936e+001 
3946875000  -3.808401e+001  9.393547e+000 
3950000000  -3.886487e+001  -1.320947e-001 
3953125000  -4.000550e+001  -3.862990e-001 
3956250000  -3.913255e+001  1.241501e+000 
3959375000  -3.779139e+001  -4.016077e+000 
3962500000  -3.715075e+001  -7.716292e+000 
3965625000  -3.714339e+001  -1.930782e+001 
3968750000  -3.810237e+001  -2.632389e+001 
3971875000  -3.827418e+001  -2.779527e+001 
3975000000  -3.783522e+001  -3.160647e+001 
3978125000  -3.770240e+001  -3.404738e+001 
3981250000  -3.783593e+001  -3.936912e+001 
3984375000  -3.775570e+001  -4.632098e+001 
3987500000  -3.860733e+001  -4.905644e+001 
3990625000  -3.855228e+001  -5.058255e+001 
3993750000  -3.874662e+001  -5.571056e+001 
3996875000  -3.905872e+001  -5.944781e+001 
4000000000  -3.941182e+001  -6.026376e+001 
4003125000  -3.971074e+001  -5.737516e+001 
4006250000  -3.834373e+001  -5.967292e+001 
4009375000  -3.747899e+001  -7.356454e+001 
4012500000  -3.869038e+001  -7.980482e+001 
4015625000  -4.002271e+001  -7.996342e+001 
4018750000  -4.017368e+001  -7.778474e+001 
4021875000  -3.930501e+001  -8.035087e+001 
4025000000  -3.906490e+001  -8.361133e+001 
4028125000  -3.945201e+001  -8.939884e+001 
4031250000  -3.969793e+001  -9.020771e+001 
4034375000  -3.987220e+001  -9.383960e+001 
4037500000  -3.934056e+001  -9.207922e+001 
4040625000  -3.924898e+001  -9.280477e+001 
4043750000  -3.954107e+001  -9.546447e+001 
4046875000  -3.919561e+001  -9.572404e+001 
4050000000  -3.853008e+001  -1.022729e+002 
4053125000  -3.912265e+001  -1.044436e+002 
4056250000  -3.934514e+001  -1.012997e+002 
4059375000  -3.819945e+001  -1.001466e+002 
4062500000  -3.687631e+001  -1.053899e+002 
4065625000  -3.685662e+001  -1.096409e+002 
4068750000  -3.634196e+001  -1.180066e+002 
4071875000  -3.563460e+001  -1.257096e+002 
4075000000  -3.592748e+001  -1.333306e+002 
4078125000  -3.656048e+001  -1.345289e+002 
4081250000  -3.591731e+001  -1.385692e+002 
4084375000  -3.550020e+001  -1.472168e+002 
4087500000  -3.612435e+001  -1.529679e+002 
4090625000  -3.662387e+001  -1.545042e+002 
4093750000  -3.642287e+001  -1.565014e+002 
4096875000  -3.602018e+001  -1.631341e+002 
4100000000  -3.683978e+001  -1.715342e+002 
4103125000  -3.761533e+001  -1.711401e+002 
4106250000  -3.744331e+001  -1.663718e+002 
4109375000  -3.640854e+001  -1.680242e+002 
4112500000  -3.606859e+001  -1.757534e+002 
4115625000  -3.635934e+001  1.775166e+002 
4118750000  -3.665720e+001  1.744147e+002 
4121875000  -3.633573e+001  1.693875e+002 
4125000000  -3.686230e+001  1.622177e+002 
4128125000  -3.762036e+001  1.627453e+002 
4131250000  -3.744956e+001  1.694725e+002 
4134375000  -3.519602e+001  1.630249e+002 
4137500000  -3.512048e+001  1.437357e+002 
4140625000  -3.752796e+001  1.357701e+002 
4143750000  -3.880158e+001  1.404264e+002 
4146875000  -3.828114e+001  1.475374e+002 
4150000000  -3.770402e+001  1.427693e+002 
4153125000  -3.765168e+001  1.352425e+002 
4156250000  -3.868864e+001  1.337903e+002 
4159375000  -3.902072e+001  1.372536e+002 
4162500000  -3.789605e+001  1.430824e+002 
4165625000  -3.668064e+001  1.367787e+002 
4168750000  -3.592597e+001  1.293422e+002 
4171875000  -3.610123e+001  1.187704e+002 
4175000000  -3.669092e+001  1.143991e+002 
4178125000  -3.732145e+001  1.150987e+002 
4181250000  -3.696132e+001  1.141298e+002 
4184375000  -3.672242e+001  1.097899e+002 
4187500000  -3.693652e+001  1.066308e+002 
4190625000  -3.672870e+001  1.014669e+002 
4193750000  -3.764605e+001  9.628326e+001 
4196875000  -3.818029e+001  9.575941e+001 
4200000000  -3.892085e+001  9.955270e+001 
4203125000  -3.878230e+001  1.124347e+002 
4206250000  -3.510668e+001  1.109437e+002 
4209375000  -3.419168e+001  8.841341e+001 
4212500000  -3.605088e+001  8.082657e+001 
4215625000  -3.692305e+001  8.657589e+001 
4218750000  -3.556253e+001  9.115518e+001 
4221875000  -3.314842e+001  8.050546e+001 
4225000000  -3.444413e+001  6.896910e+001 
4228125000  -3.495672e+001  7.082547e+001 
4231250000  -3.347264e+001  6.685690e+001 
4234375000  -3.334028e+001  5.692806e+001 
4237500000  -3.283175e+001  5.225139e+001 
4240625000  -3.291012e+001  4.257751e+001 
4243750000  -3.386950e+001  3.382296e+001 
4246875000  -3.486630e+001  3.406033e+001 
4250000000  -3.478591e+001  3.466697e+001 
4253125000  -3.438141e+001  3.118845e+001 
4256250000  -3.441564e+001  2.564541e+001 
4259375000  -3.439907e+001  2.310229e+001 
4262500000  -3.448016e+001  1.744918e+001 
4265625000  -3.477681e+001  1.694032e+001 
4268750000  -3.358770e+001  1.267489e+001 
4271875000  -3.372184e+001  3.901740e+000 
4275000000  -3.318084e+001  -2.630697e+000 
4278125000  -3.414555e+001  -1.500144e+001 
4281250000  -3.604135e+001  -1.795996e+001 
4284375000  -3.570531e+001  -1.736040e+001 
4287500000  -3.676017e+001  -1.953854e+001 
4290625000  -3.805657e+001  -1.133645e+001 
4293750000  -3.626042e+001  -8.208299e+000 
4296875000  -3.511015e+001  -1.850439e+001 
4300000000  -3.586174e+001  -2.852062e+001 
4303125000  -3.731841e+001  -2.556192e+001 
4306250000  -3.652612e+001  -2.145457e+001 
4309375000  -3.515752e+001  -2.334001e+001 
4312500000  -3.499936e+001  -3.024507e+001 
4315625000  -3.535094e+001  -3.628004e+001 
4318750000  -3.545302e+001  -3.949681e+001 
4321875000  -3.567094e+001  -3.915913e+001 
4325000000  -3.511854e+001  -3.793617e+001 
4328125000  -3.431696e+001  -4.466152e+001 
4331250000  -3.416560e+001  -5.348936e+001 
4334375000  -3.465403e+001  -5.959499e+001 
4337500000  -3.545246e+001  -6.182696e+001 
4340625000  -3.580698e+001  -5.754564e+001 
4343750000  -3.472332e+001  -5.856584e+001 
4346875000  -3.438605e+001  -6.539635e+001 
4350000000  -3.455561e+001  -7.038177e+001 
4353125000  -3.428143e+001  -7.964477e+001 
4356250000  -3.638494e+001  -8.095434e+001 
4359375000  -3.646363e+001  -6.599902e+001 
4362500000  -3.312642e+001  -6.785835e+001 
4365625000  -3.188215e+001  -8.247340e+001 
4368750000  -3.278805e+001  -9.418365e+001 
4371875000  -3.362412e+001  -9.466481e+001 
4375000000  -3.320699e+001  -9.539708e+001 
4378125000  -3.250940e+001  -1.028916e+002 
4381250000  -3.287957e+001  -1.095693e+002 
4384375000  -3.252111e+001  -1.154940e+002 
4387500000  -3.339383e+001  -1.239546e+002 
4390625000  -3.418528e+001  -1.239612e+002 
4393750000  -3.345969e+001  -1.235005e+002 
4396875000  -3.296191e+001  -1.266974e+002 
4400000000  -3.250510e+001  -1.349646e+002 
4403125000  -3.323556e+001  -1.440564e+002 
4406250000  -3.408210e+001  -1.463902e+002 
4409375000  -3.426622e+001  -1.510714e+002 
4412500000  -3.545194e+001  -1.535322e+002 
4415625000  -3.565444e+001  -1.498230e+002 
