!Agilent Technologies,E8363B,MY43030201,A.06.04.32
!Agilent E8363B: A.06.04.32
!Date: Tuesday, November 11, 2014 21:00:58
!Correction: S21(Response(S21)) 
!S1P File: Measurement: S21:
# Hz S  dB   R 50
3000000000  -3.620026e+001  -4.584877e+001 
3003125000  -3.732277e+001  -5.178948e+001 
3006250000  -3.726672e+001  -5.385546e+001 
3009375000  -3.753460e+001  -5.028574e+001 
3012500000  -3.677507e+001  -5.143086e+001 
3015625000  -3.586827e+001  -5.833107e+001 
3018750000  -3.670095e+001  -6.019573e+001 
3021875000  -3.529309e+001  -5.922382e+001 
3025000000  -3.391611e+001  -6.290492e+001 
3028125000  -3.299803e+001  -6.870921e+001 
3031250000  -3.207627e+001  -7.972978e+001 
3034375000  -3.168049e+001  -9.341055e+001 
3037500000  -3.208805e+001  -1.056908e+002 
3040625000  -3.340929e+001  -1.097884e+002 
3043750000  -3.414010e+001  -1.151005e+002 
3046875000  -3.425021e+001  -1.211792e+002 
3050000000  -3.599588e+001  -1.270319e+002 
3053125000  -3.598528e+001  -1.211429e+002 
3056250000  -3.538082e+001  -1.190342e+002 
3059375000  -3.553687e+001  -1.191151e+002 
3062500000  -3.417881e+001  -1.229093e+002 
3065625000  -3.379406e+001  -1.285083e+002 
3068750000  -3.350031e+001  -1.359551e+002 
3071875000  -3.344637e+001  -1.379055e+002 
3075000000  -3.321088e+001  -1.418379e+002 
3078125000  -3.292617e+001  -1.456391e+002 
3081250000  -3.355042e+001  -1.503317e+002 
3084375000  -3.263299e+001  -1.535781e+002 
3087500000  -3.245075e+001  -1.575011e+002 
3090625000  -3.187548e+001  -1.673040e+002 
3093750000  -3.227485e+001  -1.748064e+002 
3096875000  -3.341298e+001  1.788340e+002 
3100000000  -3.330507e+001  1.767576e+002 
3103125000  -3.363277e+001  1.772324e+002 
3106250000  -3.312833e+001  1.734467e+002 
3109375000  -3.321000e+001  1.689183e+002 
3112500000  -3.311877e+001  1.671268e+002 
3115625000  -3.275884e+001  1.624060e+002 
3118750000  -3.318021e+001  1.626722e+002 
3121875000  -3.227201e+001  1.529068e+002 
3125000000  -3.343470e+001  1.485318e+002 
3128125000  -3.452374e+001  1.554238e+002 
3131250000  -3.215166e+001  1.544325e+002 
3134375000  -3.070631e+001  1.396704e+002 
3137500000  -3.131706e+001  1.243521e+002 
3140625000  -3.280964e+001  1.216342e+002 
3143750000  -3.385708e+001  1.235128e+002 
3146875000  -3.338358e+001  1.240530e+002 
3150000000  -3.234521e+001  1.248021e+002 
3153125000  -3.232846e+001  1.150591e+002 
3156250000  -3.337288e+001  1.196569e+002 
3159375000  -3.172770e+001  1.210106e+002 
3162500000  -2.976942e+001  1.067514e+002 
3165625000  -3.079132e+001  9.451867e+001 
3168750000  -3.119712e+001  9.454945e+001 
3171875000  -3.030713e+001  8.970279e+001 
3175000000  -3.100464e+001  8.101196e+001 
3178125000  -3.079588e+001  8.144602e+001 
3181250000  -2.966129e+001  7.617487e+001 
3184375000  -2.896386e+001  6.310169e+001 
3187500000  -3.008365e+001  4.813643e+001 
3190625000  -3.296135e+001  3.974594e+001 
3193750000  -3.355944e+001  4.878980e+001 
3196875000  -3.313063e+001  5.345565e+001 
3200000000  -3.224756e+001  5.087800e+001 
3203125000  -3.144126e+001  4.473579e+001 
3206250000  -3.176530e+001  3.770179e+001 
3209375000  -3.129471e+001  3.236851e+001 
3212500000  -3.151081e+001  2.543316e+001 
3215625000  -3.156359e+001  2.103431e+001 
3218750000  -3.236245e+001  1.377735e+001 
3221875000  -3.323029e+001  8.631319e+000 
3225000000  -3.292902e+001  7.497281e+000 
3228125000  -3.314951e+001  2.470509e+000 
3231250000  -3.385666e+001  -8.669696e-001 
3234375000  -3.360561e+001  -6.131691e-001 
3237500000  -3.364490e+001  -1.973906e+000 
3240625000  -3.319498e+001  -4.390667e+000 
3243750000  -3.276024e+001  -1.200263e+001 
3246875000  -3.321585e+001  -1.861082e+001 
3250000000  -3.352009e+001  -2.113612e+001 
3253125000  -3.375545e+001  -2.290368e+001 
3256250000  -3.338336e+001  -2.981195e+001 
3259375000  -3.366181e+001  -3.810030e+001 
3262500000  -3.473697e+001  -4.262558e+001 
3265625000  -3.538279e+001  -3.994527e+001 
3268750000  -3.534410e+001  -3.695388e+001 
3271875000  -3.489590e+001  -3.811410e+001 
3275000000  -3.392752e+001  -4.486843e+001 
3278125000  -3.434846e+001  -5.150777e+001 
3281250000  -3.449049e+001  -5.045223e+001 
3284375000  -3.400018e+001  -5.753151e+001 
3287500000  -3.424459e+001  -6.105700e+001 
3290625000  -3.458500e+001  -6.642633e+001 
3293750000  -3.420034e+001  -7.253119e+001 
3296875000  -3.533345e+001  -7.265850e+001 
3300000000  -3.513057e+001  -7.272237e+001 
3303125000  -3.404538e+001  -7.850072e+001 
3306250000  -3.367433e+001  -8.499480e+001 
3309375000  -3.336730e+001  -9.166769e+001 
3312500000  -3.351728e+001  -1.021395e+002 
3315625000  -3.443782e+001  -1.107727e+002 
3318750000  -3.580184e+001  -1.132931e+002 
3321875000  -3.711638e+001  -1.134981e+002 
3325000000  -3.753759e+001  -1.083097e+002 
3328125000  -3.718933e+001  -1.083417e+002 
3331250000  -3.611834e+001  -1.011622e+002 
3334375000  -3.329982e+001  -1.117430e+002 
3337500000  -3.334758e+001  -1.306705e+002 
3340625000  -3.468556e+001  -1.421120e+002 
3343750000  -3.664832e+001  -1.431533e+002 
3346875000  -3.691789e+001  -1.413424e+002 
3350000000  -3.634957e+001  -1.424246e+002 
3353125000  -3.643967e+001  -1.479487e+002 
3356250000  -3.579622e+001  -1.560774e+002 
3359375000  -3.665017e+001  -1.637303e+002 
3362500000  -3.781281e+001  -1.695265e+002 
3365625000  -3.828431e+001  -1.709409e+002 
3368750000  -3.910675e+001  -1.739113e+002 
3371875000  -3.932818e+001  -1.759039e+002 
3375000000  -4.062766e+001  -1.776793e+002 
3378125000  -4.133421e+001  -1.774279e+002 
3381250000  -4.272677e+001  -1.696512e+002 
3384375000  -4.133029e+001  -1.482151e+002 
3387500000  -3.801211e+001  -1.636964e+002 
3390625000  -3.967306e+001  1.766104e+002 
3393750000  -4.064841e+001  -1.796676e+002 
3396875000  -3.946166e+001  -1.776646e+002 
3400000000  -3.894042e+001  1.744520e+002 
3403125000  -3.977788e+001  1.676750e+002 
3406250000  -3.990122e+001  1.697913e+002 
3409375000  -4.012466e+001  1.611588e+002 
3412500000  -4.034333e+001  1.596929e+002 
3415625000  -4.128983e+001  1.608442e+002 
3418750000  -4.125563e+001  1.604985e+002 
3421875000  -4.155055e+001  1.617453e+002 
3425000000  -4.027692e+001  1.621182e+002 
3428125000  -3.948483e+001  1.590589e+002 
3431250000  -3.939717e+001  1.518695e+002 
3434375000  -3.939608e+001  1.457276e+002 
3437500000  -3.989108e+001  1.416437e+002 
3440625000  -3.993991e+001  1.434997e+002 
3443750000  -3.893439e+001  1.444284e+002 
3446875000  -3.823557e+001  1.363841e+002 
3450000000  -3.757954e+001  1.265023e+002 
3453125000  -3.789334e+001  1.162171e+002 
3456250000  -3.921804e+001  1.089661e+002 
3459375000  -4.031282e+001  1.103655e+002 
3462500000  -3.989312e+001  1.103329e+002 
3465625000  -3.993847e+001  1.045673e+002 
3468750000  -4.016951e+001  1.000223e+002 
3471875000  -4.009040e+001  9.935065e+001 
3475000000  -3.969085e+001  9.568230e+001 
3478125000  -4.045806e+001  8.801327e+001 
3481250000  -4.153547e+001  8.460027e+001 
3484375000  -4.204193e+001  8.957781e+001 
3487500000  -4.140420e+001  8.682999e+001 
3490625000  -4.093172e+001  8.232622e+001 
3493750000  -4.153870e+001  7.828812e+001 
3496875000  -4.184116e+001  7.546514e+001 
3500000000  -4.260205e+001  7.914856e+001 
3503125000  -4.220935e+001  8.137312e+001 
3506250000  -4.086628e+001  7.595727e+001 
3509375000  -4.097195e+001  6.733450e+001 
3512500000  -4.133547e+001  5.762000e+001 
3515625000  -4.181997e+001  5.488868e+001 
3518750000  -4.256265e+001  5.613577e+001 
3521875000  -4.235804e+001  5.381009e+001 
3525000000  -4.347735e+001  5.043276e+001 
3528125000  -4.338029e+001  5.744474e+001 
3531250000  -4.207125e+001  5.561602e+001 
3534375000  -4.187109e+001  4.556792e+001 
3537500000  -4.252594e+001  4.032129e+001 
3540625000  -4.323885e+001  3.944001e+001 
3543750000  -4.399707e+001  4.232290e+001 
3546875000  -4.393229e+001  5.502143e+001 
3550000000  -4.114071e+001  5.456015e+001 
3553125000  -4.010485e+001  3.531797e+001 
3556250000  -4.115674e+001  3.144719e+001 
3559375000  -4.129067e+001  3.308921e+001 
3562500000  -4.021818e+001  2.112621e+001 
3565625000  -4.091635e+001  1.372043e+001 
3568750000  -4.125311e+001  1.694063e+001 
3571875000  -4.106477e+001  1.326819e+001 
3575000000  -4.084863e+001  7.098027e+000 
3578125000  -4.117453e+001  -3.528840e-003 
3581250000  -4.135082e+001  6.728208e-001 
3584375000  -4.067292e+001  -7.003288e-001 
3587500000  -4.023722e+001  -1.133851e+001 
3590625000  -4.076233e+001  -2.115651e+001 
3593750000  -4.187568e+001  -2.469168e+001 
3596875000  -4.199186e+001  -1.759055e+001 
3600000000  -4.069061e+001  -2.391139e+001 
3603125000  -4.112675e+001  -3.849192e+001 
3606250000  -4.196536e+001  -4.106957e+001 
3609375000  -4.282186e+001  -4.449202e+001 
3612500000  -4.357489e+001  -4.625720e+001 
3615625000  -4.369996e+001  -5.265406e+001 
3618750000  -4.446065e+001  -5.043926e+001 
3621875000  -4.466762e+001  -5.299523e+001 
3625000000  -4.522000e+001  -5.267827e+001 
3628125000  -4.532985e+001  -5.078864e+001 
3631250000  -4.527689e+001  -5.815275e+001 
3634375000  -4.661031e+001  -5.897884e+001 
3637500000  -4.703079e+001  -5.345266e+001 
3640625000  -4.593502e+001  -4.990922e+001 
3643750000  -4.511077e+001  -5.169849e+001 
3646875000  -4.594710e+001  -5.710525e+001 
3650000000  -4.651774e+001  -5.750696e+001 
3653125000  -4.606964e+001  -6.005580e+001 
3656250000  -4.619773e+001  -5.764109e+001 
3659375000  -4.637841e+001  -5.566805e+001 
3662500000  -4.495945e+001  -5.480305e+001 
3665625000  -4.452717e+001  -5.683212e+001 
3668750000  -4.375880e+001  -5.642228e+001 
3671875000  -4.275117e+001  -6.425438e+001 
3675000000  -4.302443e+001  -7.079974e+001 
3678125000  -4.319408e+001  -7.534998e+001 
3681250000  -4.300906e+001  -7.824330e+001 
3684375000  -4.314217e+001  -8.101305e+001 
3687500000  -4.294112e+001  -8.551180e+001 
3690625000  -4.301405e+001  -9.183426e+001 
3693750000  -4.392951e+001  -9.325140e+001 
3696875000  -4.360181e+001  -9.220648e+001 
3700000000  -4.251963e+001  -9.693585e+001 
3703125000  -4.279473e+001  -1.034856e+002 
3706250000  -4.393585e+001  -1.061616e+002 
3709375000  -4.369354e+001  -1.005602e+002 
3712500000  -4.229079e+001  -1.058411e+002 
3715625000  -4.167241e+001  -1.127865e+002 
3718750000  -4.172404e+001  -1.161529e+002 
3721875000  -4.144288e+001  -1.229654e+002 
3725000000  -4.202985e+001  -1.319567e+002 
3728125000  -4.258414e+001  -1.305421e+002 
3731250000  -4.206937e+001  -1.324411e+002 
3734375000  -4.189190e+001  -1.398654e+002 
3737500000  -4.221622e+001  -1.473330e+002 
3740625000  -4.397923e+001  -1.495441e+002 
3743750000  -4.402332e+001  -1.531532e+002 
3746875000  -4.406137e+001  -1.554686e+002 
3750000000  -4.491728e+001  -1.558453e+002 
3753125000  -4.472627e+001  -1.522690e+002 
3756250000  -4.504631e+001  -1.509689e+002 
3759375000  -4.509830e+001  -1.485320e+002 
3762500000  -4.477704e+001  -1.532817e+002 
3765625000  -4.549314e+001  -1.515861e+002 
3768750000  -4.518106e+001  -1.477500e+002 
3771875000  -4.348937e+001  -1.537575e+002 
3775000000  -4.330775e+001  -1.564487e+002 
3778125000  -4.365788e+001  -1.579505e+002 
3781250000  -4.277263e+001  -1.576503e+002 
3784375000  -4.249147e+001  -1.584511e+002 
3787500000  -4.124037e+001  -1.619133e+002 
3790625000  -4.225354e+001  -1.711620e+002 
3793750000  -4.220212e+001  -1.710553e+002 
3796875000  -4.094866e+001  -1.733920e+002 
3800000000  -3.906876e+001  -1.766241e+002 
3803125000  -4.011842e+001  1.720182e+002 
3806250000  -4.041367e+001  1.705289e+002 
3809375000  -4.045613e+001  1.677639e+002 
3812500000  -3.910136e+001  1.610370e+002 
3815625000  -3.998023e+001  1.515376e+002 
3818750000  -4.068953e+001  1.484676e+002 
3821875000  -4.089949e+001  1.580781e+002 
3825000000  -3.901299e+001  1.585446e+002 
3828125000  -3.780872e+001  1.445419e+002 
3831250000  -3.825019e+001  1.279652e+002 
3834375000  -3.978169e+001  1.263938e+002 
3837500000  -4.065788e+001  1.322640e+002 
3840625000  -3.967080e+001  1.298564e+002 
3843750000  -3.862484e+001  1.177163e+002 
3846875000  -3.966428e+001  1.100314e+002 
3850000000  -4.065371e+001  1.129028e+002 
3853125000  -4.033124e+001  1.172689e+002 
3856250000  -3.999203e+001  1.076195e+002 
3859375000  -3.945690e+001  1.043236e+002 
3862500000  -3.944127e+001  9.539972e+001 
3865625000  -3.982990e+001  9.300955e+001 
3868750000  -3.975493e+001  9.019804e+001 
3871875000  -3.936357e+001  8.601482e+001 
3875000000  -3.970275e+001  7.668165e+001 
3878125000  -4.062150e+001  7.453049e+001 
3881250000  -4.064587e+001  7.782207e+001 
3884375000  -4.021638e+001  7.344361e+001 
3887500000  -4.027198e+001  6.817906e+001 
3890625000  -4.116866e+001  6.587071e+001 
3893750000  -4.101492e+001  6.490628e+001 
3896875000  -4.161766e+001  6.576509e+001 
3900000000  -4.168649e+001  6.359076e+001 
3903125000  -4.132286e+001  6.332096e+001 
3906250000  -4.098337e+001  6.175705e+001 
3909375000  -3.993942e+001  5.922738e+001 
3912500000  -3.987744e+001  5.186729e+001 
3915625000  -4.125298e+001  5.402968e+001 
3918750000  -4.079353e+001  5.181147e+001 
3921875000  -4.048568e+001  5.005698e+001 
3925000000  -3.973815e+001  4.755774e+001 
3928125000  -3.902166e+001  4.062708e+001 
3931250000  -3.923580e+001  3.584055e+001 
3934375000  -3.959682e+001  3.323672e+001 
3937500000  -3.959909e+001  3.295787e+001 
3940625000  -3.986018e+001  3.099044e+001 
3943750000  -3.899998e+001  3.161771e+001 
3946875000  -3.783472e+001  2.433167e+001 
3950000000  -3.848720e+001  1.499128e+001 
3953125000  -3.961700e+001  1.508697e+001 
3956250000  -3.868630e+001  1.536083e+001 
3959375000  -3.734570e+001  1.192659e+001 
3962500000  -3.664085e+001  5.155036e+000 
3965625000  -3.679713e+001  -4.587678e+000 
3968750000  -3.776507e+001  -1.075425e+001 
3971875000  -3.796769e+001  -1.325554e+001 
3975000000  -3.738154e+001  -1.731970e+001 
3978125000  -3.740091e+001  -2.064829e+001 
3981250000  -3.746503e+001  -2.667973e+001 
3984375000  -3.761280e+001  -3.233454e+001 
3987500000  -3.805767e+001  -3.550074e+001 
3990625000  -3.830687e+001  -3.807437e+001 
3993750000  -3.899735e+001  -4.315444e+001 
3996875000  -3.885283e+001  -4.618563e+001 
4000000000  -3.903778e+001  -4.541191e+001 
4003125000  -3.959643e+001  -4.610530e+001 
4006250000  -3.849932e+001  -4.677670e+001 
4009375000  -3.741323e+001  -6.068566e+001 
4012500000  -3.854871e+001  -6.714108e+001 
4015625000  -3.992093e+001  -6.499949e+001 
4018750000  -4.002646e+001  -6.336876e+001 
4021875000  -3.965170e+001  -6.535905e+001 
4025000000  -3.915439e+001  -6.969887e+001 
4028125000  -3.915863e+001  -7.294981e+001 
4031250000  -3.979670e+001  -7.752328e+001 
4034375000  -3.991005e+001  -7.734875e+001 
4037500000  -3.934530e+001  -7.543802e+001 
4040625000  -3.922706e+001  -7.974292e+001 
4043750000  -3.937257e+001  -8.113353e+001 
4046875000  -3.919894e+001  -7.990379e+001 
4050000000  -3.851772e+001  -8.734460e+001 
4053125000  -3.900451e+001  -8.921900e+001 
4056250000  -3.923838e+001  -8.619636e+001 
4059375000  -3.819443e+001  -8.550652e+001 
4062500000  -3.678012e+001  -9.042900e+001 
4065625000  -3.640296e+001  -9.568224e+001 
4068750000  -3.618938e+001  -1.009413e+002 
4071875000  -3.551711e+001  -1.108245e+002 
4075000000  -3.584241e+001  -1.169990e+002 
4078125000  -3.647471e+001  -1.199031e+002 
4081250000  -3.574970e+001  -1.225078e+002 
4084375000  -3.528860e+001  -1.304494e+002 
4087500000  -3.574183e+001  -1.386403e+002 
4090625000  -3.627150e+001  -1.403914e+002 
4093750000  -3.624529e+001  -1.412132e+002 
4096875000  -3.565022e+001  -1.485743e+002 
4100000000  -3.648702e+001  -1.568148e+002 
4103125000  -3.720158e+001  -1.561354e+002 
4106250000  -3.739761e+001  -1.518230e+002 
4109375000  -3.620458e+001  -1.548561e+002 
4112500000  -3.585639e+001  -1.628853e+002 
4115625000  -3.632341e+001  -1.689120e+002 
4118750000  -3.640342e+001  -1.733395e+002 
4121875000  -3.607222e+001  -1.768799e+002 
4125000000  -3.640864e+001  1.752792e+002 
4128125000  -3.760434e+001  1.765357e+002 
4131250000  -3.732761e+001  -1.777980e+002 
4134375000  -3.511057e+001  1.770036e+002 
4137500000  -3.511433e+001  1.573251e+002 
4140625000  -3.726898e+001  1.505239e+002 
4143750000  -3.874018e+001  1.526164e+002 
4146875000  -3.834081e+001  1.601743e+002 
4150000000  -3.763866e+001  1.569040e+002 
4153125000  -3.763464e+001  1.483268e+002 
4156250000  -3.856455e+001  1.470151e+002 
4159375000  -3.902237e+001  1.511509e+002 
4162500000  -3.800605e+001  1.556438e+002 
4165625000  -3.657711e+001  1.524355e+002 
4168750000  -3.605699e+001  1.443617e+002 
4171875000  -3.627810e+001  1.353390e+002 
4175000000  -3.679956e+001  1.295642e+002 
4178125000  -3.747338e+001  1.293244e+002 
4181250000  -3.710454e+001  1.295292e+002 
4184375000  -3.691859e+001  1.255589e+002 
4187500000  -3.686135e+001  1.226038e+002 
4190625000  -3.677964e+001  1.170844e+002 
4193750000  -3.748611e+001  1.140215e+002 
4196875000  -3.805602e+001  1.126367e+002 
4200000000  -3.892587e+001  1.124535e+002 
4203125000  -3.890212e+001  1.257083e+002 
4206250000  -3.527090e+001  1.264096e+002 
4209375000  -3.409982e+001  1.056899e+002 
4212500000  -3.601863e+001  9.600431e+001 
4215625000  -3.691549e+001  1.013133e+002 
4218750000  -3.556010e+001  1.058739e+002 
4221875000  -3.316065e+001  9.710379e+001 
4225000000  -3.434307e+001  8.305542e+001 
4228125000  -3.498351e+001  8.592218e+001 
4231250000  -3.324190e+001  8.289748e+001 
4234375000  -3.313907e+001  7.268999e+001 
4237500000  -3.260081e+001  6.828151e+001 
4240625000  -3.257327e+001  5.706970e+001 
4243750000  -3.376733e+001  4.880828e+001 
4246875000  -3.465528e+001  4.922649e+001 
4250000000  -3.479683e+001  4.972249e+001 
4253125000  -3.419446e+001  4.615858e+001 
4256250000  -3.465799e+001  4.121248e+001 
4259375000  -3.416218e+001  3.780364e+001 
4262500000  -3.442455e+001  3.240036e+001 
4265625000  -3.446220e+001  3.268377e+001 
4268750000  -3.369633e+001  2.649724e+001 
4271875000  -3.377597e+001  1.860327e+001 
4275000000  -3.317098e+001  1.082350e+001 
4278125000  -3.390633e+001  -1.016752e+000 
4281250000  -3.576621e+001  -2.301074e+000 
4284375000  -3.582165e+001  -3.065194e+000 
4287500000  -3.678909e+001  -8.057447e+000 
4290625000  -3.819207e+001  2.382921e+000 
4293750000  -3.628374e+001  5.782141e+000 
4296875000  -3.491846e+001  -5.310314e+000 
4300000000  -3.600985e+001  -1.403936e+001 
4303125000  -3.712310e+001  -1.035041e+001 
4306250000  -3.656191e+001  -6.069762e+000 
4309375000  -3.552942e+001  -7.039609e+000 
4312500000  -3.531292e+001  -1.565596e+001 
4315625000  -3.539332e+001  -1.972902e+001 
4318750000  -3.562818e+001  -2.485292e+001 
4321875000  -3.580518e+001  -2.287315e+001 
4325000000  -3.512344e+001  -2.331123e+001 
4328125000  -3.458302e+001  -2.970488e+001 
4331250000  -3.422865e+001  -3.667201e+001 
4334375000  -3.468310e+001  -4.256362e+001 
4337500000  -3.542873e+001  -4.464469e+001 
4340625000  -3.591860e+001  -4.129810e+001 
4343750000  -3.495900e+001  -4.160464e+001 
4346875000  -3.453488e+001  -4.918515e+001 
4350000000  -3.438110e+001  -5.472615e+001 
4353125000  -3.431858e+001  -6.309214e+001 
4356250000  -3.608548e+001  -6.415762e+001 
4359375000  -3.646942e+001  -5.257291e+001 
4362500000  -3.350100e+001  -5.169311e+001 
4365625000  -3.179780e+001  -6.501252e+001 
4368750000  -3.254203e+001  -7.780968e+001 
4371875000  -3.356350e+001  -7.815888e+001 
4375000000  -3.308205e+001  -7.859498e+001 
4378125000  -3.243362e+001  -8.649848e+001 
4381250000  -3.271396e+001  -9.338062e+001 
4384375000  -3.242079e+001  -9.962795e+001 
4387500000  -3.317980e+001  -1.076593e+002 
4390625000  -3.423850e+001  -1.075555e+002 
4393750000  -3.343050e+001  -1.077918e+002 
4396875000  -3.279709e+001  -1.099092e+002 
4400000000  -3.237049e+001  -1.204465e+002 
4403125000  -3.308199e+001  -1.298462e+002 
4406250000  -3.399479e+001  -1.311505e+002 
4409375000  -3.410342e+001  -1.352558e+002 
4412500000  -3.545933e+001  -1.384167e+002 
4415625000  -3.567635e+001  -1.347820e+002 
