!Agilent Technologies,E8363B,MY43030201,A.06.04.32
!Agilent E8363B: A.06.04.32
!Date: Tuesday, November 11, 2014 21:06:58
!Correction: S21(Response(S21)) 
!S1P File: Measurement: S21:
# Hz S  dB   R 50
3000000000  -3.648867e+001  -4.947589e+001 
3003125000  -3.753848e+001  -5.588075e+001 
3006250000  -3.750771e+001  -5.888836e+001 
3009375000  -3.778654e+001  -5.413930e+001 
3012500000  -3.705989e+001  -5.558118e+001 
3015625000  -3.609278e+001  -6.294890e+001 
3018750000  -3.683224e+001  -6.436277e+001 
3021875000  -3.548721e+001  -6.353596e+001 
3025000000  -3.415413e+001  -6.741135e+001 
3028125000  -3.311499e+001  -7.380062e+001 
3031250000  -3.216706e+001  -8.542852e+001 
3034375000  -3.180701e+001  -9.878758e+001 
3037500000  -3.226122e+001  -1.107761e+002 
3040625000  -3.357240e+001  -1.153628e+002 
3043750000  -3.422275e+001  -1.209186e+002 
3046875000  -3.442380e+001  -1.260840e+002 
3050000000  -3.612801e+001  -1.324336e+002 
3053125000  -3.606049e+001  -1.267655e+002 
3056250000  -3.551174e+001  -1.246837e+002 
3059375000  -3.556360e+001  -1.238959e+002 
3062500000  -3.399081e+001  -1.280925e+002 
3065625000  -3.395815e+001  -1.344167e+002 
3068750000  -3.360188e+001  -1.409053e+002 
3071875000  -3.348856e+001  -1.430553e+002 
3075000000  -3.331499e+001  -1.473345e+002 
3078125000  -3.304833e+001  -1.514421e+002 
3081250000  -3.355502e+001  -1.559308e+002 
3084375000  -3.264072e+001  -1.588502e+002 
3087500000  -3.249815e+001  -1.630691e+002 
3090625000  -3.199237e+001  -1.737113e+002 
3093750000  -3.242661e+001  1.794852e+002 
3096875000  -3.344479e+001  1.734424e+002 
3100000000  -3.332862e+001  1.710638e+002 
3103125000  -3.361819e+001  1.723349e+002 
3106250000  -3.315349e+001  1.676777e+002 
3109375000  -3.331413e+001  1.636037e+002 
3112500000  -3.325012e+001  1.614020e+002 
3115625000  -3.282006e+001  1.571042e+002 
3118750000  -3.317128e+001  1.566340e+002 
3121875000  -3.230058e+001  1.473192e+002 
3125000000  -3.360602e+001  1.436714e+002 
3128125000  -3.448670e+001  1.496760e+002 
3131250000  -3.199519e+001  1.487798e+002 
3134375000  -3.076891e+001  1.334429e+002 
3137500000  -3.136914e+001  1.187868e+002 
3140625000  -3.286993e+001  1.163003e+002 
3143750000  -3.372845e+001  1.179882e+002 
3146875000  -3.338337e+001  1.189918e+002 
3150000000  -3.234519e+001  1.189358e+002 
3153125000  -3.238579e+001  1.095209e+002 
3156250000  -3.335602e+001  1.148165e+002 
3159375000  -3.161502e+001  1.160369e+002 
3162500000  -2.970320e+001  1.015183e+002 
3165625000  -3.075498e+001  8.905497e+001 
3168750000  -3.103012e+001  8.920881e+001 
3171875000  -3.014619e+001  8.347851e+001 
3175000000  -3.086450e+001  7.494231e+001 
3178125000  -3.066311e+001  7.583264e+001 
3181250000  -2.956068e+001  7.064126e+001 
3184375000  -2.883300e+001  5.718158e+001 
3187500000  -3.009170e+001  4.248988e+001 
3190625000  -3.273915e+001  3.440446e+001 
3193750000  -3.336088e+001  4.310797e+001 
3196875000  -3.301497e+001  4.754563e+001 
3200000000  -3.200869e+001  4.441996e+001 
3203125000  -3.120129e+001  3.849129e+001 
3206250000  -3.158339e+001  3.200343e+001 
3209375000  -3.104088e+001  2.573787e+001 
3212500000  -3.134208e+001  1.850572e+001 
3215625000  -3.135623e+001  1.439461e+001 
3218750000  -3.220834e+001  7.517596e+000 
3221875000  -3.294062e+001  2.493651e+000 
3225000000  -3.260971e+001  8.209198e-001 
3228125000  -3.291355e+001  -4.649387e+000 
3231250000  -3.367175e+001  -6.643987e+000 
3234375000  -3.336125e+001  -6.478753e+000 
3237500000  -3.336761e+001  -8.880649e+000 
3240625000  -3.292168e+001  -1.111163e+001 
3243750000  -3.253799e+001  -1.905170e+001 
3246875000  -3.298627e+001  -2.586781e+001 
3250000000  -3.337036e+001  -2.884601e+001 
3253125000  -3.350677e+001  -3.061349e+001 
3256250000  -3.313718e+001  -3.698589e+001 
3259375000  -3.340680e+001  -4.609980e+001 
3262500000  -3.456592e+001  -4.985212e+001 
3265625000  -3.524751e+001  -4.691122e+001 
3268750000  -3.512421e+001  -4.454015e+001 
3271875000  -3.470391e+001  -4.533249e+001 
3275000000  -3.373875e+001  -5.176567e+001 
3278125000  -3.414394e+001  -5.868154e+001 
3281250000  -3.434362e+001  -5.783835e+001 
3284375000  -3.382838e+001  -6.391350e+001 
3287500000  -3.405478e+001  -6.798694e+001 
3290625000  -3.425149e+001  -7.360335e+001 
3293750000  -3.404503e+001  -8.048752e+001 
3296875000  -3.510082e+001  -8.017306e+001 
3300000000  -3.486616e+001  -7.996827e+001 
3303125000  -3.368216e+001  -8.459949e+001 
3306250000  -3.348494e+001  -9.240330e+001 
3309375000  -3.313148e+001  -9.844519e+001 
3312500000  -3.326526e+001  -1.093444e+002 
3315625000  -3.427098e+001  -1.179387e+002 
3318750000  -3.568259e+001  -1.201217e+002 
3321875000  -3.681173e+001  -1.209088e+002 
3325000000  -3.739551e+001  -1.150114e+002 
3328125000  -3.668839e+001  -1.144604e+002 
3331250000  -3.566147e+001  -1.084974e+002 
3334375000  -3.286791e+001  -1.183248e+002 
3337500000  -3.305929e+001  -1.379578e+002 
3340625000  -3.439526e+001  -1.490264e+002 
3343750000  -3.652169e+001  -1.497135e+002 
3346875000  -3.663330e+001  -1.480071e+002 
3350000000  -3.588924e+001  -1.498491e+002 
3353125000  -3.595150e+001  -1.541550e+002 
3356250000  -3.547931e+001  -1.633646e+002 
3359375000  -3.633447e+001  -1.711821e+002 
3362500000  -3.737039e+001  -1.772184e+002 
3365625000  -3.787940e+001  -1.798835e+002 
3368750000  -3.876435e+001  -1.799168e+002 
3371875000  -3.878052e+001  1.774367e+002 
3375000000  -4.036784e+001  1.741605e+002 
3378125000  -4.117990e+001  1.731849e+002 
3381250000  -4.240196e+001  -1.778761e+002 
3384375000  -4.082782e+001  -1.543161e+002 
3387500000  -3.742540e+001  -1.719407e+002 
3390625000  -3.906132e+001  1.682391e+002 
3393750000  -4.040118e+001  1.712086e+002 
3396875000  -3.931018e+001  1.720749e+002 
3400000000  -3.864217e+001  1.635737e+002 
3403125000  -3.921573e+001  1.588259e+002 
3406250000  -3.973822e+001  1.586971e+002 
3409375000  -3.968792e+001  1.507578e+002 
3412500000  -4.029516e+001  1.487475e+002 
3415625000  -4.090977e+001  1.489932e+002 
3418750000  -4.105332e+001  1.501978e+002 
3421875000  -4.115045e+001  1.522824e+002 
3425000000  -4.016723e+001  1.550302e+002 
3428125000  -3.927427e+001  1.478230e+002 
3431250000  -3.924679e+001  1.430991e+002 
3434375000  -3.923130e+001  1.361732e+002 
3437500000  -3.954960e+001  1.321667e+002 
3440625000  -4.000985e+001  1.340028e+002 
3443750000  -3.876930e+001  1.348243e+002 
3446875000  -3.797494e+001  1.273680e+002 
3450000000  -3.763551e+001  1.176860e+002 
3453125000  -3.787231e+001  1.074251e+002 
3456250000  -3.911689e+001  1.002397e+002 
3459375000  -4.001176e+001  1.013217e+002 
3462500000  -4.014989e+001  1.007101e+002 
3465625000  -3.972169e+001  9.679041e+001 
3468750000  -4.006960e+001  9.163780e+001 
3471875000  -4.026973e+001  9.098761e+001 
3475000000  -3.956857e+001  8.579946e+001 
3478125000  -4.028519e+001  7.834402e+001 
3481250000  -4.122865e+001  7.551288e+001 
3484375000  -4.222788e+001  7.934084e+001 
3487500000  -4.120839e+001  7.979227e+001 
3490625000  -4.068118e+001  7.452607e+001 
3493750000  -4.126537e+001  6.840147e+001 
3496875000  -4.178471e+001  6.534441e+001 
3500000000  -4.235949e+001  6.885530e+001 
3503125000  -4.188331e+001  6.993578e+001 
3506250000  -4.076821e+001  6.650447e+001 
3509375000  -4.043973e+001  5.546927e+001 
3512500000  -4.109348e+001  4.658739e+001 
3515625000  -4.168095e+001  4.414049e+001 
3518750000  -4.267583e+001  4.549872e+001 
3521875000  -4.250654e+001  4.259250e+001 
3525000000  -4.357917e+001  3.919585e+001 
3528125000  -4.343115e+001  4.816676e+001 
3531250000  -4.199446e+001  4.565748e+001 
3534375000  -4.212534e+001  3.395452e+001 
3537500000  -4.247117e+001  2.863725e+001 
3540625000  -4.404769e+001  3.029588e+001 
3543750000  -4.402956e+001  3.371227e+001 
3546875000  -4.403666e+001  4.437325e+001 
3550000000  -4.131677e+001  4.399844e+001 
3553125000  -4.045680e+001  2.729939e+001 
3556250000  -4.155841e+001  2.014449e+001 
3559375000  -4.161081e+001  2.218485e+001 
3562500000  -4.065012e+001  1.529876e+001 
3565625000  -4.124043e+001  5.515925e+000 
3568750000  -4.129174e+001  1.105789e+001 
3571875000  -4.113597e+001  6.847229e+000 
3575000000  -4.064539e+001  1.450094e+000 
3578125000  -4.135908e+001  -5.847557e+000 
3581250000  -4.143781e+001  -4.607093e+000 
3584375000  -4.068614e+001  -7.502650e+000 
3587500000  -4.002434e+001  -1.689826e+001 
3590625000  -4.070462e+001  -2.594889e+001 
3593750000  -4.181435e+001  -2.899602e+001 
3596875000  -4.171606e+001  -2.152072e+001 
3600000000  -4.033643e+001  -2.968833e+001 
3603125000  -4.060967e+001  -4.316973e+001 
3606250000  -4.160508e+001  -4.706980e+001 
3609375000  -4.226666e+001  -5.030854e+001 
3612500000  -4.290039e+001  -5.235735e+001 
3615625000  -4.267123e+001  -5.654672e+001 
3618750000  -4.345261e+001  -5.488631e+001 
3621875000  -4.353992e+001  -6.007476e+001 
3625000000  -4.414900e+001  -5.840363e+001 
3628125000  -4.446353e+001  -6.266618e+001 
3631250000  -4.420631e+001  -6.752482e+001 
3634375000  -4.539452e+001  -6.601314e+001 
3637500000  -4.545395e+001  -6.194221e+001 
3640625000  -4.471573e+001  -6.187282e+001 
3643750000  -4.430431e+001  -6.573538e+001 
3646875000  -4.525369e+001  -7.498320e+001 
3650000000  -4.568295e+001  -7.383734e+001 
3653125000  -4.552136e+001  -7.443383e+001 
3656250000  -4.575692e+001  -7.506927e+001 
3659375000  -4.588665e+001  -6.878404e+001 
3662500000  -4.509614e+001  -7.281380e+001 
3665625000  -4.518612e+001  -7.024800e+001 
3668750000  -4.400980e+001  -7.218855e+001 
3671875000  -4.298520e+001  -7.990193e+001 
3675000000  -4.291416e+001  -8.578880e+001 
3678125000  -4.346470e+001  -8.531911e+001 
3681250000  -4.323590e+001  -8.675175e+001 
3684375000  -4.309460e+001  -9.414288e+001 
3687500000  -4.333058e+001  -9.702615e+001 
3690625000  -4.309472e+001  -1.015263e+002 
3693750000  -4.386488e+001  -1.008752e+002 
3696875000  -4.360730e+001  -9.850636e+001 
3700000000  -4.284848e+001  -1.084051e+002 
3703125000  -4.317752e+001  -1.109342e+002 
3706250000  -4.403525e+001  -1.095707e+002 
3709375000  -4.329200e+001  -1.110060e+002 
3712500000  -4.269738e+001  -1.121904e+002 
3715625000  -4.167406e+001  -1.197453e+002 
3718750000  -4.132555e+001  -1.245551e+002 
3721875000  -4.135281e+001  -1.331707e+002 
3725000000  -4.148654e+001  -1.378047e+002 
3728125000  -4.208238e+001  -1.381431e+002 
3731250000  -4.135280e+001  -1.416889e+002 
3734375000  -4.113369e+001  -1.473375e+002 
3737500000  -4.214191e+001  -1.565521e+002 
3740625000  -4.307929e+001  -1.613432e+002 
3743750000  -4.288527e+001  -1.615379e+002 
3746875000  -4.339575e+001  -1.652394e+002 
3750000000  -4.403881e+001  -1.668477e+002 
3753125000  -4.424808e+001  -1.651418e+002 
3756250000  -4.443575e+001  -1.647799e+002 
3759375000  -4.443660e+001  -1.669091e+002 
3762500000  -4.394782e+001  -1.687017e+002 
3765625000  -4.473470e+001  -1.680780e+002 
3768750000  -4.453025e+001  -1.641828e+002 
3771875000  -4.322075e+001  -1.652642e+002 
3775000000  -4.259557e+001  -1.705128e+002 
3778125000  -4.337983e+001  -1.739794e+002 
3781250000  -4.284982e+001  -1.753050e+002 
3784375000  -4.284985e+001  -1.767436e+002 
3787500000  -4.196048e+001  -1.786604e+002 
3790625000  -4.248819e+001  1.743303e+002 
3793750000  -4.233957e+001  1.743941e+002 
3796875000  -4.135392e+001  1.708015e+002 
3800000000  -3.970371e+001  1.707197e+002 
3803125000  -4.023427e+001  1.595996e+002 
3806250000  -4.086752e+001  1.570547e+002 
3809375000  -4.066068e+001  1.556004e+002 
3812500000  -3.969524e+001  1.493388e+002 
3815625000  -4.078534e+001  1.394568e+002 
3818750000  -4.146847e+001  1.391282e+002 
3821875000  -4.111333e+001  1.474933e+002 
3825000000  -3.953448e+001  1.491646e+002 
3828125000  -3.819421e+001  1.327821e+002 
3831250000  -3.891227e+001  1.173426e+002 
3834375000  -4.024763e+001  1.174227e+002 
3837500000  -4.137000e+001  1.235711e+002 
3840625000  -3.984435e+001  1.190218e+002 
3843750000  -3.870787e+001  1.069350e+002 
3846875000  -3.986948e+001  9.910882e+001 
3850000000  -4.113859e+001  1.047654e+002 
3853125000  -4.029430e+001  1.071232e+002 
3856250000  -4.008725e+001  9.995721e+001 
3859375000  -3.958589e+001  9.609486e+001 
3862500000  -3.939451e+001  8.632551e+001 
3865625000  -3.980633e+001  8.303667e+001 
3868750000  -3.949418e+001  8.167531e+001 
3871875000  -3.898223e+001  7.721845e+001 
3875000000  -3.939569e+001  6.820293e+001 
3878125000  -4.066599e+001  6.569817e+001 
3881250000  -4.063730e+001  6.742780e+001 
3884375000  -4.014199e+001  6.305116e+001 
3887500000  -4.003230e+001  5.910605e+001 
3890625000  -4.094067e+001  5.688901e+001 
3893750000  -4.123724e+001  5.290956e+001 
3896875000  -4.158152e+001  5.597040e+001 
3900000000  -4.128945e+001  5.443873e+001 
3903125000  -4.113541e+001  5.237819e+001 
3906250000  -4.089484e+001  4.905754e+001 
3909375000  -3.993495e+001  4.552413e+001 
3912500000  -3.985113e+001  3.762673e+001 
3915625000  -4.144036e+001  3.968608e+001 
3918750000  -4.110378e+001  4.059657e+001 
3921875000  -4.060963e+001  3.694603e+001 
3925000000  -3.982404e+001  3.350639e+001 
3928125000  -3.930313e+001  2.765306e+001 
3931250000  -3.956197e+001  2.297155e+001 
3934375000  -3.970439e+001  2.067541e+001 
3937500000  -3.993802e+001  1.993223e+001 
3940625000  -4.023633e+001  1.911403e+001 
3943750000  -3.955320e+001  1.845871e+001 
3946875000  -3.839192e+001  1.232902e+001 
3950000000  -3.892325e+001  4.797826e+000 
3953125000  -4.009341e+001  3.524605e+000 
3956250000  -3.889842e+001  4.369122e+000 
3959375000  -3.768808e+001  6.106691e-001 
3962500000  -3.716876e+001  -5.190742e+000 
3965625000  -3.711243e+001  -1.436646e+001 
3968750000  -3.832357e+001  -2.048765e+001 
3971875000  -3.840784e+001  -2.413427e+001 
3975000000  -3.802769e+001  -2.665479e+001 
3978125000  -3.776652e+001  -2.977703e+001 
3981250000  -3.783885e+001  -3.581500e+001 
3984375000  -3.804969e+001  -4.301874e+001 
3987500000  -3.860522e+001  -4.385281e+001 
3990625000  -3.859944e+001  -4.423799e+001 
3993750000  -3.898088e+001  -4.877319e+001 
3996875000  -3.918864e+001  -5.470676e+001 
4000000000  -3.905825e+001  -5.510489e+001 
4003125000  -3.970226e+001  -5.243283e+001 
4006250000  -3.839053e+001  -5.493061e+001 
4009375000  -3.703743e+001  -6.825719e+001 
4012500000  -3.851421e+001  -7.419192e+001 
4015625000  -4.003364e+001  -7.527619e+001 
4018750000  -4.003296e+001  -7.287878e+001 
4021875000  -3.902844e+001  -7.681279e+001 
4025000000  -3.866486e+001  -7.946925e+001 
4028125000  -3.916761e+001  -8.422670e+001 
4031250000  -3.936918e+001  -8.831126e+001 
4034375000  -3.962805e+001  -8.768674e+001 
4037500000  -3.886490e+001  -8.756590e+001 
4040625000  -3.905967e+001  -9.043343e+001 
4043750000  -3.945256e+001  -9.164889e+001 
4046875000  -3.887607e+001  -9.293867e+001 
4050000000  -3.849023e+001  -9.988458e+001 
4053125000  -3.881456e+001  -1.014532e+002 
4056250000  -3.940198e+001  -9.742462e+001 
4059375000  -3.803119e+001  -9.940440e+001 
4062500000  -3.696840e+001  -1.041515e+002 
4065625000  -3.672618e+001  -1.073840e+002 
4068750000  -3.636917e+001  -1.141476e+002 
4071875000  -3.568565e+001  -1.222984e+002 
4075000000  -3.616173e+001  -1.295513e+002 
4078125000  -3.657121e+001  -1.309581e+002 
4081250000  -3.611351e+001  -1.350344e+002 
4084375000  -3.577942e+001  -1.433669e+002 
4087500000  -3.610107e+001  -1.497957e+002 
4090625000  -3.681119e+001  -1.508160e+002 
4093750000  -3.651931e+001  -1.513346e+002 
4096875000  -3.608536e+001  -1.590924e+002 
4100000000  -3.691835e+001  -1.675764e+002 
4103125000  -3.783277e+001  -1.672096e+002 
4106250000  -3.783716e+001  -1.629644e+002 
4109375000  -3.646091e+001  -1.647470e+002 
4112500000  -3.614801e+001  -1.722224e+002 
4115625000  -3.661460e+001  -1.766740e+002 
4118750000  -3.682022e+001  1.786136e+002 
4121875000  -3.629551e+001  1.732846e+002 
4125000000  -3.695172e+001  1.672540e+002 
4128125000  -3.780188e+001  1.672350e+002 
4131250000  -3.771134e+001  1.753774e+002 
4134375000  -3.521488e+001  1.685505e+002 
4137500000  -3.525689e+001  1.480379e+002 
4140625000  -3.758214e+001  1.415647e+002 
4143750000  -3.863388e+001  1.457331e+002 
4146875000  -3.826289e+001  1.509826e+002 
4150000000  -3.771174e+001  1.485266e+002 
4153125000  -3.726228e+001  1.393095e+002 
4156250000  -3.861796e+001  1.371804e+002 
4159375000  -3.873563e+001  1.408486e+002 
4162500000  -3.759241e+001  1.465501e+002 
4165625000  -3.651166e+001  1.419131e+002 
4168750000  -3.604865e+001  1.330752e+002 
4171875000  -3.609403e+001  1.234583e+002 
4175000000  -3.654446e+001  1.180915e+002 
4178125000  -3.729573e+001  1.193764e+002 
4181250000  -3.705639e+001  1.162456e+002 
4184375000  -3.684070e+001  1.132250e+002 
4187500000  -3.670762e+001  1.110047e+002 
4190625000  -3.675701e+001  1.053531e+002 
4193750000  -3.736308e+001  1.002716e+002 
4196875000  -3.814893e+001  9.787344e+001 
4200000000  -3.889324e+001  9.972779e+001 
4203125000  -3.864959e+001  1.119366e+002 
4206250000  -3.542193e+001  1.128749e+002 
4209375000  -3.426903e+001  9.123423e+001 
4212500000  -3.630360e+001  8.321946e+001 
4215625000  -3.707443e+001  8.964590e+001 
4218750000  -3.572781e+001  9.463706e+001 
4221875000  -3.336650e+001  8.393356e+001 
4225000000  -3.460343e+001  7.029171e+001 
4228125000  -3.528801e+001  7.342855e+001 
4231250000  -3.354370e+001  6.956949e+001 
4234375000  -3.349067e+001  6.041548e+001 
4237500000  -3.322280e+001  5.626767e+001 
4240625000  -3.308339e+001  4.569334e+001 
4243750000  -3.432383e+001  3.840873e+001 
4246875000  -3.516767e+001  3.792343e+001 
4250000000  -3.517788e+001  3.870916e+001 
4253125000  -3.447823e+001  3.568980e+001 
4256250000  -3.512925e+001  3.069360e+001 
4259375000  -3.466589e+001  2.657435e+001 
4262500000  -3.480649e+001  2.320588e+001 
4265625000  -3.502288e+001  2.307240e+001 
4268750000  -3.403134e+001  1.831635e+001 
4271875000  -3.400689e+001  9.997591e+000 
4275000000  -3.357239e+001  2.265820e+000 
4278125000  -3.413092e+001  -1.031108e+001 
4281250000  -3.621262e+001  -1.171342e+001 
4284375000  -3.594065e+001  -1.182430e+001 
4287500000  -3.678626e+001  -1.535447e+001 
4290625000  -3.823688e+001  -5.767557e+000 
4293750000  -3.614962e+001  -1.580121e+000 
4296875000  -3.475952e+001  -1.233974e+001 
4300000000  -3.601230e+001  -2.139251e+001 
4303125000  -3.715506e+001  -2.005646e+001 
4306250000  -3.626439e+001  -1.583362e+001 
4309375000  -3.498551e+001  -1.771024e+001 
4312500000  -3.491340e+001  -2.639397e+001 
4315625000  -3.494011e+001  -3.114484e+001 
4318750000  -3.547756e+001  -3.462848e+001 
4321875000  -3.553231e+001  -3.443755e+001 
4325000000  -3.486061e+001  -3.430167e+001 
4328125000  -3.429839e+001  -4.104447e+001 
4331250000  -3.416364e+001  -5.018442e+001 
4334375000  -3.459582e+001  -5.563678e+001 
4337500000  -3.531686e+001  -5.745296e+001 
4340625000  -3.577424e+001  -5.567911e+001 
4343750000  -3.496851e+001  -5.582137e+001 
4346875000  -3.451561e+001  -6.210223e+001 
4350000000  -3.437606e+001  -6.693654e+001 
4353125000  -3.437340e+001  -7.685323e+001 
4356250000  -3.632285e+001  -7.855640e+001 
4359375000  -3.665014e+001  -6.431053e+001 
4362500000  -3.366759e+001  -6.338903e+001 
4365625000  -3.196014e+001  -7.856018e+001 
4368750000  -3.282576e+001  -9.171214e+001 
4371875000  -3.405363e+001  -9.037381e+001 
4375000000  -3.352881e+001  -9.185783e+001 
4378125000  -3.300754e+001  -9.884740e+001 
4381250000  -3.305903e+001  -1.060287e+002 
4384375000  -3.288833e+001  -1.126305e+002 
4387500000  -3.363760e+001  -1.188609e+002 
4390625000  -3.458435e+001  -1.194680e+002 
4393750000  -3.400884e+001  -1.182234e+002 
4396875000  -3.343437e+001  -1.211402e+002 
4400000000  -3.282208e+001  -1.304409e+002 
4403125000  -3.364655e+001  -1.382923e+002 
4406250000  -3.452625e+001  -1.417569e+002 
4409375000  -3.456461e+001  -1.451931e+002 
4412500000  -3.583392e+001  -1.485538e+002 
4415625000  -3.612069e+001  -1.429676e+002 
