!Agilent Technologies,E8363B,MY43030201,A.06.04.32
!Agilent E8363B: A.06.04.32
!Date: Tuesday, November 11, 2014 21:12:00
!Correction: S21(Response(S21)) 
!S1P File: Measurement: S21:
# Hz S  dB   R 50
3000000000  -3.649582e+001  -5.747974e+001 
3003125000  -3.769693e+001  -6.304289e+001 
3006250000  -3.755719e+001  -6.527204e+001 
3009375000  -3.788438e+001  -6.111513e+001 
3012500000  -3.700416e+001  -6.345568e+001 
3015625000  -3.617144e+001  -7.094016e+001 
3018750000  -3.689657e+001  -7.161902e+001 
3021875000  -3.550201e+001  -7.092062e+001 
3025000000  -3.423370e+001  -7.430571e+001 
3028125000  -3.321503e+001  -8.191613e+001 
3031250000  -3.224620e+001  -9.260603e+001 
3034375000  -3.179169e+001  -1.067041e+002 
3037500000  -3.235057e+001  -1.186758e+002 
3040625000  -3.365378e+001  -1.232094e+002 
3043750000  -3.431377e+001  -1.289810e+002 
3046875000  -3.460906e+001  -1.347286e+002 
3050000000  -3.619928e+001  -1.397373e+002 
3053125000  -3.612671e+001  -1.341924e+002 
3056250000  -3.566246e+001  -1.314760e+002 
3059375000  -3.567019e+001  -1.321110e+002 
3062500000  -3.411332e+001  -1.352325e+002 
3065625000  -3.390952e+001  -1.414207e+002 
3068750000  -3.357524e+001  -1.487705e+002 
3071875000  -3.354549e+001  -1.500202e+002 
3075000000  -3.325603e+001  -1.550477e+002 
3078125000  -3.304718e+001  -1.589229e+002 
3081250000  -3.353808e+001  -1.637693e+002 
3084375000  -3.262123e+001  -1.668159e+002 
3087500000  -3.249095e+001  -1.708242e+002 
3090625000  -3.201373e+001  1.785055e+002 
3093750000  -3.250076e+001  1.709850e+002 
3096875000  -3.361578e+001  1.662902e+002 
3100000000  -3.338925e+001  1.637511e+002 
3103125000  -3.372709e+001  1.644912e+002 
3106250000  -3.315702e+001  1.601736e+002 
3109375000  -3.319461e+001  1.563805e+002 
3112500000  -3.324062e+001  1.537014e+002 
3115625000  -3.289925e+001  1.490895e+002 
3118750000  -3.324896e+001  1.493366e+002 
3121875000  -3.232613e+001  1.390685e+002 
3125000000  -3.362423e+001  1.358765e+002 
3128125000  -3.455009e+001  1.430042e+002 
3131250000  -3.209414e+001  1.408842e+002 
3134375000  -3.082011e+001  1.257113e+002 
3137500000  -3.141166e+001  1.111401e+002 
3140625000  -3.286310e+001  1.085874e+002 
3143750000  -3.380771e+001  1.107556e+002 
3146875000  -3.329083e+001  1.110512e+002 
3150000000  -3.236617e+001  1.110804e+002 
3153125000  -3.236928e+001  1.021929e+002 
3156250000  -3.343793e+001  1.068403e+002 
3159375000  -3.156043e+001  1.081639e+002 
3162500000  -2.965142e+001  9.320059e+001 
3165625000  -3.078775e+001  8.114404e+001 
3168750000  -3.106234e+001  8.149863e+001 
3171875000  -3.020504e+001  7.559616e+001 
3175000000  -3.093339e+001  6.678425e+001 
3178125000  -3.063562e+001  6.779887e+001 
3181250000  -2.956256e+001  6.189987e+001 
3184375000  -2.894705e+001  4.936578e+001 
3187500000  -3.014287e+001  3.424918e+001 
3190625000  -3.283414e+001  2.724305e+001 
3193750000  -3.329089e+001  3.478175e+001 
3196875000  -3.294902e+001  3.954752e+001 
3200000000  -3.197680e+001  3.627134e+001 
3203125000  -3.117823e+001  3.041816e+001 
3206250000  -3.159158e+001  2.310928e+001 
3209375000  -3.112486e+001  1.750330e+001 
3212500000  -3.136559e+001  1.022823e+001 
3215625000  -3.144379e+001  7.116316e+000 
3218750000  -3.214313e+001  -3.820087e-001 
3221875000  -3.299493e+001  -5.385764e+000 
3225000000  -3.250087e+001  -7.088163e+000 
3228125000  -3.297609e+001  -1.234897e+001 
3231250000  -3.376154e+001  -1.467750e+001 
3234375000  -3.332001e+001  -1.448456e+001 
3237500000  -3.331012e+001  -1.662581e+001 
3240625000  -3.287796e+001  -1.928331e+001 
3243750000  -3.253186e+001  -2.722361e+001 
3246875000  -3.295904e+001  -3.353177e+001 
3250000000  -3.341022e+001  -3.677115e+001 
3253125000  -3.351818e+001  -3.806778e+001 
3256250000  -3.312493e+001  -4.542379e+001 
3259375000  -3.339365e+001  -5.425325e+001 
3262500000  -3.470098e+001  -5.757236e+001 
3265625000  -3.531001e+001  -5.486185e+001 
3268750000  -3.505795e+001  -5.287399e+001 
3271875000  -3.461658e+001  -5.374583e+001 
3275000000  -3.361195e+001  -6.064652e+001 
3278125000  -3.421653e+001  -6.653185e+001 
3281250000  -3.432386e+001  -6.569402e+001 
3284375000  -3.384387e+001  -7.251635e+001 
3287500000  -3.401110e+001  -7.517382e+001 
3290625000  -3.423328e+001  -8.225565e+001 
3293750000  -3.397274e+001  -8.828189e+001 
3296875000  -3.511259e+001  -8.833662e+001 
3300000000  -3.479382e+001  -8.738969e+001 
3303125000  -3.357104e+001  -9.336141e+001 
3306250000  -3.346599e+001  -1.010545e+002 
3309375000  -3.307241e+001  -1.067560e+002 
3312500000  -3.335751e+001  -1.177671e+002 
3315625000  -3.439689e+001  -1.263084e+002 
3318750000  -3.578683e+001  -1.290561e+002 
3321875000  -3.704482e+001  -1.293756e+002 
3325000000  -3.734423e+001  -1.229730e+002 
3328125000  -3.671967e+001  -1.235289e+002 
3331250000  -3.548466e+001  -1.157936e+002 
3334375000  -3.280191e+001  -1.270645e+002 
3337500000  -3.289503e+001  -1.473535e+002 
3340625000  -3.451354e+001  -1.576897e+002 
3343750000  -3.651928e+001  -1.581064e+002 
3346875000  -3.655192e+001  -1.568943e+002 
3350000000  -3.584085e+001  -1.581697e+002 
3353125000  -3.594837e+001  -1.645167e+002 
3356250000  -3.548703e+001  -1.720051e+002 
3359375000  -3.633077e+001  1.795059e+002 
3362500000  -3.742659e+001  1.737565e+002 
3365625000  -3.783859e+001  1.737611e+002 
3368750000  -3.863257e+001  1.698930e+002 
3371875000  -3.889726e+001  1.680228e+002 
3375000000  -4.040945e+001  1.654165e+002 
3378125000  -4.118961e+001  1.648529e+002 
3381250000  -4.235213e+001  1.747626e+002 
3384375000  -4.098125e+001  -1.663102e+002 
3387500000  -3.755369e+001  1.798254e+002 
3390625000  -3.921388e+001  1.590534e+002 
3393750000  -4.019861e+001  1.637333e+002 
3396875000  -3.924693e+001  1.636449e+002 
3400000000  -3.854319e+001  1.559403e+002 
3403125000  -3.926982e+001  1.509804e+002 
3406250000  -3.986093e+001  1.498518e+002 
3409375000  -3.977093e+001  1.423984e+002 
3412500000  -4.015446e+001  1.405825e+002 
3415625000  -4.086035e+001  1.405075e+002 
3418750000  -4.091612e+001  1.421312e+002 
3421875000  -4.101492e+001  1.442480e+002 
3425000000  -4.005163e+001  1.453932e+002 
3428125000  -3.924300e+001  1.407964e+002 
3431250000  -3.918413e+001  1.344663e+002 
3434375000  -3.894104e+001  1.277727e+002 
3437500000  -3.966376e+001  1.248617e+002 
3440625000  -4.001138e+001  1.255283e+002 
3443750000  -3.853263e+001  1.263102e+002 
3446875000  -3.777146e+001  1.184470e+002 
3450000000  -3.746090e+001  1.090656e+002 
3453125000  -3.777230e+001  9.891108e+001 
3456250000  -3.914319e+001  9.144039e+001 
3459375000  -4.008429e+001  9.413352e+001 
3462500000  -3.991495e+001  9.473360e+001 
3465625000  -3.991815e+001  8.789949e+001 
3468750000  -4.013929e+001  8.283624e+001 
3471875000  -4.009656e+001  8.223767e+001 
3475000000  -3.964435e+001  7.739236e+001 
3478125000  -4.024708e+001  6.884247e+001 
3481250000  -4.121893e+001  6.654588e+001 
3484375000  -4.196647e+001  7.226601e+001 
3487500000  -4.136637e+001  7.081969e+001 
3490625000  -4.086349e+001  6.443874e+001 
3493750000  -4.133253e+001  5.943661e+001 
3496875000  -4.167573e+001  5.883297e+001 
3500000000  -4.248717e+001  6.073627e+001 
3503125000  -4.204848e+001  6.382394e+001 
3506250000  -4.053143e+001  5.775778e+001 
3509375000  -4.047592e+001  4.757777e+001 
3512500000  -4.112488e+001  3.895030e+001 
3515625000  -4.197903e+001  3.548874e+001 
3518750000  -4.242533e+001  3.716138e+001 
3521875000  -4.230667e+001  3.417130e+001 
3525000000  -4.380857e+001  3.427503e+001 
3528125000  -4.322227e+001  4.022893e+001 
3531250000  -4.193641e+001  3.732317e+001 
3534375000  -4.206497e+001  2.763464e+001 
3537500000  -4.245768e+001  2.261356e+001 
3540625000  -4.348203e+001  2.170078e+001 
3543750000  -4.439721e+001  2.781291e+001 
3546875000  -4.347640e+001  3.586585e+001 
3550000000  -4.133022e+001  3.732889e+001 
3553125000  -4.009592e+001  1.957953e+001 
3556250000  -4.135035e+001  1.199222e+001 
3559375000  -4.134714e+001  1.337339e+001 
3562500000  -4.034359e+001  4.530995e+000 
3565625000  -4.105788e+001  -2.427175e+000 
3568750000  -4.117857e+001  9.778922e-001 
3571875000  -4.109684e+001  -1.923747e+000 
3575000000  -4.077728e+001  -9.865651e+000 
3578125000  -4.128613e+001  -1.337954e+001 
3581250000  -4.141463e+001  -1.362865e+001 
3584375000  -4.025951e+001  -1.870173e+001 
3587500000  -3.986071e+001  -2.694904e+001 
3590625000  -4.064288e+001  -3.720527e+001 
3593750000  -4.168819e+001  -3.800788e+001 
3596875000  -4.165542e+001  -3.395458e+001 
3600000000  -4.030667e+001  -3.795446e+001 
3603125000  -4.066328e+001  -5.503865e+001 
3606250000  -4.173576e+001  -5.840906e+001 
3609375000  -4.220158e+001  -6.188854e+001 
3612500000  -4.287385e+001  -6.435874e+001 
3615625000  -4.275891e+001  -6.749660e+001 
3618750000  -4.379539e+001  -6.736209e+001 
3621875000  -4.372945e+001  -7.005318e+001 
3625000000  -4.407616e+001  -6.996231e+001 
3628125000  -4.457698e+001  -7.137724e+001 
3631250000  -4.436093e+001  -7.674485e+001 
3634375000  -4.579733e+001  -7.854842e+001 
3637500000  -4.599000e+001  -7.195699e+001 
3640625000  -4.474024e+001  -6.858776e+001 
3643750000  -4.438947e+001  -7.753045e+001 
3646875000  -4.511201e+001  -8.268616e+001 
3650000000  -4.554940e+001  -7.805346e+001 
3653125000  -4.589656e+001  -8.127477e+001 
3656250000  -4.596288e+001  -8.164938e+001 
3659375000  -4.560289e+001  -7.688437e+001 
3662500000  -4.467767e+001  -8.082396e+001 
3665625000  -4.470414e+001  -7.970964e+001 
3668750000  -4.380256e+001  -7.932661e+001 
3671875000  -4.257161e+001  -8.720766e+001 
3675000000  -4.270640e+001  -9.369184e+001 
3678125000  -4.298253e+001  -9.417486e+001 
3681250000  -4.299339e+001  -9.706638e+001 
3684375000  -4.261357e+001  -1.020789e+002 
3687500000  -4.291903e+001  -1.061731e+002 
3690625000  -4.297059e+001  -1.118008e+002 
3693750000  -4.390613e+001  -1.119801e+002 
3696875000  -4.340054e+001  -1.123103e+002 
3700000000  -4.239252e+001  -1.177135e+002 
3703125000  -4.302196e+001  -1.243353e+002 
3706250000  -4.368423e+001  -1.225757e+002 
3709375000  -4.332223e+001  -1.216315e+002 
3712500000  -4.220890e+001  -1.244384e+002 
3715625000  -4.121040e+001  -1.323745e+002 
3718750000  -4.142520e+001  -1.358255e+002 
3721875000  -4.108085e+001  -1.435801e+002 
3725000000  -4.149697e+001  -1.498073e+002 
3728125000  -4.195229e+001  -1.507481e+002 
3731250000  -4.137360e+001  -1.538204e+002 
3734375000  -4.141376e+001  -1.612783e+002 
3737500000  -4.231775e+001  -1.680014e+002 
3740625000  -4.306589e+001  -1.721130e+002 
3743750000  -4.320920e+001  -1.739178e+002 
3746875000  -4.352296e+001  -1.766982e+002 
3750000000  -4.449105e+001  -1.755076e+002 
3753125000  -4.462775e+001  -1.764213e+002 
3756250000  -4.440739e+001  -1.764798e+002 
3759375000  -4.458588e+001  -1.747805e+002 
3762500000  -4.434053e+001  -1.763101e+002 
3765625000  -4.528089e+001  -1.773007e+002 
3768750000  -4.516125e+001  -1.727971e+002 
3771875000  -4.367731e+001  -1.746976e+002 
3775000000  -4.322435e+001  1.784608e+002 
3778125000  -4.342683e+001  1.758845e+002 
3781250000  -4.306450e+001  1.763559e+002 
3784375000  -4.271153e+001  1.752784e+002 
3787500000  -4.207943e+001  1.739341e+002 
3790625000  -4.249932e+001  1.664200e+002 
3793750000  -4.221920e+001  1.668725e+002 
3796875000  -4.106531e+001  1.642448e+002 
3800000000  -3.940884e+001  1.610600e+002 
3803125000  -4.008517e+001  1.521615e+002 
3806250000  -4.107379e+001  1.486204e+002 
3809375000  -4.054415e+001  1.444333e+002 
3812500000  -3.977985e+001  1.378327e+002 
3815625000  -4.048486e+001  1.304630e+002 
3818750000  -4.138976e+001  1.289194e+002 
3821875000  -4.103412e+001  1.359152e+002 
3825000000  -3.920628e+001  1.394158e+002 
3828125000  -3.797102e+001  1.228309e+002 
3831250000  -3.866727e+001  1.073438e+002 
3834375000  -4.026302e+001  1.061046e+002 
3837500000  -4.104357e+001  1.122319e+002 
3840625000  -3.941332e+001  1.110486e+002 
3843750000  -3.891161e+001  9.485943e+001 
3846875000  -3.989387e+001  9.057831e+001 
3850000000  -4.105749e+001  9.425938e+001 
3853125000  -4.044342e+001  9.638159e+001 
3856250000  -4.023159e+001  9.087968e+001 
3859375000  -3.958025e+001  8.374962e+001 
3862500000  -3.928418e+001  7.480943e+001 
3865625000  -3.998314e+001  7.103268e+001 
3868750000  -3.979336e+001  6.929037e+001 
3871875000  -3.910789e+001  6.625649e+001 
3875000000  -3.957149e+001  5.758177e+001 
3878125000  -4.073826e+001  5.553262e+001 
3881250000  -4.084406e+001  5.638987e+001 
3884375000  -4.034023e+001  5.376633e+001 
3887500000  -4.065705e+001  4.805505e+001 
3890625000  -4.114732e+001  4.563659e+001 
3893750000  -4.099612e+001  4.500976e+001 
3896875000  -4.156768e+001  4.608310e+001 
3900000000  -4.168144e+001  4.539621e+001 
3903125000  -4.142480e+001  4.240089e+001 
3906250000  -4.058179e+001  4.073611e+001 
3909375000  -3.994869e+001  3.734107e+001 
3912500000  -4.041392e+001  2.901499e+001 
3915625000  -4.169993e+001  3.301331e+001 
3918750000  -4.129386e+001  3.136068e+001 
3921875000  -4.061470e+001  2.866677e+001 
3925000000  -3.980627e+001  2.715176e+001 
3928125000  -3.934480e+001  1.854823e+001 
3931250000  -3.956622e+001  1.357675e+001 
3934375000  -3.995554e+001  1.376473e+001 
3937500000  -4.003056e+001  1.164157e+001 
3940625000  -4.050372e+001  1.013747e+001 
3943750000  -3.906982e+001  9.627826e+000 
3946875000  -3.832524e+001  2.242361e+000 
3950000000  -3.887980e+001  -5.172242e+000 
3953125000  -4.008696e+001  -8.722362e+000 
3956250000  -3.870444e+001  -4.135318e+000 
3959375000  -3.755416e+001  -9.126190e+000 
3962500000  -3.721704e+001  -1.437306e+001 
3965625000  -3.698677e+001  -2.577037e+001 
3968750000  -3.808228e+001  -3.298477e+001 
3971875000  -3.811749e+001  -3.347749e+001 
3975000000  -3.768566e+001  -3.759036e+001 
3978125000  -3.766800e+001  -4.149866e+001 
3981250000  -3.747775e+001  -4.664728e+001 
3984375000  -3.794981e+001  -5.297564e+001 
3987500000  -3.827784e+001  -5.517734e+001 
3990625000  -3.856615e+001  -5.701400e+001 
3993750000  -3.883289e+001  -6.257578e+001 
3996875000  -3.882211e+001  -6.407926e+001 
4000000000  -3.945922e+001  -6.703005e+001 
4003125000  -3.984205e+001  -6.446748e+001 
4006250000  -3.813779e+001  -6.770382e+001 
4009375000  -3.751790e+001  -8.048782e+001 
4012500000  -3.886402e+001  -8.458516e+001 
4015625000  -4.004197e+001  -8.449539e+001 
4018750000  -4.017533e+001  -8.447460e+001 
4021875000  -3.974775e+001  -8.676980e+001 
4025000000  -3.918506e+001  -9.154134e+001 
4028125000  -3.938589e+001  -9.474733e+001 
4031250000  -3.986149e+001  -9.858072e+001 
4034375000  -3.971266e+001  -9.857337e+001 
4037500000  -3.956956e+001  -9.544649e+001 
4040625000  -3.933214e+001  -1.012832e+002 
4043750000  -3.969923e+001  -1.016616e+002 
4046875000  -3.882821e+001  -1.025567e+002 
4050000000  -3.862451e+001  -1.090079e+002 
4053125000  -3.931216e+001  -1.093675e+002 
4056250000  -3.988046e+001  -1.062511e+002 
4059375000  -3.816101e+001  -1.064712e+002 
4062500000  -3.663426e+001  -1.110006e+002 
4065625000  -3.666060e+001  -1.161199e+002 
4068750000  -3.623761e+001  -1.228512e+002 
4071875000  -3.564760e+001  -1.328782e+002 
4075000000  -3.609665e+001  -1.380850e+002 
4078125000  -3.664028e+001  -1.403919e+002 
4081250000  -3.608777e+001  -1.445096e+002 
4084375000  -3.566647e+001  -1.527915e+002 
4087500000  -3.605378e+001  -1.587842e+002 
4090625000  -3.666742e+001  -1.605492e+002 
4093750000  -3.614801e+001  -1.614945e+002 
4096875000  -3.608543e+001  -1.695075e+002 
4100000000  -3.689476e+001  -1.767322e+002 
4103125000  -3.769570e+001  -1.767928e+002 
4106250000  -3.747242e+001  -1.725437e+002 
4109375000  -3.635970e+001  -1.748177e+002 
4112500000  -3.603061e+001  1.765706e+002 
4115625000  -3.662550e+001  1.721404e+002 
4118750000  -3.645550e+001  1.682489e+002 
4121875000  -3.617171e+001  1.621035e+002 
4125000000  -3.661873e+001  1.555806e+002 
4128125000  -3.789666e+001  1.558434e+002 
4131250000  -3.752335e+001  1.623311e+002 
4134375000  -3.514663e+001  1.576388e+002 
4137500000  -3.527598e+001  1.362954e+002 
4140625000  -3.745655e+001  1.294237e+002 
4143750000  -3.876199e+001  1.328871e+002 
4146875000  -3.837300e+001  1.412836e+002 
4150000000  -3.745054e+001  1.355438e+002 
4153125000  -3.762012e+001  1.284526e+002 
4156250000  -3.872121e+001  1.270654e+002 
4159375000  -3.877848e+001  1.309122e+002 
4162500000  -3.777624e+001  1.351340e+002 
4165625000  -3.662984e+001  1.309907e+002 
4168750000  -3.605158e+001  1.228423e+002 
4171875000  -3.617748e+001  1.129296e+002 
4175000000  -3.702453e+001  1.077176e+002 
4178125000  -3.760997e+001  1.080541e+002 
4181250000  -3.713144e+001  1.070284e+002 
4184375000  -3.702674e+001  1.026704e+002 
4187500000  -3.695562e+001  1.011724e+002 
4190625000  -3.696762e+001  9.544731e+001 
4193750000  -3.759456e+001  9.121381e+001 
4196875000  -3.828776e+001  8.902642e+001 
4200000000  -3.924608e+001  9.333837e+001 
4203125000  -3.874337e+001  1.059553e+002 
4206250000  -3.524826e+001  1.044467e+002 
4209375000  -3.427761e+001  8.239735e+001 
4212500000  -3.619943e+001  7.283339e+001 
4215625000  -3.711611e+001  8.037044e+001 
4218750000  -3.550884e+001  8.606371e+001 
4221875000  -3.320381e+001  7.535098e+001 
4225000000  -3.440580e+001  6.266786e+001 
4228125000  -3.500196e+001  6.735629e+001 
4231250000  -3.333622e+001  5.989482e+001 
4234375000  -3.310593e+001  5.114353e+001 
4237500000  -3.277398e+001  4.694300e+001 
4240625000  -3.299068e+001  3.661364e+001 
4243750000  -3.389234e+001  2.798267e+001 
4246875000  -3.483890e+001  2.751455e+001 
4250000000  -3.459821e+001  2.850762e+001 
4253125000  -3.418892e+001  2.500320e+001 
4256250000  -3.455234e+001  1.982823e+001 
4259375000  -3.433707e+001  1.758836e+001 
4262500000  -3.445494e+001  1.193637e+001 
4265625000  -3.462397e+001  1.060354e+001 
4268750000  -3.380814e+001  5.994687e+000 
4271875000  -3.353304e+001  -2.023327e+000 
4275000000  -3.330546e+001  -9.872908e+000 
4278125000  -3.410319e+001  -2.225762e+001 
4281250000  -3.591805e+001  -2.251297e+001 
4284375000  -3.569280e+001  -2.367119e+001 
4287500000  -3.682688e+001  -2.815727e+001 
4290625000  -3.787655e+001  -1.797869e+001 
4293750000  -3.598627e+001  -1.422526e+001 
4296875000  -3.513669e+001  -2.648244e+001 
4300000000  -3.614779e+001  -3.380984e+001 
4303125000  -3.745005e+001  -3.193430e+001 
4306250000  -3.664353e+001  -2.763630e+001 
4309375000  -3.521917e+001  -3.033297e+001 
4312500000  -3.501045e+001  -3.717950e+001 
4315625000  -3.528468e+001  -4.242815e+001 
4318750000  -3.563157e+001  -4.585978e+001 
4321875000  -3.569891e+001  -4.488544e+001 
4325000000  -3.498077e+001  -4.521299e+001 
4328125000  -3.439994e+001  -5.185291e+001 
4331250000  -3.431240e+001  -6.091363e+001 
4334375000  -3.481118e+001  -6.510063e+001 
4337500000  -3.556788e+001  -6.780836e+001 
4340625000  -3.598183e+001  -6.332062e+001 
4343750000  -3.511883e+001  -6.434219e+001 
4346875000  -3.458992e+001  -7.064359e+001 
4350000000  -3.447193e+001  -7.651594e+001 
4353125000  -3.455921e+001  -8.598255e+001 
4356250000  -3.656200e+001  -8.563373e+001 
4359375000  -3.658374e+001  -7.327470e+001 
4362500000  -3.319954e+001  -7.369563e+001 
4365625000  -3.190178e+001  -8.783729e+001 
4368750000  -3.254040e+001  -9.997032e+001 
4371875000  -3.369394e+001  -1.005217e+002 
4375000000  -3.325140e+001  -1.019676e+002 
4378125000  -3.244622e+001  -1.085891e+002 
4381250000  -3.262661e+001  -1.156218e+002 
4384375000  -3.252876e+001  -1.231389e+002 
4387500000  -3.329272e+001  -1.292949e+002 
4390625000  -3.407830e+001  -1.291796e+002 
4393750000  -3.361540e+001  -1.294465e+002 
4396875000  -3.285101e+001  -1.326677e+002 
4400000000  -3.247368e+001  -1.413577e+002 
4403125000  -3.320771e+001  -1.502106e+002 
4406250000  -3.398751e+001  -1.534669e+002 
4409375000  -3.413257e+001  -1.576126e+002 
4412500000  -3.525300e+001  -1.606973e+002 
4415625000  -3.576323e+001  -1.571767e+002 
