!Agilent Technologies,E8363B,MY43030201,A.06.04.32
!Agilent E8363B: A.06.04.32
!Date: Tuesday, November 11, 2014 21:09:42
!Correction: S21(Response(S21)) 
!S1P File: Measurement: S21:
# Hz S  dB   R 50
3000000000  -3.629644e+001  -5.636252e+001 
3003125000  -3.754455e+001  -6.236645e+001 
3006250000  -3.748145e+001  -6.453327e+001 
3009375000  -3.781031e+001  -5.947630e+001 
3012500000  -3.705717e+001  -6.216811e+001 
3015625000  -3.620692e+001  -6.949465e+001 
3018750000  -3.684357e+001  -7.013309e+001 
3021875000  -3.546824e+001  -6.885032e+001 
3025000000  -3.420942e+001  -7.327618e+001 
3028125000  -3.322028e+001  -7.975121e+001 
3031250000  -3.222335e+001  -9.117821e+001 
3034375000  -3.189223e+001  -1.047912e+002 
3037500000  -3.235661e+001  -1.167882e+002 
3040625000  -3.374270e+001  -1.210247e+002 
3043750000  -3.438769e+001  -1.265083e+002 
3046875000  -3.462611e+001  -1.322424e+002 
3050000000  -3.628672e+001  -1.386673e+002 
3053125000  -3.604487e+001  -1.316742e+002 
3056250000  -3.566582e+001  -1.289067e+002 
3059375000  -3.589743e+001  -1.293533e+002 
3062500000  -3.415059e+001  -1.323331e+002 
3065625000  -3.395834e+001  -1.390924e+002 
3068750000  -3.362427e+001  -1.460800e+002 
3071875000  -3.357378e+001  -1.480624e+002 
3075000000  -3.331671e+001  -1.524147e+002 
3078125000  -3.300901e+001  -1.561541e+002 
3081250000  -3.352660e+001  -1.602256e+002 
3084375000  -3.266774e+001  -1.639528e+002 
3087500000  -3.249619e+001  -1.679405e+002 
3090625000  -3.202866e+001  -1.783284e+002 
3093750000  -3.249230e+001  1.745229e+002 
3096875000  -3.349463e+001  1.687416e+002 
3100000000  -3.342245e+001  1.667677e+002 
3103125000  -3.362614e+001  1.673923e+002 
3106250000  -3.311287e+001  1.630566e+002 
3109375000  -3.321323e+001  1.595711e+002 
3112500000  -3.321540e+001  1.562314e+002 
3115625000  -3.279215e+001  1.516092e+002 
3118750000  -3.317885e+001  1.514776e+002 
3121875000  -3.231541e+001  1.423367e+002 
3125000000  -3.355082e+001  1.384091e+002 
3128125000  -3.442095e+001  1.455903e+002 
3131250000  -3.203664e+001  1.435453e+002 
3134375000  -3.072915e+001  1.279920e+002 
3137500000  -3.129926e+001  1.144265e+002 
3140625000  -3.285088e+001  1.110599e+002 
3143750000  -3.382509e+001  1.119837e+002 
3146875000  -3.332335e+001  1.131819e+002 
3150000000  -3.234597e+001  1.135000e+002 
3153125000  -3.239884e+001  1.040622e+002 
3156250000  -3.343232e+001  1.090025e+002 
3159375000  -3.158997e+001  1.111262e+002 
3162500000  -2.973005e+001  9.576440e+001 
3165625000  -3.075274e+001  8.326395e+001 
3168750000  -3.106834e+001  8.370566e+001 
3171875000  -3.022651e+001  7.802084e+001 
3175000000  -3.098906e+001  6.940639e+001 
3178125000  -3.064239e+001  6.980008e+001 
3181250000  -2.963050e+001  6.430320e+001 
3184375000  -2.901432e+001  5.198225e+001 
3187500000  -3.027719e+001  3.676305e+001 
3190625000  -3.294592e+001  2.881346e+001 
3193750000  -3.342822e+001  3.741928e+001 
3196875000  -3.308639e+001  4.183113e+001 
3200000000  -3.213247e+001  3.923314e+001 
3203125000  -3.146717e+001  3.276733e+001 
3206250000  -3.175266e+001  2.642945e+001 
3209375000  -3.126250e+001  2.071915e+001 
3212500000  -3.153774e+001  1.341822e+001 
3215625000  -3.160943e+001  9.893348e+000 
3218750000  -3.237322e+001  2.457515e+000 
3221875000  -3.323371e+001  -2.801470e+000 
3225000000  -3.265997e+001  -3.957172e+000 
3228125000  -3.313188e+001  -9.425313e+000 
3231250000  -3.378576e+001  -1.127467e+001 
3234375000  -3.349685e+001  -1.175834e+001 
3237500000  -3.349996e+001  -1.341628e+001 
3240625000  -3.302785e+001  -1.540480e+001 
3243750000  -3.260720e+001  -2.354687e+001 
3246875000  -3.315855e+001  -3.068833e+001 
3250000000  -3.350266e+001  -3.255584e+001 
3253125000  -3.358629e+001  -3.542599e+001 
3256250000  -3.309845e+001  -4.207791e+001 
3259375000  -3.338963e+001  -5.023754e+001 
3262500000  -3.458223e+001  -5.388082e+001 
3265625000  -3.520344e+001  -5.079686e+001 
3268750000  -3.513196e+001  -4.878570e+001 
3271875000  -3.470692e+001  -4.928612e+001 
3275000000  -3.374312e+001  -5.678239e+001 
3278125000  -3.430492e+001  -6.307980e+001 
3281250000  -3.442413e+001  -6.212634e+001 
3284375000  -3.381674e+001  -6.924492e+001 
3287500000  -3.411923e+001  -7.240979e+001 
3290625000  -3.434325e+001  -7.896239e+001 
3293750000  -3.399738e+001  -8.518147e+001 
3296875000  -3.504236e+001  -8.515254e+001 
3300000000  -3.476463e+001  -8.526043e+001 
3303125000  -3.361662e+001  -9.037994e+001 
3306250000  -3.348938e+001  -9.766602e+001 
3309375000  -3.320971e+001  -1.036707e+002 
3312500000  -3.332941e+001  -1.145628e+002 
3315625000  -3.436191e+001  -1.230481e+002 
3318750000  -3.570393e+001  -1.253757e+002 
3321875000  -3.696751e+001  -1.257948e+002 
3325000000  -3.735250e+001  -1.201792e+002 
3328125000  -3.689598e+001  -1.204088e+002 
3331250000  -3.576118e+001  -1.130585e+002 
3334375000  -3.299621e+001  -1.246590e+002 
3337500000  -3.311722e+001  -1.438670e+002 
3340625000  -3.463511e+001  -1.544821e+002 
3343750000  -3.657193e+001  -1.564187e+002 
3346875000  -3.671653e+001  -1.535753e+002 
3350000000  -3.608134e+001  -1.558550e+002 
3353125000  -3.612296e+001  -1.601977e+002 
3356250000  -3.570591e+001  -1.690068e+002 
3359375000  -3.658902e+001  -1.770419e+002 
3362500000  -3.767576e+001  1.777877e+002 
3365625000  -3.804049e+001  1.757775e+002 
3368750000  -3.890813e+001  1.738081e+002 
3371875000  -3.931664e+001  1.707491e+002 
3375000000  -4.048252e+001  1.678389e+002 
3378125000  -4.139193e+001  1.693129e+002 
3381250000  -4.292809e+001  1.768536e+002 
3384375000  -4.117146e+001  -1.606964e+002 
3387500000  -3.772992e+001  -1.781544e+002 
3390625000  -3.950402e+001  1.627100e+002 
3393750000  -4.050146e+001  1.670665e+002 
3396875000  -3.935078e+001  1.674932e+002 
3400000000  -3.876746e+001  1.592445e+002 
3403125000  -3.927313e+001  1.558358e+002 
3406250000  -3.971976e+001  1.555967e+002 
3409375000  -3.995721e+001  1.473359e+002 
3412500000  -4.014775e+001  1.455771e+002 
3415625000  -4.106678e+001  1.457568e+002 
3418750000  -4.121870e+001  1.459577e+002 
3421875000  -4.119349e+001  1.491641e+002 
3425000000  -4.031973e+001  1.490788e+002 
3428125000  -3.940858e+001  1.445546e+002 
3431250000  -3.914089e+001  1.378099e+002 
3434375000  -3.915617e+001  1.314563e+002 
3437500000  -3.977941e+001  1.271164e+002 
3440625000  -3.996690e+001  1.298744e+002 
3443750000  -3.875810e+001  1.303176e+002 
3446875000  -3.790606e+001  1.217157e+002 
3450000000  -3.768703e+001  1.118968e+002 
3453125000  -3.801032e+001  1.012112e+002 
3456250000  -3.916458e+001  9.494048e+001 
3459375000  -4.014360e+001  9.531725e+001 
3462500000  -3.994636e+001  9.700522e+001 
3465625000  -4.000333e+001  8.925889e+001 
3468750000  -4.051664e+001  8.549763e+001 
3471875000  -4.019284e+001  8.534702e+001 
3475000000  -3.985323e+001  8.125060e+001 
3478125000  -4.064218e+001  7.316407e+001 
3481250000  -4.162473e+001  7.164619e+001 
3484375000  -4.241825e+001  7.495872e+001 
3487500000  -4.172818e+001  7.521559e+001 
3490625000  -4.116947e+001  6.973825e+001 
3493750000  -4.157460e+001  6.384213e+001 
3496875000  -4.216599e+001  6.412311e+001 
3500000000  -4.253471e+001  6.637187e+001 
3503125000  -4.233223e+001  7.087852e+001 
3506250000  -4.073806e+001  6.428106e+001 
3509375000  -4.075465e+001  5.437273e+001 
3512500000  -4.113906e+001  4.690614e+001 
3515625000  -4.204264e+001  4.396793e+001 
3518750000  -4.256559e+001  4.438070e+001 
3521875000  -4.246076e+001  4.295923e+001 
3525000000  -4.343065e+001  3.858759e+001 
3528125000  -4.290499e+001  4.690832e+001 
3531250000  -4.157761e+001  4.573643e+001 
3534375000  -4.184968e+001  3.568206e+001 
3537500000  -4.215982e+001  2.890198e+001 
3540625000  -4.338436e+001  2.734813e+001 
3543750000  -4.337674e+001  3.079455e+001 
3546875000  -4.336958e+001  4.074887e+001 
3550000000  -4.086343e+001  4.240961e+001 
3553125000  -3.960435e+001  2.371735e+001 
3556250000  -4.097550e+001  1.759045e+001 
3559375000  -4.057581e+001  1.721670e+001 
3562500000  -3.972130e+001  7.662433e+000 
3565625000  -4.052275e+001  8.201191e-001 
3568750000  -4.086588e+001  3.252961e+000 
3571875000  -4.070279e+001  5.515453e-001 
3575000000  -4.058328e+001  -6.413963e+000 
3578125000  -4.106814e+001  -1.134922e+001 
3581250000  -4.103875e+001  -1.209123e+001 
3584375000  -4.028977e+001  -1.527387e+001 
3587500000  -3.990263e+001  -2.545081e+001 
3590625000  -4.040143e+001  -3.494264e+001 
3593750000  -4.178739e+001  -3.688747e+001 
3596875000  -4.178611e+001  -3.141996e+001 
3600000000  -4.012356e+001  -3.750840e+001 
3603125000  -4.084745e+001  -5.095668e+001 
3606250000  -4.186696e+001  -5.547684e+001 
3609375000  -4.259565e+001  -5.806473e+001 
3612500000  -4.333019e+001  -5.899578e+001 
3615625000  -4.342060e+001  -6.262030e+001 
3618750000  -4.429169e+001  -6.129151e+001 
3621875000  -4.429852e+001  -6.446678e+001 
3625000000  -4.474765e+001  -6.435990e+001 
3628125000  -4.495376e+001  -6.450185e+001 
3631250000  -4.456375e+001  -6.867690e+001 
3634375000  -4.590632e+001  -6.939310e+001 
3637500000  -4.574505e+001  -6.239948e+001 
3640625000  -4.500086e+001  -5.765941e+001 
3643750000  -4.460839e+001  -6.381682e+001 
3646875000  -4.481939e+001  -7.187611e+001 
3650000000  -4.553241e+001  -7.048142e+001 
3653125000  -4.478967e+001  -7.338828e+001 
3656250000  -4.500493e+001  -7.225038e+001 
3659375000  -4.519458e+001  -7.037791e+001 
3662500000  -4.395554e+001  -7.209475e+001 
3665625000  -4.410577e+001  -7.266570e+001 
3668750000  -4.291853e+001  -7.392386e+001 
3671875000  -4.177415e+001  -8.149267e+001 
3675000000  -4.215079e+001  -8.926814e+001 
3678125000  -4.249331e+001  -9.161475e+001 
3681250000  -4.189962e+001  -9.498801e+001 
3684375000  -4.213156e+001  -1.007389e+002 
3687500000  -4.209225e+001  -1.042985e+002 
3690625000  -4.220269e+001  -1.076543e+002 
3693750000  -4.345188e+001  -1.095792e+002 
3696875000  -4.312485e+001  -1.085288e+002 
3700000000  -4.223996e+001  -1.151582e+002 
3703125000  -4.238428e+001  -1.219914e+002 
3706250000  -4.338361e+001  -1.218959e+002 
3709375000  -4.275010e+001  -1.176816e+002 
3712500000  -4.203510e+001  -1.205176e+002 
3715625000  -4.138621e+001  -1.304765e+002 
3718750000  -4.114314e+001  -1.352672e+002 
3721875000  -4.131937e+001  -1.422645e+002 
3725000000  -4.120026e+001  -1.498776e+002 
3728125000  -4.212372e+001  -1.496096e+002 
3731250000  -4.168449e+001  -1.518913e+002 
3734375000  -4.151661e+001  -1.572768e+002 
3737500000  -4.241648e+001  -1.652882e+002 
3740625000  -4.359178e+001  -1.677374e+002 
3743750000  -4.355360e+001  -1.703530e+002 
3746875000  -4.373257e+001  -1.730703e+002 
3750000000  -4.512847e+001  -1.725309e+002 
3753125000  -4.458462e+001  -1.684989e+002 
3756250000  -4.494236e+001  -1.686944e+002 
3759375000  -4.487383e+001  -1.671928e+002 
3762500000  -4.502168e+001  -1.717621e+002 
3765625000  -4.522358e+001  -1.740275e+002 
3768750000  -4.461222e+001  -1.672346e+002 
3771875000  -4.304164e+001  -1.664916e+002 
3775000000  -4.264020e+001  -1.736464e+002 
3778125000  -4.300407e+001  -1.737951e+002 
3781250000  -4.269403e+001  -1.795778e+002 
3784375000  -4.267976e+001  -1.781308e+002 
3787500000  -4.173115e+001  1.792991e+002 
3790625000  -4.202057e+001  1.706024e+002 
3793750000  -4.196301e+001  1.709097e+002 
3796875000  -4.090837e+001  1.689916e+002 
3800000000  -3.909499e+001  1.646275e+002 
3803125000  -3.973019e+001  1.531019e+002 
3806250000  -4.067061e+001  1.504296e+002 
3809375000  -4.035624e+001  1.482554e+002 
3812500000  -3.959736e+001  1.405082e+002 
3815625000  -4.000981e+001  1.319743e+002 
3818750000  -4.110789e+001  1.317219e+002 
3821875000  -4.111135e+001  1.405343e+002 
3825000000  -3.923447e+001  1.398886e+002 
3828125000  -3.770796e+001  1.241819e+002 
3831250000  -3.844345e+001  1.079262e+002 
3834375000  -4.018812e+001  1.081231e+002 
3837500000  -4.079538e+001  1.117152e+002 
3840625000  -3.968741e+001  1.098734e+002 
3843750000  -3.888096e+001  9.709686e+001 
3846875000  -3.958768e+001  9.018032e+001 
3850000000  -4.119906e+001  9.623735e+001 
3853125000  -4.054922e+001  9.764541e+001 
3856250000  -4.028920e+001  9.114581e+001 
3859375000  -3.971853e+001  8.695683e+001 
3862500000  -3.952889e+001  7.862783e+001 
3865625000  -3.995416e+001  7.384235e+001 
3868750000  -3.995374e+001  7.182017e+001 
3871875000  -3.933055e+001  7.019910e+001 
3875000000  -3.989964e+001  5.970424e+001 
3878125000  -4.089608e+001  5.911787e+001 
3881250000  -4.097292e+001  5.927538e+001 
3884375000  -4.067611e+001  5.682237e+001 
3887500000  -4.099414e+001  5.329034e+001 
3890625000  -4.133096e+001  5.073166e+001 
3893750000  -4.170861e+001  4.890220e+001 
3896875000  -4.200843e+001  5.181541e+001 
3900000000  -4.207670e+001  4.972520e+001 
3903125000  -4.156938e+001  4.591355e+001 
3906250000  -4.107705e+001  4.493031e+001 
3909375000  -4.038408e+001  4.186238e+001 
3912500000  -4.034883e+001  3.514106e+001 
3915625000  -4.162359e+001  3.797483e+001 
3918750000  -4.119434e+001  3.883646e+001 
3921875000  -4.067958e+001  3.585820e+001 
3925000000  -3.974224e+001  3.102098e+001 
3928125000  -3.909873e+001  2.405363e+001 
3931250000  -3.949123e+001  1.951037e+001 
3934375000  -3.957371e+001  1.806633e+001 
3937500000  -4.002668e+001  1.699812e+001 
3940625000  -4.023317e+001  1.366489e+001 
3943750000  -3.927485e+001  1.416926e+001 
3946875000  -3.788890e+001  8.765633e+000 
3950000000  -3.890538e+001  -6.340838e-001 
3953125000  -3.965555e+001  -3.216170e+000 
3956250000  -3.858480e+001  -1.590889e+000 
3959375000  -3.720644e+001  -6.127112e+000 
3962500000  -3.704807e+001  -1.028089e+001 
3965625000  -3.694810e+001  -2.178428e+001 
3968750000  -3.779873e+001  -2.797320e+001 
3971875000  -3.809227e+001  -3.110243e+001 
3975000000  -3.774726e+001  -3.338022e+001 
3978125000  -3.777409e+001  -3.792186e+001 
3981250000  -3.761700e+001  -4.428465e+001 
3984375000  -3.787130e+001  -4.888930e+001 
3987500000  -3.842543e+001  -5.291794e+001 
3990625000  -3.855692e+001  -5.620043e+001 
3993750000  -3.910142e+001  -5.822125e+001 
3996875000  -3.894973e+001  -6.336518e+001 
4000000000  -3.950943e+001  -6.458236e+001 
4003125000  -4.023512e+001  -6.180069e+001 
4006250000  -3.853511e+001  -6.324811e+001 
4009375000  -3.780623e+001  -7.685122e+001 
4012500000  -3.910698e+001  -8.225792e+001 
4015625000  -4.038280e+001  -8.273930e+001 
4018750000  -4.066043e+001  -7.923238e+001 
4021875000  -3.989234e+001  -8.176954e+001 
4025000000  -3.962807e+001  -8.566579e+001 
4028125000  -3.962016e+001  -8.897293e+001 
4031250000  -3.964546e+001  -9.384765e+001 
4034375000  -4.026244e+001  -9.082693e+001 
4037500000  -3.983560e+001  -8.989852e+001 
4040625000  -3.959113e+001  -9.206820e+001 
4043750000  -3.971235e+001  -9.532058e+001 
4046875000  -3.923720e+001  -9.448454e+001 
4050000000  -3.878908e+001  -1.031285e+002 
4053125000  -3.921015e+001  -1.042924e+002 
4056250000  -3.943848e+001  -1.018641e+002 
4059375000  -3.792981e+001  -1.007644e+002 
4062500000  -3.683844e+001  -1.064206e+002 
4065625000  -3.663644e+001  -1.114304e+002 
4068750000  -3.616212e+001  -1.178180e+002 
4071875000  -3.554059e+001  -1.253165e+002 
4075000000  -3.577014e+001  -1.328331e+002 
4078125000  -3.637328e+001  -1.346695e+002 
4081250000  -3.567411e+001  -1.391428e+002 
4084375000  -3.538453e+001  -1.477407e+002 
4087500000  -3.588312e+001  -1.536133e+002 
4090625000  -3.636790e+001  -1.561719e+002 
4093750000  -3.614091e+001  -1.577993e+002 
4096875000  -3.579060e+001  -1.652308e+002 
4100000000  -3.663163e+001  -1.723201e+002 
4103125000  -3.736568e+001  -1.726548e+002 
4106250000  -3.743812e+001  -1.699937e+002 
4109375000  -3.619320e+001  -1.715995e+002 
4112500000  -3.596007e+001  1.794984e+002 
4115625000  -3.645677e+001  1.747424e+002 
4118750000  -3.645778e+001  1.712717e+002 
4121875000  -3.616647e+001  1.645147e+002 
4125000000  -3.667958e+001  1.605434e+002 
4128125000  -3.772428e+001  1.587660e+002 
4131250000  -3.747506e+001  1.676529e+002 
4134375000  -3.527962e+001  1.590737e+002 
4137500000  -3.538646e+001  1.398560e+002 
4140625000  -3.752336e+001  1.305851e+002 
4143750000  -3.908777e+001  1.362975e+002 
4146875000  -3.861076e+001  1.420351e+002 
4150000000  -3.806218e+001  1.412467e+002 
4153125000  -3.773687e+001  1.324389e+002 
4156250000  -3.899540e+001  1.315720e+002 
4159375000  -3.916196e+001  1.371129e+002 
4162500000  -3.790298e+001  1.413226e+002 
4165625000  -3.699194e+001  1.364740e+002 
4168750000  -3.645975e+001  1.281277e+002 
4171875000  -3.625601e+001  1.197633e+002 
4175000000  -3.725959e+001  1.142925e+002 
4178125000  -3.763999e+001  1.145062e+002 
4181250000  -3.728032e+001  1.135830e+002 
4184375000  -3.703933e+001  1.099245e+002 
4187500000  -3.695575e+001  1.075099e+002 
4190625000  -3.681618e+001  1.012314e+002 
4193750000  -3.744613e+001  9.658883e+001 
4196875000  -3.814706e+001  9.553127e+001 
4200000000  -3.903119e+001  9.813944e+001 
4203125000  -3.857454e+001  1.124527e+002 
4206250000  -3.507479e+001  1.105403e+002 
4209375000  -3.406075e+001  8.886906e+001 
4212500000  -3.589760e+001  7.971725e+001 
4215625000  -3.697134e+001  8.643439e+001 
4218750000  -3.526353e+001  9.053799e+001 
4221875000  -3.287256e+001  8.065928e+001 
4225000000  -3.420073e+001  6.651477e+001 
4228125000  -3.477168e+001  7.045289e+001 
4231250000  -3.318985e+001  6.598988e+001 
4234375000  -3.306269e+001  5.542411e+001 
4237500000  -3.265725e+001  5.204258e+001 
4240625000  -3.265580e+001  4.067756e+001 
4243750000  -3.366547e+001  3.210231e+001 
4246875000  -3.459798e+001  3.097077e+001 
4250000000  -3.462365e+001  3.298251e+001 
4253125000  -3.404581e+001  2.874179e+001 
4256250000  -3.461945e+001  2.393047e+001 
4259375000  -3.418710e+001  2.020252e+001 
4262500000  -3.446885e+001  1.569701e+001 
4265625000  -3.441730e+001  1.398800e+001 
4268750000  -3.365222e+001  9.157284e+000 
4271875000  -3.355138e+001  8.490021e-001 
4275000000  -3.337365e+001  -6.460925e+000 
4278125000  -3.406531e+001  -1.874193e+001 
4281250000  -3.613830e+001  -2.024866e+001 
4284375000  -3.575064e+001  -2.122459e+001 
4287500000  -3.692674e+001  -2.597999e+001 
4290625000  -3.821843e+001  -1.568726e+001 
4293750000  -3.631552e+001  -1.050473e+001 
4296875000  -3.531861e+001  -2.187909e+001 
4300000000  -3.605882e+001  -2.999050e+001 
4303125000  -3.769964e+001  -2.902813e+001 
4306250000  -3.665432e+001  -2.159866e+001 
4309375000  -3.536492e+001  -2.348997e+001 
4312500000  -3.518343e+001  -3.289427e+001 
4315625000  -3.543235e+001  -3.858459e+001 
4318750000  -3.575770e+001  -3.982143e+001 
4321875000  -3.583298e+001  -3.991042e+001 
4325000000  -3.517491e+001  -3.859858e+001 
4328125000  -3.458537e+001  -4.529399e+001 
4331250000  -3.431594e+001  -5.386860e+001 
4334375000  -3.462692e+001  -5.923769e+001 
4337500000  -3.535661e+001  -6.162919e+001 
4340625000  -3.580495e+001  -5.610466e+001 
4343750000  -3.502719e+001  -5.886496e+001 
4346875000  -3.436969e+001  -6.447619e+001 
4350000000  -3.426437e+001  -7.126141e+001 
4353125000  -3.411740e+001  -7.915570e+001 
4356250000  -3.573817e+001  -7.980078e+001 
4359375000  -3.627541e+001  -6.801227e+001 
4362500000  -3.293517e+001  -6.805315e+001 
4365625000  -3.158272e+001  -8.276161e+001 
4368750000  -3.248151e+001  -9.554610e+001 
4371875000  -3.348748e+001  -9.570970e+001 
4375000000  -3.297704e+001  -9.776716e+001 
4378125000  -3.234843e+001  -1.046729e+002 
4381250000  -3.255147e+001  -1.107823e+002 
4384375000  -3.218338e+001  -1.181832e+002 
4387500000  -3.300188e+001  -1.259917e+002 
4390625000  -3.399010e+001  -1.263027e+002 
4393750000  -3.338145e+001  -1.250327e+002 
4396875000  -3.258032e+001  -1.291846e+002 
4400000000  -3.221605e+001  -1.384779e+002 
4403125000  -3.305379e+001  -1.476804e+002 
4406250000  -3.380283e+001  -1.492843e+002 
4409375000  -3.406263e+001  -1.534468e+002 
4412500000  -3.524776e+001  -1.570239e+002 
4415625000  -3.550197e+001  -1.545319e+002 
