!Agilent Technologies,E8363B,MY43030201,A.06.04.32
!Agilent E8363B: A.06.04.32
!Date: Tuesday, November 11, 2014 21:10:21
!Correction: S21(Response(S21)) 
!S1P File: Measurement: S21:
# Hz S  dB   R 50
3000000000  -3.646695e+001  -5.557546e+001 
3003125000  -3.767571e+001  -6.206665e+001 
3006250000  -3.747593e+001  -6.376566e+001 
3009375000  -3.781213e+001  -5.938570e+001 
3012500000  -3.700577e+001  -6.143991e+001 
3015625000  -3.617613e+001  -6.936005e+001 
3018750000  -3.684558e+001  -7.022655e+001 
3021875000  -3.541429e+001  -6.904538e+001 
3025000000  -3.424490e+001  -7.236188e+001 
3028125000  -3.321511e+001  -7.940515e+001 
3031250000  -3.212437e+001  -9.034177e+001 
3034375000  -3.185195e+001  -1.040743e+002 
3037500000  -3.238700e+001  -1.166812e+002 
3040625000  -3.364184e+001  -1.210953e+002 
3043750000  -3.435972e+001  -1.257830e+002 
3046875000  -3.460074e+001  -1.319495e+002 
3050000000  -3.619420e+001  -1.378411e+002 
3053125000  -3.609591e+001  -1.316213e+002 
3056250000  -3.559220e+001  -1.290473e+002 
3059375000  -3.563784e+001  -1.294481e+002 
3062500000  -3.408750e+001  -1.321170e+002 
3065625000  -3.391648e+001  -1.392665e+002 
3068750000  -3.373215e+001  -1.450215e+002 
3071875000  -3.357099e+001  -1.487366e+002 
3075000000  -3.332396e+001  -1.524171e+002 
3078125000  -3.309305e+001  -1.560787e+002 
3081250000  -3.362245e+001  -1.611995e+002 
3084375000  -3.259931e+001  -1.640960e+002 
3087500000  -3.253449e+001  -1.683459e+002 
3090625000  -3.200721e+001  -1.783993e+002 
3093750000  -3.247254e+001  1.742580e+002 
3096875000  -3.351896e+001  1.687103e+002 
3100000000  -3.343235e+001  1.666162e+002 
3103125000  -3.369460e+001  1.671868e+002 
3106250000  -3.322690e+001  1.628526e+002 
3109375000  -3.323441e+001  1.585293e+002 
3112500000  -3.309563e+001  1.562467e+002 
3115625000  -3.286944e+001  1.520738e+002 
3118750000  -3.318742e+001  1.522950e+002 
3121875000  -3.223170e+001  1.420547e+002 
3125000000  -3.360754e+001  1.383139e+002 
3128125000  -3.452044e+001  1.453698e+002 
3131250000  -3.197941e+001  1.437943e+002 
3134375000  -3.073954e+001  1.281689e+002 
3137500000  -3.132131e+001  1.144567e+002 
3140625000  -3.279959e+001  1.114405e+002 
3143750000  -3.377853e+001  1.127164e+002 
3146875000  -3.328415e+001  1.137303e+002 
3150000000  -3.240883e+001  1.140311e+002 
3153125000  -3.230972e+001  1.051092e+002 
3156250000  -3.329980e+001  1.092596e+002 
3159375000  -3.150608e+001  1.109230e+002 
3162500000  -2.968139e+001  9.604734e+001 
3165625000  -3.069812e+001  8.374932e+001 
3168750000  -3.105441e+001  8.424772e+001 
3171875000  -3.016245e+001  7.875777e+001 
3175000000  -3.091476e+001  7.010546e+001 
3178125000  -3.063154e+001  7.037669e+001 
3181250000  -2.958878e+001  6.427908e+001 
3184375000  -2.897538e+001  5.214869e+001 
3187500000  -3.018551e+001  3.705081e+001 
3190625000  -3.283126e+001  2.986882e+001 
3193750000  -3.336015e+001  3.772861e+001 
3196875000  -3.299837e+001  4.227869e+001 
3200000000  -3.207720e+001  3.978130e+001 
3203125000  -3.133191e+001  3.304234e+001 
3206250000  -3.157692e+001  2.596396e+001 
3209375000  -3.112614e+001  2.034702e+001 
3212500000  -3.132098e+001  1.378747e+001 
3215625000  -3.141564e+001  9.624456e+000 
3218750000  -3.212432e+001  2.258108e+000 
3221875000  -3.295996e+001  -2.976434e+000 
3225000000  -3.262028e+001  -3.890701e+000 
3228125000  -3.303880e+001  -9.583239e+000 
3231250000  -3.366666e+001  -1.223457e+001 
3234375000  -3.337395e+001  -1.105984e+001 
3237500000  -3.341862e+001  -1.392983e+001 
3240625000  -3.295359e+001  -1.614603e+001 
3243750000  -3.257265e+001  -2.399729e+001 
3246875000  -3.297556e+001  -3.140899e+001 
3250000000  -3.339442e+001  -3.350716e+001 
3253125000  -3.350121e+001  -3.544577e+001 
3256250000  -3.315845e+001  -4.207298e+001 
3259375000  -3.339924e+001  -5.159616e+001 
3262500000  -3.458791e+001  -5.466184e+001 
3265625000  -3.526370e+001  -5.162435e+001 
3268750000  -3.510416e+001  -4.936459e+001 
3271875000  -3.471767e+001  -5.008016e+001 
3275000000  -3.367622e+001  -5.698025e+001 
3278125000  -3.418055e+001  -6.356367e+001 
3281250000  -3.431210e+001  -6.289915e+001 
3284375000  -3.380932e+001  -6.858408e+001 
3287500000  -3.399109e+001  -7.254066e+001 
3290625000  -3.429630e+001  -7.905891e+001 
3293750000  -3.408416e+001  -8.471313e+001 
3296875000  -3.512939e+001  -8.588914e+001 
3300000000  -3.481469e+001  -8.529127e+001 
3303125000  -3.363575e+001  -9.058793e+001 
3306250000  -3.348808e+001  -9.739012e+001 
3309375000  -3.314424e+001  -1.038641e+002 
3312500000  -3.323431e+001  -1.151548e+002 
3315625000  -3.435868e+001  -1.234645e+002 
3318750000  -3.566749e+001  -1.262787e+002 
3321875000  -3.691432e+001  -1.252405e+002 
3325000000  -3.754327e+001  -1.193731e+002 
3328125000  -3.698351e+001  -1.198836e+002 
3331250000  -3.547280e+001  -1.131425e+002 
3334375000  -3.297824e+001  -1.235271e+002 
3337500000  -3.305614e+001  -1.439626e+002 
3340625000  -3.452841e+001  -1.550571e+002 
3343750000  -3.650426e+001  -1.553134e+002 
3346875000  -3.658397e+001  -1.534109e+002 
3350000000  -3.602773e+001  -1.560740e+002 
3353125000  -3.595245e+001  -1.603651e+002 
3356250000  -3.554306e+001  -1.689579e+002 
3359375000  -3.647730e+001  -1.775581e+002 
3362500000  -3.757019e+001  1.772999e+002 
3365625000  -3.807757e+001  1.762827e+002 
3368750000  -3.865221e+001  1.736720e+002 
3371875000  -3.910624e+001  1.699769e+002 
3375000000  -4.028478e+001  1.678877e+002 
3378125000  -4.094818e+001  1.679490e+002 
3381250000  -4.218412e+001  1.756954e+002 
3384375000  -4.099267e+001  -1.619125e+002 
3387500000  -3.739834e+001  -1.780808e+002 
3390625000  -3.940386e+001  1.621279e+002 
3393750000  -4.051957e+001  1.659876e+002 
3396875000  -3.925868e+001  1.664933e+002 
3400000000  -3.859707e+001  1.587151e+002 
3403125000  -3.936271e+001  1.532257e+002 
3406250000  -3.971346e+001  1.530971e+002 
3409375000  -3.990816e+001  1.455812e+002 
3412500000  -4.007647e+001  1.441525e+002 
3415625000  -4.087910e+001  1.443293e+002 
3418750000  -4.118792e+001  1.460142e+002 
3421875000  -4.118147e+001  1.491452e+002 
3425000000  -4.019360e+001  1.489752e+002 
3428125000  -3.929090e+001  1.442706e+002 
3431250000  -3.917962e+001  1.370420e+002 
3434375000  -3.921907e+001  1.300802e+002 
3437500000  -3.983641e+001  1.277464e+002 
3440625000  -4.011106e+001  1.284807e+002 
3443750000  -3.882678e+001  1.294373e+002 
3446875000  -3.783623e+001  1.214145e+002 
3450000000  -3.751765e+001  1.117011e+002 
3453125000  -3.781855e+001  1.017471e+002 
3456250000  -3.920435e+001  9.557227e+001 
3459375000  -4.015850e+001  9.625250e+001 
3462500000  -4.014217e+001  9.640186e+001 
3465625000  -3.970829e+001  9.087732e+001 
3468750000  -4.009196e+001  8.595236e+001 
3471875000  -4.017544e+001  8.576362e+001 
3475000000  -3.968633e+001  8.121024e+001 
3478125000  -4.033830e+001  7.268570e+001 
3481250000  -4.144634e+001  6.988616e+001 
3484375000  -4.238790e+001  7.544585e+001 
3487500000  -4.136152e+001  7.334747e+001 
3490625000  -4.075673e+001  6.831718e+001 
3493750000  -4.145101e+001  6.229189e+001 
3496875000  -4.213662e+001  6.108808e+001 
3500000000  -4.245656e+001  6.184388e+001 
3503125000  -4.232954e+001  6.686450e+001 
3506250000  -4.076676e+001  5.977244e+001 
3509375000  -4.057337e+001  5.255470e+001 
3512500000  -4.112783e+001  4.247229e+001 
3515625000  -4.196865e+001  4.188600e+001 
3518750000  -4.275602e+001  4.235309e+001 
3521875000  -4.256038e+001  3.857594e+001 
3525000000  -4.350425e+001  3.497139e+001 
3528125000  -4.324497e+001  4.366914e+001 
3531250000  -4.192765e+001  4.299465e+001 
3534375000  -4.194232e+001  3.039025e+001 
3537500000  -4.236370e+001  2.584264e+001 
3540625000  -4.330708e+001  2.283216e+001 
3543750000  -4.385901e+001  2.900007e+001 
3546875000  -4.387828e+001  4.152735e+001 
3550000000  -4.122159e+001  3.938264e+001 
3553125000  -3.999868e+001  2.121911e+001 
3556250000  -4.146429e+001  1.514494e+001 
3559375000  -4.116286e+001  1.787813e+001 
3562500000  -4.014087e+001  9.139279e+000 
3565625000  -4.102398e+001  2.230230e+000 
3568750000  -4.129023e+001  2.654142e+000 
3571875000  -4.098051e+001  5.053228e-001 
3575000000  -4.050359e+001  -6.631519e+000 
3578125000  -4.106302e+001  -1.114421e+001 
3581250000  -4.133025e+001  -1.075621e+001 
3584375000  -4.037636e+001  -1.636770e+001 
3587500000  -3.975014e+001  -2.581746e+001 
3590625000  -4.055172e+001  -3.403841e+001 
3593750000  -4.177374e+001  -3.578278e+001 
3596875000  -4.183116e+001  -3.031824e+001 
3600000000  -4.025668e+001  -3.672103e+001 
3603125000  -4.068097e+001  -5.021621e+001 
3606250000  -4.144381e+001  -5.345740e+001 
3609375000  -4.200152e+001  -5.534736e+001 
3612500000  -4.313519e+001  -6.001077e+001 
3615625000  -4.292664e+001  -6.276184e+001 
3618750000  -4.358092e+001  -6.235010e+001 
3621875000  -4.372198e+001  -6.571895e+001 
3625000000  -4.414889e+001  -6.657175e+001 
3628125000  -4.460186e+001  -6.760369e+001 
3631250000  -4.416983e+001  -7.147929e+001 
3634375000  -4.579398e+001  -7.338884e+001 
3637500000  -4.563196e+001  -6.645602e+001 
3640625000  -4.477541e+001  -6.418307e+001 
3643750000  -4.443267e+001  -7.341553e+001 
3646875000  -4.496808e+001  -7.618226e+001 
3650000000  -4.629124e+001  -7.614674e+001 
3653125000  -4.554141e+001  -7.675163e+001 
3656250000  -4.594322e+001  -7.473475e+001 
3659375000  -4.596227e+001  -7.233489e+001 
3662500000  -4.511543e+001  -7.574535e+001 
3665625000  -4.420831e+001  -7.459309e+001 
3668750000  -4.361524e+001  -7.574911e+001 
3671875000  -4.261607e+001  -8.467177e+001 
3675000000  -4.259932e+001  -8.994563e+001 
3678125000  -4.315662e+001  -9.214753e+001 
3681250000  -4.287014e+001  -9.324416e+001 
3684375000  -4.263819e+001  -9.977932e+001 
3687500000  -4.278970e+001  -1.052380e+002 
3690625000  -4.281189e+001  -1.085523e+002 
3693750000  -4.383781e+001  -1.084921e+002 
3696875000  -4.315104e+001  -1.062116e+002 
3700000000  -4.260569e+001  -1.124204e+002 
3703125000  -4.282915e+001  -1.180964e+002 
3706250000  -4.368805e+001  -1.173657e+002 
3709375000  -4.330225e+001  -1.178800e+002 
3712500000  -4.198410e+001  -1.215691e+002 
3715625000  -4.171267e+001  -1.282217e+002 
3718750000  -4.134812e+001  -1.341973e+002 
3721875000  -4.096351e+001  -1.402255e+002 
3725000000  -4.153825e+001  -1.474535e+002 
3728125000  -4.196554e+001  -1.481998e+002 
3731250000  -4.186519e+001  -1.509961e+002 
3734375000  -4.120930e+001  -1.562968e+002 
3737500000  -4.190886e+001  -1.648082e+002 
3740625000  -4.322240e+001  -1.677290e+002 
3743750000  -4.346698e+001  -1.702371e+002 
3746875000  -4.347466e+001  -1.711300e+002 
3750000000  -4.428829e+001  -1.747106e+002 
3753125000  -4.430828e+001  -1.729418e+002 
3756250000  -4.466967e+001  -1.712705e+002 
3759375000  -4.509055e+001  -1.718271e+002 
3762500000  -4.431352e+001  -1.752120e+002 
3765625000  -4.488640e+001  -1.722429e+002 
3768750000  -4.494102e+001  -1.701679e+002 
3771875000  -4.334741e+001  -1.736187e+002 
3775000000  -4.278058e+001  -1.765555e+002 
3778125000  -4.328483e+001  1.799760e+002 
3781250000  -4.296693e+001  1.788192e+002 
3784375000  -4.269550e+001  -1.787988e+002 
3787500000  -4.209731e+001  1.749767e+002 
3790625000  -4.224069e+001  1.705000e+002 
3793750000  -4.227375e+001  1.676898e+002 
3796875000  -4.139003e+001  1.657485e+002 
3800000000  -3.953959e+001  1.645952e+002 
3803125000  -4.023253e+001  1.532556e+002 
3806250000  -4.082306e+001  1.509812e+002 
3809375000  -4.046173e+001  1.485677e+002 
3812500000  -3.994847e+001  1.433366e+002 
3815625000  -4.037992e+001  1.326252e+002 
3818750000  -4.133121e+001  1.334366e+002 
3821875000  -4.133386e+001  1.417603e+002 
3825000000  -3.957514e+001  1.426457e+002 
3828125000  -3.810263e+001  1.253835e+002 
3831250000  -3.862834e+001  1.106042e+002 
3834375000  -4.034631e+001  1.102862e+002 
3837500000  -4.094549e+001  1.132173e+002 
3840625000  -3.973684e+001  1.092681e+002 
3843750000  -3.886352e+001  9.976563e+001 
3846875000  -3.970601e+001  9.132474e+001 
3850000000  -4.122174e+001  9.538081e+001 
3853125000  -4.046904e+001  9.911609e+001 
3856250000  -4.036477e+001  9.270576e+001 
3859375000  -3.955360e+001  8.701372e+001 
3862500000  -3.930519e+001  7.903749e+001 
3865625000  -3.985801e+001  7.509212e+001 
3868750000  -3.984433e+001  7.445486e+001 
3871875000  -3.903555e+001  6.975882e+001 
3875000000  -3.937996e+001  5.992915e+001 
3878125000  -4.092477e+001  5.835905e+001 
3881250000  -4.075794e+001  6.120864e+001 
3884375000  -4.056762e+001  5.788344e+001 
3887500000  -4.064550e+001  5.227052e+001 
3890625000  -4.111069e+001  4.947713e+001 
3893750000  -4.126564e+001  4.748985e+001 
3896875000  -4.181612e+001  4.880896e+001 
3900000000  -4.183422e+001  4.814642e+001 
3903125000  -4.138525e+001  4.329567e+001 
3906250000  -4.089871e+001  4.443314e+001 
3909375000  -4.019476e+001  3.926482e+001 
3912500000  -4.017118e+001  3.116068e+001 
3915625000  -4.147308e+001  3.406831e+001 
3918750000  -4.107296e+001  3.234019e+001 
3921875000  -4.079742e+001  3.118012e+001 
3925000000  -3.963208e+001  2.873547e+001 
3928125000  -3.921384e+001  2.189057e+001 
3931250000  -3.975793e+001  1.764481e+001 
3934375000  -4.007111e+001  1.612076e+001 
3937500000  -3.993256e+001  1.446727e+001 
3940625000  -4.038479e+001  1.130564e+001 
3943750000  -3.930446e+001  1.232052e+001 
3946875000  -3.821527e+001  5.786727e+000 
3950000000  -3.909614e+001  -2.219012e+000 
3953125000  -3.988042e+001  -3.641940e+000 
3956250000  -3.887354e+001  -9.672590e-002 
3959375000  -3.743097e+001  -5.099262e+000 
3962500000  -3.725544e+001  -1.123928e+001 
3965625000  -3.711341e+001  -2.254259e+001 
3968750000  -3.791995e+001  -2.915104e+001 
3971875000  -3.833731e+001  -3.092321e+001 
3975000000  -3.786413e+001  -3.248175e+001 
3978125000  -3.774265e+001  -3.783178e+001 
3981250000  -3.767463e+001  -4.280797e+001 
3984375000  -3.779490e+001  -4.831803e+001 
3987500000  -3.850702e+001  -5.090291e+001 
3990625000  -3.878338e+001  -5.405198e+001 
3993750000  -3.892835e+001  -5.810379e+001 
3996875000  -3.891385e+001  -6.080737e+001 
4000000000  -3.928765e+001  -6.206268e+001 
4003125000  -3.963259e+001  -6.042994e+001 
4006250000  -3.844153e+001  -6.157660e+001 
4009375000  -3.747441e+001  -7.577510e+001 
4012500000  -3.873191e+001  -8.268421e+001 
4015625000  -3.991911e+001  -8.163446e+001 
4018750000  -4.029283e+001  -7.956831e+001 
4021875000  -3.920782e+001  -8.133191e+001 
4025000000  -3.912907e+001  -8.697565e+001 
4028125000  -3.912937e+001  -9.177478e+001 
4031250000  -3.963850e+001  -9.435466e+001 
4034375000  -3.997313e+001  -9.538971e+001 
4037500000  -3.951271e+001  -9.328304e+001 
4040625000  -3.940120e+001  -9.702631e+001 
4043750000  -3.952415e+001  -9.731815e+001 
4046875000  -3.904508e+001  -9.871933e+001 
4050000000  -3.836348e+001  -1.046332e+002 
4053125000  -3.917756e+001  -1.074431e+002 
4056250000  -3.922547e+001  -1.041040e+002 
4059375000  -3.808520e+001  -1.027809e+002 
4062500000  -3.681100e+001  -1.081551e+002 
4065625000  -3.667167e+001  -1.131313e+002 
4068750000  -3.629596e+001  -1.187565e+002 
4071875000  -3.567992e+001  -1.280503e+002 
4075000000  -3.603162e+001  -1.342752e+002 
4078125000  -3.651375e+001  -1.371808e+002 
4081250000  -3.612937e+001  -1.411848e+002 
4084375000  -3.561348e+001  -1.494354e+002 
4087500000  -3.602394e+001  -1.557008e+002 
4090625000  -3.661332e+001  -1.577905e+002 
4093750000  -3.665310e+001  -1.590784e+002 
4096875000  -3.599719e+001  -1.653456e+002 
4100000000  -3.676810e+001  -1.746400e+002 
4103125000  -3.769614e+001  -1.732586e+002 
4106250000  -3.755314e+001  -1.679703e+002 
4109375000  -3.667802e+001  -1.698859e+002 
4112500000  -3.610950e+001  -1.798409e+002 
4115625000  -3.646945e+001  1.747217e+002 
4118750000  -3.664294e+001  1.712249e+002 
4121875000  -3.630059e+001  1.655986e+002 
4125000000  -3.685125e+001  1.603060e+002 
4128125000  -3.785899e+001  1.597691e+002 
4131250000  -3.742680e+001  1.664770e+002 
4134375000  -3.532208e+001  1.609960e+002 
4137500000  -3.535878e+001  1.400814e+002 
4140625000  -3.747896e+001  1.334409e+002 
4143750000  -3.904537e+001  1.388512e+002 
4146875000  -3.837204e+001  1.451260e+002 
4150000000  -3.763254e+001  1.403633e+002 
4153125000  -3.750261e+001  1.317278e+002 
4156250000  -3.860917e+001  1.299896e+002 
4159375000  -3.894979e+001  1.359700e+002 
4162500000  -3.769718e+001  1.389658e+002 
4165625000  -3.654254e+001  1.350779e+002 
4168750000  -3.601057e+001  1.265310e+002 
4171875000  -3.602539e+001  1.170627e+002 
4175000000  -3.699044e+001  1.126780e+002 
4178125000  -3.734238e+001  1.117737e+002 
4181250000  -3.711654e+001  1.116933e+002 
4184375000  -3.700164e+001  1.072745e+002 
4187500000  -3.704268e+001  1.034276e+002 
4190625000  -3.674474e+001  9.784979e+001 
4193750000  -3.764660e+001  9.441615e+001 
4196875000  -3.824799e+001  9.350906e+001 
4200000000  -3.910233e+001  9.513506e+001 
4203125000  -3.855040e+001  1.102997e+002 
4206250000  -3.519929e+001  1.091249e+002 
4209375000  -3.422528e+001  8.597906e+001 
4212500000  -3.624488e+001  7.706779e+001 
4215625000  -3.723326e+001  8.396562e+001 
4218750000  -3.517095e+001  8.839852e+001 
4221875000  -3.342855e+001  7.727299e+001 
4225000000  -3.463025e+001  6.541863e+001 
4228125000  -3.503386e+001  6.930047e+001 
4231250000  -3.350314e+001  6.428452e+001 
4234375000  -3.332866e+001  5.466792e+001 
4237500000  -3.306760e+001  4.882915e+001 
4240625000  -3.295298e+001  3.956712e+001 
4243750000  -3.393547e+001  3.086463e+001 
4246875000  -3.488683e+001  3.103972e+001 
4250000000  -3.488976e+001  3.286138e+001 
4253125000  -3.449438e+001  2.838124e+001 
4256250000  -3.472668e+001  2.308848e+001 
4259375000  -3.449361e+001  2.043264e+001 
4262500000  -3.478603e+001  1.661752e+001 
4265625000  -3.482317e+001  1.584187e+001 
4268750000  -3.397501e+001  8.958009e+000 
4271875000  -3.364079e+001  1.822251e+000 
4275000000  -3.336126e+001  -5.737191e+000 
4278125000  -3.417934e+001  -1.720802e+001 
4281250000  -3.600744e+001  -1.956206e+001 
4284375000  -3.572783e+001  -1.819233e+001 
4287500000  -3.701401e+001  -2.365507e+001 
4290625000  -3.801411e+001  -1.428469e+001 
4293750000  -3.616399e+001  -1.077123e+001 
4296875000  -3.512249e+001  -2.075600e+001 
4300000000  -3.614921e+001  -2.979034e+001 
4303125000  -3.733041e+001  -2.739048e+001 
4306250000  -3.670619e+001  -2.185294e+001 
4309375000  -3.540642e+001  -2.385932e+001 
4312500000  -3.512281e+001  -3.282317e+001 
4315625000  -3.518451e+001  -3.863355e+001 
4318750000  -3.565836e+001  -4.139627e+001 
4321875000  -3.562469e+001  -4.081349e+001 
4325000000  -3.504308e+001  -4.088213e+001 
4328125000  -3.453525e+001  -4.876579e+001 
4331250000  -3.428817e+001  -5.673569e+001 
4334375000  -3.472896e+001  -6.112418e+001 
4337500000  -3.552706e+001  -6.439301e+001 
4340625000  -3.600134e+001  -6.065132e+001 
4343750000  -3.487753e+001  -6.161993e+001 
4346875000  -3.457921e+001  -6.812267e+001 
4350000000  -3.444310e+001  -7.394390e+001 
4353125000  -3.452490e+001  -8.183539e+001 
4356250000  -3.617662e+001  -8.297715e+001 
4359375000  -3.633586e+001  -6.973607e+001 
4362500000  -3.353224e+001  -7.013807e+001 
4365625000  -3.208329e+001  -8.459276e+001 
4368750000  -3.272572e+001  -9.780592e+001 
4371875000  -3.380767e+001  -9.679647e+001 
4375000000  -3.328764e+001  -9.841765e+001 
4378125000  -3.263134e+001  -1.061164e+002 
4381250000  -3.295200e+001  -1.123012e+002 
4384375000  -3.275091e+001  -1.185792e+002 
4387500000  -3.344197e+001  -1.264690e+002 
4390625000  -3.447212e+001  -1.259152e+002 
4393750000  -3.372622e+001  -1.257516e+002 
4396875000  -3.325891e+001  -1.286586e+002 
4400000000  -3.270868e+001  -1.380269e+002 
4403125000  -3.325565e+001  -1.462979e+002 
4406250000  -3.431242e+001  -1.485517e+002 
4409375000  -3.438018e+001  -1.525417e+002 
4412500000  -3.556237e+001  -1.566211e+002 
4415625000  -3.601455e+001  -1.512705e+002 
