!Agilent Technologies,E8363B,MY43030201,A.06.04.32
!Agilent E8363B: A.06.04.32
!Date: Tuesday, November 11, 2014 21:10:09
!Correction: S21(Response(S21)) 
!S1P File: Measurement: S21:
# Hz S  dB   R 50
3000000000  -3.656775e+001  -5.498923e+001 
3003125000  -3.783271e+001  -6.214273e+001 
3006250000  -3.749515e+001  -6.310914e+001 
3009375000  -3.788163e+001  -5.888620e+001 
3012500000  -3.698761e+001  -6.056446e+001 
3015625000  -3.626224e+001  -6.808152e+001 
3018750000  -3.692365e+001  -6.973375e+001 
3021875000  -3.535865e+001  -6.881277e+001 
3025000000  -3.413468e+001  -7.214435e+001 
3028125000  -3.320696e+001  -7.882758e+001 
3031250000  -3.218666e+001  -9.043480e+001 
3034375000  -3.182963e+001  -1.038402e+002 
3037500000  -3.231409e+001  -1.152368e+002 
3040625000  -3.365293e+001  -1.203113e+002 
3043750000  -3.434033e+001  -1.262314e+002 
3046875000  -3.451315e+001  -1.316349e+002 
3050000000  -3.612860e+001  -1.378166e+002 
3053125000  -3.609527e+001  -1.311802e+002 
3056250000  -3.570620e+001  -1.278561e+002 
3059375000  -3.574826e+001  -1.290398e+002 
3062500000  -3.412792e+001  -1.327940e+002 
3065625000  -3.388402e+001  -1.390135e+002 
3068750000  -3.357597e+001  -1.454743e+002 
3071875000  -3.351286e+001  -1.480708e+002 
3075000000  -3.326744e+001  -1.528536e+002 
3078125000  -3.303720e+001  -1.560810e+002 
3081250000  -3.362415e+001  -1.608141e+002 
3084375000  -3.263652e+001  -1.639254e+002 
3087500000  -3.249091e+001  -1.679229e+002 
3090625000  -3.197894e+001  -1.785932e+002 
3093750000  -3.245452e+001  1.745767e+002 
3096875000  -3.346144e+001  1.687669e+002 
3100000000  -3.334336e+001  1.666804e+002 
3103125000  -3.367202e+001  1.669771e+002 
3106250000  -3.322517e+001  1.629175e+002 
3109375000  -3.318988e+001  1.588844e+002 
3112500000  -3.313211e+001  1.564102e+002 
3115625000  -3.290974e+001  1.522592e+002 
3118750000  -3.319577e+001  1.516388e+002 
3121875000  -3.226041e+001  1.422865e+002 
3125000000  -3.368850e+001  1.385157e+002 
3128125000  -3.449868e+001  1.462715e+002 
3131250000  -3.203868e+001  1.437181e+002 
3134375000  -3.072559e+001  1.281036e+002 
3137500000  -3.138550e+001  1.144102e+002 
3140625000  -3.283827e+001  1.113889e+002 
3143750000  -3.384274e+001  1.131173e+002 
3146875000  -3.330579e+001  1.141386e+002 
3150000000  -3.234972e+001  1.145611e+002 
3153125000  -3.225801e+001  1.049751e+002 
3156250000  -3.337062e+001  1.098106e+002 
3159375000  -3.156893e+001  1.112558e+002 
3162500000  -2.970127e+001  9.649007e+001 
3165625000  -3.071469e+001  8.338651e+001 
3168750000  -3.105433e+001  8.448771e+001 
3171875000  -3.010681e+001  7.865666e+001 
3175000000  -3.091212e+001  6.987985e+001 
3178125000  -3.065525e+001  7.044727e+001 
3181250000  -2.958128e+001  6.489924e+001 
3184375000  -2.890230e+001  5.250300e+001 
3187500000  -3.015351e+001  3.710836e+001 
3190625000  -3.281594e+001  2.942033e+001 
3193750000  -3.335089e+001  3.785970e+001 
3196875000  -3.296431e+001  4.219215e+001 
3200000000  -3.195341e+001  3.958516e+001 
3203125000  -3.116383e+001  3.281488e+001 
3206250000  -3.168624e+001  2.630388e+001 
3209375000  -3.106852e+001  2.056710e+001 
3212500000  -3.138040e+001  1.379197e+001 
3215625000  -3.141859e+001  9.818892e+000 
3218750000  -3.218293e+001  2.775949e+000 
3221875000  -3.307187e+001  -2.753077e+000 
3225000000  -3.261434e+001  -3.594269e+000 
3228125000  -3.298665e+001  -9.970941e+000 
3231250000  -3.362776e+001  -1.195510e+001 
3234375000  -3.336903e+001  -1.175767e+001 
3237500000  -3.338723e+001  -1.301747e+001 
3240625000  -3.289788e+001  -1.635622e+001 
3243750000  -3.258718e+001  -2.403527e+001 
3246875000  -3.291983e+001  -3.084255e+001 
3250000000  -3.338186e+001  -3.343988e+001 
3253125000  -3.349969e+001  -3.501276e+001 
3256250000  -3.313867e+001  -4.253432e+001 
3259375000  -3.337778e+001  -5.046537e+001 
3262500000  -3.461749e+001  -5.424987e+001 
3265625000  -3.522238e+001  -5.194927e+001 
3268750000  -3.499164e+001  -4.983096e+001 
3271875000  -3.463647e+001  -5.039009e+001 
3275000000  -3.370934e+001  -5.723917e+001 
3278125000  -3.403798e+001  -6.354784e+001 
3281250000  -3.426750e+001  -6.211090e+001 
3284375000  -3.383361e+001  -6.908690e+001 
3287500000  -3.401900e+001  -7.303912e+001 
3290625000  -3.427672e+001  -7.894919e+001 
3293750000  -3.406878e+001  -8.498670e+001 
3296875000  -3.508315e+001  -8.577386e+001 
3300000000  -3.478439e+001  -8.444272e+001 
3303125000  -3.356598e+001  -9.060092e+001 
3306250000  -3.351083e+001  -9.774052e+001 
3309375000  -3.315904e+001  -1.036760e+002 
3312500000  -3.334966e+001  -1.145265e+002 
3315625000  -3.429784e+001  -1.228831e+002 
3318750000  -3.578530e+001  -1.254628e+002 
3321875000  -3.691555e+001  -1.258807e+002 
3325000000  -3.731496e+001  -1.198322e+002 
3328125000  -3.677548e+001  -1.190062e+002 
3331250000  -3.557301e+001  -1.131549e+002 
3334375000  -3.287164e+001  -1.239978e+002 
3337500000  -3.301746e+001  -1.439392e+002 
3340625000  -3.442990e+001  -1.539146e+002 
3343750000  -3.641901e+001  -1.563180e+002 
3346875000  -3.661436e+001  -1.540025e+002 
3350000000  -3.590218e+001  -1.552728e+002 
3353125000  -3.595928e+001  -1.599667e+002 
3356250000  -3.546053e+001  -1.690718e+002 
3359375000  -3.635704e+001  -1.771134e+002 
3362500000  -3.751005e+001  1.770985e+002 
3365625000  -3.792722e+001  1.769219e+002 
3368750000  -3.866124e+001  1.732027e+002 
3371875000  -3.908396e+001  1.706165e+002 
3375000000  -4.036982e+001  1.687704e+002 
3378125000  -4.131531e+001  1.697772e+002 
3381250000  -4.266379e+001  1.782721e+002 
3384375000  -4.105693e+001  -1.612232e+002 
3387500000  -3.747079e+001  -1.786913e+002 
3390625000  -3.901386e+001  1.622435e+002 
3393750000  -4.015937e+001  1.669909e+002 
3396875000  -3.927373e+001  1.677279e+002 
3400000000  -3.851356e+001  1.593766e+002 
3403125000  -3.910695e+001  1.546639e+002 
3406250000  -3.968296e+001  1.543136e+002 
3409375000  -3.975856e+001  1.456354e+002 
3412500000  -4.017026e+001  1.447239e+002 
3415625000  -4.096906e+001  1.444453e+002 
3418750000  -4.097858e+001  1.454830e+002 
3421875000  -4.125194e+001  1.483782e+002 
3425000000  -4.019672e+001  1.488177e+002 
3428125000  -3.926901e+001  1.434131e+002 
3431250000  -3.928275e+001  1.368110e+002 
3434375000  -3.899558e+001  1.305085e+002 
3437500000  -3.967855e+001  1.269239e+002 
3440625000  -4.002635e+001  1.289749e+002 
3443750000  -3.883805e+001  1.302413e+002 
3446875000  -3.797387e+001  1.218052e+002 
3450000000  -3.750091e+001  1.107599e+002 
3453125000  -3.786934e+001  1.018746e+002 
3456250000  -3.930245e+001  9.442348e+001 
3459375000  -3.997186e+001  9.590527e+001 
3462500000  -3.982522e+001  9.681806e+001 
3465625000  -3.984349e+001  9.215409e+001 
3468750000  -4.008953e+001  8.740734e+001 
3471875000  -4.010176e+001  8.507929e+001 
3475000000  -3.973734e+001  7.996254e+001 
3478125000  -4.047414e+001  7.226123e+001 
3481250000  -4.133872e+001  7.101647e+001 
3484375000  -4.241154e+001  7.499046e+001 
3487500000  -4.135365e+001  7.315932e+001 
3490625000  -4.074966e+001  6.936001e+001 
3493750000  -4.144862e+001  6.209709e+001 
3496875000  -4.189843e+001  6.175547e+001 
3500000000  -4.235536e+001  6.375599e+001 
3503125000  -4.192411e+001  6.399184e+001 
3506250000  -4.069924e+001  6.156112e+001 
3509375000  -4.065993e+001  5.158221e+001 
3512500000  -4.117369e+001  4.449150e+001 
3515625000  -4.183641e+001  4.113744e+001 
3518750000  -4.239410e+001  4.180375e+001 
3521875000  -4.248102e+001  3.684513e+001 
3525000000  -4.319763e+001  3.729264e+001 
3528125000  -4.358704e+001  4.275091e+001 
3531250000  -4.216108e+001  4.004165e+001 
3534375000  -4.209242e+001  3.156605e+001 
3537500000  -4.262969e+001  2.622495e+001 
3540625000  -4.332333e+001  2.384563e+001 
3543750000  -4.400689e+001  2.935610e+001 
3546875000  -4.378460e+001  4.004781e+001 
3550000000  -4.117639e+001  4.043194e+001 
3553125000  -3.997583e+001  2.186850e+001 
3556250000  -4.137623e+001  1.564870e+001 
3559375000  -4.125838e+001  1.608663e+001 
3562500000  -4.019246e+001  7.826393e+000 
3565625000  -4.099951e+001  1.165582e+000 
3568750000  -4.116075e+001  4.323836e+000 
3571875000  -4.101629e+001  3.502110e+000 
3575000000  -4.055568e+001  -5.463944e+000 
3578125000  -4.095745e+001  -1.027093e+001 
3581250000  -4.135209e+001  -1.157177e+001 
3584375000  -4.035699e+001  -1.394085e+001 
3587500000  -3.994791e+001  -2.192028e+001 
3590625000  -4.055398e+001  -3.324529e+001 
3593750000  -4.165256e+001  -3.603752e+001 
3596875000  -4.172326e+001  -2.863214e+001 
3600000000  -4.010570e+001  -3.548844e+001 
3603125000  -4.058949e+001  -5.060493e+001 
3606250000  -4.156761e+001  -5.406620e+001 
3609375000  -4.194322e+001  -5.678404e+001 
3612500000  -4.273058e+001  -5.866849e+001 
3615625000  -4.293083e+001  -6.247347e+001 
3618750000  -4.359562e+001  -6.263507e+001 
3621875000  -4.380413e+001  -6.605447e+001 
3625000000  -4.457170e+001  -6.741158e+001 
3628125000  -4.437347e+001  -6.849168e+001 
3631250000  -4.437898e+001  -7.177134e+001 
3634375000  -4.535328e+001  -7.239214e+001 
3637500000  -4.598241e+001  -6.755299e+001 
3640625000  -4.492265e+001  -6.641583e+001 
3643750000  -4.414658e+001  -7.132761e+001 
3646875000  -4.469308e+001  -7.652634e+001 
3650000000  -4.547525e+001  -7.712609e+001 
3653125000  -4.537724e+001  -7.598133e+001 
3656250000  -4.567573e+001  -7.875359e+001 
3659375000  -4.555422e+001  -7.419041e+001 
3662500000  -4.482368e+001  -7.472791e+001 
3665625000  -4.453064e+001  -7.589083e+001 
3668750000  -4.387227e+001  -7.623386e+001 
3671875000  -4.265240e+001  -8.481490e+001 
3675000000  -4.297950e+001  -8.885686e+001 
3678125000  -4.296253e+001  -9.058543e+001 
3681250000  -4.249971e+001  -9.521632e+001 
3684375000  -4.277781e+001  -9.971895e+001 
3687500000  -4.283023e+001  -1.015324e+002 
3690625000  -4.259953e+001  -1.094367e+002 
3693750000  -4.372993e+001  -1.090650e+002 
3696875000  -4.352975e+001  -1.069221e+002 
3700000000  -4.247151e+001  -1.134420e+002 
3703125000  -4.283086e+001  -1.192444e+002 
3706250000  -4.407086e+001  -1.210028e+002 
3709375000  -4.312333e+001  -1.181122e+002 
3712500000  -4.214414e+001  -1.201929e+002 
3715625000  -4.140537e+001  -1.256529e+002 
3718750000  -4.138774e+001  -1.324696e+002 
3721875000  -4.103912e+001  -1.393402e+002 
3725000000  -4.154258e+001  -1.469490e+002 
3728125000  -4.183096e+001  -1.477083e+002 
3731250000  -4.158316e+001  -1.508592e+002 
3734375000  -4.125538e+001  -1.558155e+002 
3737500000  -4.202082e+001  -1.619508e+002 
3740625000  -4.317196e+001  -1.684432e+002 
3743750000  -4.322469e+001  -1.716200e+002 
3746875000  -4.342677e+001  -1.729947e+002 
3750000000  -4.393922e+001  -1.727215e+002 
3753125000  -4.394677e+001  -1.739414e+002 
3756250000  -4.434828e+001  -1.729240e+002 
3759375000  -4.426228e+001  -1.724502e+002 
3762500000  -4.473918e+001  -1.751623e+002 
3765625000  -4.497055e+001  -1.750295e+002 
3768750000  -4.453880e+001  -1.712584e+002 
3771875000  -4.332462e+001  -1.719811e+002 
3775000000  -4.267042e+001  -1.775947e+002 
3778125000  -4.284182e+001  -1.780067e+002 
3781250000  -4.313094e+001  -1.799838e+002 
3784375000  -4.281601e+001  1.784766e+002 
3787500000  -4.199950e+001  1.764532e+002 
3790625000  -4.252711e+001  1.674407e+002 
3793750000  -4.219293e+001  1.685982e+002 
3796875000  -4.106044e+001  1.649668e+002 
3800000000  -3.956632e+001  1.641885e+002 
3803125000  -4.010787e+001  1.533132e+002 
3806250000  -4.095597e+001  1.519251e+002 
3809375000  -4.056208e+001  1.509224e+002 
3812500000  -3.979733e+001  1.423620e+002 
3815625000  -4.059230e+001  1.327656e+002 
3818750000  -4.105869e+001  1.308291e+002 
3821875000  -4.157112e+001  1.390688e+002 
3825000000  -3.961195e+001  1.419286e+002 
3828125000  -3.803059e+001  1.256929e+002 
3831250000  -3.872479e+001  1.110663e+002 
3834375000  -4.024004e+001  1.120074e+002 
3837500000  -4.093322e+001  1.140145e+002 
3840625000  -3.987308e+001  1.112790e+002 
3843750000  -3.884503e+001  9.940449e+001 
3846875000  -3.979778e+001  9.330540e+001 
3850000000  -4.096115e+001  9.872771e+001 
3853125000  -4.048434e+001  9.937765e+001 
3856250000  -4.012803e+001  9.200821e+001 
3859375000  -3.970418e+001  8.990857e+001 
3862500000  -3.911533e+001  8.178083e+001 
3865625000  -3.999171e+001  7.491613e+001 
3868750000  -3.992984e+001  7.537653e+001 
3871875000  -3.909530e+001  7.009497e+001 
3875000000  -3.950471e+001  6.226224e+001 
3878125000  -4.072749e+001  5.850236e+001 
3881250000  -4.069869e+001  6.023901e+001 
3884375000  -4.044902e+001  5.665689e+001 
3887500000  -4.036912e+001  5.292575e+001 
3890625000  -4.089553e+001  4.927160e+001 
3893750000  -4.139190e+001  4.753143e+001 
3896875000  -4.198579e+001  4.680894e+001 
3900000000  -4.186902e+001  4.963399e+001 
3903125000  -4.115295e+001  4.667597e+001 
3906250000  -4.130964e+001  4.471744e+001 
3909375000  -4.013759e+001  3.982904e+001 
3912500000  -4.030433e+001  3.020110e+001 
3915625000  -4.157325e+001  3.279432e+001 
3918750000  -4.110950e+001  3.396006e+001 
3921875000  -4.073788e+001  3.146162e+001 
3925000000  -3.969626e+001  2.841882e+001 
3928125000  -3.909426e+001  2.162406e+001 
3931250000  -3.961340e+001  1.712376e+001 
3934375000  -3.999769e+001  1.627858e+001 
3937500000  -3.989215e+001  1.413235e+001 
3940625000  -4.038624e+001  1.364073e+001 
3943750000  -3.922525e+001  1.176195e+001 
3946875000  -3.813447e+001  6.772506e+000 
3950000000  -3.888411e+001  -1.715082e+000 
3953125000  -4.015242e+001  -3.367479e+000 
3956250000  -3.888972e+001  -1.190112e+000 
3959375000  -3.762836e+001  -4.989868e+000 
3962500000  -3.698945e+001  -1.073198e+001 
3965625000  -3.706636e+001  -2.071192e+001 
3968750000  -3.823515e+001  -2.973248e+001 
3971875000  -3.853479e+001  -3.109559e+001 
3975000000  -3.775937e+001  -3.250643e+001 
3978125000  -3.768605e+001  -3.700419e+001 
3981250000  -3.774109e+001  -4.200303e+001 
3984375000  -3.805342e+001  -4.765116e+001 
3987500000  -3.859828e+001  -5.073034e+001 
3990625000  -3.859875e+001  -5.273731e+001 
3993750000  -3.886137e+001  -5.796916e+001 
3996875000  -3.897254e+001  -6.106341e+001 
4000000000  -3.907550e+001  -6.262551e+001 
4003125000  -3.972858e+001  -6.242870e+001 
4006250000  -3.836802e+001  -6.176469e+001 
4009375000  -3.724792e+001  -7.544469e+001 
4012500000  -3.877131e+001  -8.160705e+001 
4015625000  -4.008760e+001  -8.238402e+001 
4018750000  -3.982776e+001  -8.085440e+001 
4021875000  -3.937968e+001  -8.135888e+001 
4025000000  -3.912153e+001  -8.511684e+001 
4028125000  -3.923214e+001  -9.165894e+001 
4031250000  -3.961227e+001  -9.604358e+001 
4034375000  -3.990826e+001  -9.428989e+001 
4037500000  -3.937616e+001  -9.226601e+001 
4040625000  -3.922034e+001  -9.808432e+001 
4043750000  -3.953570e+001  -9.795873e+001 
4046875000  -3.908522e+001  -9.849796e+001 
4050000000  -3.867895e+001  -1.057749e+002 
4053125000  -3.934861e+001  -1.076070e+002 
4056250000  -3.971339e+001  -1.027832e+002 
4059375000  -3.794603e+001  -1.029148e+002 
4062500000  -3.695143e+001  -1.079629e+002 
4065625000  -3.672393e+001  -1.116753e+002 
4068750000  -3.642860e+001  -1.185774e+002 
4071875000  -3.575908e+001  -1.288822e+002 
4075000000  -3.612538e+001  -1.348117e+002 
4078125000  -3.667885e+001  -1.360213e+002 
4081250000  -3.599532e+001  -1.398939e+002 
4084375000  -3.559982e+001  -1.492481e+002 
4087500000  -3.602887e+001  -1.552460e+002 
4090625000  -3.673012e+001  -1.570766e+002 
4093750000  -3.626274e+001  -1.582045e+002 
4096875000  -3.604272e+001  -1.661327e+002 
4100000000  -3.678954e+001  -1.721042e+002 
4103125000  -3.776073e+001  -1.726623e+002 
4106250000  -3.758546e+001  -1.687665e+002 
4109375000  -3.667270e+001  -1.703720e+002 
4112500000  -3.614198e+001  -1.786084e+002 
4115625000  -3.660289e+001  1.760560e+002 
4118750000  -3.672579e+001  1.712420e+002 
4121875000  -3.620847e+001  1.669544e+002 
4125000000  -3.683187e+001  1.601755e+002 
4128125000  -3.782568e+001  1.601066e+002 
4131250000  -3.764720e+001  1.686579e+002 
4134375000  -3.517692e+001  1.611311e+002 
4137500000  -3.526008e+001  1.419116e+002 
4140625000  -3.748079e+001  1.338087e+002 
4143750000  -3.884242e+001  1.396203e+002 
4146875000  -3.842545e+001  1.449972e+002 
4150000000  -3.761519e+001  1.387546e+002 
4153125000  -3.750302e+001  1.336037e+002 
4156250000  -3.848478e+001  1.318854e+002 
4159375000  -3.877767e+001  1.368812e+002 
4162500000  -3.768904e+001  1.392693e+002 
4165625000  -3.659146e+001  1.350459e+002 
4168750000  -3.604083e+001  1.269813e+002 
4171875000  -3.626077e+001  1.176905e+002 
4175000000  -3.686780e+001  1.132722e+002 
4178125000  -3.727888e+001  1.130271e+002 
4181250000  -3.707844e+001  1.106657e+002 
4184375000  -3.697713e+001  1.070751e+002 
4187500000  -3.682452e+001  1.036525e+002 
4190625000  -3.684031e+001  9.922871e+001 
4193750000  -3.745798e+001  9.358266e+001 
4196875000  -3.808861e+001  9.367742e+001 
4200000000  -3.922090e+001  9.598462e+001 
4203125000  -3.886250e+001  1.090397e+002 
4206250000  -3.520887e+001  1.093568e+002 
4209375000  -3.433074e+001  8.730437e+001 
4212500000  -3.629306e+001  7.694350e+001 
4215625000  -3.712362e+001  8.499755e+001 
4218750000  -3.561671e+001  8.803795e+001 
4221875000  -3.347743e+001  7.866191e+001 
4225000000  -3.441914e+001  6.609321e+001 
4228125000  -3.507209e+001  6.868320e+001 
4231250000  -3.333785e+001  6.561305e+001 
4234375000  -3.337841e+001  5.503235e+001 
4237500000  -3.302456e+001  5.041071e+001 
4240625000  -3.291501e+001  3.943684e+001 
4243750000  -3.404829e+001  3.225526e+001 
4246875000  -3.489125e+001  3.108538e+001 
4250000000  -3.486467e+001  3.411106e+001 
4253125000  -3.436221e+001  2.987588e+001 
4256250000  -3.457119e+001  2.397565e+001 
4259375000  -3.441477e+001  2.172360e+001 
4262500000  -3.455326e+001  1.640952e+001 
4265625000  -3.496696e+001  1.536495e+001 
4268750000  -3.381136e+001  9.851243e+000 
4271875000  -3.371137e+001  3.343066e+000 
4275000000  -3.349549e+001  -5.586334e+000 
4278125000  -3.420034e+001  -1.674007e+001 
4281250000  -3.583983e+001  -1.907005e+001 
4284375000  -3.561717e+001  -1.991026e+001 
4287500000  -3.676105e+001  -2.391343e+001 
4290625000  -3.806950e+001  -1.539402e+001 
4293750000  -3.618016e+001  -9.736697e+000 
4296875000  -3.506625e+001  -2.048366e+001 
4300000000  -3.596960e+001  -2.900379e+001 
4303125000  -3.718320e+001  -2.651477e+001 
4306250000  -3.644829e+001  -2.277841e+001 
4309375000  -3.519989e+001  -2.514870e+001 
4312500000  -3.501990e+001  -3.266298e+001 
4315625000  -3.512267e+001  -3.814832e+001 
4318750000  -3.565312e+001  -4.210550e+001 
4321875000  -3.571301e+001  -4.028157e+001 
4325000000  -3.508157e+001  -4.103048e+001 
4328125000  -3.443209e+001  -4.732415e+001 
4331250000  -3.425617e+001  -5.566307e+001 
4334375000  -3.485585e+001  -6.096816e+001 
4337500000  -3.555893e+001  -6.288214e+001 
4340625000  -3.584967e+001  -6.027264e+001 
4343750000  -3.503363e+001  -6.023566e+001 
4346875000  -3.471050e+001  -6.763103e+001 
4350000000  -3.442501e+001  -7.434719e+001 
4353125000  -3.458669e+001  -8.199489e+001 
4356250000  -3.640673e+001  -8.068601e+001 
4359375000  -3.627530e+001  -6.764852e+001 
4362500000  -3.333865e+001  -6.948718e+001 
4365625000  -3.188006e+001  -8.381033e+001 
4368750000  -3.256966e+001  -9.797121e+001 
4371875000  -3.380906e+001  -9.659026e+001 
4375000000  -3.334842e+001  -9.813072e+001 
4378125000  -3.270047e+001  -1.048015e+002 
4381250000  -3.274997e+001  -1.119233e+002 
4384375000  -3.264356e+001  -1.177567e+002 
4387500000  -3.342957e+001  -1.256511e+002 
4390625000  -3.432222e+001  -1.264547e+002 
4393750000  -3.362968e+001  -1.242514e+002 
4396875000  -3.298457e+001  -1.282899e+002 
4400000000  -3.255005e+001  -1.372827e+002 
4403125000  -3.339337e+001  -1.459201e+002 
4406250000  -3.414420e+001  -1.490462e+002 
4409375000  -3.438149e+001  -1.529657e+002 
4412500000  -3.539697e+001  -1.553121e+002 
4415625000  -3.587747e+001  -1.503861e+002 
