!Agilent Technologies,E8363B,MY43030201,A.06.04.32
!Agilent E8363B: A.06.04.32
!Date: Tuesday, November 11, 2014 21:06:41
!Correction: S21(Response(S21)) 
!S1P File: Measurement: S21:
# Hz S  dB   R 50
3000000000  -3.650047e+001  -4.980350e+001 
3003125000  -3.758453e+001  -5.497173e+001 
3006250000  -3.746036e+001  -5.860216e+001 
3009375000  -3.778444e+001  -5.243487e+001 
3012500000  -3.706836e+001  -5.456129e+001 
3015625000  -3.615299e+001  -6.287239e+001 
3018750000  -3.681910e+001  -6.377139e+001 
3021875000  -3.552363e+001  -6.329411e+001 
3025000000  -3.409520e+001  -6.664267e+001 
3028125000  -3.319090e+001  -7.291067e+001 
3031250000  -3.216311e+001  -8.449616e+001 
3034375000  -3.175731e+001  -9.803942e+001 
3037500000  -3.218113e+001  -1.100521e+002 
3040625000  -3.362555e+001  -1.142820e+002 
3043750000  -3.430385e+001  -1.194499e+002 
3046875000  -3.435872e+001  -1.260166e+002 
3050000000  -3.610064e+001  -1.320107e+002 
3053125000  -3.598634e+001  -1.266012e+002 
3056250000  -3.556959e+001  -1.239105e+002 
3059375000  -3.558638e+001  -1.232292e+002 
3062500000  -3.411091e+001  -1.271815e+002 
3065625000  -3.394921e+001  -1.333125e+002 
3068750000  -3.347345e+001  -1.404384e+002 
3071875000  -3.347034e+001  -1.430533e+002 
3075000000  -3.332563e+001  -1.469161e+002 
3078125000  -3.307876e+001  -1.501128e+002 
3081250000  -3.355801e+001  -1.551474e+002 
3084375000  -3.266025e+001  -1.588725e+002 
3087500000  -3.243350e+001  -1.625823e+002 
3090625000  -3.202120e+001  -1.732221e+002 
3093750000  -3.245660e+001  1.796874e+002 
3096875000  -3.346826e+001  1.734119e+002 
3100000000  -3.334126e+001  1.715720e+002 
3103125000  -3.364289e+001  1.724611e+002 
3106250000  -3.313630e+001  1.682677e+002 
3109375000  -3.326879e+001  1.642904e+002 
3112500000  -3.322277e+001  1.624335e+002 
3115625000  -3.290979e+001  1.573566e+002 
3118750000  -3.318690e+001  1.577249e+002 
3121875000  -3.235506e+001  1.477207e+002 
3125000000  -3.353713e+001  1.441366e+002 
3128125000  -3.452025e+001  1.517535e+002 
3131250000  -3.205087e+001  1.495218e+002 
3134375000  -3.071787e+001  1.343256e+002 
3137500000  -3.130946e+001  1.194898e+002 
3140625000  -3.284284e+001  1.169375e+002 
3143750000  -3.380450e+001  1.186268e+002 
3146875000  -3.328931e+001  1.199535e+002 
3150000000  -3.229680e+001  1.192982e+002 
3153125000  -3.231454e+001  1.100212e+002 
3156250000  -3.327917e+001  1.149002e+002 
3159375000  -3.162878e+001  1.161965e+002 
3162500000  -2.965159e+001  1.021526e+002 
3165625000  -3.067817e+001  8.998633e+001 
3168750000  -3.100904e+001  8.979408e+001 
3171875000  -3.015357e+001  8.441208e+001 
3175000000  -3.087552e+001  7.551761e+001 
3178125000  -3.063888e+001  7.643768e+001 
3181250000  -2.947895e+001  7.109053e+001 
3184375000  -2.883377e+001  5.840272e+001 
3187500000  -3.007889e+001  4.270454e+001 
3190625000  -3.273328e+001  3.477751e+001 
3193750000  -3.337018e+001  4.285352e+001 
3196875000  -3.300583e+001  4.777973e+001 
3200000000  -3.196862e+001  4.509965e+001 
3203125000  -3.117425e+001  3.895970e+001 
3206250000  -3.152434e+001  3.219805e+001 
3209375000  -3.107775e+001  2.589128e+001 
3212500000  -3.130469e+001  1.960396e+001 
3215625000  -3.128724e+001  1.520883e+001 
3218750000  -3.218077e+001  7.720876e+000 
3221875000  -3.298087e+001  2.507477e+000 
3225000000  -3.257410e+001  1.860492e+000 
3228125000  -3.301790e+001  -4.466125e+000 
3231250000  -3.363889e+001  -6.228197e+000 
3234375000  -3.333551e+001  -6.156865e+000 
3237500000  -3.333925e+001  -7.721825e+000 
3240625000  -3.291555e+001  -1.073313e+001 
3243750000  -3.244232e+001  -1.816919e+001 
3246875000  -3.296767e+001  -2.543790e+001 
3250000000  -3.340522e+001  -2.803935e+001 
3253125000  -3.350903e+001  -2.957526e+001 
3256250000  -3.319825e+001  -3.725212e+001 
3259375000  -3.341003e+001  -4.555007e+001 
3262500000  -3.456922e+001  -4.888710e+001 
3265625000  -3.518818e+001  -4.629323e+001 
3268750000  -3.516006e+001  -4.444843e+001 
3271875000  -3.475272e+001  -4.442904e+001 
3275000000  -3.367743e+001  -5.150794e+001 
3278125000  -3.414187e+001  -5.807510e+001 
3281250000  -3.428687e+001  -5.667080e+001 
3284375000  -3.378367e+001  -6.397894e+001 
3287500000  -3.408149e+001  -6.712114e+001 
3290625000  -3.430284e+001  -7.372369e+001 
3293750000  -3.404062e+001  -7.961929e+001 
3296875000  -3.511535e+001  -8.013735e+001 
3300000000  -3.484392e+001  -7.930113e+001 
3303125000  -3.370069e+001  -8.475055e+001 
3306250000  -3.355388e+001  -9.132412e+001 
3309375000  -3.314238e+001  -9.776308e+001 
3312500000  -3.333851e+001  -1.091050e+002 
3315625000  -3.426686e+001  -1.172075e+002 
3318750000  -3.559874e+001  -1.192239e+002 
3321875000  -3.679432e+001  -1.195462e+002 
3325000000  -3.714576e+001  -1.150853e+002 
3328125000  -3.686323e+001  -1.145216e+002 
3331250000  -3.559379e+001  -1.073351e+002 
3334375000  -3.292751e+001  -1.185947e+002 
3337500000  -3.314412e+001  -1.375862e+002 
3340625000  -3.443014e+001  -1.481186e+002 
3343750000  -3.647673e+001  -1.493629e+002 
3346875000  -3.649665e+001  -1.479194e+002 
3350000000  -3.591146e+001  -1.497980e+002 
3353125000  -3.594980e+001  -1.549641e+002 
3356250000  -3.548807e+001  -1.623436e+002 
3359375000  -3.622115e+001  -1.708736e+002 
3362500000  -3.749395e+001  -1.762175e+002 
3365625000  -3.802816e+001  -1.782211e+002 
3368750000  -3.851785e+001  -1.798134e+002 
3371875000  -3.882997e+001  1.780553e+002 
3375000000  -4.015583e+001  1.741960e+002 
3378125000  -4.112019e+001  1.734340e+002 
3381250000  -4.234610e+001  -1.768593e+002 
3384375000  -4.102072e+001  -1.582824e+002 
3387500000  -3.750825e+001  -1.720346e+002 
3390625000  -3.925671e+001  1.683714e+002 
3393750000  -4.056694e+001  1.718018e+002 
3396875000  -3.924194e+001  1.730512e+002 
3400000000  -3.857149e+001  1.639986e+002 
3403125000  -3.924918e+001  1.601334e+002 
3406250000  -3.969361e+001  1.589011e+002 
3409375000  -3.969028e+001  1.508809e+002 
3412500000  -4.032674e+001  1.489207e+002 
3415625000  -4.091740e+001  1.498102e+002 
3418750000  -4.108302e+001  1.505307e+002 
3421875000  -4.113567e+001  1.534146e+002 
3425000000  -4.033084e+001  1.528186e+002 
3428125000  -3.935426e+001  1.495368e+002 
3431250000  -3.927119e+001  1.432929e+002 
3434375000  -3.901514e+001  1.374020e+002 
3437500000  -3.978671e+001  1.347861e+002 
3440625000  -4.004375e+001  1.349205e+002 
3443750000  -3.895891e+001  1.354396e+002 
3446875000  -3.793035e+001  1.287152e+002 
3450000000  -3.761227e+001  1.174515e+002 
3453125000  -3.799692e+001  1.078599e+002 
3456250000  -3.902521e+001  1.011269e+002 
3459375000  -4.005550e+001  1.022985e+002 
3462500000  -3.963020e+001  1.026260e+002 
3465625000  -3.989018e+001  9.644543e+001 
3468750000  -4.002320e+001  9.380850e+001 
3471875000  -3.995819e+001  9.153686e+001 
3475000000  -3.957003e+001  8.731242e+001 
3478125000  -4.033670e+001  7.918564e+001 
3481250000  -4.107924e+001  7.556150e+001 
3484375000  -4.195073e+001  8.065592e+001 
3487500000  -4.143858e+001  7.824413e+001 
3490625000  -4.065462e+001  7.313170e+001 
3493750000  -4.125908e+001  6.889590e+001 
3496875000  -4.211708e+001  6.648679e+001 
3500000000  -4.241948e+001  6.898782e+001 
3503125000  -4.190071e+001  7.273930e+001 
3506250000  -4.067832e+001  6.562758e+001 
3509375000  -4.073382e+001  5.728489e+001 
3512500000  -4.095775e+001  4.726090e+001 
3515625000  -4.197300e+001  4.526625e+001 
3518750000  -4.262495e+001  4.649485e+001 
3521875000  -4.252194e+001  4.335559e+001 
3525000000  -4.340225e+001  3.951689e+001 
3528125000  -4.355291e+001  4.771330e+001 
3531250000  -4.195654e+001  4.598154e+001 
3534375000  -4.223544e+001  3.545978e+001 
3537500000  -4.240998e+001  3.127569e+001 
3540625000  -4.346700e+001  3.051636e+001 
3543750000  -4.445170e+001  3.153596e+001 
3546875000  -4.433134e+001  4.482979e+001 
3550000000  -4.125929e+001  4.590010e+001 
3553125000  -4.021829e+001  2.846200e+001 
3556250000  -4.157161e+001  2.277649e+001 
3559375000  -4.150839e+001  2.616456e+001 
3562500000  -4.047206e+001  1.583232e+001 
3565625000  -4.147448e+001  8.457618e+000 
3568750000  -4.135002e+001  1.096183e+001 
3571875000  -4.107223e+001  1.039252e+001 
3575000000  -4.082225e+001  2.150485e+000 
3578125000  -4.151564e+001  -1.691892e+000 
3581250000  -4.160302e+001  -3.753615e+000 
3584375000  -4.056319e+001  -8.050872e+000 
3587500000  -4.010008e+001  -1.454709e+001 
3590625000  -4.060461e+001  -2.458424e+001 
3593750000  -4.148090e+001  -2.794803e+001 
3596875000  -4.167981e+001  -2.073938e+001 
3600000000  -4.030135e+001  -2.856003e+001 
3603125000  -4.069012e+001  -4.187298e+001 
3606250000  -4.160567e+001  -4.541700e+001 
3609375000  -4.219076e+001  -4.706521e+001 
3612500000  -4.297091e+001  -5.300149e+001 
3615625000  -4.306828e+001  -5.428643e+001 
3618750000  -4.342913e+001  -5.600991e+001 
3621875000  -4.351350e+001  -5.946008e+001 
3625000000  -4.429319e+001  -5.992820e+001 
3628125000  -4.398466e+001  -6.181773e+001 
3631250000  -4.419249e+001  -6.562683e+001 
3634375000  -4.519739e+001  -6.690850e+001 
3637500000  -4.562332e+001  -6.265720e+001 
3640625000  -4.458373e+001  -6.259867e+001 
3643750000  -4.424461e+001  -6.632734e+001 
3646875000  -4.515166e+001  -7.151215e+001 
3650000000  -4.593909e+001  -7.398680e+001 
3653125000  -4.561518e+001  -7.534297e+001 
3656250000  -4.586515e+001  -7.445084e+001 
3659375000  -4.628162e+001  -6.788702e+001 
3662500000  -4.491996e+001  -6.942233e+001 
3665625000  -4.476578e+001  -7.167709e+001 
3668750000  -4.396420e+001  -7.089929e+001 
3671875000  -4.304981e+001  -7.650132e+001 
3675000000  -4.328455e+001  -8.657899e+001 
3678125000  -4.319730e+001  -8.640147e+001 
3681250000  -4.341399e+001  -8.785711e+001 
3684375000  -4.309822e+001  -9.120964e+001 
3687500000  -4.307046e+001  -9.674222e+001 
3690625000  -4.333265e+001  -1.002550e+002 
3693750000  -4.411506e+001  -9.908195e+001 
3696875000  -4.359354e+001  -9.874473e+001 
3700000000  -4.275638e+001  -1.042522e+002 
3703125000  -4.307958e+001  -1.099611e+002 
3706250000  -4.356734e+001  -1.094009e+002 
3709375000  -4.336305e+001  -1.069699e+002 
3712500000  -4.248220e+001  -1.109297e+002 
3715625000  -4.168554e+001  -1.190057e+002 
3718750000  -4.135882e+001  -1.228961e+002 
3721875000  -4.133097e+001  -1.294389e+002 
3725000000  -4.150405e+001  -1.379482e+002 
3728125000  -4.202097e+001  -1.387128e+002 
3731250000  -4.156082e+001  -1.420418e+002 
3734375000  -4.101651e+001  -1.470645e+002 
3737500000  -4.220049e+001  -1.534655e+002 
3740625000  -4.320031e+001  -1.576168e+002 
3743750000  -4.280459e+001  -1.594348e+002 
3746875000  -4.339558e+001  -1.651573e+002 
3750000000  -4.401860e+001  -1.650576e+002 
3753125000  -4.410527e+001  -1.663485e+002 
3756250000  -4.431926e+001  -1.639651e+002 
3759375000  -4.444103e+001  -1.631143e+002 
3762500000  -4.412115e+001  -1.682327e+002 
3765625000  -4.467860e+001  -1.662234e+002 
3768750000  -4.475511e+001  -1.620838e+002 
3771875000  -4.294428e+001  -1.650358e+002 
3775000000  -4.278816e+001  -1.729542e+002 
3778125000  -4.342704e+001  -1.748078e+002 
3781250000  -4.284106e+001  -1.745655e+002 
3784375000  -4.284724e+001  -1.759292e+002 
3787500000  -4.220639e+001  -1.777059e+002 
3790625000  -4.270025e+001  1.738917e+002 
3793750000  -4.232758e+001  1.775827e+002 
3796875000  -4.135247e+001  1.704426e+002 
3800000000  -3.958739e+001  1.707804e+002 
3803125000  -4.058381e+001  1.593417e+002 
3806250000  -4.116865e+001  1.583719e+002 
3809375000  -4.079580e+001  1.558149e+002 
3812500000  -4.002871e+001  1.496587e+002 
3815625000  -4.062107e+001  1.394992e+002 
3818750000  -4.142305e+001  1.393396e+002 
3821875000  -4.148178e+001  1.472785e+002 
3825000000  -3.908651e+001  1.503870e+002 
3828125000  -3.787019e+001  1.352313e+002 
3831250000  -3.876013e+001  1.200874e+002 
3834375000  -4.013424e+001  1.175363e+002 
3837500000  -4.104692e+001  1.207210e+002 
3840625000  -3.975483e+001  1.180764e+002 
3843750000  -3.909930e+001  1.079459e+002 
3846875000  -3.993126e+001  1.015386e+002 
3850000000  -4.124992e+001  1.053788e+002 
3853125000  -4.010150e+001  1.081043e+002 
3856250000  -4.048938e+001  1.010401e+002 
3859375000  -3.953625e+001  9.689775e+001 
3862500000  -3.943859e+001  8.862872e+001 
3865625000  -3.955960e+001  8.284471e+001 
3868750000  -3.961161e+001  8.195437e+001 
3871875000  -3.898936e+001  7.804338e+001 
3875000000  -3.941316e+001  6.789455e+001 
3878125000  -4.041327e+001  6.743771e+001 
3881250000  -4.051193e+001  7.033551e+001 
3884375000  -4.015318e+001  6.484959e+001 
3887500000  -4.016846e+001  5.875815e+001 
3890625000  -4.065501e+001  5.826179e+001 
3893750000  -4.116052e+001  5.587935e+001 
3896875000  -4.140606e+001  5.615092e+001 
3900000000  -4.165614e+001  5.512189e+001 
3903125000  -4.078878e+001  5.163107e+001 
3906250000  -4.071227e+001  4.990437e+001 
3909375000  -4.020863e+001  4.919493e+001 
3912500000  -4.023007e+001  3.798626e+001 
3915625000  -4.146921e+001  3.942251e+001 
3918750000  -4.092686e+001  4.074454e+001 
3921875000  -4.080815e+001  3.829950e+001 
3925000000  -3.993985e+001  3.666426e+001 
3928125000  -3.907441e+001  2.842632e+001 
3931250000  -3.993768e+001  2.237718e+001 
3934375000  -4.008605e+001  2.186877e+001 
3937500000  -4.005523e+001  1.986588e+001 
3940625000  -4.048593e+001  1.878152e+001 
3943750000  -3.941304e+001  1.947419e+001 
3946875000  -3.840108e+001  1.248310e+001 
3950000000  -3.901466e+001  4.998443e+000 
3953125000  -3.991011e+001  2.108681e+000 
3956250000  -3.896532e+001  4.391278e+000 
3959375000  -3.779136e+001  -6.015781e-001 
3962500000  -3.737679e+001  -4.319828e+000 
3965625000  -3.698566e+001  -1.386008e+001 
3968750000  -3.807011e+001  -2.161182e+001 
3971875000  -3.846342e+001  -2.325622e+001 
3975000000  -3.778138e+001  -2.528606e+001 
3978125000  -3.784626e+001  -2.766985e+001 
3981250000  -3.786294e+001  -3.402013e+001 
3984375000  -3.804593e+001  -3.942924e+001 
3987500000  -3.863744e+001  -4.188513e+001 
3990625000  -3.854153e+001  -4.345865e+001 
3993750000  -3.918665e+001  -4.872616e+001 
3996875000  -3.889004e+001  -5.310504e+001 
4000000000  -3.921059e+001  -5.344927e+001 
4003125000  -3.962957e+001  -5.159013e+001 
4006250000  -3.808953e+001  -5.363164e+001 
4009375000  -3.714763e+001  -6.607581e+001 
4012500000  -3.848961e+001  -7.347018e+001 
4015625000  -4.019204e+001  -7.391484e+001 
4018750000  -4.002674e+001  -7.118091e+001 
4021875000  -3.915579e+001  -7.173444e+001 
4025000000  -3.887661e+001  -7.842397e+001 
4028125000  -3.887465e+001  -8.252123e+001 
4031250000  -3.944460e+001  -8.771009e+001 
4034375000  -3.959446e+001  -8.824232e+001 
4037500000  -3.933258e+001  -8.562453e+001 
4040625000  -3.890895e+001  -9.072994e+001 
4043750000  -3.938992e+001  -9.206537e+001 
4046875000  -3.894239e+001  -9.099660e+001 
4050000000  -3.832306e+001  -9.850314e+001 
4053125000  -3.880213e+001  -1.024796e+002 
4056250000  -3.924753e+001  -9.714284e+001 
4059375000  -3.792645e+001  -9.654958e+001 
4062500000  -3.678458e+001  -1.028211e+002 
4065625000  -3.669232e+001  -1.057137e+002 
4068750000  -3.644828e+001  -1.144910e+002 
4071875000  -3.569634e+001  -1.226029e+002 
4075000000  -3.604068e+001  -1.288235e+002 
4078125000  -3.671114e+001  -1.305600e+002 
4081250000  -3.601761e+001  -1.344328e+002 
4084375000  -3.562236e+001  -1.413749e+002 
4087500000  -3.601540e+001  -1.484097e+002 
4090625000  -3.685445e+001  -1.502113e+002 
4093750000  -3.658488e+001  -1.519573e+002 
4096875000  -3.607259e+001  -1.584068e+002 
4100000000  -3.684173e+001  -1.666086e+002 
4103125000  -3.787172e+001  -1.657804e+002 
4106250000  -3.771865e+001  -1.605911e+002 
4109375000  -3.662218e+001  -1.634340e+002 
4112500000  -3.630603e+001  -1.712700e+002 
4115625000  -3.654275e+001  -1.761707e+002 
4118750000  -3.678337e+001  1.799761e+002 
4121875000  -3.635641e+001  1.735303e+002 
4125000000  -3.682489e+001  1.679954e+002 
4128125000  -3.786267e+001  1.685121e+002 
4131250000  -3.760670e+001  1.769195e+002 
4134375000  -3.512735e+001  1.695457e+002 
4137500000  -3.519965e+001  1.501934e+002 
4140625000  -3.749055e+001  1.413832e+002 
4143750000  -3.885688e+001  1.470268e+002 
4146875000  -3.841817e+001  1.528089e+002 
4150000000  -3.762987e+001  1.483339e+002 
4153125000  -3.731740e+001  1.415216e+002 
4156250000  -3.845543e+001  1.392539e+002 
4159375000  -3.850432e+001  1.423768e+002 
4162500000  -3.736354e+001  1.477220e+002 
4165625000  -3.659981e+001  1.431351e+002 
4168750000  -3.579902e+001  1.343774e+002 
4171875000  -3.589663e+001  1.242469e+002 
4175000000  -3.675373e+001  1.193257e+002 
4178125000  -3.718449e+001  1.193840e+002 
4181250000  -3.678944e+001  1.185499e+002 
4184375000  -3.669827e+001  1.132809e+002 
4187500000  -3.675298e+001  1.107050e+002 
4190625000  -3.657903e+001  1.053808e+002 
4193750000  -3.727742e+001  1.006280e+002 
4196875000  -3.797328e+001  9.951813e+001 
4200000000  -3.888194e+001  1.010886e+002 
4203125000  -3.868457e+001  1.156245e+002 
4206250000  -3.514949e+001  1.147944e+002 
4209375000  -3.425277e+001  9.214303e+001 
4212500000  -3.624392e+001  8.454678e+001 
4215625000  -3.701120e+001  8.913192e+001 
4218750000  -3.556244e+001  9.525076e+001 
4221875000  -3.331602e+001  8.491355e+001 
4225000000  -3.466050e+001  7.243482e+001 
4228125000  -3.536514e+001  7.579115e+001 
4231250000  -3.353882e+001  7.070660e+001 
4234375000  -3.355035e+001  6.176162e+001 
4237500000  -3.313709e+001  5.810629e+001 
4240625000  -3.306352e+001  4.727916e+001 
4243750000  -3.421220e+001  3.920043e+001 
4246875000  -3.507094e+001  3.898128e+001 
4250000000  -3.516747e+001  4.124924e+001 
4253125000  -3.474009e+001  3.644207e+001 
4256250000  -3.495318e+001  3.167983e+001 
4259375000  -3.470529e+001  2.927400e+001 
4262500000  -3.487553e+001  2.454469e+001 
4265625000  -3.491993e+001  2.226010e+001 
4268750000  -3.405832e+001  1.786506e+001 
4271875000  -3.382222e+001  1.107499e+001 
4275000000  -3.344419e+001  3.482549e+000 
4278125000  -3.419415e+001  -8.584459e+000 
4281250000  -3.603577e+001  -1.136657e+001 
4284375000  -3.599761e+001  -1.198648e+001 
4287500000  -3.696747e+001  -1.447723e+001 
4290625000  -3.807185e+001  -4.477044e+000 
4293750000  -3.597168e+001  -4.157811e-001 
4296875000  -3.489213e+001  -1.176259e+001 
4300000000  -3.589554e+001  -2.088005e+001 
4303125000  -3.716683e+001  -1.873610e+001 
4306250000  -3.650223e+001  -1.390844e+001 
4309375000  -3.524083e+001  -1.652099e+001 
4312500000  -3.493527e+001  -2.325915e+001 
4315625000  -3.499341e+001  -3.108234e+001 
4318750000  -3.542293e+001  -3.397073e+001 
4321875000  -3.548625e+001  -3.377703e+001 
4325000000  -3.493760e+001  -3.319141e+001 
4328125000  -3.433445e+001  -3.995758e+001 
4331250000  -3.404688e+001  -4.855650e+001 
4334375000  -3.451448e+001  -5.378865e+001 
4337500000  -3.537561e+001  -5.696476e+001 
4340625000  -3.575415e+001  -5.363806e+001 
4343750000  -3.493644e+001  -5.447721e+001 
4346875000  -3.453730e+001  -6.191308e+001 
4350000000  -3.442495e+001  -6.741962e+001 
4353125000  -3.435132e+001  -7.493866e+001 
4356250000  -3.614306e+001  -7.625622e+001 
4359375000  -3.648259e+001  -6.283732e+001 
4362500000  -3.359106e+001  -6.241301e+001 
4365625000  -3.202229e+001  -7.661488e+001 
4368750000  -3.291171e+001  -9.113882e+001 
4371875000  -3.387408e+001  -8.966812e+001 
4375000000  -3.350465e+001  -9.100828e+001 
4378125000  -3.284702e+001  -9.781553e+001 
4381250000  -3.310370e+001  -1.037019e+002 
4384375000  -3.279523e+001  -1.107409e+002 
4387500000  -3.364625e+001  -1.184473e+002 
4390625000  -3.451673e+001  -1.183291e+002 
4393750000  -3.391689e+001  -1.180757e+002 
4396875000  -3.336769e+001  -1.203499e+002 
4400000000  -3.275455e+001  -1.283837e+002 
4403125000  -3.346972e+001  -1.374610e+002 
4406250000  -3.444582e+001  -1.397138e+002 
4409375000  -3.460226e+001  -1.436112e+002 
4412500000  -3.583086e+001  -1.473928e+002 
4415625000  -3.602360e+001  -1.433821e+002 
