!Agilent Technologies,E8363B,MY43030201,A.06.04.32
!Agilent E8363B: A.06.04.32
!Date: Tuesday, November 11, 2014 21:01:14
!Correction: S21(Response(S21)) 
!S1P File: Measurement: S21:
# Hz S  dB   R 50
3000000000  -3.643046e+001  -4.299297e+001 
3003125000  -3.747040e+001  -4.907089e+001 
3006250000  -3.738591e+001  -5.253596e+001 
3009375000  -3.772626e+001  -4.707445e+001 
3012500000  -3.691686e+001  -4.950040e+001 
3015625000  -3.596515e+001  -5.656545e+001 
3018750000  -3.677974e+001  -5.863375e+001 
3021875000  -3.537833e+001  -5.714935e+001 
3025000000  -3.404444e+001  -6.091560e+001 
3028125000  -3.300829e+001  -6.695149e+001 
3031250000  -3.201983e+001  -7.869224e+001 
3034375000  -3.169154e+001  -9.197419e+001 
3037500000  -3.212073e+001  -1.040671e+002 
3040625000  -3.341612e+001  -1.092668e+002 
3043750000  -3.415851e+001  -1.141497e+002 
3046875000  -3.432109e+001  -1.208709e+002 
3050000000  -3.595446e+001  -1.269617e+002 
3053125000  -3.599405e+001  -1.208600e+002 
3056250000  -3.541164e+001  -1.184226e+002 
3059375000  -3.554482e+001  -1.184796e+002 
3062500000  -3.401722e+001  -1.220707e+002 
3065625000  -3.382722e+001  -1.278583e+002 
3068750000  -3.339493e+001  -1.347489e+002 
3071875000  -3.342675e+001  -1.376015e+002 
3075000000  -3.325765e+001  -1.413645e+002 
3078125000  -3.295995e+001  -1.451413e+002 
3081250000  -3.348693e+001  -1.496713e+002 
3084375000  -3.259410e+001  -1.531507e+002 
3087500000  -3.243574e+001  -1.576401e+002 
3090625000  -3.196353e+001  -1.671654e+002 
3093750000  -3.235931e+001  -1.750992e+002 
3096875000  -3.346312e+001  1.791711e+002 
3100000000  -3.334792e+001  1.768329e+002 
3103125000  -3.364423e+001  1.778798e+002 
3106250000  -3.314906e+001  1.736124e+002 
3109375000  -3.328304e+001  1.694232e+002 
3112500000  -3.317734e+001  1.676264e+002 
3115625000  -3.286063e+001  1.628985e+002 
3118750000  -3.313668e+001  1.628834e+002 
3121875000  -3.231835e+001  1.535998e+002 
3125000000  -3.349936e+001  1.489892e+002 
3128125000  -3.458909e+001  1.566503e+002 
3131250000  -3.214904e+001  1.553176e+002 
3134375000  -3.077477e+001  1.398259e+002 
3137500000  -3.132290e+001  1.254647e+002 
3140625000  -3.283073e+001  1.224063e+002 
3143750000  -3.392786e+001  1.238139e+002 
3146875000  -3.336695e+001  1.252062e+002 
3150000000  -3.236471e+001  1.251785e+002 
3153125000  -3.233036e+001  1.163615e+002 
3156250000  -3.336807e+001  1.208206e+002 
3159375000  -3.174514e+001  1.223315e+002 
3162500000  -2.977334e+001  1.082460e+002 
3165625000  -3.074714e+001  9.631063e+001 
3168750000  -3.107622e+001  9.579448e+001 
3171875000  -3.018906e+001  9.052298e+001 
3175000000  -3.092368e+001  8.175201e+001 
3178125000  -3.065769e+001  8.242037e+001 
3181250000  -2.954984e+001  7.713017e+001 
3184375000  -2.880137e+001  6.438399e+001 
3187500000  -3.003759e+001  4.849056e+001 
3190625000  -3.270653e+001  4.044979e+001 
3193750000  -3.333941e+001  4.926313e+001 
3196875000  -3.299431e+001  5.422770e+001 
3200000000  -3.202201e+001  5.110111e+001 
3203125000  -3.125229e+001  4.538536e+001 
3206250000  -3.150868e+001  3.858195e+001 
3209375000  -3.108320e+001  3.255001e+001 
3212500000  -3.132145e+001  2.473386e+001 
3215625000  -3.136413e+001  2.154662e+001 
3218750000  -3.218120e+001  1.408385e+001 
3221875000  -3.300849e+001  9.089290e+000 
3225000000  -3.264159e+001  7.494797e+000 
3228125000  -3.294565e+001  2.150067e+000 
3231250000  -3.363830e+001  -7.581193e-001 
3234375000  -3.334425e+001  -2.873263e-001 
3237500000  -3.342330e+001  -2.631870e+000 
3240625000  -3.299486e+001  -5.074416e+000 
3243750000  -3.253348e+001  -1.231834e+001 
3246875000  -3.305009e+001  -1.974176e+001 
3250000000  -3.342384e+001  -2.212294e+001 
3253125000  -3.359235e+001  -2.432930e+001 
3256250000  -3.330536e+001  -3.146193e+001 
3259375000  -3.352973e+001  -3.970174e+001 
3262500000  -3.461102e+001  -4.336266e+001 
3265625000  -3.530926e+001  -4.024314e+001 
3268750000  -3.518328e+001  -3.830038e+001 
3271875000  -3.486868e+001  -3.906451e+001 
3275000000  -3.377269e+001  -4.518153e+001 
3278125000  -3.432673e+001  -5.164892e+001 
3281250000  -3.445815e+001  -4.971621e+001 
3284375000  -3.400222e+001  -5.784897e+001 
3287500000  -3.423911e+001  -6.108350e+001 
3290625000  -3.448065e+001  -6.720892e+001 
3293750000  -3.424324e+001  -7.257339e+001 
3296875000  -3.532218e+001  -7.326292e+001 
3300000000  -3.504498e+001  -7.325269e+001 
3303125000  -3.396533e+001  -7.818277e+001 
3306250000  -3.365316e+001  -8.449364e+001 
3309375000  -3.344675e+001  -9.094684e+001 
3312500000  -3.340177e+001  -1.018256e+002 
3315625000  -3.444945e+001  -1.101156e+002 
3318750000  -3.577626e+001  -1.134190e+002 
3321875000  -3.672509e+001  -1.134780e+002 
3325000000  -3.748095e+001  -1.088246e+002 
3328125000  -3.697034e+001  -1.072306e+002 
3331250000  -3.593130e+001  -1.000977e+002 
3334375000  -3.306506e+001  -1.108844e+002 
3337500000  -3.321309e+001  -1.297625e+002 
3340625000  -3.446063e+001  -1.416867e+002 
3343750000  -3.661664e+001  -1.423951e+002 
3346875000  -3.668991e+001  -1.399629e+002 
3350000000  -3.616800e+001  -1.418666e+002 
3353125000  -3.619030e+001  -1.465974e+002 
3356250000  -3.557682e+001  -1.555587e+002 
3359375000  -3.635421e+001  -1.635732e+002 
3362500000  -3.748990e+001  -1.689653e+002 
3365625000  -3.799665e+001  -1.700084e+002 
3368750000  -3.885047e+001  -1.737252e+002 
3371875000  -3.912944e+001  -1.759918e+002 
3375000000  -4.040125e+001  -1.793611e+002 
3378125000  -4.120682e+001  -1.784158e+002 
3381250000  -4.252402e+001  -1.712490e+002 
3384375000  -4.140203e+001  -1.490051e+002 
3387500000  -3.766481e+001  -1.652963e+002 
3390625000  -3.917997e+001  1.757185e+002 
3393750000  -4.033918e+001  1.779589e+002 
3396875000  -3.934855e+001  1.798565e+002 
3400000000  -3.857927e+001  1.718707e+002 
3403125000  -3.937283e+001  1.658595e+002 
3406250000  -3.980939e+001  1.667476e+002 
3409375000  -3.972139e+001  1.589299e+002 
3412500000  -4.020368e+001  1.560125e+002 
3415625000  -4.115893e+001  1.574830e+002 
3418750000  -4.116412e+001  1.591537e+002 
3421875000  -4.129903e+001  1.608548e+002 
3425000000  -4.029937e+001  1.619808e+002 
3428125000  -3.936729e+001  1.580022e+002 
3431250000  -3.930817e+001  1.502344e+002 
3434375000  -3.936765e+001  1.455131e+002 
3437500000  -3.981221e+001  1.414761e+002 
3440625000  -4.011965e+001  1.421136e+002 
3443750000  -3.885139e+001  1.433477e+002 
3446875000  -3.784026e+001  1.344629e+002 
3450000000  -3.760536e+001  1.261890e+002 
3453125000  -3.786758e+001  1.158601e+002 
3456250000  -3.899370e+001  1.086654e+002 
3459375000  -4.011518e+001  1.100248e+002 
3462500000  -3.976050e+001  1.093317e+002 
3465625000  -3.977982e+001  1.037613e+002 
3468750000  -4.009173e+001  9.920950e+001 
3471875000  -3.989688e+001  9.873121e+001 
3475000000  -3.975907e+001  9.251807e+001 
3478125000  -4.018843e+001  8.670301e+001 
3481250000  -4.092591e+001  8.392482e+001 
3484375000  -4.216816e+001  8.824188e+001 
3487500000  -4.121409e+001  8.765334e+001 
3490625000  -4.041947e+001  8.118096e+001 
3493750000  -4.116998e+001  7.456555e+001 
3496875000  -4.180849e+001  7.274486e+001 
3500000000  -4.219700e+001  7.486430e+001 
3503125000  -4.164500e+001  7.641498e+001 
3506250000  -4.042150e+001  7.186131e+001 
3509375000  -4.030010e+001  6.208250e+001 
3512500000  -4.120912e+001  5.403775e+001 
3515625000  -4.183512e+001  5.036003e+001 
3518750000  -4.234689e+001  4.996128e+001 
3521875000  -4.273360e+001  4.881035e+001 
3525000000  -4.368708e+001  4.365768e+001 
3528125000  -4.353591e+001  5.052245e+001 
3531250000  -4.206539e+001  5.120958e+001 
3534375000  -4.223862e+001  4.201503e+001 
3537500000  -4.293536e+001  3.620291e+001 
3540625000  -4.388870e+001  3.588775e+001 
3543750000  -4.500672e+001  3.541514e+001 
3546875000  -4.450427e+001  4.932267e+001 
3550000000  -4.201870e+001  5.233650e+001 
3553125000  -4.037733e+001  3.267226e+001 
3556250000  -4.223604e+001  2.690091e+001 
3559375000  -4.197505e+001  3.006473e+001 
3562500000  -4.092364e+001  2.076709e+001 
3565625000  -4.153437e+001  1.227702e+001 
3568750000  -4.203332e+001  1.669499e+001 
3571875000  -4.168338e+001  1.772870e+001 
3575000000  -4.121090e+001  1.024000e+001 
3578125000  -4.149014e+001  4.828441e+000 
3581250000  -4.199680e+001  3.065463e+000 
3584375000  -4.102271e+001  1.025844e+000 
3587500000  -4.026360e+001  -8.561437e+000 
3590625000  -4.065343e+001  -1.780436e+001 
3593750000  -4.208724e+001  -2.117638e+001 
3596875000  -4.220415e+001  -1.444950e+001 
3600000000  -4.055888e+001  -1.968664e+001 
3603125000  -4.083847e+001  -3.570122e+001 
3606250000  -4.167180e+001  -3.801310e+001 
3609375000  -4.214683e+001  -4.138100e+001 
3612500000  -4.298847e+001  -4.531110e+001 
3615625000  -4.279299e+001  -4.883146e+001 
3618750000  -4.393427e+001  -5.082971e+001 
3621875000  -4.358179e+001  -5.143329e+001 
3625000000  -4.418018e+001  -5.364580e+001 
3628125000  -4.436543e+001  -5.506574e+001 
3631250000  -4.430019e+001  -5.968719e+001 
3634375000  -4.551914e+001  -6.093909e+001 
3637500000  -4.586868e+001  -5.879122e+001 
3640625000  -4.466750e+001  -5.660374e+001 
3643750000  -4.475257e+001  -6.070501e+001 
3646875000  -4.574014e+001  -6.899971e+001 
3650000000  -4.652864e+001  -6.707568e+001 
3653125000  -4.644093e+001  -6.841431e+001 
3656250000  -4.650668e+001  -6.937468e+001 
3659375000  -4.704873e+001  -6.324083e+001 
3662500000  -4.609311e+001  -6.297841e+001 
3665625000  -4.599732e+001  -6.385738e+001 
3668750000  -4.501135e+001  -6.401012e+001 
3671875000  -4.372351e+001  -6.870799e+001 
3675000000  -4.406541e+001  -7.407410e+001 
3678125000  -4.427921e+001  -7.625863e+001 
3681250000  -4.441901e+001  -7.703441e+001 
3684375000  -4.411702e+001  -8.273409e+001 
3687500000  -4.395163e+001  -8.632419e+001 
3690625000  -4.373847e+001  -9.028784e+001 
3693750000  -4.491305e+001  -9.087026e+001 
3696875000  -4.454156e+001  -8.785503e+001 
3700000000  -4.356915e+001  -9.272533e+001 
3703125000  -4.393740e+001  -9.807349e+001 
3706250000  -4.460487e+001  -9.896731e+001 
3709375000  -4.412211e+001  -9.625809e+001 
3712500000  -4.282014e+001  -9.922303e+001 
3715625000  -4.233695e+001  -1.070276e+002 
3718750000  -4.153312e+001  -1.109985e+002 
3721875000  -4.151707e+001  -1.192196e+002 
3725000000  -4.190102e+001  -1.241739e+002 
3728125000  -4.236414e+001  -1.263158e+002 
3731250000  -4.189357e+001  -1.284935e+002 
3734375000  -4.171431e+001  -1.342475e+002 
3737500000  -4.232856e+001  -1.431075e+002 
3740625000  -4.317426e+001  -1.466539e+002 
3743750000  -4.353196e+001  -1.462714e+002 
3746875000  -4.338706e+001  -1.495903e+002 
3750000000  -4.360260e+001  -1.540723e+002 
3753125000  -4.395155e+001  -1.526166e+002 
3756250000  -4.433690e+001  -1.525138e+002 
3759375000  -4.470091e+001  -1.507179e+002 
3762500000  -4.403000e+001  -1.559001e+002 
3765625000  -4.474347e+001  -1.556845e+002 
3768750000  -4.483192e+001  -1.556505e+002 
3771875000  -4.304015e+001  -1.560225e+002 
3775000000  -4.282354e+001  -1.613573e+002 
3778125000  -4.344801e+001  -1.642839e+002 
3781250000  -4.293769e+001  -1.667359e+002 
3784375000  -4.280759e+001  -1.651276e+002 
3787500000  -4.202052e+001  -1.694112e+002 
3790625000  -4.248096e+001  -1.740032e+002 
3793750000  -4.230942e+001  -1.747739e+002 
3796875000  -4.143027e+001  -1.774221e+002 
3800000000  -4.005973e+001  -1.796734e+002 
3803125000  -4.043313e+001  1.716364e+002 
3806250000  -4.104769e+001  1.680686e+002 
3809375000  -4.079482e+001  1.662196e+002 
3812500000  -4.004322e+001  1.609562e+002 
3815625000  -4.078009e+001  1.510044e+002 
3818750000  -4.152916e+001  1.485087e+002 
3821875000  -4.135514e+001  1.573281e+002 
3825000000  -3.970919e+001  1.615195e+002 
3828125000  -3.809414e+001  1.437398e+002 
3831250000  -3.861465e+001  1.298294e+002 
3834375000  -4.015034e+001  1.301830e+002 
3837500000  -4.104748e+001  1.331169e+002 
3840625000  -3.968990e+001  1.302791e+002 
3843750000  -3.878991e+001  1.201420e+002 
3846875000  -3.949302e+001  1.121082e+002 
3850000000  -4.084844e+001  1.175678e+002 
3853125000  -4.026881e+001  1.184220e+002 
3856250000  -4.000327e+001  1.124834e+002 
3859375000  -3.962762e+001  1.069602e+002 
3862500000  -3.933125e+001  9.868495e+001 
3865625000  -3.950047e+001  9.468769e+001 
3868750000  -3.960632e+001  9.405756e+001 
3871875000  -3.912310e+001  8.902207e+001 
3875000000  -3.915104e+001  7.912187e+001 
3878125000  -4.034486e+001  7.644678e+001 
3881250000  -4.036308e+001  7.918230e+001 
3884375000  -3.956603e+001  7.412657e+001 
3887500000  -4.000553e+001  7.112056e+001 
3890625000  -4.050874e+001  6.599009e+001 
3893750000  -4.072999e+001  6.342707e+001 
3896875000  -4.109107e+001  6.507813e+001 
3900000000  -4.096199e+001  6.417295e+001 
3903125000  -4.099318e+001  6.051271e+001 
3906250000  -4.032167e+001  6.056503e+001 
3909375000  -3.989665e+001  5.704930e+001 
3912500000  -3.984062e+001  4.687201e+001 
3915625000  -4.103795e+001  4.779995e+001 
3918750000  -4.105088e+001  4.922189e+001 
3921875000  -4.035804e+001  4.560862e+001 
3925000000  -3.939482e+001  4.315956e+001 
3928125000  -3.902643e+001  3.676723e+001 
3931250000  -3.956812e+001  3.057514e+001 
3934375000  -3.996606e+001  3.042528e+001 
3937500000  -3.993481e+001  2.938383e+001 
3940625000  -4.027818e+001  2.811161e+001 
3943750000  -3.951406e+001  2.780141e+001 
3946875000  -3.827765e+001  2.194863e+001 
3950000000  -3.894835e+001  1.399912e+001 
3953125000  -3.988608e+001  1.199622e+001 
3956250000  -3.913755e+001  1.465072e+001 
3959375000  -3.787754e+001  1.035572e+001 
3962500000  -3.734344e+001  7.188040e+000 
3965625000  -3.729792e+001  -3.869828e+000 
3968750000  -3.823270e+001  -1.048951e+001 
3971875000  -3.846593e+001  -1.274013e+001 
3975000000  -3.811032e+001  -1.498520e+001 
3978125000  -3.799356e+001  -1.820122e+001 
3981250000  -3.779095e+001  -2.303910e+001 
3984375000  -3.796092e+001  -2.933150e+001 
3987500000  -3.840005e+001  -3.243095e+001 
3990625000  -3.847233e+001  -3.208834e+001 
3993750000  -3.890402e+001  -3.787435e+001 
3996875000  -3.890550e+001  -4.089120e+001 
4000000000  -3.897036e+001  -4.309299e+001 
4003125000  -3.950378e+001  -4.050561e+001 
4006250000  -3.793161e+001  -4.120577e+001 
4009375000  -3.686057e+001  -5.574255e+001 
4012500000  -3.815546e+001  -6.335211e+001 
4015625000  -3.964518e+001  -6.371666e+001 
4018750000  -3.957532e+001  -6.045206e+001 
4021875000  -3.878117e+001  -6.383075e+001 
4025000000  -3.845662e+001  -6.920187e+001 
4028125000  -3.841632e+001  -7.360549e+001 
4031250000  -3.886866e+001  -7.618984e+001 
4034375000  -3.951805e+001  -7.803764e+001 
4037500000  -3.890010e+001  -7.867426e+001 
4040625000  -3.870144e+001  -8.281505e+001 
4043750000  -3.900423e+001  -8.311712e+001 
4046875000  -3.850299e+001  -8.391439e+001 
4050000000  -3.789605e+001  -9.009724e+001 
4053125000  -3.876453e+001  -9.425466e+001 
4056250000  -3.929545e+001  -8.938296e+001 
4059375000  -3.789166e+001  -9.008449e+001 
4062500000  -3.657396e+001  -9.541404e+001 
4065625000  -3.646343e+001  -9.978139e+001 
4068750000  -3.623201e+001  -1.048532e+002 
4071875000  -3.548261e+001  -1.150708e+002 
4075000000  -3.602072e+001  -1.207115e+002 
4078125000  -3.662502e+001  -1.228221e+002 
4081250000  -3.610477e+001  -1.262290e+002 
4084375000  -3.571701e+001  -1.341801e+002 
4087500000  -3.625068e+001  -1.414861e+002 
4090625000  -3.674771e+001  -1.409390e+002 
4093750000  -3.655125e+001  -1.431485e+002 
4096875000  -3.623785e+001  -1.492104e+002 
4100000000  -3.686517e+001  -1.569047e+002 
4103125000  -3.772635e+001  -1.563950e+002 
4106250000  -3.784457e+001  -1.508967e+002 
4109375000  -3.685672e+001  -1.538077e+002 
4112500000  -3.621239e+001  -1.617350e+002 
4115625000  -3.668105e+001  -1.653280e+002 
4118750000  -3.692990e+001  -1.704976e+002 
4121875000  -3.634937e+001  -1.755844e+002 
4125000000  -3.688007e+001  1.781190e+002 
4128125000  -3.781365e+001  1.783080e+002 
4131250000  -3.746598e+001  -1.751192e+002 
4134375000  -3.529959e+001  1.795925e+002 
4137500000  -3.510203e+001  1.602157e+002 
4140625000  -3.727838e+001  1.516707e+002 
4143750000  -3.850264e+001  1.570493e+002 
4146875000  -3.806016e+001  1.625502e+002 
4150000000  -3.742771e+001  1.593849e+002 
4153125000  -3.711755e+001  1.505522e+002 
4156250000  -3.817686e+001  1.486569e+002 
4159375000  -3.840612e+001  1.534586e+002 
4162500000  -3.725366e+001  1.566290e+002 
4165625000  -3.621850e+001  1.514649e+002 
4168750000  -3.548031e+001  1.443801e+002 
4171875000  -3.574061e+001  1.337155e+002 
4175000000  -3.617102e+001  1.274594e+002 
4178125000  -3.676621e+001  1.269245e+002 
4181250000  -3.663511e+001  1.266259e+002 
4184375000  -3.650796e+001  1.221294e+002 
4187500000  -3.640860e+001  1.196436e+002 
4190625000  -3.632789e+001  1.132969e+002 
4193750000  -3.722892e+001  1.090440e+002 
4196875000  -3.793098e+001  1.073045e+002 
4200000000  -3.877811e+001  1.102739e+002 
4203125000  -3.877985e+001  1.235934e+002 
4206250000  -3.524363e+001  1.225446e+002 
4209375000  -3.423663e+001  1.013612e+002 
4212500000  -3.593710e+001  9.235624e+001 
4215625000  -3.716994e+001  9.861345e+001 
4218750000  -3.556609e+001  1.035825e+002 
4221875000  -3.338033e+001  9.256296e+001 
4225000000  -3.481865e+001  8.076567e+001 
4228125000  -3.527640e+001  8.396785e+001 
4231250000  -3.376992e+001  8.000696e+001 
4234375000  -3.364672e+001  6.988005e+001 
4237500000  -3.330251e+001  6.674496e+001 
4240625000  -3.328902e+001  5.532961e+001 
4243750000  -3.431682e+001  4.843813e+001 
4246875000  -3.525978e+001  4.797817e+001 
4250000000  -3.526720e+001  4.883800e+001 
4253125000  -3.470713e+001  4.637297e+001 
4256250000  -3.491426e+001  3.977845e+001 
4259375000  -3.477586e+001  3.851323e+001 
4262500000  -3.490812e+001  3.353753e+001 
4265625000  -3.486380e+001  3.312367e+001 
4268750000  -3.401788e+001  2.797098e+001 
4271875000  -3.394918e+001  2.130145e+001 
4275000000  -3.341775e+001  1.370274e+001 
4278125000  -3.423953e+001  2.013617e+000 
4281250000  -3.606705e+001  -2.177499e+000 
4284375000  -3.580877e+001  -5.293050e-001 
4287500000  -3.690104e+001  -4.871522e+000 
4290625000  -3.790545e+001  3.550384e+000 
4293750000  -3.622250e+001  1.023040e+001 
4296875000  -3.474475e+001  -2.053906e+000 
4300000000  -3.573566e+001  -1.054476e+001 
4303125000  -3.698811e+001  -9.798251e+000 
4306250000  -3.614005e+001  -3.253000e+000 
4309375000  -3.487251e+001  -6.075890e+000 
4312500000  -3.463181e+001  -1.475260e+001 
4315625000  -3.473563e+001  -2.043417e+001 
4318750000  -3.499379e+001  -2.497331e+001 
4321875000  -3.528899e+001  -2.414070e+001 
4325000000  -3.465052e+001  -2.460329e+001 
4328125000  -3.403700e+001  -3.108156e+001 
4331250000  -3.377834e+001  -4.023759e+001 
4334375000  -3.434537e+001  -4.532674e+001 
4337500000  -3.499641e+001  -4.740363e+001 
4340625000  -3.568834e+001  -4.443067e+001 
4343750000  -3.471251e+001  -4.604146e+001 
4346875000  -3.427560e+001  -5.233934e+001 
4350000000  -3.429906e+001  -5.897306e+001 
4353125000  -3.429574e+001  -6.756871e+001 
4356250000  -3.609415e+001  -6.877551e+001 
4359375000  -3.630996e+001  -5.566455e+001 
4362500000  -3.382129e+001  -5.473431e+001 
4365625000  -3.214485e+001  -6.900607e+001 
4368750000  -3.283326e+001  -8.199693e+001 
4371875000  -3.397310e+001  -8.130923e+001 
4375000000  -3.347371e+001  -8.273330e+001 
4378125000  -3.276434e+001  -8.867826e+001 
4381250000  -3.310910e+001  -9.626502e+001 
4384375000  -3.289157e+001  -1.007872e+002 
4387500000  -3.374543e+001  -1.094236e+002 
4390625000  -3.470041e+001  -1.085023e+002 
4393750000  -3.406601e+001  -1.083006e+002 
4396875000  -3.352031e+001  -1.111696e+002 
4400000000  -3.292379e+001  -1.200154e+002 
4403125000  -3.355475e+001  -1.282330e+002 
4406250000  -3.448088e+001  -1.299152e+002 
4409375000  -3.458237e+001  -1.328627e+002 
4412500000  -3.580631e+001  -1.370937e+002 
4415625000  -3.610652e+001  -1.327855e+002 
