!Agilent Technologies,E8363B,MY43030201,A.06.04.32
!Agilent E8363B: A.06.04.32
!Date: Tuesday, November 11, 2014 21:08:17
!Correction: S21(Response(S21)) 
!S1P File: Measurement: S21:
# Hz S  dB   R 50
3000000000  -3.645388e+001  -5.319613e+001 
3003125000  -3.771346e+001  -5.835566e+001 
3006250000  -3.743335e+001  -6.144589e+001 
3009375000  -3.788864e+001  -5.727134e+001 
3012500000  -3.700531e+001  -5.854799e+001 
3015625000  -3.620947e+001  -6.530368e+001 
3018750000  -3.697235e+001  -6.713436e+001 
3021875000  -3.546472e+001  -6.626666e+001 
3025000000  -3.407145e+001  -6.995341e+001 
3028125000  -3.316927e+001  -7.641605e+001 
3031250000  -3.226223e+001  -8.822036e+001 
3034375000  -3.178369e+001  -1.014165e+002 
3037500000  -3.221610e+001  -1.137484e+002 
3040625000  -3.365145e+001  -1.184292e+002 
3043750000  -3.418665e+001  -1.235414e+002 
3046875000  -3.436242e+001  -1.299977e+002 
3050000000  -3.615691e+001  -1.353734e+002 
3053125000  -3.612235e+001  -1.299610e+002 
3056250000  -3.557211e+001  -1.263077e+002 
3059375000  -3.578502e+001  -1.276540e+002 
3062500000  -3.421941e+001  -1.312465e+002 
3065625000  -3.379385e+001  -1.368428e+002 
3068750000  -3.353204e+001  -1.438327e+002 
3071875000  -3.353791e+001  -1.462125e+002 
3075000000  -3.322630e+001  -1.504028e+002 
3078125000  -3.305318e+001  -1.543993e+002 
3081250000  -3.350648e+001  -1.588111e+002 
3084375000  -3.266534e+001  -1.618649e+002 
3087500000  -3.246116e+001  -1.662423e+002 
3090625000  -3.194609e+001  -1.761383e+002 
3093750000  -3.248514e+001  1.763441e+002 
3096875000  -3.350889e+001  1.704668e+002 
3100000000  -3.336384e+001  1.682979e+002 
3103125000  -3.364759e+001  1.690432e+002 
3106250000  -3.318021e+001  1.651590e+002 
3109375000  -3.323629e+001  1.608449e+002 
3112500000  -3.319686e+001  1.585739e+002 
3115625000  -3.287801e+001  1.540533e+002 
3118750000  -3.318901e+001  1.538103e+002 
3121875000  -3.235040e+001  1.444235e+002 
3125000000  -3.356828e+001  1.405564e+002 
3128125000  -3.445809e+001  1.476999e+002 
3131250000  -3.206133e+001  1.453019e+002 
3134375000  -3.082297e+001  1.300774e+002 
3137500000  -3.125024e+001  1.163744e+002 
3140625000  -3.281638e+001  1.135850e+002 
3143750000  -3.384524e+001  1.150614e+002 
3146875000  -3.340898e+001  1.159767e+002 
3150000000  -3.225910e+001  1.164235e+002 
3153125000  -3.234288e+001  1.072219e+002 
3156250000  -3.335982e+001  1.120406e+002 
3159375000  -3.164891e+001  1.128541e+002 
3162500000  -2.962958e+001  9.858333e+001 
3165625000  -3.076557e+001  8.604445e+001 
3168750000  -3.102054e+001  8.668562e+001 
3171875000  -3.015785e+001  8.097520e+001 
3175000000  -3.092797e+001  7.163718e+001 
3178125000  -3.064319e+001  7.268684e+001 
3181250000  -2.960818e+001  6.709738e+001 
3184375000  -2.895395e+001  5.453424e+001 
3187500000  -3.013798e+001  3.940793e+001 
3190625000  -3.282744e+001  3.148388e+001 
3193750000  -3.327250e+001  3.986065e+001 
3196875000  -3.299738e+001  4.474275e+001 
3200000000  -3.204654e+001  4.187054e+001 
3203125000  -3.125033e+001  3.501648e+001 
3206250000  -3.154796e+001  2.862796e+001 
3209375000  -3.113404e+001  2.236297e+001 
3212500000  -3.131802e+001  1.536231e+001 
3215625000  -3.137710e+001  1.219490e+001 
3218750000  -3.219170e+001  4.401515e+000 
3221875000  -3.287893e+001  -8.258644e-001 
3225000000  -3.255452e+001  -2.314878e+000 
3228125000  -3.302724e+001  -7.650008e+000 
3231250000  -3.369946e+001  -9.866700e+000 
3234375000  -3.332792e+001  -8.927391e+000 
3237500000  -3.339035e+001  -1.191917e+001 
3240625000  -3.290057e+001  -1.453851e+001 
3243750000  -3.256666e+001  -2.254528e+001 
3246875000  -3.306094e+001  -2.885883e+001 
3250000000  -3.341825e+001  -3.168542e+001 
3253125000  -3.348266e+001  -3.347218e+001 
3256250000  -3.307597e+001  -3.989632e+001 
3259375000  -3.345525e+001  -4.886887e+001 
3262500000  -3.468832e+001  -5.314873e+001 
3265625000  -3.520879e+001  -4.951299e+001 
3268750000  -3.511166e+001  -4.765174e+001 
3271875000  -3.474939e+001  -4.808298e+001 
3275000000  -3.373397e+001  -5.513089e+001 
3278125000  -3.420528e+001  -6.095969e+001 
3281250000  -3.437702e+001  -6.017818e+001 
3284375000  -3.379971e+001  -6.772249e+001 
3287500000  -3.408382e+001  -7.068285e+001 
3290625000  -3.437310e+001  -7.700318e+001 
3293750000  -3.403815e+001  -8.260661e+001 
3296875000  -3.512176e+001  -8.308340e+001 
3300000000  -3.475797e+001  -8.261001e+001 
3303125000  -3.362053e+001  -8.876201e+001 
3306250000  -3.343192e+001  -9.520838e+001 
3309375000  -3.319234e+001  -1.017978e+002 
3312500000  -3.330568e+001  -1.126601e+002 
3315625000  -3.429433e+001  -1.206599e+002 
3318750000  -3.588288e+001  -1.239454e+002 
3321875000  -3.696458e+001  -1.235583e+002 
3325000000  -3.727366e+001  -1.177689e+002 
3328125000  -3.684958e+001  -1.173274e+002 
3331250000  -3.552149e+001  -1.111580e+002 
3334375000  -3.289350e+001  -1.226386e+002 
3337500000  -3.307043e+001  -1.407209e+002 
3340625000  -3.461126e+001  -1.520726e+002 
3343750000  -3.663697e+001  -1.526935e+002 
3346875000  -3.656658e+001  -1.513188e+002 
3350000000  -3.586482e+001  -1.536853e+002 
3353125000  -3.600078e+001  -1.578970e+002 
3356250000  -3.553591e+001  -1.665317e+002 
3359375000  -3.641656e+001  -1.746059e+002 
3362500000  -3.763568e+001  1.799113e+002 
3365625000  -3.793443e+001  1.782075e+002 
3368750000  -3.863707e+001  1.761799e+002 
3371875000  -3.902399e+001  1.729554e+002 
3375000000  -4.039414e+001  1.706173e+002 
3378125000  -4.122837e+001  1.698347e+002 
3381250000  -4.245734e+001  1.787306e+002 
3384375000  -4.106993e+001  -1.605610e+002 
3387500000  -3.756062e+001  -1.766312e+002 
3390625000  -3.924945e+001  1.641615e+002 
3393750000  -4.037407e+001  1.671958e+002 
3396875000  -3.925004e+001  1.696298e+002 
3400000000  -3.855824e+001  1.614328e+002 
3403125000  -3.903928e+001  1.559381e+002 
3406250000  -3.953164e+001  1.553219e+002 
3409375000  -3.979073e+001  1.482250e+002 
3412500000  -4.023420e+001  1.459040e+002 
3415625000  -4.105941e+001  1.459606e+002 
3418750000  -4.099833e+001  1.466626e+002 
3421875000  -4.112315e+001  1.504960e+002 
3425000000  -4.023772e+001  1.493177e+002 
3428125000  -3.937326e+001  1.462119e+002 
3431250000  -3.924438e+001  1.410564e+002 
3434375000  -3.902589e+001  1.330847e+002 
3437500000  -3.966017e+001  1.304908e+002 
3440625000  -4.016187e+001  1.307907e+002 
3443750000  -3.888290e+001  1.329803e+002 
3446875000  -3.793535e+001  1.237296e+002 
3450000000  -3.763044e+001  1.129446e+002 
3453125000  -3.806374e+001  1.043376e+002 
3456250000  -3.906859e+001  9.820911e+001 
3459375000  -4.020281e+001  9.929913e+001 
3462500000  -3.979034e+001  9.856425e+001 
3465625000  -3.967133e+001  9.260635e+001 
3468750000  -4.029524e+001  8.929866e+001 
3471875000  -3.998323e+001  8.803062e+001 
3475000000  -3.962187e+001  8.295248e+001 
3478125000  -4.030033e+001  7.348682e+001 
3481250000  -4.111692e+001  7.229905e+001 
3484375000  -4.213357e+001  7.691837e+001 
3487500000  -4.138066e+001  7.582713e+001 
3490625000  -4.059253e+001  7.080133e+001 
3493750000  -4.156078e+001  6.370162e+001 
3496875000  -4.188811e+001  6.171749e+001 
3500000000  -4.262845e+001  6.640932e+001 
3503125000  -4.178171e+001  6.857832e+001 
3506250000  -4.069672e+001  6.185243e+001 
3509375000  -4.051250e+001  5.317745e+001 
3512500000  -4.118660e+001  4.306904e+001 
3515625000  -4.216792e+001  4.366364e+001 
3518750000  -4.243934e+001  4.416591e+001 
3521875000  -4.230709e+001  4.004554e+001 
3525000000  -4.363837e+001  3.866352e+001 
3528125000  -4.325172e+001  4.499448e+001 
3531250000  -4.200633e+001  4.155415e+001 
3534375000  -4.204074e+001  3.144662e+001 
3537500000  -4.242078e+001  2.685668e+001 
3540625000  -4.359618e+001  2.635239e+001 
3543750000  -4.382098e+001  3.086712e+001 
3546875000  -4.396909e+001  4.278471e+001 
3550000000  -4.105498e+001  4.350694e+001 
3553125000  -4.020070e+001  2.426856e+001 
3556250000  -4.172286e+001  1.837536e+001 
3559375000  -4.133615e+001  1.983501e+001 
3562500000  -4.033561e+001  1.061518e+001 
3565625000  -4.122857e+001  2.358749e+000 
3568750000  -4.141048e+001  6.716385e+000 
3571875000  -4.106925e+001  3.905226e+000 
3575000000  -4.057604e+001  -3.130168e+000 
3578125000  -4.103598e+001  -9.306758e+000 
3581250000  -4.133615e+001  -9.886626e+000 
3584375000  -4.047227e+001  -1.289227e+001 
3587500000  -4.004387e+001  -2.085686e+001 
3590625000  -4.068658e+001  -3.243687e+001 
3593750000  -4.180271e+001  -3.451918e+001 
3596875000  -4.153825e+001  -2.630666e+001 
3600000000  -4.008474e+001  -3.403852e+001 
3603125000  -4.074820e+001  -4.748639e+001 
3606250000  -4.163585e+001  -5.071600e+001 
3609375000  -4.207146e+001  -5.311982e+001 
3612500000  -4.287490e+001  -5.801243e+001 
3615625000  -4.321110e+001  -6.167036e+001 
3618750000  -4.371086e+001  -6.053423e+001 
3621875000  -4.382857e+001  -6.422851e+001 
3625000000  -4.423093e+001  -6.373136e+001 
3628125000  -4.457299e+001  -6.518105e+001 
3631250000  -4.473532e+001  -7.341841e+001 
3634375000  -4.550091e+001  -7.116837e+001 
3637500000  -4.548888e+001  -6.532672e+001 
3640625000  -4.487078e+001  -6.373878e+001 
3643750000  -4.443870e+001  -7.002436e+001 
3646875000  -4.534501e+001  -7.572981e+001 
3650000000  -4.571086e+001  -7.204565e+001 
3653125000  -4.561155e+001  -7.555825e+001 
3656250000  -4.589314e+001  -7.833637e+001 
3659375000  -4.596360e+001  -7.299415e+001 
3662500000  -4.504066e+001  -7.444581e+001 
3665625000  -4.484267e+001  -7.569129e+001 
3668750000  -4.403812e+001  -7.422556e+001 
3671875000  -4.271528e+001  -8.302398e+001 
3675000000  -4.308635e+001  -8.937312e+001 
3678125000  -4.318640e+001  -8.972005e+001 
3681250000  -4.305282e+001  -9.172035e+001 
3684375000  -4.292875e+001  -9.593851e+001 
3687500000  -4.310508e+001  -1.014254e+002 
3690625000  -4.292186e+001  -1.039154e+002 
3693750000  -4.419879e+001  -1.042013e+002 
3696875000  -4.328064e+001  -1.040238e+002 
3700000000  -4.260244e+001  -1.103333e+002 
3703125000  -4.312920e+001  -1.161593e+002 
3706250000  -4.377055e+001  -1.167823e+002 
3709375000  -4.331055e+001  -1.142790e+002 
3712500000  -4.223053e+001  -1.157539e+002 
3715625000  -4.148026e+001  -1.251964e+002 
3718750000  -4.103790e+001  -1.300967e+002 
3721875000  -4.130063e+001  -1.370492e+002 
3725000000  -4.163744e+001  -1.433742e+002 
3728125000  -4.178231e+001  -1.434542e+002 
3731250000  -4.158300e+001  -1.460684e+002 
3734375000  -4.125621e+001  -1.528663e+002 
3737500000  -4.226563e+001  -1.587782e+002 
3740625000  -4.319386e+001  -1.633257e+002 
3743750000  -4.320660e+001  -1.671820e+002 
3746875000  -4.344823e+001  -1.663174e+002 
3750000000  -4.420752e+001  -1.696338e+002 
3753125000  -4.491288e+001  -1.708403e+002 
3756250000  -4.488568e+001  -1.677855e+002 
3759375000  -4.469493e+001  -1.682948e+002 
3762500000  -4.453909e+001  -1.718433e+002 
3765625000  -4.487624e+001  -1.714759e+002 
3768750000  -4.451314e+001  -1.656949e+002 
3771875000  -4.364531e+001  -1.665348e+002 
3775000000  -4.284049e+001  -1.753216e+002 
3778125000  -4.374216e+001  -1.748552e+002 
3781250000  -4.289619e+001  -1.798543e+002 
3784375000  -4.308587e+001  -1.792825e+002 
3787500000  -4.186942e+001  1.771878e+002 
3790625000  -4.268120e+001  1.730265e+002 
3793750000  -4.222378e+001  1.732295e+002 
3796875000  -4.122182e+001  1.700411e+002 
3800000000  -3.963030e+001  1.671820e+002 
3803125000  -4.026844e+001  1.571541e+002 
3806250000  -4.094717e+001  1.536455e+002 
3809375000  -4.047529e+001  1.519831e+002 
3812500000  -3.994730e+001  1.450062e+002 
3815625000  -4.031898e+001  1.364320e+002 
3818750000  -4.123658e+001  1.346246e+002 
3821875000  -4.116080e+001  1.417313e+002 
3825000000  -3.947928e+001  1.445358e+002 
3828125000  -3.790586e+001  1.300734e+002 
3831250000  -3.863453e+001  1.145909e+002 
3834375000  -4.011429e+001  1.135266e+002 
3837500000  -4.118475e+001  1.165422e+002 
3840625000  -3.993767e+001  1.152931e+002 
3843750000  -3.888988e+001  1.023646e+002 
3846875000  -3.974857e+001  9.438750e+001 
3850000000  -4.094223e+001  1.017029e+002 
3853125000  -4.033308e+001  1.037074e+002 
3856250000  -4.019514e+001  9.688545e+001 
3859375000  -3.944412e+001  9.043171e+001 
3862500000  -3.946681e+001  8.188150e+001 
3865625000  -3.992247e+001  7.873448e+001 
3868750000  -3.972439e+001  7.814071e+001 
3871875000  -3.931241e+001  7.283152e+001 
3875000000  -3.954358e+001  6.348953e+001 
3878125000  -4.075281e+001  6.070387e+001 
3881250000  -4.087009e+001  6.472519e+001 
3884375000  -4.032185e+001  5.962425e+001 
3887500000  -4.055697e+001  5.665586e+001 
3890625000  -4.104297e+001  5.290508e+001 
3893750000  -4.140965e+001  4.863369e+001 
3896875000  -4.155286e+001  5.362925e+001 
3900000000  -4.165707e+001  5.305050e+001 
3903125000  -4.126144e+001  4.880259e+001 
3906250000  -4.071183e+001  4.803720e+001 
3909375000  -4.013209e+001  4.423308e+001 
3912500000  -4.022535e+001  3.612660e+001 
3915625000  -4.143977e+001  3.653044e+001 
3918750000  -4.114057e+001  3.659905e+001 
3921875000  -4.056852e+001  3.339376e+001 
3925000000  -3.975327e+001  3.088580e+001 
3928125000  -3.906847e+001  2.585139e+001 
3931250000  -3.964662e+001  2.046449e+001 
3934375000  -3.962267e+001  1.939474e+001 
3937500000  -4.006303e+001  1.707343e+001 
3940625000  -4.035904e+001  1.345937e+001 
3943750000  -3.918255e+001  1.654449e+001 
3946875000  -3.805465e+001  8.369734e+000 
3950000000  -3.893055e+001  1.741490e+000 
3953125000  -3.988805e+001  -2.620402e+000 
3956250000  -3.853098e+001  1.283514e+000 
3959375000  -3.764242e+001  -8.084315e-001 
3962500000  -3.721506e+001  -7.670664e+000 
3965625000  -3.698698e+001  -1.937057e+001 
3968750000  -3.802441e+001  -2.668656e+001 
3971875000  -3.830266e+001  -2.919113e+001 
3975000000  -3.752044e+001  -3.077056e+001 
3978125000  -3.767327e+001  -3.458670e+001 
3981250000  -3.777447e+001  -4.076098e+001 
3984375000  -3.784954e+001  -4.616561e+001 
3987500000  -3.840594e+001  -4.897302e+001 
3990625000  -3.855645e+001  -5.008418e+001 
3993750000  -3.881598e+001  -5.429260e+001 
3996875000  -3.885910e+001  -5.932276e+001 
4000000000  -3.918963e+001  -5.936417e+001 
4003125000  -3.967546e+001  -5.876439e+001 
4006250000  -3.846812e+001  -5.826282e+001 
4009375000  -3.732224e+001  -7.239302e+001 
4012500000  -3.871301e+001  -7.974866e+001 
4015625000  -4.001150e+001  -7.795813e+001 
4018750000  -4.028415e+001  -7.670990e+001 
4021875000  -3.927855e+001  -7.788448e+001 
4025000000  -3.909901e+001  -8.367099e+001 
4028125000  -3.927661e+001  -8.814585e+001 
4031250000  -3.946229e+001  -9.165960e+001 
4034375000  -3.987162e+001  -9.171999e+001 
4037500000  -3.928312e+001  -9.098238e+001 
4040625000  -3.929147e+001  -9.525375e+001 
4043750000  -3.948345e+001  -9.674937e+001 
4046875000  -3.912982e+001  -9.621222e+001 
4050000000  -3.849865e+001  -1.017723e+002 
4053125000  -3.923225e+001  -1.040962e+002 
4056250000  -3.946109e+001  -1.012691e+002 
4059375000  -3.801606e+001  -9.973878e+001 
4062500000  -3.679407e+001  -1.055890e+002 
4065625000  -3.657542e+001  -1.102647e+002 
4068750000  -3.632932e+001  -1.176338e+002 
4071875000  -3.560807e+001  -1.259511e+002 
4075000000  -3.604906e+001  -1.325181e+002 
4078125000  -3.651619e+001  -1.346913e+002 
4081250000  -3.600946e+001  -1.390111e+002 
4084375000  -3.563589e+001  -1.469258e+002 
4087500000  -3.600918e+001  -1.535892e+002 
4090625000  -3.664999e+001  -1.550570e+002 
4093750000  -3.615112e+001  -1.554635e+002 
4096875000  -3.588275e+001  -1.637969e+002 
4100000000  -3.686890e+001  -1.704129e+002 
4103125000  -3.760020e+001  -1.703402e+002 
4106250000  -3.750542e+001  -1.662197e+002 
4109375000  -3.647803e+001  -1.688697e+002 
4112500000  -3.595994e+001  -1.767813e+002 
4115625000  -3.643088e+001  1.777457e+002 
4118750000  -3.655596e+001  1.726828e+002 
4121875000  -3.624100e+001  1.678389e+002 
4125000000  -3.679309e+001  1.617404e+002 
4128125000  -3.769798e+001  1.623848e+002 
4131250000  -3.762226e+001  1.688033e+002 
4134375000  -3.524405e+001  1.613888e+002 
4137500000  -3.526910e+001  1.434653e+002 
4140625000  -3.752380e+001  1.356256e+002 
4143750000  -3.893957e+001  1.405039e+002 
4146875000  -3.857276e+001  1.450162e+002 
4150000000  -3.760727e+001  1.431948e+002 
4153125000  -3.748757e+001  1.353706e+002 
4156250000  -3.848667e+001  1.315824e+002 
4159375000  -3.886085e+001  1.375012e+002 
4162500000  -3.784174e+001  1.417854e+002 
4165625000  -3.672567e+001  1.377789e+002 
4168750000  -3.604217e+001  1.290695e+002 
4171875000  -3.621449e+001  1.186120e+002 
4175000000  -3.673378e+001  1.144740e+002 
4178125000  -3.726913e+001  1.137405e+002 
4181250000  -3.708429e+001  1.127283e+002 
4184375000  -3.710252e+001  1.083878e+002 
4187500000  -3.680180e+001  1.074428e+002 
4190625000  -3.683924e+001  1.002983e+002 
4193750000  -3.755093e+001  9.512305e+001 
4196875000  -3.841838e+001  9.554765e+001 
4200000000  -3.925591e+001  9.831122e+001 
4203125000  -3.901407e+001  1.112087e+002 
4206250000  -3.529007e+001  1.108411e+002 
4209375000  -3.418356e+001  8.912984e+001 
4212500000  -3.627886e+001  8.000552e+001 
4215625000  -3.723481e+001  8.760580e+001 
4218750000  -3.543343e+001  9.160902e+001 
4221875000  -3.343661e+001  8.051109e+001 
4225000000  -3.456210e+001  6.665467e+001 
4228125000  -3.533687e+001  7.086340e+001 
4231250000  -3.342324e+001  6.713864e+001 
4234375000  -3.342114e+001  5.581726e+001 
4237500000  -3.282000e+001  5.213543e+001 
4240625000  -3.296075e+001  4.139003e+001 
4243750000  -3.402230e+001  3.378036e+001 
4246875000  -3.476926e+001  3.304630e+001 
4250000000  -3.495393e+001  3.554776e+001 
4253125000  -3.447126e+001  3.089813e+001 
4256250000  -3.464268e+001  2.597606e+001 
4259375000  -3.431816e+001  2.196081e+001 
4262500000  -3.474660e+001  1.817443e+001 
4265625000  -3.485521e+001  1.704160e+001 
4268750000  -3.388012e+001  1.102678e+001 
4271875000  -3.365724e+001  3.161345e+000 
4275000000  -3.339257e+001  -3.845052e+000 
4278125000  -3.436372e+001  -1.633513e+001 
4281250000  -3.611728e+001  -1.702316e+001 
4284375000  -3.595744e+001  -1.696272e+001 
4287500000  -3.704511e+001  -2.135381e+001 
4290625000  -3.821520e+001  -1.296890e+001 
4293750000  -3.618486e+001  -8.898995e+000 
4296875000  -3.503724e+001  -1.961462e+001 
4300000000  -3.608250e+001  -2.774962e+001 
4303125000  -3.723992e+001  -2.676465e+001 
4306250000  -3.668876e+001  -2.093129e+001 
4309375000  -3.543393e+001  -2.222309e+001 
4312500000  -3.531356e+001  -3.151679e+001 
4315625000  -3.536244e+001  -3.684837e+001 
4318750000  -3.590536e+001  -3.964220e+001 
4321875000  -3.588815e+001  -3.878841e+001 
4325000000  -3.522696e+001  -3.783295e+001 
4328125000  -3.464507e+001  -4.490069e+001 
4331250000  -3.444675e+001  -5.280613e+001 
4334375000  -3.482214e+001  -5.871482e+001 
4337500000  -3.564170e+001  -6.071411e+001 
4340625000  -3.597034e+001  -5.903753e+001 
4343750000  -3.506897e+001  -5.833064e+001 
4346875000  -3.467230e+001  -6.523825e+001 
4350000000  -3.465822e+001  -7.058650e+001 
4353125000  -3.453981e+001  -7.935445e+001 
4356250000  -3.651094e+001  -8.000622e+001 
4359375000  -3.649824e+001  -6.564749e+001 
4362500000  -3.368456e+001  -6.583595e+001 
4365625000  -3.198464e+001  -8.218020e+001 
4368750000  -3.286514e+001  -9.339145e+001 
4371875000  -3.387948e+001  -9.336560e+001 
4375000000  -3.355766e+001  -9.598861e+001 
4378125000  -3.273851e+001  -1.020874e+002 
4381250000  -3.284755e+001  -1.094610e+002 
4384375000  -3.274350e+001  -1.157437e+002 
4387500000  -3.348819e+001  -1.229844e+002 
4390625000  -3.438852e+001  -1.231986e+002 
4393750000  -3.370981e+001  -1.222412e+002 
4396875000  -3.316880e+001  -1.260025e+002 
4400000000  -3.272323e+001  -1.357421e+002 
4403125000  -3.359332e+001  -1.436940e+002 
4406250000  -3.418741e+001  -1.464275e+002 
4409375000  -3.437815e+001  -1.510804e+002 
4412500000  -3.565693e+001  -1.532146e+002 
4415625000  -3.606234e+001  -1.505262e+002 
