!Agilent Technologies,E8363B,MY43030201,A.06.04.32
!Agilent E8363B: A.06.04.32
!Date: Tuesday, November 11, 2014 21:12:50
!Correction: S21(Response(S21)) 
!S1P File: Measurement: S21:
# Hz S  dB   R 50
3000000000  -3.641674e+001  -5.952134e+001 
3003125000  -3.768476e+001  -6.644678e+001 
3006250000  -3.749147e+001  -6.786215e+001 
3009375000  -3.776945e+001  -6.283717e+001 
3012500000  -3.698967e+001  -6.615041e+001 
3015625000  -3.620034e+001  -7.231268e+001 
3018750000  -3.697034e+001  -7.276424e+001 
3021875000  -3.543605e+001  -7.312228e+001 
3025000000  -3.414775e+001  -7.722153e+001 
3028125000  -3.323322e+001  -8.297561e+001 
3031250000  -3.218905e+001  -9.483490e+001 
3034375000  -3.182654e+001  -1.087348e+002 
3037500000  -3.236279e+001  -1.202516e+002 
3040625000  -3.371342e+001  -1.249526e+002 
3043750000  -3.428811e+001  -1.303547e+002 
3046875000  -3.463459e+001  -1.361557e+002 
3050000000  -3.624539e+001  -1.415520e+002 
3053125000  -3.602214e+001  -1.357726e+002 
3056250000  -3.570442e+001  -1.326566e+002 
3059375000  -3.574996e+001  -1.336142e+002 
3062500000  -3.409778e+001  -1.368785e+002 
3065625000  -3.402881e+001  -1.427059e+002 
3068750000  -3.355281e+001  -1.496764e+002 
3071875000  -3.359525e+001  -1.523149e+002 
3075000000  -3.325425e+001  -1.563508e+002 
3078125000  -3.307795e+001  -1.602009e+002 
3081250000  -3.357697e+001  -1.647549e+002 
3084375000  -3.264102e+001  -1.683098e+002 
3087500000  -3.255191e+001  -1.726720e+002 
3090625000  -3.199702e+001  1.772783e+002 
3093750000  -3.256619e+001  1.696720e+002 
3096875000  -3.346660e+001  1.640903e+002 
3100000000  -3.329266e+001  1.626006e+002 
3103125000  -3.364014e+001  1.628811e+002 
3106250000  -3.314959e+001  1.588233e+002 
3109375000  -3.321077e+001  1.547058e+002 
3112500000  -3.318614e+001  1.520510e+002 
3115625000  -3.281029e+001  1.478258e+002 
3118750000  -3.320509e+001  1.473335e+002 
3121875000  -3.225588e+001  1.379842e+002 
3125000000  -3.358989e+001  1.340623e+002 
3128125000  -3.445461e+001  1.414835e+002 
3131250000  -3.196302e+001  1.394556e+002 
3134375000  -3.079952e+001  1.235930e+002 
3137500000  -3.134103e+001  1.095529e+002 
3140625000  -3.277635e+001  1.073232e+002 
3143750000  -3.375758e+001  1.084434e+002 
3146875000  -3.327660e+001  1.097615e+002 
3150000000  -3.232447e+001  1.091042e+002 
3153125000  -3.244145e+001  1.008939e+002 
3156250000  -3.334283e+001  1.052715e+002 
3159375000  -3.157947e+001  1.066193e+002 
3162500000  -2.969990e+001  9.143848e+001 
3165625000  -3.076933e+001  7.921211e+001 
3168750000  -3.103477e+001  7.939655e+001 
3171875000  -3.021302e+001  7.388280e+001 
3175000000  -3.091771e+001  6.534118e+001 
3178125000  -3.065007e+001  6.599523e+001 
3181250000  -2.961941e+001  6.019199e+001 
3184375000  -2.902834e+001  4.743930e+001 
3187500000  -3.017649e+001  3.236525e+001 
3190625000  -3.280000e+001  2.485804e+001 
3193750000  -3.327247e+001  3.401704e+001 
3196875000  -3.306745e+001  3.783003e+001 
3200000000  -3.209088e+001  3.512640e+001 
3203125000  -3.136061e+001  2.820974e+001 
3206250000  -3.165548e+001  2.183806e+001 
3209375000  -3.118962e+001  1.607294e+001 
3212500000  -3.143311e+001  9.162704e+000 
3215625000  -3.143542e+001  6.147786e+000 
3218750000  -3.220107e+001  -1.975528e+000 
3221875000  -3.309590e+001  -7.202995e+000 
3225000000  -3.259704e+001  -8.215365e+000 
3228125000  -3.306640e+001  -1.404244e+001 
3231250000  -3.376509e+001  -1.656747e+001 
3234375000  -3.335628e+001  -1.606626e+001 
3237500000  -3.345578e+001  -1.804590e+001 
3240625000  -3.293119e+001  -2.053243e+001 
3243750000  -3.261652e+001  -2.838736e+001 
3246875000  -3.302980e+001  -3.522626e+001 
3250000000  -3.341827e+001  -3.764682e+001 
3253125000  -3.351690e+001  -3.953548e+001 
3256250000  -3.305420e+001  -4.621866e+001 
3259375000  -3.343758e+001  -5.536633e+001 
3262500000  -3.458174e+001  -5.874895e+001 
3265625000  -3.519478e+001  -5.584812e+001 
3268750000  -3.508145e+001  -5.396714e+001 
3271875000  -3.459146e+001  -5.447781e+001 
3275000000  -3.369759e+001  -6.148469e+001 
3278125000  -3.418159e+001  -6.785007e+001 
3281250000  -3.428267e+001  -6.708150e+001 
3284375000  -3.379449e+001  -7.385514e+001 
3287500000  -3.400993e+001  -7.715819e+001 
3290625000  -3.421957e+001  -8.328146e+001 
3293750000  -3.400411e+001  -8.973526e+001 
3296875000  -3.523322e+001  -9.062840e+001 
3300000000  -3.483891e+001  -8.988652e+001 
3303125000  -3.358974e+001  -9.541546e+001 
3306250000  -3.349885e+001  -1.023706e+002 
3309375000  -3.310854e+001  -1.083505e+002 
3312500000  -3.330931e+001  -1.196741e+002 
3315625000  -3.429639e+001  -1.274635e+002 
3318750000  -3.586919e+001  -1.315171e+002 
3321875000  -3.703262e+001  -1.300999e+002 
3325000000  -3.716686e+001  -1.236608e+002 
3328125000  -3.683297e+001  -1.239599e+002 
3331250000  -3.560104e+001  -1.175117e+002 
3334375000  -3.282666e+001  -1.286111e+002 
3337500000  -3.301578e+001  -1.485403e+002 
3340625000  -3.434803e+001  -1.591192e+002 
3343750000  -3.650462e+001  -1.600062e+002 
3346875000  -3.673960e+001  -1.584215e+002 
3350000000  -3.598021e+001  -1.608278e+002 
3353125000  -3.604659e+001  -1.663124e+002 
3356250000  -3.558484e+001  -1.729245e+002 
3359375000  -3.635501e+001  1.775872e+002 
3362500000  -3.745721e+001  1.723439e+002 
3365625000  -3.800018e+001  1.718813e+002 
3368750000  -3.878450e+001  1.685215e+002 
3371875000  -3.915014e+001  1.666630e+002 
3375000000  -4.050035e+001  1.632554e+002 
3378125000  -4.138060e+001  1.645109e+002 
3381250000  -4.255609e+001  1.723601e+002 
3384375000  -4.084805e+001  -1.662892e+002 
3387500000  -3.734077e+001  1.771608e+002 
3390625000  -3.944384e+001  1.596253e+002 
3393750000  -4.038313e+001  1.617667e+002 
3396875000  -3.913420e+001  1.628033e+002 
3400000000  -3.863876e+001  1.542829e+002 
3403125000  -3.926671e+001  1.486192e+002 
3406250000  -3.977863e+001  1.497922e+002 
3409375000  -3.968263e+001  1.411488e+002 
3412500000  -4.020871e+001  1.396231e+002 
3415625000  -4.099694e+001  1.397105e+002 
3418750000  -4.104831e+001  1.400853e+002 
3421875000  -4.130191e+001  1.446273e+002 
3425000000  -4.015891e+001  1.433129e+002 
3428125000  -3.922620e+001  1.397733e+002 
3431250000  -3.923303e+001  1.321390e+002 
3434375000  -3.897124e+001  1.274181e+002 
3437500000  -3.978413e+001  1.237456e+002 
3440625000  -3.986517e+001  1.259144e+002 
3443750000  -3.873392e+001  1.254118e+002 
3446875000  -3.788271e+001  1.168935e+002 
3450000000  -3.759924e+001  1.074008e+002 
3453125000  -3.797364e+001  9.583843e+001 
3456250000  -3.918701e+001  8.937314e+001 
3459375000  -4.008168e+001  9.185635e+001 
3462500000  -3.991589e+001  9.141264e+001 
3465625000  -3.987915e+001  8.621239e+001 
3468750000  -4.017355e+001  8.201035e+001 
3471875000  -4.006223e+001  8.011031e+001 
3475000000  -3.968962e+001  7.637000e+001 
3478125000  -4.028626e+001  6.876018e+001 
3481250000  -4.154033e+001  6.632511e+001 
3484375000  -4.235125e+001  7.121346e+001 
3487500000  -4.158092e+001  6.900153e+001 
3490625000  -4.118095e+001  6.447314e+001 
3493750000  -4.165142e+001  5.619125e+001 
3496875000  -4.191766e+001  5.721097e+001 
3500000000  -4.263645e+001  6.128251e+001 
3503125000  -4.204652e+001  6.350524e+001 
3506250000  -4.046168e+001  5.696622e+001 
3509375000  -4.067772e+001  4.777464e+001 
3512500000  -4.095612e+001  3.986533e+001 
3515625000  -4.222042e+001  3.695330e+001 
3518750000  -4.251417e+001  3.892286e+001 
3521875000  -4.241746e+001  3.465836e+001 
3525000000  -4.328524e+001  3.186306e+001 
3528125000  -4.332206e+001  4.189862e+001 
3531250000  -4.185532e+001  3.901241e+001 
3534375000  -4.159029e+001  2.774112e+001 
3537500000  -4.225063e+001  2.293067e+001 
3540625000  -4.311820e+001  2.012256e+001 
3543750000  -4.407841e+001  2.570363e+001 
3546875000  -4.353587e+001  3.622253e+001 
3550000000  -4.091453e+001  3.605556e+001 
3553125000  -3.974571e+001  1.945960e+001 
3556250000  -4.131322e+001  1.345583e+001 
3559375000  -4.101837e+001  1.231394e+001 
3562500000  -4.019425e+001  4.165464e+000 
3565625000  -4.089788e+001  -3.200896e+000 
3568750000  -4.129387e+001  -3.408931e+000 
3571875000  -4.069780e+001  -3.799173e+000 
3575000000  -4.047970e+001  -1.020389e+001 
3578125000  -4.106828e+001  -1.493274e+001 
3581250000  -4.118089e+001  -1.813601e+001 
3584375000  -4.034107e+001  -2.089714e+001 
3587500000  -3.983600e+001  -3.023141e+001 
3590625000  -4.056715e+001  -3.829148e+001 
3593750000  -4.194571e+001  -4.239045e+001 
3596875000  -4.170770e+001  -3.516768e+001 
3600000000  -4.006879e+001  -4.173436e+001 
3603125000  -4.084352e+001  -5.548976e+001 
3606250000  -4.165654e+001  -5.914570e+001 
3609375000  -4.240295e+001  -6.258746e+001 
3612500000  -4.298433e+001  -6.542932e+001 
3615625000  -4.307789e+001  -6.958991e+001 
3618750000  -4.400458e+001  -6.853021e+001 
3621875000  -4.376997e+001  -7.078185e+001 
3625000000  -4.458881e+001  -7.079864e+001 
3628125000  -4.468817e+001  -7.060714e+001 
3631250000  -4.446268e+001  -7.792488e+001 
3634375000  -4.614801e+001  -7.802791e+001 
3637500000  -4.572441e+001  -6.981726e+001 
3640625000  -4.511084e+001  -6.745281e+001 
3643750000  -4.410094e+001  -7.479352e+001 
3646875000  -4.497114e+001  -7.918430e+001 
3650000000  -4.564951e+001  -8.031686e+001 
3653125000  -4.499507e+001  -7.957668e+001 
3656250000  -4.560434e+001  -8.002000e+001 
3659375000  -4.572755e+001  -7.735338e+001 
3662500000  -4.465009e+001  -7.673970e+001 
3665625000  -4.415085e+001  -8.095517e+001 
3668750000  -4.331953e+001  -8.324559e+001 
3671875000  -4.214522e+001  -8.834251e+001 
3675000000  -4.241387e+001  -9.478925e+001 
3678125000  -4.282945e+001  -9.676988e+001 
3681250000  -4.228769e+001  -9.895086e+001 
3684375000  -4.249099e+001  -1.060026e+002 
3687500000  -4.256820e+001  -1.096509e+002 
3690625000  -4.271581e+001  -1.153161e+002 
3693750000  -4.344454e+001  -1.144545e+002 
3696875000  -4.334673e+001  -1.140373e+002 
3700000000  -4.249163e+001  -1.189247e+002 
3703125000  -4.267785e+001  -1.269317e+002 
3706250000  -4.340980e+001  -1.254055e+002 
3709375000  -4.326129e+001  -1.248195e+002 
3712500000  -4.203976e+001  -1.266960e+002 
3715625000  -4.111365e+001  -1.343512e+002 
3718750000  -4.110562e+001  -1.401701e+002 
3721875000  -4.097367e+001  -1.460540e+002 
3725000000  -4.138511e+001  -1.549116e+002 
3728125000  -4.202317e+001  -1.530671e+002 
3731250000  -4.155718e+001  -1.544406e+002 
3734375000  -4.148436e+001  -1.631104e+002 
3737500000  -4.217194e+001  -1.707773e+002 
3740625000  -4.325518e+001  -1.737833e+002 
3743750000  -4.376204e+001  -1.750554e+002 
3746875000  -4.373269e+001  -1.793457e+002 
3750000000  -4.449079e+001  -1.775289e+002 
3753125000  -4.454510e+001  -1.766797e+002 
3756250000  -4.471389e+001  -1.741925e+002 
3759375000  -4.484671e+001  -1.753358e+002 
3762500000  -4.455219e+001  -1.792825e+002 
3765625000  -4.506839e+001  -1.765737e+002 
3768750000  -4.474254e+001  -1.725740e+002 
3771875000  -4.312223e+001  -1.758162e+002 
3775000000  -4.301617e+001  1.790157e+002 
3778125000  -4.331622e+001  1.770605e+002 
3781250000  -4.298526e+001  1.762528e+002 
3784375000  -4.253121e+001  1.755898e+002 
3787500000  -4.155655e+001  1.717429e+002 
3790625000  -4.213464e+001  1.645901e+002 
3793750000  -4.224469e+001  1.643968e+002 
3796875000  -4.096956e+001  1.598572e+002 
3800000000  -3.934185e+001  1.596257e+002 
3803125000  -4.012420e+001  1.469613e+002 
3806250000  -4.059452e+001  1.455594e+002 
3809375000  -4.042089e+001  1.427338e+002 
3812500000  -3.961123e+001  1.370341e+002 
3815625000  -4.022669e+001  1.269592e+002 
3818750000  -4.131980e+001  1.278399e+002 
3821875000  -4.111179e+001  1.364301e+002 
3825000000  -3.934841e+001  1.361829e+002 
3828125000  -3.779197e+001  1.188817e+002 
3831250000  -3.854609e+001  1.050103e+002 
3834375000  -4.038021e+001  1.046037e+002 
3837500000  -4.128321e+001  1.099496e+002 
3840625000  -3.974535e+001  1.048184e+002 
3843750000  -3.887862e+001  9.201298e+001 
3846875000  -3.977177e+001  8.636706e+001 
3850000000  -4.103313e+001  8.884207e+001 
3853125000  -4.019691e+001  9.397047e+001 
3856250000  -4.002551e+001  8.646639e+001 
3859375000  -3.961136e+001  8.093867e+001 
3862500000  -3.930478e+001  7.299954e+001 
3865625000  -4.011436e+001  6.785198e+001 
3868750000  -3.990834e+001  6.719138e+001 
3871875000  -3.923626e+001  6.357021e+001 
3875000000  -3.959504e+001  5.450689e+001 
3878125000  -4.084791e+001  5.299594e+001 
3881250000  -4.076548e+001  5.595514e+001 
3884375000  -4.043877e+001  5.039077e+001 
3887500000  -4.056914e+001  4.720409e+001 
3890625000  -4.119451e+001  4.484661e+001 
3893750000  -4.162233e+001  4.169583e+001 
3896875000  -4.196133e+001  4.771434e+001 
3900000000  -4.183978e+001  4.310180e+001 
3903125000  -4.143429e+001  4.150498e+001 
3906250000  -4.087465e+001  3.906282e+001 
3909375000  -4.018050e+001  3.508788e+001 
3912500000  -4.044662e+001  2.764211e+001 
3915625000  -4.149541e+001  2.932933e+001 
3918750000  -4.121050e+001  3.152410e+001 
3921875000  -4.049432e+001  2.885534e+001 
3925000000  -3.963609e+001  2.451231e+001 
3928125000  -3.905606e+001  1.747733e+001 
3931250000  -3.946793e+001  1.215058e+001 
3934375000  -4.003180e+001  1.083756e+001 
3937500000  -4.008033e+001  9.878319e+000 
3940625000  -4.023299e+001  8.229756e+000 
3943750000  -3.897148e+001  6.967030e+000 
3946875000  -3.807910e+001  7.416537e-001 
3950000000  -3.865556e+001  -7.667472e+000 
3953125000  -3.968708e+001  -7.516589e+000 
3956250000  -3.862314e+001  -6.630382e+000 
3959375000  -3.774828e+001  -1.263023e+001 
3962500000  -3.697923e+001  -1.615835e+001 
3965625000  -3.683673e+001  -2.857959e+001 
3968750000  -3.798638e+001  -3.466995e+001 
3971875000  -3.816032e+001  -3.642241e+001 
3975000000  -3.778609e+001  -3.941149e+001 
3978125000  -3.763936e+001  -4.406458e+001 
3981250000  -3.761539e+001  -4.822394e+001 
3984375000  -3.785328e+001  -5.516344e+001 
3987500000  -3.852761e+001  -5.869907e+001 
3990625000  -3.877593e+001  -5.977514e+001 
3993750000  -3.888240e+001  -6.499357e+001 
3996875000  -3.877492e+001  -6.867690e+001 
4000000000  -3.926325e+001  -6.990204e+001 
4003125000  -4.011276e+001  -6.872308e+001 
4006250000  -3.877039e+001  -6.937435e+001 
4009375000  -3.753043e+001  -8.201505e+001 
4012500000  -3.893549e+001  -8.922039e+001 
4015625000  -4.030433e+001  -8.822205e+001 
4018750000  -4.037687e+001  -8.560024e+001 
4021875000  -3.974963e+001  -8.711806e+001 
4025000000  -3.953702e+001  -9.167696e+001 
4028125000  -3.918710e+001  -9.784467e+001 
4031250000  -3.988115e+001  -1.002956e+002 
4034375000  -3.987348e+001  -1.006334e+002 
4037500000  -3.963254e+001  -9.840117e+001 
4040625000  -3.968496e+001  -1.021463e+002 
4043750000  -3.986174e+001  -1.003766e+002 
4046875000  -3.919056e+001  -1.028623e+002 
4050000000  -3.855293e+001  -1.117307e+002 
4053125000  -3.955529e+001  -1.111864e+002 
4056250000  -3.965695e+001  -1.067020e+002 
4059375000  -3.800633e+001  -1.070310e+002 
4062500000  -3.676905e+001  -1.141097e+002 
4065625000  -3.661859e+001  -1.186041e+002 
4068750000  -3.625786e+001  -1.238995e+002 
4071875000  -3.547127e+001  -1.328879e+002 
4075000000  -3.597734e+001  -1.399449e+002 
4078125000  -3.645884e+001  -1.425502e+002 
4081250000  -3.580499e+001  -1.460047e+002 
4084375000  -3.531934e+001  -1.542236e+002 
4087500000  -3.589269e+001  -1.607306e+002 
4090625000  -3.644193e+001  -1.619988e+002 
4093750000  -3.635970e+001  -1.641537e+002 
4096875000  -3.587501e+001  -1.713963e+002 
4100000000  -3.677174e+001  -1.798219e+002 
4103125000  -3.774527e+001  -1.782426e+002 
4106250000  -3.738308e+001  -1.748597e+002 
4109375000  -3.638872e+001  -1.772268e+002 
4112500000  -3.603313e+001  1.747480e+002 
4115625000  -3.628831e+001  1.682629e+002 
4118750000  -3.650925e+001  1.646600e+002 
4121875000  -3.622222e+001  1.585428e+002 
4125000000  -3.662719e+001  1.532329e+002 
4128125000  -3.786828e+001  1.524552e+002 
4131250000  -3.743838e+001  1.599469e+002 
4134375000  -3.503790e+001  1.543119e+002 
4137500000  -3.535416e+001  1.332319e+002 
4140625000  -3.750707e+001  1.259796e+002 
4143750000  -3.890243e+001  1.313301e+002 
4146875000  -3.848972e+001  1.383022e+002 
4150000000  -3.771579e+001  1.316926e+002 
4153125000  -3.798440e+001  1.249589e+002 
4156250000  -3.871884e+001  1.252574e+002 
4159375000  -3.923704e+001  1.297550e+002 
4162500000  -3.816205e+001  1.336931e+002 
4165625000  -3.721558e+001  1.280525e+002 
4168750000  -3.648525e+001  1.207914e+002 
4171875000  -3.633706e+001  1.121299e+002 
4175000000  -3.712783e+001  1.061923e+002 
4178125000  -3.743795e+001  1.070229e+002 
4181250000  -3.703679e+001  1.063963e+002 
4184375000  -3.693048e+001  1.027310e+002 
4187500000  -3.709791e+001  9.850443e+001 
4190625000  -3.663586e+001  9.282176e+001 
4193750000  -3.779496e+001  8.904125e+001 
4196875000  -3.836777e+001  8.837341e+001 
4200000000  -3.935460e+001  9.193806e+001 
4203125000  -3.899889e+001  1.039030e+002 
4206250000  -3.517247e+001  1.038185e+002 
4209375000  -3.435725e+001  8.016781e+001 
4212500000  -3.635683e+001  7.261830e+001 
4215625000  -3.706335e+001  7.845151e+001 
4218750000  -3.546665e+001  8.304002e+001 
4221875000  -3.305773e+001  7.342831e+001 
4225000000  -3.433552e+001  5.950429e+001 
4228125000  -3.497777e+001  6.423983e+001 
4231250000  -3.312788e+001  5.798856e+001 
4234375000  -3.314637e+001  4.908728e+001 
4237500000  -3.283020e+001  4.358150e+001 
4240625000  -3.282973e+001  3.342755e+001 
4243750000  -3.383105e+001  2.539977e+001 
4246875000  -3.479682e+001  2.433270e+001 
4250000000  -3.467860e+001  2.619006e+001 
4253125000  -3.428772e+001  2.239622e+001 
4256250000  -3.449110e+001  1.725909e+001 
4259375000  -3.425724e+001  1.343092e+001 
4262500000  -3.445379e+001  7.524117e+000 
4265625000  -3.471698e+001  7.783559e+000 
4268750000  -3.381718e+001  1.666218e+000 
4271875000  -3.357947e+001  -5.908057e+000 
4275000000  -3.325109e+001  -1.300117e+001 
4278125000  -3.444128e+001  -2.565827e+001 
4281250000  -3.619983e+001  -2.718100e+001 
4284375000  -3.587272e+001  -2.768403e+001 
4287500000  -3.682190e+001  -3.220691e+001 
4290625000  -3.833578e+001  -2.116996e+001 
4293750000  -3.621996e+001  -1.742343e+001 
4296875000  -3.508496e+001  -2.867031e+001 
4300000000  -3.636929e+001  -3.742231e+001 
4303125000  -3.751550e+001  -3.370360e+001 
4306250000  -3.680018e+001  -2.960153e+001 
4309375000  -3.528640e+001  -3.205645e+001 
4312500000  -3.531119e+001  -3.924443e+001 
4315625000  -3.551720e+001  -4.610017e+001 
4318750000  -3.593699e+001  -4.809401e+001 
4321875000  -3.594442e+001  -4.679338e+001 
4325000000  -3.523966e+001  -4.675463e+001 
4328125000  -3.469239e+001  -5.249593e+001 
4331250000  -3.448145e+001  -6.120637e+001 
4334375000  -3.474970e+001  -6.673979e+001 
4337500000  -3.557613e+001  -6.872179e+001 
4340625000  -3.592609e+001  -6.496217e+001 
4343750000  -3.488748e+001  -6.659061e+001 
4346875000  -3.461979e+001  -7.352562e+001 
4350000000  -3.474208e+001  -7.898275e+001 
4353125000  -3.456057e+001  -8.671045e+001 
4356250000  -3.649461e+001  -8.882690e+001 
4359375000  -3.649731e+001  -7.202411e+001 
4362500000  -3.313534e+001  -7.444793e+001 
4365625000  -3.186382e+001  -8.999895e+001 
4368750000  -3.274932e+001  -1.024309e+002 
4371875000  -3.362767e+001  -1.030037e+002 
4375000000  -3.306668e+001  -1.039421e+002 
4378125000  -3.252025e+001  -1.108115e+002 
4381250000  -3.266735e+001  -1.189678e+002 
4384375000  -3.256742e+001  -1.251541e+002 
4387500000  -3.341662e+001  -1.325947e+002 
4390625000  -3.429480e+001  -1.325776e+002 
4393750000  -3.362784e+001  -1.319756e+002 
4396875000  -3.315227e+001  -1.362153e+002 
4400000000  -3.248980e+001  -1.441674e+002 
4403125000  -3.331392e+001  -1.539086e+002 
4406250000  -3.420623e+001  -1.564657e+002 
4409375000  -3.442105e+001  -1.602755e+002 
4412500000  -3.544075e+001  -1.638041e+002 
4415625000  -3.573397e+001  -1.599057e+002 
