!Agilent Technologies,E8363B,MY43030201,A.06.04.32
!Agilent E8363B: A.06.04.32
!Date: Tuesday, November 11, 2014 21:00:41
!Correction: S21(Response(S21)) 
!S1P File: Measurement: S21:
# Hz S  dB   R 50
3000000000  -3.626791e+001  -4.440775e+001 
3003125000  -3.740434e+001  -5.008789e+001 
3006250000  -3.723136e+001  -5.207793e+001 
3009375000  -3.741959e+001  -4.831450e+001 
3012500000  -3.691390e+001  -4.974469e+001 
3015625000  -3.589109e+001  -5.719534e+001 
3018750000  -3.671892e+001  -5.864768e+001 
3021875000  -3.531313e+001  -5.752275e+001 
3025000000  -3.402994e+001  -6.086244e+001 
3028125000  -3.307434e+001  -6.735199e+001 
3031250000  -3.204311e+001  -7.858549e+001 
3034375000  -3.157198e+001  -9.255093e+001 
3037500000  -3.206549e+001  -1.044002e+002 
3040625000  -3.335408e+001  -1.090919e+002 
3043750000  -3.406073e+001  -1.137151e+002 
3046875000  -3.427983e+001  -1.204906e+002 
3050000000  -3.581006e+001  -1.271225e+002 
3053125000  -3.599309e+001  -1.210901e+002 
3056250000  -3.549541e+001  -1.179596e+002 
3059375000  -3.551184e+001  -1.183452e+002 
3062500000  -3.404796e+001  -1.218387e+002 
3065625000  -3.377116e+001  -1.274372e+002 
3068750000  -3.347197e+001  -1.346899e+002 
3071875000  -3.343602e+001  -1.372961e+002 
3075000000  -3.325354e+001  -1.410446e+002 
3078125000  -3.297380e+001  -1.451257e+002 
3081250000  -3.350144e+001  -1.496662e+002 
3084375000  -3.263934e+001  -1.534686e+002 
3087500000  -3.245227e+001  -1.570555e+002 
3090625000  -3.192646e+001  -1.669938e+002 
3093750000  -3.243508e+001  -1.742492e+002 
3096875000  -3.349590e+001  1.795029e+002 
3100000000  -3.332627e+001  1.774258e+002 
3103125000  -3.363023e+001  1.784885e+002 
3106250000  -3.321283e+001  1.742118e+002 
3109375000  -3.327710e+001  1.703188e+002 
3112500000  -3.326205e+001  1.683454e+002 
3115625000  -3.284576e+001  1.632685e+002 
3118750000  -3.317576e+001  1.633722e+002 
3121875000  -3.236238e+001  1.538758e+002 
3125000000  -3.347332e+001  1.498157e+002 
3128125000  -3.459562e+001  1.564876e+002 
3131250000  -3.213881e+001  1.556661e+002 
3134375000  -3.074604e+001  1.401079e+002 
3137500000  -3.138163e+001  1.256593e+002 
3140625000  -3.280444e+001  1.220164e+002 
3143750000  -3.390233e+001  1.247329e+002 
3146875000  -3.341966e+001  1.250864e+002 
3150000000  -3.241549e+001  1.262290e+002 
3153125000  -3.238536e+001  1.168590e+002 
3156250000  -3.336642e+001  1.214092e+002 
3159375000  -3.172060e+001  1.224135e+002 
3162500000  -2.973221e+001  1.083032e+002 
3165625000  -3.078536e+001  9.555403e+001 
3168750000  -3.115455e+001  9.595762e+001 
3171875000  -3.022822e+001  9.067940e+001 
3175000000  -3.098271e+001  8.180664e+001 
3178125000  -3.072480e+001  8.283636e+001 
3181250000  -2.965723e+001  7.736455e+001 
3184375000  -2.895707e+001  6.470344e+001 
3187500000  -3.007667e+001  4.900855e+001 
3190625000  -3.281770e+001  4.060105e+001 
3193750000  -3.343576e+001  4.929624e+001 
3196875000  -3.310730e+001  5.430191e+001 
3200000000  -3.215025e+001  5.201579e+001 
3203125000  -3.135541e+001  4.523752e+001 
3206250000  -3.166187e+001  3.829909e+001 
3209375000  -3.120998e+001  3.278729e+001 
3212500000  -3.144124e+001  2.531197e+001 
3215625000  -3.145377e+001  2.108583e+001 
3218750000  -3.230603e+001  1.463831e+001 
3221875000  -3.321572e+001  9.043960e+000 
3225000000  -3.281141e+001  7.938742e+000 
3228125000  -3.314429e+001  2.931947e+000 
3231250000  -3.376773e+001  -8.990083e-002 
3234375000  -3.353988e+001  9.746685e-003 
3237500000  -3.357178e+001  -1.388652e+000 
3240625000  -3.313229e+001  -4.203300e+000 
3243750000  -3.276553e+001  -1.185514e+001 
3246875000  -3.320631e+001  -1.836205e+001 
3250000000  -3.359891e+001  -2.114414e+001 
3253125000  -3.369675e+001  -2.371071e+001 
3256250000  -3.326229e+001  -2.988623e+001 
3259375000  -3.356694e+001  -3.870531e+001 
3262500000  -3.477502e+001  -4.198761e+001 
3265625000  -3.545073e+001  -3.975216e+001 
3268750000  -3.540820e+001  -3.804457e+001 
3271875000  -3.495265e+001  -3.784596e+001 
3275000000  -3.392329e+001  -4.406057e+001 
3278125000  -3.440701e+001  -5.082193e+001 
3281250000  -3.452295e+001  -4.927448e+001 
3284375000  -3.405555e+001  -5.666085e+001 
3287500000  -3.429515e+001  -6.135439e+001 
3290625000  -3.443023e+001  -6.560646e+001 
3293750000  -3.431326e+001  -7.207628e+001 
3296875000  -3.535455e+001  -7.279858e+001 
3300000000  -3.505349e+001  -7.211272e+001 
3303125000  -3.397424e+001  -7.720205e+001 
3306250000  -3.372064e+001  -8.400359e+001 
3309375000  -3.347939e+001  -9.009167e+001 
3312500000  -3.344351e+001  -1.015823e+002 
3315625000  -3.449770e+001  -1.094269e+002 
3318750000  -3.594886e+001  -1.125054e+002 
3321875000  -3.712542e+001  -1.124763e+002 
3325000000  -3.756883e+001  -1.072749e+002 
3328125000  -3.725607e+001  -1.072345e+002 
3331250000  -3.587178e+001  -9.939935e+001 
3334375000  -3.332538e+001  -1.103003e+002 
3337500000  -3.338848e+001  -1.291630e+002 
3340625000  -3.476620e+001  -1.406940e+002 
3343750000  -3.663993e+001  -1.415380e+002 
3346875000  -3.690512e+001  -1.400367e+002 
3350000000  -3.624926e+001  -1.419379e+002 
3353125000  -3.628966e+001  -1.458073e+002 
3356250000  -3.571835e+001  -1.549220e+002 
3359375000  -3.658163e+001  -1.633211e+002 
3362500000  -3.779077e+001  -1.698635e+002 
3365625000  -3.810368e+001  -1.691743e+002 
3368750000  -3.900790e+001  -1.729030e+002 
3371875000  -3.911149e+001  -1.750989e+002 
3375000000  -4.063790e+001  -1.774820e+002 
3378125000  -4.117779e+001  -1.777246e+002 
3381250000  -4.264712e+001  -1.687397e+002 
3384375000  -4.141150e+001  -1.478672e+002 
3387500000  -3.764757e+001  -1.645967e+002 
3390625000  -3.944562e+001  1.770800e+002 
3393750000  -4.068450e+001  -1.796076e+002 
3396875000  -3.948155e+001  -1.773107e+002 
3400000000  -3.899354e+001  1.732294e+002 
3403125000  -3.935785e+001  1.679917e+002 
3406250000  -3.976063e+001  1.676321e+002 
3409375000  -4.016169e+001  1.595892e+002 
3412500000  -4.052169e+001  1.574251e+002 
3415625000  -4.130371e+001  1.587920e+002 
3418750000  -4.126557e+001  1.588019e+002 
3421875000  -4.142847e+001  1.636711e+002 
3425000000  -4.042146e+001  1.624604e+002 
3428125000  -3.956417e+001  1.584660e+002 
3431250000  -3.943349e+001  1.518143e+002 
3434375000  -3.928145e+001  1.466861e+002 
3437500000  -3.987225e+001  1.435856e+002 
3440625000  -3.999642e+001  1.439319e+002 
3443750000  -3.897793e+001  1.445335e+002 
3446875000  -3.795951e+001  1.380832e+002 
3450000000  -3.759904e+001  1.265064e+002 
3453125000  -3.816307e+001  1.161046e+002 
3456250000  -3.910430e+001  1.099126e+002 
3459375000  -4.013626e+001  1.108164e+002 
3462500000  -3.998333e+001  1.114985e+002 
3465625000  -3.971650e+001  1.053471e+002 
3468750000  -4.013088e+001  1.023011e+002 
3471875000  -4.004884e+001  9.908154e+001 
3475000000  -3.965983e+001  9.501405e+001 
3478125000  -4.029131e+001  8.741001e+001 
3481250000  -4.102212e+001  8.461089e+001 
3484375000  -4.231274e+001  8.851619e+001 
3487500000  -4.142962e+001  8.773519e+001 
3490625000  -4.061908e+001  8.313649e+001 
3493750000  -4.125066e+001  7.542499e+001 
3496875000  -4.178554e+001  7.492224e+001 
3500000000  -4.235161e+001  7.654871e+001 
3503125000  -4.238451e+001  7.917259e+001 
3506250000  -4.088716e+001  7.444440e+001 
3509375000  -4.071964e+001  6.394690e+001 
3512500000  -4.125644e+001  5.747854e+001 
3515625000  -4.173488e+001  5.481361e+001 
3518750000  -4.265752e+001  5.273889e+001 
3521875000  -4.256504e+001  5.324256e+001 
3525000000  -4.364737e+001  4.809518e+001 
3528125000  -4.335817e+001  5.540212e+001 
3531250000  -4.229638e+001  5.464831e+001 
3534375000  -4.237452e+001  4.271231e+001 
3537500000  -4.276166e+001  3.839971e+001 
3540625000  -4.362067e+001  3.795369e+001 
3543750000  -4.458610e+001  4.027158e+001 
3546875000  -4.437028e+001  5.329760e+001 
3550000000  -4.177232e+001  5.380987e+001 
3553125000  -4.044185e+001  3.634333e+001 
3556250000  -4.174321e+001  3.055453e+001 
3559375000  -4.162423e+001  3.289755e+001 
3562500000  -4.047752e+001  2.227814e+001 
3565625000  -4.127023e+001  1.487538e+001 
3568750000  -4.154960e+001  1.727689e+001 
3571875000  -4.139607e+001  1.602717e+001 
3575000000  -4.107814e+001  7.923087e+000 
3578125000  -4.176448e+001  4.493961e+000 
3581250000  -4.180076e+001  2.672961e+000 
3584375000  -4.101829e+001  4.279877e-002 
3587500000  -4.023075e+001  -7.628327e+000 
3590625000  -4.068516e+001  -1.937225e+001 
3593750000  -4.220606e+001  -2.180078e+001 
3596875000  -4.190829e+001  -1.573171e+001 
3600000000  -4.068114e+001  -2.072657e+001 
3603125000  -4.086034e+001  -3.636861e+001 
3606250000  -4.183001e+001  -4.114425e+001 
3609375000  -4.225222e+001  -4.214240e+001 
3612500000  -4.316396e+001  -4.653600e+001 
3615625000  -4.355214e+001  -4.797897e+001 
3618750000  -4.440012e+001  -4.812683e+001 
3621875000  -4.451089e+001  -5.008628e+001 
3625000000  -4.488329e+001  -5.531190e+001 
3628125000  -4.507645e+001  -5.586012e+001 
3631250000  -4.493692e+001  -6.120520e+001 
3634375000  -4.653621e+001  -6.185742e+001 
3637500000  -4.669473e+001  -5.267274e+001 
3640625000  -4.542039e+001  -5.121560e+001 
3643750000  -4.547358e+001  -5.711630e+001 
3646875000  -4.588524e+001  -6.336010e+001 
3650000000  -4.626410e+001  -6.210738e+001 
3653125000  -4.665359e+001  -6.321094e+001 
3656250000  -4.689994e+001  -5.958486e+001 
3659375000  -4.687382e+001  -5.593377e+001 
3662500000  -4.565304e+001  -5.901209e+001 
3665625000  -4.545596e+001  -5.949421e+001 
3668750000  -4.464089e+001  -6.098880e+001 
3671875000  -4.356588e+001  -6.402856e+001 
3675000000  -4.370694e+001  -7.234208e+001 
3678125000  -4.410293e+001  -7.449089e+001 
3681250000  -4.361219e+001  -7.641487e+001 
3684375000  -4.348180e+001  -8.245210e+001 
3687500000  -4.386259e+001  -8.292181e+001 
3690625000  -4.348567e+001  -8.738297e+001 
3693750000  -4.444878e+001  -8.919268e+001 
3696875000  -4.414828e+001  -8.819593e+001 
3700000000  -4.324335e+001  -9.427498e+001 
3703125000  -4.318897e+001  -1.004268e+002 
3706250000  -4.437665e+001  -1.021991e+002 
3709375000  -4.365829e+001  -9.987877e+001 
3712500000  -4.328906e+001  -9.895223e+001 
3715625000  -4.233707e+001  -1.065319e+002 
3718750000  -4.176650e+001  -1.119167e+002 
3721875000  -4.186042e+001  -1.197492e+002 
3725000000  -4.205609e+001  -1.253231e+002 
3728125000  -4.257553e+001  -1.256876e+002 
3731250000  -4.215658e+001  -1.274256e+002 
3734375000  -4.150028e+001  -1.337509e+002 
3737500000  -4.248154e+001  -1.435904e+002 
3740625000  -4.374674e+001  -1.461293e+002 
3743750000  -4.402077e+001  -1.498307e+002 
3746875000  -4.402921e+001  -1.503109e+002 
3750000000  -4.446351e+001  -1.517307e+002 
3753125000  -4.450166e+001  -1.526469e+002 
3756250000  -4.486972e+001  -1.471729e+002 
3759375000  -4.501908e+001  -1.482642e+002 
3762500000  -4.449945e+001  -1.531670e+002 
3765625000  -4.487678e+001  -1.543768e+002 
3768750000  -4.497499e+001  -1.468028e+002 
3771875000  -4.340868e+001  -1.497232e+002 
3775000000  -4.313182e+001  -1.556436e+002 
3778125000  -4.314711e+001  -1.555470e+002 
3781250000  -4.256927e+001  -1.608833e+002 
3784375000  -4.274843e+001  -1.590821e+002 
3787500000  -4.176120e+001  -1.625688e+002 
3790625000  -4.251152e+001  -1.700583e+002 
3793750000  -4.190280e+001  -1.691405e+002 
3796875000  -4.108358e+001  -1.720072e+002 
3800000000  -3.935126e+001  -1.752786e+002 
3803125000  -4.019170e+001  1.752665e+002 
3806250000  -4.094648e+001  1.716666e+002 
3809375000  -4.034446e+001  1.703427e+002 
3812500000  -3.955564e+001  1.633693e+002 
3815625000  -3.993739e+001  1.533455e+002 
3818750000  -4.100806e+001  1.524725e+002 
3821875000  -4.121481e+001  1.615602e+002 
3825000000  -3.917659e+001  1.623915e+002 
3828125000  -3.786958e+001  1.462451e+002 
3831250000  -3.846055e+001  1.310172e+002 
3834375000  -4.002280e+001  1.290078e+002 
3837500000  -4.078782e+001  1.345242e+002 
3840625000  -3.977432e+001  1.301967e+002 
3843750000  -3.856004e+001  1.199588e+002 
3846875000  -3.947690e+001  1.123992e+002 
3850000000  -4.062775e+001  1.173975e+002 
3853125000  -4.007427e+001  1.188760e+002 
3856250000  -3.996563e+001  1.116374e+002 
3859375000  -3.927979e+001  1.076217e+002 
3862500000  -3.911001e+001  9.896098e+001 
3865625000  -3.958011e+001  9.514641e+001 
3868750000  -3.956021e+001  9.343275e+001 
3871875000  -3.892969e+001  9.063007e+001 
3875000000  -3.924021e+001  8.020869e+001 
3878125000  -4.027890e+001  7.985218e+001 
3881250000  -4.033510e+001  8.026676e+001 
3884375000  -4.005319e+001  7.730173e+001 
3887500000  -3.994412e+001  7.154749e+001 
3890625000  -4.083021e+001  6.859781e+001 
3893750000  -4.083217e+001  6.739703e+001 
3896875000  -4.137757e+001  6.861979e+001 
3900000000  -4.121532e+001  6.712285e+001 
3903125000  -4.084545e+001  6.501675e+001 
3906250000  -4.059144e+001  6.222242e+001 
3909375000  -4.007571e+001  5.852682e+001 
3912500000  -3.983612e+001  5.024158e+001 
3915625000  -4.105433e+001  5.040786e+001 
3918750000  -4.109341e+001  5.145072e+001 
3921875000  -4.042627e+001  4.978714e+001 
3925000000  -3.949083e+001  4.552978e+001 
3928125000  -3.892413e+001  4.170512e+001 
3931250000  -3.922948e+001  3.629277e+001 
3934375000  -3.960526e+001  3.530841e+001 
3937500000  -3.991206e+001  3.319837e+001 
3940625000  -4.012997e+001  3.144825e+001 
3943750000  -3.917658e+001  3.099311e+001 
3946875000  -3.795238e+001  2.460333e+001 
3950000000  -3.853256e+001  1.614102e+001 
3953125000  -3.960262e+001  1.407280e+001 
3956250000  -3.886369e+001  1.681738e+001 
3959375000  -3.749482e+001  1.267900e+001 
3962500000  -3.690075e+001  8.425117e+000 
3965625000  -3.662220e+001  -1.902175e+000 
3968750000  -3.795908e+001  -1.035603e+001 
3971875000  -3.812948e+001  -1.289525e+001 
3975000000  -3.749069e+001  -1.454918e+001 
3978125000  -3.760770e+001  -1.801650e+001 
3981250000  -3.741573e+001  -2.323625e+001 
3984375000  -3.749799e+001  -2.908298e+001 
3987500000  -3.837595e+001  -3.152443e+001 
3990625000  -3.833846e+001  -3.444370e+001 
3993750000  -3.872941e+001  -3.772601e+001 
3996875000  -3.862938e+001  -4.129083e+001 
4000000000  -3.894910e+001  -4.402858e+001 
4003125000  -3.952489e+001  -4.210407e+001 
4006250000  -3.804994e+001  -4.331367e+001 
4009375000  -3.689367e+001  -5.706021e+001 
4012500000  -3.834318e+001  -6.378710e+001 
4015625000  -3.958587e+001  -6.320968e+001 
4018750000  -3.978549e+001  -6.144501e+001 
4021875000  -3.887184e+001  -6.356086e+001 
4025000000  -3.865921e+001  -6.891891e+001 
4028125000  -3.852134e+001  -7.281155e+001 
4031250000  -3.927708e+001  -7.673599e+001 
4034375000  -3.958202e+001  -7.803367e+001 
4037500000  -3.908205e+001  -7.754069e+001 
4040625000  -3.908167e+001  -7.966859e+001 
4043750000  -3.924291e+001  -8.127890e+001 
4046875000  -3.884739e+001  -8.104534e+001 
4050000000  -3.805063e+001  -8.719502e+001 
4053125000  -3.873587e+001  -8.989082e+001 
4056250000  -3.931209e+001  -8.596841e+001 
4059375000  -3.782726e+001  -8.659256e+001 
4062500000  -3.667879e+001  -9.241442e+001 
4065625000  -3.633541e+001  -9.622262e+001 
4068750000  -3.612700e+001  -1.014333e+002 
4071875000  -3.548457e+001  -1.105764e+002 
4075000000  -3.576257e+001  -1.165955e+002 
4078125000  -3.627516e+001  -1.202436e+002 
4081250000  -3.582454e+001  -1.223609e+002 
4084375000  -3.539515e+001  -1.306773e+002 
4087500000  -3.599272e+001  -1.379796e+002 
4090625000  -3.635923e+001  -1.386092e+002 
4093750000  -3.622217e+001  -1.407557e+002 
4096875000  -3.585659e+001  -1.483279e+002 
4100000000  -3.664302e+001  -1.554917e+002 
4103125000  -3.758499e+001  -1.553200e+002 
4106250000  -3.731792e+001  -1.510416e+002 
4109375000  -3.643955e+001  -1.519535e+002 
4112500000  -3.604979e+001  -1.603832e+002 
4115625000  -3.621177e+001  -1.664777e+002 
4118750000  -3.653610e+001  -1.691467e+002 
4121875000  -3.620215e+001  -1.740435e+002 
4125000000  -3.658627e+001  1.782444e+002 
4128125000  -3.760207e+001  1.774388e+002 
4131250000  -3.733140e+001  -1.752453e+002 
4134375000  -3.497153e+001  1.796999e+002 
4137500000  -3.496788e+001  1.603521e+002 
4140625000  -3.728099e+001  1.512280e+002 
4143750000  -3.861015e+001  1.556810e+002 
4146875000  -3.820297e+001  1.609474e+002 
4150000000  -3.714361e+001  1.585040e+002 
4153125000  -3.749995e+001  1.514967e+002 
4156250000  -3.829760e+001  1.490872e+002 
4159375000  -3.853658e+001  1.547439e+002 
4162500000  -3.748360e+001  1.568132e+002 
4165625000  -3.651864e+001  1.517973e+002 
4168750000  -3.594979e+001  1.445640e+002 
4171875000  -3.565493e+001  1.344413e+002 
4175000000  -3.645810e+001  1.290226e+002 
4178125000  -3.713107e+001  1.294349e+002 
4181250000  -3.695908e+001  1.273535e+002 
4184375000  -3.691190e+001  1.245537e+002 
4187500000  -3.678618e+001  1.221192e+002 
4190625000  -3.680261e+001  1.162052e+002 
4193750000  -3.757630e+001  1.119119e+002 
4196875000  -3.812269e+001  1.114359e+002 
4200000000  -3.879193e+001  1.134023e+002 
4203125000  -3.895675e+001  1.252561e+002 
4206250000  -3.529817e+001  1.251449e+002 
4209375000  -3.435381e+001  1.050473e+002 
4212500000  -3.623067e+001  9.604518e+001 
4215625000  -3.710411e+001  1.008826e+002 
4218750000  -3.559426e+001  1.055385e+002 
4221875000  -3.332198e+001  9.611286e+001 
4225000000  -3.449199e+001  8.250212e+001 
4228125000  -3.518838e+001  8.698747e+001 
4231250000  -3.352257e+001  8.329401e+001 
4234375000  -3.355424e+001  7.256362e+001 
4237500000  -3.285651e+001  6.868336e+001 
4240625000  -3.291562e+001  5.857934e+001 
4243750000  -3.407311e+001  5.008384e+001 
4246875000  -3.489783e+001  4.989715e+001 
4250000000  -3.484080e+001  5.093604e+001 
4253125000  -3.424104e+001  4.666655e+001 
4256250000  -3.467197e+001  4.334855e+001 
4259375000  -3.444999e+001  3.933952e+001 
4262500000  -3.473087e+001  3.403903e+001 
4265625000  -3.465036e+001  3.419493e+001 
4268750000  -3.374846e+001  2.936835e+001 
4271875000  -3.352166e+001  2.112056e+001 
4275000000  -3.342900e+001  1.539820e+001 
4278125000  -3.405377e+001  1.606363e+000 
4281250000  -3.589218e+001  3.618777e-001 
4284375000  -3.559644e+001  2.171888e-001 
4287500000  -3.664129e+001  -5.813413e+000 
4290625000  -3.780146e+001  3.094611e+000 
4293750000  -3.593408e+001  1.019321e+001 
4296875000  -3.485659e+001  -1.796840e+000 
4300000000  -3.572670e+001  -1.214646e+001 
4303125000  -3.703425e+001  -8.914329e+000 
4306250000  -3.645144e+001  -5.125574e+000 
4309375000  -3.494799e+001  -6.955376e+000 
4312500000  -3.481507e+001  -1.314854e+001 
4315625000  -3.500730e+001  -1.957239e+001 
4318750000  -3.530927e+001  -2.345983e+001 
4321875000  -3.560910e+001  -2.249509e+001 
4325000000  -3.487119e+001  -2.274549e+001 
4328125000  -3.433379e+001  -2.864585e+001 
4331250000  -3.409368e+001  -3.700253e+001 
4334375000  -3.451040e+001  -4.326247e+001 
4337500000  -3.525611e+001  -4.487443e+001 
4340625000  -3.565115e+001  -4.208006e+001 
4343750000  -3.477107e+001  -4.222599e+001 
4346875000  -3.438587e+001  -4.831986e+001 
4350000000  -3.437430e+001  -5.473904e+001 
4353125000  -3.431123e+001  -6.263093e+001 
4356250000  -3.609123e+001  -6.565947e+001 
4359375000  -3.654722e+001  -5.260433e+001 
4362500000  -3.341282e+001  -5.179408e+001 
4365625000  -3.192520e+001  -6.479739e+001 
4368750000  -3.246087e+001  -7.752461e+001 
4371875000  -3.382530e+001  -7.759934e+001 
4375000000  -3.324637e+001  -7.837407e+001 
4378125000  -3.259127e+001  -8.651222e+001 
4381250000  -3.285414e+001  -9.215068e+001 
4384375000  -3.265936e+001  -9.973732e+001 
4387500000  -3.328807e+001  -1.069585e+002 
4390625000  -3.430416e+001  -1.068790e+002 
4393750000  -3.355925e+001  -1.056909e+002 
4396875000  -3.299541e+001  -1.099115e+002 
4400000000  -3.248172e+001  -1.176009e+002 
4403125000  -3.323488e+001  -1.275515e+002 
4406250000  -3.411967e+001  -1.292689e+002 
4409375000  -3.414442e+001  -1.335791e+002 
4412500000  -3.524043e+001  -1.370030e+002 
4415625000  -3.561347e+001  -1.330623e+002 
