!Agilent Technologies,E8363B,MY43030201,A.06.04.32
!Agilent E8363B: A.06.04.32
!Date: Tuesday, November 11, 2014 21:10:58
!Correction: S21(Response(S21)) 
!S1P File: Measurement: S21:
# Hz S  dB   R 50
3000000000  -3.653499e+001  -5.548655e+001 
3003125000  -3.780708e+001  -6.119738e+001 
3006250000  -3.744570e+001  -6.348278e+001 
3009375000  -3.782425e+001  -5.927406e+001 
3012500000  -3.711329e+001  -6.175852e+001 
3015625000  -3.617889e+001  -6.820168e+001 
3018750000  -3.698221e+001  -6.917731e+001 
3021875000  -3.547779e+001  -6.837395e+001 
3025000000  -3.423376e+001  -7.292659e+001 
3028125000  -3.319616e+001  -7.940224e+001 
3031250000  -3.214771e+001  -9.049059e+001 
3034375000  -3.181433e+001  -1.039875e+002 
3037500000  -3.227311e+001  -1.158354e+002 
3040625000  -3.371243e+001  -1.208617e+002 
3043750000  -3.429044e+001  -1.262827e+002 
3046875000  -3.456767e+001  -1.323352e+002 
3050000000  -3.611515e+001  -1.374923e+002 
3053125000  -3.605012e+001  -1.312211e+002 
3056250000  -3.564470e+001  -1.288699e+002 
3059375000  -3.564790e+001  -1.297416e+002 
3062500000  -3.399465e+001  -1.329501e+002 
3065625000  -3.387771e+001  -1.393956e+002 
3068750000  -3.357169e+001  -1.464374e+002 
3071875000  -3.353575e+001  -1.487099e+002 
3075000000  -3.333175e+001  -1.528595e+002 
3078125000  -3.303219e+001  -1.568213e+002 
3081250000  -3.355973e+001  -1.612697e+002 
3084375000  -3.262687e+001  -1.647608e+002 
3087500000  -3.252283e+001  -1.688742e+002 
3090625000  -3.199345e+001  -1.795235e+002 
3093750000  -3.252763e+001  1.739265e+002 
3096875000  -3.348238e+001  1.681913e+002 
3100000000  -3.334999e+001  1.661125e+002 
3103125000  -3.368475e+001  1.661907e+002 
3106250000  -3.319949e+001  1.623531e+002 
3109375000  -3.320855e+001  1.583196e+002 
3112500000  -3.323629e+001  1.560670e+002 
3115625000  -3.294316e+001  1.514580e+002 
3118750000  -3.324055e+001  1.512017e+002 
3121875000  -3.228445e+001  1.417805e+002 
3125000000  -3.355265e+001  1.381774e+002 
3128125000  -3.442239e+001  1.453110e+002 
3131250000  -3.201976e+001  1.430589e+002 
3134375000  -3.080861e+001  1.274699e+002 
3137500000  -3.139632e+001  1.133026e+002 
3140625000  -3.279643e+001  1.109844e+002 
3143750000  -3.386596e+001  1.127864e+002 
3146875000  -3.330854e+001  1.134204e+002 
3150000000  -3.229622e+001  1.136306e+002 
3153125000  -3.235495e+001  1.039394e+002 
3156250000  -3.337505e+001  1.092733e+002 
3159375000  -3.156156e+001  1.105171e+002 
3162500000  -2.967011e+001  9.568763e+001 
3165625000  -3.071067e+001  8.368603e+001 
3168750000  -3.103508e+001  8.373357e+001 
3171875000  -3.009720e+001  7.808852e+001 
3175000000  -3.089148e+001  6.917369e+001 
3178125000  -3.060900e+001  7.058704e+001 
3181250000  -2.954115e+001  6.452795e+001 
3184375000  -2.880779e+001  5.180820e+001 
3187500000  -3.010896e+001  3.635456e+001 
3190625000  -3.273603e+001  2.911866e+001 
3193750000  -3.328609e+001  3.726032e+001 
3196875000  -3.293293e+001  4.174486e+001 
3200000000  -3.199290e+001  3.896276e+001 
3203125000  -3.122061e+001  3.261362e+001 
3206250000  -3.148051e+001  2.587044e+001 
3209375000  -3.098876e+001  2.005470e+001 
3212500000  -3.129564e+001  1.325916e+001 
3215625000  -3.133152e+001  9.446433e+000 
3218750000  -3.210509e+001  1.770070e+000 
3221875000  -3.296510e+001  -3.297468e+000 
3225000000  -3.255325e+001  -4.766274e+000 
3228125000  -3.291110e+001  -1.081086e+001 
3231250000  -3.366422e+001  -1.314015e+001 
3234375000  -3.331360e+001  -1.266799e+001 
3237500000  -3.332531e+001  -1.411955e+001 
3240625000  -3.299326e+001  -1.711547e+001 
3243750000  -3.256976e+001  -2.496240e+001 
3246875000  -3.294510e+001  -3.260382e+001 
3250000000  -3.335394e+001  -3.432162e+001 
3253125000  -3.353982e+001  -3.650644e+001 
3256250000  -3.305252e+001  -4.314592e+001 
3259375000  -3.337848e+001  -5.263146e+001 
3262500000  -3.460742e+001  -5.585508e+001 
3265625000  -3.528799e+001  -5.366900e+001 
3268750000  -3.502791e+001  -5.026151e+001 
3271875000  -3.463928e+001  -5.148541e+001 
3275000000  -3.361077e+001  -5.832606e+001 
3278125000  -3.409958e+001  -6.480692e+001 
3281250000  -3.421677e+001  -6.295433e+001 
3284375000  -3.391168e+001  -7.018980e+001 
3287500000  -3.402869e+001  -7.400970e+001 
3290625000  -3.423486e+001  -7.963943e+001 
3293750000  -3.392290e+001  -8.559825e+001 
3296875000  -3.512638e+001  -8.630691e+001 
3300000000  -3.482368e+001  -8.631332e+001 
3303125000  -3.364260e+001  -9.090513e+001 
3306250000  -3.344839e+001  -9.792000e+001 
3309375000  -3.319656e+001  -1.043661e+002 
3312500000  -3.326283e+001  -1.160937e+002 
3315625000  -3.427179e+001  -1.231268e+002 
3318750000  -3.582284e+001  -1.263387e+002 
3321875000  -3.676627e+001  -1.259278e+002 
3325000000  -3.726726e+001  -1.192174e+002 
3328125000  -3.676335e+001  -1.200429e+002 
3331250000  -3.546989e+001  -1.138249e+002 
3334375000  -3.277371e+001  -1.245382e+002 
3337500000  -3.303136e+001  -1.442011e+002 
3340625000  -3.430453e+001  -1.551405e+002 
3343750000  -3.644568e+001  -1.557016e+002 
3346875000  -3.636199e+001  -1.543462e+002 
3350000000  -3.572697e+001  -1.562087e+002 
3353125000  -3.593056e+001  -1.610010e+002 
3356250000  -3.544026e+001  -1.693303e+002 
3359375000  -3.613738e+001  -1.774701e+002 
3362500000  -3.725949e+001  1.766201e+002 
3365625000  -3.776144e+001  1.752698e+002 
3368750000  -3.860253e+001  1.736998e+002 
3371875000  -3.887165e+001  1.705649e+002 
3375000000  -4.022147e+001  1.687861e+002 
3378125000  -4.131034e+001  1.670945e+002 
3381250000  -4.223943e+001  1.772794e+002 
3384375000  -4.079824e+001  -1.624493e+002 
3387500000  -3.749487e+001  -1.793834e+002 
3390625000  -3.895608e+001  1.620194e+002 
3393750000  -4.026089e+001  1.654533e+002 
3396875000  -3.906321e+001  1.655484e+002 
3400000000  -3.865350e+001  1.583408e+002 
3403125000  -3.912342e+001  1.507103e+002 
3406250000  -3.937999e+001  1.525307e+002 
3409375000  -3.982584e+001  1.442046e+002 
3412500000  -4.009596e+001  1.419478e+002 
3415625000  -4.110416e+001  1.432037e+002 
3418750000  -4.114650e+001  1.426446e+002 
3421875000  -4.137450e+001  1.475338e+002 
3425000000  -4.026677e+001  1.463485e+002 
3428125000  -3.923957e+001  1.435280e+002 
3431250000  -3.912671e+001  1.347917e+002 
3434375000  -3.923838e+001  1.291058e+002 
3437500000  -3.956436e+001  1.275741e+002 
3440625000  -4.008355e+001  1.286403e+002 
3443750000  -3.864829e+001  1.285575e+002 
3446875000  -3.785342e+001  1.204471e+002 
3450000000  -3.740934e+001  1.095594e+002 
3453125000  -3.789546e+001  1.006030e+002 
3456250000  -3.923679e+001  9.562751e+001 
3459375000  -4.018726e+001  9.505222e+001 
3462500000  -3.983695e+001  9.551311e+001 
3465625000  -3.973590e+001  8.953964e+001 
3468750000  -4.027932e+001  8.591032e+001 
3471875000  -3.979436e+001  8.409662e+001 
3475000000  -3.967289e+001  7.772775e+001 
3478125000  -4.025907e+001  7.112887e+001 
3481250000  -4.122128e+001  6.966217e+001 
3484375000  -4.212709e+001  7.369246e+001 
3487500000  -4.131234e+001  7.241344e+001 
3490625000  -4.070879e+001  6.787897e+001 
3493750000  -4.099351e+001  6.033430e+001 
3496875000  -4.192310e+001  5.821065e+001 
3500000000  -4.192952e+001  6.196306e+001 
3503125000  -4.192473e+001  6.505994e+001 
3506250000  -4.060492e+001  5.850633e+001 
3509375000  -4.060368e+001  4.848671e+001 
3512500000  -4.110574e+001  4.006081e+001 
3515625000  -4.187259e+001  3.731860e+001 
3518750000  -4.264270e+001  3.866526e+001 
3521875000  -4.259962e+001  3.576675e+001 
3525000000  -4.355715e+001  3.304237e+001 
3528125000  -4.340782e+001  4.134185e+001 
3531250000  -4.188029e+001  3.835157e+001 
3534375000  -4.177519e+001  2.745867e+001 
3537500000  -4.272303e+001  2.377763e+001 
3540625000  -4.347125e+001  2.231525e+001 
3543750000  -4.417886e+001  2.501106e+001 
3546875000  -4.365059e+001  3.862587e+001 
3550000000  -4.145592e+001  3.941777e+001 
3553125000  -4.022242e+001  2.063804e+001 
3556250000  -4.172486e+001  1.549896e+001 
3559375000  -4.134058e+001  1.644577e+001 
3562500000  -4.038142e+001  7.862889e+000 
3565625000  -4.130825e+001  8.149566e-001 
3568750000  -4.138116e+001  3.839447e+000 
3571875000  -4.102554e+001  2.574025e+000 
3575000000  -4.049928e+001  -5.676433e+000 
3578125000  -4.142787e+001  -1.040602e+001 
3581250000  -4.144289e+001  -9.030064e+000 
3584375000  -4.062580e+001  -1.408276e+001 
3587500000  -3.981136e+001  -2.276573e+001 
3590625000  -4.061491e+001  -3.334593e+001 
3593750000  -4.167119e+001  -3.391037e+001 
3596875000  -4.140308e+001  -2.916447e+001 
3600000000  -4.016205e+001  -3.554277e+001 
3603125000  -4.048538e+001  -4.936572e+001 
3606250000  -4.139322e+001  -5.213538e+001 
3609375000  -4.183186e+001  -5.668876e+001 
3612500000  -4.260281e+001  -6.138722e+001 
3615625000  -4.288626e+001  -6.305982e+001 
3618750000  -4.366429e+001  -6.417451e+001 
3621875000  -4.334204e+001  -6.661802e+001 
3625000000  -4.415914e+001  -6.640220e+001 
3628125000  -4.371843e+001  -6.851886e+001 
3631250000  -4.402876e+001  -7.570660e+001 
3634375000  -4.538345e+001  -7.461380e+001 
3637500000  -4.494294e+001  -7.241134e+001 
3640625000  -4.454656e+001  -6.838647e+001 
3643750000  -4.408310e+001  -7.614539e+001 
3646875000  -4.472623e+001  -8.446189e+001 
3650000000  -4.533340e+001  -8.090157e+001 
3653125000  -4.528387e+001  -8.028357e+001 
3656250000  -4.596410e+001  -8.167924e+001 
3659375000  -4.580499e+001  -7.927929e+001 
3662500000  -4.526961e+001  -8.130581e+001 
3665625000  -4.507270e+001  -7.855063e+001 
3668750000  -4.392104e+001  -8.019315e+001 
3671875000  -4.309780e+001  -8.757781e+001 
3675000000  -4.314655e+001  -9.218207e+001 
3678125000  -4.370393e+001  -9.495338e+001 
3681250000  -4.322926e+001  -9.620293e+001 
3684375000  -4.279022e+001  -9.946889e+001 
3687500000  -4.307901e+001  -1.055235e+002 
3690625000  -4.309575e+001  -1.084042e+002 
3693750000  -4.411180e+001  -1.061436e+002 
3696875000  -4.388821e+001  -1.070887e+002 
3700000000  -4.286220e+001  -1.144902e+002 
3703125000  -4.274081e+001  -1.199875e+002 
3706250000  -4.412116e+001  -1.186031e+002 
3709375000  -4.342376e+001  -1.177001e+002 
3712500000  -4.258263e+001  -1.210773e+002 
3715625000  -4.146608e+001  -1.268494e+002 
3718750000  -4.123853e+001  -1.327435e+002 
3721875000  -4.124448e+001  -1.388516e+002 
3725000000  -4.151861e+001  -1.449326e+002 
3728125000  -4.201953e+001  -1.466741e+002 
3731250000  -4.115026e+001  -1.491249e+002 
3734375000  -4.108039e+001  -1.560866e+002 
3737500000  -4.204198e+001  -1.635783e+002 
3740625000  -4.283432e+001  -1.671710e+002 
3743750000  -4.299042e+001  -1.675998e+002 
3746875000  -4.349292e+001  -1.726465e+002 
3750000000  -4.390319e+001  -1.746279e+002 
3753125000  -4.424315e+001  -1.738922e+002 
3756250000  -4.429690e+001  -1.746830e+002 
3759375000  -4.442869e+001  -1.727013e+002 
3762500000  -4.381438e+001  -1.765966e+002 
3765625000  -4.447363e+001  -1.763903e+002 
3768750000  -4.440441e+001  -1.716859e+002 
3771875000  -4.314114e+001  -1.736055e+002 
3775000000  -4.289854e+001  1.784619e+002 
3778125000  -4.313802e+001  1.782624e+002 
3781250000  -4.297940e+001  1.766147e+002 
3784375000  -4.262926e+001  1.755913e+002 
3787500000  -4.195745e+001  1.739626e+002 
3790625000  -4.266321e+001  1.654048e+002 
3793750000  -4.238906e+001  1.664861e+002 
3796875000  -4.136330e+001  1.652720e+002 
3800000000  -3.971753e+001  1.629635e+002 
3803125000  -4.024125e+001  1.524171e+002 
3806250000  -4.107731e+001  1.499171e+002 
3809375000  -4.080459e+001  1.476497e+002 
3812500000  -4.004654e+001  1.418868e+002 
3815625000  -4.039969e+001  1.315431e+002 
3818750000  -4.156444e+001  1.305083e+002 
3821875000  -4.147712e+001  1.409940e+002 
3825000000  -3.959814e+001  1.400395e+002 
3828125000  -3.817247e+001  1.268227e+002 
3831250000  -3.865192e+001  1.093374e+002 
3834375000  -4.032835e+001  1.095228e+002 
3837500000  -4.125351e+001  1.148538e+002 
3840625000  -3.964708e+001  1.125882e+002 
3843750000  -3.876658e+001  9.881097e+001 
3846875000  -3.977970e+001  9.237181e+001 
3850000000  -4.133225e+001  9.930571e+001 
3853125000  -4.014267e+001  1.005317e+002 
3856250000  -4.039692e+001  9.358732e+001 
3859375000  -3.945484e+001  8.865430e+001 
3862500000  -3.934467e+001  7.869964e+001 
3865625000  -3.975944e+001  7.487246e+001 
3868750000  -3.955800e+001  7.323399e+001 
3871875000  -3.888024e+001  7.161573e+001 
3875000000  -3.929993e+001  5.974944e+001 
3878125000  -4.063656e+001  5.909558e+001 
3881250000  -4.064500e+001  6.059284e+001 
3884375000  -4.018856e+001  5.555549e+001 
3887500000  -4.027618e+001  5.197557e+001 
3890625000  -4.077523e+001  4.784269e+001 
3893750000  -4.084742e+001  4.704232e+001 
3896875000  -4.142896e+001  4.722749e+001 
3900000000  -4.150139e+001  4.570681e+001 
3903125000  -4.114497e+001  4.134553e+001 
3906250000  -4.089922e+001  4.054058e+001 
3909375000  -4.006828e+001  3.929331e+001 
3912500000  -4.025736e+001  2.991576e+001 
3915625000  -4.156174e+001  3.227384e+001 
3918750000  -4.104266e+001  3.270837e+001 
3921875000  -4.088915e+001  2.911208e+001 
3925000000  -3.986444e+001  2.680355e+001 
3928125000  -3.925616e+001  1.945012e+001 
3931250000  -3.964885e+001  1.513213e+001 
3934375000  -4.010188e+001  1.437700e+001 
3937500000  -4.017409e+001  1.357509e+001 
3940625000  -4.067406e+001  1.008568e+001 
3943750000  -3.931101e+001  1.125466e+001 
3946875000  -3.858686e+001  5.145494e+000 
3950000000  -3.899339e+001  -3.543501e+000 
3953125000  -4.048637e+001  -4.083312e+000 
3956250000  -3.901628e+001  -3.497270e+000 
3959375000  -3.775822e+001  -7.295659e+000 
3962500000  -3.753709e+001  -1.254268e+001 
3965625000  -3.726438e+001  -2.121287e+001 
3968750000  -3.840173e+001  -3.002450e+001 
3971875000  -3.855353e+001  -3.130065e+001 
3975000000  -3.791452e+001  -3.443724e+001 
3978125000  -3.818061e+001  -3.779024e+001 
3981250000  -3.771895e+001  -4.246384e+001 
3984375000  -3.827029e+001  -4.912809e+001 
3987500000  -3.858801e+001  -5.141713e+001 
3990625000  -3.874388e+001  -5.199104e+001 
3993750000  -3.887095e+001  -5.790169e+001 
3996875000  -3.892458e+001  -6.048372e+001 
4000000000  -3.936024e+001  -6.227077e+001 
4003125000  -3.968471e+001  -5.870692e+001 
4006250000  -3.823373e+001  -6.230592e+001 
4009375000  -3.739087e+001  -7.442706e+001 
4012500000  -3.862456e+001  -8.237933e+001 
4015625000  -3.990725e+001  -7.866584e+001 
4018750000  -3.986234e+001  -7.997195e+001 
4021875000  -3.936332e+001  -8.300452e+001 
4025000000  -3.897254e+001  -8.702840e+001 
4028125000  -3.870093e+001  -9.206490e+001 
4031250000  -3.941913e+001  -9.651376e+001 
4034375000  -3.971902e+001  -9.578693e+001 
4037500000  -3.921373e+001  -9.545428e+001 
4040625000  -3.915316e+001  -9.881829e+001 
4043750000  -3.931279e+001  -1.000463e+002 
4046875000  -3.899867e+001  -1.015127e+002 
4050000000  -3.827120e+001  -1.083488e+002 
4053125000  -3.908776e+001  -1.107979e+002 
4056250000  -3.956252e+001  -1.056319e+002 
4059375000  -3.763665e+001  -1.045373e+002 
4062500000  -3.672364e+001  -1.111042e+002 
4065625000  -3.657922e+001  -1.157164e+002 
4068750000  -3.640416e+001  -1.219225e+002 
4071875000  -3.569966e+001  -1.314256e+002 
4075000000  -3.620798e+001  -1.374952e+002 
4078125000  -3.681350e+001  -1.403039e+002 
4081250000  -3.612743e+001  -1.428515e+002 
4084375000  -3.573489e+001  -1.513263e+002 
4087500000  -3.627116e+001  -1.587264e+002 
4090625000  -3.683383e+001  -1.595937e+002 
4093750000  -3.668647e+001  -1.597054e+002 
4096875000  -3.623353e+001  -1.678402e+002 
4100000000  -3.715090e+001  -1.753205e+002 
4103125000  -3.786123e+001  -1.741196e+002 
4106250000  -3.780558e+001  -1.708042e+002 
4109375000  -3.677426e+001  -1.713266e+002 
4112500000  -3.610795e+001  -1.796470e+002 
4115625000  -3.661469e+001  1.751866e+002 
4118750000  -3.669021e+001  1.719269e+002 
4121875000  -3.643814e+001  1.660456e+002 
4125000000  -3.686783e+001  1.582467e+002 
4128125000  -3.797133e+001  1.599514e+002 
4131250000  -3.745882e+001  1.685546e+002 
4134375000  -3.520726e+001  1.602829e+002 
4137500000  -3.517595e+001  1.410436e+002 
4140625000  -3.735887e+001  1.338910e+002 
4143750000  -3.868439e+001  1.383192e+002 
4146875000  -3.851719e+001  1.444484e+002 
4150000000  -3.747892e+001  1.410658e+002 
4153125000  -3.743327e+001  1.329247e+002 
4156250000  -3.845145e+001  1.307109e+002 
4159375000  -3.872253e+001  1.348810e+002 
4162500000  -3.768652e+001  1.388073e+002 
4165625000  -3.643796e+001  1.325496e+002 
4168750000  -3.580014e+001  1.263915e+002 
4171875000  -3.589342e+001  1.157079e+002 
4175000000  -3.646912e+001  1.095855e+002 
4178125000  -3.708881e+001  1.108574e+002 
4181250000  -3.669737e+001  1.077856e+002 
4184375000  -3.668103e+001  1.045100e+002 
4187500000  -3.670484e+001  1.019209e+002 
4190625000  -3.667876e+001  9.581441e+001 
4193750000  -3.760012e+001  9.047012e+001 
4196875000  -3.810988e+001  9.025431e+001 
4200000000  -3.917434e+001  9.236123e+001 
4203125000  -3.866934e+001  1.072668e+002 
4206250000  -3.524398e+001  1.050690e+002 
4209375000  -3.420705e+001  8.391610e+001 
4212500000  -3.618523e+001  7.410172e+001 
4215625000  -3.719143e+001  8.095984e+001 
4218750000  -3.552635e+001  8.610656e+001 
4221875000  -3.351258e+001  7.641597e+001 
4225000000  -3.488660e+001  6.350773e+001 
4228125000  -3.536974e+001  6.731091e+001 
4231250000  -3.365319e+001  6.241146e+001 
4234375000  -3.353063e+001  5.300063e+001 
4237500000  -3.299092e+001  4.896344e+001 
4240625000  -3.313585e+001  3.806634e+001 
4243750000  -3.436059e+001  2.879195e+001 
4246875000  -3.518954e+001  2.935644e+001 
4250000000  -3.512636e+001  3.178499e+001 
4253125000  -3.445372e+001  2.806899e+001 
4256250000  -3.500815e+001  2.335351e+001 
4259375000  -3.454138e+001  1.975657e+001 
4262500000  -3.480472e+001  1.424422e+001 
4265625000  -3.492843e+001  1.379082e+001 
4268750000  -3.400395e+001  9.890881e+000 
4271875000  -3.397453e+001  1.578205e+000 
4275000000  -3.348178e+001  -5.481295e+000 
4278125000  -3.438951e+001  -1.760645e+001 
4281250000  -3.617726e+001  -1.958917e+001 
4284375000  -3.581623e+001  -2.099777e+001 
4287500000  -3.689404e+001  -2.204080e+001 
4290625000  -3.797895e+001  -1.391938e+001 
4293750000  -3.620348e+001  -8.969573e+000 
4296875000  -3.479103e+001  -2.112510e+001 
4300000000  -3.587911e+001  -2.999102e+001 
4303125000  -3.710047e+001  -2.839587e+001 
4306250000  -3.625843e+001  -2.365716e+001 
4309375000  -3.510649e+001  -2.518320e+001 
4312500000  -3.490852e+001  -3.343784e+001 
4315625000  -3.504740e+001  -3.976514e+001 
4318750000  -3.541590e+001  -4.258187e+001 
4321875000  -3.548409e+001  -4.227233e+001 
4325000000  -3.490512e+001  -4.234753e+001 
4328125000  -3.422668e+001  -4.928881e+001 
4331250000  -3.403048e+001  -5.804266e+001 
4334375000  -3.453324e+001  -6.343275e+001 
4337500000  -3.549517e+001  -6.507815e+001 
4340625000  -3.596650e+001  -6.337706e+001 
4343750000  -3.493732e+001  -6.274167e+001 
4346875000  -3.451587e+001  -7.026884e+001 
4350000000  -3.431623e+001  -7.595094e+001 
4353125000  -3.432151e+001  -8.493456e+001 
4356250000  -3.648934e+001  -8.374940e+001 
4359375000  -3.656562e+001  -7.067488e+001 
4362500000  -3.351133e+001  -7.323132e+001 
4365625000  -3.207449e+001  -8.695767e+001 
4368750000  -3.292221e+001  -9.904961e+001 
4371875000  -3.396549e+001  -9.932800e+001 
4375000000  -3.345711e+001  -1.009838e+002 
4378125000  -3.294436e+001  -1.069188e+002 
4381250000  -3.307746e+001  -1.142449e+002 
4384375000  -3.283764e+001  -1.204761e+002 
4387500000  -3.378927e+001  -1.281521e+002 
4390625000  -3.464439e+001  -1.273426e+002 
4393750000  -3.399922e+001  -1.261166e+002 
4396875000  -3.328683e+001  -1.297599e+002 
4400000000  -3.288419e+001  -1.384154e+002 
4403125000  -3.365282e+001  -1.473828e+002 
4406250000  -3.443723e+001  -1.492062e+002 
4409375000  -3.462784e+001  -1.517548e+002 
4412500000  -3.574380e+001  -1.557684e+002 
4415625000  -3.624095e+001  -1.518900e+002 
