!Agilent Technologies,E8363B,MY43030201,A.06.04.32
!Agilent E8363B: A.06.04.32
!Date: Tuesday, November 11, 2014 21:03:23
!Correction: S21(Response(S21)) 
!S1P File: Measurement: S21:
# Hz S  dB   R 50
3000000000  -3.628590e+001  -4.832452e+001 
3003125000  -3.738509e+001  -5.458444e+001 
3006250000  -3.732603e+001  -5.702127e+001 
3009375000  -3.762693e+001  -5.205769e+001 
3012500000  -3.689737e+001  -5.367779e+001 
3015625000  -3.596434e+001  -6.106073e+001 
3018750000  -3.676196e+001  -6.267365e+001 
3021875000  -3.533553e+001  -6.141665e+001 
3025000000  -3.405775e+001  -6.516678e+001 
3028125000  -3.315417e+001  -7.099374e+001 
3031250000  -3.216225e+001  -8.211212e+001 
3034375000  -3.169885e+001  -9.594146e+001 
3037500000  -3.221049e+001  -1.078745e+002 
3040625000  -3.349978e+001  -1.130629e+002 
3043750000  -3.421503e+001  -1.179213e+002 
3046875000  -3.440451e+001  -1.238755e+002 
3050000000  -3.613355e+001  -1.306898e+002 
3053125000  -3.606429e+001  -1.246001e+002 
3056250000  -3.561011e+001  -1.204128e+002 
3059375000  -3.570242e+001  -1.215171e+002 
3062500000  -3.417669e+001  -1.247214e+002 
3065625000  -3.393531e+001  -1.303961e+002 
3068750000  -3.357255e+001  -1.375697e+002 
3071875000  -3.358754e+001  -1.404097e+002 
3075000000  -3.333247e+001  -1.437031e+002 
3078125000  -3.303721e+001  -1.474485e+002 
3081250000  -3.354132e+001  -1.522537e+002 
3084375000  -3.265782e+001  -1.554864e+002 
3087500000  -3.242046e+001  -1.596109e+002 
3090625000  -3.194823e+001  -1.695278e+002 
3093750000  -3.237725e+001  -1.773955e+002 
3096875000  -3.337033e+001  1.769472e+002 
3100000000  -3.336047e+001  1.749304e+002 
3103125000  -3.350860e+001  1.753946e+002 
3106250000  -3.311034e+001  1.714011e+002 
3109375000  -3.322716e+001  1.668473e+002 
3112500000  -3.317222e+001  1.653522e+002 
3115625000  -3.272507e+001  1.600958e+002 
3118750000  -3.310387e+001  1.598933e+002 
3121875000  -3.222733e+001  1.510708e+002 
3125000000  -3.343351e+001  1.464284e+002 
3128125000  -3.455061e+001  1.540303e+002 
3131250000  -3.202105e+001  1.522640e+002 
3134375000  -3.070330e+001  1.368061e+002 
3137500000  -3.133837e+001  1.218904e+002 
3140625000  -3.279881e+001  1.192800e+002 
3143750000  -3.376011e+001  1.207378e+002 
3146875000  -3.330677e+001  1.221108e+002 
3150000000  -3.237469e+001  1.225316e+002 
3153125000  -3.230044e+001  1.126642e+002 
3156250000  -3.331248e+001  1.174414e+002 
3159375000  -3.161992e+001  1.192062e+002 
3162500000  -2.978588e+001  1.044452e+002 
3165625000  -3.072903e+001  9.212869e+001 
3168750000  -3.103576e+001  9.236015e+001 
3171875000  -3.022668e+001  8.680439e+001 
3175000000  -3.096500e+001  7.806470e+001 
3178125000  -3.072174e+001  7.858637e+001 
3181250000  -2.966324e+001  7.396260e+001 
3184375000  -2.892869e+001  6.056291e+001 
3187500000  -3.011892e+001  4.535672e+001 
3190625000  -3.284106e+001  3.707555e+001 
3193750000  -3.350956e+001  4.565490e+001 
3196875000  -3.315778e+001  5.056355e+001 
3200000000  -3.224649e+001  4.776077e+001 
3203125000  -3.132924e+001  4.181417e+001 
3206250000  -3.175732e+001  3.547121e+001 
3209375000  -3.127064e+001  2.947219e+001 
3212500000  -3.146511e+001  2.252876e+001 
3215625000  -3.155388e+001  1.857028e+001 
3218750000  -3.227156e+001  1.145308e+001 
3221875000  -3.315939e+001  6.597821e+000 
3225000000  -3.277972e+001  4.900189e+000 
3228125000  -3.313210e+001  1.432618e-002 
3231250000  -3.379820e+001  -2.241561e+000 
3234375000  -3.348003e+001  -2.292906e+000 
3237500000  -3.355255e+001  -5.020455e+000 
3240625000  -3.305381e+001  -6.599121e+000 
3243750000  -3.266764e+001  -1.525893e+001 
3246875000  -3.308922e+001  -2.171902e+001 
3250000000  -3.341201e+001  -2.367518e+001 
3253125000  -3.359566e+001  -2.595546e+001 
3256250000  -3.323235e+001  -3.283346e+001 
3259375000  -3.358265e+001  -4.168520e+001 
3262500000  -3.470056e+001  -4.494754e+001 
3265625000  -3.520747e+001  -4.215553e+001 
3268750000  -3.518196e+001  -4.014883e+001 
3271875000  -3.478489e+001  -4.063804e+001 
3275000000  -3.375701e+001  -4.660635e+001 
3278125000  -3.416308e+001  -5.356109e+001 
3281250000  -3.437760e+001  -5.304633e+001 
3284375000  -3.389271e+001  -6.019123e+001 
3287500000  -3.403011e+001  -6.359752e+001 
3290625000  -3.441203e+001  -7.008542e+001 
3293750000  -3.411037e+001  -7.531941e+001 
3296875000  -3.508807e+001  -7.576306e+001 
3300000000  -3.491373e+001  -7.613003e+001 
3303125000  -3.368132e+001  -8.108646e+001 
3306250000  -3.353661e+001  -8.820747e+001 
3309375000  -3.321570e+001  -9.447830e+001 
3312500000  -3.334363e+001  -1.058876e+002 
3315625000  -3.433134e+001  -1.138684e+002 
3318750000  -3.570198e+001  -1.157746e+002 
3321875000  -3.690788e+001  -1.171027e+002 
3325000000  -3.739345e+001  -1.117571e+002 
3328125000  -3.719818e+001  -1.113699e+002 
3331250000  -3.579346e+001  -1.039213e+002 
3334375000  -3.316522e+001  -1.153613e+002 
3337500000  -3.319918e+001  -1.340134e+002 
3340625000  -3.467413e+001  -1.454113e+002 
3343750000  -3.650351e+001  -1.466275e+002 
3346875000  -3.685619e+001  -1.441168e+002 
3350000000  -3.615216e+001  -1.458813e+002 
3353125000  -3.623558e+001  -1.510784e+002 
3356250000  -3.591007e+001  -1.588698e+002 
3359375000  -3.654895e+001  -1.679778e+002 
3362500000  -3.770284e+001  -1.736341e+002 
3365625000  -3.823405e+001  -1.740509e+002 
3368750000  -3.903022e+001  -1.759850e+002 
3371875000  -3.904175e+001  -1.783683e+002 
3375000000  -4.038786e+001  1.784636e+002 
3378125000  -4.158260e+001  1.783055e+002 
3381250000  -4.280357e+001  -1.733273e+002 
3384375000  -4.157858e+001  -1.512847e+002 
3387500000  -3.789375e+001  -1.679261e+002 
3390625000  -3.943645e+001  1.734945e+002 
3393750000  -4.083012e+001  1.750076e+002 
3396875000  -3.936240e+001  1.773402e+002 
3400000000  -3.885716e+001  1.699193e+002 
3403125000  -3.949389e+001  1.647519e+002 
3406250000  -3.984024e+001  1.654013e+002 
3409375000  -4.004826e+001  1.571292e+002 
3412500000  -4.055101e+001  1.550839e+002 
3415625000  -4.137044e+001  1.565430e+002 
3418750000  -4.104718e+001  1.559459e+002 
3421875000  -4.143730e+001  1.575596e+002 
3425000000  -4.040195e+001  1.586735e+002 
3428125000  -3.937419e+001  1.547421e+002 
3431250000  -3.938762e+001  1.476114e+002 
3434375000  -3.917996e+001  1.421950e+002 
3437500000  -3.976508e+001  1.378539e+002 
3440625000  -4.000039e+001  1.394499e+002 
3443750000  -3.888673e+001  1.399250e+002 
3446875000  -3.817519e+001  1.317128e+002 
3450000000  -3.773881e+001  1.221858e+002 
3453125000  -3.801426e+001  1.125996e+002 
3456250000  -3.929594e+001  1.043690e+002 
3459375000  -4.032363e+001  1.061574e+002 
3462500000  -4.008131e+001  1.057412e+002 
3465625000  -3.999448e+001  1.014838e+002 
3468750000  -4.029941e+001  9.767725e+001 
3471875000  -4.022580e+001  9.566714e+001 
3475000000  -3.988863e+001  9.015369e+001 
3478125000  -4.060361e+001  8.296101e+001 
3481250000  -4.136292e+001  8.052731e+001 
3484375000  -4.264835e+001  8.602435e+001 
3487500000  -4.175912e+001  8.539012e+001 
3490625000  -4.098465e+001  8.180318e+001 
3493750000  -4.147118e+001  7.516859e+001 
3496875000  -4.217547e+001  7.267881e+001 
3500000000  -4.277699e+001  7.636987e+001 
3503125000  -4.242000e+001  7.775320e+001 
3506250000  -4.102469e+001  7.535527e+001 
3509375000  -4.081108e+001  6.435803e+001 
3512500000  -4.132401e+001  5.755076e+001 
3515625000  -4.195408e+001  5.427674e+001 
3518750000  -4.262330e+001  5.466417e+001 
3521875000  -4.218430e+001  5.299273e+001 
3525000000  -4.313166e+001  4.791334e+001 
3528125000  -4.314146e+001  5.688736e+001 
3531250000  -4.184201e+001  5.414068e+001 
3534375000  -4.179796e+001  4.447751e+001 
3537500000  -4.221714e+001  3.859469e+001 
3540625000  -4.311255e+001  3.702683e+001 
3543750000  -4.393893e+001  4.089186e+001 
3546875000  -4.353154e+001  5.197871e+001 
3550000000  -4.082841e+001  5.179583e+001 
3553125000  -3.969521e+001  3.499116e+001 
3556250000  -4.108920e+001  2.709762e+001 
3559375000  -4.072964e+001  2.774483e+001 
3562500000  -3.969731e+001  1.911014e+001 
3565625000  -4.054729e+001  1.136086e+001 
3568750000  -4.109185e+001  1.380517e+001 
3571875000  -4.070752e+001  1.075924e+001 
3575000000  -4.022232e+001  4.081774e+000 
3578125000  -4.070039e+001  -1.758942e+000 
3581250000  -4.098642e+001  -1.627782e+000 
3584375000  -4.037587e+001  -7.055519e+000 
3587500000  -3.989162e+001  -1.518931e+001 
3590625000  -4.054936e+001  -2.397563e+001 
3593750000  -4.159946e+001  -2.546125e+001 
3596875000  -4.207294e+001  -2.062989e+001 
3600000000  -4.045836e+001  -2.662960e+001 
3603125000  -4.085533e+001  -4.097481e+001 
3606250000  -4.192955e+001  -4.508022e+001 
3609375000  -4.238436e+001  -4.628917e+001 
3612500000  -4.320365e+001  -4.825253e+001 
3615625000  -4.377567e+001  -5.193310e+001 
3618750000  -4.422103e+001  -5.170100e+001 
3621875000  -4.430615e+001  -5.421971e+001 
3625000000  -4.474591e+001  -5.610267e+001 
3628125000  -4.490558e+001  -5.667561e+001 
3631250000  -4.516437e+001  -5.711378e+001 
3634375000  -4.604699e+001  -5.664723e+001 
3637500000  -4.607550e+001  -5.350861e+001 
3640625000  -4.503994e+001  -4.813596e+001 
3643750000  -4.486840e+001  -5.453072e+001 
3646875000  -4.482009e+001  -6.045415e+001 
3650000000  -4.535992e+001  -6.157692e+001 
3653125000  -4.514928e+001  -6.060341e+001 
3656250000  -4.525291e+001  -6.207835e+001 
3659375000  -4.510439e+001  -5.963561e+001 
3662500000  -4.429877e+001  -6.063060e+001 
3665625000  -4.413359e+001  -6.374892e+001 
3668750000  -4.302285e+001  -6.306493e+001 
3671875000  -4.201741e+001  -7.036234e+001 
3675000000  -4.200688e+001  -7.777045e+001 
3678125000  -4.253782e+001  -7.952560e+001 
3681250000  -4.213623e+001  -8.296901e+001 
3684375000  -4.198982e+001  -8.966094e+001 
3687500000  -4.230129e+001  -9.229605e+001 
3690625000  -4.214223e+001  -9.703380e+001 
3693750000  -4.328685e+001  -9.788307e+001 
3696875000  -4.279065e+001  -9.952087e+001 
3700000000  -4.216020e+001  -1.044481e+002 
3703125000  -4.244001e+001  -1.101754e+002 
3706250000  -4.367657e+001  -1.112980e+002 
3709375000  -4.304055e+001  -1.077036e+002 
3712500000  -4.226252e+001  -1.120113e+002 
3715625000  -4.142116e+001  -1.172060e+002 
3718750000  -4.134077e+001  -1.247894e+002 
3721875000  -4.129050e+001  -1.311720e+002 
3725000000  -4.159030e+001  -1.369482e+002 
3728125000  -4.232462e+001  -1.379862e+002 
3731250000  -4.168665e+001  -1.407497e+002 
3734375000  -4.151915e+001  -1.465537e+002 
3737500000  -4.246679e+001  -1.553128e+002 
3740625000  -4.345149e+001  -1.577999e+002 
3743750000  -4.332505e+001  -1.591501e+002 
3746875000  -4.397722e+001  -1.602070e+002 
3750000000  -4.496789e+001  -1.612700e+002 
3753125000  -4.480502e+001  -1.596096e+002 
3756250000  -4.479679e+001  -1.585244e+002 
3759375000  -4.502543e+001  -1.568183e+002 
3762500000  -4.479847e+001  -1.609152e+002 
3765625000  -4.486150e+001  -1.605981e+002 
3768750000  -4.541628e+001  -1.537654e+002 
3771875000  -4.344403e+001  -1.551463e+002 
3775000000  -4.327424e+001  -1.647398e+002 
3778125000  -4.304834e+001  -1.667855e+002 
3781250000  -4.299689e+001  -1.652010e+002 
3784375000  -4.251799e+001  -1.660260e+002 
3787500000  -4.128581e+001  -1.698729e+002 
3790625000  -4.195685e+001  -1.783300e+002 
3793750000  -4.209985e+001  -1.779484e+002 
3796875000  -4.086605e+001  1.794745e+002 
3800000000  -3.926406e+001  1.773784e+002 
3803125000  -3.987074e+001  1.644501e+002 
3806250000  -4.047464e+001  1.636149e+002 
3809375000  -4.000953e+001  1.604926e+002 
3812500000  -3.959169e+001  1.535647e+002 
3815625000  -3.995188e+001  1.443562e+002 
3818750000  -4.093702e+001  1.428285e+002 
3821875000  -4.098158e+001  1.509300e+002 
3825000000  -3.903966e+001  1.541266e+002 
3828125000  -3.776593e+001  1.365949e+002 
3831250000  -3.857652e+001  1.225267e+002 
3834375000  -3.984243e+001  1.205381e+002 
3837500000  -4.088754e+001  1.223210e+002 
3840625000  -4.002316e+001  1.204468e+002 
3843750000  -3.868484e+001  1.100633e+002 
3846875000  -3.984713e+001  1.031465e+002 
3850000000  -4.074999e+001  1.092449e+002 
3853125000  -4.031580e+001  1.097033e+002 
3856250000  -4.024952e+001  1.025638e+002 
3859375000  -3.954173e+001  9.696308e+001 
3862500000  -3.955807e+001  8.998073e+001 
3865625000  -4.005016e+001  8.513006e+001 
3868750000  -3.989978e+001  8.319292e+001 
3871875000  -3.905794e+001  8.054381e+001 
3875000000  -3.983585e+001  7.171630e+001 
3878125000  -4.083916e+001  6.935764e+001 
3881250000  -4.088647e+001  7.195667e+001 
3884375000  -4.041189e+001  6.675769e+001 
3887500000  -4.060844e+001  6.311558e+001 
3890625000  -4.143440e+001  6.185750e+001 
3893750000  -4.160170e+001  5.964462e+001 
3896875000  -4.174382e+001  6.187398e+001 
3900000000  -4.199241e+001  5.982911e+001 
3903125000  -4.129309e+001  5.723447e+001 
3906250000  -4.095535e+001  5.714163e+001 
3909375000  -4.033847e+001  5.478697e+001 
3912500000  -4.025272e+001  4.564652e+001 
3915625000  -4.155532e+001  4.666342e+001 
3918750000  -4.117993e+001  4.658541e+001 
3921875000  -4.079571e+001  4.439108e+001 
3925000000  -3.972902e+001  4.342099e+001 
3928125000  -3.897060e+001  3.724356e+001 
3931250000  -3.947400e+001  3.147178e+001 
3934375000  -3.967981e+001  3.110645e+001 
3937500000  -3.999438e+001  2.897070e+001 
3940625000  -4.023259e+001  2.630405e+001 
3943750000  -3.932462e+001  2.557603e+001 
3946875000  -3.798388e+001  2.005068e+001 
3950000000  -3.857907e+001  1.030426e+001 
3953125000  -3.948937e+001  9.413688e+000 
3956250000  -3.868054e+001  9.843648e+000 
3959375000  -3.753042e+001  5.215189e+000 
3962500000  -3.715727e+001  2.069240e+000 
3965625000  -3.666157e+001  -9.564505e+000 
3968750000  -3.778131e+001  -1.653687e+001 
3971875000  -3.809162e+001  -1.984665e+001 
3975000000  -3.763060e+001  -2.231654e+001 
3978125000  -3.756427e+001  -2.547086e+001 
3981250000  -3.751091e+001  -3.140733e+001 
3984375000  -3.790586e+001  -3.874092e+001 
3987500000  -3.836550e+001  -4.133141e+001 
3990625000  -3.849100e+001  -4.115902e+001 
3993750000  -3.897018e+001  -4.749497e+001 
3996875000  -3.919685e+001  -4.971996e+001 
4000000000  -3.943253e+001  -5.199543e+001 
4003125000  -3.990741e+001  -5.070328e+001 
4006250000  -3.880646e+001  -5.148677e+001 
4009375000  -3.786194e+001  -6.493018e+001 
4012500000  -3.891862e+001  -7.061879e+001 
4015625000  -4.029856e+001  -7.145996e+001 
4018750000  -4.081249e+001  -6.856812e+001 
4021875000  -3.960419e+001  -6.930719e+001 
4025000000  -3.975451e+001  -7.323663e+001 
4028125000  -3.945182e+001  -7.749215e+001 
4031250000  -3.998262e+001  -8.042962e+001 
4034375000  -4.002988e+001  -7.959003e+001 
4037500000  -3.961340e+001  -7.814977e+001 
4040625000  -3.953831e+001  -8.190595e+001 
4043750000  -3.968138e+001  -8.301480e+001 
4046875000  -3.927464e+001  -8.386537e+001 
4050000000  -3.858578e+001  -9.144942e+001 
4053125000  -3.915092e+001  -9.158060e+001 
4056250000  -3.941011e+001  -9.014961e+001 
4059375000  -3.828645e+001  -8.888921e+001 
4062500000  -3.666652e+001  -9.221458e+001 
4065625000  -3.647662e+001  -9.869576e+001 
4068750000  -3.625618e+001  -1.049739e+002 
4071875000  -3.562670e+001  -1.135310e+002 
4075000000  -3.594882e+001  -1.203890e+002 
4078125000  -3.639075e+001  -1.221825e+002 
4081250000  -3.575088e+001  -1.265603e+002 
4084375000  -3.525360e+001  -1.342594e+002 
4087500000  -3.583560e+001  -1.414209e+002 
4090625000  -3.634322e+001  -1.436902e+002 
4093750000  -3.599418e+001  -1.451611e+002 
4096875000  -3.572366e+001  -1.518155e+002 
4100000000  -3.647321e+001  -1.607024e+002 
4103125000  -3.740876e+001  -1.602993e+002 
4106250000  -3.730892e+001  -1.561345e+002 
4109375000  -3.633464e+001  -1.593517e+002 
4112500000  -3.575482e+001  -1.672000e+002 
4115625000  -3.630210e+001  -1.717657e+002 
4118750000  -3.653824e+001  -1.773385e+002 
4121875000  -3.605250e+001  1.774643e+002 
4125000000  -3.666890e+001  1.717951e+002 
4128125000  -3.773182e+001  1.713581e+002 
4131250000  -3.758489e+001  1.782197e+002 
4134375000  -3.521621e+001  1.727078e+002 
4137500000  -3.522028e+001  1.535447e+002 
4140625000  -3.741730e+001  1.458658e+002 
4143750000  -3.900382e+001  1.507702e+002 
4146875000  -3.842120e+001  1.581863e+002 
4150000000  -3.784933e+001  1.529406e+002 
4153125000  -3.777869e+001  1.453241e+002 
4156250000  -3.871199e+001  1.427485e+002 
4159375000  -3.915585e+001  1.488950e+002 
4162500000  -3.804435e+001  1.525393e+002 
4165625000  -3.693595e+001  1.492877e+002 
4168750000  -3.651053e+001  1.422078e+002 
4171875000  -3.609908e+001  1.314559e+002 
4175000000  -3.698922e+001  1.271497e+002 
4178125000  -3.762354e+001  1.271087e+002 
4181250000  -3.718115e+001  1.260057e+002 
4184375000  -3.709854e+001  1.225144e+002 
4187500000  -3.694920e+001  1.189426e+002 
4190625000  -3.691356e+001  1.135825e+002 
4193750000  -3.752945e+001  1.103761e+002 
4196875000  -3.803857e+001  1.100607e+002 
4200000000  -3.916048e+001  1.120948e+002 
4203125000  -3.872412e+001  1.240689e+002 
4206250000  -3.502844e+001  1.237446e+002 
4209375000  -3.421650e+001  1.009926e+002 
4212500000  -3.598815e+001  9.282776e+001 
4215625000  -3.686500e+001  1.000408e+002 
4218750000  -3.505951e+001  1.035532e+002 
4221875000  -3.291398e+001  9.373183e+001 
4225000000  -3.412369e+001  7.978348e+001 
4228125000  -3.500933e+001  8.339727e+001 
4231250000  -3.341049e+001  7.918943e+001 
4234375000  -3.324968e+001  6.968171e+001 
4237500000  -3.283908e+001  6.457462e+001 
4240625000  -3.286129e+001  5.508928e+001 
4243750000  -3.380173e+001  4.743446e+001 
4246875000  -3.467982e+001  4.632857e+001 
4250000000  -3.466164e+001  4.827907e+001 
4253125000  -3.418666e+001  4.471243e+001 
4256250000  -3.434985e+001  3.860532e+001 
4259375000  -3.417046e+001  3.512450e+001 
4262500000  -3.439958e+001  2.994639e+001 
4265625000  -3.445005e+001  2.927146e+001 
4268750000  -3.366317e+001  2.483841e+001 
4271875000  -3.348585e+001  1.762463e+001 
4275000000  -3.308341e+001  8.547462e+000 
4278125000  -3.372999e+001  -3.163589e+000 
4281250000  -3.575531e+001  -4.143700e+000 
4284375000  -3.547236e+001  -5.981927e+000 
4287500000  -3.651236e+001  -1.000802e+001 
4290625000  -3.801085e+001  -1.410313e-001 
4293750000  -3.612478e+001  4.489062e+000 
4296875000  -3.477590e+001  -6.685212e+000 
4300000000  -3.588210e+001  -1.621343e+001 
4303125000  -3.704523e+001  -1.392796e+001 
4306250000  -3.608681e+001  -9.142159e+000 
4309375000  -3.496975e+001  -1.256726e+001 
4312500000  -3.475315e+001  -2.077632e+001 
4315625000  -3.498719e+001  -2.531189e+001 
4318750000  -3.536747e+001  -2.833678e+001 
4321875000  -3.555106e+001  -2.677998e+001 
4325000000  -3.491032e+001  -2.704421e+001 
4328125000  -3.407469e+001  -3.372443e+001 
4331250000  -3.412950e+001  -4.219637e+001 
4334375000  -3.457915e+001  -4.652799e+001 
4337500000  -3.517015e+001  -4.875304e+001 
4340625000  -3.570571e+001  -4.646299e+001 
4343750000  -3.492511e+001  -4.688292e+001 
4346875000  -3.443390e+001  -5.254680e+001 
4350000000  -3.427813e+001  -5.760572e+001 
4353125000  -3.420584e+001  -6.611678e+001 
4356250000  -3.598257e+001  -6.793066e+001 
4359375000  -3.622870e+001  -5.519555e+001 
4362500000  -3.342228e+001  -5.544728e+001 
4365625000  -3.167373e+001  -6.886522e+001 
4368750000  -3.255155e+001  -8.306535e+001 
4371875000  -3.355913e+001  -8.146667e+001 
4375000000  -3.307743e+001  -8.224582e+001 
4378125000  -3.237025e+001  -8.902628e+001 
4381250000  -3.255552e+001  -9.617625e+001 
4384375000  -3.245878e+001  -1.035464e+002 
4387500000  -3.312190e+001  -1.103675e+002 
4390625000  -3.397008e+001  -1.110072e+002 
4393750000  -3.338128e+001  -1.099076e+002 
4396875000  -3.272351e+001  -1.136285e+002 
4400000000  -3.211981e+001  -1.223471e+002 
4403125000  -3.293226e+001  -1.311067e+002 
4406250000  -3.385245e+001  -1.344505e+002 
4409375000  -3.380673e+001  -1.379615e+002 
4412500000  -3.491912e+001  -1.413944e+002 
4415625000  -3.518311e+001  -1.369835e+002 
