!Agilent Technologies,E8363B,MY43030201,A.06.04.32
!Agilent E8363B: A.06.04.32
!Date: Tuesday, November 11, 2014 21:03:57
!Correction: S21(Response(S21)) 
!S1P File: Measurement: S21:
# Hz S  dB   R 50
3000000000  -3.638972e+001  -4.665650e+001 
3003125000  -3.752857e+001  -5.248146e+001 
3006250000  -3.734448e+001  -5.547768e+001 
3009375000  -3.766290e+001  -5.112744e+001 
3012500000  -3.706624e+001  -5.276586e+001 
3015625000  -3.606084e+001  -5.960251e+001 
3018750000  -3.684306e+001  -6.176410e+001 
3021875000  -3.536840e+001  -6.013977e+001 
3025000000  -3.410943e+001  -6.430351e+001 
3028125000  -3.318516e+001  -6.962857e+001 
3031250000  -3.217582e+001  -8.126788e+001 
3034375000  -3.173875e+001  -9.572114e+001 
3037500000  -3.215144e+001  -1.073178e+002 
3040625000  -3.350226e+001  -1.123184e+002 
3043750000  -3.421018e+001  -1.169170e+002 
3046875000  -3.426573e+001  -1.238042e+002 
3050000000  -3.609250e+001  -1.298252e+002 
3053125000  -3.603455e+001  -1.241272e+002 
3056250000  -3.542535e+001  -1.206385e+002 
3059375000  -3.572081e+001  -1.212964e+002 
3062500000  -3.405277e+001  -1.239500e+002 
3065625000  -3.385252e+001  -1.310190e+002 
3068750000  -3.357452e+001  -1.371394e+002 
3071875000  -3.354309e+001  -1.397864e+002 
3075000000  -3.332216e+001  -1.441860e+002 
3078125000  -3.299447e+001  -1.481830e+002 
3081250000  -3.350644e+001  -1.520281e+002 
3084375000  -3.261644e+001  -1.557789e+002 
3087500000  -3.244157e+001  -1.594781e+002 
3090625000  -3.192890e+001  -1.697543e+002 
3093750000  -3.243695e+001  -1.768257e+002 
3096875000  -3.336550e+001  1.766393e+002 
3100000000  -3.335616e+001  1.748618e+002 
3103125000  -3.362380e+001  1.757244e+002 
3106250000  -3.317165e+001  1.714991e+002 
3109375000  -3.328630e+001  1.672208e+002 
3112500000  -3.314875e+001  1.651155e+002 
3115625000  -3.283792e+001  1.604102e+002 
3118750000  -3.313061e+001  1.610014e+002 
3121875000  -3.236823e+001  1.508302e+002 
3125000000  -3.341242e+001  1.470413e+002 
3128125000  -3.448096e+001  1.546866e+002 
3131250000  -3.203571e+001  1.523387e+002 
3134375000  -3.080091e+001  1.375757e+002 
3137500000  -3.126611e+001  1.231218e+002 
3140625000  -3.278281e+001  1.200189e+002 
3143750000  -3.378803e+001  1.213896e+002 
3146875000  -3.333908e+001  1.228366e+002 
3150000000  -3.237200e+001  1.227744e+002 
3153125000  -3.223522e+001  1.136811e+002 
3156250000  -3.327450e+001  1.186904e+002 
3159375000  -3.166644e+001  1.194961e+002 
3162500000  -2.966635e+001  1.054282e+002 
3165625000  -3.069734e+001  9.308794e+001 
3168750000  -3.107088e+001  9.324924e+001 
3171875000  -3.016107e+001  8.726019e+001 
3175000000  -3.085732e+001  7.911639e+001 
3178125000  -3.065996e+001  7.930327e+001 
3181250000  -2.956063e+001  7.410040e+001 
3184375000  -2.885908e+001  6.102848e+001 
3187500000  -3.001913e+001  4.514259e+001 
3190625000  -3.275594e+001  3.788275e+001 
3193750000  -3.336290e+001  4.636163e+001 
3196875000  -3.297301e+001  5.124031e+001 
3200000000  -3.200798e+001  4.862117e+001 
3203125000  -3.128146e+001  4.213015e+001 
3206250000  -3.159263e+001  3.549230e+001 
3209375000  -3.109179e+001  2.915361e+001 
3212500000  -3.131388e+001  2.269314e+001 
3215625000  -3.140429e+001  1.807270e+001 
3218750000  -3.220149e+001  1.083629e+001 
3221875000  -3.298058e+001  6.599693e+000 
3225000000  -3.255458e+001  4.398787e+000 
3228125000  -3.291660e+001  -5.305004e-001 
3231250000  -3.367212e+001  -3.301558e+000 
3234375000  -3.340854e+001  -2.466961e+000 
3237500000  -3.336824e+001  -4.772209e+000 
3240625000  -3.302365e+001  -7.352861e+000 
3243750000  -3.265350e+001  -1.490620e+001 
3246875000  -3.298030e+001  -2.190136e+001 
3250000000  -3.346082e+001  -2.440394e+001 
3253125000  -3.359245e+001  -2.644572e+001 
3256250000  -3.320570e+001  -3.333365e+001 
3259375000  -3.348508e+001  -4.206543e+001 
3262500000  -3.460556e+001  -4.539654e+001 
3265625000  -3.528792e+001  -4.341531e+001 
3268750000  -3.505886e+001  -4.135412e+001 
3271875000  -3.487902e+001  -4.145350e+001 
3275000000  -3.378831e+001  -4.787604e+001 
3278125000  -3.422871e+001  -5.479358e+001 
3281250000  -3.437139e+001  -5.263948e+001 
3284375000  -3.395357e+001  -6.050702e+001 
3287500000  -3.405549e+001  -6.367610e+001 
3290625000  -3.438899e+001  -6.990969e+001 
3293750000  -3.410833e+001  -7.565988e+001 
3296875000  -3.509465e+001  -7.643153e+001 
3300000000  -3.501828e+001  -7.515301e+001 
3303125000  -3.368706e+001  -8.067073e+001 
3306250000  -3.343070e+001  -8.795664e+001 
3309375000  -3.322065e+001  -9.444270e+001 
3312500000  -3.321958e+001  -1.055793e+002 
3315625000  -3.433885e+001  -1.132362e+002 
3318750000  -3.570332e+001  -1.159964e+002 
3321875000  -3.684459e+001  -1.166269e+002 
3325000000  -3.733714e+001  -1.118327e+002 
3328125000  -3.685949e+001  -1.092439e+002 
3331250000  -3.564907e+001  -1.040690e+002 
3334375000  -3.308284e+001  -1.139763e+002 
3337500000  -3.306646e+001  -1.336406e+002 
3340625000  -3.443993e+001  -1.448179e+002 
3343750000  -3.651397e+001  -1.464156e+002 
3346875000  -3.661694e+001  -1.439401e+002 
3350000000  -3.598277e+001  -1.455832e+002 
3353125000  -3.606604e+001  -1.500341e+002 
3356250000  -3.555853e+001  -1.589939e+002 
3359375000  -3.627995e+001  -1.666793e+002 
3362500000  -3.739245e+001  -1.732313e+002 
3365625000  -3.794660e+001  -1.742954e+002 
3368750000  -3.856256e+001  -1.768682e+002 
3371875000  -3.883317e+001  -1.785043e+002 
3375000000  -4.024177e+001  1.786665e+002 
3378125000  -4.137230e+001  1.787347e+002 
3381250000  -4.238990e+001  -1.715196e+002 
3384375000  -4.109564e+001  -1.512294e+002 
3387500000  -3.749160e+001  -1.685311e+002 
3390625000  -3.921816e+001  1.716015e+002 
3393750000  -4.022500e+001  1.769985e+002 
3396875000  -3.908917e+001  1.776957e+002 
3400000000  -3.854876e+001  1.698873e+002 
3403125000  -3.936163e+001  1.636386e+002 
3406250000  -3.956140e+001  1.634384e+002 
3409375000  -3.991111e+001  1.555679e+002 
3412500000  -4.023894e+001  1.532595e+002 
3415625000  -4.098842e+001  1.537748e+002 
3418750000  -4.096455e+001  1.565317e+002 
3421875000  -4.125356e+001  1.555790e+002 
3425000000  -4.030145e+001  1.577731e+002 
3428125000  -3.941470e+001  1.539307e+002 
3431250000  -3.912580e+001  1.461936e+002 
3434375000  -3.910936e+001  1.407735e+002 
3437500000  -3.975740e+001  1.378022e+002 
3440625000  -3.982899e+001  1.383338e+002 
3443750000  -3.871700e+001  1.406177e+002 
3446875000  -3.781425e+001  1.321983e+002 
3450000000  -3.762336e+001  1.219321e+002 
3453125000  -3.782751e+001  1.123041e+002 
3456250000  -3.897229e+001  1.057000e+002 
3459375000  -3.989729e+001  1.056821e+002 
3462500000  -3.979688e+001  1.062195e+002 
3465625000  -3.973129e+001  1.012501e+002 
3468750000  -4.009246e+001  9.564552e+001 
3471875000  -3.995433e+001  9.599207e+001 
3475000000  -3.940818e+001  9.044671e+001 
3478125000  -4.021365e+001  8.265350e+001 
3481250000  -4.126090e+001  8.082581e+001 
3484375000  -4.208287e+001  8.284771e+001 
3487500000  -4.157022e+001  8.266364e+001 
3490625000  -4.066063e+001  7.941567e+001 
3493750000  -4.127890e+001  7.174107e+001 
3496875000  -4.195512e+001  7.089622e+001 
3500000000  -4.236993e+001  7.454366e+001 
3503125000  -4.172554e+001  7.408219e+001 
3506250000  -4.041640e+001  7.126057e+001 
3509375000  -4.047296e+001  6.090581e+001 
3512500000  -4.121042e+001  5.203980e+001 
3515625000  -4.185565e+001  4.939913e+001 
3518750000  -4.264891e+001  4.854886e+001 
3521875000  -4.235566e+001  4.706373e+001 
3525000000  -4.355308e+001  4.328082e+001 
3528125000  -4.346131e+001  5.110301e+001 
3531250000  -4.231987e+001  4.902405e+001 
3534375000  -4.210679e+001  3.882277e+001 
3537500000  -4.280032e+001  3.523661e+001 
3540625000  -4.348642e+001  3.331319e+001 
3543750000  -4.431543e+001  3.634492e+001 
3546875000  -4.437108e+001  4.884170e+001 
3550000000  -4.148777e+001  5.024289e+001 
3553125000  -4.031016e+001  3.088836e+001 
3556250000  -4.164750e+001  2.725643e+001 
3559375000  -4.149929e+001  2.670577e+001 
3562500000  -4.039026e+001  1.880795e+001 
3565625000  -4.097279e+001  1.072246e+001 
3568750000  -4.152654e+001  1.466147e+001 
3571875000  -4.114082e+001  1.342513e+001 
3575000000  -4.083138e+001  6.055870e+000 
3578125000  -4.127847e+001  1.560673e+000 
3581250000  -4.130814e+001  2.324996e-002 
3584375000  -4.058828e+001  -2.952444e+000 
3587500000  -4.014463e+001  -1.064386e+001 
3590625000  -4.045380e+001  -2.288818e+001 
3593750000  -4.162523e+001  -2.351204e+001 
3596875000  -4.185596e+001  -1.821235e+001 
3600000000  -4.020044e+001  -2.384282e+001 
3603125000  -4.086197e+001  -3.874714e+001 
3606250000  -4.158762e+001  -4.276059e+001 
3609375000  -4.192966e+001  -4.558171e+001 
3612500000  -4.291227e+001  -5.067370e+001 
3615625000  -4.265996e+001  -5.102848e+001 
3618750000  -4.379853e+001  -5.461383e+001 
3621875000  -4.376801e+001  -5.429985e+001 
3625000000  -4.419463e+001  -5.446621e+001 
3628125000  -4.476455e+001  -5.615029e+001 
3631250000  -4.403295e+001  -6.433000e+001 
3634375000  -4.568291e+001  -6.276121e+001 
3637500000  -4.532783e+001  -5.830970e+001 
3640625000  -4.469940e+001  -5.651903e+001 
3643750000  -4.435263e+001  -6.422726e+001 
3646875000  -4.503783e+001  -7.170992e+001 
3650000000  -4.548037e+001  -6.996487e+001 
3653125000  -4.543550e+001  -6.864690e+001 
3656250000  -4.623800e+001  -7.021043e+001 
3659375000  -4.620756e+001  -6.629617e+001 
3662500000  -4.519093e+001  -6.927707e+001 
3665625000  -4.515060e+001  -6.857106e+001 
3668750000  -4.405415e+001  -6.603654e+001 
3671875000  -4.304149e+001  -7.038444e+001 
3675000000  -4.340886e+001  -8.150461e+001 
3678125000  -4.341020e+001  -8.111185e+001 
3681250000  -4.321613e+001  -8.445094e+001 
3684375000  -4.312471e+001  -8.900446e+001 
3687500000  -4.323610e+001  -9.192941e+001 
3690625000  -4.311010e+001  -9.673013e+001 
3693750000  -4.417328e+001  -9.485130e+001 
3696875000  -4.350185e+001  -9.639758e+001 
3700000000  -4.307013e+001  -1.000348e+002 
3703125000  -4.290006e+001  -1.048924e+002 
3706250000  -4.363438e+001  -1.073051e+002 
3709375000  -4.343359e+001  -1.052436e+002 
3712500000  -4.246309e+001  -1.095026e+002 
3715625000  -4.162535e+001  -1.145322e+002 
3718750000  -4.152612e+001  -1.191948e+002 
3721875000  -4.122766e+001  -1.250973e+002 
3725000000  -4.144634e+001  -1.318729e+002 
3728125000  -4.196574e+001  -1.332474e+002 
3731250000  -4.147097e+001  -1.356527e+002 
3734375000  -4.106527e+001  -1.429733e+002 
3737500000  -4.185786e+001  -1.528939e+002 
3740625000  -4.317811e+001  -1.534651e+002 
3743750000  -4.326000e+001  -1.576254e+002 
3746875000  -4.312569e+001  -1.585558e+002 
3750000000  -4.398642e+001  -1.621311e+002 
3753125000  -4.405517e+001  -1.606177e+002 
3756250000  -4.406270e+001  -1.588541e+002 
3759375000  -4.437310e+001  -1.599557e+002 
3762500000  -4.399777e+001  -1.624731e+002 
3765625000  -4.456338e+001  -1.596882e+002 
3768750000  -4.465898e+001  -1.615512e+002 
3771875000  -4.298996e+001  -1.622650e+002 
3775000000  -4.289650e+001  -1.684285e+002 
3778125000  -4.312694e+001  -1.703359e+002 
3781250000  -4.289853e+001  -1.710298e+002 
3784375000  -4.296283e+001  -1.703752e+002 
3787500000  -4.188636e+001  -1.718126e+002 
3790625000  -4.238414e+001  1.794733e+002 
3793750000  -4.228354e+001  -1.795221e+002 
3796875000  -4.106050e+001  1.744762e+002 
3800000000  -3.975890e+001  1.743774e+002 
3803125000  -4.041814e+001  1.646271e+002 
3806250000  -4.122102e+001  1.635162e+002 
3809375000  -4.075348e+001  1.606606e+002 
3812500000  -4.009892e+001  1.552508e+002 
3815625000  -4.048545e+001  1.439741e+002 
3818750000  -4.144491e+001  1.448573e+002 
3821875000  -4.148204e+001  1.526577e+002 
3825000000  -3.957204e+001  1.553232e+002 
3828125000  -3.795603e+001  1.383268e+002 
3831250000  -3.875463e+001  1.236313e+002 
3834375000  -4.050056e+001  1.207270e+002 
3837500000  -4.085633e+001  1.255688e+002 
3840625000  -4.010270e+001  1.237517e+002 
3843750000  -3.889830e+001  1.134207e+002 
3846875000  -3.966352e+001  1.045581e+002 
3850000000  -4.084355e+001  1.119870e+002 
3853125000  -4.045577e+001  1.131032e+002 
3856250000  -4.030193e+001  1.058331e+002 
3859375000  -3.977282e+001  1.021308e+002 
3862500000  -3.931655e+001  9.082413e+001 
3865625000  -3.974855e+001  8.883012e+001 
3868750000  -3.956173e+001  8.782548e+001 
3871875000  -3.897028e+001  8.312013e+001 
3875000000  -3.925636e+001  7.400237e+001 
3878125000  -4.052415e+001  7.197533e+001 
3881250000  -4.047960e+001  7.367525e+001 
3884375000  -4.003117e+001  6.784101e+001 
3887500000  -4.022506e+001  6.501559e+001 
3890625000  -4.093113e+001  6.249564e+001 
3893750000  -4.080856e+001  6.000067e+001 
3896875000  -4.150631e+001  6.065897e+001 
3900000000  -4.162751e+001  5.766595e+001 
3903125000  -4.121063e+001  5.644799e+001 
3906250000  -4.089944e+001  5.648604e+001 
3909375000  -4.008241e+001  5.129827e+001 
3912500000  -3.993275e+001  4.103497e+001 
3915625000  -4.118366e+001  4.442331e+001 
3918750000  -4.128650e+001  4.553697e+001 
3921875000  -4.078218e+001  4.099803e+001 
3925000000  -3.974653e+001  3.845742e+001 
3928125000  -3.911930e+001  3.271231e+001 
3931250000  -3.950299e+001  2.937528e+001 
3934375000  -3.975240e+001  2.813154e+001 
3937500000  -3.995434e+001  2.456893e+001 
3940625000  -4.055463e+001  2.447130e+001 
3943750000  -3.935279e+001  2.401710e+001 
3946875000  -3.835593e+001  1.874141e+001 
3950000000  -3.904042e+001  9.208896e+000 
3953125000  -4.020022e+001  8.044261e+000 
3956250000  -3.890354e+001  9.652519e+000 
3959375000  -3.789844e+001  4.426677e+000 
3962500000  -3.731242e+001  2.804898e+000 
3965625000  -3.721165e+001  -9.867043e+000 
3968750000  -3.821492e+001  -1.731101e+001 
3971875000  -3.854596e+001  -1.796840e+001 
3975000000  -3.779826e+001  -2.131482e+001 
3978125000  -3.795473e+001  -2.320292e+001 
3981250000  -3.787547e+001  -2.777364e+001 
3984375000  -3.809023e+001  -3.412405e+001 
3987500000  -3.867863e+001  -3.844883e+001 
3990625000  -3.855077e+001  -3.900227e+001 
3993750000  -3.909450e+001  -4.324936e+001 
3996875000  -3.907814e+001  -4.798098e+001 
4000000000  -3.923229e+001  -4.908474e+001 
4003125000  -3.951504e+001  -4.785286e+001 
4006250000  -3.841811e+001  -4.956311e+001 
4009375000  -3.731467e+001  -6.225528e+001 
4012500000  -3.836975e+001  -6.856683e+001 
4015625000  -3.994110e+001  -6.643138e+001 
4018750000  -3.978521e+001  -6.516912e+001 
4021875000  -3.908628e+001  -6.972362e+001 
4025000000  -3.892824e+001  -7.356102e+001 
4028125000  -3.874093e+001  -7.819150e+001 
4031250000  -3.929141e+001  -8.339784e+001 
4034375000  -3.975498e+001  -8.148859e+001 
4037500000  -3.907420e+001  -8.057595e+001 
4040625000  -3.902098e+001  -8.520436e+001 
4043750000  -3.957886e+001  -8.615155e+001 
4046875000  -3.903736e+001  -8.751733e+001 
4050000000  -3.833099e+001  -9.268002e+001 
4053125000  -3.906740e+001  -9.598306e+001 
4056250000  -3.943160e+001  -9.464207e+001 
4059375000  -3.811448e+001  -9.132486e+001 
4062500000  -3.679813e+001  -9.629491e+001 
4065625000  -3.666040e+001  -1.024052e+002 
4068750000  -3.639407e+001  -1.090522e+002 
4071875000  -3.573700e+001  -1.165531e+002 
4075000000  -3.610053e+001  -1.234283e+002 
4078125000  -3.669982e+001  -1.255771e+002 
4081250000  -3.611475e+001  -1.296841e+002 
4084375000  -3.576109e+001  -1.369548e+002 
4087500000  -3.608806e+001  -1.436370e+002 
4090625000  -3.684223e+001  -1.447583e+002 
4093750000  -3.661369e+001  -1.458082e+002 
4096875000  -3.621895e+001  -1.533522e+002 
4100000000  -3.700858e+001  -1.599140e+002 
4103125000  -3.761194e+001  -1.591314e+002 
4106250000  -3.756955e+001  -1.553445e+002 
4109375000  -3.674848e+001  -1.580724e+002 
4112500000  -3.610392e+001  -1.645596e+002 
4115625000  -3.656271e+001  -1.711462e+002 
4118750000  -3.670123e+001  -1.752400e+002 
4121875000  -3.629615e+001  1.792082e+002 
4125000000  -3.677502e+001  1.739785e+002 
4128125000  -3.780917e+001  1.730291e+002 
4131250000  -3.772531e+001  -1.782283e+002 
4134375000  -3.518436e+001  1.751895e+002 
4137500000  -3.523124e+001  1.554357e+002 
4140625000  -3.738078e+001  1.473421e+002 
4143750000  -3.878006e+001  1.526491e+002 
4146875000  -3.842264e+001  1.599288e+002 
4150000000  -3.760389e+001  1.555597e+002 
4153125000  -3.748550e+001  1.475192e+002 
4156250000  -3.834146e+001  1.447167e+002 
4159375000  -3.830444e+001  1.497222e+002 
4162500000  -3.783102e+001  1.534725e+002 
4165625000  -3.634271e+001  1.480847e+002 
4168750000  -3.574047e+001  1.412626e+002 
4171875000  -3.591345e+001  1.309984e+002 
4175000000  -3.641080e+001  1.246347e+002 
4178125000  -3.717309e+001  1.237483e+002 
4181250000  -3.682281e+001  1.232170e+002 
4184375000  -3.660957e+001  1.201837e+002 
4187500000  -3.661656e+001  1.179767e+002 
4190625000  -3.658996e+001  1.103290e+002 
4193750000  -3.739676e+001  1.064432e+002 
4196875000  -3.801826e+001  1.054316e+002 
4200000000  -3.882135e+001  1.075324e+002 
4203125000  -3.859743e+001  1.211496e+002 
4206250000  -3.517480e+001  1.201576e+002 
4209375000  -3.431149e+001  9.815067e+001 
4212500000  -3.608910e+001  9.044656e+001 
4215625000  -3.712304e+001  9.600999e+001 
4218750000  -3.532661e+001  1.006395e+002 
4221875000  -3.322144e+001  8.981269e+001 
4225000000  -3.438064e+001  7.787379e+001 
4228125000  -3.506798e+001  8.117723e+001 
4231250000  -3.347316e+001  7.678847e+001 
4234375000  -3.336005e+001  6.775504e+001 
4237500000  -3.301283e+001  6.253577e+001 
4240625000  -3.301147e+001  5.384372e+001 
4243750000  -3.406557e+001  4.415189e+001 
4246875000  -3.490287e+001  4.356421e+001 
4250000000  -3.496236e+001  4.570349e+001 
4253125000  -3.436959e+001  4.192307e+001 
4256250000  -3.486945e+001  3.708070e+001 
4259375000  -3.443249e+001  3.446708e+001 
4262500000  -3.470449e+001  2.911206e+001 
4265625000  -3.474199e+001  2.948694e+001 
4268750000  -3.376149e+001  2.432842e+001 
4271875000  -3.375856e+001  1.629344e+001 
4275000000  -3.317036e+001  8.609243e+000 
4278125000  -3.416815e+001  -3.042781e+000 
4281250000  -3.598520e+001  -5.244821e+000 
4284375000  -3.558387e+001  -5.070696e+000 
4287500000  -3.662803e+001  -9.254080e+000 
4290625000  -3.802846e+001  7.940977e-001 
4293750000  -3.594937e+001  4.693484e+000 
4296875000  -3.463187e+001  -6.853518e+000 
4300000000  -3.573972e+001  -1.571162e+001 
4303125000  -3.686721e+001  -1.391235e+001 
4306250000  -3.614173e+001  -8.687239e+000 
4309375000  -3.465454e+001  -1.124393e+001 
4312500000  -3.485475e+001  -1.846224e+001 
4315625000  -3.475130e+001  -2.544184e+001 
4318750000  -3.517783e+001  -2.822946e+001 
4321875000  -3.536492e+001  -2.744683e+001 
4325000000  -3.467592e+001  -2.732222e+001 
4328125000  -3.397287e+001  -3.441039e+001 
4331250000  -3.374917e+001  -4.308601e+001 
4334375000  -3.420230e+001  -4.834154e+001 
4337500000  -3.500357e+001  -5.107796e+001 
4340625000  -3.551118e+001  -4.864001e+001 
4343750000  -3.480559e+001  -4.874808e+001 
4346875000  -3.439989e+001  -5.538562e+001 
4350000000  -3.413996e+001  -6.011196e+001 
4353125000  -3.428568e+001  -6.861869e+001 
4356250000  -3.595753e+001  -7.111560e+001 
4359375000  -3.632972e+001  -5.839472e+001 
4362500000  -3.341828e+001  -5.787206e+001 
4365625000  -3.189838e+001  -7.037921e+001 
4368750000  -3.252913e+001  -8.382787e+001 
4371875000  -3.374512e+001  -8.406136e+001 
4375000000  -3.325643e+001  -8.570239e+001 
4378125000  -3.257798e+001  -9.239565e+001 
4381250000  -3.280686e+001  -9.896709e+001 
4384375000  -3.251267e+001  -1.057402e+002 
4387500000  -3.316163e+001  -1.122092e+002 
4390625000  -3.439243e+001  -1.120519e+002 
4393750000  -3.370936e+001  -1.116199e+002 
4396875000  -3.304953e+001  -1.149783e+002 
4400000000  -3.258324e+001  -1.232734e+002 
4403125000  -3.321862e+001  -1.326606e+002 
4406250000  -3.407517e+001  -1.342919e+002 
4409375000  -3.433121e+001  -1.378721e+002 
4412500000  -3.530129e+001  -1.424477e+002 
4415625000  -3.577608e+001  -1.375320e+002 
