!Agilent Technologies,E8363B,MY43030201,A.06.04.32
!Agilent E8363B: A.06.04.32
!Date: Tuesday, November 11, 2014 21:07:41
!Correction: S21(Response(S21)) 
!S1P File: Measurement: S21:
# Hz S  dB   R 50
3000000000  -3.653518e+001  -5.161777e+001 
3003125000  -3.759480e+001  -5.821255e+001 
3006250000  -3.762724e+001  -6.041098e+001 
3009375000  -3.795423e+001  -5.541147e+001 
3012500000  -3.701831e+001  -5.730475e+001 
3015625000  -3.611682e+001  -6.479512e+001 
3018750000  -3.693496e+001  -6.550792e+001 
3021875000  -3.550317e+001  -6.508144e+001 
3025000000  -3.417926e+001  -6.862482e+001 
3028125000  -3.322945e+001  -7.522367e+001 
3031250000  -3.217784e+001  -8.693737e+001 
3034375000  -3.180864e+001  -1.002751e+002 
3037500000  -3.224662e+001  -1.121081e+002 
3040625000  -3.364817e+001  -1.168200e+002 
3043750000  -3.424255e+001  -1.221672e+002 
3046875000  -3.440884e+001  -1.284715e+002 
3050000000  -3.608374e+001  -1.343195e+002 
3053125000  -3.599406e+001  -1.274205e+002 
3056250000  -3.538577e+001  -1.245774e+002 
3059375000  -3.560284e+001  -1.260480e+002 
3062500000  -3.411834e+001  -1.291708e+002 
3065625000  -3.386745e+001  -1.357777e+002 
3068750000  -3.361044e+001  -1.425717e+002 
3071875000  -3.348135e+001  -1.451045e+002 
3075000000  -3.321521e+001  -1.490341e+002 
3078125000  -3.305911e+001  -1.529491e+002 
3081250000  -3.347677e+001  -1.576806e+002 
3084375000  -3.266940e+001  -1.608701e+002 
3087500000  -3.248142e+001  -1.651467e+002 
3090625000  -3.194912e+001  -1.753294e+002 
3093750000  -3.238381e+001  1.775223e+002 
3096875000  -3.348754e+001  1.717349e+002 
3100000000  -3.339736e+001  1.696831e+002 
3103125000  -3.363691e+001  1.702067e+002 
3106250000  -3.318558e+001  1.664184e+002 
3109375000  -3.324821e+001  1.622667e+002 
3112500000  -3.323356e+001  1.598822e+002 
3115625000  -3.287301e+001  1.555351e+002 
3118750000  -3.314792e+001  1.552416e+002 
3121875000  -3.230946e+001  1.457908e+002 
3125000000  -3.344302e+001  1.420014e+002 
3128125000  -3.453129e+001  1.488267e+002 
3131250000  -3.211211e+001  1.472526e+002 
3134375000  -3.074329e+001  1.318898e+002 
3137500000  -3.142381e+001  1.179171e+002 
3140625000  -3.288365e+001  1.153949e+002 
3143750000  -3.386571e+001  1.163164e+002 
3146875000  -3.339920e+001  1.174863e+002 
3150000000  -3.225773e+001  1.173818e+002 
3153125000  -3.235989e+001  1.082469e+002 
3156250000  -3.335459e+001  1.129404e+002 
3159375000  -3.155588e+001  1.142995e+002 
3162500000  -2.966650e+001  9.993383e+001 
3165625000  -3.070398e+001  8.760998e+001 
3168750000  -3.100128e+001  8.775920e+001 
3171875000  -3.016516e+001  8.235933e+001 
3175000000  -3.089861e+001  7.337778e+001 
3178125000  -3.061460e+001  7.441673e+001 
3181250000  -2.955694e+001  6.860198e+001 
3184375000  -2.883320e+001  5.567266e+001 
3187500000  -3.006907e+001  4.054688e+001 
3190625000  -3.266368e+001  3.274166e+001 
3193750000  -3.326037e+001  4.099283e+001 
3196875000  -3.295375e+001  4.586209e+001 
3200000000  -3.195598e+001  4.269734e+001 
3203125000  -3.118102e+001  3.667880e+001 
3206250000  -3.151270e+001  2.967612e+001 
3209375000  -3.104032e+001  2.408802e+001 
3212500000  -3.134281e+001  1.726636e+001 
3215625000  -3.133727e+001  1.279499e+001 
3218750000  -3.216720e+001  5.368832e+000 
3221875000  -3.293705e+001  5.963070e-001 
3225000000  -3.255799e+001  -8.349199e-001 
3228125000  -3.298682e+001  -5.880701e+000 
3231250000  -3.354351e+001  -8.116535e+000 
3234375000  -3.334041e+001  -8.446397e+000 
3237500000  -3.343655e+001  -1.037138e+001 
3240625000  -3.284163e+001  -1.268175e+001 
3243750000  -3.254335e+001  -2.038920e+001 
3246875000  -3.302068e+001  -2.731206e+001 
3250000000  -3.334363e+001  -3.023672e+001 
3253125000  -3.342273e+001  -3.246848e+001 
3256250000  -3.313894e+001  -3.887936e+001 
3259375000  -3.350214e+001  -4.746182e+001 
3262500000  -3.461575e+001  -5.172835e+001 
3265625000  -3.516174e+001  -4.873362e+001 
3268750000  -3.516283e+001  -4.680190e+001 
3271875000  -3.471058e+001  -4.725694e+001 
3275000000  -3.372579e+001  -5.354650e+001 
3278125000  -3.417297e+001  -6.021791e+001 
3281250000  -3.431516e+001  -5.942572e+001 
3284375000  -3.373663e+001  -6.554803e+001 
3287500000  -3.399076e+001  -6.938555e+001 
3290625000  -3.429292e+001  -7.514860e+001 
3293750000  -3.412329e+001  -8.151311e+001 
3296875000  -3.506959e+001  -8.165898e+001 
3300000000  -3.489209e+001  -8.102934e+001 
3303125000  -3.360742e+001  -8.686244e+001 
3306250000  -3.357165e+001  -9.398694e+001 
3309375000  -3.318134e+001  -1.003954e+002 
3312500000  -3.328780e+001  -1.115914e+002 
3315625000  -3.426767e+001  -1.197155e+002 
3318750000  -3.576955e+001  -1.222432e+002 
3321875000  -3.683002e+001  -1.227027e+002 
3325000000  -3.743081e+001  -1.168813e+002 
3328125000  -3.681702e+001  -1.160317e+002 
3331250000  -3.561079e+001  -1.086137e+002 
3334375000  -3.289409e+001  -1.199110e+002 
3337500000  -3.304277e+001  -1.392423e+002 
3340625000  -3.450624e+001  -1.507360e+002 
3343750000  -3.647034e+001  -1.521038e+002 
3346875000  -3.648175e+001  -1.500750e+002 
3350000000  -3.583588e+001  -1.518571e+002 
3353125000  -3.596862e+001  -1.567621e+002 
3356250000  -3.548738e+001  -1.653433e+002 
3359375000  -3.634955e+001  -1.733587e+002 
3362500000  -3.737139e+001  -1.784650e+002 
3365625000  -3.790798e+001  1.791642e+002 
3368750000  -3.881521e+001  1.784994e+002 
3371875000  -3.892820e+001  1.747865e+002 
3375000000  -4.029964e+001  1.711339e+002 
3378125000  -4.103552e+001  1.708682e+002 
3381250000  -4.262074e+001  -1.795576e+002 
3384375000  -4.107799e+001  -1.590176e+002 
3387500000  -3.719202e+001  -1.741337e+002 
3390625000  -3.903270e+001  1.668738e+002 
3393750000  -4.038168e+001  1.693624e+002 
3396875000  -3.906760e+001  1.704683e+002 
3400000000  -3.848299e+001  1.634332e+002 
3403125000  -3.925948e+001  1.570955e+002 
3406250000  -3.958158e+001  1.575727e+002 
3409375000  -3.978319e+001  1.489749e+002 
3412500000  -4.028719e+001  1.467481e+002 
3415625000  -4.080298e+001  1.471678e+002 
3418750000  -4.096044e+001  1.484630e+002 
3421875000  -4.138780e+001  1.516904e+002 
3425000000  -4.016014e+001  1.522167e+002 
3428125000  -3.909727e+001  1.470583e+002 
3431250000  -3.913148e+001  1.406564e+002 
3434375000  -3.908584e+001  1.335681e+002 
3437500000  -3.959901e+001  1.312365e+002 
3440625000  -3.990544e+001  1.328939e+002 
3443750000  -3.865997e+001  1.336221e+002 
3446875000  -3.796529e+001  1.249842e+002 
3450000000  -3.757609e+001  1.144706e+002 
3453125000  -3.793249e+001  1.049398e+002 
3456250000  -3.904060e+001  9.945119e+001 
3459375000  -3.987659e+001  9.961480e+001 
3462500000  -3.974939e+001  1.008532e+002 
3465625000  -3.970792e+001  9.494511e+001 
3468750000  -4.013387e+001  8.981898e+001 
3471875000  -3.988148e+001  8.878024e+001 
3475000000  -3.960649e+001  8.433397e+001 
3478125000  -4.017128e+001  7.542902e+001 
3481250000  -4.110636e+001  7.341828e+001 
3484375000  -4.212744e+001  7.626334e+001 
3487500000  -4.138830e+001  7.687727e+001 
3490625000  -4.074879e+001  7.227045e+001 
3493750000  -4.105614e+001  6.515404e+001 
3496875000  -4.189394e+001  6.464610e+001 
3500000000  -4.216076e+001  6.494456e+001 
3503125000  -4.167546e+001  6.835341e+001 
3506250000  -4.039796e+001  6.101582e+001 
3509375000  -4.047115e+001  5.378336e+001 
3512500000  -4.122465e+001  4.519526e+001 
3515625000  -4.197884e+001  4.285640e+001 
3518750000  -4.261985e+001  4.328010e+001 
3521875000  -4.222557e+001  4.144541e+001 
3525000000  -4.336904e+001  3.587802e+001 
3528125000  -4.313881e+001  4.456843e+001 
3531250000  -4.188938e+001  4.432784e+001 
3534375000  -4.221865e+001  3.179742e+001 
3537500000  -4.257851e+001  2.900109e+001 
3540625000  -4.358786e+001  2.737126e+001 
3543750000  -4.414572e+001  2.990240e+001 
3546875000  -4.451165e+001  4.444456e+001 
3550000000  -4.144553e+001  4.367324e+001 
3553125000  -4.001773e+001  2.496516e+001 
3556250000  -4.206929e+001  1.925043e+001 
3559375000  -4.158648e+001  2.108045e+001 
3562500000  -4.038147e+001  1.304882e+001 
3565625000  -4.115823e+001  5.381160e+000 
3568750000  -4.157827e+001  7.895923e+000 
3571875000  -4.100225e+001  7.224321e+000 
3575000000  -4.058503e+001  -1.175569e+000 
3578125000  -4.124914e+001  -5.431454e+000 
3581250000  -4.142653e+001  -6.258632e+000 
3584375000  -4.066666e+001  -9.110723e+000 
3587500000  -3.993756e+001  -1.762362e+001 
3590625000  -4.057031e+001  -2.813594e+001 
3593750000  -4.173214e+001  -2.933847e+001 
3596875000  -4.189026e+001  -2.591598e+001 
3600000000  -4.024422e+001  -3.007316e+001 
3603125000  -4.076781e+001  -4.453027e+001 
3606250000  -4.166705e+001  -4.861169e+001 
3609375000  -4.221860e+001  -5.160462e+001 
3612500000  -4.272554e+001  -5.388234e+001 
3615625000  -4.295235e+001  -5.694224e+001 
3618750000  -4.359513e+001  -5.776260e+001 
3621875000  -4.325793e+001  -6.114258e+001 
3625000000  -4.413928e+001  -5.996173e+001 
3628125000  -4.451363e+001  -6.248979e+001 
3631250000  -4.388591e+001  -7.161361e+001 
3634375000  -4.550993e+001  -7.037704e+001 
3637500000  -4.575276e+001  -6.629363e+001 
3640625000  -4.459514e+001  -6.523946e+001 
3643750000  -4.434062e+001  -6.676316e+001 
3646875000  -4.483109e+001  -7.431293e+001 
3650000000  -4.578604e+001  -7.481186e+001 
3653125000  -4.525571e+001  -7.503951e+001 
3656250000  -4.582580e+001  -7.793176e+001 
3659375000  -4.619314e+001  -7.042164e+001 
3662500000  -4.519923e+001  -7.357746e+001 
3665625000  -4.495899e+001  -7.489191e+001 
3668750000  -4.409793e+001  -7.601134e+001 
3671875000  -4.317249e+001  -8.220966e+001 
3675000000  -4.332697e+001  -8.700739e+001 
3678125000  -4.362394e+001  -8.852484e+001 
3681250000  -4.316361e+001  -8.932407e+001 
3684375000  -4.305067e+001  -9.490949e+001 
3687500000  -4.328675e+001  -9.978177e+001 
3690625000  -4.330634e+001  -1.023137e+002 
3693750000  -4.415267e+001  -1.059547e+002 
3696875000  -4.397968e+001  -1.025093e+002 
3700000000  -4.291113e+001  -1.063083e+002 
3703125000  -4.276801e+001  -1.130745e+002 
3706250000  -4.409455e+001  -1.118811e+002 
3709375000  -4.356640e+001  -1.130423e+002 
3712500000  -4.245646e+001  -1.143985e+002 
3715625000  -4.154507e+001  -1.192448e+002 
3718750000  -4.167259e+001  -1.270894e+002 
3721875000  -4.156787e+001  -1.334304e+002 
3725000000  -4.158662e+001  -1.395927e+002 
3728125000  -4.170283e+001  -1.415711e+002 
3731250000  -4.186080e+001  -1.428905e+002 
3734375000  -4.104461e+001  -1.484240e+002 
3737500000  -4.227689e+001  -1.568518e+002 
3740625000  -4.320658e+001  -1.613751e+002 
3743750000  -4.287764e+001  -1.640487e+002 
3746875000  -4.361160e+001  -1.674781e+002 
3750000000  -4.405143e+001  -1.680963e+002 
3753125000  -4.396458e+001  -1.688972e+002 
3756250000  -4.424067e+001  -1.677315e+002 
3759375000  -4.429500e+001  -1.668592e+002 
3762500000  -4.405503e+001  -1.720093e+002 
3765625000  -4.489661e+001  -1.697315e+002 
3768750000  -4.505113e+001  -1.652045e+002 
3771875000  -4.303635e+001  -1.707188e+002 
3775000000  -4.306275e+001  -1.751149e+002 
3778125000  -4.321387e+001  -1.757760e+002 
3781250000  -4.306300e+001  -1.772336e+002 
3784375000  -4.268110e+001  -1.776758e+002 
3787500000  -4.210937e+001  1.782723e+002 
3790625000  -4.236243e+001  1.738732e+002 
3793750000  -4.277824e+001  1.722029e+002 
3796875000  -4.148907e+001  1.700531e+002 
3800000000  -3.990291e+001  1.684232e+002 
3803125000  -4.030101e+001  1.587240e+002 
3806250000  -4.093995e+001  1.559864e+002 
3809375000  -4.073331e+001  1.530004e+002 
3812500000  -3.964407e+001  1.480482e+002 
3815625000  -4.071070e+001  1.368733e+002 
3818750000  -4.141129e+001  1.363902e+002 
3821875000  -4.131201e+001  1.441689e+002 
3825000000  -3.959123e+001  1.475517e+002 
3828125000  -3.796166e+001  1.315784e+002 
3831250000  -3.863662e+001  1.156770e+002 
3834375000  -4.016324e+001  1.139348e+002 
3837500000  -4.096989e+001  1.202053e+002 
3840625000  -3.988823e+001  1.176650e+002 
3843750000  -3.916788e+001  1.040620e+002 
3846875000  -3.997039e+001  9.808842e+001 
3850000000  -4.115042e+001  1.025538e+002 
3853125000  -4.079650e+001  1.053033e+002 
3856250000  -4.044213e+001  9.889841e+001 
3859375000  -3.969857e+001  9.323845e+001 
3862500000  -3.916636e+001  8.503424e+001 
3865625000  -3.972574e+001  7.996053e+001 
3868750000  -3.954089e+001  7.977878e+001 
3871875000  -3.897543e+001  7.480227e+001 
3875000000  -3.930943e+001  6.668232e+001 
3878125000  -4.046176e+001  6.231344e+001 
3881250000  -4.050100e+001  6.706845e+001 
3884375000  -3.992776e+001  6.102605e+001 
3887500000  -4.014031e+001  5.632627e+001 
3890625000  -4.093883e+001  5.454357e+001 
3893750000  -4.090133e+001  5.280915e+001 
3896875000  -4.143758e+001  5.237550e+001 
3900000000  -4.147545e+001  5.222176e+001 
3903125000  -4.143206e+001  4.898124e+001 
3906250000  -4.030367e+001  4.715891e+001 
3909375000  -3.994857e+001  4.325327e+001 
3912500000  -3.995153e+001  3.413097e+001 
3915625000  -4.119283e+001  3.867921e+001 
3918750000  -4.105338e+001  3.719477e+001 
3921875000  -4.065223e+001  3.588646e+001 
3925000000  -3.966361e+001  3.234995e+001 
3928125000  -3.919641e+001  2.515578e+001 
3931250000  -3.955838e+001  2.169420e+001 
3934375000  -4.001146e+001  2.055301e+001 
3937500000  -4.018517e+001  1.931552e+001 
3940625000  -4.057652e+001  1.607156e+001 
3943750000  -3.941240e+001  1.753530e+001 
3946875000  -3.832374e+001  1.045261e+001 
3950000000  -3.885254e+001  2.449563e+000 
3953125000  -4.023954e+001  1.857912e+000 
3956250000  -3.885987e+001  3.472339e+000 
3959375000  -3.771584e+001  -2.631829e+000 
3962500000  -3.725779e+001  -5.127218e+000 
3965625000  -3.728602e+001  -1.593286e+001 
3968750000  -3.804932e+001  -2.332885e+001 
3971875000  -3.817212e+001  -2.696999e+001 
3975000000  -3.752460e+001  -2.785025e+001 
3978125000  -3.801154e+001  -3.043385e+001 
3981250000  -3.780623e+001  -3.712471e+001 
3984375000  -3.807074e+001  -4.381977e+001 
3987500000  -3.856869e+001  -4.584217e+001 
3990625000  -3.853212e+001  -4.706156e+001 
3993750000  -3.913071e+001  -5.030685e+001 
3996875000  -3.889631e+001  -5.408968e+001 
4000000000  -3.928021e+001  -5.748653e+001 
4003125000  -3.969992e+001  -5.688084e+001 
4006250000  -3.830590e+001  -5.701438e+001 
4009375000  -3.709355e+001  -6.946851e+001 
4012500000  -3.852844e+001  -7.767688e+001 
4015625000  -3.981133e+001  -7.571790e+001 
4018750000  -3.981967e+001  -7.598256e+001 
4021875000  -3.909741e+001  -7.791223e+001 
4025000000  -3.908769e+001  -8.038052e+001 
4028125000  -3.900618e+001  -8.637901e+001 
4031250000  -3.931653e+001  -9.033733e+001 
4034375000  -3.959450e+001  -9.124076e+001 
4037500000  -3.906553e+001  -8.970511e+001 
4040625000  -3.898217e+001  -9.338461e+001 
4043750000  -3.946526e+001  -9.504918e+001 
4046875000  -3.884145e+001  -9.662991e+001 
4050000000  -3.831977e+001  -1.011250e+002 
4053125000  -3.913873e+001  -1.033015e+002 
4056250000  -3.935613e+001  -9.970662e+001 
4059375000  -3.788957e+001  -1.001356e+002 
4062500000  -3.690274e+001  -1.046454e+002 
4065625000  -3.663166e+001  -1.109150e+002 
4068750000  -3.638997e+001  -1.160290e+002 
4071875000  -3.589980e+001  -1.254086e+002 
4075000000  -3.613766e+001  -1.317623e+002 
4078125000  -3.662250e+001  -1.346700e+002 
4081250000  -3.612455e+001  -1.364708e+002 
4084375000  -3.574725e+001  -1.456599e+002 
4087500000  -3.624291e+001  -1.524302e+002 
4090625000  -3.672002e+001  -1.529055e+002 
4093750000  -3.664357e+001  -1.536780e+002 
4096875000  -3.600658e+001  -1.620950e+002 
4100000000  -3.691467e+001  -1.693301e+002 
4103125000  -3.786776e+001  -1.685105e+002 
4106250000  -3.769432e+001  -1.647699e+002 
4109375000  -3.678107e+001  -1.665988e+002 
4112500000  -3.616937e+001  -1.750170e+002 
4115625000  -3.654579e+001  1.796093e+002 
4118750000  -3.663320e+001  1.764957e+002 
4121875000  -3.624460e+001  1.708627e+002 
4125000000  -3.675283e+001  1.648653e+002 
4128125000  -3.783113e+001  1.643184e+002 
4131250000  -3.747046e+001  1.733495e+002 
4134375000  -3.529966e+001  1.659147e+002 
4137500000  -3.531311e+001  1.456668e+002 
4140625000  -3.742697e+001  1.386254e+002 
4143750000  -3.874276e+001  1.424477e+002 
4146875000  -3.821637e+001  1.497736e+002 
4150000000  -3.750643e+001  1.448691e+002 
4153125000  -3.751878e+001  1.369048e+002 
4156250000  -3.828096e+001  1.345113e+002 
4159375000  -3.883302e+001  1.411051e+002 
4162500000  -3.771241e+001  1.418731e+002 
4165625000  -3.662941e+001  1.381472e+002 
4168750000  -3.586840e+001  1.311114e+002 
4171875000  -3.595030e+001  1.206082e+002 
4175000000  -3.657488e+001  1.150430e+002 
4178125000  -3.719820e+001  1.148572e+002 
4181250000  -3.680412e+001  1.140224e+002 
4184375000  -3.691373e+001  1.103405e+002 
4187500000  -3.679417e+001  1.069652e+002 
4190625000  -3.682268e+001  1.005492e+002 
4193750000  -3.762115e+001  9.594885e+001 
4196875000  -3.814510e+001  9.603730e+001 
4200000000  -3.926460e+001  9.776047e+001 
4203125000  -3.884918e+001  1.115344e+002 
4206250000  -3.528921e+001  1.096823e+002 
4209375000  -3.435944e+001  8.912276e+001 
4212500000  -3.610202e+001  8.103352e+001 
4215625000  -3.724554e+001  8.614148e+001 
4218750000  -3.585762e+001  9.215359e+001 
4221875000  -3.350669e+001  8.247150e+001 
4225000000  -3.477013e+001  6.958990e+001 
4228125000  -3.522504e+001  7.251228e+001 
4231250000  -3.352397e+001  6.794734e+001 
4234375000  -3.350277e+001  5.742584e+001 
4237500000  -3.307669e+001  5.294819e+001 
4240625000  -3.326404e+001  4.451959e+001 
4243750000  -3.414768e+001  3.623962e+001 
4246875000  -3.505320e+001  3.463870e+001 
4250000000  -3.499837e+001  3.678148e+001 
4253125000  -3.465817e+001  3.394192e+001 
4256250000  -3.477838e+001  2.858503e+001 
4259375000  -3.452558e+001  2.579799e+001 
4262500000  -3.479391e+001  2.013652e+001 
4265625000  -3.511048e+001  1.962159e+001 
4268750000  -3.396904e+001  1.402311e+001 
4271875000  -3.387161e+001  6.837333e+000 
4275000000  -3.335373e+001  -9.701838e-002 
4278125000  -3.425902e+001  -1.233703e+001 
4281250000  -3.613400e+001  -1.570320e+001 
4284375000  -3.578121e+001  -1.402509e+001 
4287500000  -3.683986e+001  -1.960626e+001 
4290625000  -3.800323e+001  -8.048353e+000 
4293750000  -3.612483e+001  -4.366681e+000 
4296875000  -3.500409e+001  -1.572099e+001 
4300000000  -3.588430e+001  -2.463677e+001 
4303125000  -3.707692e+001  -2.228959e+001 
4306250000  -3.646769e+001  -1.867893e+001 
4309375000  -3.504737e+001  -2.049026e+001 
4312500000  -3.501796e+001  -2.834928e+001 
4315625000  -3.533936e+001  -3.485762e+001 
4318750000  -3.538761e+001  -3.779282e+001 
4321875000  -3.573825e+001  -3.643697e+001 
4325000000  -3.504486e+001  -3.676288e+001 
4328125000  -3.425550e+001  -4.442600e+001 
4331250000  -3.431883e+001  -5.287502e+001 
4334375000  -3.469696e+001  -5.750807e+001 
4337500000  -3.544058e+001  -6.077487e+001 
4340625000  -3.591621e+001  -5.691148e+001 
4343750000  -3.496614e+001  -5.775459e+001 
4346875000  -3.466679e+001  -6.403127e+001 
4350000000  -3.461147e+001  -7.000848e+001 
4353125000  -3.468800e+001  -7.804790e+001 
4356250000  -3.659472e+001  -7.912490e+001 
4359375000  -3.679550e+001  -6.613705e+001 
4362500000  -3.382700e+001  -6.660105e+001 
4365625000  -3.199974e+001  -8.025064e+001 
4368750000  -3.277765e+001  -9.308102e+001 
4371875000  -3.399281e+001  -9.412023e+001 
4375000000  -3.368457e+001  -9.487582e+001 
4378125000  -3.290576e+001  -1.011961e+002 
4381250000  -3.308081e+001  -1.089850e+002 
4384375000  -3.283529e+001  -1.148531e+002 
4387500000  -3.373010e+001  -1.218456e+002 
4390625000  -3.464067e+001  -1.214319e+002 
4393750000  -3.394998e+001  -1.201376e+002 
4396875000  -3.340299e+001  -1.243915e+002 
4400000000  -3.298466e+001  -1.328439e+002 
4403125000  -3.359008e+001  -1.408894e+002 
4406250000  -3.451912e+001  -1.435944e+002 
4409375000  -3.454501e+001  -1.466610e+002 
4412500000  -3.581842e+001  -1.507046e+002 
4415625000  -3.612185e+001  -1.461491e+002 
