!Agilent Technologies,E8363B,MY43030201,A.06.04.32
!Agilent E8363B: A.06.04.32
!Date: Tuesday, November 11, 2014 21:01:54
!Correction: S21(Response(S21)) 
!S1P File: Measurement: S21:
# Hz S  dB   R 50
3000000000  -3.635434e+001  -4.612994e+001 
3003125000  -3.740972e+001  -5.175111e+001 
3006250000  -3.741196e+001  -5.418596e+001 
3009375000  -3.767082e+001  -4.977107e+001 
3012500000  -3.700280e+001  -5.157691e+001 
3015625000  -3.599786e+001  -5.867205e+001 
3018750000  -3.682279e+001  -6.026820e+001 
3021875000  -3.535984e+001  -5.889985e+001 
3025000000  -3.405666e+001  -6.296393e+001 
3028125000  -3.305876e+001  -6.929637e+001 
3031250000  -3.206902e+001  -8.091117e+001 
3034375000  -3.171262e+001  -9.411710e+001 
3037500000  -3.211652e+001  -1.062579e+002 
3040625000  -3.344418e+001  -1.110697e+002 
3043750000  -3.407944e+001  -1.162067e+002 
3046875000  -3.442590e+001  -1.216969e+002 
3050000000  -3.606941e+001  -1.282502e+002 
3053125000  -3.594215e+001  -1.226469e+002 
3056250000  -3.542401e+001  -1.197925e+002 
3059375000  -3.565747e+001  -1.188363e+002 
3062500000  -3.408366e+001  -1.235764e+002 
3065625000  -3.391508e+001  -1.291789e+002 
3068750000  -3.350036e+001  -1.364532e+002 
3071875000  -3.346129e+001  -1.385934e+002 
3075000000  -3.338118e+001  -1.423734e+002 
3078125000  -3.294781e+001  -1.467831e+002 
3081250000  -3.350929e+001  -1.514436e+002 
3084375000  -3.259655e+001  -1.545343e+002 
3087500000  -3.241116e+001  -1.586584e+002 
3090625000  -3.195531e+001  -1.685121e+002 
3093750000  -3.232898e+001  -1.761689e+002 
3096875000  -3.346063e+001  1.781017e+002 
3100000000  -3.344609e+001  1.758390e+002 
3103125000  -3.357152e+001  1.769914e+002 
3106250000  -3.313035e+001  1.721973e+002 
3109375000  -3.324356e+001  1.689635e+002 
3112500000  -3.320901e+001  1.665414e+002 
3115625000  -3.282162e+001  1.620825e+002 
3118750000  -3.325243e+001  1.617541e+002 
3121875000  -3.233573e+001  1.523614e+002 
3125000000  -3.349953e+001  1.479295e+002 
3128125000  -3.445911e+001  1.550516e+002 
3131250000  -3.206947e+001  1.539815e+002 
3134375000  -3.078195e+001  1.381444e+002 
3137500000  -3.127719e+001  1.231371e+002 
3140625000  -3.282072e+001  1.213236e+002 
3143750000  -3.380937e+001  1.218492e+002 
3146875000  -3.342794e+001  1.236801e+002 
3150000000  -3.232924e+001  1.238234e+002 
3153125000  -3.227936e+001  1.149364e+002 
3156250000  -3.335767e+001  1.192912e+002 
3159375000  -3.171025e+001  1.204837e+002 
3162500000  -2.970218e+001  1.061655e+002 
3165625000  -3.070229e+001  9.419955e+001 
3168750000  -3.106399e+001  9.442206e+001 
3171875000  -3.023409e+001  8.822083e+001 
3175000000  -3.099092e+001  7.964178e+001 
3178125000  -3.070171e+001  8.051329e+001 
3181250000  -2.956133e+001  7.527808e+001 
3184375000  -2.886979e+001  6.255901e+001 
3187500000  -3.001621e+001  4.709730e+001 
3190625000  -3.282407e+001  3.915121e+001 
3193750000  -3.344263e+001  4.753197e+001 
3196875000  -3.298117e+001  5.286006e+001 
3200000000  -3.207210e+001  4.937805e+001 
3203125000  -3.127704e+001  4.273409e+001 
3206250000  -3.165062e+001  3.659904e+001 
3209375000  -3.114936e+001  3.052494e+001 
3212500000  -3.131294e+001  2.374804e+001 
3215625000  -3.147426e+001  1.963290e+001 
3218750000  -3.232601e+001  1.242444e+001 
3221875000  -3.309478e+001  7.086932e+000 
3225000000  -3.274844e+001  6.313298e+000 
3228125000  -3.298948e+001  1.007596e+000 
3231250000  -3.378630e+001  -1.692313e+000 
3234375000  -3.337047e+001  -1.592433e+000 
3237500000  -3.344201e+001  -3.242858e+000 
3240625000  -3.307659e+001  -5.836399e+000 
3243750000  -3.265557e+001  -1.359340e+001 
3246875000  -3.304296e+001  -2.067609e+001 
3250000000  -3.352917e+001  -2.304076e+001 
3253125000  -3.350057e+001  -2.508555e+001 
3256250000  -3.322232e+001  -3.193887e+001 
3259375000  -3.345364e+001  -4.024521e+001 
3262500000  -3.465672e+001  -4.388011e+001 
3265625000  -3.530390e+001  -4.174533e+001 
3268750000  -3.522361e+001  -3.946524e+001 
3271875000  -3.490216e+001  -4.011656e+001 
3275000000  -3.382267e+001  -4.642579e+001 
3278125000  -3.429373e+001  -5.254775e+001 
3281250000  -3.443457e+001  -5.187870e+001 
3284375000  -3.396673e+001  -5.888945e+001 
3287500000  -3.413253e+001  -6.238618e+001 
3290625000  -3.453209e+001  -6.817959e+001 
3293750000  -3.423778e+001  -7.424459e+001 
3296875000  -3.520653e+001  -7.492454e+001 
3300000000  -3.497102e+001  -7.380856e+001 
3303125000  -3.382471e+001  -7.947095e+001 
3306250000  -3.359991e+001  -8.657241e+001 
3309375000  -3.329735e+001  -9.309056e+001 
3312500000  -3.344656e+001  -1.037747e+002 
3315625000  -3.438301e+001  -1.118951e+002 
3318750000  -3.581343e+001  -1.147885e+002 
3321875000  -3.681813e+001  -1.143095e+002 
3325000000  -3.731507e+001  -1.091992e+002 
3328125000  -3.707584e+001  -1.099346e+002 
3331250000  -3.584385e+001  -1.035630e+002 
3334375000  -3.312031e+001  -1.125318e+002 
3337500000  -3.318286e+001  -1.316611e+002 
3340625000  -3.460429e+001  -1.431945e+002 
3343750000  -3.654827e+001  -1.443247e+002 
3346875000  -3.679716e+001  -1.430728e+002 
3350000000  -3.612339e+001  -1.438044e+002 
3353125000  -3.619979e+001  -1.489484e+002 
3356250000  -3.569566e+001  -1.580737e+002 
3359375000  -3.642006e+001  -1.657048e+002 
3362500000  -3.763269e+001  -1.713152e+002 
3365625000  -3.812352e+001  -1.723522e+002 
3368750000  -3.882683e+001  -1.748833e+002 
3371875000  -3.916124e+001  -1.775561e+002 
3375000000  -4.028492e+001  1.788634e+002 
3378125000  -4.156131e+001  -1.796386e+002 
3381250000  -4.263334e+001  -1.719856e+002 
3384375000  -4.119255e+001  -1.505774e+002 
3387500000  -3.773301e+001  -1.656587e+002 
3390625000  -3.940746e+001  1.746089e+002 
3393750000  -4.065670e+001  1.780976e+002 
3396875000  -3.915685e+001  1.784343e+002 
3400000000  -3.874135e+001  1.712393e+002 
3403125000  -3.949574e+001  1.654198e+002 
3406250000  -3.962419e+001  1.650060e+002 
3409375000  -3.997914e+001  1.559938e+002 
3412500000  -4.043592e+001  1.560858e+002 
3415625000  -4.113703e+001  1.566724e+002 
3418750000  -4.109495e+001  1.560621e+002 
3421875000  -4.128682e+001  1.593440e+002 
3425000000  -4.044870e+001  1.605427e+002 
3428125000  -3.935956e+001  1.555800e+002 
3431250000  -3.948502e+001  1.493842e+002 
3434375000  -3.927613e+001  1.427560e+002 
3437500000  -3.979280e+001  1.410163e+002 
3440625000  -3.985964e+001  1.412863e+002 
3443750000  -3.898238e+001  1.411530e+002 
3446875000  -3.813497e+001  1.344473e+002 
3450000000  -3.775702e+001  1.238537e+002 
3453125000  -3.789930e+001  1.144686e+002 
3456250000  -3.913276e+001  1.061230e+002 
3459375000  -4.001597e+001  1.081181e+002 
3462500000  -3.990638e+001  1.074922e+002 
3465625000  -4.008753e+001  1.028714e+002 
3468750000  -4.012030e+001  9.904226e+001 
3471875000  -4.007345e+001  9.815462e+001 
3475000000  -3.976851e+001  9.207253e+001 
3478125000  -4.031636e+001  8.474884e+001 
3481250000  -4.117704e+001  8.366245e+001 
3484375000  -4.228822e+001  8.712037e+001 
3487500000  -4.134985e+001  8.664533e+001 
3490625000  -4.108378e+001  8.144585e+001 
3493750000  -4.155688e+001  7.376524e+001 
3496875000  -4.180193e+001  7.248000e+001 
3500000000  -4.248441e+001  7.655977e+001 
3503125000  -4.224780e+001  7.732571e+001 
3506250000  -4.070824e+001  7.396642e+001 
3509375000  -4.062878e+001  6.333443e+001 
3512500000  -4.131274e+001  5.326751e+001 
3515625000  -4.198033e+001  5.286660e+001 
3518750000  -4.229401e+001  5.442310e+001 
3521875000  -4.270585e+001  5.076623e+001 
3525000000  -4.360049e+001  4.713183e+001 
3528125000  -4.365721e+001  5.511038e+001 
3531250000  -4.200808e+001  5.199117e+001 
3534375000  -4.200428e+001  4.319463e+001 
3537500000  -4.254923e+001  3.747219e+001 
3540625000  -4.360359e+001  3.554628e+001 
3543750000  -4.414756e+001  3.961209e+001 
3546875000  -4.407428e+001  5.102863e+001 
3550000000  -4.126947e+001  5.221131e+001 
3553125000  -4.017830e+001  3.370793e+001 
3556250000  -4.137944e+001  2.686977e+001 
3559375000  -4.153649e+001  3.138987e+001 
3562500000  -4.034438e+001  2.018194e+001 
3565625000  -4.095391e+001  1.290452e+001 
3568750000  -4.135142e+001  1.532361e+001 
3571875000  -4.123584e+001  1.419688e+001 
3575000000  -4.067427e+001  6.603602e+000 
3578125000  -4.129811e+001  3.522994e-001 
3581250000  -4.159185e+001  2.994272e+000 
3584375000  -4.062933e+001  -1.713578e+000 
3587500000  -4.023754e+001  -9.138928e+000 
3590625000  -4.075480e+001  -2.107150e+001 
3593750000  -4.170112e+001  -2.378239e+001 
3596875000  -4.162450e+001  -1.832614e+001 
3600000000  -4.067793e+001  -2.273618e+001 
3603125000  -4.113758e+001  -3.884605e+001 
3606250000  -4.185361e+001  -4.240476e+001 
3609375000  -4.241925e+001  -4.532071e+001 
3612500000  -4.295853e+001  -4.823155e+001 
3615625000  -4.359416e+001  -4.990816e+001 
3618750000  -4.429956e+001  -5.233813e+001 
3621875000  -4.396812e+001  -5.292015e+001 
3625000000  -4.454565e+001  -5.542958e+001 
3628125000  -4.492412e+001  -5.400819e+001 
3631250000  -4.490483e+001  -6.400060e+001 
3634375000  -4.599340e+001  -6.355617e+001 
3637500000  -4.605810e+001  -5.455960e+001 
3640625000  -4.564022e+001  -4.940907e+001 
3643750000  -4.501176e+001  -5.734137e+001 
3646875000  -4.541705e+001  -6.269901e+001 
3650000000  -4.622113e+001  -6.580749e+001 
3653125000  -4.562361e+001  -6.438394e+001 
3656250000  -4.575813e+001  -6.488901e+001 
3659375000  -4.636084e+001  -5.950544e+001 
3662500000  -4.527922e+001  -6.317723e+001 
3665625000  -4.492392e+001  -6.404585e+001 
3668750000  -4.388075e+001  -6.325451e+001 
3671875000  -4.280156e+001  -6.515970e+001 
3675000000  -4.323575e+001  -7.800904e+001 
3678125000  -4.341771e+001  -7.754816e+001 
3681250000  -4.325532e+001  -8.157986e+001 
3684375000  -4.303988e+001  -8.583383e+001 
3687500000  -4.309522e+001  -9.097680e+001 
3690625000  -4.303244e+001  -9.570271e+001 
3693750000  -4.377060e+001  -9.548685e+001 
3696875000  -4.356258e+001  -9.322712e+001 
3700000000  -4.275940e+001  -9.804211e+001 
3703125000  -4.282348e+001  -1.070122e+002 
3706250000  -4.408767e+001  -1.038064e+002 
3709375000  -4.377708e+001  -1.047669e+002 
3712500000  -4.277772e+001  -1.068412e+002 
3715625000  -4.196023e+001  -1.142874e+002 
3718750000  -4.170444e+001  -1.177256e+002 
3721875000  -4.165510e+001  -1.249094e+002 
3725000000  -4.186732e+001  -1.305580e+002 
3728125000  -4.231265e+001  -1.308452e+002 
3731250000  -4.163811e+001  -1.350121e+002 
3734375000  -4.114797e+001  -1.403840e+002 
3737500000  -4.249293e+001  -1.484380e+002 
3740625000  -4.367967e+001  -1.508592e+002 
3743750000  -4.340479e+001  -1.526008e+002 
3746875000  -4.435998e+001  -1.547099e+002 
3750000000  -4.450778e+001  -1.592121e+002 
3753125000  -4.435899e+001  -1.567131e+002 
3756250000  -4.463094e+001  -1.543029e+002 
3759375000  -4.490316e+001  -1.550413e+002 
3762500000  -4.386922e+001  -1.556420e+002 
3765625000  -4.484511e+001  -1.586967e+002 
3768750000  -4.525949e+001  -1.545023e+002 
3771875000  -4.316212e+001  -1.556158e+002 
3775000000  -4.291175e+001  -1.607077e+002 
3778125000  -4.346194e+001  -1.638074e+002 
3781250000  -4.280616e+001  -1.657209e+002 
3784375000  -4.248243e+001  -1.656414e+002 
3787500000  -4.150249e+001  -1.686770e+002 
3790625000  -4.227358e+001  -1.787851e+002 
3793750000  -4.220114e+001  -1.750636e+002 
3796875000  -4.100098e+001  1.798579e+002 
3800000000  -3.963995e+001  1.781872e+002 
3803125000  -4.034549e+001  1.692038e+002 
3806250000  -4.086566e+001  1.672876e+002 
3809375000  -4.044187e+001  1.639080e+002 
3812500000  -3.955401e+001  1.559877e+002 
3815625000  -4.015805e+001  1.488914e+002 
3818750000  -4.106701e+001  1.473560e+002 
3821875000  -4.118964e+001  1.535458e+002 
3825000000  -3.938845e+001  1.584458e+002 
3828125000  -3.804122e+001  1.425247e+002 
3831250000  -3.842389e+001  1.248752e+002 
3834375000  -3.998178e+001  1.245694e+002 
3837500000  -4.111329e+001  1.268088e+002 
3840625000  -3.974249e+001  1.269390e+002 
3843750000  -3.872218e+001  1.139917e+002 
3846875000  -3.965545e+001  1.091124e+002 
3850000000  -4.067813e+001  1.112453e+002 
3853125000  -4.041552e+001  1.149602e+002 
3856250000  -4.037435e+001  1.090679e+002 
3859375000  -3.942844e+001  1.026198e+002 
3862500000  -3.935742e+001  9.433536e+001 
3865625000  -3.968075e+001  9.103881e+001 
3868750000  -3.969456e+001  9.047436e+001 
3871875000  -3.897764e+001  8.687482e+001 
3875000000  -3.948769e+001  7.489714e+001 
3878125000  -4.067592e+001  7.357698e+001 
3881250000  -4.053412e+001  7.485376e+001 
3884375000  -4.016691e+001  7.029654e+001 
3887500000  -4.008657e+001  6.593664e+001 
3890625000  -4.098297e+001  6.480525e+001 
3893750000  -4.111956e+001  6.179782e+001 
3896875000  -4.133618e+001  6.619418e+001 
3900000000  -4.175858e+001  6.311457e+001 
3903125000  -4.118691e+001  5.895117e+001 
3906250000  -4.049948e+001  5.881876e+001 
3909375000  -3.988540e+001  5.420634e+001 
3912500000  -3.994218e+001  4.854356e+001 
3915625000  -4.133241e+001  4.824201e+001 
3918750000  -4.106691e+001  4.862262e+001 
3921875000  -4.060461e+001  4.682324e+001 
3925000000  -3.946218e+001  4.308718e+001 
3928125000  -3.901298e+001  3.551421e+001 
3931250000  -3.945363e+001  3.140672e+001 
3934375000  -3.976575e+001  3.028805e+001 
3937500000  -3.989178e+001  2.725941e+001 
3940625000  -4.036437e+001  2.744017e+001 
3943750000  -3.915984e+001  2.736163e+001 
3946875000  -3.820830e+001  2.166868e+001 
3950000000  -3.878830e+001  1.176588e+001 
3953125000  -3.978085e+001  1.014679e+001 
3956250000  -3.879469e+001  1.279089e+001 
3959375000  -3.761202e+001  9.499698e+000 
3962500000  -3.713656e+001  3.226599e+000 
3965625000  -3.685245e+001  -7.267366e+000 
3968750000  -3.801120e+001  -1.477664e+001 
3971875000  -3.818253e+001  -1.680069e+001 
3975000000  -3.780632e+001  -1.917388e+001 
3978125000  -3.770893e+001  -2.275130e+001 
3981250000  -3.768611e+001  -2.734643e+001 
3984375000  -3.797136e+001  -3.322125e+001 
3987500000  -3.821521e+001  -3.570750e+001 
3990625000  -3.849211e+001  -3.921738e+001 
3993750000  -3.887376e+001  -4.252467e+001 
3996875000  -3.893831e+001  -4.611206e+001 
4000000000  -3.908477e+001  -4.760276e+001 
4003125000  -3.963085e+001  -4.526164e+001 
4006250000  -3.825192e+001  -4.635941e+001 
4009375000  -3.729184e+001  -6.077422e+001 
4012500000  -3.868344e+001  -6.641263e+001 
4015625000  -4.005029e+001  -6.607881e+001 
4018750000  -3.995030e+001  -6.559906e+001 
4021875000  -3.937176e+001  -6.633120e+001 
4025000000  -3.873389e+001  -7.090832e+001 
4028125000  -3.892529e+001  -7.583694e+001 
4031250000  -3.940797e+001  -7.980088e+001 
4034375000  -3.966902e+001  -8.058405e+001 
4037500000  -3.912280e+001  -7.893358e+001 
4040625000  -3.904581e+001  -8.393928e+001 
4043750000  -3.929755e+001  -8.437759e+001 
4046875000  -3.876476e+001  -8.492816e+001 
4050000000  -3.820412e+001  -9.111915e+001 
4053125000  -3.905466e+001  -9.285751e+001 
4056250000  -3.936159e+001  -8.958075e+001 
4059375000  -3.785485e+001  -8.844165e+001 
4062500000  -3.647837e+001  -9.491705e+001 
4065625000  -3.649881e+001  -1.003705e+002 
4068750000  -3.633858e+001  -1.055083e+002 
4071875000  -3.558775e+001  -1.136265e+002 
4075000000  -3.585036e+001  -1.209856e+002 
4078125000  -3.634203e+001  -1.228544e+002 
4081250000  -3.592519e+001  -1.266793e+002 
4084375000  -3.544774e+001  -1.344935e+002 
4087500000  -3.600122e+001  -1.421925e+002 
4090625000  -3.652448e+001  -1.430768e+002 
4093750000  -3.642044e+001  -1.436444e+002 
4096875000  -3.608785e+001  -1.511111e+002 
4100000000  -3.676620e+001  -1.597051e+002 
4103125000  -3.763359e+001  -1.594649e+002 
4106250000  -3.752938e+001  -1.549043e+002 
4109375000  -3.642281e+001  -1.562705e+002 
4112500000  -3.612001e+001  -1.643049e+002 
4115625000  -3.638203e+001  -1.692993e+002 
4118750000  -3.655956e+001  -1.738309e+002 
4121875000  -3.615955e+001  -1.777044e+002 
4125000000  -3.670980e+001  1.748615e+002 
4128125000  -3.768225e+001  1.741567e+002 
4131250000  -3.772643e+001  -1.775101e+002 
4134375000  -3.521498e+001  1.761247e+002 
4137500000  -3.518845e+001  1.548748e+002 
4140625000  -3.732421e+001  1.480260e+002 
4143750000  -3.879239e+001  1.540016e+002 
4146875000  -3.833999e+001  1.590056e+002 
4150000000  -3.761952e+001  1.559323e+002 
4153125000  -3.755732e+001  1.485840e+002 
4156250000  -3.835211e+001  1.460083e+002 
4159375000  -3.876998e+001  1.498511e+002 
4162500000  -3.771976e+001  1.536656e+002 
4165625000  -3.660917e+001  1.498394e+002 
4168750000  -3.598531e+001  1.415277e+002 
4171875000  -3.606770e+001  1.327614e+002 
4175000000  -3.673507e+001  1.255887e+002 
4178125000  -3.716796e+001  1.268262e+002 
4181250000  -3.694818e+001  1.253940e+002 
4184375000  -3.676190e+001  1.211664e+002 
4187500000  -3.700880e+001  1.167060e+002 
4190625000  -3.666755e+001  1.127255e+002 
4193750000  -3.726086e+001  1.088529e+002 
4196875000  -3.809559e+001  1.070929e+002 
4200000000  -3.890426e+001  1.085794e+002 
4203125000  -3.872300e+001  1.211523e+002 
4206250000  -3.533730e+001  1.226872e+002 
4209375000  -3.421440e+001  1.006382e+002 
4212500000  -3.603266e+001  9.100047e+001 
4215625000  -3.710918e+001  9.767188e+001 
4218750000  -3.544289e+001  1.021722e+002 
4221875000  -3.328601e+001  9.280376e+001 
4225000000  -3.462959e+001  7.990124e+001 
4228125000  -3.493941e+001  8.237834e+001 
4231250000  -3.351869e+001  7.832053e+001 
4234375000  -3.349596e+001  6.943312e+001 
4237500000  -3.285740e+001  6.461143e+001 
4240625000  -3.296127e+001  5.391026e+001 
4243750000  -3.401566e+001  4.600974e+001 
4246875000  -3.490119e+001  4.454486e+001 
4250000000  -3.481861e+001  4.696458e+001 
4253125000  -3.446058e+001  4.413708e+001 
4256250000  -3.479221e+001  3.902818e+001 
4259375000  -3.459461e+001  3.563950e+001 
4262500000  -3.445468e+001  3.056594e+001 
4265625000  -3.484753e+001  2.906817e+001 
4268750000  -3.404745e+001  2.451960e+001 
4271875000  -3.372660e+001  1.691017e+001 
4275000000  -3.338917e+001  9.219053e+000 
4278125000  -3.414176e+001  -1.490860e+000 
4281250000  -3.588368e+001  -5.535693e+000 
4284375000  -3.570763e+001  -4.972820e+000 
4287500000  -3.685312e+001  -7.686827e+000 
4290625000  -3.818959e+001  4.724514e-001 
4293750000  -3.623602e+001  6.971293e+000 
4296875000  -3.499042e+001  -5.916014e+000 
4300000000  -3.597236e+001  -1.428757e+001 
4303125000  -3.706149e+001  -1.365647e+001 
4306250000  -3.640494e+001  -8.707028e+000 
4309375000  -3.516380e+001  -8.287405e+000 
4312500000  -3.502471e+001  -1.722082e+001 
4315625000  -3.510838e+001  -2.414173e+001 
4318750000  -3.546416e+001  -2.731448e+001 
4321875000  -3.575544e+001  -2.641082e+001 
4325000000  -3.489443e+001  -2.610510e+001 
4328125000  -3.438470e+001  -3.185415e+001 
4331250000  -3.410137e+001  -4.111670e+001 
4334375000  -3.453808e+001  -4.607532e+001 
4337500000  -3.526998e+001  -4.903420e+001 
4340625000  -3.591330e+001  -4.467915e+001 
4343750000  -3.510287e+001  -4.685492e+001 
4346875000  -3.439053e+001  -5.206977e+001 
4350000000  -3.422810e+001  -5.871093e+001 
4353125000  -3.426733e+001  -6.725858e+001 
4356250000  -3.609322e+001  -6.900880e+001 
4359375000  -3.666411e+001  -5.636222e+001 
4362500000  -3.355334e+001  -5.651266e+001 
4365625000  -3.190777e+001  -6.954382e+001 
4368750000  -3.268569e+001  -8.288198e+001 
4371875000  -3.377933e+001  -8.258179e+001 
4375000000  -3.329448e+001  -8.263689e+001 
4378125000  -3.262951e+001  -9.043242e+001 
4381250000  -3.297090e+001  -9.736281e+001 
4384375000  -3.269215e+001  -1.038221e+002 
4387500000  -3.348248e+001  -1.110224e+002 
4390625000  -3.457575e+001  -1.111781e+002 
4393750000  -3.384471e+001  -1.106647e+002 
4396875000  -3.341039e+001  -1.141523e+002 
4400000000  -3.275415e+001  -1.220490e+002 
4403125000  -3.348764e+001  -1.310024e+002 
4406250000  -3.425209e+001  -1.337408e+002 
4409375000  -3.440531e+001  -1.373146e+002 
4412500000  -3.564630e+001  -1.406245e+002 
4415625000  -3.593782e+001  -1.357532e+002 
