!Agilent Technologies,E8363B,MY43030201,A.06.04.32
!Agilent E8363B: A.06.04.32
!Date: Tuesday, November 11, 2014 21:02:22
!Correction: S21(Response(S21)) 
!S1P File: Measurement: S21:
# Hz S  dB   R 50
3000000000  -3.623825e+001  -4.739900e+001 
3003125000  -3.743323e+001  -5.229710e+001 
3006250000  -3.739097e+001  -5.525750e+001 
3009375000  -3.754552e+001  -5.132719e+001 
3012500000  -3.701707e+001  -5.334671e+001 
3015625000  -3.597225e+001  -6.004620e+001 
3018750000  -3.671048e+001  -6.071877e+001 
3021875000  -3.537774e+001  -6.063224e+001 
3025000000  -3.406312e+001  -6.405736e+001 
3028125000  -3.316216e+001  -7.022352e+001 
3031250000  -3.206495e+001  -8.105115e+001 
3034375000  -3.171431e+001  -9.475156e+001 
3037500000  -3.216579e+001  -1.072973e+002 
3040625000  -3.348293e+001  -1.116627e+002 
3043750000  -3.423384e+001  -1.166722e+002 
3046875000  -3.430762e+001  -1.223648e+002 
3050000000  -3.606332e+001  -1.291282e+002 
3053125000  -3.603768e+001  -1.234538e+002 
3056250000  -3.556232e+001  -1.210794e+002 
3059375000  -3.565926e+001  -1.205890e+002 
3062500000  -3.412828e+001  -1.238316e+002 
3065625000  -3.380235e+001  -1.297478e+002 
3068750000  -3.357969e+001  -1.362637e+002 
3071875000  -3.346892e+001  -1.390492e+002 
3075000000  -3.326855e+001  -1.432513e+002 
3078125000  -3.306124e+001  -1.475162e+002 
3081250000  -3.360411e+001  -1.519492e+002 
3084375000  -3.264005e+001  -1.551655e+002 
3087500000  -3.243021e+001  -1.591735e+002 
3090625000  -3.193090e+001  -1.689933e+002 
3093750000  -3.233700e+001  -1.767610e+002 
3096875000  -3.343066e+001  1.771065e+002 
3100000000  -3.325888e+001  1.752664e+002 
3103125000  -3.353575e+001  1.759162e+002 
3106250000  -3.312138e+001  1.721022e+002 
3109375000  -3.317813e+001  1.680491e+002 
3112500000  -3.318537e+001  1.654487e+002 
3115625000  -3.279436e+001  1.603660e+002 
3118750000  -3.313398e+001  1.608385e+002 
3121875000  -3.231043e+001  1.516185e+002 
3125000000  -3.341946e+001  1.471057e+002 
3128125000  -3.443715e+001  1.541713e+002 
3131250000  -3.209571e+001  1.524588e+002 
3134375000  -3.071250e+001  1.370759e+002 
3137500000  -3.124912e+001  1.229486e+002 
3140625000  -3.278453e+001  1.199825e+002 
3143750000  -3.378602e+001  1.218988e+002 
3146875000  -3.335204e+001  1.229189e+002 
3150000000  -3.230602e+001  1.232487e+002 
3153125000  -3.231057e+001  1.139958e+002 
3156250000  -3.338215e+001  1.189999e+002 
3159375000  -3.172954e+001  1.198874e+002 
3162500000  -2.971411e+001  1.055147e+002 
3165625000  -3.076258e+001  9.308559e+001 
3168750000  -3.108289e+001  9.319297e+001 
3171875000  -3.024400e+001  8.730478e+001 
3175000000  -3.098130e+001  7.923505e+001 
3178125000  -3.072312e+001  7.983063e+001 
3181250000  -2.966397e+001  7.469746e+001 
3184375000  -2.890227e+001  6.171087e+001 
3187500000  -3.015425e+001  4.618459e+001 
3190625000  -3.287210e+001  3.841022e+001 
3193750000  -3.357061e+001  4.708305e+001 
3196875000  -3.305736e+001  5.159051e+001 
3200000000  -3.215959e+001  4.928516e+001 
3203125000  -3.137216e+001  4.299944e+001 
3206250000  -3.172300e+001  3.635872e+001 
3209375000  -3.120051e+001  3.041153e+001 
3212500000  -3.151221e+001  2.297913e+001 
3215625000  -3.151847e+001  1.928247e+001 
3218750000  -3.226758e+001  1.167614e+001 
3221875000  -3.321380e+001  7.002273e+000 
3225000000  -3.276587e+001  6.165854e+000 
3228125000  -3.306903e+001  2.601464e-001 
3231250000  -3.381703e+001  -2.287108e+000 
3234375000  -3.356585e+001  -2.449864e+000 
3237500000  -3.346542e+001  -3.924511e+000 
3240625000  -3.315596e+001  -6.380451e+000 
3243750000  -3.266096e+001  -1.373008e+001 
3246875000  -3.314345e+001  -2.067572e+001 
3250000000  -3.356354e+001  -2.354123e+001 
3253125000  -3.363860e+001  -2.501152e+001 
3256250000  -3.331530e+001  -3.232292e+001 
3259375000  -3.356063e+001  -3.998682e+001 
3262500000  -3.464690e+001  -4.397437e+001 
3265625000  -3.542755e+001  -4.217368e+001 
3268750000  -3.516881e+001  -3.970898e+001 
3271875000  -3.486707e+001  -3.962394e+001 
3275000000  -3.379398e+001  -4.641846e+001 
3278125000  -3.427347e+001  -5.333217e+001 
3281250000  -3.443642e+001  -5.299575e+001 
3284375000  -3.388356e+001  -5.958271e+001 
3287500000  -3.419335e+001  -6.319316e+001 
3290625000  -3.441645e+001  -6.844814e+001 
3293750000  -3.409270e+001  -7.403394e+001 
3296875000  -3.519367e+001  -7.538708e+001 
3300000000  -3.497229e+001  -7.463419e+001 
3303125000  -3.380126e+001  -7.965679e+001 
3306250000  -3.368919e+001  -8.681280e+001 
3309375000  -3.327813e+001  -9.309830e+001 
3312500000  -3.341966e+001  -1.039917e+002 
3315625000  -3.442008e+001  -1.125662e+002 
3318750000  -3.577754e+001  -1.146194e+002 
3321875000  -3.685320e+001  -1.161671e+002 
3325000000  -3.749754e+001  -1.113508e+002 
3328125000  -3.715121e+001  -1.098192e+002 
3331250000  -3.607326e+001  -1.031754e+002 
3334375000  -3.332777e+001  -1.132519e+002 
3337500000  -3.326872e+001  -1.328951e+002 
3340625000  -3.448230e+001  -1.436537e+002 
3343750000  -3.665461e+001  -1.453492e+002 
3346875000  -3.684470e+001  -1.427589e+002 
3350000000  -3.626912e+001  -1.447577e+002 
3353125000  -3.615543e+001  -1.498016e+002 
3356250000  -3.590561e+001  -1.580941e+002 
3359375000  -3.656843e+001  -1.668130e+002 
3362500000  -3.763276e+001  -1.723118e+002 
3365625000  -3.822093e+001  -1.726053e+002 
3368750000  -3.889043e+001  -1.753760e+002 
3371875000  -3.934287e+001  -1.779038e+002 
3375000000  -4.049266e+001  1.797187e+002 
3378125000  -4.147774e+001  1.799743e+002 
3381250000  -4.290849e+001  -1.715163e+002 
3384375000  -4.134320e+001  -1.514081e+002 
3387500000  -3.779736e+001  -1.677691e+002 
3390625000  -3.954201e+001  1.753102e+002 
3393750000  -4.074675e+001  1.781980e+002 
3396875000  -3.965384e+001  1.788435e+002 
3400000000  -3.882540e+001  1.704849e+002 
3403125000  -3.955872e+001  1.659710e+002 
3406250000  -3.973613e+001  1.652890e+002 
3409375000  -4.009916e+001  1.579796e+002 
3412500000  -4.031262e+001  1.553477e+002 
3415625000  -4.113815e+001  1.563442e+002 
3418750000  -4.125844e+001  1.556449e+002 
3421875000  -4.139410e+001  1.604103e+002 
3425000000  -4.036217e+001  1.596803e+002 
3428125000  -3.948407e+001  1.555348e+002 
3431250000  -3.909898e+001  1.498326e+002 
3434375000  -3.929518e+001  1.424780e+002 
3437500000  -3.976778e+001  1.386861e+002 
3440625000  -4.008586e+001  1.402834e+002 
3443750000  -3.905237e+001  1.424212e+002 
3446875000  -3.798347e+001  1.333389e+002 
3450000000  -3.768673e+001  1.227831e+002 
3453125000  -3.804672e+001  1.138096e+002 
3456250000  -3.916676e+001  1.070343e+002 
3459375000  -4.034452e+001  1.092269e+002 
3462500000  -4.002980e+001  1.077688e+002 
3465625000  -4.004921e+001  1.029219e+002 
3468750000  -4.024756e+001  9.817828e+001 
3471875000  -4.026243e+001  9.682848e+001 
3475000000  -4.001538e+001  9.181730e+001 
3478125000  -4.033934e+001  8.452189e+001 
3481250000  -4.166053e+001  8.287089e+001 
3484375000  -4.242205e+001  8.738085e+001 
3487500000  -4.166361e+001  8.500608e+001 
3490625000  -4.082240e+001  8.058005e+001 
3493750000  -4.122127e+001  7.515843e+001 
3496875000  -4.208838e+001  7.423715e+001 
3500000000  -4.273501e+001  7.574664e+001 
3503125000  -4.206021e+001  7.722158e+001 
3506250000  -4.087685e+001  7.323037e+001 
3509375000  -4.077800e+001  6.580077e+001 
3512500000  -4.136236e+001  5.637957e+001 
3515625000  -4.206998e+001  5.377484e+001 
3518750000  -4.241750e+001  5.532524e+001 
3521875000  -4.258742e+001  5.244900e+001 
3525000000  -4.343997e+001  4.928472e+001 
3528125000  -4.338820e+001  5.752305e+001 
3531250000  -4.205098e+001  5.606907e+001 
3534375000  -4.183366e+001  4.253943e+001 
3537500000  -4.247694e+001  3.915683e+001 
3540625000  -4.318208e+001  3.764907e+001 
3543750000  -4.416412e+001  4.024699e+001 
3546875000  -4.388586e+001  5.218350e+001 
3550000000  -4.148249e+001  5.230114e+001 
3553125000  -3.979227e+001  3.406282e+001 
3556250000  -4.132788e+001  2.745592e+001 
3559375000  -4.135927e+001  2.899504e+001 
3562500000  -4.020068e+001  1.996013e+001 
3565625000  -4.066522e+001  1.095706e+001 
3568750000  -4.118668e+001  1.398408e+001 
3571875000  -4.092965e+001  1.299661e+001 
3575000000  -4.078896e+001  6.492854e+000 
3578125000  -4.124943e+001  -8.544092e-001 
3581250000  -4.135642e+001  -5.305800e-001 
3584375000  -4.050219e+001  -4.552561e+000 
3587500000  -3.995771e+001  -1.325486e+001 
3590625000  -4.039608e+001  -2.350832e+001 
3593750000  -4.178323e+001  -2.526836e+001 
3596875000  -4.177918e+001  -1.901208e+001 
3600000000  -4.037604e+001  -2.475341e+001 
3603125000  -4.099718e+001  -3.858714e+001 
3606250000  -4.200179e+001  -4.395448e+001 
3609375000  -4.263476e+001  -4.727205e+001 
3612500000  -4.319924e+001  -4.957200e+001 
3615625000  -4.336963e+001  -5.420175e+001 
3618750000  -4.438343e+001  -5.127261e+001 
3621875000  -4.407629e+001  -5.336918e+001 
3625000000  -4.485195e+001  -5.350109e+001 
3628125000  -4.503964e+001  -5.394244e+001 
3631250000  -4.494237e+001  -6.009944e+001 
3634375000  -4.598432e+001  -5.786657e+001 
3637500000  -4.657809e+001  -5.157042e+001 
3640625000  -4.544194e+001  -5.215975e+001 
3643750000  -4.513478e+001  -5.577109e+001 
3646875000  -4.594668e+001  -6.257398e+001 
3650000000  -4.658743e+001  -6.021362e+001 
3653125000  -4.586615e+001  -6.086300e+001 
3656250000  -4.541795e+001  -6.207846e+001 
3659375000  -4.630922e+001  -5.616623e+001 
3662500000  -4.512640e+001  -5.997813e+001 
3665625000  -4.474792e+001  -6.270313e+001 
3668750000  -4.360334e+001  -6.090290e+001 
3671875000  -4.250079e+001  -6.683591e+001 
3675000000  -4.296830e+001  -7.540340e+001 
3678125000  -4.308847e+001  -7.891754e+001 
3681250000  -4.249323e+001  -8.102320e+001 
3684375000  -4.259627e+001  -8.384602e+001 
3687500000  -4.284065e+001  -9.010182e+001 
3690625000  -4.299264e+001  -9.419478e+001 
3693750000  -4.396093e+001  -9.593784e+001 
3696875000  -4.349968e+001  -9.635758e+001 
3700000000  -4.253596e+001  -1.003040e+002 
3703125000  -4.279564e+001  -1.070847e+002 
3706250000  -4.358923e+001  -1.080273e+002 
3709375000  -4.318061e+001  -1.052881e+002 
3712500000  -4.222279e+001  -1.070945e+002 
3715625000  -4.161652e+001  -1.140362e+002 
3718750000  -4.138819e+001  -1.208395e+002 
3721875000  -4.145509e+001  -1.271099e+002 
3725000000  -4.164759e+001  -1.321621e+002 
3728125000  -4.212907e+001  -1.350377e+002 
3731250000  -4.190783e+001  -1.358371e+002 
3734375000  -4.165724e+001  -1.438913e+002 
3737500000  -4.258130e+001  -1.513886e+002 
3740625000  -4.383286e+001  -1.530710e+002 
3743750000  -4.380791e+001  -1.563309e+002 
3746875000  -4.398538e+001  -1.580989e+002 
3750000000  -4.478642e+001  -1.570093e+002 
3753125000  -4.494535e+001  -1.570490e+002 
3756250000  -4.499072e+001  -1.538732e+002 
3759375000  -4.541919e+001  -1.546992e+002 
3762500000  -4.471322e+001  -1.571732e+002 
3765625000  -4.486834e+001  -1.558249e+002 
3768750000  -4.510516e+001  -1.519756e+002 
3771875000  -4.326718e+001  -1.524370e+002 
3775000000  -4.299151e+001  -1.611217e+002 
3778125000  -4.352940e+001  -1.603407e+002 
3781250000  -4.288726e+001  -1.626379e+002 
3784375000  -4.273960e+001  -1.640265e+002 
3787500000  -4.163584e+001  -1.679558e+002 
3790625000  -4.208253e+001  -1.746198e+002 
3793750000  -4.204795e+001  -1.744858e+002 
3796875000  -4.083681e+001  -1.798155e+002 
3800000000  -3.928974e+001  1.791926e+002 
3803125000  -4.001780e+001  1.689254e+002 
3806250000  -4.059098e+001  1.669451e+002 
3809375000  -4.041643e+001  1.639618e+002 
3812500000  -3.943195e+001  1.567019e+002 
3815625000  -4.019851e+001  1.476095e+002 
3818750000  -4.106192e+001  1.466167e+002 
3821875000  -4.115865e+001  1.530625e+002 
3825000000  -3.907945e+001  1.559805e+002 
3828125000  -3.763253e+001  1.389420e+002 
3831250000  -3.847870e+001  1.240800e+002 
3834375000  -3.969283e+001  1.225312e+002 
3837500000  -4.085078e+001  1.259331e+002 
3840625000  -3.971756e+001  1.265869e+002 
3843750000  -3.864745e+001  1.136539e+002 
3846875000  -3.978854e+001  1.045741e+002 
3850000000  -4.099810e+001  1.089921e+002 
3853125000  -3.999062e+001  1.139090e+002 
3856250000  -4.062856e+001  1.064217e+002 
3859375000  -3.981217e+001  1.010730e+002 
3862500000  -3.933625e+001  9.348473e+001 
3865625000  -3.984692e+001  8.781286e+001 
3868750000  -3.995850e+001  8.714690e+001 
3871875000  -3.911927e+001  8.549696e+001 
3875000000  -3.941356e+001  7.318538e+001 
3878125000  -4.104276e+001  7.146159e+001 
3881250000  -4.079513e+001  7.490804e+001 
3884375000  -4.032946e+001  7.020760e+001 
3887500000  -4.051926e+001  6.714329e+001 
3890625000  -4.119697e+001  6.255169e+001 
3893750000  -4.124952e+001  5.995049e+001 
3896875000  -4.188376e+001  6.383056e+001 
3900000000  -4.176160e+001  6.408847e+001 
3903125000  -4.114375e+001  6.167352e+001 
3906250000  -4.068676e+001  5.855417e+001 
3909375000  -4.012181e+001  5.537216e+001 
3912500000  -4.031499e+001  4.776147e+001 
3915625000  -4.141328e+001  4.941524e+001 
3918750000  -4.116015e+001  4.815176e+001 
3921875000  -4.070724e+001  4.658050e+001 
3925000000  -3.970483e+001  4.396985e+001 
3928125000  -3.889442e+001  3.682993e+001 
3931250000  -3.946292e+001  3.300828e+001 
3934375000  -3.940775e+001  3.293204e+001 
3937500000  -3.974059e+001  3.013418e+001 
3940625000  -4.025779e+001  2.623085e+001 
3943750000  -3.921426e+001  2.803980e+001 
3946875000  -3.805107e+001  2.108011e+001 
3950000000  -3.869992e+001  1.225138e+001 
3953125000  -3.959153e+001  1.018451e+001 
3956250000  -3.872054e+001  1.000733e+001 
3959375000  -3.751917e+001  8.393583e+000 
3962500000  -3.687999e+001  2.395158e+000 
3965625000  -3.664875e+001  -8.624474e+000 
3968750000  -3.794081e+001  -1.618100e+001 
3971875000  -3.808197e+001  -1.918934e+001 
3975000000  -3.753827e+001  -2.098238e+001 
3978125000  -3.749679e+001  -2.342695e+001 
3981250000  -3.759143e+001  -2.849354e+001 
3984375000  -3.783733e+001  -3.638026e+001 
3987500000  -3.823722e+001  -3.826337e+001 
3990625000  -3.840722e+001  -3.984379e+001 
3993750000  -3.872688e+001  -4.537708e+001 
3996875000  -3.888149e+001  -4.831273e+001 
4000000000  -3.906490e+001  -5.104305e+001 
4003125000  -3.958419e+001  -4.831494e+001 
4006250000  -3.848510e+001  -4.960310e+001 
4009375000  -3.748452e+001  -6.268632e+001 
4012500000  -3.892957e+001  -6.920067e+001 
4015625000  -3.998392e+001  -6.974910e+001 
4018750000  -4.026372e+001  -6.549680e+001 
4021875000  -3.947447e+001  -6.855908e+001 
4025000000  -3.939512e+001  -7.352596e+001 
4028125000  -3.946339e+001  -7.667039e+001 
4031250000  -3.958529e+001  -7.922273e+001 
4034375000  -4.016024e+001  -8.026604e+001 
4037500000  -3.947088e+001  -7.767349e+001 
4040625000  -3.930568e+001  -8.165415e+001 
4043750000  -3.960695e+001  -8.326456e+001 
4046875000  -3.932721e+001  -8.365028e+001 
4050000000  -3.853504e+001  -9.123363e+001 
4053125000  -3.906859e+001  -9.071815e+001 
4056250000  -3.926157e+001  -8.918288e+001 
4059375000  -3.804408e+001  -8.691402e+001 
4062500000  -3.667541e+001  -9.459554e+001 
4065625000  -3.650662e+001  -9.934939e+001 
4068750000  -3.613153e+001  -1.042443e+002 
4071875000  -3.555793e+001  -1.130852e+002 
4075000000  -3.576681e+001  -1.208408e+002 
4078125000  -3.626329e+001  -1.230379e+002 
4081250000  -3.584785e+001  -1.271921e+002 
4084375000  -3.545399e+001  -1.339015e+002 
4087500000  -3.591872e+001  -1.405542e+002 
4090625000  -3.640606e+001  -1.438520e+002 
4093750000  -3.635596e+001  -1.451225e+002 
4096875000  -3.582809e+001  -1.513035e+002 
4100000000  -3.656206e+001  -1.588041e+002 
4103125000  -3.751204e+001  -1.595566e+002 
4106250000  -3.736249e+001  -1.564205e+002 
4109375000  -3.624627e+001  -1.567758e+002 
4112500000  -3.598732e+001  -1.649882e+002 
4115625000  -3.627437e+001  -1.705536e+002 
4118750000  -3.651798e+001  -1.755239e+002 
4121875000  -3.616280e+001  -1.796927e+002 
4125000000  -3.658450e+001  1.735267e+002 
4128125000  -3.778934e+001  1.720501e+002 
4131250000  -3.746748e+001  1.798813e+002 
4134375000  -3.518258e+001  1.734741e+002 
4137500000  -3.507587e+001  1.534744e+002 
4140625000  -3.751274e+001  1.448649e+002 
4143750000  -3.884361e+001  1.504543e+002 
4146875000  -3.848295e+001  1.573024e+002 
4150000000  -3.795041e+001  1.542693e+002 
4153125000  -3.767055e+001  1.452711e+002 
4156250000  -3.858589e+001  1.436862e+002 
4159375000  -3.913087e+001  1.491328e+002 
4162500000  -3.778788e+001  1.522087e+002 
4165625000  -3.688884e+001  1.477953e+002 
4168750000  -3.619126e+001  1.417759e+002 
4171875000  -3.628981e+001  1.309629e+002 
4175000000  -3.706141e+001  1.272146e+002 
4178125000  -3.751117e+001  1.258830e+002 
4181250000  -3.709360e+001  1.266639e+002 
4184375000  -3.708351e+001  1.213478e+002 
4187500000  -3.702097e+001  1.189568e+002 
4190625000  -3.673671e+001  1.126155e+002 
4193750000  -3.737569e+001  1.100148e+002 
4196875000  -3.794071e+001  1.074568e+002 
4200000000  -3.883090e+001  1.114732e+002 
4203125000  -3.865050e+001  1.238005e+002 
4206250000  -3.522844e+001  1.238492e+002 
4209375000  -3.417507e+001  1.025083e+002 
4212500000  -3.607986e+001  9.242019e+001 
4215625000  -3.688311e+001  9.819759e+001 
4218750000  -3.550556e+001  1.039788e+002 
4221875000  -3.306575e+001  9.380492e+001 
4225000000  -3.436624e+001  7.999957e+001 
4228125000  -3.515548e+001  8.382304e+001 
4231250000  -3.334276e+001  7.923209e+001 
4234375000  -3.326635e+001  6.925204e+001 
4237500000  -3.285947e+001  6.439510e+001 
4240625000  -3.277471e+001  5.429355e+001 
4243750000  -3.388356e+001  4.498095e+001 
4246875000  -3.473146e+001  4.506929e+001 
4250000000  -3.465808e+001  4.574723e+001 
4253125000  -3.420127e+001  4.284072e+001 
4256250000  -3.461221e+001  3.684825e+001 
4259375000  -3.422050e+001  3.474138e+001 
4262500000  -3.436272e+001  2.805366e+001 
4265625000  -3.471790e+001  2.869553e+001 
4268750000  -3.372336e+001  2.333313e+001 
4271875000  -3.370694e+001  1.470461e+001 
4275000000  -3.348631e+001  8.092410e+000 
4278125000  -3.407321e+001  -2.572780e+000 
4281250000  -3.610392e+001  -6.811521e+000 
4284375000  -3.572537e+001  -7.185871e+000 
4287500000  -3.666357e+001  -1.119225e+001 
4290625000  -3.830775e+001  -1.277511e+000 
4293750000  -3.609167e+001  4.460142e+000 
4296875000  -3.494837e+001  -6.197803e+000 
4300000000  -3.624153e+001  -1.717758e+001 
4303125000  -3.733072e+001  -1.486225e+001 
4306250000  -3.663319e+001  -8.853939e+000 
4309375000  -3.548444e+001  -1.117745e+001 
4312500000  -3.531722e+001  -1.963257e+001 
4315625000  -3.565396e+001  -2.326856e+001 
4318750000  -3.579485e+001  -2.820186e+001 
4321875000  -3.590304e+001  -2.597032e+001 
4325000000  -3.532577e+001  -2.568901e+001 
4328125000  -3.457962e+001  -3.271791e+001 
4331250000  -3.438398e+001  -4.115051e+001 
4334375000  -3.485608e+001  -4.635611e+001 
4337500000  -3.555416e+001  -4.758494e+001 
4340625000  -3.601723e+001  -4.563623e+001 
4343750000  -3.509214e+001  -4.559381e+001 
4346875000  -3.454649e+001  -5.124977e+001 
4350000000  -3.437547e+001  -5.711064e+001 
4353125000  -3.436239e+001  -6.755027e+001 
4356250000  -3.641034e+001  -6.749579e+001 
4359375000  -3.638863e+001  -5.521565e+001 
4362500000  -3.343868e+001  -5.389310e+001 
4365625000  -3.176252e+001  -6.825475e+001 
4368750000  -3.275208e+001  -8.208784e+001 
4371875000  -3.368145e+001  -8.217272e+001 
4375000000  -3.324323e+001  -8.321045e+001 
4378125000  -3.267362e+001  -8.949445e+001 
4381250000  -3.277479e+001  -9.682134e+001 
4384375000  -3.250921e+001  -1.026883e+002 
4387500000  -3.328617e+001  -1.116072e+002 
4390625000  -3.431607e+001  -1.105554e+002 
4393750000  -3.362554e+001  -1.118869e+002 
4396875000  -3.304756e+001  -1.146778e+002 
4400000000  -3.257217e+001  -1.227753e+002 
4403125000  -3.334237e+001  -1.325409e+002 
4406250000  -3.404290e+001  -1.351449e+002 
4409375000  -3.424804e+001  -1.378010e+002 
4412500000  -3.537485e+001  -1.422657e+002 
4415625000  -3.582764e+001  -1.378343e+002 
