!Agilent Technologies,E8363B,MY43030201,A.06.04.32
!Agilent E8363B: A.06.04.32
!Date: Tuesday, November 11, 2014 21:04:33
!Correction: S21(Response(S21)) 
!S1P File: Measurement: S21:
# Hz S  dB   R 50
3000000000  -3.646185e+001  -4.761586e+001 
3003125000  -3.755385e+001  -5.283519e+001 
3006250000  -3.742041e+001  -5.640316e+001 
3009375000  -3.774751e+001  -5.158998e+001 
3012500000  -3.701138e+001  -5.360215e+001 
3015625000  -3.599965e+001  -6.053835e+001 
3018750000  -3.676590e+001  -6.214181e+001 
3021875000  -3.549526e+001  -6.085589e+001 
3025000000  -3.413454e+001  -6.488797e+001 
3028125000  -3.307910e+001  -7.119114e+001 
3031250000  -3.216969e+001  -8.206462e+001 
3034375000  -3.179641e+001  -9.565143e+001 
3037500000  -3.217005e+001  -1.085321e+002 
3040625000  -3.354803e+001  -1.123091e+002 
3043750000  -3.424752e+001  -1.181307e+002 
3046875000  -3.438042e+001  -1.240079e+002 
3050000000  -3.615151e+001  -1.302583e+002 
3053125000  -3.602316e+001  -1.240170e+002 
3056250000  -3.556704e+001  -1.212550e+002 
3059375000  -3.559781e+001  -1.218123e+002 
3062500000  -3.418294e+001  -1.250902e+002 
3065625000  -3.385141e+001  -1.318497e+002 
3068750000  -3.365845e+001  -1.381765e+002 
3071875000  -3.356224e+001  -1.410437e+002 
3075000000  -3.338187e+001  -1.443972e+002 
3078125000  -3.305223e+001  -1.484012e+002 
3081250000  -3.351994e+001  -1.531313e+002 
3084375000  -3.268238e+001  -1.563233e+002 
3087500000  -3.243297e+001  -1.605298e+002 
3090625000  -3.199156e+001  -1.704438e+002 
3093750000  -3.238402e+001  -1.778020e+002 
3096875000  -3.342525e+001  1.760378e+002 
3100000000  -3.336940e+001  1.737279e+002 
3103125000  -3.364915e+001  1.748554e+002 
3106250000  -3.320202e+001  1.706707e+002 
3109375000  -3.321332e+001  1.663606e+002 
3112500000  -3.321490e+001  1.642348e+002 
3115625000  -3.289642e+001  1.601430e+002 
3118750000  -3.319413e+001  1.591328e+002 
3121875000  -3.231977e+001  1.504112e+002 
3125000000  -3.354473e+001  1.459838e+002 
3128125000  -3.453960e+001  1.534776e+002 
3131250000  -3.207206e+001  1.515475e+002 
3134375000  -3.075817e+001  1.361534e+002 
3137500000  -3.132437e+001  1.218857e+002 
3140625000  -3.284365e+001  1.190568e+002 
3143750000  -3.380479e+001  1.207722e+002 
3146875000  -3.334605e+001  1.213501e+002 
3150000000  -3.228295e+001  1.220546e+002 
3153125000  -3.233055e+001  1.128312e+002 
3156250000  -3.336410e+001  1.177036e+002 
3159375000  -3.158447e+001  1.189388e+002 
3162500000  -2.968690e+001  1.042402e+002 
3165625000  -3.069001e+001  9.228316e+001 
3168750000  -3.103204e+001  9.237514e+001 
3171875000  -3.017654e+001  8.702789e+001 
3175000000  -3.093096e+001  7.782600e+001 
3178125000  -3.065128e+001  7.856668e+001 
3181250000  -2.954911e+001  7.281783e+001 
3184375000  -2.891905e+001  6.088755e+001 
3187500000  -3.003615e+001  4.468921e+001 
3190625000  -3.274779e+001  3.676641e+001 
3193750000  -3.335690e+001  4.586446e+001 
3196875000  -3.292987e+001  4.994278e+001 
3200000000  -3.208570e+001  4.748548e+001 
3203125000  -3.126635e+001  4.162934e+001 
3206250000  -3.154364e+001  3.470042e+001 
3209375000  -3.110842e+001  2.889673e+001 
3212500000  -3.131390e+001  2.128606e+001 
3215625000  -3.147781e+001  1.778027e+001 
3218750000  -3.215033e+001  1.089458e+001 
3221875000  -3.304613e+001  5.632651e+000 
3225000000  -3.264508e+001  4.028256e+000 
3228125000  -3.301667e+001  -1.288583e+000 
3231250000  -3.375600e+001  -3.988518e+000 
3234375000  -3.336902e+001  -3.694757e+000 
3237500000  -3.343983e+001  -5.566290e+000 
3240625000  -3.295358e+001  -8.055902e+000 
3243750000  -3.258356e+001  -1.569074e+001 
3246875000  -3.301815e+001  -2.289525e+001 
3250000000  -3.337138e+001  -2.590194e+001 
3253125000  -3.353430e+001  -2.802425e+001 
3256250000  -3.310648e+001  -3.375602e+001 
3259375000  -3.338389e+001  -4.254237e+001 
3262500000  -3.458955e+001  -4.614236e+001 
3265625000  -3.530166e+001  -4.364059e+001 
3268750000  -3.508935e+001  -4.155809e+001 
3271875000  -3.484564e+001  -4.199179e+001 
3275000000  -3.373528e+001  -4.828439e+001 
3278125000  -3.426988e+001  -5.520898e+001 
3281250000  -3.438343e+001  -5.411243e+001 
3284375000  -3.392374e+001  -6.070985e+001 
3287500000  -3.409950e+001  -6.418997e+001 
3290625000  -3.434945e+001  -7.016967e+001 
3293750000  -3.407180e+001  -7.624361e+001 
3296875000  -3.517535e+001  -7.703043e+001 
3300000000  -3.486045e+001  -7.674889e+001 
3303125000  -3.373564e+001  -8.192587e+001 
3306250000  -3.350697e+001  -8.918803e+001 
3309375000  -3.311627e+001  -9.473289e+001 
3312500000  -3.336883e+001  -1.060287e+002 
3315625000  -3.431137e+001  -1.146983e+002 
3318750000  -3.569664e+001  -1.172798e+002 
3321875000  -3.673880e+001  -1.176216e+002 
3325000000  -3.729769e+001  -1.141253e+002 
3328125000  -3.686449e+001  -1.109727e+002 
3331250000  -3.561695e+001  -1.051133e+002 
3334375000  -3.294186e+001  -1.156091e+002 
3337500000  -3.307377e+001  -1.347291e+002 
3340625000  -3.447261e+001  -1.455318e+002 
3343750000  -3.648051e+001  -1.469904e+002 
3346875000  -3.664142e+001  -1.453585e+002 
3350000000  -3.607731e+001  -1.459845e+002 
3353125000  -3.600351e+001  -1.519814e+002 
3356250000  -3.551935e+001  -1.601092e+002 
3359375000  -3.636942e+001  -1.686429e+002 
3362500000  -3.758158e+001  -1.740312e+002 
3365625000  -3.780495e+001  -1.750901e+002 
3368750000  -3.868444e+001  -1.776555e+002 
3371875000  -3.895674e+001  -1.799453e+002 
3375000000  -4.013271e+001  1.768648e+002 
3378125000  -4.123432e+001  1.781965e+002 
3381250000  -4.227156e+001  -1.750241e+002 
3384375000  -4.135997e+001  -1.537307e+002 
3387500000  -3.763727e+001  -1.702252e+002 
3390625000  -3.924816e+001  1.714940e+002 
3393750000  -4.037674e+001  1.757954e+002 
3396875000  -3.925287e+001  1.774843e+002 
3400000000  -3.854313e+001  1.674497e+002 
3403125000  -3.926952e+001  1.619156e+002 
3406250000  -3.971876e+001  1.629343e+002 
3409375000  -3.974803e+001  1.532026e+002 
3412500000  -4.024114e+001  1.522879e+002 
3415625000  -4.079891e+001  1.535906e+002 
3418750000  -4.107657e+001  1.529717e+002 
3421875000  -4.129439e+001  1.570983e+002 
3425000000  -4.033683e+001  1.572944e+002 
3428125000  -3.920481e+001  1.509738e+002 
3431250000  -3.931881e+001  1.461911e+002 
3434375000  -3.909693e+001  1.396049e+002 
3437500000  -3.971379e+001  1.374797e+002 
3440625000  -3.992964e+001  1.372113e+002 
3443750000  -3.893410e+001  1.386126e+002 
3446875000  -3.799150e+001  1.304131e+002 
3450000000  -3.772934e+001  1.209182e+002 
3453125000  -3.797477e+001  1.114791e+002 
3456250000  -3.902729e+001  1.045011e+002 
3459375000  -4.013613e+001  1.046636e+002 
3462500000  -3.984787e+001  1.059586e+002 
3465625000  -3.985973e+001  1.002470e+002 
3468750000  -4.021254e+001  9.477210e+001 
3471875000  -4.028001e+001  9.431015e+001 
3475000000  -3.959519e+001  8.865877e+001 
3478125000  -4.042165e+001  8.107229e+001 
3481250000  -4.149154e+001  7.897139e+001 
3484375000  -4.207682e+001  8.304040e+001 
3487500000  -4.122227e+001  8.337711e+001 
3490625000  -4.080182e+001  7.827659e+001 
3493750000  -4.125430e+001  7.158096e+001 
3496875000  -4.196331e+001  7.062892e+001 
3500000000  -4.259579e+001  7.333760e+001 
3503125000  -4.208352e+001  7.322831e+001 
3506250000  -4.079408e+001  6.975813e+001 
3509375000  -4.071933e+001  6.092376e+001 
3512500000  -4.117784e+001  5.097857e+001 
3515625000  -4.200351e+001  4.816014e+001 
3518750000  -4.274130e+001  4.873671e+001 
3521875000  -4.252687e+001  4.712396e+001 
3525000000  -4.349943e+001  4.615451e+001 
3528125000  -4.335739e+001  5.228024e+001 
3531250000  -4.187505e+001  5.106370e+001 
3534375000  -4.192703e+001  3.942394e+001 
3537500000  -4.250711e+001  3.588992e+001 
3540625000  -4.355185e+001  3.402807e+001 
3543750000  -4.417873e+001  3.530763e+001 
3546875000  -4.409676e+001  4.859227e+001 
3550000000  -4.150661e+001  4.972476e+001 
3553125000  -4.007601e+001  3.213081e+001 
3556250000  -4.138777e+001  2.682575e+001 
3559375000  -4.128275e+001  2.743416e+001 
3562500000  -4.004484e+001  1.843224e+001 
3565625000  -4.138820e+001  1.082331e+001 
3568750000  -4.147282e+001  1.392919e+001 
3571875000  -4.125248e+001  1.131625e+001 
3575000000  -4.097394e+001  4.884520e+000 
3578125000  -4.145187e+001  -5.945794e-001 
3581250000  -4.148129e+001  -3.558168e-001 
3584375000  -4.065377e+001  -4.519430e+000 
3587500000  -4.009853e+001  -1.213016e+001 
3590625000  -4.071471e+001  -2.490741e+001 
3593750000  -4.163611e+001  -2.510010e+001 
3596875000  -4.182531e+001  -1.884644e+001 
3600000000  -4.033389e+001  -2.445231e+001 
3603125000  -4.089640e+001  -3.848812e+001 
3606250000  -4.125169e+001  -4.264859e+001 
3609375000  -4.213968e+001  -4.804916e+001 
3612500000  -4.263345e+001  -4.779010e+001 
3615625000  -4.298836e+001  -5.377696e+001 
3618750000  -4.394835e+001  -5.402777e+001 
3621875000  -4.374955e+001  -5.590877e+001 
3625000000  -4.404779e+001  -5.760378e+001 
3628125000  -4.430661e+001  -5.779479e+001 
3631250000  -4.414811e+001  -6.239714e+001 
3634375000  -4.573457e+001  -6.456762e+001 
3637500000  -4.562532e+001  -5.856408e+001 
3640625000  -4.496108e+001  -5.611392e+001 
3643750000  -4.466269e+001  -6.283978e+001 
3646875000  -4.483264e+001  -6.702829e+001 
3650000000  -4.630174e+001  -6.792916e+001 
3653125000  -4.546007e+001  -6.988266e+001 
3656250000  -4.558597e+001  -6.933397e+001 
3659375000  -4.595897e+001  -6.698200e+001 
3662500000  -4.536651e+001  -6.616942e+001 
3665625000  -4.483551e+001  -6.660854e+001 
3668750000  -4.387994e+001  -6.744302e+001 
3671875000  -4.295682e+001  -7.308460e+001 
3675000000  -4.318082e+001  -8.020918e+001 
3678125000  -4.354663e+001  -7.995321e+001 
3681250000  -4.328034e+001  -8.387619e+001 
3684375000  -4.291919e+001  -8.901648e+001 
3687500000  -4.287387e+001  -9.375376e+001 
3690625000  -4.307280e+001  -9.832323e+001 
3693750000  -4.379280e+001  -9.735563e+001 
3696875000  -4.400738e+001  -9.608855e+001 
3700000000  -4.262639e+001  -1.028799e+002 
3703125000  -4.286205e+001  -1.074693e+002 
3706250000  -4.405452e+001  -1.070012e+002 
3709375000  -4.333863e+001  -1.060886e+002 
3712500000  -4.263305e+001  -1.054351e+002 
3715625000  -4.149242e+001  -1.173347e+002 
3718750000  -4.134787e+001  -1.214601e+002 
3721875000  -4.117874e+001  -1.284922e+002 
3725000000  -4.149376e+001  -1.342998e+002 
3728125000  -4.198862e+001  -1.368535e+002 
3731250000  -4.145563e+001  -1.393865e+002 
3734375000  -4.127350e+001  -1.458531e+002 
3737500000  -4.238126e+001  -1.520935e+002 
3740625000  -4.304931e+001  -1.538160e+002 
3743750000  -4.294111e+001  -1.583361e+002 
3746875000  -4.382916e+001  -1.595640e+002 
3750000000  -4.405755e+001  -1.610857e+002 
3753125000  -4.434040e+001  -1.604168e+002 
3756250000  -4.468220e+001  -1.607102e+002 
3759375000  -4.442801e+001  -1.617463e+002 
3762500000  -4.412952e+001  -1.642430e+002 
3765625000  -4.474947e+001  -1.621735e+002 
3768750000  -4.470923e+001  -1.585014e+002 
3771875000  -4.305846e+001  -1.603976e+002 
3775000000  -4.290179e+001  -1.688262e+002 
3778125000  -4.331115e+001  -1.702710e+002 
3781250000  -4.320204e+001  -1.717552e+002 
3784375000  -4.294297e+001  -1.706982e+002 
3787500000  -4.175050e+001  -1.748265e+002 
3790625000  -4.247802e+001  1.779100e+002 
3793750000  -4.223940e+001  1.791509e+002 
3796875000  -4.136240e+001  1.760887e+002 
3800000000  -3.991346e+001  1.735954e+002 
3803125000  -4.033030e+001  1.639617e+002 
3806250000  -4.099244e+001  1.621097e+002 
3809375000  -4.044370e+001  1.588994e+002 
3812500000  -3.980247e+001  1.517098e+002 
3815625000  -4.048301e+001  1.441205e+002 
3818750000  -4.162424e+001  1.429222e+002 
3821875000  -4.117691e+001  1.497516e+002 
3825000000  -3.923554e+001  1.522939e+002 
3828125000  -3.820810e+001  1.357644e+002 
3831250000  -3.869910e+001  1.227134e+002 
3834375000  -3.997418e+001  1.214726e+002 
3837500000  -4.114714e+001  1.237283e+002 
3840625000  -4.001660e+001  1.202208e+002 
3843750000  -3.882668e+001  1.093188e+002 
3846875000  -3.978675e+001  1.028512e+002 
3850000000  -4.096154e+001  1.073749e+002 
3853125000  -4.048482e+001  1.123281e+002 
3856250000  -4.024265e+001  1.034859e+002 
3859375000  -3.949618e+001  9.870619e+001 
3862500000  -3.921588e+001  8.952071e+001 
3865625000  -3.964022e+001  8.637199e+001 
3868750000  -3.971074e+001  8.474150e+001 
3871875000  -3.907200e+001  8.165447e+001 
3875000000  -3.951858e+001  7.083734e+001 
3878125000  -4.062638e+001  7.094007e+001 
3881250000  -4.054496e+001  7.235301e+001 
3884375000  -4.016850e+001  6.629051e+001 
3887500000  -4.033235e+001  6.274229e+001 
3890625000  -4.079345e+001  6.098056e+001 
3893750000  -4.112426e+001  5.862501e+001 
3896875000  -4.137345e+001  5.837658e+001 
3900000000  -4.134248e+001  5.779130e+001 
3903125000  -4.122085e+001  5.653659e+001 
3906250000  -4.059889e+001  5.232090e+001 
3909375000  -4.017348e+001  5.154807e+001 
3912500000  -4.009556e+001  4.105078e+001 
3915625000  -4.127389e+001  4.358365e+001 
3918750000  -4.131827e+001  4.413956e+001 
3921875000  -4.070186e+001  4.116633e+001 
3925000000  -3.957138e+001  4.061355e+001 
3928125000  -3.908842e+001  3.288354e+001 
3931250000  -3.954106e+001  2.719487e+001 
3934375000  -4.001154e+001  2.558677e+001 
3937500000  -3.989207e+001  2.611002e+001 
3940625000  -4.036197e+001  2.203854e+001 
3943750000  -3.967497e+001  2.298542e+001 
3946875000  -3.825062e+001  1.836021e+001 
3950000000  -3.913631e+001  8.949565e+000 
3953125000  -3.990988e+001  5.985938e+000 
3956250000  -3.892347e+001  9.341954e+000 
3959375000  -3.773207e+001  4.290471e+000 
3962500000  -3.730666e+001  -7.089264e-001 
3965625000  -3.697656e+001  -1.083516e+001 
3968750000  -3.803497e+001  -1.630380e+001 
3971875000  -3.839291e+001  -2.065284e+001 
3975000000  -3.799532e+001  -2.314325e+001 
3978125000  -3.784866e+001  -2.501996e+001 
3981250000  -3.771918e+001  -3.026405e+001 
3984375000  -3.813904e+001  -3.761454e+001 
3987500000  -3.850146e+001  -3.949707e+001 
3990625000  -3.845205e+001  -4.083559e+001 
3993750000  -3.888613e+001  -4.635322e+001 
3996875000  -3.895379e+001  -4.953317e+001 
4000000000  -3.910729e+001  -4.997968e+001 
4003125000  -3.951929e+001  -4.705091e+001 
4006250000  -3.847013e+001  -5.122023e+001 
4009375000  -3.726902e+001  -6.285092e+001 
4012500000  -3.875823e+001  -7.019298e+001 
4015625000  -3.974834e+001  -6.815984e+001 
4018750000  -3.991583e+001  -6.752164e+001 
4021875000  -3.926770e+001  -6.987203e+001 
4025000000  -3.888806e+001  -7.469697e+001 
4028125000  -3.896453e+001  -7.918340e+001 
4031250000  -3.958809e+001  -8.309181e+001 
4034375000  -3.955133e+001  -8.405987e+001 
4037500000  -3.943324e+001  -8.121491e+001 
4040625000  -3.914151e+001  -8.616851e+001 
4043750000  -3.942311e+001  -8.582941e+001 
4046875000  -3.912277e+001  -8.856349e+001 
4050000000  -3.821188e+001  -9.372304e+001 
4053125000  -3.903844e+001  -9.691211e+001 
4056250000  -3.937171e+001  -9.193165e+001 
4059375000  -3.799723e+001  -9.263210e+001 
4062500000  -3.685839e+001  -9.860260e+001 
4065625000  -3.663581e+001  -1.032177e+002 
4068750000  -3.634961e+001  -1.097048e+002 
4071875000  -3.571745e+001  -1.177644e+002 
4075000000  -3.595209e+001  -1.255274e+002 
4078125000  -3.663326e+001  -1.270327e+002 
4081250000  -3.588966e+001  -1.307052e+002 
4084375000  -3.571453e+001  -1.385421e+002 
4087500000  -3.603599e+001  -1.445936e+002 
4090625000  -3.667367e+001  -1.460542e+002 
4093750000  -3.650512e+001  -1.468816e+002 
4096875000  -3.622095e+001  -1.540046e+002 
4100000000  -3.675808e+001  -1.628157e+002 
4103125000  -3.778350e+001  -1.614591e+002 
4106250000  -3.773100e+001  -1.572127e+002 
4109375000  -3.667672e+001  -1.588384e+002 
4112500000  -3.615972e+001  -1.664124e+002 
4115625000  -3.640963e+001  -1.718437e+002 
4118750000  -3.676005e+001  -1.769865e+002 
4121875000  -3.637510e+001  1.780696e+002 
4125000000  -3.679990e+001  1.710228e+002 
4128125000  -3.795086e+001  1.714913e+002 
4131250000  -3.744293e+001  1.791232e+002 
4134375000  -3.522240e+001  1.732646e+002 
4137500000  -3.509929e+001  1.528176e+002 
4140625000  -3.741718e+001  1.456384e+002 
4143750000  -3.907049e+001  1.494864e+002 
4146875000  -3.835161e+001  1.563093e+002 
4150000000  -3.737639e+001  1.541237e+002 
4153125000  -3.751549e+001  1.450306e+002 
4156250000  -3.848992e+001  1.427695e+002 
4159375000  -3.861073e+001  1.479473e+002 
4162500000  -3.761988e+001  1.519360e+002 
4165625000  -3.634094e+001  1.459137e+002 
4168750000  -3.584923e+001  1.382663e+002 
4171875000  -3.617192e+001  1.293553e+002 
4175000000  -3.663625e+001  1.244325e+002 
4178125000  -3.732160e+001  1.243512e+002 
4181250000  -3.676624e+001  1.226486e+002 
4184375000  -3.686796e+001  1.181138e+002 
4187500000  -3.671296e+001  1.155465e+002 
4190625000  -3.645426e+001  1.095224e+002 
4193750000  -3.741038e+001  1.057161e+002 
4196875000  -3.806571e+001  1.043504e+002 
4200000000  -3.870390e+001  1.058865e+002 
4203125000  -3.875336e+001  1.181605e+002 
4206250000  -3.538181e+001  1.187508e+002 
4209375000  -3.430226e+001  9.771789e+001 
4212500000  -3.611952e+001  8.852272e+001 
4215625000  -3.695595e+001  9.478222e+001 
4218750000  -3.555849e+001  9.972668e+001 
4221875000  -3.326222e+001  8.981076e+001 
4225000000  -3.458108e+001  7.675121e+001 
4228125000  -3.517501e+001  7.987676e+001 
4231250000  -3.353325e+001  7.472958e+001 
4234375000  -3.344580e+001  6.593922e+001 
4237500000  -3.279049e+001  6.186177e+001 
4240625000  -3.293647e+001  5.102255e+001 
4243750000  -3.401072e+001  4.331760e+001 
4246875000  -3.476180e+001  4.185730e+001 
4250000000  -3.489035e+001  4.447451e+001 
4253125000  -3.442811e+001  4.052266e+001 
4256250000  -3.477033e+001  3.500911e+001 
4259375000  -3.445256e+001  3.251702e+001 
4262500000  -3.460841e+001  2.891660e+001 
4265625000  -3.486423e+001  2.609688e+001 
4268750000  -3.394318e+001  2.115890e+001 
4271875000  -3.379718e+001  1.435293e+001 
4275000000  -3.334637e+001  8.091460e+000 
4278125000  -3.400503e+001  -4.830727e+000 
4281250000  -3.577233e+001  -6.776067e+000 
4284375000  -3.577794e+001  -5.897867e+000 
4287500000  -3.688528e+001  -1.176516e+001 
4290625000  -3.796725e+001  -2.866201e+000 
4293750000  -3.589623e+001  2.565269e+000 
4296875000  -3.480611e+001  -7.289266e+000 
4300000000  -3.587757e+001  -1.866700e+001 
4303125000  -3.718152e+001  -1.668531e+001 
4306250000  -3.630014e+001  -9.195467e+000 
4309375000  -3.495090e+001  -1.168611e+001 
4312500000  -3.477641e+001  -2.051004e+001 
4315625000  -3.507327e+001  -2.667774e+001 
4318750000  -3.531124e+001  -2.895955e+001 
4321875000  -3.546036e+001  -2.897036e+001 
4325000000  -3.476764e+001  -2.979977e+001 
4328125000  -3.415832e+001  -3.554970e+001 
4331250000  -3.400152e+001  -4.447124e+001 
4334375000  -3.451194e+001  -4.929187e+001 
4337500000  -3.520360e+001  -5.284429e+001 
4340625000  -3.564651e+001  -4.945426e+001 
4343750000  -3.487218e+001  -4.944086e+001 
4346875000  -3.435964e+001  -5.750952e+001 
4350000000  -3.421806e+001  -6.158009e+001 
4353125000  -3.420313e+001  -7.067572e+001 
4356250000  -3.595794e+001  -7.248637e+001 
4359375000  -3.640216e+001  -5.827270e+001 
4362500000  -3.345796e+001  -5.883917e+001 
4365625000  -3.183365e+001  -7.329929e+001 
4368750000  -3.264068e+001  -8.525995e+001 
4371875000  -3.375565e+001  -8.567567e+001 
4375000000  -3.326544e+001  -8.629334e+001 
4378125000  -3.247985e+001  -9.366846e+001 
4381250000  -3.279372e+001  -1.010909e+002 
4384375000  -3.264530e+001  -1.072095e+002 
4387500000  -3.343670e+001  -1.138816e+002 
4390625000  -3.442604e+001  -1.133564e+002 
4393750000  -3.363737e+001  -1.134203e+002 
4396875000  -3.310371e+001  -1.167202e+002 
4400000000  -3.269491e+001  -1.249830e+002 
4403125000  -3.320717e+001  -1.337668e+002 
4406250000  -3.422499e+001  -1.362315e+002 
4409375000  -3.433738e+001  -1.391713e+002 
4412500000  -3.534250e+001  -1.427907e+002 
4415625000  -3.589087e+001  -1.386691e+002 
