!Agilent Technologies,E8363B,MY43030201,A.06.04.32
!Agilent E8363B: A.06.04.32
!Date: Tuesday, November 11, 2014 21:12:37
!Correction: S21(Response(S21)) 
!S1P File: Measurement: S21:
# Hz S  dB   R 50
3000000000  -3.642126e+001  -5.921574e+001 
3003125000  -3.767999e+001  -6.595543e+001 
3006250000  -3.742868e+001  -6.804337e+001 
3009375000  -3.782376e+001  -6.213375e+001 
3012500000  -3.693646e+001  -6.596545e+001 
3015625000  -3.612629e+001  -7.222453e+001 
3018750000  -3.693598e+001  -7.343135e+001 
3021875000  -3.549818e+001  -7.200819e+001 
3025000000  -3.410910e+001  -7.560798e+001 
3028125000  -3.323454e+001  -8.300873e+001 
3031250000  -3.218649e+001  -9.435265e+001 
3034375000  -3.191868e+001  -1.077425e+002 
3037500000  -3.239838e+001  -1.197131e+002 
3040625000  -3.371059e+001  -1.242105e+002 
3043750000  -3.434724e+001  -1.295785e+002 
3046875000  -3.455637e+001  -1.354821e+002 
3050000000  -3.618814e+001  -1.409668e+002 
3053125000  -3.606767e+001  -1.352830e+002 
3056250000  -3.574156e+001  -1.322590e+002 
3059375000  -3.565335e+001  -1.325178e+002 
3062500000  -3.418673e+001  -1.361946e+002 
3065625000  -3.393232e+001  -1.431913e+002 
3068750000  -3.362185e+001  -1.494995e+002 
3071875000  -3.347636e+001  -1.516062e+002 
3075000000  -3.326163e+001  -1.563591e+002 
3078125000  -3.314557e+001  -1.603980e+002 
3081250000  -3.356419e+001  -1.648896e+002 
3084375000  -3.268353e+001  -1.680380e+002 
3087500000  -3.249412e+001  -1.715474e+002 
3090625000  -3.194393e+001  1.775070e+002 
3093750000  -3.259121e+001  1.704911e+002 
3096875000  -3.342271e+001  1.656213e+002 
3100000000  -3.339690e+001  1.623969e+002 
3103125000  -3.370467e+001  1.629242e+002 
3106250000  -3.319544e+001  1.589277e+002 
3109375000  -3.321326e+001  1.555090e+002 
3112500000  -3.317406e+001  1.523426e+002 
3115625000  -3.292681e+001  1.478629e+002 
3118750000  -3.321360e+001  1.476211e+002 
3121875000  -3.226736e+001  1.384257e+002 
3125000000  -3.363861e+001  1.342209e+002 
3128125000  -3.441601e+001  1.424204e+002 
3131250000  -3.203764e+001  1.396432e+002 
3134375000  -3.078116e+001  1.240843e+002 
3137500000  -3.138723e+001  1.107995e+002 
3140625000  -3.274181e+001  1.075686e+002 
3143750000  -3.373153e+001  1.086417e+002 
3146875000  -3.321078e+001  1.097444e+002 
3150000000  -3.235102e+001  1.097884e+002 
3153125000  -3.243721e+001  1.006890e+002 
3156250000  -3.335352e+001  1.055117e+002 
3159375000  -3.151949e+001  1.070326e+002 
3162500000  -2.969631e+001  9.214109e+001 
3165625000  -3.081539e+001  8.020597e+001 
3168750000  -3.105637e+001  8.024384e+001 
3171875000  -3.018138e+001  7.444865e+001 
3175000000  -3.092006e+001  6.550982e+001 
3178125000  -3.060703e+001  6.648103e+001 
3181250000  -2.962293e+001  6.050021e+001 
3184375000  -2.902535e+001  4.773375e+001 
3187500000  -3.025540e+001  3.274303e+001 
3190625000  -3.277449e+001  2.540929e+001 
3193750000  -3.328702e+001  3.373969e+001 
3196875000  -3.303045e+001  3.836185e+001 
3200000000  -3.192812e+001  3.551920e+001 
3203125000  -3.131739e+001  2.888514e+001 
3206250000  -3.165207e+001  2.224712e+001 
3209375000  -3.107427e+001  1.638972e+001 
3212500000  -3.146310e+001  9.967627e+000 
3215625000  -3.150577e+001  6.690798e+000 
3218750000  -3.220476e+001  -1.251803e+000 
3221875000  -3.304688e+001  -6.267591e+000 
3225000000  -3.258083e+001  -7.531211e+000 
3228125000  -3.299139e+001  -1.374763e+001 
3231250000  -3.369397e+001  -1.588369e+001 
3234375000  -3.341085e+001  -1.530989e+001 
3237500000  -3.337197e+001  -1.764235e+001 
3240625000  -3.288650e+001  -2.050161e+001 
3243750000  -3.264345e+001  -2.825134e+001 
3246875000  -3.302949e+001  -3.498587e+001 
3250000000  -3.340087e+001  -3.774266e+001 
3253125000  -3.350914e+001  -3.929085e+001 
3256250000  -3.304483e+001  -4.614364e+001 
3259375000  -3.345551e+001  -5.478657e+001 
3262500000  -3.463633e+001  -5.847562e+001 
3265625000  -3.519628e+001  -5.542060e+001 
3268750000  -3.508255e+001  -5.370811e+001 
3271875000  -3.466588e+001  -5.403195e+001 
3275000000  -3.357246e+001  -6.124986e+001 
3278125000  -3.413939e+001  -6.756445e+001 
3281250000  -3.434171e+001  -6.691061e+001 
3284375000  -3.386079e+001  -7.387537e+001 
3287500000  -3.408433e+001  -7.708115e+001 
3290625000  -3.426283e+001  -8.306683e+001 
3293750000  -3.406063e+001  -8.905373e+001 
3296875000  -3.511753e+001  -8.971936e+001 
3300000000  -3.490724e+001  -8.938848e+001 
3303125000  -3.362323e+001  -9.462738e+001 
3306250000  -3.350349e+001  -1.020318e+002 
3309375000  -3.315730e+001  -1.080916e+002 
3312500000  -3.323974e+001  -1.194209e+002 
3315625000  -3.435216e+001  -1.267557e+002 
3318750000  -3.580331e+001  -1.300832e+002 
3321875000  -3.685973e+001  -1.303047e+002 
3325000000  -3.732102e+001  -1.237556e+002 
3328125000  -3.689394e+001  -1.239019e+002 
3331250000  -3.551145e+001  -1.181553e+002 
3334375000  -3.288567e+001  -1.289271e+002 
3337500000  -3.289651e+001  -1.482442e+002 
3340625000  -3.451026e+001  -1.593627e+002 
3343750000  -3.650085e+001  -1.596225e+002 
3346875000  -3.656708e+001  -1.576098e+002 
3350000000  -3.592657e+001  -1.596399e+002 
3353125000  -3.604964e+001  -1.649850e+002 
3356250000  -3.560512e+001  -1.726085e+002 
3359375000  -3.628933e+001  1.790690e+002 
3362500000  -3.758155e+001  1.735068e+002 
3365625000  -3.803448e+001  1.720484e+002 
3368750000  -3.878859e+001  1.700853e+002 
3371875000  -3.908968e+001  1.674329e+002 
3375000000  -4.045910e+001  1.634141e+002 
3378125000  -4.127449e+001  1.644259e+002 
3381250000  -4.274634e+001  1.725712e+002 
3384375000  -4.106229e+001  -1.664019e+002 
3387500000  -3.760992e+001  1.781250e+002 
3390625000  -3.918947e+001  1.588260e+002 
3393750000  -4.027311e+001  1.630975e+002 
3396875000  -3.894106e+001  1.645514e+002 
3400000000  -3.867791e+001  1.555230e+002 
3403125000  -3.919854e+001  1.491591e+002 
3406250000  -3.954053e+001  1.505905e+002 
3409375000  -3.986414e+001  1.410494e+002 
3412500000  -4.030388e+001  1.413131e+002 
3415625000  -4.090806e+001  1.400432e+002 
3418750000  -4.106296e+001  1.420460e+002 
3421875000  -4.108216e+001  1.435450e+002 
3425000000  -4.008624e+001  1.426266e+002 
3428125000  -3.934229e+001  1.395670e+002 
3431250000  -3.913269e+001  1.332365e+002 
3434375000  -3.910602e+001  1.272731e+002 
3437500000  -3.963072e+001  1.233797e+002 
3440625000  -3.988594e+001  1.257956e+002 
3443750000  -3.862448e+001  1.250830e+002 
3446875000  -3.786205e+001  1.175309e+002 
3450000000  -3.757307e+001  1.073150e+002 
3453125000  -3.801506e+001  9.740863e+001 
3456250000  -3.913361e+001  9.050081e+001 
3459375000  -4.001035e+001  9.310711e+001 
3462500000  -3.985483e+001  9.179418e+001 
3465625000  -3.993242e+001  8.717762e+001 
3468750000  -4.016931e+001  8.160672e+001 
3471875000  -4.001380e+001  8.107758e+001 
3475000000  -3.982558e+001  7.644955e+001 
3478125000  -4.045517e+001  6.749551e+001 
3481250000  -4.121228e+001  6.546293e+001 
3484375000  -4.228846e+001  7.100046e+001 
3487500000  -4.140627e+001  6.871764e+001 
3490625000  -4.092186e+001  6.521258e+001 
3493750000  -4.157096e+001  5.593404e+001 
3496875000  -4.197624e+001  5.625590e+001 
3500000000  -4.247635e+001  6.201058e+001 
3503125000  -4.214474e+001  6.220750e+001 
3506250000  -4.074498e+001  5.703847e+001 
3509375000  -4.050475e+001  4.627241e+001 
3512500000  -4.106559e+001  3.734214e+001 
3515625000  -4.192205e+001  3.646367e+001 
3518750000  -4.231616e+001  3.679169e+001 
3521875000  -4.269381e+001  3.481431e+001 
3525000000  -4.327869e+001  3.180086e+001 
3528125000  -4.295478e+001  3.877589e+001 
3531250000  -4.190140e+001  3.763214e+001 
3534375000  -4.188414e+001  2.640203e+001 
3537500000  -4.230030e+001  2.120965e+001 
3540625000  -4.340547e+001  2.068161e+001 
3543750000  -4.391332e+001  2.385172e+001 
3546875000  -4.370400e+001  3.566492e+001 
3550000000  -4.112854e+001  3.550668e+001 
3553125000  -3.989221e+001  1.784590e+001 
3556250000  -4.114176e+001  1.129174e+001 
3559375000  -4.096758e+001  1.454758e+001 
3562500000  -3.995913e+001  3.260872e+000 
3565625000  -4.104376e+001  -4.632258e+000 
3568750000  -4.132614e+001  3.570693e-001 
3571875000  -4.073952e+001  -3.334955e+000 
3575000000  -4.038664e+001  -9.772853e+000 
3578125000  -4.121393e+001  -1.356453e+001 
3581250000  -4.102350e+001  -1.590777e+001 
3584375000  -4.005807e+001  -1.940916e+001 
3587500000  -3.999727e+001  -3.061461e+001 
3590625000  -4.039085e+001  -3.819216e+001 
3593750000  -4.165976e+001  -4.134829e+001 
3596875000  -4.174282e+001  -3.416231e+001 
3600000000  -4.009948e+001  -4.134787e+001 
3603125000  -4.066629e+001  -5.484004e+001 
3606250000  -4.150586e+001  -5.794308e+001 
3609375000  -4.212085e+001  -6.119007e+001 
3612500000  -4.274797e+001  -6.428945e+001 
3615625000  -4.312956e+001  -6.838472e+001 
3618750000  -4.366584e+001  -6.695930e+001 
3621875000  -4.381219e+001  -6.999422e+001 
3625000000  -4.445467e+001  -7.251749e+001 
3628125000  -4.453896e+001  -7.311087e+001 
3631250000  -4.467188e+001  -7.875774e+001 
3634375000  -4.544973e+001  -7.468005e+001 
3637500000  -4.582203e+001  -7.248067e+001 
3640625000  -4.490212e+001  -6.905049e+001 
3643750000  -4.438924e+001  -7.438535e+001 
3646875000  -4.513157e+001  -7.726701e+001 
3650000000  -4.587373e+001  -7.830231e+001 
3653125000  -4.513408e+001  -8.058334e+001 
3656250000  -4.581318e+001  -8.117966e+001 
3659375000  -4.566732e+001  -7.652949e+001 
3662500000  -4.515866e+001  -8.036254e+001 
3665625000  -4.452454e+001  -8.134078e+001 
3668750000  -4.344986e+001  -8.115485e+001 
3671875000  -4.275932e+001  -8.623050e+001 
3675000000  -4.270372e+001  -9.393058e+001 
3678125000  -4.273522e+001  -9.610641e+001 
3681250000  -4.254125e+001  -9.822665e+001 
3684375000  -4.246505e+001  -1.031574e+002 
3687500000  -4.258989e+001  -1.080917e+002 
3690625000  -4.281239e+001  -1.116797e+002 
3693750000  -4.361654e+001  -1.130026e+002 
3696875000  -4.338380e+001  -1.137155e+002 
3700000000  -4.294164e+001  -1.191021e+002 
3703125000  -4.254116e+001  -1.231576e+002 
3706250000  -4.391306e+001  -1.236591e+002 
3709375000  -4.313512e+001  -1.203492e+002 
3712500000  -4.228991e+001  -1.268705e+002 
3715625000  -4.147759e+001  -1.322112e+002 
3718750000  -4.128042e+001  -1.402701e+002 
3721875000  -4.109628e+001  -1.469823e+002 
3725000000  -4.161993e+001  -1.509639e+002 
3728125000  -4.194817e+001  -1.536501e+002 
3731250000  -4.179983e+001  -1.550498e+002 
3734375000  -4.160614e+001  -1.629855e+002 
3737500000  -4.245339e+001  -1.713792e+002 
3740625000  -4.336203e+001  -1.697695e+002 
3743750000  -4.350012e+001  -1.741696e+002 
3746875000  -4.334798e+001  -1.798182e+002 
3750000000  -4.427394e+001  1.790033e+002 
3753125000  -4.451062e+001  -1.782033e+002 
3756250000  -4.455524e+001  -1.758001e+002 
3759375000  -4.491758e+001  -1.764658e+002 
3762500000  -4.436053e+001  -1.775969e+002 
3765625000  -4.509295e+001  -1.779391e+002 
3768750000  -4.501641e+001  -1.755980e+002 
3771875000  -4.317918e+001  -1.730229e+002 
3775000000  -4.296886e+001  1.795154e+002 
3778125000  -4.342785e+001  1.763980e+002 
3781250000  -4.326522e+001  1.753688e+002 
3784375000  -4.310485e+001  1.755720e+002 
3787500000  -4.202536e+001  1.725001e+002 
3790625000  -4.240873e+001  1.648387e+002 
3793750000  -4.222910e+001  1.625935e+002 
3796875000  -4.145225e+001  1.622021e+002 
3800000000  -3.917340e+001  1.609372e+002 
3803125000  -3.996531e+001  1.497840e+002 
3806250000  -4.082518e+001  1.469034e+002 
3809375000  -4.038967e+001  1.454810e+002 
3812500000  -3.993737e+001  1.373438e+002 
3815625000  -4.052400e+001  1.284906e+002 
3818750000  -4.117528e+001  1.266099e+002 
3821875000  -4.143113e+001  1.360355e+002 
3825000000  -3.954045e+001  1.368951e+002 
3828125000  -3.779103e+001  1.210424e+002 
3831250000  -3.882797e+001  1.053035e+002 
3834375000  -4.010298e+001  1.047348e+002 
3837500000  -4.125152e+001  1.083091e+002 
3840625000  -3.962805e+001  1.058922e+002 
3843750000  -3.867445e+001  9.540392e+001 
3846875000  -3.962357e+001  8.696037e+001 
3850000000  -4.114297e+001  9.344083e+001 
3853125000  -4.060910e+001  9.618269e+001 
3856250000  -4.002670e+001  8.740657e+001 
3859375000  -3.955565e+001  8.267346e+001 
3862500000  -3.936475e+001  7.253455e+001 
3865625000  -3.974155e+001  6.943349e+001 
3868750000  -3.974411e+001  6.819904e+001 
3871875000  -3.904630e+001  6.559412e+001 
3875000000  -3.954259e+001  5.531470e+001 
3878125000  -4.080205e+001  5.248701e+001 
3881250000  -4.100968e+001  5.731590e+001 
3884375000  -4.031083e+001  5.035359e+001 
3887500000  -4.039381e+001  4.647900e+001 
3890625000  -4.088395e+001  4.574654e+001 
3893750000  -4.131393e+001  4.280571e+001 
3896875000  -4.169172e+001  4.568361e+001 
3900000000  -4.191407e+001  4.387657e+001 
3903125000  -4.139320e+001  4.237139e+001 
3906250000  -4.115504e+001  4.137312e+001 
3909375000  -4.018664e+001  3.582331e+001 
3912500000  -4.020542e+001  2.918178e+001 
3915625000  -4.144493e+001  3.084452e+001 
3918750000  -4.117484e+001  3.033626e+001 
3921875000  -4.053210e+001  2.743421e+001 
3925000000  -4.002127e+001  2.412537e+001 
3928125000  -3.915111e+001  1.790034e+001 
3931250000  -3.982090e+001  1.403075e+001 
3934375000  -3.985182e+001  1.354042e+001 
3937500000  -3.994529e+001  1.096592e+001 
3940625000  -4.032729e+001  7.462893e+000 
3943750000  -3.915264e+001  8.815086e+000 
3946875000  -3.811183e+001  1.591970e+000 
3950000000  -3.910024e+001  -6.667935e+000 
3953125000  -3.966056e+001  -7.490486e+000 
3956250000  -3.886341e+001  -4.389225e+000 
3959375000  -3.756753e+001  -1.040967e+001 
3962500000  -3.705519e+001  -1.495328e+001 
3965625000  -3.693494e+001  -2.621785e+001 
3968750000  -3.808393e+001  -3.306018e+001 
3971875000  -3.830087e+001  -3.633308e+001 
3975000000  -3.761185e+001  -3.838328e+001 
3978125000  -3.755280e+001  -4.349528e+001 
3981250000  -3.759785e+001  -4.870449e+001 
3984375000  -3.794083e+001  -5.455810e+001 
3987500000  -3.853939e+001  -5.747082e+001 
3990625000  -3.860510e+001  -5.815670e+001 
3993750000  -3.890661e+001  -6.384158e+001 
3996875000  -3.881018e+001  -6.785579e+001 
4000000000  -3.918924e+001  -6.813199e+001 
4003125000  -3.996529e+001  -6.688287e+001 
4006250000  -3.817634e+001  -6.841054e+001 
4009375000  -3.747650e+001  -8.248517e+001 
4012500000  -3.888017e+001  -8.675564e+001 
4015625000  -3.994896e+001  -8.677182e+001 
4018750000  -4.042862e+001  -8.633497e+001 
4021875000  -3.931383e+001  -8.642883e+001 
4025000000  -3.916738e+001  -9.281613e+001 
4028125000  -3.949097e+001  -9.517599e+001 
4031250000  -3.955983e+001  -1.003736e+002 
4034375000  -4.012008e+001  -1.000352e+002 
4037500000  -3.953998e+001  -9.775547e+001 
4040625000  -3.953493e+001  -1.025962e+002 
4043750000  -3.979240e+001  -1.031701e+002 
4046875000  -3.905658e+001  -1.033512e+002 
4050000000  -3.854223e+001  -1.091648e+002 
4053125000  -3.923746e+001  -1.099683e+002 
4056250000  -3.967104e+001  -1.075420e+002 
4059375000  -3.812083e+001  -1.058286e+002 
4062500000  -3.687527e+001  -1.132784e+002 
4065625000  -3.685019e+001  -1.169237e+002 
4068750000  -3.648404e+001  -1.235892e+002 
4071875000  -3.573426e+001  -1.337950e+002 
4075000000  -3.591405e+001  -1.390436e+002 
4078125000  -3.647856e+001  -1.428709e+002 
4081250000  -3.597758e+001  -1.453886e+002 
4084375000  -3.549087e+001  -1.537551e+002 
4087500000  -3.595926e+001  -1.610119e+002 
4090625000  -3.658234e+001  -1.618206e+002 
4093750000  -3.637882e+001  -1.635100e+002 
4096875000  -3.584901e+001  -1.702309e+002 
4100000000  -3.656791e+001  -1.785737e+002 
4103125000  -3.769467e+001  -1.784742e+002 
4106250000  -3.738010e+001  -1.734794e+002 
4109375000  -3.630885e+001  -1.753585e+002 
4112500000  -3.590677e+001  1.752097e+002 
4115625000  -3.641991e+001  1.704404e+002 
4118750000  -3.667901e+001  1.662128e+002 
4121875000  -3.623730e+001  1.602402e+002 
4125000000  -3.671479e+001  1.546204e+002 
4128125000  -3.788589e+001  1.544188e+002 
4131250000  -3.731020e+001  1.624686e+002 
4134375000  -3.519127e+001  1.542379e+002 
4137500000  -3.518988e+001  1.342468e+002 
4140625000  -3.762143e+001  1.270816e+002 
4143750000  -3.874426e+001  1.334187e+002 
4146875000  -3.855136e+001  1.405860e+002 
4150000000  -3.765501e+001  1.349477e+002 
4153125000  -3.751429e+001  1.270641e+002 
4156250000  -3.856982e+001  1.244071e+002 
4159375000  -3.872615e+001  1.291495e+002 
4162500000  -3.801389e+001  1.341597e+002 
4165625000  -3.688456e+001  1.288874e+002 
4168750000  -3.615948e+001  1.201518e+002 
4171875000  -3.610765e+001  1.119155e+002 
4175000000  -3.714020e+001  1.070550e+002 
4178125000  -3.762201e+001  1.072202e+002 
4181250000  -3.716505e+001  1.050300e+002 
4184375000  -3.715824e+001  1.023616e+002 
4187500000  -3.695781e+001  9.832548e+001 
4190625000  -3.691448e+001  9.356646e+001 
4193750000  -3.759716e+001  8.940437e+001 
4196875000  -3.836644e+001  8.865149e+001 
4200000000  -3.930846e+001  9.094227e+001 
4203125000  -3.854998e+001  1.045288e+002 
4206250000  -3.510857e+001  1.040438e+002 
4209375000  -3.440251e+001  8.117797e+001 
4212500000  -3.626402e+001  7.277438e+001 
4215625000  -3.704013e+001  7.900516e+001 
4218750000  -3.561457e+001  8.401136e+001 
4221875000  -3.336230e+001  7.376911e+001 
4225000000  -3.456177e+001  6.064606e+001 
4228125000  -3.493568e+001  6.452068e+001 
4231250000  -3.331069e+001  5.920066e+001 
4234375000  -3.330611e+001  5.027344e+001 
4237500000  -3.298562e+001  4.519041e+001 
4240625000  -3.280597e+001  3.445164e+001 
4243750000  -3.387154e+001  2.637419e+001 
4246875000  -3.487751e+001  2.598073e+001 
4250000000  -3.466647e+001  2.767666e+001 
4253125000  -3.432021e+001  2.315167e+001 
4256250000  -3.475861e+001  1.899230e+001 
4259375000  -3.440115e+001  1.423176e+001 
4262500000  -3.456565e+001  9.743433e+000 
4265625000  -3.454515e+001  8.972855e+000 
4268750000  -3.374345e+001  3.441355e+000 
4271875000  -3.375558e+001  -4.746116e+000 
4275000000  -3.327797e+001  -1.172493e+001 
4278125000  -3.407922e+001  -2.374870e+001 
4281250000  -3.594771e+001  -2.613189e+001 
4284375000  -3.571584e+001  -2.517600e+001 
4287500000  -3.678575e+001  -3.095303e+001 
4290625000  -3.827929e+001  -2.045190e+001 
4293750000  -3.612433e+001  -1.608133e+001 
4296875000  -3.501136e+001  -2.678190e+001 
4300000000  -3.618052e+001  -3.629851e+001 
4303125000  -3.712398e+001  -3.506730e+001 
4306250000  -3.663395e+001  -3.021971e+001 
4309375000  -3.529448e+001  -3.138399e+001 
4312500000  -3.522900e+001  -3.967144e+001 
4315625000  -3.556075e+001  -4.522104e+001 
4318750000  -3.574754e+001  -4.923236e+001 
4321875000  -3.598089e+001  -4.587855e+001 
4325000000  -3.529242e+001  -4.657516e+001 
4328125000  -3.461645e+001  -5.332038e+001 
4331250000  -3.440609e+001  -6.085725e+001 
4334375000  -3.480245e+001  -6.692062e+001 
4337500000  -3.570758e+001  -6.937276e+001 
4340625000  -3.600417e+001  -6.588447e+001 
4343750000  -3.494439e+001  -6.607148e+001 
4346875000  -3.458168e+001  -7.276766e+001 
4350000000  -3.453136e+001  -7.838904e+001 
4353125000  -3.452080e+001  -8.669859e+001 
4356250000  -3.644233e+001  -8.654916e+001 
4359375000  -3.645683e+001  -7.353796e+001 
4362500000  -3.341694e+001  -7.350628e+001 
4365625000  -3.193588e+001  -8.895750e+001 
4368750000  -3.287444e+001  -1.016671e+002 
4371875000  -3.371532e+001  -1.015560e+002 
4375000000  -3.308814e+001  -1.024615e+002 
4378125000  -3.250755e+001  -1.098865e+002 
4381250000  -3.279886e+001  -1.163457e+002 
4384375000  -3.255716e+001  -1.233804e+002 
4387500000  -3.336234e+001  -1.316777e+002 
4390625000  -3.445704e+001  -1.309258e+002 
4393750000  -3.358443e+001  -1.309303e+002 
4396875000  -3.304465e+001  -1.344230e+002 
4400000000  -3.243910e+001  -1.429858e+002 
4403125000  -3.329242e+001  -1.517838e+002 
4406250000  -3.417666e+001  -1.543544e+002 
4409375000  -3.428078e+001  -1.579773e+002 
4412500000  -3.550989e+001  -1.621724e+002 
4415625000  -3.559361e+001  -1.582836e+002 
