!Agilent Technologies,E8363B,MY43030201,A.06.04.32
!Agilent E8363B: A.06.04.32
!Date: Tuesday, November 11, 2014 21:08:10
!Correction: S21(Response(S21)) 
!S1P File: Measurement: S21:
# Hz S  dB   R 50
3000000000  -3.643910e+001  -5.351111e+001 
3003125000  -3.747098e+001  -6.049273e+001 
3006250000  -3.745178e+001  -6.221592e+001 
3009375000  -3.775362e+001  -5.728902e+001 
3012500000  -3.690742e+001  -5.935920e+001 
3015625000  -3.613525e+001  -6.694630e+001 
3018750000  -3.686869e+001  -6.804859e+001 
3021875000  -3.549115e+001  -6.684952e+001 
3025000000  -3.409928e+001  -7.046578e+001 
3028125000  -3.324323e+001  -7.739055e+001 
3031250000  -3.215296e+001  -8.850442e+001 
3034375000  -3.185277e+001  -1.017079e+002 
3037500000  -3.227501e+001  -1.141785e+002 
3040625000  -3.364693e+001  -1.185667e+002 
3043750000  -3.423825e+001  -1.238293e+002 
3046875000  -3.450887e+001  -1.296846e+002 
3050000000  -3.613904e+001  -1.359580e+002 
3053125000  -3.616965e+001  -1.295790e+002 
3056250000  -3.547326e+001  -1.267419e+002 
3059375000  -3.563636e+001  -1.271990e+002 
3062500000  -3.409213e+001  -1.306978e+002 
3065625000  -3.404864e+001  -1.371615e+002 
3068750000  -3.372061e+001  -1.440306e+002 
3071875000  -3.352281e+001  -1.462506e+002 
3075000000  -3.329680e+001  -1.497677e+002 
3078125000  -3.306138e+001  -1.544285e+002 
3081250000  -3.349112e+001  -1.590929e+002 
3084375000  -3.259470e+001  -1.620440e+002 
3087500000  -3.249491e+001  -1.665263e+002 
3090625000  -3.198577e+001  -1.764935e+002 
3093750000  -3.248149e+001  1.762419e+002 
3096875000  -3.348666e+001  1.708611e+002 
3100000000  -3.335914e+001  1.687316e+002 
3103125000  -3.361488e+001  1.689256e+002 
3106250000  -3.322223e+001  1.653108e+002 
3109375000  -3.326971e+001  1.606920e+002 
3112500000  -3.324261e+001  1.587049e+002 
3115625000  -3.281956e+001  1.537555e+002 
3118750000  -3.316327e+001  1.537557e+002 
3121875000  -3.228771e+001  1.443865e+002 
3125000000  -3.356834e+001  1.407461e+002 
3128125000  -3.449562e+001  1.475894e+002 
3131250000  -3.205429e+001  1.460431e+002 
3134375000  -3.072917e+001  1.302282e+002 
3137500000  -3.135754e+001  1.161886e+002 
3140625000  -3.275641e+001  1.131401e+002 
3143750000  -3.376664e+001  1.147318e+002 
3146875000  -3.333545e+001  1.161441e+002 
3150000000  -3.225926e+001  1.162314e+002 
3153125000  -3.228351e+001  1.064859e+002 
3156250000  -3.328509e+001  1.120838e+002 
3159375000  -3.156348e+001  1.128755e+002 
3162500000  -2.968561e+001  9.774063e+001 
3165625000  -3.078976e+001  8.563192e+001 
3168750000  -3.099290e+001  8.627863e+001 
3171875000  -3.019632e+001  8.085360e+001 
3175000000  -3.091674e+001  7.147218e+001 
3178125000  -3.066634e+001  7.251500e+001 
3181250000  -2.959131e+001  6.696123e+001 
3184375000  -2.897733e+001  5.449576e+001 
3187500000  -3.014093e+001  3.909392e+001 
3190625000  -3.281844e+001  3.073267e+001 
3193750000  -3.334346e+001  3.971725e+001 
3196875000  -3.298021e+001  4.460429e+001 
3200000000  -3.203963e+001  4.140662e+001 
3203125000  -3.129647e+001  3.552541e+001 
3206250000  -3.161277e+001  2.857009e+001 
3209375000  -3.118032e+001  2.245283e+001 
3212500000  -3.134831e+001  1.582196e+001 
3215625000  -3.145298e+001  1.178293e+001 
3218750000  -3.225311e+001  4.229888e+000 
3221875000  -3.312776e+001  -4.687216e-001 
3225000000  -3.271899e+001  -1.866517e+000 
3228125000  -3.304361e+001  -7.160347e+000 
3231250000  -3.380890e+001  -9.533068e+000 
3234375000  -3.343977e+001  -9.178122e+000 
3237500000  -3.337334e+001  -1.131285e+001 
3240625000  -3.295717e+001  -1.404254e+001 
3243750000  -3.259860e+001  -2.143075e+001 
3246875000  -3.305142e+001  -2.905789e+001 
3250000000  -3.346313e+001  -3.165564e+001 
3253125000  -3.357780e+001  -3.254303e+001 
3256250000  -3.318862e+001  -4.009446e+001 
3259375000  -3.346011e+001  -4.920447e+001 
3262500000  -3.464062e+001  -5.260193e+001 
3265625000  -3.529306e+001  -4.927358e+001 
3268750000  -3.510143e+001  -4.797206e+001 
3271875000  -3.466442e+001  -4.817764e+001 
3275000000  -3.369965e+001  -5.483283e+001 
3278125000  -3.417696e+001  -6.072955e+001 
3281250000  -3.439656e+001  -6.038149e+001 
3284375000  -3.379454e+001  -6.715202e+001 
3287500000  -3.399458e+001  -7.079155e+001 
3290625000  -3.433966e+001  -7.676779e+001 
3293750000  -3.411700e+001  -8.269530e+001 
3296875000  -3.521894e+001  -8.310014e+001 
3300000000  -3.488350e+001  -8.320377e+001 
3303125000  -3.374732e+001  -8.804515e+001 
3306250000  -3.348806e+001  -9.567475e+001 
3309375000  -3.316009e+001  -1.015352e+002 
3312500000  -3.331344e+001  -1.124594e+002 
3315625000  -3.429586e+001  -1.203075e+002 
3318750000  -3.581299e+001  -1.232227e+002 
3321875000  -3.667697e+001  -1.238750e+002 
3325000000  -3.739075e+001  -1.185901e+002 
3328125000  -3.694040e+001  -1.164970e+002 
3331250000  -3.559856e+001  -1.116131e+002 
3334375000  -3.294062e+001  -1.223808e+002 
3337500000  -3.309897e+001  -1.416995e+002 
3340625000  -3.458059e+001  -1.522369e+002 
3343750000  -3.653125e+001  -1.529550e+002 
3346875000  -3.663322e+001  -1.514980e+002 
3350000000  -3.601036e+001  -1.538322e+002 
3353125000  -3.612615e+001  -1.578388e+002 
3356250000  -3.551888e+001  -1.664950e+002 
3359375000  -3.654566e+001  -1.746253e+002 
3362500000  -3.752257e+001  1.794632e+002 
3365625000  -3.791308e+001  1.789537e+002 
3368750000  -3.884898e+001  1.772645e+002 
3371875000  -3.897259e+001  1.731464e+002 
3375000000  -4.025359e+001  1.708217e+002 
3378125000  -4.140055e+001  1.713215e+002 
3381250000  -4.229933e+001  1.788256e+002 
3384375000  -4.102709e+001  -1.592375e+002 
3387500000  -3.774063e+001  -1.762547e+002 
3390625000  -3.909923e+001  1.640989e+002 
3393750000  -4.026006e+001  1.677941e+002 
3396875000  -3.928422e+001  1.690254e+002 
3400000000  -3.871929e+001  1.611497e+002 
3403125000  -3.917036e+001  1.565993e+002 
3406250000  -3.957151e+001  1.560096e+002 
3409375000  -3.987560e+001  1.483833e+002 
3412500000  -4.029962e+001  1.468396e+002 
3415625000  -4.094530e+001  1.486784e+002 
3418750000  -4.105825e+001  1.468866e+002 
3421875000  -4.127946e+001  1.501455e+002 
3425000000  -4.025128e+001  1.502495e+002 
3428125000  -3.911857e+001  1.455661e+002 
3431250000  -3.920056e+001  1.401429e+002 
3434375000  -3.911936e+001  1.340779e+002 
3437500000  -3.969511e+001  1.298045e+002 
3440625000  -3.996317e+001  1.315253e+002 
3443750000  -3.866369e+001  1.313781e+002 
3446875000  -3.792841e+001  1.243228e+002 
3450000000  -3.754980e+001  1.135047e+002 
3453125000  -3.791787e+001  1.033952e+002 
3456250000  -3.919678e+001  9.597759e+001 
3459375000  -4.019010e+001  9.835892e+001 
3462500000  -3.985729e+001  9.826918e+001 
3465625000  -3.985048e+001  9.358347e+001 
3468750000  -4.007198e+001  8.889703e+001 
3471875000  -4.005416e+001  8.852307e+001 
3475000000  -3.967881e+001  8.299178e+001 
3478125000  -4.029214e+001  7.548897e+001 
3481250000  -4.139470e+001  7.250871e+001 
3484375000  -4.250799e+001  7.753934e+001 
3487500000  -4.139223e+001  7.502500e+001 
3490625000  -4.093070e+001  7.108934e+001 
3493750000  -4.143371e+001  6.552824e+001 
3496875000  -4.206161e+001  6.258466e+001 
3500000000  -4.266608e+001  6.535044e+001 
3503125000  -4.168757e+001  6.753668e+001 
3506250000  -4.075975e+001  6.384272e+001 
3509375000  -4.076703e+001  5.543073e+001 
3512500000  -4.126882e+001  4.591264e+001 
3515625000  -4.203129e+001  4.346897e+001 
3518750000  -4.256519e+001  4.470052e+001 
3521875000  -4.239878e+001  4.031775e+001 
3525000000  -4.348743e+001  3.689034e+001 
3528125000  -4.341134e+001  4.548985e+001 
3531250000  -4.203708e+001  4.397267e+001 
3534375000  -4.193463e+001  3.289688e+001 
3537500000  -4.263709e+001  2.936866e+001 
3540625000  -4.343794e+001  2.787503e+001 
3543750000  -4.429585e+001  2.893434e+001 
3546875000  -4.386820e+001  4.226671e+001 
3550000000  -4.138610e+001  4.140889e+001 
3553125000  -4.004381e+001  2.498992e+001 
3556250000  -4.139260e+001  1.758428e+001 
3559375000  -4.151568e+001  2.029703e+001 
3562500000  -4.013026e+001  1.050541e+001 
3565625000  -4.108323e+001  4.122272e+000 
3568750000  -4.110887e+001  6.702645e+000 
3571875000  -4.076216e+001  5.830177e+000 
3575000000  -4.063037e+001  -2.676905e+000 
3578125000  -4.131693e+001  -7.957729e+000 
3581250000  -4.130799e+001  -9.029761e+000 
3584375000  -4.055564e+001  -1.279172e+001 
3587500000  -3.999512e+001  -2.102372e+001 
3590625000  -4.065919e+001  -3.048339e+001 
3593750000  -4.171228e+001  -3.368703e+001 
3596875000  -4.169037e+001  -2.602135e+001 
3600000000  -4.020845e+001  -3.378374e+001 
3603125000  -4.068832e+001  -4.654325e+001 
3606250000  -4.176320e+001  -5.029882e+001 
3609375000  -4.194539e+001  -5.493135e+001 
3612500000  -4.281456e+001  -5.806092e+001 
3615625000  -4.286869e+001  -6.023288e+001 
3618750000  -4.371876e+001  -5.920424e+001 
3621875000  -4.372259e+001  -6.191654e+001 
3625000000  -4.455816e+001  -6.554661e+001 
3628125000  -4.473183e+001  -6.527307e+001 
3631250000  -4.413722e+001  -6.926410e+001 
3634375000  -4.532576e+001  -6.962392e+001 
3637500000  -4.556400e+001  -6.366840e+001 
3640625000  -4.483062e+001  -6.077552e+001 
3643750000  -4.453061e+001  -6.803471e+001 
3646875000  -4.512529e+001  -7.721453e+001 
3650000000  -4.578700e+001  -7.197612e+001 
3653125000  -4.550115e+001  -7.435461e+001 
3656250000  -4.611395e+001  -7.414803e+001 
3659375000  -4.589217e+001  -6.900555e+001 
3662500000  -4.495068e+001  -7.372355e+001 
3665625000  -4.476169e+001  -7.198832e+001 
3668750000  -4.344669e+001  -7.302570e+001 
3671875000  -4.274814e+001  -7.822632e+001 
3675000000  -4.293711e+001  -8.682506e+001 
3678125000  -4.329900e+001  -8.882282e+001 
3681250000  -4.283552e+001  -9.161858e+001 
3684375000  -4.244875e+001  -9.679556e+001 
3687500000  -4.297215e+001  -9.868711e+001 
3690625000  -4.295065e+001  -1.057351e+002 
3693750000  -4.401894e+001  -1.067971e+002 
3696875000  -4.346034e+001  -1.049968e+002 
3700000000  -4.250219e+001  -1.089010e+002 
3703125000  -4.269592e+001  -1.167675e+002 
3706250000  -4.389817e+001  -1.160335e+002 
3709375000  -4.331614e+001  -1.135951e+002 
3712500000  -4.251627e+001  -1.186023e+002 
3715625000  -4.177105e+001  -1.236829e+002 
3718750000  -4.138370e+001  -1.298714e+002 
3721875000  -4.135158e+001  -1.375424e+002 
3725000000  -4.156676e+001  -1.433226e+002 
3728125000  -4.203829e+001  -1.440639e+002 
3731250000  -4.169390e+001  -1.457126e+002 
3734375000  -4.133743e+001  -1.519057e+002 
3737500000  -4.233848e+001  -1.624243e+002 
3740625000  -4.316509e+001  -1.627468e+002 
3743750000  -4.325080e+001  -1.658124e+002 
3746875000  -4.364380e+001  -1.677796e+002 
3750000000  -4.447830e+001  -1.701307e+002 
3753125000  -4.436933e+001  -1.662924e+002 
3756250000  -4.467207e+001  -1.658910e+002 
3759375000  -4.492827e+001  -1.678582e+002 
3762500000  -4.430411e+001  -1.697164e+002 
3765625000  -4.513857e+001  -1.718287e+002 
3768750000  -4.460060e+001  -1.663137e+002 
3771875000  -4.311514e+001  -1.680034e+002 
3775000000  -4.325264e+001  -1.743451e+002 
3778125000  -4.346722e+001  -1.741062e+002 
3781250000  -4.287775e+001  -1.786858e+002 
3784375000  -4.282141e+001  -1.791429e+002 
3787500000  -4.204156e+001  1.794942e+002 
3790625000  -4.236826e+001  1.729352e+002 
3793750000  -4.218509e+001  1.707609e+002 
3796875000  -4.084616e+001  1.687381e+002 
3800000000  -3.962301e+001  1.673283e+002 
3803125000  -4.000701e+001  1.575752e+002 
3806250000  -4.069688e+001  1.547541e+002 
3809375000  -4.045703e+001  1.520639e+002 
3812500000  -3.962476e+001  1.468910e+002 
3815625000  -4.046422e+001  1.362802e+002 
3818750000  -4.138553e+001  1.347961e+002 
3821875000  -4.151778e+001  1.428393e+002 
3825000000  -3.926295e+001  1.447721e+002 
3828125000  -3.814858e+001  1.298244e+002 
3831250000  -3.850185e+001  1.141446e+002 
3834375000  -4.003656e+001  1.122900e+002 
3837500000  -4.079315e+001  1.167276e+002 
3840625000  -3.975390e+001  1.152981e+002 
3843750000  -3.883742e+001  1.030771e+002 
3846875000  -3.972149e+001  9.564880e+001 
3850000000  -4.104378e+001  9.931660e+001 
3853125000  -4.054776e+001  1.032118e+002 
3856250000  -4.066665e+001  9.775790e+001 
3859375000  -3.968126e+001  9.104963e+001 
3862500000  -3.954148e+001  8.253987e+001 
3865625000  -3.994612e+001  7.825475e+001 
3868750000  -3.966825e+001  7.673820e+001 
3871875000  -3.946024e+001  7.313399e+001 
3875000000  -3.944224e+001  6.255279e+001 
3878125000  -4.078232e+001  6.101571e+001 
3881250000  -4.064286e+001  6.475201e+001 
3884375000  -4.055983e+001  6.118291e+001 
3887500000  -4.058805e+001  5.542016e+001 
3890625000  -4.133472e+001  5.292343e+001 
3893750000  -4.109818e+001  5.087080e+001 
3896875000  -4.144617e+001  5.198495e+001 
3900000000  -4.173227e+001  5.314447e+001 
3903125000  -4.101313e+001  4.921548e+001 
3906250000  -4.070836e+001  4.606061e+001 
3909375000  -4.020404e+001  4.444902e+001 
3912500000  -3.976910e+001  3.432552e+001 
3915625000  -4.121149e+001  3.543689e+001 
3918750000  -4.092344e+001  3.648814e+001 
3921875000  -4.066460e+001  3.515281e+001 
3925000000  -3.973013e+001  3.078286e+001 
3928125000  -3.906466e+001  2.494818e+001 
3931250000  -3.969409e+001  2.031156e+001 
3934375000  -3.975970e+001  1.949430e+001 
3937500000  -3.992336e+001  1.739883e+001 
3940625000  -4.050577e+001  1.621362e+001 
3943750000  -3.911027e+001  1.466377e+001 
3946875000  -3.823370e+001  7.276874e+000 
3950000000  -3.898129e+001  6.793762e-001 
3953125000  -3.965453e+001  -1.304252e+000 
3956250000  -3.897022e+001  1.627899e-001 
3959375000  -3.783796e+001  -3.383929e+000 
3962500000  -3.715556e+001  -7.197634e+000 
3965625000  -3.708228e+001  -1.724558e+001 
3968750000  -3.798400e+001  -2.570601e+001 
3971875000  -3.831502e+001  -2.848441e+001 
3975000000  -3.760400e+001  -3.105243e+001 
3978125000  -3.766127e+001  -3.394835e+001 
3981250000  -3.773435e+001  -3.970480e+001 
3984375000  -3.796214e+001  -4.498857e+001 
3987500000  -3.855464e+001  -4.813021e+001 
3990625000  -3.864274e+001  -5.039667e+001 
3993750000  -3.906629e+001  -5.401699e+001 
3996875000  -3.886521e+001  -5.881195e+001 
4000000000  -3.931239e+001  -6.051980e+001 
4003125000  -3.983713e+001  -5.835801e+001 
4006250000  -3.829887e+001  -5.951468e+001 
4009375000  -3.728499e+001  -7.264687e+001 
4012500000  -3.853402e+001  -7.878510e+001 
4015625000  -4.028553e+001  -7.848209e+001 
4018750000  -4.015154e+001  -7.740506e+001 
4021875000  -3.932705e+001  -7.939643e+001 
4025000000  -3.930240e+001  -8.528802e+001 
4028125000  -3.903008e+001  -8.899363e+001 
4031250000  -3.950005e+001  -9.096022e+001 
4034375000  -3.975560e+001  -9.227187e+001 
4037500000  -3.939049e+001  -9.068071e+001 
4040625000  -3.925183e+001  -9.408102e+001 
4043750000  -3.973796e+001  -9.515746e+001 
4046875000  -3.890255e+001  -9.645567e+001 
4050000000  -3.857546e+001  -1.034629e+002 
4053125000  -3.913152e+001  -1.032956e+002 
4056250000  -3.933300e+001  -1.012687e+002 
4059375000  -3.776883e+001  -1.001605e+002 
4062500000  -3.684136e+001  -1.057814e+002 
4065625000  -3.650796e+001  -1.115922e+002 
4068750000  -3.621677e+001  -1.163835e+002 
4071875000  -3.562959e+001  -1.263329e+002 
4075000000  -3.603502e+001  -1.331184e+002 
4078125000  -3.684081e+001  -1.346149e+002 
4081250000  -3.594451e+001  -1.387381e+002 
4084375000  -3.562074e+001  -1.463135e+002 
4087500000  -3.606307e+001  -1.536559e+002 
4090625000  -3.677410e+001  -1.544626e+002 
4093750000  -3.645590e+001  -1.555415e+002 
4096875000  -3.599554e+001  -1.637370e+002 
4100000000  -3.693286e+001  -1.712791e+002 
4103125000  -3.762267e+001  -1.713760e+002 
4106250000  -3.756092e+001  -1.672608e+002 
4109375000  -3.655549e+001  -1.681603e+002 
4112500000  -3.608142e+001  -1.777922e+002 
4115625000  -3.650378e+001  1.785840e+002 
4118750000  -3.685668e+001  1.737753e+002 
4121875000  -3.634146e+001  1.681841e+002 
4125000000  -3.687693e+001  1.621141e+002 
4128125000  -3.795558e+001  1.616659e+002 
4131250000  -3.738893e+001  1.694204e+002 
4134375000  -3.521775e+001  1.614009e+002 
4137500000  -3.527037e+001  1.433192e+002 
4140625000  -3.750609e+001  1.356895e+002 
4143750000  -3.870020e+001  1.396205e+002 
4146875000  -3.854822e+001  1.475162e+002 
4150000000  -3.765282e+001  1.441329e+002 
4153125000  -3.739981e+001  1.357966e+002 
4156250000  -3.874976e+001  1.322769e+002 
4159375000  -3.880133e+001  1.378008e+002 
4162500000  -3.766343e+001  1.415904e+002 
4165625000  -3.662923e+001  1.364789e+002 
4168750000  -3.592299e+001  1.283437e+002 
4171875000  -3.618754e+001  1.194257e+002 
4175000000  -3.677487e+001  1.143989e+002 
4178125000  -3.740599e+001  1.130407e+002 
4181250000  -3.710702e+001  1.130840e+002 
4184375000  -3.702158e+001  1.093273e+002 
4187500000  -3.672353e+001  1.064721e+002 
4190625000  -3.697035e+001  1.001522e+002 
4193750000  -3.759395e+001  9.698067e+001 
4196875000  -3.820501e+001  9.476217e+001 
4200000000  -3.898231e+001  9.765079e+001 
4203125000  -3.895961e+001  1.117717e+002 
4206250000  -3.535419e+001  1.090791e+002 
4209375000  -3.427930e+001  8.902431e+001 
4212500000  -3.637356e+001  8.007509e+001 
4215625000  -3.708050e+001  8.564743e+001 
4218750000  -3.560743e+001  9.058589e+001 
4221875000  -3.328679e+001  8.071486e+001 
4225000000  -3.447828e+001  6.758006e+001 
4228125000  -3.508643e+001  7.106592e+001 
4231250000  -3.351291e+001  6.537055e+001 
4234375000  -3.341413e+001  5.636044e+001 
4237500000  -3.302732e+001  5.230659e+001 
4240625000  -3.298405e+001  4.250539e+001 
4243750000  -3.406546e+001  3.381367e+001 
4246875000  -3.505585e+001  3.290742e+001 
4250000000  -3.498255e+001  3.518189e+001 
4253125000  -3.436192e+001  3.057085e+001 
4256250000  -3.489045e+001  2.593201e+001 
4259375000  -3.453641e+001  2.246387e+001 
4262500000  -3.464562e+001  1.700714e+001 
4265625000  -3.480449e+001  1.723493e+001 
4268750000  -3.385067e+001  1.150196e+001 
4271875000  -3.380411e+001  4.128331e+000 
4275000000  -3.339569e+001  -3.617073e+000 
4278125000  -3.428771e+001  -1.516682e+001 
4281250000  -3.632687e+001  -1.773488e+001 
4284375000  -3.572234e+001  -1.715353e+001 
4287500000  -3.687759e+001  -2.142544e+001 
4290625000  -3.822792e+001  -1.156339e+001 
4293750000  -3.625553e+001  -6.855612e+000 
4296875000  -3.502980e+001  -1.930664e+001 
4300000000  -3.595987e+001  -2.804836e+001 
4303125000  -3.716288e+001  -2.543404e+001 
4306250000  -3.667340e+001  -2.032747e+001 
4309375000  -3.523211e+001  -2.250939e+001 
4312500000  -3.522885e+001  -3.095175e+001 
4315625000  -3.539087e+001  -3.671889e+001 
4318750000  -3.574952e+001  -3.899446e+001 
4321875000  -3.581546e+001  -3.836747e+001 
4325000000  -3.521418e+001  -3.897453e+001 
4328125000  -3.470930e+001  -4.512214e+001 
4331250000  -3.436329e+001  -5.416963e+001 
4334375000  -3.487968e+001  -5.810345e+001 
4337500000  -3.546718e+001  -6.166016e+001 
4340625000  -3.590030e+001  -5.782298e+001 
4343750000  -3.508028e+001  -5.886329e+001 
4346875000  -3.467007e+001  -6.562045e+001 
4350000000  -3.448773e+001  -7.064197e+001 
4353125000  -3.473363e+001  -7.972027e+001 
4356250000  -3.660916e+001  -7.961073e+001 
4359375000  -3.640709e+001  -6.682729e+001 
4362500000  -3.368432e+001  -6.821936e+001 
4365625000  -3.212890e+001  -8.176207e+001 
4368750000  -3.281889e+001  -9.489480e+001 
4371875000  -3.406177e+001  -9.433126e+001 
4375000000  -3.341010e+001  -9.659594e+001 
4378125000  -3.295054e+001  -1.026411e+002 
4381250000  -3.297829e+001  -1.092485e+002 
4384375000  -3.293450e+001  -1.158104e+002 
4387500000  -3.374907e+001  -1.236679e+002 
4390625000  -3.464556e+001  -1.235562e+002 
4393750000  -3.391255e+001  -1.220855e+002 
4396875000  -3.342985e+001  -1.260229e+002 
4400000000  -3.293587e+001  -1.354788e+002 
4403125000  -3.358023e+001  -1.437882e+002 
4406250000  -3.435987e+001  -1.463473e+002 
4409375000  -3.474970e+001  -1.494946e+002 
4412500000  -3.579405e+001  -1.538905e+002 
4415625000  -3.607696e+001  -1.497742e+002 
