!Agilent Technologies,E8363B,MY43030201,A.06.04.32
!Agilent E8363B: A.06.04.32
!Date: Tuesday, November 11, 2014 21:07:51
!Correction: S21(Response(S21)) 
!S1P File: Measurement: S21:
# Hz S  dB   R 50
3000000000  -3.643322e+001  -5.359203e+001 
3003125000  -3.760779e+001  -5.910846e+001 
3006250000  -3.744594e+001  -6.181828e+001 
3009375000  -3.769821e+001  -5.713657e+001 
3012500000  -3.701919e+001  -5.905762e+001 
3015625000  -3.604221e+001  -6.638062e+001 
3018750000  -3.690618e+001  -6.789799e+001 
3021875000  -3.548180e+001  -6.633482e+001 
3025000000  -3.412387e+001  -6.991875e+001 
3028125000  -3.319447e+001  -7.699932e+001 
3031250000  -3.214715e+001  -8.852391e+001 
3034375000  -3.186105e+001  -1.016906e+002 
3037500000  -3.231625e+001  -1.137242e+002 
3040625000  -3.360504e+001  -1.185023e+002 
3043750000  -3.427301e+001  -1.234924e+002 
3046875000  -3.450063e+001  -1.289794e+002 
3050000000  -3.618937e+001  -1.353793e+002 
3053125000  -3.616607e+001  -1.294874e+002 
3056250000  -3.556005e+001  -1.264856e+002 
3059375000  -3.568665e+001  -1.265685e+002 
3062500000  -3.422394e+001  -1.305572e+002 
3065625000  -3.390483e+001  -1.366961e+002 
3068750000  -3.363716e+001  -1.433683e+002 
3071875000  -3.363302e+001  -1.458410e+002 
3075000000  -3.322995e+001  -1.497632e+002 
3078125000  -3.307918e+001  -1.537753e+002 
3081250000  -3.350579e+001  -1.588025e+002 
3084375000  -3.265883e+001  -1.619813e+002 
3087500000  -3.244233e+001  -1.655974e+002 
3090625000  -3.198751e+001  -1.763649e+002 
3093750000  -3.242902e+001  1.768409e+002 
3096875000  -3.339584e+001  1.707074e+002 
3100000000  -3.340592e+001  1.689035e+002 
3103125000  -3.360300e+001  1.693360e+002 
3106250000  -3.316566e+001  1.652880e+002 
3109375000  -3.318662e+001  1.612740e+002 
3112500000  -3.318489e+001  1.590610e+002 
3115625000  -3.284061e+001  1.542362e+002 
3118750000  -3.318970e+001  1.541404e+002 
3121875000  -3.229329e+001  1.446962e+002 
3125000000  -3.350943e+001  1.404406e+002 
3128125000  -3.441705e+001  1.482521e+002 
3131250000  -3.199074e+001  1.462827e+002 
3134375000  -3.070844e+001  1.302036e+002 
3137500000  -3.138931e+001  1.162734e+002 
3140625000  -3.277182e+001  1.132404e+002 
3143750000  -3.376939e+001  1.153501e+002 
3146875000  -3.327559e+001  1.158378e+002 
3150000000  -3.222749e+001  1.161057e+002 
3153125000  -3.233061e+001  1.073981e+002 
3156250000  -3.334551e+001  1.113911e+002 
3159375000  -3.160444e+001  1.131504e+002 
3162500000  -2.971593e+001  9.817839e+001 
3165625000  -3.074769e+001  8.641034e+001 
3168750000  -3.105588e+001  8.656719e+001 
3171875000  -3.019344e+001  8.073470e+001 
3175000000  -3.097697e+001  7.164328e+001 
3178125000  -3.063249e+001  7.274039e+001 
3181250000  -2.960888e+001  6.747672e+001 
3184375000  -2.896542e+001  5.459396e+001 
3187500000  -3.018285e+001  3.930921e+001 
3190625000  -3.281529e+001  3.150149e+001 
3193750000  -3.340754e+001  4.011446e+001 
3196875000  -3.307522e+001  4.451575e+001 
3200000000  -3.207608e+001  4.227909e+001 
3203125000  -3.132760e+001  3.559949e+001 
3206250000  -3.166101e+001  2.890893e+001 
3209375000  -3.116315e+001  2.301045e+001 
3212500000  -3.146098e+001  1.621773e+001 
3215625000  -3.146796e+001  1.235882e+001 
3218750000  -3.225508e+001  5.086594e+000 
3221875000  -3.316531e+001  -4.508836e-001 
3225000000  -3.275179e+001  -1.440035e+000 
3228125000  -3.304292e+001  -7.402215e+000 
3231250000  -3.375146e+001  -9.251762e+000 
3234375000  -3.341093e+001  -8.756721e+000 
3237500000  -3.351883e+001  -1.105318e+001 
3240625000  -3.302360e+001  -1.366848e+001 
3243750000  -3.261746e+001  -2.164225e+001 
3246875000  -3.305202e+001  -2.832174e+001 
3250000000  -3.351094e+001  -3.063115e+001 
3253125000  -3.356729e+001  -3.251792e+001 
3256250000  -3.320714e+001  -3.907583e+001 
3259375000  -3.354341e+001  -4.838778e+001 
3262500000  -3.461352e+001  -5.149596e+001 
3265625000  -3.531512e+001  -4.897207e+001 
3268750000  -3.506251e+001  -4.699949e+001 
3271875000  -3.469650e+001  -4.744484e+001 
3275000000  -3.374803e+001  -5.444604e+001 
3278125000  -3.421618e+001  -6.004474e+001 
3281250000  -3.435603e+001  -5.969956e+001 
3284375000  -3.383981e+001  -6.644749e+001 
3287500000  -3.403514e+001  -7.062170e+001 
3290625000  -3.434539e+001  -7.639938e+001 
3293750000  -3.414220e+001  -8.208298e+001 
3296875000  -3.514326e+001  -8.343787e+001 
3300000000  -3.487729e+001  -8.297252e+001 
3303125000  -3.368699e+001  -8.784365e+001 
3306250000  -3.351180e+001  -9.504024e+001 
3309375000  -3.313367e+001  -1.010961e+002 
3312500000  -3.332121e+001  -1.123347e+002 
3315625000  -3.429097e+001  -1.198493e+002 
3318750000  -3.572358e+001  -1.224945e+002 
3321875000  -3.687591e+001  -1.228895e+002 
3325000000  -3.751037e+001  -1.187469e+002 
3328125000  -3.707413e+001  -1.178761e+002 
3331250000  -3.570490e+001  -1.109985e+002 
3334375000  -3.300611e+001  -1.225954e+002 
3337500000  -3.324405e+001  -1.417425e+002 
3340625000  -3.454071e+001  -1.523399e+002 
3343750000  -3.657480e+001  -1.524099e+002 
3346875000  -3.679109e+001  -1.509400e+002 
3350000000  -3.605737e+001  -1.531578e+002 
3353125000  -3.606151e+001  -1.577352e+002 
3356250000  -3.566142e+001  -1.659324e+002 
3359375000  -3.657492e+001  -1.745137e+002 
3362500000  -3.757405e+001  -1.793430e+002 
3365625000  -3.811018e+001  1.788391e+002 
3368750000  -3.899127e+001  1.762847e+002 
3371875000  -3.899067e+001  1.743137e+002 
3375000000  -4.060545e+001  1.697905e+002 
3378125000  -4.120278e+001  1.707409e+002 
3381250000  -4.266179e+001  -1.793911e+002 
3384375000  -4.126373e+001  -1.593384e+002 
3387500000  -3.759517e+001  -1.744694e+002 
3390625000  -3.912772e+001  1.663050e+002 
3393750000  -4.064093e+001  1.700186e+002 
3396875000  -3.948882e+001  1.707038e+002 
3400000000  -3.872395e+001  1.617221e+002 
3403125000  -3.927023e+001  1.579169e+002 
3406250000  -3.969827e+001  1.562161e+002 
3409375000  -3.990039e+001  1.489789e+002 
3412500000  -4.029777e+001  1.470282e+002 
3415625000  -4.106732e+001  1.487730e+002 
3418750000  -4.104366e+001  1.491342e+002 
3421875000  -4.112925e+001  1.514588e+002 
3425000000  -4.038490e+001  1.516782e+002 
3428125000  -3.952137e+001  1.478375e+002 
3431250000  -3.929269e+001  1.405253e+002 
3434375000  -3.913184e+001  1.350442e+002 
3437500000  -3.980384e+001  1.315180e+002 
3440625000  -3.997389e+001  1.321306e+002 
3443750000  -3.875637e+001  1.315644e+002 
3446875000  -3.787210e+001  1.258472e+002 
3450000000  -3.766405e+001  1.148661e+002 
3453125000  -3.805216e+001  1.045457e+002 
3456250000  -3.922556e+001  9.760523e+001 
3459375000  -4.005673e+001  9.945947e+001 
3462500000  -3.981121e+001  1.001209e+002 
3465625000  -4.007956e+001  9.398291e+001 
3468750000  -4.020603e+001  8.921552e+001 
3471875000  -4.041948e+001  8.787006e+001 
3475000000  -3.989806e+001  8.481773e+001 
3478125000  -4.052398e+001  7.588065e+001 
3481250000  -4.134914e+001  7.359254e+001 
3484375000  -4.230071e+001  7.751672e+001 
3487500000  -4.171792e+001  7.764651e+001 
3490625000  -4.088058e+001  7.241085e+001 
3493750000  -4.178193e+001  6.834031e+001 
3496875000  -4.187670e+001  6.498333e+001 
3500000000  -4.269167e+001  6.636972e+001 
3503125000  -4.230322e+001  7.187419e+001 
3506250000  -4.069663e+001  6.499078e+001 
3509375000  -4.077723e+001  5.554860e+001 
3512500000  -4.137626e+001  4.746768e+001 
3515625000  -4.197948e+001  4.564159e+001 
3518750000  -4.251393e+001  4.571095e+001 
3521875000  -4.248518e+001  4.405283e+001 
3525000000  -4.327556e+001  4.217379e+001 
3528125000  -4.354792e+001  4.931516e+001 
3531250000  -4.189654e+001  4.544408e+001 
3534375000  -4.197599e+001  3.386700e+001 
3537500000  -4.200294e+001  2.946546e+001 
3540625000  -4.306826e+001  2.901385e+001 
3543750000  -4.411999e+001  3.353932e+001 
3546875000  -4.370027e+001  4.059811e+001 
3550000000  -4.093297e+001  4.310370e+001 
3553125000  -3.990894e+001  2.544991e+001 
3556250000  -4.128678e+001  2.067628e+001 
3559375000  -4.131760e+001  2.046948e+001 
3562500000  -3.997665e+001  1.145719e+001 
3565625000  -4.110804e+001  4.250913e+000 
3568750000  -4.117998e+001  6.025714e+000 
3571875000  -4.083252e+001  4.115091e+000 
3575000000  -4.027447e+001  -1.630646e+000 
3578125000  -4.082426e+001  -7.844407e+000 
3581250000  -4.144157e+001  -9.146890e+000 
3584375000  -4.056696e+001  -1.237677e+001 
3587500000  -3.983247e+001  -2.034757e+001 
3590625000  -4.041222e+001  -3.085646e+001 
3593750000  -4.160758e+001  -3.259517e+001 
3596875000  -4.192717e+001  -2.564704e+001 
3600000000  -4.056333e+001  -3.329928e+001 
3603125000  -4.091328e+001  -4.708290e+001 
3606250000  -4.184333e+001  -4.987397e+001 
3609375000  -4.253230e+001  -5.468413e+001 
3612500000  -4.291362e+001  -5.535103e+001 
3615625000  -4.307237e+001  -6.093729e+001 
3618750000  -4.402459e+001  -5.805632e+001 
3621875000  -4.399587e+001  -6.208639e+001 
3625000000  -4.492566e+001  -6.051382e+001 
3628125000  -4.486013e+001  -6.426757e+001 
3631250000  -4.455172e+001  -6.777247e+001 
3634375000  -4.551012e+001  -6.798284e+001 
3637500000  -4.614341e+001  -6.018037e+001 
3640625000  -4.489689e+001  -5.833986e+001 
3643750000  -4.452100e+001  -6.339539e+001 
3646875000  -4.507548e+001  -7.172185e+001 
3650000000  -4.545895e+001  -7.276001e+001 
3653125000  -4.514625e+001  -7.006099e+001 
3656250000  -4.540554e+001  -7.154251e+001 
3659375000  -4.554969e+001  -6.927833e+001 
3662500000  -4.479739e+001  -7.051324e+001 
3665625000  -4.413675e+001  -7.262770e+001 
3668750000  -4.323066e+001  -7.279826e+001 
3671875000  -4.241757e+001  -7.846788e+001 
3675000000  -4.265859e+001  -8.514704e+001 
3678125000  -4.274718e+001  -8.792683e+001 
3681250000  -4.273987e+001  -9.044925e+001 
3684375000  -4.243665e+001  -9.529475e+001 
3687500000  -4.248227e+001  -1.012455e+002 
3690625000  -4.259225e+001  -1.049124e+002 
3693750000  -4.381497e+001  -1.050721e+002 
3696875000  -4.352367e+001  -1.039889e+002 
3700000000  -4.231373e+001  -1.101922e+002 
3703125000  -4.264827e+001  -1.152561e+002 
3706250000  -4.362687e+001  -1.141503e+002 
3709375000  -4.296170e+001  -1.158034e+002 
3712500000  -4.196615e+001  -1.188546e+002 
3715625000  -4.118824e+001  -1.241506e+002 
3718750000  -4.108652e+001  -1.310455e+002 
3721875000  -4.101993e+001  -1.371895e+002 
3725000000  -4.149898e+001  -1.442386e+002 
3728125000  -4.197779e+001  -1.441020e+002 
3731250000  -4.177147e+001  -1.480123e+002 
3734375000  -4.145507e+001  -1.531640e+002 
3737500000  -4.242974e+001  -1.612072e+002 
3740625000  -4.374390e+001  -1.636406e+002 
3743750000  -4.334204e+001  -1.655934e+002 
3746875000  -4.393796e+001  -1.702346e+002 
3750000000  -4.413643e+001  -1.683241e+002 
3753125000  -4.451224e+001  -1.693947e+002 
3756250000  -4.500092e+001  -1.665175e+002 
3759375000  -4.476147e+001  -1.673871e+002 
3762500000  -4.434222e+001  -1.677526e+002 
3765625000  -4.508146e+001  -1.675920e+002 
3768750000  -4.499827e+001  -1.651283e+002 
3771875000  -4.327049e+001  -1.676389e+002 
3775000000  -4.335217e+001  -1.712265e+002 
3778125000  -4.317123e+001  -1.729767e+002 
3781250000  -4.257973e+001  -1.754545e+002 
3784375000  -4.260952e+001  -1.761510e+002 
3787500000  -4.155658e+001  -1.771831e+002 
3790625000  -4.210626e+001  1.746156e+002 
3793750000  -4.197729e+001  1.746282e+002 
3796875000  -4.087315e+001  1.699408e+002 
3800000000  -3.947336e+001  1.681735e+002 
3803125000  -3.993118e+001  1.575255e+002 
3806250000  -4.048271e+001  1.539343e+002 
3809375000  -4.033186e+001  1.538869e+002 
3812500000  -3.931818e+001  1.458042e+002 
3815625000  -3.998286e+001  1.356699e+002 
3818750000  -4.127852e+001  1.338524e+002 
3821875000  -4.102155e+001  1.421517e+002 
3825000000  -3.909175e+001  1.432195e+002 
3828125000  -3.779792e+001  1.288541e+002 
3831250000  -3.854412e+001  1.133199e+002 
3834375000  -4.004697e+001  1.128203e+002 
3837500000  -4.107666e+001  1.159734e+002 
3840625000  -3.975293e+001  1.141018e+002 
3843750000  -3.875556e+001  1.028638e+002 
3846875000  -3.940128e+001  9.510106e+001 
3850000000  -4.110646e+001  1.001419e+002 
3853125000  -4.035155e+001  1.011105e+002 
3856250000  -4.001652e+001  9.600178e+001 
3859375000  -3.945848e+001  9.163813e+001 
3862500000  -3.947940e+001  8.322965e+001 
3865625000  -3.985619e+001  7.672506e+001 
3868750000  -3.979680e+001  7.618765e+001 
3871875000  -3.902185e+001  7.325923e+001 
3875000000  -3.946510e+001  6.367076e+001 
3878125000  -4.094923e+001  6.195921e+001 
3881250000  -4.088086e+001  6.412871e+001 
3884375000  -4.047856e+001  6.105811e+001 
3887500000  -4.036199e+001  5.616024e+001 
3890625000  -4.125541e+001  5.247734e+001 
3893750000  -4.120303e+001  4.978313e+001 
3896875000  -4.188323e+001  5.278546e+001 
3900000000  -4.176120e+001  5.231816e+001 
3903125000  -4.131013e+001  4.983321e+001 
3906250000  -4.077650e+001  4.883020e+001 
3909375000  -4.005973e+001  4.487856e+001 
3912500000  -4.038056e+001  3.633777e+001 
3915625000  -4.141616e+001  3.835591e+001 
3918750000  -4.136085e+001  3.830169e+001 
3921875000  -4.061983e+001  3.756476e+001 
3925000000  -3.952951e+001  3.401527e+001 
3928125000  -3.908823e+001  2.792919e+001 
3931250000  -3.950136e+001  2.077791e+001 
3934375000  -3.999283e+001  1.914767e+001 
3937500000  -3.980208e+001  1.907405e+001 
3940625000  -4.030624e+001  1.579003e+001 
3943750000  -3.877047e+001  1.692613e+001 
3946875000  -3.798355e+001  9.904287e+000 
3950000000  -3.867861e+001  5.927440e-002 
3953125000  -3.997776e+001  -1.548108e+000 
3956250000  -3.888647e+001  1.872493e+000 
3959375000  -3.735970e+001  -2.649721e+000 
3962500000  -3.703650e+001  -8.759366e+000 
3965625000  -3.688029e+001  -1.832615e+001 
3968750000  -3.778335e+001  -2.529523e+001 
3971875000  -3.835505e+001  -2.875256e+001 
3975000000  -3.771769e+001  -3.124755e+001 
3978125000  -3.767352e+001  -3.316901e+001 
3981250000  -3.742646e+001  -4.014942e+001 
3984375000  -3.788258e+001  -4.716806e+001 
3987500000  -3.846664e+001  -4.835926e+001 
3990625000  -3.853072e+001  -5.100452e+001 
3993750000  -3.888848e+001  -5.592112e+001 
3996875000  -3.929045e+001  -6.029478e+001 
4000000000  -3.920087e+001  -6.033736e+001 
4003125000  -3.976582e+001  -5.858777e+001 
4006250000  -3.837525e+001  -5.911350e+001 
4009375000  -3.742856e+001  -7.233391e+001 
4012500000  -3.881023e+001  -7.990828e+001 
4015625000  -4.019216e+001  -7.801080e+001 
4018750000  -4.010434e+001  -7.737765e+001 
4021875000  -3.958326e+001  -7.830840e+001 
4025000000  -3.937556e+001  -8.249695e+001 
4028125000  -3.933164e+001  -8.672652e+001 
4031250000  -3.964909e+001  -9.107498e+001 
4034375000  -4.011326e+001  -9.068610e+001 
4037500000  -3.946832e+001  -8.948430e+001 
4040625000  -3.943253e+001  -9.129686e+001 
4043750000  -3.948298e+001  -9.368092e+001 
4046875000  -3.887796e+001  -9.550967e+001 
4050000000  -3.850906e+001  -1.008013e+002 
4053125000  -3.913865e+001  -1.034566e+002 
4056250000  -3.954106e+001  -9.839610e+001 
4059375000  -3.790869e+001  -9.664804e+001 
4062500000  -3.681199e+001  -1.046202e+002 
4065625000  -3.659867e+001  -1.080435e+002 
4068750000  -3.627216e+001  -1.151342e+002 
4071875000  -3.537959e+001  -1.251548e+002 
4075000000  -3.580040e+001  -1.303371e+002 
4078125000  -3.647310e+001  -1.339432e+002 
4081250000  -3.594677e+001  -1.369650e+002 
4084375000  -3.552016e+001  -1.450016e+002 
4087500000  -3.591018e+001  -1.524035e+002 
4090625000  -3.665699e+001  -1.541253e+002 
4093750000  -3.608015e+001  -1.546270e+002 
4096875000  -3.592268e+001  -1.639031e+002 
4100000000  -3.667393e+001  -1.703934e+002 
4103125000  -3.764480e+001  -1.705790e+002 
4106250000  -3.750423e+001  -1.658889e+002 
4109375000  -3.657745e+001  -1.682509e+002 
4112500000  -3.580466e+001  -1.773810e+002 
4115625000  -3.630870e+001  1.789281e+002 
4118750000  -3.669809e+001  1.736957e+002 
4121875000  -3.617982e+001  1.691969e+002 
4125000000  -3.672870e+001  1.629238e+002 
4128125000  -3.776593e+001  1.636500e+002 
4131250000  -3.751708e+001  1.691623e+002 
4134375000  -3.521166e+001  1.641210e+002 
4137500000  -3.514122e+001  1.437982e+002 
4140625000  -3.748378e+001  1.365029e+002 
4143750000  -3.894575e+001  1.400164e+002 
4146875000  -3.844056e+001  1.469085e+002 
4150000000  -3.756710e+001  1.443796e+002 
4153125000  -3.789681e+001  1.347066e+002 
4156250000  -3.855127e+001  1.309716e+002 
4159375000  -3.891013e+001  1.397587e+002 
4162500000  -3.794144e+001  1.422377e+002 
4165625000  -3.685808e+001  1.368953e+002 
4168750000  -3.632605e+001  1.300083e+002 
4171875000  -3.615079e+001  1.213809e+002 
4175000000  -3.706062e+001  1.171368e+002 
4178125000  -3.767323e+001  1.153033e+002 
4181250000  -3.722097e+001  1.150016e+002 
4184375000  -3.703930e+001  1.115751e+002 
4187500000  -3.700702e+001  1.081967e+002 
4190625000  -3.676147e+001  1.028577e+002 
4193750000  -3.763520e+001  9.827767e+001 
4196875000  -3.831163e+001  9.771302e+001 
4200000000  -3.897126e+001  9.800570e+001 
4203125000  -3.880665e+001  1.116203e+002 
4206250000  -3.510943e+001  1.131399e+002 
4209375000  -3.411462e+001  9.059987e+001 
4212500000  -3.622282e+001  8.221456e+001 
4215625000  -3.707280e+001  8.665427e+001 
4218750000  -3.545866e+001  9.130801e+001 
4221875000  -3.321567e+001  8.221896e+001 
4225000000  -3.432672e+001  6.818493e+001 
4228125000  -3.487377e+001  7.086863e+001 
4231250000  -3.332291e+001  6.657534e+001 
4234375000  -3.299004e+001  5.773873e+001 
4237500000  -3.284051e+001  5.269972e+001 
4240625000  -3.282598e+001  4.265986e+001 
4243750000  -3.392025e+001  3.420041e+001 
4246875000  -3.470418e+001  3.346750e+001 
4250000000  -3.484283e+001  3.517812e+001 
4253125000  -3.450135e+001  3.144848e+001 
4256250000  -3.481753e+001  2.490561e+001 
4259375000  -3.425690e+001  2.255213e+001 
4262500000  -3.463604e+001  1.780908e+001 
4265625000  -3.478442e+001  1.750030e+001 
4268750000  -3.390039e+001  1.217068e+001 
4271875000  -3.383124e+001  3.830835e+000 
4275000000  -3.349403e+001  -3.177503e+000 
4278125000  -3.422191e+001  -1.553228e+001 
4281250000  -3.613413e+001  -1.718720e+001 
4284375000  -3.587062e+001  -1.734729e+001 
4287500000  -3.700093e+001  -2.107217e+001 
4290625000  -3.840263e+001  -1.012510e+001 
4293750000  -3.652309e+001  -6.993124e+000 
4296875000  -3.495179e+001  -1.873794e+001 
4300000000  -3.649554e+001  -2.678194e+001 
4303125000  -3.748423e+001  -2.663058e+001 
4306250000  -3.659726e+001  -1.924484e+001 
4309375000  -3.545794e+001  -2.081885e+001 
4312500000  -3.533246e+001  -3.050834e+001 
4315625000  -3.548255e+001  -3.452927e+001 
4318750000  -3.585660e+001  -3.804483e+001 
4321875000  -3.582526e+001  -3.718166e+001 
4325000000  -3.515998e+001  -3.765462e+001 
4328125000  -3.464899e+001  -4.326669e+001 
4331250000  -3.442390e+001  -5.176877e+001 
4334375000  -3.474669e+001  -5.675566e+001 
4337500000  -3.556781e+001  -5.891019e+001 
4340625000  -3.582914e+001  -5.596180e+001 
4343750000  -3.493810e+001  -5.747418e+001 
4346875000  -3.449354e+001  -6.220309e+001 
4350000000  -3.467391e+001  -6.918662e+001 
4353125000  -3.448615e+001  -7.887547e+001 
4356250000  -3.629733e+001  -7.930991e+001 
4359375000  -3.652813e+001  -6.413956e+001 
4362500000  -3.336472e+001  -6.623135e+001 
4365625000  -3.208768e+001  -8.038183e+001 
4368750000  -3.268866e+001  -9.387029e+001 
4371875000  -3.378788e+001  -9.288130e+001 
4375000000  -3.338322e+001  -9.519195e+001 
4378125000  -3.251384e+001  -1.017121e+002 
4381250000  -3.285144e+001  -1.083991e+002 
4384375000  -3.254860e+001  -1.149177e+002 
4387500000  -3.336885e+001  -1.224061e+002 
4390625000  -3.450535e+001  -1.231588e+002 
4393750000  -3.378333e+001  -1.217746e+002 
4396875000  -3.323241e+001  -1.264703e+002 
4400000000  -3.273733e+001  -1.344262e+002 
4403125000  -3.331762e+001  -1.433150e+002 
4406250000  -3.427958e+001  -1.460167e+002 
4409375000  -3.444603e+001  -1.489136e+002 
4412500000  -3.584347e+001  -1.543015e+002 
4415625000  -3.603644e+001  -1.484834e+002 
