!Agilent Technologies,E8363B,MY43030201,A.06.04.32
!Agilent E8363B: A.06.04.32
!Date: Tuesday, November 11, 2014 21:12:04
!Correction: S21(Response(S21)) 
!S1P File: Measurement: S21:
# Hz S  dB   R 50
3000000000  -3.651659e+001  -5.822645e+001 
3003125000  -3.769324e+001  -6.478974e+001 
3006250000  -3.758008e+001  -6.697825e+001 
3009375000  -3.782221e+001  -6.242268e+001 
3012500000  -3.703510e+001  -6.368965e+001 
3015625000  -3.614127e+001  -7.228690e+001 
3018750000  -3.700169e+001  -7.297295e+001 
3021875000  -3.553518e+001  -7.091597e+001 
3025000000  -3.416295e+001  -7.587454e+001 
3028125000  -3.318333e+001  -8.227856e+001 
3031250000  -3.222997e+001  -9.369122e+001 
3034375000  -3.185544e+001  -1.079637e+002 
3037500000  -3.237981e+001  -1.186751e+002 
3040625000  -3.369348e+001  -1.233777e+002 
3043750000  -3.427785e+001  -1.293316e+002 
3046875000  -3.462498e+001  -1.347435e+002 
3050000000  -3.622930e+001  -1.407144e+002 
3053125000  -3.617172e+001  -1.338517e+002 
3056250000  -3.563057e+001  -1.315736e+002 
3059375000  -3.556318e+001  -1.317368e+002 
3062500000  -3.407798e+001  -1.358653e+002 
3065625000  -3.399267e+001  -1.419600e+002 
3068750000  -3.362974e+001  -1.490174e+002 
3071875000  -3.358804e+001  -1.509794e+002 
3075000000  -3.331215e+001  -1.556781e+002 
3078125000  -3.311341e+001  -1.592764e+002 
3081250000  -3.353384e+001  -1.634537e+002 
3084375000  -3.268328e+001  -1.670776e+002 
3087500000  -3.249155e+001  -1.715438e+002 
3090625000  -3.193811e+001  1.783399e+002 
3093750000  -3.255613e+001  1.709368e+002 
3096875000  -3.358041e+001  1.653913e+002 
3100000000  -3.343199e+001  1.636258e+002 
3103125000  -3.367992e+001  1.629028e+002 
3106250000  -3.319337e+001  1.593506e+002 
3109375000  -3.320370e+001  1.558580e+002 
3112500000  -3.316115e+001  1.529228e+002 
3115625000  -3.288477e+001  1.484967e+002 
3118750000  -3.321336e+001  1.485685e+002 
3121875000  -3.228960e+001  1.387643e+002 
3125000000  -3.364222e+001  1.353947e+002 
3128125000  -3.453604e+001  1.420472e+002 
3131250000  -3.200806e+001  1.405703e+002 
3134375000  -3.069404e+001  1.252567e+002 
3137500000  -3.139552e+001  1.111947e+002 
3140625000  -3.280520e+001  1.082463e+002 
3143750000  -3.387510e+001  1.091493e+002 
3146875000  -3.326635e+001  1.105398e+002 
3150000000  -3.232150e+001  1.105607e+002 
3153125000  -3.232915e+001  1.017761e+002 
3156250000  -3.338001e+001  1.068892e+002 
3159375000  -3.153281e+001  1.076651e+002 
3162500000  -2.966757e+001  9.289873e+001 
3165625000  -3.078817e+001  8.078101e+001 
3168750000  -3.097368e+001  8.072425e+001 
3171875000  -3.016953e+001  7.568092e+001 
3175000000  -3.091022e+001  6.611590e+001 
3178125000  -3.063688e+001  6.723037e+001 
3181250000  -2.958488e+001  6.128982e+001 
3184375000  -2.895140e+001  4.901947e+001 
3187500000  -3.017250e+001  3.325807e+001 
3190625000  -3.285389e+001  2.620881e+001 
3193750000  -3.336046e+001  3.487864e+001 
3196875000  -3.294073e+001  3.917568e+001 
3200000000  -3.200825e+001  3.637349e+001 
3203125000  -3.128789e+001  2.948494e+001 
3206250000  -3.157067e+001  2.333821e+001 
3209375000  -3.119283e+001  1.697093e+001 
3212500000  -3.138804e+001  1.048381e+001 
3215625000  -3.143097e+001  6.858532e+000 
3218750000  -3.223458e+001  -3.723826e-001 
3221875000  -3.296294e+001  -6.417529e+000 
3225000000  -3.261805e+001  -6.997628e+000 
3228125000  -3.301043e+001  -1.264774e+001 
3231250000  -3.363385e+001  -1.526837e+001 
3234375000  -3.342656e+001  -1.432074e+001 
3237500000  -3.344582e+001  -1.682339e+001 
3240625000  -3.295431e+001  -1.901357e+001 
3243750000  -3.262223e+001  -2.752464e+001 
3246875000  -3.296682e+001  -3.431915e+001 
3250000000  -3.339177e+001  -3.646853e+001 
3253125000  -3.352224e+001  -3.896594e+001 
3256250000  -3.321301e+001  -4.518054e+001 
3259375000  -3.348387e+001  -5.447829e+001 
3262500000  -3.469484e+001  -5.790853e+001 
3265625000  -3.524003e+001  -5.475382e+001 
3268750000  -3.506869e+001  -5.291431e+001 
3271875000  -3.469976e+001  -5.297570e+001 
3275000000  -3.365179e+001  -6.083757e+001 
3278125000  -3.412085e+001  -6.686138e+001 
3281250000  -3.433015e+001  -6.538557e+001 
3284375000  -3.376349e+001  -7.220875e+001 
3287500000  -3.407288e+001  -7.622350e+001 
3290625000  -3.423948e+001  -8.290998e+001 
3293750000  -3.406596e+001  -8.885279e+001 
3296875000  -3.517876e+001  -8.865726e+001 
3300000000  -3.485159e+001  -8.842211e+001 
3303125000  -3.361255e+001  -9.346532e+001 
3306250000  -3.352046e+001  -1.009184e+002 
3309375000  -3.317908e+001  -1.071703e+002 
3312500000  -3.334559e+001  -1.183031e+002 
3315625000  -3.436687e+001  -1.264447e+002 
3318750000  -3.571643e+001  -1.291410e+002 
3321875000  -3.684322e+001  -1.293566e+002 
3325000000  -3.726826e+001  -1.231222e+002 
3328125000  -3.676714e+001  -1.232018e+002 
3331250000  -3.543546e+001  -1.161148e+002 
3334375000  -3.277311e+001  -1.283534e+002 
3337500000  -3.298600e+001  -1.474964e+002 
3340625000  -3.451818e+001  -1.583543e+002 
3343750000  -3.648484e+001  -1.586933e+002 
3346875000  -3.668164e+001  -1.576944e+002 
3350000000  -3.588688e+001  -1.587591e+002 
3353125000  -3.609134e+001  -1.637097e+002 
3356250000  -3.558488e+001  -1.721387e+002 
3359375000  -3.633919e+001  1.795586e+002 
3362500000  -3.745018e+001  1.734321e+002 
3365625000  -3.801101e+001  1.725614e+002 
3368750000  -3.869554e+001  1.695301e+002 
3371875000  -3.884146e+001  1.673317e+002 
3375000000  -4.055656e+001  1.662225e+002 
3378125000  -4.120114e+001  1.650914e+002 
3381250000  -4.256698e+001  1.749758e+002 
3384375000  -4.088787e+001  -1.636488e+002 
3387500000  -3.762875e+001  1.779529e+002 
3390625000  -3.926450e+001  1.581251e+002 
3393750000  -4.026741e+001  1.626592e+002 
3396875000  -3.899578e+001  1.629743e+002 
3400000000  -3.874131e+001  1.565880e+002 
3403125000  -3.930669e+001  1.492202e+002 
3406250000  -3.980985e+001  1.503064e+002 
3409375000  -3.975667e+001  1.409440e+002 
3412500000  -4.030813e+001  1.394087e+002 
3415625000  -4.098913e+001  1.413441e+002 
3418750000  -4.101607e+001  1.418128e+002 
3421875000  -4.121767e+001  1.442746e+002 
3425000000  -4.016282e+001  1.447966e+002 
3428125000  -3.942932e+001  1.407660e+002 
3431250000  -3.934645e+001  1.325973e+002 
3434375000  -3.913676e+001  1.266510e+002 
3437500000  -3.970520e+001  1.239851e+002 
3440625000  -4.000873e+001  1.250699e+002 
3443750000  -3.886052e+001  1.255980e+002 
3446875000  -3.788377e+001  1.171771e+002 
3450000000  -3.752226e+001  1.081179e+002 
3453125000  -3.810828e+001  9.741429e+001 
3456250000  -3.928835e+001  9.155418e+001 
3459375000  -4.010231e+001  9.063376e+001 
3462500000  -3.966417e+001  9.305755e+001 
3465625000  -3.978172e+001  8.626038e+001 
3468750000  -4.030903e+001  8.374080e+001 
3471875000  -4.034504e+001  8.210497e+001 
3475000000  -3.963432e+001  7.704104e+001 
3478125000  -4.044975e+001  6.742780e+001 
3481250000  -4.142735e+001  6.658862e+001 
3484375000  -4.257642e+001  7.221732e+001 
3487500000  -4.146122e+001  6.941309e+001 
3490625000  -4.085694e+001  6.553519e+001 
3493750000  -4.148181e+001  5.841081e+001 
3496875000  -4.187328e+001  5.804900e+001 
3500000000  -4.259073e+001  6.148841e+001 
3503125000  -4.223895e+001  6.414336e+001 
3506250000  -4.095908e+001  5.708073e+001 
3509375000  -4.063190e+001  4.818195e+001 
3512500000  -4.139454e+001  3.994920e+001 
3515625000  -4.192402e+001  3.683801e+001 
3518750000  -4.273542e+001  3.922528e+001 
3521875000  -4.268399e+001  3.637814e+001 
3525000000  -4.310189e+001  3.416200e+001 
3528125000  -4.332454e+001  4.096777e+001 
3531250000  -4.166719e+001  3.942141e+001 
3534375000  -4.202210e+001  2.648512e+001 
3537500000  -4.250184e+001  2.194279e+001 
3540625000  -4.320518e+001  2.278809e+001 
3543750000  -4.404684e+001  2.497245e+001 
3546875000  -4.388006e+001  3.867047e+001 
3550000000  -4.099863e+001  3.664272e+001 
3553125000  -3.993255e+001  1.970816e+001 
3556250000  -4.155194e+001  1.268884e+001 
3559375000  -4.088959e+001  1.416209e+001 
3562500000  -3.999129e+001  5.874871e+000 
3565625000  -4.103016e+001  -2.524979e+000 
3568750000  -4.121966e+001  3.708368e-001 
3571875000  -4.086806e+001  -1.377585e+000 
3575000000  -4.043328e+001  -8.448187e+000 
3578125000  -4.132217e+001  -1.417718e+001 
3581250000  -4.108966e+001  -1.715386e+001 
3584375000  -4.054436e+001  -1.817613e+001 
3587500000  -4.001228e+001  -2.700698e+001 
3590625000  -4.037299e+001  -3.791215e+001 
3593750000  -4.169296e+001  -3.853066e+001 
3596875000  -4.162016e+001  -3.139128e+001 
3600000000  -4.018906e+001  -3.934332e+001 
3603125000  -4.075480e+001  -5.400141e+001 
3606250000  -4.155462e+001  -5.584414e+001 
3609375000  -4.227676e+001  -5.766335e+001 
3612500000  -4.269038e+001  -6.127499e+001 
3615625000  -4.293896e+001  -6.600655e+001 
3618750000  -4.395718e+001  -6.600332e+001 
3621875000  -4.365043e+001  -6.868236e+001 
3625000000  -4.430688e+001  -6.865877e+001 
3628125000  -4.436825e+001  -6.999567e+001 
3631250000  -4.437524e+001  -7.389473e+001 
3634375000  -4.572860e+001  -7.330283e+001 
3637500000  -4.528820e+001  -6.985796e+001 
3640625000  -4.474679e+001  -6.954056e+001 
3643750000  -4.435278e+001  -7.425059e+001 
3646875000  -4.498283e+001  -7.902341e+001 
3650000000  -4.561957e+001  -7.890347e+001 
3653125000  -4.503551e+001  -8.101008e+001 
3656250000  -4.578814e+001  -7.770090e+001 
3659375000  -4.561084e+001  -7.673984e+001 
3662500000  -4.490458e+001  -7.785036e+001 
3665625000  -4.455524e+001  -8.024948e+001 
3668750000  -4.367807e+001  -8.079695e+001 
3671875000  -4.218172e+001  -8.722050e+001 
3675000000  -4.234056e+001  -9.343526e+001 
3678125000  -4.313729e+001  -9.673049e+001 
3681250000  -4.256393e+001  -9.905689e+001 
3684375000  -4.262184e+001  -1.039182e+002 
3687500000  -4.281944e+001  -1.067300e+002 
3690625000  -4.270160e+001  -1.105324e+002 
3693750000  -4.393382e+001  -1.117209e+002 
3696875000  -4.320642e+001  -1.125131e+002 
3700000000  -4.261505e+001  -1.169494e+002 
3703125000  -4.282541e+001  -1.235255e+002 
3706250000  -4.383324e+001  -1.236184e+002 
3709375000  -4.312598e+001  -1.224049e+002 
3712500000  -4.223050e+001  -1.235690e+002 
3715625000  -4.153529e+001  -1.319137e+002 
3718750000  -4.098427e+001  -1.381246e+002 
3721875000  -4.106470e+001  -1.433918e+002 
3725000000  -4.145282e+001  -1.489845e+002 
3728125000  -4.188047e+001  -1.510056e+002 
3731250000  -4.131580e+001  -1.531241e+002 
3734375000  -4.140097e+001  -1.598088e+002 
3737500000  -4.189439e+001  -1.677275e+002 
3740625000  -4.318053e+001  -1.699201e+002 
3743750000  -4.279326e+001  -1.705242e+002 
3746875000  -4.353381e+001  -1.750149e+002 
3750000000  -4.408416e+001  -1.769667e+002 
3753125000  -4.450796e+001  -1.774834e+002 
3756250000  -4.449911e+001  -1.721721e+002 
3759375000  -4.467042e+001  -1.751243e+002 
3762500000  -4.430480e+001  -1.793915e+002 
3765625000  -4.464662e+001  -1.762751e+002 
3768750000  -4.521719e+001  -1.744055e+002 
3771875000  -4.281617e+001  -1.764088e+002 
3775000000  -4.278259e+001  1.787760e+002 
3778125000  -4.295451e+001  1.771463e+002 
3781250000  -4.283126e+001  1.759788e+002 
3784375000  -4.263167e+001  1.746549e+002 
3787500000  -4.188494e+001  1.721851e+002 
3790625000  -4.226335e+001  1.667693e+002 
3793750000  -4.223783e+001  1.617602e+002 
3796875000  -4.123811e+001  1.596988e+002 
3800000000  -3.937564e+001  1.591758e+002 
3803125000  -4.023809e+001  1.499573e+002 
3806250000  -4.092359e+001  1.466349e+002 
3809375000  -4.044791e+001  1.427085e+002 
3812500000  -3.980344e+001  1.384341e+002 
3815625000  -4.034856e+001  1.267685e+002 
3818750000  -4.130410e+001  1.281142e+002 
3821875000  -4.109018e+001  1.350693e+002 
3825000000  -3.937807e+001  1.376261e+002 
3828125000  -3.779691e+001  1.215072e+002 
3831250000  -3.865746e+001  1.049679e+002 
3834375000  -4.035481e+001  1.041969e+002 
3837500000  -4.124565e+001  1.089237e+002 
3840625000  -3.966790e+001  1.073689e+002 
3843750000  -3.868252e+001  9.374631e+001 
3846875000  -3.987246e+001  8.715079e+001 
3850000000  -4.087833e+001  9.187615e+001 
3853125000  -4.033163e+001  9.459594e+001 
3856250000  -4.021045e+001  8.786549e+001 
3859375000  -3.961124e+001  8.341470e+001 
3862500000  -3.952028e+001  7.579367e+001 
3865625000  -3.971114e+001  7.098067e+001 
3868750000  -3.963852e+001  6.879428e+001 
3871875000  -3.908178e+001  6.482542e+001 
3875000000  -3.948719e+001  5.519772e+001 
3878125000  -4.075388e+001  5.441496e+001 
3881250000  -4.081870e+001  5.748351e+001 
3884375000  -4.040898e+001  5.344568e+001 
3887500000  -4.082627e+001  4.833258e+001 
3890625000  -4.107045e+001  4.422456e+001 
3893750000  -4.137960e+001  4.439789e+001 
3896875000  -4.181099e+001  4.451360e+001 
3900000000  -4.157661e+001  4.331450e+001 
3903125000  -4.103851e+001  4.053874e+001 
3906250000  -4.079320e+001  4.014363e+001 
3909375000  -4.004192e+001  3.619537e+001 
3912500000  -4.014569e+001  2.787160e+001 
3915625000  -4.178034e+001  3.065658e+001 
3918750000  -4.077288e+001  3.163648e+001 
3921875000  -4.056877e+001  2.718856e+001 
3925000000  -3.965802e+001  2.504252e+001 
3928125000  -3.915032e+001  1.718063e+001 
3931250000  -3.960781e+001  1.265958e+001 
3934375000  -4.014800e+001  1.001188e+001 
3937500000  -3.992429e+001  8.351635e+000 
3940625000  -4.043937e+001  7.651619e+000 
3943750000  -3.929578e+001  7.856422e+000 
3946875000  -3.812014e+001  1.653902e+000 
3950000000  -3.897262e+001  -7.464422e+000 
3953125000  -3.986901e+001  -8.036125e+000 
3956250000  -3.894357e+001  -5.833364e+000 
3959375000  -3.744851e+001  -9.955912e+000 
3962500000  -3.705230e+001  -1.597506e+001 
3965625000  -3.707835e+001  -2.592339e+001 
3968750000  -3.795305e+001  -3.274302e+001 
3971875000  -3.821284e+001  -3.750082e+001 
3975000000  -3.766497e+001  -3.725826e+001 
3978125000  -3.777925e+001  -4.058467e+001 
3981250000  -3.788934e+001  -4.761665e+001 
3984375000  -3.808192e+001  -5.496024e+001 
3987500000  -3.883974e+001  -5.434895e+001 
3990625000  -3.859556e+001  -5.805283e+001 
3993750000  -3.915768e+001  -6.187204e+001 
3996875000  -3.896033e+001  -6.544877e+001 
4000000000  -3.934137e+001  -6.678481e+001 
4003125000  -3.995406e+001  -6.459444e+001 
4006250000  -3.851552e+001  -6.683511e+001 
4009375000  -3.744421e+001  -7.858089e+001 
4012500000  -3.893113e+001  -8.589510e+001 
4015625000  -3.994860e+001  -8.393362e+001 
4018750000  -4.005948e+001  -8.400031e+001 
4021875000  -3.929890e+001  -8.525980e+001 
4025000000  -3.918330e+001  -8.915464e+001 
4028125000  -3.902890e+001  -9.332320e+001 
4031250000  -3.970629e+001  -9.783599e+001 
4034375000  -3.964486e+001  -9.774387e+001 
4037500000  -3.926016e+001  -9.588596e+001 
4040625000  -3.911237e+001  -1.000860e+002 
4043750000  -3.938583e+001  -1.011695e+002 
4046875000  -3.912357e+001  -1.018045e+002 
4050000000  -3.853433e+001  -1.081875e+002 
4053125000  -3.911211e+001  -1.110094e+002 
4056250000  -3.929246e+001  -1.088819e+002 
4059375000  -3.801210e+001  -1.068787e+002 
4062500000  -3.680465e+001  -1.123794e+002 
4065625000  -3.649601e+001  -1.169912e+002 
4068750000  -3.620989e+001  -1.235845e+002 
4071875000  -3.567103e+001  -1.338860e+002 
4075000000  -3.605225e+001  -1.394258e+002 
4078125000  -3.651527e+001  -1.414615e+002 
4081250000  -3.583897e+001  -1.458183e+002 
4084375000  -3.551445e+001  -1.545123e+002 
4087500000  -3.610828e+001  -1.603817e+002 
4090625000  -3.657808e+001  -1.618521e+002 
4093750000  -3.626778e+001  -1.634343e+002 
4096875000  -3.608044e+001  -1.706066e+002 
4100000000  -3.679990e+001  -1.771704e+002 
4103125000  -3.778181e+001  -1.764099e+002 
4106250000  -3.751434e+001  -1.741446e+002 
4109375000  -3.664151e+001  -1.765591e+002 
4112500000  -3.621340e+001  1.765104e+002 
4115625000  -3.659383e+001  1.711812e+002 
4118750000  -3.678383e+001  1.679154e+002 
4121875000  -3.619423e+001  1.607787e+002 
4125000000  -3.677667e+001  1.555480e+002 
4128125000  -3.793517e+001  1.559571e+002 
4131250000  -3.770572e+001  1.623923e+002 
4134375000  -3.523453e+001  1.572935e+002 
4137500000  -3.526799e+001  1.384095e+002 
4140625000  -3.761508e+001  1.292340e+002 
4143750000  -3.901557e+001  1.348777e+002 
4146875000  -3.854456e+001  1.418712e+002 
4150000000  -3.754742e+001  1.353320e+002 
4153125000  -3.759395e+001  1.290564e+002 
4156250000  -3.875409e+001  1.265716e+002 
4159375000  -3.880832e+001  1.316861e+002 
4162500000  -3.786602e+001  1.363021e+002 
4165625000  -3.664226e+001  1.312585e+002 
4168750000  -3.602751e+001  1.239465e+002 
4171875000  -3.598387e+001  1.137825e+002 
4175000000  -3.674935e+001  1.084230e+002 
4178125000  -3.730375e+001  1.080936e+002 
4181250000  -3.688525e+001  1.060032e+002 
4184375000  -3.685376e+001  1.031189e+002 
4187500000  -3.672235e+001  1.004048e+002 
4190625000  -3.673335e+001  9.322958e+001 
4193750000  -3.737814e+001  8.946159e+001 
4196875000  -3.805172e+001  8.886687e+001 
4200000000  -3.927416e+001  9.136967e+001 
4203125000  -3.841003e+001  1.043202e+002 
4206250000  -3.504520e+001  1.028963e+002 
4209375000  -3.403112e+001  8.110813e+001 
4212500000  -3.622033e+001  7.308231e+001 
4215625000  -3.699342e+001  7.881024e+001 
4218750000  -3.534896e+001  8.388565e+001 
4221875000  -3.314209e+001  7.374120e+001 
4225000000  -3.450188e+001  6.059935e+001 
4228125000  -3.499143e+001  6.414586e+001 
4231250000  -3.345795e+001  5.827960e+001 
4234375000  -3.320446e+001  5.055285e+001 
4237500000  -3.274408e+001  4.569874e+001 
4240625000  -3.285552e+001  3.530282e+001 
4243750000  -3.374970e+001  2.555850e+001 
4246875000  -3.475465e+001  2.635347e+001 
4250000000  -3.477717e+001  2.831710e+001 
4253125000  -3.426945e+001  2.428343e+001 
4256250000  -3.464234e+001  1.877341e+001 
4259375000  -3.431159e+001  1.528775e+001 
4262500000  -3.466512e+001  1.009934e+001 
4265625000  -3.475601e+001  9.153247e+000 
4268750000  -3.373817e+001  4.511311e+000 
4271875000  -3.366483e+001  -3.684214e+000 
4275000000  -3.340833e+001  -1.137068e+001 
4278125000  -3.424056e+001  -2.185179e+001 
4281250000  -3.595750e+001  -2.464270e+001 
4284375000  -3.565453e+001  -2.453004e+001 
4287500000  -3.698717e+001  -2.824394e+001 
4290625000  -3.826725e+001  -1.939428e+001 
4293750000  -3.612403e+001  -1.492120e+001 
4296875000  -3.503002e+001  -2.628992e+001 
4300000000  -3.598004e+001  -3.441441e+001 
4303125000  -3.729584e+001  -3.258670e+001 
4306250000  -3.654071e+001  -2.673702e+001 
4309375000  -3.534589e+001  -2.895746e+001 
4312500000  -3.501961e+001  -3.697420e+001 
4315625000  -3.531541e+001  -4.295891e+001 
4318750000  -3.559252e+001  -4.574132e+001 
4321875000  -3.576767e+001  -4.580647e+001 
4325000000  -3.501154e+001  -4.468830e+001 
4328125000  -3.432856e+001  -5.019690e+001 
4331250000  -3.412490e+001  -5.930226e+001 
4334375000  -3.466201e+001  -6.499137e+001 
4337500000  -3.543263e+001  -6.677653e+001 
4340625000  -3.583160e+001  -6.394212e+001 
4343750000  -3.489790e+001  -6.414756e+001 
4346875000  -3.448766e+001  -7.128518e+001 
4350000000  -3.433369e+001  -7.696749e+001 
4353125000  -3.433979e+001  -8.539161e+001 
4356250000  -3.625802e+001  -8.627560e+001 
4359375000  -3.624511e+001  -7.182245e+001 
4362500000  -3.323387e+001  -7.397354e+001 
4365625000  -3.182789e+001  -8.874271e+001 
4368750000  -3.265329e+001  -1.014523e+002 
4371875000  -3.360457e+001  -1.012284e+002 
4375000000  -3.297445e+001  -1.027950e+002 
4378125000  -3.241364e+001  -1.096383e+002 
4381250000  -3.268530e+001  -1.166262e+002 
4384375000  -3.244981e+001  -1.234534e+002 
4387500000  -3.323526e+001  -1.315375e+002 
4390625000  -3.416814e+001  -1.315235e+002 
4393750000  -3.345374e+001  -1.302570e+002 
4396875000  -3.288570e+001  -1.349578e+002 
4400000000  -3.240135e+001  -1.431762e+002 
4403125000  -3.332754e+001  -1.523413e+002 
4406250000  -3.405137e+001  -1.542055e+002 
4409375000  -3.417793e+001  -1.578908e+002 
4412500000  -3.534708e+001  -1.613470e+002 
4415625000  -3.572405e+001  -1.567273e+002 
