!Agilent Technologies,E8363B,MY43030201,A.06.04.32
!Agilent E8363B: A.06.04.32
!Date: Tuesday, November 11, 2014 21:00:57
!Correction: S21(Response(S21)) 
!S1P File: Measurement: S21:
# Hz S  dB   R 50
3000000000  -3.618067e+001  -4.584671e+001 
3003125000  -3.721905e+001  -5.169919e+001 
3006250000  -3.720137e+001  -5.479198e+001 
3009375000  -3.744091e+001  -4.993999e+001 
3012500000  -3.672604e+001  -5.094817e+001 
3015625000  -3.585907e+001  -5.885631e+001 
3018750000  -3.663166e+001  -5.995528e+001 
3021875000  -3.524739e+001  -5.897821e+001 
3025000000  -3.401329e+001  -6.214721e+001 
3028125000  -3.302075e+001  -6.877529e+001 
3031250000  -3.210218e+001  -8.020649e+001 
3034375000  -3.162882e+001  -9.338319e+001 
3037500000  -3.213202e+001  -1.058937e+002 
3040625000  -3.347349e+001  -1.101595e+002 
3043750000  -3.411000e+001  -1.156900e+002 
3046875000  -3.423208e+001  -1.212844e+002 
3050000000  -3.594788e+001  -1.276062e+002 
3053125000  -3.603077e+001  -1.213586e+002 
3056250000  -3.546192e+001  -1.191885e+002 
3059375000  -3.563260e+001  -1.192058e+002 
3062500000  -3.411907e+001  -1.221896e+002 
3065625000  -3.373225e+001  -1.282245e+002 
3068750000  -3.347289e+001  -1.359327e+002 
3071875000  -3.336574e+001  -1.383228e+002 
3075000000  -3.322626e+001  -1.417824e+002 
3078125000  -3.295833e+001  -1.459022e+002 
3081250000  -3.353831e+001  -1.501197e+002 
3084375000  -3.269243e+001  -1.536612e+002 
3087500000  -3.238639e+001  -1.572937e+002 
3090625000  -3.189861e+001  -1.676570e+002 
3093750000  -3.235920e+001  -1.749413e+002 
3096875000  -3.345461e+001  1.789041e+002 
3100000000  -3.336051e+001  1.765199e+002 
3103125000  -3.350693e+001  1.776584e+002 
3106250000  -3.309729e+001  1.735594e+002 
3109375000  -3.321942e+001  1.691745e+002 
3112500000  -3.319493e+001  1.671631e+002 
3115625000  -3.284600e+001  1.620356e+002 
3118750000  -3.319818e+001  1.624026e+002 
3121875000  -3.231807e+001  1.530084e+002 
3125000000  -3.343035e+001  1.488317e+002 
3128125000  -3.453065e+001  1.550938e+002 
3131250000  -3.208464e+001  1.542191e+002 
3134375000  -3.069623e+001  1.391342e+002 
3137500000  -3.132768e+001  1.244612e+002 
3140625000  -3.284985e+001  1.211715e+002 
3143750000  -3.384927e+001  1.240614e+002 
3146875000  -3.339681e+001  1.239325e+002 
3150000000  -3.230612e+001  1.245806e+002 
3153125000  -3.237489e+001  1.156317e+002 
3156250000  -3.336321e+001  1.203283e+002 
3159375000  -3.171116e+001  1.215403e+002 
3162500000  -2.981282e+001  1.067188e+002 
3165625000  -3.083309e+001  9.449529e+001 
3168750000  -3.109415e+001  9.421062e+001 
3171875000  -3.024307e+001  8.922791e+001 
3175000000  -3.097779e+001  8.091257e+001 
3178125000  -3.082537e+001  8.112971e+001 
3181250000  -2.969442e+001  7.617162e+001 
3184375000  -2.894382e+001  6.350617e+001 
3187500000  -3.014856e+001  4.802158e+001 
3190625000  -3.292763e+001  3.986869e+001 
3193750000  -3.358646e+001  4.834316e+001 
3196875000  -3.320729e+001  5.358462e+001 
3200000000  -3.224943e+001  5.103651e+001 
3203125000  -3.151988e+001  4.455683e+001 
3206250000  -3.177013e+001  3.789455e+001 
3209375000  -3.125799e+001  3.194869e+001 
3212500000  -3.150829e+001  2.481256e+001 
3215625000  -3.164989e+001  2.079551e+001 
3218750000  -3.236950e+001  1.416735e+001 
3221875000  -3.321667e+001  8.350897e+000 
3225000000  -3.284034e+001  7.739321e+000 
3228125000  -3.314247e+001  2.187315e+000 
3231250000  -3.387555e+001  -3.559116e-001 
3234375000  -3.366468e+001  7.396972e-002 
3237500000  -3.361009e+001  -2.640522e+000 
3240625000  -3.320457e+001  -3.991017e+000 
3243750000  -3.277051e+001  -1.217307e+001 
3246875000  -3.321289e+001  -1.897570e+001 
3250000000  -3.360327e+001  -2.105517e+001 
3253125000  -3.376931e+001  -2.371839e+001 
3256250000  -3.336409e+001  -3.057817e+001 
3259375000  -3.361409e+001  -3.895555e+001 
3262500000  -3.479235e+001  -4.221065e+001 
3265625000  -3.546260e+001  -4.028421e+001 
3268750000  -3.534436e+001  -3.801416e+001 
3271875000  -3.497617e+001  -3.815074e+001 
3275000000  -3.391609e+001  -4.488722e+001 
3278125000  -3.432309e+001  -5.156827e+001 
3281250000  -3.450521e+001  -5.067349e+001 
3284375000  -3.400970e+001  -5.773360e+001 
3287500000  -3.424041e+001  -6.094740e+001 
3290625000  -3.448036e+001  -6.724980e+001 
3293750000  -3.422921e+001  -7.274172e+001 
3296875000  -3.535550e+001  -7.323755e+001 
3300000000  -3.511933e+001  -7.226301e+001 
3303125000  -3.390965e+001  -7.783708e+001 
3306250000  -3.374041e+001  -8.533026e+001 
3309375000  -3.341397e+001  -9.148022e+001 
3312500000  -3.341376e+001  -1.021966e+002 
3315625000  -3.455398e+001  -1.105968e+002 
3318750000  -3.575407e+001  -1.127699e+002 
3321875000  -3.693488e+001  -1.131345e+002 
3325000000  -3.749818e+001  -1.087454e+002 
3328125000  -3.705467e+001  -1.077356e+002 
3331250000  -3.612272e+001  -1.014331e+002 
3334375000  -3.330841e+001  -1.117844e+002 
3337500000  -3.338271e+001  -1.309987e+002 
3340625000  -3.473166e+001  -1.420525e+002 
3343750000  -3.661214e+001  -1.434720e+002 
3346875000  -3.706529e+001  -1.421263e+002 
3350000000  -3.633441e+001  -1.431461e+002 
3353125000  -3.644843e+001  -1.473572e+002 
3356250000  -3.585942e+001  -1.556873e+002 
3359375000  -3.675827e+001  -1.640508e+002 
3362500000  -3.802095e+001  -1.698294e+002 
3365625000  -3.830281e+001  -1.713695e+002 
3368750000  -3.912611e+001  -1.726401e+002 
3371875000  -3.935946e+001  -1.757952e+002 
3375000000  -4.080635e+001  -1.791345e+002 
3378125000  -4.156722e+001  -1.783070e+002 
3381250000  -4.291057e+001  -1.689990e+002 
3384375000  -4.144104e+001  -1.481748e+002 
3387500000  -3.820540e+001  -1.654997e+002 
3390625000  -3.958506e+001  1.761206e+002 
3393750000  -4.075179e+001  -1.771735e+002 
3396875000  -3.957304e+001  -1.776651e+002 
3400000000  -3.897099e+001  1.739828e+002 
3403125000  -3.965065e+001  1.685501e+002 
3406250000  -3.998740e+001  1.690756e+002 
3409375000  -4.010680e+001  1.602013e+002 
3412500000  -4.033628e+001  1.586516e+002 
3415625000  -4.140501e+001  1.589336e+002 
3418750000  -4.149872e+001  1.599621e+002 
3421875000  -4.142627e+001  1.638717e+002 
3425000000  -4.030775e+001  1.627758e+002 
3428125000  -3.948923e+001  1.589047e+002 
3431250000  -3.951573e+001  1.514123e+002 
3434375000  -3.918185e+001  1.449050e+002 
3437500000  -3.984410e+001  1.421526e+002 
3440625000  -4.023314e+001  1.434148e+002 
3443750000  -3.901204e+001  1.445505e+002 
3446875000  -3.804292e+001  1.362526e+002 
3450000000  -3.780521e+001  1.255332e+002 
3453125000  -3.801762e+001  1.166338e+002 
3456250000  -3.941603e+001  1.096037e+002 
3459375000  -4.019705e+001  1.093792e+002 
3462500000  -4.011990e+001  1.098416e+002 
3465625000  -3.993537e+001  1.049933e+002 
3468750000  -4.041934e+001  1.012876e+002 
3471875000  -4.035464e+001  1.000187e+002 
3475000000  -4.016970e+001  9.591997e+001 
3478125000  -4.061678e+001  8.677028e+001 
3481250000  -4.168902e+001  8.562483e+001 
3484375000  -4.216470e+001  8.869401e+001 
3487500000  -4.179618e+001  8.881469e+001 
3490625000  -4.110332e+001  8.445152e+001 
3493750000  -4.157512e+001  7.954075e+001 
3496875000  -4.212629e+001  7.517368e+001 
3500000000  -4.250639e+001  7.855340e+001 
3503125000  -4.215782e+001  7.995411e+001 
3506250000  -4.090137e+001  7.729097e+001 
3509375000  -4.082134e+001  6.671526e+001 
3512500000  -4.135802e+001  6.068155e+001 
3515625000  -4.197891e+001  5.788055e+001 
3518750000  -4.252955e+001  5.741610e+001 
3521875000  -4.255158e+001  5.526807e+001 
3525000000  -4.343027e+001  4.900019e+001 
3528125000  -4.356310e+001  6.060477e+001 
3531250000  -4.161612e+001  5.885907e+001 
3534375000  -4.196352e+001  4.753011e+001 
3537500000  -4.237529e+001  4.077079e+001 
3540625000  -4.309275e+001  4.075757e+001 
3543750000  -4.394869e+001  4.410444e+001 
3546875000  -4.387088e+001  5.478046e+001 
3550000000  -4.120559e+001  5.343590e+001 
3553125000  -3.973200e+001  3.645475e+001 
3556250000  -4.101669e+001  2.888894e+001 
3559375000  -4.100998e+001  3.077828e+001 
3562500000  -4.003131e+001  2.198161e+001 
3565625000  -4.109956e+001  1.382259e+001 
3568750000  -4.106411e+001  1.648075e+001 
3571875000  -4.107958e+001  1.476403e+001 
3575000000  -4.067548e+001  7.922883e+000 
3578125000  -4.112014e+001  2.060818e+000 
3581250000  -4.152647e+001  1.258868e+000 
3584375000  -4.055314e+001  -3.875422e+000 
3587500000  -4.018925e+001  -1.120031e+001 
3590625000  -4.058450e+001  -2.236244e+001 
3593750000  -4.200766e+001  -2.489463e+001 
3596875000  -4.216228e+001  -1.836270e+001 
3600000000  -4.078380e+001  -2.477412e+001 
3603125000  -4.135532e+001  -3.878142e+001 
3606250000  -4.198325e+001  -4.144909e+001 
3609375000  -4.253933e+001  -4.526844e+001 
3612500000  -4.366143e+001  -4.758869e+001 
3615625000  -4.389694e+001  -5.062141e+001 
3618750000  -4.452992e+001  -5.093393e+001 
3621875000  -4.481108e+001  -5.351151e+001 
3625000000  -4.532609e+001  -5.289078e+001 
3628125000  -4.569245e+001  -5.457158e+001 
3631250000  -4.539441e+001  -5.474351e+001 
3634375000  -4.695552e+001  -5.813272e+001 
3637500000  -4.659647e+001  -5.223873e+001 
3640625000  -4.536655e+001  -4.822514e+001 
3643750000  -4.535312e+001  -5.132908e+001 
3646875000  -4.586946e+001  -5.933344e+001 
3650000000  -4.616546e+001  -5.540476e+001 
3653125000  -4.554780e+001  -5.518331e+001 
3656250000  -4.597044e+001  -5.663969e+001 
3659375000  -4.572253e+001  -5.362566e+001 
3662500000  -4.510854e+001  -5.565155e+001 
3665625000  -4.438660e+001  -5.641483e+001 
3668750000  -4.377797e+001  -5.975600e+001 
3671875000  -4.264550e+001  -6.517726e+001 
3675000000  -4.273130e+001  -7.314090e+001 
3678125000  -4.317772e+001  -7.534886e+001 
3681250000  -4.272856e+001  -7.673605e+001 
3684375000  -4.243140e+001  -8.204241e+001 
3687500000  -4.278576e+001  -8.684567e+001 
3690625000  -4.270727e+001  -9.265704e+001 
3693750000  -4.382586e+001  -9.386543e+001 
3696875000  -4.367891e+001  -9.213290e+001 
3700000000  -4.305009e+001  -9.833541e+001 
3703125000  -4.264368e+001  -1.027693e+002 
3706250000  -4.400443e+001  -1.050049e+002 
3709375000  -4.320039e+001  -1.020352e+002 
3712500000  -4.237624e+001  -1.063014e+002 
3715625000  -4.178239e+001  -1.150121e+002 
3718750000  -4.186979e+001  -1.190509e+002 
3721875000  -4.129615e+001  -1.244643e+002 
3725000000  -4.194275e+001  -1.310145e+002 
3728125000  -4.230124e+001  -1.322251e+002 
3731250000  -4.208020e+001  -1.349505e+002 
3734375000  -4.190285e+001  -1.398972e+002 
3737500000  -4.284559e+001  -1.456662e+002 
3740625000  -4.400974e+001  -1.494927e+002 
3743750000  -4.402841e+001  -1.517209e+002 
3746875000  -4.454770e+001  -1.531607e+002 
3750000000  -4.545864e+001  -1.564383e+002 
3753125000  -4.539439e+001  -1.524361e+002 
3756250000  -4.570897e+001  -1.490474e+002 
3759375000  -4.533053e+001  -1.474536e+002 
3762500000  -4.476901e+001  -1.526458e+002 
3765625000  -4.568959e+001  -1.518564e+002 
3768750000  -4.485149e+001  -1.461302e+002 
3771875000  -4.360038e+001  -1.490105e+002 
3775000000  -4.298679e+001  -1.547616e+002 
3778125000  -4.302278e+001  -1.561773e+002 
3781250000  -4.287229e+001  -1.589687e+002 
3784375000  -4.271228e+001  -1.620970e+002 
3787500000  -4.124504e+001  -1.644167e+002 
3790625000  -4.181652e+001  -1.698756e+002 
3793750000  -4.185817e+001  -1.717247e+002 
3796875000  -4.084132e+001  -1.744578e+002 
3800000000  -3.895937e+001  -1.767024e+002 
3803125000  -3.964549e+001  1.717283e+002 
3806250000  -4.056405e+001  1.693302e+002 
3809375000  -4.000466e+001  1.678166e+002 
3812500000  -3.915833e+001  1.610640e+002 
3815625000  -3.983133e+001  1.499442e+002 
3818750000  -4.096072e+001  1.491566e+002 
3821875000  -4.078525e+001  1.552292e+002 
3825000000  -3.871800e+001  1.597009e+002 
3828125000  -3.764257e+001  1.432333e+002 
3831250000  -3.829224e+001  1.272061e+002 
3834375000  -3.975701e+001  1.259145e+002 
3837500000  -4.080885e+001  1.301832e+002 
3840625000  -3.954370e+001  1.257598e+002 
3843750000  -3.862506e+001  1.155954e+002 
3846875000  -3.951002e+001  1.078083e+002 
3850000000  -4.125011e+001  1.122730e+002 
3853125000  -4.018819e+001  1.147845e+002 
3856250000  -4.016778e+001  1.080505e+002 
3859375000  -3.939726e+001  1.047103e+002 
3862500000  -3.953535e+001  9.617600e+001 
3865625000  -3.973046e+001  9.176974e+001 
3868750000  -3.950667e+001  9.054516e+001 
3871875000  -3.926431e+001  8.586362e+001 
3875000000  -3.941422e+001  7.719234e+001 
3878125000  -4.061525e+001  7.624290e+001 
3881250000  -4.072056e+001  7.864674e+001 
3884375000  -4.033791e+001  7.413938e+001 
3887500000  -4.068019e+001  7.081103e+001 
3890625000  -4.115909e+001  6.683942e+001 
3893750000  -4.155344e+001  6.554569e+001 
3896875000  -4.154589e+001  6.815025e+001 
3900000000  -4.175583e+001  6.488456e+001 
3903125000  -4.171920e+001  6.339670e+001 
3906250000  -4.068100e+001  6.151796e+001 
3909375000  -4.024798e+001  5.886515e+001 
3912500000  -4.000659e+001  5.190699e+001 
3915625000  -4.123549e+001  5.257030e+001 
3918750000  -4.091735e+001  5.349527e+001 
3921875000  -4.063395e+001  5.049545e+001 
3925000000  -3.968773e+001  4.724014e+001 
3928125000  -3.890500e+001  4.032979e+001 
3931250000  -3.914962e+001  3.554676e+001 
3934375000  -3.940867e+001  3.440014e+001 
3937500000  -3.973792e+001  3.164106e+001 
3940625000  -4.020826e+001  3.028288e+001 
3943750000  -3.884957e+001  3.054765e+001 
3946875000  -3.787218e+001  2.357778e+001 
3950000000  -3.838740e+001  1.458235e+001 
3953125000  -3.950784e+001  1.402347e+001 
3956250000  -3.844550e+001  1.521170e+001 
3959375000  -3.743088e+001  1.177467e+001 
3962500000  -3.697785e+001  6.781671e+000 
3965625000  -3.674813e+001  -5.574370e+000 
3968750000  -3.783689e+001  -1.191829e+001 
3971875000  -3.811219e+001  -1.580102e+001 
3975000000  -3.740944e+001  -1.669426e+001 
3978125000  -3.738057e+001  -2.019613e+001 
3981250000  -3.754459e+001  -2.681787e+001 
3984375000  -3.763883e+001  -3.373582e+001 
3987500000  -3.831630e+001  -3.736339e+001 
3990625000  -3.836322e+001  -3.765389e+001 
3993750000  -3.879242e+001  -4.215488e+001 
3996875000  -3.888804e+001  -4.523976e+001 
4000000000  -3.895362e+001  -4.823415e+001 
4003125000  -3.959120e+001  -4.527669e+001 
4006250000  -3.844884e+001  -4.527656e+001 
4009375000  -3.751355e+001  -5.980267e+001 
4012500000  -3.876789e+001  -6.595171e+001 
4015625000  -4.019546e+001  -6.427431e+001 
4018750000  -4.044131e+001  -6.368192e+001 
4021875000  -3.944168e+001  -6.610004e+001 
4025000000  -3.937761e+001  -7.200446e+001 
4028125000  -3.937402e+001  -7.301891e+001 
4031250000  -3.993027e+001  -7.798130e+001 
4034375000  -3.980656e+001  -7.720394e+001 
4037500000  -3.940450e+001  -7.494087e+001 
4040625000  -3.927690e+001  -7.834034e+001 
4043750000  -3.959530e+001  -7.957493e+001 
4046875000  -3.903440e+001  -7.901448e+001 
4050000000  -3.838865e+001  -8.715140e+001 
4053125000  -3.889120e+001  -8.952013e+001 
4056250000  -3.952124e+001  -8.606332e+001 
4059375000  -3.791715e+001  -8.478500e+001 
4062500000  -3.660110e+001  -9.031753e+001 
4065625000  -3.634329e+001  -9.527518e+001 
4068750000  -3.622495e+001  -1.017512e+002 
4071875000  -3.546727e+001  -1.088319e+002 
4075000000  -3.575876e+001  -1.170637e+002 
4078125000  -3.626716e+001  -1.201544e+002 
4081250000  -3.566421e+001  -1.235139e+002 
4084375000  -3.520896e+001  -1.307640e+002 
4087500000  -3.563759e+001  -1.387685e+002 
4090625000  -3.628216e+001  -1.419103e+002 
4093750000  -3.618531e+001  -1.417403e+002 
4096875000  -3.576643e+001  -1.494903e+002 
4100000000  -3.643389e+001  -1.568556e+002 
4103125000  -3.729513e+001  -1.578532e+002 
4106250000  -3.713189e+001  -1.522975e+002 
4109375000  -3.624457e+001  -1.535499e+002 
4112500000  -3.586169e+001  -1.623847e+002 
4115625000  -3.630383e+001  -1.678826e+002 
4118750000  -3.651064e+001  -1.715015e+002 
4121875000  -3.599110e+001  -1.771604e+002 
4125000000  -3.638523e+001  1.760607e+002 
4128125000  -3.768406e+001  1.768446e+002 
4131250000  -3.730473e+001  -1.790078e+002 
4134375000  -3.520421e+001  1.760802e+002 
4137500000  -3.499993e+001  1.559624e+002 
4140625000  -3.734198e+001  1.480510e+002 
4143750000  -3.877275e+001  1.517146e+002 
4146875000  -3.860547e+001  1.607075e+002 
4150000000  -3.788278e+001  1.569188e+002 
4153125000  -3.760048e+001  1.508297e+002 
4156250000  -3.862725e+001  1.462750e+002 
4159375000  -3.891796e+001  1.518947e+002 
4162500000  -3.778646e+001  1.551624e+002 
4165625000  -3.691555e+001  1.506998e+002 
4168750000  -3.628984e+001  1.439237e+002 
4171875000  -3.615621e+001  1.340549e+002 
4175000000  -3.689920e+001  1.294329e+002 
4178125000  -3.748998e+001  1.288944e+002 
4181250000  -3.715530e+001  1.293370e+002 
4184375000  -3.711054e+001  1.268690e+002 
4187500000  -3.685087e+001  1.231898e+002 
4190625000  -3.664780e+001  1.171993e+002 
4193750000  -3.741099e+001  1.125971e+002 
4196875000  -3.803398e+001  1.119890e+002 
4200000000  -3.888844e+001  1.119168e+002 
4203125000  -3.871083e+001  1.263458e+002 
4206250000  -3.525739e+001  1.259775e+002 
4209375000  -3.389931e+001  1.046316e+002 
4212500000  -3.594221e+001  9.505919e+001 
4215625000  -3.702688e+001  1.024195e+002 
4218750000  -3.523445e+001  1.079728e+002 
4221875000  -3.301028e+001  9.734461e+001 
4225000000  -3.434310e+001  8.213319e+001 
4228125000  -3.493306e+001  8.575615e+001 
4231250000  -3.317013e+001  8.160165e+001 
4234375000  -3.316864e+001  7.180586e+001 
4237500000  -3.277471e+001  6.755468e+001 
4240625000  -3.266419e+001  5.732283e+001 
4243750000  -3.382956e+001  4.837546e+001 
4246875000  -3.465800e+001  4.858256e+001 
4250000000  -3.470546e+001  5.048848e+001 
4253125000  -3.405360e+001  4.577122e+001 
4256250000  -3.451497e+001  4.014117e+001 
4259375000  -3.441605e+001  3.725974e+001 
4262500000  -3.446531e+001  3.256060e+001 
4265625000  -3.448508e+001  3.014391e+001 
4268750000  -3.380603e+001  2.586891e+001 
4271875000  -3.372065e+001  1.825255e+001 
4275000000  -3.322402e+001  1.170951e+001 
4278125000  -3.396384e+001  -1.425852e+000 
4281250000  -3.612632e+001  -4.400655e+000 
4284375000  -3.569321e+001  -4.237513e+000 
4287500000  -3.677624e+001  -8.660716e+000 
4290625000  -3.793917e+001  1.414040e+000 
4293750000  -3.650184e+001  6.573151e+000 
4296875000  -3.517392e+001  -4.232278e+000 
4300000000  -3.602267e+001  -1.365741e+001 
4303125000  -3.735094e+001  -1.308906e+001 
4306250000  -3.672706e+001  -6.080512e+000 
4309375000  -3.551969e+001  -8.031752e+000 
4312500000  -3.533576e+001  -1.546444e+001 
4315625000  -3.547118e+001  -2.055544e+001 
4318750000  -3.576550e+001  -2.471509e+001 
4321875000  -3.587319e+001  -2.222799e+001 
4325000000  -3.511452e+001  -2.243818e+001 
4328125000  -3.448714e+001  -2.846460e+001 
4331250000  -3.427029e+001  -3.718975e+001 
4334375000  -3.481762e+001  -4.222005e+001 
4337500000  -3.536942e+001  -4.505709e+001 
4340625000  -3.570715e+001  -4.256423e+001 
4343750000  -3.511076e+001  -4.222301e+001 
4346875000  -3.443064e+001  -4.757567e+001 
4350000000  -3.438879e+001  -5.433258e+001 
4353125000  -3.437893e+001  -6.266942e+001 
4356250000  -3.587470e+001  -6.465076e+001 
4359375000  -3.643835e+001  -5.287236e+001 
4362500000  -3.347485e+001  -5.190055e+001 
4365625000  -3.181366e+001  -6.548204e+001 
4368750000  -3.248767e+001  -7.855004e+001 
4371875000  -3.364145e+001  -7.911488e+001 
4375000000  -3.318173e+001  -7.938394e+001 
4378125000  -3.226102e+001  -8.770525e+001 
4381250000  -3.257017e+001  -9.436656e+001 
4384375000  -3.241047e+001  -1.013705e+002 
4387500000  -3.299607e+001  -1.084800e+002 
4390625000  -3.397830e+001  -1.082216e+002 
4393750000  -3.354743e+001  -1.073360e+002 
4396875000  -3.296660e+001  -1.109346e+002 
4400000000  -3.240673e+001  -1.203560e+002 
4403125000  -3.310818e+001  -1.286931e+002 
4406250000  -3.395215e+001  -1.316366e+002 
4409375000  -3.404236e+001  -1.356340e+002 
4412500000  -3.529269e+001  -1.396090e+002 
4415625000  -3.580695e+001  -1.353902e+002 
