!Agilent Technologies,E8363B,MY43030201,A.06.04.32
!Agilent E8363B: A.06.04.32
!Date: Tuesday, November 11, 2014 21:07:08
!Correction: S21(Response(S21)) 
!S1P File: Measurement: S21:
# Hz S  dB   R 50
3000000000  -3.634864e+001  -5.045539e+001 
3003125000  -3.753633e+001  -5.639091e+001 
3006250000  -3.749640e+001  -6.036880e+001 
3009375000  -3.783868e+001  -5.465943e+001 
3012500000  -3.699068e+001  -5.617003e+001 
3015625000  -3.617725e+001  -6.466151e+001 
3018750000  -3.695782e+001  -6.454515e+001 
3021875000  -3.558734e+001  -6.376222e+001 
3025000000  -3.404852e+001  -6.796833e+001 
3028125000  -3.316647e+001  -7.438095e+001 
3031250000  -3.209754e+001  -8.556395e+001 
3034375000  -3.176636e+001  -9.911287e+001 
3037500000  -3.222725e+001  -1.111985e+002 
3040625000  -3.360354e+001  -1.156719e+002 
3043750000  -3.418966e+001  -1.210882e+002 
3046875000  -3.437722e+001  -1.274458e+002 
3050000000  -3.602139e+001  -1.331675e+002 
3053125000  -3.612433e+001  -1.271068e+002 
3056250000  -3.554226e+001  -1.241534e+002 
3059375000  -3.571561e+001  -1.244039e+002 
3062500000  -3.396841e+001  -1.289183e+002 
3065625000  -3.392100e+001  -1.338553e+002 
3068750000  -3.361562e+001  -1.417582e+002 
3071875000  -3.346128e+001  -1.436187e+002 
3075000000  -3.330615e+001  -1.480754e+002 
3078125000  -3.311883e+001  -1.518385e+002 
3081250000  -3.350961e+001  -1.564874e+002 
3084375000  -3.264719e+001  -1.597515e+002 
3087500000  -3.248327e+001  -1.636175e+002 
3090625000  -3.202963e+001  -1.740369e+002 
3093750000  -3.248919e+001  1.787562e+002 
3096875000  -3.343156e+001  1.728498e+002 
3100000000  -3.339611e+001  1.708260e+002 
3103125000  -3.365062e+001  1.714109e+002 
3106250000  -3.320387e+001  1.673509e+002 
3109375000  -3.325808e+001  1.632142e+002 
3112500000  -3.322488e+001  1.611947e+002 
3115625000  -3.285780e+001  1.565166e+002 
3118750000  -3.322398e+001  1.564956e+002 
3121875000  -3.232380e+001  1.470630e+002 
3125000000  -3.361335e+001  1.432232e+002 
3128125000  -3.454043e+001  1.499897e+002 
3131250000  -3.205324e+001  1.484993e+002 
3134375000  -3.070325e+001  1.327047e+002 
3137500000  -3.133014e+001  1.187866e+002 
3140625000  -3.278373e+001  1.158339e+002 
3143750000  -3.386051e+001  1.178032e+002 
3146875000  -3.333560e+001  1.182613e+002 
3150000000  -3.233432e+001  1.187550e+002 
3153125000  -3.227913e+001  1.094825e+002 
3156250000  -3.332725e+001  1.146537e+002 
3159375000  -3.155668e+001  1.153646e+002 
3162500000  -2.974694e+001  1.010562e+002 
3165625000  -3.068468e+001  8.877122e+001 
3168750000  -3.099072e+001  8.860027e+001 
3171875000  -3.010344e+001  8.319769e+001 
3175000000  -3.089099e+001  7.448865e+001 
3178125000  -3.070797e+001  7.510470e+001 
3181250000  -2.958856e+001  6.977368e+001 
3184375000  -2.890209e+001  5.694609e+001 
3187500000  -3.009884e+001  4.182724e+001 
3190625000  -3.269025e+001  3.397703e+001 
3193750000  -3.340373e+001  4.222301e+001 
3196875000  -3.293685e+001  4.679522e+001 
3200000000  -3.198882e+001  4.404734e+001 
3203125000  -3.122898e+001  3.789806e+001 
3206250000  -3.157742e+001  3.131263e+001 
3209375000  -3.105099e+001  2.524631e+001 
3212500000  -3.135149e+001  1.825299e+001 
3215625000  -3.136936e+001  1.494655e+001 
3218750000  -3.217371e+001  6.749439e+000 
3221875000  -3.305889e+001  2.333553e+000 
3225000000  -3.253752e+001  6.780671e-001 
3228125000  -3.292450e+001  -4.729203e+000 
3231250000  -3.359896e+001  -6.925421e+000 
3234375000  -3.338572e+001  -6.399065e+000 
3237500000  -3.339142e+001  -8.580005e+000 
3240625000  -3.285211e+001  -1.148857e+001 
3243750000  -3.260194e+001  -1.945473e+001 
3246875000  -3.287688e+001  -2.653146e+001 
3250000000  -3.337381e+001  -2.888953e+001 
3253125000  -3.356027e+001  -3.073608e+001 
3256250000  -3.313739e+001  -3.762996e+001 
3259375000  -3.340688e+001  -4.585483e+001 
3262500000  -3.459484e+001  -5.033384e+001 
3265625000  -3.522395e+001  -4.713562e+001 
3268750000  -3.505148e+001  -4.462333e+001 
3271875000  -3.473925e+001  -4.563879e+001 
3275000000  -3.371500e+001  -5.192951e+001 
3278125000  -3.419867e+001  -5.851834e+001 
3281250000  -3.434750e+001  -5.770065e+001 
3284375000  -3.394284e+001  -6.503103e+001 
3287500000  -3.407490e+001  -6.799853e+001 
3290625000  -3.427688e+001  -7.390823e+001 
3293750000  -3.419424e+001  -8.035361e+001 
3296875000  -3.511462e+001  -8.095550e+001 
3300000000  -3.483988e+001  -8.035859e+001 
3303125000  -3.363694e+001  -8.527184e+001 
3306250000  -3.342614e+001  -9.249137e+001 
3309375000  -3.320026e+001  -9.859953e+001 
3312500000  -3.320830e+001  -1.096518e+002 
3315625000  -3.426355e+001  -1.177135e+002 
3318750000  -3.571135e+001  -1.201615e+002 
3321875000  -3.674294e+001  -1.218598e+002 
3325000000  -3.746743e+001  -1.155358e+002 
3328125000  -3.674752e+001  -1.144228e+002 
3331250000  -3.576089e+001  -1.081973e+002 
3334375000  -3.291719e+001  -1.190302e+002 
3337500000  -3.307445e+001  -1.388728e+002 
3340625000  -3.447817e+001  -1.492322e+002 
3343750000  -3.643015e+001  -1.499324e+002 
3346875000  -3.665222e+001  -1.474506e+002 
3350000000  -3.596104e+001  -1.495626e+002 
3353125000  -3.594919e+001  -1.548265e+002 
3356250000  -3.552239e+001  -1.637645e+002 
3359375000  -3.627136e+001  -1.712707e+002 
3362500000  -3.747194e+001  -1.768095e+002 
3365625000  -3.783726e+001  -1.782212e+002 
3368750000  -3.861664e+001  1.791295e+002 
3371875000  -3.878808e+001  1.765850e+002 
3375000000  -4.042709e+001  1.733440e+002 
3378125000  -4.102453e+001  1.734075e+002 
3381250000  -4.245263e+001  -1.768768e+002 
3384375000  -4.099173e+001  -1.566005e+002 
3387500000  -3.732656e+001  -1.739773e+002 
3390625000  -3.908532e+001  1.673965e+002 
3393750000  -4.053316e+001  1.695867e+002 
3396875000  -3.893920e+001  1.715126e+002 
3400000000  -3.855568e+001  1.641462e+002 
3403125000  -3.906281e+001  1.576509e+002 
3406250000  -3.951449e+001  1.587088e+002 
3409375000  -3.979077e+001  1.506723e+002 
3412500000  -4.011823e+001  1.485020e+002 
3415625000  -4.074065e+001  1.500360e+002 
3418750000  -4.097365e+001  1.500877e+002 
3421875000  -4.121467e+001  1.535891e+002 
3425000000  -4.028527e+001  1.538033e+002 
3428125000  -3.935810e+001  1.485902e+002 
3431250000  -3.926861e+001  1.417690e+002 
3434375000  -3.910630e+001  1.362029e+002 
3437500000  -3.960377e+001  1.347073e+002 
3440625000  -4.004452e+001  1.330091e+002 
3443750000  -3.873440e+001  1.337964e+002 
3446875000  -3.794841e+001  1.274952e+002 
3450000000  -3.753942e+001  1.164581e+002 
3453125000  -3.789235e+001  1.064713e+002 
3456250000  -3.909206e+001  1.003364e+002 
3459375000  -3.992887e+001  1.013489e+002 
3462500000  -3.973656e+001  1.025076e+002 
3465625000  -3.980241e+001  9.603283e+001 
3468750000  -4.014475e+001  9.179932e+001 
3471875000  -3.988221e+001  9.105556e+001 
3475000000  -3.937280e+001  8.598326e+001 
3478125000  -4.036123e+001  7.818641e+001 
3481250000  -4.113940e+001  7.584776e+001 
3484375000  -4.207043e+001  7.888950e+001 
3487500000  -4.131995e+001  7.901364e+001 
3490625000  -4.065096e+001  7.402681e+001 
3493750000  -4.129292e+001  6.646947e+001 
3496875000  -4.205578e+001  6.483430e+001 
3500000000  -4.261436e+001  6.895660e+001 
3503125000  -4.210224e+001  6.942094e+001 
3506250000  -4.074438e+001  6.590994e+001 
3509375000  -4.061472e+001  5.549618e+001 
3512500000  -4.109620e+001  4.685719e+001 
3515625000  -4.206066e+001  4.388618e+001 
3518750000  -4.251911e+001  4.657940e+001 
3521875000  -4.221385e+001  4.278759e+001 
3525000000  -4.340075e+001  3.954953e+001 
3528125000  -4.315543e+001  4.845642e+001 
3531250000  -4.213697e+001  4.333749e+001 
3534375000  -4.196940e+001  3.356199e+001 
3537500000  -4.247120e+001  2.850053e+001 
3540625000  -4.348988e+001  2.957910e+001 
3543750000  -4.425452e+001  3.077184e+001 
3546875000  -4.404966e+001  4.478202e+001 
3550000000  -4.138555e+001  4.491717e+001 
3553125000  -4.019553e+001  2.777761e+001 
3556250000  -4.146043e+001  2.025046e+001 
3559375000  -4.138535e+001  2.222240e+001 
3562500000  -4.033715e+001  1.513774e+001 
3565625000  -4.111196e+001  6.179666e+000 
3568750000  -4.157148e+001  9.147332e+000 
3571875000  -4.109787e+001  7.165151e+000 
3575000000  -4.072929e+001  1.897794e+000 
3578125000  -4.134278e+001  -2.744839e+000 
3581250000  -4.174804e+001  -3.611618e+000 
3584375000  -4.070695e+001  -9.758604e+000 
3587500000  -4.009898e+001  -1.692228e+001 
3590625000  -4.070778e+001  -2.810701e+001 
3593750000  -4.184960e+001  -2.794896e+001 
3596875000  -4.190456e+001  -2.264964e+001 
3600000000  -4.051012e+001  -3.024046e+001 
3603125000  -4.051933e+001  -4.589915e+001 
3606250000  -4.127366e+001  -4.827504e+001 
3609375000  -4.209944e+001  -4.909385e+001 
3612500000  -4.270051e+001  -5.336031e+001 
3615625000  -4.297425e+001  -5.737450e+001 
3618750000  -4.359065e+001  -5.691909e+001 
3621875000  -4.356081e+001  -6.088610e+001 
3625000000  -4.422560e+001  -6.251196e+001 
3628125000  -4.405555e+001  -6.394920e+001 
3631250000  -4.402554e+001  -6.774879e+001 
3634375000  -4.540335e+001  -6.598977e+001 
3637500000  -4.619021e+001  -6.320682e+001 
3640625000  -4.482896e+001  -6.229522e+001 
3643750000  -4.459681e+001  -6.980653e+001 
3646875000  -4.492074e+001  -7.278930e+001 
3650000000  -4.603997e+001  -7.095891e+001 
3653125000  -4.518262e+001  -7.531062e+001 
3656250000  -4.572740e+001  -7.369804e+001 
3659375000  -4.619935e+001  -7.041116e+001 
3662500000  -4.525596e+001  -7.160567e+001 
3665625000  -4.493147e+001  -6.963440e+001 
3668750000  -4.398256e+001  -7.076302e+001 
3671875000  -4.259465e+001  -7.924341e+001 
3675000000  -4.293715e+001  -8.370256e+001 
3678125000  -4.306468e+001  -8.754063e+001 
3681250000  -4.317820e+001  -8.844044e+001 
3684375000  -4.311490e+001  -9.200008e+001 
3687500000  -4.316754e+001  -9.793666e+001 
3690625000  -4.315770e+001  -1.012951e+002 
3693750000  -4.404610e+001  -1.004235e+002 
3696875000  -4.390858e+001  -1.016719e+002 
3700000000  -4.275254e+001  -1.070401e+002 
3703125000  -4.299881e+001  -1.125827e+002 
3706250000  -4.387398e+001  -1.124812e+002 
3709375000  -4.314512e+001  -1.114947e+002 
3712500000  -4.251153e+001  -1.140203e+002 
3715625000  -4.159092e+001  -1.196592e+002 
3718750000  -4.133005e+001  -1.253378e+002 
3721875000  -4.103030e+001  -1.323507e+002 
3725000000  -4.140129e+001  -1.383636e+002 
3728125000  -4.202716e+001  -1.383975e+002 
3731250000  -4.168491e+001  -1.403507e+002 
3734375000  -4.128806e+001  -1.499049e+002 
3737500000  -4.182590e+001  -1.548289e+002 
3740625000  -4.329939e+001  -1.591132e+002 
3743750000  -4.315560e+001  -1.626017e+002 
3746875000  -4.351776e+001  -1.657112e+002 
3750000000  -4.435913e+001  -1.671473e+002 
3753125000  -4.406676e+001  -1.664148e+002 
3756250000  -4.429977e+001  -1.632285e+002 
3759375000  -4.453134e+001  -1.659298e+002 
3762500000  -4.383775e+001  -1.664837e+002 
3765625000  -4.473596e+001  -1.684383e+002 
3768750000  -4.460297e+001  -1.641501e+002 
3771875000  -4.348340e+001  -1.667838e+002 
3775000000  -4.312507e+001  -1.725097e+002 
3778125000  -4.378848e+001  -1.756833e+002 
3781250000  -4.331340e+001  -1.739278e+002 
3784375000  -4.274580e+001  -1.774133e+002 
3787500000  -4.209879e+001  -1.780740e+002 
3790625000  -4.239743e+001  1.748840e+002 
3793750000  -4.236204e+001  1.726210e+002 
3796875000  -4.140778e+001  1.722372e+002 
3800000000  -3.955790e+001  1.695347e+002 
3803125000  -4.025671e+001  1.600794e+002 
3806250000  -4.106659e+001  1.577767e+002 
3809375000  -4.061963e+001  1.558526e+002 
3812500000  -3.970939e+001  1.485925e+002 
3815625000  -4.046864e+001  1.396399e+002 
3818750000  -4.136737e+001  1.397923e+002 
3821875000  -4.130448e+001  1.452827e+002 
3825000000  -3.943966e+001  1.476528e+002 
3828125000  -3.815660e+001  1.337990e+002 
3831250000  -3.860980e+001  1.168562e+002 
3834375000  -4.017919e+001  1.171639e+002 
3837500000  -4.098317e+001  1.193914e+002 
3840625000  -3.966237e+001  1.192766e+002 
3843750000  -3.902150e+001  1.077271e+002 
3846875000  -4.002737e+001  9.922713e+001 
3850000000  -4.099115e+001  1.041238e+002 
3853125000  -4.032761e+001  1.072758e+002 
3856250000  -4.004894e+001  9.947693e+001 
3859375000  -3.962170e+001  9.471664e+001 
3862500000  -3.948949e+001  8.612564e+001 
3865625000  -3.976298e+001  8.162222e+001 
3868750000  -3.959256e+001  8.032104e+001 
3871875000  -3.896778e+001  7.665875e+001 
3875000000  -3.940321e+001  6.793621e+001 
3878125000  -4.062746e+001  6.596321e+001 
3881250000  -4.046833e+001  6.731799e+001 
3884375000  -4.012889e+001  6.308330e+001 
3887500000  -4.015264e+001  5.781604e+001 
3890625000  -4.095713e+001  5.729445e+001 
3893750000  -4.086906e+001  5.388507e+001 
3896875000  -4.167566e+001  5.454467e+001 
3900000000  -4.183191e+001  5.269339e+001 
3903125000  -4.109689e+001  5.110788e+001 
3906250000  -4.096297e+001  4.918763e+001 
3909375000  -3.991638e+001  4.619817e+001 
3912500000  -4.000331e+001  3.724589e+001 
3915625000  -4.166600e+001  3.934646e+001 
3918750000  -4.088788e+001  3.971211e+001 
3921875000  -4.072539e+001  3.675218e+001 
3925000000  -3.979403e+001  3.414508e+001 
3928125000  -3.922142e+001  2.656608e+001 
3931250000  -3.951828e+001  2.263858e+001 
3934375000  -4.000417e+001  2.209173e+001 
3937500000  -4.011943e+001  1.972945e+001 
3940625000  -4.049580e+001  1.825602e+001 
3943750000  -3.945299e+001  1.836436e+001 
3946875000  -3.814549e+001  1.175378e+001 
3950000000  -3.891164e+001  3.652735e+000 
3953125000  -4.004956e+001  9.518709e-001 
3956250000  -3.901375e+001  5.062133e+000 
3959375000  -3.784666e+001  4.146358e-001 
3962500000  -3.724477e+001  -5.698878e+000 
3965625000  -3.714301e+001  -1.530519e+001 
3968750000  -3.811673e+001  -2.201254e+001 
3971875000  -3.845411e+001  -2.485549e+001 
3975000000  -3.771730e+001  -2.784726e+001 
3978125000  -3.788444e+001  -2.998594e+001 
3981250000  -3.773307e+001  -3.488256e+001 
3984375000  -3.789688e+001  -4.171349e+001 
3987500000  -3.842543e+001  -4.359819e+001 
3990625000  -3.852867e+001  -4.611092e+001 
3993750000  -3.896421e+001  -5.078977e+001 
3996875000  -3.890520e+001  -5.489465e+001 
4000000000  -3.938267e+001  -5.479937e+001 
4003125000  -3.985260e+001  -5.404677e+001 
4006250000  -3.824901e+001  -5.681700e+001 
4009375000  -3.732772e+001  -6.846819e+001 
4012500000  -3.863329e+001  -7.641513e+001 
4015625000  -3.967093e+001  -7.380528e+001 
4018750000  -3.982861e+001  -7.231587e+001 
4021875000  -3.923346e+001  -7.615804e+001 
4025000000  -3.890722e+001  -8.072699e+001 
4028125000  -3.897181e+001  -8.452376e+001 
4031250000  -3.935203e+001  -8.917963e+001 
4034375000  -3.968987e+001  -8.862067e+001 
4037500000  -3.920793e+001  -8.699210e+001 
4040625000  -3.897118e+001  -9.083297e+001 
4043750000  -3.942395e+001  -9.381696e+001 
4046875000  -3.895047e+001  -9.394036e+001 
4050000000  -3.853044e+001  -1.003491e+002 
4053125000  -3.883422e+001  -1.011164e+002 
4056250000  -3.932228e+001  -9.739323e+001 
4059375000  -3.824342e+001  -9.760145e+001 
4062500000  -3.681096e+001  -1.034011e+002 
4065625000  -3.668541e+001  -1.080319e+002 
4068750000  -3.631033e+001  -1.150910e+002 
4071875000  -3.558464e+001  -1.234550e+002 
4075000000  -3.602209e+001  -1.298531e+002 
4078125000  -3.673250e+001  -1.315638e+002 
4081250000  -3.606573e+001  -1.357476e+002 
4084375000  -3.567451e+001  -1.427344e+002 
4087500000  -3.616574e+001  -1.496609e+002 
4090625000  -3.657779e+001  -1.510947e+002 
4093750000  -3.657033e+001  -1.530998e+002 
4096875000  -3.618784e+001  -1.602288e+002 
4100000000  -3.697401e+001  -1.667410e+002 
4103125000  -3.776135e+001  -1.674025e+002 
4106250000  -3.755939e+001  -1.617791e+002 
4109375000  -3.671262e+001  -1.642148e+002 
4112500000  -3.613625e+001  -1.727229e+002 
4115625000  -3.642181e+001  -1.776236e+002 
4118750000  -3.679848e+001  1.779641e+002 
4121875000  -3.624378e+001  1.741535e+002 
4125000000  -3.663288e+001  1.669320e+002 
4128125000  -3.786031e+001  1.684998e+002 
4131250000  -3.767584e+001  1.740640e+002 
4134375000  -3.514893e+001  1.683781e+002 
4137500000  -3.525076e+001  1.476144e+002 
4140625000  -3.753451e+001  1.420856e+002 
4143750000  -3.869591e+001  1.435741e+002 
4146875000  -3.851809e+001  1.506184e+002 
4150000000  -3.749279e+001  1.481386e+002 
4153125000  -3.759036e+001  1.408667e+002 
4156250000  -3.839519e+001  1.377307e+002 
4159375000  -3.859052e+001  1.413101e+002 
4162500000  -3.763985e+001  1.463710e+002 
4165625000  -3.646151e+001  1.414743e+002 
4168750000  -3.578648e+001  1.334648e+002 
4171875000  -3.609211e+001  1.234779e+002 
4175000000  -3.662949e+001  1.181439e+002 
4178125000  -3.724887e+001  1.178022e+002 
4181250000  -3.702044e+001  1.165140e+002 
4184375000  -3.693753e+001  1.125228e+002 
4187500000  -3.695137e+001  1.098688e+002 
4190625000  -3.669836e+001  1.049672e+002 
4193750000  -3.747574e+001  1.000954e+002 
4196875000  -3.824871e+001  9.962218e+001 
4200000000  -3.912301e+001  1.000699e+002 
4203125000  -3.882860e+001  1.139641e+002 
4206250000  -3.529420e+001  1.137543e+002 
4209375000  -3.427094e+001  8.992383e+001 
4212500000  -3.626239e+001  8.279335e+001 
4215625000  -3.709680e+001  9.010570e+001 
4218750000  -3.565162e+001  9.500371e+001 
4221875000  -3.328317e+001  8.358919e+001 
4225000000  -3.456896e+001  7.029800e+001 
4228125000  -3.519791e+001  7.465543e+001 
4231250000  -3.365832e+001  7.112090e+001 
4234375000  -3.342135e+001  6.135521e+001 
4237500000  -3.294793e+001  5.636967e+001 
4240625000  -3.309185e+001  4.570672e+001 
4243750000  -3.409543e+001  3.770745e+001 
4246875000  -3.499728e+001  3.732242e+001 
4250000000  -3.496233e+001  3.834633e+001 
4253125000  -3.456568e+001  3.524751e+001 
4256250000  -3.490206e+001  2.995314e+001 
4259375000  -3.453601e+001  2.737248e+001 
4262500000  -3.456901e+001  2.322916e+001 
4265625000  -3.462779e+001  2.162302e+001 
4268750000  -3.398694e+001  1.631658e+001 
4271875000  -3.381812e+001  9.016006e+000 
4275000000  -3.344275e+001  8.145456e-001 
4278125000  -3.416619e+001  -1.149492e+001 
4281250000  -3.616200e+001  -1.290551e+001 
4284375000  -3.606525e+001  -1.237114e+001 
4287500000  -3.679959e+001  -1.611026e+001 
4290625000  -3.805982e+001  -7.125079e+000 
4293750000  -3.611898e+001  -1.936345e+000 
4296875000  -3.492336e+001  -1.438245e+001 
4300000000  -3.581160e+001  -2.401821e+001 
4303125000  -3.710329e+001  -2.034691e+001 
4306250000  -3.644536e+001  -1.594647e+001 
4309375000  -3.513729e+001  -1.843903e+001 
4312500000  -3.490127e+001  -2.636800e+001 
4315625000  -3.515096e+001  -3.139886e+001 
4318750000  -3.540808e+001  -3.498006e+001 
4321875000  -3.570549e+001  -3.505772e+001 
4325000000  -3.505196e+001  -3.569967e+001 
4328125000  -3.419799e+001  -4.181173e+001 
4331250000  -3.415179e+001  -4.988375e+001 
4334375000  -3.450237e+001  -5.537367e+001 
4337500000  -3.544485e+001  -5.885974e+001 
4340625000  -3.600267e+001  -5.456312e+001 
4343750000  -3.497458e+001  -5.604485e+001 
4346875000  -3.455065e+001  -6.147310e+001 
4350000000  -3.437013e+001  -6.770635e+001 
4353125000  -3.452531e+001  -7.532998e+001 
4356250000  -3.640862e+001  -7.757229e+001 
4359375000  -3.646561e+001  -6.314627e+001 
4362500000  -3.331335e+001  -6.449281e+001 
4365625000  -3.205784e+001  -7.804895e+001 
4368750000  -3.268872e+001  -9.047987e+001 
4371875000  -3.392547e+001  -9.074535e+001 
4375000000  -3.350716e+001  -9.099049e+001 
4378125000  -3.283669e+001  -9.974342e+001 
4381250000  -3.289455e+001  -1.049744e+002 
4384375000  -3.282058e+001  -1.121138e+002 
4387500000  -3.364946e+001  -1.185147e+002 
4390625000  -3.443369e+001  -1.198435e+002 
4393750000  -3.379307e+001  -1.185919e+002 
4396875000  -3.342884e+001  -1.228734e+002 
4400000000  -3.280048e+001  -1.308518e+002 
4403125000  -3.353449e+001  -1.397559e+002 
4406250000  -3.417218e+001  -1.412365e+002 
4409375000  -3.446737e+001  -1.456004e+002 
4412500000  -3.573310e+001  -1.488058e+002 
4415625000  -3.602551e+001  -1.446582e+002 
