!Agilent Technologies,E8363B,MY43030201,A.06.04.32
!Agilent E8363B: A.06.04.32
!Date: Tuesday, November 11, 2014 21:13:16
!Correction: S21(Response(S21)) 
!S1P File: Measurement: S21:
# Hz S  dB   R 50
3000000000  -3.652957e+001  -5.994262e+001 
3003125000  -3.756803e+001  -6.666261e+001 
3006250000  -3.742652e+001  -6.945181e+001 
3009375000  -3.782861e+001  -6.405962e+001 
3012500000  -3.698254e+001  -6.675209e+001 
3015625000  -3.627279e+001  -7.378569e+001 
3018750000  -3.692556e+001  -7.441728e+001 
3021875000  -3.548895e+001  -7.321619e+001 
3025000000  -3.418250e+001  -7.674602e+001 
3028125000  -3.314565e+001  -8.378883e+001 
3031250000  -3.217667e+001  -9.567204e+001 
3034375000  -3.185274e+001  -1.091535e+002 
3037500000  -3.241516e+001  -1.205332e+002 
3040625000  -3.371849e+001  -1.256841e+002 
3043750000  -3.430985e+001  -1.309924e+002 
3046875000  -3.461360e+001  -1.360294e+002 
3050000000  -3.615092e+001  -1.420895e+002 
3053125000  -3.610836e+001  -1.363330e+002 
3056250000  -3.563496e+001  -1.333216e+002 
3059375000  -3.571212e+001  -1.337868e+002 
3062500000  -3.411243e+001  -1.362233e+002 
3065625000  -3.389190e+001  -1.439314e+002 
3068750000  -3.362322e+001  -1.500908e+002 
3071875000  -3.357625e+001  -1.522595e+002 
3075000000  -3.322270e+001  -1.572476e+002 
3078125000  -3.309866e+001  -1.608730e+002 
3081250000  -3.358171e+001  -1.648428e+002 
3084375000  -3.265818e+001  -1.687018e+002 
3087500000  -3.255581e+001  -1.729149e+002 
3090625000  -3.199807e+001  1.771936e+002 
3093750000  -3.251155e+001  1.693918e+002 
3096875000  -3.346330e+001  1.645306e+002 
3100000000  -3.343755e+001  1.621997e+002 
3103125000  -3.371695e+001  1.627690e+002 
3106250000  -3.314262e+001  1.585688e+002 
3109375000  -3.320179e+001  1.546265e+002 
3112500000  -3.317359e+001  1.520703e+002 
3115625000  -3.287320e+001  1.471471e+002 
3118750000  -3.320276e+001  1.470820e+002 
3121875000  -3.224643e+001  1.375980e+002 
3125000000  -3.361367e+001  1.337117e+002 
3128125000  -3.444511e+001  1.415962e+002 
3131250000  -3.196582e+001  1.384376e+002 
3134375000  -3.075639e+001  1.235123e+002 
3137500000  -3.132575e+001  1.100614e+002 
3140625000  -3.276476e+001  1.071120e+002 
3143750000  -3.379163e+001  1.076540e+002 
3146875000  -3.316706e+001  1.091633e+002 
3150000000  -3.228160e+001  1.088588e+002 
3153125000  -3.239324e+001  9.971383e+001 
3156250000  -3.334083e+001  1.053238e+002 
3159375000  -3.154823e+001  1.057490e+002 
3162500000  -2.972714e+001  9.105730e+001 
3165625000  -3.079226e+001  7.864242e+001 
3168750000  -3.097396e+001  7.932983e+001 
3171875000  -3.014489e+001  7.352271e+001 
3175000000  -3.089935e+001  6.493958e+001 
3178125000  -3.062983e+001  6.557579e+001 
3181250000  -2.962104e+001  5.963321e+001 
3184375000  -2.901097e+001  4.705489e+001 
3187500000  -3.016949e+001  3.204308e+001 
3190625000  -3.284699e+001  2.424285e+001 
3193750000  -3.325005e+001  3.296086e+001 
3196875000  -3.295223e+001  3.741421e+001 
3200000000  -3.205471e+001  3.449262e+001 
3203125000  -3.129412e+001  2.827809e+001 
3206250000  -3.160791e+001  2.184572e+001 
3209375000  -3.117090e+001  1.591606e+001 
3212500000  -3.145267e+001  8.400989e+000 
3215625000  -3.152588e+001  4.963469e+000 
3218750000  -3.226838e+001  -1.805765e+000 
3221875000  -3.300942e+001  -7.047249e+000 
3225000000  -3.268335e+001  -8.189558e+000 
3228125000  -3.306188e+001  -1.395875e+001 
3231250000  -3.368727e+001  -1.634485e+001 
3234375000  -3.341720e+001  -1.568550e+001 
3237500000  -3.344768e+001  -1.814736e+001 
3240625000  -3.298972e+001  -2.067620e+001 
3243750000  -3.262050e+001  -2.842208e+001 
3246875000  -3.297276e+001  -3.583039e+001 
3250000000  -3.339548e+001  -3.725964e+001 
3253125000  -3.353536e+001  -3.885665e+001 
3256250000  -3.308552e+001  -4.645211e+001 
3259375000  -3.342328e+001  -5.523650e+001 
3262500000  -3.463851e+001  -5.852146e+001 
3265625000  -3.523161e+001  -5.668538e+001 
3268750000  -3.515257e+001  -5.484394e+001 
3271875000  -3.458889e+001  -5.480587e+001 
3275000000  -3.370660e+001  -6.173080e+001 
3278125000  -3.416669e+001  -6.846769e+001 
3281250000  -3.431960e+001  -6.720448e+001 
3284375000  -3.378532e+001  -7.402078e+001 
3287500000  -3.399515e+001  -7.731794e+001 
3290625000  -3.431014e+001  -8.431565e+001 
3293750000  -3.400524e+001  -8.911050e+001 
3296875000  -3.512698e+001  -9.099069e+001 
3300000000  -3.483764e+001  -8.971836e+001 
3303125000  -3.355495e+001  -9.584830e+001 
3306250000  -3.345082e+001  -1.027002e+002 
3309375000  -3.314619e+001  -1.088621e+002 
3312500000  -3.334530e+001  -1.204654e+002 
3315625000  -3.436823e+001  -1.284715e+002 
3318750000  -3.576514e+001  -1.303244e+002 
3321875000  -3.691933e+001  -1.304236e+002 
3325000000  -3.734830e+001  -1.250895e+002 
3328125000  -3.662030e+001  -1.237486e+002 
3331250000  -3.559311e+001  -1.178923e+002 
3334375000  -3.295353e+001  -1.293884e+002 
3337500000  -3.300372e+001  -1.492492e+002 
3340625000  -3.456007e+001  -1.600055e+002 
3343750000  -3.653170e+001  -1.597724e+002 
3346875000  -3.653387e+001  -1.589851e+002 
3350000000  -3.594701e+001  -1.605005e+002 
3353125000  -3.601579e+001  -1.658316e+002 
3356250000  -3.556516e+001  -1.731048e+002 
3359375000  -3.643470e+001  1.785108e+002 
3362500000  -3.768517e+001  1.726739e+002 
3365625000  -3.800788e+001  1.714307e+002 
3368750000  -3.887745e+001  1.679015e+002 
3371875000  -3.913207e+001  1.665652e+002 
3375000000  -4.037719e+001  1.634828e+002 
3378125000  -4.133888e+001  1.633394e+002 
3381250000  -4.276915e+001  1.732660e+002 
3384375000  -4.092798e+001  -1.665156e+002 
3387500000  -3.759709e+001  1.756440e+002 
3390625000  -3.922099e+001  1.578018e+002 
3393750000  -4.055032e+001  1.604240e+002 
3396875000  -3.909036e+001  1.620921e+002 
3400000000  -3.860585e+001  1.545395e+002 
3403125000  -3.937240e+001  1.489380e+002 
3406250000  -3.981142e+001  1.491286e+002 
3409375000  -3.980878e+001  1.411591e+002 
3412500000  -4.014251e+001  1.389007e+002 
3415625000  -4.087605e+001  1.407441e+002 
3418750000  -4.108178e+001  1.409042e+002 
3421875000  -4.109462e+001  1.443483e+002 
3425000000  -4.023824e+001  1.427514e+002 
3428125000  -3.922475e+001  1.391332e+002 
3431250000  -3.918036e+001  1.319261e+002 
3434375000  -3.896682e+001  1.265206e+002 
3437500000  -3.976500e+001  1.225177e+002 
3440625000  -4.010801e+001  1.257638e+002 
3443750000  -3.870726e+001  1.238415e+002 
3446875000  -3.788308e+001  1.167305e+002 
3450000000  -3.749583e+001  1.065362e+002 
3453125000  -3.796988e+001  9.601314e+001 
3456250000  -3.925541e+001  8.984702e+001 
3459375000  -3.995844e+001  9.162915e+001 
3462500000  -3.978779e+001  8.990565e+001 
3465625000  -3.973895e+001  8.612419e+001 
3468750000  -4.038646e+001  8.216738e+001 
3471875000  -4.013145e+001  7.956071e+001 
3475000000  -3.972229e+001  7.534925e+001 
3478125000  -4.037627e+001  6.853471e+001 
3481250000  -4.139498e+001  6.531797e+001 
3484375000  -4.256444e+001  6.949652e+001 
3487500000  -4.142976e+001  6.875990e+001 
3490625000  -4.102632e+001  6.429599e+001 
3493750000  -4.149984e+001  5.788614e+001 
3496875000  -4.184350e+001  5.685846e+001 
3500000000  -4.292664e+001  6.063455e+001 
3503125000  -4.225121e+001  6.118830e+001 
3506250000  -4.077204e+001  5.744402e+001 
3509375000  -4.069660e+001  4.850851e+001 
3512500000  -4.119647e+001  3.808202e+001 
3515625000  -4.224017e+001  3.774791e+001 
3518750000  -4.254125e+001  3.796870e+001 
3521875000  -4.238444e+001  3.375631e+001 
3525000000  -4.325748e+001  3.474159e+001 
3528125000  -4.313276e+001  4.291413e+001 
3531250000  -4.182003e+001  3.764811e+001 
3534375000  -4.182122e+001  2.724220e+001 
3537500000  -4.219537e+001  2.191118e+001 
3540625000  -4.342403e+001  2.235324e+001 
3543750000  -4.393168e+001  2.492700e+001 
3546875000  -4.354673e+001  3.811290e+001 
3550000000  -4.088266e+001  3.496830e+001 
3553125000  -3.979784e+001  1.871077e+001 
3556250000  -4.147953e+001  1.162735e+001 
3559375000  -4.098936e+001  1.311372e+001 
3562500000  -3.997308e+001  3.283879e+000 
3565625000  -4.079190e+001  -4.045549e+000 
3568750000  -4.090123e+001  -2.944095e+000 
3571875000  -4.059974e+001  -3.462702e+000 
3575000000  -4.028419e+001  -1.103891e+001 
3578125000  -4.101476e+001  -1.671961e+001 
3581250000  -4.128648e+001  -1.750064e+001 
3584375000  -4.012838e+001  -2.105860e+001 
3587500000  -3.984628e+001  -2.989039e+001 
3590625000  -4.033957e+001  -3.962332e+001 
3593750000  -4.158826e+001  -4.049363e+001 
3596875000  -4.176089e+001  -3.624961e+001 
3600000000  -4.031602e+001  -4.289366e+001 
3603125000  -4.083654e+001  -5.471114e+001 
3606250000  -4.156239e+001  -6.073318e+001 
3609375000  -4.241312e+001  -6.232156e+001 
3612500000  -4.284365e+001  -6.529530e+001 
3615625000  -4.336179e+001  -6.948904e+001 
3618750000  -4.413432e+001  -6.767548e+001 
3621875000  -4.388103e+001  -7.242964e+001 
3625000000  -4.469096e+001  -7.184525e+001 
3628125000  -4.466096e+001  -7.235216e+001 
3631250000  -4.459616e+001  -7.595499e+001 
3634375000  -4.557127e+001  -7.569440e+001 
3637500000  -4.584038e+001  -7.046008e+001 
3640625000  -4.484785e+001  -6.644888e+001 
3643750000  -4.454908e+001  -7.406149e+001 
3646875000  -4.514415e+001  -7.864215e+001 
3650000000  -4.551076e+001  -7.714834e+001 
3653125000  -4.510192e+001  -7.968163e+001 
3656250000  -4.555037e+001  -7.947111e+001 
3659375000  -4.526674e+001  -7.566834e+001 
3662500000  -4.437591e+001  -8.029440e+001 
3665625000  -4.430049e+001  -7.937636e+001 
3668750000  -4.313342e+001  -7.859708e+001 
3671875000  -4.206594e+001  -8.604817e+001 
3675000000  -4.246862e+001  -9.429230e+001 
3678125000  -4.237742e+001  -9.749911e+001 
3681250000  -4.223323e+001  -1.008859e+002 
3684375000  -4.235362e+001  -1.053745e+002 
3687500000  -4.224117e+001  -1.099127e+002 
3690625000  -4.272401e+001  -1.132256e+002 
3693750000  -4.329473e+001  -1.152965e+002 
3696875000  -4.282837e+001  -1.127185e+002 
3700000000  -4.230859e+001  -1.181687e+002 
3703125000  -4.268604e+001  -1.254523e+002 
3706250000  -4.345141e+001  -1.249733e+002 
3709375000  -4.310937e+001  -1.246116e+002 
3712500000  -4.191488e+001  -1.269363e+002 
3715625000  -4.131797e+001  -1.360683e+002 
3718750000  -4.126431e+001  -1.409351e+002 
3721875000  -4.108539e+001  -1.463689e+002 
3725000000  -4.160098e+001  -1.536941e+002 
3728125000  -4.196135e+001  -1.543533e+002 
3731250000  -4.157414e+001  -1.579301e+002 
3734375000  -4.133029e+001  -1.629536e+002 
3737500000  -4.248967e+001  -1.694730e+002 
3740625000  -4.351500e+001  -1.730695e+002 
3743750000  -4.339199e+001  -1.752849e+002 
3746875000  -4.360670e+001  1.792251e+002 
3750000000  -4.439955e+001  -1.782002e+002 
3753125000  -4.476110e+001  1.794407e+002 
3756250000  -4.484571e+001  -1.752625e+002 
3759375000  -4.496062e+001  -1.756166e+002 
3762500000  -4.416543e+001  -1.786227e+002 
3765625000  -4.533972e+001  -1.768822e+002 
3768750000  -4.471086e+001  -1.751963e+002 
3771875000  -4.306190e+001  -1.758741e+002 
3775000000  -4.296267e+001  1.777905e+002 
3778125000  -4.316133e+001  1.735828e+002 
3781250000  -4.276691e+001  1.744073e+002 
3784375000  -4.241739e+001  1.718378e+002 
3787500000  -4.170382e+001  1.712638e+002 
3790625000  -4.211878e+001  1.632583e+002 
3793750000  -4.221643e+001  1.645767e+002 
3796875000  -4.104574e+001  1.618819e+002 
3800000000  -3.931384e+001  1.585901e+002 
3803125000  -4.002780e+001  1.486107e+002 
3806250000  -4.068385e+001  1.453436e+002 
3809375000  -4.029935e+001  1.436468e+002 
3812500000  -3.956242e+001  1.356882e+002 
3815625000  -4.024035e+001  1.264020e+002 
3818750000  -4.144787e+001  1.240381e+002 
3821875000  -4.120713e+001  1.335757e+002 
3825000000  -3.878614e+001  1.373192e+002 
3828125000  -3.777113e+001  1.188441e+002 
3831250000  -3.860693e+001  1.037326e+002 
3834375000  -4.029360e+001  1.023610e+002 
3837500000  -4.084623e+001  1.060762e+002 
3840625000  -3.966469e+001  1.045146e+002 
3843750000  -3.882414e+001  9.154546e+001 
3846875000  -3.981259e+001  8.449782e+001 
3850000000  -4.084651e+001  9.038553e+001 
3853125000  -4.049858e+001  9.393858e+001 
3856250000  -4.036223e+001  8.567821e+001 
3859375000  -3.968449e+001  8.226405e+001 
3862500000  -3.923970e+001  7.349171e+001 
3865625000  -3.995224e+001  6.850331e+001 
3868750000  -3.970466e+001  6.778107e+001 
3871875000  -3.915144e+001  6.268985e+001 
3875000000  -3.963399e+001  5.401359e+001 
3878125000  -4.094489e+001  5.233024e+001 
3881250000  -4.106520e+001  5.474961e+001 
3884375000  -4.046366e+001  5.130628e+001 
3887500000  -4.059678e+001  4.567816e+001 
3890625000  -4.115324e+001  4.300460e+001 
3893750000  -4.178844e+001  4.386760e+001 
3896875000  -4.184940e+001  4.396667e+001 
3900000000  -4.191988e+001  4.266175e+001 
3903125000  -4.131304e+001  4.203354e+001 
3906250000  -4.089880e+001  3.740940e+001 
3909375000  -4.019911e+001  3.437456e+001 
3912500000  -4.026996e+001  2.738821e+001 
3915625000  -4.150506e+001  2.942477e+001 
3918750000  -4.130982e+001  3.061857e+001 
3921875000  -4.051451e+001  2.633365e+001 
3925000000  -3.961574e+001  2.312539e+001 
3928125000  -3.914684e+001  1.629254e+001 
3931250000  -3.969650e+001  1.189092e+001 
3934375000  -3.974666e+001  1.160878e+001 
3937500000  -3.994242e+001  9.761766e+000 
3940625000  -4.022832e+001  8.664498e+000 
3943750000  -3.904664e+001  7.875490e+000 
3946875000  -3.807787e+001  -6.466213e-001 
3950000000  -3.877542e+001  -7.869426e+000 
3953125000  -3.940159e+001  -8.078263e+000 
3956250000  -3.862300e+001  -7.740096e+000 
3959375000  -3.752327e+001  -9.753006e+000 
3962500000  -3.717464e+001  -1.788135e+001 
3965625000  -3.670806e+001  -2.825635e+001 
3968750000  -3.782779e+001  -3.598423e+001 
3971875000  -3.808559e+001  -3.822812e+001 
3975000000  -3.759743e+001  -4.036069e+001 
3978125000  -3.757852e+001  -4.426344e+001 
3981250000  -3.759200e+001  -4.879697e+001 
3984375000  -3.790480e+001  -5.568600e+001 
3987500000  -3.868033e+001  -5.886154e+001 
3990625000  -3.856083e+001  -5.935162e+001 
3993750000  -3.917170e+001  -6.454067e+001 
3996875000  -3.921455e+001  -6.746108e+001 
4000000000  -3.943521e+001  -6.935059e+001 
4003125000  -4.001880e+001  -6.808125e+001 
4006250000  -3.838788e+001  -7.010218e+001 
4009375000  -3.762747e+001  -8.341456e+001 
4012500000  -3.885250e+001  -8.952378e+001 
4015625000  -4.039094e+001  -8.732066e+001 
4018750000  -4.029186e+001  -8.648923e+001 
4021875000  -3.958535e+001  -8.757648e+001 
4025000000  -3.954943e+001  -9.494766e+001 
4028125000  -3.941824e+001  -9.618335e+001 
4031250000  -3.989646e+001  -1.006602e+002 
4034375000  -4.006318e+001  -1.003858e+002 
4037500000  -3.956417e+001  -9.747652e+001 
4040625000  -3.941505e+001  -1.035154e+002 
4043750000  -3.988570e+001  -1.029639e+002 
4046875000  -3.909137e+001  -1.031498e+002 
4050000000  -3.859544e+001  -1.101319e+002 
4053125000  -3.923796e+001  -1.121350e+002 
4056250000  -3.971215e+001  -1.084518e+002 
4059375000  -3.794538e+001  -1.081354e+002 
4062500000  -3.672466e+001  -1.155425e+002 
4065625000  -3.678478e+001  -1.178743e+002 
4068750000  -3.638026e+001  -1.247650e+002 
4071875000  -3.548816e+001  -1.344922e+002 
4075000000  -3.589811e+001  -1.405873e+002 
4078125000  -3.648099e+001  -1.425027e+002 
4081250000  -3.577321e+001  -1.475094e+002 
4084375000  -3.537285e+001  -1.544115e+002 
4087500000  -3.604060e+001  -1.617566e+002 
4090625000  -3.654006e+001  -1.637163e+002 
4093750000  -3.629445e+001  -1.650211e+002 
4096875000  -3.593538e+001  -1.718987e+002 
4100000000  -3.674289e+001  -1.796740e+002 
4103125000  -3.754623e+001  -1.794979e+002 
4106250000  -3.731216e+001  -1.747935e+002 
4109375000  -3.626794e+001  -1.779334e+002 
4112500000  -3.598063e+001  1.737135e+002 
4115625000  -3.648514e+001  1.695113e+002 
4118750000  -3.676777e+001  1.653975e+002 
4121875000  -3.611779e+001  1.581802e+002 
4125000000  -3.683244e+001  1.531848e+002 
4128125000  -3.781656e+001  1.540732e+002 
4131250000  -3.738213e+001  1.588295e+002 
4134375000  -3.519624e+001  1.535367e+002 
4137500000  -3.516404e+001  1.343401e+002 
4140625000  -3.748336e+001  1.258838e+002 
4143750000  -3.879269e+001  1.300060e+002 
4146875000  -3.848138e+001  1.370790e+002 
4150000000  -3.762864e+001  1.339210e+002 
4153125000  -3.777300e+001  1.261453e+002 
4156250000  -3.886827e+001  1.235798e+002 
4159375000  -3.900677e+001  1.278152e+002 
4162500000  -3.799653e+001  1.326390e+002 
4165625000  -3.690881e+001  1.286423e+002 
4168750000  -3.641336e+001  1.201450e+002 
4171875000  -3.630839e+001  1.109930e+002 
4175000000  -3.699094e+001  1.067278e+002 
4178125000  -3.744846e+001  1.058489e+002 
4181250000  -3.718889e+001  1.054438e+002 
4184375000  -3.699403e+001  1.010351e+002 
4187500000  -3.711368e+001  9.709292e+001 
4190625000  -3.701215e+001  9.201541e+001 
4193750000  -3.772746e+001  8.830348e+001 
4196875000  -3.833895e+001  8.673318e+001 
4200000000  -3.926161e+001  9.037942e+001 
4203125000  -3.863064e+001  1.026943e+002 
4206250000  -3.514149e+001  1.027030e+002 
4209375000  -3.410594e+001  7.972051e+001 
4212500000  -3.631765e+001  7.196680e+001 
4215625000  -3.703295e+001  7.781689e+001 
4218750000  -3.541127e+001  8.261679e+001 
4221875000  -3.319697e+001  7.261771e+001 
4225000000  -3.448856e+001  5.813494e+001 
4228125000  -3.497390e+001  6.256499e+001 
4231250000  -3.330657e+001  5.715783e+001 
4234375000  -3.319138e+001  4.802417e+001 
4237500000  -3.280165e+001  4.326791e+001 
4240625000  -3.279565e+001  3.311459e+001 
4243750000  -3.381524e+001  2.433310e+001 
4246875000  -3.480460e+001  2.337248e+001 
4250000000  -3.484061e+001  2.503738e+001 
4253125000  -3.422383e+001  2.145640e+001 
4256250000  -3.462687e+001  1.690935e+001 
4259375000  -3.422004e+001  1.375902e+001 
4262500000  -3.456926e+001  8.466863e+000 
4265625000  -3.460291e+001  6.900904e+000 
4268750000  -3.385322e+001  2.118875e+000 
4271875000  -3.361702e+001  -6.235398e+000 
4275000000  -3.331003e+001  -1.355285e+001 
4278125000  -3.423847e+001  -2.583512e+001 
4281250000  -3.603530e+001  -2.694925e+001 
4284375000  -3.571950e+001  -2.737698e+001 
4287500000  -3.693167e+001  -3.191341e+001 
4290625000  -3.811020e+001  -2.394099e+001 
4293750000  -3.630552e+001  -1.797373e+001 
4296875000  -3.528085e+001  -2.983444e+001 
4300000000  -3.618945e+001  -3.792914e+001 
4303125000  -3.767248e+001  -3.591687e+001 
4306250000  -3.652694e+001  -3.053783e+001 
4309375000  -3.545007e+001  -3.198009e+001 
4312500000  -3.528159e+001  -3.942678e+001 
4315625000  -3.545870e+001  -4.575752e+001 
4318750000  -3.580288e+001  -4.867889e+001 
4321875000  -3.604728e+001  -4.813544e+001 
4325000000  -3.528204e+001  -4.751115e+001 
4328125000  -3.475635e+001  -5.257301e+001 
4331250000  -3.446156e+001  -6.128335e+001 
4334375000  -3.499207e+001  -6.781742e+001 
4337500000  -3.577353e+001  -6.977596e+001 
4340625000  -3.592601e+001  -6.597208e+001 
4343750000  -3.501628e+001  -6.789159e+001 
4346875000  -3.463091e+001  -7.304586e+001 
4350000000  -3.457507e+001  -8.037441e+001 
4353125000  -3.447916e+001  -8.764936e+001 
4356250000  -3.636514e+001  -8.951359e+001 
4359375000  -3.661014e+001  -7.403851e+001 
4362500000  -3.326383e+001  -7.608424e+001 
4365625000  -3.208273e+001  -9.123661e+001 
4368750000  -3.286587e+001  -1.031631e+002 
4371875000  -3.381462e+001  -1.029627e+002 
4375000000  -3.319232e+001  -1.046616e+002 
4378125000  -3.265609e+001  -1.113952e+002 
4381250000  -3.281466e+001  -1.187887e+002 
4384375000  -3.255001e+001  -1.246475e+002 
4387500000  -3.346156e+001  -1.328585e+002 
4390625000  -3.441288e+001  -1.321051e+002 
4393750000  -3.347313e+001  -1.324305e+002 
4396875000  -3.314356e+001  -1.354270e+002 
4400000000  -3.261554e+001  -1.447854e+002 
4403125000  -3.336933e+001  -1.543678e+002 
4406250000  -3.413562e+001  -1.558099e+002 
4409375000  -3.438800e+001  -1.604454e+002 
4412500000  -3.568116e+001  -1.643759e+002 
4415625000  -3.599134e+001  -1.592700e+002 
