!Agilent Technologies,E8363B,MY43030201,A.06.04.32
!Agilent E8363B: A.06.04.32
!Date: Tuesday, November 11, 2014 21:11:23
!Correction: S21(Response(S21)) 
!S1P File: Measurement: S21:
# Hz S  dB   R 50
3000000000  -3.654508e+001  -5.566943e+001 
3003125000  -3.771792e+001  -6.295827e+001 
3006250000  -3.748939e+001  -6.464267e+001 
3009375000  -3.783660e+001  -5.938733e+001 
3012500000  -3.706002e+001  -6.276702e+001 
3015625000  -3.626059e+001  -7.001965e+001 
3018750000  -3.700812e+001  -6.938374e+001 
3021875000  -3.552927e+001  -6.948697e+001 
3025000000  -3.414518e+001  -7.272513e+001 
3028125000  -3.316076e+001  -7.944993e+001 
3031250000  -3.220073e+001  -9.148512e+001 
3034375000  -3.185580e+001  -1.047177e+002 
3037500000  -3.231296e+001  -1.166542e+002 
3040625000  -3.358945e+001  -1.213500e+002 
3043750000  -3.419814e+001  -1.271167e+002 
3046875000  -3.454499e+001  -1.329176e+002 
3050000000  -3.629173e+001  -1.391166e+002 
3053125000  -3.609390e+001  -1.326907e+002 
3056250000  -3.548341e+001  -1.295958e+002 
3059375000  -3.552443e+001  -1.310031e+002 
3062500000  -3.412855e+001  -1.337920e+002 
3065625000  -3.393629e+001  -1.401822e+002 
3068750000  -3.355133e+001  -1.471934e+002 
3071875000  -3.355123e+001  -1.491758e+002 
3075000000  -3.329438e+001  -1.537849e+002 
3078125000  -3.307771e+001  -1.578932e+002 
3081250000  -3.350522e+001  -1.624224e+002 
3084375000  -3.264112e+001  -1.653647e+002 
3087500000  -3.249757e+001  -1.695647e+002 
3090625000  -3.206861e+001  1.797710e+002 
3093750000  -3.255422e+001  1.727473e+002 
3096875000  -3.351761e+001  1.674606e+002 
3100000000  -3.341174e+001  1.655027e+002 
3103125000  -3.371774e+001  1.661176e+002 
3106250000  -3.317463e+001  1.613903e+002 
3109375000  -3.325291e+001  1.576046e+002 
3112500000  -3.322061e+001  1.552891e+002 
3115625000  -3.287118e+001  1.505975e+002 
3118750000  -3.324935e+001  1.510102e+002 
3121875000  -3.231323e+001  1.410549e+002 
3125000000  -3.363852e+001  1.373746e+002 
3128125000  -3.460752e+001  1.450119e+002 
3131250000  -3.211439e+001  1.427424e+002 
3134375000  -3.079242e+001  1.271990e+002 
3137500000  -3.135074e+001  1.129275e+002 
3140625000  -3.277893e+001  1.103035e+002 
3143750000  -3.381356e+001  1.114679e+002 
3146875000  -3.326449e+001  1.128917e+002 
3150000000  -3.230897e+001  1.127114e+002 
3153125000  -3.223717e+001  1.043397e+002 
3156250000  -3.335961e+001  1.087378e+002 
3159375000  -3.158549e+001  1.096299e+002 
3162500000  -2.968243e+001  9.510353e+001 
3165625000  -3.073840e+001  8.315112e+001 
3168750000  -3.098110e+001  8.300062e+001 
3171875000  -3.014402e+001  7.713581e+001 
3175000000  -3.080558e+001  6.868507e+001 
3178125000  -3.062903e+001  6.968632e+001 
3181250000  -2.949921e+001  6.347351e+001 
3184375000  -2.891178e+001  5.126372e+001 
3187500000  -3.006815e+001  3.571795e+001 
3190625000  -3.259541e+001  2.791595e+001 
3193750000  -3.324626e+001  3.641592e+001 
3196875000  -3.289886e+001  4.097036e+001 
3200000000  -3.191047e+001  3.820787e+001 
3203125000  -3.119304e+001  3.218766e+001 
3206250000  -3.144434e+001  2.475397e+001 
3209375000  -3.105011e+001  1.882509e+001 
3212500000  -3.133813e+001  1.211407e+001 
3215625000  -3.132113e+001  8.364407e+000 
3218750000  -3.219085e+001  6.236765e-001 
3221875000  -3.292938e+001  -4.108584e+000 
3225000000  -3.254530e+001  -5.456737e+000 
3228125000  -3.295753e+001  -1.090073e+001 
3231250000  -3.362425e+001  -1.325299e+001 
3234375000  -3.325267e+001  -1.299821e+001 
3237500000  -3.330978e+001  -1.553201e+001 
3240625000  -3.282871e+001  -1.792528e+001 
3243750000  -3.255446e+001  -2.608202e+001 
3246875000  -3.293050e+001  -3.306869e+001 
3250000000  -3.333587e+001  -3.520509e+001 
3253125000  -3.352202e+001  -3.689282e+001 
3256250000  -3.302394e+001  -4.453390e+001 
3259375000  -3.334781e+001  -5.285714e+001 
3262500000  -3.460510e+001  -5.654573e+001 
3265625000  -3.521691e+001  -5.380690e+001 
3268750000  -3.509032e+001  -5.094485e+001 
3271875000  -3.458561e+001  -5.231455e+001 
3275000000  -3.364748e+001  -5.935958e+001 
3278125000  -3.413699e+001  -6.491635e+001 
3281250000  -3.432188e+001  -6.463487e+001 
3284375000  -3.379579e+001  -7.097083e+001 
3287500000  -3.403413e+001  -7.461234e+001 
3290625000  -3.421797e+001  -8.033376e+001 
3293750000  -3.391945e+001  -8.643087e+001 
3296875000  -3.512499e+001  -8.697815e+001 
3300000000  -3.473532e+001  -8.641582e+001 
3303125000  -3.361503e+001  -9.165007e+001 
3306250000  -3.349499e+001  -9.889534e+001 
3309375000  -3.312862e+001  -1.054328e+002 
3312500000  -3.326966e+001  -1.162974e+002 
3315625000  -3.417728e+001  -1.249696e+002 
3318750000  -3.587111e+001  -1.263629e+002 
3321875000  -3.688741e+001  -1.272577e+002 
3325000000  -3.722674e+001  -1.217319e+002 
3328125000  -3.671545e+001  -1.208319e+002 
3331250000  -3.549565e+001  -1.144357e+002 
3334375000  -3.275325e+001  -1.250856e+002 
3337500000  -3.297940e+001  -1.458746e+002 
3340625000  -3.440624e+001  -1.553204e+002 
3343750000  -3.637259e+001  -1.561356e+002 
3346875000  -3.652143e+001  -1.545459e+002 
3350000000  -3.582278e+001  -1.572300e+002 
3353125000  -3.591386e+001  -1.617707e+002 
3356250000  -3.545532e+001  -1.704997e+002 
3359375000  -3.611806e+001  -1.788175e+002 
3362500000  -3.742865e+001  1.755353e+002 
3365625000  -3.779759e+001  1.739526e+002 
3368750000  -3.845099e+001  1.718829e+002 
3371875000  -3.878425e+001  1.693848e+002 
3375000000  -4.024853e+001  1.673568e+002 
3378125000  -4.101873e+001  1.675491e+002 
3381250000  -4.257644e+001  1.773085e+002 
3384375000  -4.064663e+001  -1.623964e+002 
3387500000  -3.733167e+001  1.796613e+002 
3390625000  -3.907146e+001  1.594254e+002 
3393750000  -4.022900e+001  1.653034e+002 
3396875000  -3.893755e+001  1.655776e+002 
3400000000  -3.856381e+001  1.559321e+002 
3403125000  -3.930427e+001  1.501303e+002 
3406250000  -3.951155e+001  1.508846e+002 
3409375000  -3.962919e+001  1.439984e+002 
3412500000  -4.018011e+001  1.421442e+002 
3415625000  -4.097481e+001  1.414874e+002 
3418750000  -4.097209e+001  1.433057e+002 
3421875000  -4.143290e+001  1.476592e+002 
3425000000  -4.008519e+001  1.458359e+002 
3428125000  -3.933933e+001  1.405943e+002 
3431250000  -3.931908e+001  1.352744e+002 
3434375000  -3.907260e+001  1.284630e+002 
3437500000  -3.964479e+001  1.251027e+002 
3440625000  -3.974061e+001  1.277366e+002 
3443750000  -3.862945e+001  1.279505e+002 
3446875000  -3.781016e+001  1.202442e+002 
3450000000  -3.751220e+001  1.097093e+002 
3453125000  -3.782067e+001  9.959108e+001 
3456250000  -3.904881e+001  9.313657e+001 
3459375000  -4.010329e+001  9.415696e+001 
3462500000  -3.966007e+001  9.463409e+001 
3465625000  -3.982121e+001  8.903542e+001 
3468750000  -4.011230e+001  8.431010e+001 
3471875000  -4.008063e+001  8.389300e+001 
3475000000  -3.951825e+001  7.769215e+001 
3478125000  -4.045919e+001  7.071889e+001 
3481250000  -4.094631e+001  6.740896e+001 
3484375000  -4.232951e+001  7.343935e+001 
3487500000  -4.142545e+001  7.106406e+001 
3490625000  -4.059962e+001  6.764359e+001 
3493750000  -4.132635e+001  5.906667e+001 
3496875000  -4.170780e+001  5.909620e+001 
3500000000  -4.233705e+001  5.972567e+001 
3503125000  -4.189698e+001  6.169741e+001 
3506250000  -4.043909e+001  5.758286e+001 
3509375000  -4.040677e+001  4.639388e+001 
3512500000  -4.101107e+001  3.970350e+001 
3515625000  -4.204876e+001  3.698029e+001 
3518750000  -4.250885e+001  3.709414e+001 
3521875000  -4.243202e+001  3.586805e+001 
3525000000  -4.331241e+001  3.335576e+001 
3528125000  -4.324265e+001  4.010509e+001 
3531250000  -4.196128e+001  3.742135e+001 
3534375000  -4.206588e+001  2.569557e+001 
3537500000  -4.252276e+001  2.279383e+001 
3540625000  -4.367503e+001  1.948901e+001 
3543750000  -4.419193e+001  2.320733e+001 
3546875000  -4.417477e+001  3.856625e+001 
3550000000  -4.145036e+001  3.715015e+001 
3553125000  -4.043733e+001  1.975154e+001 
3556250000  -4.169492e+001  1.374257e+001 
3559375000  -4.150699e+001  1.591884e+001 
3562500000  -4.051109e+001  7.926712e+000 
3565625000  -4.132508e+001  -2.717953e-002 
3568750000  -4.145173e+001  2.200353e+000 
3571875000  -4.110074e+001  5.299643e-001 
3575000000  -4.085181e+001  -5.567707e+000 
3578125000  -4.131103e+001  -1.151001e+001 
3581250000  -4.132771e+001  -1.321786e+001 
3584375000  -4.058433e+001  -1.437896e+001 
3587500000  -4.005485e+001  -2.336049e+001 
3590625000  -4.044261e+001  -3.424395e+001 
3593750000  -4.188929e+001  -3.624068e+001 
3596875000  -4.147195e+001  -2.986938e+001 
3600000000  -4.022364e+001  -3.565387e+001 
3603125000  -4.060525e+001  -5.125301e+001 
3606250000  -4.132372e+001  -5.431087e+001 
3609375000  -4.199012e+001  -5.719730e+001 
3612500000  -4.238494e+001  -6.175376e+001 
3615625000  -4.274920e+001  -6.562433e+001 
3618750000  -4.376733e+001  -6.412512e+001 
3621875000  -4.365770e+001  -6.791867e+001 
3625000000  -4.389455e+001  -6.848990e+001 
3628125000  -4.388724e+001  -7.124448e+001 
3631250000  -4.364861e+001  -7.499693e+001 
3634375000  -4.542458e+001  -8.049443e+001 
3637500000  -4.504630e+001  -7.213817e+001 
3640625000  -4.440368e+001  -7.067020e+001 
3643750000  -4.387870e+001  -7.453173e+001 
3646875000  -4.468614e+001  -8.308091e+001 
3650000000  -4.550164e+001  -8.162203e+001 
3653125000  -4.528160e+001  -8.054489e+001 
3656250000  -4.604841e+001  -8.297119e+001 
3659375000  -4.609728e+001  -7.950875e+001 
3662500000  -4.530970e+001  -8.385922e+001 
3665625000  -4.490063e+001  -7.936208e+001 
3668750000  -4.431062e+001  -8.020662e+001 
3671875000  -4.294278e+001  -8.536790e+001 
3675000000  -4.319517e+001  -9.336686e+001 
3678125000  -4.327480e+001  -9.576131e+001 
3681250000  -4.292636e+001  -9.715552e+001 
3684375000  -4.304205e+001  -1.032011e+002 
3687500000  -4.336070e+001  -1.056073e+002 
3690625000  -4.348592e+001  -1.104436e+002 
3693750000  -4.433613e+001  -1.090891e+002 
3696875000  -4.360737e+001  -1.090769e+002 
3700000000  -4.300977e+001  -1.135548e+002 
3703125000  -4.285091e+001  -1.202349e+002 
3706250000  -4.364131e+001  -1.197397e+002 
3709375000  -4.329634e+001  -1.178336e+002 
3712500000  -4.225972e+001  -1.180114e+002 
3715625000  -4.153690e+001  -1.290780e+002 
3718750000  -4.130351e+001  -1.332249e+002 
3721875000  -4.105289e+001  -1.398455e+002 
3725000000  -4.172477e+001  -1.452732e+002 
3728125000  -4.185232e+001  -1.466694e+002 
3731250000  -4.134369e+001  -1.491454e+002 
3734375000  -4.089301e+001  -1.569644e+002 
3737500000  -4.193204e+001  -1.634076e+002 
3740625000  -4.293626e+001  -1.668795e+002 
3743750000  -4.301712e+001  -1.706758e+002 
3746875000  -4.323766e+001  -1.739179e+002 
3750000000  -4.404496e+001  -1.721252e+002 
3753125000  -4.417973e+001  -1.738903e+002 
3756250000  -4.449623e+001  -1.749825e+002 
3759375000  -4.413228e+001  -1.739459e+002 
3762500000  -4.395476e+001  -1.768876e+002 
3765625000  -4.483250e+001  -1.783847e+002 
3768750000  -4.471634e+001  -1.706054e+002 
3771875000  -4.326406e+001  -1.749798e+002 
3775000000  -4.309025e+001  1.784736e+002 
3778125000  -4.295263e+001  1.781691e+002 
3781250000  -4.292514e+001  1.729108e+002 
3784375000  -4.270906e+001  1.740123e+002 
3787500000  -4.203353e+001  1.707918e+002 
3790625000  -4.239493e+001  1.644609e+002 
3793750000  -4.230173e+001  1.655992e+002 
3796875000  -4.148250e+001  1.637844e+002 
3800000000  -3.985007e+001  1.617620e+002 
3803125000  -4.048043e+001  1.512020e+002 
3806250000  -4.134941e+001  1.496864e+002 
3809375000  -4.093120e+001  1.484474e+002 
3812500000  -3.992220e+001  1.415154e+002 
3815625000  -4.056433e+001  1.307090e+002 
3818750000  -4.160308e+001  1.297617e+002 
3821875000  -4.132801e+001  1.383456e+002 
3825000000  -3.930532e+001  1.410732e+002 
3828125000  -3.814798e+001  1.243715e+002 
3831250000  -3.879776e+001  1.099666e+002 
3834375000  -4.019851e+001  1.073643e+002 
3837500000  -4.139079e+001  1.134219e+002 
3840625000  -3.989264e+001  1.106962e+002 
3843750000  -3.888662e+001  9.862508e+001 
3846875000  -3.991743e+001  9.283119e+001 
3850000000  -4.096156e+001  9.514688e+001 
3853125000  -4.030515e+001  9.825647e+001 
3856250000  -3.992956e+001  9.265012e+001 
3859375000  -3.937002e+001  8.581593e+001 
3862500000  -3.937886e+001  7.887832e+001 
3865625000  -3.989049e+001  7.363697e+001 
3868750000  -3.955839e+001  7.218859e+001 
3871875000  -3.899979e+001  6.786924e+001 
3875000000  -3.924604e+001  5.779186e+001 
3878125000  -4.055250e+001  5.653142e+001 
3881250000  -4.063751e+001  5.942981e+001 
3884375000  -4.017106e+001  5.497389e+001 
3887500000  -4.028728e+001  5.017672e+001 
3890625000  -4.079758e+001  4.804893e+001 
3893750000  -4.118416e+001  4.464852e+001 
3896875000  -4.168022e+001  4.708707e+001 
3900000000  -4.180795e+001  4.614378e+001 
3903125000  -4.121130e+001  4.479927e+001 
3906250000  -4.056868e+001  3.861922e+001 
3909375000  -4.014480e+001  3.568770e+001 
3912500000  -4.002500e+001  2.890968e+001 
3915625000  -4.131999e+001  3.025867e+001 
3918750000  -4.144429e+001  3.374508e+001 
3921875000  -4.059247e+001  2.688007e+001 
3925000000  -3.977478e+001  2.511461e+001 
3928125000  -3.926961e+001  1.930316e+001 
3931250000  -3.958261e+001  1.331164e+001 
3934375000  -4.013465e+001  1.263967e+001 
3937500000  -4.021000e+001  1.105939e+001 
3940625000  -4.055857e+001  8.670361e+000 
3943750000  -3.942945e+001  9.295681e+000 
3946875000  -3.828914e+001  4.533839e+000 
3950000000  -3.925879e+001  -5.320132e+000 
3953125000  -4.021186e+001  -5.810155e+000 
3956250000  -3.913431e+001  -4.145148e+000 
3959375000  -3.774298e+001  -7.988611e+000 
3962500000  -3.749460e+001  -1.214275e+001 
3965625000  -3.731855e+001  -2.289920e+001 
3968750000  -3.813663e+001  -3.088813e+001 
3971875000  -3.842473e+001  -3.182619e+001 
3975000000  -3.802832e+001  -3.471529e+001 
3978125000  -3.813857e+001  -3.899294e+001 
3981250000  -3.790011e+001  -4.317327e+001 
3984375000  -3.814058e+001  -4.939410e+001 
3987500000  -3.851293e+001  -5.271463e+001 
3990625000  -3.869365e+001  -5.345678e+001 
3993750000  -3.898195e+001  -5.909319e+001 
3996875000  -3.887609e+001  -6.221536e+001 
4000000000  -3.917262e+001  -6.488386e+001 
4003125000  -3.981718e+001  -6.315879e+001 
4006250000  -3.814939e+001  -6.249931e+001 
4009375000  -3.722540e+001  -7.629153e+001 
4012500000  -3.859987e+001  -8.261197e+001 
4015625000  -3.973570e+001  -8.144976e+001 
4018750000  -3.961115e+001  -8.120081e+001 
4021875000  -3.914360e+001  -8.217201e+001 
4025000000  -3.892949e+001  -8.839474e+001 
4028125000  -3.905397e+001  -9.186343e+001 
4031250000  -3.937754e+001  -9.887616e+001 
4034375000  -3.951040e+001  -9.625390e+001 
4037500000  -3.905241e+001  -9.563835e+001 
4040625000  -3.912411e+001  -9.889008e+001 
4043750000  -3.939033e+001  -1.006527e+002 
4046875000  -3.888139e+001  -1.030966e+002 
4050000000  -3.861778e+001  -1.080635e+002 
4053125000  -3.938502e+001  -1.098853e+002 
4056250000  -3.936517e+001  -1.058882e+002 
4059375000  -3.807464e+001  -1.063967e+002 
4062500000  -3.663116e+001  -1.132837e+002 
4065625000  -3.675839e+001  -1.166795e+002 
4068750000  -3.634054e+001  -1.235539e+002 
4071875000  -3.571077e+001  -1.315233e+002 
4075000000  -3.608511e+001  -1.390496e+002 
4078125000  -3.669089e+001  -1.417569e+002 
4081250000  -3.600587e+001  -1.440631e+002 
4084375000  -3.575308e+001  -1.525764e+002 
4087500000  -3.619534e+001  -1.584701e+002 
4090625000  -3.680627e+001  -1.595722e+002 
4093750000  -3.673212e+001  -1.610706e+002 
4096875000  -3.615623e+001  -1.681601e+002 
4100000000  -3.694715e+001  -1.751936e+002 
4103125000  -3.788583e+001  -1.744373e+002 
4106250000  -3.769127e+001  -1.712657e+002 
4109375000  -3.655648e+001  -1.738698e+002 
4112500000  -3.635131e+001  1.790806e+002 
4115625000  -3.679226e+001  1.745702e+002 
4118750000  -3.673610e+001  1.712460e+002 
4121875000  -3.647886e+001  1.643001e+002 
4125000000  -3.685089e+001  1.581089e+002 
4128125000  -3.784889e+001  1.605806e+002 
4131250000  -3.737701e+001  1.654441e+002 
4134375000  -3.506378e+001  1.594410e+002 
4137500000  -3.535756e+001  1.409215e+002 
4140625000  -3.758521e+001  1.334012e+002 
4143750000  -3.879969e+001  1.374738e+002 
4146875000  -3.834694e+001  1.441800e+002 
4150000000  -3.758636e+001  1.392521e+002 
4153125000  -3.743415e+001  1.316818e+002 
4156250000  -3.849986e+001  1.299412e+002 
4159375000  -3.857111e+001  1.338028e+002 
4162500000  -3.751649e+001  1.381535e+002 
4165625000  -3.622819e+001  1.334054e+002 
4168750000  -3.564984e+001  1.243241e+002 
4171875000  -3.590305e+001  1.143312e+002 
4175000000  -3.625081e+001  1.104751e+002 
4178125000  -3.714165e+001  1.097447e+002 
4181250000  -3.678160e+001  1.080870e+002 
4184375000  -3.676807e+001  1.041144e+002 
4187500000  -3.671072e+001  9.982001e+001 
4190625000  -3.675084e+001  9.492445e+001 
4193750000  -3.751611e+001  8.973872e+001 
4196875000  -3.817188e+001  9.051042e+001 
4200000000  -3.907639e+001  9.091606e+001 
4203125000  -3.858818e+001  1.048426e+002 
4206250000  -3.520864e+001  1.048057e+002 
4209375000  -3.422194e+001  8.228657e+001 
4212500000  -3.620747e+001  7.445384e+001 
4215625000  -3.713429e+001  8.019680e+001 
4218750000  -3.554878e+001  8.523223e+001 
4221875000  -3.332817e+001  7.569231e+001 
4225000000  -3.475390e+001  6.287337e+001 
4228125000  -3.516150e+001  6.563985e+001 
4231250000  -3.373349e+001  6.123383e+001 
4234375000  -3.336459e+001  5.188532e+001 
4237500000  -3.300909e+001  4.792772e+001 
4240625000  -3.307555e+001  3.755531e+001 
4243750000  -3.417683e+001  2.906096e+001 
4246875000  -3.490983e+001  2.887463e+001 
4250000000  -3.495357e+001  3.131666e+001 
4253125000  -3.472165e+001  2.670848e+001 
4256250000  -3.492065e+001  2.094139e+001 
4259375000  -3.436040e+001  1.897165e+001 
4262500000  -3.475887e+001  1.386576e+001 
4265625000  -3.487324e+001  1.351718e+001 
4268750000  -3.388346e+001  8.405519e+000 
4271875000  -3.385328e+001  1.667075e+000 
4275000000  -3.333192e+001  -7.365341e+000 
4278125000  -3.435566e+001  -1.939982e+001 
4281250000  -3.595247e+001  -1.941176e+001 
4284375000  -3.575333e+001  -1.988047e+001 
4287500000  -3.681064e+001  -2.438289e+001 
4290625000  -3.804683e+001  -1.417790e+001 
4293750000  -3.595939e+001  -1.050907e+001 
4296875000  -3.487146e+001  -2.143830e+001 
4300000000  -3.595339e+001  -3.121649e+001 
4303125000  -3.715657e+001  -3.030639e+001 
4306250000  -3.630487e+001  -2.422980e+001 
4309375000  -3.481133e+001  -2.591457e+001 
4312500000  -3.476732e+001  -3.455811e+001 
4315625000  -3.503547e+001  -4.008971e+001 
4318750000  -3.533993e+001  -4.420917e+001 
4321875000  -3.544351e+001  -4.337068e+001 
4325000000  -3.482941e+001  -4.296936e+001 
4328125000  -3.398831e+001  -4.953183e+001 
4331250000  -3.397585e+001  -5.827032e+001 
4334375000  -3.446412e+001  -6.492103e+001 
4337500000  -3.524703e+001  -6.657931e+001 
4340625000  -3.570193e+001  -6.304378e+001 
4343750000  -3.480448e+001  -6.608576e+001 
4346875000  -3.430969e+001  -7.088385e+001 
4350000000  -3.427422e+001  -7.695225e+001 
4353125000  -3.428685e+001  -8.515138e+001 
4356250000  -3.650609e+001  -8.595366e+001 
4359375000  -3.602309e+001  -7.102910e+001 
4362500000  -3.327351e+001  -7.421329e+001 
4365625000  -3.196799e+001  -8.760948e+001 
4368750000  -3.273935e+001  -9.938868e+001 
4371875000  -3.389221e+001  -9.901330e+001 
4375000000  -3.329630e+001  -1.008814e+002 
4378125000  -3.261178e+001  -1.080858e+002 
4381250000  -3.290331e+001  -1.154980e+002 
4384375000  -3.268102e+001  -1.207610e+002 
4387500000  -3.362162e+001  -1.286707e+002 
4390625000  -3.435990e+001  -1.284560e+002 
4393750000  -3.377472e+001  -1.270333e+002 
4396875000  -3.328302e+001  -1.312252e+002 
4400000000  -3.270830e+001  -1.395229e+002 
4403125000  -3.356354e+001  -1.472498e+002 
4406250000  -3.428761e+001  -1.505460e+002 
4409375000  -3.439794e+001  -1.550286e+002 
4412500000  -3.568559e+001  -1.569598e+002 
4415625000  -3.595898e+001  -1.524415e+002 
