!Agilent Technologies,E8363B,MY43030201,A.06.04.32
!Agilent E8363B: A.06.04.32
!Date: Tuesday, November 11, 2014 21:10:16
!Correction: S21(Response(S21)) 
!S1P File: Measurement: S21:
# Hz S  dB   R 50
3000000000  -3.637442e+001  -5.654484e+001 
3003125000  -3.769786e+001  -6.290749e+001 
3006250000  -3.739414e+001  -6.531471e+001 
3009375000  -3.785494e+001  -5.976534e+001 
3012500000  -3.707817e+001  -6.267861e+001 
3015625000  -3.615422e+001  -6.928481e+001 
3018750000  -3.693763e+001  -7.132828e+001 
3021875000  -3.540495e+001  -6.978294e+001 
3025000000  -3.423783e+001  -7.307817e+001 
3028125000  -3.319413e+001  -7.985717e+001 
3031250000  -3.219599e+001  -9.159023e+001 
3034375000  -3.188904e+001  -1.047044e+002 
3037500000  -3.239122e+001  -1.161122e+002 
3040625000  -3.371849e+001  -1.209528e+002 
3043750000  -3.437383e+001  -1.263462e+002 
3046875000  -3.457803e+001  -1.326568e+002 
3050000000  -3.632625e+001  -1.387195e+002 
3053125000  -3.614327e+001  -1.321001e+002 
3056250000  -3.571066e+001  -1.285383e+002 
3059375000  -3.569623e+001  -1.293398e+002 
3062500000  -3.415633e+001  -1.333380e+002 
3065625000  -3.403582e+001  -1.394524e+002 
3068750000  -3.360489e+001  -1.460469e+002 
3071875000  -3.365169e+001  -1.485236e+002 
3075000000  -3.328276e+001  -1.527241e+002 
3078125000  -3.308957e+001  -1.566127e+002 
3081250000  -3.355636e+001  -1.607545e+002 
3084375000  -3.264445e+001  -1.641322e+002 
3087500000  -3.254974e+001  -1.684713e+002 
3090625000  -3.204906e+001  -1.789982e+002 
3093750000  -3.250877e+001  1.735615e+002 
3096875000  -3.351043e+001  1.682155e+002 
3100000000  -3.334745e+001  1.661354e+002 
3103125000  -3.365348e+001  1.661438e+002 
3106250000  -3.313462e+001  1.623599e+002 
3109375000  -3.315200e+001  1.588911e+002 
3112500000  -3.321868e+001  1.559155e+002 
3115625000  -3.283310e+001  1.516209e+002 
3118750000  -3.323462e+001  1.514817e+002 
3121875000  -3.230074e+001  1.415414e+002 
3125000000  -3.356331e+001  1.380777e+002 
3128125000  -3.446965e+001  1.451989e+002 
3131250000  -3.201015e+001  1.430932e+002 
3134375000  -3.069331e+001  1.276441e+002 
3137500000  -3.133934e+001  1.138625e+002 
3140625000  -3.274379e+001  1.109275e+002 
3143750000  -3.383957e+001  1.120024e+002 
3146875000  -3.328540e+001  1.137344e+002 
3150000000  -3.231987e+001  1.129492e+002 
3153125000  -3.233093e+001  1.040196e+002 
3156250000  -3.339063e+001  1.091539e+002 
3159375000  -3.161960e+001  1.099766e+002 
3162500000  -2.971360e+001  9.546545e+001 
3165625000  -3.083730e+001  8.342166e+001 
3168750000  -3.111788e+001  8.325857e+001 
3171875000  -3.021562e+001  7.793232e+001 
3175000000  -3.095841e+001  6.916132e+001 
3178125000  -3.072029e+001  7.018528e+001 
3181250000  -2.966327e+001  6.385563e+001 
3184375000  -2.900531e+001  5.155497e+001 
3187500000  -3.025507e+001  3.658917e+001 
3190625000  -3.282389e+001  2.839977e+001 
3193750000  -3.334453e+001  3.727261e+001 
3196875000  -3.306479e+001  4.208799e+001 
3200000000  -3.211562e+001  3.880948e+001 
3203125000  -3.133820e+001  3.274768e+001 
3206250000  -3.163925e+001  2.563385e+001 
3209375000  -3.120156e+001  2.012682e+001 
3212500000  -3.146821e+001  1.298667e+001 
3215625000  -3.151118e+001  9.337527e+000 
3218750000  -3.235918e+001  2.061318e+000 
3221875000  -3.303801e+001  -2.560670e+000 
3225000000  -3.274961e+001  -4.502957e+000 
3228125000  -3.308475e+001  -9.650156e+000 
3231250000  -3.376494e+001  -1.162540e+001 
3234375000  -3.347402e+001  -1.120411e+001 
3237500000  -3.343187e+001  -1.316004e+001 
3240625000  -3.295462e+001  -1.633331e+001 
3243750000  -3.262728e+001  -2.461888e+001 
3246875000  -3.301797e+001  -3.138281e+001 
3250000000  -3.345092e+001  -3.315589e+001 
3253125000  -3.355288e+001  -3.560484e+001 
3256250000  -3.314397e+001  -4.236583e+001 
3259375000  -3.343154e+001  -5.077900e+001 
3262500000  -3.467806e+001  -5.449772e+001 
3265625000  -3.532878e+001  -5.157968e+001 
3268750000  -3.504414e+001  -4.939812e+001 
3271875000  -3.465894e+001  -5.037149e+001 
3275000000  -3.365910e+001  -5.693256e+001 
3278125000  -3.410627e+001  -6.317971e+001 
3281250000  -3.433371e+001  -6.212893e+001 
3284375000  -3.379539e+001  -6.938470e+001 
3287500000  -3.404953e+001  -7.283591e+001 
3290625000  -3.427216e+001  -7.888110e+001 
3293750000  -3.406263e+001  -8.501386e+001 
3296875000  -3.510971e+001  -8.622075e+001 
3300000000  -3.476706e+001  -8.504002e+001 
3303125000  -3.360522e+001  -9.078909e+001 
3306250000  -3.339864e+001  -9.831885e+001 
3309375000  -3.320902e+001  -1.044059e+002 
3312500000  -3.333704e+001  -1.156769e+002 
3315625000  -3.416726e+001  -1.234247e+002 
3318750000  -3.578293e+001  -1.264183e+002 
3321875000  -3.684631e+001  -1.257268e+002 
3325000000  -3.742429e+001  -1.204903e+002 
3328125000  -3.682097e+001  -1.209383e+002 
3331250000  -3.560353e+001  -1.127724e+002 
3334375000  -3.299279e+001  -1.246790e+002 
3337500000  -3.307975e+001  -1.443486e+002 
3340625000  -3.456224e+001  -1.558794e+002 
3343750000  -3.659076e+001  -1.553128e+002 
3346875000  -3.658747e+001  -1.542616e+002 
3350000000  -3.599238e+001  -1.558371e+002 
3353125000  -3.612592e+001  -1.603917e+002 
3356250000  -3.565404e+001  -1.693873e+002 
3359375000  -3.650919e+001  -1.774087e+002 
3362500000  -3.773156e+001  1.768827e+002 
3365625000  -3.795789e+001  1.753952e+002 
3368750000  -3.884264e+001  1.737565e+002 
3371875000  -3.925006e+001  1.711492e+002 
3375000000  -4.052735e+001  1.680050e+002 
3378125000  -4.153534e+001  1.678727e+002 
3381250000  -4.264858e+001  1.756983e+002 
3384375000  -4.101269e+001  -1.612699e+002 
3387500000  -3.765503e+001  -1.782251e+002 
3390625000  -3.920547e+001  1.619832e+002 
3393750000  -4.048998e+001  1.658012e+002 
3396875000  -3.937559e+001  1.671589e+002 
3400000000  -3.886761e+001  1.601998e+002 
3403125000  -3.945874e+001  1.531415e+002 
3406250000  -3.972831e+001  1.556148e+002 
3409375000  -3.980590e+001  1.455012e+002 
3412500000  -4.027949e+001  1.438172e+002 
3415625000  -4.089268e+001  1.444044e+002 
3418750000  -4.109720e+001  1.452586e+002 
3421875000  -4.144686e+001  1.492498e+002 
3425000000  -4.032250e+001  1.482239e+002 
3428125000  -3.923964e+001  1.445720e+002 
3431250000  -3.942081e+001  1.367829e+002 
3434375000  -3.900209e+001  1.303603e+002 
3437500000  -3.969031e+001  1.273423e+002 
3440625000  -4.011631e+001  1.286102e+002 
3443750000  -3.880522e+001  1.292664e+002 
3446875000  -3.793995e+001  1.214154e+002 
3450000000  -3.768604e+001  1.106994e+002 
3453125000  -3.797301e+001  1.018054e+002 
3456250000  -3.916316e+001  9.515981e+001 
3459375000  -4.023074e+001  9.656512e+001 
3462500000  -3.999575e+001  9.569469e+001 
3465625000  -3.990923e+001  9.030441e+001 
3468750000  -4.025420e+001  8.687831e+001 
3471875000  -4.009522e+001  8.488708e+001 
3475000000  -3.991607e+001  7.993118e+001 
3478125000  -4.060125e+001  7.362226e+001 
3481250000  -4.160558e+001  6.939593e+001 
3484375000  -4.266689e+001  7.496533e+001 
3487500000  -4.155075e+001  7.412505e+001 
3490625000  -4.109594e+001  6.987538e+001 
3493750000  -4.174339e+001  6.257769e+001 
3496875000  -4.196392e+001  6.234448e+001 
3500000000  -4.265693e+001  6.465601e+001 
3503125000  -4.256675e+001  6.903183e+001 
3506250000  -4.075269e+001  6.220808e+001 
3509375000  -4.084309e+001  5.335804e+001 
3512500000  -4.113854e+001  4.480713e+001 
3515625000  -4.201814e+001  4.434267e+001 
3518750000  -4.260493e+001  4.321883e+001 
3521875000  -4.234835e+001  4.229012e+001 
3525000000  -4.340720e+001  3.768688e+001 
3528125000  -4.321716e+001  4.638132e+001 
3531250000  -4.203771e+001  4.344374e+001 
3534375000  -4.160547e+001  3.373253e+001 
3537500000  -4.212947e+001  2.653166e+001 
3540625000  -4.313283e+001  2.590332e+001 
3543750000  -4.371716e+001  2.934934e+001 
3546875000  -4.363948e+001  4.091588e+001 
3550000000  -4.078504e+001  4.028719e+001 
3553125000  -3.951018e+001  2.261770e+001 
3556250000  -4.098901e+001  1.668521e+001 
3559375000  -4.091025e+001  1.800688e+001 
3562500000  -3.989365e+001  8.212077e+000 
3565625000  -4.082450e+001  4.368531e-001 
3568750000  -4.093731e+001  3.719304e+000 
3571875000  -4.069796e+001  6.683229e-001 
3575000000  -4.031210e+001  -6.065053e+000 
3578125000  -4.124514e+001  -1.190802e+001 
3581250000  -4.109877e+001  -1.248349e+001 
3584375000  -4.046296e+001  -1.470449e+001 
3587500000  -3.978360e+001  -2.381615e+001 
3590625000  -4.061467e+001  -3.567028e+001 
3593750000  -4.191177e+001  -3.807771e+001 
3596875000  -4.186237e+001  -3.200021e+001 
3600000000  -4.038583e+001  -3.650051e+001 
3603125000  -4.088984e+001  -5.076036e+001 
3606250000  -4.174672e+001  -5.492447e+001 
3609375000  -4.254464e+001  -5.806334e+001 
3612500000  -4.303016e+001  -5.928067e+001 
3615625000  -4.327120e+001  -6.367649e+001 
3618750000  -4.417732e+001  -6.282820e+001 
3621875000  -4.402028e+001  -6.597787e+001 
3625000000  -4.451847e+001  -6.441777e+001 
3628125000  -4.508688e+001  -6.365164e+001 
3631250000  -4.473701e+001  -6.947565e+001 
3634375000  -4.565850e+001  -6.897579e+001 
3637500000  -4.576468e+001  -6.153718e+001 
3640625000  -4.508992e+001  -6.274532e+001 
3643750000  -4.432955e+001  -6.777689e+001 
3646875000  -4.471339e+001  -7.243514e+001 
3650000000  -4.567716e+001  -7.144920e+001 
3653125000  -4.494121e+001  -7.256845e+001 
3656250000  -4.491170e+001  -7.277580e+001 
3659375000  -4.522349e+001  -7.022813e+001 
3662500000  -4.435480e+001  -7.478066e+001 
3665625000  -4.430191e+001  -7.625175e+001 
3668750000  -4.275702e+001  -7.540154e+001 
3671875000  -4.190698e+001  -8.320335e+001 
3675000000  -4.207661e+001  -9.162882e+001 
3678125000  -4.275921e+001  -9.181791e+001 
3681250000  -4.210870e+001  -9.436452e+001 
3684375000  -4.232599e+001  -1.005565e+002 
3687500000  -4.256662e+001  -1.045779e+002 
3690625000  -4.241673e+001  -1.091919e+002 
3693750000  -4.365154e+001  -1.095948e+002 
3696875000  -4.280299e+001  -1.084402e+002 
3700000000  -4.241170e+001  -1.168666e+002 
3703125000  -4.259187e+001  -1.232509e+002 
3706250000  -4.338145e+001  -1.208456e+002 
3709375000  -4.284643e+001  -1.197198e+002 
3712500000  -4.207749e+001  -1.227002e+002 
3715625000  -4.122044e+001  -1.313277e+002 
3718750000  -4.110373e+001  -1.363022e+002 
3721875000  -4.103601e+001  -1.422080e+002 
3725000000  -4.183134e+001  -1.479382e+002 
3728125000  -4.207057e+001  -1.469252e+002 
3731250000  -4.160064e+001  -1.522859e+002 
3734375000  -4.126359e+001  -1.578414e+002 
3737500000  -4.215088e+001  -1.643829e+002 
3740625000  -4.350697e+001  -1.683090e+002 
3743750000  -4.340422e+001  -1.713212e+002 
3746875000  -4.375411e+001  -1.746155e+002 
3750000000  -4.451765e+001  -1.718868e+002 
3753125000  -4.440313e+001  -1.730309e+002 
3756250000  -4.491031e+001  -1.717963e+002 
3759375000  -4.499013e+001  -1.694023e+002 
3762500000  -4.449947e+001  -1.726238e+002 
3765625000  -4.471682e+001  -1.708451e+002 
3768750000  -4.495300e+001  -1.676077e+002 
3771875000  -4.300794e+001  -1.692951e+002 
3775000000  -4.300467e+001  -1.764767e+002 
3778125000  -4.295900e+001  -1.758579e+002 
3781250000  -4.251084e+001  -1.798658e+002 
3784375000  -4.247188e+001  1.798459e+002 
3787500000  -4.181227e+001  1.751136e+002 
3790625000  -4.214595e+001  1.708001e+002 
3793750000  -4.183916e+001  1.693449e+002 
3796875000  -4.086002e+001  1.655660e+002 
3800000000  -3.916524e+001  1.640537e+002 
3803125000  -4.006325e+001  1.540180e+002 
3806250000  -4.065681e+001  1.514661e+002 
3809375000  -4.030884e+001  1.491226e+002 
3812500000  -3.954811e+001  1.416274e+002 
3815625000  -4.021492e+001  1.328102e+002 
3818750000  -4.107025e+001  1.294423e+002 
3821875000  -4.093491e+001  1.402442e+002 
3825000000  -3.914082e+001  1.406905e+002 
3828125000  -3.765614e+001  1.244424e+002 
3831250000  -3.866381e+001  1.096269e+002 
3834375000  -3.990878e+001  1.080853e+002 
3837500000  -4.096740e+001  1.116392e+002 
3840625000  -3.975744e+001  1.098845e+002 
3843750000  -3.888412e+001  9.771077e+001 
3846875000  -3.977229e+001  9.123828e+001 
3850000000  -4.115153e+001  9.674275e+001 
3853125000  -4.028627e+001  9.731390e+001 
3856250000  -4.043151e+001  9.176402e+001 
3859375000  -3.973652e+001  8.603725e+001 
3862500000  -3.960556e+001  7.754384e+001 
3865625000  -3.974907e+001  7.287462e+001 
3868750000  -4.014496e+001  7.169778e+001 
3871875000  -3.918623e+001  6.879717e+001 
3875000000  -3.971455e+001  6.000458e+001 
3878125000  -4.090531e+001  5.696786e+001 
3881250000  -4.110774e+001  6.148311e+001 
3884375000  -4.043815e+001  5.471890e+001 
3887500000  -4.089857e+001  5.317962e+001 
3890625000  -4.143327e+001  4.715011e+001 
3893750000  -4.142672e+001  4.652651e+001 
3896875000  -4.196700e+001  5.075059e+001 
3900000000  -4.195301e+001  4.704328e+001 
3903125000  -4.146164e+001  4.597240e+001 
3906250000  -4.108411e+001  4.573122e+001 
3909375000  -3.987810e+001  4.083477e+001 
3912500000  -4.001483e+001  3.469294e+001 
3915625000  -4.173756e+001  3.493301e+001 
3918750000  -4.114442e+001  3.631516e+001 
3921875000  -4.059842e+001  3.257383e+001 
3925000000  -3.981025e+001  2.901773e+001 
3928125000  -3.900135e+001  2.225936e+001 
3931250000  -3.960206e+001  1.654432e+001 
3934375000  -3.981623e+001  1.625452e+001 
3937500000  -3.980123e+001  1.409268e+001 
3940625000  -4.040025e+001  1.203083e+001 
3943750000  -3.915147e+001  1.371082e+001 
3946875000  -3.799757e+001  6.182466e+000 
3950000000  -3.865083e+001  -3.256989e+000 
3953125000  -3.953061e+001  -3.342114e+000 
3956250000  -3.887971e+001  -2.663438e+000 
3959375000  -3.738886e+001  -7.437314e+000 
3962500000  -3.731104e+001  -1.212033e+001 
3965625000  -3.694014e+001  -2.106178e+001 
3968750000  -3.792242e+001  -2.834204e+001 
3971875000  -3.820046e+001  -3.267284e+001 
3975000000  -3.769091e+001  -3.503775e+001 
3978125000  -3.766272e+001  -3.939408e+001 
3981250000  -3.769824e+001  -4.465427e+001 
3984375000  -3.803117e+001  -5.124717e+001 
3987500000  -3.847937e+001  -5.422063e+001 
3990625000  -3.877081e+001  -5.538305e+001 
3993750000  -3.904028e+001  -6.094867e+001 
3996875000  -3.909144e+001  -6.323177e+001 
4000000000  -3.951024e+001  -6.313062e+001 
4003125000  -3.999184e+001  -6.184292e+001 
4006250000  -3.864082e+001  -6.300966e+001 
4009375000  -3.761348e+001  -7.730632e+001 
4012500000  -3.917505e+001  -8.248912e+001 
4015625000  -4.034909e+001  -8.341584e+001 
4018750000  -4.043593e+001  -8.089383e+001 
4021875000  -3.977030e+001  -8.347568e+001 
4025000000  -3.945589e+001  -8.807626e+001 
4028125000  -3.951523e+001  -8.858199e+001 
4031250000  -3.974624e+001  -9.406377e+001 
4034375000  -4.024269e+001  -9.460246e+001 
4037500000  -3.939138e+001  -9.142492e+001 
4040625000  -3.952526e+001  -9.516306e+001 
4043750000  -3.993904e+001  -9.599969e+001 
4046875000  -3.928975e+001  -9.714513e+001 
4050000000  -3.870836e+001  -1.026383e+002 
4053125000  -3.907543e+001  -1.047793e+002 
4056250000  -3.926629e+001  -1.017512e+002 
4059375000  -3.804902e+001  -1.012830e+002 
4062500000  -3.660579e+001  -1.076744e+002 
4065625000  -3.661991e+001  -1.119882e+002 
4068750000  -3.611866e+001  -1.196624e+002 
4071875000  -3.547363e+001  -1.272020e+002 
4075000000  -3.576438e+001  -1.351796e+002 
4078125000  -3.638634e+001  -1.356043e+002 
4081250000  -3.584333e+001  -1.407793e+002 
4084375000  -3.530498e+001  -1.488846e+002 
4087500000  -3.589989e+001  -1.555578e+002 
4090625000  -3.650555e+001  -1.569864e+002 
4093750000  -3.614965e+001  -1.584537e+002 
4096875000  -3.584965e+001  -1.660849e+002 
4100000000  -3.664364e+001  -1.740683e+002 
4103125000  -3.761853e+001  -1.738418e+002 
4106250000  -3.745087e+001  -1.702818e+002 
4109375000  -3.646247e+001  -1.718124e+002 
4112500000  -3.592580e+001  -1.787611e+002 
4115625000  -3.638976e+001  1.738721e+002 
4118750000  -3.666607e+001  1.694779e+002 
4121875000  -3.611413e+001  1.647864e+002 
4125000000  -3.676671e+001  1.578449e+002 
4128125000  -3.793710e+001  1.575461e+002 
4131250000  -3.752815e+001  1.657183e+002 
4134375000  -3.532749e+001  1.590174e+002 
4137500000  -3.541256e+001  1.387038e+002 
4140625000  -3.759897e+001  1.315742e+002 
4143750000  -3.923346e+001  1.349050e+002 
4146875000  -3.861176e+001  1.417927e+002 
4150000000  -3.781222e+001  1.395197e+002 
4153125000  -3.778755e+001  1.341231e+002 
4156250000  -3.876222e+001  1.303185e+002 
4159375000  -3.914708e+001  1.345253e+002 
4162500000  -3.816517e+001  1.394891e+002 
4165625000  -3.695554e+001  1.341184e+002 
4168750000  -3.615495e+001  1.270405e+002 
4171875000  -3.614609e+001  1.169282e+002 
4175000000  -3.716829e+001  1.128350e+002 
4178125000  -3.756099e+001  1.123189e+002 
4181250000  -3.706461e+001  1.122288e+002 
4184375000  -3.702610e+001  1.079483e+002 
4187500000  -3.682630e+001  1.052439e+002 
4190625000  -3.678015e+001  9.894723e+001 
4193750000  -3.743969e+001  9.468312e+001 
4196875000  -3.825982e+001  9.438675e+001 
4200000000  -3.922704e+001  9.656805e+001 
4203125000  -3.875737e+001  1.103473e+002 
4206250000  -3.513401e+001  1.099356e+002 
4209375000  -3.405923e+001  8.747244e+001 
4212500000  -3.607425e+001  7.831194e+001 
4215625000  -3.695726e+001  8.388936e+001 
4218750000  -3.526265e+001  8.814826e+001 
4221875000  -3.312508e+001  7.799902e+001 
4225000000  -3.427240e+001  6.494897e+001 
4228125000  -3.501379e+001  6.936694e+001 
4231250000  -3.338025e+001  6.305799e+001 
4234375000  -3.326025e+001  5.407565e+001 
4237500000  -3.272501e+001  5.021334e+001 
4240625000  -3.275590e+001  3.882111e+001 
4243750000  -3.376933e+001  3.135561e+001 
4246875000  -3.469574e+001  2.966089e+001 
4250000000  -3.469916e+001  3.140843e+001 
4253125000  -3.430657e+001  2.749543e+001 
4256250000  -3.457527e+001  2.222119e+001 
4259375000  -3.439470e+001  1.935097e+001 
4262500000  -3.453840e+001  1.487662e+001 
4265625000  -3.471877e+001  1.444213e+001 
4268750000  -3.372441e+001  8.545486e+000 
4271875000  -3.384816e+001  4.337536e-002 
4275000000  -3.323487e+001  -8.947014e+000 
4278125000  -3.408683e+001  -1.887143e+001 
4281250000  -3.622389e+001  -2.039434e+001 
4284375000  -3.573926e+001  -2.133314e+001 
4287500000  -3.688342e+001  -2.462228e+001 
4290625000  -3.822015e+001  -1.386757e+001 
4293750000  -3.634707e+001  -1.288543e+001 
4296875000  -3.517608e+001  -2.237637e+001 
4300000000  -3.619247e+001  -3.080913e+001 
4303125000  -3.758136e+001  -2.969686e+001 
4306250000  -3.672644e+001  -2.188111e+001 
4309375000  -3.541837e+001  -2.487174e+001 
4312500000  -3.525564e+001  -3.210221e+001 
4315625000  -3.543347e+001  -3.832184e+001 
4318750000  -3.571722e+001  -4.200716e+001 
4321875000  -3.589112e+001  -3.995512e+001 
4325000000  -3.501476e+001  -4.017936e+001 
4328125000  -3.458633e+001  -4.760024e+001 
4331250000  -3.417410e+001  -5.425848e+001 
4334375000  -3.458470e+001  -6.045048e+001 
4337500000  -3.548110e+001  -6.271842e+001 
4340625000  -3.593282e+001  -5.929790e+001 
4343750000  -3.502201e+001  -6.056969e+001 
4346875000  -3.446040e+001  -6.672630e+001 
4350000000  -3.437138e+001  -7.136536e+001 
4353125000  -3.447575e+001  -8.163742e+001 
4356250000  -3.612922e+001  -8.189818e+001 
4359375000  -3.615532e+001  -6.842211e+001 
4362500000  -3.331186e+001  -6.939826e+001 
4365625000  -3.172009e+001  -8.489496e+001 
4368750000  -3.256950e+001  -9.716245e+001 
4371875000  -3.366784e+001  -9.748133e+001 
4375000000  -3.313518e+001  -9.835648e+001 
4378125000  -3.249777e+001  -1.058680e+002 
4381250000  -3.267504e+001  -1.125891e+002 
4384375000  -3.250212e+001  -1.196927e+002 
4387500000  -3.329549e+001  -1.259551e+002 
4390625000  -3.431123e+001  -1.271485e+002 
4393750000  -3.355420e+001  -1.259886e+002 
4396875000  -3.302481e+001  -1.298283e+002 
4400000000  -3.256293e+001  -1.387696e+002 
4403125000  -3.321757e+001  -1.475990e+002 
4406250000  -3.410991e+001  -1.499915e+002 
4409375000  -3.438333e+001  -1.542771e+002 
4412500000  -3.550771e+001  -1.579457e+002 
4415625000  -3.595414e+001  -1.531959e+002 
