!Agilent Technologies,E8363B,MY43030201,A.06.04.32
!Agilent E8363B: A.06.04.32
!Date: Tuesday, November 11, 2014 21:10:27
!Correction: S21(Response(S21)) 
!S1P File: Measurement: S21:
# Hz S  dB   R 50
3000000000  -3.647508e+001  -5.444995e+001 
3003125000  -3.763915e+001  -6.083467e+001 
3006250000  -3.744912e+001  -6.315547e+001 
3009375000  -3.788789e+001  -5.923114e+001 
3012500000  -3.714969e+001  -6.050835e+001 
3015625000  -3.617875e+001  -6.776690e+001 
3018750000  -3.691754e+001  -6.909766e+001 
3021875000  -3.543371e+001  -6.826695e+001 
3025000000  -3.419249e+001  -7.189288e+001 
3028125000  -3.317545e+001  -7.839615e+001 
3031250000  -3.213883e+001  -8.983963e+001 
3034375000  -3.188179e+001  -1.036947e+002 
3037500000  -3.230750e+001  -1.155099e+002 
3040625000  -3.362687e+001  -1.205171e+002 
3043750000  -3.426643e+001  -1.258176e+002 
3046875000  -3.450912e+001  -1.317538e+002 
3050000000  -3.616648e+001  -1.378349e+002 
3053125000  -3.601926e+001  -1.316105e+002 
3056250000  -3.560210e+001  -1.289026e+002 
3059375000  -3.547104e+001  -1.296234e+002 
3062500000  -3.408043e+001  -1.331374e+002 
3065625000  -3.391342e+001  -1.384321e+002 
3068750000  -3.357584e+001  -1.456035e+002 
3071875000  -3.351007e+001  -1.485503e+002 
3075000000  -3.329533e+001  -1.515657e+002 
3078125000  -3.308131e+001  -1.562204e+002 
3081250000  -3.357771e+001  -1.606093e+002 
3084375000  -3.268623e+001  -1.641298e+002 
3087500000  -3.247357e+001  -1.683090e+002 
3090625000  -3.198492e+001  -1.785341e+002 
3093750000  -3.241769e+001  1.740595e+002 
3096875000  -3.347940e+001  1.690246e+002 
3100000000  -3.342915e+001  1.663659e+002 
3103125000  -3.366371e+001  1.667541e+002 
3106250000  -3.316532e+001  1.629083e+002 
3109375000  -3.326599e+001  1.584126e+002 
3112500000  -3.320752e+001  1.566108e+002 
3115625000  -3.292877e+001  1.520198e+002 
3118750000  -3.314612e+001  1.518714e+002 
3121875000  -3.224226e+001  1.424038e+002 
3125000000  -3.361709e+001  1.386891e+002 
3128125000  -3.451324e+001  1.459706e+002 
3131250000  -3.201804e+001  1.439395e+002 
3134375000  -3.071772e+001  1.282148e+002 
3137500000  -3.130240e+001  1.139873e+002 
3140625000  -3.275226e+001  1.116628e+002 
3143750000  -3.377310e+001  1.127994e+002 
3146875000  -3.331579e+001  1.140159e+002 
3150000000  -3.225757e+001  1.140184e+002 
3153125000  -3.230946e+001  1.050439e+002 
3156250000  -3.333970e+001  1.095489e+002 
3159375000  -3.150277e+001  1.112248e+002 
3162500000  -2.961485e+001  9.628043e+001 
3165625000  -3.079164e+001  8.422002e+001 
3168750000  -3.094369e+001  8.426663e+001 
3171875000  -3.013698e+001  7.898061e+001 
3175000000  -3.092437e+001  6.975784e+001 
3178125000  -3.063335e+001  7.099500e+001 
3181250000  -2.954382e+001  6.499615e+001 
3184375000  -2.887374e+001  5.211050e+001 
3187500000  -3.013555e+001  3.677456e+001 
3190625000  -3.281036e+001  3.006876e+001 
3193750000  -3.327074e+001  3.834866e+001 
3196875000  -3.292152e+001  4.232162e+001 
3200000000  -3.197554e+001  3.923105e+001 
3203125000  -3.123175e+001  3.336207e+001 
3206250000  -3.154355e+001  2.631141e+001 
3209375000  -3.104065e+001  2.055374e+001 
3212500000  -3.137667e+001  1.367587e+001 
3215625000  -3.138203e+001  1.004206e+001 
3218750000  -3.209901e+001  2.366793e+000 
3221875000  -3.296484e+001  -3.339072e+000 
3225000000  -3.261245e+001  -4.065978e+000 
3228125000  -3.291894e+001  -9.469938e+000 
3231250000  -3.367760e+001  -1.220728e+001 
3234375000  -3.343140e+001  -1.203355e+001 
3237500000  -3.337398e+001  -1.397508e+001 
3240625000  -3.277857e+001  -1.684281e+001 
3243750000  -3.251952e+001  -2.437669e+001 
3246875000  -3.296065e+001  -3.151907e+001 
3250000000  -3.336687e+001  -3.369427e+001 
3253125000  -3.355172e+001  -3.575564e+001 
3256250000  -3.311432e+001  -4.280239e+001 
3259375000  -3.338135e+001  -5.071952e+001 
3262500000  -3.452721e+001  -5.478883e+001 
3265625000  -3.524064e+001  -5.229517e+001 
3268750000  -3.503479e+001  -5.062740e+001 
3271875000  -3.476538e+001  -5.086826e+001 
3275000000  -3.370147e+001  -5.716673e+001 
3278125000  -3.409330e+001  -6.424133e+001 
3281250000  -3.439808e+001  -6.279824e+001 
3284375000  -3.384249e+001  -7.003042e+001 
3287500000  -3.401300e+001  -7.318794e+001 
3290625000  -3.431416e+001  -7.899948e+001 
3293750000  -3.411025e+001  -8.482142e+001 
3296875000  -3.511118e+001  -8.511291e+001 
3300000000  -3.486807e+001  -8.438834e+001 
3303125000  -3.371518e+001  -9.030365e+001 
3306250000  -3.343433e+001  -9.775118e+001 
3309375000  -3.319825e+001  -1.041827e+002 
3312500000  -3.328167e+001  -1.149067e+002 
3315625000  -3.427812e+001  -1.229051e+002 
3318750000  -3.577578e+001  -1.256008e+002 
3321875000  -3.671099e+001  -1.255088e+002 
3325000000  -3.723666e+001  -1.197912e+002 
3328125000  -3.661095e+001  -1.186003e+002 
3331250000  -3.545181e+001  -1.135596e+002 
3334375000  -3.282596e+001  -1.245480e+002 
3337500000  -3.299154e+001  -1.442061e+002 
3340625000  -3.450184e+001  -1.541006e+002 
3343750000  -3.653775e+001  -1.548318e+002 
3346875000  -3.637859e+001  -1.534230e+002 
3350000000  -3.581789e+001  -1.554948e+002 
3353125000  -3.589285e+001  -1.607104e+002 
3356250000  -3.547034e+001  -1.689478e+002 
3359375000  -3.642574e+001  -1.779815e+002 
3362500000  -3.730031e+001  1.770782e+002 
3365625000  -3.777746e+001  1.757556e+002 
3368750000  -3.860588e+001  1.729228e+002 
3371875000  -3.891143e+001  1.709849e+002 
3375000000  -4.023807e+001  1.686314e+002 
3378125000  -4.121423e+001  1.681487e+002 
3381250000  -4.236326e+001  1.777246e+002 
3384375000  -4.088647e+001  -1.629265e+002 
3387500000  -3.739424e+001  -1.779034e+002 
3390625000  -3.909608e+001  1.622855e+002 
3393750000  -4.032867e+001  1.662757e+002 
3396875000  -3.917254e+001  1.669784e+002 
3400000000  -3.843850e+001  1.585617e+002 
3403125000  -3.923072e+001  1.525846e+002 
3406250000  -3.969770e+001  1.533131e+002 
3409375000  -3.964578e+001  1.465060e+002 
3412500000  -4.014817e+001  1.433818e+002 
3415625000  -4.088495e+001  1.435336e+002 
3418750000  -4.108585e+001  1.442479e+002 
3421875000  -4.122255e+001  1.476444e+002 
3425000000  -4.027159e+001  1.475945e+002 
3428125000  -3.933540e+001  1.426440e+002 
3431250000  -3.930350e+001  1.370430e+002 
3434375000  -3.902217e+001  1.306572e+002 
3437500000  -3.967698e+001  1.273028e+002 
3440625000  -3.993063e+001  1.278147e+002 
3443750000  -3.875859e+001  1.294992e+002 
3446875000  -3.778669e+001  1.220539e+002 
3450000000  -3.744590e+001  1.114299e+002 
3453125000  -3.787135e+001  1.016870e+002 
3456250000  -3.912014e+001  9.438052e+001 
3459375000  -4.006530e+001  9.701979e+001 
3462500000  -3.986264e+001  9.570222e+001 
3465625000  -3.977127e+001  9.068385e+001 
3468750000  -3.993686e+001  8.678130e+001 
3471875000  -3.996255e+001  8.382970e+001 
3475000000  -3.965337e+001  7.996164e+001 
3478125000  -4.023044e+001  7.335406e+001 
3481250000  -4.130183e+001  7.036028e+001 
3484375000  -4.233946e+001  7.417958e+001 
3487500000  -4.115592e+001  7.256374e+001 
3490625000  -4.072576e+001  6.837179e+001 
3493750000  -4.121693e+001  6.246258e+001 
3496875000  -4.155093e+001  5.988817e+001 
3500000000  -4.223510e+001  6.348160e+001 
3503125000  -4.215887e+001  6.442781e+001 
3506250000  -4.050838e+001  6.071917e+001 
3509375000  -4.077917e+001  5.099162e+001 
3512500000  -4.094609e+001  4.294533e+001 
3515625000  -4.189704e+001  4.137944e+001 
3518750000  -4.246639e+001  3.970193e+001 
3521875000  -4.245068e+001  3.808674e+001 
3525000000  -4.359504e+001  3.509664e+001 
3528125000  -4.309438e+001  4.248988e+001 
3531250000  -4.233044e+001  4.158727e+001 
3534375000  -4.207246e+001  2.939707e+001 
3537500000  -4.243294e+001  2.594247e+001 
3540625000  -4.336682e+001  2.197061e+001 
3543750000  -4.407035e+001  2.717883e+001 
3546875000  -4.423635e+001  4.154787e+001 
3550000000  -4.143176e+001  3.964623e+001 
3553125000  -4.030297e+001  2.155880e+001 
3556250000  -4.175458e+001  1.529593e+001 
3559375000  -4.134958e+001  1.884370e+001 
3562500000  -4.022042e+001  7.616821e+000 
3565625000  -4.118399e+001  7.249458e-001 
3568750000  -4.135421e+001  2.751663e+000 
3571875000  -4.107656e+001  1.701095e+000 
3575000000  -4.081636e+001  -4.718380e+000 
3578125000  -4.139542e+001  -1.105199e+001 
3581250000  -4.150214e+001  -9.809226e+000 
3584375000  -4.035712e+001  -1.565749e+001 
3587500000  -3.981173e+001  -2.216820e+001 
3590625000  -4.047719e+001  -3.248679e+001 
3593750000  -4.172599e+001  -3.447195e+001 
3596875000  -4.165347e+001  -3.008830e+001 
3600000000  -4.006521e+001  -3.515443e+001 
3603125000  -4.069394e+001  -4.840244e+001 
3606250000  -4.113105e+001  -5.261289e+001 
3609375000  -4.219435e+001  -5.536776e+001 
3612500000  -4.256008e+001  -5.855535e+001 
3615625000  -4.290553e+001  -6.374909e+001 
3618750000  -4.359879e+001  -6.222889e+001 
3621875000  -4.365016e+001  -6.656365e+001 
3625000000  -4.421069e+001  -6.704848e+001 
3628125000  -4.442085e+001  -6.592325e+001 
3631250000  -4.403910e+001  -7.419023e+001 
3634375000  -4.561977e+001  -7.089915e+001 
3637500000  -4.573266e+001  -6.790076e+001 
3640625000  -4.436983e+001  -6.504703e+001 
3643750000  -4.413369e+001  -7.360332e+001 
3646875000  -4.501494e+001  -7.692137e+001 
3650000000  -4.564708e+001  -7.810283e+001 
3653125000  -4.543356e+001  -7.655804e+001 
3656250000  -4.570762e+001  -7.900558e+001 
3659375000  -4.605415e+001  -7.751511e+001 
3662500000  -4.528547e+001  -7.812745e+001 
3665625000  -4.480184e+001  -7.816841e+001 
3668750000  -4.373952e+001  -7.724418e+001 
3671875000  -4.316892e+001  -8.325637e+001 
3675000000  -4.297029e+001  -9.272506e+001 
3678125000  -4.350411e+001  -9.200372e+001 
3681250000  -4.302316e+001  -9.397254e+001 
3684375000  -4.310247e+001  -9.898714e+001 
3687500000  -4.292270e+001  -1.049006e+002 
3690625000  -4.310586e+001  -1.092824e+002 
3693750000  -4.379147e+001  -1.087881e+002 
3696875000  -4.353844e+001  -1.084628e+002 
3700000000  -4.301409e+001  -1.125466e+002 
3703125000  -4.286996e+001  -1.189208e+002 
3706250000  -4.427394e+001  -1.182280e+002 
3709375000  -4.314661e+001  -1.167739e+002 
3712500000  -4.242218e+001  -1.202621e+002 
3715625000  -4.154883e+001  -1.255192e+002 
3718750000  -4.129485e+001  -1.314579e+002 
3721875000  -4.119795e+001  -1.393353e+002 
3725000000  -4.147533e+001  -1.450646e+002 
3728125000  -4.191327e+001  -1.476638e+002 
3731250000  -4.158683e+001  -1.502774e+002 
3734375000  -4.108933e+001  -1.554884e+002 
3737500000  -4.196105e+001  -1.647218e+002 
3740625000  -4.335835e+001  -1.645663e+002 
3743750000  -4.306801e+001  -1.681997e+002 
3746875000  -4.352206e+001  -1.706018e+002 
3750000000  -4.403276e+001  -1.723961e+002 
3753125000  -4.406450e+001  -1.733665e+002 
3756250000  -4.452457e+001  -1.717321e+002 
3759375000  -4.431646e+001  -1.711302e+002 
3762500000  -4.444526e+001  -1.768548e+002 
3765625000  -4.485419e+001  -1.753129e+002 
3768750000  -4.475361e+001  -1.705354e+002 
3771875000  -4.305224e+001  -1.720738e+002 
3775000000  -4.298729e+001  -1.795549e+002 
3778125000  -4.307082e+001  1.778715e+002 
3781250000  -4.302252e+001  1.767621e+002 
3784375000  -4.260188e+001  1.779078e+002 
3787500000  -4.220058e+001  1.757367e+002 
3790625000  -4.224226e+001  1.683279e+002 
3793750000  -4.234158e+001  1.688000e+002 
3796875000  -4.111937e+001  1.646490e+002 
3800000000  -3.963559e+001  1.644189e+002 
3803125000  -4.043242e+001  1.529896e+002 
3806250000  -4.096914e+001  1.514262e+002 
3809375000  -4.073464e+001  1.498354e+002 
3812500000  -3.986401e+001  1.419594e+002 
3815625000  -4.045616e+001  1.325756e+002 
3818750000  -4.156836e+001  1.321200e+002 
3821875000  -4.142263e+001  1.411474e+002 
3825000000  -3.907692e+001  1.421972e+002 
3828125000  -3.803591e+001  1.257619e+002 
3831250000  -3.873537e+001  1.130696e+002 
3834375000  -4.016960e+001  1.102014e+002 
3837500000  -4.113321e+001  1.126298e+002 
3840625000  -3.980960e+001  1.099582e+002 
3843750000  -3.885753e+001  9.948864e+001 
3846875000  -3.976599e+001  9.307482e+001 
3850000000  -4.095877e+001  9.732307e+001 
3853125000  -4.044295e+001  1.002481e+002 
3856250000  -4.035894e+001  9.315021e+001 
3859375000  -3.954614e+001  8.632924e+001 
3862500000  -3.948279e+001  7.853713e+001 
3865625000  -3.983270e+001  7.512975e+001 
3868750000  -3.977878e+001  7.350941e+001 
3871875000  -3.912201e+001  7.014117e+001 
3875000000  -3.945215e+001  6.085330e+001 
3878125000  -4.042825e+001  5.762844e+001 
3881250000  -4.098842e+001  5.951131e+001 
3884375000  -3.992787e+001  5.672230e+001 
3887500000  -4.043229e+001  5.130789e+001 
3890625000  -4.059958e+001  4.969675e+001 
3893750000  -4.124007e+001  4.786010e+001 
3896875000  -4.133719e+001  4.888199e+001 
3900000000  -4.193075e+001  4.836497e+001 
3903125000  -4.098045e+001  4.489637e+001 
3906250000  -4.093174e+001  4.139451e+001 
3909375000  -3.988991e+001  4.181625e+001 
3912500000  -4.023045e+001  3.212360e+001 
3915625000  -4.182148e+001  3.225459e+001 
3918750000  -4.116297e+001  3.560287e+001 
3921875000  -4.069324e+001  3.000748e+001 
3925000000  -3.986959e+001  2.938821e+001 
3928125000  -3.914491e+001  2.123441e+001 
3931250000  -3.989947e+001  1.689575e+001 
3934375000  -4.008307e+001  1.466691e+001 
3937500000  -4.016304e+001  1.390105e+001 
3940625000  -4.084415e+001  1.192210e+001 
3943750000  -3.936395e+001  1.214841e+001 
3946875000  -3.852917e+001  5.216568e+000 
3950000000  -3.912080e+001  -1.389023e+000 
3953125000  -4.008986e+001  -2.501207e+000 
3956250000  -3.892951e+001  -1.723722e+000 
3959375000  -3.774038e+001  -4.976345e+000 
3962500000  -3.729009e+001  -1.197408e+001 
3965625000  -3.718795e+001  -2.112440e+001 
3968750000  -3.803692e+001  -2.719245e+001 
3971875000  -3.855970e+001  -3.059950e+001 
3975000000  -3.790367e+001  -3.367046e+001 
3978125000  -3.781905e+001  -3.763151e+001 
3981250000  -3.746895e+001  -4.071059e+001 
3984375000  -3.806765e+001  -4.841630e+001 
3987500000  -3.878450e+001  -5.224754e+001 
3990625000  -3.860572e+001  -5.367949e+001 
3993750000  -3.907562e+001  -5.735460e+001 
3996875000  -3.886029e+001  -6.049635e+001 
4000000000  -3.937482e+001  -6.353936e+001 
4003125000  -3.976313e+001  -6.009829e+001 
4006250000  -3.844498e+001  -6.172555e+001 
4009375000  -3.723743e+001  -7.453505e+001 
4012500000  -3.868235e+001  -8.259448e+001 
4015625000  -3.992955e+001  -8.117122e+001 
4018750000  -4.006811e+001  -7.852188e+001 
4021875000  -3.915112e+001  -8.237633e+001 
4025000000  -3.925163e+001  -8.725404e+001 
4028125000  -3.892649e+001  -9.082877e+001 
4031250000  -3.952994e+001  -9.586378e+001 
4034375000  -3.970216e+001  -9.598238e+001 
4037500000  -3.929350e+001  -9.366330e+001 
4040625000  -3.914635e+001  -9.675049e+001 
4043750000  -3.953119e+001  -9.825269e+001 
4046875000  -3.894461e+001  -9.932612e+001 
4050000000  -3.861442e+001  -1.071314e+002 
4053125000  -3.907936e+001  -1.075815e+002 
4056250000  -3.956157e+001  -1.043973e+002 
4059375000  -3.803688e+001  -1.033322e+002 
4062500000  -3.685170e+001  -1.096622e+002 
4065625000  -3.678458e+001  -1.145614e+002 
4068750000  -3.635546e+001  -1.206451e+002 
4071875000  -3.551891e+001  -1.303585e+002 
4075000000  -3.595164e+001  -1.363518e+002 
4078125000  -3.670525e+001  -1.379597e+002 
4081250000  -3.611155e+001  -1.423804e+002 
4084375000  -3.567338e+001  -1.507006e+002 
4087500000  -3.600572e+001  -1.558200e+002 
4090625000  -3.675772e+001  -1.571493e+002 
4093750000  -3.648451e+001  -1.597641e+002 
4096875000  -3.596988e+001  -1.676431e+002 
4100000000  -3.688200e+001  -1.743170e+002 
4103125000  -3.762144e+001  -1.730693e+002 
4106250000  -3.776818e+001  -1.693364e+002 
4109375000  -3.650164e+001  -1.713949e+002 
4112500000  -3.642100e+001  -1.795924e+002 
4115625000  -3.655043e+001  1.751407e+002 
4118750000  -3.680992e+001  1.712354e+002 
4121875000  -3.636907e+001  1.658372e+002 
4125000000  -3.689839e+001  1.601224e+002 
4128125000  -3.787651e+001  1.595314e+002 
4131250000  -3.755172e+001  1.680746e+002 
4134375000  -3.521317e+001  1.607953e+002 
4137500000  -3.517472e+001  1.403328e+002 
4140625000  -3.744934e+001  1.341243e+002 
4143750000  -3.882516e+001  1.380710e+002 
4146875000  -3.860545e+001  1.448229e+002 
4150000000  -3.773600e+001  1.407401e+002 
4153125000  -3.739278e+001  1.326123e+002 
4156250000  -3.856962e+001  1.294161e+002 
4159375000  -3.870320e+001  1.352728e+002 
4162500000  -3.771468e+001  1.387323e+002 
4165625000  -3.678465e+001  1.343163e+002 
4168750000  -3.627149e+001  1.260746e+002 
4171875000  -3.617500e+001  1.161968e+002 
4175000000  -3.664009e+001  1.120840e+002 
4178125000  -3.735616e+001  1.102636e+002 
4181250000  -3.693043e+001  1.090785e+002 
4184375000  -3.685981e+001  1.059568e+002 
4187500000  -3.699627e+001  1.035908e+002 
4190625000  -3.678521e+001  9.735662e+001 
4193750000  -3.758191e+001  9.347454e+001 
4196875000  -3.839787e+001  9.197060e+001 
4200000000  -3.945145e+001  9.486817e+001 
4203125000  -3.879795e+001  1.080333e+002 
4206250000  -3.521415e+001  1.065322e+002 
4209375000  -3.420948e+001  8.430741e+001 
4212500000  -3.640825e+001  7.610201e+001 
4215625000  -3.725238e+001  8.223816e+001 
4218750000  -3.573765e+001  8.649353e+001 
4221875000  -3.342362e+001  7.602724e+001 
4225000000  -3.481304e+001  6.278392e+001 
4228125000  -3.526843e+001  7.016930e+001 
4231250000  -3.366075e+001  6.372385e+001 
4234375000  -3.348801e+001  5.304599e+001 
4237500000  -3.307492e+001  5.010373e+001 
4240625000  -3.296029e+001  3.893011e+001 
4243750000  -3.426688e+001  3.123403e+001 
4246875000  -3.509161e+001  2.928690e+001 
4250000000  -3.521166e+001  3.158472e+001 
4253125000  -3.447503e+001  2.836046e+001 
4256250000  -3.482925e+001  2.269291e+001 
4259375000  -3.464083e+001  2.030847e+001 
4262500000  -3.485577e+001  1.629067e+001 
4265625000  -3.491011e+001  1.411887e+001 
4268750000  -3.405419e+001  8.463765e+000 
4271875000  -3.397071e+001  2.006159e+000 
4275000000  -3.347985e+001  -5.954974e+000 
4278125000  -3.418337e+001  -1.812473e+001 
4281250000  -3.611589e+001  -1.848029e+001 
4284375000  -3.580656e+001  -2.049001e+001 
4287500000  -3.681354e+001  -2.494924e+001 
4290625000  -3.798039e+001  -1.552616e+001 
4293750000  -3.629111e+001  -9.296589e+000 
4296875000  -3.513273e+001  -2.107229e+001 
4300000000  -3.595570e+001  -2.991839e+001 
4303125000  -3.730161e+001  -2.812170e+001 
4306250000  -3.678000e+001  -2.331813e+001 
4309375000  -3.527873e+001  -2.505317e+001 
4312500000  -3.510630e+001  -3.406100e+001 
4315625000  -3.518750e+001  -3.987860e+001 
4318750000  -3.556897e+001  -4.316263e+001 
4321875000  -3.566411e+001  -4.211214e+001 
4325000000  -3.509614e+001  -4.252179e+001 
4328125000  -3.450190e+001  -4.806059e+001 
4331250000  -3.435671e+001  -5.661184e+001 
4334375000  -3.482156e+001  -6.252693e+001 
4337500000  -3.561605e+001  -6.351854e+001 
4340625000  -3.597937e+001  -6.205295e+001 
4343750000  -3.510825e+001  -6.273385e+001 
4346875000  -3.462814e+001  -6.880789e+001 
4350000000  -3.454197e+001  -7.366334e+001 
4353125000  -3.458693e+001  -8.133126e+001 
4356250000  -3.660313e+001  -8.271566e+001 
4359375000  -3.674384e+001  -6.994299e+001 
4362500000  -3.364296e+001  -7.105029e+001 
4365625000  -3.210225e+001  -8.571120e+001 
4368750000  -3.292812e+001  -9.811926e+001 
4371875000  -3.404325e+001  -9.797377e+001 
4375000000  -3.346184e+001  -9.813145e+001 
4378125000  -3.282503e+001  -1.054130e+002 
4381250000  -3.310920e+001  -1.122281e+002 
4384375000  -3.279481e+001  -1.192204e+002 
4387500000  -3.349315e+001  -1.256628e+002 
4390625000  -3.457719e+001  -1.261220e+002 
4393750000  -3.385308e+001  -1.257258e+002 
4396875000  -3.318693e+001  -1.284465e+002 
4400000000  -3.276477e+001  -1.383512e+002 
4403125000  -3.347977e+001  -1.458673e+002 
4406250000  -3.440829e+001  -1.492061e+002 
4409375000  -3.465067e+001  -1.522906e+002 
4412500000  -3.568793e+001  -1.561323e+002 
4415625000  -3.603792e+001  -1.516803e+002 
