!Agilent Technologies,E8363B,MY43030201,A.06.04.32
!Agilent E8363B: A.06.04.32
!Date: Tuesday, November 11, 2014 21:13:26
!Correction: S21(Response(S21)) 
!S1P File: Measurement: S21:
# Hz S  dB   R 50
3000000000  -3.644648e+001  -5.913906e+001 
3003125000  -3.773614e+001  -6.612480e+001 
3006250000  -3.748860e+001  -6.749939e+001 
3009375000  -3.776981e+001  -6.319114e+001 
3012500000  -3.709297e+001  -6.563812e+001 
3015625000  -3.622131e+001  -7.312894e+001 
3018750000  -3.699296e+001  -7.305590e+001 
3021875000  -3.547453e+001  -7.244750e+001 
3025000000  -3.416602e+001  -7.713244e+001 
3028125000  -3.320074e+001  -8.394798e+001 
3031250000  -3.221009e+001  -9.496748e+001 
3034375000  -3.183467e+001  -1.083660e+002 
3037500000  -3.241051e+001  -1.206421e+002 
3040625000  -3.369197e+001  -1.251793e+002 
3043750000  -3.434118e+001  -1.297421e+002 
3046875000  -3.460047e+001  -1.362959e+002 
3050000000  -3.619323e+001  -1.425111e+002 
3053125000  -3.613206e+001  -1.359283e+002 
3056250000  -3.568969e+001  -1.337379e+002 
3059375000  -3.571820e+001  -1.327317e+002 
3062500000  -3.414651e+001  -1.365461e+002 
3065625000  -3.402309e+001  -1.432994e+002 
3068750000  -3.366648e+001  -1.499122e+002 
3071875000  -3.355442e+001  -1.527721e+002 
3075000000  -3.326559e+001  -1.565318e+002 
3078125000  -3.314265e+001  -1.608381e+002 
3081250000  -3.356596e+001  -1.652228e+002 
3084375000  -3.271835e+001  -1.683443e+002 
3087500000  -3.256158e+001  -1.727514e+002 
3090625000  -3.206661e+001  1.771007e+002 
3093750000  -3.250367e+001  1.698438e+002 
3096875000  -3.345454e+001  1.640535e+002 
3100000000  -3.339942e+001  1.624100e+002 
3103125000  -3.360616e+001  1.627043e+002 
3106250000  -3.325113e+001  1.585395e+002 
3109375000  -3.323810e+001  1.551180e+002 
3112500000  -3.313896e+001  1.520720e+002 
3115625000  -3.289024e+001  1.475607e+002 
3118750000  -3.322117e+001  1.473592e+002 
3121875000  -3.230143e+001  1.376143e+002 
3125000000  -3.362399e+001  1.334995e+002 
3128125000  -3.442381e+001  1.415256e+002 
3131250000  -3.197209e+001  1.390794e+002 
3134375000  -3.073842e+001  1.237779e+002 
3137500000  -3.133324e+001  1.095552e+002 
3140625000  -3.284196e+001  1.074871e+002 
3143750000  -3.377627e+001  1.077241e+002 
3146875000  -3.329400e+001  1.093683e+002 
3150000000  -3.222789e+001  1.089559e+002 
3153125000  -3.230210e+001  1.000537e+002 
3156250000  -3.343810e+001  1.051194e+002 
3159375000  -3.148260e+001  1.064675e+002 
3162500000  -2.968078e+001  9.178553e+001 
3165625000  -3.076029e+001  7.921860e+001 
3168750000  -3.100256e+001  7.948572e+001 
3171875000  -3.012761e+001  7.418596e+001 
3175000000  -3.086049e+001  6.505355e+001 
3178125000  -3.063989e+001  6.608094e+001 
3181250000  -2.958204e+001  6.005889e+001 
3184375000  -2.905659e+001  4.747178e+001 
3187500000  -3.016533e+001  3.272221e+001 
3190625000  -3.272990e+001  2.500283e+001 
3193750000  -3.325952e+001  3.283999e+001 
3196875000  -3.290440e+001  3.723063e+001 
3200000000  -3.199921e+001  3.477832e+001 
3203125000  -3.125590e+001  2.851880e+001 
3206250000  -3.165908e+001  2.210574e+001 
3209375000  -3.114230e+001  1.577387e+001 
3212500000  -3.145650e+001  8.796808e+000 
3215625000  -3.132513e+001  5.684608e+000 
3218750000  -3.217015e+001  -2.286515e+000 
3221875000  -3.293385e+001  -7.310441e+000 
3225000000  -3.257172e+001  -8.585135e+000 
3228125000  -3.294800e+001  -1.430085e+001 
3231250000  -3.363135e+001  -1.600073e+001 
3234375000  -3.328043e+001  -1.615069e+001 
3237500000  -3.330189e+001  -1.864140e+001 
3240625000  -3.287484e+001  -2.097671e+001 
3243750000  -3.255493e+001  -2.922100e+001 
3246875000  -3.293079e+001  -3.553846e+001 
3250000000  -3.342062e+001  -3.843504e+001 
3253125000  -3.345421e+001  -4.030396e+001 
3256250000  -3.303067e+001  -4.762094e+001 
3259375000  -3.336970e+001  -5.544695e+001 
3262500000  -3.463995e+001  -5.913337e+001 
3265625000  -3.525166e+001  -5.612997e+001 
3268750000  -3.502194e+001  -5.423868e+001 
3271875000  -3.463138e+001  -5.533672e+001 
3275000000  -3.361204e+001  -6.189270e+001 
3278125000  -3.407629e+001  -6.864228e+001 
3281250000  -3.434999e+001  -6.765525e+001 
3284375000  -3.373276e+001  -7.442092e+001 
3287500000  -3.404232e+001  -7.805301e+001 
3290625000  -3.417177e+001  -8.393869e+001 
3293750000  -3.401071e+001  -8.999944e+001 
3296875000  -3.514987e+001  -9.013773e+001 
3300000000  -3.482531e+001  -9.014025e+001 
3303125000  -3.358393e+001  -9.532418e+001 
3306250000  -3.340847e+001  -1.021886e+002 
3309375000  -3.301904e+001  -1.092644e+002 
3312500000  -3.320798e+001  -1.198865e+002 
3315625000  -3.438070e+001  -1.278812e+002 
3318750000  -3.574764e+001  -1.301878e+002 
3321875000  -3.673857e+001  -1.313801e+002 
3325000000  -3.716247e+001  -1.249921e+002 
3328125000  -3.688771e+001  -1.238569e+002 
3331250000  -3.542923e+001  -1.176921e+002 
3334375000  -3.282562e+001  -1.300115e+002 
3337500000  -3.299448e+001  -1.490411e+002 
3340625000  -3.446739e+001  -1.598377e+002 
3343750000  -3.648335e+001  -1.600563e+002 
3346875000  -3.647281e+001  -1.579521e+002 
3350000000  -3.599230e+001  -1.608503e+002 
3353125000  -3.597154e+001  -1.659046e+002 
3356250000  -3.548752e+001  -1.739471e+002 
3359375000  -3.640800e+001  1.781498e+002 
3362500000  -3.746784e+001  1.721277e+002 
3365625000  -3.802905e+001  1.711140e+002 
3368750000  -3.874106e+001  1.688288e+002 
3371875000  -3.907581e+001  1.650480e+002 
3375000000  -4.026460e+001  1.628957e+002 
3378125000  -4.131548e+001  1.648824e+002 
3381250000  -4.253455e+001  1.721145e+002 
3384375000  -4.098654e+001  -1.650803e+002 
3387500000  -3.740219e+001  1.766371e+002 
3390625000  -3.916300e+001  1.575286e+002 
3393750000  -4.012289e+001  1.621381e+002 
3396875000  -3.902421e+001  1.625445e+002 
3400000000  -3.842933e+001  1.547083e+002 
3403125000  -3.931098e+001  1.487820e+002 
3406250000  -3.985775e+001  1.481455e+002 
3409375000  -3.984803e+001  1.403376e+002 
3412500000  -4.015905e+001  1.389559e+002 
3415625000  -4.083993e+001  1.400005e+002 
3418750000  -4.103142e+001  1.396526e+002 
3421875000  -4.116376e+001  1.424319e+002 
3425000000  -4.023394e+001  1.430549e+002 
3428125000  -3.940823e+001  1.386416e+002 
3431250000  -3.934293e+001  1.329369e+002 
3434375000  -3.903889e+001  1.260293e+002 
3437500000  -3.960082e+001  1.223339e+002 
3440625000  -3.988446e+001  1.245061e+002 
3443750000  -3.874305e+001  1.240908e+002 
3446875000  -3.774573e+001  1.150089e+002 
3450000000  -3.739353e+001  1.061958e+002 
3453125000  -3.795091e+001  9.655289e+001 
3456250000  -3.913257e+001  8.918204e+001 
3459375000  -4.014544e+001  9.009685e+001 
3462500000  -4.002411e+001  9.146206e+001 
3465625000  -3.973365e+001  8.659282e+001 
3468750000  -4.019931e+001  8.068470e+001 
3471875000  -3.991309e+001  8.015360e+001 
3475000000  -3.980256e+001  7.567574e+001 
3478125000  -4.044548e+001  6.715624e+001 
3481250000  -4.133081e+001  6.570904e+001 
3484375000  -4.224230e+001  6.955646e+001 
3487500000  -4.137374e+001  6.837254e+001 
3490625000  -4.073692e+001  6.341848e+001 
3493750000  -4.129150e+001  5.724960e+001 
3496875000  -4.180754e+001  5.708543e+001 
3500000000  -4.226912e+001  5.893643e+001 
3503125000  -4.192814e+001  6.193069e+001 
3506250000  -4.070184e+001  5.668636e+001 
3509375000  -4.067321e+001  4.688232e+001 
3512500000  -4.130717e+001  3.644088e+001 
3515625000  -4.199296e+001  3.521335e+001 
3518750000  -4.244992e+001  3.564797e+001 
3521875000  -4.221682e+001  3.263403e+001 
3525000000  -4.331272e+001  3.155018e+001 
3528125000  -4.319050e+001  3.839513e+001 
3531250000  -4.199265e+001  3.330603e+001 
3534375000  -4.174736e+001  2.577198e+001 
3537500000  -4.248611e+001  2.148000e+001 
3540625000  -4.342226e+001  2.057976e+001 
3543750000  -4.431366e+001  2.239300e+001 
3546875000  -4.395658e+001  3.270544e+001 
3550000000  -4.116619e+001  3.488373e+001 
3553125000  -3.992402e+001  1.823590e+001 
3556250000  -4.138430e+001  1.008267e+001 
3559375000  -4.106166e+001  1.226998e+001 
3562500000  -4.004061e+001  3.164846e+000 
3565625000  -4.111733e+001  -3.255502e+000 
3568750000  -4.129741e+001  -1.044170e+000 
3571875000  -4.089679e+001  -3.749548e+000 
3575000000  -4.055758e+001  -1.074146e+001 
3578125000  -4.100040e+001  -1.654361e+001 
3581250000  -4.127399e+001  -1.570373e+001 
3584375000  -4.002664e+001  -1.879449e+001 
3587500000  -3.977834e+001  -2.886995e+001 
3590625000  -4.026715e+001  -3.718462e+001 
3593750000  -4.167891e+001  -4.051583e+001 
3596875000  -4.158871e+001  -3.439256e+001 
3600000000  -4.024379e+001  -4.164774e+001 
3603125000  -4.084933e+001  -5.503261e+001 
3606250000  -4.147287e+001  -6.000832e+001 
3609375000  -4.233973e+001  -6.285710e+001 
3612500000  -4.299679e+001  -6.633386e+001 
3615625000  -4.299987e+001  -6.859222e+001 
3618750000  -4.384937e+001  -6.908666e+001 
3621875000  -4.366019e+001  -7.084413e+001 
3625000000  -4.427638e+001  -7.323640e+001 
3628125000  -4.447159e+001  -7.582484e+001 
3631250000  -4.428465e+001  -7.810056e+001 
3634375000  -4.604686e+001  -7.669640e+001 
3637500000  -4.552748e+001  -7.131747e+001 
3640625000  -4.517391e+001  -7.058334e+001 
3643750000  -4.438103e+001  -7.551965e+001 
3646875000  -4.520669e+001  -8.092353e+001 
3650000000  -4.542958e+001  -8.080607e+001 
3653125000  -4.528864e+001  -8.414847e+001 
3656250000  -4.541407e+001  -8.289664e+001 
3659375000  -4.555738e+001  -7.848252e+001 
3662500000  -4.480977e+001  -8.057392e+001 
3665625000  -4.446637e+001  -8.190190e+001 
3668750000  -4.352145e+001  -8.161280e+001 
3671875000  -4.244158e+001  -8.834816e+001 
3675000000  -4.260186e+001  -9.796960e+001 
3678125000  -4.304857e+001  -9.909743e+001 
3681250000  -4.269899e+001  -1.007087e+002 
3684375000  -4.267879e+001  -1.035044e+002 
3687500000  -4.250395e+001  -1.102666e+002 
3690625000  -4.285852e+001  -1.126539e+002 
3693750000  -4.379383e+001  -1.138948e+002 
3696875000  -4.332951e+001  -1.135117e+002 
3700000000  -4.229308e+001  -1.208073e+002 
3703125000  -4.289359e+001  -1.232930e+002 
3706250000  -4.351686e+001  -1.240312e+002 
3709375000  -4.307002e+001  -1.224628e+002 
3712500000  -4.216351e+001  -1.255406e+002 
3715625000  -4.119590e+001  -1.317599e+002 
3718750000  -4.102586e+001  -1.410630e+002 
3721875000  -4.097807e+001  -1.460661e+002 
3725000000  -4.133595e+001  -1.520888e+002 
3728125000  -4.194341e+001  -1.533766e+002 
3731250000  -4.163963e+001  -1.558988e+002 
3734375000  -4.119624e+001  -1.610645e+002 
3737500000  -4.191878e+001  -1.695462e+002 
3740625000  -4.340760e+001  -1.729214e+002 
3743750000  -4.322691e+001  -1.737496e+002 
3746875000  -4.322649e+001  1.796897e+002 
3750000000  -4.452768e+001  1.798826e+002 
3753125000  -4.458104e+001  -1.772442e+002 
3756250000  -4.464846e+001  -1.770684e+002 
3759375000  -4.462109e+001  -1.762196e+002 
3762500000  -4.426883e+001  1.780799e+002 
3765625000  -4.484442e+001  -1.786522e+002 
3768750000  -4.486852e+001  -1.750092e+002 
3771875000  -4.316416e+001  -1.774241e+002 
3775000000  -4.274660e+001  1.759665e+002 
3778125000  -4.334343e+001  1.755095e+002 
3781250000  -4.268367e+001  1.735858e+002 
3784375000  -4.264952e+001  1.723022e+002 
3787500000  -4.190898e+001  1.711568e+002 
3790625000  -4.227940e+001  1.624346e+002 
3793750000  -4.190961e+001  1.612510e+002 
3796875000  -4.114393e+001  1.608264e+002 
3800000000  -3.960039e+001  1.589862e+002 
3803125000  -4.023310e+001  1.475867e+002 
3806250000  -4.082127e+001  1.453674e+002 
3809375000  -4.044411e+001  1.433322e+002 
3812500000  -3.966004e+001  1.357111e+002 
3815625000  -4.050530e+001  1.263054e+002 
3818750000  -4.135060e+001  1.268280e+002 
3821875000  -4.137869e+001  1.339143e+002 
3825000000  -3.907059e+001  1.370148e+002 
3828125000  -3.782792e+001  1.204143e+002 
3831250000  -3.835230e+001  1.051718e+002 
3834375000  -4.021798e+001  1.015158e+002 
3837500000  -4.121666e+001  1.081980e+002 
3840625000  -3.992380e+001  1.058991e+002 
3843750000  -3.878894e+001  9.266870e+001 
3846875000  -3.962968e+001  8.701649e+001 
3850000000  -4.113485e+001  9.123032e+001 
3853125000  -4.002763e+001  9.587247e+001 
3856250000  -4.021734e+001  8.713561e+001 
3859375000  -3.942446e+001  8.297491e+001 
3862500000  -3.949416e+001  7.272817e+001 
3865625000  -3.997215e+001  7.006231e+001 
3868750000  -3.948605e+001  6.915519e+001 
3871875000  -3.899798e+001  6.482543e+001 
3875000000  -3.963082e+001  5.464609e+001 
3878125000  -4.068600e+001  5.453102e+001 
3881250000  -4.063961e+001  5.488026e+001 
3884375000  -4.023840e+001  5.035769e+001 
3887500000  -4.061685e+001  4.678782e+001 
3890625000  -4.076846e+001  4.261512e+001 
3893750000  -4.123888e+001  4.181079e+001 
3896875000  -4.163467e+001  4.272546e+001 
3900000000  -4.206622e+001  4.351546e+001 
3903125000  -4.143377e+001  4.180603e+001 
3906250000  -4.083842e+001  3.743518e+001 
3909375000  -4.047013e+001  3.484776e+001 
3912500000  -4.032659e+001  2.584022e+001 
3915625000  -4.155410e+001  2.852355e+001 
3918750000  -4.116706e+001  2.966243e+001 
3921875000  -4.088226e+001  2.652881e+001 
3925000000  -3.998989e+001  2.194641e+001 
3928125000  -3.906196e+001  1.652172e+001 
3931250000  -3.969357e+001  1.167060e+001 
3934375000  -4.008866e+001  1.070016e+001 
3937500000  -4.015495e+001  9.302643e+000 
3940625000  -4.052319e+001  7.638821e+000 
3943750000  -3.916709e+001  7.313574e+000 
3946875000  -3.799732e+001  -1.589448e-001 
3950000000  -3.903127e+001  -8.507368e+000 
3953125000  -3.967254e+001  -9.567076e+000 
3956250000  -3.875990e+001  -8.525855e+000 
3959375000  -3.763371e+001  -1.140565e+001 
3962500000  -3.704716e+001  -1.735218e+001 
3965625000  -3.693951e+001  -2.634641e+001 
3968750000  -3.795641e+001  -3.448867e+001 
3971875000  -3.835703e+001  -3.850877e+001 
3975000000  -3.775467e+001  -4.017078e+001 
3978125000  -3.758612e+001  -4.235051e+001 
3981250000  -3.773122e+001  -4.937822e+001 
3984375000  -3.811368e+001  -5.507584e+001 
3987500000  -3.861073e+001  -5.850375e+001 
3990625000  -3.867403e+001  -5.994393e+001 
3993750000  -3.874826e+001  -6.403998e+001 
3996875000  -3.883881e+001  -6.776759e+001 
4000000000  -3.935547e+001  -6.865993e+001 
4003125000  -3.970667e+001  -6.681735e+001 
4006250000  -3.826389e+001  -6.937919e+001 
4009375000  -3.731571e+001  -8.202622e+001 
4012500000  -3.881447e+001  -8.824132e+001 
4015625000  -4.016525e+001  -8.901789e+001 
4018750000  -4.009673e+001  -8.592471e+001 
4021875000  -3.939408e+001  -8.753671e+001 
4025000000  -3.927961e+001  -9.410789e+001 
4028125000  -3.905151e+001  -9.669306e+001 
4031250000  -3.958408e+001  -9.935656e+001 
4034375000  -3.981136e+001  -1.014926e+002 
4037500000  -3.957628e+001  -9.966245e+001 
4040625000  -3.936238e+001  -1.015136e+002 
4043750000  -3.953833e+001  -1.033745e+002 
4046875000  -3.908749e+001  -1.041172e+002 
4050000000  -3.854854e+001  -1.112627e+002 
4053125000  -3.929167e+001  -1.123308e+002 
4056250000  -3.936877e+001  -1.109852e+002 
4059375000  -3.787368e+001  -1.089635e+002 
4062500000  -3.681857e+001  -1.142835e+002 
4065625000  -3.666667e+001  -1.195852e+002 
4068750000  -3.621099e+001  -1.259923e+002 
4071875000  -3.563207e+001  -1.352547e+002 
4075000000  -3.592861e+001  -1.407020e+002 
4078125000  -3.668736e+001  -1.443705e+002 
4081250000  -3.603089e+001  -1.472940e+002 
4084375000  -3.562638e+001  -1.555786e+002 
4087500000  -3.589751e+001  -1.626204e+002 
4090625000  -3.671696e+001  -1.632055e+002 
4093750000  -3.634286e+001  -1.649998e+002 
4096875000  -3.595560e+001  -1.725971e+002 
4100000000  -3.686566e+001  -1.799209e+002 
4103125000  -3.762350e+001  -1.797213e+002 
4106250000  -3.747146e+001  -1.749219e+002 
4109375000  -3.634157e+001  -1.760989e+002 
4112500000  -3.597652e+001  1.749495e+002 
4115625000  -3.649250e+001  1.689261e+002 
4118750000  -3.670577e+001  1.651976e+002 
4121875000  -3.624491e+001  1.591884e+002 
4125000000  -3.685581e+001  1.533879e+002 
4128125000  -3.785151e+001  1.546029e+002 
4131250000  -3.745353e+001  1.617670e+002 
4134375000  -3.508643e+001  1.538762e+002 
4137500000  -3.531936e+001  1.345370e+002 
4140625000  -3.761385e+001  1.260951e+002 
4143750000  -3.883536e+001  1.333596e+002 
4146875000  -3.848597e+001  1.368301e+002 
4150000000  -3.758953e+001  1.329488e+002 
4153125000  -3.742840e+001  1.275978e+002 
4156250000  -3.877750e+001  1.236458e+002 
4159375000  -3.876545e+001  1.281770e+002 
4162500000  -3.806193e+001  1.337803e+002 
4165625000  -3.650855e+001  1.277265e+002 
4168750000  -3.604126e+001  1.206769e+002 
4171875000  -3.617078e+001  1.104126e+002 
4175000000  -3.688265e+001  1.045710e+002 
4178125000  -3.744023e+001  1.044966e+002 
4181250000  -3.710295e+001  1.033133e+002 
4184375000  -3.692910e+001  1.002375e+002 
4187500000  -3.689463e+001  9.660822e+001 
4190625000  -3.679654e+001  9.201303e+001 
4193750000  -3.782898e+001  8.685829e+001 
4196875000  -3.835516e+001  8.586521e+001 
4200000000  -3.919984e+001  9.026755e+001 
4203125000  -3.877481e+001  1.034538e+002 
4206250000  -3.540336e+001  9.962149e+001 
4209375000  -3.420971e+001  7.938535e+001 
4212500000  -3.631119e+001  7.046382e+001 
4215625000  -3.714865e+001  7.601858e+001 
4218750000  -3.575882e+001  8.085777e+001 
4221875000  -3.339425e+001  7.222136e+001 
4225000000  -3.464599e+001  5.827251e+001 
4228125000  -3.516278e+001  6.233949e+001 
4231250000  -3.354976e+001  5.737311e+001 
4234375000  -3.326701e+001  4.776305e+001 
4237500000  -3.309154e+001  4.362745e+001 
4240625000  -3.291243e+001  3.305503e+001 
4243750000  -3.406239e+001  2.475036e+001 
4246875000  -3.491850e+001  2.399049e+001 
4250000000  -3.496581e+001  2.565756e+001 
4253125000  -3.436936e+001  2.116606e+001 
4256250000  -3.480935e+001  1.735682e+001 
4259375000  -3.442062e+001  1.417186e+001 
4262500000  -3.454189e+001  9.387608e+000 
4265625000  -3.481731e+001  7.864233e+000 
4268750000  -3.396825e+001  1.328821e+000 
4271875000  -3.388509e+001  -4.602878e+000 
4275000000  -3.352031e+001  -1.281849e+001 
4278125000  -3.428975e+001  -2.432622e+001 
4281250000  -3.618678e+001  -2.681812e+001 
4284375000  -3.570655e+001  -2.667743e+001 
4287500000  -3.693236e+001  -3.004666e+001 
4290625000  -3.801455e+001  -2.055229e+001 
4293750000  -3.614802e+001  -1.719825e+001 
4296875000  -3.500684e+001  -2.710204e+001 
4300000000  -3.628160e+001  -3.780391e+001 
4303125000  -3.725822e+001  -3.503540e+001 
4306250000  -3.654577e+001  -2.935231e+001 
4309375000  -3.521477e+001  -3.101840e+001 
4312500000  -3.502773e+001  -3.965496e+001 
4315625000  -3.531839e+001  -4.569503e+001 
4318750000  -3.580265e+001  -4.869795e+001 
4321875000  -3.582803e+001  -4.827595e+001 
4325000000  -3.515973e+001  -4.753212e+001 
4328125000  -3.449286e+001  -5.371764e+001 
4331250000  -3.431588e+001  -6.308598e+001 
4334375000  -3.463527e+001  -6.865384e+001 
4337500000  -3.545125e+001  -7.112692e+001 
4340625000  -3.589651e+001  -6.836542e+001 
4343750000  -3.492379e+001  -6.789679e+001 
4346875000  -3.474064e+001  -7.480396e+001 
4350000000  -3.455294e+001  -8.101279e+001 
4353125000  -3.467651e+001  -8.833928e+001 
4356250000  -3.649176e+001  -8.970942e+001 
4359375000  -3.676885e+001  -7.520504e+001 
4362500000  -3.346500e+001  -7.628300e+001 
4365625000  -3.185122e+001  -9.090636e+001 
4368750000  -3.282911e+001  -1.040947e+002 
4371875000  -3.384687e+001  -1.031287e+002 
4375000000  -3.327693e+001  -1.055169e+002 
4378125000  -3.269939e+001  -1.111749e+002 
4381250000  -3.287158e+001  -1.196522e+002 
4384375000  -3.261187e+001  -1.260601e+002 
4387500000  -3.358374e+001  -1.327629e+002 
4390625000  -3.438971e+001  -1.324845e+002 
4393750000  -3.376227e+001  -1.318675e+002 
4396875000  -3.319635e+001  -1.362475e+002 
4400000000  -3.273654e+001  -1.443792e+002 
4403125000  -3.363503e+001  -1.540267e+002 
4406250000  -3.430331e+001  -1.561033e+002 
4409375000  -3.449088e+001  -1.592229e+002 
4412500000  -3.567805e+001  -1.632968e+002 
4415625000  -3.599140e+001  -1.591649e+002 
