!Agilent Technologies,E8363B,MY43030201,A.06.04.32
!Agilent E8363B: A.06.04.32
!Date: Tuesday, November 11, 2014 21:07:53
!Correction: S21(Response(S21)) 
!S1P File: Measurement: S21:
# Hz S  dB   R 50
3000000000  -3.640448e+001  -5.399395e+001 
3003125000  -3.756987e+001  -6.019937e+001 
3006250000  -3.738569e+001  -6.267634e+001 
3009375000  -3.774514e+001  -5.731238e+001 
3012500000  -3.687038e+001  -6.032106e+001 
3015625000  -3.616125e+001  -6.735132e+001 
3018750000  -3.688499e+001  -6.774781e+001 
3021875000  -3.548378e+001  -6.715410e+001 
3025000000  -3.413479e+001  -7.087173e+001 
3028125000  -3.320978e+001  -7.726182e+001 
3031250000  -3.218036e+001  -8.834992e+001 
3034375000  -3.184415e+001  -1.022656e+002 
3037500000  -3.228555e+001  -1.139866e+002 
3040625000  -3.365242e+001  -1.188966e+002 
3043750000  -3.424360e+001  -1.234232e+002 
3046875000  -3.445608e+001  -1.300965e+002 
3050000000  -3.620676e+001  -1.358111e+002 
3053125000  -3.606136e+001  -1.298346e+002 
3056250000  -3.563658e+001  -1.266279e+002 
3059375000  -3.577507e+001  -1.268788e+002 
3062500000  -3.411366e+001  -1.303307e+002 
3065625000  -3.395174e+001  -1.369090e+002 
3068750000  -3.365286e+001  -1.436375e+002 
3071875000  -3.351556e+001  -1.459799e+002 
3075000000  -3.327906e+001  -1.500677e+002 
3078125000  -3.315034e+001  -1.538809e+002 
3081250000  -3.361504e+001  -1.586167e+002 
3084375000  -3.260171e+001  -1.619174e+002 
3087500000  -3.251138e+001  -1.656687e+002 
3090625000  -3.198455e+001  -1.756905e+002 
3093750000  -3.244356e+001  1.766904e+002 
3096875000  -3.346887e+001  1.705843e+002 
3100000000  -3.326877e+001  1.686995e+002 
3103125000  -3.362912e+001  1.693540e+002 
3106250000  -3.310587e+001  1.652859e+002 
3109375000  -3.318396e+001  1.607097e+002 
3112500000  -3.315257e+001  1.589774e+002 
3115625000  -3.284476e+001  1.542829e+002 
3118750000  -3.313686e+001  1.543665e+002 
3121875000  -3.226373e+001  1.440626e+002 
3125000000  -3.351297e+001  1.402305e+002 
3128125000  -3.451067e+001  1.480808e+002 
3131250000  -3.201838e+001  1.457611e+002 
3134375000  -3.071491e+001  1.305105e+002 
3137500000  -3.133651e+001  1.160208e+002 
3140625000  -3.286613e+001  1.129262e+002 
3143750000  -3.377911e+001  1.152565e+002 
3146875000  -3.331603e+001  1.160695e+002 
3150000000  -3.231636e+001  1.156620e+002 
3153125000  -3.239153e+001  1.068589e+002 
3156250000  -3.334012e+001  1.118050e+002 
3159375000  -3.164251e+001  1.127526e+002 
3162500000  -2.972735e+001  9.816354e+001 
3165625000  -3.074250e+001  8.560899e+001 
3168750000  -3.106472e+001  8.616676e+001 
3171875000  -3.023745e+001  8.059843e+001 
3175000000  -3.095330e+001  7.210461e+001 
3178125000  -3.069821e+001  7.255353e+001 
3181250000  -2.960777e+001  6.677605e+001 
3184375000  -2.898292e+001  5.442509e+001 
3187500000  -3.021234e+001  3.862769e+001 
3190625000  -3.296472e+001  3.145143e+001 
3193750000  -3.350143e+001  3.968071e+001 
3196875000  -3.299125e+001  4.501442e+001 
3200000000  -3.213012e+001  4.189791e+001 
3203125000  -3.129381e+001  3.533376e+001 
3206250000  -3.169904e+001  2.856811e+001 
3209375000  -3.119895e+001  2.277503e+001 
3212500000  -3.150674e+001  1.567848e+001 
3215625000  -3.150248e+001  1.205643e+001 
3218750000  -3.225343e+001  4.946922e+000 
3221875000  -3.312050e+001  -1.086047e-001 
3225000000  -3.266311e+001  -1.828975e+000 
3228125000  -3.318539e+001  -6.993041e+000 
3231250000  -3.382016e+001  -9.187326e+000 
3234375000  -3.340290e+001  -9.144921e+000 
3237500000  -3.352090e+001  -1.086203e+001 
3240625000  -3.299204e+001  -1.337064e+001 
3243750000  -3.265425e+001  -2.122632e+001 
3246875000  -3.308746e+001  -2.799424e+001 
3250000000  -3.349609e+001  -3.039148e+001 
3253125000  -3.361700e+001  -3.276233e+001 
3256250000  -3.320404e+001  -3.924268e+001 
3259375000  -3.348167e+001  -4.771620e+001 
3262500000  -3.464305e+001  -5.184458e+001 
3265625000  -3.529704e+001  -4.975991e+001 
3268750000  -3.511645e+001  -4.692513e+001 
3271875000  -3.480828e+001  -4.704766e+001 
3275000000  -3.365610e+001  -5.354045e+001 
3278125000  -3.418505e+001  -6.056443e+001 
3281250000  -3.427867e+001  -5.998849e+001 
3284375000  -3.382216e+001  -6.595207e+001 
3287500000  -3.404101e+001  -7.007969e+001 
3290625000  -3.428466e+001  -7.606437e+001 
3293750000  -3.405389e+001  -8.246867e+001 
3296875000  -3.506362e+001  -8.323649e+001 
3300000000  -3.487680e+001  -8.267979e+001 
3303125000  -3.365958e+001  -8.798397e+001 
3306250000  -3.355338e+001  -9.463021e+001 
3309375000  -3.314090e+001  -1.016900e+002 
3312500000  -3.338013e+001  -1.123598e+002 
3315625000  -3.443377e+001  -1.202204e+002 
3318750000  -3.571871e+001  -1.227407e+002 
3321875000  -3.669375e+001  -1.236985e+002 
3325000000  -3.732970e+001  -1.170837e+002 
3328125000  -3.689391e+001  -1.167658e+002 
3331250000  -3.570322e+001  -1.100607e+002 
3334375000  -3.298893e+001  -1.220165e+002 
3337500000  -3.311638e+001  -1.416732e+002 
3340625000  -3.448771e+001  -1.522184e+002 
3343750000  -3.653487e+001  -1.525453e+002 
3346875000  -3.666608e+001  -1.518515e+002 
3350000000  -3.612345e+001  -1.531003e+002 
3353125000  -3.630682e+001  -1.573835e+002 
3356250000  -3.567339e+001  -1.663472e+002 
3359375000  -3.655115e+001  -1.739534e+002 
3362500000  -3.770057e+001  1.796507e+002 
3365625000  -3.808966e+001  1.787927e+002 
3368750000  -3.895490e+001  1.768232e+002 
3371875000  -3.921800e+001  1.737862e+002 
3375000000  -4.060747e+001  1.721603e+002 
3378125000  -4.137741e+001  1.713144e+002 
3381250000  -4.237956e+001  -1.788041e+002 
3384375000  -4.110264e+001  -1.588649e+002 
3387500000  -3.769376e+001  -1.745329e+002 
3390625000  -3.938335e+001  1.655454e+002 
3393750000  -4.049226e+001  1.689780e+002 
3396875000  -3.932639e+001  1.709957e+002 
3400000000  -3.891447e+001  1.631569e+002 
3403125000  -3.949944e+001  1.587873e+002 
3406250000  -3.976769e+001  1.558516e+002 
3409375000  -3.983568e+001  1.488310e+002 
3412500000  -4.027943e+001  1.465192e+002 
3415625000  -4.103719e+001  1.481662e+002 
3418750000  -4.120817e+001  1.476020e+002 
3421875000  -4.131432e+001  1.499649e+002 
3425000000  -4.023042e+001  1.511336e+002 
3428125000  -3.940348e+001  1.471604e+002 
3431250000  -3.952241e+001  1.400632e+002 
3434375000  -3.905110e+001  1.341473e+002 
3437500000  -3.977193e+001  1.301632e+002 
3440625000  -3.993930e+001  1.325229e+002 
3443750000  -3.877125e+001  1.333660e+002 
3446875000  -3.810008e+001  1.248974e+002 
3450000000  -3.770909e+001  1.146133e+002 
3453125000  -3.809431e+001  1.056801e+002 
3456250000  -3.924228e+001  9.847305e+001 
3459375000  -4.000635e+001  9.946444e+001 
3462500000  -4.037348e+001  9.934428e+001 
3465625000  -3.993888e+001  9.363510e+001 
3468750000  -4.036010e+001  9.052013e+001 
3471875000  -4.037241e+001  8.780750e+001 
3475000000  -4.004729e+001  8.334180e+001 
3478125000  -4.090316e+001  7.699680e+001 
3481250000  -4.145582e+001  7.475658e+001 
3484375000  -4.257803e+001  7.544305e+001 
3487500000  -4.163408e+001  7.772488e+001 
3490625000  -4.085957e+001  7.278867e+001 
3493750000  -4.147866e+001  6.632864e+001 
3496875000  -4.225502e+001  6.353059e+001 
3500000000  -4.241269e+001  6.764087e+001 
3503125000  -4.236383e+001  7.055274e+001 
3506250000  -4.087088e+001  6.783478e+001 
3509375000  -4.104677e+001  5.631080e+001 
3512500000  -4.125068e+001  4.799906e+001 
3515625000  -4.189914e+001  4.555719e+001 
3518750000  -4.272117e+001  4.647390e+001 
3521875000  -4.234679e+001  4.378711e+001 
3525000000  -4.339457e+001  4.192818e+001 
3528125000  -4.330133e+001  4.916858e+001 
3531250000  -4.187324e+001  4.603204e+001 
3534375000  -4.185549e+001  3.535276e+001 
3537500000  -4.191749e+001  3.006984e+001 
3540625000  -4.327410e+001  2.851915e+001 
3543750000  -4.401453e+001  3.168162e+001 
3546875000  -4.357072e+001  4.275879e+001 
3550000000  -4.095823e+001  4.420530e+001 
3553125000  -3.976124e+001  2.658806e+001 
3556250000  -4.124244e+001  2.063523e+001 
3559375000  -4.105982e+001  1.851265e+001 
3562500000  -3.983526e+001  1.064694e+001 
3565625000  -4.060905e+001  1.929724e+000 
3568750000  -4.102836e+001  5.887304e+000 
3571875000  -4.109852e+001  3.675946e+000 
3575000000  -4.038937e+001  -2.921920e+000 
3578125000  -4.103076e+001  -1.018322e+001 
3581250000  -4.127335e+001  -8.895542e+000 
3584375000  -4.039905e+001  -1.369704e+001 
3587500000  -3.980248e+001  -2.102575e+001 
3590625000  -4.056707e+001  -3.273564e+001 
3593750000  -4.186930e+001  -3.312788e+001 
3596875000  -4.202445e+001  -2.655045e+001 
3600000000  -4.030434e+001  -3.414926e+001 
3603125000  -4.104195e+001  -4.826520e+001 
3606250000  -4.182937e+001  -5.376407e+001 
3609375000  -4.224533e+001  -5.442385e+001 
3612500000  -4.312810e+001  -5.685258e+001 
3615625000  -4.356716e+001  -6.211290e+001 
3618750000  -4.445152e+001  -6.030899e+001 
3621875000  -4.418682e+001  -6.230817e+001 
3625000000  -4.476308e+001  -6.172307e+001 
3628125000  -4.475145e+001  -6.604463e+001 
3631250000  -4.445944e+001  -6.728588e+001 
3634375000  -4.630098e+001  -6.973868e+001 
3637500000  -4.587637e+001  -5.956366e+001 
3640625000  -4.528159e+001  -6.026266e+001 
3643750000  -4.467059e+001  -6.116675e+001 
3646875000  -4.499228e+001  -6.977835e+001 
3650000000  -4.642056e+001  -6.652927e+001 
3653125000  -4.510334e+001  -7.071058e+001 
3656250000  -4.509536e+001  -7.020263e+001 
3659375000  -4.546508e+001  -6.548779e+001 
3662500000  -4.492735e+001  -6.879391e+001 
3665625000  -4.445897e+001  -7.021340e+001 
3668750000  -4.326670e+001  -7.260227e+001 
3671875000  -4.206431e+001  -7.941074e+001 
3675000000  -4.222229e+001  -8.669906e+001 
3678125000  -4.278237e+001  -8.719878e+001 
3681250000  -4.244407e+001  -8.951711e+001 
3684375000  -4.221963e+001  -9.657524e+001 
3687500000  -4.245319e+001  -1.015042e+002 
3690625000  -4.243188e+001  -1.055612e+002 
3693750000  -4.376067e+001  -1.052163e+002 
3696875000  -4.329268e+001  -1.039610e+002 
3700000000  -4.243538e+001  -1.130994e+002 
3703125000  -4.278200e+001  -1.153168e+002 
3706250000  -4.325433e+001  -1.178433e+002 
3709375000  -4.331883e+001  -1.162936e+002 
3712500000  -4.242570e+001  -1.170497e+002 
3715625000  -4.120328e+001  -1.261621e+002 
3718750000  -4.128505e+001  -1.306748e+002 
3721875000  -4.118655e+001  -1.388758e+002 
3725000000  -4.150976e+001  -1.437106e+002 
3728125000  -4.237664e+001  -1.463546e+002 
3731250000  -4.195953e+001  -1.476368e+002 
3734375000  -4.171178e+001  -1.549197e+002 
3737500000  -4.231042e+001  -1.614719e+002 
3740625000  -4.366872e+001  -1.641842e+002 
3743750000  -4.341953e+001  -1.684608e+002 
3746875000  -4.409060e+001  -1.681951e+002 
3750000000  -4.473488e+001  -1.668164e+002 
3753125000  -4.460064e+001  -1.676777e+002 
3756250000  -4.494957e+001  -1.687530e+002 
3759375000  -4.504762e+001  -1.644710e+002 
3762500000  -4.447051e+001  -1.662675e+002 
3765625000  -4.500187e+001  -1.687107e+002 
3768750000  -4.490887e+001  -1.641869e+002 
3771875000  -4.344163e+001  -1.633667e+002 
3775000000  -4.317192e+001  -1.725426e+002 
3778125000  -4.308438e+001  -1.731828e+002 
3781250000  -4.274956e+001  -1.761376e+002 
3784375000  -4.256532e+001  -1.771451e+002 
3787500000  -4.183122e+001  -1.799124e+002 
3790625000  -4.193778e+001  1.744474e+002 
3793750000  -4.200834e+001  1.723952e+002 
3796875000  -4.081677e+001  1.698173e+002 
3800000000  -3.929637e+001  1.685482e+002 
3803125000  -4.002502e+001  1.576889e+002 
3806250000  -4.060593e+001  1.561022e+002 
3809375000  -4.026664e+001  1.521824e+002 
3812500000  -3.938354e+001  1.464401e+002 
3815625000  -3.998727e+001  1.359241e+002 
3818750000  -4.119295e+001  1.357406e+002 
3821875000  -4.088361e+001  1.438529e+002 
3825000000  -3.908406e+001  1.443648e+002 
3828125000  -3.791015e+001  1.296170e+002 
3831250000  -3.849979e+001  1.141970e+002 
3834375000  -3.997147e+001  1.126233e+002 
3837500000  -4.106524e+001  1.169549e+002 
3840625000  -3.960583e+001  1.134366e+002 
3843750000  -3.865894e+001  1.036425e+002 
3846875000  -3.956621e+001  9.434897e+001 
3850000000  -4.104930e+001  9.992339e+001 
3853125000  -4.007272e+001  1.018136e+002 
3856250000  -4.055336e+001  9.487943e+001 
3859375000  -3.948857e+001  9.055594e+001 
3862500000  -3.946308e+001  8.206113e+001 
3865625000  -4.011459e+001  7.636332e+001 
3868750000  -3.987441e+001  7.631996e+001 
3871875000  -3.949477e+001  7.361592e+001 
3875000000  -3.944704e+001  6.442268e+001 
3878125000  -4.094578e+001  5.938016e+001 
3881250000  -4.086629e+001  6.531853e+001 
3884375000  -4.044121e+001  6.045026e+001 
3887500000  -4.049508e+001  5.677378e+001 
3890625000  -4.130025e+001  5.417830e+001 
3893750000  -4.144145e+001  5.198169e+001 
3896875000  -4.187822e+001  5.200780e+001 
3900000000  -4.181691e+001  5.383746e+001 
3903125000  -4.148221e+001  5.109080e+001 
3906250000  -4.087648e+001  4.850492e+001 
3909375000  -4.015004e+001  4.516696e+001 
3912500000  -4.014878e+001  3.772446e+001 
3915625000  -4.172067e+001  3.764711e+001 
3918750000  -4.104854e+001  3.963345e+001 
3921875000  -4.066336e+001  3.626220e+001 
3925000000  -3.957069e+001  3.336472e+001 
3928125000  -3.920903e+001  2.693298e+001 
3931250000  -3.937981e+001  2.192945e+001 
3934375000  -3.972343e+001  2.049005e+001 
3937500000  -3.967605e+001  1.971489e+001 
3940625000  -4.036309e+001  1.572014e+001 
3943750000  -3.921577e+001  1.676028e+001 
3946875000  -3.832568e+001  1.025788e+001 
3950000000  -3.882670e+001  8.570840e-001 
3953125000  -3.956918e+001  -1.263603e+000 
3956250000  -3.863099e+001  3.355569e+000 
3959375000  -3.744454e+001  -1.778315e+000 
3962500000  -3.701987e+001  -8.498784e+000 
3965625000  -3.686469e+001  -1.708460e+001 
3968750000  -3.788321e+001  -2.712009e+001 
3971875000  -3.817122e+001  -2.686454e+001 
3975000000  -3.758403e+001  -3.061268e+001 
3978125000  -3.762432e+001  -3.491334e+001 
3981250000  -3.749551e+001  -3.919815e+001 
3984375000  -3.787241e+001  -4.730762e+001 
3987500000  -3.827166e+001  -4.883425e+001 
3990625000  -3.839764e+001  -5.056008e+001 
3993750000  -3.894529e+001  -5.590218e+001 
3996875000  -3.911888e+001  -5.759299e+001 
4000000000  -3.924950e+001  -6.052145e+001 
4003125000  -3.989792e+001  -5.820291e+001 
4006250000  -3.830889e+001  -6.042013e+001 
4009375000  -3.759841e+001  -7.330099e+001 
4012500000  -3.870700e+001  -8.076593e+001 
4015625000  -4.015015e+001  -7.831096e+001 
4018750000  -4.049218e+001  -7.942255e+001 
4021875000  -3.940180e+001  -7.991570e+001 
4025000000  -3.938647e+001  -8.416180e+001 
4028125000  -3.951557e+001  -8.766814e+001 
4031250000  -3.971184e+001  -9.050102e+001 
4034375000  -4.012273e+001  -9.099190e+001 
4037500000  -3.955503e+001  -9.048141e+001 
4040625000  -3.960225e+001  -9.055434e+001 
4043750000  -3.978613e+001  -9.321827e+001 
4046875000  -3.896180e+001  -9.474948e+001 
4050000000  -3.842279e+001  -1.009503e+002 
4053125000  -3.906707e+001  -1.032083e+002 
4056250000  -3.955170e+001  -9.856208e+001 
4059375000  -3.822679e+001  -9.803276e+001 
4062500000  -3.684888e+001  -1.029637e+002 
4065625000  -3.663524e+001  -1.083688e+002 
4068750000  -3.631498e+001  -1.145609e+002 
4071875000  -3.547219e+001  -1.241044e+002 
4075000000  -3.591948e+001  -1.313298e+002 
4078125000  -3.637819e+001  -1.332511e+002 
4081250000  -3.593610e+001  -1.370739e+002 
4084375000  -3.533199e+001  -1.447113e+002 
4087500000  -3.594068e+001  -1.525222e+002 
4090625000  -3.655362e+001  -1.537488e+002 
4093750000  -3.620078e+001  -1.550179e+002 
4096875000  -3.587350e+001  -1.626460e+002 
4100000000  -3.674403e+001  -1.701883e+002 
4103125000  -3.743275e+001  -1.701813e+002 
4106250000  -3.743999e+001  -1.668346e+002 
4109375000  -3.642870e+001  -1.685605e+002 
4112500000  -3.591275e+001  -1.768940e+002 
4115625000  -3.633801e+001  1.776998e+002 
4118750000  -3.648714e+001  1.741328e+002 
4121875000  -3.613049e+001  1.693208e+002 
4125000000  -3.662807e+001  1.626956e+002 
4128125000  -3.768309e+001  1.628696e+002 
4131250000  -3.752244e+001  1.688833e+002 
4134375000  -3.514855e+001  1.622141e+002 
4137500000  -3.518336e+001  1.434749e+002 
4140625000  -3.760591e+001  1.361316e+002 
4143750000  -3.889517e+001  1.393885e+002 
4146875000  -3.862366e+001  1.454995e+002 
4150000000  -3.773043e+001  1.442119e+002 
4153125000  -3.758950e+001  1.357775e+002 
4156250000  -3.873493e+001  1.326204e+002 
4159375000  -3.907207e+001  1.377260e+002 
4162500000  -3.800714e+001  1.426075e+002 
4165625000  -3.696289e+001  1.382114e+002 
4168750000  -3.624604e+001  1.295725e+002 
4171875000  -3.639476e+001  1.206378e+002 
4175000000  -3.708758e+001  1.161821e+002 
4178125000  -3.754468e+001  1.154317e+002 
4181250000  -3.721613e+001  1.146564e+002 
4184375000  -3.723972e+001  1.116364e+002 
4187500000  -3.707703e+001  1.086972e+002 
4190625000  -3.696487e+001  1.023723e+002 
4193750000  -3.761935e+001  9.870013e+001 
4196875000  -3.829903e+001  9.912224e+001 
4200000000  -3.930140e+001  1.004638e+002 
4203125000  -3.864795e+001  1.121599e+002 
4206250000  -3.507660e+001  1.127814e+002 
4209375000  -3.429253e+001  9.112478e+001 
4212500000  -3.613398e+001  8.284057e+001 
4215625000  -3.692642e+001  8.809475e+001 
4218750000  -3.535802e+001  9.292345e+001 
4221875000  -3.307430e+001  8.092095e+001 
4225000000  -3.450554e+001  6.840481e+001 
4228125000  -3.486380e+001  7.240978e+001 
4231250000  -3.341281e+001  6.811366e+001 
4234375000  -3.320267e+001  5.834648e+001 
4237500000  -3.280547e+001  5.407487e+001 
4240625000  -3.298884e+001  4.369230e+001 
4243750000  -3.386136e+001  3.452382e+001 
4246875000  -3.476211e+001  3.392406e+001 
4250000000  -3.487077e+001  3.650371e+001 
4253125000  -3.431790e+001  3.230505e+001 
4256250000  -3.464520e+001  2.664227e+001 
4259375000  -3.449530e+001  2.293667e+001 
4262500000  -3.448825e+001  1.864678e+001 
4265625000  -3.479282e+001  1.737037e+001 
4268750000  -3.387821e+001  1.099117e+001 
4271875000  -3.374432e+001  4.097063e+000 
4275000000  -3.338817e+001  -3.752711e+000 
4278125000  -3.422584e+001  -1.516787e+001 
4281250000  -3.616325e+001  -1.711949e+001 
4284375000  -3.568948e+001  -1.765467e+001 
4287500000  -3.696620e+001  -2.176910e+001 
4290625000  -3.828620e+001  -1.298948e+001 
4293750000  -3.660352e+001  -7.623967e+000 
4296875000  -3.529942e+001  -1.969164e+001 
4300000000  -3.639146e+001  -2.779851e+001 
4303125000  -3.762346e+001  -2.631055e+001 
4306250000  -3.676323e+001  -2.070918e+001 
4309375000  -3.562226e+001  -2.149578e+001 
4312500000  -3.537770e+001  -3.004083e+001 
4315625000  -3.557166e+001  -3.537188e+001 
4318750000  -3.599823e+001  -3.872194e+001 
4321875000  -3.593463e+001  -3.848524e+001 
4325000000  -3.555120e+001  -3.709070e+001 
4328125000  -3.469899e+001  -4.345906e+001 
4331250000  -3.452667e+001  -5.187659e+001 
4334375000  -3.491297e+001  -5.709928e+001 
4337500000  -3.567482e+001  -6.012973e+001 
4340625000  -3.596319e+001  -5.653286e+001 
4343750000  -3.517366e+001  -5.656758e+001 
4346875000  -3.472181e+001  -6.248884e+001 
4350000000  -3.473734e+001  -6.812502e+001 
4353125000  -3.460939e+001  -7.793667e+001 
4356250000  -3.634433e+001  -7.860796e+001 
4359375000  -3.656216e+001  -6.534430e+001 
4362500000  -3.339669e+001  -6.637817e+001 
4365625000  -3.196768e+001  -7.912218e+001 
4368750000  -3.261060e+001  -9.313741e+001 
4371875000  -3.390745e+001  -9.308423e+001 
4375000000  -3.335268e+001  -9.385905e+001 
4378125000  -3.265167e+001  -1.006423e+002 
4381250000  -3.289980e+001  -1.094032e+002 
4384375000  -3.257479e+001  -1.136929e+002 
4387500000  -3.335539e+001  -1.216982e+002 
4390625000  -3.426675e+001  -1.231244e+002 
4393750000  -3.373599e+001  -1.216215e+002 
4396875000  -3.306123e+001  -1.263202e+002 
4400000000  -3.267790e+001  -1.339632e+002 
4403125000  -3.341592e+001  -1.433181e+002 
4406250000  -3.409306e+001  -1.466346e+002 
4409375000  -3.436481e+001  -1.497743e+002 
4412500000  -3.566589e+001  -1.533663e+002 
4415625000  -3.593088e+001  -1.484927e+002 
