!Agilent Technologies,E8363B,MY43030201,A.06.04.32
!Agilent E8363B: A.06.04.32
!Date: Tuesday, November 11, 2014 21:07:56
!Correction: S21(Response(S21)) 
!S1P File: Measurement: S21:
# Hz S  dB   R 50
3000000000  -3.640896e+001  -5.273815e+001 
3003125000  -3.766675e+001  -5.944594e+001 
3006250000  -3.750508e+001  -6.152578e+001 
3009375000  -3.778512e+001  -5.729185e+001 
3012500000  -3.711999e+001  -5.925903e+001 
3015625000  -3.608218e+001  -6.643424e+001 
3018750000  -3.684631e+001  -6.759119e+001 
3021875000  -3.555739e+001  -6.619725e+001 
3025000000  -3.417457e+001  -6.946631e+001 
3028125000  -3.321357e+001  -7.654224e+001 
3031250000  -3.211283e+001  -8.823863e+001 
3034375000  -3.179971e+001  -1.017901e+002 
3037500000  -3.225723e+001  -1.133667e+002 
3040625000  -3.363859e+001  -1.183707e+002 
3043750000  -3.426389e+001  -1.233482e+002 
3046875000  -3.443034e+001  -1.295258e+002 
3050000000  -3.614716e+001  -1.355212e+002 
3053125000  -3.612514e+001  -1.296494e+002 
3056250000  -3.550400e+001  -1.258121e+002 
3059375000  -3.571100e+001  -1.273095e+002 
3062500000  -3.414350e+001  -1.300746e+002 
3065625000  -3.398072e+001  -1.363705e+002 
3068750000  -3.356126e+001  -1.435394e+002 
3071875000  -3.351109e+001  -1.452519e+002 
3075000000  -3.327963e+001  -1.501084e+002 
3078125000  -3.306496e+001  -1.534984e+002 
3081250000  -3.360414e+001  -1.580547e+002 
3084375000  -3.263027e+001  -1.620900e+002 
3087500000  -3.246312e+001  -1.658729e+002 
3090625000  -3.194794e+001  -1.758049e+002 
3093750000  -3.239271e+001  1.769723e+002 
3096875000  -3.344531e+001  1.706517e+002 
3100000000  -3.330635e+001  1.685784e+002 
3103125000  -3.365521e+001  1.693907e+002 
3106250000  -3.316920e+001  1.648687e+002 
3109375000  -3.319998e+001  1.611394e+002 
3112500000  -3.317967e+001  1.586592e+002 
3115625000  -3.289349e+001  1.544201e+002 
3118750000  -3.318985e+001  1.541903e+002 
3121875000  -3.230450e+001  1.450063e+002 
3125000000  -3.354217e+001  1.405509e+002 
3128125000  -3.448310e+001  1.472031e+002 
3131250000  -3.201408e+001  1.460753e+002 
3134375000  -3.069468e+001  1.311246e+002 
3137500000  -3.133409e+001  1.168781e+002 
3140625000  -3.278117e+001  1.136707e+002 
3143750000  -3.385090e+001  1.156782e+002 
3146875000  -3.324306e+001  1.162428e+002 
3150000000  -3.225550e+001  1.164951e+002 
3153125000  -3.239837e+001  1.072912e+002 
3156250000  -3.334332e+001  1.123768e+002 
3159375000  -3.158455e+001  1.130772e+002 
3162500000  -2.974211e+001  9.851374e+001 
3165625000  -3.075975e+001  8.610165e+001 
3168750000  -3.101871e+001  8.660406e+001 
3171875000  -3.018772e+001  8.077758e+001 
3175000000  -3.096235e+001  7.206331e+001 
3178125000  -3.062469e+001  7.274806e+001 
3181250000  -2.955251e+001  6.702551e+001 
3184375000  -2.894739e+001  5.471311e+001 
3187500000  -3.023437e+001  3.978646e+001 
3190625000  -3.282518e+001  3.084385e+001 
3193750000  -3.331425e+001  4.002993e+001 
3196875000  -3.303287e+001  4.517538e+001 
3200000000  -3.207342e+001  4.233479e+001 
3203125000  -3.124742e+001  3.532283e+001 
3206250000  -3.161475e+001  2.867488e+001 
3209375000  -3.119337e+001  2.308722e+001 
3212500000  -3.138278e+001  1.597513e+001 
3215625000  -3.145493e+001  1.256717e+001 
3218750000  -3.219479e+001  4.525086e+000 
3221875000  -3.302662e+001  -1.893759e-002 
3225000000  -3.257226e+001  -1.198124e+000 
3228125000  -3.302128e+001  -7.128639e+000 
3231250000  -3.366027e+001  -9.431478e+000 
3234375000  -3.345480e+001  -8.886280e+000 
3237500000  -3.344547e+001  -1.075902e+001 
3240625000  -3.297180e+001  -1.373347e+001 
3243750000  -3.262634e+001  -2.143594e+001 
3246875000  -3.299504e+001  -2.840304e+001 
3250000000  -3.346736e+001  -3.071166e+001 
3253125000  -3.355738e+001  -3.258809e+001 
3256250000  -3.315251e+001  -3.963109e+001 
3259375000  -3.340729e+001  -4.811576e+001 
3262500000  -3.459787e+001  -5.153017e+001 
3265625000  -3.524242e+001  -4.938333e+001 
3268750000  -3.502397e+001  -4.657220e+001 
3271875000  -3.471196e+001  -4.778461e+001 
3275000000  -3.371136e+001  -5.447272e+001 
3278125000  -3.423673e+001  -6.112374e+001 
3281250000  -3.436139e+001  -5.943060e+001 
3284375000  -3.388176e+001  -6.627264e+001 
3287500000  -3.407291e+001  -7.059309e+001 
3290625000  -3.427263e+001  -7.652381e+001 
3293750000  -3.407842e+001  -8.258909e+001 
3296875000  -3.516884e+001  -8.280373e+001 
3300000000  -3.487859e+001  -8.265504e+001 
3303125000  -3.374316e+001  -8.775165e+001 
3306250000  -3.345545e+001  -9.486776e+001 
3309375000  -3.320267e+001  -1.011844e+002 
3312500000  -3.336859e+001  -1.119358e+002 
3315625000  -3.434115e+001  -1.208654e+002 
3318750000  -3.574543e+001  -1.227957e+002 
3321875000  -3.686604e+001  -1.236797e+002 
3325000000  -3.726609e+001  -1.176184e+002 
3328125000  -3.682088e+001  -1.174933e+002 
3331250000  -3.569664e+001  -1.097702e+002 
3334375000  -3.298472e+001  -1.214941e+002 
3337500000  -3.319608e+001  -1.414648e+002 
3340625000  -3.450759e+001  -1.515644e+002 
3343750000  -3.657722e+001  -1.528195e+002 
3346875000  -3.666511e+001  -1.510304e+002 
3350000000  -3.596672e+001  -1.529868e+002 
3353125000  -3.586678e+001  -1.576777e+002 
3356250000  -3.560923e+001  -1.653762e+002 
3359375000  -3.651767e+001  -1.743801e+002 
3362500000  -3.763433e+001  1.794105e+002 
3365625000  -3.797067e+001  1.776234e+002 
3368750000  -3.880932e+001  1.761363e+002 
3371875000  -3.904190e+001  1.733549e+002 
3375000000  -4.042509e+001  1.702912e+002 
3378125000  -4.133729e+001  1.703992e+002 
3381250000  -4.249078e+001  -1.797621e+002 
3384375000  -4.113321e+001  -1.599807e+002 
3387500000  -3.751874e+001  -1.759392e+002 
3390625000  -3.933827e+001  1.651493e+002 
3393750000  -4.036925e+001  1.689410e+002 
3396875000  -3.924037e+001  1.703362e+002 
3400000000  -3.868079e+001  1.622173e+002 
3403125000  -3.939619e+001  1.569483e+002 
3406250000  -3.971666e+001  1.573668e+002 
3409375000  -3.988454e+001  1.490592e+002 
3412500000  -4.037225e+001  1.455887e+002 
3415625000  -4.083244e+001  1.472956e+002 
3418750000  -4.113245e+001  1.487116e+002 
3421875000  -4.132481e+001  1.513201e+002 
3425000000  -4.040586e+001  1.509435e+002 
3428125000  -3.921870e+001  1.483173e+002 
3431250000  -3.928375e+001  1.405873e+002 
3434375000  -3.908566e+001  1.336468e+002 
3437500000  -3.970490e+001  1.304749e+002 
3440625000  -4.011194e+001  1.315711e+002 
3443750000  -3.878954e+001  1.331597e+002 
3446875000  -3.797470e+001  1.251888e+002 
3450000000  -3.758549e+001  1.149416e+002 
3453125000  -3.780533e+001  1.044701e+002 
3456250000  -3.924519e+001  9.784277e+001 
3459375000  -4.004493e+001  9.971324e+001 
3462500000  -3.991139e+001  1.000051e+002 
3465625000  -3.986309e+001  9.369508e+001 
3468750000  -4.005582e+001  8.924536e+001 
3471875000  -4.019852e+001  8.823560e+001 
3475000000  -3.978853e+001  8.365796e+001 
3478125000  -4.045139e+001  7.459059e+001 
3481250000  -4.129177e+001  7.166406e+001 
3484375000  -4.232965e+001  7.751150e+001 
3487500000  -4.154603e+001  7.730267e+001 
3490625000  -4.084883e+001  7.208530e+001 
3493750000  -4.136814e+001  6.489371e+001 
3496875000  -4.213261e+001  6.352226e+001 
3500000000  -4.241221e+001  6.786980e+001 
3503125000  -4.220652e+001  7.014686e+001 
3506250000  -4.080240e+001  6.289835e+001 
3509375000  -4.088150e+001  5.394604e+001 
3512500000  -4.123654e+001  4.532847e+001 
3515625000  -4.195705e+001  4.215652e+001 
3518750000  -4.267381e+001  4.438439e+001 
3521875000  -4.246081e+001  4.048785e+001 
3525000000  -4.365767e+001  3.886672e+001 
3528125000  -4.368643e+001  4.728703e+001 
3531250000  -4.214202e+001  4.517423e+001 
3534375000  -4.193725e+001  3.477513e+001 
3537500000  -4.259108e+001  2.721250e+001 
3540625000  -4.342035e+001  2.692361e+001 
3543750000  -4.415139e+001  2.985324e+001 
3546875000  -4.432779e+001  4.439525e+001 
3550000000  -4.124325e+001  4.373338e+001 
3553125000  -3.984967e+001  2.546210e+001 
3556250000  -4.127288e+001  1.866111e+001 
3559375000  -4.121558e+001  2.042152e+001 
3562500000  -4.014316e+001  1.270972e+001 
3565625000  -4.083399e+001  3.560751e+000 
3568750000  -4.108963e+001  7.305110e+000 
3571875000  -4.096287e+001  4.769131e+000 
3575000000  -4.059092e+001  -3.671097e+000 
3578125000  -4.133957e+001  -5.763527e+000 
3581250000  -4.132620e+001  -9.022922e+000 
3584375000  -4.043781e+001  -1.171601e+001 
3587500000  -3.988844e+001  -1.846633e+001 
3590625000  -4.052483e+001  -3.170399e+001 
3593750000  -4.171729e+001  -3.447484e+001 
3596875000  -4.179199e+001  -2.706630e+001 
3600000000  -4.030220e+001  -3.283763e+001 
3603125000  -4.084412e+001  -4.678314e+001 
3606250000  -4.208347e+001  -5.096758e+001 
3609375000  -4.235227e+001  -5.432230e+001 
3612500000  -4.271215e+001  -5.757281e+001 
3615625000  -4.308387e+001  -6.048733e+001 
3618750000  -4.407552e+001  -5.867324e+001 
3621875000  -4.377936e+001  -6.312941e+001 
3625000000  -4.427608e+001  -6.279572e+001 
3628125000  -4.443616e+001  -6.284098e+001 
3631250000  -4.437975e+001  -6.929687e+001 
3634375000  -4.567532e+001  -7.196811e+001 
3637500000  -4.594966e+001  -6.501983e+001 
3640625000  -4.497641e+001  -6.156150e+001 
3643750000  -4.436187e+001  -6.709808e+001 
3646875000  -4.493251e+001  -7.198861e+001 
3650000000  -4.570275e+001  -7.250775e+001 
3653125000  -4.534409e+001  -7.475244e+001 
3656250000  -4.586969e+001  -7.377774e+001 
3659375000  -4.577435e+001  -7.065265e+001 
3662500000  -4.502505e+001  -7.286543e+001 
3665625000  -4.412004e+001  -7.408414e+001 
3668750000  -4.372279e+001  -7.271925e+001 
3671875000  -4.274445e+001  -8.064702e+001 
3675000000  -4.294245e+001  -8.707941e+001 
3678125000  -4.270915e+001  -8.874516e+001 
3681250000  -4.287262e+001  -9.159456e+001 
3684375000  -4.248051e+001  -9.731004e+001 
3687500000  -4.296522e+001  -1.004351e+002 
3690625000  -4.305997e+001  -1.036228e+002 
3693750000  -4.399915e+001  -1.042562e+002 
3696875000  -4.368523e+001  -1.047622e+002 
3700000000  -4.252358e+001  -1.097190e+002 
3703125000  -4.295429e+001  -1.142125e+002 
3706250000  -4.351709e+001  -1.161609e+002 
3709375000  -4.355622e+001  -1.114983e+002 
3712500000  -4.228761e+001  -1.167933e+002 
3715625000  -4.153596e+001  -1.243143e+002 
3718750000  -4.127402e+001  -1.287934e+002 
3721875000  -4.112987e+001  -1.344842e+002 
3725000000  -4.189923e+001  -1.428389e+002 
3728125000  -4.212902e+001  -1.434605e+002 
3731250000  -4.161279e+001  -1.471447e+002 
3734375000  -4.115541e+001  -1.511722e+002 
3737500000  -4.197113e+001  -1.603939e+002 
3740625000  -4.378177e+001  -1.615057e+002 
3743750000  -4.296046e+001  -1.663539e+002 
3746875000  -4.362358e+001  -1.674167e+002 
3750000000  -4.463580e+001  -1.667786e+002 
3753125000  -4.436253e+001  -1.671797e+002 
3756250000  -4.464816e+001  -1.688399e+002 
3759375000  -4.484677e+001  -1.658496e+002 
3762500000  -4.425277e+001  -1.697516e+002 
3765625000  -4.503579e+001  -1.687975e+002 
3768750000  -4.500586e+001  -1.640116e+002 
3771875000  -4.337710e+001  -1.653035e+002 
3775000000  -4.293613e+001  -1.731848e+002 
3778125000  -4.345552e+001  -1.780074e+002 
3781250000  -4.293645e+001  -1.769380e+002 
3784375000  -4.285033e+001  -1.781010e+002 
3787500000  -4.188142e+001  1.770015e+002 
3790625000  -4.233374e+001  1.727475e+002 
3793750000  -4.212708e+001  1.727638e+002 
3796875000  -4.131823e+001  1.689585e+002 
3800000000  -3.951190e+001  1.676192e+002 
3803125000  -4.019479e+001  1.581081e+002 
3806250000  -4.079924e+001  1.560965e+002 
3809375000  -4.037495e+001  1.532682e+002 
3812500000  -3.951019e+001  1.462892e+002 
3815625000  -4.032751e+001  1.366161e+002 
3818750000  -4.122838e+001  1.369892e+002 
3821875000  -4.134379e+001  1.437793e+002 
3825000000  -3.950216e+001  1.467530e+002 
3828125000  -3.790587e+001  1.280090e+002 
3831250000  -3.845976e+001  1.149489e+002 
3834375000  -4.039857e+001  1.148470e+002 
3837500000  -4.108257e+001  1.188284e+002 
3840625000  -4.011194e+001  1.149567e+002 
3843750000  -3.876255e+001  1.024749e+002 
3846875000  -3.973341e+001  9.615760e+001 
3850000000  -4.106111e+001  1.025889e+002 
3853125000  -4.011438e+001  1.017835e+002 
3856250000  -4.021191e+001  9.819296e+001 
3859375000  -3.969916e+001  9.039786e+001 
3862500000  -3.917463e+001  8.183968e+001 
3865625000  -3.963658e+001  7.762934e+001 
3868750000  -3.979914e+001  7.788306e+001 
3871875000  -3.930585e+001  7.368925e+001 
3875000000  -3.934198e+001  6.483841e+001 
3878125000  -4.066258e+001  6.280878e+001 
3881250000  -4.062911e+001  6.498968e+001 
3884375000  -4.031815e+001  5.925683e+001 
3887500000  -4.034364e+001  5.522058e+001 
3890625000  -4.103688e+001  5.202268e+001 
3893750000  -4.114914e+001  5.099298e+001 
3896875000  -4.189483e+001  5.518476e+001 
3900000000  -4.189952e+001  5.096620e+001 
3903125000  -4.114072e+001  4.655312e+001 
3906250000  -4.085994e+001  4.764767e+001 
3909375000  -4.019454e+001  4.343514e+001 
3912500000  -4.045345e+001  3.621469e+001 
3915625000  -4.110406e+001  3.695235e+001 
3918750000  -4.073416e+001  3.949119e+001 
3921875000  -4.031148e+001  3.536543e+001 
3925000000  -3.945619e+001  3.252419e+001 
3928125000  -3.921977e+001  2.533301e+001 
3931250000  -3.969101e+001  1.991073e+001 
3934375000  -3.976177e+001  1.967010e+001 
3937500000  -4.021094e+001  1.789700e+001 
3940625000  -4.055678e+001  1.715333e+001 
3943750000  -3.936241e+001  1.648272e+001 
3946875000  -3.811081e+001  1.189171e+001 
3950000000  -3.906411e+001  1.481819e+000 
3953125000  -3.950588e+001  -7.075809e-001 
3956250000  -3.880066e+001  1.259732e+000 
3959375000  -3.759188e+001  -1.432198e+000 
3962500000  -3.721101e+001  -7.326122e+000 
3965625000  -3.701492e+001  -1.733813e+001 
3968750000  -3.793607e+001  -2.585172e+001 
3971875000  -3.825285e+001  -2.761772e+001 
3975000000  -3.780722e+001  -2.913955e+001 
3978125000  -3.786893e+001  -3.275031e+001 
3981250000  -3.778839e+001  -3.830963e+001 
3984375000  -3.797179e+001  -4.509044e+001 
3987500000  -3.852695e+001  -4.807283e+001 
3990625000  -3.850805e+001  -5.032442e+001 
3993750000  -3.894397e+001  -5.394718e+001 
3996875000  -3.888567e+001  -5.711453e+001 
4000000000  -3.916595e+001  -5.958314e+001 
4003125000  -3.966483e+001  -5.637650e+001 
4006250000  -3.825126e+001  -5.953154e+001 
4009375000  -3.735141e+001  -7.266823e+001 
4012500000  -3.852482e+001  -7.902556e+001 
4015625000  -3.993705e+001  -7.699184e+001 
4018750000  -4.014669e+001  -7.608246e+001 
4021875000  -3.923600e+001  -8.040427e+001 
4025000000  -3.912415e+001  -8.514734e+001 
4028125000  -3.886628e+001  -8.614118e+001 
4031250000  -3.957198e+001  -9.141235e+001 
4034375000  -3.995450e+001  -8.950224e+001 
4037500000  -3.945024e+001  -9.026487e+001 
4040625000  -3.922519e+001  -9.435689e+001 
4043750000  -3.948927e+001  -9.364661e+001 
4046875000  -3.916357e+001  -9.604688e+001 
4050000000  -3.840770e+001  -1.015198e+002 
4053125000  -3.899359e+001  -1.042599e+002 
4056250000  -3.965420e+001  -9.994534e+001 
4059375000  -3.804330e+001  -1.009306e+002 
4062500000  -3.666378e+001  -1.055347e+002 
4065625000  -3.684600e+001  -1.105353e+002 
4068750000  -3.630209e+001  -1.171501e+002 
4071875000  -3.575744e+001  -1.259636e+002 
4075000000  -3.607857e+001  -1.325093e+002 
4078125000  -3.663101e+001  -1.345959e+002 
4081250000  -3.602391e+001  -1.369765e+002 
4084375000  -3.561559e+001  -1.456676e+002 
4087500000  -3.595905e+001  -1.531306e+002 
4090625000  -3.680836e+001  -1.560145e+002 
4093750000  -3.648558e+001  -1.559094e+002 
4096875000  -3.601649e+001  -1.633276e+002 
4100000000  -3.690681e+001  -1.703498e+002 
4103125000  -3.766424e+001  -1.695541e+002 
4106250000  -3.757388e+001  -1.659014e+002 
4109375000  -3.641559e+001  -1.674154e+002 
4112500000  -3.605202e+001  -1.757101e+002 
4115625000  -3.647061e+001  1.781670e+002 
4118750000  -3.675645e+001  1.749787e+002 
4121875000  -3.634776e+001  1.694095e+002 
4125000000  -3.663682e+001  1.631717e+002 
4128125000  -3.779337e+001  1.630798e+002 
4131250000  -3.759115e+001  1.699117e+002 
4134375000  -3.526921e+001  1.635072e+002 
4137500000  -3.516142e+001  1.431683e+002 
4140625000  -3.752597e+001  1.362624e+002 
4143750000  -3.884696e+001  1.405471e+002 
4146875000  -3.847886e+001  1.471811e+002 
4150000000  -3.757482e+001  1.431980e+002 
4153125000  -3.761574e+001  1.354486e+002 
4156250000  -3.865520e+001  1.343098e+002 
4159375000  -3.877507e+001  1.381548e+002 
4162500000  -3.792175e+001  1.428128e+002 
4165625000  -3.680069e+001  1.380305e+002 
4168750000  -3.631995e+001  1.288211e+002 
4171875000  -3.622490e+001  1.198518e+002 
4175000000  -3.683267e+001  1.151246e+002 
4178125000  -3.732939e+001  1.144248e+002 
4181250000  -3.716645e+001  1.134411e+002 
4184375000  -3.688388e+001  1.104685e+002 
4187500000  -3.700499e+001  1.053102e+002 
4190625000  -3.678976e+001  1.014639e+002 
4193750000  -3.775314e+001  9.729718e+001 
4196875000  -3.813789e+001  9.704827e+001 
4200000000  -3.931704e+001  9.794083e+001 
4203125000  -3.886926e+001  1.125609e+002 
4206250000  -3.524860e+001  1.111223e+002 
4209375000  -3.436781e+001  8.968378e+001 
4212500000  -3.633532e+001  8.038876e+001 
4215625000  -3.699933e+001  8.600864e+001 
4218750000  -3.560394e+001  9.272437e+001 
4221875000  -3.334286e+001  8.216022e+001 
4225000000  -3.461764e+001  6.764727e+001 
4228125000  -3.529774e+001  7.084538e+001 
4231250000  -3.356647e+001  6.741756e+001 
4234375000  -3.323446e+001  5.771733e+001 
4237500000  -3.307798e+001  5.343818e+001 
4240625000  -3.301071e+001  4.196961e+001 
4243750000  -3.402113e+001  3.447428e+001 
4246875000  -3.492633e+001  3.413672e+001 
4250000000  -3.489915e+001  3.479079e+001 
4253125000  -3.436799e+001  3.200536e+001 
4256250000  -3.494960e+001  2.625966e+001 
4259375000  -3.451943e+001  2.374672e+001 
4262500000  -3.465564e+001  1.947217e+001 
4265625000  -3.486615e+001  1.758787e+001 
4268750000  -3.386169e+001  1.258648e+001 
4271875000  -3.383587e+001  5.601103e+000 
4275000000  -3.348530e+001  -2.823689e+000 
4278125000  -3.419540e+001  -1.396925e+001 
4281250000  -3.619359e+001  -1.653595e+001 
4284375000  -3.585937e+001  -1.726470e+001 
4287500000  -3.690871e+001  -2.040125e+001 
4290625000  -3.802559e+001  -1.139477e+001 
4293750000  -3.619872e+001  -6.236492e+000 
4296875000  -3.522348e+001  -1.818908e+001 
4300000000  -3.594755e+001  -2.675740e+001 
4303125000  -3.710101e+001  -2.567444e+001 
4306250000  -3.672918e+001  -1.832283e+001 
4309375000  -3.553966e+001  -2.153691e+001 
4312500000  -3.510485e+001  -2.983212e+001 
4315625000  -3.542081e+001  -3.462772e+001 
4318750000  -3.572861e+001  -3.892263e+001 
4321875000  -3.581604e+001  -3.650024e+001 
4325000000  -3.533087e+001  -3.761476e+001 
4328125000  -3.472102e+001  -4.524342e+001 
4331250000  -3.445117e+001  -5.306275e+001 
4334375000  -3.490915e+001  -5.809534e+001 
4337500000  -3.564249e+001  -5.991980e+001 
4340625000  -3.607735e+001  -5.712125e+001 
4343750000  -3.521175e+001  -5.767563e+001 
4346875000  -3.474352e+001  -6.395210e+001 
4350000000  -3.466682e+001  -7.046761e+001 
4353125000  -3.472517e+001  -7.889349e+001 
4356250000  -3.658815e+001  -7.974751e+001 
4359375000  -3.660494e+001  -6.539653e+001 
4362500000  -3.351691e+001  -6.645686e+001 
4365625000  -3.215426e+001  -8.011845e+001 
4368750000  -3.292047e+001  -9.300503e+001 
4371875000  -3.389344e+001  -9.292712e+001 
4375000000  -3.354371e+001  -9.384815e+001 
4378125000  -3.277005e+001  -1.011219e+002 
4381250000  -3.310944e+001  -1.083339e+002 
4384375000  -3.276840e+001  -1.149354e+002 
4387500000  -3.369455e+001  -1.229115e+002 
4390625000  -3.461402e+001  -1.232287e+002 
4393750000  -3.389711e+001  -1.218501e+002 
4396875000  -3.319143e+001  -1.259481e+002 
4400000000  -3.285891e+001  -1.341006e+002 
4403125000  -3.349920e+001  -1.428406e+002 
4406250000  -3.440122e+001  -1.449639e+002 
4409375000  -3.451768e+001  -1.489213e+002 
4412500000  -3.567123e+001  -1.528949e+002 
4415625000  -3.614262e+001  -1.479462e+002 
