!Agilent Technologies,E8363B,MY43030201,A.06.04.32
!Agilent E8363B: A.06.04.32
!Date: Tuesday, November 11, 2014 21:09:58
!Correction: S21(Response(S21)) 
!S1P File: Measurement: S21:
# Hz S  dB   R 50
3000000000  -3.651744e+001  -5.465271e+001 
3003125000  -3.781939e+001  -6.099823e+001 
3006250000  -3.757162e+001  -6.294664e+001 
3009375000  -3.781870e+001  -5.826086e+001 
3012500000  -3.700441e+001  -5.961746e+001 
3015625000  -3.617995e+001  -6.744955e+001 
3018750000  -3.698067e+001  -6.901713e+001 
3021875000  -3.542018e+001  -6.747122e+001 
3025000000  -3.417982e+001  -7.181715e+001 
3028125000  -3.320324e+001  -7.843001e+001 
3031250000  -3.214258e+001  -8.976522e+001 
3034375000  -3.183263e+001  -1.034359e+002 
3037500000  -3.238801e+001  -1.152683e+002 
3040625000  -3.372212e+001  -1.195919e+002 
3043750000  -3.425702e+001  -1.252180e+002 
3046875000  -3.445272e+001  -1.304805e+002 
3050000000  -3.618409e+001  -1.376733e+002 
3053125000  -3.596932e+001  -1.308417e+002 
3056250000  -3.569104e+001  -1.275836e+002 
3059375000  -3.562537e+001  -1.281218e+002 
3062500000  -3.409578e+001  -1.321188e+002 
3065625000  -3.395498e+001  -1.379701e+002 
3068750000  -3.361586e+001  -1.454665e+002 
3071875000  -3.357393e+001  -1.479127e+002 
3075000000  -3.327679e+001  -1.522755e+002 
3078125000  -3.304298e+001  -1.561842e+002 
3081250000  -3.364404e+001  -1.606574e+002 
3084375000  -3.267097e+001  -1.639295e+002 
3087500000  -3.251523e+001  -1.685843e+002 
3090625000  -3.195477e+001  -1.781205e+002 
3093750000  -3.248393e+001  1.745917e+002 
3096875000  -3.354166e+001  1.686925e+002 
3100000000  -3.339511e+001  1.663945e+002 
3103125000  -3.363432e+001  1.677366e+002 
3106250000  -3.313764e+001  1.632248e+002 
3109375000  -3.320545e+001  1.590951e+002 
3112500000  -3.323175e+001  1.572632e+002 
3115625000  -3.285756e+001  1.527094e+002 
3118750000  -3.320027e+001  1.520772e+002 
3121875000  -3.234511e+001  1.428085e+002 
3125000000  -3.351933e+001  1.390494e+002 
3128125000  -3.446740e+001  1.458493e+002 
3131250000  -3.202003e+001  1.439271e+002 
3134375000  -3.079742e+001  1.285401e+002 
3137500000  -3.137699e+001  1.149652e+002 
3140625000  -3.275671e+001  1.119677e+002 
3143750000  -3.385258e+001  1.132884e+002 
3146875000  -3.337060e+001  1.146708e+002 
3150000000  -3.230028e+001  1.147178e+002 
3153125000  -3.232711e+001  1.054961e+002 
3156250000  -3.337376e+001  1.104110e+002 
3159375000  -3.155154e+001  1.114651e+002 
3162500000  -2.964539e+001  9.672037e+001 
3165625000  -3.072992e+001  8.461956e+001 
3168750000  -3.096763e+001  8.529955e+001 
3171875000  -3.010472e+001  7.955391e+001 
3175000000  -3.094125e+001  7.012242e+001 
3178125000  -3.060375e+001  7.099152e+001 
3181250000  -2.955414e+001  6.543447e+001 
3184375000  -2.891032e+001  5.301751e+001 
3187500000  -3.011289e+001  3.728918e+001 
3190625000  -3.273814e+001  3.001614e+001 
3193750000  -3.323265e+001  3.848443e+001 
3196875000  -3.293400e+001  4.241337e+001 
3200000000  -3.203177e+001  3.991701e+001 
3203125000  -3.125328e+001  3.324918e+001 
3206250000  -3.147883e+001  2.682527e+001 
3209375000  -3.107244e+001  2.105860e+001 
3212500000  -3.129239e+001  1.372377e+001 
3215625000  -3.144499e+001  1.024146e+001 
3218750000  -3.212921e+001  2.503664e+000 
3221875000  -3.287916e+001  -2.375748e+000 
3225000000  -3.258686e+001  -3.473850e+000 
3228125000  -3.298043e+001  -9.463914e+000 
3231250000  -3.365975e+001  -1.190881e+001 
3234375000  -3.328149e+001  -1.128561e+001 
3237500000  -3.332052e+001  -1.323278e+001 
3240625000  -3.290806e+001  -1.575268e+001 
3243750000  -3.249138e+001  -2.418411e+001 
3246875000  -3.295634e+001  -3.094910e+001 
3250000000  -3.334628e+001  -3.311759e+001 
3253125000  -3.343161e+001  -3.576011e+001 
3256250000  -3.315932e+001  -4.181882e+001 
3259375000  -3.342747e+001  -5.083142e+001 
3262500000  -3.452277e+001  -5.463208e+001 
3265625000  -3.525930e+001  -5.152899e+001 
3268750000  -3.510725e+001  -4.976669e+001 
3271875000  -3.462961e+001  -4.969770e+001 
3275000000  -3.359384e+001  -5.678612e+001 
3278125000  -3.410119e+001  -6.326496e+001 
3281250000  -3.429231e+001  -6.263419e+001 
3284375000  -3.377369e+001  -6.930342e+001 
3287500000  -3.398423e+001  -7.259743e+001 
3290625000  -3.433498e+001  -7.845468e+001 
3293750000  -3.405119e+001  -8.458921e+001 
3296875000  -3.506180e+001  -8.540341e+001 
3300000000  -3.484307e+001  -8.425237e+001 
3303125000  -3.357126e+001  -9.025298e+001 
3306250000  -3.345434e+001  -9.730213e+001 
3309375000  -3.315137e+001  -1.038955e+002 
3312500000  -3.328415e+001  -1.143815e+002 
3315625000  -3.426037e+001  -1.231412e+002 
3318750000  -3.565923e+001  -1.252167e+002 
3321875000  -3.672821e+001  -1.244412e+002 
3325000000  -3.737687e+001  -1.193111e+002 
3328125000  -3.664594e+001  -1.186661e+002 
3331250000  -3.565559e+001  -1.128647e+002 
3334375000  -3.281585e+001  -1.244629e+002 
3337500000  -3.305790e+001  -1.432254e+002 
3340625000  -3.442481e+001  -1.541310e+002 
3343750000  -3.644855e+001  -1.549205e+002 
3346875000  -3.651459e+001  -1.536523e+002 
3350000000  -3.589997e+001  -1.556624e+002 
3353125000  -3.589688e+001  -1.603632e+002 
3356250000  -3.552204e+001  -1.688625e+002 
3359375000  -3.624807e+001  -1.766900e+002 
3362500000  -3.754918e+001  1.781995e+002 
3365625000  -3.780058e+001  1.763569e+002 
3368750000  -3.850298e+001  1.733821e+002 
3371875000  -3.884058e+001  1.708815e+002 
3375000000  -4.027605e+001  1.683732e+002 
3378125000  -4.108397e+001  1.689486e+002 
3381250000  -4.223018e+001  1.770439e+002 
3384375000  -4.086084e+001  -1.620040e+002 
3387500000  -3.729129e+001  -1.778244e+002 
3390625000  -3.890496e+001  1.623261e+002 
3393750000  -4.036850e+001  1.666255e+002 
3396875000  -3.921919e+001  1.666507e+002 
3400000000  -3.857281e+001  1.585425e+002 
3403125000  -3.922076e+001  1.525059e+002 
3406250000  -3.964464e+001  1.535732e+002 
3409375000  -3.959763e+001  1.466587e+002 
3412500000  -4.025454e+001  1.429133e+002 
3415625000  -4.110873e+001  1.437749e+002 
3418750000  -4.100841e+001  1.465031e+002 
3421875000  -4.118793e+001  1.489912e+002 
3425000000  -4.017353e+001  1.478969e+002 
3428125000  -3.936797e+001  1.421885e+002 
3431250000  -3.929510e+001  1.362895e+002 
3434375000  -3.894914e+001  1.312021e+002 
3437500000  -3.960009e+001  1.278315e+002 
3440625000  -3.995034e+001  1.292281e+002 
3443750000  -3.882023e+001  1.295210e+002 
3446875000  -3.774805e+001  1.215131e+002 
3450000000  -3.767173e+001  1.123888e+002 
3453125000  -3.798842e+001  1.017381e+002 
3456250000  -3.912591e+001  9.592722e+001 
3459375000  -3.990304e+001  9.593488e+001 
3462500000  -3.981806e+001  9.618432e+001 
3465625000  -3.979823e+001  9.154321e+001 
3468750000  -4.015172e+001  8.729668e+001 
3471875000  -3.991829e+001  8.517249e+001 
3475000000  -3.976810e+001  8.031532e+001 
3478125000  -4.009138e+001  7.318060e+001 
3481250000  -4.119711e+001  7.048412e+001 
3484375000  -4.228106e+001  7.371409e+001 
3487500000  -4.130399e+001  7.315101e+001 
3490625000  -4.066026e+001  6.995945e+001 
3493750000  -4.120608e+001  6.286469e+001 
3496875000  -4.153394e+001  6.071075e+001 
3500000000  -4.240625e+001  6.202367e+001 
3503125000  -4.212439e+001  6.570013e+001 
3506250000  -4.054008e+001  5.973864e+001 
3509375000  -4.083095e+001  5.120259e+001 
3512500000  -4.107988e+001  4.265325e+001 
3515625000  -4.184805e+001  3.933709e+001 
3518750000  -4.271165e+001  4.135193e+001 
3521875000  -4.232653e+001  3.821089e+001 
3525000000  -4.331741e+001  3.467676e+001 
3528125000  -4.342113e+001  4.384985e+001 
3531250000  -4.197756e+001  4.023756e+001 
3534375000  -4.191760e+001  2.914596e+001 
3537500000  -4.240788e+001  2.366620e+001 
3540625000  -4.351748e+001  2.259603e+001 
3543750000  -4.416685e+001  2.975916e+001 
3546875000  -4.415066e+001  3.900037e+001 
3550000000  -4.132612e+001  4.085012e+001 
3553125000  -4.015185e+001  2.357888e+001 
3556250000  -4.164316e+001  1.730946e+001 
3559375000  -4.136662e+001  1.899869e+001 
3562500000  -4.034370e+001  9.079332e+000 
3565625000  -4.120004e+001  2.072631e+000 
3568750000  -4.131783e+001  5.562425e+000 
3571875000  -4.096156e+001  2.985750e+000 
3575000000  -4.076765e+001  -3.849675e+000 
3578125000  -4.125004e+001  -9.876207e+000 
3581250000  -4.118784e+001  -9.129856e+000 
3584375000  -4.043666e+001  -1.441743e+001 
3587500000  -3.979105e+001  -2.192279e+001 
3590625000  -4.025689e+001  -3.309340e+001 
3593750000  -4.185699e+001  -3.402851e+001 
3596875000  -4.143658e+001  -2.961845e+001 
3600000000  -4.011155e+001  -3.492300e+001 
3603125000  -4.061523e+001  -4.971154e+001 
3606250000  -4.159264e+001  -5.256951e+001 
3609375000  -4.215798e+001  -5.593737e+001 
3612500000  -4.275028e+001  -5.765200e+001 
3615625000  -4.279827e+001  -6.372481e+001 
3618750000  -4.369017e+001  -6.175204e+001 
3621875000  -4.349398e+001  -6.575256e+001 
3625000000  -4.426344e+001  -6.460278e+001 
3628125000  -4.378084e+001  -6.833843e+001 
3631250000  -4.415334e+001  -7.425326e+001 
3634375000  -4.543971e+001  -7.554308e+001 
3637500000  -4.511609e+001  -6.980096e+001 
3640625000  -4.464812e+001  -6.688579e+001 
3643750000  -4.391307e+001  -7.242770e+001 
3646875000  -4.503269e+001  -7.987765e+001 
3650000000  -4.571074e+001  -8.169489e+001 
3653125000  -4.565454e+001  -7.944418e+001 
3656250000  -4.593745e+001  -7.923978e+001 
3659375000  -4.561963e+001  -7.712510e+001 
3662500000  -4.491042e+001  -7.808893e+001 
3665625000  -4.474136e+001  -7.718179e+001 
3668750000  -4.374443e+001  -7.597050e+001 
3671875000  -4.285129e+001  -8.273604e+001 
3675000000  -4.284825e+001  -9.117320e+001 
3678125000  -4.327898e+001  -9.206848e+001 
3681250000  -4.309330e+001  -9.475397e+001 
3684375000  -4.273462e+001  -9.967173e+001 
3687500000  -4.293823e+001  -1.060293e+002 
3690625000  -4.273860e+001  -1.065770e+002 
3693750000  -4.417365e+001  -1.063543e+002 
3696875000  -4.364435e+001  -1.057263e+002 
3700000000  -4.305349e+001  -1.125389e+002 
3703125000  -4.295190e+001  -1.172794e+002 
3706250000  -4.374988e+001  -1.167194e+002 
3709375000  -4.340295e+001  -1.164642e+002 
3712500000  -4.241975e+001  -1.198270e+002 
3715625000  -4.133530e+001  -1.280024e+002 
3718750000  -4.109321e+001  -1.311084e+002 
3721875000  -4.105571e+001  -1.389970e+002 
3725000000  -4.149649e+001  -1.465549e+002 
3728125000  -4.174944e+001  -1.459895e+002 
3731250000  -4.141736e+001  -1.485426e+002 
3734375000  -4.099139e+001  -1.546028e+002 
3737500000  -4.193185e+001  -1.631631e+002 
3740625000  -4.306115e+001  -1.640081e+002 
3743750000  -4.291314e+001  -1.680233e+002 
3746875000  -4.370831e+001  -1.702017e+002 
3750000000  -4.400365e+001  -1.724476e+002 
3753125000  -4.413993e+001  -1.714364e+002 
3756250000  -4.450848e+001  -1.705276e+002 
3759375000  -4.479897e+001  -1.711443e+002 
3762500000  -4.396152e+001  -1.762929e+002 
3765625000  -4.477936e+001  -1.734987e+002 
3768750000  -4.473581e+001  -1.701011e+002 
3771875000  -4.313988e+001  -1.710618e+002 
3775000000  -4.328569e+001  -1.796039e+002 
3778125000  -4.323227e+001  1.793384e+002 
3781250000  -4.276200e+001  1.772558e+002 
3784375000  -4.265523e+001  1.763199e+002 
3787500000  -4.201266e+001  1.751625e+002 
3790625000  -4.255123e+001  1.690448e+002 
3793750000  -4.212164e+001  1.685854e+002 
3796875000  -4.127510e+001  1.652236e+002 
3800000000  -3.960234e+001  1.643641e+002 
3803125000  -4.022524e+001  1.531692e+002 
3806250000  -4.087090e+001  1.514980e+002 
3809375000  -4.042723e+001  1.487717e+002 
3812500000  -3.978742e+001  1.432893e+002 
3815625000  -4.054173e+001  1.332944e+002 
3818750000  -4.151656e+001  1.317342e+002 
3821875000  -4.169342e+001  1.415017e+002 
3825000000  -3.965113e+001  1.441402e+002 
3828125000  -3.808337e+001  1.278259e+002 
3831250000  -3.881359e+001  1.127104e+002 
3834375000  -4.029018e+001  1.116201e+002 
3837500000  -4.119543e+001  1.135691e+002 
3840625000  -3.995118e+001  1.121033e+002 
3843750000  -3.905675e+001  9.966454e+001 
3846875000  -3.993797e+001  9.330621e+001 
3850000000  -4.122092e+001  9.850415e+001 
3853125000  -4.034626e+001  1.024009e+002 
3856250000  -4.039877e+001  9.326842e+001 
3859375000  -3.948921e+001  8.928352e+001 
3862500000  -3.944987e+001  7.919974e+001 
3865625000  -3.989431e+001  7.669914e+001 
3868750000  -3.981062e+001  7.399132e+001 
3871875000  -3.915961e+001  7.075695e+001 
3875000000  -3.934551e+001  6.202806e+001 
3878125000  -4.060353e+001  5.927447e+001 
3881250000  -4.039816e+001  6.220628e+001 
3884375000  -4.026844e+001  5.733025e+001 
3887500000  -4.031711e+001  5.332454e+001 
3890625000  -4.101523e+001  4.911264e+001 
3893750000  -4.137737e+001  4.724373e+001 
3896875000  -4.163663e+001  4.950836e+001 
3900000000  -4.181172e+001  4.662062e+001 
3903125000  -4.147648e+001  4.412561e+001 
3906250000  -4.052499e+001  4.340555e+001 
3909375000  -3.990209e+001  4.061101e+001 
3912500000  -4.016808e+001  3.155621e+001 
3915625000  -4.187978e+001  3.328163e+001 
3918750000  -4.114766e+001  3.383856e+001 
3921875000  -4.061240e+001  2.927267e+001 
3925000000  -3.989855e+001  2.861818e+001 
3928125000  -3.928292e+001  2.192303e+001 
3931250000  -3.982296e+001  1.737412e+001 
3934375000  -3.966007e+001  1.729222e+001 
3937500000  -4.010156e+001  1.511566e+001 
3940625000  -4.077612e+001  1.348208e+001 
3943750000  -3.940899e+001  1.402001e+001 
3946875000  -3.843842e+001  6.758235e+000 
3950000000  -3.892567e+001  -2.659804e+000 
3953125000  -4.043658e+001  -5.128185e+000 
3956250000  -3.921512e+001  -1.971909e+000 
3959375000  -3.773861e+001  -6.041247e+000 
3962500000  -3.745060e+001  -1.005931e+001 
3965625000  -3.729961e+001  -1.984723e+001 
3968750000  -3.811486e+001  -2.867163e+001 
3971875000  -3.826464e+001  -3.143934e+001 
3975000000  -3.783259e+001  -3.224410e+001 
3978125000  -3.782064e+001  -3.616523e+001 
3981250000  -3.779390e+001  -4.078397e+001 
3984375000  -3.804117e+001  -4.642293e+001 
3987500000  -3.860047e+001  -5.042889e+001 
3990625000  -3.873542e+001  -5.185996e+001 
3993750000  -3.905854e+001  -5.695526e+001 
3996875000  -3.917160e+001  -5.925758e+001 
4000000000  -3.928773e+001  -6.104969e+001 
4003125000  -3.943968e+001  -6.033313e+001 
4006250000  -3.833685e+001  -6.129414e+001 
4009375000  -3.737355e+001  -7.299213e+001 
4012500000  -3.874073e+001  -8.069279e+001 
4015625000  -3.984301e+001  -8.001380e+001 
4018750000  -4.020257e+001  -7.914056e+001 
4021875000  -3.927699e+001  -7.996564e+001 
4025000000  -3.911018e+001  -8.607056e+001 
4028125000  -3.903767e+001  -8.995165e+001 
4031250000  -3.949991e+001  -9.372403e+001 
4034375000  -3.960901e+001  -9.372858e+001 
4037500000  -3.913992e+001  -9.206616e+001 
4040625000  -3.910696e+001  -9.640359e+001 
4043750000  -3.939025e+001  -9.781700e+001 
4046875000  -3.892274e+001  -9.866017e+001 
4050000000  -3.825817e+001  -1.030707e+002 
4053125000  -3.894629e+001  -1.078458e+002 
4056250000  -3.935429e+001  -1.029101e+002 
4059375000  -3.804085e+001  -1.035495e+002 
4062500000  -3.678506e+001  -1.087741e+002 
4065625000  -3.691830e+001  -1.147186e+002 
4068750000  -3.653135e+001  -1.192754e+002 
4071875000  -3.571539e+001  -1.284323e+002 
4075000000  -3.605761e+001  -1.354648e+002 
4078125000  -3.674003e+001  -1.377519e+002 
4081250000  -3.605189e+001  -1.403511e+002 
4084375000  -3.563617e+001  -1.492267e+002 
4087500000  -3.601786e+001  -1.558665e+002 
4090625000  -3.678751e+001  -1.567679e+002 
4093750000  -3.645327e+001  -1.580772e+002 
4096875000  -3.620654e+001  -1.651151e+002 
4100000000  -3.686418e+001  -1.726772e+002 
4103125000  -3.781007e+001  -1.726348e+002 
4106250000  -3.774885e+001  -1.673676e+002 
4109375000  -3.687297e+001  -1.700866e+002 
4112500000  -3.635431e+001  -1.780265e+002 
4115625000  -3.674338e+001  1.768049e+002 
4118750000  -3.671778e+001  1.731538e+002 
4121875000  -3.633264e+001  1.668483e+002 
4125000000  -3.686664e+001  1.615202e+002 
4128125000  -3.781276e+001  1.614747e+002 
4131250000  -3.754218e+001  1.689442e+002 
4134375000  -3.537104e+001  1.611557e+002 
4137500000  -3.533079e+001  1.422103e+002 
4140625000  -3.757510e+001  1.344938e+002 
4143750000  -3.884118e+001  1.402646e+002 
4146875000  -3.856765e+001  1.457215e+002 
4150000000  -3.769137e+001  1.407808e+002 
4153125000  -3.748167e+001  1.328878e+002 
4156250000  -3.849599e+001  1.320658e+002 
4159375000  -3.866697e+001  1.373847e+002 
4162500000  -3.763783e+001  1.399386e+002 
4165625000  -3.658585e+001  1.360664e+002 
4168750000  -3.590336e+001  1.270968e+002 
4171875000  -3.595832e+001  1.173551e+002 
4175000000  -3.659774e+001  1.126817e+002 
4178125000  -3.727205e+001  1.122920e+002 
4181250000  -3.679453e+001  1.115090e+002 
4184375000  -3.674440e+001  1.065834e+002 
4187500000  -3.670924e+001  1.031072e+002 
4190625000  -3.673749e+001  9.845164e+001 
4193750000  -3.751071e+001  9.330193e+001 
4196875000  -3.822139e+001  9.185710e+001 
4200000000  -3.909167e+001  9.558974e+001 
4203125000  -3.880129e+001  1.104596e+002 
4206250000  -3.518999e+001  1.079380e+002 
4209375000  -3.427491e+001  8.558968e+001 
4212500000  -3.620873e+001  7.703590e+001 
4215625000  -3.691477e+001  8.364350e+001 
4218750000  -3.549708e+001  8.848987e+001 
4221875000  -3.337041e+001  7.979186e+001 
4225000000  -3.445753e+001  6.438440e+001 
4228125000  -3.500923e+001  6.866013e+001 
4231250000  -3.337123e+001  6.563494e+001 
4234375000  -3.340092e+001  5.456659e+001 
4237500000  -3.305497e+001  4.942430e+001 
4240625000  -3.297771e+001  3.977235e+001 
4243750000  -3.397417e+001  3.164779e+001 
4246875000  -3.502513e+001  3.083155e+001 
4250000000  -3.487589e+001  3.369703e+001 
4253125000  -3.443711e+001  2.914155e+001 
4256250000  -3.480187e+001  2.516763e+001 
4259375000  -3.454797e+001  2.104539e+001 
4262500000  -3.469555e+001  1.617788e+001 
4265625000  -3.478320e+001  1.635673e+001 
4268750000  -3.384082e+001  1.044081e+001 
4271875000  -3.383680e+001  3.162980e+000 
4275000000  -3.323286e+001  -4.816552e+000 
4278125000  -3.407719e+001  -1.641111e+001 
4281250000  -3.601129e+001  -1.870900e+001 
4284375000  -3.583905e+001  -1.962447e+001 
4287500000  -3.673355e+001  -2.229194e+001 
4290625000  -3.816836e+001  -1.297545e+001 
4293750000  -3.612770e+001  -8.074037e+000 
4296875000  -3.490201e+001  -2.080167e+001 
4300000000  -3.585810e+001  -2.895159e+001 
4303125000  -3.693636e+001  -2.618522e+001 
4306250000  -3.627266e+001  -2.178140e+001 
4309375000  -3.491478e+001  -2.439133e+001 
4312500000  -3.489683e+001  -3.222268e+001 
4315625000  -3.490512e+001  -3.790133e+001 
4318750000  -3.547111e+001  -4.165161e+001 
4321875000  -3.548822e+001  -3.976813e+001 
4325000000  -3.483924e+001  -4.064516e+001 
4328125000  -3.414998e+001  -4.700109e+001 
4331250000  -3.415317e+001  -5.620668e+001 
4334375000  -3.452342e+001  -6.148669e+001 
4337500000  -3.523766e+001  -6.301699e+001 
4340625000  -3.574959e+001  -6.058781e+001 
4343750000  -3.491403e+001  -6.073493e+001 
4346875000  -3.452140e+001  -6.746339e+001 
4350000000  -3.446362e+001  -7.341305e+001 
4353125000  -3.440410e+001  -8.279792e+001 
4356250000  -3.625523e+001  -8.422543e+001 
4359375000  -3.642707e+001  -6.941115e+001 
4362500000  -3.339783e+001  -7.020731e+001 
4365625000  -3.191335e+001  -8.437869e+001 
4368750000  -3.269761e+001  -9.697029e+001 
4371875000  -3.379578e+001  -9.518204e+001 
4375000000  -3.319360e+001  -9.845680e+001 
4378125000  -3.264213e+001  -1.048846e+002 
4381250000  -3.301904e+001  -1.122363e+002 
4384375000  -3.275081e+001  -1.190486e+002 
4387500000  -3.356822e+001  -1.254213e+002 
4390625000  -3.444966e+001  -1.259435e+002 
4393750000  -3.366159e+001  -1.247900e+002 
4396875000  -3.323275e+001  -1.282540e+002 
4400000000  -3.283812e+001  -1.370500e+002 
4403125000  -3.333225e+001  -1.463248e+002 
4406250000  -3.424016e+001  -1.483288e+002 
4409375000  -3.444355e+001  -1.512252e+002 
4412500000  -3.572076e+001  -1.552948e+002 
4415625000  -3.592902e+001  -1.502102e+002 
