!Agilent Technologies,E8363B,MY43030201,A.06.04.32
!Agilent E8363B: A.06.04.32
!Date: Tuesday, November 11, 2014 21:10:11
!Correction: S21(Response(S21)) 
!S1P File: Measurement: S21:
# Hz S  dB   R 50
3000000000  -3.640928e+001  -5.561106e+001 
3003125000  -3.762144e+001  -6.208862e+001 
3006250000  -3.750859e+001  -6.453248e+001 
3009375000  -3.797570e+001  -5.900994e+001 
3012500000  -3.706664e+001  -6.088345e+001 
3015625000  -3.617805e+001  -6.840985e+001 
3018750000  -3.690400e+001  -6.930615e+001 
3021875000  -3.548452e+001  -6.862428e+001 
3025000000  -3.419359e+001  -7.219560e+001 
3028125000  -3.321016e+001  -7.916883e+001 
3031250000  -3.225885e+001  -9.032494e+001 
3034375000  -3.187299e+001  -1.039606e+002 
3037500000  -3.234636e+001  -1.158968e+002 
3040625000  -3.363132e+001  -1.203798e+002 
3043750000  -3.435896e+001  -1.252986e+002 
3046875000  -3.465123e+001  -1.320654e+002 
3050000000  -3.619570e+001  -1.372197e+002 
3053125000  -3.617929e+001  -1.316592e+002 
3056250000  -3.562849e+001  -1.290192e+002 
3059375000  -3.564952e+001  -1.296517e+002 
3062500000  -3.428240e+001  -1.328707e+002 
3065625000  -3.396178e+001  -1.392751e+002 
3068750000  -3.365258e+001  -1.458193e+002 
3071875000  -3.362676e+001  -1.480117e+002 
3075000000  -3.323985e+001  -1.523383e+002 
3078125000  -3.303922e+001  -1.560127e+002 
3081250000  -3.358559e+001  -1.605439e+002 
3084375000  -3.272206e+001  -1.635423e+002 
3087500000  -3.244918e+001  -1.683025e+002 
3090625000  -3.202791e+001  -1.788784e+002 
3093750000  -3.249965e+001  1.746086e+002 
3096875000  -3.346278e+001  1.685380e+002 
3100000000  -3.344854e+001  1.667187e+002 
3103125000  -3.371661e+001  1.673250e+002 
3106250000  -3.315055e+001  1.627720e+002 
3109375000  -3.322770e+001  1.587659e+002 
3112500000  -3.319486e+001  1.561055e+002 
3115625000  -3.285860e+001  1.516674e+002 
3118750000  -3.322987e+001  1.520597e+002 
3121875000  -3.233369e+001  1.424089e+002 
3125000000  -3.364165e+001  1.376257e+002 
3128125000  -3.446316e+001  1.455905e+002 
3131250000  -3.203399e+001  1.442271e+002 
3134375000  -3.080857e+001  1.281254e+002 
3137500000  -3.132346e+001  1.138157e+002 
3140625000  -3.283927e+001  1.122197e+002 
3143750000  -3.387305e+001  1.134331e+002 
3146875000  -3.336586e+001  1.139063e+002 
3150000000  -3.225914e+001  1.139854e+002 
3153125000  -3.231479e+001  1.040943e+002 
3156250000  -3.336939e+001  1.096353e+002 
3159375000  -3.163127e+001  1.108585e+002 
3162500000  -2.970413e+001  9.632745e+001 
3165625000  -3.074654e+001  8.372992e+001 
3168750000  -3.102502e+001  8.381543e+001 
3171875000  -3.019485e+001  7.844885e+001 
3175000000  -3.093228e+001  6.934535e+001 
3178125000  -3.064534e+001  7.032697e+001 
3181250000  -2.958245e+001  6.477702e+001 
3184375000  -2.897118e+001  5.195775e+001 
3187500000  -3.021313e+001  3.681070e+001 
3190625000  -3.283719e+001  2.968917e+001 
3193750000  -3.338868e+001  3.736557e+001 
3196875000  -3.306776e+001  4.171902e+001 
3200000000  -3.208997e+001  3.943732e+001 
3203125000  -3.132417e+001  3.296918e+001 
3206250000  -3.162208e+001  2.638462e+001 
3209375000  -3.109406e+001  2.082993e+001 
3212500000  -3.139608e+001  1.341149e+001 
3215625000  -3.143353e+001  1.005539e+001 
3218750000  -3.222685e+001  2.140640e+000 
3221875000  -3.300635e+001  -2.562791e+000 
3225000000  -3.255125e+001  -3.702481e+000 
3228125000  -3.306313e+001  -9.208131e+000 
3231250000  -3.360491e+001  -1.171143e+001 
3234375000  -3.342863e+001  -1.160928e+001 
3237500000  -3.335915e+001  -1.359034e+001 
3240625000  -3.296890e+001  -1.616981e+001 
3243750000  -3.252705e+001  -2.346408e+001 
3246875000  -3.300189e+001  -3.047167e+001 
3250000000  -3.336395e+001  -3.316510e+001 
3253125000  -3.348345e+001  -3.537715e+001 
3256250000  -3.313767e+001  -4.177690e+001 
3259375000  -3.342452e+001  -5.086627e+001 
3262500000  -3.466151e+001  -5.451220e+001 
3265625000  -3.524569e+001  -5.170396e+001 
3268750000  -3.513107e+001  -4.972314e+001 
3271875000  -3.464627e+001  -5.004501e+001 
3275000000  -3.359763e+001  -5.766391e+001 
3278125000  -3.423150e+001  -6.343020e+001 
3281250000  -3.431963e+001  -6.253027e+001 
3284375000  -3.386679e+001  -6.934381e+001 
3287500000  -3.403201e+001  -7.252854e+001 
3290625000  -3.427325e+001  -7.909567e+001 
3293750000  -3.404008e+001  -8.485468e+001 
3296875000  -3.515553e+001  -8.642484e+001 
3300000000  -3.481115e+001  -8.524591e+001 
3303125000  -3.359286e+001  -9.056310e+001 
3306250000  -3.348906e+001  -9.712211e+001 
3309375000  -3.315208e+001  -1.033517e+002 
3312500000  -3.333025e+001  -1.155922e+002 
3315625000  -3.442301e+001  -1.230250e+002 
3318750000  -3.570858e+001  -1.255536e+002 
3321875000  -3.685012e+001  -1.255384e+002 
3325000000  -3.729802e+001  -1.199920e+002 
3328125000  -3.662853e+001  -1.190162e+002 
3331250000  -3.553489e+001  -1.134398e+002 
3334375000  -3.295940e+001  -1.251058e+002 
3337500000  -3.320419e+001  -1.440868e+002 
3340625000  -3.443488e+001  -1.543968e+002 
3343750000  -3.654757e+001  -1.557725e+002 
3346875000  -3.650407e+001  -1.538972e+002 
3350000000  -3.593739e+001  -1.554277e+002 
3353125000  -3.602328e+001  -1.606270e+002 
3356250000  -3.560605e+001  -1.681134e+002 
3359375000  -3.641918e+001  -1.763007e+002 
3362500000  -3.749757e+001  1.780842e+002 
3365625000  -3.795440e+001  1.764400e+002 
3368750000  -3.870633e+001  1.732135e+002 
3371875000  -3.896213e+001  1.712192e+002 
3375000000  -4.034896e+001  1.681695e+002 
3378125000  -4.120436e+001  1.688418e+002 
3381250000  -4.233955e+001  1.766275e+002 
3384375000  -4.077079e+001  -1.622780e+002 
3387500000  -3.746551e+001  -1.783058e+002 
3390625000  -3.931296e+001  1.619473e+002 
3393750000  -4.034626e+001  1.658822e+002 
3396875000  -3.922303e+001  1.674723e+002 
3400000000  -3.859983e+001  1.602077e+002 
3403125000  -3.926350e+001  1.544460e+002 
3406250000  -3.957685e+001  1.537352e+002 
3409375000  -3.969901e+001  1.462907e+002 
3412500000  -4.020919e+001  1.445561e+002 
3415625000  -4.108066e+001  1.435732e+002 
3418750000  -4.090409e+001  1.453021e+002 
3421875000  -4.115914e+001  1.483505e+002 
3425000000  -4.009204e+001  1.476380e+002 
3428125000  -3.941190e+001  1.447294e+002 
3431250000  -3.911360e+001  1.361709e+002 
3434375000  -3.913520e+001  1.305925e+002 
3437500000  -3.978091e+001  1.282778e+002 
3440625000  -3.988147e+001  1.280421e+002 
3443750000  -3.873387e+001  1.286859e+002 
3446875000  -3.796115e+001  1.209369e+002 
3450000000  -3.767016e+001  1.125415e+002 
3453125000  -3.785650e+001  1.013674e+002 
3456250000  -3.916129e+001  9.469688e+001 
3459375000  -3.983390e+001  9.642107e+001 
3462500000  -3.983648e+001  9.664355e+001 
3465625000  -3.989095e+001  9.146122e+001 
3468750000  -3.995842e+001  8.594733e+001 
3471875000  -4.005536e+001  8.582586e+001 
3475000000  -3.965768e+001  8.021059e+001 
3478125000  -4.045428e+001  7.073684e+001 
3481250000  -4.133460e+001  7.059462e+001 
3484375000  -4.246800e+001  7.460223e+001 
3487500000  -4.129131e+001  7.382095e+001 
3490625000  -4.078053e+001  6.974979e+001 
3493750000  -4.124058e+001  6.238198e+001 
3496875000  -4.197556e+001  6.163807e+001 
3500000000  -4.275669e+001  6.371072e+001 
3503125000  -4.202402e+001  6.591841e+001 
3506250000  -4.064468e+001  6.060400e+001 
3509375000  -4.066731e+001  5.181435e+001 
3512500000  -4.113742e+001  4.495639e+001 
3515625000  -4.211715e+001  4.091257e+001 
3518750000  -4.241315e+001  4.170648e+001 
3521875000  -4.244711e+001  3.858621e+001 
3525000000  -4.308191e+001  3.801318e+001 
3528125000  -4.320367e+001  4.508143e+001 
3531250000  -4.205020e+001  4.205852e+001 
3534375000  -4.202389e+001  3.086055e+001 
3537500000  -4.226524e+001  2.605068e+001 
3540625000  -4.326259e+001  2.454746e+001 
3543750000  -4.408399e+001  2.784011e+001 
3546875000  -4.390569e+001  3.993768e+001 
3550000000  -4.143672e+001  4.013630e+001 
3553125000  -3.974557e+001  2.185312e+001 
3556250000  -4.125121e+001  1.600300e+001 
3559375000  -4.111243e+001  1.849439e+001 
3562500000  -3.997190e+001  9.239456e+000 
3565625000  -4.088475e+001  8.271393e-001 
3568750000  -4.107535e+001  4.717899e+000 
3571875000  -4.090955e+001  3.413093e+000 
3575000000  -4.069605e+001  -4.506667e+000 
3578125000  -4.106472e+001  -9.347517e+000 
3581250000  -4.150612e+001  -1.127761e+001 
3584375000  -4.069936e+001  -1.401606e+001 
3587500000  -3.993935e+001  -2.260308e+001 
3590625000  -4.057439e+001  -3.423960e+001 
3593750000  -4.166691e+001  -3.664170e+001 
3596875000  -4.188257e+001  -2.988638e+001 
3600000000  -4.013361e+001  -3.668025e+001 
3603125000  -4.058978e+001  -4.977328e+001 
3606250000  -4.154315e+001  -5.372972e+001 
3609375000  -4.220675e+001  -5.512058e+001 
3612500000  -4.275227e+001  -5.918906e+001 
3615625000  -4.292900e+001  -6.328201e+001 
3618750000  -4.394248e+001  -6.131712e+001 
3621875000  -4.374459e+001  -6.577132e+001 
3625000000  -4.453468e+001  -6.753690e+001 
3628125000  -4.431215e+001  -6.807996e+001 
3631250000  -4.431832e+001  -7.216080e+001 
3634375000  -4.584645e+001  -7.338813e+001 
3637500000  -4.528887e+001  -6.776507e+001 
3640625000  -4.502301e+001  -6.385850e+001 
3643750000  -4.423922e+001  -6.969398e+001 
3646875000  -4.511507e+001  -7.723972e+001 
3650000000  -4.567798e+001  -7.523602e+001 
3653125000  -4.549942e+001  -7.513230e+001 
3656250000  -4.560180e+001  -7.555446e+001 
3659375000  -4.564871e+001  -7.285563e+001 
3662500000  -4.485975e+001  -7.322719e+001 
3665625000  -4.475694e+001  -7.780313e+001 
3668750000  -4.339291e+001  -7.316464e+001 
3671875000  -4.254116e+001  -8.389063e+001 
3675000000  -4.259823e+001  -9.199861e+001 
3678125000  -4.287437e+001  -9.213065e+001 
3681250000  -4.264922e+001  -9.461604e+001 
3684375000  -4.278574e+001  -9.987218e+001 
3687500000  -4.257604e+001  -1.036659e+002 
3690625000  -4.274960e+001  -1.078577e+002 
3693750000  -4.358056e+001  -1.073489e+002 
3696875000  -4.330569e+001  -1.070167e+002 
3700000000  -4.256748e+001  -1.134240e+002 
3703125000  -4.284506e+001  -1.194990e+002 
3706250000  -4.374954e+001  -1.181650e+002 
3709375000  -4.310007e+001  -1.175953e+002 
3712500000  -4.217487e+001  -1.194953e+002 
3715625000  -4.152151e+001  -1.276284e+002 
3718750000  -4.114792e+001  -1.341274e+002 
3721875000  -4.138656e+001  -1.408958e+002 
3725000000  -4.135692e+001  -1.467301e+002 
3728125000  -4.212595e+001  -1.475895e+002 
3731250000  -4.150359e+001  -1.513439e+002 
3734375000  -4.121159e+001  -1.556706e+002 
3737500000  -4.216055e+001  -1.639909e+002 
3740625000  -4.326416e+001  -1.659644e+002 
3743750000  -4.315583e+001  -1.697389e+002 
3746875000  -4.390050e+001  -1.739456e+002 
3750000000  -4.422245e+001  -1.733327e+002 
3753125000  -4.414738e+001  -1.716426e+002 
3756250000  -4.476673e+001  -1.721988e+002 
3759375000  -4.482880e+001  -1.686725e+002 
3762500000  -4.426095e+001  -1.748769e+002 
3765625000  -4.477735e+001  -1.739084e+002 
3768750000  -4.486232e+001  -1.676789e+002 
3771875000  -4.345461e+001  -1.716278e+002 
3775000000  -4.296820e+001  -1.783941e+002 
3778125000  -4.357684e+001  -1.794784e+002 
3781250000  -4.289254e+001  -1.798876e+002 
3784375000  -4.290263e+001  1.784630e+002 
3787500000  -4.186661e+001  1.763550e+002 
3790625000  -4.221069e+001  1.693340e+002 
3793750000  -4.232922e+001  1.686983e+002 
3796875000  -4.128069e+001  1.666398e+002 
3800000000  -3.927056e+001  1.640390e+002 
3803125000  -4.014586e+001  1.538053e+002 
3806250000  -4.060884e+001  1.512737e+002 
3809375000  -4.035043e+001  1.493414e+002 
3812500000  -3.965170e+001  1.421341e+002 
3815625000  -4.049632e+001  1.330776e+002 
3818750000  -4.142652e+001  1.317294e+002 
3821875000  -4.151789e+001  1.422164e+002 
3825000000  -3.927012e+001  1.423038e+002 
3828125000  -3.785999e+001  1.253309e+002 
3831250000  -3.863956e+001  1.086536e+002 
3834375000  -4.005720e+001  1.108711e+002 
3837500000  -4.086445e+001  1.140089e+002 
3840625000  -3.968994e+001  1.111789e+002 
3843750000  -3.889708e+001  1.000587e+002 
3846875000  -3.990455e+001  9.307953e+001 
3850000000  -4.089091e+001  9.757705e+001 
3853125000  -4.054205e+001  9.880265e+001 
3856250000  -4.051176e+001  9.305932e+001 
3859375000  -3.969387e+001  8.950540e+001 
3862500000  -3.955646e+001  7.878716e+001 
3865625000  -3.996679e+001  7.563091e+001 
3868750000  -3.989838e+001  7.366888e+001 
3871875000  -3.930490e+001  6.975005e+001 
3875000000  -3.959072e+001  6.108426e+001 
3878125000  -4.097499e+001  5.975988e+001 
3881250000  -4.072108e+001  6.248678e+001 
3884375000  -4.033632e+001  5.607417e+001 
3887500000  -4.042514e+001  5.301412e+001 
3890625000  -4.112604e+001  4.911911e+001 
3893750000  -4.135299e+001  4.698919e+001 
3896875000  -4.169335e+001  4.953817e+001 
3900000000  -4.163826e+001  4.693683e+001 
3903125000  -4.141398e+001  4.511293e+001 
3906250000  -4.104163e+001  4.542944e+001 
3909375000  -4.034442e+001  3.949197e+001 
3912500000  -4.038353e+001  3.347821e+001 
3915625000  -4.160349e+001  3.426771e+001 
3918750000  -4.123309e+001  3.552444e+001 
3921875000  -4.091668e+001  3.265280e+001 
3925000000  -3.983546e+001  2.867048e+001 
3928125000  -3.920390e+001  2.189573e+001 
3931250000  -3.967070e+001  1.734814e+001 
3934375000  -3.997877e+001  1.493151e+001 
3937500000  -4.006593e+001  1.604603e+001 
3940625000  -4.049828e+001  1.457079e+001 
3943750000  -3.937547e+001  1.353285e+001 
3946875000  -3.808192e+001  6.161639e+000 
3950000000  -3.920335e+001  -1.464491e+000 
3953125000  -3.981424e+001  -3.329697e+000 
3956250000  -3.878092e+001  -2.138981e+000 
3959375000  -3.764253e+001  -5.291651e+000 
3962500000  -3.702641e+001  -1.226073e+001 
3965625000  -3.718222e+001  -2.029333e+001 
3968750000  -3.828382e+001  -2.964551e+001 
3971875000  -3.841122e+001  -3.122751e+001 
3975000000  -3.773284e+001  -3.341480e+001 
3978125000  -3.770679e+001  -3.737565e+001 
3981250000  -3.778227e+001  -4.223089e+001 
3984375000  -3.801459e+001  -4.912510e+001 
3987500000  -3.851870e+001  -5.101979e+001 
3990625000  -3.863613e+001  -5.381251e+001 
3993750000  -3.885936e+001  -5.819297e+001 
3996875000  -3.894403e+001  -6.268985e+001 
4000000000  -3.948340e+001  -6.342634e+001 
4003125000  -3.995798e+001  -6.120006e+001 
4006250000  -3.846309e+001  -6.284520e+001 
4009375000  -3.746241e+001  -7.626666e+001 
4012500000  -3.873591e+001  -8.112778e+001 
4015625000  -4.029583e+001  -8.214442e+001 
4018750000  -3.993931e+001  -7.938726e+001 
4021875000  -3.926062e+001  -8.261020e+001 
4025000000  -3.953244e+001  -8.619084e+001 
4028125000  -3.915770e+001  -9.015359e+001 
4031250000  -3.984941e+001  -9.273316e+001 
4034375000  -3.999036e+001  -9.420084e+001 
4037500000  -3.939964e+001  -9.402837e+001 
4040625000  -3.925949e+001  -9.663642e+001 
4043750000  -3.948245e+001  -9.920142e+001 
4046875000  -3.908343e+001  -9.735162e+001 
4050000000  -3.861264e+001  -1.041030e+002 
4053125000  -3.913902e+001  -1.068222e+002 
4056250000  -3.962932e+001  -1.055081e+002 
4059375000  -3.806813e+001  -1.025955e+002 
4062500000  -3.672387e+001  -1.094036e+002 
4065625000  -3.677948e+001  -1.114134e+002 
4068750000  -3.641569e+001  -1.186115e+002 
4071875000  -3.553126e+001  -1.291826e+002 
4075000000  -3.610052e+001  -1.340803e+002 
4078125000  -3.662040e+001  -1.358605e+002 
4081250000  -3.600367e+001  -1.412835e+002 
4084375000  -3.565900e+001  -1.479249e+002 
4087500000  -3.605834e+001  -1.552372e+002 
4090625000  -3.654671e+001  -1.566737e+002 
4093750000  -3.648002e+001  -1.579981e+002 
4096875000  -3.589553e+001  -1.661716e+002 
4100000000  -3.682097e+001  -1.730719e+002 
4103125000  -3.765378e+001  -1.735223e+002 
4106250000  -3.754867e+001  -1.692348e+002 
4109375000  -3.657330e+001  -1.706200e+002 
4112500000  -3.593365e+001  -1.796651e+002 
4115625000  -3.631443e+001  1.758556e+002 
4118750000  -3.668655e+001  1.722509e+002 
4121875000  -3.626242e+001  1.658358e+002 
4125000000  -3.671988e+001  1.603906e+002 
4128125000  -3.796632e+001  1.615616e+002 
4131250000  -3.751579e+001  1.673719e+002 
4134375000  -3.528411e+001  1.604223e+002 
4137500000  -3.535992e+001  1.410135e+002 
4140625000  -3.754621e+001  1.333948e+002 
4143750000  -3.909362e+001  1.379924e+002 
4146875000  -3.854469e+001  1.444904e+002 
4150000000  -3.755199e+001  1.405409e+002 
4153125000  -3.752886e+001  1.334148e+002 
4156250000  -3.858859e+001  1.306177e+002 
4159375000  -3.905436e+001  1.349728e+002 
4162500000  -3.813713e+001  1.395199e+002 
4165625000  -3.699313e+001  1.344086e+002 
4168750000  -3.607236e+001  1.260943e+002 
4171875000  -3.617511e+001  1.169283e+002 
4175000000  -3.674531e+001  1.133095e+002 
4178125000  -3.751251e+001  1.121080e+002 
4181250000  -3.720195e+001  1.115036e+002 
4184375000  -3.688650e+001  1.072904e+002 
4187500000  -3.688411e+001  1.052050e+002 
4190625000  -3.684064e+001  9.862727e+001 
4193750000  -3.767413e+001  9.488828e+001 
4196875000  -3.805780e+001  9.335106e+001 
4200000000  -3.921321e+001  9.528493e+001 
4203125000  -3.873075e+001  1.106964e+002 
4206250000  -3.526150e+001  1.089427e+002 
4209375000  -3.428060e+001  8.547388e+001 
4212500000  -3.616726e+001  7.784715e+001 
4215625000  -3.692414e+001  8.360957e+001 
4218750000  -3.534285e+001  8.948786e+001 
4221875000  -3.306082e+001  7.801054e+001 
4225000000  -3.442414e+001  6.638447e+001 
4228125000  -3.494397e+001  6.995071e+001 
4231250000  -3.321425e+001  6.407126e+001 
4234375000  -3.329015e+001  5.479041e+001 
4237500000  -3.280148e+001  4.974076e+001 
4240625000  -3.275160e+001  3.948249e+001 
4243750000  -3.379584e+001  3.241073e+001 
4246875000  -3.486489e+001  3.122933e+001 
4250000000  -3.473746e+001  3.183963e+001 
4253125000  -3.429846e+001  3.023072e+001 
4256250000  -3.472085e+001  2.463189e+001 
4259375000  -3.437598e+001  2.044162e+001 
4262500000  -3.464355e+001  1.671331e+001 
4265625000  -3.463660e+001  1.464209e+001 
4268750000  -3.362175e+001  8.572557e+000 
4271875000  -3.369012e+001  1.291932e+000 
4275000000  -3.333588e+001  -5.523410e+000 
4278125000  -3.426515e+001  -1.918425e+001 
4281250000  -3.594148e+001  -1.951769e+001 
4284375000  -3.563330e+001  -1.974764e+001 
4287500000  -3.682395e+001  -2.435031e+001 
4290625000  -3.820193e+001  -1.500684e+001 
4293750000  -3.632008e+001  -1.010773e+001 
4296875000  -3.524950e+001  -2.203775e+001 
4300000000  -3.607468e+001  -3.011198e+001 
4303125000  -3.730363e+001  -2.710711e+001 
4306250000  -3.673739e+001  -2.204184e+001 
4309375000  -3.543727e+001  -2.494298e+001 
4312500000  -3.517937e+001  -3.381458e+001 
4315625000  -3.540022e+001  -3.936049e+001 
4318750000  -3.589965e+001  -4.056433e+001 
4321875000  -3.580199e+001  -4.164536e+001 
4325000000  -3.525215e+001  -4.096368e+001 
4328125000  -3.440750e+001  -4.609029e+001 
4331250000  -3.431747e+001  -5.565141e+001 
4334375000  -3.459259e+001  -6.125433e+001 
4337500000  -3.551602e+001  -6.265548e+001 
4340625000  -3.599260e+001  -5.922075e+001 
4343750000  -3.493841e+001  -5.995615e+001 
4346875000  -3.451137e+001  -6.581915e+001 
4350000000  -3.430614e+001  -7.250392e+001 
4353125000  -3.424839e+001  -7.914026e+001 
4356250000  -3.623992e+001  -8.014114e+001 
4359375000  -3.627266e+001  -6.785527e+001 
4362500000  -3.336758e+001  -6.942857e+001 
4365625000  -3.179157e+001  -8.398664e+001 
4368750000  -3.255626e+001  -9.644854e+001 
4371875000  -3.368809e+001  -9.544548e+001 
4375000000  -3.306182e+001  -9.694873e+001 
4378125000  -3.256112e+001  -1.046197e+002 
4381250000  -3.269560e+001  -1.120348e+002 
4384375000  -3.246217e+001  -1.180072e+002 
4387500000  -3.325669e+001  -1.255704e+002 
4390625000  -3.416141e+001  -1.254690e+002 
4393750000  -3.355997e+001  -1.254041e+002 
4396875000  -3.290449e+001  -1.294022e+002 
4400000000  -3.229537e+001  -1.376923e+002 
4403125000  -3.328655e+001  -1.473319e+002 
4406250000  -3.410617e+001  -1.497021e+002 
4409375000  -3.429746e+001  -1.533108e+002 
4412500000  -3.518769e+001  -1.573942e+002 
4415625000  -3.581809e+001  -1.520267e+002 
