!Agilent Technologies,E8363B,MY43030201,A.06.04.32
!Agilent E8363B: A.06.04.32
!Date: Tuesday, November 11, 2014 21:13:08
!Correction: S21(Response(S21)) 
!S1P File: Measurement: S21:
# Hz S  dB   R 50
3000000000  -3.637790e+001  -6.018667e+001 
3003125000  -3.765579e+001  -6.673047e+001 
3006250000  -3.752850e+001  -6.888297e+001 
3009375000  -3.778595e+001  -6.357949e+001 
3012500000  -3.697689e+001  -6.693616e+001 
3015625000  -3.622284e+001  -7.301056e+001 
3018750000  -3.685006e+001  -7.487494e+001 
3021875000  -3.541260e+001  -7.346323e+001 
3025000000  -3.406944e+001  -7.712917e+001 
3028125000  -3.314881e+001  -8.431995e+001 
3031250000  -3.221312e+001  -9.579690e+001 
3034375000  -3.192748e+001  -1.088879e+002 
3037500000  -3.235554e+001  -1.207783e+002 
3040625000  -3.376697e+001  -1.257983e+002 
3043750000  -3.433351e+001  -1.306643e+002 
3046875000  -3.463303e+001  -1.360730e+002 
3050000000  -3.634607e+001  -1.422383e+002 
3053125000  -3.611133e+001  -1.361942e+002 
3056250000  -3.569246e+001  -1.331025e+002 
3059375000  -3.570300e+001  -1.337507e+002 
3062500000  -3.417755e+001  -1.370236e+002 
3065625000  -3.402382e+001  -1.437185e+002 
3068750000  -3.367745e+001  -1.501181e+002 
3071875000  -3.365244e+001  -1.524482e+002 
3075000000  -3.337220e+001  -1.568178e+002 
3078125000  -3.305786e+001  -1.608893e+002 
3081250000  -3.355528e+001  -1.649551e+002 
3084375000  -3.266762e+001  -1.685224e+002 
3087500000  -3.255809e+001  -1.722446e+002 
3090625000  -3.202678e+001  1.769705e+002 
3093750000  -3.249850e+001  1.696283e+002 
3096875000  -3.347260e+001  1.641704e+002 
3100000000  -3.335004e+001  1.627070e+002 
3103125000  -3.362836e+001  1.622814e+002 
3106250000  -3.317382e+001  1.583487e+002 
3109375000  -3.321476e+001  1.543520e+002 
3112500000  -3.317538e+001  1.518880e+002 
3115625000  -3.280039e+001  1.476753e+002 
3118750000  -3.319971e+001  1.469338e+002 
3121875000  -3.232163e+001  1.377514e+002 
3125000000  -3.361294e+001  1.336096e+002 
3128125000  -3.450662e+001  1.416901e+002 
3131250000  -3.207447e+001  1.390595e+002 
3134375000  -3.070699e+001  1.228217e+002 
3137500000  -3.133019e+001  1.098611e+002 
3140625000  -3.270044e+001  1.071751e+002 
3143750000  -3.380926e+001  1.083386e+002 
3146875000  -3.333324e+001  1.092543e+002 
3150000000  -3.232181e+001  1.088822e+002 
3153125000  -3.233271e+001  9.977556e+001 
3156250000  -3.338885e+001  1.050195e+002 
3159375000  -3.150829e+001  1.062067e+002 
3162500000  -2.967489e+001  9.118563e+001 
3165625000  -3.080068e+001  7.881353e+001 
3168750000  -3.099626e+001  7.904788e+001 
3171875000  -3.012831e+001  7.338137e+001 
3175000000  -3.098029e+001  6.482786e+001 
3178125000  -3.062989e+001  6.573247e+001 
3181250000  -2.956480e+001  5.975920e+001 
3184375000  -2.897407e+001  4.703442e+001 
3187500000  -3.020485e+001  3.252281e+001 
3190625000  -3.294855e+001  2.475233e+001 
3193750000  -3.337233e+001  3.327838e+001 
3196875000  -3.305269e+001  3.756551e+001 
3200000000  -3.205371e+001  3.453109e+001 
3203125000  -3.129931e+001  2.796079e+001 
3206250000  -3.164999e+001  2.141684e+001 
3209375000  -3.118657e+001  1.564105e+001 
3212500000  -3.139825e+001  8.844149e+000 
3215625000  -3.143313e+001  5.083999e+000 
3218750000  -3.225137e+001  -2.251249e+000 
3221875000  -3.309405e+001  -7.279288e+000 
3225000000  -3.254884e+001  -8.463130e+000 
3228125000  -3.310556e+001  -1.376538e+001 
3231250000  -3.378861e+001  -1.631314e+001 
3234375000  -3.343552e+001  -1.583899e+001 
3237500000  -3.332178e+001  -1.808397e+001 
3240625000  -3.291935e+001  -2.072944e+001 
3243750000  -3.261189e+001  -2.837308e+001 
3246875000  -3.295085e+001  -3.597728e+001 
3250000000  -3.350975e+001  -3.771417e+001 
3253125000  -3.350373e+001  -3.922196e+001 
3256250000  -3.315763e+001  -4.711996e+001 
3259375000  -3.342248e+001  -5.545772e+001 
3262500000  -3.460201e+001  -5.888700e+001 
3265625000  -3.519743e+001  -5.609418e+001 
3268750000  -3.507901e+001  -5.420609e+001 
3271875000  -3.457421e+001  -5.489846e+001 
3275000000  -3.371601e+001  -6.191747e+001 
3278125000  -3.418646e+001  -6.783656e+001 
3281250000  -3.433366e+001  -6.740912e+001 
3284375000  -3.377589e+001  -7.421862e+001 
3287500000  -3.405251e+001  -7.750613e+001 
3290625000  -3.423203e+001  -8.398744e+001 
3293750000  -3.406083e+001  -9.006721e+001 
3296875000  -3.512568e+001  -9.073291e+001 
3300000000  -3.479508e+001  -9.045705e+001 
3303125000  -3.361400e+001  -9.514212e+001 
3306250000  -3.345305e+001  -1.027223e+002 
3309375000  -3.321500e+001  -1.089487e+002 
3312500000  -3.332007e+001  -1.202235e+002 
3315625000  -3.426503e+001  -1.284634e+002 
3318750000  -3.582959e+001  -1.310248e+002 
3321875000  -3.691223e+001  -1.300977e+002 
3325000000  -3.745630e+001  -1.240457e+002 
3328125000  -3.687422e+001  -1.244170e+002 
3331250000  -3.557836e+001  -1.177601e+002 
3334375000  -3.288623e+001  -1.293585e+002 
3337500000  -3.307379e+001  -1.489159e+002 
3340625000  -3.464252e+001  -1.596588e+002 
3343750000  -3.654299e+001  -1.609484e+002 
3346875000  -3.650472e+001  -1.581954e+002 
3350000000  -3.591616e+001  -1.606231e+002 
3353125000  -3.611989e+001  -1.651387e+002 
3356250000  -3.569747e+001  -1.732064e+002 
3359375000  -3.646840e+001  1.780800e+002 
3362500000  -3.754171e+001  1.719571e+002 
3365625000  -3.807289e+001  1.716697e+002 
3368750000  -3.875039e+001  1.693483e+002 
3371875000  -3.896952e+001  1.657974e+002 
3375000000  -4.037214e+001  1.644005e+002 
3378125000  -4.140310e+001  1.642871e+002 
3381250000  -4.263058e+001  1.709098e+002 
3384375000  -4.089933e+001  -1.636493e+002 
3387500000  -3.748338e+001  1.768627e+002 
3390625000  -3.907042e+001  1.578961e+002 
3393750000  -4.032545e+001  1.609892e+002 
3396875000  -3.923206e+001  1.623810e+002 
3400000000  -3.867241e+001  1.545661e+002 
3403125000  -3.930164e+001  1.480678e+002 
3406250000  -3.956462e+001  1.490111e+002 
3409375000  -4.002024e+001  1.415400e+002 
3412500000  -4.013682e+001  1.392392e+002 
3415625000  -4.093811e+001  1.405468e+002 
3418750000  -4.109114e+001  1.413889e+002 
3421875000  -4.100478e+001  1.434288e+002 
3425000000  -4.012154e+001  1.445083e+002 
3428125000  -3.932024e+001  1.405696e+002 
3431250000  -3.939086e+001  1.333047e+002 
3434375000  -3.921483e+001  1.263574e+002 
3437500000  -3.977205e+001  1.233147e+002 
3440625000  -3.996764e+001  1.238005e+002 
3443750000  -3.866856e+001  1.244049e+002 
3446875000  -3.786813e+001  1.168399e+002 
3450000000  -3.763025e+001  1.064238e+002 
3453125000  -3.797552e+001  9.678893e+001 
3456250000  -3.925827e+001  9.009019e+001 
3459375000  -4.011207e+001  9.224718e+001 
3462500000  -3.990679e+001  9.145511e+001 
3465625000  -3.982642e+001  8.616785e+001 
3468750000  -4.013573e+001  8.131696e+001 
3471875000  -4.010120e+001  8.098756e+001 
3475000000  -3.972082e+001  7.545362e+001 
3478125000  -4.060335e+001  6.803793e+001 
3481250000  -4.131977e+001  6.566740e+001 
3484375000  -4.230573e+001  7.077584e+001 
3487500000  -4.140019e+001  6.961631e+001 
3490625000  -4.094453e+001  6.558017e+001 
3493750000  -4.139252e+001  5.769557e+001 
3496875000  -4.205866e+001  5.710336e+001 
3500000000  -4.251137e+001  6.067136e+001 
3503125000  -4.227477e+001  6.137612e+001 
3506250000  -4.075784e+001  5.781731e+001 
3509375000  -4.058300e+001  4.730741e+001 
3512500000  -4.110972e+001  3.878985e+001 
3515625000  -4.180756e+001  3.660328e+001 
3518750000  -4.287055e+001  3.956160e+001 
3521875000  -4.214317e+001  3.515729e+001 
3525000000  -4.337507e+001  3.284097e+001 
3528125000  -4.327435e+001  4.059657e+001 
3531250000  -4.179708e+001  3.727606e+001 
3534375000  -4.163253e+001  2.626020e+001 
3537500000  -4.218062e+001  2.201814e+001 
3540625000  -4.351865e+001  1.958093e+001 
3543750000  -4.374398e+001  2.427900e+001 
3546875000  -4.363652e+001  3.600899e+001 
3550000000  -4.102158e+001  3.486524e+001 
3553125000  -3.987631e+001  1.858456e+001 
3556250000  -4.127741e+001  1.160208e+001 
3559375000  -4.092720e+001  1.287536e+001 
3562500000  -3.982204e+001  1.907426e+000 
3565625000  -4.074247e+001  -4.703345e+000 
3568750000  -4.087688e+001  -3.156534e+000 
3571875000  -4.069432e+001  -5.581150e+000 
3575000000  -4.025203e+001  -1.162136e+001 
3578125000  -4.088912e+001  -1.618941e+001 
3581250000  -4.138758e+001  -1.762328e+001 
3584375000  -4.028330e+001  -1.984303e+001 
3587500000  -3.965414e+001  -2.970357e+001 
3590625000  -4.044331e+001  -3.991659e+001 
3593750000  -4.161355e+001  -4.256507e+001 
3596875000  -4.183678e+001  -3.631438e+001 
3600000000  -4.026816e+001  -4.213994e+001 
3603125000  -4.071930e+001  -5.565835e+001 
3606250000  -4.160056e+001  -5.875019e+001 
3609375000  -4.245382e+001  -6.205442e+001 
3612500000  -4.287053e+001  -6.679198e+001 
3615625000  -4.314339e+001  -6.873901e+001 
3618750000  -4.405810e+001  -6.927102e+001 
3621875000  -4.381052e+001  -7.248158e+001 
3625000000  -4.493506e+001  -7.214889e+001 
3628125000  -4.476230e+001  -7.261621e+001 
3631250000  -4.467020e+001  -7.691850e+001 
3634375000  -4.621849e+001  -7.595618e+001 
3637500000  -4.610180e+001  -7.105863e+001 
3640625000  -4.547503e+001  -6.655802e+001 
3643750000  -4.451814e+001  -7.399924e+001 
3646875000  -4.494061e+001  -7.793381e+001 
3650000000  -4.569327e+001  -7.889687e+001 
3653125000  -4.546330e+001  -7.880804e+001 
3656250000  -4.573481e+001  -7.928145e+001 
3659375000  -4.531262e+001  -7.839009e+001 
3662500000  -4.468711e+001  -7.993002e+001 
3665625000  -4.441562e+001  -7.775378e+001 
3668750000  -4.330907e+001  -8.027993e+001 
3671875000  -4.244740e+001  -8.861060e+001 
3675000000  -4.287139e+001  -9.648649e+001 
3678125000  -4.273961e+001  -9.865147e+001 
3681250000  -4.263009e+001  -9.979686e+001 
3684375000  -4.237887e+001  -1.046151e+002 
3687500000  -4.257714e+001  -1.088810e+002 
3690625000  -4.260691e+001  -1.127248e+002 
3693750000  -4.351509e+001  -1.149983e+002 
3696875000  -4.343377e+001  -1.128179e+002 
3700000000  -4.218018e+001  -1.201073e+002 
3703125000  -4.246056e+001  -1.254277e+002 
3706250000  -4.360978e+001  -1.259675e+002 
3709375000  -4.294714e+001  -1.237981e+002 
3712500000  -4.187543e+001  -1.271943e+002 
3715625000  -4.141278e+001  -1.336723e+002 
3718750000  -4.111737e+001  -1.399980e+002 
3721875000  -4.141015e+001  -1.476746e+002 
3725000000  -4.154642e+001  -1.534394e+002 
3728125000  -4.213801e+001  -1.525613e+002 
3731250000  -4.144046e+001  -1.567422e+002 
3734375000  -4.135217e+001  -1.641116e+002 
3737500000  -4.242649e+001  -1.703861e+002 
3740625000  -4.334037e+001  -1.745374e+002 
3743750000  -4.332413e+001  -1.757855e+002 
3746875000  -4.411712e+001  -1.795328e+002 
3750000000  -4.495894e+001  -1.787117e+002 
3753125000  -4.490018e+001  -1.768711e+002 
3756250000  -4.480736e+001  -1.769027e+002 
3759375000  -4.552949e+001  -1.758834e+002 
3762500000  -4.461665e+001  1.790788e+002 
3765625000  -4.480309e+001  -1.760090e+002 
3768750000  -4.468084e+001  -1.725579e+002 
3771875000  -4.325685e+001  -1.736877e+002 
3775000000  -4.314436e+001  1.786966e+002 
3778125000  -4.355338e+001  1.756600e+002 
3781250000  -4.273395e+001  1.756926e+002 
3784375000  -4.280780e+001  1.750974e+002 
3787500000  -4.158709e+001  1.730654e+002 
3790625000  -4.200834e+001  1.639329e+002 
3793750000  -4.212943e+001  1.658151e+002 
3796875000  -4.081562e+001  1.606389e+002 
3800000000  -3.923252e+001  1.592065e+002 
3803125000  -3.986532e+001  1.467697e+002 
3806250000  -4.067124e+001  1.459242e+002 
3809375000  -4.029572e+001  1.448406e+002 
3812500000  -3.942918e+001  1.379826e+002 
3815625000  -4.022478e+001  1.260530e+002 
3818750000  -4.150294e+001  1.269233e+002 
3821875000  -4.122908e+001  1.368057e+002 
3825000000  -3.927140e+001  1.372719e+002 
3828125000  -3.775476e+001  1.180351e+002 
3831250000  -3.837842e+001  1.051655e+002 
3834375000  -4.015067e+001  1.043529e+002 
3837500000  -4.103233e+001  1.068678e+002 
3840625000  -3.955777e+001  1.060021e+002 
3843750000  -3.881259e+001  9.292896e+001 
3846875000  -3.990212e+001  8.785752e+001 
3850000000  -4.142307e+001  9.103468e+001 
3853125000  -4.030448e+001  9.400257e+001 
3856250000  -4.021709e+001  8.733324e+001 
3859375000  -3.944501e+001  8.187661e+001 
3862500000  -3.951441e+001  7.176054e+001 
3865625000  -3.985506e+001  6.924458e+001 
3868750000  -3.976573e+001  6.704329e+001 
3871875000  -3.917669e+001  6.379889e+001 
3875000000  -3.975149e+001  5.541722e+001 
3878125000  -4.094863e+001  5.467605e+001 
3881250000  -4.075038e+001  5.446640e+001 
3884375000  -4.042950e+001  5.105685e+001 
3887500000  -4.059101e+001  4.831519e+001 
3890625000  -4.113908e+001  4.470830e+001 
3893750000  -4.152298e+001  4.463755e+001 
3896875000  -4.198617e+001  4.646914e+001 
3900000000  -4.194553e+001  4.247473e+001 
3903125000  -4.129459e+001  4.031362e+001 
3906250000  -4.089573e+001  3.988240e+001 
3909375000  -4.015417e+001  3.641441e+001 
3912500000  -4.041966e+001  2.763652e+001 
3915625000  -4.182899e+001  2.855149e+001 
3918750000  -4.115479e+001  3.010342e+001 
3921875000  -4.061283e+001  2.683237e+001 
3925000000  -3.993495e+001  2.444438e+001 
3928125000  -3.880727e+001  1.774372e+001 
3931250000  -3.938497e+001  1.275666e+001 
3934375000  -3.999626e+001  1.009994e+001 
3937500000  -3.990049e+001  9.585526e+000 
3940625000  -4.016838e+001  7.848865e+000 
3943750000  -3.908516e+001  6.876431e+000 
3946875000  -3.794116e+001  8.741961e-001 
3950000000  -3.876868e+001  -7.315567e+000 
3953125000  -3.976108e+001  -7.920435e+000 
3956250000  -3.835677e+001  -6.499602e+000 
3959375000  -3.739610e+001  -1.230363e+001 
3962500000  -3.717613e+001  -1.578478e+001 
3965625000  -3.671996e+001  -2.666341e+001 
3968750000  -3.785532e+001  -3.463562e+001 
3971875000  -3.816240e+001  -3.701193e+001 
3975000000  -3.749995e+001  -3.928087e+001 
3978125000  -3.755180e+001  -4.340908e+001 
3981250000  -3.755119e+001  -4.891972e+001 
3984375000  -3.785303e+001  -5.591400e+001 
3987500000  -3.875224e+001  -5.833426e+001 
3990625000  -3.878161e+001  -5.959505e+001 
3993750000  -3.879660e+001  -6.514213e+001 
3996875000  -3.891764e+001  -6.879803e+001 
4000000000  -3.918783e+001  -7.020302e+001 
4003125000  -3.968455e+001  -6.741970e+001 
4006250000  -3.853449e+001  -6.908218e+001 
4009375000  -3.739265e+001  -8.311523e+001 
4012500000  -3.885527e+001  -8.993111e+001 
4015625000  -4.036503e+001  -8.839700e+001 
4018750000  -3.999096e+001  -8.663867e+001 
4021875000  -3.956100e+001  -8.854556e+001 
4025000000  -3.929516e+001  -9.181480e+001 
4028125000  -3.951999e+001  -9.725407e+001 
4031250000  -3.956822e+001  -9.994633e+001 
4034375000  -4.013622e+001  -9.978748e+001 
4037500000  -3.960113e+001  -9.813637e+001 
4040625000  -3.945869e+001  -1.019415e+002 
4043750000  -3.964128e+001  -1.034646e+002 
4046875000  -3.922861e+001  -1.040098e+002 
4050000000  -3.866385e+001  -1.091832e+002 
4053125000  -3.919576e+001  -1.118021e+002 
4056250000  -3.991299e+001  -1.079424e+002 
4059375000  -3.814391e+001  -1.086670e+002 
4062500000  -3.676355e+001  -1.139296e+002 
4065625000  -3.676395e+001  -1.181796e+002 
4068750000  -3.616148e+001  -1.243940e+002 
4071875000  -3.560935e+001  -1.325258e+002 
4075000000  -3.591995e+001  -1.403563e+002 
4078125000  -3.659722e+001  -1.418747e+002 
4081250000  -3.576592e+001  -1.462855e+002 
4084375000  -3.555081e+001  -1.545742e+002 
4087500000  -3.591906e+001  -1.614422e+002 
4090625000  -3.652697e+001  -1.631025e+002 
4093750000  -3.635966e+001  -1.647597e+002 
4096875000  -3.591641e+001  -1.717771e+002 
4100000000  -3.682534e+001  -1.794226e+002 
4103125000  -3.764252e+001  -1.791898e+002 
4106250000  -3.754900e+001  -1.753085e+002 
4109375000  -3.624401e+001  -1.775912e+002 
4112500000  -3.601884e+001  1.744632e+002 
4115625000  -3.633526e+001  1.675245e+002 
4118750000  -3.653843e+001  1.656943e+002 
4121875000  -3.622280e+001  1.586052e+002 
4125000000  -3.678032e+001  1.528054e+002 
4128125000  -3.781860e+001  1.530066e+002 
4131250000  -3.747911e+001  1.611087e+002 
4134375000  -3.526405e+001  1.526627e+002 
4137500000  -3.524629e+001  1.334395e+002 
4140625000  -3.743741e+001  1.263923e+002 
4143750000  -3.894594e+001  1.319388e+002 
4146875000  -3.868925e+001  1.383583e+002 
4150000000  -3.768505e+001  1.322755e+002 
4153125000  -3.756920e+001  1.247334e+002 
4156250000  -3.859546e+001  1.235285e+002 
4159375000  -3.885967e+001  1.285857e+002 
4162500000  -3.786323e+001  1.329521e+002 
4165625000  -3.683283e+001  1.286112e+002 
4168750000  -3.632889e+001  1.194217e+002 
4171875000  -3.650193e+001  1.107267e+002 
4175000000  -3.707048e+001  1.054316e+002 
4178125000  -3.768076e+001  1.056974e+002 
4181250000  -3.713561e+001  1.060130e+002 
4184375000  -3.704214e+001  9.986824e+001 
4187500000  -3.704018e+001  9.840584e+001 
4190625000  -3.684396e+001  9.252573e+001 
4193750000  -3.763917e+001  8.804797e+001 
4196875000  -3.857399e+001  8.746104e+001 
4200000000  -3.940553e+001  9.150929e+001 
4203125000  -3.904336e+001  1.051148e+002 
4206250000  -3.522666e+001  1.013936e+002 
4209375000  -3.418655e+001  8.093969e+001 
4212500000  -3.623022e+001  7.264570e+001 
4215625000  -3.709050e+001  7.989032e+001 
4218750000  -3.541098e+001  8.259670e+001 
4221875000  -3.340538e+001  7.234544e+001 
4225000000  -3.446656e+001  5.974057e+001 
4228125000  -3.500242e+001  6.330564e+001 
4231250000  -3.323050e+001  5.733811e+001 
4234375000  -3.337752e+001  4.911554e+001 
4237500000  -3.279938e+001  4.352890e+001 
4240625000  -3.280722e+001  3.377064e+001 
4243750000  -3.392535e+001  2.554200e+001 
4246875000  -3.479262e+001  2.484806e+001 
4250000000  -3.480486e+001  2.552671e+001 
4253125000  -3.441425e+001  2.265277e+001 
4256250000  -3.461005e+001  1.734742e+001 
4259375000  -3.425386e+001  1.425658e+001 
4262500000  -3.458735e+001  8.883566e+000 
4265625000  -3.468447e+001  8.311274e+000 
4268750000  -3.372721e+001  2.283417e+000 
4271875000  -3.363576e+001  -5.288621e+000 
4275000000  -3.316139e+001  -1.313134e+001 
4278125000  -3.414965e+001  -2.405641e+001 
4281250000  -3.599949e+001  -2.705989e+001 
4284375000  -3.572448e+001  -2.737816e+001 
4287500000  -3.687286e+001  -3.162556e+001 
4290625000  -3.812681e+001  -2.248314e+001 
4293750000  -3.611046e+001  -1.654357e+001 
4296875000  -3.500949e+001  -2.875798e+001 
4300000000  -3.622775e+001  -3.782750e+001 
4303125000  -3.729413e+001  -3.571230e+001 
4306250000  -3.662604e+001  -2.954983e+001 
4309375000  -3.551422e+001  -3.234716e+001 
4312500000  -3.540081e+001  -3.953373e+001 
4315625000  -3.539189e+001  -4.673444e+001 
4318750000  -3.583258e+001  -4.974383e+001 
4321875000  -3.580629e+001  -4.702081e+001 
4325000000  -3.530376e+001  -4.627156e+001 
4328125000  -3.460521e+001  -5.456485e+001 
4331250000  -3.449954e+001  -6.199147e+001 
4334375000  -3.491757e+001  -6.775560e+001 
4337500000  -3.564011e+001  -6.880943e+001 
4340625000  -3.608274e+001  -6.657227e+001 
4343750000  -3.506539e+001  -6.637804e+001 
4346875000  -3.463577e+001  -7.343249e+001 
4350000000  -3.479298e+001  -7.945167e+001 
4353125000  -3.472199e+001  -8.661938e+001 
4356250000  -3.668017e+001  -8.786484e+001 
4359375000  -3.622971e+001  -7.292184e+001 
4362500000  -3.341487e+001  -7.491748e+001 
4365625000  -3.188722e+001  -9.004785e+001 
4368750000  -3.281945e+001  -1.013120e+002 
4371875000  -3.380634e+001  -1.016499e+002 
4375000000  -3.333049e+001  -1.041019e+002 
4378125000  -3.263411e+001  -1.111684e+002 
4381250000  -3.272949e+001  -1.183460e+002 
4384375000  -3.262530e+001  -1.246059e+002 
4387500000  -3.345386e+001  -1.310093e+002 
4390625000  -3.418864e+001  -1.322098e+002 
4393750000  -3.368997e+001  -1.320719e+002 
4396875000  -3.304178e+001  -1.351357e+002 
4400000000  -3.258819e+001  -1.440626e+002 
4403125000  -3.330272e+001  -1.526992e+002 
4406250000  -3.411535e+001  -1.559686e+002 
4409375000  -3.429638e+001  -1.588118e+002 
4412500000  -3.562899e+001  -1.637488e+002 
4415625000  -3.577482e+001  -1.581304e+002 
