!Agilent Technologies,E8363B,MY43030201,A.06.04.32
!Agilent E8363B: A.06.04.32
!Date: Tuesday, November 11, 2014 21:11:08
!Correction: S21(Response(S21)) 
!S1P File: Measurement: S21:
# Hz S  dB   R 50
3000000000  -3.656311e+001  -5.576966e+001 
3003125000  -3.773920e+001  -6.210257e+001 
3006250000  -3.767162e+001  -6.426330e+001 
3009375000  -3.785571e+001  -6.051072e+001 
3012500000  -3.704465e+001  -6.177819e+001 
3015625000  -3.616014e+001  -6.931709e+001 
3018750000  -3.691188e+001  -7.055183e+001 
3021875000  -3.546506e+001  -6.954437e+001 
3025000000  -3.422787e+001  -7.268681e+001 
3028125000  -3.326315e+001  -8.003194e+001 
3031250000  -3.223706e+001  -9.133104e+001 
3034375000  -3.184614e+001  -1.048768e+002 
3037500000  -3.230293e+001  -1.166517e+002 
3040625000  -3.366130e+001  -1.210869e+002 
3043750000  -3.430696e+001  -1.265789e+002 
3046875000  -3.461874e+001  -1.327021e+002 
3050000000  -3.627624e+001  -1.383749e+002 
3053125000  -3.616927e+001  -1.327821e+002 
3056250000  -3.550131e+001  -1.293640e+002 
3059375000  -3.566298e+001  -1.296929e+002 
3062500000  -3.419176e+001  -1.334752e+002 
3065625000  -3.391118e+001  -1.392905e+002 
3068750000  -3.358759e+001  -1.468549e+002 
3071875000  -3.356886e+001  -1.490034e+002 
3075000000  -3.330756e+001  -1.534128e+002 
3078125000  -3.306011e+001  -1.574838e+002 
3081250000  -3.356351e+001  -1.618418e+002 
3084375000  -3.266520e+001  -1.657269e+002 
3087500000  -3.251890e+001  -1.691536e+002 
3090625000  -3.199882e+001  -1.796805e+002 
3093750000  -3.255992e+001  1.736944e+002 
3096875000  -3.355128e+001  1.675920e+002 
3100000000  -3.347007e+001  1.653684e+002 
3103125000  -3.363908e+001  1.661023e+002 
3106250000  -3.318894e+001  1.616142e+002 
3109375000  -3.323409e+001  1.585136e+002 
3112500000  -3.317241e+001  1.556654e+002 
3115625000  -3.290495e+001  1.513038e+002 
3118750000  -3.317483e+001  1.508632e+002 
3121875000  -3.231469e+001  1.414208e+002 
3125000000  -3.363864e+001  1.375721e+002 
3128125000  -3.445118e+001  1.456754e+002 
3131250000  -3.209008e+001  1.428265e+002 
3134375000  -3.078434e+001  1.273498e+002 
3137500000  -3.133792e+001  1.132101e+002 
3140625000  -3.282452e+001  1.104893e+002 
3143750000  -3.389709e+001  1.115452e+002 
3146875000  -3.330751e+001  1.133242e+002 
3150000000  -3.236092e+001  1.129289e+002 
3153125000  -3.240519e+001  1.037869e+002 
3156250000  -3.335567e+001  1.094263e+002 
3159375000  -3.147627e+001  1.099631e+002 
3162500000  -2.968359e+001  9.502265e+001 
3165625000  -3.076324e+001  8.296922e+001 
3168750000  -3.101520e+001  8.310764e+001 
3171875000  -3.011272e+001  7.771997e+001 
3175000000  -3.090312e+001  6.881113e+001 
3178125000  -3.057088e+001  6.941034e+001 
3181250000  -2.959235e+001  6.414516e+001 
3184375000  -2.894406e+001  5.107870e+001 
3187500000  -3.010554e+001  3.626767e+001 
3190625000  -3.273050e+001  2.842871e+001 
3193750000  -3.325561e+001  3.641132e+001 
3196875000  -3.291832e+001  4.155871e+001 
3200000000  -3.195017e+001  3.860680e+001 
3203125000  -3.120719e+001  3.205312e+001 
3206250000  -3.151373e+001  2.531844e+001 
3209375000  -3.108580e+001  1.948048e+001 
3212500000  -3.131882e+001  1.233866e+001 
3215625000  -3.139797e+001  8.663556e+000 
3218750000  -3.220162e+001  1.338934e+000 
3221875000  -3.291473e+001  -3.931612e+000 
3225000000  -3.252915e+001  -4.899164e+000 
3228125000  -3.295277e+001  -1.101926e+001 
3231250000  -3.362299e+001  -1.336727e+001 
3234375000  -3.328416e+001  -1.288704e+001 
3237500000  -3.336520e+001  -1.502960e+001 
3240625000  -3.294271e+001  -1.747812e+001 
3243750000  -3.250768e+001  -2.506713e+001 
3246875000  -3.294996e+001  -3.201780e+001 
3250000000  -3.345255e+001  -3.413551e+001 
3253125000  -3.347842e+001  -3.670216e+001 
3256250000  -3.308994e+001  -4.321513e+001 
3259375000  -3.337833e+001  -5.250442e+001 
3262500000  -3.465052e+001  -5.546772e+001 
3265625000  -3.520888e+001  -5.336887e+001 
3268750000  -3.509859e+001  -5.076081e+001 
3271875000  -3.462764e+001  -5.185696e+001 
3275000000  -3.374929e+001  -5.795872e+001 
3278125000  -3.426793e+001  -6.534675e+001 
3281250000  -3.432499e+001  -6.404868e+001 
3284375000  -3.385035e+001  -7.065965e+001 
3287500000  -3.404910e+001  -7.424116e+001 
3290625000  -3.431156e+001  -8.045263e+001 
3293750000  -3.397235e+001  -8.642883e+001 
3296875000  -3.512543e+001  -8.583485e+001 
3300000000  -3.477560e+001  -8.562495e+001 
3303125000  -3.359636e+001  -9.215572e+001 
3306250000  -3.342699e+001  -9.858138e+001 
3309375000  -3.310349e+001  -1.050459e+002 
3312500000  -3.327656e+001  -1.159496e+002 
3315625000  -3.434427e+001  -1.237871e+002 
3318750000  -3.573725e+001  -1.272587e+002 
3321875000  -3.665792e+001  -1.270129e+002 
3325000000  -3.711393e+001  -1.218203e+002 
3328125000  -3.671954e+001  -1.196731e+002 
3331250000  -3.548881e+001  -1.139932e+002 
3334375000  -3.273872e+001  -1.253607e+002 
3337500000  -3.300975e+001  -1.453637e+002 
3340625000  -3.438908e+001  -1.552893e+002 
3343750000  -3.639841e+001  -1.565673e+002 
3346875000  -3.646151e+001  -1.544411e+002 
3350000000  -3.587336e+001  -1.560742e+002 
3353125000  -3.589650e+001  -1.612723e+002 
3356250000  -3.550218e+001  -1.698510e+002 
3359375000  -3.630519e+001  -1.779975e+002 
3362500000  -3.738788e+001  1.767405e+002 
3365625000  -3.797659e+001  1.750761e+002 
3368750000  -3.860075e+001  1.715791e+002 
3371875000  -3.893615e+001  1.695938e+002 
3375000000  -4.031106e+001  1.677861e+002 
3378125000  -4.107222e+001  1.664961e+002 
3381250000  -4.264244e+001  1.776147e+002 
3384375000  -4.058434e+001  -1.613041e+002 
3387500000  -3.770430e+001  -1.786477e+002 
3390625000  -3.908179e+001  1.619603e+002 
3393750000  -4.023702e+001  1.625262e+002 
3396875000  -3.894901e+001  1.654359e+002 
3400000000  -3.842928e+001  1.586679e+002 
3403125000  -3.912722e+001  1.525996e+002 
3406250000  -3.962566e+001  1.529435e+002 
3409375000  -3.969161e+001  1.437744e+002 
3412500000  -4.010528e+001  1.413045e+002 
3415625000  -4.109587e+001  1.432378e+002 
3418750000  -4.104617e+001  1.440432e+002 
3421875000  -4.128350e+001  1.453195e+002 
3425000000  -4.020306e+001  1.463713e+002 
3428125000  -3.938944e+001  1.426309e+002 
3431250000  -3.937956e+001  1.349374e+002 
3434375000  -3.896587e+001  1.286841e+002 
3437500000  -3.977158e+001  1.243165e+002 
3440625000  -3.999903e+001  1.265795e+002 
3443750000  -3.871146e+001  1.280455e+002 
3446875000  -3.791557e+001  1.197665e+002 
3450000000  -3.763638e+001  1.096654e+002 
3453125000  -3.805960e+001  1.005260e+002 
3456250000  -3.916675e+001  9.334612e+001 
3459375000  -4.029368e+001  9.425401e+001 
3462500000  -3.961209e+001  9.514671e+001 
3465625000  -3.980922e+001  8.916660e+001 
3468750000  -4.006124e+001  8.521458e+001 
3471875000  -4.004706e+001  8.454523e+001 
3475000000  -3.972496e+001  7.868468e+001 
3478125000  -4.035605e+001  7.121355e+001 
3481250000  -4.119732e+001  6.822961e+001 
3484375000  -4.205771e+001  7.409652e+001 
3487500000  -4.139334e+001  7.110664e+001 
3490625000  -4.079939e+001  6.829559e+001 
3493750000  -4.109823e+001  6.143258e+001 
3496875000  -4.164221e+001  6.059777e+001 
3500000000  -4.226336e+001  6.213000e+001 
3503125000  -4.220417e+001  6.270916e+001 
3506250000  -4.055996e+001  5.836451e+001 
3509375000  -4.049373e+001  4.858390e+001 
3512500000  -4.097656e+001  4.078228e+001 
3515625000  -4.169208e+001  3.799914e+001 
3518750000  -4.239942e+001  3.886601e+001 
3521875000  -4.241909e+001  3.408879e+001 
3525000000  -4.377760e+001  3.388108e+001 
3528125000  -4.350150e+001  4.147080e+001 
3531250000  -4.196693e+001  3.787469e+001 
3534375000  -4.212948e+001  2.891316e+001 
3537500000  -4.246840e+001  2.370662e+001 
3540625000  -4.355960e+001  1.982877e+001 
3543750000  -4.417556e+001  2.750796e+001 
3546875000  -4.397510e+001  3.835095e+001 
3550000000  -4.132073e+001  3.947610e+001 
3553125000  -4.015049e+001  2.118767e+001 
3556250000  -4.166224e+001  1.542428e+001 
3559375000  -4.108587e+001  1.778845e+001 
3562500000  -4.008828e+001  6.773245e+000 
3565625000  -4.120565e+001  6.349317e-001 
3568750000  -4.135359e+001  4.220039e+000 
3571875000  -4.110202e+001  2.627687e-001 
3575000000  -4.076863e+001  -6.071484e+000 
3578125000  -4.127471e+001  -9.699986e+000 
3581250000  -4.152168e+001  -1.152527e+001 
3584375000  -4.055069e+001  -1.628235e+001 
3587500000  -3.996994e+001  -2.357053e+001 
3590625000  -4.048085e+001  -3.364769e+001 
3593750000  -4.180791e+001  -3.628605e+001 
3596875000  -4.167038e+001  -3.000226e+001 
3600000000  -4.033452e+001  -3.554999e+001 
3603125000  -4.057682e+001  -5.093803e+001 
3606250000  -4.164943e+001  -5.409064e+001 
3609375000  -4.190736e+001  -5.704901e+001 
3612500000  -4.284924e+001  -6.204518e+001 
3615625000  -4.311010e+001  -6.478561e+001 
3618750000  -4.359076e+001  -6.441829e+001 
3621875000  -4.355812e+001  -6.723206e+001 
3625000000  -4.436660e+001  -6.742543e+001 
3628125000  -4.403661e+001  -7.046483e+001 
3631250000  -4.402635e+001  -7.412111e+001 
3634375000  -4.564202e+001  -7.333877e+001 
3637500000  -4.531887e+001  -7.043704e+001 
3640625000  -4.469519e+001  -6.698090e+001 
3643750000  -4.396510e+001  -7.359559e+001 
3646875000  -4.481608e+001  -8.179651e+001 
3650000000  -4.543890e+001  -7.947282e+001 
3653125000  -4.521539e+001  -8.277589e+001 
3656250000  -4.595055e+001  -7.952995e+001 
3659375000  -4.572811e+001  -8.016866e+001 
3662500000  -4.490753e+001  -7.883105e+001 
3665625000  -4.475151e+001  -8.140489e+001 
3668750000  -4.397234e+001  -7.963157e+001 
3671875000  -4.291258e+001  -8.503568e+001 
3675000000  -4.309410e+001  -9.493787e+001 
3678125000  -4.304451e+001  -9.332785e+001 
3681250000  -4.281226e+001  -9.411417e+001 
3684375000  -4.264964e+001  -1.007394e+002 
3687500000  -4.299622e+001  -1.053940e+002 
3690625000  -4.304575e+001  -1.093278e+002 
3693750000  -4.371574e+001  -1.071236e+002 
3696875000  -4.336144e+001  -1.085932e+002 
3700000000  -4.261875e+001  -1.137190e+002 
3703125000  -4.284930e+001  -1.195460e+002 
3706250000  -4.393846e+001  -1.178057e+002 
3709375000  -4.307558e+001  -1.160251e+002 
3712500000  -4.212158e+001  -1.195009e+002 
3715625000  -4.142426e+001  -1.264501e+002 
3718750000  -4.099561e+001  -1.340656e+002 
3721875000  -4.111887e+001  -1.401973e+002 
3725000000  -4.137939e+001  -1.455750e+002 
3728125000  -4.180769e+001  -1.462254e+002 
3731250000  -4.187262e+001  -1.512347e+002 
3734375000  -4.098098e+001  -1.546241e+002 
3737500000  -4.197538e+001  -1.635988e+002 
3740625000  -4.314515e+001  -1.653275e+002 
3743750000  -4.308674e+001  -1.691715e+002 
3746875000  -4.344735e+001  -1.744039e+002 
3750000000  -4.371767e+001  -1.757070e+002 
3753125000  -4.421851e+001  -1.736268e+002 
3756250000  -4.419983e+001  -1.723502e+002 
3759375000  -4.438194e+001  -1.726819e+002 
3762500000  -4.441554e+001  -1.779191e+002 
3765625000  -4.535458e+001  -1.744472e+002 
3768750000  -4.457863e+001  -1.716923e+002 
3771875000  -4.285001e+001  -1.747903e+002 
3775000000  -4.312667e+001  -1.790760e+002 
3778125000  -4.319255e+001  1.759993e+002 
3781250000  -4.314038e+001  1.765328e+002 
3784375000  -4.291729e+001  1.761066e+002 
3787500000  -4.219948e+001  1.717394e+002 
3790625000  -4.237898e+001  1.657627e+002 
3793750000  -4.251904e+001  1.649474e+002 
3796875000  -4.131056e+001  1.621336e+002 
3800000000  -3.954214e+001  1.626699e+002 
3803125000  -4.043694e+001  1.538111e+002 
3806250000  -4.106674e+001  1.484777e+002 
3809375000  -4.078563e+001  1.479059e+002 
3812500000  -3.992389e+001  1.415016e+002 
3815625000  -4.051765e+001  1.303093e+002 
3818750000  -4.153939e+001  1.292525e+002 
3821875000  -4.123914e+001  1.374816e+002 
3825000000  -3.945242e+001  1.412406e+002 
3828125000  -3.807774e+001  1.248397e+002 
3831250000  -3.878200e+001  1.101271e+002 
3834375000  -4.020613e+001  1.087989e+002 
3837500000  -4.139339e+001  1.126218e+002 
3840625000  -4.009896e+001  1.112211e+002 
3843750000  -3.896956e+001  9.834560e+001 
3846875000  -3.984689e+001  9.231065e+001 
3850000000  -4.102875e+001  9.687156e+001 
3853125000  -4.028473e+001  9.958644e+001 
3856250000  -4.046801e+001  9.173320e+001 
3859375000  -3.949054e+001  8.713621e+001 
3862500000  -3.920405e+001  7.844771e+001 
3865625000  -3.985000e+001  7.256226e+001 
3868750000  -3.954705e+001  7.298532e+001 
3871875000  -3.914058e+001  6.813395e+001 
3875000000  -3.952531e+001  5.940994e+001 
3878125000  -4.072940e+001  5.863477e+001 
3881250000  -4.039180e+001  6.181795e+001 
3884375000  -4.016875e+001  5.621461e+001 
3887500000  -4.024276e+001  5.353389e+001 
3890625000  -4.075592e+001  4.941301e+001 
3893750000  -4.116494e+001  4.549790e+001 
3896875000  -4.164393e+001  4.489869e+001 
3900000000  -4.139717e+001  4.722367e+001 
3903125000  -4.149823e+001  4.633609e+001 
3906250000  -4.062658e+001  4.205167e+001 
3909375000  -4.023602e+001  3.821079e+001 
3912500000  -4.017353e+001  2.965483e+001 
3915625000  -4.140028e+001  3.295820e+001 
3918750000  -4.112168e+001  3.306613e+001 
3921875000  -4.070647e+001  3.066337e+001 
3925000000  -3.994942e+001  2.625596e+001 
3928125000  -3.923508e+001  2.082262e+001 
3931250000  -3.978717e+001  1.522719e+001 
3934375000  -4.020343e+001  1.466817e+001 
3937500000  -4.000127e+001  1.174368e+001 
3940625000  -4.039777e+001  9.448462e+000 
3943750000  -3.935739e+001  1.060541e+001 
3946875000  -3.847887e+001  3.827342e+000 
3950000000  -3.916208e+001  -3.492316e+000 
3953125000  -3.992739e+001  -5.273551e+000 
3956250000  -3.912440e+001  -3.007153e+000 
3959375000  -3.777999e+001  -7.453144e+000 
3962500000  -3.740565e+001  -1.263437e+001 
3965625000  -3.710839e+001  -2.215324e+001 
3968750000  -3.816274e+001  -2.983703e+001 
3971875000  -3.841217e+001  -3.115469e+001 
3975000000  -3.782964e+001  -3.415480e+001 
3978125000  -3.790289e+001  -3.849432e+001 
3981250000  -3.774640e+001  -4.273082e+001 
3984375000  -3.809863e+001  -4.881901e+001 
3987500000  -3.871694e+001  -5.319712e+001 
3990625000  -3.867540e+001  -5.346033e+001 
3993750000  -3.899407e+001  -5.787788e+001 
3996875000  -3.890585e+001  -6.121095e+001 
4000000000  -3.930163e+001  -6.351888e+001 
4003125000  -3.984487e+001  -6.096536e+001 
4006250000  -3.850331e+001  -6.293520e+001 
4009375000  -3.752464e+001  -7.608158e+001 
4012500000  -3.873951e+001  -8.177788e+001 
4015625000  -3.995889e+001  -8.136836e+001 
4018750000  -4.014094e+001  -8.267762e+001 
4021875000  -3.914246e+001  -8.218265e+001 
4025000000  -3.900224e+001  -8.904044e+001 
4028125000  -3.925784e+001  -9.355492e+001 
4031250000  -3.971893e+001  -9.540082e+001 
4034375000  -3.967319e+001  -9.601424e+001 
4037500000  -3.902165e+001  -9.409298e+001 
4040625000  -3.914922e+001  -9.890920e+001 
4043750000  -3.942607e+001  -9.953255e+001 
4046875000  -3.890723e+001  -1.011945e+002 
4050000000  -3.851757e+001  -1.072936e+002 
4053125000  -3.900776e+001  -1.106744e+002 
4056250000  -3.951069e+001  -1.065788e+002 
4059375000  -3.785430e+001  -1.042305e+002 
4062500000  -3.679583e+001  -1.112352e+002 
4065625000  -3.684221e+001  -1.148600e+002 
4068750000  -3.632278e+001  -1.222003e+002 
4071875000  -3.565857e+001  -1.300772e+002 
4075000000  -3.610752e+001  -1.364907e+002 
4078125000  -3.669739e+001  -1.389531e+002 
4081250000  -3.602597e+001  -1.435372e+002 
4084375000  -3.575144e+001  -1.509022e+002 
4087500000  -3.599484e+001  -1.573945e+002 
4090625000  -3.686007e+001  -1.589709e+002 
4093750000  -3.650184e+001  -1.598015e+002 
4096875000  -3.609607e+001  -1.675852e+002 
4100000000  -3.698374e+001  -1.742971e+002 
4103125000  -3.783006e+001  -1.734901e+002 
4106250000  -3.774604e+001  -1.698068e+002 
4109375000  -3.675495e+001  -1.717692e+002 
4112500000  -3.617844e+001  1.793850e+002 
4115625000  -3.665902e+001  1.742270e+002 
4118750000  -3.664089e+001  1.708082e+002 
4121875000  -3.637655e+001  1.648433e+002 
4125000000  -3.692576e+001  1.604033e+002 
4128125000  -3.781074e+001  1.592195e+002 
4131250000  -3.765086e+001  1.678073e+002 
4134375000  -3.510075e+001  1.591579e+002 
4137500000  -3.518275e+001  1.395641e+002 
4140625000  -3.747170e+001  1.326785e+002 
4143750000  -3.877820e+001  1.379808e+002 
4146875000  -3.846978e+001  1.451973e+002 
4150000000  -3.778188e+001  1.403994e+002 
4153125000  -3.776859e+001  1.315477e+002 
4156250000  -3.846766e+001  1.303599e+002 
4159375000  -3.888040e+001  1.352647e+002 
4162500000  -3.742227e+001  1.394388e+002 
4165625000  -3.649850e+001  1.331333e+002 
4168750000  -3.600491e+001  1.255100e+002 
4171875000  -3.591388e+001  1.146811e+002 
4175000000  -3.676572e+001  1.098406e+002 
4178125000  -3.720052e+001  1.103307e+002 
4181250000  -3.701680e+001  1.093658e+002 
4184375000  -3.678376e+001  1.051694e+002 
4187500000  -3.671412e+001  1.014232e+002 
4190625000  -3.667947e+001  9.681200e+001 
4193750000  -3.768035e+001  9.263718e+001 
4196875000  -3.836589e+001  9.094320e+001 
4200000000  -3.917260e+001  9.333034e+001 
4203125000  -3.869531e+001  1.057773e+002 
4206250000  -3.518207e+001  1.054010e+002 
4209375000  -3.420669e+001  8.384169e+001 
4212500000  -3.629080e+001  7.373178e+001 
4215625000  -3.704951e+001  8.220784e+001 
4218750000  -3.549652e+001  8.601613e+001 
4221875000  -3.333189e+001  7.540388e+001 
4225000000  -3.458389e+001  6.361787e+001 
4228125000  -3.521434e+001  6.674251e+001 
4231250000  -3.359739e+001  6.113594e+001 
4234375000  -3.342026e+001  5.273410e+001 
4237500000  -3.305328e+001  4.732963e+001 
4240625000  -3.310549e+001  3.760705e+001 
4243750000  -3.411764e+001  2.952324e+001 
4246875000  -3.492792e+001  2.842413e+001 
4250000000  -3.494494e+001  3.087465e+001 
4253125000  -3.459184e+001  2.775859e+001 
4256250000  -3.479934e+001  2.305703e+001 
4259375000  -3.458726e+001  1.945849e+001 
4262500000  -3.474408e+001  1.479592e+001 
4265625000  -3.486460e+001  1.480758e+001 
4268750000  -3.396228e+001  9.826938e+000 
4271875000  -3.387402e+001  9.937634e-001 
4275000000  -3.351290e+001  -6.589355e+000 
4278125000  -3.426133e+001  -1.876019e+001 
4281250000  -3.604753e+001  -2.107730e+001 
4284375000  -3.567621e+001  -1.966460e+001 
4287500000  -3.684104e+001  -2.468934e+001 
4290625000  -3.800586e+001  -1.469421e+001 
4293750000  -3.611689e+001  -1.033498e+001 
4296875000  -3.482874e+001  -2.158572e+001 
4300000000  -3.602891e+001  -3.120897e+001 
4303125000  -3.717736e+001  -3.047340e+001 
4306250000  -3.657157e+001  -2.389122e+001 
4309375000  -3.494327e+001  -2.450942e+001 
4312500000  -3.485968e+001  -3.377076e+001 
4315625000  -3.504546e+001  -4.029512e+001 
4318750000  -3.541773e+001  -4.328719e+001 
4321875000  -3.556313e+001  -4.243222e+001 
4325000000  -3.491226e+001  -4.239017e+001 
4328125000  -3.416146e+001  -4.958226e+001 
4331250000  -3.400669e+001  -5.858761e+001 
4334375000  -3.451871e+001  -6.448493e+001 
4337500000  -3.526900e+001  -6.588489e+001 
4340625000  -3.587632e+001  -6.281361e+001 
4343750000  -3.479988e+001  -6.359630e+001 
4346875000  -3.443725e+001  -6.998151e+001 
4350000000  -3.435542e+001  -7.626668e+001 
4353125000  -3.448588e+001  -8.471136e+001 
4356250000  -3.607645e+001  -8.567931e+001 
4359375000  -3.653121e+001  -7.143240e+001 
4362500000  -3.345407e+001  -7.267636e+001 
4365625000  -3.182028e+001  -8.661539e+001 
4368750000  -3.284561e+001  -9.821129e+001 
4371875000  -3.380247e+001  -9.954950e+001 
4375000000  -3.328899e+001  -1.002759e+002 
4378125000  -3.261561e+001  -1.073760e+002 
4381250000  -3.293331e+001  -1.142948e+002 
4384375000  -3.275398e+001  -1.207068e+002 
4387500000  -3.364915e+001  -1.277508e+002 
4390625000  -3.444693e+001  -1.267001e+002 
4393750000  -3.384936e+001  -1.269705e+002 
4396875000  -3.318948e+001  -1.308174e+002 
4400000000  -3.280623e+001  -1.389549e+002 
4403125000  -3.354740e+001  -1.470796e+002 
4406250000  -3.424519e+001  -1.494713e+002 
4409375000  -3.450578e+001  -1.538304e+002 
4412500000  -3.564586e+001  -1.562863e+002 
4415625000  -3.599936e+001  -1.522258e+002 
