!Agilent Technologies,E8363B,MY43030201,A.06.04.32
!Agilent E8363B: A.06.04.32
!Date: Tuesday, November 11, 2014 21:09:17
!Correction: S21(Response(S21)) 
!S1P File: Measurement: S21:
# Hz S  dB   R 50
3000000000  -3.642621e+001  -5.400812e+001 
3003125000  -3.759320e+001  -6.115469e+001 
3006250000  -3.736295e+001  -6.332852e+001 
3009375000  -3.768074e+001  -5.869320e+001 
3012500000  -3.704633e+001  -6.066904e+001 
3015625000  -3.614935e+001  -6.801486e+001 
3018750000  -3.693401e+001  -6.937685e+001 
3021875000  -3.543533e+001  -6.841065e+001 
3025000000  -3.414247e+001  -7.161700e+001 
3028125000  -3.318150e+001  -7.813096e+001 
3031250000  -3.219502e+001  -8.958114e+001 
3034375000  -3.180229e+001  -1.036375e+002 
3037500000  -3.226337e+001  -1.151933e+002 
3040625000  -3.360033e+001  -1.198848e+002 
3043750000  -3.425500e+001  -1.253645e+002 
3046875000  -3.457993e+001  -1.308302e+002 
3050000000  -3.612335e+001  -1.370102e+002 
3053125000  -3.608162e+001  -1.310362e+002 
3056250000  -3.557590e+001  -1.276499e+002 
3059375000  -3.563301e+001  -1.284002e+002 
3062500000  -3.413212e+001  -1.327706e+002 
3065625000  -3.391637e+001  -1.379371e+002 
3068750000  -3.361457e+001  -1.445785e+002 
3071875000  -3.362421e+001  -1.474398e+002 
3075000000  -3.328981e+001  -1.510707e+002 
3078125000  -3.308904e+001  -1.555441e+002 
3081250000  -3.355549e+001  -1.596187e+002 
3084375000  -3.267043e+001  -1.634282e+002 
3087500000  -3.252735e+001  -1.675416e+002 
3090625000  -3.199733e+001  -1.775377e+002 
3093750000  -3.243742e+001  1.753918e+002 
3096875000  -3.353445e+001  1.694516e+002 
3100000000  -3.344794e+001  1.673223e+002 
3103125000  -3.369583e+001  1.680793e+002 
3106250000  -3.315540e+001  1.639900e+002 
3109375000  -3.324803e+001  1.596161e+002 
3112500000  -3.321097e+001  1.568430e+002 
3115625000  -3.285661e+001  1.528155e+002 
3118750000  -3.320610e+001  1.525370e+002 
3121875000  -3.233741e+001  1.434204e+002 
3125000000  -3.351417e+001  1.388569e+002 
3128125000  -3.444537e+001  1.463788e+002 
3131250000  -3.199003e+001  1.445162e+002 
3134375000  -3.071916e+001  1.290236e+002 
3137500000  -3.132022e+001  1.146644e+002 
3140625000  -3.283070e+001  1.119350e+002 
3143750000  -3.379582e+001  1.134043e+002 
3146875000  -3.329675e+001  1.148662e+002 
3150000000  -3.230141e+001  1.147398e+002 
3153125000  -3.236577e+001  1.053366e+002 
3156250000  -3.339117e+001  1.107406e+002 
3159375000  -3.160968e+001  1.115393e+002 
3162500000  -2.970318e+001  9.712612e+001 
3165625000  -3.078382e+001  8.503474e+001 
3168750000  -3.104329e+001  8.431071e+001 
3171875000  -3.016735e+001  7.921026e+001 
3175000000  -3.091833e+001  7.075524e+001 
3178125000  -3.066972e+001  7.147363e+001 
3181250000  -2.962566e+001  6.555386e+001 
3184375000  -2.891390e+001  5.332054e+001 
3187500000  -3.015193e+001  3.773993e+001 
3190625000  -3.285236e+001  3.023109e+001 
3193750000  -3.332035e+001  3.884409e+001 
3196875000  -3.302754e+001  4.305611e+001 
3200000000  -3.207259e+001  4.036999e+001 
3203125000  -3.130009e+001  3.381380e+001 
3206250000  -3.161115e+001  2.754284e+001 
3209375000  -3.109435e+001  2.167153e+001 
3212500000  -3.140851e+001  1.458991e+001 
3215625000  -3.147272e+001  1.048033e+001 
3218750000  -3.220376e+001  3.581079e+000 
3221875000  -3.305835e+001  -1.981432e+000 
3225000000  -3.251254e+001  -2.791056e+000 
3228125000  -3.310069e+001  -8.153259e+000 
3231250000  -3.368247e+001  -1.080612e+001 
3234375000  -3.343557e+001  -1.049510e+001 
3237500000  -3.340361e+001  -1.302156e+001 
3240625000  -3.289126e+001  -1.559385e+001 
3243750000  -3.257907e+001  -2.314145e+001 
3246875000  -3.296957e+001  -2.994228e+001 
3250000000  -3.345396e+001  -3.231715e+001 
3253125000  -3.350278e+001  -3.427069e+001 
3256250000  -3.315196e+001  -4.118357e+001 
3259375000  -3.346235e+001  -5.032972e+001 
3262500000  -3.457892e+001  -5.324394e+001 
3265625000  -3.526444e+001  -5.016641e+001 
3268750000  -3.514344e+001  -4.847884e+001 
3271875000  -3.472722e+001  -4.974152e+001 
3275000000  -3.363763e+001  -5.633826e+001 
3278125000  -3.417816e+001  -6.295263e+001 
3281250000  -3.435032e+001  -6.143065e+001 
3284375000  -3.381233e+001  -6.913932e+001 
3287500000  -3.398086e+001  -7.217143e+001 
3290625000  -3.420477e+001  -7.818766e+001 
3293750000  -3.402549e+001  -8.373630e+001 
3296875000  -3.519604e+001  -8.448259e+001 
3300000000  -3.489713e+001  -8.368709e+001 
3303125000  -3.355445e+001  -8.904984e+001 
3306250000  -3.356604e+001  -9.619643e+001 
3309375000  -3.318675e+001  -1.030808e+002 
3312500000  -3.322428e+001  -1.142209e+002 
3315625000  -3.426482e+001  -1.220867e+002 
3318750000  -3.574671e+001  -1.254705e+002 
3321875000  -3.690200e+001  -1.257270e+002 
3325000000  -3.742291e+001  -1.186507e+002 
3328125000  -3.684571e+001  -1.192198e+002 
3331250000  -3.561733e+001  -1.126743e+002 
3334375000  -3.289394e+001  -1.237244e+002 
3337500000  -3.308473e+001  -1.428638e+002 
3340625000  -3.442912e+001  -1.535688e+002 
3343750000  -3.651974e+001  -1.544476e+002 
3346875000  -3.654001e+001  -1.533136e+002 
3350000000  -3.598574e+001  -1.540423e+002 
3353125000  -3.603145e+001  -1.591959e+002 
3356250000  -3.565092e+001  -1.679561e+002 
3359375000  -3.644384e+001  -1.763940e+002 
3362500000  -3.762016e+001  1.775074e+002 
3365625000  -3.795857e+001  1.764716e+002 
3368750000  -3.874966e+001  1.743464e+002 
3371875000  -3.897189e+001  1.718990e+002 
3375000000  -4.057293e+001  1.692945e+002 
3378125000  -4.120824e+001  1.689651e+002 
3381250000  -4.252886e+001  1.799448e+002 
3384375000  -4.085977e+001  -1.594792e+002 
3387500000  -3.739968e+001  -1.767565e+002 
3390625000  -3.937097e+001  1.638681e+002 
3393750000  -4.051871e+001  1.668928e+002 
3396875000  -3.923385e+001  1.693627e+002 
3400000000  -3.869578e+001  1.600937e+002 
3403125000  -3.923824e+001  1.546870e+002 
3406250000  -3.958665e+001  1.549063e+002 
3409375000  -3.982202e+001  1.486047e+002 
3412500000  -4.031370e+001  1.455856e+002 
3415625000  -4.089336e+001  1.461443e+002 
3418750000  -4.120413e+001  1.468864e+002 
3421875000  -4.126331e+001  1.488966e+002 
3425000000  -4.025786e+001  1.512362e+002 
3428125000  -3.923814e+001  1.456064e+002 
3431250000  -3.926156e+001  1.380221e+002 
3434375000  -3.917860e+001  1.321483e+002 
3437500000  -3.964105e+001  1.285408e+002 
3440625000  -4.005753e+001  1.292493e+002 
3443750000  -3.872254e+001  1.300380e+002 
3446875000  -3.789507e+001  1.228008e+002 
3450000000  -3.763624e+001  1.122930e+002 
3453125000  -3.805681e+001  1.026245e+002 
3456250000  -3.920211e+001  9.663115e+001 
3459375000  -4.005180e+001  9.768584e+001 
3462500000  -3.988561e+001  9.767135e+001 
3465625000  -3.995185e+001  9.135539e+001 
3468750000  -4.026355e+001  8.785751e+001 
3471875000  -4.010273e+001  8.611124e+001 
3475000000  -3.971753e+001  8.096249e+001 
3478125000  -4.043469e+001  7.309079e+001 
3481250000  -4.139150e+001  7.146964e+001 
3484375000  -4.224591e+001  7.579121e+001 
3487500000  -4.120834e+001  7.542112e+001 
3490625000  -4.091845e+001  7.043563e+001 
3493750000  -4.121740e+001  6.414350e+001 
3496875000  -4.184719e+001  6.393433e+001 
3500000000  -4.268386e+001  6.569073e+001 
3503125000  -4.189759e+001  6.679710e+001 
3506250000  -4.078643e+001  6.099721e+001 
3509375000  -4.063725e+001  5.364412e+001 
3512500000  -4.136512e+001  4.469140e+001 
3515625000  -4.195892e+001  4.296159e+001 
3518750000  -4.265223e+001  4.324151e+001 
3521875000  -4.281973e+001  4.084938e+001 
3525000000  -4.306293e+001  3.744118e+001 
3528125000  -4.337744e+001  4.703571e+001 
3531250000  -4.164419e+001  4.391463e+001 
3534375000  -4.186797e+001  3.247356e+001 
3537500000  -4.222246e+001  2.611384e+001 
3540625000  -4.359409e+001  2.639982e+001 
3543750000  -4.397706e+001  2.925201e+001 
3546875000  -4.395122e+001  4.247889e+001 
3550000000  -4.110754e+001  4.016602e+001 
3553125000  -3.978751e+001  2.383204e+001 
3556250000  -4.157642e+001  1.697779e+001 
3559375000  -4.112805e+001  1.747362e+001 
3562500000  -4.008863e+001  8.784317e+000 
3565625000  -4.074168e+001  1.731345e+000 
3568750000  -4.115525e+001  6.242423e+000 
3571875000  -4.120535e+001  2.058858e+000 
3575000000  -4.064113e+001  -5.615496e+000 
3578125000  -4.120434e+001  -8.835033e+000 
3581250000  -4.111753e+001  -1.033712e+001 
3584375000  -4.032013e+001  -1.577977e+001 
3587500000  -3.999240e+001  -2.360139e+001 
3590625000  -4.064210e+001  -3.416927e+001 
3593750000  -4.174809e+001  -3.493071e+001 
3596875000  -4.162459e+001  -2.912614e+001 
3600000000  -4.035682e+001  -3.585984e+001 
3603125000  -4.075960e+001  -4.890570e+001 
3606250000  -4.155020e+001  -5.344855e+001 
3609375000  -4.242829e+001  -5.432204e+001 
3612500000  -4.305818e+001  -5.947843e+001 
3615625000  -4.312703e+001  -6.240607e+001 
3618750000  -4.386157e+001  -6.264332e+001 
3621875000  -4.349198e+001  -6.472171e+001 
3625000000  -4.425399e+001  -6.334891e+001 
3628125000  -4.455082e+001  -6.559967e+001 
3631250000  -4.432336e+001  -7.054417e+001 
3634375000  -4.580866e+001  -6.955509e+001 
3637500000  -4.585315e+001  -6.247137e+001 
3640625000  -4.460876e+001  -6.275519e+001 
3643750000  -4.492665e+001  -6.982986e+001 
3646875000  -4.484446e+001  -7.471165e+001 
3650000000  -4.583029e+001  -7.209203e+001 
3653125000  -4.485364e+001  -7.293204e+001 
3656250000  -4.557779e+001  -7.505338e+001 
3659375000  -4.551597e+001  -6.869640e+001 
3662500000  -4.461336e+001  -7.376054e+001 
3665625000  -4.420324e+001  -7.365849e+001 
3668750000  -4.325366e+001  -7.365461e+001 
3671875000  -4.205014e+001  -8.211640e+001 
3675000000  -4.239841e+001  -8.829322e+001 
3678125000  -4.291684e+001  -9.207858e+001 
3681250000  -4.223766e+001  -9.349244e+001 
3684375000  -4.230208e+001  -9.789225e+001 
3687500000  -4.266806e+001  -1.028007e+002 
3690625000  -4.275433e+001  -1.090748e+002 
3693750000  -4.323937e+001  -1.065650e+002 
3696875000  -4.323043e+001  -1.067732e+002 
3700000000  -4.234192e+001  -1.101710e+002 
3703125000  -4.241799e+001  -1.171708e+002 
3706250000  -4.359672e+001  -1.185118e+002 
3709375000  -4.319225e+001  -1.175660e+002 
3712500000  -4.200890e+001  -1.193868e+002 
3715625000  -4.112468e+001  -1.274614e+002 
3718750000  -4.120929e+001  -1.331870e+002 
3721875000  -4.108808e+001  -1.399457e+002 
3725000000  -4.145817e+001  -1.456053e+002 
3728125000  -4.193691e+001  -1.477143e+002 
3731250000  -4.137576e+001  -1.478571e+002 
3734375000  -4.126404e+001  -1.555554e+002 
3737500000  -4.200890e+001  -1.625758e+002 
3740625000  -4.322751e+001  -1.658981e+002 
3743750000  -4.301911e+001  -1.677874e+002 
3746875000  -4.336699e+001  -1.714861e+002 
3750000000  -4.445404e+001  -1.743849e+002 
3753125000  -4.445824e+001  -1.710280e+002 
3756250000  -4.456216e+001  -1.694302e+002 
3759375000  -4.465279e+001  -1.691796e+002 
3762500000  -4.441748e+001  -1.707809e+002 
3765625000  -4.525085e+001  -1.712470e+002 
3768750000  -4.479684e+001  -1.696789e+002 
3771875000  -4.301863e+001  -1.693979e+002 
3775000000  -4.301501e+001  -1.754920e+002 
3778125000  -4.351104e+001  -1.776930e+002 
3781250000  -4.300212e+001  -1.779909e+002 
3784375000  -4.269018e+001  -1.794291e+002 
3787500000  -4.180838e+001  1.774939e+002 
3790625000  -4.234380e+001  1.706734e+002 
3793750000  -4.217257e+001  1.684984e+002 
3796875000  -4.096710e+001  1.681942e+002 
3800000000  -3.946042e+001  1.663131e+002 
3803125000  -4.013618e+001  1.544783e+002 
3806250000  -4.081900e+001  1.525042e+002 
3809375000  -4.018639e+001  1.509684e+002 
3812500000  -3.975411e+001  1.425812e+002 
3815625000  -4.044744e+001  1.325956e+002 
3818750000  -4.133187e+001  1.318613e+002 
3821875000  -4.108679e+001  1.412547e+002 
3825000000  -3.945535e+001  1.425960e+002 
3828125000  -3.772282e+001  1.269990e+002 
3831250000  -3.839542e+001  1.112969e+002 
3834375000  -4.017831e+001  1.109791e+002 
3837500000  -4.112024e+001  1.143992e+002 
3840625000  -3.971801e+001  1.118928e+002 
3843750000  -3.904263e+001  9.975040e+001 
3846875000  -3.974021e+001  9.192537e+001 
3850000000  -4.089806e+001  9.950953e+001 
3853125000  -4.007467e+001  1.011992e+002 
3856250000  -4.049417e+001  9.255151e+001 
3859375000  -3.970192e+001  8.699043e+001 
3862500000  -3.932792e+001  8.052966e+001 
3865625000  -3.993021e+001  7.503762e+001 
3868750000  -3.973143e+001  7.605717e+001 
3871875000  -3.924028e+001  7.174326e+001 
3875000000  -3.955479e+001  6.147685e+001 
3878125000  -4.103787e+001  5.879053e+001 
3881250000  -4.072197e+001  6.210962e+001 
3884375000  -4.048295e+001  5.643121e+001 
3887500000  -4.056676e+001  5.176900e+001 
3890625000  -4.105057e+001  5.040050e+001 
3893750000  -4.150798e+001  5.057924e+001 
3896875000  -4.154234e+001  4.967206e+001 
3900000000  -4.233669e+001  4.998236e+001 
3903125000  -4.127309e+001  4.895163e+001 
3906250000  -4.099839e+001  4.571310e+001 
3909375000  -4.031547e+001  4.162922e+001 
3912500000  -4.016000e+001  3.510766e+001 
3915625000  -4.161692e+001  3.623658e+001 
3918750000  -4.119275e+001  3.718708e+001 
3921875000  -4.039970e+001  3.297050e+001 
3925000000  -3.971954e+001  3.137489e+001 
3928125000  -3.914930e+001  2.461349e+001 
3931250000  -3.958152e+001  1.933414e+001 
3934375000  -3.968909e+001  1.756027e+001 
3937500000  -3.995622e+001  1.634115e+001 
3940625000  -4.044481e+001  1.315111e+001 
3943750000  -3.914838e+001  1.485876e+001 
3946875000  -3.837331e+001  7.413106e+000 
3950000000  -3.885365e+001  -2.017128e+000 
3953125000  -3.981403e+001  -1.844404e+000 
3956250000  -3.894211e+001  4.851626e-001 
3959375000  -3.760643e+001  -3.910270e+000 
3962500000  -3.711094e+001  -9.461844e+000 
3965625000  -3.716566e+001  -1.962273e+001 
3968750000  -3.819717e+001  -2.770677e+001 
3971875000  -3.834530e+001  -3.109849e+001 
3975000000  -3.773050e+001  -3.288216e+001 
3978125000  -3.769671e+001  -3.660074e+001 
3981250000  -3.769433e+001  -4.189998e+001 
3984375000  -3.791600e+001  -4.758960e+001 
3987500000  -3.841371e+001  -4.934076e+001 
3990625000  -3.856300e+001  -5.213715e+001 
3993750000  -3.897102e+001  -5.718075e+001 
3996875000  -3.912626e+001  -6.055866e+001 
4000000000  -3.945005e+001  -6.286217e+001 
4003125000  -4.013527e+001  -6.069618e+001 
4006250000  -3.848253e+001  -6.274646e+001 
4009375000  -3.767133e+001  -7.350577e+001 
4012500000  -3.896637e+001  -8.144444e+001 
4015625000  -4.036629e+001  -8.002551e+001 
4018750000  -4.048105e+001  -7.758662e+001 
4021875000  -3.952018e+001  -8.061195e+001 
4025000000  -3.937455e+001  -8.584538e+001 
4028125000  -3.921195e+001  -8.924467e+001 
4031250000  -3.969707e+001  -9.240047e+001 
4034375000  -3.992774e+001  -9.324004e+001 
4037500000  -3.984001e+001  -9.022337e+001 
4040625000  -3.932744e+001  -9.471910e+001 
4043750000  -3.973843e+001  -9.646539e+001 
4046875000  -3.909160e+001  -9.654335e+001 
4050000000  -3.873794e+001  -1.026414e+002 
4053125000  -3.908624e+001  -1.043117e+002 
4056250000  -3.963623e+001  -1.005354e+002 
4059375000  -3.813928e+001  -1.018400e+002 
4062500000  -3.707342e+001  -1.069795e+002 
4065625000  -3.680150e+001  -1.099763e+002 
4068750000  -3.643602e+001  -1.184001e+002 
4071875000  -3.553756e+001  -1.257738e+002 
4075000000  -3.607063e+001  -1.332249e+002 
4078125000  -3.661779e+001  -1.357889e+002 
4081250000  -3.590844e+001  -1.382582e+002 
4084375000  -3.533843e+001  -1.468002e+002 
4087500000  -3.588936e+001  -1.532121e+002 
4090625000  -3.660024e+001  -1.561735e+002 
4093750000  -3.637381e+001  -1.566346e+002 
4096875000  -3.583673e+001  -1.643603e+002 
4100000000  -3.686691e+001  -1.713201e+002 
4103125000  -3.738002e+001  -1.707444e+002 
4106250000  -3.737619e+001  -1.668895e+002 
4109375000  -3.639927e+001  -1.707534e+002 
4112500000  -3.605560e+001  -1.771762e+002 
4115625000  -3.631882e+001  1.771199e+002 
4118750000  -3.659946e+001  1.724318e+002 
4121875000  -3.623702e+001  1.663658e+002 
4125000000  -3.674015e+001  1.612935e+002 
4128125000  -3.780677e+001  1.621710e+002 
4131250000  -3.756705e+001  1.685370e+002 
4134375000  -3.523169e+001  1.614325e+002 
4137500000  -3.532835e+001  1.412106e+002 
4140625000  -3.750615e+001  1.327237e+002 
4143750000  -3.884955e+001  1.382648e+002 
4146875000  -3.842125e+001  1.463672e+002 
4150000000  -3.773916e+001  1.407280e+002 
4153125000  -3.781065e+001  1.333933e+002 
4156250000  -3.859895e+001  1.315170e+002 
4159375000  -3.896894e+001  1.367974e+002 
4162500000  -3.782413e+001  1.404812e+002 
4165625000  -3.664504e+001  1.367166e+002 
4168750000  -3.623050e+001  1.271741e+002 
4171875000  -3.596455e+001  1.200102e+002 
4175000000  -3.698564e+001  1.143516e+002 
4178125000  -3.768599e+001  1.143396e+002 
4181250000  -3.708265e+001  1.133219e+002 
4184375000  -3.690714e+001  1.083193e+002 
4187500000  -3.694338e+001  1.053935e+002 
4190625000  -3.674483e+001  1.005474e+002 
4193750000  -3.753298e+001  9.729785e+001 
4196875000  -3.830825e+001  9.645132e+001 
4200000000  -3.926614e+001  9.825331e+001 
4203125000  -3.850262e+001  1.117155e+002 
4206250000  -3.528041e+001  1.103013e+002 
4209375000  -3.398035e+001  8.784384e+001 
4212500000  -3.615551e+001  7.857447e+001 
4215625000  -3.706312e+001  8.587827e+001 
4218750000  -3.561967e+001  9.100097e+001 
4221875000  -3.320352e+001  8.024280e+001 
4225000000  -3.440512e+001  6.784274e+001 
4228125000  -3.495028e+001  7.088062e+001 
4231250000  -3.315949e+001  6.575620e+001 
4234375000  -3.314205e+001  5.612310e+001 
4237500000  -3.271642e+001  5.183805e+001 
4240625000  -3.281007e+001  4.122636e+001 
4243750000  -3.392774e+001  3.336997e+001 
4246875000  -3.480796e+001  3.198648e+001 
4250000000  -3.468572e+001  3.483220e+001 
4253125000  -3.414363e+001  3.124167e+001 
4256250000  -3.453118e+001  2.531824e+001 
4259375000  -3.428719e+001  2.138439e+001 
4262500000  -3.443711e+001  1.714046e+001 
4265625000  -3.470700e+001  1.684910e+001 
4268750000  -3.373414e+001  1.069512e+001 
4271875000  -3.367300e+001  4.262499e+000 
4275000000  -3.325587e+001  -5.201795e+000 
4278125000  -3.412451e+001  -1.709098e+001 
4281250000  -3.579404e+001  -1.862103e+001 
4284375000  -3.558656e+001  -1.931102e+001 
4287500000  -3.682347e+001  -2.253321e+001 
4290625000  -3.795520e+001  -1.224311e+001 
4293750000  -3.610357e+001  -8.567391e+000 
4296875000  -3.487103e+001  -2.031563e+001 
4300000000  -3.589298e+001  -2.776791e+001 
4303125000  -3.724408e+001  -2.560459e+001 
4306250000  -3.653208e+001  -2.172652e+001 
4309375000  -3.501909e+001  -2.368957e+001 
4312500000  -3.530507e+001  -3.099319e+001 
4315625000  -3.519616e+001  -3.647437e+001 
4318750000  -3.555043e+001  -4.059116e+001 
4321875000  -3.569417e+001  -3.960049e+001 
4325000000  -3.507486e+001  -4.012174e+001 
4328125000  -3.436759e+001  -4.565216e+001 
4331250000  -3.421965e+001  -5.450467e+001 
4334375000  -3.466189e+001  -5.865323e+001 
4337500000  -3.543451e+001  -6.147529e+001 
4340625000  -3.566235e+001  -5.958160e+001 
4343750000  -3.492003e+001  -5.831272e+001 
4346875000  -3.440308e+001  -6.481713e+001 
4350000000  -3.423164e+001  -7.188549e+001 
4353125000  -3.446274e+001  -7.939057e+001 
4356250000  -3.613181e+001  -8.104034e+001 
4359375000  -3.643201e+001  -6.762040e+001 
4362500000  -3.338365e+001  -6.829467e+001 
4365625000  -3.171211e+001  -8.216344e+001 
4368750000  -3.250400e+001  -9.507075e+001 
4371875000  -3.348288e+001  -9.473864e+001 
4375000000  -3.305708e+001  -9.660011e+001 
4378125000  -3.234411e+001  -1.031481e+002 
4381250000  -3.259552e+001  -1.104344e+002 
4384375000  -3.243287e+001  -1.166513e+002 
4387500000  -3.323001e+001  -1.242456e+002 
4390625000  -3.412790e+001  -1.253227e+002 
4393750000  -3.348269e+001  -1.242030e+002 
4396875000  -3.283403e+001  -1.274689e+002 
4400000000  -3.246503e+001  -1.364428e+002 
4403125000  -3.310054e+001  -1.450701e+002 
4406250000  -3.389403e+001  -1.484529e+002 
4409375000  -3.412672e+001  -1.519013e+002 
4412500000  -3.532274e+001  -1.558014e+002 
4415625000  -3.558949e+001  -1.508467e+002 
