!Agilent Technologies,E8363B,MY43030201,A.06.04.32
!Agilent E8363B: A.06.04.32
!Date: Tuesday, November 11, 2014 21:06:36
!Correction: S21(Response(S21)) 
!S1P File: Measurement: S21:
# Hz S  dB   R 50
3000000000  -3.650083e+001  -4.888374e+001 
3003125000  -3.753952e+001  -5.538623e+001 
3006250000  -3.761653e+001  -5.827377e+001 
3009375000  -3.776111e+001  -5.344919e+001 
3012500000  -3.700228e+001  -5.511460e+001 
3015625000  -3.605327e+001  -6.233649e+001 
3018750000  -3.689464e+001  -6.333696e+001 
3021875000  -3.542564e+001  -6.318185e+001 
3025000000  -3.408538e+001  -6.634951e+001 
3028125000  -3.320697e+001  -7.300177e+001 
3031250000  -3.216138e+001  -8.438476e+001 
3034375000  -3.183321e+001  -9.826392e+001 
3037500000  -3.225251e+001  -1.105130e+002 
3040625000  -3.354771e+001  -1.144486e+002 
3043750000  -3.420650e+001  -1.195583e+002 
3046875000  -3.439513e+001  -1.258122e+002 
3050000000  -3.596749e+001  -1.322813e+002 
3053125000  -3.600106e+001  -1.257151e+002 
3056250000  -3.555653e+001  -1.228284e+002 
3059375000  -3.570254e+001  -1.237293e+002 
3062500000  -3.410333e+001  -1.269631e+002 
3065625000  -3.390262e+001  -1.328855e+002 
3068750000  -3.349068e+001  -1.406152e+002 
3071875000  -3.345666e+001  -1.420675e+002 
3075000000  -3.331099e+001  -1.465898e+002 
3078125000  -3.294990e+001  -1.504652e+002 
3081250000  -3.357010e+001  -1.553263e+002 
3084375000  -3.263993e+001  -1.589379e+002 
3087500000  -3.239751e+001  -1.628445e+002 
3090625000  -3.192480e+001  -1.726606e+002 
3093750000  -3.241795e+001  1.798862e+002 
3096875000  -3.355405e+001  1.739236e+002 
3100000000  -3.337506e+001  1.720693e+002 
3103125000  -3.362910e+001  1.723458e+002 
3106250000  -3.323655e+001  1.685571e+002 
3109375000  -3.328856e+001  1.647715e+002 
3112500000  -3.312156e+001  1.618673e+002 
3115625000  -3.286326e+001  1.576480e+002 
3118750000  -3.316533e+001  1.578817e+002 
3121875000  -3.229897e+001  1.482450e+002 
3125000000  -3.349919e+001  1.442376e+002 
3128125000  -3.447169e+001  1.517136e+002 
3131250000  -3.203518e+001  1.494658e+002 
3134375000  -3.073777e+001  1.342805e+002 
3137500000  -3.132749e+001  1.198274e+002 
3140625000  -3.282922e+001  1.173433e+002 
3143750000  -3.383323e+001  1.187228e+002 
3146875000  -3.336781e+001  1.198225e+002 
3150000000  -3.230286e+001  1.196352e+002 
3153125000  -3.233940e+001  1.104325e+002 
3156250000  -3.326723e+001  1.154587e+002 
3159375000  -3.157918e+001  1.166368e+002 
3162500000  -2.969872e+001  1.019120e+002 
3165625000  -3.064103e+001  9.015634e+001 
3168750000  -3.104792e+001  9.016294e+001 
3171875000  -3.018340e+001  8.476360e+001 
3175000000  -3.088435e+001  7.542066e+001 
3178125000  -3.061176e+001  7.620270e+001 
3181250000  -2.956621e+001  7.096191e+001 
3184375000  -2.885458e+001  5.822696e+001 
3187500000  -3.002924e+001  4.232843e+001 
3190625000  -3.266180e+001  3.499294e+001 
3193750000  -3.330161e+001  4.367117e+001 
3196875000  -3.289797e+001  4.797187e+001 
3200000000  -3.203462e+001  4.562905e+001 
3203125000  -3.122281e+001  3.909365e+001 
3206250000  -3.155804e+001  3.219949e+001 
3209375000  -3.105930e+001  2.637172e+001 
3212500000  -3.128010e+001  1.901911e+001 
3215625000  -3.144737e+001  1.559171e+001 
3218750000  -3.210282e+001  8.376258e+000 
3221875000  -3.296122e+001  2.107353e+000 
3225000000  -3.257655e+001  1.899849e+000 
3228125000  -3.291246e+001  -3.785307e+000 
3231250000  -3.370807e+001  -5.756315e+000 
3234375000  -3.333447e+001  -6.141194e+000 
3237500000  -3.336925e+001  -8.150462e+000 
3240625000  -3.293858e+001  -1.076457e+001 
3243750000  -3.253822e+001  -1.754474e+001 
3246875000  -3.294014e+001  -2.549078e+001 
3250000000  -3.338721e+001  -2.777186e+001 
3253125000  -3.350011e+001  -2.978253e+001 
3256250000  -3.315384e+001  -3.629266e+001 
3259375000  -3.338056e+001  -4.464419e+001 
3262500000  -3.466834e+001  -4.907151e+001 
3265625000  -3.523193e+001  -4.597048e+001 
3268750000  -3.517374e+001  -4.418066e+001 
3271875000  -3.476782e+001  -4.448672e+001 
3275000000  -3.363759e+001  -5.112867e+001 
3278125000  -3.412053e+001  -5.769040e+001 
3281250000  -3.433842e+001  -5.660325e+001 
3284375000  -3.387610e+001  -6.341267e+001 
3287500000  -3.411079e+001  -6.666161e+001 
3290625000  -3.439095e+001  -7.320681e+001 
3293750000  -3.414922e+001  -7.876450e+001 
3296875000  -3.508577e+001  -7.903138e+001 
3300000000  -3.486950e+001  -7.908190e+001 
3303125000  -3.363585e+001  -8.386279e+001 
3306250000  -3.343423e+001  -9.110255e+001 
3309375000  -3.316236e+001  -9.747444e+001 
3312500000  -3.325129e+001  -1.081567e+002 
3315625000  -3.423571e+001  -1.169597e+002 
3318750000  -3.563071e+001  -1.191217e+002 
3321875000  -3.675888e+001  -1.196586e+002 
3325000000  -3.724805e+001  -1.138418e+002 
3328125000  -3.690495e+001  -1.139065e+002 
3331250000  -3.581768e+001  -1.066235e+002 
3334375000  -3.296780e+001  -1.183041e+002 
3337500000  -3.305206e+001  -1.378243e+002 
3340625000  -3.438254e+001  -1.481235e+002 
3343750000  -3.639284e+001  -1.492596e+002 
3346875000  -3.647503e+001  -1.478937e+002 
3350000000  -3.588655e+001  -1.488461e+002 
3353125000  -3.594970e+001  -1.539438e+002 
3356250000  -3.555025e+001  -1.618785e+002 
3359375000  -3.623774e+001  -1.708006e+002 
3362500000  -3.729217e+001  -1.764890e+002 
3365625000  -3.779760e+001  -1.780604e+002 
3368750000  -3.864315e+001  -1.795201e+002 
3371875000  -3.884913e+001  1.766083e+002 
3375000000  -4.041235e+001  1.743046e+002 
3378125000  -4.119184e+001  1.730064e+002 
3381250000  -4.251383e+001  -1.769940e+002 
3384375000  -4.111276e+001  -1.559065e+002 
3387500000  -3.749192e+001  -1.713685e+002 
3390625000  -3.913693e+001  1.688230e+002 
3393750000  -4.043827e+001  1.722335e+002 
3396875000  -3.915282e+001  1.731020e+002 
3400000000  -3.843394e+001  1.643461e+002 
3403125000  -3.920069e+001  1.601256e+002 
3406250000  -3.966845e+001  1.599344e+002 
3409375000  -3.985879e+001  1.514769e+002 
3412500000  -4.032925e+001  1.491819e+002 
3415625000  -4.115904e+001  1.504866e+002 
3418750000  -4.091650e+001  1.504932e+002 
3421875000  -4.120344e+001  1.538364e+002 
3425000000  -4.025571e+001  1.534532e+002 
3428125000  -3.927884e+001  1.492878e+002 
3431250000  -3.918752e+001  1.434996e+002 
3434375000  -3.930858e+001  1.371900e+002 
3437500000  -3.963144e+001  1.345861e+002 
3440625000  -4.000186e+001  1.352266e+002 
3443750000  -3.882973e+001  1.356629e+002 
3446875000  -3.782570e+001  1.273682e+002 
3450000000  -3.751188e+001  1.172468e+002 
3453125000  -3.790986e+001  1.082615e+002 
3456250000  -3.908525e+001  1.015221e+002 
3459375000  -4.006596e+001  1.025542e+002 
3462500000  -3.989454e+001  1.008778e+002 
3465625000  -3.977969e+001  9.768251e+001 
3468750000  -3.999208e+001  9.258727e+001 
3471875000  -3.993413e+001  9.199155e+001 
3475000000  -3.964740e+001  8.693512e+001 
3478125000  -4.037140e+001  7.762375e+001 
3481250000  -4.123887e+001  7.718774e+001 
3484375000  -4.213811e+001  7.946334e+001 
3487500000  -4.122222e+001  7.920734e+001 
3490625000  -4.087091e+001  7.507360e+001 
3493750000  -4.149315e+001  6.753876e+001 
3496875000  -4.173423e+001  6.532381e+001 
3500000000  -4.229714e+001  6.635209e+001 
3503125000  -4.181145e+001  7.138210e+001 
3506250000  -4.060414e+001  6.586580e+001 
3509375000  -4.045594e+001  5.693882e+001 
3512500000  -4.138612e+001  4.781015e+001 
3515625000  -4.209525e+001  4.609120e+001 
3518750000  -4.276417e+001  4.560033e+001 
3521875000  -4.254080e+001  4.569221e+001 
3525000000  -4.332520e+001  4.162414e+001 
3528125000  -4.328687e+001  4.886755e+001 
3531250000  -4.193367e+001  4.587493e+001 
3534375000  -4.197826e+001  3.565838e+001 
3537500000  -4.254881e+001  3.017657e+001 
3540625000  -4.358460e+001  3.025206e+001 
3543750000  -4.434664e+001  3.444694e+001 
3546875000  -4.412136e+001  4.459283e+001 
3550000000  -4.183122e+001  4.487925e+001 
3553125000  -4.039966e+001  2.909410e+001 
3556250000  -4.163349e+001  2.182171e+001 
3559375000  -4.160501e+001  2.394888e+001 
3562500000  -4.037503e+001  1.307599e+001 
3565625000  -4.116645e+001  7.126823e+000 
3568750000  -4.135171e+001  1.105698e+001 
3571875000  -4.108524e+001  8.928420e+000 
3575000000  -4.075140e+001  3.206873e+000 
3578125000  -4.127552e+001  -3.315191e+000 
3581250000  -4.138324e+001  -2.590270e+000 
3584375000  -4.065886e+001  -7.293955e+000 
3587500000  -4.013920e+001  -1.650638e+001 
3590625000  -4.068326e+001  -2.652569e+001 
3593750000  -4.179745e+001  -2.885652e+001 
3596875000  -4.157527e+001  -2.156983e+001 
3600000000  -4.055772e+001  -2.755687e+001 
3603125000  -4.084078e+001  -4.357667e+001 
3606250000  -4.152728e+001  -4.554557e+001 
3609375000  -4.202429e+001  -5.014888e+001 
3612500000  -4.259465e+001  -5.228595e+001 
3615625000  -4.307380e+001  -5.475016e+001 
3618750000  -4.364925e+001  -5.443082e+001 
3621875000  -4.365985e+001  -5.694586e+001 
3625000000  -4.427306e+001  -6.244873e+001 
3628125000  -4.429059e+001  -6.288124e+001 
3631250000  -4.432402e+001  -6.534576e+001 
3634375000  -4.567348e+001  -6.657924e+001 
3637500000  -4.560316e+001  -6.100381e+001 
3640625000  -4.480718e+001  -5.784969e+001 
3643750000  -4.447501e+001  -6.592533e+001 
3646875000  -4.486034e+001  -7.373977e+001 
3650000000  -4.563277e+001  -7.094612e+001 
3653125000  -4.537143e+001  -7.350213e+001 
3656250000  -4.624036e+001  -7.242873e+001 
3659375000  -4.625055e+001  -6.774847e+001 
3662500000  -4.530638e+001  -6.990430e+001 
3665625000  -4.472282e+001  -7.274966e+001 
3668750000  -4.425837e+001  -7.217355e+001 
3671875000  -4.328721e+001  -7.733951e+001 
3675000000  -4.353006e+001  -8.308716e+001 
3678125000  -4.356028e+001  -8.435493e+001 
3681250000  -4.329055e+001  -8.773833e+001 
3684375000  -4.313850e+001  -9.260016e+001 
3687500000  -4.304193e+001  -9.650196e+001 
3690625000  -4.325094e+001  -1.000921e+002 
3693750000  -4.416896e+001  -1.013883e+002 
3696875000  -4.340313e+001  -1.011989e+002 
3700000000  -4.280466e+001  -1.060397e+002 
3703125000  -4.295352e+001  -1.114935e+002 
3706250000  -4.412602e+001  -1.105704e+002 
3709375000  -4.349691e+001  -1.089970e+002 
3712500000  -4.212133e+001  -1.110095e+002 
3715625000  -4.139258e+001  -1.205970e+002 
3718750000  -4.142805e+001  -1.236338e+002 
3721875000  -4.125522e+001  -1.309428e+002 
3725000000  -4.165996e+001  -1.360245e+002 
3728125000  -4.204519e+001  -1.367305e+002 
3731250000  -4.143319e+001  -1.407078e+002 
3734375000  -4.112719e+001  -1.478734e+002 
3737500000  -4.212049e+001  -1.534014e+002 
3740625000  -4.304292e+001  -1.585187e+002 
3743750000  -4.269950e+001  -1.629812e+002 
3746875000  -4.331365e+001  -1.609928e+002 
3750000000  -4.383775e+001  -1.631992e+002 
3753125000  -4.414715e+001  -1.650500e+002 
3756250000  -4.447304e+001  -1.666807e+002 
3759375000  -4.474388e+001  -1.653882e+002 
3762500000  -4.445864e+001  -1.645457e+002 
3765625000  -4.488371e+001  -1.674289e+002 
3768750000  -4.504731e+001  -1.621618e+002 
3771875000  -4.306037e+001  -1.645348e+002 
3775000000  -4.294900e+001  -1.718929e+002 
3778125000  -4.329224e+001  -1.747992e+002 
3781250000  -4.304571e+001  -1.722212e+002 
3784375000  -4.303538e+001  -1.741230e+002 
3787500000  -4.177459e+001  -1.792776e+002 
3790625000  -4.210265e+001  1.749431e+002 
3793750000  -4.245641e+001  1.765304e+002 
3796875000  -4.097629e+001  1.737181e+002 
3800000000  -3.969407e+001  1.712010e+002 
3803125000  -4.048836e+001  1.613882e+002 
3806250000  -4.117565e+001  1.586852e+002 
3809375000  -4.056584e+001  1.563511e+002 
3812500000  -4.004919e+001  1.497956e+002 
3815625000  -4.046595e+001  1.396293e+002 
3818750000  -4.117468e+001  1.400009e+002 
3821875000  -4.137608e+001  1.492907e+002 
3825000000  -3.970134e+001  1.499917e+002 
3828125000  -3.792207e+001  1.332211e+002 
3831250000  -3.877335e+001  1.191196e+002 
3834375000  -4.014223e+001  1.190928e+002 
3837500000  -4.127710e+001  1.215809e+002 
3840625000  -3.990026e+001  1.190787e+002 
3843750000  -3.888592e+001  1.061996e+002 
3846875000  -3.976510e+001  1.016825e+002 
3850000000  -4.105827e+001  1.049945e+002 
3853125000  -4.033040e+001  1.069600e+002 
3856250000  -4.062736e+001  1.021846e+002 
3859375000  -3.963988e+001  9.587584e+001 
3862500000  -3.932190e+001  8.642426e+001 
3865625000  -3.970691e+001  8.362865e+001 
3868750000  -3.972190e+001  8.268908e+001 
3871875000  -3.917381e+001  8.016370e+001 
3875000000  -3.942098e+001  6.724892e+001 
3878125000  -4.049217e+001  6.639890e+001 
3881250000  -4.050508e+001  6.880492e+001 
3884375000  -4.023693e+001  6.450081e+001 
3887500000  -4.024742e+001  5.764075e+001 
3890625000  -4.076085e+001  5.552697e+001 
3893750000  -4.110493e+001  5.536702e+001 
3896875000  -4.125653e+001  5.623218e+001 
3900000000  -4.178768e+001  5.548137e+001 
3903125000  -4.146653e+001  5.354135e+001 
3906250000  -4.089883e+001  4.978559e+001 
3909375000  -3.993703e+001  4.750026e+001 
3912500000  -4.009026e+001  3.803959e+001 
3915625000  -4.122728e+001  4.048604e+001 
3918750000  -4.076151e+001  4.190287e+001 
3921875000  -4.073085e+001  3.807468e+001 
3925000000  -3.962123e+001  3.576665e+001 
3928125000  -3.955976e+001  2.731944e+001 
3931250000  -3.949237e+001  2.433477e+001 
3934375000  -4.006893e+001  2.245298e+001 
3937500000  -3.998837e+001  2.261536e+001 
3940625000  -4.055302e+001  1.915010e+001 
3943750000  -3.946440e+001  2.088597e+001 
3946875000  -3.826369e+001  1.400113e+001 
3950000000  -3.931853e+001  3.987186e+000 
3953125000  -4.003052e+001  4.406110e+000 
3956250000  -3.885400e+001  5.758510e+000 
3959375000  -3.772858e+001  8.645017e-001 
3962500000  -3.718702e+001  -3.830318e+000 
3965625000  -3.729571e+001  -1.319920e+001 
3968750000  -3.794915e+001  -2.100197e+001 
3971875000  -3.832532e+001  -2.398195e+001 
3975000000  -3.781089e+001  -2.559063e+001 
3978125000  -3.808496e+001  -2.846357e+001 
3981250000  -3.771505e+001  -3.311483e+001 
3984375000  -3.807765e+001  -3.946796e+001 
3987500000  -3.863814e+001  -4.318768e+001 
3990625000  -3.853727e+001  -4.494773e+001 
3993750000  -3.888475e+001  -4.840190e+001 
3996875000  -3.885842e+001  -5.248063e+001 
4000000000  -3.918426e+001  -5.394076e+001 
4003125000  -3.963553e+001  -5.155844e+001 
4006250000  -3.833020e+001  -5.342442e+001 
4009375000  -3.722902e+001  -6.691987e+001 
4012500000  -3.841594e+001  -7.410369e+001 
4015625000  -3.974387e+001  -7.233038e+001 
4018750000  -4.007218e+001  -7.174780e+001 
4021875000  -3.909747e+001  -7.289993e+001 
4025000000  -3.893034e+001  -7.915585e+001 
4028125000  -3.892327e+001  -8.434757e+001 
4031250000  -3.950841e+001  -8.643730e+001 
4034375000  -3.970839e+001  -8.735532e+001 
4037500000  -3.905148e+001  -8.635880e+001 
4040625000  -3.935575e+001  -8.816228e+001 
4043750000  -3.936726e+001  -9.123443e+001 
4046875000  -3.889874e+001  -9.055411e+001 
4050000000  -3.855898e+001  -9.975693e+001 
4053125000  -3.913586e+001  -1.003678e+002 
4056250000  -3.953335e+001  -9.816582e+001 
4059375000  -3.808516e+001  -9.700550e+001 
4062500000  -3.671417e+001  -1.024931e+002 
4065625000  -3.653711e+001  -1.057107e+002 
4068750000  -3.633551e+001  -1.130187e+002 
4071875000  -3.578982e+001  -1.215742e+002 
4075000000  -3.600080e+001  -1.281098e+002 
4078125000  -3.666317e+001  -1.314404e+002 
4081250000  -3.604967e+001  -1.346258e+002 
4084375000  -3.558534e+001  -1.415527e+002 
4087500000  -3.609898e+001  -1.493795e+002 
4090625000  -3.663857e+001  -1.494339e+002 
4093750000  -3.648316e+001  -1.520670e+002 
4096875000  -3.597963e+001  -1.586386e+002 
4100000000  -3.710716e+001  -1.659732e+002 
4103125000  -3.760498e+001  -1.651982e+002 
4106250000  -3.779222e+001  -1.604853e+002 
4109375000  -3.668288e+001  -1.630542e+002 
4112500000  -3.617146e+001  -1.707445e+002 
4115625000  -3.649799e+001  -1.753857e+002 
4118750000  -3.679796e+001  1.796091e+002 
4121875000  -3.616931e+001  1.739709e+002 
4125000000  -3.673919e+001  1.700587e+002 
4128125000  -3.793045e+001  1.667772e+002 
4131250000  -3.769044e+001  1.753886e+002 
4134375000  -3.516646e+001  1.690279e+002 
4137500000  -3.511423e+001  1.494159e+002 
4140625000  -3.749307e+001  1.419546e+002 
4143750000  -3.868999e+001  1.448817e+002 
4146875000  -3.832705e+001  1.533879e+002 
4150000000  -3.751400e+001  1.486720e+002 
4153125000  -3.749018e+001  1.419992e+002 
4156250000  -3.838941e+001  1.388845e+002 
4159375000  -3.879020e+001  1.430625e+002 
4162500000  -3.781059e+001  1.466032e+002 
4165625000  -3.644830e+001  1.428845e+002 
4168750000  -3.597407e+001  1.339580e+002 
4171875000  -3.594519e+001  1.246064e+002 
4175000000  -3.685764e+001  1.195308e+002 
4178125000  -3.726890e+001  1.190736e+002 
4181250000  -3.697192e+001  1.186318e+002 
4184375000  -3.683775e+001  1.146909e+002 
4187500000  -3.674660e+001  1.107751e+002 
4190625000  -3.666722e+001  1.054620e+002 
4193750000  -3.757520e+001  1.005921e+002 
4196875000  -3.812405e+001  1.000578e+002 
4200000000  -3.888948e+001  1.021513e+002 
4203125000  -3.865044e+001  1.155777e+002 
4206250000  -3.516291e+001  1.149557e+002 
4209375000  -3.422268e+001  9.142403e+001 
4212500000  -3.642867e+001  8.427074e+001 
4215625000  -3.711167e+001  9.003910e+001 
4218750000  -3.569057e+001  9.521980e+001 
4221875000  -3.339029e+001  8.566022e+001 
4225000000  -3.464832e+001  7.124039e+001 
4228125000  -3.531351e+001  7.603085e+001 
4231250000  -3.348933e+001  7.126595e+001 
4234375000  -3.346249e+001  6.103357e+001 
4237500000  -3.305581e+001  5.804902e+001 
4240625000  -3.308930e+001  4.721164e+001 
4243750000  -3.413137e+001  3.949112e+001 
4246875000  -3.510995e+001  3.871048e+001 
4250000000  -3.522561e+001  3.995085e+001 
4253125000  -3.466600e+001  3.677293e+001 
4256250000  -3.488375e+001  3.202428e+001 
4259375000  -3.451154e+001  2.893902e+001 
4262500000  -3.477588e+001  2.345641e+001 
4265625000  -3.486708e+001  2.393890e+001 
4268750000  -3.416967e+001  1.799109e+001 
4271875000  -3.394661e+001  1.064351e+001 
4275000000  -3.339259e+001  3.137963e+000 
4278125000  -3.429628e+001  -9.472650e+000 
4281250000  -3.601123e+001  -1.173950e+001 
4284375000  -3.566376e+001  -1.020436e+001 
4287500000  -3.693624e+001  -1.543422e+001 
4290625000  -3.812869e+001  -5.837663e+000 
4293750000  -3.601774e+001  6.822668e-001 
4296875000  -3.485302e+001  -1.231598e+001 
4300000000  -3.595383e+001  -2.183843e+001 
4303125000  -3.709493e+001  -2.059300e+001 
4306250000  -3.642122e+001  -1.365349e+001 
4309375000  -3.504773e+001  -1.675976e+001 
4312500000  -3.506154e+001  -2.501460e+001 
4315625000  -3.523150e+001  -3.058867e+001 
4318750000  -3.550003e+001  -3.355625e+001 
4321875000  -3.561972e+001  -3.303744e+001 
4325000000  -3.493296e+001  -3.286168e+001 
4328125000  -3.441721e+001  -3.994017e+001 
4331250000  -3.412025e+001  -4.843224e+001 
4334375000  -3.457516e+001  -5.381089e+001 
4337500000  -3.544493e+001  -5.667274e+001 
4340625000  -3.585933e+001  -5.324068e+001 
4343750000  -3.489206e+001  -5.350983e+001 
4346875000  -3.471292e+001  -6.006586e+001 
4350000000  -3.466971e+001  -6.560019e+001 
4353125000  -3.452920e+001  -7.424536e+001 
4356250000  -3.641534e+001  -7.556193e+001 
4359375000  -3.633812e+001  -6.197036e+001 
4362500000  -3.346802e+001  -6.203523e+001 
4365625000  -3.203168e+001  -7.618246e+001 
4368750000  -3.290068e+001  -8.993471e+001 
4371875000  -3.389681e+001  -8.985993e+001 
4375000000  -3.359732e+001  -9.154704e+001 
4378125000  -3.287340e+001  -9.753135e+001 
4381250000  -3.302485e+001  -1.049829e+002 
4384375000  -3.278699e+001  -1.108220e+002 
4387500000  -3.358959e+001  -1.188041e+002 
4390625000  -3.454141e+001  -1.173354e+002 
4393750000  -3.374410e+001  -1.171369e+002 
4396875000  -3.339681e+001  -1.207059e+002 
4400000000  -3.278258e+001  -1.288323e+002 
4403125000  -3.356343e+001  -1.383239e+002 
4406250000  -3.443298e+001  -1.401847e+002 
4409375000  -3.447977e+001  -1.448125e+002 
4412500000  -3.573465e+001  -1.465097e+002 
4415625000  -3.597707e+001  -1.430313e+002 
