!Agilent Technologies,E8363B,MY43030201,A.06.04.32
!Agilent E8363B: A.06.04.32
!Date: Tuesday, November 11, 2014 21:03:20
!Correction: S21(Response(S21)) 
!S1P File: Measurement: S21:
# Hz S  dB   R 50
3000000000  -3.616814e+001  -5.096048e+001 
3003125000  -3.732486e+001  -5.638850e+001 
3006250000  -3.732452e+001  -5.881525e+001 
3009375000  -3.756195e+001  -5.499689e+001 
3012500000  -3.687910e+001  -5.502452e+001 
3015625000  -3.592155e+001  -6.315401e+001 
3018750000  -3.671114e+001  -6.430479e+001 
3021875000  -3.541708e+001  -6.352401e+001 
3025000000  -3.422713e+001  -6.663186e+001 
3028125000  -3.317542e+001  -7.240822e+001 
3031250000  -3.224194e+001  -8.375315e+001 
3034375000  -3.178979e+001  -9.741286e+001 
3037500000  -3.220612e+001  -1.095054e+002 
3040625000  -3.360645e+001  -1.140590e+002 
3043750000  -3.438243e+001  -1.181238e+002 
3046875000  -3.453307e+001  -1.245075e+002 
3050000000  -3.608211e+001  -1.309654e+002 
3053125000  -3.621274e+001  -1.249211e+002 
3056250000  -3.559664e+001  -1.215757e+002 
3059375000  -3.570684e+001  -1.224416e+002 
3062500000  -3.420143e+001  -1.252654e+002 
3065625000  -3.398842e+001  -1.312705e+002 
3068750000  -3.364075e+001  -1.379344e+002 
3071875000  -3.351323e+001  -1.408562e+002 
3075000000  -3.334159e+001  -1.440248e+002 
3078125000  -3.297976e+001  -1.477599e+002 
3081250000  -3.351589e+001  -1.527475e+002 
3084375000  -3.257955e+001  -1.557067e+002 
3087500000  -3.241207e+001  -1.599439e+002 
3090625000  -3.198853e+001  -1.698891e+002 
3093750000  -3.233918e+001  -1.776203e+002 
3096875000  -3.344099e+001  1.763084e+002 
3100000000  -3.332233e+001  1.740004e+002 
3103125000  -3.352321e+001  1.747720e+002 
3106250000  -3.303754e+001  1.708259e+002 
3109375000  -3.315201e+001  1.664595e+002 
3112500000  -3.309230e+001  1.643829e+002 
3115625000  -3.272197e+001  1.591366e+002 
3118750000  -3.304194e+001  1.595814e+002 
3121875000  -3.216956e+001  1.500059e+002 
3125000000  -3.337125e+001  1.458293e+002 
3128125000  -3.439845e+001  1.523247e+002 
3131250000  -3.208254e+001  1.513659e+002 
3134375000  -3.069318e+001  1.354192e+002 
3137500000  -3.120236e+001  1.216267e+002 
3140625000  -3.279728e+001  1.184105e+002 
3143750000  -3.380143e+001  1.196808e+002 
3146875000  -3.333268e+001  1.206518e+002 
3150000000  -3.232284e+001  1.210681e+002 
3153125000  -3.239563e+001  1.121452e+002 
3156250000  -3.337621e+001  1.162716e+002 
3159375000  -3.170859e+001  1.181891e+002 
3162500000  -2.976284e+001  1.032208e+002 
3165625000  -3.075017e+001  9.113131e+001 
3168750000  -3.119339e+001  9.150730e+001 
3171875000  -3.030180e+001  8.567165e+001 
3175000000  -3.103500e+001  7.683519e+001 
3178125000  -3.088591e+001  7.792430e+001 
3181250000  -2.974049e+001  7.247705e+001 
3184375000  -2.904734e+001  5.960403e+001 
3187500000  -3.022608e+001  4.401800e+001 
3190625000  -3.301477e+001  3.654388e+001 
3193750000  -3.359718e+001  4.550307e+001 
3196875000  -3.326242e+001  4.969413e+001 
3200000000  -3.234031e+001  4.747260e+001 
3203125000  -3.155251e+001  4.158213e+001 
3206250000  -3.186436e+001  3.409253e+001 
3209375000  -3.133320e+001  2.900523e+001 
3212500000  -3.156911e+001  2.181768e+001 
3215625000  -3.160345e+001  1.763412e+001 
3218750000  -3.245539e+001  1.095816e+001 
3221875000  -3.332230e+001  5.832297e+000 
3225000000  -3.293245e+001  4.932370e+000 
3228125000  -3.331289e+001  -5.411896e-001 
3231250000  -3.387697e+001  -3.069278e+000 
3234375000  -3.365494e+001  -2.180399e+000 
3237500000  -3.361550e+001  -4.003425e+000 
3240625000  -3.323364e+001  -6.729162e+000 
3243750000  -3.274469e+001  -1.466119e+001 
3246875000  -3.323522e+001  -2.162756e+001 
3250000000  -3.358627e+001  -2.350999e+001 
3253125000  -3.366929e+001  -2.575318e+001 
3256250000  -3.329430e+001  -3.209967e+001 
3259375000  -3.359530e+001  -4.095316e+001 
3262500000  -3.472098e+001  -4.506217e+001 
3265625000  -3.527015e+001  -4.271721e+001 
3268750000  -3.521428e+001  -4.022257e+001 
3271875000  -3.479428e+001  -4.074581e+001 
3275000000  -3.375966e+001  -4.713879e+001 
3278125000  -3.423519e+001  -5.440715e+001 
3281250000  -3.428203e+001  -5.318280e+001 
3284375000  -3.390688e+001  -6.045432e+001 
3287500000  -3.408705e+001  -6.377217e+001 
3290625000  -3.436364e+001  -7.010326e+001 
3293750000  -3.405220e+001  -7.555119e+001 
3296875000  -3.512481e+001  -7.660509e+001 
3300000000  -3.495785e+001  -7.611755e+001 
3303125000  -3.373558e+001  -8.150603e+001 
3306250000  -3.350227e+001  -8.856036e+001 
3309375000  -3.327977e+001  -9.467300e+001 
3312500000  -3.339817e+001  -1.062350e+002 
3315625000  -3.442186e+001  -1.143458e+002 
3318750000  -3.592171e+001  -1.168762e+002 
3321875000  -3.698515e+001  -1.166554e+002 
3325000000  -3.735204e+001  -1.125057e+002 
3328125000  -3.691370e+001  -1.118353e+002 
3331250000  -3.593900e+001  -1.052112e+002 
3334375000  -3.313753e+001  -1.150905e+002 
3337500000  -3.338705e+001  -1.344324e+002 
3340625000  -3.465931e+001  -1.459070e+002 
3343750000  -3.678716e+001  -1.468511e+002 
3346875000  -3.694726e+001  -1.446454e+002 
3350000000  -3.627032e+001  -1.470296e+002 
3353125000  -3.629986e+001  -1.516112e+002 
3356250000  -3.604425e+001  -1.593586e+002 
3359375000  -3.685669e+001  -1.673602e+002 
3362500000  -3.783838e+001  -1.729283e+002 
3365625000  -3.842989e+001  -1.748205e+002 
3368750000  -3.905638e+001  -1.768583e+002 
3371875000  -3.935117e+001  -1.797788e+002 
3375000000  -4.082948e+001  1.776408e+002 
3378125000  -4.160576e+001  1.799660e+002 
3381250000  -4.299020e+001  -1.734049e+002 
3384375000  -4.156252e+001  -1.497953e+002 
3387500000  -3.822911e+001  -1.670165e+002 
3390625000  -3.943216e+001  1.741691e+002 
3393750000  -4.089622e+001  1.760992e+002 
3396875000  -3.962278e+001  1.797216e+002 
3400000000  -3.899029e+001  1.720462e+002 
3403125000  -3.964582e+001  1.666906e+002 
3406250000  -3.973286e+001  1.656820e+002 
3409375000  -4.014901e+001  1.579285e+002 
3412500000  -4.037271e+001  1.551745e+002 
3415625000  -4.129764e+001  1.570600e+002 
3418750000  -4.123360e+001  1.581286e+002 
3421875000  -4.140334e+001  1.595422e+002 
3425000000  -4.037217e+001  1.598212e+002 
3428125000  -3.943292e+001  1.558449e+002 
3431250000  -3.923117e+001  1.486700e+002 
3434375000  -3.933141e+001  1.428455e+002 
3437500000  -3.991202e+001  1.382912e+002 
3440625000  -4.004186e+001  1.400085e+002 
3443750000  -3.893608e+001  1.416667e+002 
3446875000  -3.821387e+001  1.314613e+002 
3450000000  -3.775227e+001  1.211120e+002 
3453125000  -3.818061e+001  1.126661e+002 
3456250000  -3.915794e+001  1.061961e+002 
3459375000  -4.033009e+001  1.057264e+002 
3462500000  -4.024190e+001  1.063593e+002 
3465625000  -4.020851e+001  1.007262e+002 
3468750000  -4.047345e+001  9.706171e+001 
3471875000  -4.053298e+001  9.526046e+001 
3475000000  -4.027898e+001  9.063949e+001 
3478125000  -4.088954e+001  8.600922e+001 
3481250000  -4.171219e+001  8.251149e+001 
3484375000  -4.287249e+001  8.787192e+001 
3487500000  -4.184304e+001  8.609953e+001 
3490625000  -4.120620e+001  8.418273e+001 
3493750000  -4.203605e+001  7.782932e+001 
3496875000  -4.236792e+001  7.529462e+001 
3500000000  -4.285676e+001  7.876063e+001 
3503125000  -4.268266e+001  8.026303e+001 
3506250000  -4.090365e+001  7.754531e+001 
3509375000  -4.092674e+001  6.869181e+001 
3512500000  -4.125815e+001  6.050117e+001 
3515625000  -4.171288e+001  5.808367e+001 
3518750000  -4.233085e+001  5.824981e+001 
3521875000  -4.220130e+001  5.667266e+001 
3525000000  -4.313617e+001  5.325578e+001 
3528125000  -4.333721e+001  6.166598e+001 
3531250000  -4.126157e+001  5.800608e+001 
3534375000  -4.128288e+001  4.678329e+001 
3537500000  -4.141143e+001  4.150208e+001 
3540625000  -4.256409e+001  3.996701e+001 
3543750000  -4.311704e+001  4.238118e+001 
3546875000  -4.285787e+001  5.162551e+001 
3550000000  -4.058841e+001  5.217400e+001 
3553125000  -3.909376e+001  3.328279e+001 
3556250000  -4.033484e+001  2.635191e+001 
3559375000  -4.048703e+001  2.648351e+001 
3562500000  -3.933144e+001  1.773186e+001 
3565625000  -4.017163e+001  8.940030e+000 
3568750000  -4.062071e+001  1.047914e+001 
3571875000  -4.055460e+001  1.067233e+001 
3575000000  -4.010012e+001  1.506635e+000 
3578125000  -4.045366e+001  -5.435640e+000 
3581250000  -4.085452e+001  -5.215203e+000 
3584375000  -4.027044e+001  -7.090452e+000 
3587500000  -3.992346e+001  -1.596807e+001 
3590625000  -4.049937e+001  -2.586383e+001 
3593750000  -4.168834e+001  -3.019275e+001 
3596875000  -4.169139e+001  -2.593353e+001 
3600000000  -4.045990e+001  -2.851475e+001 
3603125000  -4.095508e+001  -4.499105e+001 
3606250000  -4.227864e+001  -4.814528e+001 
3609375000  -4.283710e+001  -4.785172e+001 
3612500000  -4.377916e+001  -5.098886e+001 
3615625000  -4.405579e+001  -5.296788e+001 
3618750000  -4.512673e+001  -5.288931e+001 
3621875000  -4.494590e+001  -5.504069e+001 
3625000000  -4.545510e+001  -5.422865e+001 
3628125000  -4.593103e+001  -5.139350e+001 
3631250000  -4.585274e+001  -5.521025e+001 
3634375000  -4.703359e+001  -5.252805e+001 
3637500000  -4.686872e+001  -4.427725e+001 
3640625000  -4.529203e+001  -4.455042e+001 
3643750000  -4.465799e+001  -4.799197e+001 
3646875000  -4.480943e+001  -5.147122e+001 
3650000000  -4.495855e+001  -5.444812e+001 
3653125000  -4.474927e+001  -5.545549e+001 
3656250000  -4.442590e+001  -5.747231e+001 
3659375000  -4.476236e+001  -5.633281e+001 
3662500000  -4.377234e+001  -5.959837e+001 
3665625000  -4.301673e+001  -5.886357e+001 
3668750000  -4.190542e+001  -6.002969e+001 
3671875000  -4.104766e+001  -6.995831e+001 
3675000000  -4.140491e+001  -7.707398e+001 
3678125000  -4.144953e+001  -8.028107e+001 
3681250000  -4.160485e+001  -8.516301e+001 
3684375000  -4.147635e+001  -9.164574e+001 
3687500000  -4.163861e+001  -9.489735e+001 
3690625000  -4.179382e+001  -1.014529e+002 
3693750000  -4.266365e+001  -1.027383e+002 
3696875000  -4.260582e+001  -9.972694e+001 
3700000000  -4.157284e+001  -1.062669e+002 
3703125000  -4.187053e+001  -1.140813e+002 
3706250000  -4.303650e+001  -1.143270e+002 
3709375000  -4.257595e+001  -1.128345e+002 
3712500000  -4.187836e+001  -1.157402e+002 
3715625000  -4.126805e+001  -1.231378e+002 
3718750000  -4.129830e+001  -1.299237e+002 
3721875000  -4.104663e+001  -1.340696e+002 
3725000000  -4.158501e+001  -1.411428e+002 
3728125000  -4.274563e+001  -1.423383e+002 
3731250000  -4.215939e+001  -1.439449e+002 
3734375000  -4.189669e+001  -1.512495e+002 
3737500000  -4.282420e+001  -1.573378e+002 
3740625000  -4.429222e+001  -1.580841e+002 
3743750000  -4.402254e+001  -1.614296e+002 
3746875000  -4.455875e+001  -1.618963e+002 
3750000000  -4.533617e+001  -1.592421e+002 
3753125000  -4.533949e+001  -1.592343e+002 
3756250000  -4.549699e+001  -1.569862e+002 
3759375000  -4.517077e+001  -1.537191e+002 
3762500000  -4.500022e+001  -1.557966e+002 
3765625000  -4.553576e+001  -1.567112e+002 
3768750000  -4.514201e+001  -1.514559e+002 
3771875000  -4.302367e+001  -1.514007e+002 
3775000000  -4.315907e+001  -1.590060e+002 
3778125000  -4.288612e+001  -1.609713e+002 
3781250000  -4.254850e+001  -1.651411e+002 
3784375000  -4.235429e+001  -1.660465e+002 
3787500000  -4.119866e+001  -1.670811e+002 
3790625000  -4.160448e+001  -1.763834e+002 
3793750000  -4.173759e+001  -1.772871e+002 
3796875000  -4.057836e+001  1.784845e+002 
3800000000  -3.890858e+001  1.755981e+002 
3803125000  -3.959491e+001  1.658072e+002 
3806250000  -4.035202e+001  1.633277e+002 
3809375000  -3.973795e+001  1.602066e+002 
3812500000  -3.905391e+001  1.523823e+002 
3815625000  -3.975158e+001  1.433868e+002 
3818750000  -4.063025e+001  1.417605e+002 
3821875000  -4.098107e+001  1.495058e+002 
3825000000  -3.908625e+001  1.511107e+002 
3828125000  -3.760752e+001  1.350531e+002 
3831250000  -3.838800e+001  1.197598e+002 
3834375000  -3.965838e+001  1.182745e+002 
3837500000  -4.083256e+001  1.226431e+002 
3840625000  -3.967013e+001  1.194506e+002 
3843750000  -3.880363e+001  1.077664e+002 
3846875000  -3.957706e+001  1.014637e+002 
3850000000  -4.077771e+001  1.059922e+002 
3853125000  -4.032310e+001  1.066482e+002 
3856250000  -4.057107e+001  1.016921e+002 
3859375000  -3.981452e+001  9.630410e+001 
3862500000  -3.961154e+001  8.797749e+001 
3865625000  -4.006569e+001  8.445525e+001 
3868750000  -3.989932e+001  8.193272e+001 
3871875000  -3.930095e+001  8.016097e+001 
3875000000  -3.986755e+001  6.955304e+001 
3878125000  -4.111161e+001  7.003766e+001 
3881250000  -4.118879e+001  7.272910e+001 
3884375000  -4.075364e+001  6.919085e+001 
3887500000  -4.100090e+001  6.327746e+001 
3890625000  -4.163036e+001  6.030532e+001 
3893750000  -4.195089e+001  6.141468e+001 
3896875000  -4.238924e+001  6.240699e+001 
3900000000  -4.186679e+001  6.254406e+001 
3903125000  -4.150924e+001  5.780883e+001 
3906250000  -4.103503e+001  5.692421e+001 
3909375000  -4.039989e+001  5.473788e+001 
3912500000  -4.033969e+001  4.732586e+001 
3915625000  -4.156618e+001  4.773092e+001 
3918750000  -4.130960e+001  5.071735e+001 
3921875000  -4.102818e+001  4.474739e+001 
3925000000  -3.981699e+001  4.548703e+001 
3928125000  -3.892208e+001  3.746172e+001 
3931250000  -3.935703e+001  3.053567e+001 
3934375000  -3.960509e+001  3.074221e+001 
3937500000  -3.953049e+001  2.946962e+001 
3940625000  -4.037862e+001  2.805668e+001 
3943750000  -3.905154e+001  2.596134e+001 
3946875000  -3.789217e+001  1.833776e+001 
3950000000  -3.868494e+001  9.840756e+000 
3953125000  -3.933090e+001  6.513335e+000 
3956250000  -3.853005e+001  9.516753e+000 
3959375000  -3.742147e+001  5.335906e+000 
3962500000  -3.693654e+001  1.583988e+000 
3965625000  -3.685300e+001  -1.177490e+001 
3968750000  -3.776120e+001  -1.857953e+001 
3971875000  -3.801413e+001  -2.145041e+001 
3975000000  -3.759620e+001  -2.228366e+001 
3978125000  -3.754055e+001  -2.668967e+001 
3981250000  -3.755450e+001  -3.416515e+001 
3984375000  -3.769489e+001  -3.969174e+001 
3987500000  -3.851422e+001  -4.215752e+001 
3990625000  -3.866217e+001  -4.501341e+001 
3993750000  -3.896793e+001  -4.957639e+001 
3996875000  -3.893513e+001  -5.164654e+001 
4000000000  -3.952210e+001  -5.490768e+001 
4003125000  -4.018512e+001  -5.311991e+001 
4006250000  -3.878231e+001  -5.252357e+001 
4009375000  -3.811169e+001  -6.600380e+001 
4012500000  -3.916336e+001  -7.179617e+001 
4015625000  -4.052155e+001  -7.045705e+001 
4018750000  -4.099168e+001  -6.905820e+001 
4021875000  -4.016972e+001  -7.054259e+001 
4025000000  -3.985169e+001  -7.238647e+001 
4028125000  -3.993916e+001  -7.559230e+001 
4031250000  -4.041541e+001  -7.982089e+001 
4034375000  -4.063247e+001  -7.951310e+001 
4037500000  -3.981868e+001  -7.678524e+001 
4040625000  -3.978411e+001  -8.084462e+001 
4043750000  -3.994397e+001  -8.221075e+001 
4046875000  -3.931616e+001  -8.265704e+001 
4050000000  -3.877991e+001  -8.918693e+001 
4053125000  -3.935658e+001  -9.056296e+001 
4056250000  -3.960516e+001  -8.633563e+001 
4059375000  -3.830216e+001  -8.593042e+001 
4062500000  -3.675448e+001  -9.243225e+001 
4065625000  -3.654465e+001  -9.676709e+001 
4068750000  -3.631973e+001  -1.026229e+002 
4071875000  -3.557724e+001  -1.127019e+002 
4075000000  -3.564480e+001  -1.198282e+002 
4078125000  -3.633831e+001  -1.223081e+002 
4081250000  -3.555600e+001  -1.258554e+002 
4084375000  -3.532398e+001  -1.336242e+002 
4087500000  -3.547985e+001  -1.408112e+002 
4090625000  -3.608025e+001  -1.439226e+002 
4093750000  -3.595076e+001  -1.450213e+002 
4096875000  -3.559566e+001  -1.519036e+002 
4100000000  -3.624874e+001  -1.604273e+002 
4103125000  -3.711977e+001  -1.601810e+002 
4106250000  -3.723119e+001  -1.565874e+002 
4109375000  -3.610295e+001  -1.597411e+002 
4112500000  -3.566003e+001  -1.677676e+002 
4115625000  -3.613479e+001  -1.729857e+002 
4118750000  -3.634004e+001  -1.768057e+002 
4121875000  -3.598548e+001  1.769183e+002 
4125000000  -3.641980e+001  1.702141e+002 
4128125000  -3.760296e+001  1.702101e+002 
4131250000  -3.753328e+001  1.785881e+002 
4134375000  -3.513789e+001  1.710036e+002 
4137500000  -3.506387e+001  1.523474e+002 
4140625000  -3.754151e+001  1.424052e+002 
4143750000  -3.906000e+001  1.477856e+002 
4146875000  -3.887267e+001  1.551139e+002 
4150000000  -3.816973e+001  1.527319e+002 
4153125000  -3.788204e+001  1.444561e+002 
4156250000  -3.920516e+001  1.431335e+002 
4159375000  -3.924620e+001  1.470011e+002 
4162500000  -3.827717e+001  1.527681e+002 
4165625000  -3.715123e+001  1.497510e+002 
4168750000  -3.687328e+001  1.417633e+002 
4171875000  -3.648374e+001  1.321480e+002 
4175000000  -3.712937e+001  1.288981e+002 
4178125000  -3.768210e+001  1.275805e+002 
4181250000  -3.736332e+001  1.273302e+002 
4184375000  -3.732836e+001  1.234790e+002 
4187500000  -3.710341e+001  1.205446e+002 
4190625000  -3.672459e+001  1.155307e+002 
4193750000  -3.741838e+001  1.116700e+002 
4196875000  -3.820573e+001  1.101277e+002 
4200000000  -3.894728e+001  1.130707e+002 
4203125000  -3.850882e+001  1.260852e+002 
4206250000  -3.499383e+001  1.256537e+002 
4209375000  -3.398196e+001  1.040958e+002 
4212500000  -3.587794e+001  9.530595e+001 
4215625000  -3.667223e+001  1.001119e+002 
4218750000  -3.523408e+001  1.055590e+002 
4221875000  -3.281118e+001  9.373510e+001 
4225000000  -3.402268e+001  8.044630e+001 
4228125000  -3.457917e+001  8.314038e+001 
4231250000  -3.291346e+001  7.833116e+001 
4234375000  -3.273885e+001  6.842968e+001 
4237500000  -3.219474e+001  6.379803e+001 
4240625000  -3.235634e+001  5.352091e+001 
4243750000  -3.341521e+001  4.646456e+001 
4246875000  -3.443214e+001  4.505203e+001 
4250000000  -3.420007e+001  4.570876e+001 
4253125000  -3.390002e+001  4.189394e+001 
4256250000  -3.418344e+001  3.603737e+001 
4259375000  -3.399379e+001  3.242142e+001 
4262500000  -3.410355e+001  2.784735e+001 
4265625000  -3.434947e+001  2.624432e+001 
4268750000  -3.347005e+001  2.245677e+001 
4271875000  -3.344721e+001  1.380472e+001 
4275000000  -3.300590e+001  5.439493e+000 
4278125000  -3.377327e+001  -5.278243e+000 
4281250000  -3.573270e+001  -9.346210e+000 
4284375000  -3.561472e+001  -8.813328e+000 
4287500000  -3.686164e+001  -1.357961e+001 
4290625000  -3.794752e+001  -4.944784e+000 
4293750000  -3.632562e+001  1.635102e+000 
4296875000  -3.518099e+001  -9.415009e+000 
4300000000  -3.600621e+001  -1.969812e+001 
4303125000  -3.723499e+001  -1.563454e+001 
4306250000  -3.684350e+001  -1.058404e+001 
4309375000  -3.556118e+001  -1.232375e+001 
4312500000  -3.527536e+001  -1.905126e+001 
4315625000  -3.574114e+001  -2.468871e+001 
4318750000  -3.594117e+001  -2.766795e+001 
4321875000  -3.588029e+001  -2.650853e+001 
4325000000  -3.530321e+001  -2.601007e+001 
4328125000  -3.448447e+001  -3.143478e+001 
4331250000  -3.440547e+001  -4.012842e+001 
4334375000  -3.463511e+001  -4.465267e+001 
4337500000  -3.538871e+001  -4.797977e+001 
4340625000  -3.564798e+001  -4.316353e+001 
4343750000  -3.478236e+001  -4.473876e+001 
4346875000  -3.425584e+001  -5.039066e+001 
4350000000  -3.412728e+001  -5.604901e+001 
4353125000  -3.393099e+001  -6.456489e+001 
4356250000  -3.576099e+001  -6.718377e+001 
4359375000  -3.601584e+001  -5.182088e+001 
4362500000  -3.307977e+001  -5.557654e+001 
4365625000  -3.145794e+001  -6.787711e+001 
4368750000  -3.207175e+001  -8.202175e+001 
4371875000  -3.312426e+001  -8.195642e+001 
4375000000  -3.252023e+001  -8.389130e+001 
4378125000  -3.198697e+001  -9.064592e+001 
4381250000  -3.222967e+001  -9.769322e+001 
4384375000  -3.193170e+001  -1.041666e+002 
4387500000  -3.262278e+001  -1.119022e+002 
4390625000  -3.357123e+001  -1.127459e+002 
4393750000  -3.298471e+001  -1.118286e+002 
4396875000  -3.240553e+001  -1.166818e+002 
4400000000  -3.193594e+001  -1.257760e+002 
4403125000  -3.249445e+001  -1.340159e+002 
4406250000  -3.347627e+001  -1.370656e+002 
4409375000  -3.365271e+001  -1.419699e+002 
4412500000  -3.487886e+001  -1.448489e+002 
4415625000  -3.521044e+001  -1.417588e+002 
