!Agilent Technologies,E8363B,MY43030201,A.06.04.32
!Agilent E8363B: A.06.04.32
!Date: Tuesday, November 11, 2014 21:09:28
!Correction: S21(Response(S21)) 
!S1P File: Measurement: S21:
# Hz S  dB   R 50
3000000000  -3.647862e+001  -5.538852e+001 
3003125000  -3.762457e+001  -6.128852e+001 
3006250000  -3.747472e+001  -6.376085e+001 
3009375000  -3.785199e+001  -5.926434e+001 
3012500000  -3.707357e+001  -6.167525e+001 
3015625000  -3.614793e+001  -6.825095e+001 
3018750000  -3.700726e+001  -6.958607e+001 
3021875000  -3.551763e+001  -6.850231e+001 
3025000000  -3.414861e+001  -7.211021e+001 
3028125000  -3.329483e+001  -7.899387e+001 
3031250000  -3.224341e+001  -9.093288e+001 
3034375000  -3.190395e+001  -1.040588e+002 
3037500000  -3.234431e+001  -1.155530e+002 
3040625000  -3.372166e+001  -1.207148e+002 
3043750000  -3.437151e+001  -1.261066e+002 
3046875000  -3.458022e+001  -1.313913e+002 
3050000000  -3.624748e+001  -1.374607e+002 
3053125000  -3.617319e+001  -1.321752e+002 
3056250000  -3.574245e+001  -1.283562e+002 
3059375000  -3.569112e+001  -1.288488e+002 
3062500000  -3.426532e+001  -1.328346e+002 
3065625000  -3.401475e+001  -1.388395e+002 
3068750000  -3.362768e+001  -1.450827e+002 
3071875000  -3.360731e+001  -1.478869e+002 
3075000000  -3.335730e+001  -1.515067e+002 
3078125000  -3.311050e+001  -1.559580e+002 
3081250000  -3.350064e+001  -1.603712e+002 
3084375000  -3.266926e+001  -1.639054e+002 
3087500000  -3.251948e+001  -1.675849e+002 
3090625000  -3.202862e+001  -1.782508e+002 
3093750000  -3.247954e+001  1.748469e+002 
3096875000  -3.357472e+001  1.693838e+002 
3100000000  -3.342297e+001  1.666632e+002 
3103125000  -3.363058e+001  1.677433e+002 
3106250000  -3.318467e+001  1.633930e+002 
3109375000  -3.324051e+001  1.597482e+002 
3112500000  -3.315915e+001  1.569698e+002 
3115625000  -3.283691e+001  1.521218e+002 
3118750000  -3.319429e+001  1.524489e+002 
3121875000  -3.231894e+001  1.428781e+002 
3125000000  -3.360361e+001  1.384168e+002 
3128125000  -3.440991e+001  1.458101e+002 
3131250000  -3.192004e+001  1.443572e+002 
3134375000  -3.065540e+001  1.287197e+002 
3137500000  -3.141517e+001  1.142431e+002 
3140625000  -3.274220e+001  1.119736e+002 
3143750000  -3.383965e+001  1.134414e+002 
3146875000  -3.334007e+001  1.137319e+002 
3150000000  -3.226068e+001  1.138349e+002 
3153125000  -3.230581e+001  1.046001e+002 
3156250000  -3.333376e+001  1.094749e+002 
3159375000  -3.154949e+001  1.111444e+002 
3162500000  -2.973680e+001  9.613150e+001 
3165625000  -3.075453e+001  8.396051e+001 
3168750000  -3.108286e+001  8.425387e+001 
3171875000  -3.016219e+001  7.894406e+001 
3175000000  -3.093367e+001  6.957154e+001 
3178125000  -3.068853e+001  7.044048e+001 
3181250000  -2.964338e+001  6.514493e+001 
3184375000  -2.898414e+001  5.294059e+001 
3187500000  -3.020829e+001  3.764179e+001 
3190625000  -3.275834e+001  2.944293e+001 
3193750000  -3.325528e+001  3.821848e+001 
3196875000  -3.299194e+001  4.231733e+001 
3200000000  -3.210597e+001  4.006955e+001 
3203125000  -3.129713e+001  3.329252e+001 
3206250000  -3.164558e+001  2.663790e+001 
3209375000  -3.116969e+001  2.112476e+001 
3212500000  -3.139641e+001  1.358819e+001 
3215625000  -3.153592e+001  1.037366e+001 
3218750000  -3.227629e+001  3.354777e+000 
3221875000  -3.300821e+001  -2.302259e+000 
3225000000  -3.257166e+001  -3.822961e+000 
3228125000  -3.312155e+001  -8.460596e+000 
3231250000  -3.368739e+001  -1.119938e+001 
3234375000  -3.341602e+001  -1.064696e+001 
3237500000  -3.333757e+001  -1.298062e+001 
3240625000  -3.299894e+001  -1.541242e+001 
3243750000  -3.265619e+001  -2.306102e+001 
3246875000  -3.303402e+001  -3.038923e+001 
3250000000  -3.341520e+001  -3.300773e+001 
3253125000  -3.356115e+001  -3.454097e+001 
3256250000  -3.321876e+001  -4.126905e+001 
3259375000  -3.340693e+001  -4.990354e+001 
3262500000  -3.463489e+001  -5.424156e+001 
3265625000  -3.527203e+001  -5.103838e+001 
3268750000  -3.509072e+001  -4.948560e+001 
3271875000  -3.475615e+001  -4.952942e+001 
3275000000  -3.368563e+001  -5.616128e+001 
3278125000  -3.411518e+001  -6.311511e+001 
3281250000  -3.431134e+001  -6.196991e+001 
3284375000  -3.386882e+001  -6.848280e+001 
3287500000  -3.407355e+001  -7.239533e+001 
3290625000  -3.424714e+001  -7.884509e+001 
3293750000  -3.407469e+001  -8.483791e+001 
3296875000  -3.511500e+001  -8.528210e+001 
3300000000  -3.483652e+001  -8.452560e+001 
3303125000  -3.367952e+001  -8.964754e+001 
3306250000  -3.341317e+001  -9.656429e+001 
3309375000  -3.318954e+001  -1.036724e+002 
3312500000  -3.321151e+001  -1.141610e+002 
3315625000  -3.436232e+001  -1.224703e+002 
3318750000  -3.569659e+001  -1.255840e+002 
3321875000  -3.693916e+001  -1.242941e+002 
3325000000  -3.728983e+001  -1.193465e+002 
3328125000  -3.694337e+001  -1.208929e+002 
3331250000  -3.564653e+001  -1.136389e+002 
3334375000  -3.293037e+001  -1.234671e+002 
3337500000  -3.313197e+001  -1.433846e+002 
3340625000  -3.445458e+001  -1.544566e+002 
3343750000  -3.644425e+001  -1.549119e+002 
3346875000  -3.664026e+001  -1.531349e+002 
3350000000  -3.603555e+001  -1.552467e+002 
3353125000  -3.618299e+001  -1.607333e+002 
3356250000  -3.554021e+001  -1.688173e+002 
3359375000  -3.637921e+001  -1.765045e+002 
3362500000  -3.757010e+001  1.773171e+002 
3365625000  -3.788231e+001  1.770109e+002 
3368750000  -3.876849e+001  1.744539e+002 
3371875000  -3.899722e+001  1.721191e+002 
3375000000  -4.056216e+001  1.678721e+002 
3378125000  -4.119293e+001  1.692440e+002 
3381250000  -4.260778e+001  1.782547e+002 
3384375000  -4.094781e+001  -1.611766e+002 
3387500000  -3.757963e+001  -1.776339e+002 
3390625000  -3.936353e+001  1.641780e+002 
3393750000  -4.038305e+001  1.666724e+002 
3396875000  -3.917177e+001  1.681189e+002 
3400000000  -3.865139e+001  1.594438e+002 
3403125000  -3.919437e+001  1.547320e+002 
3406250000  -3.963564e+001  1.545474e+002 
3409375000  -3.972980e+001  1.470288e+002 
3412500000  -4.050273e+001  1.444570e+002 
3415625000  -4.081788e+001  1.458970e+002 
3418750000  -4.125459e+001  1.446948e+002 
3421875000  -4.112773e+001  1.479096e+002 
3425000000  -3.994300e+001  1.490303e+002 
3428125000  -3.922744e+001  1.444075e+002 
3431250000  -3.928515e+001  1.388247e+002 
3434375000  -3.911942e+001  1.314490e+002 
3437500000  -3.960674e+001  1.276548e+002 
3440625000  -4.016709e+001  1.288957e+002 
3443750000  -3.872350e+001  1.292890e+002 
3446875000  -3.788751e+001  1.218867e+002 
3450000000  -3.755220e+001  1.121278e+002 
3453125000  -3.794998e+001  1.031209e+002 
3456250000  -3.936062e+001  9.536157e+001 
3459375000  -3.993148e+001  9.671175e+001 
3462500000  -3.998603e+001  9.605137e+001 
3465625000  -4.000419e+001  9.145998e+001 
3468750000  -4.021421e+001  8.719661e+001 
3471875000  -4.007564e+001  8.551687e+001 
3475000000  -3.982071e+001  8.112976e+001 
3478125000  -4.055872e+001  7.277647e+001 
3481250000  -4.174687e+001  7.146442e+001 
3484375000  -4.222944e+001  7.499802e+001 
3487500000  -4.139965e+001  7.463295e+001 
3490625000  -4.079232e+001  7.027467e+001 
3493750000  -4.131644e+001  6.204788e+001 
3496875000  -4.209422e+001  6.342006e+001 
3500000000  -4.269186e+001  6.533904e+001 
3503125000  -4.218291e+001  6.748524e+001 
3506250000  -4.069686e+001  6.238592e+001 
3509375000  -4.067590e+001  5.167063e+001 
3512500000  -4.119347e+001  4.421703e+001 
3515625000  -4.206195e+001  4.233298e+001 
3518750000  -4.261767e+001  4.400366e+001 
3521875000  -4.243933e+001  4.078425e+001 
3525000000  -4.320306e+001  3.629441e+001 
3528125000  -4.300568e+001  4.709238e+001 
3531250000  -4.178691e+001  4.291939e+001 
3534375000  -4.227029e+001  3.306778e+001 
3537500000  -4.266385e+001  2.616628e+001 
3540625000  -4.334841e+001  2.704927e+001 
3543750000  -4.394708e+001  2.968331e+001 
3546875000  -4.395536e+001  4.180955e+001 
3550000000  -4.092692e+001  4.235506e+001 
3553125000  -3.989360e+001  2.338209e+001 
3556250000  -4.148470e+001  1.769198e+001 
3559375000  -4.081840e+001  1.795756e+001 
3562500000  -3.992643e+001  8.343760e+000 
3565625000  -4.077662e+001  2.267741e+000 
3568750000  -4.121717e+001  4.564140e+000 
3571875000  -4.114202e+001  2.988358e+000 
3575000000  -4.048468e+001  -5.735735e+000 
3578125000  -4.116539e+001  -9.471641e+000 
3581250000  -4.128432e+001  -9.241423e+000 
3584375000  -4.052319e+001  -1.414004e+001 
3587500000  -3.991549e+001  -2.157668e+001 
3590625000  -4.051766e+001  -3.363006e+001 
3593750000  -4.212637e+001  -3.457699e+001 
3596875000  -4.164931e+001  -2.891635e+001 
3600000000  -4.015711e+001  -3.604777e+001 
3603125000  -4.117137e+001  -5.064957e+001 
3606250000  -4.147999e+001  -5.177591e+001 
3609375000  -4.240680e+001  -5.490542e+001 
3612500000  -4.297762e+001  -5.930966e+001 
3615625000  -4.304646e+001  -6.060909e+001 
3618750000  -4.391878e+001  -6.163572e+001 
3621875000  -4.396828e+001  -6.463663e+001 
3625000000  -4.429932e+001  -6.520785e+001 
3628125000  -4.421000e+001  -6.640229e+001 
3631250000  -4.458344e+001  -7.383656e+001 
3634375000  -4.548500e+001  -7.452487e+001 
3637500000  -4.575314e+001  -6.643214e+001 
3640625000  -4.477361e+001  -6.356023e+001 
3643750000  -4.450798e+001  -7.001435e+001 
3646875000  -4.508163e+001  -7.475951e+001 
3650000000  -4.575144e+001  -7.264651e+001 
3653125000  -4.541936e+001  -7.497601e+001 
3656250000  -4.554005e+001  -7.569795e+001 
3659375000  -4.571273e+001  -7.317824e+001 
3662500000  -4.461074e+001  -7.524936e+001 
3665625000  -4.454728e+001  -7.675356e+001 
3668750000  -4.364019e+001  -7.600719e+001 
3671875000  -4.233105e+001  -8.228261e+001 
3675000000  -4.232240e+001  -9.020579e+001 
3678125000  -4.286258e+001  -9.072260e+001 
3681250000  -4.264695e+001  -9.337740e+001 
3684375000  -4.278140e+001  -9.985568e+001 
3687500000  -4.281944e+001  -1.031272e+002 
3690625000  -4.298278e+001  -1.090429e+002 
3693750000  -4.355930e+001  -1.091139e+002 
3696875000  -4.355939e+001  -1.070802e+002 
3700000000  -4.221012e+001  -1.124588e+002 
3703125000  -4.260312e+001  -1.188303e+002 
3706250000  -4.371125e+001  -1.188140e+002 
3709375000  -4.296910e+001  -1.179050e+002 
3712500000  -4.198328e+001  -1.215786e+002 
3715625000  -4.137683e+001  -1.258183e+002 
3718750000  -4.112249e+001  -1.318010e+002 
3721875000  -4.107156e+001  -1.394196e+002 
3725000000  -4.153355e+001  -1.458915e+002 
3728125000  -4.208498e+001  -1.462361e+002 
3731250000  -4.151060e+001  -1.502613e+002 
3734375000  -4.131173e+001  -1.563143e+002 
3737500000  -4.180909e+001  -1.633213e+002 
3740625000  -4.369362e+001  -1.671876e+002 
3743750000  -4.315130e+001  -1.698671e+002 
3746875000  -4.391366e+001  -1.707143e+002 
3750000000  -4.391958e+001  -1.734751e+002 
3753125000  -4.460324e+001  -1.737822e+002 
3756250000  -4.462112e+001  -1.741000e+002 
3759375000  -4.490295e+001  -1.691962e+002 
3762500000  -4.431620e+001  -1.726694e+002 
3765625000  -4.483194e+001  -1.717003e+002 
3768750000  -4.477198e+001  -1.690694e+002 
3771875000  -4.317067e+001  -1.699577e+002 
3775000000  -4.289838e+001  -1.759787e+002 
3778125000  -4.376612e+001  -1.786317e+002 
3781250000  -4.302133e+001  1.792634e+002 
3784375000  -4.274513e+001  -1.795632e+002 
3787500000  -4.216325e+001  1.784185e+002 
3790625000  -4.238123e+001  1.689057e+002 
3793750000  -4.219996e+001  1.689058e+002 
3796875000  -4.115214e+001  1.659003e+002 
3800000000  -3.942613e+001  1.655562e+002 
3803125000  -4.037888e+001  1.556841e+002 
3806250000  -4.075539e+001  1.516468e+002 
3809375000  -4.043586e+001  1.503732e+002 
3812500000  -3.960291e+001  1.440537e+002 
3815625000  -4.029226e+001  1.340892e+002 
3818750000  -4.141587e+001  1.323458e+002 
3821875000  -4.152953e+001  1.419433e+002 
3825000000  -3.954099e+001  1.417850e+002 
3828125000  -3.827303e+001  1.262034e+002 
3831250000  -3.865295e+001  1.103207e+002 
3834375000  -4.022265e+001  1.109808e+002 
3837500000  -4.124813e+001  1.145785e+002 
3840625000  -3.992903e+001  1.120814e+002 
3843750000  -3.875177e+001  1.014650e+002 
3846875000  -3.960355e+001  9.299938e+001 
3850000000  -4.109882e+001  9.745311e+001 
3853125000  -4.032392e+001  1.004308e+002 
3856250000  -4.014486e+001  9.264662e+001 
3859375000  -3.958840e+001  8.923370e+001 
3862500000  -3.959467e+001  7.965606e+001 
3865625000  -3.988497e+001  7.548661e+001 
3868750000  -3.952493e+001  7.530565e+001 
3871875000  -3.921411e+001  7.005029e+001 
3875000000  -3.966613e+001  6.081215e+001 
3878125000  -4.068332e+001  5.836724e+001 
3881250000  -4.037964e+001  6.179877e+001 
3884375000  -4.044445e+001  5.731430e+001 
3887500000  -4.039886e+001  5.280016e+001 
3890625000  -4.149253e+001  5.079384e+001 
3893750000  -4.169098e+001  4.994894e+001 
3896875000  -4.162529e+001  4.998955e+001 
3900000000  -4.203223e+001  4.842669e+001 
3903125000  -4.133553e+001  4.474020e+001 
3906250000  -4.097094e+001  4.519725e+001 
3909375000  -4.029669e+001  4.179519e+001 
3912500000  -4.034178e+001  3.268106e+001 
3915625000  -4.171076e+001  3.574079e+001 
3918750000  -4.137062e+001  3.746045e+001 
3921875000  -4.068745e+001  3.136762e+001 
3925000000  -3.996053e+001  2.952917e+001 
3928125000  -3.914067e+001  2.414896e+001 
3931250000  -4.001896e+001  1.819839e+001 
3934375000  -3.991978e+001  1.704711e+001 
3937500000  -3.999520e+001  1.517579e+001 
3940625000  -4.048757e+001  1.296342e+001 
3943750000  -3.948350e+001  1.280555e+001 
3946875000  -3.818086e+001  6.639013e+000 
3950000000  -3.897185e+001  -1.167058e+000 
3953125000  -4.010893e+001  -2.790662e+000 
3956250000  -3.892731e+001  -1.052361e+000 
3959375000  -3.764422e+001  -3.898444e+000 
3962500000  -3.718845e+001  -1.096549e+001 
3965625000  -3.714096e+001  -1.967955e+001 
3968750000  -3.804149e+001  -2.704757e+001 
3971875000  -3.846429e+001  -3.157534e+001 
3975000000  -3.790152e+001  -3.385201e+001 
3978125000  -3.787388e+001  -3.601179e+001 
3981250000  -3.785122e+001  -4.026495e+001 
3984375000  -3.800254e+001  -4.861264e+001 
3987500000  -3.849888e+001  -5.072654e+001 
3990625000  -3.878318e+001  -5.105144e+001 
3993750000  -3.916428e+001  -5.758669e+001 
3996875000  -3.912571e+001  -6.070406e+001 
4000000000  -3.970407e+001  -6.123673e+001 
4003125000  -3.994650e+001  -6.107513e+001 
4006250000  -3.833778e+001  -6.075330e+001 
4009375000  -3.752677e+001  -7.532719e+001 
4012500000  -3.896858e+001  -8.089251e+001 
4015625000  -4.021317e+001  -8.106659e+001 
4018750000  -4.004409e+001  -7.974557e+001 
4021875000  -3.955670e+001  -8.102589e+001 
4025000000  -3.931009e+001  -8.638314e+001 
4028125000  -3.910917e+001  -9.037576e+001 
4031250000  -3.983226e+001  -9.217855e+001 
4034375000  -4.003844e+001  -9.355426e+001 
4037500000  -3.933599e+001  -9.100138e+001 
4040625000  -3.919878e+001  -9.626398e+001 
4043750000  -3.947438e+001  -9.593031e+001 
4046875000  -3.932137e+001  -9.685545e+001 
4050000000  -3.872713e+001  -1.038167e+002 
4053125000  -3.898519e+001  -1.050349e+002 
4056250000  -3.963726e+001  -1.017560e+002 
4059375000  -3.814209e+001  -1.016056e+002 
4062500000  -3.690414e+001  -1.089030e+002 
4065625000  -3.679576e+001  -1.124629e+002 
4068750000  -3.633168e+001  -1.188940e+002 
4071875000  -3.555917e+001  -1.258094e+002 
4075000000  -3.585241e+001  -1.341705e+002 
4078125000  -3.669246e+001  -1.349476e+002 
4081250000  -3.602942e+001  -1.399329e+002 
4084375000  -3.556183e+001  -1.481842e+002 
4087500000  -3.610539e+001  -1.541074e+002 
4090625000  -3.665446e+001  -1.562336e+002 
4093750000  -3.621127e+001  -1.572867e+002 
4096875000  -3.609134e+001  -1.652316e+002 
4100000000  -3.669510e+001  -1.718344e+002 
4103125000  -3.770734e+001  -1.712023e+002 
4106250000  -3.757830e+001  -1.672870e+002 
4109375000  -3.654107e+001  -1.700679e+002 
4112500000  -3.595071e+001  -1.783021e+002 
4115625000  -3.653979e+001  1.770337e+002 
4118750000  -3.657545e+001  1.722006e+002 
4121875000  -3.614804e+001  1.672851e+002 
4125000000  -3.685687e+001  1.611421e+002 
4128125000  -3.785643e+001  1.610675e+002 
4131250000  -3.746070e+001  1.687992e+002 
4134375000  -3.521425e+001  1.617073e+002 
4137500000  -3.522412e+001  1.416482e+002 
4140625000  -3.766286e+001  1.337428e+002 
4143750000  -3.904425e+001  1.399395e+002 
4146875000  -3.838618e+001  1.467621e+002 
4150000000  -3.753860e+001  1.410728e+002 
4153125000  -3.775055e+001  1.328711e+002 
4156250000  -3.876300e+001  1.328652e+002 
4159375000  -3.904128e+001  1.370848e+002 
4162500000  -3.781581e+001  1.403614e+002 
4165625000  -3.665658e+001  1.359867e+002 
4168750000  -3.606874e+001  1.277626e+002 
4171875000  -3.620156e+001  1.186566e+002 
4175000000  -3.676852e+001  1.124349e+002 
4178125000  -3.729680e+001  1.128859e+002 
4181250000  -3.698017e+001  1.111624e+002 
4184375000  -3.697941e+001  1.084690e+002 
4187500000  -3.699590e+001  1.049521e+002 
4190625000  -3.679755e+001  9.993289e+001 
4193750000  -3.744466e+001  9.623194e+001 
4196875000  -3.823014e+001  9.510563e+001 
4200000000  -3.896575e+001  9.783521e+001 
4203125000  -3.863864e+001  1.097729e+002 
4206250000  -3.521708e+001  1.094975e+002 
4209375000  -3.416711e+001  8.822146e+001 
4212500000  -3.637894e+001  7.883111e+001 
4215625000  -3.711225e+001  8.444141e+001 
4218750000  -3.548898e+001  8.874943e+001 
4221875000  -3.320734e+001  8.022875e+001 
4225000000  -3.453756e+001  6.611551e+001 
4228125000  -3.510186e+001  7.025977e+001 
4231250000  -3.323166e+001  6.519278e+001 
4234375000  -3.333776e+001  5.567758e+001 
4237500000  -3.291433e+001  5.102912e+001 
4240625000  -3.306133e+001  4.165136e+001 
4243750000  -3.403904e+001  3.331874e+001 
4246875000  -3.500068e+001  3.217644e+001 
4250000000  -3.508725e+001  3.412344e+001 
4253125000  -3.423286e+001  2.991864e+001 
4256250000  -3.461758e+001  2.619902e+001 
4259375000  -3.437043e+001  2.153689e+001 
4262500000  -3.453099e+001  1.655704e+001 
4265625000  -3.452774e+001  1.609187e+001 
4268750000  -3.387346e+001  1.121201e+001 
4271875000  -3.375875e+001  3.920760e+000 
4275000000  -3.329508e+001  -5.007964e+000 
4278125000  -3.409026e+001  -1.773906e+001 
4281250000  -3.612724e+001  -2.081737e+001 
4284375000  -3.589050e+001  -1.980758e+001 
4287500000  -3.669613e+001  -2.469049e+001 
4290625000  -3.835307e+001  -1.636188e+001 
4293750000  -3.623242e+001  -9.768763e+000 
4296875000  -3.525193e+001  -2.061729e+001 
4300000000  -3.618769e+001  -3.028572e+001 
4303125000  -3.714770e+001  -2.790095e+001 
4306250000  -3.672081e+001  -2.080426e+001 
4309375000  -3.527507e+001  -2.431141e+001 
4312500000  -3.506501e+001  -3.099134e+001 
4315625000  -3.541752e+001  -3.708624e+001 
4318750000  -3.566035e+001  -3.937828e+001 
4321875000  -3.578391e+001  -3.961760e+001 
4325000000  -3.510105e+001  -3.839280e+001 
4328125000  -3.443784e+001  -4.552824e+001 
4331250000  -3.418126e+001  -5.390766e+001 
4334375000  -3.449123e+001  -5.948792e+001 
4337500000  -3.554177e+001  -6.097095e+001 
4340625000  -3.583529e+001  -5.821444e+001 
4343750000  -3.484949e+001  -5.839978e+001 
4346875000  -3.458343e+001  -6.536430e+001 
4350000000  -3.428209e+001  -7.149577e+001 
4353125000  -3.416455e+001  -8.077460e+001 
4356250000  -3.595877e+001  -8.161088e+001 
4359375000  -3.621947e+001  -6.694706e+001 
4362500000  -3.297890e+001  -6.785050e+001 
4365625000  -3.173191e+001  -8.278403e+001 
4368750000  -3.250983e+001  -9.526002e+001 
4371875000  -3.352366e+001  -9.544945e+001 
4375000000  -3.301753e+001  -9.759514e+001 
4378125000  -3.237663e+001  -1.043257e+002 
4381250000  -3.258115e+001  -1.106683e+002 
4384375000  -3.236792e+001  -1.181176e+002 
4387500000  -3.315540e+001  -1.246870e+002 
4390625000  -3.405326e+001  -1.257528e+002 
4393750000  -3.344989e+001  -1.251260e+002 
4396875000  -3.290824e+001  -1.295331e+002 
4400000000  -3.233381e+001  -1.381080e+002 
4403125000  -3.302561e+001  -1.468008e+002 
4406250000  -3.389621e+001  -1.491871e+002 
4409375000  -3.426212e+001  -1.529175e+002 
4412500000  -3.544490e+001  -1.562457e+002 
4415625000  -3.575877e+001  -1.523187e+002 
