!Agilent Technologies,E8363B,MY43030201,A.06.04.32
!Agilent E8363B: A.06.04.32
!Date: Tuesday, November 11, 2014 21:03:40
!Correction: S21(Response(S21)) 
!S1P File: Measurement: S21:
# Hz S  dB   R 50
3000000000  -3.641657e+001  -4.751936e+001 
3003125000  -3.753231e+001  -5.278679e+001 
3006250000  -3.743688e+001  -5.620025e+001 
3009375000  -3.775643e+001  -5.187012e+001 
3012500000  -3.698560e+001  -5.315669e+001 
3015625000  -3.597925e+001  -5.993589e+001 
3018750000  -3.684586e+001  -6.228102e+001 
3021875000  -3.542553e+001  -6.093707e+001 
3025000000  -3.408807e+001  -6.479179e+001 
3028125000  -3.316019e+001  -7.025557e+001 
3031250000  -3.216758e+001  -8.206655e+001 
3034375000  -3.175451e+001  -9.597834e+001 
3037500000  -3.217233e+001  -1.079044e+002 
3040625000  -3.353698e+001  -1.123513e+002 
3043750000  -3.426689e+001  -1.173089e+002 
3046875000  -3.442028e+001  -1.234406e+002 
3050000000  -3.604353e+001  -1.295090e+002 
3053125000  -3.605764e+001  -1.232683e+002 
3056250000  -3.546323e+001  -1.207034e+002 
3059375000  -3.563341e+001  -1.219517e+002 
3062500000  -3.414512e+001  -1.249977e+002 
3065625000  -3.385943e+001  -1.298190e+002 
3068750000  -3.355321e+001  -1.376553e+002 
3071875000  -3.352354e+001  -1.400471e+002 
3075000000  -3.332367e+001  -1.440469e+002 
3078125000  -3.305215e+001  -1.476945e+002 
3081250000  -3.350198e+001  -1.520445e+002 
3084375000  -3.267759e+001  -1.551479e+002 
3087500000  -3.250349e+001  -1.597709e+002 
3090625000  -3.196383e+001  -1.695199e+002 
3093750000  -3.234389e+001  -1.771571e+002 
3096875000  -3.336147e+001  1.762494e+002 
3100000000  -3.335347e+001  1.750785e+002 
3103125000  -3.360065e+001  1.758011e+002 
3106250000  -3.315459e+001  1.712073e+002 
3109375000  -3.331242e+001  1.668853e+002 
3112500000  -3.315815e+001  1.649417e+002 
3115625000  -3.287084e+001  1.602704e+002 
3118750000  -3.315942e+001  1.600841e+002 
3121875000  -3.232221e+001  1.514146e+002 
3125000000  -3.348917e+001  1.465633e+002 
3128125000  -3.456345e+001  1.543406e+002 
3131250000  -3.205534e+001  1.525305e+002 
3134375000  -3.074015e+001  1.374458e+002 
3137500000  -3.134993e+001  1.223977e+002 
3140625000  -3.280811e+001  1.199105e+002 
3143750000  -3.376979e+001  1.214124e+002 
3146875000  -3.334645e+001  1.223762e+002 
3150000000  -3.235448e+001  1.231046e+002 
3153125000  -3.233508e+001  1.139175e+002 
3156250000  -3.325961e+001  1.184773e+002 
3159375000  -3.165901e+001  1.191084e+002 
3162500000  -2.979603e+001  1.050817e+002 
3165625000  -3.071789e+001  9.293835e+001 
3168750000  -3.108569e+001  9.294103e+001 
3171875000  -3.016345e+001  8.737659e+001 
3175000000  -3.090914e+001  7.876222e+001 
3178125000  -3.067083e+001  7.956792e+001 
3181250000  -2.963593e+001  7.419785e+001 
3184375000  -2.886959e+001  6.080741e+001 
3187500000  -3.005178e+001  4.552464e+001 
3190625000  -3.281374e+001  3.705095e+001 
3193750000  -3.344754e+001  4.630421e+001 
3196875000  -3.309798e+001  5.132617e+001 
3200000000  -3.207856e+001  4.869624e+001 
3203125000  -3.130750e+001  4.219717e+001 
3206250000  -3.160772e+001  3.540756e+001 
3209375000  -3.115082e+001  2.947744e+001 
3212500000  -3.139331e+001  2.245382e+001 
3215625000  -3.143688e+001  1.868802e+001 
3218750000  -3.222211e+001  1.131212e+001 
3221875000  -3.306015e+001  5.996176e+000 
3225000000  -3.263680e+001  4.987432e+000 
3228125000  -3.307236e+001  -2.482808e-001 
3231250000  -3.369259e+001  -3.089363e+000 
3234375000  -3.344881e+001  -2.219202e+000 
3237500000  -3.346875e+001  -4.428171e+000 
3240625000  -3.306592e+001  -6.848815e+000 
3243750000  -3.265091e+001  -1.440993e+001 
3246875000  -3.299566e+001  -2.197096e+001 
3250000000  -3.342557e+001  -2.396949e+001 
3253125000  -3.350508e+001  -2.642550e+001 
3256250000  -3.324089e+001  -3.298222e+001 
3259375000  -3.352079e+001  -4.217499e+001 
3262500000  -3.464449e+001  -4.543427e+001 
3265625000  -3.530359e+001  -4.244823e+001 
3268750000  -3.513257e+001  -4.105072e+001 
3271875000  -3.483208e+001  -4.047258e+001 
3275000000  -3.365259e+001  -4.727051e+001 
3278125000  -3.427006e+001  -5.361837e+001 
3281250000  -3.438696e+001  -5.303739e+001 
3284375000  -3.384277e+001  -6.052328e+001 
3287500000  -3.407106e+001  -6.424879e+001 
3290625000  -3.438117e+001  -6.936066e+001 
3293750000  -3.411471e+001  -7.530930e+001 
3296875000  -3.509777e+001  -7.637910e+001 
3300000000  -3.491431e+001  -7.508000e+001 
3303125000  -3.382897e+001  -8.063826e+001 
3306250000  -3.357807e+001  -8.844440e+001 
3309375000  -3.317324e+001  -9.326295e+001 
3312500000  -3.336267e+001  -1.050248e+002 
3315625000  -3.429235e+001  -1.133309e+002 
3318750000  -3.576522e+001  -1.158241e+002 
3321875000  -3.677091e+001  -1.171414e+002 
3325000000  -3.711011e+001  -1.119825e+002 
3328125000  -3.699298e+001  -1.115248e+002 
3331250000  -3.576333e+001  -1.044627e+002 
3334375000  -3.307333e+001  -1.142706e+002 
3337500000  -3.319355e+001  -1.335373e+002 
3340625000  -3.452672e+001  -1.448090e+002 
3343750000  -3.650055e+001  -1.461182e+002 
3346875000  -3.667136e+001  -1.441922e+002 
3350000000  -3.608693e+001  -1.456750e+002 
3353125000  -3.618315e+001  -1.510484e+002 
3356250000  -3.557112e+001  -1.581429e+002 
3359375000  -3.651012e+001  -1.680232e+002 
3362500000  -3.734941e+001  -1.723176e+002 
3365625000  -3.798849e+001  -1.732691e+002 
3368750000  -3.880517e+001  -1.756648e+002 
3371875000  -3.910605e+001  -1.795099e+002 
3375000000  -4.034248e+001  1.778611e+002 
3378125000  -4.124418e+001  1.792826e+002 
3381250000  -4.233596e+001  -1.723147e+002 
3384375000  -4.146639e+001  -1.511161e+002 
3387500000  -3.779210e+001  -1.689235e+002 
3390625000  -3.940632e+001  1.725054e+002 
3393750000  -4.036060e+001  1.758750e+002 
3396875000  -3.915950e+001  1.774357e+002 
3400000000  -3.884200e+001  1.689880e+002 
3403125000  -3.936094e+001  1.644205e+002 
3406250000  -3.970773e+001  1.654074e+002 
3409375000  -3.973333e+001  1.557076e+002 
3412500000  -4.019326e+001  1.549468e+002 
3415625000  -4.104126e+001  1.559876e+002 
3418750000  -4.118280e+001  1.549666e+002 
3421875000  -4.123539e+001  1.586235e+002 
3425000000  -4.037643e+001  1.576560e+002 
3428125000  -3.944323e+001  1.550484e+002 
3431250000  -3.929317e+001  1.484651e+002 
3434375000  -3.907169e+001  1.413567e+002 
3437500000  -3.962958e+001  1.382428e+002 
3440625000  -4.010652e+001  1.395875e+002 
3443750000  -3.865321e+001  1.408671e+002 
3446875000  -3.797269e+001  1.321969e+002 
3450000000  -3.772281e+001  1.214201e+002 
3453125000  -3.798163e+001  1.122470e+002 
3456250000  -3.917900e+001  1.055255e+002 
3459375000  -3.997770e+001  1.077518e+002 
3462500000  -4.004329e+001  1.077978e+002 
3465625000  -3.992913e+001  1.017827e+002 
3468750000  -4.024518e+001  9.821121e+001 
3471875000  -4.014499e+001  9.493041e+001 
3475000000  -3.969954e+001  9.096987e+001 
3478125000  -4.057326e+001  8.395468e+001 
3481250000  -4.140725e+001  8.175117e+001 
3484375000  -4.238427e+001  8.441953e+001 
3487500000  -4.141291e+001  8.469180e+001 
3490625000  -4.097607e+001  8.059316e+001 
3493750000  -4.123358e+001  7.403555e+001 
3496875000  -4.194235e+001  7.131431e+001 
3500000000  -4.246977e+001  7.396076e+001 
3503125000  -4.209660e+001  7.648672e+001 
3506250000  -4.090624e+001  7.337984e+001 
3509375000  -4.084949e+001  6.363961e+001 
3512500000  -4.135437e+001  5.509827e+001 
3515625000  -4.186176e+001  5.161748e+001 
3518750000  -4.248237e+001  5.232417e+001 
3521875000  -4.237236e+001  4.944818e+001 
3525000000  -4.377389e+001  4.898575e+001 
3528125000  -4.322465e+001  5.225792e+001 
3531250000  -4.188628e+001  5.328098e+001 
3534375000  -4.187928e+001  4.176860e+001 
3537500000  -4.223732e+001  3.671311e+001 
3540625000  -4.363596e+001  3.619199e+001 
3543750000  -4.396595e+001  4.118559e+001 
3546875000  -4.399324e+001  5.014407e+001 
3550000000  -4.124191e+001  5.211204e+001 
3553125000  -3.992273e+001  3.253068e+001 
3556250000  -4.122263e+001  2.689296e+001 
3559375000  -4.119015e+001  2.717899e+001 
3562500000  -4.002771e+001  1.821795e+001 
3565625000  -4.074027e+001  1.217781e+001 
3568750000  -4.104109e+001  1.499702e+001 
3571875000  -4.089474e+001  1.258355e+001 
3575000000  -4.057514e+001  5.461709e+000 
3578125000  -4.113625e+001  -8.819913e-001 
3581250000  -4.140666e+001  -1.382207e+000 
3584375000  -4.053828e+001  -3.204684e+000 
3587500000  -3.996617e+001  -1.228111e+001 
3590625000  -4.043352e+001  -2.312850e+001 
3593750000  -4.150041e+001  -2.511577e+001 
3596875000  -4.161520e+001  -1.977320e+001 
3600000000  -4.038732e+001  -2.423489e+001 
3603125000  -4.079165e+001  -3.913628e+001 
3606250000  -4.148679e+001  -4.422400e+001 
3609375000  -4.208305e+001  -4.579545e+001 
3612500000  -4.287917e+001  -4.734738e+001 
3615625000  -4.313087e+001  -5.220246e+001 
3618750000  -4.416513e+001  -5.087647e+001 
3621875000  -4.392030e+001  -5.504897e+001 
3625000000  -4.439679e+001  -5.463507e+001 
3628125000  -4.474493e+001  -5.530636e+001 
3631250000  -4.438840e+001  -6.149122e+001 
3634375000  -4.599397e+001  -6.115374e+001 
3637500000  -4.565416e+001  -5.672291e+001 
3640625000  -4.477128e+001  -5.512476e+001 
3643750000  -4.448742e+001  -5.992781e+001 
3646875000  -4.524842e+001  -6.283443e+001 
3650000000  -4.597031e+001  -6.387503e+001 
3653125000  -4.530069e+001  -6.588680e+001 
3656250000  -4.623659e+001  -6.514935e+001 
3659375000  -4.520879e+001  -6.050339e+001 
3662500000  -4.529948e+001  -6.541148e+001 
3665625000  -4.497946e+001  -6.406712e+001 
3668750000  -4.368156e+001  -6.438860e+001 
3671875000  -4.261723e+001  -6.864262e+001 
3675000000  -4.263494e+001  -7.911050e+001 
3678125000  -4.294973e+001  -8.111407e+001 
3681250000  -4.285368e+001  -8.381743e+001 
3684375000  -4.258675e+001  -8.961321e+001 
3687500000  -4.277415e+001  -9.130062e+001 
3690625000  -4.293948e+001  -9.682633e+001 
3693750000  -4.376160e+001  -9.717769e+001 
3696875000  -4.349188e+001  -9.620325e+001 
3700000000  -4.278837e+001  -1.029767e+002 
3703125000  -4.263437e+001  -1.065161e+002 
3706250000  -4.341537e+001  -1.102413e+002 
3709375000  -4.350640e+001  -1.060179e+002 
3712500000  -4.231823e+001  -1.083602e+002 
3715625000  -4.134766e+001  -1.178558e+002 
3718750000  -4.118771e+001  -1.225687e+002 
3721875000  -4.121270e+001  -1.280561e+002 
3725000000  -4.143531e+001  -1.354128e+002 
3728125000  -4.210014e+001  -1.361740e+002 
3731250000  -4.155148e+001  -1.384737e+002 
3734375000  -4.128757e+001  -1.441147e+002 
3737500000  -4.238797e+001  -1.531740e+002 
3740625000  -4.315826e+001  -1.581827e+002 
3743750000  -4.315264e+001  -1.591233e+002 
3746875000  -4.369805e+001  -1.621221e+002 
3750000000  -4.447156e+001  -1.591888e+002 
3753125000  -4.432823e+001  -1.609165e+002 
3756250000  -4.482759e+001  -1.567432e+002 
3759375000  -4.481732e+001  -1.602714e+002 
3762500000  -4.440220e+001  -1.608359e+002 
3765625000  -4.522478e+001  -1.605928e+002 
3768750000  -4.491670e+001  -1.581026e+002 
3771875000  -4.332212e+001  -1.588511e+002 
3775000000  -4.316021e+001  -1.642021e+002 
3778125000  -4.344688e+001  -1.689377e+002 
3781250000  -4.288317e+001  -1.687468e+002 
3784375000  -4.241998e+001  -1.678077e+002 
3787500000  -4.189153e+001  -1.714047e+002 
3790625000  -4.248769e+001  -1.780696e+002 
3793750000  -4.209888e+001  -1.792448e+002 
3796875000  -4.096113e+001  1.783331e+002 
3800000000  -3.960751e+001  1.744395e+002 
3803125000  -4.006622e+001  1.668872e+002 
3806250000  -4.078864e+001  1.640096e+002 
3809375000  -4.059429e+001  1.613099e+002 
3812500000  -3.962275e+001  1.541777e+002 
3815625000  -4.008652e+001  1.451441e+002 
3818750000  -4.124725e+001  1.445692e+002 
3821875000  -4.127328e+001  1.519512e+002 
3825000000  -3.897976e+001  1.534519e+002 
3828125000  -3.796974e+001  1.374613e+002 
3831250000  -3.853269e+001  1.216836e+002 
3834375000  -4.002778e+001  1.221894e+002 
3837500000  -4.096199e+001  1.243853e+002 
3840625000  -3.975564e+001  1.236280e+002 
3843750000  -3.869686e+001  1.110215e+002 
3846875000  -3.974284e+001  1.039516e+002 
3850000000  -4.097118e+001  1.101535e+002 
3853125000  -4.037929e+001  1.108002e+002 
3856250000  -4.050658e+001  1.041864e+002 
3859375000  -3.941912e+001  1.000744e+002 
3862500000  -3.937939e+001  8.955565e+001 
3865625000  -3.965540e+001  8.634863e+001 
3868750000  -3.980670e+001  8.585824e+001 
3871875000  -3.934093e+001  8.056275e+001 
3875000000  -3.971449e+001  7.381062e+001 
3878125000  -4.071244e+001  7.107782e+001 
3881250000  -4.073151e+001  7.398140e+001 
3884375000  -4.045823e+001  6.847268e+001 
3887500000  -4.056699e+001  6.458140e+001 
3890625000  -4.115730e+001  6.136850e+001 
3893750000  -4.098188e+001  5.919134e+001 
3896875000  -4.153944e+001  6.128309e+001 
3900000000  -4.163044e+001  6.115285e+001 
3903125000  -4.151245e+001  6.010512e+001 
3906250000  -4.089311e+001  5.596819e+001 
3909375000  -4.035679e+001  5.024392e+001 
3912500000  -4.013871e+001  4.532893e+001 
3915625000  -4.136151e+001  4.623719e+001 
3918750000  -4.112804e+001  4.646179e+001 
3921875000  -4.080195e+001  4.256482e+001 
3925000000  -4.000269e+001  4.150214e+001 
3928125000  -3.916124e+001  3.616541e+001 
3931250000  -3.979573e+001  2.913143e+001 
3934375000  -3.971827e+001  2.849898e+001 
3937500000  -4.012781e+001  2.710196e+001 
3940625000  -4.040423e+001  2.640647e+001 
3943750000  -3.930686e+001  2.429627e+001 
3946875000  -3.806685e+001  1.746000e+001 
3950000000  -3.885406e+001  1.070611e+001 
3953125000  -3.973979e+001  9.280182e+000 
3956250000  -3.904202e+001  9.388344e+000 
3959375000  -3.750450e+001  5.933705e+000 
3962500000  -3.730475e+001  2.595217e+000 
3965625000  -3.715705e+001  -9.667698e+000 
3968750000  -3.798853e+001  -1.641560e+001 
3971875000  -3.845853e+001  -2.022409e+001 
3975000000  -3.770212e+001  -2.097491e+001 
3978125000  -3.769653e+001  -2.473553e+001 
3981250000  -3.770087e+001  -2.937889e+001 
3984375000  -3.783491e+001  -3.665059e+001 
3987500000  -3.866665e+001  -3.860840e+001 
3990625000  -3.846814e+001  -3.952431e+001 
3993750000  -3.871108e+001  -4.447252e+001 
3996875000  -3.889188e+001  -4.932934e+001 
4000000000  -3.927115e+001  -4.989270e+001 
4003125000  -3.979771e+001  -4.783551e+001 
4006250000  -3.845354e+001  -4.941314e+001 
4009375000  -3.739868e+001  -6.188024e+001 
4012500000  -3.859776e+001  -6.968481e+001 
4015625000  -4.006777e+001  -6.986722e+001 
4018750000  -4.044238e+001  -6.488672e+001 
4021875000  -3.947207e+001  -6.981479e+001 
4025000000  -3.917867e+001  -7.467788e+001 
4028125000  -3.921745e+001  -7.653658e+001 
4031250000  -3.989563e+001  -8.195643e+001 
4034375000  -4.008474e+001  -8.119442e+001 
4037500000  -3.938264e+001  -7.940141e+001 
4040625000  -3.940026e+001  -8.398655e+001 
4043750000  -3.959601e+001  -8.277903e+001 
4046875000  -3.914247e+001  -8.609293e+001 
4050000000  -3.847160e+001  -9.164820e+001 
4053125000  -3.887022e+001  -9.256361e+001 
4056250000  -3.929126e+001  -9.045957e+001 
4059375000  -3.798462e+001  -8.934785e+001 
4062500000  -3.675591e+001  -9.630820e+001 
4065625000  -3.659334e+001  -9.906615e+001 
4068750000  -3.646405e+001  -1.049792e+002 
4071875000  -3.548710e+001  -1.141912e+002 
4075000000  -3.600858e+001  -1.215529e+002 
4078125000  -3.644834e+001  -1.232151e+002 
4081250000  -3.596712e+001  -1.275998e+002 
4084375000  -3.549582e+001  -1.348239e+002 
4087500000  -3.584875e+001  -1.428608e+002 
4090625000  -3.664120e+001  -1.443282e+002 
4093750000  -3.634626e+001  -1.454453e+002 
4096875000  -3.589473e+001  -1.523223e+002 
4100000000  -3.670959e+001  -1.604796e+002 
4103125000  -3.767496e+001  -1.591647e+002 
4106250000  -3.737663e+001  -1.552542e+002 
4109375000  -3.631935e+001  -1.578451e+002 
4112500000  -3.604900e+001  -1.658406e+002 
4115625000  -3.661079e+001  -1.703482e+002 
4118750000  -3.658789e+001  -1.745964e+002 
4121875000  -3.627698e+001  1.791533e+002 
4125000000  -3.656438e+001  1.734419e+002 
4128125000  -3.773236e+001  1.747518e+002 
4131250000  -3.751555e+001  -1.794091e+002 
4134375000  -3.515597e+001  1.745042e+002 
4137500000  -3.522814e+001  1.540875e+002 
4140625000  -3.734566e+001  1.468733e+002 
4143750000  -3.883995e+001  1.514983e+002 
4146875000  -3.829991e+001  1.589597e+002 
4150000000  -3.738096e+001  1.547529e+002 
4153125000  -3.752668e+001  1.467955e+002 
4156250000  -3.850854e+001  1.439490e+002 
4159375000  -3.870747e+001  1.466711e+002 
4162500000  -3.782560e+001  1.529257e+002 
4165625000  -3.675999e+001  1.499093e+002 
4168750000  -3.609183e+001  1.402521e+002 
4171875000  -3.629849e+001  1.316820e+002 
4175000000  -3.675053e+001  1.269365e+002 
4178125000  -3.721710e+001  1.257208e+002 
4181250000  -3.703355e+001  1.250917e+002 
4184375000  -3.684094e+001  1.217528e+002 
4187500000  -3.677427e+001  1.179197e+002 
4190625000  -3.687844e+001  1.128035e+002 
4193750000  -3.712503e+001  1.068537e+002 
4196875000  -3.778867e+001  1.072955e+002 
4200000000  -3.895399e+001  1.094201e+002 
4203125000  -3.873611e+001  1.228907e+002 
4206250000  -3.534058e+001  1.210863e+002 
4209375000  -3.400357e+001  9.997218e+001 
4212500000  -3.588044e+001  9.233820e+001 
4215625000  -3.676191e+001  9.770103e+001 
4218750000  -3.534100e+001  1.024971e+002 
4221875000  -3.306369e+001  9.205257e+001 
4225000000  -3.425326e+001  7.958952e+001 
4228125000  -3.484003e+001  8.291993e+001 
4231250000  -3.324092e+001  7.781523e+001 
4234375000  -3.310458e+001  6.836634e+001 
4237500000  -3.270463e+001  6.400197e+001 
4240625000  -3.272354e+001  5.253866e+001 
4243750000  -3.378663e+001  4.488524e+001 
4246875000  -3.476043e+001  4.507561e+001 
4250000000  -3.462509e+001  4.652554e+001 
4253125000  -3.397301e+001  4.325774e+001 
4256250000  -3.440900e+001  3.663437e+001 
4259375000  -3.430295e+001  3.423339e+001 
4262500000  -3.431532e+001  2.879436e+001 
4265625000  -3.457266e+001  2.836065e+001 
4268750000  -3.357869e+001  2.376834e+001 
4271875000  -3.356105e+001  1.580884e+001 
4275000000  -3.315033e+001  8.026094e+000 
4278125000  -3.379766e+001  -3.185890e+000 
4281250000  -3.579486e+001  -5.270975e+000 
4284375000  -3.554387e+001  -6.126822e+000 
4287500000  -3.665779e+001  -1.058147e+001 
4290625000  -3.806655e+001  -1.622027e+000 
4293750000  -3.596177e+001  3.954799e+000 
4296875000  -3.478965e+001  -6.350600e+000 
4300000000  -3.581141e+001  -1.513840e+001 
4303125000  -3.696247e+001  -1.422257e+001 
4306250000  -3.638105e+001  -9.305533e+000 
4309375000  -3.489074e+001  -1.027944e+001 
4312500000  -3.487154e+001  -1.858564e+001 
4315625000  -3.520266e+001  -2.439336e+001 
4318750000  -3.538120e+001  -2.754009e+001 
4321875000  -3.555443e+001  -2.728373e+001 
4325000000  -3.485520e+001  -2.716135e+001 
4328125000  -3.422059e+001  -3.374787e+001 
4331250000  -3.398206e+001  -4.256385e+001 
4334375000  -3.427469e+001  -4.864352e+001 
4337500000  -3.517253e+001  -4.967107e+001 
4340625000  -3.542773e+001  -4.639549e+001 
4343750000  -3.468779e+001  -4.778891e+001 
4346875000  -3.431058e+001  -5.316147e+001 
4350000000  -3.399250e+001  -5.779527e+001 
4353125000  -3.400973e+001  -6.768544e+001 
4356250000  -3.553593e+001  -6.964648e+001 
4359375000  -3.625830e+001  -5.650322e+001 
4362500000  -3.335168e+001  -5.650995e+001 
4365625000  -3.164999e+001  -7.083426e+001 
4368750000  -3.238477e+001  -8.392938e+001 
4371875000  -3.347248e+001  -8.349065e+001 
4375000000  -3.312059e+001  -8.475617e+001 
4378125000  -3.230535e+001  -9.147311e+001 
4381250000  -3.257253e+001  -9.867657e+001 
4384375000  -3.222589e+001  -1.048392e+002 
4387500000  -3.303529e+001  -1.121748e+002 
4390625000  -3.408310e+001  -1.128191e+002 
4393750000  -3.337469e+001  -1.117040e+002 
4396875000  -3.288042e+001  -1.152668e+002 
4400000000  -3.232365e+001  -1.234835e+002 
4403125000  -3.285293e+001  -1.333560e+002 
4406250000  -3.373170e+001  -1.349506e+002 
4409375000  -3.394756e+001  -1.398840e+002 
4412500000  -3.532136e+001  -1.427895e+002 
4415625000  -3.552880e+001  -1.375210e+002 
