!Agilent Technologies,E8363B,MY43030201,A.06.04.32
!Agilent E8363B: A.06.04.32
!Date: Tuesday, November 11, 2014 21:01:16
!Correction: S21(Response(S21)) 
!S1P File: Measurement: S21:
# Hz S  dB   R 50
3000000000  -3.644282e+001  -4.353521e+001 
3003125000  -3.768956e+001  -4.892023e+001 
3006250000  -3.739626e+001  -5.166479e+001 
3009375000  -3.768920e+001  -4.724085e+001 
3012500000  -3.697867e+001  -4.898192e+001 
3015625000  -3.602167e+001  -5.668612e+001 
3018750000  -3.682109e+001  -5.791533e+001 
3021875000  -3.542225e+001  -5.732786e+001 
3025000000  -3.401690e+001  -6.074697e+001 
3028125000  -3.311214e+001  -6.679507e+001 
3031250000  -3.210509e+001  -7.826826e+001 
3034375000  -3.167111e+001  -9.193657e+001 
3037500000  -3.209257e+001  -1.038979e+002 
3040625000  -3.336515e+001  -1.084285e+002 
3043750000  -3.403334e+001  -1.142082e+002 
3046875000  -3.424414e+001  -1.203787e+002 
3050000000  -3.588272e+001  -1.264907e+002 
3053125000  -3.588688e+001  -1.202722e+002 
3056250000  -3.537110e+001  -1.182005e+002 
3059375000  -3.554624e+001  -1.182564e+002 
3062500000  -3.391715e+001  -1.216607e+002 
3065625000  -3.390890e+001  -1.278207e+002 
3068750000  -3.344526e+001  -1.353296e+002 
3071875000  -3.338059e+001  -1.379891e+002 
3075000000  -3.320002e+001  -1.412774e+002 
3078125000  -3.291806e+001  -1.455088e+002 
3081250000  -3.349901e+001  -1.498301e+002 
3084375000  -3.263844e+001  -1.534527e+002 
3087500000  -3.240226e+001  -1.572636e+002 
3090625000  -3.189945e+001  -1.672622e+002 
3093750000  -3.228476e+001  -1.747853e+002 
3096875000  -3.348116e+001  1.788130e+002 
3100000000  -3.336472e+001  1.768602e+002 
3103125000  -3.366130e+001  1.778503e+002 
3106250000  -3.313976e+001  1.734699e+002 
3109375000  -3.326393e+001  1.699836e+002 
3112500000  -3.318901e+001  1.677801e+002 
3115625000  -3.287867e+001  1.626070e+002 
3118750000  -3.318019e+001  1.629202e+002 
3121875000  -3.235931e+001  1.540920e+002 
3125000000  -3.358347e+001  1.498571e+002 
3128125000  -3.453240e+001  1.564732e+002 
3131250000  -3.214731e+001  1.556101e+002 
3134375000  -3.084805e+001  1.397906e+002 
3137500000  -3.132018e+001  1.251284e+002 
3140625000  -3.298051e+001  1.223777e+002 
3143750000  -3.387227e+001  1.243132e+002 
3146875000  -3.347015e+001  1.252475e+002 
3150000000  -3.241334e+001  1.258361e+002 
3153125000  -3.238357e+001  1.167813e+002 
3156250000  -3.337935e+001  1.210415e+002 
3159375000  -3.168265e+001  1.227199e+002 
3162500000  -2.972935e+001  1.076907e+002 
3165625000  -3.073828e+001  9.552992e+001 
3168750000  -3.108354e+001  9.563371e+001 
3171875000  -3.022503e+001  9.040897e+001 
3175000000  -3.091357e+001  8.200982e+001 
3178125000  -3.067426e+001  8.246604e+001 
3181250000  -2.955019e+001  7.716207e+001 
3184375000  -2.882999e+001  6.445314e+001 
3187500000  -3.007958e+001  4.855238e+001 
3190625000  -3.277459e+001  4.125208e+001 
3193750000  -3.333795e+001  4.928904e+001 
3196875000  -3.301774e+001  5.412659e+001 
3200000000  -3.204163e+001  5.150282e+001 
3203125000  -3.125682e+001  4.512251e+001 
3206250000  -3.149137e+001  3.851024e+001 
3209375000  -3.115406e+001  3.248021e+001 
3212500000  -3.129267e+001  2.560035e+001 
3215625000  -3.132872e+001  2.073243e+001 
3218750000  -3.215675e+001  1.363497e+001 
3221875000  -3.303201e+001  8.489358e+000 
3225000000  -3.258773e+001  7.591624e+000 
3228125000  -3.298063e+001  2.306582e+000 
3231250000  -3.359764e+001  -1.070996e+000 
3234375000  -3.340781e+001  -3.466071e-002 
3237500000  -3.338952e+001  -2.346844e+000 
3240625000  -3.300710e+001  -4.809088e+000 
3243750000  -3.259723e+001  -1.289443e+001 
3246875000  -3.299828e+001  -1.955676e+001 
3250000000  -3.347585e+001  -2.163365e+001 
3253125000  -3.362945e+001  -2.416774e+001 
3256250000  -3.329321e+001  -3.100645e+001 
3259375000  -3.347944e+001  -3.934673e+001 
3262500000  -3.457850e+001  -4.318903e+001 
3265625000  -3.538276e+001  -4.063165e+001 
3268750000  -3.527021e+001  -3.818930e+001 
3271875000  -3.499934e+001  -3.825557e+001 
3275000000  -3.387030e+001  -4.447709e+001 
3278125000  -3.433375e+001  -5.219004e+001 
3281250000  -3.441702e+001  -5.085727e+001 
3284375000  -3.399413e+001  -5.729811e+001 
3287500000  -3.423430e+001  -6.085555e+001 
3290625000  -3.448528e+001  -6.722401e+001 
3293750000  -3.431717e+001  -7.297257e+001 
3296875000  -3.527517e+001  -7.280788e+001 
3300000000  -3.507315e+001  -7.270309e+001 
3303125000  -3.387790e+001  -7.817338e+001 
3306250000  -3.370954e+001  -8.469011e+001 
3309375000  -3.340146e+001  -9.083970e+001 
3312500000  -3.348436e+001  -1.019724e+002 
3315625000  -3.430526e+001  -1.096951e+002 
3318750000  -3.565012e+001  -1.124251e+002 
3321875000  -3.685826e+001  -1.130133e+002 
3325000000  -3.736292e+001  -1.088558e+002 
3328125000  -3.702033e+001  -1.070373e+002 
3331250000  -3.585401e+001  -1.011923e+002 
3334375000  -3.322129e+001  -1.111456e+002 
3337500000  -3.309608e+001  -1.302118e+002 
3340625000  -3.454935e+001  -1.412276e+002 
3343750000  -3.646807e+001  -1.429344e+002 
3346875000  -3.673988e+001  -1.406888e+002 
3350000000  -3.616489e+001  -1.426909e+002 
3353125000  -3.607036e+001  -1.470795e+002 
3356250000  -3.557219e+001  -1.558025e+002 
3359375000  -3.630704e+001  -1.633295e+002 
3362500000  -3.757084e+001  -1.688630e+002 
3365625000  -3.784182e+001  -1.709546e+002 
3368750000  -3.873269e+001  -1.731722e+002 
3371875000  -3.897860e+001  -1.766166e+002 
3375000000  -4.036226e+001  -1.778623e+002 
3378125000  -4.097136e+001  -1.793789e+002 
3381250000  -4.242471e+001  -1.705510e+002 
3384375000  -4.092780e+001  -1.499201e+002 
3387500000  -3.764494e+001  -1.639130e+002 
3390625000  -3.928759e+001  1.754617e+002 
3393750000  -4.041754e+001  1.789745e+002 
3396875000  -3.935356e+001  -1.799135e+002 
3400000000  -3.861978e+001  1.718087e+002 
3403125000  -3.936552e+001  1.662131e+002 
3406250000  -3.971025e+001  1.659122e+002 
3409375000  -3.994614e+001  1.573421e+002 
3412500000  -4.037394e+001  1.557359e+002 
3415625000  -4.095621e+001  1.566637e+002 
3418750000  -4.112440e+001  1.583127e+002 
3421875000  -4.131025e+001  1.611729e+002 
3425000000  -4.024074e+001  1.616142e+002 
3428125000  -3.949588e+001  1.567543e+002 
3431250000  -3.941487e+001  1.503138e+002 
3434375000  -3.908981e+001  1.458199e+002 
3437500000  -3.978407e+001  1.405273e+002 
3440625000  -4.014528e+001  1.419827e+002 
3443750000  -3.876019e+001  1.441802e+002 
3446875000  -3.799319e+001  1.357833e+002 
3450000000  -3.759304e+001  1.250484e+002 
3453125000  -3.784394e+001  1.153601e+002 
3456250000  -3.898511e+001  1.082300e+002 
3459375000  -3.995628e+001  1.085272e+002 
3462500000  -3.964434e+001  1.090443e+002 
3465625000  -3.984957e+001  1.042789e+002 
3468750000  -3.983803e+001  1.005569e+002 
3471875000  -3.990245e+001  9.904150e+001 
3475000000  -3.940870e+001  9.505270e+001 
3478125000  -4.001001e+001  8.735944e+001 
3481250000  -4.086308e+001  8.270297e+001 
3484375000  -4.226814e+001  8.560220e+001 
3487500000  -4.114005e+001  8.666170e+001 
3490625000  -4.068784e+001  8.229791e+001 
3493750000  -4.117984e+001  7.478889e+001 
3496875000  -4.171289e+001  7.299045e+001 
3500000000  -4.221917e+001  7.451698e+001 
3503125000  -4.164191e+001  7.500009e+001 
3506250000  -4.071883e+001  7.182293e+001 
3509375000  -4.062043e+001  6.284129e+001 
3512500000  -4.121095e+001  5.227952e+001 
3515625000  -4.186039e+001  4.942677e+001 
3518750000  -4.239407e+001  4.949341e+001 
3521875000  -4.249386e+001  4.780405e+001 
3525000000  -4.345330e+001  4.455084e+001 
3528125000  -4.341637e+001  5.148754e+001 
3531250000  -4.214260e+001  4.858932e+001 
3534375000  -4.266748e+001  4.096457e+001 
3537500000  -4.268728e+001  3.432830e+001 
3540625000  -4.379543e+001  3.240334e+001 
3543750000  -4.481943e+001  3.799701e+001 
3546875000  -4.466826e+001  4.988444e+001 
3550000000  -4.194337e+001  5.171731e+001 
3553125000  -4.052114e+001  3.362657e+001 
3556250000  -4.244662e+001  2.718103e+001 
3559375000  -4.203712e+001  3.078743e+001 
3562500000  -4.105810e+001  2.198723e+001 
3565625000  -4.153231e+001  1.373100e+001 
3568750000  -4.189432e+001  1.751968e+001 
3571875000  -4.172972e+001  1.670632e+001 
3575000000  -4.119007e+001  1.055170e+001 
3578125000  -4.163980e+001  4.608263e+000 
3581250000  -4.190208e+001  3.759651e+000 
3584375000  -4.096856e+001  7.827063e-001 
3587500000  -4.025940e+001  -6.332276e+000 
3590625000  -4.062668e+001  -1.777620e+001 
3593750000  -4.210610e+001  -2.074411e+001 
3596875000  -4.190278e+001  -1.304851e+001 
3600000000  -4.044715e+001  -1.943184e+001 
3603125000  -4.082470e+001  -3.357718e+001 
3606250000  -4.178917e+001  -3.780095e+001 
3609375000  -4.204807e+001  -4.000437e+001 
3612500000  -4.280725e+001  -4.457458e+001 
3615625000  -4.328030e+001  -4.853627e+001 
3618750000  -4.387227e+001  -4.841805e+001 
3621875000  -4.372743e+001  -5.206525e+001 
3625000000  -4.439298e+001  -5.366206e+001 
3628125000  -4.429689e+001  -5.346255e+001 
3631250000  -4.393641e+001  -6.176578e+001 
3634375000  -4.581174e+001  -6.098624e+001 
3637500000  -4.581798e+001  -5.561802e+001 
3640625000  -4.487579e+001  -5.554491e+001 
3643750000  -4.524385e+001  -6.266804e+001 
3646875000  -4.519579e+001  -6.762006e+001 
3650000000  -4.599862e+001  -6.656991e+001 
3653125000  -4.600763e+001  -6.997093e+001 
3656250000  -4.697325e+001  -6.974657e+001 
3659375000  -4.681769e+001  -6.321909e+001 
3662500000  -4.642336e+001  -6.498416e+001 
3665625000  -4.619259e+001  -6.690115e+001 
3668750000  -4.466438e+001  -6.388602e+001 
3671875000  -4.397061e+001  -6.942523e+001 
3675000000  -4.421330e+001  -7.524625e+001 
3678125000  -4.478431e+001  -7.796556e+001 
3681250000  -4.451085e+001  -7.692195e+001 
3684375000  -4.422487e+001  -8.148750e+001 
3687500000  -4.396317e+001  -8.666665e+001 
3690625000  -4.411109e+001  -8.934352e+001 
3693750000  -4.460132e+001  -8.945708e+001 
3696875000  -4.436963e+001  -8.740644e+001 
3700000000  -4.365604e+001  -9.231102e+001 
3703125000  -4.406039e+001  -1.005560e+002 
3706250000  -4.438977e+001  -9.798440e+001 
3709375000  -4.432756e+001  -9.504942e+001 
3712500000  -4.295049e+001  -9.901536e+001 
3715625000  -4.212251e+001  -1.061182e+002 
3718750000  -4.171536e+001  -1.102048e+002 
3721875000  -4.181455e+001  -1.166344e+002 
3725000000  -4.185036e+001  -1.243250e+002 
3728125000  -4.230472e+001  -1.241231e+002 
3731250000  -4.192052e+001  -1.256946e+002 
3734375000  -4.142841e+001  -1.339196e+002 
3737500000  -4.218894e+001  -1.436074e+002 
3740625000  -4.301123e+001  -1.452937e+002 
3743750000  -4.332967e+001  -1.470685e+002 
3746875000  -4.304649e+001  -1.528741e+002 
3750000000  -4.404854e+001  -1.534394e+002 
3753125000  -4.415592e+001  -1.560314e+002 
3756250000  -4.403454e+001  -1.520491e+002 
3759375000  -4.431197e+001  -1.519851e+002 
3762500000  -4.427604e+001  -1.556085e+002 
3765625000  -4.454369e+001  -1.584061e+002 
3768750000  -4.477092e+001  -1.521372e+002 
3771875000  -4.320105e+001  -1.556229e+002 
3775000000  -4.294803e+001  -1.643096e+002 
3778125000  -4.334887e+001  -1.616850e+002 
3781250000  -4.275990e+001  -1.635701e+002 
3784375000  -4.294003e+001  -1.662588e+002 
3787500000  -4.194751e+001  -1.675585e+002 
3790625000  -4.266142e+001  -1.758324e+002 
3793750000  -4.257765e+001  -1.758261e+002 
3796875000  -4.154359e+001  -1.773588e+002 
3800000000  -4.006598e+001  -1.797203e+002 
3803125000  -4.071727e+001  1.712732e+002 
3806250000  -4.117444e+001  1.687374e+002 
3809375000  -4.060888e+001  1.667853e+002 
3812500000  -4.003716e+001  1.603927e+002 
3815625000  -4.071968e+001  1.512765e+002 
3818750000  -4.148644e+001  1.514826e+002 
3821875000  -4.144696e+001  1.588364e+002 
3825000000  -3.955489e+001  1.587815e+002 
3828125000  -3.830645e+001  1.476802e+002 
3831250000  -3.868156e+001  1.314242e+002 
3834375000  -4.012561e+001  1.285916e+002 
3837500000  -4.114874e+001  1.332629e+002 
3840625000  -3.999526e+001  1.306464e+002 
3843750000  -3.904274e+001  1.184432e+002 
3846875000  -3.960542e+001  1.125709e+002 
3850000000  -4.109457e+001  1.157679e+002 
3853125000  -4.041891e+001  1.199733e+002 
3856250000  -4.037266e+001  1.113571e+002 
3859375000  -3.930233e+001  1.068626e+002 
3862500000  -3.917282e+001  9.930838e+001 
3865625000  -3.948617e+001  9.405001e+001 
3868750000  -3.950418e+001  9.408528e+001 
3871875000  -3.872676e+001  8.946607e+001 
3875000000  -3.895730e+001  7.983561e+001 
3878125000  -4.031326e+001  7.846685e+001 
3881250000  -4.005681e+001  8.049075e+001 
3884375000  -3.948207e+001  7.473125e+001 
3887500000  -3.993362e+001  7.066736e+001 
3890625000  -4.034969e+001  6.763802e+001 
3893750000  -4.066315e+001  6.544467e+001 
3896875000  -4.097311e+001  6.557635e+001 
3900000000  -4.144125e+001  6.231250e+001 
3903125000  -4.095322e+001  5.966433e+001 
3906250000  -4.056650e+001  5.950467e+001 
3909375000  -3.959429e+001  5.584481e+001 
3912500000  -3.968187e+001  4.648315e+001 
3915625000  -4.110260e+001  4.946384e+001 
3918750000  -4.095470e+001  4.990695e+001 
3921875000  -4.053416e+001  4.671939e+001 
3925000000  -3.967342e+001  4.351284e+001 
3928125000  -3.914088e+001  3.609765e+001 
3931250000  -3.950825e+001  3.144579e+001 
3934375000  -3.971256e+001  3.005627e+001 
3937500000  -3.985442e+001  3.000279e+001 
3940625000  -4.048176e+001  2.797690e+001 
3943750000  -3.965934e+001  2.901475e+001 
3946875000  -3.821898e+001  2.129019e+001 
3950000000  -3.906193e+001  1.505744e+001 
3953125000  -3.997442e+001  1.348022e+001 
3956250000  -3.921786e+001  1.683208e+001 
3959375000  -3.784287e+001  1.152563e+001 
3962500000  -3.735403e+001  5.808721e+000 
3965625000  -3.718403e+001  -4.163509e+000 
3968750000  -3.812344e+001  -1.212996e+001 
3971875000  -3.867934e+001  -1.337040e+001 
3975000000  -3.774006e+001  -1.628859e+001 
3978125000  -3.800047e+001  -1.748768e+001 
3981250000  -3.776211e+001  -2.358918e+001 
3984375000  -3.797322e+001  -2.934091e+001 
3987500000  -3.840809e+001  -3.299593e+001 
3990625000  -3.827438e+001  -3.495496e+001 
3993750000  -3.879505e+001  -3.594226e+001 
3996875000  -3.883575e+001  -4.125005e+001 
4000000000  -3.904140e+001  -4.326031e+001 
4003125000  -3.931136e+001  -4.113018e+001 
4006250000  -3.799247e+001  -4.379781e+001 
4009375000  -3.689135e+001  -5.506265e+001 
4012500000  -3.811538e+001  -6.185776e+001 
4015625000  -3.943056e+001  -6.069594e+001 
4018750000  -3.953040e+001  -6.197054e+001 
4021875000  -3.845805e+001  -6.346477e+001 
4025000000  -3.836884e+001  -6.862787e+001 
4028125000  -3.837384e+001  -7.317610e+001 
4031250000  -3.897812e+001  -7.710218e+001 
4034375000  -3.933766e+001  -7.898173e+001 
4037500000  -3.869647e+001  -7.844007e+001 
4040625000  -3.867311e+001  -8.139863e+001 
4043750000  -3.898653e+001  -8.278690e+001 
4046875000  -3.866990e+001  -8.381343e+001 
4050000000  -3.797079e+001  -9.064261e+001 
4053125000  -3.868180e+001  -9.263351e+001 
4056250000  -3.913743e+001  -9.026926e+001 
4059375000  -3.790900e+001  -8.975716e+001 
4062500000  -3.656781e+001  -9.549207e+001 
4065625000  -3.654703e+001  -9.956362e+001 
4068750000  -3.622979e+001  -1.060503e+002 
4071875000  -3.563493e+001  -1.145864e+002 
4075000000  -3.601480e+001  -1.219355e+002 
4078125000  -3.656956e+001  -1.234178e+002 
4081250000  -3.606121e+001  -1.265234e+002 
4084375000  -3.569655e+001  -1.337851e+002 
4087500000  -3.608207e+001  -1.410036e+002 
4090625000  -3.687449e+001  -1.439627e+002 
4093750000  -3.670501e+001  -1.416894e+002 
4096875000  -3.636745e+001  -1.503543e+002 
4100000000  -3.699476e+001  -1.579608e+002 
4103125000  -3.801104e+001  -1.565906e+002 
4106250000  -3.785709e+001  -1.519638e+002 
4109375000  -3.684021e+001  -1.536646e+002 
4112500000  -3.629349e+001  -1.613278e+002 
4115625000  -3.660904e+001  -1.665443e+002 
4118750000  -3.690202e+001  -1.710460e+002 
4121875000  -3.624951e+001  -1.764128e+002 
4125000000  -3.675216e+001  1.782930e+002 
4128125000  -3.762598e+001  1.785111e+002 
4131250000  -3.750356e+001  -1.749216e+002 
4134375000  -3.523394e+001  1.794329e+002 
4137500000  -3.514803e+001  1.605749e+002 
4140625000  -3.731447e+001  1.530328e+002 
4143750000  -3.857985e+001  1.558082e+002 
4146875000  -3.821572e+001  1.630933e+002 
4150000000  -3.725468e+001  1.582205e+002 
4153125000  -3.720187e+001  1.518335e+002 
4156250000  -3.783510e+001  1.494783e+002 
4159375000  -3.834205e+001  1.517255e+002 
4162500000  -3.728787e+001  1.564254e+002 
4165625000  -3.592847e+001  1.513246e+002 
4168750000  -3.544923e+001  1.428438e+002 
4171875000  -3.555896e+001  1.342470e+002 
4175000000  -3.628944e+001  1.276816e+002 
4178125000  -3.687117e+001  1.282839e+002 
4181250000  -3.642873e+001  1.264886e+002 
4184375000  -3.650168e+001  1.225932e+002 
4187500000  -3.629924e+001  1.183726e+002 
4190625000  -3.645325e+001  1.124226e+002 
4193750000  -3.713782e+001  1.090086e+002 
4196875000  -3.779249e+001  1.064794e+002 
4200000000  -3.868682e+001  1.098559e+002 
4203125000  -3.878808e+001  1.222678e+002 
4206250000  -3.549699e+001  1.219185e+002 
4209375000  -3.418073e+001  1.005780e+002 
4212500000  -3.620021e+001  9.161416e+001 
4215625000  -3.694471e+001  9.662257e+001 
4218750000  -3.563772e+001  1.046504e+002 
4221875000  -3.352129e+001  9.286559e+001 
4225000000  -3.464902e+001  7.955610e+001 
4228125000  -3.513330e+001  8.453603e+001 
4231250000  -3.375193e+001  7.942220e+001 
4234375000  -3.371312e+001  7.110081e+001 
4237500000  -3.321404e+001  6.552509e+001 
4240625000  -3.324768e+001  5.568677e+001 
4243750000  -3.430700e+001  4.807754e+001 
4246875000  -3.515343e+001  4.693750e+001 
4250000000  -3.518493e+001  4.994552e+001 
4253125000  -3.462444e+001  4.581986e+001 
4256250000  -3.495686e+001  4.006840e+001 
4259375000  -3.471855e+001  3.788403e+001 
4262500000  -3.477056e+001  3.285975e+001 
4265625000  -3.506469e+001  3.390563e+001 
4268750000  -3.405013e+001  2.881320e+001 
4271875000  -3.393250e+001  2.185064e+001 
4275000000  -3.358218e+001  1.352397e+001 
4278125000  -3.432745e+001  1.692175e+000 
4281250000  -3.625744e+001  -9.594086e-001 
4284375000  -3.581696e+001  7.280675e-001 
4287500000  -3.689265e+001  -4.183766e+000 
4290625000  -3.796751e+001  4.929631e+000 
4293750000  -3.605640e+001  1.038466e+001 
4296875000  -3.481359e+001  -1.404514e+000 
4300000000  -3.577293e+001  -1.059555e+001 
4303125000  -3.694770e+001  -1.029261e+001 
4306250000  -3.609718e+001  -4.419540e+000 
4309375000  -3.480507e+001  -6.737413e+000 
4312500000  -3.465424e+001  -1.497583e+001 
4315625000  -3.475706e+001  -2.003242e+001 
4318750000  -3.505790e+001  -2.472623e+001 
4321875000  -3.521981e+001  -2.443048e+001 
4325000000  -3.466781e+001  -2.428234e+001 
4328125000  -3.394342e+001  -3.144411e+001 
4331250000  -3.385738e+001  -4.010859e+001 
4334375000  -3.411648e+001  -4.519360e+001 
4337500000  -3.510014e+001  -4.821007e+001 
4340625000  -3.544825e+001  -4.524286e+001 
4343750000  -3.473575e+001  -4.699378e+001 
4346875000  -3.434729e+001  -5.199952e+001 
4350000000  -3.438379e+001  -5.894275e+001 
4353125000  -3.434025e+001  -6.764788e+001 
4356250000  -3.618195e+001  -6.883141e+001 
4359375000  -3.650547e+001  -5.477352e+001 
4362500000  -3.349018e+001  -5.467841e+001 
4365625000  -3.207102e+001  -6.821066e+001 
4368750000  -3.293372e+001  -8.236427e+001 
4371875000  -3.408821e+001  -8.172948e+001 
4375000000  -3.362706e+001  -8.244868e+001 
4378125000  -3.284652e+001  -8.986454e+001 
4381250000  -3.318937e+001  -9.744225e+001 
4384375000  -3.294103e+001  -1.017591e+002 
4387500000  -3.379169e+001  -1.085823e+002 
4390625000  -3.466737e+001  -1.097341e+002 
4393750000  -3.420442e+001  -1.075578e+002 
4396875000  -3.364681e+001  -1.110831e+002 
4400000000  -3.307059e+001  -1.189853e+002 
4403125000  -3.363650e+001  -1.272716e+002 
4406250000  -3.464465e+001  -1.301713e+002 
4409375000  -3.466314e+001  -1.330881e+002 
4412500000  -3.585114e+001  -1.371150e+002 
4415625000  -3.629127e+001  -1.321944e+002 
