!Agilent Technologies,E8363B,MY43030201,A.06.04.32
!Agilent E8363B: A.06.04.32
!Date: Tuesday, November 11, 2014 21:13:14
!Correction: S21(Response(S21)) 
!S1P File: Measurement: S21:
# Hz S  dB   R 50
3000000000  -3.635072e+001  -6.128702e+001 
3003125000  -3.764075e+001  -6.717358e+001 
3006250000  -3.735820e+001  -6.881858e+001 
3009375000  -3.776891e+001  -6.488669e+001 
3012500000  -3.704078e+001  -6.734425e+001 
3015625000  -3.617421e+001  -7.374069e+001 
3018750000  -3.703806e+001  -7.467800e+001 
3021875000  -3.552244e+001  -7.363443e+001 
3025000000  -3.409021e+001  -7.751283e+001 
3028125000  -3.320947e+001  -8.450926e+001 
3031250000  -3.217364e+001  -9.579001e+001 
3034375000  -3.188261e+001  -1.092576e+002 
3037500000  -3.246296e+001  -1.208482e+002 
3040625000  -3.375928e+001  -1.252418e+002 
3043750000  -3.429916e+001  -1.312267e+002 
3046875000  -3.464498e+001  -1.365145e+002 
3050000000  -3.631501e+001  -1.421118e+002 
3053125000  -3.613821e+001  -1.359096e+002 
3056250000  -3.566823e+001  -1.341579e+002 
3059375000  -3.570646e+001  -1.337513e+002 
3062500000  -3.421808e+001  -1.369315e+002 
3065625000  -3.398623e+001  -1.435186e+002 
3068750000  -3.370400e+001  -1.509595e+002 
3071875000  -3.365827e+001  -1.525826e+002 
3075000000  -3.332675e+001  -1.569270e+002 
3078125000  -3.313866e+001  -1.607817e+002 
3081250000  -3.351384e+001  -1.652421e+002 
3084375000  -3.264160e+001  -1.683716e+002 
3087500000  -3.250965e+001  -1.727911e+002 
3090625000  -3.204037e+001  1.769989e+002 
3093750000  -3.254182e+001  1.699337e+002 
3096875000  -3.352374e+001  1.638210e+002 
3100000000  -3.337219e+001  1.619672e+002 
3103125000  -3.359125e+001  1.620648e+002 
3106250000  -3.312766e+001  1.579516e+002 
3109375000  -3.331448e+001  1.541619e+002 
3112500000  -3.318695e+001  1.514454e+002 
3115625000  -3.286251e+001  1.471450e+002 
3118750000  -3.316746e+001  1.465139e+002 
3121875000  -3.227585e+001  1.372418e+002 
3125000000  -3.365614e+001  1.338516e+002 
3128125000  -3.439146e+001  1.411068e+002 
3131250000  -3.200027e+001  1.383490e+002 
3134375000  -3.077040e+001  1.230871e+002 
3137500000  -3.136560e+001  1.091700e+002 
3140625000  -3.281984e+001  1.067776e+002 
3143750000  -3.378234e+001  1.071797e+002 
3146875000  -3.322472e+001  1.090204e+002 
3150000000  -3.227864e+001  1.086226e+002 
3153125000  -3.231196e+001  9.934410e+001 
3156250000  -3.327999e+001  1.045529e+002 
3159375000  -3.151163e+001  1.053689e+002 
3162500000  -2.969123e+001  9.106436e+001 
3165625000  -3.075108e+001  7.880087e+001 
3168750000  -3.102077e+001  7.922089e+001 
3171875000  -3.020446e+001  7.293180e+001 
3175000000  -3.096237e+001  6.455919e+001 
3178125000  -3.067025e+001  6.531691e+001 
3181250000  -2.963169e+001  5.931645e+001 
3184375000  -2.900909e+001  4.710503e+001 
3187500000  -3.026827e+001  3.172581e+001 
3190625000  -3.289858e+001  2.450365e+001 
3193750000  -3.341803e+001  3.289023e+001 
3196875000  -3.310476e+001  3.683347e+001 
3200000000  -3.210846e+001  3.456641e+001 
3203125000  -3.141568e+001  2.811842e+001 
3206250000  -3.171355e+001  2.097308e+001 
3209375000  -3.123321e+001  1.514782e+001 
3212500000  -3.151195e+001  8.465803e+000 
3215625000  -3.152991e+001  5.184215e+000 
3218750000  -3.230011e+001  -2.372962e+000 
3221875000  -3.312916e+001  -7.307881e+000 
3225000000  -3.267553e+001  -8.262077e+000 
3228125000  -3.307068e+001  -1.430958e+001 
3231250000  -3.373759e+001  -1.558492e+001 
3234375000  -3.351157e+001  -1.596319e+001 
3237500000  -3.346762e+001  -1.829115e+001 
3240625000  -3.301600e+001  -2.079865e+001 
3243750000  -3.260924e+001  -2.857766e+001 
3246875000  -3.307900e+001  -3.541288e+001 
3250000000  -3.340922e+001  -3.759924e+001 
3253125000  -3.362538e+001  -3.975645e+001 
3256250000  -3.321045e+001  -4.672384e+001 
3259375000  -3.339557e+001  -5.542457e+001 
3262500000  -3.468070e+001  -5.897043e+001 
3265625000  -3.527484e+001  -5.612043e+001 
3268750000  -3.516111e+001  -5.394102e+001 
3271875000  -3.469598e+001  -5.505270e+001 
3275000000  -3.365914e+001  -6.188975e+001 
3278125000  -3.413096e+001  -6.826306e+001 
3281250000  -3.434855e+001  -6.707328e+001 
3284375000  -3.367346e+001  -7.410382e+001 
3287500000  -3.404013e+001  -7.780811e+001 
3290625000  -3.421372e+001  -8.360857e+001 
3293750000  -3.404539e+001  -8.942555e+001 
3296875000  -3.513153e+001  -9.047087e+001 
3300000000  -3.482608e+001  -8.978667e+001 
3303125000  -3.357360e+001  -9.526054e+001 
3306250000  -3.349452e+001  -1.026747e+002 
3309375000  -3.313674e+001  -1.092299e+002 
3312500000  -3.328421e+001  -1.205581e+002 
3315625000  -3.440039e+001  -1.277308e+002 
3318750000  -3.595188e+001  -1.311289e+002 
3321875000  -3.683083e+001  -1.306620e+002 
3325000000  -3.739249e+001  -1.250914e+002 
3328125000  -3.685664e+001  -1.249680e+002 
3331250000  -3.548053e+001  -1.180769e+002 
3334375000  -3.298978e+001  -1.302292e+002 
3337500000  -3.307381e+001  -1.495009e+002 
3340625000  -3.463336e+001  -1.604741e+002 
3343750000  -3.650238e+001  -1.603277e+002 
3346875000  -3.659746e+001  -1.591902e+002 
3350000000  -3.601405e+001  -1.608375e+002 
3353125000  -3.613815e+001  -1.661510e+002 
3356250000  -3.563416e+001  -1.740197e+002 
3359375000  -3.653392e+001  1.776343e+002 
3362500000  -3.754263e+001  1.716118e+002 
3365625000  -3.810650e+001  1.705751e+002 
3368750000  -3.888348e+001  1.687389e+002 
3371875000  -3.916722e+001  1.655663e+002 
3375000000  -4.044304e+001  1.638755e+002 
3378125000  -4.132267e+001  1.652626e+002 
3381250000  -4.268964e+001  1.716125e+002 
3384375000  -4.096672e+001  -1.670333e+002 
3387500000  -3.749745e+001  1.780929e+002 
3390625000  -3.958284e+001  1.585616e+002 
3393750000  -4.033121e+001  1.617951e+002 
3396875000  -3.924434e+001  1.631134e+002 
3400000000  -3.871746e+001  1.539738e+002 
3403125000  -3.940987e+001  1.494437e+002 
3406250000  -3.975761e+001  1.503185e+002 
3409375000  -3.982696e+001  1.403625e+002 
3412500000  -4.025086e+001  1.385444e+002 
3415625000  -4.082726e+001  1.394527e+002 
3418750000  -4.114670e+001  1.416279e+002 
3421875000  -4.151194e+001  1.449220e+002 
3425000000  -4.000290e+001  1.441965e+002 
3428125000  -3.925061e+001  1.393684e+002 
3431250000  -3.897981e+001  1.325269e+002 
3434375000  -3.913800e+001  1.259533e+002 
3437500000  -3.976461e+001  1.234462e+002 
3440625000  -3.975645e+001  1.241141e+002 
3443750000  -3.865065e+001  1.254442e+002 
3446875000  -3.786876e+001  1.166768e+002 
3450000000  -3.755991e+001  1.075309e+002 
3453125000  -3.797243e+001  9.601819e+001 
3456250000  -3.909970e+001  8.944766e+001 
3459375000  -4.015016e+001  9.132046e+001 
3462500000  -3.987479e+001  9.026231e+001 
3465625000  -3.982073e+001  8.578159e+001 
3468750000  -4.030657e+001  8.181615e+001 
3471875000  -4.022202e+001  8.069875e+001 
3475000000  -3.975023e+001  7.547637e+001 
3478125000  -4.033860e+001  6.713927e+001 
3481250000  -4.148647e+001  6.830078e+001 
3484375000  -4.239268e+001  6.904195e+001 
3487500000  -4.170135e+001  6.864582e+001 
3490625000  -4.119080e+001  6.525938e+001 
3493750000  -4.165978e+001  5.818413e+001 
3496875000  -4.220900e+001  5.886985e+001 
3500000000  -4.276395e+001  6.248666e+001 
3503125000  -4.230254e+001  6.296171e+001 
3506250000  -4.095471e+001  5.805117e+001 
3509375000  -4.053466e+001  4.878460e+001 
3512500000  -4.101002e+001  3.988791e+001 
3515625000  -4.208959e+001  3.866039e+001 
3518750000  -4.279467e+001  4.004331e+001 
3521875000  -4.233755e+001  3.635555e+001 
3525000000  -4.323004e+001  3.380592e+001 
3528125000  -4.349077e+001  4.262524e+001 
3531250000  -4.166891e+001  3.902057e+001 
3534375000  -4.151431e+001  2.757430e+001 
3537500000  -4.218436e+001  2.192358e+001 
3540625000  -4.313730e+001  2.282171e+001 
3543750000  -4.364293e+001  2.545828e+001 
3546875000  -4.351795e+001  3.497856e+001 
3550000000  -4.098931e+001  3.681056e+001 
3553125000  -3.964115e+001  1.864363e+001 
3556250000  -4.114471e+001  1.280669e+001 
3559375000  -4.084524e+001  1.277594e+001 
3562500000  -3.993403e+001  2.177414e+000 
3565625000  -4.076535e+001  -4.350060e+000 
3568750000  -4.096082e+001  -1.671535e+000 
3571875000  -4.080751e+001  -4.145443e+000 
3575000000  -4.036192e+001  -1.190731e+001 
3578125000  -4.097267e+001  -1.465654e+001 
3581250000  -4.112913e+001  -1.817130e+001 
3584375000  -4.040410e+001  -2.203474e+001 
3587500000  -3.987174e+001  -3.040286e+001 
3590625000  -4.065138e+001  -4.032782e+001 
3593750000  -4.186534e+001  -4.133196e+001 
3596875000  -4.160521e+001  -3.525978e+001 
3600000000  -4.026075e+001  -4.312859e+001 
3603125000  -4.107354e+001  -5.696450e+001 
3606250000  -4.168689e+001  -6.046489e+001 
3609375000  -4.235786e+001  -6.260480e+001 
3612500000  -4.312679e+001  -6.448824e+001 
3615625000  -4.339075e+001  -6.854165e+001 
3618750000  -4.424395e+001  -6.780787e+001 
3621875000  -4.385169e+001  -7.069183e+001 
3625000000  -4.464532e+001  -7.113724e+001 
3628125000  -4.460274e+001  -7.233852e+001 
3631250000  -4.469868e+001  -7.643649e+001 
3634375000  -4.585888e+001  -7.391004e+001 
3637500000  -4.615995e+001  -6.841193e+001 
3640625000  -4.505839e+001  -6.649873e+001 
3643750000  -4.466285e+001  -7.308215e+001 
3646875000  -4.475171e+001  -7.650273e+001 
3650000000  -4.580316e+001  -7.649046e+001 
3653125000  -4.509797e+001  -7.826321e+001 
3656250000  -4.511620e+001  -8.131699e+001 
3659375000  -4.517735e+001  -7.484403e+001 
3662500000  -4.433440e+001  -7.893069e+001 
3665625000  -4.398057e+001  -7.985917e+001 
3668750000  -4.288920e+001  -8.135709e+001 
3671875000  -4.194299e+001  -8.715898e+001 
3675000000  -4.219165e+001  -9.588910e+001 
3678125000  -4.222455e+001  -9.475148e+001 
3681250000  -4.223348e+001  -9.823338e+001 
3684375000  -4.218417e+001  -1.045542e+002 
3687500000  -4.214397e+001  -1.101151e+002 
3690625000  -4.244753e+001  -1.136603e+002 
3693750000  -4.315897e+001  -1.166260e+002 
3696875000  -4.322867e+001  -1.141406e+002 
3700000000  -4.200051e+001  -1.199144e+002 
3703125000  -4.237960e+001  -1.259805e+002 
3706250000  -4.354548e+001  -1.270385e+002 
3709375000  -4.291235e+001  -1.249673e+002 
3712500000  -4.167234e+001  -1.287157e+002 
3715625000  -4.117691e+001  -1.366680e+002 
3718750000  -4.081733e+001  -1.411988e+002 
3721875000  -4.094806e+001  -1.473492e+002 
3725000000  -4.146258e+001  -1.550042e+002 
3728125000  -4.219805e+001  -1.549194e+002 
3731250000  -4.157711e+001  -1.599824e+002 
3734375000  -4.151643e+001  -1.640849e+002 
3737500000  -4.231138e+001  -1.710345e+002 
3740625000  -4.341705e+001  -1.733885e+002 
3743750000  -4.348233e+001  -1.764408e+002 
3746875000  -4.373432e+001  -1.782367e+002 
3750000000  -4.455758e+001  -1.785004e+002 
3753125000  -4.465639e+001  -1.773805e+002 
3756250000  -4.481998e+001  -1.771619e+002 
3759375000  -4.494531e+001  -1.758241e+002 
3762500000  -4.447538e+001  -1.775313e+002 
3765625000  -4.513390e+001  -1.756408e+002 
3768750000  -4.497398e+001  -1.744909e+002 
3771875000  -4.325785e+001  -1.734798e+002 
3775000000  -4.302835e+001  1.792729e+002 
3778125000  -4.340977e+001  1.780192e+002 
3781250000  -4.289301e+001  1.764325e+002 
3784375000  -4.266236e+001  1.755091e+002 
3787500000  -4.177436e+001  1.731029e+002 
3790625000  -4.196214e+001  1.664482e+002 
3793750000  -4.189493e+001  1.644667e+002 
3796875000  -4.079918e+001  1.596052e+002 
3800000000  -3.920670e+001  1.592320e+002 
3803125000  -3.998395e+001  1.483251e+002 
3806250000  -4.069868e+001  1.452801e+002 
3809375000  -4.032760e+001  1.430809e+002 
3812500000  -3.941399e+001  1.364406e+002 
3815625000  -4.014082e+001  1.265224e+002 
3818750000  -4.118224e+001  1.252761e+002 
3821875000  -4.091633e+001  1.344188e+002 
3825000000  -3.929482e+001  1.371091e+002 
3828125000  -3.739736e+001  1.185185e+002 
3831250000  -3.838330e+001  1.041832e+002 
3834375000  -4.022837e+001  1.020453e+002 
3837500000  -4.100809e+001  1.067437e+002 
3840625000  -3.968799e+001  1.048425e+002 
3843750000  -3.883314e+001  9.277309e+001 
3846875000  -3.985238e+001  8.580931e+001 
3850000000  -4.097543e+001  9.036069e+001 
3853125000  -3.991806e+001  9.081298e+001 
3856250000  -4.029245e+001  8.616863e+001 
3859375000  -3.972023e+001  8.080515e+001 
3862500000  -3.948092e+001  7.287112e+001 
3865625000  -3.985151e+001  6.796443e+001 
3868750000  -3.984397e+001  6.654843e+001 
3871875000  -3.927098e+001  6.224897e+001 
3875000000  -3.967805e+001  5.498918e+001 
3878125000  -4.077103e+001  5.276903e+001 
3881250000  -4.088438e+001  5.378623e+001 
3884375000  -4.032753e+001  4.959525e+001 
3887500000  -4.081013e+001  4.782599e+001 
3890625000  -4.130952e+001  4.544141e+001 
3893750000  -4.145107e+001  4.293241e+001 
3896875000  -4.203772e+001  4.481663e+001 
3900000000  -4.199063e+001  4.101391e+001 
3903125000  -4.124996e+001  4.293318e+001 
3906250000  -4.096377e+001  3.950485e+001 
3909375000  -4.037424e+001  3.556083e+001 
3912500000  -4.037189e+001  2.592824e+001 
3915625000  -4.173247e+001  3.002073e+001 
3918750000  -4.117698e+001  2.886853e+001 
3921875000  -4.051244e+001  2.907892e+001 
3925000000  -3.960485e+001  2.379066e+001 
3928125000  -3.916251e+001  1.766282e+001 
3931250000  -3.959031e+001  1.320175e+001 
3934375000  -3.990089e+001  1.099870e+001 
3937500000  -3.987759e+001  9.121105e+000 
3940625000  -4.039703e+001  8.454784e+000 
3943750000  -3.922192e+001  7.849297e+000 
3946875000  -3.795882e+001  8.598808e-002 
3950000000  -3.870802e+001  -8.166603e+000 
3953125000  -3.988174e+001  -1.052861e+001 
3956250000  -3.847425e+001  -6.976758e+000 
3959375000  -3.751104e+001  -1.086532e+001 
3962500000  -3.698220e+001  -1.838410e+001 
3965625000  -3.691820e+001  -2.684563e+001 
3968750000  -3.792517e+001  -3.627713e+001 
3971875000  -3.819952e+001  -3.711508e+001 
3975000000  -3.736374e+001  -4.053820e+001 
3978125000  -3.755560e+001  -4.431685e+001 
3981250000  -3.760249e+001  -5.023825e+001 
3984375000  -3.779166e+001  -5.656458e+001 
3987500000  -3.845715e+001  -5.966800e+001 
3990625000  -3.854879e+001  -6.111961e+001 
3993750000  -3.904968e+001  -6.457357e+001 
3996875000  -3.879935e+001  -7.034041e+001 
4000000000  -3.955118e+001  -7.183698e+001 
4003125000  -3.982074e+001  -6.850075e+001 
4006250000  -3.840774e+001  -7.117517e+001 
4009375000  -3.765630e+001  -8.286704e+001 
4012500000  -3.908419e+001  -8.992818e+001 
4015625000  -4.045973e+001  -8.932290e+001 
4018750000  -4.029796e+001  -8.692185e+001 
4021875000  -3.945035e+001  -8.899901e+001 
4025000000  -3.935139e+001  -9.247227e+001 
4028125000  -3.931487e+001  -9.645280e+001 
4031250000  -3.986083e+001  -1.002729e+002 
4034375000  -4.015371e+001  -1.004323e+002 
4037500000  -3.955515e+001  -9.788066e+001 
4040625000  -3.978941e+001  -1.025152e+002 
4043750000  -3.951122e+001  -1.028579e+002 
4046875000  -3.900138e+001  -1.034452e+002 
4050000000  -3.884902e+001  -1.087717e+002 
4053125000  -3.940466e+001  -1.119974e+002 
4056250000  -3.934431e+001  -1.085391e+002 
4059375000  -3.809366e+001  -1.075664e+002 
4062500000  -3.675365e+001  -1.129288e+002 
4065625000  -3.665123e+001  -1.185696e+002 
4068750000  -3.636053e+001  -1.240056e+002 
4071875000  -3.548349e+001  -1.328681e+002 
4075000000  -3.596737e+001  -1.405489e+002 
4078125000  -3.635987e+001  -1.415654e+002 
4081250000  -3.584329e+001  -1.467709e+002 
4084375000  -3.529570e+001  -1.542151e+002 
4087500000  -3.579285e+001  -1.612785e+002 
4090625000  -3.640773e+001  -1.627468e+002 
4093750000  -3.618423e+001  -1.649936e+002 
4096875000  -3.585288e+001  -1.720517e+002 
4100000000  -3.665942e+001  1.799811e+002 
4103125000  -3.760131e+001  -1.793156e+002 
4106250000  -3.733731e+001  -1.749077e+002 
4109375000  -3.620517e+001  -1.776386e+002 
4112500000  -3.580632e+001  1.727561e+002 
4115625000  -3.629300e+001  1.691162e+002 
4118750000  -3.654843e+001  1.638404e+002 
4121875000  -3.615244e+001  1.589881e+002 
4125000000  -3.671672e+001  1.520922e+002 
4128125000  -3.772369e+001  1.511765e+002 
4131250000  -3.743940e+001  1.598991e+002 
4134375000  -3.534369e+001  1.526172e+002 
4137500000  -3.523919e+001  1.333414e+002 
4140625000  -3.752720e+001  1.253708e+002 
4143750000  -3.910487e+001  1.294948e+002 
4146875000  -3.855122e+001  1.380688e+002 
4150000000  -3.788516e+001  1.323585e+002 
4153125000  -3.781388e+001  1.252427e+002 
4156250000  -3.894619e+001  1.225025e+002 
4159375000  -3.894163e+001  1.266785e+002 
4162500000  -3.795084e+001  1.320437e+002 
4165625000  -3.689205e+001  1.282557e+002 
4168750000  -3.639063e+001  1.209152e+002 
4171875000  -3.635828e+001  1.111723e+002 
4175000000  -3.724695e+001  1.065981e+002 
4178125000  -3.762537e+001  1.058631e+002 
4181250000  -3.719698e+001  1.048889e+002 
4184375000  -3.717184e+001  1.017682e+002 
4187500000  -3.704491e+001  9.899871e+001 
4190625000  -3.691947e+001  9.231560e+001 
4193750000  -3.787766e+001  8.936334e+001 
4196875000  -3.839328e+001  8.755509e+001 
4200000000  -3.923373e+001  8.980643e+001 
4203125000  -3.863472e+001  1.052790e+002 
4206250000  -3.511313e+001  1.041655e+002 
4209375000  -3.408707e+001  8.020711e+001 
4212500000  -3.639694e+001  7.140026e+001 
4215625000  -3.709782e+001  7.907343e+001 
4218750000  -3.546175e+001  8.360951e+001 
4221875000  -3.316206e+001  7.241203e+001 
4225000000  -3.452439e+001  5.992589e+001 
4228125000  -3.480993e+001  6.266679e+001 
4231250000  -3.328879e+001  5.780918e+001 
4234375000  -3.313401e+001  4.734682e+001 
4237500000  -3.277315e+001  4.406111e+001 
4240625000  -3.275345e+001  3.298002e+001 
4243750000  -3.374158e+001  2.472841e+001 
4246875000  -3.472867e+001  2.422215e+001 
4250000000  -3.471695e+001  2.544425e+001 
4253125000  -3.418630e+001  2.182317e+001 
4256250000  -3.441375e+001  1.641169e+001 
4259375000  -3.429908e+001  1.237562e+001 
4262500000  -3.455226e+001  7.591534e+000 
4265625000  -3.475905e+001  8.431058e+000 
4268750000  -3.378785e+001  1.610918e+000 
4271875000  -3.375656e+001  -6.560618e+000 
4275000000  -3.314104e+001  -1.424899e+001 
4278125000  -3.415050e+001  -2.570359e+001 
4281250000  -3.610725e+001  -2.794457e+001 
4284375000  -3.581371e+001  -2.792455e+001 
4287500000  -3.698017e+001  -3.261904e+001 
4290625000  -3.822570e+001  -2.414224e+001 
4293750000  -3.617542e+001  -1.863625e+001 
4296875000  -3.525011e+001  -2.885372e+001 
4300000000  -3.634858e+001  -3.838120e+001 
4303125000  -3.748373e+001  -3.562019e+001 
4306250000  -3.666296e+001  -3.064491e+001 
4309375000  -3.554639e+001  -3.253440e+001 
4312500000  -3.553161e+001  -4.039145e+001 
4315625000  -3.549838e+001  -4.645676e+001 
4318750000  -3.589175e+001  -4.838722e+001 
4321875000  -3.599038e+001  -4.816583e+001 
4325000000  -3.542063e+001  -4.724910e+001 
4328125000  -3.468659e+001  -5.275298e+001 
4331250000  -3.449885e+001  -6.077575e+001 
4334375000  -3.499056e+001  -6.813892e+001 
4337500000  -3.582566e+001  -6.843687e+001 
4340625000  -3.615528e+001  -6.455482e+001 
4343750000  -3.512648e+001  -6.591089e+001 
4346875000  -3.470589e+001  -7.256184e+001 
4350000000  -3.463187e+001  -7.827839e+001 
4353125000  -3.456491e+001  -8.738622e+001 
4356250000  -3.658298e+001  -8.726033e+001 
4359375000  -3.648907e+001  -7.304726e+001 
4362500000  -3.348854e+001  -7.747497e+001 
4365625000  -3.174763e+001  -8.986404e+001 
4368750000  -3.264022e+001  -1.026461e+002 
4371875000  -3.375442e+001  -1.019615e+002 
4375000000  -3.322152e+001  -1.038543e+002 
4378125000  -3.246817e+001  -1.109164e+002 
4381250000  -3.281700e+001  -1.180997e+002 
4384375000  -3.259997e+001  -1.251890e+002 
4387500000  -3.352821e+001  -1.320990e+002 
4390625000  -3.418832e+001  -1.331963e+002 
4393750000  -3.337012e+001  -1.319819e+002 
4396875000  -3.300464e+001  -1.363362e+002 
4400000000  -3.253347e+001  -1.452442e+002 
4403125000  -3.321786e+001  -1.540797e+002 
4406250000  -3.413339e+001  -1.570210e+002 
4409375000  -3.431503e+001  -1.607015e+002 
4412500000  -3.561588e+001  -1.635283e+002 
4415625000  -3.570824e+001  -1.595237e+002 
