!Agilent Technologies,E8363B,MY43030201,A.06.04.32
!Agilent E8363B: A.06.04.32
!Date: Tuesday, November 11, 2014 21:04:34
!Correction: S21(Response(S21)) 
!S1P File: Measurement: S21:
# Hz S  dB   R 50
3000000000  -3.645693e+001  -4.787896e+001 
3003125000  -3.767817e+001  -5.285865e+001 
3006250000  -3.750525e+001  -5.622509e+001 
3009375000  -3.759912e+001  -5.167966e+001 
3012500000  -3.712084e+001  -5.339612e+001 
3015625000  -3.600808e+001  -6.067415e+001 
3018750000  -3.680828e+001  -6.212558e+001 
3021875000  -3.544159e+001  -6.122034e+001 
3025000000  -3.419997e+001  -6.468705e+001 
3028125000  -3.315342e+001  -7.120345e+001 
3031250000  -3.215173e+001  -8.249648e+001 
3034375000  -3.180789e+001  -9.618470e+001 
3037500000  -3.220922e+001  -1.077670e+002 
3040625000  -3.356390e+001  -1.133252e+002 
3043750000  -3.423309e+001  -1.177155e+002 
3046875000  -3.444939e+001  -1.236565e+002 
3050000000  -3.608158e+001  -1.307274e+002 
3053125000  -3.610514e+001  -1.240196e+002 
3056250000  -3.544331e+001  -1.216537e+002 
3059375000  -3.557811e+001  -1.218748e+002 
3062500000  -3.418873e+001  -1.251318e+002 
3065625000  -3.392361e+001  -1.310858e+002 
3068750000  -3.357141e+001  -1.382323e+002 
3071875000  -3.343201e+001  -1.411390e+002 
3075000000  -3.326800e+001  -1.440321e+002 
3078125000  -3.310213e+001  -1.487111e+002 
3081250000  -3.357721e+001  -1.536809e+002 
3084375000  -3.268673e+001  -1.565215e+002 
3087500000  -3.243299e+001  -1.604859e+002 
3090625000  -3.194491e+001  -1.703454e+002 
3093750000  -3.241582e+001  -1.781969e+002 
3096875000  -3.350902e+001  1.759693e+002 
3100000000  -3.339063e+001  1.740027e+002 
3103125000  -3.361310e+001  1.744212e+002 
3106250000  -3.308423e+001  1.707551e+002 
3109375000  -3.331112e+001  1.665030e+002 
3112500000  -3.318439e+001  1.641937e+002 
3115625000  -3.288205e+001  1.599488e+002 
3118750000  -3.317771e+001  1.595419e+002 
3121875000  -3.227874e+001  1.503107e+002 
3125000000  -3.347938e+001  1.463703e+002 
3128125000  -3.447917e+001  1.534011e+002 
3131250000  -3.206326e+001  1.520443e+002 
3134375000  -3.070000e+001  1.359761e+002 
3137500000  -3.131371e+001  1.219285e+002 
3140625000  -3.286832e+001  1.192623e+002 
3143750000  -3.385886e+001  1.204308e+002 
3146875000  -3.332339e+001  1.220876e+002 
3150000000  -3.231559e+001  1.219931e+002 
3153125000  -3.230383e+001  1.130803e+002 
3156250000  -3.333442e+001  1.172714e+002 
3159375000  -3.157054e+001  1.186120e+002 
3162500000  -2.970900e+001  1.041811e+002 
3165625000  -3.076216e+001  9.251189e+001 
3168750000  -3.107363e+001  9.244231e+001 
3171875000  -3.019423e+001  8.706496e+001 
3175000000  -3.091252e+001  7.771223e+001 
3178125000  -3.062282e+001  7.834912e+001 
3181250000  -2.959511e+001  7.360214e+001 
3184375000  -2.884413e+001  6.076532e+001 
3187500000  -3.002593e+001  4.479670e+001 
3190625000  -3.270579e+001  3.644370e+001 
3193750000  -3.333217e+001  4.590508e+001 
3196875000  -3.294247e+001  5.045296e+001 
3200000000  -3.205289e+001  4.718138e+001 
3203125000  -3.128153e+001  4.123998e+001 
3206250000  -3.162657e+001  3.456824e+001 
3209375000  -3.105535e+001  2.857610e+001 
3212500000  -3.131502e+001  2.154880e+001 
3215625000  -3.138664e+001  1.776950e+001 
3218750000  -3.208773e+001  1.053738e+001 
3221875000  -3.303999e+001  5.076418e+000 
3225000000  -3.255191e+001  3.908873e+000 
3228125000  -3.292330e+001  -1.330978e+000 
3231250000  -3.365754e+001  -3.323818e+000 
3234375000  -3.339467e+001  -3.754268e+000 
3237500000  -3.339799e+001  -6.041779e+000 
3240625000  -3.295380e+001  -8.704135e+000 
3243750000  -3.259321e+001  -1.609370e+001 
3246875000  -3.290850e+001  -2.301782e+001 
3250000000  -3.340911e+001  -2.547559e+001 
3253125000  -3.347667e+001  -2.736960e+001 
3256250000  -3.316743e+001  -3.400786e+001 
3259375000  -3.344424e+001  -4.301827e+001 
3262500000  -3.460524e+001  -4.604374e+001 
3265625000  -3.528217e+001  -4.346788e+001 
3268750000  -3.514771e+001  -4.240102e+001 
3271875000  -3.480959e+001  -4.220552e+001 
3275000000  -3.372080e+001  -4.859129e+001 
3278125000  -3.413380e+001  -5.566957e+001 
3281250000  -3.440533e+001  -5.446776e+001 
3284375000  -3.390430e+001  -6.184612e+001 
3287500000  -3.408860e+001  -6.468769e+001 
3290625000  -3.437297e+001  -7.032572e+001 
3293750000  -3.410290e+001  -7.640285e+001 
3296875000  -3.511244e+001  -7.719839e+001 
3300000000  -3.495855e+001  -7.666640e+001 
3303125000  -3.374735e+001  -8.212593e+001 
3306250000  -3.354123e+001  -8.948645e+001 
3309375000  -3.325542e+001  -9.537593e+001 
3312500000  -3.327211e+001  -1.054342e+002 
3315625000  -3.439783e+001  -1.141032e+002 
3318750000  -3.576364e+001  -1.165902e+002 
3321875000  -3.681607e+001  -1.175214e+002 
3325000000  -3.734184e+001  -1.120276e+002 
3328125000  -3.695518e+001  -1.114925e+002 
3331250000  -3.570632e+001  -1.055853e+002 
3334375000  -3.303416e+001  -1.160648e+002 
3337500000  -3.312766e+001  -1.343749e+002 
3340625000  -3.445317e+001  -1.461283e+002 
3343750000  -3.651031e+001  -1.469205e+002 
3346875000  -3.661642e+001  -1.440960e+002 
3350000000  -3.603837e+001  -1.464328e+002 
3353125000  -3.596592e+001  -1.517150e+002 
3356250000  -3.558781e+001  -1.598536e+002 
3359375000  -3.636629e+001  -1.683404e+002 
3362500000  -3.736390e+001  -1.739439e+002 
3365625000  -3.790852e+001  -1.747655e+002 
3368750000  -3.863666e+001  -1.775891e+002 
3371875000  -3.900751e+001  1.798003e+002 
3375000000  -4.024828e+001  1.767559e+002 
3378125000  -4.112593e+001  1.761264e+002 
3381250000  -4.230125e+001  -1.740609e+002 
3384375000  -4.109695e+001  -1.534340e+002 
3387500000  -3.746171e+001  -1.692940e+002 
3390625000  -3.919550e+001  1.697339e+002 
3393750000  -4.043412e+001  1.751506e+002 
3396875000  -3.919292e+001  1.760869e+002 
3400000000  -3.872104e+001  1.672080e+002 
3403125000  -3.930033e+001  1.630745e+002 
3406250000  -3.962782e+001  1.621761e+002 
3409375000  -3.971614e+001  1.554423e+002 
3412500000  -4.013935e+001  1.520103e+002 
3415625000  -4.086232e+001  1.537621e+002 
3418750000  -4.110981e+001  1.532085e+002 
3421875000  -4.122939e+001  1.569165e+002 
3425000000  -4.027956e+001  1.578677e+002 
3428125000  -3.954674e+001  1.525353e+002 
3431250000  -3.937791e+001  1.456814e+002 
3434375000  -3.930233e+001  1.405872e+002 
3437500000  -3.965970e+001  1.371419e+002 
3440625000  -4.002888e+001  1.378550e+002 
3443750000  -3.887994e+001  1.388201e+002 
3446875000  -3.799192e+001  1.312294e+002 
3450000000  -3.773067e+001  1.209566e+002 
3453125000  -3.789772e+001  1.108955e+002 
3456250000  -3.918670e+001  1.040731e+002 
3459375000  -3.990619e+001  1.048292e+002 
3462500000  -3.978148e+001  1.052779e+002 
3465625000  -3.987740e+001  1.004476e+002 
3468750000  -3.994459e+001  9.657278e+001 
3471875000  -4.024809e+001  9.429646e+001 
3475000000  -3.962321e+001  9.068766e+001 
3478125000  -4.041195e+001  8.260558e+001 
3481250000  -4.110620e+001  7.950453e+001 
3484375000  -4.201867e+001  8.280872e+001 
3487500000  -4.136225e+001  8.249121e+001 
3490625000  -4.076401e+001  7.768693e+001 
3493750000  -4.146645e+001  7.257859e+001 
3496875000  -4.206988e+001  7.009414e+001 
3500000000  -4.219846e+001  7.300281e+001 
3503125000  -4.223848e+001  7.246448e+001 
3506250000  -4.049802e+001  6.883102e+001 
3509375000  -4.058829e+001  5.913796e+001 
3512500000  -4.119302e+001  5.069239e+001 
3515625000  -4.196680e+001  4.886122e+001 
3518750000  -4.274442e+001  4.810274e+001 
3521875000  -4.256216e+001  4.971806e+001 
3525000000  -4.366418e+001  4.268130e+001 
3528125000  -4.339804e+001  5.266604e+001 
3531250000  -4.194110e+001  4.915911e+001 
3534375000  -4.223767e+001  3.878909e+001 
3537500000  -4.248701e+001  3.398564e+001 
3540625000  -4.368564e+001  3.469382e+001 
3543750000  -4.452428e+001  3.739600e+001 
3546875000  -4.426579e+001  4.827971e+001 
3550000000  -4.137132e+001  4.902161e+001 
3553125000  -4.025069e+001  3.284047e+001 
3556250000  -4.160935e+001  2.686031e+001 
3559375000  -4.141169e+001  2.631187e+001 
3562500000  -4.051486e+001  1.891895e+001 
3565625000  -4.114707e+001  1.108334e+001 
3568750000  -4.154123e+001  1.337387e+001 
3571875000  -4.121791e+001  1.149376e+001 
3575000000  -4.079521e+001  4.105614e+000 
3578125000  -4.137452e+001  -1.107606e+000 
3581250000  -4.153802e+001  -2.034916e+000 
3584375000  -4.061521e+001  -3.224904e+000 
3587500000  -4.007840e+001  -1.329078e+001 
3590625000  -4.032748e+001  -2.254349e+001 
3593750000  -4.165169e+001  -2.491218e+001 
3596875000  -4.190520e+001  -1.910608e+001 
3600000000  -4.037728e+001  -2.335868e+001 
3603125000  -4.088620e+001  -3.876165e+001 
3606250000  -4.143087e+001  -4.310592e+001 
3609375000  -4.217237e+001  -4.796124e+001 
3612500000  -4.270462e+001  -5.014592e+001 
3615625000  -4.315599e+001  -5.365431e+001 
3618750000  -4.357130e+001  -5.190651e+001 
3621875000  -4.351342e+001  -5.667390e+001 
3625000000  -4.429097e+001  -5.562295e+001 
3628125000  -4.424569e+001  -5.629736e+001 
3631250000  -4.400489e+001  -6.362461e+001 
3634375000  -4.581038e+001  -6.385312e+001 
3637500000  -4.577251e+001  -5.927168e+001 
3640625000  -4.453736e+001  -5.671228e+001 
3643750000  -4.424401e+001  -6.148598e+001 
3646875000  -4.484718e+001  -6.941065e+001 
3650000000  -4.569122e+001  -6.646433e+001 
3653125000  -4.530922e+001  -6.902579e+001 
3656250000  -4.573616e+001  -6.837247e+001 
3659375000  -4.600642e+001  -6.457066e+001 
3662500000  -4.512935e+001  -6.841862e+001 
3665625000  -4.505559e+001  -6.569691e+001 
3668750000  -4.383460e+001  -6.780387e+001 
3671875000  -4.307394e+001  -7.295435e+001 
3675000000  -4.344951e+001  -8.133959e+001 
3678125000  -4.356792e+001  -8.187917e+001 
3681250000  -4.318257e+001  -8.382856e+001 
3684375000  -4.307536e+001  -8.675798e+001 
3687500000  -4.324114e+001  -9.309888e+001 
3690625000  -4.315807e+001  -9.908030e+001 
3693750000  -4.415052e+001  -9.987040e+001 
3696875000  -4.376299e+001  -9.645982e+001 
3700000000  -4.298666e+001  -9.974203e+001 
3703125000  -4.300291e+001  -1.060060e+002 
3706250000  -4.375534e+001  -1.086553e+002 
3709375000  -4.359722e+001  -1.074692e+002 
3712500000  -4.238326e+001  -1.099088e+002 
3715625000  -4.179472e+001  -1.176143e+002 
3718750000  -4.147776e+001  -1.194536e+002 
3721875000  -4.111663e+001  -1.280641e+002 
3725000000  -4.159318e+001  -1.341903e+002 
3728125000  -4.179512e+001  -1.348919e+002 
3731250000  -4.168944e+001  -1.384502e+002 
3734375000  -4.113590e+001  -1.439346e+002 
3737500000  -4.198354e+001  -1.542207e+002 
3740625000  -4.296762e+001  -1.569445e+002 
3743750000  -4.322545e+001  -1.588848e+002 
3746875000  -4.333471e+001  -1.622241e+002 
3750000000  -4.390717e+001  -1.606891e+002 
3753125000  -4.418775e+001  -1.618711e+002 
3756250000  -4.462994e+001  -1.585698e+002 
3759375000  -4.458358e+001  -1.613536e+002 
3762500000  -4.384341e+001  -1.639896e+002 
3765625000  -4.468549e+001  -1.666105e+002 
3768750000  -4.468044e+001  -1.627795e+002 
3771875000  -4.302518e+001  -1.627780e+002 
3775000000  -4.289122e+001  -1.690296e+002 
3778125000  -4.335959e+001  -1.699837e+002 
3781250000  -4.279066e+001  -1.708595e+002 
3784375000  -4.278223e+001  -1.707651e+002 
3787500000  -4.191839e+001  -1.754605e+002 
3790625000  -4.234277e+001  -1.796599e+002 
3793750000  -4.213113e+001  1.793443e+002 
3796875000  -4.116270e+001  1.762714e+002 
3800000000  -3.983971e+001  1.741220e+002 
3803125000  -4.040386e+001  1.628853e+002 
3806250000  -4.113304e+001  1.605847e+002 
3809375000  -4.065503e+001  1.598042e+002 
3812500000  -4.002281e+001  1.533326e+002 
3815625000  -4.036836e+001  1.437966e+002 
3818750000  -4.125510e+001  1.430623e+002 
3821875000  -4.117330e+001  1.529444e+002 
3825000000  -3.946677e+001  1.537322e+002 
3828125000  -3.805795e+001  1.371513e+002 
3831250000  -3.861380e+001  1.226060e+002 
3834375000  -3.996161e+001  1.216945e+002 
3837500000  -4.117686e+001  1.243379e+002 
3840625000  -3.983093e+001  1.228502e+002 
3843750000  -3.890476e+001  1.110144e+002 
3846875000  -3.951961e+001  1.034932e+002 
3850000000  -4.134571e+001  1.076679e+002 
3853125000  -4.038735e+001  1.115805e+002 
3856250000  -4.031749e+001  1.035389e+002 
3859375000  -3.951785e+001  9.961835e+001 
3862500000  -3.928339e+001  9.124139e+001 
3865625000  -3.984726e+001  8.566367e+001 
3868750000  -3.949813e+001  8.599514e+001 
3871875000  -3.903299e+001  7.944766e+001 
3875000000  -3.919217e+001  7.198689e+001 
3878125000  -4.079864e+001  7.094543e+001 
3881250000  -4.053295e+001  7.368057e+001 
3884375000  -4.020553e+001  6.700124e+001 
3887500000  -4.020350e+001  6.337100e+001 
3890625000  -4.081984e+001  6.065052e+001 
3893750000  -4.100072e+001  5.738496e+001 
3896875000  -4.166087e+001  5.986184e+001 
3900000000  -4.175630e+001  5.825986e+001 
3903125000  -4.094606e+001  5.473334e+001 
3906250000  -4.061634e+001  5.487870e+001 
3909375000  -4.035998e+001  5.024860e+001 
3912500000  -4.003440e+001  4.217109e+001 
3915625000  -4.150922e+001  4.310577e+001 
3918750000  -4.140620e+001  4.493735e+001 
3921875000  -4.091970e+001  4.207074e+001 
3925000000  -3.960659e+001  3.937029e+001 
3928125000  -3.933130e+001  3.195327e+001 
3931250000  -3.950608e+001  2.841080e+001 
3934375000  -4.008374e+001  2.670329e+001 
3937500000  -4.013097e+001  2.567663e+001 
3940625000  -4.061444e+001  2.274080e+001 
3943750000  -3.923943e+001  2.445592e+001 
3946875000  -3.822780e+001  1.570015e+001 
3950000000  -3.899040e+001  8.725663e+000 
3953125000  -3.983018e+001  7.552038e+000 
3956250000  -3.911459e+001  9.012614e+000 
3959375000  -3.788964e+001  4.467202e+000 
3962500000  -3.710934e+001  -6.578667e-001 
3965625000  -3.712117e+001  -1.080632e+001 
3968750000  -3.833576e+001  -1.595036e+001 
3971875000  -3.855967e+001  -2.022754e+001 
3975000000  -3.779427e+001  -2.254354e+001 
3978125000  -3.767347e+001  -2.536790e+001 
3981250000  -3.775055e+001  -3.226748e+001 
3984375000  -3.790236e+001  -3.784373e+001 
3987500000  -3.864529e+001  -3.949708e+001 
3990625000  -3.848429e+001  -3.961493e+001 
3993750000  -3.887576e+001  -4.591626e+001 
3996875000  -3.902896e+001  -4.842635e+001 
4000000000  -3.924456e+001  -5.111845e+001 
4003125000  -3.967380e+001  -4.911920e+001 
4006250000  -3.831423e+001  -4.999109e+001 
4009375000  -3.720665e+001  -6.392819e+001 
4012500000  -3.834576e+001  -6.912309e+001 
4015625000  -3.994759e+001  -7.012783e+001 
4018750000  -4.008764e+001  -6.897534e+001 
4021875000  -3.890683e+001  -6.857217e+001 
4025000000  -3.900288e+001  -7.558711e+001 
4028125000  -3.912520e+001  -7.965408e+001 
4031250000  -3.926232e+001  -8.366583e+001 
4034375000  -4.009448e+001  -8.372839e+001 
4037500000  -3.937860e+001  -8.238836e+001 
4040625000  -3.913706e+001  -8.742143e+001 
4043750000  -3.946788e+001  -8.816590e+001 
4046875000  -3.888055e+001  -8.806705e+001 
4050000000  -3.842760e+001  -9.402068e+001 
4053125000  -3.898725e+001  -9.690004e+001 
4056250000  -3.957125e+001  -9.284428e+001 
4059375000  -3.803791e+001  -9.364604e+001 
4062500000  -3.664282e+001  -9.901620e+001 
4065625000  -3.662421e+001  -1.033825e+002 
4068750000  -3.632038e+001  -1.091697e+002 
4071875000  -3.568492e+001  -1.178889e+002 
4075000000  -3.594468e+001  -1.257784e+002 
4078125000  -3.656270e+001  -1.263913e+002 
4081250000  -3.603869e+001  -1.310213e+002 
4084375000  -3.563087e+001  -1.381617e+002 
4087500000  -3.610286e+001  -1.456021e+002 
4090625000  -3.667796e+001  -1.461721e+002 
4093750000  -3.648409e+001  -1.471311e+002 
4096875000  -3.610394e+001  -1.542880e+002 
4100000000  -3.675694e+001  -1.620997e+002 
4103125000  -3.764766e+001  -1.617490e+002 
4106250000  -3.762996e+001  -1.575925e+002 
4109375000  -3.669922e+001  -1.593942e+002 
4112500000  -3.612768e+001  -1.672461e+002 
4115625000  -3.665546e+001  -1.732946e+002 
4118750000  -3.688761e+001  -1.759239e+002 
4121875000  -3.642942e+001  1.788587e+002 
4125000000  -3.668726e+001  1.721853e+002 
4128125000  -3.773382e+001  1.726908e+002 
4131250000  -3.742720e+001  1.786555e+002 
4134375000  -3.543255e+001  1.744714e+002 
4137500000  -3.513153e+001  1.536852e+002 
4140625000  -3.719827e+001  1.451770e+002 
4143750000  -3.849277e+001  1.502673e+002 
4146875000  -3.842527e+001  1.568456e+002 
4150000000  -3.750237e+001  1.530549e+002 
4153125000  -3.754873e+001  1.452751e+002 
4156250000  -3.836924e+001  1.423254e+002 
4159375000  -3.862984e+001  1.464645e+002 
4162500000  -3.748589e+001  1.516364e+002 
4165625000  -3.645018e+001  1.468345e+002 
4168750000  -3.591015e+001  1.385557e+002 
4171875000  -3.589378e+001  1.298333e+002 
4175000000  -3.658827e+001  1.234968e+002 
4178125000  -3.708473e+001  1.232142e+002 
4181250000  -3.672862e+001  1.219010e+002 
4184375000  -3.687720e+001  1.190664e+002 
4187500000  -3.678619e+001  1.145245e+002 
4190625000  -3.647201e+001  1.100939e+002 
4193750000  -3.736189e+001  1.049698e+002 
4196875000  -3.803455e+001  1.035590e+002 
4200000000  -3.900580e+001  1.079313e+002 
4203125000  -3.894816e+001  1.196139e+002 
4206250000  -3.550439e+001  1.202375e+002 
4209375000  -3.418939e+001  9.789653e+001 
4212500000  -3.602722e+001  8.834538e+001 
4215625000  -3.702628e+001  9.371106e+001 
4218750000  -3.564372e+001  1.005434e+002 
4221875000  -3.332766e+001  8.956521e+001 
4225000000  -3.453114e+001  7.534274e+001 
4228125000  -3.528951e+001  7.952145e+001 
4231250000  -3.349295e+001  7.549493e+001 
4234375000  -3.336643e+001  6.618446e+001 
4237500000  -3.305943e+001  6.208203e+001 
4240625000  -3.287084e+001  5.094238e+001 
4243750000  -3.413393e+001  4.285886e+001 
4246875000  -3.495171e+001  4.373267e+001 
4250000000  -3.484750e+001  4.410082e+001 
4253125000  -3.432370e+001  4.124552e+001 
4256250000  -3.490224e+001  3.597607e+001 
4259375000  -3.447412e+001  3.213419e+001 
4262500000  -3.467728e+001  2.820053e+001 
4265625000  -3.477547e+001  2.643273e+001 
4268750000  -3.396789e+001  2.261868e+001 
4271875000  -3.375844e+001  1.454711e+001 
4275000000  -3.325718e+001  7.280851e+000 
4278125000  -3.422596e+001  -4.402358e+000 
4281250000  -3.612848e+001  -5.774105e+000 
4284375000  -3.563149e+001  -6.128644e+000 
4287500000  -3.671846e+001  -1.130312e+001 
4290625000  -3.808634e+001  -1.332677e+000 
4293750000  -3.606162e+001  2.281266e+000 
4296875000  -3.484189e+001  -8.575060e+000 
4300000000  -3.585511e+001  -1.727966e+001 
4303125000  -3.701381e+001  -1.521298e+001 
4306250000  -3.645015e+001  -9.233020e+000 
4309375000  -3.490833e+001  -1.221738e+001 
4312500000  -3.486626e+001  -2.100414e+001 
4315625000  -3.494203e+001  -2.648148e+001 
4318750000  -3.532079e+001  -2.986643e+001 
4321875000  -3.539484e+001  -2.924657e+001 
4325000000  -3.485877e+001  -2.987887e+001 
4328125000  -3.419912e+001  -3.671016e+001 
4331250000  -3.394571e+001  -4.472889e+001 
4334375000  -3.432413e+001  -4.972210e+001 
4337500000  -3.510413e+001  -5.242037e+001 
4340625000  -3.564995e+001  -4.930733e+001 
4343750000  -3.479165e+001  -5.026871e+001 
4346875000  -3.437413e+001  -5.612883e+001 
4350000000  -3.413650e+001  -6.310978e+001 
4353125000  -3.435539e+001  -7.069202e+001 
4356250000  -3.590635e+001  -7.164452e+001 
4359375000  -3.644027e+001  -5.882171e+001 
4362500000  -3.338348e+001  -5.958783e+001 
4365625000  -3.183377e+001  -7.247028e+001 
4368750000  -3.261271e+001  -8.557088e+001 
4371875000  -3.366885e+001  -8.670360e+001 
4375000000  -3.334249e+001  -8.733166e+001 
4378125000  -3.259695e+001  -9.360658e+001 
4381250000  -3.270957e+001  -1.003396e+002 
4384375000  -3.261840e+001  -1.069198e+002 
4387500000  -3.345337e+001  -1.137890e+002 
4390625000  -3.438388e+001  -1.136252e+002 
4393750000  -3.376769e+001  -1.132121e+002 
4396875000  -3.320491e+001  -1.168987e+002 
4400000000  -3.261349e+001  -1.257839e+002 
4403125000  -3.322131e+001  -1.338165e+002 
4406250000  -3.411850e+001  -1.361956e+002 
4409375000  -3.430348e+001  -1.394546e+002 
4412500000  -3.539718e+001  -1.449014e+002 
4415625000  -3.581197e+001  -1.388476e+002 
