!Agilent Technologies,E8363B,MY43030201,A.06.04.32
!Agilent E8363B: A.06.04.32
!Date: Tuesday, November 11, 2014 21:02:11
!Correction: S21(Response(S21)) 
!S1P File: Measurement: S21:
# Hz S  dB   R 50
3000000000  -3.639294e+001  -4.529504e+001 
3003125000  -3.755859e+001  -5.137043e+001 
3006250000  -3.736794e+001  -5.422322e+001 
3009375000  -3.775649e+001  -4.956169e+001 
3012500000  -3.701609e+001  -5.114938e+001 
3015625000  -3.604777e+001  -5.878056e+001 
3018750000  -3.673796e+001  -5.970990e+001 
3021875000  -3.535254e+001  -5.958409e+001 
3025000000  -3.407841e+001  -6.279979e+001 
3028125000  -3.311276e+001  -6.907947e+001 
3031250000  -3.203214e+001  -7.990021e+001 
3034375000  -3.176070e+001  -9.406912e+001 
3037500000  -3.211705e+001  -1.058925e+002 
3040625000  -3.342595e+001  -1.106628e+002 
3043750000  -3.409921e+001  -1.157714e+002 
3046875000  -3.425445e+001  -1.218764e+002 
3050000000  -3.605367e+001  -1.285130e+002 
3053125000  -3.612783e+001  -1.223518e+002 
3056250000  -3.546360e+001  -1.184590e+002 
3059375000  -3.547603e+001  -1.194078e+002 
3062500000  -3.398821e+001  -1.239602e+002 
3065625000  -3.388826e+001  -1.291398e+002 
3068750000  -3.347754e+001  -1.361005e+002 
3071875000  -3.340775e+001  -1.385822e+002 
3075000000  -3.328357e+001  -1.425775e+002 
3078125000  -3.301790e+001  -1.467533e+002 
3081250000  -3.352972e+001  -1.513797e+002 
3084375000  -3.260162e+001  -1.549251e+002 
3087500000  -3.242910e+001  -1.586383e+002 
3090625000  -3.192987e+001  -1.687220e+002 
3093750000  -3.241738e+001  -1.763762e+002 
3096875000  -3.341781e+001  1.774127e+002 
3100000000  -3.326305e+001  1.757536e+002 
3103125000  -3.361167e+001  1.762693e+002 
3106250000  -3.314250e+001  1.723192e+002 
3109375000  -3.330158e+001  1.684891e+002 
3112500000  -3.324314e+001  1.667620e+002 
3115625000  -3.281835e+001  1.612394e+002 
3118750000  -3.323015e+001  1.617745e+002 
3121875000  -3.237057e+001  1.526108e+002 
3125000000  -3.352119e+001  1.481061e+002 
3128125000  -3.454582e+001  1.551694e+002 
3131250000  -3.207372e+001  1.533163e+002 
3134375000  -3.063558e+001  1.385462e+002 
3137500000  -3.142859e+001  1.245204e+002 
3140625000  -3.290107e+001  1.211366e+002 
3143750000  -3.400291e+001  1.228732e+002 
3146875000  -3.327156e+001  1.239248e+002 
3150000000  -3.235954e+001  1.244669e+002 
3153125000  -3.236728e+001  1.152344e+002 
3156250000  -3.338872e+001  1.193299e+002 
3159375000  -3.170868e+001  1.205706e+002 
3162500000  -2.979963e+001  1.060739e+002 
3165625000  -3.075360e+001  9.463528e+001 
3168750000  -3.105757e+001  9.461359e+001 
3171875000  -3.020434e+001  8.826947e+001 
3175000000  -3.092844e+001  7.985605e+001 
3178125000  -3.065636e+001  8.074424e+001 
3181250000  -2.953810e+001  7.550156e+001 
3184375000  -2.882845e+001  6.243953e+001 
3187500000  -2.997974e+001  4.650423e+001 
3190625000  -3.265695e+001  3.923856e+001 
3193750000  -3.342566e+001  4.758399e+001 
3196875000  -3.293811e+001  5.267674e+001 
3200000000  -3.205840e+001  4.993894e+001 
3203125000  -3.131876e+001  4.343451e+001 
3206250000  -3.161392e+001  3.639415e+001 
3209375000  -3.112751e+001  3.033254e+001 
3212500000  -3.131929e+001  2.365182e+001 
3215625000  -3.142449e+001  1.969265e+001 
3218750000  -3.223751e+001  1.260833e+001 
3221875000  -3.308898e+001  7.224860e+000 
3225000000  -3.263633e+001  6.300419e+000 
3228125000  -3.309213e+001  5.009907e-001 
3231250000  -3.365099e+001  -2.085525e+000 
3234375000  -3.346663e+001  -1.495091e+000 
3237500000  -3.343931e+001  -3.529032e+000 
3240625000  -3.301825e+001  -5.788819e+000 
3243750000  -3.261141e+001  -1.350549e+001 
3246875000  -3.300868e+001  -2.058841e+001 
3250000000  -3.345348e+001  -2.260205e+001 
3253125000  -3.363873e+001  -2.488484e+001 
3256250000  -3.324384e+001  -3.218250e+001 
3259375000  -3.352717e+001  -4.051832e+001 
3262500000  -3.469743e+001  -4.372261e+001 
3265625000  -3.532006e+001  -4.153481e+001 
3268750000  -3.519796e+001  -3.971504e+001 
3271875000  -3.485966e+001  -4.023050e+001 
3275000000  -3.377942e+001  -4.637698e+001 
3278125000  -3.420633e+001  -5.276861e+001 
3281250000  -3.442176e+001  -5.221509e+001 
3284375000  -3.392070e+001  -5.936829e+001 
3287500000  -3.413856e+001  -6.218631e+001 
3290625000  -3.439635e+001  -6.808434e+001 
3293750000  -3.416445e+001  -7.409657e+001 
3296875000  -3.514640e+001  -7.503445e+001 
3300000000  -3.497810e+001  -7.398989e+001 
3303125000  -3.384990e+001  -7.953362e+001 
3306250000  -3.364477e+001  -8.671110e+001 
3309375000  -3.332914e+001  -9.280821e+001 
3312500000  -3.335509e+001  -1.035249e+002 
3315625000  -3.425928e+001  -1.116530e+002 
3318750000  -3.571764e+001  -1.145589e+002 
3321875000  -3.686001e+001  -1.149955e+002 
3325000000  -3.736014e+001  -1.096411e+002 
3328125000  -3.706418e+001  -1.094248e+002 
3331250000  -3.583284e+001  -1.029559e+002 
3334375000  -3.317128e+001  -1.130181e+002 
3337500000  -3.319790e+001  -1.321774e+002 
3340625000  -3.445218e+001  -1.427576e+002 
3343750000  -3.659053e+001  -1.444625e+002 
3346875000  -3.668867e+001  -1.426733e+002 
3350000000  -3.621974e+001  -1.443337e+002 
3353125000  -3.606577e+001  -1.494833e+002 
3356250000  -3.568680e+001  -1.566082e+002 
3359375000  -3.648453e+001  -1.660381e+002 
3362500000  -3.757264e+001  -1.703661e+002 
3365625000  -3.791121e+001  -1.730948e+002 
3368750000  -3.875457e+001  -1.753234e+002 
3371875000  -3.895065e+001  -1.775301e+002 
3375000000  -4.042281e+001  -1.798327e+002 
3378125000  -4.113050e+001  1.799800e+002 
3381250000  -4.244906e+001  -1.724554e+002 
3384375000  -4.100203e+001  -1.501433e+002 
3387500000  -3.764756e+001  -1.665464e+002 
3390625000  -3.925880e+001  1.742901e+002 
3393750000  -4.044608e+001  1.772214e+002 
3396875000  -3.924023e+001  1.790359e+002 
3400000000  -3.865173e+001  1.703212e+002 
3403125000  -3.919283e+001  1.637248e+002 
3406250000  -3.962189e+001  1.645164e+002 
3409375000  -3.965411e+001  1.570287e+002 
3412500000  -4.043172e+001  1.549798e+002 
3415625000  -4.116566e+001  1.552034e+002 
3418750000  -4.108140e+001  1.560863e+002 
3421875000  -4.130562e+001  1.586616e+002 
3425000000  -4.045897e+001  1.594901e+002 
3428125000  -3.952606e+001  1.548176e+002 
3431250000  -3.936187e+001  1.490207e+002 
3434375000  -3.925380e+001  1.424869e+002 
3437500000  -3.978767e+001  1.388279e+002 
3440625000  -4.001359e+001  1.402429e+002 
3443750000  -3.893771e+001  1.412933e+002 
3446875000  -3.789042e+001  1.333717e+002 
3450000000  -3.774820e+001  1.230998e+002 
3453125000  -3.794820e+001  1.139289e+002 
3456250000  -3.899701e+001  1.075241e+002 
3459375000  -4.000463e+001  1.070427e+002 
3462500000  -4.008380e+001  1.074472e+002 
3465625000  -3.951583e+001  1.035435e+002 
3468750000  -4.008228e+001  9.763787e+001 
3471875000  -3.994366e+001  9.711555e+001 
3475000000  -3.983143e+001  9.263406e+001 
3478125000  -4.021761e+001  8.490971e+001 
3481250000  -4.118786e+001  8.058508e+001 
3484375000  -4.227502e+001  8.667255e+001 
3487500000  -4.146488e+001  8.557873e+001 
3490625000  -4.074915e+001  7.905609e+001 
3493750000  -4.120832e+001  7.446053e+001 
3496875000  -4.182915e+001  7.152006e+001 
3500000000  -4.219897e+001  7.337273e+001 
3503125000  -4.194903e+001  7.774910e+001 
3506250000  -4.064512e+001  7.066024e+001 
3509375000  -4.081913e+001  6.232535e+001 
3512500000  -4.124503e+001  5.302752e+001 
3515625000  -4.201173e+001  4.977401e+001 
3518750000  -4.255902e+001  5.121877e+001 
3521875000  -4.265429e+001  4.967195e+001 
3525000000  -4.372021e+001  4.333016e+001 
3528125000  -4.342078e+001  5.276991e+001 
3531250000  -4.214500e+001  5.011164e+001 
3534375000  -4.236662e+001  4.105787e+001 
3537500000  -4.260950e+001  3.500983e+001 
3540625000  -4.373001e+001  3.505883e+001 
3543750000  -4.415466e+001  3.731905e+001 
3546875000  -4.406257e+001  5.043553e+001 
3550000000  -4.155668e+001  4.989643e+001 
3553125000  -4.039125e+001  3.502183e+001 
3556250000  -4.184909e+001  2.627136e+001 
3559375000  -4.166611e+001  2.890938e+001 
3562500000  -4.062953e+001  2.050590e+001 
3565625000  -4.139130e+001  1.227352e+001 
3568750000  -4.138830e+001  1.649691e+001 
3571875000  -4.130923e+001  1.492174e+001 
3575000000  -4.099764e+001  6.457887e+000 
3578125000  -4.132399e+001  2.494581e+000 
3581250000  -4.168459e+001  1.489977e+000 
3584375000  -4.089946e+001  -1.474581e+000 
3587500000  -4.023286e+001  -9.708917e+000 
3590625000  -4.089150e+001  -2.143914e+001 
3593750000  -4.198880e+001  -2.199710e+001 
3596875000  -4.176195e+001  -1.758797e+001 
3600000000  -4.054951e+001  -2.319671e+001 
3603125000  -4.080301e+001  -3.626053e+001 
3606250000  -4.166907e+001  -4.269206e+001 
3609375000  -4.212130e+001  -4.512896e+001 
3612500000  -4.301671e+001  -4.638901e+001 
3615625000  -4.311075e+001  -5.200622e+001 
3618750000  -4.358258e+001  -4.906417e+001 
3621875000  -4.364706e+001  -5.311615e+001 
3625000000  -4.413768e+001  -5.568963e+001 
3628125000  -4.443026e+001  -5.715204e+001 
3631250000  -4.444902e+001  -6.057228e+001 
3634375000  -4.597213e+001  -6.043185e+001 
3637500000  -4.589621e+001  -5.638327e+001 
3640625000  -4.492947e+001  -5.402625e+001 
3643750000  -4.472610e+001  -6.042370e+001 
3646875000  -4.529562e+001  -6.592537e+001 
3650000000  -4.649709e+001  -6.648813e+001 
3653125000  -4.583372e+001  -6.655318e+001 
3656250000  -4.642077e+001  -6.544831e+001 
3659375000  -4.652415e+001  -6.232521e+001 
3662500000  -4.587527e+001  -6.432163e+001 
3665625000  -4.550883e+001  -6.760690e+001 
3668750000  -4.422327e+001  -6.485664e+001 
3671875000  -4.301411e+001  -7.027097e+001 
3675000000  -4.331142e+001  -7.537263e+001 
3678125000  -4.344365e+001  -7.767902e+001 
3681250000  -4.360778e+001  -8.065797e+001 
3684375000  -4.312571e+001  -8.457043e+001 
3687500000  -4.316315e+001  -8.850188e+001 
3690625000  -4.343676e+001  -9.435049e+001 
3693750000  -4.389912e+001  -9.271416e+001 
3696875000  -4.381693e+001  -9.225134e+001 
3700000000  -4.312667e+001  -9.858109e+001 
3703125000  -4.314783e+001  -1.026573e+002 
3706250000  -4.439256e+001  -1.031148e+002 
3709375000  -4.371764e+001  -1.010303e+002 
3712500000  -4.278463e+001  -1.046453e+002 
3715625000  -4.187293e+001  -1.122790e+002 
3718750000  -4.158123e+001  -1.172965e+002 
3721875000  -4.153568e+001  -1.248728e+002 
3725000000  -4.176661e+001  -1.311668e+002 
3728125000  -4.234622e+001  -1.333715e+002 
3731250000  -4.164411e+001  -1.343770e+002 
3734375000  -4.151715e+001  -1.385592e+002 
3737500000  -4.219979e+001  -1.476376e+002 
3740625000  -4.335018e+001  -1.502171e+002 
3743750000  -4.345580e+001  -1.529067e+002 
3746875000  -4.338293e+001  -1.568596e+002 
3750000000  -4.410564e+001  -1.546530e+002 
3753125000  -4.442363e+001  -1.584209e+002 
3756250000  -4.477433e+001  -1.553609e+002 
3759375000  -4.469170e+001  -1.588474e+002 
3762500000  -4.413256e+001  -1.570652e+002 
3765625000  -4.462864e+001  -1.591119e+002 
3768750000  -4.492245e+001  -1.556354e+002 
3771875000  -4.312173e+001  -1.564183e+002 
3775000000  -4.265239e+001  -1.631607e+002 
3778125000  -4.349813e+001  -1.660115e+002 
3781250000  -4.270941e+001  -1.668286e+002 
3784375000  -4.276774e+001  -1.683855e+002 
3787500000  -4.192331e+001  -1.707512e+002 
3790625000  -4.243035e+001  -1.777724e+002 
3793750000  -4.217445e+001  -1.768943e+002 
3796875000  -4.111199e+001  -1.798890e+002 
3800000000  -3.953056e+001  1.781251e+002 
3803125000  -4.029170e+001  1.671582e+002 
3806250000  -4.075152e+001  1.674176e+002 
3809375000  -4.067852e+001  1.636562e+002 
3812500000  -3.965688e+001  1.564914e+002 
3815625000  -4.051146e+001  1.480983e+002 
3818750000  -4.122363e+001  1.472439e+002 
3821875000  -4.132942e+001  1.543558e+002 
3825000000  -3.930411e+001  1.573943e+002 
3828125000  -3.808635e+001  1.416841e+002 
3831250000  -3.865896e+001  1.263592e+002 
3834375000  -4.017390e+001  1.248819e+002 
3837500000  -4.104302e+001  1.291484e+002 
3840625000  -3.982240e+001  1.268992e+002 
3843750000  -3.874183e+001  1.156488e+002 
3846875000  -3.958585e+001  1.082791e+002 
3850000000  -4.080439e+001  1.111367e+002 
3853125000  -4.049688e+001  1.163045e+002 
3856250000  -4.004620e+001  1.080701e+002 
3859375000  -3.951243e+001  1.036568e+002 
3862500000  -3.931694e+001  9.598719e+001 
3865625000  -3.958096e+001  8.923626e+001 
3868750000  -3.968907e+001  8.831744e+001 
3871875000  -3.903158e+001  8.584953e+001 
3875000000  -3.924329e+001  7.705495e+001 
3878125000  -4.040281e+001  7.368276e+001 
3881250000  -4.060413e+001  7.541956e+001 
3884375000  -3.992014e+001  7.084880e+001 
3887500000  -4.016464e+001  6.686320e+001 
3890625000  -4.064632e+001  6.417815e+001 
3893750000  -4.102944e+001  6.256784e+001 
3896875000  -4.144046e+001  6.495827e+001 
3900000000  -4.165861e+001  6.179357e+001 
3903125000  -4.092965e+001  5.965295e+001 
3906250000  -4.057344e+001  5.663773e+001 
3909375000  -3.988008e+001  5.553096e+001 
3912500000  -3.997000e+001  4.540298e+001 
3915625000  -4.137553e+001  4.503158e+001 
3918750000  -4.104627e+001  4.851731e+001 
3921875000  -4.029896e+001  4.517614e+001 
3925000000  -3.995327e+001  4.353640e+001 
3928125000  -3.917112e+001  3.605202e+001 
3931250000  -3.946912e+001  3.147048e+001 
3934375000  -3.976661e+001  2.811726e+001 
3937500000  -4.000674e+001  2.889995e+001 
3940625000  -4.062690e+001  2.556496e+001 
3943750000  -3.928375e+001  2.764834e+001 
3946875000  -3.811919e+001  2.073306e+001 
3950000000  -3.897040e+001  1.330743e+001 
3953125000  -3.984194e+001  8.906381e+000 
3956250000  -3.864492e+001  1.136440e+001 
3959375000  -3.751719e+001  8.205847e+000 
3962500000  -3.739998e+001  3.674435e+000 
3965625000  -3.701219e+001  -6.239994e+000 
3968750000  -3.813465e+001  -1.465956e+001 
3971875000  -3.828725e+001  -1.606280e+001 
3975000000  -3.775228e+001  -1.931448e+001 
3978125000  -3.771424e+001  -2.197798e+001 
3981250000  -3.761268e+001  -2.699366e+001 
3984375000  -3.796563e+001  -3.389446e+001 
3987500000  -3.859551e+001  -3.642585e+001 
3990625000  -3.855419e+001  -3.759213e+001 
3993750000  -3.887019e+001  -4.191599e+001 
3996875000  -3.887300e+001  -4.510775e+001 
4000000000  -3.894691e+001  -4.754785e+001 
4003125000  -3.956441e+001  -4.560424e+001 
4006250000  -3.822277e+001  -4.619624e+001 
4009375000  -3.721263e+001  -5.932900e+001 
4012500000  -3.846786e+001  -6.769434e+001 
4015625000  -3.978602e+001  -6.676619e+001 
4018750000  -4.006106e+001  -6.478386e+001 
4021875000  -3.916899e+001  -6.746201e+001 
4025000000  -3.860414e+001  -7.197679e+001 
4028125000  -3.881408e+001  -7.659841e+001 
4031250000  -3.927879e+001  -7.981013e+001 
4034375000  -3.967820e+001  -8.095885e+001 
4037500000  -3.911131e+001  -7.951731e+001 
4040625000  -3.890270e+001  -8.279968e+001 
4043750000  -3.917751e+001  -8.342056e+001 
4046875000  -3.905810e+001  -8.443768e+001 
4050000000  -3.823661e+001  -9.250673e+001 
4053125000  -3.875307e+001  -9.286116e+001 
4056250000  -3.930654e+001  -9.069571e+001 
4059375000  -3.782329e+001  -8.903008e+001 
4062500000  -3.670486e+001  -9.564342e+001 
4065625000  -3.654998e+001  -9.823164e+001 
4068750000  -3.631317e+001  -1.078431e+002 
4071875000  -3.564461e+001  -1.155813e+002 
4075000000  -3.590638e+001  -1.221914e+002 
4078125000  -3.662542e+001  -1.235905e+002 
4081250000  -3.607003e+001  -1.275625e+002 
4084375000  -3.562816e+001  -1.355210e+002 
4087500000  -3.602827e+001  -1.420567e+002 
4090625000  -3.655929e+001  -1.437283e+002 
4093750000  -3.646127e+001  -1.443059e+002 
4096875000  -3.602281e+001  -1.512179e+002 
4100000000  -3.699774e+001  -1.589942e+002 
4103125000  -3.784721e+001  -1.591975e+002 
4106250000  -3.765266e+001  -1.548237e+002 
4109375000  -3.652297e+001  -1.577041e+002 
4112500000  -3.620220e+001  -1.651792e+002 
4115625000  -3.649713e+001  -1.702262e+002 
4118750000  -3.663165e+001  -1.736945e+002 
4121875000  -3.623747e+001  -1.795165e+002 
4125000000  -3.669943e+001  1.752716e+002 
4128125000  -3.756476e+001  1.756323e+002 
4131250000  -3.754424e+001  -1.783936e+002 
4134375000  -3.514683e+001  1.752801e+002 
4137500000  -3.511704e+001  1.564402e+002 
4140625000  -3.728671e+001  1.490307e+002 
4143750000  -3.882883e+001  1.526823e+002 
4146875000  -3.835129e+001  1.595628e+002 
4150000000  -3.756366e+001  1.565096e+002 
4153125000  -3.751012e+001  1.490851e+002 
4156250000  -3.854041e+001  1.448626e+002 
4159375000  -3.859555e+001  1.518639e+002 
4162500000  -3.752732e+001  1.540245e+002 
4165625000  -3.672501e+001  1.496574e+002 
4168750000  -3.592600e+001  1.401985e+002 
4171875000  -3.591479e+001  1.308103e+002 
4175000000  -3.670760e+001  1.254107e+002 
4178125000  -3.699566e+001  1.279596e+002 
4181250000  -3.707545e+001  1.244087e+002 
4184375000  -3.689962e+001  1.210559e+002 
4187500000  -3.700720e+001  1.184832e+002 
4190625000  -3.653929e+001  1.129859e+002 
4193750000  -3.739515e+001  1.081797e+002 
4196875000  -3.810442e+001  1.072535e+002 
4200000000  -3.878434e+001  1.083578e+002 
4203125000  -3.894165e+001  1.234254e+002 
4206250000  -3.532747e+001  1.219968e+002 
4209375000  -3.440627e+001  1.002858e+002 
4212500000  -3.613884e+001  9.138969e+001 
4215625000  -3.698127e+001  9.847964e+001 
4218750000  -3.567094e+001  1.017516e+002 
4221875000  -3.354608e+001  9.309277e+001 
4225000000  -3.458825e+001  7.834001e+001 
4228125000  -3.528632e+001  8.327875e+001 
4231250000  -3.361540e+001  7.736304e+001 
4234375000  -3.354837e+001  6.898059e+001 
4237500000  -3.313729e+001  6.512659e+001 
4240625000  -3.299350e+001  5.414933e+001 
4243750000  -3.414758e+001  4.570186e+001 
4246875000  -3.505076e+001  4.529432e+001 
4250000000  -3.495898e+001  4.625699e+001 
4253125000  -3.442289e+001  4.453543e+001 
4256250000  -3.474257e+001  3.762850e+001 
4259375000  -3.456462e+001  3.483890e+001 
4262500000  -3.488205e+001  3.105862e+001 
4265625000  -3.484139e+001  3.009888e+001 
4268750000  -3.387089e+001  2.474281e+001 
4271875000  -3.393655e+001  1.745305e+001 
4275000000  -3.324455e+001  9.918118e+000 
4278125000  -3.405368e+001  -2.755268e+000 
4281250000  -3.583272e+001  -4.484988e+000 
4284375000  -3.595204e+001  -4.309081e+000 
4287500000  -3.696257e+001  -9.058451e+000 
4290625000  -3.805527e+001  6.460688e-001 
4293750000  -3.614001e+001  6.522088e+000 
4296875000  -3.498045e+001  -5.293243e+000 
4300000000  -3.584726e+001  -1.584638e+001 
4303125000  -3.718423e+001  -1.413753e+001 
4306250000  -3.636465e+001  -7.532672e+000 
4309375000  -3.529982e+001  -1.090390e+001 
4312500000  -3.503502e+001  -1.806322e+001 
4315625000  -3.525777e+001  -2.369726e+001 
4318750000  -3.553775e+001  -2.869094e+001 
4321875000  -3.553939e+001  -2.677070e+001 
4325000000  -3.492017e+001  -2.604461e+001 
4328125000  -3.430450e+001  -3.193389e+001 
4331250000  -3.420911e+001  -4.084503e+001 
4334375000  -3.463469e+001  -4.734256e+001 
4337500000  -3.537066e+001  -4.876179e+001 
4340625000  -3.581465e+001  -4.663523e+001 
4343750000  -3.498548e+001  -4.722481e+001 
4346875000  -3.449108e+001  -5.384481e+001 
4350000000  -3.443914e+001  -5.938662e+001 
4353125000  -3.448687e+001  -6.769005e+001 
4356250000  -3.624015e+001  -6.894814e+001 
4359375000  -3.641249e+001  -5.622494e+001 
4362500000  -3.383749e+001  -5.653573e+001 
4365625000  -3.190246e+001  -6.973604e+001 
4368750000  -3.272505e+001  -8.206586e+001 
4371875000  -3.390021e+001  -8.283717e+001 
4375000000  -3.332092e+001  -8.425850e+001 
4378125000  -3.286600e+001  -9.028191e+001 
4381250000  -3.298989e+001  -9.663584e+001 
4384375000  -3.277738e+001  -1.037218e+002 
4387500000  -3.359487e+001  -1.106864e+002 
4390625000  -3.463834e+001  -1.122954e+002 
4393750000  -3.386982e+001  -1.100728e+002 
4396875000  -3.322010e+001  -1.132840e+002 
4400000000  -3.270407e+001  -1.220321e+002 
4403125000  -3.331194e+001  -1.305900e+002 
4406250000  -3.434190e+001  -1.341458e+002 
4409375000  -3.424694e+001  -1.371515e+002 
4412500000  -3.566397e+001  -1.399993e+002 
4415625000  -3.584447e+001  -1.356750e+002 
