!Agilent Technologies,E8363B,MY43030201,A.06.04.32
!Agilent E8363B: A.06.04.32
!Date: Tuesday, November 11, 2014 21:05:30
!Correction: S21(Response(S21)) 
!S1P File: Measurement: S21:
# Hz S  dB   R 50
3000000000  -3.647881e+001  -4.939244e+001 
3003125000  -3.755493e+001  -5.458467e+001 
3006250000  -3.738573e+001  -5.798531e+001 
3009375000  -3.775616e+001  -5.320590e+001 
3012500000  -3.703267e+001  -5.477696e+001 
3015625000  -3.603132e+001  -6.255215e+001 
3018750000  -3.691034e+001  -6.325554e+001 
3021875000  -3.545623e+001  -6.283807e+001 
3025000000  -3.417217e+001  -6.617069e+001 
3028125000  -3.314388e+001  -7.215508e+001 
3031250000  -3.216200e+001  -8.357556e+001 
3034375000  -3.179786e+001  -9.723914e+001 
3037500000  -3.215076e+001  -1.095981e+002 
3040625000  -3.358614e+001  -1.139618e+002 
3043750000  -3.428452e+001  -1.191880e+002 
3046875000  -3.440403e+001  -1.253423e+002 
3050000000  -3.614142e+001  -1.319285e+002 
3053125000  -3.601341e+001  -1.251878e+002 
3056250000  -3.565149e+001  -1.222686e+002 
3059375000  -3.565179e+001  -1.229762e+002 
3062500000  -3.425213e+001  -1.254118e+002 
3065625000  -3.392178e+001  -1.323400e+002 
3068750000  -3.354308e+001  -1.400606e+002 
3071875000  -3.353749e+001  -1.417245e+002 
3075000000  -3.335992e+001  -1.460258e+002 
3078125000  -3.300515e+001  -1.501765e+002 
3081250000  -3.353898e+001  -1.538027e+002 
3084375000  -3.265549e+001  -1.576728e+002 
3087500000  -3.243283e+001  -1.615477e+002 
3090625000  -3.196003e+001  -1.719780e+002 
3093750000  -3.238586e+001  -1.789602e+002 
3096875000  -3.349122e+001  1.749480e+002 
3100000000  -3.341211e+001  1.728830e+002 
3103125000  -3.355767e+001  1.739703e+002 
3106250000  -3.317377e+001  1.700323e+002 
3109375000  -3.317567e+001  1.657928e+002 
3112500000  -3.313467e+001  1.630466e+002 
3115625000  -3.291325e+001  1.589260e+002 
3118750000  -3.317290e+001  1.590556e+002 
3121875000  -3.221959e+001  1.493010e+002 
3125000000  -3.344296e+001  1.449079e+002 
3128125000  -3.446668e+001  1.516820e+002 
3131250000  -3.203373e+001  1.503559e+002 
3134375000  -3.072660e+001  1.348615e+002 
3137500000  -3.132294e+001  1.207751e+002 
3140625000  -3.280231e+001  1.175648e+002 
3143750000  -3.380415e+001  1.192824e+002 
3146875000  -3.322485e+001  1.202210e+002 
3150000000  -3.235849e+001  1.206168e+002 
3153125000  -3.230004e+001  1.112300e+002 
3156250000  -3.339800e+001  1.165654e+002 
3159375000  -3.160498e+001  1.173289e+002 
3162500000  -2.967136e+001  1.030973e+002 
3165625000  -3.072837e+001  9.038210e+001 
3168750000  -3.105202e+001  9.120140e+001 
3171875000  -3.016493e+001  8.515027e+001 
3175000000  -3.097081e+001  7.660356e+001 
3178125000  -3.067569e+001  7.721912e+001 
3181250000  -2.957738e+001  7.194500e+001 
3184375000  -2.887632e+001  5.886138e+001 
3187500000  -3.009456e+001  4.315862e+001 
3190625000  -3.280171e+001  3.623623e+001 
3193750000  -3.334521e+001  4.457101e+001 
3196875000  -3.295256e+001  4.909227e+001 
3200000000  -3.207877e+001  4.581953e+001 
3203125000  -3.123728e+001  3.984451e+001 
3206250000  -3.161669e+001  3.299404e+001 
3209375000  -3.117586e+001  2.764629e+001 
3212500000  -3.134886e+001  2.011822e+001 
3215625000  -3.142322e+001  1.611341e+001 
3218750000  -3.223214e+001  9.385286e+000 
3221875000  -3.305085e+001  4.242392e+000 
3225000000  -3.273012e+001  3.006386e+000 
3228125000  -3.303672e+001  -3.183764e+000 
3231250000  -3.371993e+001  -4.864438e+000 
3234375000  -3.340117e+001  -4.896199e+000 
3237500000  -3.339987e+001  -6.545372e+000 
3240625000  -3.302449e+001  -9.044441e+000 
3243750000  -3.253975e+001  -1.723602e+001 
3246875000  -3.297342e+001  -2.404887e+001 
3250000000  -3.340481e+001  -2.646779e+001 
3253125000  -3.356462e+001  -2.868802e+001 
3256250000  -3.327754e+001  -3.516546e+001 
3259375000  -3.342865e+001  -4.356587e+001 
3262500000  -3.469662e+001  -4.759871e+001 
3265625000  -3.531236e+001  -4.561189e+001 
3268750000  -3.507306e+001  -4.258807e+001 
3271875000  -3.479829e+001  -4.332242e+001 
3275000000  -3.372373e+001  -4.958688e+001 
3278125000  -3.418284e+001  -5.624450e+001 
3281250000  -3.433777e+001  -5.547462e+001 
3284375000  -3.388034e+001  -6.186245e+001 
3287500000  -3.405368e+001  -6.599616e+001 
3290625000  -3.440551e+001  -7.177806e+001 
3293750000  -3.407299e+001  -7.762814e+001 
3296875000  -3.511545e+001  -7.824841e+001 
3300000000  -3.491008e+001  -7.808776e+001 
3303125000  -3.374323e+001  -8.320263e+001 
3306250000  -3.344040e+001  -9.041973e+001 
3309375000  -3.326465e+001  -9.641073e+001 
3312500000  -3.327552e+001  -1.070753e+002 
3315625000  -3.423059e+001  -1.150436e+002 
3318750000  -3.566376e+001  -1.182043e+002 
3321875000  -3.677153e+001  -1.200552e+002 
3325000000  -3.722691e+001  -1.137630e+002 
3328125000  -3.685956e+001  -1.132941e+002 
3331250000  -3.567030e+001  -1.063869e+002 
3334375000  -3.307197e+001  -1.163752e+002 
3337500000  -3.320082e+001  -1.364180e+002 
3340625000  -3.445612e+001  -1.468852e+002 
3343750000  -3.648590e+001  -1.483797e+002 
3346875000  -3.677254e+001  -1.468477e+002 
3350000000  -3.599755e+001  -1.491018e+002 
3353125000  -3.607866e+001  -1.534924e+002 
3356250000  -3.555158e+001  -1.612767e+002 
3359375000  -3.637447e+001  -1.694009e+002 
3362500000  -3.759789e+001  -1.753295e+002 
3365625000  -3.810149e+001  -1.769942e+002 
3368750000  -3.884185e+001  -1.787319e+002 
3371875000  -3.907764e+001  1.779012e+002 
3375000000  -4.030971e+001  1.754052e+002 
3378125000  -4.145212e+001  1.736952e+002 
3381250000  -4.267406e+001  -1.743557e+002 
3384375000  -4.118819e+001  -1.536873e+002 
3387500000  -3.770789e+001  -1.706074e+002 
3390625000  -3.935878e+001  1.698145e+002 
3393750000  -4.071387e+001  1.733025e+002 
3396875000  -3.928773e+001  1.754883e+002 
3400000000  -3.879842e+001  1.665938e+002 
3403125000  -3.943649e+001  1.609009e+002 
3406250000  -3.964619e+001  1.619898e+002 
3409375000  -3.974626e+001  1.537863e+002 
3412500000  -4.034151e+001  1.506661e+002 
3415625000  -4.100373e+001  1.518582e+002 
3418750000  -4.111764e+001  1.539499e+002 
3421875000  -4.119719e+001  1.558747e+002 
3425000000  -4.025615e+001  1.569732e+002 
3428125000  -3.940038e+001  1.515053e+002 
3431250000  -3.923082e+001  1.451449e+002 
3434375000  -3.916516e+001  1.395447e+002 
3437500000  -3.964215e+001  1.352126e+002 
3440625000  -4.013614e+001  1.358428e+002 
3443750000  -3.868232e+001  1.381955e+002 
3446875000  -3.798240e+001  1.291810e+002 
3450000000  -3.766759e+001  1.193306e+002 
3453125000  -3.797186e+001  1.098630e+002 
3456250000  -3.904395e+001  1.031938e+002 
3459375000  -4.017929e+001  1.034610e+002 
3462500000  -3.997094e+001  1.036942e+002 
3465625000  -3.995104e+001  9.861473e+001 
3468750000  -4.010107e+001  9.525905e+001 
3471875000  -4.025242e+001  9.484488e+001 
3475000000  -3.977861e+001  8.933932e+001 
3478125000  -4.065535e+001  8.148386e+001 
3481250000  -4.153764e+001  7.902106e+001 
3484375000  -4.217344e+001  8.215007e+001 
3487500000  -4.153152e+001  8.118936e+001 
3490625000  -4.088402e+001  7.852850e+001 
3493750000  -4.145541e+001  7.094250e+001 
3496875000  -4.196180e+001  6.776549e+001 
3500000000  -4.242284e+001  7.116832e+001 
3503125000  -4.201879e+001  7.338158e+001 
3506250000  -4.080502e+001  7.037954e+001 
3509375000  -4.063568e+001  5.907263e+001 
3512500000  -4.140285e+001  5.160728e+001 
3515625000  -4.200241e+001  4.887420e+001 
3518750000  -4.244845e+001  4.967600e+001 
3521875000  -4.254937e+001  4.738742e+001 
3525000000  -4.351966e+001  4.540041e+001 
3528125000  -4.326412e+001  4.978613e+001 
3531250000  -4.188361e+001  5.314175e+001 
3534375000  -4.213380e+001  3.962859e+001 
3537500000  -4.274052e+001  3.526846e+001 
3540625000  -4.312742e+001  3.180976e+001 
3543750000  -4.413438e+001  3.498558e+001 
3546875000  -4.404964e+001  4.914965e+001 
3550000000  -4.156716e+001  4.774506e+001 
3553125000  -4.011191e+001  3.182404e+001 
3556250000  -4.182831e+001  2.492141e+001 
3559375000  -4.141568e+001  2.464422e+001 
3562500000  -4.014613e+001  1.566998e+001 
3565625000  -4.091650e+001  7.540228e+000 
3568750000  -4.135542e+001  1.338791e+001 
3571875000  -4.088073e+001  9.046455e+000 
3575000000  -4.062585e+001  2.972103e+000 
3578125000  -4.157346e+001  -2.475569e+000 
3581250000  -4.126982e+001  -1.759454e+000 
3584375000  -4.064558e+001  -5.032913e+000 
3587500000  -4.012969e+001  -1.437248e+001 
3590625000  -4.050967e+001  -2.652180e+001 
3593750000  -4.161483e+001  -2.702843e+001 
3596875000  -4.170492e+001  -2.287201e+001 
3600000000  -4.008460e+001  -2.728942e+001 
3603125000  -4.065416e+001  -4.144644e+001 
3606250000  -4.172489e+001  -4.612871e+001 
3609375000  -4.217371e+001  -4.860233e+001 
3612500000  -4.238101e+001  -5.076852e+001 
3615625000  -4.287580e+001  -5.454206e+001 
3618750000  -4.413133e+001  -5.418147e+001 
3621875000  -4.368057e+001  -5.638634e+001 
3625000000  -4.444459e+001  -5.801318e+001 
3628125000  -4.446062e+001  -6.057333e+001 
3631250000  -4.448629e+001  -6.321173e+001 
3634375000  -4.552905e+001  -6.240617e+001 
3637500000  -4.569153e+001  -5.640752e+001 
3640625000  -4.490775e+001  -5.568526e+001 
3643750000  -4.437414e+001  -6.162264e+001 
3646875000  -4.510139e+001  -6.834955e+001 
3650000000  -4.546154e+001  -6.721540e+001 
3653125000  -4.607927e+001  -6.908433e+001 
3656250000  -4.595799e+001  -6.986485e+001 
3659375000  -4.550209e+001  -6.692965e+001 
3662500000  -4.479296e+001  -6.755188e+001 
3665625000  -4.466134e+001  -7.155112e+001 
3668750000  -4.361773e+001  -6.875130e+001 
3671875000  -4.269157e+001  -7.577254e+001 
3675000000  -4.302021e+001  -8.352882e+001 
3678125000  -4.325103e+001  -8.495316e+001 
3681250000  -4.262932e+001  -8.759677e+001 
3684375000  -4.304909e+001  -8.990605e+001 
3687500000  -4.269990e+001  -9.538280e+001 
3690625000  -4.311776e+001  -1.002488e+002 
3693750000  -4.381514e+001  -9.889703e+001 
3696875000  -4.344220e+001  -9.903605e+001 
3700000000  -4.268861e+001  -1.038805e+002 
3703125000  -4.280431e+001  -1.100181e+002 
3706250000  -4.393069e+001  -1.099935e+002 
3709375000  -4.341830e+001  -1.075966e+002 
3712500000  -4.230494e+001  -1.105110e+002 
3715625000  -4.145980e+001  -1.195924e+002 
3718750000  -4.124079e+001  -1.245334e+002 
3721875000  -4.110209e+001  -1.296848e+002 
3725000000  -4.146301e+001  -1.371056e+002 
3728125000  -4.198269e+001  -1.370373e+002 
3731250000  -4.177551e+001  -1.383799e+002 
3734375000  -4.139513e+001  -1.448250e+002 
3737500000  -4.211585e+001  -1.531468e+002 
3740625000  -4.335428e+001  -1.565083e+002 
3743750000  -4.309098e+001  -1.587513e+002 
3746875000  -4.367562e+001  -1.641997e+002 
3750000000  -4.421837e+001  -1.629941e+002 
3753125000  -4.434407e+001  -1.634453e+002 
3756250000  -4.489098e+001  -1.601344e+002 
3759375000  -4.495672e+001  -1.633755e+002 
3762500000  -4.434702e+001  -1.678935e+002 
3765625000  -4.488251e+001  -1.659648e+002 
3768750000  -4.461330e+001  -1.598370e+002 
3771875000  -4.325415e+001  -1.644037e+002 
3775000000  -4.309490e+001  -1.671725e+002 
3778125000  -4.306689e+001  -1.709408e+002 
3781250000  -4.282856e+001  -1.704218e+002 
3784375000  -4.277628e+001  -1.726673e+002 
3787500000  -4.144822e+001  -1.750149e+002 
3790625000  -4.240784e+001  1.793468e+002 
3793750000  -4.242928e+001  1.756708e+002 
3796875000  -4.104541e+001  1.757206e+002 
3800000000  -3.976289e+001  1.723414e+002 
3803125000  -4.030938e+001  1.643263e+002 
3806250000  -4.114513e+001  1.594200e+002 
3809375000  -4.070009e+001  1.588359e+002 
3812500000  -3.959768e+001  1.506965e+002 
3815625000  -4.049553e+001  1.441979e+002 
3818750000  -4.123000e+001  1.403833e+002 
3821875000  -4.129672e+001  1.506502e+002 
3825000000  -3.951223e+001  1.526532e+002 
3828125000  -3.809599e+001  1.356692e+002 
3831250000  -3.864647e+001  1.214108e+002 
3834375000  -4.022256e+001  1.212209e+002 
3837500000  -4.103121e+001  1.231186e+002 
3840625000  -3.989922e+001  1.206593e+002 
3843750000  -3.881568e+001  1.107311e+002 
3846875000  -3.984990e+001  1.030503e+002 
3850000000  -4.104393e+001  1.082463e+002 
3853125000  -4.035124e+001  1.091451e+002 
3856250000  -4.024980e+001  1.025059e+002 
3859375000  -3.962423e+001  9.780317e+001 
3862500000  -3.945201e+001  9.035835e+001 
3865625000  -3.975012e+001  8.515349e+001 
3868750000  -3.963808e+001  8.340695e+001 
3871875000  -3.916304e+001  7.932525e+001 
3875000000  -3.963257e+001  7.004069e+001 
3878125000  -4.055278e+001  6.799466e+001 
3881250000  -4.056155e+001  7.019131e+001 
3884375000  -4.022291e+001  6.519526e+001 
3887500000  -4.038968e+001  6.152699e+001 
3890625000  -4.084547e+001  5.796351e+001 
3893750000  -4.127078e+001  5.730558e+001 
3896875000  -4.154652e+001  5.734277e+001 
3900000000  -4.187950e+001  5.617196e+001 
3903125000  -4.131807e+001  5.313824e+001 
3906250000  -4.088694e+001  5.362940e+001 
3909375000  -3.991129e+001  4.922966e+001 
3912500000  -4.020922e+001  4.173170e+001 
3915625000  -4.109713e+001  4.365475e+001 
3918750000  -4.152015e+001  4.415575e+001 
3921875000  -4.072234e+001  3.915745e+001 
3925000000  -3.966302e+001  3.791606e+001 
3928125000  -3.917605e+001  3.072432e+001 
3931250000  -3.948191e+001  2.644838e+001 
3934375000  -3.995606e+001  2.560466e+001 
3937500000  -3.992530e+001  2.302621e+001 
3940625000  -4.041022e+001  2.041707e+001 
3943750000  -3.939217e+001  2.105673e+001 
3946875000  -3.818150e+001  1.450458e+001 
3950000000  -3.903613e+001  7.732719e+000 
3953125000  -3.993699e+001  3.206015e+000 
3956250000  -3.891636e+001  7.290983e+000 
3959375000  -3.770382e+001  3.421703e+000 
3962500000  -3.724366e+001  -1.606138e+000 
3965625000  -3.724670e+001  -1.330508e+001 
3968750000  -3.817752e+001  -1.936734e+001 
3971875000  -3.862158e+001  -2.111363e+001 
3975000000  -3.774868e+001  -2.322210e+001 
3978125000  -3.783047e+001  -2.749071e+001 
3981250000  -3.754591e+001  -3.271634e+001 
3984375000  -3.790378e+001  -3.936496e+001 
3987500000  -3.852720e+001  -4.125917e+001 
3990625000  -3.868979e+001  -4.328180e+001 
3993750000  -3.918744e+001  -4.754284e+001 
3996875000  -3.904878e+001  -5.158403e+001 
4000000000  -3.925715e+001  -5.229887e+001 
4003125000  -3.986034e+001  -4.960033e+001 
4006250000  -3.822585e+001  -5.322044e+001 
4009375000  -3.743334e+001  -6.592018e+001 
4012500000  -3.849984e+001  -7.323737e+001 
4015625000  -4.008075e+001  -7.205693e+001 
4018750000  -4.016560e+001  -6.996053e+001 
4021875000  -3.923255e+001  -7.074668e+001 
4025000000  -3.909901e+001  -7.738089e+001 
4028125000  -3.896296e+001  -8.090379e+001 
4031250000  -3.957265e+001  -8.484184e+001 
4034375000  -3.987577e+001  -8.512970e+001 
4037500000  -3.936355e+001  -8.336882e+001 
4040625000  -3.931929e+001  -8.585247e+001 
4043750000  -3.937082e+001  -8.667398e+001 
4046875000  -3.904493e+001  -9.026703e+001 
4050000000  -3.837612e+001  -9.581898e+001 
4053125000  -3.902450e+001  -9.647186e+001 
4056250000  -3.932861e+001  -9.540897e+001 
4059375000  -3.816469e+001  -9.412331e+001 
4062500000  -3.672738e+001  -1.010192e+002 
4065625000  -3.670351e+001  -1.042403e+002 
4068750000  -3.649421e+001  -1.100424e+002 
4071875000  -3.572685e+001  -1.191809e+002 
4075000000  -3.594972e+001  -1.268158e+002 
4078125000  -3.663605e+001  -1.285258e+002 
4081250000  -3.610062e+001  -1.319225e+002 
4084375000  -3.558256e+001  -1.401811e+002 
4087500000  -3.594395e+001  -1.468898e+002 
4090625000  -3.676353e+001  -1.479729e+002 
4093750000  -3.644772e+001  -1.495822e+002 
4096875000  -3.618019e+001  -1.559192e+002 
4100000000  -3.689229e+001  -1.640524e+002 
4103125000  -3.768084e+001  -1.631934e+002 
4106250000  -3.764534e+001  -1.590199e+002 
4109375000  -3.652806e+001  -1.618153e+002 
4112500000  -3.608879e+001  -1.686556e+002 
4115625000  -3.639029e+001  -1.740706e+002 
4118750000  -3.668203e+001  -1.777213e+002 
4121875000  -3.633796e+001  1.766423e+002 
4125000000  -3.683053e+001  1.708026e+002 
4128125000  -3.792116e+001  1.711941e+002 
4131250000  -3.742325e+001  1.769060e+002 
4134375000  -3.532598e+001  1.711233e+002 
4137500000  -3.512624e+001  1.523137e+002 
4140625000  -3.738082e+001  1.442982e+002 
4143750000  -3.884155e+001  1.480169e+002 
4146875000  -3.839375e+001  1.559928e+002 
4150000000  -3.772073e+001  1.517350e+002 
4153125000  -3.746595e+001  1.451039e+002 
4156250000  -3.853295e+001  1.401890e+002 
4159375000  -3.885743e+001  1.443517e+002 
4162500000  -3.757209e+001  1.500398e+002 
4165625000  -3.664053e+001  1.444902e+002 
4168750000  -3.576829e+001  1.372685e+002 
4171875000  -3.591773e+001  1.270725e+002 
4175000000  -3.675658e+001  1.223758e+002 
4178125000  -3.714771e+001  1.217141e+002 
4181250000  -3.696584e+001  1.201504e+002 
4184375000  -3.680305e+001  1.158677e+002 
4187500000  -3.698832e+001  1.135738e+002 
4190625000  -3.656389e+001  1.078499e+002 
4193750000  -3.757371e+001  1.036565e+002 
4196875000  -3.792874e+001  1.025500e+002 
4200000000  -3.892499e+001  1.059912e+002 
4203125000  -3.870099e+001  1.175285e+002 
4206250000  -3.521391e+001  1.179341e+002 
4209375000  -3.430584e+001  9.573483e+001 
4212500000  -3.604410e+001  8.695808e+001 
4215625000  -3.684451e+001  9.189124e+001 
4218750000  -3.556838e+001  9.762003e+001 
4221875000  -3.334212e+001  8.797129e+001 
4225000000  -3.465222e+001  7.445559e+001 
4228125000  -3.514732e+001  7.943712e+001 
4231250000  -3.362000e+001  7.352893e+001 
4234375000  -3.335636e+001  6.487202e+001 
4237500000  -3.290162e+001  5.988287e+001 
4240625000  -3.299102e+001  5.056295e+001 
4243750000  -3.410768e+001  4.247616e+001 
4246875000  -3.489925e+001  4.140061e+001 
4250000000  -3.491867e+001  4.278592e+001 
4253125000  -3.434963e+001  3.868913e+001 
4256250000  -3.484082e+001  3.348850e+001 
4259375000  -3.437268e+001  2.944547e+001 
4262500000  -3.467454e+001  2.507914e+001 
4265625000  -3.488410e+001  2.679946e+001 
4268750000  -3.378410e+001  1.919420e+001 
4271875000  -3.384241e+001  1.340541e+001 
4275000000  -3.329794e+001  5.212930e+000 
4278125000  -3.393590e+001  -7.048884e+000 
4281250000  -3.617348e+001  -1.046210e+001 
4284375000  -3.572155e+001  -9.892657e+000 
4287500000  -3.665929e+001  -1.228080e+001 
4290625000  -3.813705e+001  -4.139663e+000 
4293750000  -3.614267e+001  1.102615e+000 
4296875000  -3.487596e+001  -9.851839e+000 
4300000000  -3.592273e+001  -2.048215e+001 
4303125000  -3.700896e+001  -1.814423e+001 
4306250000  -3.642336e+001  -1.099603e+001 
4309375000  -3.501754e+001  -1.364696e+001 
4312500000  -3.477507e+001  -2.147438e+001 
4315625000  -3.533009e+001  -2.867895e+001 
4318750000  -3.555721e+001  -3.172014e+001 
4321875000  -3.559677e+001  -3.000897e+001 
4325000000  -3.496309e+001  -3.071097e+001 
4328125000  -3.416949e+001  -3.757759e+001 
4331250000  -3.398890e+001  -4.618721e+001 
4334375000  -3.446489e+001  -5.150338e+001 
4337500000  -3.523095e+001  -5.412057e+001 
4340625000  -3.560427e+001  -5.059504e+001 
4343750000  -3.485098e+001  -5.105001e+001 
4346875000  -3.445684e+001  -5.733031e+001 
4350000000  -3.442968e+001  -6.299424e+001 
4353125000  -3.448148e+001  -7.287493e+001 
4356250000  -3.601861e+001  -7.238114e+001 
4359375000  -3.645552e+001  -6.012001e+001 
4362500000  -3.350517e+001  -5.957353e+001 
4365625000  -3.187755e+001  -7.455066e+001 
4368750000  -3.271407e+001  -8.697318e+001 
4371875000  -3.378688e+001  -8.666704e+001 
4375000000  -3.339479e+001  -8.807870e+001 
4378125000  -3.257745e+001  -9.539692e+001 
4381250000  -3.282684e+001  -1.013742e+002 
4384375000  -3.276978e+001  -1.085248e+002 
4387500000  -3.347002e+001  -1.151114e+002 
4390625000  -3.431809e+001  -1.158668e+002 
4393750000  -3.382685e+001  -1.145323e+002 
4396875000  -3.302086e+001  -1.182554e+002 
4400000000  -3.273678e+001  -1.268744e+002 
4403125000  -3.345826e+001  -1.356276e+002 
4406250000  -3.419937e+001  -1.386857e+002 
4409375000  -3.434611e+001  -1.418699e+002 
4412500000  -3.543200e+001  -1.452421e+002 
4415625000  -3.591945e+001  -1.414676e+002 
