!Agilent Technologies,E8363B,MY43030201,A.06.04.32
!Agilent E8363B: A.06.04.32
!Date: Tuesday, November 11, 2014 21:03:37
!Correction: S21(Response(S21)) 
!S1P File: Measurement: S21:
# Hz S  dB   R 50
3000000000  -3.640510e+001  -4.719835e+001 
3003125000  -3.749729e+001  -5.343015e+001 
3006250000  -3.743032e+001  -5.621811e+001 
3009375000  -3.761145e+001  -5.096241e+001 
3012500000  -3.701410e+001  -5.337669e+001 
3015625000  -3.613233e+001  -6.050532e+001 
3018750000  -3.680109e+001  -6.120104e+001 
3021875000  -3.540248e+001  -6.044408e+001 
3025000000  -3.407522e+001  -6.435209e+001 
3028125000  -3.317401e+001  -6.978543e+001 
3031250000  -3.210323e+001  -8.241883e+001 
3034375000  -3.184550e+001  -9.524034e+001 
3037500000  -3.219228e+001  -1.072916e+002 
3040625000  -3.357099e+001  -1.119811e+002 
3043750000  -3.423894e+001  -1.170930e+002 
3046875000  -3.435769e+001  -1.235943e+002 
3050000000  -3.598978e+001  -1.293358e+002 
3053125000  -3.605977e+001  -1.234119e+002 
3056250000  -3.537873e+001  -1.210532e+002 
3059375000  -3.559653e+001  -1.210274e+002 
3062500000  -3.412673e+001  -1.244667e+002 
3065625000  -3.389228e+001  -1.307095e+002 
3068750000  -3.355248e+001  -1.372146e+002 
3071875000  -3.351495e+001  -1.402163e+002 
3075000000  -3.328085e+001  -1.438021e+002 
3078125000  -3.302842e+001  -1.476770e+002 
3081250000  -3.354671e+001  -1.523237e+002 
3084375000  -3.263747e+001  -1.557385e+002 
3087500000  -3.241682e+001  -1.590386e+002 
3090625000  -3.198565e+001  -1.694191e+002 
3093750000  -3.234277e+001  -1.766951e+002 
3096875000  -3.343787e+001  1.770406e+002 
3100000000  -3.340010e+001  1.750468e+002 
3103125000  -3.360997e+001  1.754970e+002 
3106250000  -3.317343e+001  1.712877e+002 
3109375000  -3.324312e+001  1.672073e+002 
3112500000  -3.324706e+001  1.657228e+002 
3115625000  -3.279444e+001  1.606674e+002 
3118750000  -3.316560e+001  1.604362e+002 
3121875000  -3.226439e+001  1.514340e+002 
3125000000  -3.347445e+001  1.466042e+002 
3128125000  -3.453518e+001  1.540215e+002 
3131250000  -3.201471e+001  1.521370e+002 
3134375000  -3.076607e+001  1.371107e+002 
3137500000  -3.118563e+001  1.228560e+002 
3140625000  -3.287004e+001  1.190885e+002 
3143750000  -3.384037e+001  1.221814e+002 
3146875000  -3.330016e+001  1.222208e+002 
3150000000  -3.234368e+001  1.228308e+002 
3153125000  -3.231833e+001  1.137031e+002 
3156250000  -3.333035e+001  1.178347e+002 
3159375000  -3.161568e+001  1.193366e+002 
3162500000  -2.970522e+001  1.051171e+002 
3165625000  -3.075071e+001  9.279862e+001 
3168750000  -3.106070e+001  9.274972e+001 
3171875000  -3.025039e+001  8.768884e+001 
3175000000  -3.093757e+001  7.830432e+001 
3178125000  -3.072614e+001  7.910668e+001 
3181250000  -2.958413e+001  7.433039e+001 
3184375000  -2.887098e+001  6.126299e+001 
3187500000  -3.001565e+001  4.564720e+001 
3190625000  -3.283069e+001  3.750108e+001 
3193750000  -3.340766e+001  4.633788e+001 
3196875000  -3.298915e+001  5.141095e+001 
3200000000  -3.212279e+001  4.861232e+001 
3203125000  -3.128683e+001  4.249526e+001 
3206250000  -3.163193e+001  3.535023e+001 
3209375000  -3.113629e+001  2.968977e+001 
3212500000  -3.137605e+001  2.252943e+001 
3215625000  -3.143888e+001  1.872707e+001 
3218750000  -3.226937e+001  1.183096e+001 
3221875000  -3.304942e+001  5.848824e+000 
3225000000  -3.275084e+001  4.853589e+000 
3228125000  -3.303923e+001  -1.703651e-001 
3231250000  -3.373941e+001  -2.655681e+000 
3234375000  -3.341907e+001  -2.842342e+000 
3237500000  -3.337526e+001  -4.654478e+000 
3240625000  -3.303080e+001  -6.961194e+000 
3243750000  -3.266415e+001  -1.482956e+001 
3246875000  -3.304577e+001  -2.137880e+001 
3250000000  -3.343356e+001  -2.453535e+001 
3253125000  -3.347505e+001  -2.576420e+001 
3256250000  -3.317538e+001  -3.226776e+001 
3259375000  -3.344133e+001  -4.093202e+001 
3262500000  -3.466440e+001  -4.466484e+001 
3265625000  -3.519101e+001  -4.254292e+001 
3268750000  -3.518710e+001  -4.076109e+001 
3271875000  -3.480440e+001  -4.055308e+001 
3275000000  -3.366946e+001  -4.705933e+001 
3278125000  -3.419888e+001  -5.416764e+001 
3281250000  -3.441957e+001  -5.303867e+001 
3284375000  -3.393261e+001  -5.943316e+001 
3287500000  -3.408421e+001  -6.338765e+001 
3290625000  -3.432867e+001  -6.932310e+001 
3293750000  -3.410928e+001  -7.609491e+001 
3296875000  -3.510910e+001  -7.564741e+001 
3300000000  -3.494322e+001  -7.524512e+001 
3303125000  -3.377104e+001  -8.082427e+001 
3306250000  -3.355752e+001  -8.772796e+001 
3309375000  -3.325611e+001  -9.398006e+001 
3312500000  -3.328711e+001  -1.049985e+002 
3315625000  -3.433270e+001  -1.130028e+002 
3318750000  -3.570273e+001  -1.152125e+002 
3321875000  -3.670737e+001  -1.158519e+002 
3325000000  -3.742334e+001  -1.110773e+002 
3328125000  -3.701026e+001  -1.116874e+002 
3331250000  -3.577011e+001  -1.036309e+002 
3334375000  -3.312805e+001  -1.138931e+002 
3337500000  -3.319796e+001  -1.339706e+002 
3340625000  -3.442899e+001  -1.448493e+002 
3343750000  -3.637218e+001  -1.458079e+002 
3346875000  -3.678678e+001  -1.436234e+002 
3350000000  -3.610051e+001  -1.457411e+002 
3353125000  -3.596535e+001  -1.501387e+002 
3356250000  -3.566248e+001  -1.579980e+002 
3359375000  -3.643978e+001  -1.671954e+002 
3362500000  -3.768054e+001  -1.727005e+002 
3365625000  -3.795317e+001  -1.743341e+002 
3368750000  -3.871264e+001  -1.757028e+002 
3371875000  -3.897284e+001  -1.788996e+002 
3375000000  -4.046610e+001  1.774393e+002 
3378125000  -4.120914e+001  1.787783e+002 
3381250000  -4.248418e+001  -1.741187e+002 
3384375000  -4.088590e+001  -1.527851e+002 
3387500000  -3.778535e+001  -1.684612e+002 
3390625000  -3.931786e+001  1.727140e+002 
3393750000  -4.026859e+001  1.763641e+002 
3396875000  -3.937487e+001  1.787401e+002 
3400000000  -3.866085e+001  1.702968e+002 
3403125000  -3.941286e+001  1.641426e+002 
3406250000  -3.975979e+001  1.636339e+002 
3409375000  -3.982691e+001  1.560747e+002 
3412500000  -4.025708e+001  1.535181e+002 
3415625000  -4.098886e+001  1.537832e+002 
3418750000  -4.104206e+001  1.555170e+002 
3421875000  -4.143293e+001  1.578111e+002 
3425000000  -4.030836e+001  1.589344e+002 
3428125000  -3.940319e+001  1.544681e+002 
3431250000  -3.940522e+001  1.485757e+002 
3434375000  -3.918243e+001  1.411159e+002 
3437500000  -3.980096e+001  1.376791e+002 
3440625000  -4.006852e+001  1.399696e+002 
3443750000  -3.874026e+001  1.408208e+002 
3446875000  -3.805751e+001  1.326053e+002 
3450000000  -3.741950e+001  1.225809e+002 
3453125000  -3.790490e+001  1.122538e+002 
3456250000  -3.915400e+001  1.057871e+002 
3459375000  -3.990204e+001  1.075304e+002 
3462500000  -3.983361e+001  1.069346e+002 
3465625000  -3.985650e+001  1.010320e+002 
3468750000  -4.013084e+001  9.844513e+001 
3471875000  -4.027308e+001  9.702013e+001 
3475000000  -3.966154e+001  9.073212e+001 
3478125000  -4.048978e+001  8.436637e+001 
3481250000  -4.142647e+001  8.099621e+001 
3484375000  -4.216230e+001  8.606691e+001 
3487500000  -4.140773e+001  8.442677e+001 
3490625000  -4.078885e+001  8.005107e+001 
3493750000  -4.144441e+001  7.366360e+001 
3496875000  -4.201872e+001  7.229160e+001 
3500000000  -4.261115e+001  7.349908e+001 
3503125000  -4.215646e+001  7.699335e+001 
3506250000  -4.055951e+001  7.278426e+001 
3509375000  -4.055482e+001  6.187886e+001 
3512500000  -4.110616e+001  5.402800e+001 
3515625000  -4.197552e+001  5.282374e+001 
3518750000  -4.239204e+001  5.179554e+001 
3521875000  -4.241378e+001  4.946422e+001 
3525000000  -4.337568e+001  4.562066e+001 
3528125000  -4.339764e+001  5.435122e+001 
3531250000  -4.174528e+001  5.276575e+001 
3534375000  -4.186232e+001  4.086546e+001 
3537500000  -4.230956e+001  3.698768e+001 
3540625000  -4.324651e+001  3.510221e+001 
3543750000  -4.443096e+001  3.803062e+001 
3546875000  -4.405317e+001  5.233029e+001 
3550000000  -4.126411e+001  5.227475e+001 
3553125000  -3.998440e+001  3.449000e+001 
3556250000  -4.144901e+001  2.773837e+001 
3559375000  -4.106350e+001  2.829266e+001 
3562500000  -4.020675e+001  2.012562e+001 
3565625000  -4.096238e+001  9.846642e+000 
3568750000  -4.099769e+001  1.442356e+001 
3571875000  -4.088248e+001  1.288506e+001 
3575000000  -4.056525e+001  5.860416e+000 
3578125000  -4.131227e+001  1.185837e-001 
3581250000  -4.144203e+001  -8.069260e-002 
3584375000  -4.052092e+001  -5.563641e+000 
3587500000  -4.014790e+001  -1.291782e+001 
3590625000  -4.055893e+001  -2.332224e+001 
3593750000  -4.169990e+001  -2.439460e+001 
3596875000  -4.172995e+001  -1.945801e+001 
3600000000  -4.028193e+001  -2.488172e+001 
3603125000  -4.090084e+001  -3.874023e+001 
3606250000  -4.171455e+001  -4.294889e+001 
3609375000  -4.204620e+001  -4.538323e+001 
3612500000  -4.286064e+001  -5.013485e+001 
3615625000  -4.319553e+001  -5.236055e+001 
3618750000  -4.398508e+001  -5.081149e+001 
3621875000  -4.375791e+001  -5.463209e+001 
3625000000  -4.470680e+001  -5.511737e+001 
3628125000  -4.454237e+001  -5.638415e+001 
3631250000  -4.432484e+001  -6.065715e+001 
3634375000  -4.582734e+001  -6.000895e+001 
3637500000  -4.587150e+001  -5.572713e+001 
3640625000  -4.476688e+001  -4.988683e+001 
3643750000  -4.495054e+001  -5.650734e+001 
3646875000  -4.520987e+001  -6.742820e+001 
3650000000  -4.566795e+001  -6.344152e+001 
3653125000  -4.545229e+001  -6.805708e+001 
3656250000  -4.613118e+001  -6.561109e+001 
3659375000  -4.620230e+001  -6.348898e+001 
3662500000  -4.529028e+001  -6.348087e+001 
3665625000  -4.476563e+001  -6.440559e+001 
3668750000  -4.370865e+001  -6.489941e+001 
3671875000  -4.272099e+001  -7.441228e+001 
3675000000  -4.260511e+001  -8.039849e+001 
3678125000  -4.312878e+001  -7.940910e+001 
3681250000  -4.295302e+001  -8.258596e+001 
3684375000  -4.253409e+001  -8.680657e+001 
3687500000  -4.264870e+001  -8.972098e+001 
3690625000  -4.274639e+001  -9.531473e+001 
3693750000  -4.360711e+001  -9.620602e+001 
3696875000  -4.336580e+001  -9.559319e+001 
3700000000  -4.254089e+001  -1.015973e+002 
3703125000  -4.276444e+001  -1.066567e+002 
3706250000  -4.354392e+001  -1.081142e+002 
3709375000  -4.331622e+001  -1.066157e+002 
3712500000  -4.206123e+001  -1.089030e+002 
3715625000  -4.129218e+001  -1.156639e+002 
3718750000  -4.123936e+001  -1.213202e+002 
3721875000  -4.108182e+001  -1.283055e+002 
3725000000  -4.151929e+001  -1.354848e+002 
3728125000  -4.216222e+001  -1.339367e+002 
3731250000  -4.173779e+001  -1.368722e+002 
3734375000  -4.114427e+001  -1.450859e+002 
3737500000  -4.234564e+001  -1.522439e+002 
3740625000  -4.341449e+001  -1.546810e+002 
3743750000  -4.337456e+001  -1.574338e+002 
3746875000  -4.340930e+001  -1.588314e+002 
3750000000  -4.430153e+001  -1.591919e+002 
3753125000  -4.434004e+001  -1.612747e+002 
3756250000  -4.469032e+001  -1.579905e+002 
3759375000  -4.489155e+001  -1.568743e+002 
3762500000  -4.441072e+001  -1.619709e+002 
3765625000  -4.488529e+001  -1.612010e+002 
3768750000  -4.513652e+001  -1.568233e+002 
3771875000  -4.339433e+001  -1.587885e+002 
3775000000  -4.308302e+001  -1.648543e+002 
3778125000  -4.347120e+001  -1.671820e+002 
3781250000  -4.274730e+001  -1.674640e+002 
3784375000  -4.288676e+001  -1.703345e+002 
3787500000  -4.189541e+001  -1.703959e+002 
3790625000  -4.219886e+001  -1.784699e+002 
3793750000  -4.235399e+001  1.790169e+002 
3796875000  -4.122903e+001  1.787406e+002 
3800000000  -3.972007e+001  1.753814e+002 
3803125000  -4.007280e+001  1.657980e+002 
3806250000  -4.091166e+001  1.629968e+002 
3809375000  -4.040936e+001  1.612258e+002 
3812500000  -3.942846e+001  1.546271e+002 
3815625000  -4.054599e+001  1.454025e+002 
3818750000  -4.135746e+001  1.451895e+002 
3821875000  -4.137852e+001  1.500089e+002 
3825000000  -3.911046e+001  1.538239e+002 
3828125000  -3.798017e+001  1.376694e+002 
3831250000  -3.844698e+001  1.238844e+002 
3834375000  -3.987080e+001  1.230685e+002 
3837500000  -4.061269e+001  1.250782e+002 
3840625000  -4.016698e+001  1.226561e+002 
3843750000  -3.888945e+001  1.101479e+002 
3846875000  -3.986381e+001  1.043722e+002 
3850000000  -4.133228e+001  1.093806e+002 
3853125000  -4.026995e+001  1.127080e+002 
3856250000  -3.990051e+001  1.036666e+002 
3859375000  -3.963921e+001  9.869502e+001 
3862500000  -3.951196e+001  9.235159e+001 
3865625000  -3.981517e+001  8.654929e+001 
3868750000  -3.981896e+001  8.558768e+001 
3871875000  -3.924077e+001  8.228543e+001 
3875000000  -3.946400e+001  7.240497e+001 
3878125000  -4.095911e+001  6.994462e+001 
3881250000  -4.082494e+001  7.311655e+001 
3884375000  -4.045172e+001  6.813440e+001 
3887500000  -4.049229e+001  6.340760e+001 
3890625000  -4.091777e+001  6.254144e+001 
3893750000  -4.132206e+001  6.234619e+001 
3896875000  -4.176807e+001  6.287765e+001 
3900000000  -4.167544e+001  5.930249e+001 
3903125000  -4.106127e+001  5.589780e+001 
3906250000  -4.093490e+001  5.682797e+001 
3909375000  -4.050093e+001  5.090867e+001 
3912500000  -4.047502e+001  4.546574e+001 
3915625000  -4.161101e+001  4.600346e+001 
3918750000  -4.133095e+001  4.619529e+001 
3921875000  -4.072703e+001  4.276323e+001 
3925000000  -4.008265e+001  4.153925e+001 
3928125000  -3.909143e+001  3.496686e+001 
3931250000  -3.961843e+001  3.093853e+001 
3934375000  -3.992794e+001  2.946660e+001 
3937500000  -3.987768e+001  2.555403e+001 
3940625000  -4.044337e+001  2.546616e+001 
3943750000  -3.934703e+001  2.507695e+001 
3946875000  -3.819471e+001  1.940649e+001 
3950000000  -3.894545e+001  9.602060e+000 
3953125000  -3.989658e+001  6.890463e+000 
3956250000  -3.893274e+001  9.548176e+000 
3959375000  -3.756149e+001  6.644047e+000 
3962500000  -3.727357e+001  1.855831e+000 
3965625000  -3.697548e+001  -9.496078e+000 
3968750000  -3.813155e+001  -1.624758e+001 
3971875000  -3.845860e+001  -1.855172e+001 
3975000000  -3.769902e+001  -2.100739e+001 
3978125000  -3.768766e+001  -2.444927e+001 
3981250000  -3.768428e+001  -2.823483e+001 
3984375000  -3.787688e+001  -3.572242e+001 
3987500000  -3.856445e+001  -4.021866e+001 
3990625000  -3.844193e+001  -4.067919e+001 
3993750000  -3.894869e+001  -4.386491e+001 
3996875000  -3.905582e+001  -4.955738e+001 
4000000000  -3.930497e+001  -4.966071e+001 
4003125000  -3.977051e+001  -4.785093e+001 
4006250000  -3.847544e+001  -4.770940e+001 
4009375000  -3.740083e+001  -6.253809e+001 
4012500000  -3.869750e+001  -6.976511e+001 
4015625000  -3.992665e+001  -6.965459e+001 
4018750000  -4.022383e+001  -6.527023e+001 
4021875000  -3.938213e+001  -6.783272e+001 
4025000000  -3.914702e+001  -7.425776e+001 
4028125000  -3.901919e+001  -7.668451e+001 
4031250000  -3.968184e+001  -8.197045e+001 
4034375000  -3.975566e+001  -8.205509e+001 
4037500000  -3.923729e+001  -7.963996e+001 
4040625000  -3.929997e+001  -8.360386e+001 
4043750000  -3.943981e+001  -8.448202e+001 
4046875000  -3.905293e+001  -8.444285e+001 
4050000000  -3.833923e+001  -9.036827e+001 
4053125000  -3.899546e+001  -9.322968e+001 
4056250000  -3.938763e+001  -9.046909e+001 
4059375000  -3.823663e+001  -8.802254e+001 
4062500000  -3.679916e+001  -9.622073e+001 
4065625000  -3.683580e+001  -9.940615e+001 
4068750000  -3.616047e+001  -1.065815e+002 
4071875000  -3.566811e+001  -1.149996e+002 
4075000000  -3.600449e+001  -1.220134e+002 
4078125000  -3.651884e+001  -1.241318e+002 
4081250000  -3.584454e+001  -1.260753e+002 
4084375000  -3.553696e+001  -1.351335e+002 
4087500000  -3.587624e+001  -1.409549e+002 
4090625000  -3.658963e+001  -1.436143e+002 
4093750000  -3.630811e+001  -1.450321e+002 
4096875000  -3.598751e+001  -1.522316e+002 
4100000000  -3.673150e+001  -1.604356e+002 
4103125000  -3.753448e+001  -1.584443e+002 
4106250000  -3.733606e+001  -1.555400e+002 
4109375000  -3.646873e+001  -1.578301e+002 
4112500000  -3.596827e+001  -1.660328e+002 
4115625000  -3.645960e+001  -1.715416e+002 
4118750000  -3.669217e+001  -1.750633e+002 
4121875000  -3.609242e+001  1.787587e+002 
4125000000  -3.667432e+001  1.745311e+002 
4128125000  -3.792629e+001  1.738934e+002 
4131250000  -3.753182e+001  -1.787671e+002 
4134375000  -3.529096e+001  1.738235e+002 
4137500000  -3.510883e+001  1.552711e+002 
4140625000  -3.725380e+001  1.468806e+002 
4143750000  -3.889830e+001  1.523321e+002 
4146875000  -3.835295e+001  1.581372e+002 
4150000000  -3.757031e+001  1.537273e+002 
4153125000  -3.740983e+001  1.476153e+002 
4156250000  -3.862947e+001  1.439130e+002 
4159375000  -3.857204e+001  1.482139e+002 
4162500000  -3.770092e+001  1.527769e+002 
4165625000  -3.657146e+001  1.473055e+002 
4168750000  -3.595016e+001  1.413074e+002 
4171875000  -3.612771e+001  1.316475e+002 
4175000000  -3.680121e+001  1.255894e+002 
4178125000  -3.733141e+001  1.270313e+002 
4181250000  -3.694692e+001  1.249772e+002 
4184375000  -3.678652e+001  1.215513e+002 
4187500000  -3.671990e+001  1.187480e+002 
4190625000  -3.678321e+001  1.131741e+002 
4193750000  -3.726656e+001  1.080104e+002 
4196875000  -3.811990e+001  1.068418e+002 
4200000000  -3.902835e+001  1.089241e+002 
4203125000  -3.851520e+001  1.220718e+002 
4206250000  -3.521454e+001  1.233554e+002 
4209375000  -3.415670e+001  1.002954e+002 
4212500000  -3.608044e+001  9.159473e+001 
4215625000  -3.680696e+001  9.693254e+001 
4218750000  -3.553202e+001  1.031160e+002 
4221875000  -3.303022e+001  9.131235e+001 
4225000000  -3.428566e+001  7.869069e+001 
4228125000  -3.492341e+001  8.328029e+001 
4231250000  -3.333014e+001  7.907176e+001 
4234375000  -3.308657e+001  6.835845e+001 
4237500000  -3.273649e+001  6.473255e+001 
4240625000  -3.279454e+001  5.334354e+001 
4243750000  -3.387774e+001  4.561570e+001 
4246875000  -3.463579e+001  4.387628e+001 
4250000000  -3.460782e+001  4.505624e+001 
4253125000  -3.419808e+001  4.339523e+001 
4256250000  -3.458433e+001  3.715597e+001 
4259375000  -3.418412e+001  3.463622e+001 
4262500000  -3.428648e+001  3.040648e+001 
4265625000  -3.458780e+001  2.954589e+001 
4268750000  -3.367115e+001  2.380411e+001 
4271875000  -3.353235e+001  1.632167e+001 
4275000000  -3.321561e+001  8.291780e+000 
4278125000  -3.407536e+001  -3.195723e+000 
4281250000  -3.581553e+001  -4.539660e+000 
4284375000  -3.540065e+001  -6.338227e+000 
4287500000  -3.647046e+001  -1.005046e+001 
4290625000  -3.775064e+001  -9.108905e-001 
4293750000  -3.616507e+001  5.156099e+000 
4296875000  -3.491123e+001  -7.071249e+000 
4300000000  -3.585882e+001  -1.588628e+001 
4303125000  -3.692776e+001  -1.574883e+001 
4306250000  -3.619798e+001  -9.155790e+000 
4309375000  -3.496920e+001  -1.040856e+001 
4312500000  -3.485213e+001  -2.018892e+001 
4315625000  -3.509227e+001  -2.460954e+001 
4318750000  -3.532229e+001  -2.809377e+001 
4321875000  -3.551182e+001  -2.561293e+001 
4325000000  -3.473916e+001  -2.693780e+001 
4328125000  -3.417443e+001  -3.334550e+001 
4331250000  -3.406134e+001  -4.223764e+001 
4334375000  -3.427788e+001  -4.674322e+001 
4337500000  -3.487915e+001  -4.940870e+001 
4340625000  -3.542931e+001  -4.783706e+001 
4343750000  -3.459105e+001  -4.802253e+001 
4346875000  -3.428807e+001  -5.292582e+001 
4350000000  -3.410189e+001  -5.887654e+001 
4353125000  -3.401620e+001  -6.780930e+001 
4356250000  -3.562811e+001  -6.903178e+001 
4359375000  -3.598134e+001  -5.611618e+001 
4362500000  -3.305550e+001  -5.693454e+001 
4365625000  -3.173991e+001  -7.052178e+001 
4368750000  -3.239612e+001  -8.347248e+001 
4371875000  -3.345883e+001  -8.333611e+001 
4375000000  -3.295113e+001  -8.428050e+001 
4378125000  -3.231326e+001  -9.115364e+001 
4381250000  -3.249598e+001  -9.863803e+001 
4384375000  -3.226935e+001  -1.045845e+002 
4387500000  -3.309524e+001  -1.117461e+002 
4390625000  -3.406808e+001  -1.117719e+002 
4393750000  -3.338232e+001  -1.116230e+002 
4396875000  -3.283220e+001  -1.154069e+002 
4400000000  -3.224665e+001  -1.238269e+002 
4403125000  -3.300124e+001  -1.324516e+002 
4406250000  -3.395270e+001  -1.356515e+002 
4409375000  -3.391756e+001  -1.391893e+002 
4412500000  -3.514478e+001  -1.422133e+002 
4415625000  -3.561269e+001  -1.383686e+002 
