!Agilent Technologies,E8363B,MY43030201,A.06.04.32
!Agilent E8363B: A.06.04.32
!Date: Tuesday, November 11, 2014 21:05:46
!Correction: S21(Response(S21)) 
!S1P File: Measurement: S21:
# Hz S  dB   R 50
3000000000  -3.654473e+001  -4.927742e+001 
3003125000  -3.755923e+001  -5.507670e+001 
3006250000  -3.740158e+001  -5.827929e+001 
3009375000  -3.783704e+001  -5.311059e+001 
3012500000  -3.697467e+001  -5.420068e+001 
3015625000  -3.615824e+001  -6.236972e+001 
3018750000  -3.689559e+001  -6.350667e+001 
3021875000  -3.549857e+001  -6.295613e+001 
3025000000  -3.408935e+001  -6.626372e+001 
3028125000  -3.310762e+001  -7.210313e+001 
3031250000  -3.217628e+001  -8.409037e+001 
3034375000  -3.177945e+001  -9.763309e+001 
3037500000  -3.225739e+001  -1.092958e+002 
3040625000  -3.356251e+001  -1.146214e+002 
3043750000  -3.425597e+001  -1.192468e+002 
3046875000  -3.440034e+001  -1.252773e+002 
3050000000  -3.615244e+001  -1.312316e+002 
3053125000  -3.618315e+001  -1.258888e+002 
3056250000  -3.559195e+001  -1.228984e+002 
3059375000  -3.564536e+001  -1.229247e+002 
3062500000  -3.399663e+001  -1.261938e+002 
3065625000  -3.385317e+001  -1.329446e+002 
3068750000  -3.356712e+001  -1.395713e+002 
3071875000  -3.357954e+001  -1.421927e+002 
3075000000  -3.339079e+001  -1.455090e+002 
3078125000  -3.296011e+001  -1.500191e+002 
3081250000  -3.355750e+001  -1.544180e+002 
3084375000  -3.261194e+001  -1.573326e+002 
3087500000  -3.245642e+001  -1.617897e+002 
3090625000  -3.198748e+001  -1.723493e+002 
3093750000  -3.246465e+001  -1.792911e+002 
3096875000  -3.350176e+001  1.746603e+002 
3100000000  -3.343330e+001  1.724355e+002 
3103125000  -3.361752e+001  1.733985e+002 
3106250000  -3.318404e+001  1.693245e+002 
3109375000  -3.324708e+001  1.651097e+002 
3112500000  -3.315172e+001  1.627694e+002 
3115625000  -3.290856e+001  1.581760e+002 
3118750000  -3.313808e+001  1.578360e+002 
3121875000  -3.232962e+001  1.489195e+002 
3125000000  -3.351114e+001  1.445417e+002 
3128125000  -3.446711e+001  1.518060e+002 
3131250000  -3.200283e+001  1.501663e+002 
3134375000  -3.079484e+001  1.353784e+002 
3137500000  -3.127049e+001  1.205381e+002 
3140625000  -3.275907e+001  1.176469e+002 
3143750000  -3.382459e+001  1.194919e+002 
3146875000  -3.329795e+001  1.201731e+002 
3150000000  -3.229033e+001  1.204993e+002 
3153125000  -3.224861e+001  1.113774e+002 
3156250000  -3.334720e+001  1.157888e+002 
3159375000  -3.160662e+001  1.174477e+002 
3162500000  -2.971106e+001  1.026627e+002 
3165625000  -3.069022e+001  9.027287e+001 
3168750000  -3.094908e+001  9.094107e+001 
3171875000  -3.018628e+001  8.509565e+001 
3175000000  -3.096078e+001  7.625766e+001 
3178125000  -3.067841e+001  7.690675e+001 
3181250000  -2.956464e+001  7.207400e+001 
3184375000  -2.883303e+001  5.881152e+001 
3187500000  -3.003213e+001  4.325763e+001 
3190625000  -3.278392e+001  3.553897e+001 
3193750000  -3.334031e+001  4.401632e+001 
3196875000  -3.296248e+001  4.852200e+001 
3200000000  -3.211100e+001  4.623364e+001 
3203125000  -3.127985e+001  3.962218e+001 
3206250000  -3.161856e+001  3.313639e+001 
3209375000  -3.116388e+001  2.723496e+001 
3212500000  -3.133798e+001  2.001502e+001 
3215625000  -3.140987e+001  1.618078e+001 
3218750000  -3.223024e+001  8.783139e+000 
3221875000  -3.309697e+001  3.348193e+000 
3225000000  -3.264609e+001  2.333722e+000 
3228125000  -3.292832e+001  -2.710672e+000 
3231250000  -3.369474e+001  -5.167716e+000 
3234375000  -3.345490e+001  -4.883825e+000 
3237500000  -3.331129e+001  -7.171750e+000 
3240625000  -3.297836e+001  -9.538486e+000 
3243750000  -3.261197e+001  -1.746105e+001 
3246875000  -3.293364e+001  -2.469231e+001 
3250000000  -3.342298e+001  -2.667719e+001 
3253125000  -3.351333e+001  -2.873970e+001 
3256250000  -3.316866e+001  -3.540129e+001 
3259375000  -3.342642e+001  -4.398209e+001 
3262500000  -3.459109e+001  -4.756003e+001 
3265625000  -3.524505e+001  -4.527737e+001 
3268750000  -3.505856e+001  -4.283417e+001 
3271875000  -3.466275e+001  -4.351658e+001 
3275000000  -3.373782e+001  -5.004760e+001 
3278125000  -3.417881e+001  -5.692443e+001 
3281250000  -3.436051e+001  -5.588209e+001 
3284375000  -3.393621e+001  -6.292693e+001 
3287500000  -3.402101e+001  -6.587852e+001 
3290625000  -3.432470e+001  -7.219369e+001 
3293750000  -3.410834e+001  -7.779810e+001 
3296875000  -3.513977e+001  -7.929634e+001 
3300000000  -3.485354e+001  -7.836327e+001 
3303125000  -3.375248e+001  -8.346592e+001 
3306250000  -3.349110e+001  -9.027222e+001 
3309375000  -3.319122e+001  -9.617093e+001 
3312500000  -3.338306e+001  -1.077301e+002 
3315625000  -3.418778e+001  -1.155735e+002 
3318750000  -3.562541e+001  -1.190988e+002 
3321875000  -3.682034e+001  -1.185062e+002 
3325000000  -3.724939e+001  -1.132806e+002 
3328125000  -3.686739e+001  -1.142438e+002 
3331250000  -3.563816e+001  -1.067657e+002 
3334375000  -3.300624e+001  -1.168052e+002 
3337500000  -3.313432e+001  -1.363043e+002 
3340625000  -3.444509e+001  -1.475578e+002 
3343750000  -3.640692e+001  -1.481669e+002 
3346875000  -3.668863e+001  -1.461355e+002 
3350000000  -3.602234e+001  -1.481242e+002 
3353125000  -3.598194e+001  -1.525600e+002 
3356250000  -3.556894e+001  -1.620038e+002 
3359375000  -3.636069e+001  -1.693814e+002 
3362500000  -3.757653e+001  -1.758869e+002 
3365625000  -3.794263e+001  -1.759277e+002 
3368750000  -3.889645e+001  -1.799414e+002 
3371875000  -3.905953e+001  1.774787e+002 
3375000000  -4.052966e+001  1.748378e+002 
3378125000  -4.114663e+001  1.762535e+002 
3381250000  -4.257883e+001  -1.755735e+002 
3384375000  -4.149700e+001  -1.547481e+002 
3387500000  -3.763570e+001  -1.719608e+002 
3390625000  -3.928287e+001  1.695061e+002 
3393750000  -4.015891e+001  1.725357e+002 
3396875000  -3.910313e+001  1.748094e+002 
3400000000  -3.865037e+001  1.663201e+002 
3403125000  -3.937159e+001  1.610494e+002 
3406250000  -3.965358e+001  1.618224e+002 
3409375000  -3.967330e+001  1.530996e+002 
3412500000  -4.039336e+001  1.502015e+002 
3415625000  -4.070534e+001  1.517630e+002 
3418750000  -4.121532e+001  1.524016e+002 
3421875000  -4.125781e+001  1.558069e+002 
3425000000  -4.052934e+001  1.557207e+002 
3428125000  -3.929487e+001  1.507449e+002 
3431250000  -3.932891e+001  1.455227e+002 
3434375000  -3.916155e+001  1.382489e+002 
3437500000  -3.998515e+001  1.347421e+002 
3440625000  -3.995443e+001  1.364598e+002 
3443750000  -3.888745e+001  1.389230e+002 
3446875000  -3.803485e+001  1.299702e+002 
3450000000  -3.779639e+001  1.188621e+002 
3453125000  -3.798882e+001  1.086068e+002 
3456250000  -3.922362e+001  1.036255e+002 
3459375000  -4.014454e+001  1.040483e+002 
3462500000  -3.991416e+001  1.029847e+002 
3465625000  -3.993305e+001  9.837755e+001 
3468750000  -4.023223e+001  9.292679e+001 
3471875000  -3.997492e+001  9.207996e+001 
3475000000  -3.982889e+001  8.936473e+001 
3478125000  -4.046627e+001  7.966419e+001 
3481250000  -4.112654e+001  7.797532e+001 
3484375000  -4.218707e+001  8.162450e+001 
3487500000  -4.151646e+001  8.164742e+001 
3490625000  -4.091492e+001  7.832224e+001 
3493750000  -4.147810e+001  7.110341e+001 
3496875000  -4.206409e+001  6.773409e+001 
3500000000  -4.264578e+001  7.315284e+001 
3503125000  -4.219327e+001  7.205099e+001 
3506250000  -4.075769e+001  6.723428e+001 
3509375000  -4.091737e+001  5.925824e+001 
3512500000  -4.129967e+001  4.997857e+001 
3515625000  -4.192087e+001  4.650968e+001 
3518750000  -4.242005e+001  4.966406e+001 
3521875000  -4.213005e+001  4.786342e+001 
3525000000  -4.347448e+001  4.343650e+001 
3528125000  -4.357806e+001  5.087453e+001 
3531250000  -4.203652e+001  4.863201e+001 
3534375000  -4.224694e+001  3.779815e+001 
3537500000  -4.227244e+001  3.310037e+001 
3540625000  -4.341695e+001  3.258105e+001 
3543750000  -4.427317e+001  3.488137e+001 
3546875000  -4.394178e+001  4.830130e+001 
3550000000  -4.135774e+001  4.729182e+001 
3553125000  -4.007830e+001  3.156455e+001 
3556250000  -4.157166e+001  2.370594e+001 
3559375000  -4.157622e+001  2.663787e+001 
3562500000  -4.024342e+001  1.672907e+001 
3565625000  -4.090313e+001  8.522925e+000 
3568750000  -4.126804e+001  1.353689e+001 
3571875000  -4.122527e+001  9.774961e+000 
3575000000  -4.077274e+001  2.622563e+000 
3578125000  -4.127050e+001  -1.306595e+000 
3581250000  -4.118379e+001  -3.173901e+000 
3584375000  -4.040073e+001  -7.356430e+000 
3587500000  -4.001814e+001  -1.469641e+001 
3590625000  -4.070227e+001  -2.630181e+001 
3593750000  -4.185246e+001  -2.730663e+001 
3596875000  -4.163209e+001  -2.199036e+001 
3600000000  -4.037970e+001  -2.621014e+001 
3603125000  -4.063192e+001  -4.060432e+001 
3606250000  -4.153468e+001  -4.604605e+001 
3609375000  -4.222737e+001  -4.775883e+001 
3612500000  -4.267990e+001  -5.174654e+001 
3615625000  -4.323902e+001  -5.421383e+001 
3618750000  -4.387363e+001  -5.583485e+001 
3621875000  -4.339867e+001  -5.756844e+001 
3625000000  -4.429281e+001  -5.587142e+001 
3628125000  -4.459980e+001  -5.748856e+001 
3631250000  -4.420793e+001  -6.421994e+001 
3634375000  -4.626570e+001  -6.452218e+001 
3637500000  -4.586350e+001  -6.067399e+001 
3640625000  -4.477184e+001  -5.624982e+001 
3643750000  -4.438680e+001  -6.244541e+001 
3646875000  -4.524445e+001  -6.650936e+001 
3650000000  -4.596964e+001  -6.805038e+001 
3653125000  -4.527988e+001  -6.853874e+001 
3656250000  -4.549314e+001  -6.860476e+001 
3659375000  -4.618782e+001  -6.565158e+001 
3662500000  -4.484769e+001  -6.760474e+001 
3665625000  -4.487157e+001  -6.692428e+001 
3668750000  -4.357047e+001  -6.491815e+001 
3671875000  -4.268902e+001  -7.501757e+001 
3675000000  -4.319056e+001  -8.284917e+001 
3678125000  -4.315994e+001  -8.140748e+001 
3681250000  -4.281323e+001  -8.709087e+001 
3684375000  -4.282116e+001  -9.018808e+001 
3687500000  -4.296270e+001  -9.559830e+001 
3690625000  -4.291209e+001  -1.000334e+002 
3693750000  -4.372266e+001  -1.013499e+002 
3696875000  -4.373159e+001  -9.964932e+001 
3700000000  -4.277160e+001  -1.060236e+002 
3703125000  -4.264288e+001  -1.093362e+002 
3706250000  -4.382562e+001  -1.096584e+002 
3709375000  -4.342716e+001  -1.089604e+002 
3712500000  -4.220229e+001  -1.130021e+002 
3715625000  -4.188931e+001  -1.175580e+002 
3718750000  -4.139725e+001  -1.237304e+002 
3721875000  -4.105070e+001  -1.289730e+002 
3725000000  -4.147651e+001  -1.370603e+002 
3728125000  -4.211618e+001  -1.358889e+002 
3731250000  -4.150556e+001  -1.403056e+002 
3734375000  -4.111934e+001  -1.488666e+002 
3737500000  -4.207243e+001  -1.558769e+002 
3740625000  -4.299586e+001  -1.581554e+002 
3743750000  -4.308184e+001  -1.603012e+002 
3746875000  -4.374114e+001  -1.629238e+002 
3750000000  -4.426937e+001  -1.637806e+002 
3753125000  -4.423818e+001  -1.628460e+002 
3756250000  -4.448855e+001  -1.613075e+002 
3759375000  -4.494575e+001  -1.626208e+002 
3762500000  -4.413995e+001  -1.660235e+002 
3765625000  -4.494389e+001  -1.646022e+002 
3768750000  -4.463634e+001  -1.612797e+002 
3771875000  -4.325087e+001  -1.633405e+002 
3775000000  -4.289392e+001  -1.679497e+002 
3778125000  -4.353045e+001  -1.712393e+002 
3781250000  -4.287230e+001  -1.715947e+002 
3784375000  -4.283464e+001  -1.726262e+002 
3787500000  -4.167972e+001  -1.760715e+002 
3790625000  -4.206662e+001  1.778002e+002 
3793750000  -4.206714e+001  1.758138e+002 
3796875000  -4.114659e+001  1.751915e+002 
3800000000  -3.973610e+001  1.719874e+002 
3803125000  -4.009375e+001  1.608973e+002 
3806250000  -4.103222e+001  1.598202e+002 
3809375000  -4.055087e+001  1.578272e+002 
3812500000  -3.951941e+001  1.519608e+002 
3815625000  -4.058232e+001  1.423923e+002 
3818750000  -4.154602e+001  1.410573e+002 
3821875000  -4.120399e+001  1.504017e+002 
3825000000  -3.926714e+001  1.520696e+002 
3828125000  -3.780775e+001  1.337131e+002 
3831250000  -3.873141e+001  1.193610e+002 
3834375000  -4.024497e+001  1.174159e+002 
3837500000  -4.117313e+001  1.215051e+002 
3840625000  -3.996752e+001  1.199854e+002 
3843750000  -3.913513e+001  1.093343e+002 
3846875000  -3.958407e+001  1.007318e+002 
3850000000  -4.120531e+001  1.064457e+002 
3853125000  -4.060665e+001  1.083996e+002 
3856250000  -4.015585e+001  1.034673e+002 
3859375000  -3.977923e+001  9.830341e+001 
3862500000  -3.921262e+001  9.039003e+001 
3865625000  -3.967670e+001  8.538653e+001 
3868750000  -3.976380e+001  8.144328e+001 
3871875000  -3.935318e+001  7.907375e+001 
3875000000  -3.952198e+001  6.915770e+001 
3878125000  -4.050692e+001  6.720213e+001 
3881250000  -4.071789e+001  7.063812e+001 
3884375000  -4.025191e+001  6.539646e+001 
3887500000  -4.057372e+001  6.144474e+001 
3890625000  -4.097015e+001  5.989514e+001 
3893750000  -4.095118e+001  5.626701e+001 
3896875000  -4.176282e+001  5.787006e+001 
3900000000  -4.208029e+001  5.672577e+001 
3903125000  -4.115611e+001  5.440847e+001 
3906250000  -4.075528e+001  4.991901e+001 
3909375000  -4.005659e+001  4.945127e+001 
3912500000  -4.014112e+001  4.125426e+001 
3915625000  -4.121735e+001  4.260305e+001 
3918750000  -4.121420e+001  4.107832e+001 
3921875000  -4.057395e+001  3.881888e+001 
3925000000  -3.964227e+001  3.637922e+001 
3928125000  -3.922618e+001  2.972853e+001 
3931250000  -3.969273e+001  2.612387e+001 
3934375000  -3.986426e+001  2.463858e+001 
3937500000  -3.982221e+001  2.433905e+001 
3940625000  -4.047890e+001  2.038990e+001 
3943750000  -3.945514e+001  2.270877e+001 
3946875000  -3.821658e+001  1.556874e+001 
3950000000  -3.896555e+001  6.727033e+000 
3953125000  -3.974129e+001  4.030497e+000 
3956250000  -3.903737e+001  7.042295e+000 
3959375000  -3.783385e+001  2.651124e+000 
3962500000  -3.715517e+001  -1.406269e+000 
3965625000  -3.713539e+001  -1.313423e+001 
3968750000  -3.807753e+001  -1.923629e+001 
3971875000  -3.837147e+001  -2.153947e+001 
3975000000  -3.767033e+001  -2.348775e+001 
3978125000  -3.781919e+001  -2.741887e+001 
3981250000  -3.776696e+001  -3.246590e+001 
3984375000  -3.802227e+001  -4.004227e+001 
3987500000  -3.862690e+001  -4.224008e+001 
3990625000  -3.865092e+001  -4.477288e+001 
3993750000  -3.883623e+001  -4.876137e+001 
3996875000  -3.904573e+001  -5.011174e+001 
4000000000  -3.904454e+001  -5.346955e+001 
4003125000  -3.955689e+001  -5.072255e+001 
4006250000  -3.826082e+001  -5.309186e+001 
4009375000  -3.730975e+001  -6.546064e+001 
4012500000  -3.863733e+001  -7.286013e+001 
4015625000  -3.978960e+001  -7.409454e+001 
4018750000  -3.986760e+001  -7.117905e+001 
4021875000  -3.935258e+001  -7.327374e+001 
4025000000  -3.888851e+001  -7.502741e+001 
4028125000  -3.916032e+001  -8.096400e+001 
4031250000  -3.944472e+001  -8.473319e+001 
4034375000  -3.982537e+001  -8.652995e+001 
4037500000  -3.941308e+001  -8.463300e+001 
4040625000  -3.916862e+001  -8.795607e+001 
4043750000  -3.934954e+001  -8.821394e+001 
4046875000  -3.885265e+001  -8.921217e+001 
4050000000  -3.850365e+001  -9.708202e+001 
4053125000  -3.894027e+001  -9.793768e+001 
4056250000  -3.958357e+001  -9.465887e+001 
4059375000  -3.780951e+001  -9.420345e+001 
4062500000  -3.673087e+001  -1.000324e+002 
4065625000  -3.657588e+001  -1.043744e+002 
4068750000  -3.628784e+001  -1.112953e+002 
4071875000  -3.579078e+001  -1.203413e+002 
4075000000  -3.587939e+001  -1.267355e+002 
4078125000  -3.666807e+001  -1.289785e+002 
4081250000  -3.612000e+001  -1.324552e+002 
4084375000  -3.564807e+001  -1.390919e+002 
4087500000  -3.602565e+001  -1.468204e+002 
4090625000  -3.666610e+001  -1.484713e+002 
4093750000  -3.634719e+001  -1.485265e+002 
4096875000  -3.609109e+001  -1.559075e+002 
4100000000  -3.694333e+001  -1.640448e+002 
4103125000  -3.757723e+001  -1.638338e+002 
4106250000  -3.764516e+001  -1.607262e+002 
4109375000  -3.664491e+001  -1.619008e+002 
4112500000  -3.616303e+001  -1.700593e+002 
4115625000  -3.646410e+001  -1.743904e+002 
4118750000  -3.678490e+001  -1.781671e+002 
4121875000  -3.622910e+001  1.768595e+002 
4125000000  -3.688630e+001  1.694763e+002 
4128125000  -3.777202e+001  1.705439e+002 
4131250000  -3.757348e+001  1.754674e+002 
4134375000  -3.531372e+001  1.712065e+002 
4137500000  -3.534614e+001  1.509310e+002 
4140625000  -3.731874e+001  1.439925e+002 
4143750000  -3.869131e+001  1.471796e+002 
4146875000  -3.812861e+001  1.539505e+002 
4150000000  -3.758385e+001  1.497021e+002 
4153125000  -3.734655e+001  1.424008e+002 
4156250000  -3.875986e+001  1.404304e+002 
4159375000  -3.864731e+001  1.456330e+002 
4162500000  -3.796645e+001  1.472897e+002 
4165625000  -3.665396e+001  1.442823e+002 
4168750000  -3.592727e+001  1.362352e+002 
4171875000  -3.606679e+001  1.266903e+002 
4175000000  -3.692655e+001  1.211574e+002 
4178125000  -3.735773e+001  1.212732e+002 
4181250000  -3.684763e+001  1.206927e+002 
4184375000  -3.687341e+001  1.159608e+002 
4187500000  -3.680113e+001  1.127805e+002 
4190625000  -3.664499e+001  1.063841e+002 
4193750000  -3.747157e+001  1.042752e+002 
4196875000  -3.823217e+001  1.019284e+002 
4200000000  -3.883573e+001  1.027372e+002 
4203125000  -3.871147e+001  1.176255e+002 
4206250000  -3.521754e+001  1.177631e+002 
4209375000  -3.415702e+001  9.470673e+001 
4212500000  -3.616831e+001  8.609621e+001 
4215625000  -3.700476e+001  9.253139e+001 
4218750000  -3.536913e+001  9.823618e+001 
4221875000  -3.329971e+001  8.788248e+001 
4225000000  -3.449674e+001  7.425248e+001 
4228125000  -3.501360e+001  7.810779e+001 
4231250000  -3.349888e+001  7.339608e+001 
4234375000  -3.350356e+001  6.364563e+001 
4237500000  -3.287772e+001  6.017663e+001 
4240625000  -3.292089e+001  5.037680e+001 
4243750000  -3.399313e+001  4.212164e+001 
4246875000  -3.488739e+001  4.069348e+001 
4250000000  -3.497466e+001  4.332564e+001 
4253125000  -3.431652e+001  3.826519e+001 
4256250000  -3.482647e+001  3.264537e+001 
4259375000  -3.445414e+001  3.090555e+001 
4262500000  -3.473014e+001  2.508924e+001 
4265625000  -3.472227e+001  2.436946e+001 
4268750000  -3.393082e+001  1.947688e+001 
4271875000  -3.386224e+001  1.265798e+001 
4275000000  -3.339962e+001  4.461799e+000 
4278125000  -3.408287e+001  -6.983854e+000 
4281250000  -3.615625e+001  -9.890882e+000 
4284375000  -3.600833e+001  -1.100954e+001 
4287500000  -3.677521e+001  -1.461115e+001 
4290625000  -3.809343e+001  -3.650023e+000 
4293750000  -3.605784e+001  9.188330e-001 
4296875000  -3.512367e+001  -1.085027e+001 
4300000000  -3.611554e+001  -2.006568e+001 
4303125000  -3.702454e+001  -1.812825e+001 
4306250000  -3.649792e+001  -1.224414e+001 
4309375000  -3.510534e+001  -1.516183e+001 
4312500000  -3.480399e+001  -2.197108e+001 
4315625000  -3.524029e+001  -2.979825e+001 
4318750000  -3.548796e+001  -3.205669e+001 
4321875000  -3.564882e+001  -3.071138e+001 
4325000000  -3.496548e+001  -3.047707e+001 
4328125000  -3.435833e+001  -3.782016e+001 
4331250000  -3.405946e+001  -4.701323e+001 
4334375000  -3.455633e+001  -5.169149e+001 
4337500000  -3.518036e+001  -5.324483e+001 
4340625000  -3.579108e+001  -5.199549e+001 
4343750000  -3.493401e+001  -5.197313e+001 
4346875000  -3.448166e+001  -5.709372e+001 
4350000000  -3.439505e+001  -6.429671e+001 
4353125000  -3.435412e+001  -7.328882e+001 
4356250000  -3.610116e+001  -7.329520e+001 
4359375000  -3.650488e+001  -6.064581e+001 
4362500000  -3.348011e+001  -6.110937e+001 
4365625000  -3.205963e+001  -7.450775e+001 
4368750000  -3.270177e+001  -8.678101e+001 
4371875000  -3.381900e+001  -8.651582e+001 
4375000000  -3.336862e+001  -8.914812e+001 
4378125000  -3.266049e+001  -9.602405e+001 
4381250000  -3.293217e+001  -1.034321e+002 
4384375000  -3.270912e+001  -1.096283e+002 
4387500000  -3.337258e+001  -1.155843e+002 
4390625000  -3.433455e+001  -1.170693e+002 
4393750000  -3.376966e+001  -1.152255e+002 
4396875000  -3.317427e+001  -1.196655e+002 
4400000000  -3.265684e+001  -1.272990e+002 
4403125000  -3.350150e+001  -1.362361e+002 
4406250000  -3.411890e+001  -1.387119e+002 
4409375000  -3.437929e+001  -1.420585e+002 
4412500000  -3.561245e+001  -1.453625e+002 
4415625000  -3.591311e+001  -1.417732e+002 
