!Agilent Technologies,E8363B,MY43030201,A.06.04.32
!Agilent E8363B: A.06.04.32
!Date: Tuesday, November 11, 2014 21:09:53
!Correction: S21(Response(S21)) 
!S1P File: Measurement: S21:
# Hz S  dB   R 50
3000000000  -3.649440e+001  -5.524530e+001 
3003125000  -3.775648e+001  -6.278576e+001 
3006250000  -3.754745e+001  -6.373737e+001 
3009375000  -3.781463e+001  -5.862373e+001 
3012500000  -3.704303e+001  -6.145967e+001 
3015625000  -3.612070e+001  -6.838745e+001 
3018750000  -3.703728e+001  -6.857513e+001 
3021875000  -3.549093e+001  -6.903567e+001 
3025000000  -3.417717e+001  -7.195644e+001 
3028125000  -3.326203e+001  -7.905305e+001 
3031250000  -3.220453e+001  -9.018668e+001 
3034375000  -3.184207e+001  -1.040673e+002 
3037500000  -3.226767e+001  -1.160208e+002 
3040625000  -3.367473e+001  -1.206987e+002 
3043750000  -3.429407e+001  -1.256910e+002 
3046875000  -3.451688e+001  -1.321455e+002 
3050000000  -3.618416e+001  -1.372650e+002 
3053125000  -3.598806e+001  -1.318048e+002 
3056250000  -3.561778e+001  -1.285446e+002 
3059375000  -3.568573e+001  -1.286759e+002 
3062500000  -3.419061e+001  -1.323094e+002 
3065625000  -3.401007e+001  -1.385970e+002 
3068750000  -3.360739e+001  -1.456795e+002 
3071875000  -3.351781e+001  -1.476078e+002 
3075000000  -3.334856e+001  -1.519856e+002 
3078125000  -3.309747e+001  -1.557702e+002 
3081250000  -3.349496e+001  -1.605673e+002 
3084375000  -3.265300e+001  -1.635212e+002 
3087500000  -3.251677e+001  -1.682125e+002 
3090625000  -3.200699e+001  -1.782615e+002 
3093750000  -3.245195e+001  1.745343e+002 
3096875000  -3.350830e+001  1.686742e+002 
3100000000  -3.335933e+001  1.668717e+002 
3103125000  -3.371630e+001  1.675163e+002 
3106250000  -3.318525e+001  1.632007e+002 
3109375000  -3.326229e+001  1.592641e+002 
3112500000  -3.320277e+001  1.568043e+002 
3115625000  -3.286557e+001  1.524643e+002 
3118750000  -3.322050e+001  1.526548e+002 
3121875000  -3.234746e+001  1.424476e+002 
3125000000  -3.358958e+001  1.387825e+002 
3128125000  -3.451059e+001  1.454277e+002 
3131250000  -3.202174e+001  1.438085e+002 
3134375000  -3.075472e+001  1.286386e+002 
3137500000  -3.135011e+001  1.141092e+002 
3140625000  -3.290771e+001  1.116765e+002 
3143750000  -3.378496e+001  1.128779e+002 
3146875000  -3.327069e+001  1.140836e+002 
3150000000  -3.231586e+001  1.141955e+002 
3153125000  -3.229725e+001  1.052070e+002 
3156250000  -3.333356e+001  1.100689e+002 
3159375000  -3.154344e+001  1.113873e+002 
3162500000  -2.968738e+001  9.616297e+001 
3165625000  -3.075705e+001  8.411887e+001 
3168750000  -3.096126e+001  8.417384e+001 
3171875000  -3.020446e+001  7.872935e+001 
3175000000  -3.092823e+001  6.966962e+001 
3178125000  -3.062328e+001  7.073524e+001 
3181250000  -2.959031e+001  6.512667e+001 
3184375000  -2.888920e+001  5.236072e+001 
3187500000  -3.023838e+001  3.705794e+001 
3190625000  -3.272828e+001  3.018733e+001 
3193750000  -3.330861e+001  3.800429e+001 
3196875000  -3.303142e+001  4.258042e+001 
3200000000  -3.198957e+001  3.989751e+001 
3203125000  -3.126036e+001  3.306432e+001 
3206250000  -3.154864e+001  2.662200e+001 
3209375000  -3.113812e+001  2.068612e+001 
3212500000  -3.136952e+001  1.428735e+001 
3215625000  -3.145402e+001  9.931161e+000 
3218750000  -3.219171e+001  2.253422e+000 
3221875000  -3.297350e+001  -2.105884e+000 
3225000000  -3.259580e+001  -3.302382e+000 
3228125000  -3.309491e+001  -8.952986e+000 
3231250000  -3.367740e+001  -1.193685e+001 
3234375000  -3.336662e+001  -1.172281e+001 
3237500000  -3.339612e+001  -1.366813e+001 
3240625000  -3.297415e+001  -1.611834e+001 
3243750000  -3.263781e+001  -2.356092e+001 
3246875000  -3.291269e+001  -3.078630e+001 
3250000000  -3.334994e+001  -3.294194e+001 
3253125000  -3.343668e+001  -3.492464e+001 
3256250000  -3.317017e+001  -4.157273e+001 
3259375000  -3.344576e+001  -5.068231e+001 
3262500000  -3.463890e+001  -5.443720e+001 
3265625000  -3.521634e+001  -5.187743e+001 
3268750000  -3.506936e+001  -4.995266e+001 
3271875000  -3.469634e+001  -4.952516e+001 
3275000000  -3.361748e+001  -5.663892e+001 
3278125000  -3.411136e+001  -6.310206e+001 
3281250000  -3.435604e+001  -6.254842e+001 
3284375000  -3.382262e+001  -6.886253e+001 
3287500000  -3.392983e+001  -7.280333e+001 
3290625000  -3.419378e+001  -7.893496e+001 
3293750000  -3.406728e+001  -8.463489e+001 
3296875000  -3.509208e+001  -8.580551e+001 
3300000000  -3.482811e+001  -8.461427e+001 
3303125000  -3.357780e+001  -8.997636e+001 
3306250000  -3.340490e+001  -9.704218e+001 
3309375000  -3.312605e+001  -1.033163e+002 
3312500000  -3.335693e+001  -1.146746e+002 
3315625000  -3.439170e+001  -1.226707e+002 
3318750000  -3.565259e+001  -1.255614e+002 
3321875000  -3.684791e+001  -1.252029e+002 
3325000000  -3.736874e+001  -1.203123e+002 
3328125000  -3.683427e+001  -1.191567e+002 
3331250000  -3.558076e+001  -1.125677e+002 
3334375000  -3.287067e+001  -1.236901e+002 
3337500000  -3.299082e+001  -1.433529e+002 
3340625000  -3.454519e+001  -1.545811e+002 
3343750000  -3.655472e+001  -1.548053e+002 
3346875000  -3.655473e+001  -1.535624e+002 
3350000000  -3.595250e+001  -1.559634e+002 
3353125000  -3.603754e+001  -1.601084e+002 
3356250000  -3.560201e+001  -1.676945e+002 
3359375000  -3.646118e+001  -1.765009e+002 
3362500000  -3.751138e+001  1.782363e+002 
3365625000  -3.801163e+001  1.762453e+002 
3368750000  -3.879094e+001  1.741610e+002 
3371875000  -3.885064e+001  1.707821e+002 
3375000000  -4.033033e+001  1.680583e+002 
3378125000  -4.128479e+001  1.687805e+002 
3381250000  -4.252589e+001  1.788898e+002 
3384375000  -4.103074e+001  -1.607284e+002 
3387500000  -3.751663e+001  -1.784323e+002 
3390625000  -3.899469e+001  1.634812e+002 
3393750000  -4.034620e+001  1.663513e+002 
3396875000  -3.917593e+001  1.677359e+002 
3400000000  -3.874999e+001  1.590833e+002 
3403125000  -3.915614e+001  1.515533e+002 
3406250000  -3.971484e+001  1.536795e+002 
3409375000  -3.985781e+001  1.455163e+002 
3412500000  -4.024978e+001  1.439808e+002 
3415625000  -4.095492e+001  1.444182e+002 
3418750000  -4.119208e+001  1.453603e+002 
3421875000  -4.124273e+001  1.495005e+002 
3425000000  -4.011743e+001  1.487119e+002 
3428125000  -3.926672e+001  1.433135e+002 
3431250000  -3.908964e+001  1.378904e+002 
3434375000  -3.922885e+001  1.308051e+002 
3437500000  -3.967415e+001  1.282020e+002 
3440625000  -4.000789e+001  1.286095e+002 
3443750000  -3.870323e+001  1.301152e+002 
3446875000  -3.800058e+001  1.209034e+002 
3450000000  -3.763781e+001  1.114961e+002 
3453125000  -3.792426e+001  1.030369e+002 
3456250000  -3.913743e+001  9.467986e+001 
3459375000  -3.999246e+001  9.734319e+001 
3462500000  -4.006482e+001  9.636513e+001 
3465625000  -3.990052e+001  9.058239e+001 
3468750000  -4.009040e+001  8.774159e+001 
3471875000  -4.013982e+001  8.597335e+001 
3475000000  -3.959502e+001  8.078677e+001 
3478125000  -4.040417e+001  7.298751e+001 
3481250000  -4.133101e+001  7.021387e+001 
3484375000  -4.218525e+001  7.611990e+001 
3487500000  -4.148750e+001  7.385074e+001 
3490625000  -4.088758e+001  6.830312e+001 
3493750000  -4.133181e+001  6.319273e+001 
3496875000  -4.189646e+001  5.945549e+001 
3500000000  -4.245568e+001  6.550538e+001 
3503125000  -4.173679e+001  6.778784e+001 
3506250000  -4.084422e+001  6.036639e+001 
3509375000  -4.052491e+001  5.247399e+001 
3512500000  -4.103443e+001  4.416788e+001 
3515625000  -4.190021e+001  4.251467e+001 
3518750000  -4.271886e+001  4.303535e+001 
3521875000  -4.265516e+001  3.891062e+001 
3525000000  -4.347305e+001  3.657256e+001 
3528125000  -4.332522e+001  4.391159e+001 
3531250000  -4.209812e+001  4.388366e+001 
3534375000  -4.178910e+001  2.925935e+001 
3537500000  -4.235302e+001  2.495776e+001 
3540625000  -4.336559e+001  2.654637e+001 
3543750000  -4.410002e+001  2.833808e+001 
3546875000  -4.409505e+001  4.018051e+001 
3550000000  -4.130107e+001  4.124059e+001 
3553125000  -3.997948e+001  2.268093e+001 
3556250000  -4.153304e+001  1.669292e+001 
3559375000  -4.096039e+001  1.925080e+001 
3562500000  -4.022564e+001  8.949199e+000 
3565625000  -4.087397e+001  2.059369e+000 
3568750000  -4.138567e+001  2.393205e+000 
3571875000  -4.080225e+001  1.973297e+000 
3575000000  -4.043908e+001  -4.041970e+000 
3578125000  -4.104913e+001  -8.866446e+000 
3581250000  -4.148710e+001  -1.100886e+001 
3584375000  -4.043992e+001  -1.365513e+001 
3587500000  -3.976079e+001  -2.122120e+001 
3590625000  -4.040424e+001  -3.279188e+001 
3593750000  -4.164315e+001  -3.491595e+001 
3596875000  -4.177572e+001  -3.027153e+001 
3600000000  -4.011695e+001  -3.455515e+001 
3603125000  -4.075208e+001  -5.063758e+001 
3606250000  -4.184662e+001  -5.449949e+001 
3609375000  -4.208342e+001  -5.696423e+001 
3612500000  -4.277469e+001  -5.964972e+001 
3615625000  -4.308395e+001  -6.211388e+001 
3618750000  -4.389262e+001  -6.244523e+001 
3621875000  -4.360813e+001  -6.753053e+001 
3625000000  -4.442612e+001  -6.357640e+001 
3628125000  -4.416595e+001  -6.846917e+001 
3631250000  -4.465865e+001  -7.178069e+001 
3634375000  -4.538157e+001  -7.152280e+001 
3637500000  -4.542560e+001  -6.712492e+001 
3640625000  -4.442157e+001  -6.390597e+001 
3643750000  -4.470582e+001  -7.045103e+001 
3646875000  -4.511991e+001  -7.582395e+001 
3650000000  -4.561958e+001  -7.517989e+001 
3653125000  -4.505602e+001  -7.731497e+001 
3656250000  -4.570860e+001  -7.644740e+001 
3659375000  -4.569841e+001  -7.234394e+001 
3662500000  -4.469561e+001  -7.449267e+001 
3665625000  -4.438808e+001  -7.499937e+001 
3668750000  -4.380833e+001  -7.686806e+001 
3671875000  -4.210969e+001  -8.275590e+001 
3675000000  -4.271452e+001  -9.109743e+001 
3678125000  -4.314606e+001  -9.194210e+001 
3681250000  -4.274167e+001  -9.543234e+001 
3684375000  -4.256105e+001  -9.950998e+001 
3687500000  -4.273803e+001  -1.045799e+002 
3690625000  -4.282034e+001  -1.070224e+002 
3693750000  -4.378750e+001  -1.062800e+002 
3696875000  -4.339037e+001  -1.073986e+002 
3700000000  -4.231483e+001  -1.115056e+002 
3703125000  -4.288708e+001  -1.190819e+002 
3706250000  -4.386078e+001  -1.182336e+002 
3709375000  -4.321100e+001  -1.188750e+002 
3712500000  -4.220490e+001  -1.206324e+002 
3715625000  -4.129716e+001  -1.264441e+002 
3718750000  -4.117447e+001  -1.320423e+002 
3721875000  -4.126149e+001  -1.413863e+002 
3725000000  -4.141920e+001  -1.462265e+002 
3728125000  -4.202680e+001  -1.475063e+002 
3731250000  -4.163473e+001  -1.492445e+002 
3734375000  -4.134933e+001  -1.549084e+002 
3737500000  -4.231336e+001  -1.640560e+002 
3740625000  -4.328855e+001  -1.676509e+002 
3743750000  -4.304205e+001  -1.673616e+002 
3746875000  -4.370541e+001  -1.741440e+002 
3750000000  -4.392559e+001  -1.706222e+002 
3753125000  -4.439735e+001  -1.702029e+002 
3756250000  -4.470514e+001  -1.715373e+002 
3759375000  -4.447811e+001  -1.725951e+002 
3762500000  -4.413015e+001  -1.718262e+002 
3765625000  -4.493286e+001  -1.743403e+002 
3768750000  -4.477174e+001  -1.709806e+002 
3771875000  -4.318653e+001  -1.711990e+002 
3775000000  -4.303326e+001  -1.767378e+002 
3778125000  -4.322857e+001  -1.769977e+002 
3781250000  -4.257496e+001  -1.789182e+002 
3784375000  -4.283870e+001  1.786663e+002 
3787500000  -4.197387e+001  1.755578e+002 
3790625000  -4.245231e+001  1.695714e+002 
3793750000  -4.203614e+001  1.685457e+002 
3796875000  -4.114342e+001  1.664266e+002 
3800000000  -3.950794e+001  1.638859e+002 
3803125000  -3.998318e+001  1.530153e+002 
3806250000  -4.084344e+001  1.505217e+002 
3809375000  -4.055015e+001  1.488625e+002 
3812500000  -3.959866e+001  1.425092e+002 
3815625000  -4.060121e+001  1.324957e+002 
3818750000  -4.143102e+001  1.321313e+002 
3821875000  -4.119020e+001  1.402758e+002 
3825000000  -3.952607e+001  1.432139e+002 
3828125000  -3.795681e+001  1.247834e+002 
3831250000  -3.882001e+001  1.121103e+002 
3834375000  -4.023035e+001  1.108601e+002 
3837500000  -4.091984e+001  1.146724e+002 
3840625000  -3.978893e+001  1.105188e+002 
3843750000  -3.906391e+001  1.006855e+002 
3846875000  -3.986700e+001  9.117689e+001 
3850000000  -4.107577e+001  9.829260e+001 
3853125000  -4.042578e+001  9.848850e+001 
3856250000  -3.999412e+001  9.515613e+001 
3859375000  -3.949792e+001  8.731742e+001 
3862500000  -3.965170e+001  7.811886e+001 
3865625000  -3.985419e+001  7.447715e+001 
3868750000  -3.969859e+001  7.326073e+001 
3871875000  -3.899982e+001  7.005124e+001 
3875000000  -3.957832e+001  5.924160e+001 
3878125000  -4.069314e+001  5.944191e+001 
3881250000  -4.053210e+001  6.032462e+001 
3884375000  -4.034908e+001  5.667646e+001 
3887500000  -4.080680e+001  5.138364e+001 
3890625000  -4.120179e+001  4.875407e+001 
3893750000  -4.134964e+001  4.791797e+001 
3896875000  -4.186515e+001  4.762626e+001 
3900000000  -4.186922e+001  4.745345e+001 
3903125000  -4.125266e+001  4.517078e+001 
3906250000  -4.067717e+001  4.471114e+001 
3909375000  -4.020729e+001  4.172318e+001 
3912500000  -4.039518e+001  3.254718e+001 
3915625000  -4.153375e+001  3.560775e+001 
3918750000  -4.129175e+001  3.645403e+001 
3921875000  -4.075429e+001  3.053756e+001 
3925000000  -3.995021e+001  2.993445e+001 
3928125000  -3.932435e+001  2.363486e+001 
3931250000  -3.961297e+001  1.806769e+001 
3934375000  -3.999547e+001  1.681312e+001 
3937500000  -3.984012e+001  1.462806e+001 
3940625000  -4.040184e+001  1.293135e+001 
3943750000  -3.946218e+001  1.466449e+001 
3946875000  -3.809656e+001  7.020489e+000 
3950000000  -3.902851e+001  -9.843291e-001 
3953125000  -3.992166e+001  -2.430313e+000 
3956250000  -3.874225e+001  1.714398e-001 
3959375000  -3.754920e+001  -5.337917e+000 
3962500000  -3.722581e+001  -1.116416e+001 
3965625000  -3.717392e+001  -2.039968e+001 
3968750000  -3.794768e+001  -2.965266e+001 
3971875000  -3.822421e+001  -3.083315e+001 
3975000000  -3.772920e+001  -3.409783e+001 
3978125000  -3.794360e+001  -3.698260e+001 
3981250000  -3.767625e+001  -4.250404e+001 
3984375000  -3.785046e+001  -4.858193e+001 
3987500000  -3.859558e+001  -4.904972e+001 
3990625000  -3.878650e+001  -5.350597e+001 
3993750000  -3.884793e+001  -5.713662e+001 
3996875000  -3.922178e+001  -6.034587e+001 
4000000000  -3.956804e+001  -6.138846e+001 
4003125000  -3.987527e+001  -5.971127e+001 
4006250000  -3.871360e+001  -6.263157e+001 
4009375000  -3.741948e+001  -7.477351e+001 
4012500000  -3.888266e+001  -8.134306e+001 
4015625000  -4.044109e+001  -8.077862e+001 
4018750000  -4.011977e+001  -7.858070e+001 
4021875000  -3.937175e+001  -8.119546e+001 
4025000000  -3.927974e+001  -8.704684e+001 
4028125000  -3.921343e+001  -8.983837e+001 
4031250000  -3.979932e+001  -9.275047e+001 
4034375000  -4.013772e+001  -9.484381e+001 
4037500000  -3.945904e+001  -9.178639e+001 
4040625000  -3.942413e+001  -9.674043e+001 
4043750000  -3.974258e+001  -9.879488e+001 
4046875000  -3.904529e+001  -9.806088e+001 
4050000000  -3.866721e+001  -1.051624e+002 
4053125000  -3.904873e+001  -1.075493e+002 
4056250000  -3.969487e+001  -1.028327e+002 
4059375000  -3.821167e+001  -1.023229e+002 
4062500000  -3.672688e+001  -1.085136e+002 
4065625000  -3.663432e+001  -1.119900e+002 
4068750000  -3.621361e+001  -1.196279e+002 
4071875000  -3.566221e+001  -1.275445e+002 
4075000000  -3.584916e+001  -1.346809e+002 
4078125000  -3.646767e+001  -1.360009e+002 
4081250000  -3.602253e+001  -1.400949e+002 
4084375000  -3.554734e+001  -1.477090e+002 
4087500000  -3.600978e+001  -1.549830e+002 
4090625000  -3.667162e+001  -1.570728e+002 
4093750000  -3.640622e+001  -1.587289e+002 
4096875000  -3.605164e+001  -1.649936e+002 
4100000000  -3.699475e+001  -1.722496e+002 
4103125000  -3.770326e+001  -1.723402e+002 
4106250000  -3.746035e+001  -1.673690e+002 
4109375000  -3.647461e+001  -1.710952e+002 
4112500000  -3.633353e+001  -1.785436e+002 
4115625000  -3.650383e+001  1.756952e+002 
4118750000  -3.656710e+001  1.722818e+002 
4121875000  -3.625369e+001  1.667808e+002 
4125000000  -3.679799e+001  1.606480e+002 
4128125000  -3.782624e+001  1.622872e+002 
4131250000  -3.749630e+001  1.671816e+002 
4134375000  -3.515144e+001  1.610364e+002 
4137500000  -3.519403e+001  1.410436e+002 
4140625000  -3.744627e+001  1.353635e+002 
4143750000  -3.880768e+001  1.390808e+002 
4146875000  -3.831803e+001  1.459747e+002 
4150000000  -3.757566e+001  1.406426e+002 
4153125000  -3.751862e+001  1.334473e+002 
4156250000  -3.866401e+001  1.313269e+002 
4159375000  -3.871084e+001  1.351488e+002 
4162500000  -3.756467e+001  1.399023e+002 
4165625000  -3.672239e+001  1.344745e+002 
4168750000  -3.595257e+001  1.274366e+002 
4171875000  -3.614637e+001  1.183549e+002 
4175000000  -3.678275e+001  1.131240e+002 
4178125000  -3.725224e+001  1.146913e+002 
4181250000  -3.700903e+001  1.110773e+002 
4184375000  -3.694827e+001  1.083280e+002 
4187500000  -3.681672e+001  1.049100e+002 
4190625000  -3.667994e+001  9.830046e+001 
4193750000  -3.753684e+001  9.474875e+001 
4196875000  -3.832732e+001  9.490473e+001 
4200000000  -3.893358e+001  9.605725e+001 
4203125000  -3.884548e+001  1.099577e+002 
4206250000  -3.517344e+001  1.088531e+002 
4209375000  -3.426958e+001  8.546481e+001 
4212500000  -3.621112e+001  7.898134e+001 
4215625000  -3.699291e+001  8.448991e+001 
4218750000  -3.560832e+001  8.923802e+001 
4221875000  -3.305425e+001  8.021609e+001 
4225000000  -3.444383e+001  6.646308e+001 
4228125000  -3.500357e+001  6.946575e+001 
4231250000  -3.339430e+001  6.516452e+001 
4234375000  -3.314716e+001  5.597265e+001 
4237500000  -3.283612e+001  5.104383e+001 
4240625000  -3.281637e+001  4.042094e+001 
4243750000  -3.393477e+001  3.244511e+001 
4246875000  -3.480281e+001  3.226035e+001 
4250000000  -3.475303e+001  3.285901e+001 
4253125000  -3.440322e+001  2.960708e+001 
4256250000  -3.440584e+001  2.492537e+001 
4259375000  -3.434017e+001  2.190434e+001 
4262500000  -3.453315e+001  1.557965e+001 
4265625000  -3.466665e+001  1.597470e+001 
4268750000  -3.371957e+001  9.312168e+000 
4271875000  -3.380488e+001  3.054948e+000 
4275000000  -3.324038e+001  -4.910447e+000 
4278125000  -3.416026e+001  -1.594852e+001 
4281250000  -3.603357e+001  -1.806499e+001 
4284375000  -3.574266e+001  -1.860379e+001 
4287500000  -3.697662e+001  -2.305703e+001 
4290625000  -3.801213e+001  -1.419859e+001 
4293750000  -3.615401e+001  -8.597525e+000 
4296875000  -3.499219e+001  -1.976660e+001 
4300000000  -3.588941e+001  -2.945710e+001 
4303125000  -3.706441e+001  -2.802023e+001 
4306250000  -3.650485e+001  -2.084518e+001 
4309375000  -3.528911e+001  -2.366740e+001 
4312500000  -3.498133e+001  -3.235810e+001 
4315625000  -3.519361e+001  -3.834261e+001 
4318750000  -3.545457e+001  -4.111516e+001 
4321875000  -3.569104e+001  -4.090182e+001 
4325000000  -3.505709e+001  -4.025847e+001 
4328125000  -3.436896e+001  -4.732294e+001 
4331250000  -3.414651e+001  -5.510202e+001 
4334375000  -3.460056e+001  -6.047090e+001 
4337500000  -3.524266e+001  -6.388102e+001 
4340625000  -3.573781e+001  -5.974569e+001 
4343750000  -3.504787e+001  -5.984763e+001 
4346875000  -3.453158e+001  -6.665769e+001 
4350000000  -3.448368e+001  -7.290440e+001 
4353125000  -3.437688e+001  -8.115324e+001 
4356250000  -3.608356e+001  -8.101724e+001 
4359375000  -3.628801e+001  -6.728649e+001 
4362500000  -3.345325e+001  -6.881017e+001 
4365625000  -3.170111e+001  -8.370393e+001 
4368750000  -3.241246e+001  -9.614131e+001 
4371875000  -3.371090e+001  -9.654733e+001 
4375000000  -3.337795e+001  -9.739419e+001 
4378125000  -3.245297e+001  -1.046699e+002 
4381250000  -3.277303e+001  -1.126142e+002 
4384375000  -3.261924e+001  -1.177145e+002 
4387500000  -3.340577e+001  -1.255150e+002 
4390625000  -3.433158e+001  -1.254591e+002 
4393750000  -3.353721e+001  -1.238242e+002 
4396875000  -3.303564e+001  -1.273893e+002 
4400000000  -3.252134e+001  -1.366731e+002 
4403125000  -3.324355e+001  -1.460461e+002 
4406250000  -3.414125e+001  -1.484666e+002 
4409375000  -3.426804e+001  -1.523421e+002 
4412500000  -3.541925e+001  -1.555273e+002 
4415625000  -3.577670e+001  -1.513350e+002 
