!Agilent Technologies,E8363B,MY43030201,A.06.04.32
!Agilent E8363B: A.06.04.32
!Date: Tuesday, November 11, 2014 21:04:55
!Correction: S21(Response(S21)) 
!S1P File: Measurement: S21:
# Hz S  dB   R 50
3000000000  -3.626289e+001  -5.145817e+001 
3003125000  -3.734548e+001  -5.744352e+001 
3006250000  -3.732379e+001  -5.967336e+001 
3009375000  -3.754239e+001  -5.532317e+001 
3012500000  -3.696800e+001  -5.730696e+001 
3015625000  -3.604087e+001  -6.363474e+001 
3018750000  -3.681866e+001  -6.584911e+001 
3021875000  -3.545309e+001  -6.380436e+001 
3025000000  -3.403574e+001  -6.761658e+001 
3028125000  -3.324123e+001  -7.405420e+001 
3031250000  -3.218795e+001  -8.482487e+001 
3034375000  -3.183656e+001  -9.849652e+001 
3037500000  -3.231602e+001  -1.107890e+002 
3040625000  -3.370729e+001  -1.154172e+002 
3043750000  -3.424844e+001  -1.202110e+002 
3046875000  -3.444799e+001  -1.261570e+002 
3050000000  -3.604500e+001  -1.325340e+002 
3053125000  -3.614187e+001  -1.264327e+002 
3056250000  -3.555643e+001  -1.232557e+002 
3059375000  -3.565546e+001  -1.236130e+002 
3062500000  -3.418232e+001  -1.270153e+002 
3065625000  -3.393408e+001  -1.326118e+002 
3068750000  -3.359714e+001  -1.396879e+002 
3071875000  -3.347304e+001  -1.419999e+002 
3075000000  -3.335531e+001  -1.457984e+002 
3078125000  -3.309376e+001  -1.498206e+002 
3081250000  -3.366743e+001  -1.537776e+002 
3084375000  -3.264982e+001  -1.577746e+002 
3087500000  -3.243271e+001  -1.616052e+002 
3090625000  -3.196593e+001  -1.714069e+002 
3093750000  -3.234913e+001  -1.789857e+002 
3096875000  -3.339874e+001  1.745666e+002 
3100000000  -3.338356e+001  1.730180e+002 
3103125000  -3.365991e+001  1.739424e+002 
3106250000  -3.311522e+001  1.692182e+002 
3109375000  -3.317992e+001  1.649956e+002 
3112500000  -3.307098e+001  1.631070e+002 
3115625000  -3.271492e+001  1.580225e+002 
3118750000  -3.310249e+001  1.578453e+002 
3121875000  -3.225396e+001  1.484913e+002 
3125000000  -3.337144e+001  1.440260e+002 
3128125000  -3.442239e+001  1.513171e+002 
3131250000  -3.198697e+001  1.498307e+002 
3134375000  -3.064861e+001  1.340669e+002 
3137500000  -3.115708e+001  1.197071e+002 
3140625000  -3.279996e+001  1.170811e+002 
3143750000  -3.376476e+001  1.187728e+002 
3146875000  -3.326320e+001  1.197741e+002 
3150000000  -3.230102e+001  1.198148e+002 
3153125000  -3.231020e+001  1.109237e+002 
3156250000  -3.336042e+001  1.157842e+002 
3159375000  -3.173407e+001  1.168312e+002 
3162500000  -2.978819e+001  1.016040e+002 
3165625000  -3.079175e+001  8.997959e+001 
3168750000  -3.112206e+001  8.973135e+001 
3171875000  -3.026768e+001  8.444552e+001 
3175000000  -3.106115e+001  7.578700e+001 
3178125000  -3.080116e+001  7.637640e+001 
3181250000  -2.964851e+001  7.097269e+001 
3184375000  -2.902029e+001  5.862740e+001 
3187500000  -3.021124e+001  4.322310e+001 
3190625000  -3.295913e+001  3.519993e+001 
3193750000  -3.353941e+001  4.368968e+001 
3196875000  -3.324039e+001  4.857168e+001 
3200000000  -3.233409e+001  4.588874e+001 
3203125000  -3.149140e+001  3.955735e+001 
3206250000  -3.184231e+001  3.303897e+001 
3209375000  -3.139581e+001  2.739744e+001 
3212500000  -3.158176e+001  1.997541e+001 
3215625000  -3.164163e+001  1.633974e+001 
3218750000  -3.244168e+001  9.836959e+000 
3221875000  -3.323092e+001  4.126036e+000 
3225000000  -3.287080e+001  2.322822e+000 
3228125000  -3.317571e+001  -2.239880e+000 
3231250000  -3.395449e+001  -4.559606e+000 
3234375000  -3.359198e+001  -4.141276e+000 
3237500000  -3.353932e+001  -6.541031e+000 
3240625000  -3.304277e+001  -8.574316e+000 
3243750000  -3.272618e+001  -1.574375e+001 
3246875000  -3.310259e+001  -2.308947e+001 
3250000000  -3.353516e+001  -2.516920e+001 
3253125000  -3.366587e+001  -2.720869e+001 
3256250000  -3.320490e+001  -3.470461e+001 
3259375000  -3.358125e+001  -4.347330e+001 
3262500000  -3.473998e+001  -4.740063e+001 
3265625000  -3.529241e+001  -4.369091e+001 
3268750000  -3.516214e+001  -4.241605e+001 
3271875000  -3.471460e+001  -4.235940e+001 
3275000000  -3.369262e+001  -4.911331e+001 
3278125000  -3.419955e+001  -5.546714e+001 
3281250000  -3.433398e+001  -5.491088e+001 
3284375000  -3.393380e+001  -6.202186e+001 
3287500000  -3.407852e+001  -6.542862e+001 
3290625000  -3.433146e+001  -7.109837e+001 
3293750000  -3.411808e+001  -7.754436e+001 
3296875000  -3.517953e+001  -7.837315e+001 
3300000000  -3.496943e+001  -7.777880e+001 
3303125000  -3.372047e+001  -8.311349e+001 
3306250000  -3.361186e+001  -9.089291e+001 
3309375000  -3.333312e+001  -9.616219e+001 
3312500000  -3.329585e+001  -1.074687e+002 
3315625000  -3.438563e+001  -1.165138e+002 
3318750000  -3.574492e+001  -1.187614e+002 
3321875000  -3.692950e+001  -1.197946e+002 
3325000000  -3.730912e+001  -1.141112e+002 
3328125000  -3.714100e+001  -1.135576e+002 
3331250000  -3.584349e+001  -1.063974e+002 
3334375000  -3.319153e+001  -1.172765e+002 
3337500000  -3.330080e+001  -1.365923e+002 
3340625000  -3.468604e+001  -1.478944e+002 
3343750000  -3.667846e+001  -1.489416e+002 
3346875000  -3.692498e+001  -1.468255e+002 
3350000000  -3.639066e+001  -1.489043e+002 
3353125000  -3.627760e+001  -1.524450e+002 
3356250000  -3.580504e+001  -1.614953e+002 
3359375000  -3.668666e+001  -1.691989e+002 
3362500000  -3.790631e+001  -1.754016e+002 
3365625000  -3.837926e+001  -1.760167e+002 
3368750000  -3.920259e+001  -1.776802e+002 
3371875000  -3.918414e+001  1.780800e+002 
3375000000  -4.061964e+001  1.756973e+002 
3378125000  -4.160913e+001  1.774489e+002 
3381250000  -4.308436e+001  -1.739273e+002 
3384375000  -4.132336e+001  -1.533555e+002 
3387500000  -3.790797e+001  -1.708337e+002 
3390625000  -3.944074e+001  1.714233e+002 
3393750000  -4.074324e+001  1.752521e+002 
3396875000  -3.948508e+001  1.773603e+002 
3400000000  -3.891646e+001  1.689905e+002 
3403125000  -3.965136e+001  1.640249e+002 
3406250000  -3.994222e+001  1.625217e+002 
3409375000  -3.999560e+001  1.552055e+002 
3412500000  -4.047908e+001  1.531321e+002 
3415625000  -4.104163e+001  1.526146e+002 
3418750000  -4.112346e+001  1.544732e+002 
3421875000  -4.115062e+001  1.584585e+002 
3425000000  -4.044670e+001  1.567244e+002 
3428125000  -3.959466e+001  1.534930e+002 
3431250000  -3.940488e+001  1.464731e+002 
3434375000  -3.917401e+001  1.396670e+002 
3437500000  -3.985321e+001  1.358251e+002 
3440625000  -3.991327e+001  1.374855e+002 
3443750000  -3.868038e+001  1.378289e+002 
3446875000  -3.800752e+001  1.306963e+002 
3450000000  -3.761020e+001  1.201859e+002 
3453125000  -3.811430e+001  1.109365e+002 
3456250000  -3.937841e+001  1.041274e+002 
3459375000  -4.026361e+001  1.039678e+002 
3462500000  -3.998403e+001  1.043479e+002 
3465625000  -4.017501e+001  9.762331e+001 
3468750000  -4.042553e+001  9.492387e+001 
3471875000  -4.051841e+001  9.377546e+001 
3475000000  -4.019872e+001  8.984093e+001 
3478125000  -4.063294e+001  8.128154e+001 
3481250000  -4.164100e+001  7.991607e+001 
3484375000  -4.280985e+001  8.430660e+001 
3487500000  -4.189998e+001  8.313362e+001 
3490625000  -4.136417e+001  8.135014e+001 
3493750000  -4.190432e+001  7.511556e+001 
3496875000  -4.229803e+001  7.216730e+001 
3500000000  -4.289665e+001  7.606438e+001 
3503125000  -4.231715e+001  7.911346e+001 
3506250000  -4.139046e+001  7.487119e+001 
3509375000  -4.100853e+001  6.643366e+001 
3512500000  -4.133102e+001  5.656834e+001 
3515625000  -4.197134e+001  5.555780e+001 
3518750000  -4.244505e+001  5.396783e+001 
3521875000  -4.231865e+001  5.280140e+001 
3525000000  -4.341779e+001  5.097265e+001 
3528125000  -4.287370e+001  5.695053e+001 
3531250000  -4.164894e+001  5.457843e+001 
3534375000  -4.131816e+001  4.471232e+001 
3537500000  -4.191550e+001  3.837685e+001 
3540625000  -4.270972e+001  3.465185e+001 
3543750000  -4.351988e+001  3.999342e+001 
3546875000  -4.328274e+001  5.028077e+001 
3550000000  -4.049832e+001  5.015910e+001 
3553125000  -3.896037e+001  3.320018e+001 
3556250000  -4.093419e+001  2.508698e+001 
3559375000  -4.046394e+001  2.528117e+001 
3562500000  -3.935674e+001  1.680283e+001 
3565625000  -4.028336e+001  7.984778e+000 
3568750000  -4.056416e+001  1.084416e+001 
3571875000  -4.059776e+001  7.560466e+000 
3575000000  -4.025043e+001  1.374395e+000 
3578125000  -4.076545e+001  -4.971565e+000 
3581250000  -4.101904e+001  -5.050404e+000 
3584375000  -4.053694e+001  -8.796750e+000 
3587500000  -3.989190e+001  -1.632667e+001 
3590625000  -4.066216e+001  -2.812695e+001 
3593750000  -4.171743e+001  -3.133301e+001 
3596875000  -4.186317e+001  -2.374309e+001 
3600000000  -4.068034e+001  -2.965592e+001 
3603125000  -4.107132e+001  -4.366006e+001 
3606250000  -4.215694e+001  -4.715533e+001 
3609375000  -4.278368e+001  -5.034569e+001 
3612500000  -4.388561e+001  -5.267444e+001 
3615625000  -4.405834e+001  -5.544353e+001 
3618750000  -4.477305e+001  -5.310280e+001 
3621875000  -4.480439e+001  -5.562154e+001 
3625000000  -4.603934e+001  -5.461716e+001 
3628125000  -4.576164e+001  -5.422133e+001 
3631250000  -4.535892e+001  -5.750046e+001 
3634375000  -4.670626e+001  -5.495389e+001 
3637500000  -4.598528e+001  -5.010378e+001 
3640625000  -4.521141e+001  -4.715387e+001 
3643750000  -4.457016e+001  -5.245260e+001 
3646875000  -4.469348e+001  -5.885991e+001 
3650000000  -4.558518e+001  -5.690100e+001 
3653125000  -4.478622e+001  -5.762756e+001 
3656250000  -4.504410e+001  -6.067173e+001 
3659375000  -4.491496e+001  -5.903808e+001 
3662500000  -4.387223e+001  -6.138797e+001 
3665625000  -4.355315e+001  -6.189489e+001 
3668750000  -4.239424e+001  -6.407925e+001 
3671875000  -4.123350e+001  -7.181896e+001 
3675000000  -4.153885e+001  -8.050919e+001 
3678125000  -4.179783e+001  -8.183176e+001 
3681250000  -4.190125e+001  -8.677882e+001 
3684375000  -4.167160e+001  -9.199953e+001 
3687500000  -4.211282e+001  -9.623982e+001 
3690625000  -4.211889e+001  -1.007819e+002 
3693750000  -4.288912e+001  -1.019447e+002 
3696875000  -4.264818e+001  -1.028736e+002 
3700000000  -4.218024e+001  -1.094964e+002 
3703125000  -4.216091e+001  -1.127186e+002 
3706250000  -4.310654e+001  -1.151457e+002 
3709375000  -4.279432e+001  -1.114228e+002 
3712500000  -4.182789e+001  -1.168517e+002 
3715625000  -4.101774e+001  -1.231468e+002 
3718750000  -4.117818e+001  -1.290879e+002 
3721875000  -4.131240e+001  -1.359624e+002 
3725000000  -4.165491e+001  -1.412276e+002 
3728125000  -4.230690e+001  -1.429852e+002 
3731250000  -4.217909e+001  -1.427238e+002 
3734375000  -4.167349e+001  -1.503569e+002 
3737500000  -4.264963e+001  -1.585926e+002 
3740625000  -4.394232e+001  -1.611089e+002 
3743750000  -4.381847e+001  -1.612479e+002 
3746875000  -4.418864e+001  -1.638328e+002 
3750000000  -4.510060e+001  -1.623612e+002 
3753125000  -4.490266e+001  -1.599757e+002 
3756250000  -4.508362e+001  -1.593548e+002 
3759375000  -4.542398e+001  -1.579952e+002 
3762500000  -4.473437e+001  -1.591840e+002 
3765625000  -4.501896e+001  -1.598507e+002 
3768750000  -4.516986e+001  -1.540266e+002 
3771875000  -4.338432e+001  -1.586305e+002 
3775000000  -4.353360e+001  -1.628773e+002 
3778125000  -4.280839e+001  -1.636764e+002 
3781250000  -4.246789e+001  -1.659186e+002 
3784375000  -4.210534e+001  -1.699781e+002 
3787500000  -4.142775e+001  -1.722377e+002 
3790625000  -4.152912e+001  -1.793737e+002 
3793750000  -4.161641e+001  -1.799596e+002 
3796875000  -4.043226e+001  1.760845e+002 
3800000000  -3.914714e+001  1.736378e+002 
3803125000  -3.960900e+001  1.631156e+002 
3806250000  -4.018878e+001  1.597763e+002 
3809375000  -3.992418e+001  1.569723e+002 
3812500000  -3.934226e+001  1.500130e+002 
3815625000  -3.993596e+001  1.406300e+002 
3818750000  -4.076343e+001  1.390792e+002 
3821875000  -4.089454e+001  1.467069e+002 
3825000000  -3.887804e+001  1.494914e+002 
3828125000  -3.767130e+001  1.336336e+002 
3831250000  -3.833209e+001  1.173485e+002 
3834375000  -3.980958e+001  1.179883e+002 
3837500000  -4.100198e+001  1.190365e+002 
3840625000  -3.997979e+001  1.189901e+002 
3843750000  -3.874191e+001  1.055190e+002 
3846875000  -3.949638e+001  9.946783e+001 
3850000000  -4.112931e+001  1.030581e+002 
3853125000  -4.048917e+001  1.060182e+002 
3856250000  -4.011063e+001  1.009992e+002 
3859375000  -3.991924e+001  9.377306e+001 
3862500000  -3.979750e+001  8.754231e+001 
3865625000  -4.008378e+001  8.096137e+001 
3868750000  -4.012853e+001  8.173347e+001 
3871875000  -3.954491e+001  7.795515e+001 
3875000000  -3.994946e+001  6.849040e+001 
3878125000  -4.080299e+001  6.853481e+001 
3881250000  -4.118108e+001  6.861615e+001 
3884375000  -4.098046e+001  6.566263e+001 
3887500000  -4.100086e+001  6.268987e+001 
3890625000  -4.143196e+001  5.999528e+001 
3893750000  -4.193752e+001  5.748139e+001 
3896875000  -4.206276e+001  6.108768e+001 
3900000000  -4.195840e+001  5.874785e+001 
3903125000  -4.163294e+001  5.701550e+001 
3906250000  -4.147675e+001  5.508286e+001 
3909375000  -4.025851e+001  5.324874e+001 
3912500000  -4.039222e+001  4.423294e+001 
3915625000  -4.164472e+001  4.524775e+001 
3918750000  -4.114848e+001  4.830767e+001 
3921875000  -4.034835e+001  4.297416e+001 
3925000000  -3.962780e+001  4.029908e+001 
3928125000  -3.897633e+001  3.297464e+001 
3931250000  -3.930719e+001  2.753420e+001 
3934375000  -3.956142e+001  2.729131e+001 
3937500000  -3.941680e+001  2.355858e+001 
3940625000  -4.007887e+001  2.208701e+001 
3943750000  -3.913889e+001  2.443847e+001 
3946875000  -3.773879e+001  1.651541e+001 
3950000000  -3.807293e+001  8.061069e+000 
3953125000  -3.945861e+001  5.891935e+000 
3956250000  -3.847601e+001  7.936307e+000 
3959375000  -3.735175e+001  1.855015e+000 
3962500000  -3.712372e+001  -3.120702e+000 
3965625000  -3.668451e+001  -1.376149e+001 
3968750000  -3.778506e+001  -2.038233e+001 
3971875000  -3.801884e+001  -2.383437e+001 
3975000000  -3.754076e+001  -2.580863e+001 
3978125000  -3.750167e+001  -2.927576e+001 
3981250000  -3.764990e+001  -3.549656e+001 
3984375000  -3.793088e+001  -4.265209e+001 
3987500000  -3.846132e+001  -4.513115e+001 
3990625000  -3.860689e+001  -4.657040e+001 
3993750000  -3.915274e+001  -5.083104e+001 
3996875000  -3.913304e+001  -5.474465e+001 
4000000000  -3.936240e+001  -5.777060e+001 
4003125000  -4.016205e+001  -5.520472e+001 
4006250000  -3.880453e+001  -5.497625e+001 
4009375000  -3.796069e+001  -6.841244e+001 
4012500000  -3.911868e+001  -7.350891e+001 
4015625000  -4.068680e+001  -7.183568e+001 
4018750000  -4.093863e+001  -7.100889e+001 
4021875000  -4.029300e+001  -7.271113e+001 
4025000000  -3.991122e+001  -7.673124e+001 
4028125000  -3.974909e+001  -8.066119e+001 
4031250000  -4.024738e+001  -8.342196e+001 
4034375000  -4.045538e+001  -8.202623e+001 
4037500000  -3.993090e+001  -8.082404e+001 
4040625000  -3.979998e+001  -8.249088e+001 
4043750000  -3.968156e+001  -8.442905e+001 
4046875000  -3.953523e+001  -8.421016e+001 
4050000000  -3.877122e+001  -9.057809e+001 
4053125000  -3.933286e+001  -9.272317e+001 
4056250000  -3.935455e+001  -8.918711e+001 
4059375000  -3.790212e+001  -9.042760e+001 
4062500000  -3.678202e+001  -9.420680e+001 
4065625000  -3.665171e+001  -1.003174e+002 
4068750000  -3.639815e+001  -1.072618e+002 
4071875000  -3.540037e+001  -1.156663e+002 
4075000000  -3.581164e+001  -1.234664e+002 
4078125000  -3.622064e+001  -1.253165e+002 
4081250000  -3.573859e+001  -1.290540e+002 
4084375000  -3.525021e+001  -1.369991e+002 
4087500000  -3.562104e+001  -1.450650e+002 
4090625000  -3.624273e+001  -1.465177e+002 
4093750000  -3.602723e+001  -1.486037e+002 
4096875000  -3.557239e+001  -1.555331e+002 
4100000000  -3.647343e+001  -1.637615e+002 
4103125000  -3.714135e+001  -1.635441e+002 
4106250000  -3.724258e+001  -1.584528e+002 
4109375000  -3.620314e+001  -1.623975e+002 
4112500000  -3.580948e+001  -1.706132e+002 
4115625000  -3.615981e+001  -1.767322e+002 
4118750000  -3.659892e+001  1.793921e+002 
4121875000  -3.606548e+001  1.743638e+002 
4125000000  -3.662967e+001  1.680076e+002 
4128125000  -3.787749e+001  1.680572e+002 
4131250000  -3.758305e+001  1.748975e+002 
4134375000  -3.534604e+001  1.675399e+002 
4137500000  -3.535133e+001  1.490434e+002 
4140625000  -3.755006e+001  1.404500e+002 
4143750000  -3.914548e+001  1.438076e+002 
4146875000  -3.877406e+001  1.535079e+002 
4150000000  -3.795430e+001  1.496925e+002 
4153125000  -3.807465e+001  1.424504e+002 
4156250000  -3.907604e+001  1.392720e+002 
4159375000  -3.929219e+001  1.440515e+002 
4162500000  -3.810709e+001  1.496433e+002 
4165625000  -3.717714e+001  1.465141e+002 
4168750000  -3.658643e+001  1.378819e+002 
4171875000  -3.673275e+001  1.291247e+002 
4175000000  -3.737408e+001  1.251297e+002 
4178125000  -3.776738e+001  1.258030e+002 
4181250000  -3.738468e+001  1.249801e+002 
4184375000  -3.724403e+001  1.202370e+002 
4187500000  -3.702428e+001  1.176469e+002 
4190625000  -3.690239e+001  1.114296e+002 
4193750000  -3.760087e+001  1.084161e+002 
4196875000  -3.828855e+001  1.060379e+002 
4200000000  -3.886346e+001  1.081122e+002 
4203125000  -3.849914e+001  1.226811e+002 
4206250000  -3.539958e+001  1.210352e+002 
4209375000  -3.408811e+001  9.981097e+001 
4212500000  -3.588428e+001  9.162773e+001 
4215625000  -3.699678e+001  9.734210e+001 
4218750000  -3.516739e+001  1.012878e+002 
4221875000  -3.304780e+001  9.115759e+001 
4225000000  -3.422264e+001  7.751994e+001 
4228125000  -3.478652e+001  7.994711e+001 
4231250000  -3.319616e+001  7.619030e+001 
4234375000  -3.296923e+001  6.569808e+001 
4237500000  -3.243995e+001  6.127806e+001 
4240625000  -3.267768e+001  5.033264e+001 
4243750000  -3.363801e+001  4.170813e+001 
4246875000  -3.455199e+001  4.048144e+001 
4250000000  -3.457402e+001  4.290914e+001 
4253125000  -3.408680e+001  3.813925e+001 
4256250000  -3.442829e+001  3.260328e+001 
4259375000  -3.404576e+001  2.950618e+001 
4262500000  -3.437551e+001  2.456991e+001 
4265625000  -3.448311e+001  2.368854e+001 
4268750000  -3.369972e+001  1.783291e+001 
4271875000  -3.352441e+001  1.011551e+001 
4275000000  -3.322958e+001  1.587511e+000 
4278125000  -3.415548e+001  -8.852237e+000 
4281250000  -3.624932e+001  -1.147346e+001 
4284375000  -3.575263e+001  -1.052412e+001 
4287500000  -3.673498e+001  -1.558052e+001 
4290625000  -3.857379e+001  -6.629942e+000 
4293750000  -3.650055e+001  -1.697557e+000 
4296875000  -3.528547e+001  -1.262626e+001 
4300000000  -3.628337e+001  -2.075804e+001 
4303125000  -3.761734e+001  -2.019646e+001 
4306250000  -3.698721e+001  -1.414932e+001 
4309375000  -3.560448e+001  -1.417839e+001 
4312500000  -3.552570e+001  -2.275241e+001 
4315625000  -3.573959e+001  -2.695931e+001 
4318750000  -3.591320e+001  -2.938817e+001 
4321875000  -3.593643e+001  -2.856790e+001 
4325000000  -3.552919e+001  -2.820623e+001 
4328125000  -3.458021e+001  -3.531103e+001 
4331250000  -3.461797e+001  -4.235535e+001 
4334375000  -3.481532e+001  -4.902377e+001 
4337500000  -3.553610e+001  -5.069415e+001 
4340625000  -3.579826e+001  -4.719165e+001 
4343750000  -3.488683e+001  -4.635997e+001 
4346875000  -3.443552e+001  -5.304506e+001 
4350000000  -3.435666e+001  -5.872033e+001 
4353125000  -3.428992e+001  -6.808391e+001 
4356250000  -3.577868e+001  -7.077708e+001 
4359375000  -3.629213e+001  -5.628171e+001 
4362500000  -3.314705e+001  -5.696357e+001 
4365625000  -3.154645e+001  -7.186257e+001 
4368750000  -3.227475e+001  -8.491579e+001 
4371875000  -3.344243e+001  -8.488522e+001 
4375000000  -3.288211e+001  -8.594499e+001 
4378125000  -3.209152e+001  -9.352844e+001 
4381250000  -3.250410e+001  -9.978952e+001 
4384375000  -3.230279e+001  -1.073202e+002 
4387500000  -3.295956e+001  -1.149322e+002 
4390625000  -3.394107e+001  -1.148773e+002 
4393750000  -3.321949e+001  -1.148770e+002 
4396875000  -3.282449e+001  -1.191289e+002 
4400000000  -3.221718e+001  -1.278560e+002 
4403125000  -3.289994e+001  -1.369666e+002 
4406250000  -3.378983e+001  -1.399103e+002 
4409375000  -3.406451e+001  -1.433284e+002 
4412500000  -3.526713e+001  -1.476162e+002 
4415625000  -3.536572e+001  -1.439573e+002 
