!Agilent Technologies,E8363B,MY43030201,A.06.04.32
!Agilent E8363B: A.06.04.32
!Date: Tuesday, November 11, 2014 21:11:28
!Correction: S21(Response(S21)) 
!S1P File: Measurement: S21:
# Hz S  dB   R 50
3000000000  -3.657751e+001  -5.571951e+001 
3003125000  -3.787645e+001  -6.223377e+001 
3006250000  -3.760976e+001  -6.420190e+001 
3009375000  -3.780298e+001  -5.913932e+001 
3012500000  -3.712328e+001  -6.211969e+001 
3015625000  -3.621469e+001  -6.913020e+001 
3018750000  -3.686886e+001  -7.029242e+001 
3021875000  -3.545645e+001  -6.921999e+001 
3025000000  -3.414854e+001  -7.304707e+001 
3028125000  -3.320210e+001  -7.991017e+001 
3031250000  -3.215612e+001  -9.136678e+001 
3034375000  -3.183981e+001  -1.048910e+002 
3037500000  -3.238208e+001  -1.166208e+002 
3040625000  -3.363083e+001  -1.220269e+002 
3043750000  -3.428233e+001  -1.263505e+002 
3046875000  -3.451488e+001  -1.323162e+002 
3050000000  -3.615285e+001  -1.385367e+002 
3053125000  -3.594468e+001  -1.331073e+002 
3056250000  -3.560415e+001  -1.299225e+002 
3059375000  -3.549972e+001  -1.309896e+002 
3062500000  -3.401771e+001  -1.339035e+002 
3065625000  -3.397809e+001  -1.400749e+002 
3068750000  -3.361081e+001  -1.474005e+002 
3071875000  -3.355549e+001  -1.496333e+002 
3075000000  -3.328825e+001  -1.538320e+002 
3078125000  -3.301318e+001  -1.579748e+002 
3081250000  -3.352649e+001  -1.625665e+002 
3084375000  -3.267504e+001  -1.654426e+002 
3087500000  -3.257682e+001  -1.694597e+002 
3090625000  -3.201691e+001  -1.799867e+002 
3093750000  -3.251506e+001  1.728898e+002 
3096875000  -3.359743e+001  1.669234e+002 
3100000000  -3.337535e+001  1.649362e+002 
3103125000  -3.375620e+001  1.657263e+002 
3106250000  -3.323672e+001  1.614672e+002 
3109375000  -3.326089e+001  1.581324e+002 
3112500000  -3.319189e+001  1.550177e+002 
3115625000  -3.288037e+001  1.510066e+002 
3118750000  -3.322118e+001  1.500547e+002 
3121875000  -3.235326e+001  1.410279e+002 
3125000000  -3.368683e+001  1.372643e+002 
3128125000  -3.447143e+001  1.448540e+002 
3131250000  -3.206398e+001  1.424147e+002 
3134375000  -3.079977e+001  1.273146e+002 
3137500000  -3.140990e+001  1.132436e+002 
3140625000  -3.279813e+001  1.102276e+002 
3143750000  -3.374959e+001  1.116595e+002 
3146875000  -3.329859e+001  1.132242e+002 
3150000000  -3.227407e+001  1.123542e+002 
3153125000  -3.239350e+001  1.032041e+002 
3156250000  -3.336055e+001  1.088254e+002 
3159375000  -3.149263e+001  1.096253e+002 
3162500000  -2.967216e+001  9.526581e+001 
3165625000  -3.073316e+001  8.310783e+001 
3168750000  -3.096930e+001  8.301151e+001 
3171875000  -3.010411e+001  7.763218e+001 
3175000000  -3.086007e+001  6.872000e+001 
3178125000  -3.055765e+001  6.931313e+001 
3181250000  -2.948414e+001  6.319833e+001 
3184375000  -2.883008e+001  5.113582e+001 
3187500000  -3.010614e+001  3.537926e+001 
3190625000  -3.269793e+001  2.854642e+001 
3193750000  -3.326003e+001  3.646483e+001 
3196875000  -3.292659e+001  4.105691e+001 
3200000000  -3.191368e+001  3.807130e+001 
3203125000  -3.118685e+001  3.188734e+001 
3206250000  -3.150158e+001  2.454670e+001 
3209375000  -3.099391e+001  1.908192e+001 
3212500000  -3.127701e+001  1.204066e+001 
3215625000  -3.135334e+001  8.276168e+000 
3218750000  -3.204105e+001  8.755226e-001 
3221875000  -3.286495e+001  -3.699903e+000 
3225000000  -3.245358e+001  -5.865063e+000 
3228125000  -3.293747e+001  -1.172430e+001 
3231250000  -3.355415e+001  -1.351041e+001 
3234375000  -3.326032e+001  -1.295443e+001 
3237500000  -3.329313e+001  -1.503312e+001 
3240625000  -3.277492e+001  -1.787952e+001 
3243750000  -3.244672e+001  -2.611521e+001 
3246875000  -3.287548e+001  -3.305446e+001 
3250000000  -3.333135e+001  -3.547485e+001 
3253125000  -3.341438e+001  -3.745436e+001 
3256250000  -3.307318e+001  -4.405077e+001 
3259375000  -3.334182e+001  -5.268692e+001 
3262500000  -3.456524e+001  -5.691870e+001 
3265625000  -3.525223e+001  -5.407999e+001 
3268750000  -3.499568e+001  -5.176027e+001 
3271875000  -3.459027e+001  -5.267877e+001 
3275000000  -3.365138e+001  -5.859952e+001 
3278125000  -3.417577e+001  -6.581765e+001 
3281250000  -3.428846e+001  -6.447998e+001 
3284375000  -3.384956e+001  -7.108932e+001 
3287500000  -3.402148e+001  -7.490556e+001 
3290625000  -3.425815e+001  -8.115764e+001 
3293750000  -3.399993e+001  -8.680788e+001 
3296875000  -3.512134e+001  -8.731760e+001 
3300000000  -3.475998e+001  -8.642754e+001 
3303125000  -3.365862e+001  -9.228636e+001 
3306250000  -3.343564e+001  -9.873764e+001 
3309375000  -3.316509e+001  -1.051230e+002 
3312500000  -3.328520e+001  -1.168798e+002 
3315625000  -3.424316e+001  -1.239492e+002 
3318750000  -3.570030e+001  -1.269823e+002 
3321875000  -3.666748e+001  -1.272241e+002 
3325000000  -3.722237e+001  -1.215900e+002 
3328125000  -3.673172e+001  -1.214057e+002 
3331250000  -3.561040e+001  -1.151762e+002 
3334375000  -3.281335e+001  -1.256338e+002 
3337500000  -3.294578e+001  -1.457217e+002 
3340625000  -3.436505e+001  -1.557839e+002 
3343750000  -3.628645e+001  -1.570152e+002 
3346875000  -3.643324e+001  -1.550780e+002 
3350000000  -3.578624e+001  -1.572673e+002 
3353125000  -3.600057e+001  -1.623387e+002 
3356250000  -3.543816e+001  -1.701538e+002 
3359375000  -3.622943e+001  -1.789712e+002 
3362500000  -3.722229e+001  1.758050e+002 
3365625000  -3.778561e+001  1.747216e+002 
3368750000  -3.848091e+001  1.715374e+002 
3371875000  -3.880845e+001  1.682320e+002 
3375000000  -4.004357e+001  1.661824e+002 
3378125000  -4.106602e+001  1.658428e+002 
3381250000  -4.239833e+001  1.757471e+002 
3384375000  -4.098332e+001  -1.638381e+002 
3387500000  -3.725337e+001  1.794035e+002 
3390625000  -3.915193e+001  1.605511e+002 
3393750000  -4.036504e+001  1.641028e+002 
3396875000  -3.898087e+001  1.641847e+002 
3400000000  -3.862770e+001  1.571055e+002 
3403125000  -3.914124e+001  1.503165e+002 
3406250000  -3.952862e+001  1.517345e+002 
3409375000  -3.976344e+001  1.432203e+002 
3412500000  -4.010585e+001  1.400161e+002 
3415625000  -4.085104e+001  1.417110e+002 
3418750000  -4.099315e+001  1.432232e+002 
3421875000  -4.123925e+001  1.456541e+002 
3425000000  -4.007605e+001  1.465627e+002 
3428125000  -3.928194e+001  1.409004e+002 
3431250000  -3.895453e+001  1.342692e+002 
3434375000  -3.914886e+001  1.285160e+002 
3437500000  -3.969104e+001  1.260204e+002 
3440625000  -3.970572e+001  1.265033e+002 
3443750000  -3.867250e+001  1.276972e+002 
3446875000  -3.785014e+001  1.191906e+002 
3450000000  -3.747976e+001  1.094215e+002 
3453125000  -3.779371e+001  9.916147e+001 
3456250000  -3.921649e+001  9.390251e+001 
3459375000  -4.014473e+001  9.452312e+001 
3462500000  -3.960633e+001  9.387505e+001 
3465625000  -3.963146e+001  8.926935e+001 
3468750000  -3.997928e+001  8.402190e+001 
3471875000  -3.989064e+001  8.259333e+001 
3475000000  -3.945094e+001  7.883603e+001 
3478125000  -4.024387e+001  6.967668e+001 
3481250000  -4.111722e+001  6.787138e+001 
3484375000  -4.227774e+001  7.223207e+001 
3487500000  -4.090064e+001  7.069179e+001 
3490625000  -4.055775e+001  6.726122e+001 
3493750000  -4.102651e+001  5.862557e+001 
3496875000  -4.171753e+001  5.951319e+001 
3500000000  -4.232509e+001  6.244246e+001 
3503125000  -4.186673e+001  6.111856e+001 
3506250000  -4.030046e+001  5.641720e+001 
3509375000  -4.040773e+001  4.802564e+001 
3512500000  -4.103792e+001  3.916438e+001 
3515625000  -4.177701e+001  3.712549e+001 
3518750000  -4.232725e+001  3.613876e+001 
3521875000  -4.253198e+001  3.483590e+001 
3525000000  -4.374862e+001  3.041489e+001 
3528125000  -4.332308e+001  4.018220e+001 
3531250000  -4.217048e+001  3.556834e+001 
3534375000  -4.213774e+001  2.683727e+001 
3537500000  -4.287188e+001  2.123276e+001 
3540625000  -4.362679e+001  1.915498e+001 
3543750000  -4.436648e+001  2.530731e+001 
3546875000  -4.426820e+001  3.484009e+001 
3550000000  -4.139929e+001  3.702044e+001 
3553125000  -4.035370e+001  2.151756e+001 
3556250000  -4.159349e+001  1.338118e+001 
3559375000  -4.155251e+001  1.435078e+001 
3562500000  -4.036256e+001  5.762658e+000 
3565625000  -4.118022e+001  -1.671979e-001 
3568750000  -4.162927e+001  2.726943e+000 
3571875000  -4.119878e+001  4.172186e-001 
3575000000  -4.098047e+001  -6.704037e+000 
3578125000  -4.138165e+001  -1.130032e+001 
3581250000  -4.145675e+001  -1.141503e+001 
3584375000  -4.043628e+001  -1.535859e+001 
3587500000  -3.998463e+001  -2.391950e+001 
3590625000  -4.046644e+001  -3.443499e+001 
3593750000  -4.167308e+001  -3.537254e+001 
3596875000  -4.139248e+001  -2.940086e+001 
3600000000  -4.032729e+001  -3.697510e+001 
3603125000  -4.048149e+001  -5.049150e+001 
3606250000  -4.125705e+001  -5.443136e+001 
3609375000  -4.173156e+001  -5.827536e+001 
3612500000  -4.248014e+001  -6.166483e+001 
3615625000  -4.246638e+001  -6.384821e+001 
3618750000  -4.323977e+001  -6.497538e+001 
3621875000  -4.305272e+001  -6.751828e+001 
3625000000  -4.354779e+001  -6.776624e+001 
3628125000  -4.404804e+001  -7.073773e+001 
3631250000  -4.417918e+001  -7.585765e+001 
3634375000  -4.505214e+001  -7.544140e+001 
3637500000  -4.488670e+001  -7.125271e+001 
3640625000  -4.478403e+001  -6.995324e+001 
3643750000  -4.424329e+001  -7.872765e+001 
3646875000  -4.505191e+001  -8.330482e+001 
3650000000  -4.546648e+001  -8.096877e+001 
3653125000  -4.572552e+001  -8.348628e+001 
3656250000  -4.568689e+001  -8.288581e+001 
3659375000  -4.586049e+001  -7.929588e+001 
3662500000  -4.527736e+001  -8.131198e+001 
3665625000  -4.499704e+001  -8.136924e+001 
3668750000  -4.396725e+001  -8.105271e+001 
3671875000  -4.311641e+001  -8.808152e+001 
3675000000  -4.364451e+001  -9.596923e+001 
3678125000  -4.379717e+001  -9.626910e+001 
3681250000  -4.342686e+001  -9.571367e+001 
3684375000  -4.297998e+001  -1.023538e+002 
3687500000  -4.346429e+001  -1.053442e+002 
3690625000  -4.338493e+001  -1.083174e+002 
3693750000  -4.420858e+001  -1.086270e+002 
3696875000  -4.354056e+001  -1.088338e+002 
3700000000  -4.295401e+001  -1.143042e+002 
3703125000  -4.325567e+001  -1.204374e+002 
3706250000  -4.395835e+001  -1.191637e+002 
3709375000  -4.364352e+001  -1.160654e+002 
3712500000  -4.265266e+001  -1.192750e+002 
3715625000  -4.177140e+001  -1.279807e+002 
3718750000  -4.112725e+001  -1.327639e+002 
3721875000  -4.101074e+001  -1.385282e+002 
3725000000  -4.156285e+001  -1.449111e+002 
3728125000  -4.190443e+001  -1.477418e+002 
3731250000  -4.157061e+001  -1.497237e+002 
3734375000  -4.108561e+001  -1.539054e+002 
3737500000  -4.193995e+001  -1.636015e+002 
3740625000  -4.282572e+001  -1.654901e+002 
3743750000  -4.285960e+001  -1.705757e+002 
3746875000  -4.317031e+001  -1.734756e+002 
3750000000  -4.390750e+001  -1.747973e+002 
3753125000  -4.367471e+001  -1.757803e+002 
3756250000  -4.410327e+001  -1.744099e+002 
3759375000  -4.452122e+001  -1.746032e+002 
3762500000  -4.417759e+001  -1.776147e+002 
3765625000  -4.455030e+001  -1.790750e+002 
3768750000  -4.433197e+001  -1.719652e+002 
3771875000  -4.322287e+001  -1.765641e+002 
3775000000  -4.315451e+001  1.769788e+002 
3778125000  -4.312049e+001  1.749373e+002 
3781250000  -4.300978e+001  1.749248e+002 
3784375000  -4.279752e+001  1.731109e+002 
3787500000  -4.216536e+001  1.734485e+002 
3790625000  -4.262935e+001  1.659395e+002 
3793750000  -4.254752e+001  1.636169e+002 
3796875000  -4.138966e+001  1.619621e+002 
3800000000  -3.993044e+001  1.607242e+002 
3803125000  -4.046358e+001  1.518946e+002 
3806250000  -4.123387e+001  1.480822e+002 
3809375000  -4.082335e+001  1.480984e+002 
3812500000  -4.012845e+001  1.408576e+002 
3815625000  -4.077895e+001  1.308746e+002 
3818750000  -4.140563e+001  1.296009e+002 
3821875000  -4.173229e+001  1.377939e+002 
3825000000  -3.944782e+001  1.409099e+002 
3828125000  -3.834688e+001  1.234483e+002 
3831250000  -3.905989e+001  1.096994e+002 
3834375000  -4.050599e+001  1.094932e+002 
3837500000  -4.107904e+001  1.124372e+002 
3840625000  -3.988253e+001  1.114593e+002 
3843750000  -3.900629e+001  9.936107e+001 
3846875000  -3.985225e+001  9.061754e+001 
3850000000  -4.098784e+001  9.587337e+001 
3853125000  -4.018937e+001  1.015125e+002 
3856250000  -4.028242e+001  9.113326e+001 
3859375000  -3.943050e+001  8.808533e+001 
3862500000  -3.930852e+001  7.831087e+001 
3865625000  -3.978406e+001  7.555898e+001 
3868750000  -3.964706e+001  7.325716e+001 
3871875000  -3.909111e+001  6.936241e+001 
3875000000  -3.948745e+001  6.004261e+001 
3878125000  -4.046180e+001  5.817902e+001 
3881250000  -4.045779e+001  5.949838e+001 
3884375000  -4.014304e+001  5.522453e+001 
3887500000  -4.029467e+001  5.008486e+001 
3890625000  -4.076110e+001  4.493125e+001 
3893750000  -4.100631e+001  4.425800e+001 
3896875000  -4.167917e+001  4.663477e+001 
3900000000  -4.157156e+001  4.409813e+001 
3903125000  -4.098006e+001  4.187265e+001 
3906250000  -4.097939e+001  4.128612e+001 
3909375000  -3.981592e+001  3.643559e+001 
3912500000  -4.019724e+001  2.795437e+001 
3915625000  -4.178612e+001  2.846425e+001 
3918750000  -4.107047e+001  3.040354e+001 
3921875000  -4.074921e+001  2.863012e+001 
3925000000  -3.979927e+001  2.500536e+001 
3928125000  -3.921447e+001  1.955943e+001 
3931250000  -3.966345e+001  1.354734e+001 
3934375000  -3.985834e+001  1.436926e+001 
3937500000  -4.016600e+001  1.127942e+001 
3940625000  -4.060559e+001  9.086925e+000 
3943750000  -3.944393e+001  9.763668e+000 
3946875000  -3.846677e+001  2.984286e+000 
3950000000  -3.921961e+001  -5.903237e+000 
3953125000  -4.038773e+001  -5.342667e+000 
3956250000  -3.901173e+001  -3.114228e+000 
3959375000  -3.785696e+001  -8.354177e+000 
3962500000  -3.743417e+001  -1.318238e+001 
3965625000  -3.740238e+001  -2.391527e+001 
3968750000  -3.854306e+001  -2.904436e+001 
3971875000  -3.859669e+001  -3.232215e+001 
3975000000  -3.784380e+001  -3.515578e+001 
3978125000  -3.801972e+001  -3.589380e+001 
3981250000  -3.774133e+001  -4.477595e+001 
3984375000  -3.811401e+001  -4.882195e+001 
3987500000  -3.852548e+001  -5.107990e+001 
3990625000  -3.880198e+001  -5.327354e+001 
3993750000  -3.906525e+001  -5.816712e+001 
3996875000  -3.896266e+001  -6.152441e+001 
4000000000  -3.923271e+001  -6.223414e+001 
4003125000  -3.958326e+001  -6.108899e+001 
4006250000  -3.827842e+001  -6.290966e+001 
4009375000  -3.729073e+001  -7.608017e+001 
4012500000  -3.855400e+001  -8.173522e+001 
4015625000  -3.951258e+001  -8.173565e+001 
4018750000  -3.991322e+001  -8.261934e+001 
4021875000  -3.936641e+001  -8.369469e+001 
4025000000  -3.867630e+001  -8.886492e+001 
4028125000  -3.894614e+001  -9.168064e+001 
4031250000  -3.920611e+001  -9.690591e+001 
4034375000  -3.940741e+001  -9.543962e+001 
4037500000  -3.917965e+001  -9.594914e+001 
4040625000  -3.886084e+001  -1.004427e+002 
4043750000  -3.931733e+001  -1.014024e+002 
4046875000  -3.897561e+001  -1.009594e+002 
4050000000  -3.845230e+001  -1.089573e+002 
4053125000  -3.907685e+001  -1.110592e+002 
4056250000  -3.921964e+001  -1.071564e+002 
4059375000  -3.810430e+001  -1.054418e+002 
4062500000  -3.685287e+001  -1.128334e+002 
4065625000  -3.659126e+001  -1.175590e+002 
4068750000  -3.638857e+001  -1.231142e+002 
4071875000  -3.563651e+001  -1.318191e+002 
4075000000  -3.616269e+001  -1.384005e+002 
4078125000  -3.684916e+001  -1.413469e+002 
4081250000  -3.614678e+001  -1.447361e+002 
4084375000  -3.568334e+001  -1.524196e+002 
4087500000  -3.629360e+001  -1.583136e+002 
4090625000  -3.680947e+001  -1.603497e+002 
4093750000  -3.654681e+001  -1.605336e+002 
4096875000  -3.625504e+001  -1.681418e+002 
4100000000  -3.704828e+001  -1.764206e+002 
4103125000  -3.799079e+001  -1.749551e+002 
4106250000  -3.782744e+001  -1.705032e+002 
4109375000  -3.681382e+001  -1.718907e+002 
4112500000  -3.616479e+001  1.783435e+002 
4115625000  -3.671432e+001  1.746513e+002 
4118750000  -3.675290e+001  1.707530e+002 
4121875000  -3.636899e+001  1.634907e+002 
4125000000  -3.681723e+001  1.582533e+002 
4128125000  -3.794413e+001  1.604472e+002 
4131250000  -3.767751e+001  1.657058e+002 
4134375000  -3.517650e+001  1.608221e+002 
4137500000  -3.521132e+001  1.402909e+002 
4140625000  -3.742484e+001  1.326423e+002 
4143750000  -3.892480e+001  1.382127e+002 
4146875000  -3.843219e+001  1.427515e+002 
4150000000  -3.769484e+001  1.390623e+002 
4153125000  -3.753792e+001  1.308876e+002 
4156250000  -3.860830e+001  1.311145e+002 
4159375000  -3.864267e+001  1.328042e+002 
4162500000  -3.766996e+001  1.374116e+002 
4165625000  -3.635631e+001  1.315947e+002 
4168750000  -3.599732e+001  1.251911e+002 
4171875000  -3.585580e+001  1.142924e+002 
4175000000  -3.651033e+001  1.095645e+002 
4178125000  -3.720788e+001  1.095725e+002 
4181250000  -3.661993e+001  1.083310e+002 
4184375000  -3.688393e+001  1.027498e+002 
4187500000  -3.673888e+001  9.937285e+001 
4190625000  -3.673120e+001  9.509988e+001 
4193750000  -3.748888e+001  8.954189e+001 
4196875000  -3.834620e+001  9.030380e+001 
4200000000  -3.906536e+001  9.167576e+001 
4203125000  -3.873985e+001  1.061767e+002 
4206250000  -3.514890e+001  1.047489e+002 
4209375000  -3.422059e+001  8.149944e+001 
4212500000  -3.623536e+001  7.340870e+001 
4215625000  -3.707856e+001  7.998941e+001 
4218750000  -3.554059e+001  8.597923e+001 
4221875000  -3.341212e+001  7.573418e+001 
4225000000  -3.490292e+001  6.205437e+001 
4228125000  -3.516250e+001  6.595774e+001 
4231250000  -3.371355e+001  6.158907e+001 
4234375000  -3.343624e+001  5.193546e+001 
4237500000  -3.303907e+001  4.720003e+001 
4240625000  -3.315100e+001  3.723267e+001 
4243750000  -3.411562e+001  2.817175e+001 
4246875000  -3.516529e+001  2.754197e+001 
4250000000  -3.500818e+001  3.055882e+001 
4253125000  -3.456901e+001  2.793081e+001 
4256250000  -3.500873e+001  2.218659e+001 
4259375000  -3.458228e+001  1.842820e+001 
4262500000  -3.486169e+001  1.453523e+001 
4265625000  -3.484524e+001  1.351369e+001 
4268750000  -3.389458e+001  8.090642e+000 
4271875000  -3.370965e+001  4.149401e-001 
4275000000  -3.331357e+001  -6.898346e+000 
4278125000  -3.434558e+001  -1.829811e+001 
4281250000  -3.607749e+001  -2.022223e+001 
4284375000  -3.565591e+001  -2.041063e+001 
4287500000  -3.695537e+001  -2.465226e+001 
4290625000  -3.799161e+001  -1.444936e+001 
4293750000  -3.585920e+001  -9.652571e+000 
4296875000  -3.476545e+001  -2.266863e+001 
4300000000  -3.584459e+001  -3.087065e+001 
4303125000  -3.696906e+001  -2.922451e+001 
4306250000  -3.617615e+001  -2.502048e+001 
4309375000  -3.483498e+001  -2.570176e+001 
4312500000  -3.485490e+001  -3.437788e+001 
4315625000  -3.492278e+001  -4.134449e+001 
4318750000  -3.533379e+001  -4.543455e+001 
4321875000  -3.537814e+001  -4.417054e+001 
4325000000  -3.486238e+001  -4.339905e+001 
4328125000  -3.407490e+001  -5.069893e+001 
4331250000  -3.398093e+001  -5.904824e+001 
4334375000  -3.447341e+001  -6.508385e+001 
4337500000  -3.520351e+001  -6.781918e+001 
4340625000  -3.580352e+001  -6.378064e+001 
4343750000  -3.477622e+001  -6.491803e+001 
4346875000  -3.433301e+001  -7.147633e+001 
4350000000  -3.438429e+001  -7.657254e+001 
4353125000  -3.432964e+001  -8.567981e+001 
4356250000  -3.648573e+001  -8.546099e+001 
4359375000  -3.649746e+001  -7.148323e+001 
4362500000  -3.332173e+001  -7.398808e+001 
4365625000  -3.192733e+001  -8.742532e+001 
4368750000  -3.289075e+001  -9.973883e+001 
4371875000  -3.395926e+001  -9.977856e+001 
4375000000  -3.341068e+001  -1.019273e+002 
4378125000  -3.277727e+001  -1.080428e+002 
4381250000  -3.300649e+001  -1.147979e+002 
4384375000  -3.277960e+001  -1.211598e+002 
4387500000  -3.369433e+001  -1.287442e+002 
4390625000  -3.451935e+001  -1.285782e+002 
4393750000  -3.384949e+001  -1.279862e+002 
4396875000  -3.328004e+001  -1.312942e+002 
4400000000  -3.287569e+001  -1.392793e+002 
4403125000  -3.346142e+001  -1.477459e+002 
4406250000  -3.434431e+001  -1.517518e+002 
4409375000  -3.445048e+001  -1.540217e+002 
4412500000  -3.575798e+001  -1.569279e+002 
4415625000  -3.603521e+001  -1.520449e+002 
