!Agilent Technologies,E8363B,MY43030201,A.06.04.32
!Agilent E8363B: A.06.04.32
!Date: Tuesday, November 11, 2014 21:13:36
!Correction: S21(Response(S21)) 
!S1P File: Measurement: S21:
# Hz S  dB   R 50
3000000000  -3.639139e+001  -5.964481e+001 
3003125000  -3.771859e+001  -6.533526e+001 
3006250000  -3.745434e+001  -6.740224e+001 
3009375000  -3.784378e+001  -6.348771e+001 
3012500000  -3.707286e+001  -6.539783e+001 
3015625000  -3.628540e+001  -7.283194e+001 
3018750000  -3.694776e+001  -7.336217e+001 
3021875000  -3.553777e+001  -7.322874e+001 
3025000000  -3.425136e+001  -7.672484e+001 
3028125000  -3.316638e+001  -8.357343e+001 
3031250000  -3.217281e+001  -9.500372e+001 
3034375000  -3.183274e+001  -1.085689e+002 
3037500000  -3.240412e+001  -1.198414e+002 
3040625000  -3.377896e+001  -1.250023e+002 
3043750000  -3.438185e+001  -1.301285e+002 
3046875000  -3.460128e+001  -1.358977e+002 
3050000000  -3.623549e+001  -1.419297e+002 
3053125000  -3.605555e+001  -1.352849e+002 
3056250000  -3.567995e+001  -1.329691e+002 
3059375000  -3.569165e+001  -1.328234e+002 
3062500000  -3.405584e+001  -1.366455e+002 
3065625000  -3.395214e+001  -1.432364e+002 
3068750000  -3.357491e+001  -1.502180e+002 
3071875000  -3.359902e+001  -1.514602e+002 
3075000000  -3.332451e+001  -1.565020e+002 
3078125000  -3.305259e+001  -1.607863e+002 
3081250000  -3.353253e+001  -1.654834e+002 
3084375000  -3.266322e+001  -1.682890e+002 
3087500000  -3.251200e+001  -1.722025e+002 
3090625000  -3.202546e+001  1.767865e+002 
3093750000  -3.251281e+001  1.695712e+002 
3096875000  -3.350357e+001  1.641871e+002 
3100000000  -3.340682e+001  1.623543e+002 
3103125000  -3.364833e+001  1.625866e+002 
3106250000  -3.321489e+001  1.579429e+002 
3109375000  -3.328811e+001  1.545767e+002 
3112500000  -3.319512e+001  1.519338e+002 
3115625000  -3.287315e+001  1.473409e+002 
3118750000  -3.319219e+001  1.469438e+002 
3121875000  -3.225180e+001  1.376715e+002 
3125000000  -3.370165e+001  1.334119e+002 
3128125000  -3.446341e+001  1.414850e+002 
3131250000  -3.196394e+001  1.392702e+002 
3134375000  -3.077843e+001  1.234192e+002 
3137500000  -3.135554e+001  1.099683e+002 
3140625000  -3.280061e+001  1.072031e+002 
3143750000  -3.384636e+001  1.080748e+002 
3146875000  -3.325397e+001  1.098795e+002 
3150000000  -3.232783e+001  1.095121e+002 
3153125000  -3.235109e+001  9.944511e+001 
3156250000  -3.338416e+001  1.052604e+002 
3159375000  -3.149764e+001  1.062153e+002 
3162500000  -2.963124e+001  9.142530e+001 
3165625000  -3.077255e+001  7.918114e+001 
3168750000  -3.102369e+001  7.953519e+001 
3171875000  -3.017616e+001  7.401478e+001 
3175000000  -3.088452e+001  6.532296e+001 
3178125000  -3.058138e+001  6.591620e+001 
3181250000  -2.953931e+001  5.984578e+001 
3184375000  -2.898694e+001  4.752726e+001 
3187500000  -3.021905e+001  3.218348e+001 
3190625000  -3.275307e+001  2.483672e+001 
3193750000  -3.324392e+001  3.364240e+001 
3196875000  -3.297296e+001  3.726268e+001 
3200000000  -3.199845e+001  3.522439e+001 
3203125000  -3.132776e+001  2.854466e+001 
3206250000  -3.157929e+001  2.179663e+001 
3209375000  -3.111034e+001  1.535393e+001 
3212500000  -3.132143e+001  9.017639e+000 
3215625000  -3.135651e+001  5.339520e+000 
3218750000  -3.220006e+001  -1.879015e+000 
3221875000  -3.288329e+001  -7.347997e+000 
3225000000  -3.258128e+001  -8.465491e+000 
3228125000  -3.304581e+001  -1.446110e+001 
3231250000  -3.362885e+001  -1.646103e+001 
3234375000  -3.338446e+001  -1.635676e+001 
3237500000  -3.330190e+001  -1.879646e+001 
3240625000  -3.289239e+001  -2.125641e+001 
3243750000  -3.243008e+001  -2.904817e+001 
3246875000  -3.297234e+001  -3.586401e+001 
3250000000  -3.332124e+001  -3.809608e+001 
3253125000  -3.351799e+001  -4.022225e+001 
3256250000  -3.302116e+001  -4.690816e+001 
3259375000  -3.334117e+001  -5.603331e+001 
3262500000  -3.459521e+001  -5.929799e+001 
3265625000  -3.516008e+001  -5.593295e+001 
3268750000  -3.499157e+001  -5.418769e+001 
3271875000  -3.455233e+001  -5.497709e+001 
3275000000  -3.357200e+001  -6.178871e+001 
3278125000  -3.407382e+001  -6.850328e+001 
3281250000  -3.425562e+001  -6.744590e+001 
3284375000  -3.366507e+001  -7.445717e+001 
3287500000  -3.394034e+001  -7.719012e+001 
3290625000  -3.417272e+001  -8.408109e+001 
3293750000  -3.401972e+001  -8.961980e+001 
3296875000  -3.507316e+001  -9.047507e+001 
3300000000  -3.470047e+001  -8.927130e+001 
3303125000  -3.355553e+001  -9.466194e+001 
3306250000  -3.347946e+001  -1.027665e+002 
3309375000  -3.309904e+001  -1.085897e+002 
3312500000  -3.324509e+001  -1.197368e+002 
3315625000  -3.430942e+001  -1.282840e+002 
3318750000  -3.586937e+001  -1.304393e+002 
3321875000  -3.688803e+001  -1.305873e+002 
3325000000  -3.730388e+001  -1.252615e+002 
3328125000  -3.681150e+001  -1.241627e+002 
3331250000  -3.547873e+001  -1.179164e+002 
3334375000  -3.278932e+001  -1.297060e+002 
3337500000  -3.289283e+001  -1.482826e+002 
3340625000  -3.446126e+001  -1.597299e+002 
3343750000  -3.663109e+001  -1.596031e+002 
3346875000  -3.638383e+001  -1.587574e+002 
3350000000  -3.582706e+001  -1.610901e+002 
3353125000  -3.593386e+001  -1.657939e+002 
3356250000  -3.545407e+001  -1.734172e+002 
3359375000  -3.651900e+001  1.779939e+002 
3362500000  -3.743962e+001  1.723511e+002 
3365625000  -3.793480e+001  1.715635e+002 
3368750000  -3.879240e+001  1.680799e+002 
3371875000  -3.885339e+001  1.667941e+002 
3375000000  -4.044218e+001  1.634751e+002 
3378125000  -4.117633e+001  1.628879e+002 
3381250000  -4.245574e+001  1.722616e+002 
3384375000  -4.087500e+001  -1.667645e+002 
3387500000  -3.740442e+001  1.772861e+002 
3390625000  -3.916432e+001  1.585202e+002 
3393750000  -4.046168e+001  1.626014e+002 
3396875000  -3.907843e+001  1.628024e+002 
3400000000  -3.863823e+001  1.547392e+002 
3403125000  -3.919874e+001  1.484349e+002 
3406250000  -3.962474e+001  1.478857e+002 
3409375000  -3.981211e+001  1.409703e+002 
3412500000  -4.017518e+001  1.389805e+002 
3415625000  -4.089088e+001  1.384561e+002 
3418750000  -4.117062e+001  1.398196e+002 
3421875000  -4.106665e+001  1.432291e+002 
3425000000  -4.007089e+001  1.426344e+002 
3428125000  -3.918095e+001  1.385829e+002 
3431250000  -3.911582e+001  1.325707e+002 
3434375000  -3.904865e+001  1.252055e+002 
3437500000  -3.974940e+001  1.227466e+002 
3440625000  -3.993435e+001  1.247282e+002 
3443750000  -3.867846e+001  1.230171e+002 
3446875000  -3.787130e+001  1.160676e+002 
3450000000  -3.754332e+001  1.068707e+002 
3453125000  -3.782362e+001  9.548750e+001 
3456250000  -3.889622e+001  9.084139e+001 
3459375000  -4.018365e+001  9.069799e+001 
3462500000  -3.974565e+001  9.142976e+001 
3465625000  -3.981684e+001  8.520036e+001 
3468750000  -3.997628e+001  8.106483e+001 
3471875000  -3.998836e+001  7.918150e+001 
3475000000  -3.955684e+001  7.507651e+001 
3478125000  -4.021421e+001  6.756171e+001 
3481250000  -4.110316e+001  6.462565e+001 
3484375000  -4.222555e+001  6.954720e+001 
3487500000  -4.131694e+001  6.738137e+001 
3490625000  -4.066795e+001  6.376509e+001 
3493750000  -4.140482e+001  5.686833e+001 
3496875000  -4.178049e+001  5.666420e+001 
3500000000  -4.192371e+001  5.765910e+001 
3503125000  -4.186771e+001  6.095177e+001 
3506250000  -4.072322e+001  5.555628e+001 
3509375000  -4.039693e+001  4.653210e+001 
3512500000  -4.102990e+001  3.672569e+001 
3515625000  -4.207002e+001  3.518446e+001 
3518750000  -4.262643e+001  3.605069e+001 
3521875000  -4.241613e+001  3.216456e+001 
3525000000  -4.339758e+001  3.106714e+001 
3528125000  -4.353432e+001  3.760384e+001 
3531250000  -4.219360e+001  3.370819e+001 
3534375000  -4.212874e+001  2.655222e+001 
3537500000  -4.236259e+001  1.895174e+001 
3540625000  -4.359798e+001  1.936591e+001 
3543750000  -4.414351e+001  2.296972e+001 
3546875000  -4.390805e+001  3.541062e+001 
3550000000  -4.118164e+001  3.522115e+001 
3553125000  -3.986746e+001  1.824802e+001 
3556250000  -4.117579e+001  1.040677e+001 
3559375000  -4.122673e+001  1.094247e+001 
3562500000  -4.003930e+001  3.512415e+000 
3565625000  -4.098162e+001  -3.075820e+000 
3568750000  -4.117194e+001  -2.886058e+000 
3571875000  -4.074456e+001  -3.541787e+000 
3575000000  -4.031659e+001  -1.241927e+001 
3578125000  -4.123873e+001  -1.482120e+001 
3581250000  -4.123909e+001  -1.626385e+001 
3584375000  -4.021535e+001  -2.140069e+001 
3587500000  -3.985896e+001  -2.892612e+001 
3590625000  -4.048587e+001  -3.895450e+001 
3593750000  -4.179196e+001  -4.208245e+001 
3596875000  -4.181512e+001  -3.334846e+001 
3600000000  -4.041324e+001  -4.128541e+001 
3603125000  -4.058242e+001  -5.562105e+001 
3606250000  -4.129535e+001  -5.968749e+001 
3609375000  -4.184261e+001  -6.261103e+001 
3612500000  -4.269910e+001  -6.510535e+001 
3615625000  -4.316796e+001  -6.724605e+001 
3618750000  -4.376947e+001  -6.988118e+001 
3621875000  -4.357394e+001  -6.980862e+001 
3625000000  -4.475967e+001  -7.286804e+001 
3628125000  -4.423768e+001  -7.276044e+001 
3631250000  -4.441776e+001  -7.742632e+001 
3634375000  -4.576925e+001  -7.849273e+001 
3637500000  -4.552520e+001  -7.352863e+001 
3640625000  -4.529587e+001  -7.192258e+001 
3643750000  -4.482394e+001  -7.635065e+001 
3646875000  -4.523714e+001  -8.353423e+001 
3650000000  -4.581774e+001  -7.978185e+001 
3653125000  -4.533632e+001  -8.176348e+001 
3656250000  -4.575373e+001  -8.242735e+001 
3659375000  -4.598042e+001  -7.947879e+001 
3662500000  -4.483485e+001  -8.031555e+001 
3665625000  -4.473420e+001  -7.923607e+001 
3668750000  -4.338940e+001  -8.030364e+001 
3671875000  -4.284121e+001  -8.996033e+001 
3675000000  -4.287362e+001  -9.547753e+001 
3678125000  -4.310136e+001  -9.510088e+001 
3681250000  -4.267808e+001  -9.939719e+001 
3684375000  -4.278627e+001  -1.044948e+002 
3687500000  -4.280538e+001  -1.089136e+002 
3690625000  -4.280040e+001  -1.129809e+002 
3693750000  -4.362422e+001  -1.129791e+002 
3696875000  -4.354189e+001  -1.113485e+002 
3700000000  -4.253672e+001  -1.197825e+002 
3703125000  -4.276249e+001  -1.236826e+002 
3706250000  -4.359653e+001  -1.223165e+002 
3709375000  -4.319722e+001  -1.245175e+002 
3712500000  -4.209721e+001  -1.263753e+002 
3715625000  -4.133955e+001  -1.315424e+002 
3718750000  -4.123247e+001  -1.390703e+002 
3721875000  -4.115416e+001  -1.464492e+002 
3725000000  -4.148980e+001  -1.533783e+002 
3728125000  -4.206020e+001  -1.535649e+002 
3731250000  -4.140800e+001  -1.556705e+002 
3734375000  -4.096710e+001  -1.628571e+002 
3737500000  -4.233012e+001  -1.703305e+002 
3740625000  -4.342104e+001  -1.709316e+002 
3743750000  -4.331456e+001  -1.734317e+002 
3746875000  -4.371571e+001  -1.783151e+002 
3750000000  -4.451577e+001  -1.797153e+002 
3753125000  -4.443404e+001  -1.782069e+002 
3756250000  -4.482873e+001  -1.772126e+002 
3759375000  -4.478375e+001  -1.757454e+002 
3762500000  -4.451605e+001  1.786865e+002 
3765625000  -4.508456e+001  1.782054e+002 
3768750000  -4.543584e+001  -1.775256e+002 
3771875000  -4.313739e+001  -1.782312e+002 
3775000000  -4.309806e+001  1.781045e+002 
3778125000  -4.351602e+001  1.740226e+002 
3781250000  -4.332750e+001  1.734182e+002 
3784375000  -4.296023e+001  1.722975e+002 
3787500000  -4.190228e+001  1.708330e+002 
3790625000  -4.259361e+001  1.624749e+002 
3793750000  -4.234232e+001  1.632243e+002 
3796875000  -4.114390e+001  1.624065e+002 
3800000000  -3.950789e+001  1.594874e+002 
3803125000  -4.046807e+001  1.483116e+002 
3806250000  -4.078708e+001  1.465362e+002 
3809375000  -4.048507e+001  1.439748e+002 
3812500000  -3.972907e+001  1.374992e+002 
3815625000  -4.032638e+001  1.256487e+002 
3818750000  -4.137922e+001  1.276150e+002 
3821875000  -4.119036e+001  1.366597e+002 
3825000000  -3.929391e+001  1.381710e+002 
3828125000  -3.807428e+001  1.199500e+002 
3831250000  -3.849516e+001  1.049096e+002 
3834375000  -4.008972e+001  1.031297e+002 
3837500000  -4.129922e+001  1.095743e+002 
3840625000  -3.974831e+001  1.064762e+002 
3843750000  -3.894857e+001  9.413251e+001 
3846875000  -3.976983e+001  8.572054e+001 
3850000000  -4.080242e+001  9.201578e+001 
3853125000  -4.057997e+001  9.423459e+001 
3856250000  -4.029710e+001  8.719615e+001 
3859375000  -3.953856e+001  8.217751e+001 
3862500000  -3.920231e+001  7.462862e+001 
3865625000  -3.986706e+001  6.718684e+001 
3868750000  -3.958237e+001  6.822985e+001 
3871875000  -3.909578e+001  6.352374e+001 
3875000000  -3.964135e+001  5.538141e+001 
3878125000  -4.062283e+001  5.381758e+001 
3881250000  -4.094065e+001  5.562823e+001 
3884375000  -4.025933e+001  5.039890e+001 
3887500000  -4.053297e+001  4.743230e+001 
3890625000  -4.091120e+001  4.300032e+001 
3893750000  -4.139478e+001  4.155723e+001 
3896875000  -4.181247e+001  4.286608e+001 
3900000000  -4.180091e+001  4.223991e+001 
3903125000  -4.132787e+001  3.878917e+001 
3906250000  -4.094129e+001  3.774361e+001 
3909375000  -4.039981e+001  3.608675e+001 
3912500000  -4.023652e+001  2.654291e+001 
3915625000  -4.141428e+001  2.767239e+001 
3918750000  -4.106295e+001  3.066411e+001 
3921875000  -4.056712e+001  2.743194e+001 
3925000000  -3.973472e+001  2.366181e+001 
3928125000  -3.913253e+001  1.719386e+001 
3931250000  -3.960541e+001  1.184639e+001 
3934375000  -3.990917e+001  1.053072e+001 
3937500000  -4.010653e+001  1.115325e+001 
3940625000  -4.043376e+001  6.007987e+000 
3943750000  -3.931900e+001  7.174688e+000 
3946875000  -3.810066e+001  1.841238e+000 
3950000000  -3.891999e+001  -8.109758e+000 
3953125000  -3.992486e+001  -9.035159e+000 
3956250000  -3.859022e+001  -7.615690e+000 
3959375000  -3.756836e+001  -1.019984e+001 
3962500000  -3.713698e+001  -1.651295e+001 
3965625000  -3.702178e+001  -2.722835e+001 
3968750000  -3.812257e+001  -3.393777e+001 
3971875000  -3.818402e+001  -3.742345e+001 
3975000000  -3.771526e+001  -3.854465e+001 
3978125000  -3.778960e+001  -4.336987e+001 
3981250000  -3.755725e+001  -4.901868e+001 
3984375000  -3.803396e+001  -5.500701e+001 
3987500000  -3.862381e+001  -5.734041e+001 
3990625000  -3.854451e+001  -5.979371e+001 
3993750000  -3.888103e+001  -6.332005e+001 
3996875000  -3.896377e+001  -6.765959e+001 
4000000000  -3.916093e+001  -7.000404e+001 
4003125000  -3.978572e+001  -6.762064e+001 
4006250000  -3.815462e+001  -6.822363e+001 
4009375000  -3.730725e+001  -8.320188e+001 
4012500000  -3.875500e+001  -8.858676e+001 
4015625000  -4.021062e+001  -8.856685e+001 
4018750000  -4.034399e+001  -8.802417e+001 
4021875000  -3.935367e+001  -8.990080e+001 
4025000000  -3.907673e+001  -9.383706e+001 
4028125000  -3.923122e+001  -9.612778e+001 
4031250000  -3.944408e+001  -1.001013e+002 
4034375000  -3.985035e+001  -1.003207e+002 
4037500000  -3.942553e+001  -9.978706e+001 
4040625000  -3.937994e+001  -1.038420e+002 
4043750000  -3.987581e+001  -1.051367e+002 
4046875000  -3.917245e+001  -1.037408e+002 
4050000000  -3.869638e+001  -1.104902e+002 
4053125000  -3.902456e+001  -1.138238e+002 
4056250000  -3.979898e+001  -1.109258e+002 
4059375000  -3.795040e+001  -1.090838e+002 
4062500000  -3.677557e+001  -1.159288e+002 
4065625000  -3.662496e+001  -1.196309e+002 
4068750000  -3.650692e+001  -1.257830e+002 
4071875000  -3.564188e+001  -1.354850e+002 
4075000000  -3.608859e+001  -1.414338e+002 
4078125000  -3.661417e+001  -1.431354e+002 
4081250000  -3.600946e+001  -1.466369e+002 
4084375000  -3.555267e+001  -1.546559e+002 
4087500000  -3.599660e+001  -1.616795e+002 
4090625000  -3.658709e+001  -1.639327e+002 
4093750000  -3.637111e+001  -1.637288e+002 
4096875000  -3.593128e+001  -1.724444e+002 
4100000000  -3.678004e+001  1.793599e+002 
4103125000  -3.758007e+001  -1.786789e+002 
4106250000  -3.749954e+001  -1.756619e+002 
4109375000  -3.659319e+001  -1.776951e+002 
4112500000  -3.599831e+001  1.747171e+002 
4115625000  -3.642390e+001  1.691109e+002 
4118750000  -3.656570e+001  1.654586e+002 
4121875000  -3.600806e+001  1.586319e+002 
4125000000  -3.669546e+001  1.523069e+002 
4128125000  -3.772358e+001  1.526783e+002 
4131250000  -3.733982e+001  1.596449e+002 
4134375000  -3.528570e+001  1.539758e+002 
4137500000  -3.534161e+001  1.343976e+002 
4140625000  -3.748848e+001  1.262569e+002 
4143750000  -3.887645e+001  1.298410e+002 
4146875000  -3.849674e+001  1.395758e+002 
4150000000  -3.766103e+001  1.333010e+002 
4153125000  -3.733877e+001  1.238738e+002 
4156250000  -3.871371e+001  1.227477e+002 
4159375000  -3.883760e+001  1.288160e+002 
4162500000  -3.771570e+001  1.331030e+002 
4165625000  -3.682350e+001  1.266165e+002 
4168750000  -3.630530e+001  1.198674e+002 
4171875000  -3.606663e+001  1.077566e+002 
4175000000  -3.715294e+001  1.053989e+002 
4178125000  -3.747927e+001  1.036708e+002 
4181250000  -3.732513e+001  1.032973e+002 
4184375000  -3.710262e+001  9.980692e+001 
4187500000  -3.710040e+001  9.616119e+001 
4190625000  -3.704606e+001  9.082114e+001 
4193750000  -3.776119e+001  8.698460e+001 
4196875000  -3.841122e+001  8.537545e+001 
4200000000  -3.928095e+001  8.834174e+001 
4203125000  -3.878242e+001  1.041576e+002 
4206250000  -3.540703e+001  1.016958e+002 
4209375000  -3.443900e+001  7.851193e+001 
4212500000  -3.649827e+001  7.057964e+001 
4215625000  -3.715981e+001  7.784962e+001 
4218750000  -3.556356e+001  8.208476e+001 
4221875000  -3.343988e+001  7.266313e+001 
4225000000  -3.472007e+001  5.856066e+001 
4228125000  -3.510059e+001  6.301717e+001 
4231250000  -3.355384e+001  5.672511e+001 
4234375000  -3.322072e+001  4.806435e+001 
4237500000  -3.299824e+001  4.374603e+001 
4240625000  -3.294511e+001  3.374626e+001 
4243750000  -3.413277e+001  2.447217e+001 
4246875000  -3.492920e+001  2.520108e+001 
4250000000  -3.496452e+001  2.522450e+001 
4253125000  -3.440062e+001  2.244038e+001 
4256250000  -3.460913e+001  1.646964e+001 
4259375000  -3.440055e+001  1.310364e+001 
4262500000  -3.474802e+001  8.138867e+000 
4265625000  -3.470423e+001  8.344554e+000 
4268750000  -3.378208e+001  2.980961e+000 
4271875000  -3.360233e+001  -5.238943e+000 
4275000000  -3.337675e+001  -1.377969e+001 
4278125000  -3.415799e+001  -2.477650e+001 
4281250000  -3.594238e+001  -2.695244e+001 
4284375000  -3.573582e+001  -2.775468e+001 
4287500000  -3.687601e+001  -3.199250e+001 
4290625000  -3.794808e+001  -2.014288e+001 
4293750000  -3.625591e+001  -1.864798e+001 
4296875000  -3.486192e+001  -2.875431e+001 
4300000000  -3.613715e+001  -3.901655e+001 
4303125000  -3.744465e+001  -3.709714e+001 
4306250000  -3.672394e+001  -3.016414e+001 
4309375000  -3.534912e+001  -3.287991e+001 
4312500000  -3.529509e+001  -4.099490e+001 
4315625000  -3.553769e+001  -4.731867e+001 
4318750000  -3.588710e+001  -4.922551e+001 
4321875000  -3.604072e+001  -4.919276e+001 
4325000000  -3.532613e+001  -4.853022e+001 
4328125000  -3.475187e+001  -5.448760e+001 
4331250000  -3.444312e+001  -6.408589e+001 
4334375000  -3.492748e+001  -6.771949e+001 
4337500000  -3.580706e+001  -6.999053e+001 
4340625000  -3.615182e+001  -6.649888e+001 
4343750000  -3.537890e+001  -6.691631e+001 
4346875000  -3.483679e+001  -7.354820e+001 
4350000000  -3.479544e+001  -8.046969e+001 
4353125000  -3.486150e+001  -8.795805e+001 
4356250000  -3.672752e+001  -8.605991e+001 
4359375000  -3.683967e+001  -7.419436e+001 
4362500000  -3.357255e+001  -7.595096e+001 
4365625000  -3.213641e+001  -8.978839e+001 
4368750000  -3.281830e+001  -1.024552e+002 
4371875000  -3.393566e+001  -1.024715e+002 
4375000000  -3.328461e+001  -1.038668e+002 
4378125000  -3.269993e+001  -1.116851e+002 
4381250000  -3.298952e+001  -1.189724e+002 
4384375000  -3.276493e+001  -1.249004e+002 
4387500000  -3.363295e+001  -1.320491e+002 
4390625000  -3.436926e+001  -1.311381e+002 
4393750000  -3.363364e+001  -1.319341e+002 
4396875000  -3.304623e+001  -1.353017e+002 
4400000000  -3.262785e+001  -1.445961e+002 
4403125000  -3.347446e+001  -1.535625e+002 
4406250000  -3.416257e+001  -1.554136e+002 
4409375000  -3.435280e+001  -1.596271e+002 
4412500000  -3.562248e+001  -1.627832e+002 
4415625000  -3.579770e+001  -1.579701e+002 
