!Agilent Technologies,E8363B,MY43030201,A.06.04.32
!Agilent E8363B: A.06.04.32
!Date: Tuesday, November 11, 2014 21:01:00
!Correction: S21(Response(S21)) 
!S1P File: Measurement: S21:
# Hz S  dB   R 50
3000000000  -3.629611e+001  -4.439904e+001 
3003125000  -3.742056e+001  -4.970036e+001 
3006250000  -3.727530e+001  -5.255796e+001 
3009375000  -3.760319e+001  -4.895481e+001 
3012500000  -3.690261e+001  -4.956131e+001 
3015625000  -3.593893e+001  -5.737853e+001 
3018750000  -3.673849e+001  -5.898339e+001 
3021875000  -3.525616e+001  -5.799246e+001 
3025000000  -3.395397e+001  -6.161342e+001 
3028125000  -3.309531e+001  -6.746838e+001 
3031250000  -3.203645e+001  -7.881921e+001 
3034375000  -3.168339e+001  -9.260381e+001 
3037500000  -3.208136e+001  -1.044311e+002 
3040625000  -3.333078e+001  -1.091063e+002 
3043750000  -3.404485e+001  -1.139864e+002 
3046875000  -3.423051e+001  -1.209610e+002 
3050000000  -3.599876e+001  -1.266185e+002 
3053125000  -3.595724e+001  -1.204968e+002 
3056250000  -3.546960e+001  -1.183725e+002 
3059375000  -3.556431e+001  -1.182237e+002 
3062500000  -3.392000e+001  -1.215416e+002 
3065625000  -3.379560e+001  -1.274732e+002 
3068750000  -3.347324e+001  -1.350873e+002 
3071875000  -3.343715e+001  -1.377959e+002 
3075000000  -3.326389e+001  -1.412387e+002 
3078125000  -3.291756e+001  -1.453392e+002 
3081250000  -3.355590e+001  -1.498230e+002 
3084375000  -3.255838e+001  -1.538473e+002 
3087500000  -3.241681e+001  -1.571225e+002 
3090625000  -3.191630e+001  -1.673703e+002 
3093750000  -3.234643e+001  -1.746792e+002 
3096875000  -3.345673e+001  1.793090e+002 
3100000000  -3.331154e+001  1.773300e+002 
3103125000  -3.354187e+001  1.782104e+002 
3106250000  -3.317391e+001  1.735420e+002 
3109375000  -3.331632e+001  1.697742e+002 
3112500000  -3.322876e+001  1.676106e+002 
3115625000  -3.282596e+001  1.625676e+002 
3118750000  -3.317345e+001  1.632117e+002 
3121875000  -3.236600e+001  1.538132e+002 
3125000000  -3.347014e+001  1.492750e+002 
3128125000  -3.462215e+001  1.561035e+002 
3131250000  -3.209975e+001  1.547893e+002 
3134375000  -3.070234e+001  1.396010e+002 
3137500000  -3.128714e+001  1.252943e+002 
3140625000  -3.291325e+001  1.222154e+002 
3143750000  -3.387675e+001  1.244650e+002 
3146875000  -3.342140e+001  1.249513e+002 
3150000000  -3.234391e+001  1.258516e+002 
3153125000  -3.230281e+001  1.168349e+002 
3156250000  -3.333357e+001  1.208467e+002 
3159375000  -3.166568e+001  1.223826e+002 
3162500000  -2.970729e+001  1.085291e+002 
3165625000  -3.070593e+001  9.609853e+001 
3168750000  -3.109676e+001  9.590071e+001 
3171875000  -3.022732e+001  9.084194e+001 
3175000000  -3.093246e+001  8.196941e+001 
3178125000  -3.071156e+001  8.226003e+001 
3181250000  -2.962439e+001  7.732247e+001 
3184375000  -2.887131e+001  6.453365e+001 
3187500000  -2.997400e+001  4.871336e+001 
3190625000  -3.278432e+001  4.096549e+001 
3193750000  -3.341363e+001  4.902319e+001 
3196875000  -3.301527e+001  5.434182e+001 
3200000000  -3.213067e+001  5.141666e+001 
3203125000  -3.126133e+001  4.481303e+001 
3206250000  -3.165762e+001  3.800480e+001 
3209375000  -3.116463e+001  3.259005e+001 
3212500000  -3.135420e+001  2.556944e+001 
3215625000  -3.138784e+001  2.153317e+001 
3218750000  -3.223786e+001  1.388459e+001 
3221875000  -3.309371e+001  8.048394e+000 
3225000000  -3.264560e+001  8.106586e+000 
3228125000  -3.303569e+001  2.130269e+000 
3231250000  -3.369909e+001  -3.494689e-001 
3234375000  -3.339037e+001  -3.650127e-001 
3237500000  -3.348075e+001  -2.242801e+000 
3240625000  -3.308663e+001  -4.527125e+000 
3243750000  -3.258375e+001  -1.218959e+001 
3246875000  -3.308966e+001  -1.998816e+001 
3250000000  -3.346304e+001  -2.133046e+001 
3253125000  -3.360801e+001  -2.425124e+001 
3256250000  -3.333726e+001  -3.031870e+001 
3259375000  -3.350254e+001  -3.870219e+001 
3262500000  -3.472093e+001  -4.285497e+001 
3265625000  -3.538261e+001  -4.019474e+001 
3268750000  -3.521146e+001  -3.812296e+001 
3271875000  -3.479246e+001  -3.813722e+001 
3275000000  -3.392051e+001  -4.459079e+001 
3278125000  -3.427251e+001  -5.207415e+001 
3281250000  -3.454998e+001  -5.074213e+001 
3284375000  -3.408123e+001  -5.714948e+001 
3287500000  -3.426057e+001  -6.072388e+001 
3290625000  -3.444979e+001  -6.676331e+001 
3293750000  -3.426796e+001  -7.219003e+001 
3296875000  -3.531607e+001  -7.294458e+001 
3300000000  -3.507586e+001  -7.207995e+001 
3303125000  -3.390488e+001  -7.749431e+001 
3306250000  -3.362918e+001  -8.378620e+001 
3309375000  -3.335614e+001  -9.069285e+001 
3312500000  -3.349194e+001  -1.017070e+002 
3315625000  -3.446566e+001  -1.104116e+002 
3318750000  -3.577423e+001  -1.126429e+002 
3321875000  -3.701708e+001  -1.140373e+002 
3325000000  -3.748350e+001  -1.082067e+002 
3328125000  -3.712228e+001  -1.077012e+002 
3331250000  -3.595772e+001  -1.009080e+002 
3334375000  -3.330758e+001  -1.112013e+002 
3337500000  -3.336061e+001  -1.307436e+002 
3340625000  -3.464907e+001  -1.417482e+002 
3343750000  -3.664883e+001  -1.430436e+002 
3346875000  -3.683376e+001  -1.420057e+002 
3350000000  -3.633342e+001  -1.422360e+002 
3353125000  -3.626015e+001  -1.475734e+002 
3356250000  -3.590901e+001  -1.555547e+002 
3359375000  -3.662357e+001  -1.641395e+002 
3362500000  -3.772559e+001  -1.691022e+002 
3365625000  -3.817359e+001  -1.714061e+002 
3368750000  -3.901645e+001  -1.746260e+002 
3371875000  -3.916014e+001  -1.757866e+002 
3375000000  -4.056267e+001  -1.795796e+002 
3378125000  -4.167046e+001  -1.792122e+002 
3381250000  -4.264283e+001  -1.704825e+002 
3384375000  -4.162600e+001  -1.497445e+002 
3387500000  -3.787716e+001  -1.637720e+002 
3390625000  -3.944502e+001  1.764021e+002 
3393750000  -4.066002e+001  -1.792988e+002 
3396875000  -3.958760e+001  -1.786989e+002 
3400000000  -3.896041e+001  1.731194e+002 
3403125000  -3.955304e+001  1.661048e+002 
3406250000  -3.968732e+001  1.679760e+002 
3409375000  -4.005990e+001  1.599561e+002 
3412500000  -4.051469e+001  1.577119e+002 
3415625000  -4.110801e+001  1.582258e+002 
3418750000  -4.136871e+001  1.599917e+002 
3421875000  -4.130465e+001  1.606273e+002 
3425000000  -4.058045e+001  1.623995e+002 
3428125000  -3.949685e+001  1.589486e+002 
3431250000  -3.946080e+001  1.517586e+002 
3434375000  -3.910469e+001  1.467971e+002 
3437500000  -4.001328e+001  1.424288e+002 
3440625000  -3.994054e+001  1.413871e+002 
3443750000  -3.892795e+001  1.432043e+002 
3446875000  -3.802547e+001  1.359336e+002 
3450000000  -3.762786e+001  1.254157e+002 
3453125000  -3.817421e+001  1.161514e+002 
3456250000  -3.907704e+001  1.088185e+002 
3459375000  -4.031460e+001  1.097208e+002 
3462500000  -3.983326e+001  1.094215e+002 
3465625000  -4.003092e+001  1.046603e+002 
3468750000  -4.017419e+001  1.000099e+002 
3471875000  -4.022935e+001  1.001136e+002 
3475000000  -3.997193e+001  9.388457e+001 
3478125000  -4.045129e+001  8.609917e+001 
3481250000  -4.132962e+001  8.370216e+001 
3484375000  -4.243061e+001  8.837246e+001 
3487500000  -4.174913e+001  8.661843e+001 
3490625000  -4.073371e+001  8.370559e+001 
3493750000  -4.143306e+001  7.728755e+001 
3496875000  -4.197071e+001  7.522617e+001 
3500000000  -4.261812e+001  7.691705e+001 
3503125000  -4.208874e+001  8.071400e+001 
3506250000  -4.099586e+001  7.614409e+001 
3509375000  -4.076918e+001  6.692235e+001 
3512500000  -4.133755e+001  5.718946e+001 
3515625000  -4.227507e+001  5.613493e+001 
3518750000  -4.281347e+001  5.566881e+001 
3521875000  -4.253323e+001  5.277241e+001 
3525000000  -4.376465e+001  5.029510e+001 
3528125000  -4.339312e+001  5.732418e+001 
3531250000  -4.203378e+001  5.488708e+001 
3534375000  -4.216349e+001  4.441116e+001 
3537500000  -4.253333e+001  3.906015e+001 
3540625000  -4.324299e+001  3.802458e+001 
3543750000  -4.418655e+001  4.230241e+001 
3546875000  -4.420359e+001  5.449868e+001 
3550000000  -4.146045e+001  5.408261e+001 
3553125000  -4.028762e+001  3.630960e+001 
3556250000  -4.148799e+001  2.777195e+001 
3559375000  -4.148005e+001  3.117380e+001 
3562500000  -4.039423e+001  2.352821e+001 
3565625000  -4.112748e+001  1.444869e+001 
3568750000  -4.115339e+001  1.617995e+001 
3571875000  -4.108872e+001  1.566118e+001 
3575000000  -4.074546e+001  6.744781e+000 
3578125000  -4.129474e+001  2.018251e+000 
3581250000  -4.152438e+001  1.885873e+000 
3584375000  -4.056314e+001  -3.869489e-001 
3587500000  -4.035727e+001  -9.853540e+000 
3590625000  -4.065222e+001  -2.012262e+001 
3593750000  -4.205011e+001  -2.235835e+001 
3596875000  -4.205324e+001  -1.600677e+001 
3600000000  -4.056742e+001  -2.149341e+001 
3603125000  -4.093993e+001  -3.607213e+001 
3606250000  -4.179838e+001  -4.113358e+001 
3609375000  -4.284955e+001  -4.422441e+001 
3612500000  -4.321191e+001  -4.566247e+001 
3615625000  -4.384404e+001  -5.027013e+001 
3618750000  -4.439277e+001  -4.813126e+001 
3621875000  -4.422964e+001  -5.250603e+001 
3625000000  -4.507134e+001  -5.401008e+001 
3628125000  -4.491346e+001  -5.282214e+001 
3631250000  -4.493811e+001  -5.882857e+001 
3634375000  -4.633668e+001  -5.911036e+001 
3637500000  -4.665562e+001  -5.469006e+001 
3640625000  -4.564528e+001  -4.959307e+001 
3643750000  -4.526012e+001  -5.430732e+001 
3646875000  -4.571179e+001  -5.758947e+001 
3650000000  -4.631358e+001  -6.261120e+001 
3653125000  -4.603286e+001  -5.949710e+001 
3656250000  -4.605413e+001  -6.441612e+001 
3659375000  -4.664114e+001  -5.618832e+001 
3662500000  -4.493751e+001  -5.887187e+001 
3665625000  -4.488752e+001  -6.012170e+001 
3668750000  -4.419770e+001  -6.013902e+001 
3671875000  -4.260396e+001  -6.425583e+001 
3675000000  -4.319561e+001  -7.332580e+001 
3678125000  -4.325445e+001  -7.627673e+001 
3681250000  -4.306044e+001  -7.772983e+001 
3684375000  -4.329584e+001  -8.380443e+001 
3687500000  -4.296199e+001  -8.750009e+001 
3690625000  -4.303979e+001  -9.137336e+001 
3693750000  -4.400266e+001  -9.119337e+001 
3696875000  -4.369079e+001  -9.133801e+001 
3700000000  -4.305650e+001  -9.801305e+001 
3703125000  -4.301484e+001  -1.011696e+002 
3706250000  -4.370990e+001  -1.008769e+002 
3709375000  -4.349688e+001  -9.948025e+001 
3712500000  -4.263883e+001  -1.033302e+002 
3715625000  -4.223426e+001  -1.116064e+002 
3718750000  -4.137834e+001  -1.145553e+002 
3721875000  -4.159988e+001  -1.218245e+002 
3725000000  -4.204040e+001  -1.298844e+002 
3728125000  -4.249072e+001  -1.294698e+002 
3731250000  -4.176907e+001  -1.324629e+002 
3734375000  -4.170892e+001  -1.377793e+002 
3737500000  -4.263113e+001  -1.475736e+002 
3740625000  -4.423594e+001  -1.477666e+002 
3743750000  -4.363702e+001  -1.518719e+002 
3746875000  -4.422929e+001  -1.546662e+002 
3750000000  -4.460806e+001  -1.548338e+002 
3753125000  -4.484300e+001  -1.534395e+002 
3756250000  -4.487333e+001  -1.518738e+002 
3759375000  -4.489360e+001  -1.512215e+002 
3762500000  -4.458952e+001  -1.534394e+002 
3765625000  -4.531084e+001  -1.540517e+002 
3768750000  -4.503514e+001  -1.505514e+002 
3771875000  -4.320699e+001  -1.504121e+002 
3775000000  -4.295376e+001  -1.571088e+002 
3778125000  -4.374630e+001  -1.608043e+002 
3781250000  -4.251724e+001  -1.600842e+002 
3784375000  -4.252518e+001  -1.601606e+002 
3787500000  -4.175097e+001  -1.653411e+002 
3790625000  -4.206942e+001  -1.710474e+002 
3793750000  -4.198271e+001  -1.721366e+002 
3796875000  -4.103659e+001  -1.763325e+002 
3800000000  -3.948697e+001  -1.780871e+002 
3803125000  -4.012627e+001  1.721563e+002 
3806250000  -4.078455e+001  1.692017e+002 
3809375000  -4.024297e+001  1.659063e+002 
3812500000  -3.960519e+001  1.601764e+002 
3815625000  -4.003317e+001  1.487157e+002 
3818750000  -4.104385e+001  1.492043e+002 
3821875000  -4.115136e+001  1.552369e+002 
3825000000  -3.916468e+001  1.579563e+002 
3828125000  -3.782133e+001  1.428084e+002 
3831250000  -3.828669e+001  1.280575e+002 
3834375000  -3.997004e+001  1.262281e+002 
3837500000  -4.066426e+001  1.302434e+002 
3840625000  -3.972880e+001  1.285284e+002 
3843750000  -3.868211e+001  1.152862e+002 
3846875000  -3.960939e+001  1.084051e+002 
3850000000  -4.081225e+001  1.123006e+002 
3853125000  -4.019054e+001  1.175930e+002 
3856250000  -4.040889e+001  1.080639e+002 
3859375000  -3.960648e+001  1.051809e+002 
3862500000  -3.925431e+001  9.743079e+001 
3865625000  -3.983287e+001  9.220338e+001 
3868750000  -3.978144e+001  9.191788e+001 
3871875000  -3.905802e+001  8.777798e+001 
3875000000  -3.956386e+001  7.739926e+001 
3878125000  -4.050955e+001  7.563191e+001 
3881250000  -4.044890e+001  7.834268e+001 
3884375000  -4.012556e+001  7.313190e+001 
3887500000  -4.028363e+001  7.054903e+001 
3890625000  -4.100200e+001  6.758915e+001 
3893750000  -4.111250e+001  6.475239e+001 
3896875000  -4.160792e+001  6.714983e+001 
3900000000  -4.135421e+001  6.736292e+001 
3903125000  -4.124349e+001  6.161893e+001 
3906250000  -4.109723e+001  6.052435e+001 
3909375000  -3.993304e+001  5.693010e+001 
3912500000  -3.988918e+001  4.842450e+001 
3915625000  -4.119096e+001  5.191718e+001 
3918750000  -4.107637e+001  5.299817e+001 
3921875000  -4.036248e+001  4.720715e+001 
3925000000  -3.971527e+001  4.585046e+001 
3928125000  -3.872615e+001  3.779879e+001 
3931250000  -3.944948e+001  3.371635e+001 
3934375000  -3.973650e+001  3.346769e+001 
3937500000  -3.964256e+001  3.192879e+001 
3940625000  -4.034213e+001  2.907604e+001 
3943750000  -3.923246e+001  3.081215e+001 
3946875000  -3.795403e+001  2.294476e+001 
3950000000  -3.863532e+001  1.426428e+001 
3953125000  -3.971472e+001  1.420382e+001 
3956250000  -3.887796e+001  1.527766e+001 
3959375000  -3.765663e+001  1.134811e+001 
3962500000  -3.690319e+001  5.963381e+000 
3965625000  -3.678075e+001  -4.275202e+000 
3968750000  -3.786271e+001  -1.266224e+001 
3971875000  -3.805886e+001  -1.603480e+001 
3975000000  -3.782184e+001  -1.669975e+001 
3978125000  -3.749260e+001  -1.980260e+001 
3981250000  -3.755294e+001  -2.603896e+001 
3984375000  -3.798406e+001  -3.209845e+001 
3987500000  -3.831538e+001  -3.487514e+001 
3990625000  -3.842319e+001  -3.547124e+001 
3993750000  -3.891193e+001  -3.892099e+001 
3996875000  -3.912671e+001  -4.295132e+001 
4000000000  -3.922092e+001  -4.535620e+001 
4003125000  -3.952028e+001  -4.439070e+001 
4006250000  -3.825546e+001  -4.565271e+001 
4009375000  -3.736255e+001  -5.854506e+001 
4012500000  -3.864289e+001  -6.396986e+001 
4015625000  -3.971040e+001  -6.463069e+001 
4018750000  -4.018010e+001  -6.240299e+001 
4021875000  -3.926572e+001  -6.615051e+001 
4025000000  -3.904331e+001  -7.001599e+001 
4028125000  -3.908989e+001  -7.251036e+001 
4031250000  -3.952002e+001  -7.716495e+001 
4034375000  -3.957520e+001  -7.793513e+001 
4037500000  -3.918959e+001  -7.568079e+001 
4040625000  -3.890066e+001  -8.008483e+001 
4043750000  -3.928476e+001  -8.112182e+001 
4046875000  -3.883196e+001  -8.218658e+001 
4050000000  -3.819516e+001  -8.829670e+001 
4053125000  -3.901878e+001  -8.955367e+001 
4056250000  -3.959636e+001  -8.632934e+001 
4059375000  -3.800258e+001  -8.741038e+001 
4062500000  -3.661839e+001  -9.091805e+001 
4065625000  -3.627535e+001  -9.673724e+001 
4068750000  -3.619850e+001  -1.031976e+002 
4071875000  -3.541594e+001  -1.115851e+002 
4075000000  -3.566721e+001  -1.186859e+002 
4078125000  -3.636759e+001  -1.212839e+002 
4081250000  -3.590083e+001  -1.235862e+002 
4084375000  -3.544485e+001  -1.325028e+002 
4087500000  -3.579294e+001  -1.396925e+002 
4090625000  -3.649846e+001  -1.418443e+002 
4093750000  -3.613664e+001  -1.417034e+002 
4096875000  -3.571534e+001  -1.491416e+002 
4100000000  -3.666847e+001  -1.571238e+002 
4103125000  -3.737965e+001  -1.579383e+002 
4106250000  -3.747321e+001  -1.517783e+002 
4109375000  -3.644484e+001  -1.550310e+002 
4112500000  -3.593381e+001  -1.620871e+002 
4115625000  -3.638298e+001  -1.670668e+002 
4118750000  -3.661745e+001  -1.722067e+002 
4121875000  -3.621209e+001  -1.766138e+002 
4125000000  -3.661012e+001  1.760484e+002 
4128125000  -3.774271e+001  1.758579e+002 
4131250000  -3.752879e+001  -1.762083e+002 
4134375000  -3.528505e+001  1.777961e+002 
4137500000  -3.507954e+001  1.574378e+002 
4140625000  -3.733735e+001  1.496289e+002 
4143750000  -3.876701e+001  1.540731e+002 
4146875000  -3.845004e+001  1.604327e+002 
4150000000  -3.734232e+001  1.582052e+002 
4153125000  -3.752986e+001  1.501669e+002 
4156250000  -3.844413e+001  1.482675e+002 
4159375000  -3.883496e+001  1.525424e+002 
4162500000  -3.753432e+001  1.559947e+002 
4165625000  -3.643438e+001  1.526718e+002 
4168750000  -3.585410e+001  1.439632e+002 
4171875000  -3.603729e+001  1.344048e+002 
4175000000  -3.683517e+001  1.281364e+002 
4178125000  -3.753916e+001  1.300471e+002 
4181250000  -3.717247e+001  1.293912e+002 
4184375000  -3.676241e+001  1.253920e+002 
4187500000  -3.692397e+001  1.221740e+002 
4190625000  -3.673581e+001  1.162591e+002 
4193750000  -3.739864e+001  1.118757e+002 
4196875000  -3.796631e+001  1.105046e+002 
4200000000  -3.891738e+001  1.124854e+002 
4203125000  -3.867879e+001  1.240072e+002 
4206250000  -3.504834e+001  1.257925e+002 
4209375000  -3.418090e+001  1.039016e+002 
4212500000  -3.586644e+001  9.531909e+001 
4215625000  -3.700425e+001  1.004825e+002 
4218750000  -3.546873e+001  1.049979e+002 
4221875000  -3.310143e+001  9.532784e+001 
4225000000  -3.434822e+001  8.182797e+001 
4228125000  -3.522335e+001  8.579633e+001 
4231250000  -3.341297e+001  8.062691e+001 
4234375000  -3.315778e+001  7.071601e+001 
4237500000  -3.287716e+001  6.677668e+001 
4240625000  -3.287526e+001  5.684246e+001 
4243750000  -3.388391e+001  4.802681e+001 
4246875000  -3.486292e+001  4.680859e+001 
4250000000  -3.484474e+001  4.909771e+001 
4253125000  -3.417936e+001  4.556078e+001 
4256250000  -3.474500e+001  4.032452e+001 
4259375000  -3.445581e+001  3.691000e+001 
4262500000  -3.463232e+001  3.357902e+001 
4265625000  -3.466636e+001  3.108587e+001 
4268750000  -3.384735e+001  2.583031e+001 
4271875000  -3.376350e+001  1.927194e+001 
4275000000  -3.330045e+001  1.146093e+001 
4278125000  -3.407326e+001  -7.796600e-001 
4281250000  -3.608739e+001  -2.672832e+000 
4284375000  -3.573025e+001  -2.371021e+000 
4287500000  -3.677770e+001  -5.759636e+000 
4290625000  -3.796838e+001  1.781072e+000 
4293750000  -3.611506e+001  7.555734e+000 
4296875000  -3.492764e+001  -4.827118e+000 
4300000000  -3.591914e+001  -1.217273e+001 
4303125000  -3.745042e+001  -1.210825e+001 
4306250000  -3.665287e+001  -4.576874e+000 
4309375000  -3.530092e+001  -8.108420e+000 
4312500000  -3.504412e+001  -1.528986e+001 
4315625000  -3.515520e+001  -2.053790e+001 
4318750000  -3.549074e+001  -2.326805e+001 
4321875000  -3.558870e+001  -2.187228e+001 
4325000000  -3.510920e+001  -2.413858e+001 
4328125000  -3.426853e+001  -2.951923e+001 
4331250000  -3.407785e+001  -3.800948e+001 
4334375000  -3.449178e+001  -4.356537e+001 
4337500000  -3.518973e+001  -4.597131e+001 
4340625000  -3.564075e+001  -4.340062e+001 
4343750000  -3.493171e+001  -4.298777e+001 
4346875000  -3.454049e+001  -4.931949e+001 
4350000000  -3.436140e+001  -5.627431e+001 
4353125000  -3.423493e+001  -6.433468e+001 
4356250000  -3.611012e+001  -6.547332e+001 
4359375000  -3.642447e+001  -5.308792e+001 
4362500000  -3.346816e+001  -5.276999e+001 
4365625000  -3.177675e+001  -6.650208e+001 
4368750000  -3.255413e+001  -7.920866e+001 
4371875000  -3.374735e+001  -7.927415e+001 
4375000000  -3.334203e+001  -8.138155e+001 
4378125000  -3.247777e+001  -8.775957e+001 
4381250000  -3.280765e+001  -9.471567e+001 
4384375000  -3.255457e+001  -1.013014e+002 
4387500000  -3.329817e+001  -1.078932e+002 
4390625000  -3.432067e+001  -1.090918e+002 
4393750000  -3.364887e+001  -1.073356e+002 
4396875000  -3.300247e+001  -1.118280e+002 
4400000000  -3.251838e+001  -1.201568e+002 
4403125000  -3.323707e+001  -1.286777e+002 
4406250000  -3.409454e+001  -1.319909e+002 
4409375000  -3.426781e+001  -1.350941e+002 
4412500000  -3.549807e+001  -1.387311e+002 
4415625000  -3.587143e+001  -1.353223e+002 
