!Agilent Technologies,E8363B,MY43030201,A.06.04.32
!Agilent E8363B: A.06.04.32
!Date: Tuesday, November 11, 2014 21:02:16
!Correction: S21(Response(S21)) 
!S1P File: Measurement: S21:
# Hz S  dB   R 50
3000000000  -3.623161e+001  -4.722657e+001 
3003125000  -3.736282e+001  -5.229280e+001 
3006250000  -3.727639e+001  -5.617882e+001 
3009375000  -3.753871e+001  -5.113721e+001 
3012500000  -3.683312e+001  -5.236935e+001 
3015625000  -3.596621e+001  -5.993683e+001 
3018750000  -3.669975e+001  -6.147061e+001 
3021875000  -3.534044e+001  -6.104055e+001 
3025000000  -3.401961e+001  -6.415997e+001 
3028125000  -3.303757e+001  -6.981030e+001 
3031250000  -3.213236e+001  -8.157045e+001 
3034375000  -3.170673e+001  -9.504511e+001 
3037500000  -3.215659e+001  -1.072243e+002 
3040625000  -3.350016e+001  -1.123349e+002 
3043750000  -3.422161e+001  -1.167369e+002 
3046875000  -3.433788e+001  -1.229847e+002 
3050000000  -3.594866e+001  -1.290278e+002 
3053125000  -3.608625e+001  -1.238054e+002 
3056250000  -3.549185e+001  -1.201221e+002 
3059375000  -3.560575e+001  -1.204103e+002 
3062500000  -3.414472e+001  -1.240902e+002 
3065625000  -3.390405e+001  -1.295123e+002 
3068750000  -3.348689e+001  -1.363794e+002 
3071875000  -3.350185e+001  -1.395684e+002 
3075000000  -3.324459e+001  -1.431986e+002 
3078125000  -3.296215e+001  -1.475535e+002 
3081250000  -3.351125e+001  -1.517039e+002 
3084375000  -3.274053e+001  -1.547945e+002 
3087500000  -3.240110e+001  -1.590472e+002 
3090625000  -3.195317e+001  -1.686361e+002 
3093750000  -3.240141e+001  -1.765784e+002 
3096875000  -3.341972e+001  1.773995e+002 
3100000000  -3.334993e+001  1.753792e+002 
3103125000  -3.361750e+001  1.764292e+002 
3106250000  -3.306214e+001  1.719908e+002 
3109375000  -3.328133e+001  1.683668e+002 
3112500000  -3.315159e+001  1.658872e+002 
3115625000  -3.283951e+001  1.607973e+002 
3118750000  -3.317657e+001  1.609222e+002 
3121875000  -3.231419e+001  1.518392e+002 
3125000000  -3.347332e+001  1.471304e+002 
3128125000  -3.453764e+001  1.537682e+002 
3131250000  -3.203009e+001  1.528621e+002 
3134375000  -3.061025e+001  1.377722e+002 
3137500000  -3.132746e+001  1.227896e+002 
3140625000  -3.283792e+001  1.200552e+002 
3143750000  -3.382794e+001  1.222762e+002 
3146875000  -3.334726e+001  1.231768e+002 
3150000000  -3.234664e+001  1.228739e+002 
3153125000  -3.230249e+001  1.143377e+002 
3156250000  -3.342328e+001  1.186645e+002 
3159375000  -3.177185e+001  1.196016e+002 
3162500000  -2.975268e+001  1.054588e+002 
3165625000  -3.070780e+001  9.384102e+001 
3168750000  -3.111744e+001  9.356685e+001 
3171875000  -3.018835e+001  8.800604e+001 
3175000000  -3.096547e+001  7.867485e+001 
3178125000  -3.080183e+001  7.992158e+001 
3181250000  -2.969629e+001  7.443561e+001 
3184375000  -2.888125e+001  6.112521e+001 
3187500000  -3.012351e+001  4.623903e+001 
3190625000  -3.288269e+001  3.788296e+001 
3193750000  -3.356035e+001  4.657538e+001 
3196875000  -3.314854e+001  5.121607e+001 
3200000000  -3.228373e+001  4.916830e+001 
3203125000  -3.140537e+001  4.240388e+001 
3206250000  -3.175336e+001  3.616016e+001 
3209375000  -3.130971e+001  3.018785e+001 
3212500000  -3.144761e+001  2.333213e+001 
3215625000  -3.155410e+001  1.927276e+001 
3218750000  -3.237574e+001  1.231169e+001 
3221875000  -3.314627e+001  6.774035e+000 
3225000000  -3.273188e+001  5.434678e+000 
3228125000  -3.313419e+001  5.737963e-001 
3231250000  -3.382965e+001  -1.695865e+000 
3234375000  -3.354042e+001  -1.741291e+000 
3237500000  -3.351676e+001  -3.923120e+000 
3240625000  -3.320889e+001  -6.141129e+000 
3243750000  -3.266970e+001  -1.369717e+001 
3246875000  -3.311459e+001  -2.036931e+001 
3250000000  -3.348945e+001  -2.299787e+001 
3253125000  -3.364248e+001  -2.554998e+001 
3256250000  -3.329387e+001  -3.212479e+001 
3259375000  -3.352291e+001  -4.062350e+001 
3262500000  -3.474327e+001  -4.450541e+001 
3265625000  -3.541553e+001  -4.143030e+001 
3268750000  -3.520311e+001  -3.940021e+001 
3271875000  -3.488287e+001  -4.042271e+001 
3275000000  -3.386034e+001  -4.647186e+001 
3278125000  -3.423061e+001  -5.294809e+001 
3281250000  -3.445882e+001  -5.252962e+001 
3284375000  -3.391336e+001  -5.900212e+001 
3287500000  -3.415257e+001  -6.317772e+001 
3290625000  -3.440951e+001  -6.802335e+001 
3293750000  -3.428915e+001  -7.494834e+001 
3296875000  -3.524093e+001  -7.595399e+001 
3300000000  -3.496906e+001  -7.464445e+001 
3303125000  -3.391649e+001  -8.003009e+001 
3306250000  -3.356147e+001  -8.684109e+001 
3309375000  -3.331453e+001  -9.323235e+001 
3312500000  -3.351420e+001  -1.041803e+002 
3315625000  -3.443767e+001  -1.122383e+002 
3318750000  -3.586547e+001  -1.148708e+002 
3321875000  -3.687530e+001  -1.151431e+002 
3325000000  -3.742854e+001  -1.112918e+002 
3328125000  -3.706518e+001  -1.099569e+002 
3331250000  -3.597942e+001  -1.036760e+002 
3334375000  -3.324317e+001  -1.141956e+002 
3337500000  -3.333015e+001  -1.329384e+002 
3340625000  -3.473435e+001  -1.437765e+002 
3343750000  -3.661490e+001  -1.451834e+002 
3346875000  -3.677821e+001  -1.432684e+002 
3350000000  -3.615078e+001  -1.454388e+002 
3353125000  -3.628120e+001  -1.507747e+002 
3356250000  -3.583356e+001  -1.578828e+002 
3359375000  -3.660471e+001  -1.658603e+002 
3362500000  -3.784996e+001  -1.716213e+002 
3365625000  -3.803834e+001  -1.730265e+002 
3368750000  -3.902937e+001  -1.742356e+002 
3371875000  -3.931627e+001  -1.771167e+002 
3375000000  -4.055182e+001  -1.799590e+002 
3378125000  -4.158662e+001  -1.798607e+002 
3381250000  -4.280315e+001  -1.699549e+002 
3384375000  -4.152857e+001  -1.495399e+002 
3387500000  -3.797184e+001  -1.672343e+002 
3390625000  -3.962048e+001  1.738233e+002 
3393750000  -4.065645e+001  1.774922e+002 
3396875000  -3.952172e+001  1.784896e+002 
3400000000  -3.896045e+001  1.706538e+002 
3403125000  -3.951818e+001  1.670092e+002 
3406250000  -3.985252e+001  1.649045e+002 
3409375000  -4.000141e+001  1.577860e+002 
3412500000  -4.063968e+001  1.555964e+002 
3415625000  -4.108883e+001  1.563113e+002 
3418750000  -4.130246e+001  1.571387e+002 
3421875000  -4.136160e+001  1.613456e+002 
3425000000  -4.039542e+001  1.611715e+002 
3428125000  -3.942585e+001  1.553280e+002 
3431250000  -3.939434e+001  1.494873e+002 
3434375000  -3.918808e+001  1.430423e+002 
3437500000  -3.992815e+001  1.390609e+002 
3440625000  -4.013497e+001  1.399451e+002 
3443750000  -3.892663e+001  1.420724e+002 
3446875000  -3.817688e+001  1.336939e+002 
3450000000  -3.782061e+001  1.232524e+002 
3453125000  -3.803030e+001  1.134318e+002 
3456250000  -3.923321e+001  1.071106e+002 
3459375000  -4.025020e+001  1.079757e+002 
3462500000  -4.008178e+001  1.079867e+002 
3465625000  -4.000242e+001  1.033116e+002 
3468750000  -4.043677e+001  9.848380e+001 
3471875000  -4.030911e+001  9.728418e+001 
3475000000  -3.973716e+001  9.251199e+001 
3478125000  -4.074569e+001  8.508938e+001 
3481250000  -4.133723e+001  8.296582e+001 
3484375000  -4.241402e+001  8.703865e+001 
3487500000  -4.148628e+001  8.645393e+001 
3490625000  -4.085335e+001  8.181898e+001 
3493750000  -4.161791e+001  7.556985e+001 
3496875000  -4.194434e+001  7.317976e+001 
3500000000  -4.285238e+001  7.627287e+001 
3503125000  -4.210733e+001  7.789429e+001 
3506250000  -4.065713e+001  7.463264e+001 
3509375000  -4.109725e+001  6.390956e+001 
3512500000  -4.136345e+001  5.498321e+001 
3515625000  -4.202170e+001  5.442144e+001 
3518750000  -4.249037e+001  5.577963e+001 
3521875000  -4.245192e+001  5.199672e+001 
3525000000  -4.375089e+001  4.938195e+001 
3528125000  -4.354771e+001  5.513350e+001 
3531250000  -4.204305e+001  5.380140e+001 
3534375000  -4.189143e+001  4.404213e+001 
3537500000  -4.220545e+001  4.034542e+001 
3540625000  -4.309839e+001  3.701167e+001 
3543750000  -4.385849e+001  3.923331e+001 
3546875000  -4.379983e+001  5.263342e+001 
3550000000  -4.112482e+001  5.122160e+001 
3553125000  -3.989102e+001  3.594897e+001 
3556250000  -4.140357e+001  2.815090e+001 
3559375000  -4.116187e+001  2.920732e+001 
3562500000  -3.993966e+001  2.075503e+001 
3565625000  -4.080946e+001  1.181892e+001 
3568750000  -4.104543e+001  1.418947e+001 
3571875000  -4.092602e+001  1.271238e+001 
3575000000  -4.050441e+001  5.763308e+000 
3578125000  -4.103381e+001  9.905243e-002 
3581250000  -4.146189e+001  -3.796689e-001 
3584375000  -4.049929e+001  -5.286551e+000 
3587500000  -4.003852e+001  -1.258996e+001 
3590625000  -4.078501e+001  -2.423331e+001 
3593750000  -4.192251e+001  -2.516751e+001 
3596875000  -4.232662e+001  -1.831663e+001 
3600000000  -4.087700e+001  -2.425537e+001 
3603125000  -4.098521e+001  -3.912711e+001 
3606250000  -4.195926e+001  -4.337861e+001 
3609375000  -4.285574e+001  -4.681398e+001 
3612500000  -4.315481e+001  -4.830782e+001 
3615625000  -4.367169e+001  -5.204246e+001 
3618750000  -4.480510e+001  -5.203300e+001 
3621875000  -4.450173e+001  -5.372303e+001 
3625000000  -4.493384e+001  -5.559329e+001 
3628125000  -4.521880e+001  -5.364323e+001 
3631250000  -4.563189e+001  -5.765968e+001 
3634375000  -4.693183e+001  -6.064838e+001 
3637500000  -4.655301e+001  -5.437185e+001 
3640625000  -4.562085e+001  -5.018580e+001 
3643750000  -4.507784e+001  -5.482355e+001 
3646875000  -4.567120e+001  -6.088012e+001 
3650000000  -4.661123e+001  -5.815714e+001 
3653125000  -4.548986e+001  -6.111138e+001 
3656250000  -4.584565e+001  -6.173357e+001 
3659375000  -4.587466e+001  -5.508751e+001 
3662500000  -4.475600e+001  -6.115012e+001 
3665625000  -4.445924e+001  -5.978148e+001 
3668750000  -4.345070e+001  -6.215408e+001 
3671875000  -4.252725e+001  -6.620942e+001 
3675000000  -4.293888e+001  -7.486482e+001 
3678125000  -4.299075e+001  -7.758643e+001 
3681250000  -4.261893e+001  -8.102970e+001 
3684375000  -4.252673e+001  -8.268469e+001 
3687500000  -4.239264e+001  -9.088949e+001 
3690625000  -4.277406e+001  -9.515057e+001 
3693750000  -4.344845e+001  -9.375866e+001 
3696875000  -4.345740e+001  -9.513674e+001 
3700000000  -4.269510e+001  -1.024116e+002 
3703125000  -4.278996e+001  -1.075123e+002 
3706250000  -4.339519e+001  -1.057868e+002 
3709375000  -4.338150e+001  -1.047296e+002 
3712500000  -4.255182e+001  -1.063056e+002 
3715625000  -4.144600e+001  -1.149475e+002 
3718750000  -4.139743e+001  -1.215554e+002 
3721875000  -4.122028e+001  -1.255670e+002 
3725000000  -4.200107e+001  -1.331033e+002 
3728125000  -4.223855e+001  -1.335203e+002 
3731250000  -4.189918e+001  -1.352938e+002 
3734375000  -4.172572e+001  -1.454841e+002 
3737500000  -4.244546e+001  -1.513499e+002 
3740625000  -4.380222e+001  -1.514805e+002 
3743750000  -4.344168e+001  -1.527563e+002 
3746875000  -4.417516e+001  -1.570123e+002 
3750000000  -4.478421e+001  -1.575463e+002 
3753125000  -4.470623e+001  -1.555832e+002 
3756250000  -4.510372e+001  -1.541729e+002 
3759375000  -4.494213e+001  -1.521286e+002 
3762500000  -4.443217e+001  -1.567021e+002 
3765625000  -4.525603e+001  -1.559142e+002 
3768750000  -4.503190e+001  -1.500554e+002 
3771875000  -4.349644e+001  -1.527071e+002 
3775000000  -4.307156e+001  -1.582122e+002 
3778125000  -4.330664e+001  -1.621046e+002 
3781250000  -4.250063e+001  -1.633029e+002 
3784375000  -4.231673e+001  -1.633745e+002 
3787500000  -4.192798e+001  -1.661845e+002 
3790625000  -4.213988e+001  -1.748426e+002 
3793750000  -4.198133e+001  -1.759509e+002 
3796875000  -4.082074e+001  -1.777041e+002 
3800000000  -3.912242e+001  1.788176e+002 
3803125000  -3.991760e+001  1.684476e+002 
3806250000  -4.055848e+001  1.673508e+002 
3809375000  -4.026565e+001  1.642847e+002 
3812500000  -3.961108e+001  1.570709e+002 
3815625000  -4.017532e+001  1.471436e+002 
3818750000  -4.100661e+001  1.451742e+002 
3821875000  -4.124357e+001  1.527666e+002 
3825000000  -3.919209e+001  1.562973e+002 
3828125000  -3.778887e+001  1.404031e+002 
3831250000  -3.859438e+001  1.250061e+002 
3834375000  -4.001977e+001  1.222952e+002 
3837500000  -4.105656e+001  1.270589e+002 
3840625000  -3.996397e+001  1.241970e+002 
3843750000  -3.879996e+001  1.130274e+002 
3846875000  -3.962776e+001  1.059510e+002 
3850000000  -4.090186e+001  1.104702e+002 
3853125000  -4.043164e+001  1.155087e+002 
3856250000  -4.024307e+001  1.070058e+002 
3859375000  -3.935429e+001  9.967557e+001 
3862500000  -3.957497e+001  9.248103e+001 
3865625000  -3.990651e+001  8.828016e+001 
3868750000  -3.989399e+001  8.609383e+001 
3871875000  -3.934665e+001  8.385654e+001 
3875000000  -3.950176e+001  7.480628e+001 
3878125000  -4.078220e+001  7.179293e+001 
3881250000  -4.071338e+001  7.524094e+001 
3884375000  -4.029257e+001  7.183698e+001 
3887500000  -4.057884e+001  6.625713e+001 
3890625000  -4.121711e+001  6.336849e+001 
3893750000  -4.111090e+001  6.152591e+001 
3896875000  -4.172763e+001  6.315461e+001 
3900000000  -4.172482e+001  6.262547e+001 
3903125000  -4.125856e+001  6.033862e+001 
3906250000  -4.047810e+001  5.944038e+001 
3909375000  -4.005982e+001  5.625535e+001 
3912500000  -4.014798e+001  4.868352e+001 
3915625000  -4.155590e+001  4.743685e+001 
3918750000  -4.114025e+001  4.932558e+001 
3921875000  -4.049322e+001  4.687744e+001 
3925000000  -3.959604e+001  4.586079e+001 
3928125000  -3.909446e+001  3.745162e+001 
3931250000  -3.955682e+001  3.213325e+001 
3934375000  -3.983876e+001  3.129711e+001 
3937500000  -3.981574e+001  3.013551e+001 
3940625000  -4.027962e+001  2.788874e+001 
3943750000  -3.901619e+001  2.745225e+001 
3946875000  -3.797435e+001  2.118006e+001 
3950000000  -3.861013e+001  1.194454e+001 
3953125000  -3.958987e+001  8.567845e+000 
3956250000  -3.870717e+001  1.239693e+001 
3959375000  -3.753973e+001  6.935754e+000 
3962500000  -3.700152e+001  2.206893e+000 
3965625000  -3.671047e+001  -7.718046e+000 
3968750000  -3.779605e+001  -1.575941e+001 
3971875000  -3.806270e+001  -1.666234e+001 
3975000000  -3.771819e+001  -1.967659e+001 
3978125000  -3.742950e+001  -2.296073e+001 
3981250000  -3.752545e+001  -3.001992e+001 
3984375000  -3.790192e+001  -3.623370e+001 
3987500000  -3.856956e+001  -3.851427e+001 
3990625000  -3.853617e+001  -3.901907e+001 
3993750000  -3.884808e+001  -4.412326e+001 
3996875000  -3.920517e+001  -4.789777e+001 
4000000000  -3.926709e+001  -5.065769e+001 
4003125000  -3.980141e+001  -4.798073e+001 
4006250000  -3.843093e+001  -4.911971e+001 
4009375000  -3.771354e+001  -6.345985e+001 
4012500000  -3.874519e+001  -6.973729e+001 
4015625000  -4.007190e+001  -6.798447e+001 
4018750000  -4.020257e+001  -6.714951e+001 
4021875000  -3.961128e+001  -6.892710e+001 
4025000000  -3.951209e+001  -7.366879e+001 
4028125000  -3.925477e+001  -7.759586e+001 
4031250000  -3.981457e+001  -8.136282e+001 
4034375000  -4.024338e+001  -7.988603e+001 
4037500000  -3.942223e+001  -7.919093e+001 
4040625000  -3.952025e+001  -8.242999e+001 
4043750000  -3.962615e+001  -8.246663e+001 
4046875000  -3.913656e+001  -8.446954e+001 
4050000000  -3.852051e+001  -8.922246e+001 
4053125000  -3.889949e+001  -9.285737e+001 
4056250000  -3.945659e+001  -8.651202e+001 
4059375000  -3.803061e+001  -8.677460e+001 
4062500000  -3.665947e+001  -9.317159e+001 
4065625000  -3.645878e+001  -9.786790e+001 
4068750000  -3.631472e+001  -1.039010e+002 
4071875000  -3.548989e+001  -1.138535e+002 
4075000000  -3.582877e+001  -1.212575e+002 
4078125000  -3.628373e+001  -1.228371e+002 
4081250000  -3.585739e+001  -1.256723e+002 
4084375000  -3.527026e+001  -1.338327e+002 
4087500000  -3.578449e+001  -1.409767e+002 
4090625000  -3.643512e+001  -1.438963e+002 
4093750000  -3.613842e+001  -1.448993e+002 
4096875000  -3.580055e+001  -1.513345e+002 
4100000000  -3.669074e+001  -1.604048e+002 
4103125000  -3.731915e+001  -1.587724e+002 
4106250000  -3.730907e+001  -1.550376e+002 
4109375000  -3.636126e+001  -1.574547e+002 
4112500000  -3.581739e+001  -1.653815e+002 
4115625000  -3.619321e+001  -1.703728e+002 
4118750000  -3.649327e+001  -1.755828e+002 
4121875000  -3.612568e+001  1.792190e+002 
4125000000  -3.663528e+001  1.740015e+002 
4128125000  -3.760600e+001  1.723720e+002 
4131250000  -3.742441e+001  1.786152e+002 
4134375000  -3.521224e+001  1.728186e+002 
4137500000  -3.510473e+001  1.543493e+002 
4140625000  -3.758466e+001  1.462751e+002 
4143750000  -3.881675e+001  1.507580e+002 
4146875000  -3.863797e+001  1.584745e+002 
4150000000  -3.764722e+001  1.536787e+002 
4153125000  -3.756064e+001  1.456898e+002 
4156250000  -3.884341e+001  1.428692e+002 
4159375000  -3.906587e+001  1.488316e+002 
4162500000  -3.797000e+001  1.544871e+002 
4165625000  -3.693455e+001  1.486238e+002 
4168750000  -3.611271e+001  1.398282e+002 
4171875000  -3.600382e+001  1.309736e+002 
4175000000  -3.692143e+001  1.271679e+002 
4178125000  -3.750107e+001  1.263115e+002 
4181250000  -3.705865e+001  1.257102e+002 
4184375000  -3.694007e+001  1.227689e+002 
4187500000  -3.704055e+001  1.197327e+002 
4190625000  -3.695445e+001  1.146396e+002 
4193750000  -3.761488e+001  1.103682e+002 
4196875000  -3.824012e+001  1.089789e+002 
4200000000  -3.891936e+001  1.099236e+002 
4203125000  -3.911538e+001  1.242397e+002 
4206250000  -3.517300e+001  1.223949e+002 
4209375000  -3.414281e+001  1.020636e+002 
4212500000  -3.618357e+001  9.281164e+001 
4215625000  -3.693700e+001  9.750861e+001 
4218750000  -3.562004e+001  1.031738e+002 
4221875000  -3.320717e+001  9.359477e+001 
4225000000  -3.438313e+001  8.011559e+001 
4228125000  -3.501833e+001  8.432327e+001 
4231250000  -3.334620e+001  7.927234e+001 
4234375000  -3.327246e+001  6.931853e+001 
4237500000  -3.275366e+001  6.455250e+001 
4240625000  -3.282701e+001  5.361477e+001 
4243750000  -3.385546e+001  4.611546e+001 
4246875000  -3.474053e+001  4.553059e+001 
4250000000  -3.484542e+001  4.647564e+001 
4253125000  -3.406491e+001  4.311267e+001 
4256250000  -3.459185e+001  3.670393e+001 
4259375000  -3.424720e+001  3.468322e+001 
4262500000  -3.454704e+001  2.903511e+001 
4265625000  -3.483781e+001  2.822084e+001 
4268750000  -3.370153e+001  2.300440e+001 
4271875000  -3.364997e+001  1.639688e+001 
4275000000  -3.329773e+001  7.388589e+000 
4278125000  -3.394463e+001  -3.219371e+000 
4281250000  -3.604360e+001  -5.460962e+000 
4284375000  -3.563718e+001  -7.360138e+000 
4287500000  -3.680558e+001  -1.009920e+001 
4290625000  -3.804543e+001  -2.416210e+000 
4293750000  -3.654013e+001  4.826232e+000 
4296875000  -3.509250e+001  -6.779109e+000 
4300000000  -3.603352e+001  -1.707440e+001 
4303125000  -3.739286e+001  -1.615625e+001 
4306250000  -3.676899e+001  -8.376228e+000 
4309375000  -3.546683e+001  -1.049769e+001 
4312500000  -3.528111e+001  -1.795946e+001 
4315625000  -3.546148e+001  -2.463770e+001 
4318750000  -3.572091e+001  -2.689987e+001 
4321875000  -3.579291e+001  -2.623922e+001 
4325000000  -3.519320e+001  -2.580155e+001 
4328125000  -3.443397e+001  -3.150439e+001 
4331250000  -3.445027e+001  -3.963877e+001 
4334375000  -3.472723e+001  -4.585221e+001 
4337500000  -3.547349e+001  -4.753202e+001 
4340625000  -3.582784e+001  -4.486671e+001 
4343750000  -3.510705e+001  -4.595864e+001 
4346875000  -3.448821e+001  -5.109106e+001 
4350000000  -3.438446e+001  -5.632350e+001 
4353125000  -3.464337e+001  -6.590536e+001 
4356250000  -3.617010e+001  -6.684659e+001 
4359375000  -3.666117e+001  -5.317830e+001 
4362500000  -3.346227e+001  -5.427713e+001 
4365625000  -3.187486e+001  -6.879537e+001 
4368750000  -3.251476e+001  -8.093070e+001 
4371875000  -3.366183e+001  -8.277370e+001 
4375000000  -3.322920e+001  -8.305677e+001 
4378125000  -3.248343e+001  -8.975548e+001 
4381250000  -3.278182e+001  -9.704380e+001 
4384375000  -3.252572e+001  -1.035818e+002 
4387500000  -3.345759e+001  -1.107490e+002 
4390625000  -3.429776e+001  -1.108033e+002 
4393750000  -3.352207e+001  -1.102442e+002 
4396875000  -3.300930e+001  -1.135335e+002 
4400000000  -3.248311e+001  -1.227358e+002 
4403125000  -3.319267e+001  -1.321974e+002 
4406250000  -3.398233e+001  -1.340166e+002 
4409375000  -3.405655e+001  -1.388657e+002 
4412500000  -3.536728e+001  -1.414989e+002 
4415625000  -3.575176e+001  -1.383322e+002 
