!Agilent Technologies,E8363B,MY43030201,A.06.04.32
!Agilent E8363B: A.06.04.32
!Date: Tuesday, November 11, 2014 21:08:14
!Correction: S21(Response(S21)) 
!S1P File: Measurement: S21:
# Hz S  dB   R 50
3000000000  -3.650336e+001  -5.284142e+001 
3003125000  -3.769989e+001  -5.856438e+001 
3006250000  -3.755687e+001  -6.046653e+001 
3009375000  -3.777496e+001  -5.618825e+001 
3012500000  -3.705293e+001  -5.816779e+001 
3015625000  -3.621939e+001  -6.543375e+001 
3018750000  -3.695437e+001  -6.701415e+001 
3021875000  -3.544736e+001  -6.583344e+001 
3025000000  -3.416953e+001  -6.998531e+001 
3028125000  -3.316429e+001  -7.595000e+001 
3031250000  -3.210376e+001  -8.746552e+001 
3034375000  -3.181207e+001  -1.009639e+002 
3037500000  -3.224453e+001  -1.130060e+002 
3040625000  -3.362128e+001  -1.175724e+002 
3043750000  -3.428466e+001  -1.230556e+002 
3046875000  -3.450738e+001  -1.290354e+002 
3050000000  -3.613974e+001  -1.356135e+002 
3053125000  -3.600182e+001  -1.292146e+002 
3056250000  -3.552493e+001  -1.263230e+002 
3059375000  -3.559035e+001  -1.268801e+002 
3062500000  -3.409920e+001  -1.302297e+002 
3065625000  -3.380238e+001  -1.364474e+002 
3068750000  -3.348798e+001  -1.436983e+002 
3071875000  -3.349673e+001  -1.462067e+002 
3075000000  -3.320536e+001  -1.503450e+002 
3078125000  -3.305379e+001  -1.542837e+002 
3081250000  -3.351491e+001  -1.586830e+002 
3084375000  -3.270920e+001  -1.618766e+002 
3087500000  -3.245894e+001  -1.662266e+002 
3090625000  -3.199175e+001  -1.761270e+002 
3093750000  -3.244885e+001  1.763770e+002 
3096875000  -3.347520e+001  1.709713e+002 
3100000000  -3.335196e+001  1.686861e+002 
3103125000  -3.367608e+001  1.689378e+002 
3106250000  -3.320141e+001  1.650346e+002 
3109375000  -3.326538e+001  1.611785e+002 
3112500000  -3.316626e+001  1.587671e+002 
3115625000  -3.285871e+001  1.541533e+002 
3118750000  -3.324855e+001  1.540812e+002 
3121875000  -3.228714e+001  1.444715e+002 
3125000000  -3.357019e+001  1.408586e+002 
3128125000  -3.446289e+001  1.480101e+002 
3131250000  -3.204906e+001  1.454109e+002 
3134375000  -3.074027e+001  1.312611e+002 
3137500000  -3.134036e+001  1.166976e+002 
3140625000  -3.290199e+001  1.141354e+002 
3143750000  -3.385381e+001  1.156686e+002 
3146875000  -3.329175e+001  1.160766e+002 
3150000000  -3.222936e+001  1.165355e+002 
3153125000  -3.234362e+001  1.076774e+002 
3156250000  -3.344748e+001  1.124093e+002 
3159375000  -3.163780e+001  1.132113e+002 
3162500000  -2.968488e+001  9.911694e+001 
3165625000  -3.072320e+001  8.668867e+001 
3168750000  -3.104155e+001  8.681271e+001 
3171875000  -3.011850e+001  8.136080e+001 
3175000000  -3.090699e+001  7.222119e+001 
3178125000  -3.060778e+001  7.325565e+001 
3181250000  -2.955346e+001  6.749091e+001 
3184375000  -2.889961e+001  5.482816e+001 
3187500000  -3.012691e+001  3.943877e+001 
3190625000  -3.279111e+001  3.188798e+001 
3193750000  -3.328936e+001  4.020486e+001 
3196875000  -3.296896e+001  4.459855e+001 
3200000000  -3.192476e+001  4.203537e+001 
3203125000  -3.124076e+001  3.556516e+001 
3206250000  -3.153625e+001  2.849766e+001 
3209375000  -3.108545e+001  2.273625e+001 
3212500000  -3.131310e+001  1.572663e+001 
3215625000  -3.135181e+001  1.181916e+001 
3218750000  -3.219512e+001  4.715696e+000 
3221875000  -3.292733e+001  -4.171644e-001 
3225000000  -3.254147e+001  -1.099130e+000 
3228125000  -3.295632e+001  -6.949040e+000 
3231250000  -3.358897e+001  -9.728763e+000 
3234375000  -3.329639e+001  -9.119697e+000 
3237500000  -3.330161e+001  -1.121017e+001 
3240625000  -3.289315e+001  -1.405932e+001 
3243750000  -3.252679e+001  -2.190040e+001 
3246875000  -3.292019e+001  -2.858483e+001 
3250000000  -3.339520e+001  -3.035255e+001 
3253125000  -3.352340e+001  -3.334360e+001 
3256250000  -3.314315e+001  -3.947191e+001 
3259375000  -3.340534e+001  -4.866188e+001 
3262500000  -3.458393e+001  -5.278287e+001 
3265625000  -3.525799e+001  -4.938663e+001 
3268750000  -3.510524e+001  -4.758641e+001 
3271875000  -3.462958e+001  -4.856327e+001 
3275000000  -3.376278e+001  -5.443816e+001 
3278125000  -3.420552e+001  -6.140928e+001 
3281250000  -3.436194e+001  -6.061525e+001 
3284375000  -3.385907e+001  -6.771143e+001 
3287500000  -3.405866e+001  -7.066543e+001 
3290625000  -3.433926e+001  -7.677852e+001 
3293750000  -3.410770e+001  -8.214232e+001 
3296875000  -3.516089e+001  -8.350005e+001 
3300000000  -3.485902e+001  -8.190585e+001 
3303125000  -3.366902e+001  -8.781259e+001 
3306250000  -3.349236e+001  -9.515069e+001 
3309375000  -3.326081e+001  -1.012189e+002 
3312500000  -3.329306e+001  -1.126706e+002 
3315625000  -3.434786e+001  -1.204135e+002 
3318750000  -3.579342e+001  -1.225654e+002 
3321875000  -3.697395e+001  -1.230926e+002 
3325000000  -3.718011e+001  -1.181148e+002 
3328125000  -3.669412e+001  -1.167618e+002 
3331250000  -3.562637e+001  -1.107812e+002 
3334375000  -3.289452e+001  -1.212444e+002 
3337500000  -3.302103e+001  -1.410084e+002 
3340625000  -3.439310e+001  -1.520165e+002 
3343750000  -3.655881e+001  -1.526823e+002 
3346875000  -3.660395e+001  -1.504696e+002 
3350000000  -3.602704e+001  -1.525146e+002 
3353125000  -3.592413e+001  -1.578527e+002 
3356250000  -3.555870e+001  -1.660559e+002 
3359375000  -3.624134e+001  -1.741565e+002 
3362500000  -3.736435e+001  -1.792058e+002 
3365625000  -3.787425e+001  1.791172e+002 
3368750000  -3.864098e+001  1.762699e+002 
3371875000  -3.889853e+001  1.738232e+002 
3375000000  -4.029248e+001  1.716604e+002 
3378125000  -4.111747e+001  1.707021e+002 
3381250000  -4.242645e+001  1.796706e+002 
3384375000  -4.077566e+001  -1.572387e+002 
3387500000  -3.726746e+001  -1.762552e+002 
3390625000  -3.908436e+001  1.636174e+002 
3393750000  -4.018890e+001  1.685082e+002 
3396875000  -3.906318e+001  1.694443e+002 
3400000000  -3.841633e+001  1.610998e+002 
3403125000  -3.923101e+001  1.556216e+002 
3406250000  -3.954470e+001  1.551780e+002 
3409375000  -3.960686e+001  1.477811e+002 
3412500000  -4.006254e+001  1.439710e+002 
3415625000  -4.095850e+001  1.466192e+002 
3418750000  -4.098511e+001  1.476238e+002 
3421875000  -4.098613e+001  1.490138e+002 
3425000000  -4.008898e+001  1.503035e+002 
3428125000  -3.922558e+001  1.458411e+002 
3431250000  -3.926140e+001  1.392668e+002 
3434375000  -3.918617e+001  1.325263e+002 
3437500000  -3.955940e+001  1.297066e+002 
3440625000  -3.995992e+001  1.315107e+002 
3443750000  -3.871505e+001  1.320023e+002 
3446875000  -3.788193e+001  1.241328e+002 
3450000000  -3.757597e+001  1.147012e+002 
3453125000  -3.803206e+001  1.032527e+002 
3456250000  -3.914262e+001  9.813010e+001 
3459375000  -4.002645e+001  9.759158e+001 
3462500000  -3.983368e+001  1.005220e+002 
3465625000  -3.972971e+001  9.314087e+001 
3468750000  -4.006289e+001  8.997932e+001 
3471875000  -4.003774e+001  8.729308e+001 
3475000000  -3.963146e+001  8.264814e+001 
3478125000  -4.028257e+001  7.476035e+001 
3481250000  -4.122861e+001  7.223333e+001 
3484375000  -4.222835e+001  7.599241e+001 
3487500000  -4.113055e+001  7.617821e+001 
3490625000  -4.048521e+001  7.120580e+001 
3493750000  -4.125190e+001  6.338436e+001 
3496875000  -4.184027e+001  6.237486e+001 
3500000000  -4.245969e+001  6.553091e+001 
3503125000  -4.160579e+001  6.608924e+001 
3506250000  -4.035110e+001  6.160221e+001 
3509375000  -4.038746e+001  5.108197e+001 
3512500000  -4.117535e+001  4.365286e+001 
3515625000  -4.192821e+001  4.161175e+001 
3518750000  -4.238318e+001  4.250550e+001 
3521875000  -4.228137e+001  3.896471e+001 
3525000000  -4.345335e+001  3.516842e+001 
3528125000  -4.344324e+001  4.204712e+001 
3531250000  -4.221884e+001  4.050162e+001 
3534375000  -4.215733e+001  3.047399e+001 
3537500000  -4.266356e+001  2.712819e+001 
3540625000  -4.333702e+001  2.579096e+001 
3543750000  -4.444401e+001  2.932772e+001 
3546875000  -4.420026e+001  3.884076e+001 
3550000000  -4.130821e+001  4.284307e+001 
3553125000  -4.024663e+001  2.427337e+001 
3556250000  -4.168132e+001  1.889120e+001 
3559375000  -4.160603e+001  1.954020e+001 
3562500000  -4.062575e+001  9.290872e+000 
3565625000  -4.137847e+001  3.075190e+000 
3568750000  -4.138595e+001  6.187721e+000 
3571875000  -4.115905e+001  3.764864e+000 
3575000000  -4.085753e+001  -1.020808e+000 
3578125000  -4.122066e+001  -7.918524e+000 
3581250000  -4.136077e+001  -9.747311e+000 
3584375000  -4.082146e+001  -9.600726e+000 
3587500000  -3.999987e+001  -1.935554e+001 
3590625000  -4.053109e+001  -2.968852e+001 
3593750000  -4.174502e+001  -3.238232e+001 
3596875000  -4.187238e+001  -2.435283e+001 
3600000000  -4.039923e+001  -3.236900e+001 
3603125000  -4.084238e+001  -4.641510e+001 
3606250000  -4.167338e+001  -4.881921e+001 
3609375000  -4.189684e+001  -5.348617e+001 
3612500000  -4.281470e+001  -5.584121e+001 
3615625000  -4.275758e+001  -5.996766e+001 
3618750000  -4.380042e+001  -5.799551e+001 
3621875000  -4.366190e+001  -6.327431e+001 
3625000000  -4.395673e+001  -6.577472e+001 
3628125000  -4.411829e+001  -6.516676e+001 
3631250000  -4.402807e+001  -7.085419e+001 
3634375000  -4.557660e+001  -7.396147e+001 
3637500000  -4.558917e+001  -6.568482e+001 
3640625000  -4.487874e+001  -6.726027e+001 
3643750000  -4.445880e+001  -7.223011e+001 
3646875000  -4.492300e+001  -7.574556e+001 
3650000000  -4.601804e+001  -7.592163e+001 
3653125000  -4.558002e+001  -7.533755e+001 
3656250000  -4.589879e+001  -7.717182e+001 
3659375000  -4.610812e+001  -7.668613e+001 
3662500000  -4.563663e+001  -7.650343e+001 
3665625000  -4.517495e+001  -7.357178e+001 
3668750000  -4.407782e+001  -7.676382e+001 
3671875000  -4.313066e+001  -8.241407e+001 
3675000000  -4.326060e+001  -8.804265e+001 
3678125000  -4.350364e+001  -8.937742e+001 
3681250000  -4.312721e+001  -9.145646e+001 
3684375000  -4.303680e+001  -9.557801e+001 
3687500000  -4.336868e+001  -1.006038e+002 
3690625000  -4.325389e+001  -1.033402e+002 
3693750000  -4.452864e+001  -1.048276e+002 
3696875000  -4.371912e+001  -1.052369e+002 
3700000000  -4.267331e+001  -1.086197e+002 
3703125000  -4.312413e+001  -1.155675e+002 
3706250000  -4.418740e+001  -1.136353e+002 
3709375000  -4.348986e+001  -1.128851e+002 
3712500000  -4.237545e+001  -1.155773e+002 
3715625000  -4.165291e+001  -1.231723e+002 
3718750000  -4.128567e+001  -1.294254e+002 
3721875000  -4.131785e+001  -1.336633e+002 
3725000000  -4.176548e+001  -1.410661e+002 
3728125000  -4.194963e+001  -1.417412e+002 
3731250000  -4.169300e+001  -1.438128e+002 
3734375000  -4.135961e+001  -1.510359e+002 
3737500000  -4.222289e+001  -1.587899e+002 
3740625000  -4.299110e+001  -1.618999e+002 
3743750000  -4.301493e+001  -1.648179e+002 
3746875000  -4.327442e+001  -1.681440e+002 
3750000000  -4.411754e+001  -1.684258e+002 
3753125000  -4.433934e+001  -1.679724e+002 
3756250000  -4.441238e+001  -1.689422e+002 
3759375000  -4.444044e+001  -1.681801e+002 
3762500000  -4.404718e+001  -1.722751e+002 
3765625000  -4.467369e+001  -1.690964e+002 
3768750000  -4.490311e+001  -1.685791e+002 
3771875000  -4.307259e+001  -1.706479e+002 
3775000000  -4.320721e+001  -1.745811e+002 
3778125000  -4.361552e+001  1.798272e+002 
3781250000  -4.295787e+001  -1.785863e+002 
3784375000  -4.303731e+001  -1.784851e+002 
3787500000  -4.219294e+001  1.785813e+002 
3790625000  -4.241535e+001  1.741458e+002 
3793750000  -4.238019e+001  1.719988e+002 
3796875000  -4.138461e+001  1.694908e+002 
3800000000  -3.982357e+001  1.676102e+002 
3803125000  -4.058678e+001  1.576592e+002 
3806250000  -4.123243e+001  1.522203e+002 
3809375000  -4.044941e+001  1.537443e+002 
3812500000  -3.998748e+001  1.470173e+002 
3815625000  -4.036624e+001  1.379728e+002 
3818750000  -4.176644e+001  1.361069e+002 
3821875000  -4.162612e+001  1.437816e+002 
3825000000  -3.914544e+001  1.483201e+002 
3828125000  -3.831281e+001  1.299439e+002 
3831250000  -3.880077e+001  1.138724e+002 
3834375000  -4.031294e+001  1.152588e+002 
3837500000  -4.130193e+001  1.187406e+002 
3840625000  -3.979749e+001  1.165977e+002 
3843750000  -3.893569e+001  1.026744e+002 
3846875000  -3.979538e+001  9.585542e+001 
3850000000  -4.129699e+001  1.020958e+002 
3853125000  -4.008165e+001  1.048681e+002 
3856250000  -4.010703e+001  9.882570e+001 
3859375000  -3.948622e+001  9.129268e+001 
3862500000  -3.930243e+001  8.394881e+001 
3865625000  -3.985506e+001  7.929549e+001 
3868750000  -3.953837e+001  7.794752e+001 
3871875000  -3.912259e+001  7.426724e+001 
3875000000  -3.950766e+001  6.404874e+001 
3878125000  -4.039022e+001  6.271177e+001 
3881250000  -4.043409e+001  6.354372e+001 
3884375000  -4.007101e+001  6.044028e+001 
3887500000  -4.005078e+001  5.606932e+001 
3890625000  -4.095935e+001  5.333792e+001 
3893750000  -4.109422e+001  5.152896e+001 
3896875000  -4.143357e+001  5.326396e+001 
3900000000  -4.151230e+001  5.070459e+001 
3903125000  -4.085399e+001  4.950789e+001 
3906250000  -4.055980e+001  4.487663e+001 
3909375000  -4.017561e+001  4.212712e+001 
3912500000  -3.999262e+001  3.424516e+001 
3915625000  -4.162032e+001  3.435934e+001 
3918750000  -4.128088e+001  3.807927e+001 
3921875000  -4.072297e+001  3.368048e+001 
3925000000  -3.983711e+001  3.065396e+001 
3928125000  -3.922693e+001  2.496698e+001 
3931250000  -3.966255e+001  2.033815e+001 
3934375000  -3.998558e+001  1.835962e+001 
3937500000  -4.000878e+001  1.692268e+001 
3940625000  -4.054266e+001  1.630698e+001 
3943750000  -3.937824e+001  1.475721e+001 
3946875000  -3.827974e+001  9.189137e+000 
3950000000  -3.903043e+001  1.865004e+000 
3953125000  -4.001343e+001  2.686538e-001 
3956250000  -3.888395e+001  1.743237e+000 
3959375000  -3.776318e+001  -2.068493e+000 
3962500000  -3.719172e+001  -7.571205e+000 
3965625000  -3.708194e+001  -1.789830e+001 
3968750000  -3.827380e+001  -2.533389e+001 
3971875000  -3.814551e+001  -2.639579e+001 
3975000000  -3.790109e+001  -3.042467e+001 
3978125000  -3.782309e+001  -3.306719e+001 
3981250000  -3.769435e+001  -3.886875e+001 
3984375000  -3.814624e+001  -4.532784e+001 
3987500000  -3.859727e+001  -4.715446e+001 
3990625000  -3.839570e+001  -4.921532e+001 
3993750000  -3.897462e+001  -5.310123e+001 
3996875000  -3.899585e+001  -5.762265e+001 
4000000000  -3.910445e+001  -5.915763e+001 
4003125000  -3.961272e+001  -5.759965e+001 
4006250000  -3.834266e+001  -5.893496e+001 
4009375000  -3.724742e+001  -7.132160e+001 
4012500000  -3.836695e+001  -7.700719e+001 
4015625000  -3.983456e+001  -7.769847e+001 
4018750000  -3.996494e+001  -7.623592e+001 
4021875000  -3.903427e+001  -7.807037e+001 
4025000000  -3.865985e+001  -8.414233e+001 
4028125000  -3.897191e+001  -8.805800e+001 
4031250000  -3.948426e+001  -9.067830e+001 
4034375000  -3.951255e+001  -9.143687e+001 
4037500000  -3.914418e+001  -9.197803e+001 
4040625000  -3.918087e+001  -9.485661e+001 
4043750000  -3.924514e+001  -9.584100e+001 
4046875000  -3.887654e+001  -9.800649e+001 
4050000000  -3.825774e+001  -1.030948e+002 
4053125000  -3.914900e+001  -1.041581e+002 
4056250000  -3.959198e+001  -1.014126e+002 
4059375000  -3.797205e+001  -1.004635e+002 
4062500000  -3.678037e+001  -1.086508e+002 
4065625000  -3.656173e+001  -1.116423e+002 
4068750000  -3.647902e+001  -1.185798e+002 
4071875000  -3.570997e+001  -1.270394e+002 
4075000000  -3.614846e+001  -1.328203e+002 
4078125000  -3.663079e+001  -1.363459e+002 
4081250000  -3.617805e+001  -1.395502e+002 
4084375000  -3.571688e+001  -1.465740e+002 
4087500000  -3.621023e+001  -1.541169e+002 
4090625000  -3.672557e+001  -1.556951e+002 
4093750000  -3.654390e+001  -1.562324e+002 
4096875000  -3.606176e+001  -1.633916e+002 
4100000000  -3.696079e+001  -1.728676e+002 
4103125000  -3.782914e+001  -1.703437e+002 
4106250000  -3.771745e+001  -1.661655e+002 
4109375000  -3.667939e+001  -1.689548e+002 
4112500000  -3.627986e+001  -1.758585e+002 
4115625000  -3.643921e+001  1.786753e+002 
4118750000  -3.691937e+001  1.743288e+002 
4121875000  -3.643670e+001  1.690898e+002 
4125000000  -3.674902e+001  1.637406e+002 
4128125000  -3.786409e+001  1.636941e+002 
4131250000  -3.753802e+001  1.709279e+002 
4134375000  -3.501550e+001  1.630699e+002 
4137500000  -3.511911e+001  1.446369e+002 
4140625000  -3.728493e+001  1.361272e+002 
4143750000  -3.864738e+001  1.408672e+002 
4146875000  -3.815778e+001  1.471998e+002 
4150000000  -3.787630e+001  1.439737e+002 
4153125000  -3.740160e+001  1.366485e+002 
4156250000  -3.850418e+001  1.339112e+002 
4159375000  -3.873882e+001  1.384029e+002 
4162500000  -3.770408e+001  1.422805e+002 
4165625000  -3.644414e+001  1.367548e+002 
4168750000  -3.602952e+001  1.291962e+002 
4171875000  -3.596582e+001  1.187802e+002 
4175000000  -3.653451e+001  1.137627e+002 
4178125000  -3.711375e+001  1.141868e+002 
4181250000  -3.689044e+001  1.122098e+002 
4184375000  -3.702090e+001  1.080265e+002 
4187500000  -3.696107e+001  1.045797e+002 
4190625000  -3.689658e+001  9.926262e+001 
4193750000  -3.734078e+001  9.506704e+001 
4196875000  -3.821348e+001  9.374945e+001 
4200000000  -3.934722e+001  9.606577e+001 
4203125000  -3.870357e+001  1.110056e+002 
4206250000  -3.547470e+001  1.103733e+002 
4209375000  -3.429768e+001  8.735165e+001 
4212500000  -3.645063e+001  7.770377e+001 
4215625000  -3.727472e+001  8.505366e+001 
4218750000  -3.586695e+001  8.993330e+001 
4221875000  -3.358427e+001  7.952776e+001 
4225000000  -3.476025e+001  6.681955e+001 
4228125000  -3.517085e+001  7.104786e+001 
4231250000  -3.373206e+001  6.609511e+001 
4234375000  -3.353751e+001  5.728523e+001 
4237500000  -3.323040e+001  5.217125e+001 
4240625000  -3.300018e+001  4.285912e+001 
4243750000  -3.428893e+001  3.463107e+001 
4246875000  -3.511811e+001  3.348354e+001 
4250000000  -3.509892e+001  3.738705e+001 
4253125000  -3.455071e+001  3.205021e+001 
4256250000  -3.498485e+001  2.686418e+001 
4259375000  -3.458672e+001  2.380324e+001 
4262500000  -3.473554e+001  1.904141e+001 
4265625000  -3.496836e+001  1.889993e+001 
4268750000  -3.404664e+001  1.250292e+001 
4271875000  -3.388230e+001  5.563745e+000 
4275000000  -3.342086e+001  -2.947480e+000 
4278125000  -3.440467e+001  -1.412720e+001 
4281250000  -3.625720e+001  -1.597371e+001 
4284375000  -3.592894e+001  -1.647192e+001 
4287500000  -3.713344e+001  -2.177895e+001 
4290625000  -3.825974e+001  -1.162522e+001 
4293750000  -3.618547e+001  -5.149719e+000 
4296875000  -3.487709e+001  -1.736809e+001 
4300000000  -3.603570e+001  -2.686463e+001 
4303125000  -3.712149e+001  -2.527039e+001 
4306250000  -3.677230e+001  -2.019384e+001 
4309375000  -3.533661e+001  -2.226015e+001 
4312500000  -3.513916e+001  -3.086106e+001 
4315625000  -3.526315e+001  -3.618863e+001 
4318750000  -3.575530e+001  -3.920674e+001 
4321875000  -3.564037e+001  -3.885878e+001 
4325000000  -3.504856e+001  -3.809686e+001 
4328125000  -3.454228e+001  -4.462634e+001 
4331250000  -3.431632e+001  -5.388159e+001 
4334375000  -3.467245e+001  -6.027820e+001 
4337500000  -3.566869e+001  -6.213888e+001 
4340625000  -3.606807e+001  -5.781104e+001 
4343750000  -3.515085e+001  -5.868306e+001 
4346875000  -3.458119e+001  -6.544163e+001 
4350000000  -3.471763e+001  -7.179400e+001 
4353125000  -3.483720e+001  -8.083720e+001 
4356250000  -3.640443e+001  -7.981287e+001 
4359375000  -3.645465e+001  -6.744769e+001 
4362500000  -3.368993e+001  -6.716960e+001 
4365625000  -3.219612e+001  -8.245313e+001 
4368750000  -3.305224e+001  -9.449348e+001 
4371875000  -3.402299e+001  -9.340090e+001 
4375000000  -3.358431e+001  -9.608384e+001 
4378125000  -3.291059e+001  -1.024975e+002 
4381250000  -3.317269e+001  -1.100405e+002 
4384375000  -3.300864e+001  -1.150671e+002 
4387500000  -3.365452e+001  -1.240757e+002 
4390625000  -3.465685e+001  -1.232068e+002 
4393750000  -3.400434e+001  -1.214335e+002 
4396875000  -3.347086e+001  -1.248835e+002 
4400000000  -3.294915e+001  -1.346570e+002 
4403125000  -3.364705e+001  -1.426222e+002 
4406250000  -3.452855e+001  -1.449809e+002 
4409375000  -3.477230e+001  -1.498713e+002 
4412500000  -3.585702e+001  -1.525060e+002 
4415625000  -3.608311e+001  -1.471662e+002 
