!Agilent Technologies,E8363B,MY43030201,A.06.04.32
!Agilent E8363B: A.06.04.32
!Date: Tuesday, November 11, 2014 21:11:44
!Correction: S21(Response(S21)) 
!S1P File: Measurement: S21:
# Hz S  dB   R 50
3000000000  -3.655095e+001  -5.641003e+001 
3003125000  -3.775956e+001  -6.291659e+001 
3006250000  -3.744727e+001  -6.495535e+001 
3009375000  -3.796350e+001  -5.991329e+001 
3012500000  -3.709473e+001  -6.222819e+001 
3015625000  -3.617377e+001  -7.015785e+001 
3018750000  -3.696542e+001  -7.110593e+001 
3021875000  -3.556587e+001  -7.008037e+001 
3025000000  -3.413440e+001  -7.389808e+001 
3028125000  -3.319132e+001  -8.009658e+001 
3031250000  -3.213275e+001  -9.229036e+001 
3034375000  -3.185712e+001  -1.055579e+002 
3037500000  -3.235572e+001  -1.173352e+002 
3040625000  -3.357386e+001  -1.221025e+002 
3043750000  -3.436786e+001  -1.277909e+002 
3046875000  -3.456017e+001  -1.334932e+002 
3050000000  -3.627370e+001  -1.388609e+002 
3053125000  -3.612079e+001  -1.336535e+002 
3056250000  -3.566193e+001  -1.304803e+002 
3059375000  -3.566431e+001  -1.311886e+002 
3062500000  -3.409288e+001  -1.340735e+002 
3065625000  -3.390799e+001  -1.410267e+002 
3068750000  -3.349843e+001  -1.475943e+002 
3071875000  -3.352865e+001  -1.502249e+002 
3075000000  -3.334782e+001  -1.545033e+002 
3078125000  -3.309492e+001  -1.582483e+002 
3081250000  -3.359113e+001  -1.629117e+002 
3084375000  -3.263263e+001  -1.659075e+002 
3087500000  -3.252440e+001  -1.703846e+002 
3090625000  -3.201325e+001  1.795841e+002 
3093750000  -3.249899e+001  1.715598e+002 
3096875000  -3.353528e+001  1.668273e+002 
3100000000  -3.342820e+001  1.642331e+002 
3103125000  -3.369707e+001  1.645754e+002 
3106250000  -3.319257e+001  1.608940e+002 
3109375000  -3.334070e+001  1.568446e+002 
3112500000  -3.314643e+001  1.542001e+002 
3115625000  -3.290234e+001  1.499394e+002 
3118750000  -3.322886e+001  1.495554e+002 
3121875000  -3.235765e+001  1.401039e+002 
3125000000  -3.373864e+001  1.366393e+002 
3128125000  -3.446401e+001  1.445336e+002 
3131250000  -3.209051e+001  1.414448e+002 
3134375000  -3.072339e+001  1.261411e+002 
3137500000  -3.132628e+001  1.125914e+002 
3140625000  -3.281104e+001  1.100442e+002 
3143750000  -3.382479e+001  1.110680e+002 
3146875000  -3.330119e+001  1.123083e+002 
3150000000  -3.230012e+001  1.121760e+002 
3153125000  -3.231673e+001  1.028169e+002 
3156250000  -3.333139e+001  1.086446e+002 
3159375000  -3.155071e+001  1.096586e+002 
3162500000  -2.967569e+001  9.467315e+001 
3165625000  -3.075639e+001  8.232167e+001 
3168750000  -3.103571e+001  8.249690e+001 
3171875000  -3.016562e+001  7.649110e+001 
3175000000  -3.095076e+001  6.786030e+001 
3178125000  -3.058589e+001  6.868490e+001 
3181250000  -2.951637e+001  6.271928e+001 
3184375000  -2.883446e+001  5.030446e+001 
3187500000  -3.017564e+001  3.497820e+001 
3190625000  -3.269393e+001  2.791383e+001 
3193750000  -3.316003e+001  3.615425e+001 
3196875000  -3.299047e+001  4.014804e+001 
3200000000  -3.192645e+001  3.785004e+001 
3203125000  -3.121741e+001  3.085892e+001 
3206250000  -3.145150e+001  2.423551e+001 
3209375000  -3.101085e+001  1.850442e+001 
3212500000  -3.134981e+001  1.116526e+001 
3215625000  -3.137340e+001  7.925174e+000 
3218750000  -3.208163e+001  8.102373e-001 
3221875000  -3.284931e+001  -5.209982e+000 
3225000000  -3.242976e+001  -6.347729e+000 
3228125000  -3.290411e+001  -1.140571e+001 
3231250000  -3.358773e+001  -1.446047e+001 
3234375000  -3.325742e+001  -1.373502e+001 
3237500000  -3.334921e+001  -1.615541e+001 
3240625000  -3.284580e+001  -1.903836e+001 
3243750000  -3.257532e+001  -2.658094e+001 
3246875000  -3.291390e+001  -3.388531e+001 
3250000000  -3.331721e+001  -3.565012e+001 
3253125000  -3.339868e+001  -3.841538e+001 
3256250000  -3.309185e+001  -4.490087e+001 
3259375000  -3.335595e+001  -5.314698e+001 
3262500000  -3.463089e+001  -5.712904e+001 
3265625000  -3.520969e+001  -5.405884e+001 
3268750000  -3.507364e+001  -5.272652e+001 
3271875000  -3.470077e+001  -5.281798e+001 
3275000000  -3.367262e+001  -6.007299e+001 
3278125000  -3.412265e+001  -6.594355e+001 
3281250000  -3.434778e+001  -6.515346e+001 
3284375000  -3.382135e+001  -7.205772e+001 
3287500000  -3.400558e+001  -7.491763e+001 
3290625000  -3.419822e+001  -8.150270e+001 
3293750000  -3.406881e+001  -8.754784e+001 
3296875000  -3.521782e+001  -8.761704e+001 
3300000000  -3.477728e+001  -8.698395e+001 
3303125000  -3.356993e+001  -9.277229e+001 
3306250000  -3.341196e+001  -9.940569e+001 
3309375000  -3.313125e+001  -1.062515e+002 
3312500000  -3.331614e+001  -1.172287e+002 
3315625000  -3.430164e+001  -1.249989e+002 
3318750000  -3.570411e+001  -1.271499e+002 
3321875000  -3.678587e+001  -1.279026e+002 
3325000000  -3.722238e+001  -1.212552e+002 
3328125000  -3.666685e+001  -1.217687e+002 
3331250000  -3.541967e+001  -1.148883e+002 
3334375000  -3.285818e+001  -1.257141e+002 
3337500000  -3.289941e+001  -1.462691e+002 
3340625000  -3.442707e+001  -1.564865e+002 
3343750000  -3.637519e+001  -1.577720e+002 
3346875000  -3.649931e+001  -1.554246e+002 
3350000000  -3.579351e+001  -1.579731e+002 
3353125000  -3.589776e+001  -1.620116e+002 
3356250000  -3.550168e+001  -1.703859e+002 
3359375000  -3.612940e+001  -1.788958e+002 
3362500000  -3.733210e+001  1.745508e+002 
3365625000  -3.765016e+001  1.741807e+002 
3368750000  -3.866625e+001  1.715847e+002 
3371875000  -3.887909e+001  1.684217e+002 
3375000000  -4.031057e+001  1.652885e+002 
3378125000  -4.121755e+001  1.665192e+002 
3381250000  -4.253209e+001  1.758059e+002 
3384375000  -4.074705e+001  -1.638241e+002 
3387500000  -3.722292e+001  1.793541e+002 
3390625000  -3.903102e+001  1.601717e+002 
3393750000  -4.038054e+001  1.637414e+002 
3396875000  -3.904502e+001  1.644383e+002 
3400000000  -3.856529e+001  1.564135e+002 
3403125000  -3.913471e+001  1.503703e+002 
3406250000  -3.975705e+001  1.510962e+002 
3409375000  -3.969868e+001  1.423677e+002 
3412500000  -4.015698e+001  1.398680e+002 
3415625000  -4.076728e+001  1.417113e+002 
3418750000  -4.099197e+001  1.429206e+002 
3421875000  -4.127964e+001  1.459872e+002 
3425000000  -4.011499e+001  1.450144e+002 
3428125000  -3.924585e+001  1.410552e+002 
3431250000  -3.901771e+001  1.345514e+002 
3434375000  -3.900339e+001  1.286488e+002 
3437500000  -3.965846e+001  1.248622e+002 
3440625000  -3.987906e+001  1.263273e+002 
3443750000  -3.857156e+001  1.257582e+002 
3446875000  -3.794872e+001  1.190438e+002 
3450000000  -3.734279e+001  1.089394e+002 
3453125000  -3.778672e+001  9.818501e+001 
3456250000  -3.911113e+001  9.294205e+001 
3459375000  -4.012261e+001  9.383123e+001 
3462500000  -3.995486e+001  9.397370e+001 
3465625000  -3.965669e+001  8.788013e+001 
3468750000  -3.993668e+001  8.596169e+001 
3471875000  -4.009843e+001  8.269402e+001 
3475000000  -3.935774e+001  7.858628e+001 
3478125000  -4.024376e+001  6.948134e+001 
3481250000  -4.110255e+001  6.794205e+001 
3484375000  -4.190271e+001  7.182519e+001 
3487500000  -4.127645e+001  6.975037e+001 
3490625000  -4.070438e+001  6.564778e+001 
3493750000  -4.108617e+001  5.944067e+001 
3496875000  -4.171051e+001  5.679917e+001 
3500000000  -4.236504e+001  5.849931e+001 
3503125000  -4.161841e+001  6.201940e+001 
3506250000  -4.061192e+001  5.567795e+001 
3509375000  -4.036337e+001  4.824977e+001 
3512500000  -4.112592e+001  3.759238e+001 
3515625000  -4.192553e+001  3.579545e+001 
3518750000  -4.231995e+001  3.611441e+001 
3521875000  -4.259518e+001  3.460453e+001 
3525000000  -4.345025e+001  3.098415e+001 
3528125000  -4.334674e+001  3.824315e+001 
3531250000  -4.206525e+001  3.504181e+001 
3534375000  -4.237835e+001  2.367442e+001 
3537500000  -4.260065e+001  2.217554e+001 
3540625000  -4.359833e+001  2.029117e+001 
3543750000  -4.458262e+001  2.656289e+001 
3546875000  -4.458122e+001  3.696346e+001 
3550000000  -4.154343e+001  3.742719e+001 
3553125000  -4.025856e+001  1.958205e+001 
3556250000  -4.168077e+001  1.192111e+001 
3559375000  -4.149118e+001  1.507881e+001 
3562500000  -4.045412e+001  6.449625e+000 
3565625000  -4.127242e+001  -8.919420e-001 
3568750000  -4.153518e+001  1.084043e+000 
3571875000  -4.121856e+001  1.025650e+000 
3575000000  -4.065842e+001  -7.986919e+000 
3578125000  -4.142333e+001  -1.192481e+001 
3581250000  -4.150532e+001  -1.210275e+001 
3584375000  -4.037436e+001  -1.549426e+001 
3587500000  -3.998930e+001  -2.547231e+001 
3590625000  -4.038678e+001  -3.545034e+001 
3593750000  -4.160619e+001  -3.630791e+001 
3596875000  -4.160690e+001  -3.245523e+001 
3600000000  -3.996477e+001  -3.773732e+001 
3603125000  -4.048145e+001  -5.023856e+001 
3606250000  -4.142916e+001  -5.512212e+001 
3609375000  -4.216601e+001  -5.703024e+001 
3612500000  -4.211665e+001  -6.244890e+001 
3615625000  -4.249982e+001  -6.466959e+001 
3618750000  -4.359309e+001  -6.352012e+001 
3621875000  -4.318369e+001  -6.802063e+001 
3625000000  -4.411268e+001  -7.093377e+001 
3628125000  -4.403447e+001  -7.028479e+001 
3631250000  -4.390662e+001  -7.599509e+001 
3634375000  -4.532013e+001  -7.792886e+001 
3637500000  -4.495100e+001  -7.394444e+001 
3640625000  -4.465618e+001  -7.430309e+001 
3643750000  -4.416288e+001  -7.955941e+001 
3646875000  -4.474797e+001  -8.257524e+001 
3650000000  -4.581981e+001  -8.403157e+001 
3653125000  -4.527240e+001  -8.523941e+001 
3656250000  -4.592926e+001  -8.556593e+001 
3659375000  -4.565841e+001  -8.151385e+001 
3662500000  -4.501458e+001  -8.516556e+001 
3665625000  -4.448946e+001  -8.387725e+001 
3668750000  -4.400914e+001  -8.347490e+001 
3671875000  -4.293240e+001  -8.665278e+001 
3675000000  -4.336779e+001  -9.441167e+001 
3678125000  -4.336831e+001  -9.633207e+001 
3681250000  -4.317214e+001  -9.979352e+001 
3684375000  -4.324153e+001  -1.021912e+002 
3687500000  -4.329824e+001  -1.069327e+002 
3690625000  -4.336528e+001  -1.095265e+002 
3693750000  -4.407729e+001  -1.115631e+002 
3696875000  -4.375957e+001  -1.076089e+002 
3700000000  -4.288717e+001  -1.158118e+002 
3703125000  -4.321355e+001  -1.212663e+002 
3706250000  -4.417349e+001  -1.199413e+002 
3709375000  -4.329037e+001  -1.165044e+002 
3712500000  -4.283839e+001  -1.208841e+002 
3715625000  -4.144185e+001  -1.272325e+002 
3718750000  -4.118134e+001  -1.326241e+002 
3721875000  -4.091848e+001  -1.390865e+002 
3725000000  -4.162750e+001  -1.449325e+002 
3728125000  -4.218488e+001  -1.473130e+002 
3731250000  -4.162272e+001  -1.501069e+002 
3734375000  -4.118456e+001  -1.558840e+002 
3737500000  -4.169505e+001  -1.650992e+002 
3740625000  -4.284794e+001  -1.685318e+002 
3743750000  -4.246142e+001  -1.694427e+002 
3746875000  -4.327113e+001  -1.733563e+002 
3750000000  -4.402004e+001  -1.736365e+002 
3753125000  -4.382486e+001  -1.761920e+002 
3756250000  -4.406450e+001  -1.745447e+002 
3759375000  -4.418659e+001  -1.740988e+002 
3762500000  -4.374470e+001  -1.773359e+002 
3765625000  -4.465837e+001  -1.776828e+002 
3768750000  -4.458680e+001  -1.742138e+002 
3771875000  -4.319759e+001  -1.766090e+002 
3775000000  -4.312099e+001  1.760336e+002 
3778125000  -4.315128e+001  1.750928e+002 
3781250000  -4.312531e+001  1.734909e+002 
3784375000  -4.265747e+001  1.720852e+002 
3787500000  -4.200267e+001  1.698083e+002 
3790625000  -4.290580e+001  1.644024e+002 
3793750000  -4.266156e+001  1.637975e+002 
3796875000  -4.178498e+001  1.624994e+002 
3800000000  -3.969762e+001  1.607795e+002 
3803125000  -4.073145e+001  1.493858e+002 
3806250000  -4.106531e+001  1.469234e+002 
3809375000  -4.080688e+001  1.462255e+002 
3812500000  -4.019762e+001  1.395115e+002 
3815625000  -4.086564e+001  1.306562e+002 
3818750000  -4.165119e+001  1.312613e+002 
3821875000  -4.138739e+001  1.395712e+002 
3825000000  -3.924012e+001  1.396115e+002 
3828125000  -3.808763e+001  1.227945e+002 
3831250000  -3.886055e+001  1.091227e+002 
3834375000  -4.056629e+001  1.076689e+002 
3837500000  -4.119014e+001  1.118040e+002 
3840625000  -3.956035e+001  1.095123e+002 
3843750000  -3.882851e+001  9.791840e+001 
3846875000  -3.999709e+001  9.250358e+001 
3850000000  -4.117865e+001  9.524433e+001 
3853125000  -4.047326e+001  9.863318e+001 
3856250000  -3.998452e+001  9.061560e+001 
3859375000  -3.964357e+001  8.754897e+001 
3862500000  -3.936621e+001  7.786203e+001 
3865625000  -3.976249e+001  7.335935e+001 
3868750000  -3.968122e+001  7.210383e+001 
3871875000  -3.902492e+001  6.840952e+001 
3875000000  -3.944453e+001  5.855017e+001 
3878125000  -4.077409e+001  5.780339e+001 
3881250000  -4.050021e+001  5.922260e+001 
3884375000  -3.999499e+001  5.480293e+001 
3887500000  -4.028117e+001  4.949531e+001 
3890625000  -4.070235e+001  4.595204e+001 
3893750000  -4.122971e+001  4.478545e+001 
3896875000  -4.136745e+001  4.561967e+001 
3900000000  -4.163881e+001  4.427133e+001 
3903125000  -4.131412e+001  4.220448e+001 
3906250000  -4.054595e+001  3.903236e+001 
3909375000  -4.004376e+001  3.474543e+001 
3912500000  -4.035356e+001  2.828405e+001 
3915625000  -4.132034e+001  2.961010e+001 
3918750000  -4.105464e+001  3.075716e+001 
3921875000  -4.065372e+001  2.714409e+001 
3925000000  -3.985791e+001  2.244922e+001 
3928125000  -3.942828e+001  1.718487e+001 
3931250000  -3.961465e+001  1.058760e+001 
3934375000  -4.001312e+001  1.278186e+001 
3937500000  -4.020766e+001  1.050856e+001 
3940625000  -4.106333e+001  8.736641e+000 
3943750000  -3.950678e+001  1.091713e+001 
3946875000  -3.833430e+001  2.894606e+000 
3950000000  -3.934491e+001  -6.330141e+000 
3953125000  -4.018555e+001  -6.806941e+000 
3956250000  -3.923108e+001  -4.051323e+000 
3959375000  -3.791968e+001  -9.507227e+000 
3962500000  -3.755133e+001  -1.485555e+001 
3965625000  -3.737851e+001  -2.398984e+001 
3968750000  -3.822963e+001  -2.916274e+001 
3971875000  -3.846303e+001  -3.250410e+001 
3975000000  -3.791393e+001  -3.456907e+001 
3978125000  -3.803127e+001  -3.909909e+001 
3981250000  -3.797977e+001  -4.440426e+001 
3984375000  -3.827147e+001  -5.098749e+001 
3987500000  -3.877084e+001  -5.350772e+001 
3990625000  -3.855941e+001  -5.433466e+001 
3993750000  -3.893613e+001  -5.753078e+001 
3996875000  -3.889969e+001  -6.267672e+001 
4000000000  -3.953106e+001  -6.260439e+001 
4003125000  -3.989337e+001  -6.118333e+001 
4006250000  -3.823921e+001  -6.331743e+001 
4009375000  -3.718874e+001  -7.633395e+001 
4012500000  -3.858118e+001  -8.198060e+001 
4015625000  -3.975714e+001  -8.388157e+001 
4018750000  -3.973890e+001  -8.139907e+001 
4021875000  -3.906987e+001  -8.457626e+001 
4025000000  -3.867627e+001  -8.894958e+001 
4028125000  -3.866042e+001  -9.530906e+001 
4031250000  -3.926966e+001  -9.878939e+001 
4034375000  -3.952867e+001  -9.655585e+001 
4037500000  -3.904614e+001  -9.713406e+001 
4040625000  -3.925064e+001  -1.020090e+002 
4043750000  -3.953081e+001  -1.029345e+002 
4046875000  -3.892067e+001  -1.034802e+002 
4050000000  -3.824702e+001  -1.092330e+002 
4053125000  -3.887368e+001  -1.125940e+002 
4056250000  -3.950823e+001  -1.077756e+002 
4059375000  -3.817351e+001  -1.069174e+002 
4062500000  -3.681737e+001  -1.138897e+002 
4065625000  -3.674900e+001  -1.176752e+002 
4068750000  -3.635674e+001  -1.250585e+002 
4071875000  -3.563099e+001  -1.334510e+002 
4075000000  -3.614348e+001  -1.397131e+002 
4078125000  -3.668904e+001  -1.420611e+002 
4081250000  -3.604963e+001  -1.457851e+002 
4084375000  -3.570463e+001  -1.526077e+002 
4087500000  -3.628131e+001  -1.595859e+002 
4090625000  -3.701784e+001  -1.606468e+002 
4093750000  -3.659585e+001  -1.620979e+002 
4096875000  -3.613693e+001  -1.694138e+002 
4100000000  -3.707376e+001  -1.763022e+002 
4103125000  -3.800979e+001  -1.751397e+002 
4106250000  -3.793832e+001  -1.723207e+002 
4109375000  -3.675041e+001  -1.736896e+002 
4112500000  -3.638219e+001  1.781740e+002 
4115625000  -3.664681e+001  1.741305e+002 
4118750000  -3.677859e+001  1.696060e+002 
4121875000  -3.649911e+001  1.634307e+002 
4125000000  -3.697755e+001  1.588349e+002 
4128125000  -3.803413e+001  1.576920e+002 
4131250000  -3.750588e+001  1.663341e+002 
4134375000  -3.526075e+001  1.602168e+002 
4137500000  -3.532834e+001  1.391941e+002 
4140625000  -3.747400e+001  1.330874e+002 
4143750000  -3.908413e+001  1.361418e+002 
4146875000  -3.829870e+001  1.427043e+002 
4150000000  -3.758762e+001  1.384042e+002 
4153125000  -3.744124e+001  1.312039e+002 
4156250000  -3.851567e+001  1.295981e+002 
4159375000  -3.854614e+001  1.348613e+002 
4162500000  -3.741471e+001  1.368125e+002 
4165625000  -3.630535e+001  1.327403e+002 
4168750000  -3.584662e+001  1.238042e+002 
4171875000  -3.595216e+001  1.138947e+002 
4175000000  -3.639229e+001  1.076791e+002 
4178125000  -3.710505e+001  1.078641e+002 
4181250000  -3.675343e+001  1.075710e+002 
4184375000  -3.674548e+001  1.030975e+002 
4187500000  -3.671686e+001  9.959109e+001 
4190625000  -3.654887e+001  9.396037e+001 
4193750000  -3.744805e+001  8.861196e+001 
4196875000  -3.819211e+001  8.912044e+001 
4200000000  -3.910300e+001  9.123645e+001 
4203125000  -3.897911e+001  1.052356e+002 
4206250000  -3.518566e+001  1.026790e+002 
4209375000  -3.428479e+001  8.143382e+001 
4212500000  -3.638597e+001  7.130338e+001 
4215625000  -3.724035e+001  7.893920e+001 
4218750000  -3.566938e+001  8.430942e+001 
4221875000  -3.334892e+001  7.388551e+001 
4225000000  -3.463666e+001  6.131231e+001 
4228125000  -3.523505e+001  6.459665e+001 
4231250000  -3.367698e+001  5.965627e+001 
4234375000  -3.349870e+001  5.079507e+001 
4237500000  -3.297464e+001  4.588068e+001 
4240625000  -3.316793e+001  3.655114e+001 
4243750000  -3.416226e+001  2.910422e+001 
4246875000  -3.511458e+001  2.784498e+001 
4250000000  -3.505595e+001  2.920666e+001 
4253125000  -3.455384e+001  2.664991e+001 
4256250000  -3.494878e+001  2.033238e+001 
4259375000  -3.471746e+001  1.848339e+001 
4262500000  -3.495669e+001  1.270405e+001 
4265625000  -3.494593e+001  1.240254e+001 
4268750000  -3.398107e+001  8.024707e+000 
4271875000  -3.380415e+001  -8.012335e-001 
4275000000  -3.346150e+001  -7.597435e+000 
4278125000  -3.434670e+001  -1.920416e+001 
4281250000  -3.588888e+001  -2.036951e+001 
4284375000  -3.580846e+001  -2.076046e+001 
4287500000  -3.687432e+001  -2.581586e+001 
4290625000  -3.786821e+001  -1.573289e+001 
4293750000  -3.608186e+001  -1.052664e+001 
4296875000  -3.488130e+001  -2.174045e+001 
4300000000  -3.586449e+001  -3.151233e+001 
4303125000  -3.718242e+001  -3.146807e+001 
4306250000  -3.613187e+001  -2.415155e+001 
4309375000  -3.494259e+001  -2.655106e+001 
4312500000  -3.476182e+001  -3.490054e+001 
4315625000  -3.487174e+001  -4.157549e+001 
4318750000  -3.522615e+001  -4.458160e+001 
4321875000  -3.546455e+001  -4.489892e+001 
4325000000  -3.458236e+001  -4.486148e+001 
4328125000  -3.422624e+001  -5.170145e+001 
4331250000  -3.405240e+001  -5.990342e+001 
4334375000  -3.432899e+001  -6.604657e+001 
4337500000  -3.536295e+001  -6.782800e+001 
4340625000  -3.575738e+001  -6.541379e+001 
4343750000  -3.485825e+001  -6.585597e+001 
4346875000  -3.458167e+001  -7.283329e+001 
4350000000  -3.449739e+001  -7.889376e+001 
4353125000  -3.446011e+001  -8.582738e+001 
4356250000  -3.632375e+001  -8.731058e+001 
4359375000  -3.641276e+001  -7.368620e+001 
4362500000  -3.328081e+001  -7.359621e+001 
4365625000  -3.212076e+001  -8.952859e+001 
4368750000  -3.282828e+001  -1.018828e+002 
4371875000  -3.380079e+001  -1.005818e+002 
4375000000  -3.328339e+001  -1.030444e+002 
4378125000  -3.280642e+001  -1.089240e+002 
4381250000  -3.300710e+001  -1.162523e+002 
4384375000  -3.271975e+001  -1.229692e+002 
4387500000  -3.364270e+001  -1.292824e+002 
4390625000  -3.464643e+001  -1.279948e+002 
4393750000  -3.386621e+001  -1.292462e+002 
4396875000  -3.342884e+001  -1.319254e+002 
4400000000  -3.294358e+001  -1.400452e+002 
4403125000  -3.361019e+001  -1.485470e+002 
4406250000  -3.442418e+001  -1.507485e+002 
4409375000  -3.457994e+001  -1.546380e+002 
4412500000  -3.584085e+001  -1.583410e+002 
4415625000  -3.592191e+001  -1.531721e+002 
