!Agilent Technologies,E8363B,MY43030201,A.06.04.32
!Agilent E8363B: A.06.04.32
!Date: Tuesday, November 11, 2014 21:11:55
!Correction: S21(Response(S21)) 
!S1P File: Measurement: S21:
# Hz S  dB   R 50
3000000000  -3.665187e+001  -5.700193e+001 
3003125000  -3.780508e+001  -6.354384e+001 
3006250000  -3.747361e+001  -6.490502e+001 
3009375000  -3.791327e+001  -6.130938e+001 
3012500000  -3.709877e+001  -6.326061e+001 
3015625000  -3.622018e+001  -6.969968e+001 
3018750000  -3.707829e+001  -7.192481e+001 
3021875000  -3.553346e+001  -7.074862e+001 
3025000000  -3.415877e+001  -7.398349e+001 
3028125000  -3.317108e+001  -8.109680e+001 
3031250000  -3.221811e+001  -9.249786e+001 
3034375000  -3.185040e+001  -1.058334e+002 
3037500000  -3.231235e+001  -1.180037e+002 
3040625000  -3.367902e+001  -1.227022e+002 
3043750000  -3.429202e+001  -1.281484e+002 
3046875000  -3.461174e+001  -1.335589e+002 
3050000000  -3.619667e+001  -1.396313e+002 
3053125000  -3.608270e+001  -1.334932e+002 
3056250000  -3.566818e+001  -1.311151e+002 
3059375000  -3.552196e+001  -1.308610e+002 
3062500000  -3.414123e+001  -1.346598e+002 
3065625000  -3.394491e+001  -1.410768e+002 
3068750000  -3.357420e+001  -1.484444e+002 
3071875000  -3.350904e+001  -1.507109e+002 
3075000000  -3.335367e+001  -1.543706e+002 
3078125000  -3.310160e+001  -1.583954e+002 
3081250000  -3.358816e+001  -1.631411e+002 
3084375000  -3.266122e+001  -1.668298e+002 
3087500000  -3.254782e+001  -1.708603e+002 
3090625000  -3.197947e+001  1.788678e+002 
3093750000  -3.257309e+001  1.717146e+002 
3096875000  -3.347137e+001  1.656684e+002 
3100000000  -3.341222e+001  1.641604e+002 
3103125000  -3.369156e+001  1.640932e+002 
3106250000  -3.318947e+001  1.608783e+002 
3109375000  -3.320829e+001  1.565445e+002 
3112500000  -3.318919e+001  1.539256e+002 
3115625000  -3.297829e+001  1.492916e+002 
3118750000  -3.325392e+001  1.493708e+002 
3121875000  -3.231254e+001  1.400161e+002 
3125000000  -3.364420e+001  1.366705e+002 
3128125000  -3.450994e+001  1.438889e+002 
3131250000  -3.204004e+001  1.417527e+002 
3134375000  -3.080752e+001  1.263187e+002 
3137500000  -3.136907e+001  1.120293e+002 
3140625000  -3.278170e+001  1.100006e+002 
3143750000  -3.378457e+001  1.109662e+002 
3146875000  -3.329564e+001  1.117442e+002 
3150000000  -3.224812e+001  1.116009e+002 
3153125000  -3.236541e+001  1.027460e+002 
3156250000  -3.331645e+001  1.078812e+002 
3159375000  -3.145097e+001  1.085771e+002 
3162500000  -2.971601e+001  9.410295e+001 
3165625000  -3.074368e+001  8.148695e+001 
3168750000  -3.104562e+001  8.207157e+001 
3171875000  -3.014253e+001  7.632439e+001 
3175000000  -3.087855e+001  6.734748e+001 
3178125000  -3.064415e+001  6.842272e+001 
3181250000  -2.956735e+001  6.234834e+001 
3184375000  -2.892144e+001  4.971581e+001 
3187500000  -3.009097e+001  3.435891e+001 
3190625000  -3.278579e+001  2.752460e+001 
3193750000  -3.327546e+001  3.566980e+001 
3196875000  -3.281755e+001  3.997578e+001 
3200000000  -3.189410e+001  3.714681e+001 
3203125000  -3.117953e+001  3.071237e+001 
3206250000  -3.151470e+001  2.371387e+001 
3209375000  -3.105486e+001  1.813562e+001 
3212500000  -3.133515e+001  1.061681e+001 
3215625000  -3.132207e+001  7.877700e+000 
3218750000  -3.214543e+001  -2.693448e-001 
3221875000  -3.291524e+001  -5.276025e+000 
3225000000  -3.259951e+001  -6.802131e+000 
3228125000  -3.293890e+001  -1.220006e+001 
3231250000  -3.358844e+001  -1.451617e+001 
3234375000  -3.317708e+001  -1.411976e+001 
3237500000  -3.327734e+001  -1.699324e+001 
3240625000  -3.290681e+001  -1.939780e+001 
3243750000  -3.253711e+001  -2.696999e+001 
3246875000  -3.299734e+001  -3.394401e+001 
3250000000  -3.331018e+001  -3.618932e+001 
3253125000  -3.348284e+001  -3.799738e+001 
3256250000  -3.307600e+001  -4.471262e+001 
3259375000  -3.339225e+001  -5.412680e+001 
3262500000  -3.457281e+001  -5.768828e+001 
3265625000  -3.521054e+001  -5.444971e+001 
3268750000  -3.506545e+001  -5.257608e+001 
3271875000  -3.465239e+001  -5.260204e+001 
3275000000  -3.363825e+001  -5.957023e+001 
3278125000  -3.419388e+001  -6.624959e+001 
3281250000  -3.434021e+001  -6.563235e+001 
3284375000  -3.379964e+001  -7.243859e+001 
3287500000  -3.409620e+001  -7.542472e+001 
3290625000  -3.437014e+001  -8.207410e+001 
3293750000  -3.398845e+001  -8.814298e+001 
3296875000  -3.510557e+001  -8.860185e+001 
3300000000  -3.475395e+001  -8.768681e+001 
3303125000  -3.362693e+001  -9.309104e+001 
3306250000  -3.338873e+001  -1.003214e+002 
3309375000  -3.307125e+001  -1.064656e+002 
3312500000  -3.326220e+001  -1.178523e+002 
3315625000  -3.431665e+001  -1.255183e+002 
3318750000  -3.577784e+001  -1.283423e+002 
3321875000  -3.673818e+001  -1.281930e+002 
3325000000  -3.738382e+001  -1.230122e+002 
3328125000  -3.682780e+001  -1.202342e+002 
3331250000  -3.535365e+001  -1.146572e+002 
3334375000  -3.270048e+001  -1.272055e+002 
3337500000  -3.299112e+001  -1.464703e+002 
3340625000  -3.440954e+001  -1.570291e+002 
3343750000  -3.634706e+001  -1.579901e+002 
3346875000  -3.634322e+001  -1.551318e+002 
3350000000  -3.587560e+001  -1.580974e+002 
3353125000  -3.582349e+001  -1.632287e+002 
3356250000  -3.540990e+001  -1.714023e+002 
3359375000  -3.632219e+001  1.796728e+002 
3362500000  -3.727683e+001  1.736916e+002 
3365625000  -3.780661e+001  1.738888e+002 
3368750000  -3.864707e+001  1.706687e+002 
3371875000  -3.890046e+001  1.673636e+002 
3375000000  -4.017478e+001  1.666925e+002 
3378125000  -4.092720e+001  1.660613e+002 
3381250000  -4.252826e+001  1.756192e+002 
3384375000  -4.107817e+001  -1.662883e+002 
3387500000  -3.738984e+001  1.780467e+002 
3390625000  -3.886858e+001  1.591751e+002 
3393750000  -4.032661e+001  1.654011e+002 
3396875000  -3.881317e+001  1.642444e+002 
3400000000  -3.850543e+001  1.550697e+002 
3403125000  -3.921186e+001  1.501831e+002 
3406250000  -3.969168e+001  1.511202e+002 
3409375000  -3.974059e+001  1.422437e+002 
3412500000  -4.005470e+001  1.397406e+002 
3415625000  -4.096747e+001  1.414206e+002 
3418750000  -4.122582e+001  1.427263e+002 
3421875000  -4.122111e+001  1.450116e+002 
3425000000  -4.013468e+001  1.450872e+002 
3428125000  -3.930328e+001  1.411735e+002 
3431250000  -3.913323e+001  1.338995e+002 
3434375000  -3.903955e+001  1.278573e+002 
3437500000  -3.960173e+001  1.242849e+002 
3440625000  -3.998382e+001  1.261103e+002 
3443750000  -3.858064e+001  1.268750e+002 
3446875000  -3.791784e+001  1.173531e+002 
3450000000  -3.748284e+001  1.083417e+002 
3453125000  -3.783657e+001  9.891344e+001 
3456250000  -3.895937e+001  9.202779e+001 
3459375000  -3.990554e+001  9.236134e+001 
3462500000  -3.975090e+001  9.252185e+001 
3465625000  -3.978141e+001  8.843268e+001 
3468750000  -3.995819e+001  8.341555e+001 
3471875000  -4.005234e+001  8.258588e+001 
3475000000  -3.945864e+001  7.799147e+001 
3478125000  -4.023893e+001  6.907771e+001 
3481250000  -4.129420e+001  6.681926e+001 
3484375000  -4.217756e+001  7.056978e+001 
3487500000  -4.109865e+001  6.923518e+001 
3490625000  -4.055775e+001  6.482939e+001 
3493750000  -4.117213e+001  5.907231e+001 
3496875000  -4.178111e+001  5.733427e+001 
3500000000  -4.248644e+001  6.010569e+001 
3503125000  -4.162469e+001  6.165002e+001 
3506250000  -4.043134e+001  5.613650e+001 
3509375000  -4.049019e+001  4.727361e+001 
3512500000  -4.081953e+001  3.805639e+001 
3515625000  -4.184733e+001  3.621873e+001 
3518750000  -4.251213e+001  3.522279e+001 
3521875000  -4.247038e+001  3.327514e+001 
3525000000  -4.322734e+001  3.030891e+001 
3528125000  -4.337077e+001  3.924883e+001 
3531250000  -4.197173e+001  3.544060e+001 
3534375000  -4.196161e+001  2.493026e+001 
3537500000  -4.260854e+001  2.161906e+001 
3540625000  -4.360717e+001  2.114882e+001 
3543750000  -4.423472e+001  2.364624e+001 
3546875000  -4.409037e+001  3.504131e+001 
3550000000  -4.152773e+001  3.624846e+001 
3553125000  -4.022263e+001  1.953254e+001 
3556250000  -4.189271e+001  1.166841e+001 
3559375000  -4.143074e+001  1.233894e+001 
3562500000  -4.034185e+001  5.747191e+000 
3565625000  -4.121999e+001  -2.122587e+000 
3568750000  -4.152001e+001  1.754611e+000 
3571875000  -4.114004e+001  -1.322080e+000 
3575000000  -4.071199e+001  -6.848870e+000 
3578125000  -4.127612e+001  -1.168700e+001 
3581250000  -4.142979e+001  -1.303475e+001 
3584375000  -4.027913e+001  -1.748591e+001 
3587500000  -3.978593e+001  -2.508485e+001 
3590625000  -4.038863e+001  -3.728104e+001 
3593750000  -4.187486e+001  -3.785892e+001 
3596875000  -4.159966e+001  -3.186253e+001 
3600000000  -4.014018e+001  -3.750843e+001 
3603125000  -4.070820e+001  -5.108074e+001 
3606250000  -4.126242e+001  -5.434042e+001 
3609375000  -4.207980e+001  -5.744102e+001 
3612500000  -4.244968e+001  -6.314513e+001 
3615625000  -4.263457e+001  -6.560513e+001 
3618750000  -4.359407e+001  -6.358149e+001 
3621875000  -4.325617e+001  -6.850050e+001 
3625000000  -4.422584e+001  -7.057584e+001 
3628125000  -4.362781e+001  -7.286274e+001 
3631250000  -4.377203e+001  -7.869367e+001 
3634375000  -4.537068e+001  -7.840507e+001 
3637500000  -4.537436e+001  -7.201617e+001 
3640625000  -4.478334e+001  -7.065917e+001 
3643750000  -4.431227e+001  -7.594009e+001 
3646875000  -4.474589e+001  -8.346236e+001 
3650000000  -4.553576e+001  -8.326725e+001 
3653125000  -4.543749e+001  -8.345432e+001 
3656250000  -4.606940e+001  -8.463575e+001 
3659375000  -4.617904e+001  -8.011105e+001 
3662500000  -4.527470e+001  -8.124811e+001 
3665625000  -4.516787e+001  -8.232885e+001 
3668750000  -4.358502e+001  -8.288550e+001 
3671875000  -4.269516e+001  -8.938149e+001 
3675000000  -4.313771e+001  -9.465436e+001 
3678125000  -4.354780e+001  -9.363033e+001 
3681250000  -4.309836e+001  -9.816127e+001 
3684375000  -4.309135e+001  -1.033802e+002 
3687500000  -4.336830e+001  -1.061340e+002 
3690625000  -4.328912e+001  -1.108335e+002 
3693750000  -4.407003e+001  -1.111682e+002 
3696875000  -4.378897e+001  -1.095359e+002 
3700000000  -4.284056e+001  -1.150498e+002 
3703125000  -4.288721e+001  -1.195401e+002 
3706250000  -4.391335e+001  -1.204617e+002 
3709375000  -4.338500e+001  -1.202262e+002 
3712500000  -4.253604e+001  -1.234577e+002 
3715625000  -4.140886e+001  -1.288942e+002 
3718750000  -4.110126e+001  -1.337060e+002 
3721875000  -4.102950e+001  -1.407981e+002 
3725000000  -4.130919e+001  -1.468098e+002 
3728125000  -4.180226e+001  -1.473984e+002 
3731250000  -4.146346e+001  -1.508315e+002 
3734375000  -4.083076e+001  -1.583516e+002 
3737500000  -4.209789e+001  -1.656033e+002 
3740625000  -4.298384e+001  -1.681100e+002 
3743750000  -4.303188e+001  -1.711420e+002 
3746875000  -4.321671e+001  -1.725625e+002 
3750000000  -4.380669e+001  -1.756531e+002 
3753125000  -4.422842e+001  -1.769476e+002 
3756250000  -4.425991e+001  -1.755277e+002 
3759375000  -4.419880e+001  -1.746999e+002 
3762500000  -4.398689e+001  -1.792350e+002 
3765625000  -4.456344e+001  1.792112e+002 
3768750000  -4.463794e+001  -1.766006e+002 
3771875000  -4.323373e+001  -1.750776e+002 
3775000000  -4.320922e+001  1.770534e+002 
3778125000  -4.357143e+001  1.733663e+002 
3781250000  -4.293383e+001  1.728419e+002 
3784375000  -4.295207e+001  1.721417e+002 
3787500000  -4.223989e+001  1.705391e+002 
3790625000  -4.278548e+001  1.640193e+002 
3793750000  -4.243710e+001  1.650648e+002 
3796875000  -4.146310e+001  1.622850e+002 
3800000000  -3.974764e+001  1.599176e+002 
3803125000  -4.028817e+001  1.499054e+002 
3806250000  -4.118467e+001  1.476076e+002 
3809375000  -4.050194e+001  1.458201e+002 
3812500000  -4.008908e+001  1.384955e+002 
3815625000  -4.064888e+001  1.294096e+002 
3818750000  -4.170196e+001  1.293727e+002 
3821875000  -4.127148e+001  1.385248e+002 
3825000000  -3.961664e+001  1.376296e+002 
3828125000  -3.799206e+001  1.216818e+002 
3831250000  -3.883792e+001  1.068162e+002 
3834375000  -4.011574e+001  1.071480e+002 
3837500000  -4.104433e+001  1.117853e+002 
3840625000  -3.972342e+001  1.087897e+002 
3843750000  -3.893042e+001  9.864240e+001 
3846875000  -4.003995e+001  8.877721e+001 
3850000000  -4.104483e+001  9.590272e+001 
3853125000  -4.045333e+001  9.728551e+001 
3856250000  -4.025691e+001  9.181143e+001 
3859375000  -3.944698e+001  8.455946e+001 
3862500000  -3.938557e+001  7.640813e+001 
3865625000  -3.964749e+001  7.224763e+001 
3868750000  -3.960146e+001  7.293501e+001 
3871875000  -3.876065e+001  6.739032e+001 
3875000000  -3.939765e+001  5.848253e+001 
3878125000  -4.030910e+001  5.632913e+001 
3881250000  -4.046698e+001  5.650483e+001 
3884375000  -4.011135e+001  5.448485e+001 
3887500000  -4.043867e+001  4.833774e+001 
3890625000  -4.103846e+001  4.525423e+001 
3893750000  -4.094965e+001  4.369218e+001 
3896875000  -4.124095e+001  4.337468e+001 
3900000000  -4.151838e+001  4.303207e+001 
3903125000  -4.128658e+001  4.061085e+001 
3906250000  -4.073667e+001  3.958052e+001 
3909375000  -4.004195e+001  3.649612e+001 
3912500000  -4.033850e+001  2.655703e+001 
3915625000  -4.127240e+001  3.009522e+001 
3918750000  -4.119715e+001  2.946560e+001 
3921875000  -4.092829e+001  2.944138e+001 
3925000000  -3.961217e+001  2.325909e+001 
3928125000  -3.931533e+001  1.741918e+001 
3931250000  -3.965474e+001  1.301998e+001 
3934375000  -3.989843e+001  1.156825e+001 
3937500000  -4.029393e+001  1.099152e+001 
3940625000  -4.075696e+001  8.188932e+000 
3943750000  -3.945103e+001  7.718861e+000 
3946875000  -3.860467e+001  2.445235e+000 
3950000000  -3.923656e+001  -6.603918e+000 
3953125000  -4.003221e+001  -7.597138e+000 
3956250000  -3.895257e+001  -5.726089e+000 
3959375000  -3.790565e+001  -8.855563e+000 
3962500000  -3.725587e+001  -1.385175e+001 
3965625000  -3.730228e+001  -2.458932e+001 
3968750000  -3.848187e+001  -3.172246e+001 
3971875000  -3.860737e+001  -3.390260e+001 
3975000000  -3.777997e+001  -3.713911e+001 
3978125000  -3.798451e+001  -3.990458e+001 
3981250000  -3.776891e+001  -4.478429e+001 
3984375000  -3.790846e+001  -5.064869e+001 
3987500000  -3.860250e+001  -5.417770e+001 
3990625000  -3.866182e+001  -5.532512e+001 
3993750000  -3.895262e+001  -5.887878e+001 
3996875000  -3.905471e+001  -6.406159e+001 
4000000000  -3.928861e+001  -6.453654e+001 
4003125000  -3.952667e+001  -6.217703e+001 
4006250000  -3.816714e+001  -6.434145e+001 
4009375000  -3.700991e+001  -7.801812e+001 
4012500000  -3.876109e+001  -8.303488e+001 
4015625000  -3.977077e+001  -8.411847e+001 
4018750000  -3.993499e+001  -8.141402e+001 
4021875000  -3.888709e+001  -8.417957e+001 
4025000000  -3.893566e+001  -8.966485e+001 
4028125000  -3.882337e+001  -9.523877e+001 
4031250000  -3.939073e+001  -9.818297e+001 
4034375000  -3.971728e+001  -9.854372e+001 
4037500000  -3.928992e+001  -9.749985e+001 
4040625000  -3.901112e+001  -1.002802e+002 
4043750000  -3.925278e+001  -1.026449e+002 
4046875000  -3.871894e+001  -1.028389e+002 
4050000000  -3.834711e+001  -1.112020e+002 
4053125000  -3.910673e+001  -1.114179e+002 
4056250000  -3.936921e+001  -1.088090e+002 
4059375000  -3.798472e+001  -1.085823e+002 
4062500000  -3.669110e+001  -1.140968e+002 
4065625000  -3.661329e+001  -1.181750e+002 
4068750000  -3.638080e+001  -1.251617e+002 
4071875000  -3.573428e+001  -1.334287e+002 
4075000000  -3.602812e+001  -1.401663e+002 
4078125000  -3.683737e+001  -1.407278e+002 
4081250000  -3.621656e+001  -1.455874e+002 
4084375000  -3.578638e+001  -1.540122e+002 
4087500000  -3.616881e+001  -1.604429e+002 
4090625000  -3.680716e+001  -1.612218e+002 
4093750000  -3.653263e+001  -1.633505e+002 
4096875000  -3.613744e+001  -1.699438e+002 
4100000000  -3.712622e+001  -1.761667e+002 
4103125000  -3.781779e+001  -1.757312e+002 
4106250000  -3.776075e+001  -1.728000e+002 
4109375000  -3.689278e+001  -1.742473e+002 
4112500000  -3.646167e+001  1.770993e+002 
4115625000  -3.663856e+001  1.726010e+002 
4118750000  -3.692698e+001  1.690978e+002 
4121875000  -3.663879e+001  1.623628e+002 
4125000000  -3.674672e+001  1.567186e+002 
4128125000  -3.789208e+001  1.583940e+002 
4131250000  -3.755145e+001  1.661850e+002 
4134375000  -3.532672e+001  1.584727e+002 
4137500000  -3.514229e+001  1.385121e+002 
4140625000  -3.747138e+001  1.308549e+002 
4143750000  -3.882729e+001  1.368456e+002 
4146875000  -3.822906e+001  1.425421e+002 
4150000000  -3.754850e+001  1.371969e+002 
4153125000  -3.736161e+001  1.293151e+002 
4156250000  -3.847210e+001  1.275879e+002 
4159375000  -3.878272e+001  1.323009e+002 
4162500000  -3.774901e+001  1.361028e+002 
4165625000  -3.656905e+001  1.306288e+002 
4168750000  -3.577817e+001  1.234193e+002 
4171875000  -3.571168e+001  1.147717e+002 
4175000000  -3.656861e+001  1.086761e+002 
4178125000  -3.727927e+001  1.082380e+002 
4181250000  -3.689492e+001  1.065443e+002 
4184375000  -3.661315e+001  1.015534e+002 
4187500000  -3.668296e+001  9.961026e+001 
4190625000  -3.661574e+001  9.203532e+001 
4193750000  -3.742277e+001  8.791860e+001 
4196875000  -3.827182e+001  8.784747e+001 
4200000000  -3.912172e+001  9.145468e+001 
4203125000  -3.879222e+001  1.047678e+002 
4206250000  -3.523476e+001  1.030273e+002 
4209375000  -3.440825e+001  8.076649e+001 
4212500000  -3.636700e+001  7.107309e+001 
4215625000  -3.715154e+001  7.930856e+001 
4218750000  -3.556193e+001  8.377667e+001 
4221875000  -3.334819e+001  7.363120e+001 
4225000000  -3.471450e+001  6.040912e+001 
4228125000  -3.520217e+001  6.488395e+001 
4231250000  -3.364082e+001  5.977904e+001 
4234375000  -3.344753e+001  4.976808e+001 
4237500000  -3.307121e+001  4.569506e+001 
4240625000  -3.309056e+001  3.546597e+001 
4243750000  -3.408541e+001  2.856834e+001 
4246875000  -3.521772e+001  2.648949e+001 
4250000000  -3.498084e+001  2.875404e+001 
4253125000  -3.457357e+001  2.501812e+001 
4256250000  -3.479670e+001  2.131448e+001 
4259375000  -3.453378e+001  1.742988e+001 
4262500000  -3.496851e+001  1.342564e+001 
4265625000  -3.487238e+001  1.169900e+001 
4268750000  -3.399298e+001  7.970869e+000 
4271875000  -3.376763e+001  -1.897801e+000 
4275000000  -3.338596e+001  -7.285288e+000 
4278125000  -3.442377e+001  -1.918584e+001 
4281250000  -3.617451e+001  -2.088754e+001 
4284375000  -3.592422e+001  -2.168260e+001 
4287500000  -3.697351e+001  -2.533255e+001 
4290625000  -3.829755e+001  -1.594735e+001 
4293750000  -3.608772e+001  -1.246041e+001 
4296875000  -3.497443e+001  -2.274473e+001 
4300000000  -3.593839e+001  -3.277533e+001 
4303125000  -3.703326e+001  -3.088092e+001 
4306250000  -3.634372e+001  -2.506650e+001 
4309375000  -3.518510e+001  -2.721453e+001 
4312500000  -3.487452e+001  -3.572426e+001 
4315625000  -3.491712e+001  -4.197855e+001 
4318750000  -3.536808e+001  -4.582550e+001 
4321875000  -3.546550e+001  -4.483452e+001 
4325000000  -3.486123e+001  -4.527718e+001 
4328125000  -3.419209e+001  -5.108278e+001 
4331250000  -3.404025e+001  -6.116152e+001 
4334375000  -3.453806e+001  -6.668993e+001 
4337500000  -3.533637e+001  -6.885083e+001 
4340625000  -3.578923e+001  -6.652021e+001 
4343750000  -3.471663e+001  -6.556264e+001 
4346875000  -3.457085e+001  -7.253196e+001 
4350000000  -3.445460e+001  -7.872285e+001 
4353125000  -3.435964e+001  -8.690049e+001 
4356250000  -3.643418e+001  -8.696457e+001 
4359375000  -3.651019e+001  -7.300498e+001 
4362500000  -3.350389e+001  -7.592951e+001 
4365625000  -3.199025e+001  -8.905299e+001 
4368750000  -3.282226e+001  -1.006279e+002 
4371875000  -3.398752e+001  -1.021031e+002 
4375000000  -3.346951e+001  -1.033350e+002 
4378125000  -3.273990e+001  -1.099192e+002 
4381250000  -3.308463e+001  -1.163760e+002 
4384375000  -3.278782e+001  -1.235576e+002 
4387500000  -3.366922e+001  -1.293473e+002 
4390625000  -3.459115e+001  -1.299147e+002 
4393750000  -3.390958e+001  -1.291012e+002 
4396875000  -3.322049e+001  -1.329331e+002 
4400000000  -3.274286e+001  -1.418066e+002 
4403125000  -3.361378e+001  -1.498058e+002 
4406250000  -3.458205e+001  -1.527923e+002 
4409375000  -3.454133e+001  -1.553845e+002 
4412500000  -3.572760e+001  -1.587637e+002 
4415625000  -3.600442e+001  -1.543279e+002 
