!Agilent Technologies,E8363B,MY43030201,A.06.04.32
!Agilent E8363B: A.06.04.32
!Date: Tuesday, November 11, 2014 21:02:50
!Correction: S21(Response(S21)) 
!S1P File: Measurement: S21:
# Hz S  dB   R 50
3000000000  -3.638727e+001  -4.601984e+001 
3003125000  -3.745773e+001  -5.205974e+001 
3006250000  -3.740359e+001  -5.483333e+001 
3009375000  -3.762453e+001  -5.059432e+001 
3012500000  -3.695395e+001  -5.075448e+001 
3015625000  -3.607149e+001  -5.962145e+001 
3018750000  -3.679759e+001  -6.066222e+001 
3021875000  -3.534813e+001  -5.966522e+001 
3025000000  -3.410976e+001  -6.274062e+001 
3028125000  -3.310023e+001  -6.899775e+001 
3031250000  -3.207807e+001  -8.091614e+001 
3034375000  -3.177573e+001  -9.420556e+001 
3037500000  -3.213425e+001  -1.065433e+002 
3040625000  -3.348857e+001  -1.112648e+002 
3043750000  -3.416132e+001  -1.161535e+002 
3046875000  -3.427794e+001  -1.221804e+002 
3050000000  -3.594747e+001  -1.289155e+002 
3053125000  -3.595638e+001  -1.223848e+002 
3056250000  -3.552642e+001  -1.200023e+002 
3059375000  -3.569005e+001  -1.200059e+002 
3062500000  -3.399170e+001  -1.247380e+002 
3065625000  -3.388972e+001  -1.299936e+002 
3068750000  -3.349386e+001  -1.366805e+002 
3071875000  -3.348915e+001  -1.390336e+002 
3075000000  -3.330127e+001  -1.429804e+002 
3078125000  -3.298930e+001  -1.471644e+002 
3081250000  -3.348941e+001  -1.514044e+002 
3084375000  -3.262404e+001  -1.546693e+002 
3087500000  -3.242839e+001  -1.589441e+002 
3090625000  -3.196103e+001  -1.687154e+002 
3093750000  -3.234609e+001  -1.765114e+002 
3096875000  -3.341084e+001  1.777776e+002 
3100000000  -3.333732e+001  1.756718e+002 
3103125000  -3.363319e+001  1.767871e+002 
3106250000  -3.314134e+001  1.725386e+002 
3109375000  -3.326142e+001  1.678884e+002 
3112500000  -3.317382e+001  1.662433e+002 
3115625000  -3.281520e+001  1.611660e+002 
3118750000  -3.320070e+001  1.615409e+002 
3121875000  -3.235712e+001  1.518958e+002 
3125000000  -3.348492e+001  1.478273e+002 
3128125000  -3.445480e+001  1.542774e+002 
3131250000  -3.203680e+001  1.531435e+002 
3134375000  -3.069317e+001  1.381138e+002 
3137500000  -3.130992e+001  1.235045e+002 
3140625000  -3.280596e+001  1.210310e+002 
3143750000  -3.385754e+001  1.224177e+002 
3146875000  -3.334464e+001  1.232103e+002 
3150000000  -3.228568e+001  1.235622e+002 
3153125000  -3.235362e+001  1.139766e+002 
3156250000  -3.327925e+001  1.196051e+002 
3159375000  -3.161702e+001  1.204349e+002 
3162500000  -2.980389e+001  1.060770e+002 
3165625000  -3.076698e+001  9.389249e+001 
3168750000  -3.106863e+001  9.357561e+001 
3171875000  -3.018996e+001  8.828087e+001 
3175000000  -3.092217e+001  7.988293e+001 
3178125000  -3.066855e+001  8.054011e+001 
3181250000  -2.957855e+001  7.501688e+001 
3184375000  -2.884935e+001  6.225590e+001 
3187500000  -3.002351e+001  4.650465e+001 
3190625000  -3.276107e+001  3.854871e+001 
3193750000  -3.334346e+001  4.768240e+001 
3196875000  -3.291978e+001  5.233570e+001 
3200000000  -3.211195e+001  4.928650e+001 
3203125000  -3.128632e+001  4.311299e+001 
3206250000  -3.153476e+001  3.644816e+001 
3209375000  -3.110943e+001  3.046640e+001 
3212500000  -3.130250e+001  2.398239e+001 
3215625000  -3.137191e+001  1.965180e+001 
3218750000  -3.222554e+001  1.236073e+001 
3221875000  -3.302961e+001  7.649069e+000 
3225000000  -3.266125e+001  6.036016e+000 
3228125000  -3.298706e+001  3.193388e-001 
3231250000  -3.372588e+001  -1.963753e+000 
3234375000  -3.346678e+001  -1.425327e+000 
3237500000  -3.340140e+001  -3.658953e+000 
3240625000  -3.299444e+001  -6.397243e+000 
3243750000  -3.257894e+001  -1.387194e+001 
3246875000  -3.312147e+001  -2.089843e+001 
3250000000  -3.343810e+001  -2.335554e+001 
3253125000  -3.343724e+001  -2.507928e+001 
3256250000  -3.318964e+001  -3.265764e+001 
3259375000  -3.351221e+001  -4.077516e+001 
3262500000  -3.463855e+001  -4.454687e+001 
3265625000  -3.527560e+001  -4.203712e+001 
3268750000  -3.519484e+001  -3.998646e+001 
3271875000  -3.483567e+001  -3.961395e+001 
3275000000  -3.379864e+001  -4.670987e+001 
3278125000  -3.428049e+001  -5.312183e+001 
3281250000  -3.443637e+001  -5.225473e+001 
3284375000  -3.397556e+001  -5.913514e+001 
3287500000  -3.422469e+001  -6.242829e+001 
3290625000  -3.439088e+001  -6.914861e+001 
3293750000  -3.410958e+001  -7.421474e+001 
3296875000  -3.515726e+001  -7.545999e+001 
3300000000  -3.497987e+001  -7.466142e+001 
3303125000  -3.378355e+001  -7.996447e+001 
3306250000  -3.358913e+001  -8.690366e+001 
3309375000  -3.335625e+001  -9.327343e+001 
3312500000  -3.325327e+001  -1.040085e+002 
3315625000  -3.429939e+001  -1.129103e+002 
3318750000  -3.573648e+001  -1.150154e+002 
3321875000  -3.680505e+001  -1.162458e+002 
3325000000  -3.731147e+001  -1.095751e+002 
3328125000  -3.693300e+001  -1.102402e+002 
3331250000  -3.596846e+001  -1.031889e+002 
3334375000  -3.310118e+001  -1.141020e+002 
3337500000  -3.304394e+001  -1.329727e+002 
3340625000  -3.448694e+001  -1.440309e+002 
3343750000  -3.649675e+001  -1.447437e+002 
3346875000  -3.685607e+001  -1.428128e+002 
3350000000  -3.603946e+001  -1.447693e+002 
3353125000  -3.602517e+001  -1.495473e+002 
3356250000  -3.561606e+001  -1.584005e+002 
3359375000  -3.645856e+001  -1.667936e+002 
3362500000  -3.763248e+001  -1.722614e+002 
3365625000  -3.795783e+001  -1.727566e+002 
3368750000  -3.873013e+001  -1.755567e+002 
3371875000  -3.900748e+001  -1.783085e+002 
3375000000  -4.032509e+001  1.789761e+002 
3378125000  -4.140443e+001  1.795832e+002 
3381250000  -4.258788e+001  -1.724904e+002 
3384375000  -4.114966e+001  -1.515031e+002 
3387500000  -3.751042e+001  -1.678931e+002 
3390625000  -3.927305e+001  1.731312e+002 
3393750000  -4.039172e+001  1.765446e+002 
3396875000  -3.941376e+001  1.790211e+002 
3400000000  -3.853477e+001  1.714948e+002 
3403125000  -3.939147e+001  1.650123e+002 
3406250000  -3.962814e+001  1.631229e+002 
3409375000  -3.985104e+001  1.561564e+002 
3412500000  -4.036088e+001  1.542100e+002 
3415625000  -4.108346e+001  1.552894e+002 
3418750000  -4.110047e+001  1.555367e+002 
3421875000  -4.132573e+001  1.585074e+002 
3425000000  -4.053416e+001  1.602292e+002 
3428125000  -3.939758e+001  1.551293e+002 
3431250000  -3.933974e+001  1.476034e+002 
3434375000  -3.906977e+001  1.425179e+002 
3437500000  -3.999500e+001  1.375661e+002 
3440625000  -4.014217e+001  1.408188e+002 
3443750000  -3.891975e+001  1.401136e+002 
3446875000  -3.798797e+001  1.334772e+002 
3450000000  -3.748587e+001  1.230210e+002 
3453125000  -3.787910e+001  1.143514e+002 
3456250000  -3.918372e+001  1.063550e+002 
3459375000  -4.014078e+001  1.065674e+002 
3462500000  -3.983658e+001  1.075371e+002 
3465625000  -3.979401e+001  1.027936e+002 
3468750000  -4.024121e+001  9.940688e+001 
3471875000  -4.000627e+001  9.661663e+001 
3475000000  -3.951752e+001  9.100776e+001 
3478125000  -4.044945e+001  8.340242e+001 
3481250000  -4.109178e+001  8.090556e+001 
3484375000  -4.210278e+001  8.564333e+001 
3487500000  -4.137063e+001  8.477689e+001 
3490625000  -4.066803e+001  8.146968e+001 
3493750000  -4.122960e+001  7.274577e+001 
3496875000  -4.175563e+001  7.078297e+001 
3500000000  -4.236006e+001  7.435825e+001 
3503125000  -4.201077e+001  7.638200e+001 
3506250000  -4.060171e+001  7.220895e+001 
3509375000  -4.076033e+001  6.285443e+001 
3512500000  -4.112296e+001  5.450368e+001 
3515625000  -4.191993e+001  5.185403e+001 
3518750000  -4.267691e+001  5.239857e+001 
3521875000  -4.258281e+001  4.930058e+001 
3525000000  -4.341671e+001  4.541195e+001 
3528125000  -4.355836e+001  5.533863e+001 
3531250000  -4.206107e+001  5.245590e+001 
3534375000  -4.222331e+001  4.182262e+001 
3537500000  -4.247938e+001  3.637254e+001 
3540625000  -4.375773e+001  3.481618e+001 
3543750000  -4.412126e+001  3.691770e+001 
3546875000  -4.445710e+001  5.104992e+001 
3550000000  -4.138110e+001  5.199754e+001 
3553125000  -4.018345e+001  3.352477e+001 
3556250000  -4.148754e+001  2.629862e+001 
3559375000  -4.143218e+001  2.878534e+001 
3562500000  -4.038063e+001  1.905325e+001 
3565625000  -4.110166e+001  1.346200e+001 
3568750000  -4.109313e+001  1.461900e+001 
3571875000  -4.136875e+001  1.306953e+001 
3575000000  -4.082385e+001  6.970508e+000 
3578125000  -4.124037e+001  2.055623e+000 
3581250000  -4.147480e+001  1.010853e+000 
3584375000  -4.060580e+001  -3.890395e+000 
3587500000  -4.031819e+001  -9.368255e+000 
3590625000  -4.061827e+001  -2.088576e+001 
3593750000  -4.164885e+001  -2.339225e+001 
3596875000  -4.192190e+001  -1.790237e+001 
3600000000  -4.032605e+001  -2.281938e+001 
3603125000  -4.085221e+001  -3.946819e+001 
3606250000  -4.167003e+001  -4.115909e+001 
3609375000  -4.233867e+001  -4.395876e+001 
3612500000  -4.286695e+001  -4.812464e+001 
3615625000  -4.305730e+001  -5.068979e+001 
3618750000  -4.389677e+001  -5.006313e+001 
3621875000  -4.370237e+001  -5.529325e+001 
3625000000  -4.446193e+001  -5.632011e+001 
3628125000  -4.456973e+001  -5.443601e+001 
3631250000  -4.432701e+001  -6.123528e+001 
3634375000  -4.587688e+001  -6.179750e+001 
3637500000  -4.584560e+001  -5.590363e+001 
3640625000  -4.532499e+001  -5.623577e+001 
3643750000  -4.461780e+001  -5.940213e+001 
3646875000  -4.491072e+001  -6.656318e+001 
3650000000  -4.634847e+001  -6.734134e+001 
3653125000  -4.557376e+001  -6.700541e+001 
3656250000  -4.613122e+001  -6.544308e+001 
3659375000  -4.620674e+001  -6.198584e+001 
3662500000  -4.576935e+001  -6.454567e+001 
3665625000  -4.522408e+001  -6.574605e+001 
3668750000  -4.355469e+001  -6.559711e+001 
3671875000  -4.301624e+001  -7.076480e+001 
3675000000  -4.342116e+001  -8.001353e+001 
3678125000  -4.354467e+001  -7.979456e+001 
3681250000  -4.326949e+001  -8.208334e+001 
3684375000  -4.297213e+001  -8.677435e+001 
3687500000  -4.326474e+001  -9.114854e+001 
3690625000  -4.305478e+001  -9.446608e+001 
3693750000  -4.407922e+001  -9.367007e+001 
3696875000  -4.371537e+001  -9.442530e+001 
3700000000  -4.290617e+001  -9.826054e+001 
3703125000  -4.339082e+001  -1.042319e+002 
3706250000  -4.394287e+001  -1.045893e+002 
3709375000  -4.357772e+001  -1.022501e+002 
3712500000  -4.253140e+001  -1.046096e+002 
3715625000  -4.153554e+001  -1.130133e+002 
3718750000  -4.159033e+001  -1.166950e+002 
3721875000  -4.125963e+001  -1.223705e+002 
3725000000  -4.164245e+001  -1.318455e+002 
3728125000  -4.213127e+001  -1.322559e+002 
3731250000  -4.171268e+001  -1.348390e+002 
3734375000  -4.119645e+001  -1.415697e+002 
3737500000  -4.220848e+001  -1.500881e+002 
3740625000  -4.330007e+001  -1.523910e+002 
3743750000  -4.336091e+001  -1.542192e+002 
3746875000  -4.344228e+001  -1.596665e+002 
3750000000  -4.392070e+001  -1.577514e+002 
3753125000  -4.396390e+001  -1.592650e+002 
3756250000  -4.468301e+001  -1.575079e+002 
3759375000  -4.466506e+001  -1.555836e+002 
3762500000  -4.410542e+001  -1.591711e+002 
3765625000  -4.471442e+001  -1.607878e+002 
3768750000  -4.507919e+001  -1.596517e+002 
3771875000  -4.296964e+001  -1.566947e+002 
3775000000  -4.327582e+001  -1.632209e+002 
3778125000  -4.315302e+001  -1.669917e+002 
3781250000  -4.283677e+001  -1.673081e+002 
3784375000  -4.260921e+001  -1.676204e+002 
3787500000  -4.190445e+001  -1.722937e+002 
3790625000  -4.246863e+001  -1.774970e+002 
3793750000  -4.258410e+001  -1.774515e+002 
3796875000  -4.125271e+001  1.798889e+002 
3800000000  -3.959201e+001  1.778633e+002 
3803125000  -4.044183e+001  1.675730e+002 
3806250000  -4.094387e+001  1.644142e+002 
3809375000  -4.035696e+001  1.627773e+002 
3812500000  -3.964580e+001  1.566515e+002 
3815625000  -4.035203e+001  1.464344e+002 
3818750000  -4.112528e+001  1.466318e+002 
3821875000  -4.111403e+001  1.533796e+002 
3825000000  -3.941648e+001  1.573632e+002 
3828125000  -3.794965e+001  1.405961e+002 
3831250000  -3.863379e+001  1.245626e+002 
3834375000  -4.013350e+001  1.236160e+002 
3837500000  -4.086411e+001  1.277350e+002 
3840625000  -3.965847e+001  1.250974e+002 
3843750000  -3.898314e+001  1.144401e+002 
3846875000  -3.974568e+001  1.053203e+002 
3850000000  -4.117303e+001  1.125330e+002 
3853125000  -3.999943e+001  1.139160e+002 
3856250000  -4.042102e+001  1.062231e+002 
3859375000  -3.972572e+001  1.020887e+002 
3862500000  -3.930353e+001  9.308672e+001 
3865625000  -3.981630e+001  8.919620e+001 
3868750000  -3.962965e+001  8.828179e+001 
3871875000  -3.933659e+001  8.409161e+001 
3875000000  -3.932880e+001  7.622551e+001 
3878125000  -4.045365e+001  7.264923e+001 
3881250000  -4.038434e+001  7.664651e+001 
3884375000  -4.009475e+001  7.106095e+001 
3887500000  -4.030394e+001  6.627251e+001 
3890625000  -4.092952e+001  6.278152e+001 
3893750000  -4.092324e+001  6.124141e+001 
3896875000  -4.137436e+001  6.178985e+001 
3900000000  -4.154360e+001  5.932866e+001 
3903125000  -4.099258e+001  5.812643e+001 
3906250000  -4.095496e+001  5.811110e+001 
3909375000  -3.988659e+001  5.346587e+001 
3912500000  -3.980082e+001  4.567752e+001 
3915625000  -4.137725e+001  4.631078e+001 
3918750000  -4.121654e+001  4.752861e+001 
3921875000  -4.086453e+001  4.481684e+001 
3925000000  -3.984391e+001  4.189788e+001 
3928125000  -3.913935e+001  3.417244e+001 
3931250000  -3.970278e+001  2.897391e+001 
3934375000  -3.969597e+001  2.933892e+001 
3937500000  -3.998378e+001  2.859399e+001 
3940625000  -4.029838e+001  2.441136e+001 
3943750000  -3.943222e+001  2.693604e+001 
3946875000  -3.819551e+001  1.905815e+001 
3950000000  -3.902453e+001  1.036247e+001 
3953125000  -4.005721e+001  1.010635e+001 
3956250000  -3.876578e+001  1.368633e+001 
3959375000  -3.777735e+001  8.551756e+000 
3962500000  -3.718828e+001  4.352487e+000 
3965625000  -3.714258e+001  -6.289339e+000 
3968750000  -3.825351e+001  -1.489109e+001 
3971875000  -3.848555e+001  -1.718555e+001 
3975000000  -3.779222e+001  -1.877647e+001 
3978125000  -3.778170e+001  -2.241415e+001 
3981250000  -3.783535e+001  -2.751839e+001 
3984375000  -3.799318e+001  -3.426797e+001 
3987500000  -3.845060e+001  -3.706749e+001 
3990625000  -3.860078e+001  -3.798805e+001 
3993750000  -3.904990e+001  -4.337015e+001 
3996875000  -3.891163e+001  -4.718612e+001 
4000000000  -3.916423e+001  -4.835745e+001 
4003125000  -3.980285e+001  -4.615510e+001 
4006250000  -3.856775e+001  -4.660286e+001 
4009375000  -3.721286e+001  -6.156608e+001 
4012500000  -3.860836e+001  -6.665717e+001 
4015625000  -3.989560e+001  -6.868935e+001 
4018750000  -3.982203e+001  -6.504095e+001 
4021875000  -3.939978e+001  -6.830155e+001 
4025000000  -3.904722e+001  -7.225472e+001 
4028125000  -3.885960e+001  -7.789863e+001 
4031250000  -3.940247e+001  -8.115356e+001 
4034375000  -3.969553e+001  -8.071072e+001 
4037500000  -3.928237e+001  -8.028455e+001 
4040625000  -3.912804e+001  -8.225793e+001 
4043750000  -3.937381e+001  -8.438412e+001 
4046875000  -3.876870e+001  -8.529904e+001 
4050000000  -3.846858e+001  -9.207249e+001 
4053125000  -3.874277e+001  -9.504067e+001 
4056250000  -3.926738e+001  -9.055565e+001 
4059375000  -3.816076e+001  -9.074429e+001 
4062500000  -3.682051e+001  -9.710873e+001 
4065625000  -3.656001e+001  -1.009151e+002 
4068750000  -3.604272e+001  -1.069461e+002 
4071875000  -3.558893e+001  -1.158971e+002 
4075000000  -3.601052e+001  -1.215343e+002 
4078125000  -3.663163e+001  -1.248166e+002 
4081250000  -3.609599e+001  -1.269475e+002 
4084375000  -3.560386e+001  -1.345346e+002 
4087500000  -3.600957e+001  -1.425546e+002 
4090625000  -3.664992e+001  -1.441198e+002 
4093750000  -3.634323e+001  -1.455098e+002 
4096875000  -3.588024e+001  -1.521122e+002 
4100000000  -3.663139e+001  -1.593186e+002 
4103125000  -3.754239e+001  -1.588105e+002 
4106250000  -3.761349e+001  -1.543339e+002 
4109375000  -3.660020e+001  -1.573702e+002 
4112500000  -3.611976e+001  -1.648948e+002 
4115625000  -3.638932e+001  -1.706372e+002 
4118750000  -3.663649e+001  -1.737876e+002 
4121875000  -3.625279e+001  -1.792028e+002 
4125000000  -3.671067e+001  1.740105e+002 
4128125000  -3.770896e+001  1.742963e+002 
4131250000  -3.769683e+001  -1.781799e+002 
4134375000  -3.513817e+001  1.761845e+002 
4137500000  -3.514485e+001  1.553636e+002 
4140625000  -3.737501e+001  1.466831e+002 
4143750000  -3.866746e+001  1.519347e+002 
4146875000  -3.831229e+001  1.592639e+002 
4150000000  -3.763312e+001  1.554413e+002 
4153125000  -3.751181e+001  1.479534e+002 
4156250000  -3.856093e+001  1.455687e+002 
4159375000  -3.876173e+001  1.498190e+002 
4162500000  -3.756855e+001  1.543262e+002 
4165625000  -3.640177e+001  1.499699e+002 
4168750000  -3.587871e+001  1.410868e+002 
4171875000  -3.590479e+001  1.322218e+002 
4175000000  -3.658743e+001  1.253752e+002 
4178125000  -3.725265e+001  1.259422e+002 
4181250000  -3.702415e+001  1.254434e+002 
4184375000  -3.672137e+001  1.210873e+002 
4187500000  -3.670680e+001  1.185465e+002 
4190625000  -3.664296e+001  1.122504e+002 
4193750000  -3.736842e+001  1.073601e+002 
4196875000  -3.800870e+001  1.073111e+002 
4200000000  -3.886201e+001  1.097030e+002 
4203125000  -3.873288e+001  1.216093e+002 
4206250000  -3.508503e+001  1.212825e+002 
4209375000  -3.429746e+001  1.006368e+002 
4212500000  -3.617138e+001  9.060209e+001 
4215625000  -3.703626e+001  9.629147e+001 
4218750000  -3.554496e+001  1.021750e+002 
4221875000  -3.307855e+001  9.209576e+001 
4225000000  -3.459724e+001  7.933231e+001 
4228125000  -3.516601e+001  8.277507e+001 
4231250000  -3.331516e+001  7.826190e+001 
4234375000  -3.333098e+001  6.968105e+001 
4237500000  -3.284821e+001  6.540341e+001 
4240625000  -3.306121e+001  5.529465e+001 
4243750000  -3.402985e+001  4.676345e+001 
4246875000  -3.493524e+001  4.413078e+001 
4250000000  -3.492194e+001  4.663650e+001 
4253125000  -3.435297e+001  4.267598e+001 
4256250000  -3.471544e+001  3.938879e+001 
4259375000  -3.453863e+001  3.519086e+001 
4262500000  -3.453040e+001  3.049992e+001 
4265625000  -3.497395e+001  2.957388e+001 
4268750000  -3.397176e+001  2.441875e+001 
4271875000  -3.377203e+001  1.775362e+001 
4275000000  -3.330893e+001  9.727266e+000 
4278125000  -3.406596e+001  -2.610647e+000 
4281250000  -3.596842e+001  -4.298835e+000 
4284375000  -3.561783e+001  -4.845015e+000 
4287500000  -3.674625e+001  -9.077868e+000 
4290625000  -3.789814e+001  5.404677e-001 
4293750000  -3.602100e+001  4.368920e+000 
4296875000  -3.486216e+001  -5.578577e+000 
4300000000  -3.566994e+001  -1.419635e+001 
4303125000  -3.710717e+001  -1.424854e+001 
4306250000  -3.617617e+001  -7.488710e+000 
4309375000  -3.496520e+001  -9.736732e+000 
4312500000  -3.488111e+001  -1.704044e+001 
4315625000  -3.490273e+001  -2.374183e+001 
4318750000  -3.531670e+001  -2.713134e+001 
4321875000  -3.524026e+001  -2.627001e+001 
4325000000  -3.476442e+001  -2.647129e+001 
4328125000  -3.400558e+001  -3.297274e+001 
4331250000  -3.394432e+001  -4.162470e+001 
4334375000  -3.438275e+001  -4.653226e+001 
4337500000  -3.512529e+001  -4.940078e+001 
4340625000  -3.553871e+001  -4.738073e+001 
4343750000  -3.470067e+001  -4.787932e+001 
4346875000  -3.456117e+001  -5.240342e+001 
4350000000  -3.413914e+001  -5.887306e+001 
4353125000  -3.419394e+001  -6.644801e+001 
4356250000  -3.596287e+001  -6.999748e+001 
4359375000  -3.619605e+001  -5.504208e+001 
4362500000  -3.348409e+001  -5.679673e+001 
4365625000  -3.183062e+001  -6.967415e+001 
4368750000  -3.248668e+001  -8.289763e+001 
4371875000  -3.372478e+001  -8.348262e+001 
4375000000  -3.326859e+001  -8.359451e+001 
4378125000  -3.256339e+001  -9.067626e+001 
4381250000  -3.268269e+001  -9.810979e+001 
4384375000  -3.248177e+001  -1.025969e+002 
4387500000  -3.322737e+001  -1.109605e+002 
4390625000  -3.416976e+001  -1.119811e+002 
4393750000  -3.363650e+001  -1.101460e+002 
4396875000  -3.311090e+001  -1.145870e+002 
4400000000  -3.249942e+001  -1.223083e+002 
4403125000  -3.320255e+001  -1.319874e+002 
4406250000  -3.397153e+001  -1.334999e+002 
4409375000  -3.418238e+001  -1.373807e+002 
4412500000  -3.543961e+001  -1.414295e+002 
4415625000  -3.577832e+001  -1.371977e+002 
