!Agilent Technologies,E8363B,MY43030201,A.06.04.32
!Agilent E8363B: A.06.04.32
!Date: Tuesday, November 11, 2014 21:05:18
!Correction: S21(Response(S21)) 
!S1P File: Measurement: S21:
# Hz S  dB   R 50
3000000000  -3.641191e+001  -4.879790e+001 
3003125000  -3.749991e+001  -5.477378e+001 
3006250000  -3.740421e+001  -5.777016e+001 
3009375000  -3.766042e+001  -5.293111e+001 
3012500000  -3.693313e+001  -5.509655e+001 
3015625000  -3.615014e+001  -6.204717e+001 
3018750000  -3.674560e+001  -6.305090e+001 
3021875000  -3.547657e+001  -6.269970e+001 
3025000000  -3.412750e+001  -6.564381e+001 
3028125000  -3.315491e+001  -7.196824e+001 
3031250000  -3.220937e+001  -8.334898e+001 
3034375000  -3.183678e+001  -9.744196e+001 
3037500000  -3.228041e+001  -1.092607e+002 
3040625000  -3.361783e+001  -1.143406e+002 
3043750000  -3.426904e+001  -1.194050e+002 
3046875000  -3.449313e+001  -1.247740e+002 
3050000000  -3.607743e+001  -1.313121e+002 
3053125000  -3.613408e+001  -1.253138e+002 
3056250000  -3.541292e+001  -1.220049e+002 
3059375000  -3.566098e+001  -1.222131e+002 
3062500000  -3.420975e+001  -1.260429e+002 
3065625000  -3.396440e+001  -1.323105e+002 
3068750000  -3.349125e+001  -1.392757e+002 
3071875000  -3.344710e+001  -1.412396e+002 
3075000000  -3.334341e+001  -1.451639e+002 
3078125000  -3.306437e+001  -1.493117e+002 
3081250000  -3.355692e+001  -1.539421e+002 
3084375000  -3.267028e+001  -1.572626e+002 
3087500000  -3.249913e+001  -1.612716e+002 
3090625000  -3.204494e+001  -1.714205e+002 
3093750000  -3.241131e+001  -1.785305e+002 
3096875000  -3.343043e+001  1.750746e+002 
3100000000  -3.343941e+001  1.729872e+002 
3103125000  -3.367243e+001  1.738149e+002 
3106250000  -3.315891e+001  1.694952e+002 
3109375000  -3.331585e+001  1.654965e+002 
3112500000  -3.321595e+001  1.633495e+002 
3115625000  -3.284576e+001  1.583625e+002 
3118750000  -3.309433e+001  1.588442e+002 
3121875000  -3.224197e+001  1.495401e+002 
3125000000  -3.341127e+001  1.447019e+002 
3128125000  -3.438123e+001  1.521115e+002 
3131250000  -3.208559e+001  1.507486e+002 
3134375000  -3.069901e+001  1.351579e+002 
3137500000  -3.133257e+001  1.203720e+002 
3140625000  -3.278936e+001  1.177682e+002 
3143750000  -3.381166e+001  1.194129e+002 
3146875000  -3.334418e+001  1.208679e+002 
3150000000  -3.229929e+001  1.207751e+002 
3153125000  -3.230324e+001  1.116510e+002 
3156250000  -3.333363e+001  1.164508e+002 
3159375000  -3.159885e+001  1.180159e+002 
3162500000  -2.970945e+001  1.032662e+002 
3165625000  -3.072352e+001  9.093991e+001 
3168750000  -3.111015e+001  9.102632e+001 
3171875000  -3.015175e+001  8.514542e+001 
3175000000  -3.090877e+001  7.675735e+001 
3178125000  -3.069082e+001  7.785919e+001 
3181250000  -2.961308e+001  7.218935e+001 
3184375000  -2.892152e+001  5.943769e+001 
3187500000  -3.003550e+001  4.373097e+001 
3190625000  -3.285921e+001  3.661649e+001 
3193750000  -3.329030e+001  4.513311e+001 
3196875000  -3.303950e+001  4.924853e+001 
3200000000  -3.206647e+001  4.619073e+001 
3203125000  -3.127890e+001  4.075196e+001 
3206250000  -3.161087e+001  3.340928e+001 
3209375000  -3.114959e+001  2.786363e+001 
3212500000  -3.133731e+001  2.052872e+001 
3215625000  -3.146185e+001  1.679939e+001 
3218750000  -3.223988e+001  9.465190e+000 
3221875000  -3.308731e+001  4.309535e+000 
3225000000  -3.262336e+001  3.239694e+000 
3228125000  -3.302513e+001  -1.835821e+000 
3231250000  -3.375297e+001  -4.377490e+000 
3234375000  -3.340652e+001  -4.099229e+000 
3237500000  -3.334610e+001  -6.532638e+000 
3240625000  -3.308905e+001  -9.391489e+000 
3243750000  -3.262872e+001  -1.659060e+001 
3246875000  -3.293417e+001  -2.386801e+001 
3250000000  -3.349325e+001  -2.619922e+001 
3253125000  -3.352911e+001  -2.784418e+001 
3256250000  -3.325486e+001  -3.449661e+001 
3259375000  -3.340714e+001  -4.296124e+001 
3262500000  -3.462302e+001  -4.778981e+001 
3265625000  -3.528035e+001  -4.443135e+001 
3268750000  -3.511040e+001  -4.264181e+001 
3271875000  -3.470906e+001  -4.280156e+001 
3275000000  -3.374334e+001  -4.984012e+001 
3278125000  -3.419693e+001  -5.586776e+001 
3281250000  -3.439775e+001  -5.504081e+001 
3284375000  -3.384898e+001  -6.152633e+001 
3287500000  -3.405108e+001  -6.558778e+001 
3290625000  -3.439694e+001  -7.119433e+001 
3293750000  -3.416259e+001  -7.759941e+001 
3296875000  -3.513179e+001  -7.829745e+001 
3300000000  -3.482537e+001  -7.758076e+001 
3303125000  -3.368661e+001  -8.282740e+001 
3306250000  -3.351070e+001  -8.975119e+001 
3309375000  -3.327370e+001  -9.624728e+001 
3312500000  -3.329020e+001  -1.073141e+002 
3315625000  -3.428573e+001  -1.153493e+002 
3318750000  -3.581915e+001  -1.169742e+002 
3321875000  -3.668386e+001  -1.182755e+002 
3325000000  -3.734587e+001  -1.149692e+002 
3328125000  -3.701047e+001  -1.131529e+002 
3331250000  -3.589544e+001  -1.060984e+002 
3334375000  -3.286964e+001  -1.168766e+002 
3337500000  -3.315490e+001  -1.355850e+002 
3340625000  -3.448288e+001  -1.468940e+002 
3343750000  -3.647982e+001  -1.477943e+002 
3346875000  -3.669287e+001  -1.462008e+002 
3350000000  -3.607758e+001  -1.483562e+002 
3353125000  -3.599753e+001  -1.526132e+002 
3356250000  -3.557954e+001  -1.602957e+002 
3359375000  -3.634652e+001  -1.696693e+002 
3362500000  -3.754184e+001  -1.750579e+002 
3365625000  -3.800102e+001  -1.761210e+002 
3368750000  -3.879926e+001  -1.788553e+002 
3371875000  -3.911836e+001  1.778173e+002 
3375000000  -4.041631e+001  1.777322e+002 
3378125000  -4.119548e+001  1.745392e+002 
3381250000  -4.232423e+001  -1.768380e+002 
3384375000  -4.120542e+001  -1.538068e+002 
3387500000  -3.765195e+001  -1.713540e+002 
3390625000  -3.920704e+001  1.707075e+002 
3393750000  -4.068376e+001  1.745786e+002 
3396875000  -3.947726e+001  1.757620e+002 
3400000000  -3.874100e+001  1.680574e+002 
3403125000  -3.923628e+001  1.616330e+002 
3406250000  -3.958417e+001  1.622025e+002 
3409375000  -3.989537e+001  1.546227e+002 
3412500000  -4.024395e+001  1.524244e+002 
3415625000  -4.096456e+001  1.524033e+002 
3418750000  -4.119867e+001  1.536623e+002 
3421875000  -4.139112e+001  1.557245e+002 
3425000000  -4.052607e+001  1.568723e+002 
3428125000  -3.940075e+001  1.524789e+002 
3431250000  -3.928635e+001  1.448376e+002 
3434375000  -3.934212e+001  1.382976e+002 
3437500000  -3.977320e+001  1.365166e+002 
3440625000  -3.992255e+001  1.374901e+002 
3443750000  -3.882180e+001  1.370002e+002 
3446875000  -3.797252e+001  1.298580e+002 
3450000000  -3.762600e+001  1.194044e+002 
3453125000  -3.796682e+001  1.103350e+002 
3456250000  -3.924524e+001  1.040984e+002 
3459375000  -4.018531e+001  1.031269e+002 
3462500000  -3.988467e+001  1.049024e+002 
3465625000  -3.997588e+001  9.981285e+001 
3468750000  -4.034262e+001  9.479059e+001 
3471875000  -4.000109e+001  9.316714e+001 
3475000000  -3.961611e+001  8.944209e+001 
3478125000  -4.036832e+001  8.180964e+001 
3481250000  -4.128517e+001  7.715746e+001 
3484375000  -4.240737e+001  8.135031e+001 
3487500000  -4.152864e+001  8.183601e+001 
3490625000  -4.084873e+001  7.732745e+001 
3493750000  -4.148119e+001  7.049436e+001 
3496875000  -4.202291e+001  6.942828e+001 
3500000000  -4.250003e+001  7.137030e+001 
3503125000  -4.189323e+001  7.394231e+001 
3506250000  -4.073038e+001  6.960129e+001 
3509375000  -4.073249e+001  5.982495e+001 
3512500000  -4.118421e+001  5.109163e+001 
3515625000  -4.199335e+001  4.868850e+001 
3518750000  -4.240104e+001  4.902694e+001 
3521875000  -4.187237e+001  4.601516e+001 
3525000000  -4.340909e+001  4.409296e+001 
3528125000  -4.335276e+001  5.200223e+001 
3531250000  -4.165924e+001  5.151948e+001 
3534375000  -4.180291e+001  4.066975e+001 
3537500000  -4.250837e+001  3.404097e+001 
3540625000  -4.357472e+001  3.264961e+001 
3543750000  -4.384858e+001  3.661907e+001 
3546875000  -4.426770e+001  4.741707e+001 
3550000000  -4.112096e+001  4.892965e+001 
3553125000  -3.974802e+001  2.999207e+001 
3556250000  -4.136522e+001  2.501276e+001 
3559375000  -4.121721e+001  2.590955e+001 
3562500000  -4.025200e+001  1.685713e+001 
3565625000  -4.084466e+001  9.518721e+000 
3568750000  -4.132476e+001  1.165250e+001 
3571875000  -4.100952e+001  9.115299e+000 
3575000000  -4.051531e+001  2.983656e+000 
3578125000  -4.108482e+001  -2.417927e+000 
3581250000  -4.139478e+001  -2.963046e+000 
3584375000  -4.028133e+001  -4.669780e+000 
3587500000  -3.986765e+001  -1.500524e+001 
3590625000  -4.029285e+001  -2.554091e+001 
3593750000  -4.179457e+001  -2.702725e+001 
3596875000  -4.174181e+001  -2.166304e+001 
3600000000  -4.030442e+001  -2.755810e+001 
3603125000  -4.068131e+001  -4.191042e+001 
3606250000  -4.197665e+001  -4.641281e+001 
3609375000  -4.214035e+001  -4.908307e+001 
3612500000  -4.304994e+001  -5.015000e+001 
3615625000  -4.319621e+001  -5.452549e+001 
3618750000  -4.371576e+001  -5.256654e+001 
3621875000  -4.401512e+001  -5.772186e+001 
3625000000  -4.434688e+001  -5.874461e+001 
3628125000  -4.461887e+001  -5.699617e+001 
3631250000  -4.434068e+001  -6.272343e+001 
3634375000  -4.599906e+001  -6.507610e+001 
3637500000  -4.616774e+001  -5.779032e+001 
3640625000  -4.530384e+001  -5.553618e+001 
3643750000  -4.483601e+001  -6.097642e+001 
3646875000  -4.486514e+001  -6.771913e+001 
3650000000  -4.611572e+001  -6.558654e+001 
3653125000  -4.561022e+001  -6.722835e+001 
3656250000  -4.548514e+001  -6.916814e+001 
3659375000  -4.612711e+001  -6.434904e+001 
3662500000  -4.472912e+001  -6.612673e+001 
3665625000  -4.465611e+001  -6.726021e+001 
3668750000  -4.352405e+001  -6.419395e+001 
3671875000  -4.271028e+001  -7.359808e+001 
3675000000  -4.288618e+001  -8.159260e+001 
3678125000  -4.287582e+001  -8.073753e+001 
3681250000  -4.294637e+001  -8.458004e+001 
3684375000  -4.277483e+001  -9.018375e+001 
3687500000  -4.306669e+001  -9.612592e+001 
3690625000  -4.292424e+001  -9.987965e+001 
3693750000  -4.367631e+001  -9.843411e+001 
3696875000  -4.340932e+001  -9.851681e+001 
3700000000  -4.274919e+001  -1.041458e+002 
3703125000  -4.276359e+001  -1.094806e+002 
3706250000  -4.364907e+001  -1.084705e+002 
3709375000  -4.329337e+001  -1.089844e+002 
3712500000  -4.243196e+001  -1.120144e+002 
3715625000  -4.151531e+001  -1.207961e+002 
3718750000  -4.141863e+001  -1.234274e+002 
3721875000  -4.107551e+001  -1.300025e+002 
3725000000  -4.178818e+001  -1.392216e+002 
3728125000  -4.219898e+001  -1.379715e+002 
3731250000  -4.169332e+001  -1.392935e+002 
3734375000  -4.138077e+001  -1.488989e+002 
3737500000  -4.242699e+001  -1.546649e+002 
3740625000  -4.323115e+001  -1.578631e+002 
3743750000  -4.325371e+001  -1.592078e+002 
3746875000  -4.348045e+001  -1.631397e+002 
3750000000  -4.414664e+001  -1.650530e+002 
3753125000  -4.454230e+001  -1.632099e+002 
3756250000  -4.484130e+001  -1.608497e+002 
3759375000  -4.485571e+001  -1.599071e+002 
3762500000  -4.421291e+001  -1.660969e+002 
3765625000  -4.501262e+001  -1.663940e+002 
3768750000  -4.518518e+001  -1.608432e+002 
3771875000  -4.346926e+001  -1.614544e+002 
3775000000  -4.314046e+001  -1.670658e+002 
3778125000  -4.318291e+001  -1.674333e+002 
3781250000  -4.302913e+001  -1.688591e+002 
3784375000  -4.279154e+001  -1.722964e+002 
3787500000  -4.177053e+001  -1.720588e+002 
3790625000  -4.235022e+001  1.793911e+002 
3793750000  -4.203893e+001  1.785263e+002 
3796875000  -4.106079e+001  1.751500e+002 
3800000000  -3.959799e+001  1.731830e+002 
3803125000  -4.000071e+001  1.631457e+002 
3806250000  -4.072165e+001  1.611131e+002 
3809375000  -4.042774e+001  1.586912e+002 
3812500000  -3.967186e+001  1.518533e+002 
3815625000  -4.014446e+001  1.421597e+002 
3818750000  -4.125442e+001  1.418090e+002 
3821875000  -4.153130e+001  1.483270e+002 
3825000000  -3.940051e+001  1.511517e+002 
3828125000  -3.803531e+001  1.354606e+002 
3831250000  -3.860804e+001  1.218953e+002 
3834375000  -4.016705e+001  1.186723e+002 
3837500000  -4.097564e+001  1.230696e+002 
3840625000  -3.973129e+001  1.198361e+002 
3843750000  -3.886489e+001  1.085137e+002 
3846875000  -3.966462e+001  1.008975e+002 
3850000000  -4.111237e+001  1.054383e+002 
3853125000  -4.032309e+001  1.075657e+002 
3856250000  -4.016875e+001  1.029938e+002 
3859375000  -3.969332e+001  9.920239e+001 
3862500000  -3.949659e+001  8.730201e+001 
3865625000  -3.980923e+001  8.556039e+001 
3868750000  -3.987705e+001  8.228832e+001 
3871875000  -3.921384e+001  7.972800e+001 
3875000000  -3.924643e+001  7.002723e+001 
3878125000  -4.059576e+001  6.820908e+001 
3881250000  -4.074899e+001  7.192072e+001 
3884375000  -4.005479e+001  6.608074e+001 
3887500000  -4.057680e+001  6.020093e+001 
3890625000  -4.104013e+001  5.926797e+001 
3893750000  -4.123804e+001  5.861594e+001 
3896875000  -4.149248e+001  5.986924e+001 
3900000000  -4.183626e+001  5.817809e+001 
3903125000  -4.138385e+001  5.648106e+001 
3906250000  -4.105450e+001  5.327065e+001 
3909375000  -4.028900e+001  5.066041e+001 
3912500000  -4.021249e+001  4.337488e+001 
3915625000  -4.135289e+001  4.379952e+001 
3918750000  -4.117747e+001  4.623026e+001 
3921875000  -4.053336e+001  4.287019e+001 
3925000000  -4.000015e+001  3.929272e+001 
3928125000  -3.919786e+001  3.179365e+001 
3931250000  -3.945076e+001  2.734137e+001 
3934375000  -3.991510e+001  2.604171e+001 
3937500000  -4.014127e+001  2.450885e+001 
3940625000  -4.036279e+001  2.278034e+001 
3943750000  -3.914043e+001  2.224333e+001 
3946875000  -3.816989e+001  1.663870e+001 
3950000000  -3.871558e+001  8.042973e+000 
3953125000  -3.969333e+001  5.766917e+000 
3956250000  -3.895067e+001  8.642942e+000 
3959375000  -3.746406e+001  3.316091e+000 
3962500000  -3.703110e+001  -6.534142e-001 
3965625000  -3.697360e+001  -1.153464e+001 
3968750000  -3.805836e+001  -1.955121e+001 
3971875000  -3.835795e+001  -2.156237e+001 
3975000000  -3.768643e+001  -2.454854e+001 
3978125000  -3.767984e+001  -2.816802e+001 
3981250000  -3.761676e+001  -3.340506e+001 
3984375000  -3.801169e+001  -3.920851e+001 
3987500000  -3.865549e+001  -4.045449e+001 
3990625000  -3.846200e+001  -4.460366e+001 
3993750000  -3.883188e+001  -4.910928e+001 
3996875000  -3.901940e+001  -5.184726e+001 
4000000000  -3.913860e+001  -5.253953e+001 
4003125000  -3.998584e+001  -5.133010e+001 
4006250000  -3.845930e+001  -5.276855e+001 
4009375000  -3.754189e+001  -6.487575e+001 
4012500000  -3.863510e+001  -7.201720e+001 
4015625000  -4.022163e+001  -7.172958e+001 
4018750000  -4.020143e+001  -6.979498e+001 
4021875000  -3.956932e+001  -7.220117e+001 
4025000000  -3.912716e+001  -7.678154e+001 
4028125000  -3.929264e+001  -8.060670e+001 
4031250000  -3.978064e+001  -8.426694e+001 
4034375000  -3.986791e+001  -8.346883e+001 
4037500000  -3.973449e+001  -8.435483e+001 
4040625000  -3.937933e+001  -8.732604e+001 
4043750000  -3.966222e+001  -8.673139e+001 
4046875000  -3.907991e+001  -8.824075e+001 
4050000000  -3.875766e+001  -9.449183e+001 
4053125000  -3.896280e+001  -9.637226e+001 
4056250000  -3.970547e+001  -9.255418e+001 
4059375000  -3.802472e+001  -9.283481e+001 
4062500000  -3.676241e+001  -9.781831e+001 
4065625000  -3.674498e+001  -1.031108e+002 
4068750000  -3.634344e+001  -1.093390e+002 
4071875000  -3.572451e+001  -1.176008e+002 
4075000000  -3.588275e+001  -1.250267e+002 
4078125000  -3.660747e+001  -1.275583e+002 
4081250000  -3.604477e+001  -1.296508e+002 
4084375000  -3.558563e+001  -1.379381e+002 
4087500000  -3.599067e+001  -1.464313e+002 
4090625000  -3.658467e+001  -1.470179e+002 
4093750000  -3.621093e+001  -1.483671e+002 
4096875000  -3.593747e+001  -1.545371e+002 
4100000000  -3.702111e+001  -1.635083e+002 
4103125000  -3.774583e+001  -1.632769e+002 
4106250000  -3.759084e+001  -1.578941e+002 
4109375000  -3.651944e+001  -1.601768e+002 
4112500000  -3.593755e+001  -1.691951e+002 
4115625000  -3.654280e+001  -1.747064e+002 
4118750000  -3.659372e+001  -1.788394e+002 
4121875000  -3.619411e+001  1.758719e+002 
4125000000  -3.681647e+001  1.697056e+002 
4128125000  -3.775976e+001  1.697270e+002 
4131250000  -3.769447e+001  1.775760e+002 
4134375000  -3.525483e+001  1.701525e+002 
4137500000  -3.510120e+001  1.512740e+002 
4140625000  -3.747548e+001  1.441984e+002 
4143750000  -3.893108e+001  1.473855e+002 
4146875000  -3.844160e+001  1.535921e+002 
4150000000  -3.766124e+001  1.501275e+002 
4153125000  -3.760318e+001  1.428028e+002 
4156250000  -3.857133e+001  1.411169e+002 
4159375000  -3.895939e+001  1.455139e+002 
4162500000  -3.800463e+001  1.503826e+002 
4165625000  -3.683148e+001  1.447592e+002 
4168750000  -3.622131e+001  1.369381e+002 
4171875000  -3.614805e+001  1.271160e+002 
4175000000  -3.688947e+001  1.227994e+002 
4178125000  -3.745889e+001  1.219632e+002 
4181250000  -3.723804e+001  1.222832e+002 
4184375000  -3.699283e+001  1.172926e+002 
4187500000  -3.685362e+001  1.152830e+002 
4190625000  -3.669041e+001  1.093196e+002 
4193750000  -3.744174e+001  1.038056e+002 
4196875000  -3.811627e+001  1.042555e+002 
4200000000  -3.910707e+001  1.052102e+002 
4203125000  -3.859948e+001  1.188974e+002 
4206250000  -3.536952e+001  1.179649e+002 
4209375000  -3.417778e+001  9.747129e+001 
4212500000  -3.607264e+001  8.835710e+001 
4215625000  -3.706505e+001  9.467468e+001 
4218750000  -3.561724e+001  9.867334e+001 
4221875000  -3.338681e+001  8.838310e+001 
4225000000  -3.448455e+001  7.621043e+001 
4228125000  -3.511957e+001  7.933604e+001 
4231250000  -3.337220e+001  7.473958e+001 
4234375000  -3.338240e+001  6.538627e+001 
4237500000  -3.278691e+001  6.114194e+001 
4240625000  -3.284626e+001  4.957042e+001 
4243750000  -3.397234e+001  4.168021e+001 
4246875000  -3.495288e+001  4.146381e+001 
4250000000  -3.495083e+001  4.291944e+001 
4253125000  -3.412405e+001  3.893834e+001 
4256250000  -3.460743e+001  3.435337e+001 
4259375000  -3.441799e+001  2.978998e+001 
4262500000  -3.445912e+001  2.601379e+001 
4265625000  -3.474709e+001  2.536413e+001 
4268750000  -3.378075e+001  1.966407e+001 
4271875000  -3.369705e+001  1.227606e+001 
4275000000  -3.321656e+001  4.754392e+000 
4278125000  -3.420014e+001  -6.705056e+000 
4281250000  -3.583230e+001  -9.364935e+000 
4284375000  -3.575961e+001  -1.013677e+001 
4287500000  -3.658976e+001  -1.325103e+001 
4290625000  -3.810016e+001  -3.598350e+000 
4293750000  -3.625832e+001  -1.233593e+000 
4296875000  -3.493195e+001  -1.083951e+001 
4300000000  -3.597891e+001  -1.878288e+001 
4303125000  -3.717371e+001  -1.907261e+001 
4306250000  -3.649901e+001  -1.296291e+001 
4309375000  -3.533089e+001  -1.416290e+001 
4312500000  -3.505198e+001  -2.380720e+001 
4315625000  -3.528840e+001  -2.670922e+001 
4318750000  -3.562486e+001  -3.215327e+001 
4321875000  -3.564275e+001  -3.075772e+001 
4325000000  -3.523003e+001  -2.997391e+001 
4328125000  -3.444595e+001  -3.632577e+001 
4331250000  -3.417653e+001  -4.398118e+001 
4334375000  -3.458353e+001  -5.082042e+001 
4337500000  -3.532298e+001  -5.362954e+001 
4340625000  -3.589006e+001  -5.026455e+001 
4343750000  -3.496152e+001  -5.053971e+001 
4346875000  -3.447470e+001  -5.609979e+001 
4350000000  -3.455928e+001  -6.249053e+001 
4353125000  -3.440635e+001  -6.971732e+001 
4356250000  -3.601609e+001  -7.146698e+001 
4359375000  -3.628865e+001  -5.923829e+001 
4362500000  -3.329838e+001  -6.006091e+001 
4365625000  -3.189786e+001  -7.228709e+001 
4368750000  -3.254340e+001  -8.586884e+001 
4371875000  -3.361847e+001  -8.602465e+001 
4375000000  -3.320589e+001  -8.708533e+001 
4378125000  -3.253711e+001  -9.471614e+001 
4381250000  -3.261089e+001  -1.015477e+002 
4384375000  -3.246076e+001  -1.075717e+002 
4387500000  -3.321052e+001  -1.156301e+002 
4390625000  -3.420012e+001  -1.153662e+002 
4393750000  -3.366774e+001  -1.150602e+002 
4396875000  -3.306546e+001  -1.187251e+002 
4400000000  -3.251909e+001  -1.271711e+002 
4403125000  -3.320454e+001  -1.358522e+002 
4406250000  -3.410969e+001  -1.384077e+002 
4409375000  -3.416845e+001  -1.421753e+002 
4412500000  -3.556002e+001  -1.462433e+002 
4415625000  -3.588715e+001  -1.406999e+002 
