!Agilent Technologies,E8363B,MY43030201,A.06.04.32
!Agilent E8363B: A.06.04.32
!Date: Tuesday, November 11, 2014 21:05:45
!Correction: S21(Response(S21)) 
!S1P File: Measurement: S21:
# Hz S  dB   R 50
3000000000  -3.641935e+001  -4.852404e+001 
3003125000  -3.752912e+001  -5.430868e+001 
3006250000  -3.746516e+001  -5.768590e+001 
3009375000  -3.777662e+001  -5.250761e+001 
3012500000  -3.710180e+001  -5.451367e+001 
3015625000  -3.613086e+001  -6.179230e+001 
3018750000  -3.683178e+001  -6.325273e+001 
3021875000  -3.547589e+001  -6.294106e+001 
3025000000  -3.414548e+001  -6.569114e+001 
3028125000  -3.313810e+001  -7.238312e+001 
3031250000  -3.207216e+001  -8.378007e+001 
3034375000  -3.175005e+001  -9.727782e+001 
3037500000  -3.225029e+001  -1.094006e+002 
3040625000  -3.351511e+001  -1.138235e+002 
3043750000  -3.422698e+001  -1.190799e+002 
3046875000  -3.440757e+001  -1.253085e+002 
3050000000  -3.607062e+001  -1.316773e+002 
3053125000  -3.602936e+001  -1.254666e+002 
3056250000  -3.556385e+001  -1.221614e+002 
3059375000  -3.575151e+001  -1.227513e+002 
3062500000  -3.409609e+001  -1.258675e+002 
3065625000  -3.394750e+001  -1.320364e+002 
3068750000  -3.355330e+001  -1.396240e+002 
3071875000  -3.353880e+001  -1.415466e+002 
3075000000  -3.330138e+001  -1.459020e+002 
3078125000  -3.304044e+001  -1.499614e+002 
3081250000  -3.354544e+001  -1.539135e+002 
3084375000  -3.270378e+001  -1.575142e+002 
3087500000  -3.245700e+001  -1.619644e+002 
3090625000  -3.199818e+001  -1.716309e+002 
3093750000  -3.236184e+001  -1.790283e+002 
3096875000  -3.350825e+001  1.748275e+002 
3100000000  -3.335800e+001  1.725609e+002 
3103125000  -3.363716e+001  1.735444e+002 
3106250000  -3.311938e+001  1.694909e+002 
3109375000  -3.322137e+001  1.650691e+002 
3112500000  -3.321107e+001  1.632294e+002 
3115625000  -3.283304e+001  1.580022e+002 
3118750000  -3.314661e+001  1.585193e+002 
3121875000  -3.230709e+001  1.489378e+002 
3125000000  -3.355787e+001  1.448564e+002 
3128125000  -3.446381e+001  1.523855e+002 
3131250000  -3.207484e+001  1.503397e+002 
3134375000  -3.070846e+001  1.349767e+002 
3137500000  -3.130779e+001  1.210200e+002 
3140625000  -3.282705e+001  1.179170e+002 
3143750000  -3.385901e+001  1.196048e+002 
3146875000  -3.333387e+001  1.206584e+002 
3150000000  -3.228704e+001  1.207983e+002 
3153125000  -3.226027e+001  1.116443e+002 
3156250000  -3.322496e+001  1.162301e+002 
3159375000  -3.156272e+001  1.177977e+002 
3162500000  -2.975413e+001  1.029167e+002 
3165625000  -3.077547e+001  9.073448e+001 
3168750000  -3.107965e+001  9.124799e+001 
3171875000  -3.011461e+001  8.533411e+001 
3175000000  -3.094557e+001  7.639709e+001 
3178125000  -3.068166e+001  7.781477e+001 
3181250000  -2.957842e+001  7.201994e+001 
3184375000  -2.890481e+001  5.893309e+001 
3187500000  -3.001806e+001  4.333878e+001 
3190625000  -3.270101e+001  3.564300e+001 
3193750000  -3.336497e+001  4.409604e+001 
3196875000  -3.301893e+001  4.921687e+001 
3200000000  -3.202441e+001  4.619738e+001 
3203125000  -3.128956e+001  3.955373e+001 
3206250000  -3.158544e+001  3.282362e+001 
3209375000  -3.112811e+001  2.753173e+001 
3212500000  -3.130322e+001  2.045582e+001 
3215625000  -3.141950e+001  1.640758e+001 
3218750000  -3.211469e+001  9.416258e+000 
3221875000  -3.304467e+001  3.579028e+000 
3225000000  -3.267606e+001  3.038135e+000 
3228125000  -3.300348e+001  -2.294158e+000 
3231250000  -3.365022e+001  -5.532919e+000 
3234375000  -3.355674e+001  -4.776075e+000 
3237500000  -3.334457e+001  -6.875572e+000 
3240625000  -3.297744e+001  -8.939228e+000 
3243750000  -3.255582e+001  -1.677155e+001 
3246875000  -3.301748e+001  -2.398331e+001 
3250000000  -3.342844e+001  -2.657471e+001 
3253125000  -3.350353e+001  -2.842840e+001 
3256250000  -3.314539e+001  -3.529625e+001 
3259375000  -3.345886e+001  -4.395935e+001 
3262500000  -3.460885e+001  -4.772103e+001 
3265625000  -3.522410e+001  -4.478007e+001 
3268750000  -3.504990e+001  -4.288618e+001 
3271875000  -3.472943e+001  -4.362085e+001 
3275000000  -3.375597e+001  -5.030401e+001 
3278125000  -3.420813e+001  -5.720574e+001 
3281250000  -3.434101e+001  -5.585268e+001 
3284375000  -3.385643e+001  -6.223451e+001 
3287500000  -3.404536e+001  -6.605575e+001 
3290625000  -3.435308e+001  -7.135901e+001 
3293750000  -3.418440e+001  -7.750285e+001 
3296875000  -3.508823e+001  -7.789992e+001 
3300000000  -3.492780e+001  -7.762628e+001 
3303125000  -3.361458e+001  -8.299258e+001 
3306250000  -3.353971e+001  -9.004655e+001 
3309375000  -3.317102e+001  -9.650345e+001 
3312500000  -3.334264e+001  -1.075275e+002 
3315625000  -3.434727e+001  -1.157662e+002 
3318750000  -3.573980e+001  -1.181114e+002 
3321875000  -3.680373e+001  -1.190598e+002 
3325000000  -3.736515e+001  -1.132102e+002 
3328125000  -3.698676e+001  -1.118569e+002 
3331250000  -3.574124e+001  -1.065693e+002 
3334375000  -3.308128e+001  -1.168883e+002 
3337500000  -3.325168e+001  -1.359176e+002 
3340625000  -3.449055e+001  -1.470629e+002 
3343750000  -3.643547e+001  -1.483443e+002 
3346875000  -3.661323e+001  -1.461982e+002 
3350000000  -3.605814e+001  -1.485887e+002 
3353125000  -3.593396e+001  -1.531841e+002 
3356250000  -3.551644e+001  -1.615915e+002 
3359375000  -3.627900e+001  -1.701256e+002 
3362500000  -3.750110e+001  -1.751336e+002 
3365625000  -3.797157e+001  -1.769325e+002 
3368750000  -3.881533e+001  -1.790016e+002 
3371875000  -3.892845e+001  1.775840e+002 
3375000000  -4.032137e+001  1.744471e+002 
3378125000  -4.131731e+001  1.753001e+002 
3381250000  -4.220835e+001  -1.765702e+002 
3384375000  -4.114579e+001  -1.527592e+002 
3387500000  -3.748984e+001  -1.724536e+002 
3390625000  -3.911180e+001  1.696041e+002 
3393750000  -4.031751e+001  1.721409e+002 
3396875000  -3.907428e+001  1.749266e+002 
3400000000  -3.875267e+001  1.659438e+002 
3403125000  -3.922467e+001  1.598528e+002 
3406250000  -3.963709e+001  1.611910e+002 
3409375000  -3.961727e+001  1.520585e+002 
3412500000  -4.028594e+001  1.507092e+002 
3415625000  -4.092373e+001  1.519764e+002 
3418750000  -4.104620e+001  1.519121e+002 
3421875000  -4.106144e+001  1.562152e+002 
3425000000  -4.023962e+001  1.567156e+002 
3428125000  -3.917641e+001  1.510526e+002 
3431250000  -3.930374e+001  1.449837e+002 
3434375000  -3.902454e+001  1.388125e+002 
3437500000  -3.959427e+001  1.362890e+002 
3440625000  -3.995580e+001  1.364755e+002 
3443750000  -3.871670e+001  1.370457e+002 
3446875000  -3.790324e+001  1.295145e+002 
3450000000  -3.767895e+001  1.196669e+002 
3453125000  -3.798605e+001  1.088794e+002 
3456250000  -3.906987e+001  1.029778e+002 
3459375000  -4.003746e+001  1.040465e+002 
3462500000  -3.985404e+001  1.042478e+002 
3465625000  -3.963187e+001  9.895023e+001 
3468750000  -4.001915e+001  9.436852e+001 
3471875000  -4.005753e+001  9.146011e+001 
3475000000  -3.961132e+001  8.864130e+001 
3478125000  -4.016821e+001  8.119215e+001 
3481250000  -4.120747e+001  7.761334e+001 
3484375000  -4.238275e+001  8.080096e+001 
3487500000  -4.143286e+001  8.157917e+001 
3490625000  -4.063699e+001  7.613377e+001 
3493750000  -4.135595e+001  6.849567e+001 
3496875000  -4.197502e+001  6.832980e+001 
3500000000  -4.257415e+001  7.204510e+001 
3503125000  -4.175792e+001  7.479789e+001 
3506250000  -4.056943e+001  6.724304e+001 
3509375000  -4.069783e+001  5.804673e+001 
3512500000  -4.117659e+001  4.934035e+001 
3515625000  -4.206480e+001  4.716832e+001 
3518750000  -4.221028e+001  4.843828e+001 
3521875000  -4.254883e+001  4.615211e+001 
3525000000  -4.338123e+001  4.366936e+001 
3528125000  -4.335634e+001  4.798036e+001 
3531250000  -4.224095e+001  4.813596e+001 
3534375000  -4.210135e+001  3.713702e+001 
3537500000  -4.251669e+001  3.192598e+001 
3540625000  -4.334097e+001  3.164578e+001 
3543750000  -4.417184e+001  3.287313e+001 
3546875000  -4.429116e+001  4.901500e+001 
3550000000  -4.133357e+001  4.846515e+001 
3553125000  -4.019059e+001  3.053888e+001 
3556250000  -4.153872e+001  2.474861e+001 
3559375000  -4.130474e+001  2.535630e+001 
3562500000  -4.031853e+001  1.590329e+001 
3565625000  -4.110400e+001  9.111356e+000 
3568750000  -4.148042e+001  1.230515e+001 
3571875000  -4.129786e+001  9.854640e+000 
3575000000  -4.072633e+001  2.612249e+000 
3578125000  -4.129892e+001  -3.019950e-001 
3581250000  -4.159518e+001  -2.745669e+000 
3584375000  -4.065556e+001  -7.031063e+000 
3587500000  -3.979979e+001  -1.438161e+001 
3590625000  -4.050625e+001  -2.560456e+001 
3593750000  -4.185758e+001  -2.745637e+001 
3596875000  -4.181849e+001  -2.134802e+001 
3600000000  -4.041208e+001  -2.784830e+001 
3603125000  -4.088293e+001  -4.268037e+001 
3606250000  -4.160905e+001  -4.545417e+001 
3609375000  -4.223354e+001  -4.988507e+001 
3612500000  -4.264832e+001  -5.172783e+001 
3615625000  -4.307035e+001  -5.437194e+001 
3618750000  -4.376619e+001  -5.453094e+001 
3621875000  -4.381618e+001  -5.784999e+001 
3625000000  -4.424600e+001  -5.838453e+001 
3628125000  -4.465247e+001  -5.856798e+001 
3631250000  -4.418338e+001  -6.378741e+001 
3634375000  -4.606609e+001  -6.570518e+001 
3637500000  -4.571136e+001  -5.930454e+001 
3640625000  -4.434613e+001  -5.756424e+001 
3643750000  -4.477207e+001  -6.505190e+001 
3646875000  -4.494722e+001  -7.040473e+001 
3650000000  -4.596543e+001  -6.956728e+001 
3653125000  -4.556783e+001  -6.893696e+001 
3656250000  -4.603633e+001  -7.060973e+001 
3659375000  -4.610015e+001  -6.811033e+001 
3662500000  -4.524133e+001  -6.811665e+001 
3665625000  -4.500253e+001  -6.983539e+001 
3668750000  -4.392211e+001  -7.125409e+001 
3671875000  -4.298338e+001  -7.427023e+001 
3675000000  -4.283393e+001  -8.223479e+001 
3678125000  -4.316159e+001  -8.356007e+001 
3681250000  -4.324000e+001  -8.508967e+001 
3684375000  -4.298224e+001  -8.868434e+001 
3687500000  -4.313054e+001  -9.555400e+001 
3690625000  -4.305903e+001  -9.728942e+001 
3693750000  -4.396224e+001  -1.002837e+002 
3696875000  -4.378851e+001  -1.004701e+002 
3700000000  -4.299474e+001  -1.059182e+002 
3703125000  -4.256921e+001  -1.094751e+002 
3706250000  -4.386682e+001  -1.099908e+002 
3709375000  -4.325920e+001  -1.088140e+002 
3712500000  -4.266275e+001  -1.114999e+002 
3715625000  -4.160304e+001  -1.170855e+002 
3718750000  -4.169829e+001  -1.243636e+002 
3721875000  -4.126857e+001  -1.289288e+002 
3725000000  -4.140371e+001  -1.369020e+002 
3728125000  -4.206599e+001  -1.375357e+002 
3731250000  -4.153916e+001  -1.391599e+002 
3734375000  -4.132278e+001  -1.469783e+002 
3737500000  -4.215099e+001  -1.540247e+002 
3740625000  -4.327499e+001  -1.585076e+002 
3743750000  -4.295674e+001  -1.610082e+002 
3746875000  -4.357772e+001  -1.630653e+002 
3750000000  -4.441872e+001  -1.638766e+002 
3753125000  -4.455621e+001  -1.630648e+002 
3756250000  -4.416201e+001  -1.621826e+002 
3759375000  -4.444390e+001  -1.629913e+002 
3762500000  -4.432613e+001  -1.654923e+002 
3765625000  -4.514714e+001  -1.661329e+002 
3768750000  -4.473339e+001  -1.617661e+002 
3771875000  -4.323703e+001  -1.620436e+002 
3775000000  -4.274655e+001  -1.698596e+002 
3778125000  -4.370579e+001  -1.714136e+002 
3781250000  -4.311790e+001  -1.726611e+002 
3784375000  -4.278032e+001  -1.714015e+002 
3787500000  -4.185811e+001  -1.746363e+002 
3790625000  -4.232568e+001  1.780668e+002 
3793750000  -4.253141e+001  1.758223e+002 
3796875000  -4.123918e+001  1.736207e+002 
3800000000  -3.975977e+001  1.717770e+002 
3803125000  -4.038882e+001  1.632127e+002 
3806250000  -4.115851e+001  1.607839e+002 
3809375000  -4.066151e+001  1.588979e+002 
3812500000  -3.985171e+001  1.516241e+002 
3815625000  -4.060960e+001  1.418841e+002 
3818750000  -4.182169e+001  1.417041e+002 
3821875000  -4.110915e+001  1.479475e+002 
3825000000  -3.946738e+001  1.525034e+002 
3828125000  -3.797071e+001  1.354359e+002 
3831250000  -3.871461e+001  1.194224e+002 
3834375000  -4.002792e+001  1.181297e+002 
3837500000  -4.099390e+001  1.229958e+002 
3840625000  -3.996519e+001  1.222575e+002 
3843750000  -3.873366e+001  1.087457e+002 
3846875000  -3.994276e+001  1.022446e+002 
3850000000  -4.098389e+001  1.068686e+002 
3853125000  -4.034397e+001  1.084515e+002 
3856250000  -4.048293e+001  9.998457e+001 
3859375000  -3.946031e+001  9.512965e+001 
3862500000  -3.922256e+001  8.848538e+001 
3865625000  -3.987527e+001  8.404505e+001 
3868750000  -3.968373e+001  8.250151e+001 
3871875000  -3.896203e+001  7.813499e+001 
3875000000  -3.935302e+001  6.913480e+001 
3878125000  -4.098105e+001  6.803024e+001 
3881250000  -4.061058e+001  7.020351e+001 
3884375000  -3.996943e+001  6.546768e+001 
3887500000  -4.023954e+001  6.194558e+001 
3890625000  -4.098252e+001  5.842416e+001 
3893750000  -4.107890e+001  5.746429e+001 
3896875000  -4.130464e+001  5.733984e+001 
3900000000  -4.166547e+001  5.541911e+001 
3903125000  -4.131919e+001  5.457428e+001 
3906250000  -4.090083e+001  5.056443e+001 
3909375000  -3.999075e+001  4.923393e+001 
3912500000  -4.021065e+001  4.141686e+001 
3915625000  -4.128608e+001  4.200359e+001 
3918750000  -4.129697e+001  4.185988e+001 
3921875000  -4.063960e+001  3.973887e+001 
3925000000  -3.965552e+001  3.718282e+001 
3928125000  -3.927386e+001  2.858187e+001 
3931250000  -3.969768e+001  2.646658e+001 
3934375000  -3.980918e+001  2.430108e+001 
3937500000  -4.017124e+001  2.311013e+001 
3940625000  -4.044948e+001  2.047049e+001 
3943750000  -3.933178e+001  2.172150e+001 
3946875000  -3.840533e+001  1.536239e+001 
3950000000  -3.902653e+001  6.169637e+000 
3953125000  -3.991947e+001  5.664655e+000 
3956250000  -3.896999e+001  9.261965e+000 
3959375000  -3.783526e+001  3.408679e+000 
3962500000  -3.723138e+001  -1.332600e+000 
3965625000  -3.706744e+001  -1.296349e+001 
3968750000  -3.827995e+001  -2.114962e+001 
3971875000  -3.856670e+001  -2.245804e+001 
3975000000  -3.760154e+001  -2.533130e+001 
3978125000  -3.791333e+001  -2.814004e+001 
3981250000  -3.782988e+001  -3.239150e+001 
3984375000  -3.807492e+001  -3.842204e+001 
3987500000  -3.873519e+001  -4.367756e+001 
3990625000  -3.839917e+001  -4.300514e+001 
3993750000  -3.919163e+001  -4.675599e+001 
3996875000  -3.885428e+001  -5.079819e+001 
4000000000  -3.938001e+001  -5.281264e+001 
4003125000  -3.978841e+001  -5.163997e+001 
4006250000  -3.845601e+001  -5.415424e+001 
4009375000  -3.745253e+001  -6.586463e+001 
4012500000  -3.881815e+001  -7.135287e+001 
4015625000  -3.990858e+001  -7.159440e+001 
4018750000  -3.984384e+001  -6.985832e+001 
4021875000  -3.935137e+001  -7.212747e+001 
4025000000  -3.927394e+001  -7.760616e+001 
4028125000  -3.903037e+001  -8.253024e+001 
4031250000  -3.948016e+001  -8.412965e+001 
4034375000  -3.976334e+001  -8.416893e+001 
4037500000  -3.934665e+001  -8.511028e+001 
4040625000  -3.930180e+001  -8.841307e+001 
4043750000  -3.930738e+001  -8.844305e+001 
4046875000  -3.886009e+001  -8.990952e+001 
4050000000  -3.844961e+001  -9.615997e+001 
4053125000  -3.905338e+001  -9.711515e+001 
4056250000  -3.929781e+001  -9.549471e+001 
4059375000  -3.820507e+001  -9.362605e+001 
4062500000  -3.685408e+001  -9.980854e+001 
4065625000  -3.677935e+001  -1.047080e+002 
4068750000  -3.647312e+001  -1.097406e+002 
4071875000  -3.563896e+001  -1.200334e+002 
4075000000  -3.613203e+001  -1.262051e+002 
4078125000  -3.662939e+001  -1.277177e+002 
4081250000  -3.602755e+001  -1.314940e+002 
4084375000  -3.565966e+001  -1.396127e+002 
4087500000  -3.604353e+001  -1.468525e+002 
4090625000  -3.670644e+001  -1.463293e+002 
4093750000  -3.644583e+001  -1.496058e+002 
4096875000  -3.614183e+001  -1.561875e+002 
4100000000  -3.679216e+001  -1.633778e+002 
4103125000  -3.764931e+001  -1.628951e+002 
4106250000  -3.757903e+001  -1.594597e+002 
4109375000  -3.660354e+001  -1.624715e+002 
4112500000  -3.593767e+001  -1.702440e+002 
4115625000  -3.644503e+001  -1.751270e+002 
4118750000  -3.677198e+001  -1.781237e+002 
4121875000  -3.634997e+001  1.763237e+002 
4125000000  -3.664317e+001  1.701020e+002 
4128125000  -3.788657e+001  1.691882e+002 
4131250000  -3.746654e+001  1.776201e+002 
4134375000  -3.518512e+001  1.714477e+002 
4137500000  -3.519761e+001  1.525852e+002 
4140625000  -3.750813e+001  1.438899e+002 
4143750000  -3.872905e+001  1.473256e+002 
4146875000  -3.842403e+001  1.551573e+002 
4150000000  -3.771749e+001  1.491574e+002 
4153125000  -3.752810e+001  1.431788e+002 
4156250000  -3.835329e+001  1.401821e+002 
4159375000  -3.888284e+001  1.441858e+002 
4162500000  -3.770686e+001  1.493786e+002 
4165625000  -3.657716e+001  1.439939e+002 
4168750000  -3.584057e+001  1.366744e+002 
4171875000  -3.595595e+001  1.268808e+002 
4175000000  -3.664317e+001  1.213179e+002 
4178125000  -3.724188e+001  1.217571e+002 
4181250000  -3.692130e+001  1.203915e+002 
4184375000  -3.683634e+001  1.166035e+002 
4187500000  -3.687148e+001  1.135401e+002 
4190625000  -3.672601e+001  1.080036e+002 
4193750000  -3.750489e+001  1.037780e+002 
4196875000  -3.807398e+001  1.006150e+002 
4200000000  -3.908146e+001  1.050851e+002 
4203125000  -3.874239e+001  1.178058e+002 
4206250000  -3.527538e+001  1.171881e+002 
4209375000  -3.434435e+001  9.593074e+001 
4212500000  -3.596419e+001  8.700849e+001 
4215625000  -3.710491e+001  9.231430e+001 
4218750000  -3.567844e+001  9.717378e+001 
4221875000  -3.332637e+001  8.771028e+001 
4225000000  -3.452295e+001  7.366998e+001 
4228125000  -3.520976e+001  7.816192e+001 
4231250000  -3.355601e+001  7.311784e+001 
4234375000  -3.333011e+001  6.503251e+001 
4237500000  -3.304225e+001  5.939625e+001 
4240625000  -3.307400e+001  4.932363e+001 
4243750000  -3.395094e+001  4.113633e+001 
4246875000  -3.491228e+001  4.127105e+001 
4250000000  -3.485672e+001  4.228627e+001 
4253125000  -3.439734e+001  3.819913e+001 
4256250000  -3.477850e+001  3.417983e+001 
4259375000  -3.435810e+001  3.023683e+001 
4262500000  -3.467197e+001  2.535966e+001 
4265625000  -3.477546e+001  2.419887e+001 
4268750000  -3.404354e+001  1.921654e+001 
4271875000  -3.387970e+001  1.280527e+001 
4275000000  -3.334427e+001  4.232883e+000 
4278125000  -3.409317e+001  -7.257571e+000 
4281250000  -3.629157e+001  -9.526483e+000 
4284375000  -3.594149e+001  -9.411455e+000 
4287500000  -3.684265e+001  -1.414747e+001 
4290625000  -3.840642e+001  -4.940499e+000 
4293750000  -3.599778e+001  1.300482e+000 
4296875000  -3.503408e+001  -1.139733e+001 
4300000000  -3.601799e+001  -1.922585e+001 
4303125000  -3.707204e+001  -1.766471e+001 
4306250000  -3.647693e+001  -1.141063e+001 
4309375000  -3.525573e+001  -1.536277e+001 
4312500000  -3.503313e+001  -2.311925e+001 
4315625000  -3.508218e+001  -2.859721e+001 
4318750000  -3.546550e+001  -3.185329e+001 
4321875000  -3.563477e+001  -3.118154e+001 
4325000000  -3.481417e+001  -3.156962e+001 
4328125000  -3.433546e+001  -3.746356e+001 
4331250000  -3.418885e+001  -4.657146e+001 
4334375000  -3.470222e+001  -5.124258e+001 
4337500000  -3.528069e+001  -5.408356e+001 
4340625000  -3.567306e+001  -5.117517e+001 
4343750000  -3.480690e+001  -5.211306e+001 
4346875000  -3.458741e+001  -5.737705e+001 
4350000000  -3.449602e+001  -6.373763e+001 
4353125000  -3.446635e+001  -7.267935e+001 
4356250000  -3.608786e+001  -7.399608e+001 
4359375000  -3.641998e+001  -6.145306e+001 
4362500000  -3.337841e+001  -6.162777e+001 
4365625000  -3.205326e+001  -7.404624e+001 
4368750000  -3.269574e+001  -8.753932e+001 
4371875000  -3.381718e+001  -8.752785e+001 
4375000000  -3.327702e+001  -8.835307e+001 
4378125000  -3.268361e+001  -9.528977e+001 
4381250000  -3.285529e+001  -1.016418e+002 
4384375000  -3.272341e+001  -1.087270e+002 
4387500000  -3.357348e+001  -1.154702e+002 
4390625000  -3.456345e+001  -1.162642e+002 
4393750000  -3.366806e+001  -1.153458e+002 
4396875000  -3.324426e+001  -1.191941e+002 
4400000000  -3.257618e+001  -1.279349e+002 
4403125000  -3.346317e+001  -1.364727e+002 
4406250000  -3.422392e+001  -1.384884e+002 
4409375000  -3.434871e+001  -1.415767e+002 
4412500000  -3.541890e+001  -1.453402e+002 
4415625000  -3.577984e+001  -1.416720e+002 
