!Agilent Technologies,E8363B,MY43030201,A.06.04.32
!Agilent E8363B: A.06.04.32
!Date: Tuesday, November 11, 2014 21:04:48
!Correction: S21(Response(S21)) 
!S1P File: Measurement: S21:
# Hz S  dB   R 50
3000000000  -3.615650e+001  -5.125191e+001 
3003125000  -3.724525e+001  -5.715675e+001 
3006250000  -3.724169e+001  -5.966669e+001 
3009375000  -3.756195e+001  -5.550942e+001 
3012500000  -3.686327e+001  -5.543456e+001 
3015625000  -3.588234e+001  -6.348653e+001 
3018750000  -3.671407e+001  -6.437305e+001 
3021875000  -3.534813e+001  -6.391972e+001 
3025000000  -3.409495e+001  -6.749989e+001 
3028125000  -3.313699e+001  -7.389777e+001 
3031250000  -3.213205e+001  -8.499991e+001 
3034375000  -3.181874e+001  -9.873019e+001 
3037500000  -3.218622e+001  -1.100519e+002 
3040625000  -3.354202e+001  -1.153738e+002 
3043750000  -3.426029e+001  -1.199033e+002 
3046875000  -3.443628e+001  -1.260924e+002 
3050000000  -3.606136e+001  -1.316044e+002 
3053125000  -3.612119e+001  -1.256283e+002 
3056250000  -3.559766e+001  -1.224951e+002 
3059375000  -3.579895e+001  -1.231987e+002 
3062500000  -3.416837e+001  -1.265530e+002 
3065625000  -3.394583e+001  -1.326842e+002 
3068750000  -3.358400e+001  -1.391066e+002 
3071875000  -3.350956e+001  -1.414813e+002 
3075000000  -3.335957e+001  -1.452002e+002 
3078125000  -3.298005e+001  -1.490313e+002 
3081250000  -3.349551e+001  -1.544041e+002 
3084375000  -3.257632e+001  -1.575242e+002 
3087500000  -3.235978e+001  -1.610511e+002 
3090625000  -3.191810e+001  -1.715905e+002 
3093750000  -3.227972e+001  -1.790697e+002 
3096875000  -3.337648e+001  1.751044e+002 
3100000000  -3.327450e+001  1.726359e+002 
3103125000  -3.347958e+001  1.740577e+002 
3106250000  -3.304239e+001  1.690087e+002 
3109375000  -3.311883e+001  1.650943e+002 
3112500000  -3.304132e+001  1.629751e+002 
3115625000  -3.274096e+001  1.579549e+002 
3118750000  -3.306891e+001  1.587296e+002 
3121875000  -3.226868e+001  1.483943e+002 
3125000000  -3.339351e+001  1.442095e+002 
3128125000  -3.441592e+001  1.515952e+002 
3131250000  -3.196447e+001  1.493504e+002 
3134375000  -3.067053e+001  1.346207e+002 
3137500000  -3.119507e+001  1.203356e+002 
3140625000  -3.278649e+001  1.170305e+002 
3143750000  -3.378414e+001  1.189396e+002 
3146875000  -3.330441e+001  1.192960e+002 
3150000000  -3.226101e+001  1.199950e+002 
3153125000  -3.232148e+001  1.111823e+002 
3156250000  -3.334554e+001  1.157477e+002 
3159375000  -3.169483e+001  1.168070e+002 
3162500000  -2.980599e+001  1.021674e+002 
3165625000  -3.077102e+001  8.998880e+001 
3168750000  -3.111136e+001  9.010352e+001 
3171875000  -3.021991e+001  8.444253e+001 
3175000000  -3.102050e+001  7.550404e+001 
3178125000  -3.082800e+001  7.637065e+001 
3181250000  -2.969917e+001  7.172988e+001 
3184375000  -2.903688e+001  5.864723e+001 
3187500000  -3.029886e+001  4.317339e+001 
3190625000  -3.287024e+001  3.455479e+001 
3193750000  -3.361730e+001  4.353973e+001 
3196875000  -3.320776e+001  4.868935e+001 
3200000000  -3.224709e+001  4.595673e+001 
3203125000  -3.151416e+001  4.003487e+001 
3206250000  -3.183817e+001  3.337151e+001 
3209375000  -3.134434e+001  2.743530e+001 
3212500000  -3.162498e+001  2.048665e+001 
3215625000  -3.162061e+001  1.679975e+001 
3218750000  -3.245779e+001  1.004501e+001 
3221875000  -3.326494e+001  5.093067e+000 
3225000000  -3.286278e+001  3.682803e+000 
3228125000  -3.323983e+001  -1.351545e+000 
3231250000  -3.395990e+001  -3.957724e+000 
3234375000  -3.365363e+001  -3.542282e+000 
3237500000  -3.357262e+001  -6.154365e+000 
3240625000  -3.315429e+001  -8.024296e+000 
3243750000  -3.275726e+001  -1.566179e+001 
3246875000  -3.316423e+001  -2.294265e+001 
3250000000  -3.360900e+001  -2.528268e+001 
3253125000  -3.370623e+001  -2.723963e+001 
3256250000  -3.328897e+001  -3.399496e+001 
3259375000  -3.352153e+001  -4.185056e+001 
3262500000  -3.472872e+001  -4.637072e+001 
3265625000  -3.529995e+001  -4.361174e+001 
3268750000  -3.518263e+001  -4.155672e+001 
3271875000  -3.482799e+001  -4.220314e+001 
3275000000  -3.363567e+001  -4.869306e+001 
3278125000  -3.424303e+001  -5.513690e+001 
3281250000  -3.433480e+001  -5.432784e+001 
3284375000  -3.394006e+001  -6.194514e+001 
3287500000  -3.402327e+001  -6.552569e+001 
3290625000  -3.436508e+001  -7.100350e+001 
3293750000  -3.413321e+001  -7.707652e+001 
3296875000  -3.507909e+001  -7.872394e+001 
3300000000  -3.486173e+001  -7.764294e+001 
3303125000  -3.365920e+001  -8.282446e+001 
3306250000  -3.360067e+001  -9.053915e+001 
3309375000  -3.322573e+001  -9.650024e+001 
3312500000  -3.339431e+001  -1.073604e+002 
3315625000  -3.432263e+001  -1.161434e+002 
3318750000  -3.582217e+001  -1.184517e+002 
3321875000  -3.691052e+001  -1.194523e+002 
3325000000  -3.730497e+001  -1.141548e+002 
3328125000  -3.705126e+001  -1.143259e+002 
3331250000  -3.592104e+001  -1.070612e+002 
3334375000  -3.304924e+001  -1.167198e+002 
3337500000  -3.339092e+001  -1.366296e+002 
3340625000  -3.477436e+001  -1.468306e+002 
3343750000  -3.666471e+001  -1.486897e+002 
3346875000  -3.690343e+001  -1.460224e+002 
3350000000  -3.619193e+001  -1.480038e+002 
3353125000  -3.642204e+001  -1.525450e+002 
3356250000  -3.592245e+001  -1.611841e+002 
3359375000  -3.678173e+001  -1.689770e+002 
3362500000  -3.791046e+001  -1.752930e+002 
3365625000  -3.829800e+001  -1.750586e+002 
3368750000  -3.916279e+001  -1.783038e+002 
3371875000  -3.948059e+001  1.791554e+002 
3375000000  -4.085109e+001  1.760421e+002 
3378125000  -4.196978e+001  1.767949e+002 
3381250000  -4.281422e+001  -1.748186e+002 
3384375000  -4.144291e+001  -1.528064e+002 
3387500000  -3.802510e+001  -1.682923e+002 
3390625000  -3.976665e+001  1.723713e+002 
3393750000  -4.067575e+001  1.766815e+002 
3396875000  -3.949009e+001  1.761317e+002 
3400000000  -3.895424e+001  1.696295e+002 
3403125000  -3.957004e+001  1.651518e+002 
3406250000  -3.988528e+001  1.645709e+002 
3409375000  -4.019553e+001  1.564310e+002 
3412500000  -4.057901e+001  1.537928e+002 
3415625000  -4.118822e+001  1.566231e+002 
3418750000  -4.106272e+001  1.556200e+002 
3421875000  -4.146822e+001  1.578355e+002 
3425000000  -4.026833e+001  1.578158e+002 
3428125000  -3.949509e+001  1.535638e+002 
3431250000  -3.936957e+001  1.461359e+002 
3434375000  -3.937419e+001  1.402129e+002 
3437500000  -3.958577e+001  1.376472e+002 
3440625000  -4.015890e+001  1.388046e+002 
3443750000  -3.902194e+001  1.396079e+002 
3446875000  -3.814118e+001  1.318129e+002 
3450000000  -3.791538e+001  1.215125e+002 
3453125000  -3.827483e+001  1.113462e+002 
3456250000  -3.932433e+001  1.051054e+002 
3459375000  -4.046112e+001  1.057390e+002 
3462500000  -4.012292e+001  1.052981e+002 
3465625000  -3.998864e+001  1.005880e+002 
3468750000  -4.068965e+001  9.629831e+001 
3471875000  -4.055196e+001  9.480451e+001 
3475000000  -4.010954e+001  9.070808e+001 
3478125000  -4.092690e+001  8.360197e+001 
3481250000  -4.193176e+001  8.043870e+001 
3484375000  -4.269454e+001  8.555241e+001 
3487500000  -4.186075e+001  8.470812e+001 
3490625000  -4.147635e+001  8.248692e+001 
3493750000  -4.171869e+001  7.414883e+001 
3496875000  -4.222025e+001  7.408551e+001 
3500000000  -4.267186e+001  7.535709e+001 
3503125000  -4.259607e+001  7.981095e+001 
3506250000  -4.106416e+001  7.566386e+001 
3509375000  -4.078249e+001  6.668833e+001 
3512500000  -4.123568e+001  5.669492e+001 
3515625000  -4.191102e+001  5.500696e+001 
3518750000  -4.245901e+001  5.813880e+001 
3521875000  -4.235493e+001  5.478780e+001 
3525000000  -4.294294e+001  4.968575e+001 
3528125000  -4.265078e+001  5.728327e+001 
3531250000  -4.148156e+001  5.657183e+001 
3534375000  -4.130816e+001  4.622474e+001 
3537500000  -4.153614e+001  4.079169e+001 
3540625000  -4.244669e+001  3.691824e+001 
3543750000  -4.326883e+001  3.966433e+001 
3546875000  -4.325202e+001  5.262680e+001 
3550000000  -4.032637e+001  5.072484e+001 
3553125000  -3.910816e+001  3.353288e+001 
3556250000  -4.082357e+001  2.637830e+001 
3559375000  -4.045350e+001  2.451531e+001 
3562500000  -3.939575e+001  1.754447e+001 
3565625000  -4.025408e+001  7.289135e+000 
3568750000  -4.037431e+001  9.271850e+000 
3571875000  -4.058791e+001  9.686212e+000 
3575000000  -4.029744e+001  -1.134778e+000 
3578125000  -4.094853e+001  -2.759067e+000 
3581250000  -4.104314e+001  -6.899203e+000 
3584375000  -4.024367e+001  -9.070088e+000 
3587500000  -3.975425e+001  -1.771860e+001 
3590625000  -4.054694e+001  -2.882263e+001 
3593750000  -4.198171e+001  -3.379283e+001 
3596875000  -4.190576e+001  -2.642208e+001 
3600000000  -4.052564e+001  -3.124741e+001 
3603125000  -4.123766e+001  -4.395679e+001 
3606250000  -4.205577e+001  -4.956250e+001 
3609375000  -4.281981e+001  -5.001140e+001 
3612500000  -4.381875e+001  -5.334982e+001 
3615625000  -4.419949e+001  -5.521733e+001 
3618750000  -4.493971e+001  -5.488076e+001 
3621875000  -4.505301e+001  -5.627394e+001 
3625000000  -4.577013e+001  -5.519591e+001 
3628125000  -4.577848e+001  -5.447226e+001 
3631250000  -4.579747e+001  -5.794061e+001 
3634375000  -4.678863e+001  -5.721677e+001 
3637500000  -4.667597e+001  -5.056844e+001 
3640625000  -4.524049e+001  -4.482744e+001 
3643750000  -4.487038e+001  -5.094984e+001 
3646875000  -4.511966e+001  -5.490894e+001 
3650000000  -4.585712e+001  -5.239794e+001 
3653125000  -4.480267e+001  -5.637505e+001 
3656250000  -4.463043e+001  -5.644868e+001 
3659375000  -4.502147e+001  -5.843841e+001 
3662500000  -4.409566e+001  -5.871451e+001 
3665625000  -4.349001e+001  -6.349551e+001 
3668750000  -4.239369e+001  -6.214384e+001 
3671875000  -4.131503e+001  -7.122206e+001 
3675000000  -4.154634e+001  -7.857969e+001 
3678125000  -4.153075e+001  -8.126649e+001 
3681250000  -4.184525e+001  -8.476086e+001 
3684375000  -4.155634e+001  -9.178543e+001 
3687500000  -4.194386e+001  -9.720459e+001 
3690625000  -4.170150e+001  -1.009775e+002 
3693750000  -4.262807e+001  -1.025046e+002 
3696875000  -4.285917e+001  -1.006998e+002 
3700000000  -4.183300e+001  -1.082903e+002 
3703125000  -4.193221e+001  -1.138038e+002 
3706250000  -4.287836e+001  -1.129988e+002 
3709375000  -4.296007e+001  -1.100436e+002 
3712500000  -4.200163e+001  -1.143960e+002 
3715625000  -4.140071e+001  -1.237065e+002 
3718750000  -4.138625e+001  -1.306051e+002 
3721875000  -4.111685e+001  -1.381001e+002 
3725000000  -4.134064e+001  -1.432715e+002 
3728125000  -4.215425e+001  -1.436856e+002 
3731250000  -4.184264e+001  -1.464089e+002 
3734375000  -4.187093e+001  -1.516185e+002 
3737500000  -4.318331e+001  -1.597361e+002 
3740625000  -4.396503e+001  -1.612600e+002 
3743750000  -4.401524e+001  -1.626384e+002 
3746875000  -4.446141e+001  -1.638150e+002 
3750000000  -4.527355e+001  -1.637618e+002 
3753125000  -4.550860e+001  -1.623175e+002 
3756250000  -4.553634e+001  -1.603481e+002 
3759375000  -4.576983e+001  -1.574982e+002 
3762500000  -4.493857e+001  -1.584930e+002 
3765625000  -4.534395e+001  -1.558583e+002 
3768750000  -4.569179e+001  -1.548802e+002 
3771875000  -4.324494e+001  -1.549672e+002 
3775000000  -4.304800e+001  -1.608924e+002 
3778125000  -4.292682e+001  -1.629047e+002 
3781250000  -4.259848e+001  -1.659415e+002 
3784375000  -4.256718e+001  -1.663715e+002 
3787500000  -4.119726e+001  -1.695492e+002 
3790625000  -4.168005e+001  -1.758395e+002 
3793750000  -4.153265e+001  -1.776030e+002 
3796875000  -4.061588e+001  1.774660e+002 
3800000000  -3.888654e+001  1.739991e+002 
3803125000  -3.953463e+001  1.656522e+002 
3806250000  -4.012755e+001  1.612249e+002 
3809375000  -3.975996e+001  1.582586e+002 
3812500000  -3.913769e+001  1.520285e+002 
3815625000  -3.977478e+001  1.403680e+002 
3818750000  -4.058910e+001  1.397937e+002 
3821875000  -4.085332e+001  1.479691e+002 
3825000000  -3.859964e+001  1.495522e+002 
3828125000  -3.771870e+001  1.331536e+002 
3831250000  -3.819364e+001  1.174739e+002 
3834375000  -3.987594e+001  1.158677e+002 
3837500000  -4.069566e+001  1.181495e+002 
3840625000  -3.958375e+001  1.161814e+002 
3843750000  -3.884430e+001  1.061529e+002 
3846875000  -3.974157e+001  9.771705e+001 
3850000000  -4.092740e+001  1.044272e+002 
3853125000  -4.028849e+001  1.055937e+002 
3856250000  -4.033723e+001  9.952705e+001 
3859375000  -3.964983e+001  9.418745e+001 
3862500000  -3.966776e+001  8.692694e+001 
3865625000  -4.023211e+001  8.167459e+001 
3868750000  -4.009905e+001  8.104435e+001 
3871875000  -3.975657e+001  7.759749e+001 
3875000000  -3.997132e+001  6.881960e+001 
3878125000  -4.134099e+001  6.593010e+001 
3881250000  -4.127288e+001  7.196155e+001 
3884375000  -4.074839e+001  6.651142e+001 
3887500000  -4.118252e+001  6.197675e+001 
3890625000  -4.147078e+001  5.815419e+001 
3893750000  -4.154461e+001  5.893291e+001 
3896875000  -4.205357e+001  6.152624e+001 
3900000000  -4.219377e+001  5.849267e+001 
3903125000  -4.144445e+001  5.870885e+001 
3906250000  -4.089417e+001  5.750567e+001 
3909375000  -4.032565e+001  5.460534e+001 
3912500000  -4.039915e+001  4.522235e+001 
3915625000  -4.151046e+001  4.763499e+001 
3918750000  -4.103177e+001  4.844842e+001 
3921875000  -4.081747e+001  4.419752e+001 
3925000000  -3.946713e+001  4.319640e+001 
3928125000  -3.909014e+001  3.444052e+001 
3931250000  -3.926332e+001  3.064001e+001 
3934375000  -3.951286e+001  2.829208e+001 
3937500000  -3.977925e+001  2.689478e+001 
3940625000  -3.999944e+001  2.561578e+001 
3943750000  -3.891802e+001  2.568512e+001 
3946875000  -3.764972e+001  1.697671e+001 
3950000000  -3.819466e+001  8.808095e+000 
3953125000  -3.916596e+001  7.009805e+000 
3956250000  -3.811738e+001  7.734099e+000 
3959375000  -3.719344e+001  4.783409e+000 
3962500000  -3.673393e+001  -2.083275e+000 
3965625000  -3.637938e+001  -1.292304e+001 
3968750000  -3.751752e+001  -2.087041e+001 
3971875000  -3.777015e+001  -2.213518e+001 
3975000000  -3.733636e+001  -2.584324e+001 
3978125000  -3.720782e+001  -2.854802e+001 
3981250000  -3.731461e+001  -3.473116e+001 
3984375000  -3.768559e+001  -4.281743e+001 
3987500000  -3.839771e+001  -4.683258e+001 
3990625000  -3.840484e+001  -4.647043e+001 
3993750000  -3.884179e+001  -5.125264e+001 
3996875000  -3.911789e+001  -5.563323e+001 
4000000000  -3.927175e+001  -5.823726e+001 
4003125000  -3.984420e+001  -5.387637e+001 
4006250000  -3.902837e+001  -5.592862e+001 
4009375000  -3.799724e+001  -6.815211e+001 
4012500000  -3.934923e+001  -7.532006e+001 
4015625000  -4.072096e+001  -7.472707e+001 
4018750000  -4.098444e+001  -7.291051e+001 
4021875000  -4.006581e+001  -7.220876e+001 
4025000000  -3.996059e+001  -7.743256e+001 
4028125000  -3.996506e+001  -8.003262e+001 
4031250000  -4.057511e+001  -8.349913e+001 
4034375000  -4.048729e+001  -8.288304e+001 
4037500000  -4.009020e+001  -8.106124e+001 
4040625000  -3.992355e+001  -8.277800e+001 
4043750000  -4.012340e+001  -8.479464e+001 
4046875000  -3.953853e+001  -8.354078e+001 
4050000000  -3.886375e+001  -8.958513e+001 
4053125000  -3.945502e+001  -9.116869e+001 
4056250000  -3.960921e+001  -8.839264e+001 
4059375000  -3.825282e+001  -8.861404e+001 
4062500000  -3.685959e+001  -9.438699e+001 
4065625000  -3.680236e+001  -9.900340e+001 
4068750000  -3.621222e+001  -1.047765e+002 
4071875000  -3.543501e+001  -1.134942e+002 
4075000000  -3.564711e+001  -1.211402e+002 
4078125000  -3.616890e+001  -1.238857e+002 
4081250000  -3.566606e+001  -1.266638e+002 
4084375000  -3.519326e+001  -1.363267e+002 
4087500000  -3.559378e+001  -1.431865e+002 
4090625000  -3.610593e+001  -1.454933e+002 
4093750000  -3.588739e+001  -1.476465e+002 
4096875000  -3.554878e+001  -1.539137e+002 
4100000000  -3.641910e+001  -1.633027e+002 
4103125000  -3.708166e+001  -1.629785e+002 
4106250000  -3.712935e+001  -1.588526e+002 
4109375000  -3.611953e+001  -1.620686e+002 
4112500000  -3.568594e+001  -1.693374e+002 
4115625000  -3.614393e+001  -1.753564e+002 
4118750000  -3.630685e+001  -1.791833e+002 
4121875000  -3.581080e+001  1.745800e+002 
4125000000  -3.659138e+001  1.676999e+002 
4128125000  -3.759845e+001  1.670296e+002 
4131250000  -3.749007e+001  1.747730e+002 
4134375000  -3.497971e+001  1.686001e+002 
4137500000  -3.521512e+001  1.475360e+002 
4140625000  -3.748963e+001  1.405073e+002 
4143750000  -3.897133e+001  1.452926e+002 
4146875000  -3.874293e+001  1.516436e+002 
4150000000  -3.827476e+001  1.477637e+002 
4153125000  -3.801663e+001  1.412385e+002 
4156250000  -3.904641e+001  1.384523e+002 
4159375000  -3.946161e+001  1.427934e+002 
4162500000  -3.859265e+001  1.500097e+002 
4165625000  -3.739027e+001  1.446882e+002 
4168750000  -3.681888e+001  1.383280e+002 
4171875000  -3.680860e+001  1.289859e+002 
4175000000  -3.745308e+001  1.255111e+002 
4178125000  -3.794930e+001  1.237907e+002 
4181250000  -3.762112e+001  1.244336e+002 
4184375000  -3.750738e+001  1.212252e+002 
4187500000  -3.731473e+001  1.184844e+002 
4190625000  -3.718842e+001  1.135468e+002 
4193750000  -3.754692e+001  1.096134e+002 
4196875000  -3.826399e+001  1.085177e+002 
4200000000  -3.929358e+001  1.112622e+002 
4203125000  -3.864108e+001  1.252702e+002 
4206250000  -3.533839e+001  1.241834e+002 
4209375000  -3.421586e+001  1.015406e+002 
4212500000  -3.582618e+001  9.166998e+001 
4215625000  -3.688018e+001  9.917909e+001 
4218750000  -3.520505e+001  1.021348e+002 
4221875000  -3.288578e+001  9.268929e+001 
4225000000  -3.406248e+001  7.777866e+001 
4228125000  -3.488822e+001  8.207095e+001 
4231250000  -3.308577e+001  7.668409e+001 
4234375000  -3.278398e+001  6.689187e+001 
4237500000  -3.247718e+001  6.250792e+001 
4240625000  -3.241710e+001  5.118381e+001 
4243750000  -3.349719e+001  4.340966e+001 
4246875000  -3.442013e+001  4.264932e+001 
4250000000  -3.432947e+001  4.431986e+001 
4253125000  -3.378225e+001  4.015681e+001 
4256250000  -3.408054e+001  3.388325e+001 
4259375000  -3.397590e+001  2.981682e+001 
4262500000  -3.413817e+001  2.533219e+001 
4265625000  -3.447507e+001  2.379403e+001 
4268750000  -3.359793e+001  1.837653e+001 
4271875000  -3.346232e+001  1.051952e+001 
4275000000  -3.305700e+001  1.985964e+000 
4278125000  -3.392873e+001  -9.830859e+000 
4281250000  -3.574057e+001  -1.265379e+001 
4284375000  -3.585403e+001  -1.201197e+001 
4287500000  -3.678672e+001  -1.734797e+001 
4290625000  -3.842412e+001  -6.928119e+000 
4293750000  -3.626887e+001  -1.865203e+000 
4296875000  -3.518220e+001  -1.539738e+001 
4300000000  -3.622519e+001  -2.362344e+001 
4303125000  -3.752588e+001  -2.028911e+001 
4306250000  -3.699712e+001  -1.375913e+001 
4309375000  -3.601766e+001  -1.561733e+001 
4312500000  -3.570218e+001  -2.221130e+001 
4315625000  -3.610726e+001  -2.788757e+001 
4318750000  -3.616001e+001  -3.040605e+001 
4321875000  -3.641639e+001  -2.804679e+001 
4325000000  -3.585612e+001  -2.788296e+001 
4328125000  -3.503145e+001  -3.251809e+001 
4331250000  -3.467062e+001  -4.192311e+001 
4334375000  -3.499788e+001  -4.671024e+001 
4337500000  -3.572625e+001  -4.844898e+001 
4340625000  -3.608289e+001  -4.612791e+001 
4343750000  -3.523417e+001  -4.493500e+001 
4346875000  -3.460794e+001  -5.218972e+001 
4350000000  -3.459361e+001  -5.783484e+001 
4353125000  -3.431702e+001  -6.592403e+001 
4356250000  -3.603357e+001  -6.809518e+001 
4359375000  -3.618768e+001  -5.347752e+001 
4362500000  -3.338899e+001  -5.468890e+001 
4365625000  -3.162749e+001  -6.928019e+001 
4368750000  -3.225286e+001  -8.236851e+001 
4371875000  -3.339724e+001  -8.289595e+001 
4375000000  -3.280650e+001  -8.427586e+001 
4378125000  -3.226949e+001  -9.186147e+001 
4381250000  -3.222165e+001  -9.870571e+001 
4384375000  -3.205070e+001  -1.065101e+002 
4387500000  -3.289689e+001  -1.143848e+002 
4390625000  -3.372421e+001  -1.140776e+002 
4393750000  -3.304893e+001  -1.137298e+002 
4396875000  -3.239569e+001  -1.170624e+002 
4400000000  -3.190040e+001  -1.272162e+002 
4403125000  -3.253933e+001  -1.363931e+002 
4406250000  -3.354931e+001  -1.397040e+002 
4409375000  -3.362054e+001  -1.428133e+002 
4412500000  -3.485272e+001  -1.484844e+002 
4415625000  -3.537108e+001  -1.445439e+002 
