!Agilent Technologies,E8363B,MY43030201,A.06.04.32
!Agilent E8363B: A.06.04.32
!Date: Tuesday, November 11, 2014 21:03:48
!Correction: S21(Response(S21)) 
!S1P File: Measurement: S21:
# Hz S  dB   R 50
3000000000  -3.650217e+001  -4.726934e+001 
3003125000  -3.744923e+001  -5.288322e+001 
3006250000  -3.741206e+001  -5.510699e+001 
3009375000  -3.766463e+001  -5.016349e+001 
3012500000  -3.698168e+001  -5.250208e+001 
3015625000  -3.599007e+001  -5.956844e+001 
3018750000  -3.683559e+001  -6.160350e+001 
3021875000  -3.546560e+001  -6.050418e+001 
3025000000  -3.411004e+001  -6.373741e+001 
3028125000  -3.319294e+001  -7.007748e+001 
3031250000  -3.213007e+001  -8.134505e+001 
3034375000  -3.172369e+001  -9.505889e+001 
3037500000  -3.219985e+001  -1.069959e+002 
3040625000  -3.357014e+001  -1.122146e+002 
3043750000  -3.420613e+001  -1.166033e+002 
3046875000  -3.438841e+001  -1.230493e+002 
3050000000  -3.603029e+001  -1.297784e+002 
3053125000  -3.603708e+001  -1.232699e+002 
3056250000  -3.543743e+001  -1.203976e+002 
3059375000  -3.560469e+001  -1.206054e+002 
3062500000  -3.414817e+001  -1.241698e+002 
3065625000  -3.397190e+001  -1.297664e+002 
3068750000  -3.357511e+001  -1.374034e+002 
3071875000  -3.341413e+001  -1.392224e+002 
3075000000  -3.331585e+001  -1.435717e+002 
3078125000  -3.306982e+001  -1.478241e+002 
3081250000  -3.348344e+001  -1.526380e+002 
3084375000  -3.263184e+001  -1.557441e+002 
3087500000  -3.232168e+001  -1.589716e+002 
3090625000  -3.193133e+001  -1.694783e+002 
3093750000  -3.240456e+001  -1.770721e+002 
3096875000  -3.347874e+001  1.768650e+002 
3100000000  -3.331870e+001  1.751950e+002 
3103125000  -3.364361e+001  1.750912e+002 
3106250000  -3.308644e+001  1.713198e+002 
3109375000  -3.318443e+001  1.671353e+002 
3112500000  -3.317343e+001  1.655060e+002 
3115625000  -3.288376e+001  1.605884e+002 
3118750000  -3.319793e+001  1.608677e+002 
3121875000  -3.231919e+001  1.514893e+002 
3125000000  -3.350860e+001  1.470549e+002 
3128125000  -3.448618e+001  1.545595e+002 
3131250000  -3.211980e+001  1.530031e+002 
3134375000  -3.069468e+001  1.375925e+002 
3137500000  -3.129467e+001  1.230779e+002 
3140625000  -3.275989e+001  1.195647e+002 
3143750000  -3.373493e+001  1.219175e+002 
3146875000  -3.330408e+001  1.219353e+002 
3150000000  -3.228166e+001  1.233062e+002 
3153125000  -3.231420e+001  1.135439e+002 
3156250000  -3.326912e+001  1.187061e+002 
3159375000  -3.163658e+001  1.194473e+002 
3162500000  -2.972188e+001  1.051295e+002 
3165625000  -3.073247e+001  9.294482e+001 
3168750000  -3.107767e+001  9.305096e+001 
3171875000  -3.016242e+001  8.729642e+001 
3175000000  -3.091678e+001  7.895273e+001 
3178125000  -3.068589e+001  7.966599e+001 
3181250000  -2.953254e+001  7.459323e+001 
3184375000  -2.882873e+001  6.160560e+001 
3187500000  -3.001622e+001  4.603835e+001 
3190625000  -3.270155e+001  3.831791e+001 
3193750000  -3.331260e+001  4.656686e+001 
3196875000  -3.295033e+001  5.132711e+001 
3200000000  -3.206054e+001  4.831657e+001 
3203125000  -3.128701e+001  4.209662e+001 
3206250000  -3.158850e+001  3.568416e+001 
3209375000  -3.111023e+001  2.960421e+001 
3212500000  -3.133518e+001  2.277777e+001 
3215625000  -3.137700e+001  1.870375e+001 
3218750000  -3.212891e+001  1.157654e+001 
3221875000  -3.302624e+001  6.184868e+000 
3225000000  -3.251560e+001  5.418887e+000 
3228125000  -3.297493e+001  -5.742257e-001 
3231250000  -3.374227e+001  -2.985264e+000 
3234375000  -3.344478e+001  -2.403187e+000 
3237500000  -3.338383e+001  -4.460931e+000 
3240625000  -3.294354e+001  -7.265838e+000 
3243750000  -3.253378e+001  -1.442218e+001 
3246875000  -3.297207e+001  -2.162353e+001 
3250000000  -3.346652e+001  -2.461313e+001 
3253125000  -3.349872e+001  -2.618819e+001 
3256250000  -3.315376e+001  -3.290154e+001 
3259375000  -3.341344e+001  -4.197836e+001 
3262500000  -3.461260e+001  -4.561951e+001 
3265625000  -3.529045e+001  -4.254447e+001 
3268750000  -3.513753e+001  -4.093408e+001 
3271875000  -3.481564e+001  -4.078703e+001 
3275000000  -3.375426e+001  -4.714297e+001 
3278125000  -3.408580e+001  -5.404865e+001 
3281250000  -3.432045e+001  -5.331747e+001 
3284375000  -3.388384e+001  -6.055225e+001 
3287500000  -3.409668e+001  -6.388368e+001 
3290625000  -3.441622e+001  -6.933071e+001 
3293750000  -3.397527e+001  -7.565839e+001 
3296875000  -3.506187e+001  -7.587672e+001 
3300000000  -3.489323e+001  -7.533617e+001 
3303125000  -3.368843e+001  -8.049245e+001 
3306250000  -3.363434e+001  -8.760139e+001 
3309375000  -3.328835e+001  -9.358730e+001 
3312500000  -3.335325e+001  -1.049098e+002 
3315625000  -3.429387e+001  -1.128513e+002 
3318750000  -3.566164e+001  -1.158202e+002 
3321875000  -3.694563e+001  -1.165436e+002 
3325000000  -3.737920e+001  -1.103839e+002 
3328125000  -3.681237e+001  -1.094183e+002 
3331250000  -3.553633e+001  -1.036008e+002 
3334375000  -3.307003e+001  -1.136912e+002 
3337500000  -3.314924e+001  -1.335482e+002 
3340625000  -3.453270e+001  -1.443427e+002 
3343750000  -3.641246e+001  -1.460128e+002 
3346875000  -3.663270e+001  -1.433150e+002 
3350000000  -3.599652e+001  -1.455931e+002 
3353125000  -3.598114e+001  -1.498058e+002 
3356250000  -3.568648e+001  -1.591263e+002 
3359375000  -3.629152e+001  -1.669149e+002 
3362500000  -3.743223e+001  -1.732266e+002 
3365625000  -3.786858e+001  -1.738283e+002 
3368750000  -3.848904e+001  -1.758759e+002 
3371875000  -3.898824e+001  -1.788397e+002 
3375000000  -4.029572e+001  1.772363e+002 
3378125000  -4.117792e+001  1.790020e+002 
3381250000  -4.253575e+001  -1.728525e+002 
3384375000  -4.127426e+001  -1.509247e+002 
3387500000  -3.755864e+001  -1.676170e+002 
3390625000  -3.909584e+001  1.730247e+002 
3393750000  -4.036405e+001  1.764558e+002 
3396875000  -3.914779e+001  1.775331e+002 
3400000000  -3.886063e+001  1.693812e+002 
3403125000  -3.955512e+001  1.627815e+002 
3406250000  -3.974369e+001  1.634632e+002 
3409375000  -3.963719e+001  1.544129e+002 
3412500000  -4.038163e+001  1.523887e+002 
3415625000  -4.119031e+001  1.533200e+002 
3418750000  -4.115491e+001  1.548480e+002 
3421875000  -4.141706e+001  1.577552e+002 
3425000000  -4.037447e+001  1.575282e+002 
3428125000  -3.936805e+001  1.535355e+002 
3431250000  -3.947217e+001  1.475345e+002 
3434375000  -3.914661e+001  1.417229e+002 
3437500000  -3.974908e+001  1.377208e+002 
3440625000  -3.998228e+001  1.376681e+002 
3443750000  -3.866246e+001  1.396250e+002 
3446875000  -3.785015e+001  1.313754e+002 
3450000000  -3.765958e+001  1.226285e+002 
3453125000  -3.795921e+001  1.124638e+002 
3456250000  -3.921301e+001  1.060912e+002 
3459375000  -3.999817e+001  1.067792e+002 
3462500000  -3.987775e+001  1.069671e+002 
3465625000  -3.988967e+001  1.002063e+002 
3468750000  -4.019480e+001  9.757967e+001 
3471875000  -4.014221e+001  9.460897e+001 
3475000000  -3.969077e+001  9.160618e+001 
3478125000  -4.031438e+001  8.366316e+001 
3481250000  -4.088076e+001  8.188181e+001 
3484375000  -4.212374e+001  8.426087e+001 
3487500000  -4.138730e+001  8.393730e+001 
3490625000  -4.062623e+001  7.840829e+001 
3493750000  -4.133165e+001  7.280309e+001 
3496875000  -4.201025e+001  7.081395e+001 
3500000000  -4.220502e+001  7.317932e+001 
3503125000  -4.217827e+001  7.532797e+001 
3506250000  -4.047566e+001  7.000214e+001 
3509375000  -4.065675e+001  6.205534e+001 
3512500000  -4.112196e+001  5.172539e+001 
3515625000  -4.196238e+001  5.041745e+001 
3518750000  -4.225662e+001  4.965695e+001 
3521875000  -4.252823e+001  4.839489e+001 
3525000000  -4.328396e+001  4.365823e+001 
3528125000  -4.347046e+001  5.279465e+001 
3531250000  -4.183987e+001  5.016701e+001 
3534375000  -4.230358e+001  3.968513e+001 
3537500000  -4.266864e+001  3.621693e+001 
3540625000  -4.374282e+001  3.476539e+001 
3543750000  -4.410721e+001  3.589421e+001 
3546875000  -4.447246e+001  4.874440e+001 
3550000000  -4.129973e+001  4.964507e+001 
3553125000  -4.018695e+001  3.199676e+001 
3556250000  -4.178934e+001  2.675812e+001 
3559375000  -4.130463e+001  2.711239e+001 
3562500000  -4.037750e+001  1.983630e+001 
3565625000  -4.119022e+001  1.219445e+001 
3568750000  -4.140892e+001  1.378378e+001 
3571875000  -4.131729e+001  1.219946e+001 
3575000000  -4.067209e+001  5.956270e+000 
3578125000  -4.122676e+001  1.178836e-001 
3581250000  -4.120049e+001  3.012239e-001 
3584375000  -4.043560e+001  -3.462545e+000 
3587500000  -4.014848e+001  -1.067040e+001 
3590625000  -4.064025e+001  -2.302150e+001 
3593750000  -4.174422e+001  -2.407090e+001 
3596875000  -4.190550e+001  -1.888483e+001 
3600000000  -4.014280e+001  -2.329287e+001 
3603125000  -4.072302e+001  -3.880001e+001 
3606250000  -4.152137e+001  -4.175888e+001 
3609375000  -4.195583e+001  -4.578271e+001 
3612500000  -4.295982e+001  -4.620204e+001 
3615625000  -4.270252e+001  -5.158382e+001 
3618750000  -4.372364e+001  -4.985476e+001 
3621875000  -4.377300e+001  -5.514874e+001 
3625000000  -4.423708e+001  -5.360244e+001 
3628125000  -4.418953e+001  -5.655294e+001 
3631250000  -4.434888e+001  -6.237877e+001 
3634375000  -4.571540e+001  -6.463143e+001 
3637500000  -4.519842e+001  -5.818896e+001 
3640625000  -4.458308e+001  -5.496457e+001 
3643750000  -4.439042e+001  -6.106376e+001 
3646875000  -4.505061e+001  -7.006355e+001 
3650000000  -4.577375e+001  -7.050971e+001 
3653125000  -4.569635e+001  -6.810175e+001 
3656250000  -4.582040e+001  -6.940962e+001 
3659375000  -4.620912e+001  -6.491319e+001 
3662500000  -4.517408e+001  -6.463013e+001 
3665625000  -4.482520e+001  -6.831422e+001 
3668750000  -4.424225e+001  -6.823411e+001 
3671875000  -4.328553e+001  -7.130520e+001 
3675000000  -4.317941e+001  -8.005458e+001 
3678125000  -4.337086e+001  -8.156125e+001 
3681250000  -4.342718e+001  -8.302268e+001 
3684375000  -4.331702e+001  -8.631705e+001 
3687500000  -4.334198e+001  -9.278802e+001 
3690625000  -4.328922e+001  -9.606725e+001 
3693750000  -4.431191e+001  -9.477676e+001 
3696875000  -4.350580e+001  -9.542596e+001 
3700000000  -4.265222e+001  -1.027227e+002 
3703125000  -4.286732e+001  -1.039847e+002 
3706250000  -4.417529e+001  -1.045917e+002 
3709375000  -4.393060e+001  -1.042795e+002 
3712500000  -4.233567e+001  -1.060991e+002 
3715625000  -4.145278e+001  -1.141633e+002 
3718750000  -4.114072e+001  -1.199308e+002 
3721875000  -4.125449e+001  -1.278869e+002 
3725000000  -4.118282e+001  -1.325620e+002 
3728125000  -4.198179e+001  -1.330752e+002 
3731250000  -4.158091e+001  -1.383329e+002 
3734375000  -4.142584e+001  -1.419531e+002 
3737500000  -4.196563e+001  -1.508408e+002 
3740625000  -4.304419e+001  -1.545270e+002 
3743750000  -4.303301e+001  -1.577916e+002 
3746875000  -4.359518e+001  -1.581097e+002 
3750000000  -4.426222e+001  -1.617903e+002 
3753125000  -4.416975e+001  -1.615089e+002 
3756250000  -4.434983e+001  -1.604039e+002 
3759375000  -4.467129e+001  -1.600437e+002 
3762500000  -4.404633e+001  -1.623874e+002 
3765625000  -4.474456e+001  -1.625665e+002 
3768750000  -4.491132e+001  -1.598059e+002 
3771875000  -4.309481e+001  -1.602920e+002 
3775000000  -4.293431e+001  -1.663319e+002 
3778125000  -4.334440e+001  -1.674846e+002 
3781250000  -4.277019e+001  -1.710371e+002 
3784375000  -4.251726e+001  -1.694579e+002 
3787500000  -4.211086e+001  -1.711272e+002 
3790625000  -4.240149e+001  -1.798896e+002 
3793750000  -4.231334e+001  1.795712e+002 
3796875000  -4.112028e+001  1.763941e+002 
3800000000  -3.963357e+001  1.749757e+002 
3803125000  -4.044016e+001  1.658663e+002 
3806250000  -4.119586e+001  1.614412e+002 
3809375000  -4.059299e+001  1.590826e+002 
3812500000  -3.984660e+001  1.549122e+002 
3815625000  -4.041810e+001  1.463302e+002 
3818750000  -4.159183e+001  1.434899e+002 
3821875000  -4.129549e+001  1.521056e+002 
3825000000  -3.948238e+001  1.555230e+002 
3828125000  -3.801460e+001  1.384283e+002 
3831250000  -3.879071e+001  1.229898e+002 
3834375000  -4.009261e+001  1.221858e+002 
3837500000  -4.110775e+001  1.265573e+002 
3840625000  -3.988759e+001  1.247729e+002 
3843750000  -3.882425e+001  1.111790e+002 
3846875000  -3.968380e+001  1.062307e+002 
3850000000  -4.110249e+001  1.103270e+002 
3853125000  -4.023119e+001  1.115286e+002 
3856250000  -4.040170e+001  1.055095e+002 
3859375000  -3.968545e+001  1.009326e+002 
3862500000  -3.947367e+001  9.342098e+001 
3865625000  -3.983063e+001  8.740332e+001 
3868750000  -3.986007e+001  8.694396e+001 
3871875000  -3.909713e+001  8.268268e+001 
3875000000  -3.948158e+001  7.254749e+001 
3878125000  -4.092124e+001  7.037119e+001 
3881250000  -4.072825e+001  7.105757e+001 
3884375000  -4.014675e+001  6.860861e+001 
3887500000  -4.026235e+001  6.414423e+001 
3890625000  -4.098417e+001  6.120597e+001 
3893750000  -4.113623e+001  5.975064e+001 
3896875000  -4.149870e+001  6.036398e+001 
3900000000  -4.154993e+001  5.942378e+001 
3903125000  -4.136660e+001  5.670543e+001 
3906250000  -4.095224e+001  5.311182e+001 
3909375000  -4.032643e+001  5.226984e+001 
3912500000  -4.002119e+001  4.466003e+001 
3915625000  -4.162842e+001  4.612416e+001 
3918750000  -4.112070e+001  4.585385e+001 
3921875000  -4.087785e+001  4.186651e+001 
3925000000  -3.972428e+001  3.914033e+001 
3928125000  -3.942218e+001  3.515051e+001 
3931250000  -3.955954e+001  3.026444e+001 
3934375000  -3.987683e+001  2.846450e+001 
3937500000  -4.002283e+001  2.568127e+001 
3940625000  -4.065746e+001  2.579819e+001 
3943750000  -3.945313e+001  2.439250e+001 
3946875000  -3.847761e+001  1.815595e+001 
3950000000  -3.907680e+001  7.829335e+000 
3953125000  -4.014270e+001  9.330748e+000 
3956250000  -3.863813e+001  1.041433e+001 
3959375000  -3.792396e+001  6.382221e+000 
3962500000  -3.743339e+001  1.499112e+000 
3965625000  -3.705977e+001  -9.404554e+000 
3968750000  -3.813759e+001  -1.595579e+001 
3971875000  -3.841966e+001  -1.932640e+001 
3975000000  -3.778443e+001  -2.117452e+001 
3978125000  -3.787094e+001  -2.389244e+001 
3981250000  -3.790540e+001  -2.920569e+001 
3984375000  -3.806353e+001  -3.544200e+001 
3987500000  -3.864085e+001  -3.843220e+001 
3990625000  -3.851944e+001  -3.949357e+001 
3993750000  -3.896647e+001  -4.559767e+001 
3996875000  -3.909804e+001  -4.708193e+001 
4000000000  -3.934765e+001  -4.612240e+001 
4003125000  -3.972842e+001  -4.787202e+001 
4006250000  -3.850849e+001  -4.743616e+001 
4009375000  -3.728022e+001  -6.213226e+001 
4012500000  -3.850605e+001  -6.791416e+001 
4015625000  -3.965437e+001  -6.623784e+001 
4018750000  -3.984645e+001  -6.617385e+001 
4021875000  -3.937146e+001  -6.829418e+001 
4025000000  -3.890045e+001  -7.343703e+001 
4028125000  -3.902065e+001  -7.823528e+001 
4031250000  -3.949732e+001  -8.186532e+001 
4034375000  -3.978872e+001  -8.133864e+001 
4037500000  -3.893575e+001  -8.182075e+001 
4040625000  -3.908706e+001  -8.420972e+001 
4043750000  -3.929740e+001  -8.565527e+001 
4046875000  -3.896731e+001  -8.429797e+001 
4050000000  -3.835136e+001  -9.336517e+001 
4053125000  -3.878302e+001  -9.612829e+001 
4056250000  -3.950319e+001  -9.300574e+001 
4059375000  -3.807903e+001  -9.246042e+001 
4062500000  -3.668609e+001  -9.690627e+001 
4065625000  -3.650731e+001  -1.020676e+002 
4068750000  -3.647112e+001  -1.076407e+002 
4071875000  -3.564803e+001  -1.163732e+002 
4075000000  -3.624821e+001  -1.226192e+002 
4078125000  -3.673466e+001  -1.246062e+002 
4081250000  -3.604906e+001  -1.294268e+002 
4084375000  -3.564619e+001  -1.361829e+002 
4087500000  -3.620197e+001  -1.423282e+002 
4090625000  -3.669318e+001  -1.437283e+002 
4093750000  -3.651440e+001  -1.460219e+002 
4096875000  -3.609447e+001  -1.529578e+002 
4100000000  -3.674246e+001  -1.602890e+002 
4103125000  -3.762949e+001  -1.598614e+002 
4106250000  -3.772248e+001  -1.542906e+002 
4109375000  -3.680597e+001  -1.573167e+002 
4112500000  -3.608669e+001  -1.651226e+002 
4115625000  -3.656470e+001  -1.711873e+002 
4118750000  -3.655268e+001  -1.752875e+002 
4121875000  -3.615727e+001  -1.798295e+002 
4125000000  -3.676286e+001  1.739369e+002 
4128125000  -3.777255e+001  1.734316e+002 
4131250000  -3.754990e+001  -1.792931e+002 
4134375000  -3.514606e+001  1.748814e+002 
4137500000  -3.513705e+001  1.557848e+002 
4140625000  -3.730173e+001  1.481968e+002 
4143750000  -3.894800e+001  1.515117e+002 
4146875000  -3.839168e+001  1.590250e+002 
4150000000  -3.746574e+001  1.550538e+002 
4153125000  -3.737105e+001  1.466397e+002 
4156250000  -3.855216e+001  1.439984e+002 
4159375000  -3.869597e+001  1.499118e+002 
4162500000  -3.756451e+001  1.540832e+002 
4165625000  -3.645266e+001  1.480508e+002 
4168750000  -3.584855e+001  1.410737e+002 
4171875000  -3.603038e+001  1.303680e+002 
4175000000  -3.647456e+001  1.251281e+002 
4178125000  -3.722254e+001  1.240011e+002 
4181250000  -3.673964e+001  1.245144e+002 
4184375000  -3.683564e+001  1.200555e+002 
4187500000  -3.669199e+001  1.172795e+002 
4190625000  -3.662948e+001  1.110378e+002 
4193750000  -3.737635e+001  1.070111e+002 
4196875000  -3.779661e+001  1.057492e+002 
4200000000  -3.879557e+001  1.085404e+002 
4203125000  -3.871475e+001  1.211765e+002 
4206250000  -3.527232e+001  1.196371e+002 
4209375000  -3.410136e+001  9.813589e+001 
4212500000  -3.606057e+001  8.981691e+001 
4215625000  -3.715902e+001  9.611053e+001 
4218750000  -3.547349e+001  1.010968e+002 
4221875000  -3.325685e+001  9.051974e+001 
4225000000  -3.454775e+001  7.792444e+001 
4228125000  -3.507456e+001  8.200812e+001 
4231250000  -3.343817e+001  7.756386e+001 
4234375000  -3.350194e+001  6.747032e+001 
4237500000  -3.285276e+001  6.385908e+001 
4240625000  -3.300585e+001  5.266902e+001 
4243750000  -3.400884e+001  4.499086e+001 
4246875000  -3.489267e+001  4.371769e+001 
4250000000  -3.489154e+001  4.652131e+001 
4253125000  -3.432570e+001  4.159320e+001 
4256250000  -3.476904e+001  3.812939e+001 
4259375000  -3.453854e+001  3.351607e+001 
4262500000  -3.476822e+001  2.980054e+001 
4265625000  -3.484283e+001  2.908446e+001 
4268750000  -3.382510e+001  2.364608e+001 
4271875000  -3.384930e+001  1.718938e+001 
4275000000  -3.325473e+001  8.787591e+000 
4278125000  -3.404612e+001  -3.034814e+000 
4281250000  -3.585875e+001  -7.034283e+000 
4284375000  -3.545416e+001  -4.419895e+000 
4287500000  -3.672393e+001  -9.144867e+000 
4290625000  -3.788273e+001  4.080223e-001 
4293750000  -3.622431e+001  5.464194e+000 
4296875000  -3.484810e+001  -6.020574e+000 
4300000000  -3.596110e+001  -1.439065e+001 
4303125000  -3.672450e+001  -1.469042e+001 
4306250000  -3.601421e+001  -6.263686e+000 
4309375000  -3.505471e+001  -1.000563e+001 
4312500000  -3.483681e+001  -1.735937e+001 
4315625000  -3.497244e+001  -2.410970e+001 
4318750000  -3.509346e+001  -2.780379e+001 
4321875000  -3.520819e+001  -2.766653e+001 
4325000000  -3.459272e+001  -2.737257e+001 
4328125000  -3.398878e+001  -3.437214e+001 
4331250000  -3.375210e+001  -4.307805e+001 
4334375000  -3.426989e+001  -4.826957e+001 
4337500000  -3.506128e+001  -5.041801e+001 
4340625000  -3.563733e+001  -4.844418e+001 
4343750000  -3.466092e+001  -4.819671e+001 
4346875000  -3.421586e+001  -5.489461e+001 
4350000000  -3.422897e+001  -6.121173e+001 
4353125000  -3.410575e+001  -6.963120e+001 
4356250000  -3.590155e+001  -7.087881e+001 
4359375000  -3.651006e+001  -5.733912e+001 
4362500000  -3.331223e+001  -5.829578e+001 
4365625000  -3.170248e+001  -7.120079e+001 
4368750000  -3.253115e+001  -8.374865e+001 
4371875000  -3.369362e+001  -8.448397e+001 
4375000000  -3.318864e+001  -8.582877e+001 
4378125000  -3.251083e+001  -9.196284e+001 
4381250000  -3.270098e+001  -9.883414e+001 
4384375000  -3.245756e+001  -1.044993e+002 
4387500000  -3.329245e+001  -1.128896e+002 
4390625000  -3.420176e+001  -1.124219e+002 
4393750000  -3.355806e+001  -1.122866e+002 
4396875000  -3.299870e+001  -1.143318e+002 
4400000000  -3.252972e+001  -1.235356e+002 
4403125000  -3.325272e+001  -1.320161e+002 
4406250000  -3.396997e+001  -1.349666e+002 
4409375000  -3.419809e+001  -1.379492e+002 
4412500000  -3.538680e+001  -1.424017e+002 
4415625000  -3.569924e+001  -1.381768e+002 
