!Agilent Technologies,E8363B,MY43030201,A.06.04.32
!Agilent E8363B: A.06.04.32
!Date: Tuesday, November 11, 2014 21:08:15
!Correction: S21(Response(S21)) 
!S1P File: Measurement: S21:
# Hz S  dB   R 50
3000000000  -3.657955e+001  -5.281285e+001 
3003125000  -3.758179e+001  -5.850559e+001 
3006250000  -3.750583e+001  -6.152674e+001 
3009375000  -3.781250e+001  -5.646232e+001 
3012500000  -3.713273e+001  -5.854066e+001 
3015625000  -3.607242e+001  -6.538507e+001 
3018750000  -3.690098e+001  -6.692101e+001 
3021875000  -3.550913e+001  -6.603080e+001 
3025000000  -3.402261e+001  -6.960229e+001 
3028125000  -3.319139e+001  -7.631741e+001 
3031250000  -3.223889e+001  -8.741607e+001 
3034375000  -3.177572e+001  -1.011318e+002 
3037500000  -3.227905e+001  -1.130544e+002 
3040625000  -3.362186e+001  -1.180840e+002 
3043750000  -3.420304e+001  -1.232136e+002 
3046875000  -3.449509e+001  -1.287248e+002 
3050000000  -3.601567e+001  -1.353174e+002 
3053125000  -3.604202e+001  -1.290915e+002 
3056250000  -3.555355e+001  -1.270308e+002 
3059375000  -3.560134e+001  -1.266662e+002 
3062500000  -3.407714e+001  -1.304011e+002 
3065625000  -3.395950e+001  -1.363372e+002 
3068750000  -3.351302e+001  -1.438020e+002 
3071875000  -3.347491e+001  -1.463295e+002 
3075000000  -3.325076e+001  -1.498309e+002 
3078125000  -3.303552e+001  -1.539741e+002 
3081250000  -3.357884e+001  -1.585537e+002 
3084375000  -3.268099e+001  -1.621689e+002 
3087500000  -3.246027e+001  -1.663427e+002 
3090625000  -3.199372e+001  -1.761743e+002 
3093750000  -3.241895e+001  1.765827e+002 
3096875000  -3.350391e+001  1.705429e+002 
3100000000  -3.338682e+001  1.682555e+002 
3103125000  -3.370495e+001  1.692845e+002 
3106250000  -3.328762e+001  1.651611e+002 
3109375000  -3.319881e+001  1.611054e+002 
3112500000  -3.328557e+001  1.586207e+002 
3115625000  -3.283905e+001  1.536328e+002 
3118750000  -3.313834e+001  1.542203e+002 
3121875000  -3.233129e+001  1.447975e+002 
3125000000  -3.359371e+001  1.403037e+002 
3128125000  -3.456262e+001  1.476905e+002 
3131250000  -3.202848e+001  1.461417e+002 
3134375000  -3.076369e+001  1.310143e+002 
3137500000  -3.136765e+001  1.168202e+002 
3140625000  -3.282307e+001  1.138284e+002 
3143750000  -3.394399e+001  1.153457e+002 
3146875000  -3.335272e+001  1.160385e+002 
3150000000  -3.231468e+001  1.165601e+002 
3153125000  -3.234271e+001  1.065871e+002 
3156250000  -3.343817e+001  1.120687e+002 
3159375000  -3.154560e+001  1.137911e+002 
3162500000  -2.971153e+001  9.888696e+001 
3165625000  -3.068195e+001  8.630733e+001 
3168750000  -3.104451e+001  8.695415e+001 
3171875000  -3.014354e+001  8.130859e+001 
3175000000  -3.085577e+001  7.235121e+001 
3178125000  -3.063284e+001  7.297647e+001 
3181250000  -2.956130e+001  6.727871e+001 
3184375000  -2.893152e+001  5.509299e+001 
3187500000  -3.016682e+001  3.941338e+001 
3190625000  -3.273011e+001  3.202006e+001 
3193750000  -3.326629e+001  4.023906e+001 
3196875000  -3.293129e+001  4.463886e+001 
3200000000  -3.195553e+001  4.177378e+001 
3203125000  -3.119331e+001  3.565084e+001 
3206250000  -3.155154e+001  2.893148e+001 
3209375000  -3.104362e+001  2.270058e+001 
3212500000  -3.132421e+001  1.584227e+001 
3215625000  -3.137644e+001  1.251385e+001 
3218750000  -3.209983e+001  4.859568e+000 
3221875000  -3.289949e+001  -1.101606e-001 
3225000000  -3.255191e+001  -1.503481e+000 
3228125000  -3.297490e+001  -7.242980e+000 
3231250000  -3.360976e+001  -9.425679e+000 
3234375000  -3.320795e+001  -9.686425e+000 
3237500000  -3.328192e+001  -1.140561e+001 
3240625000  -3.286119e+001  -1.378595e+001 
3243750000  -3.253954e+001  -2.202971e+001 
3246875000  -3.301291e+001  -2.917876e+001 
3250000000  -3.331848e+001  -3.131807e+001 
3253125000  -3.349289e+001  -3.318185e+001 
3256250000  -3.305730e+001  -3.964415e+001 
3259375000  -3.336626e+001  -4.843601e+001 
3262500000  -3.457836e+001  -5.237856e+001 
3265625000  -3.521344e+001  -4.996109e+001 
3268750000  -3.504031e+001  -4.772677e+001 
3271875000  -3.468311e+001  -4.736136e+001 
3275000000  -3.369829e+001  -5.524724e+001 
3278125000  -3.421827e+001  -6.147532e+001 
3281250000  -3.430682e+001  -6.033815e+001 
3284375000  -3.388587e+001  -6.770251e+001 
3287500000  -3.405299e+001  -7.037562e+001 
3290625000  -3.421147e+001  -7.698580e+001 
3293750000  -3.404454e+001  -8.202493e+001 
3296875000  -3.520171e+001  -8.254957e+001 
3300000000  -3.486954e+001  -8.211270e+001 
3303125000  -3.359544e+001  -8.835921e+001 
3306250000  -3.348621e+001  -9.494559e+001 
3309375000  -3.317413e+001  -1.014569e+002 
3312500000  -3.327352e+001  -1.119940e+002 
3315625000  -3.429517e+001  -1.200404e+002 
3318750000  -3.579493e+001  -1.231506e+002 
3321875000  -3.674143e+001  -1.223265e+002 
3325000000  -3.729007e+001  -1.180203e+002 
3328125000  -3.674792e+001  -1.181117e+002 
3331250000  -3.551828e+001  -1.104636e+002 
3334375000  -3.294394e+001  -1.216374e+002 
3337500000  -3.300448e+001  -1.414305e+002 
3340625000  -3.443163e+001  -1.515521e+002 
3343750000  -3.637688e+001  -1.524909e+002 
3346875000  -3.657621e+001  -1.500784e+002 
3350000000  -3.592425e+001  -1.531672e+002 
3353125000  -3.587708e+001  -1.576976e+002 
3356250000  -3.542543e+001  -1.662669e+002 
3359375000  -3.624847e+001  -1.737804e+002 
3362500000  -3.738398e+001  -1.799588e+002 
3365625000  -3.788551e+001  1.786158e+002 
3368750000  -3.858596e+001  1.765881e+002 
3371875000  -3.887353e+001  1.736693e+002 
3375000000  -4.037803e+001  1.696378e+002 
3378125000  -4.110536e+001  1.717092e+002 
3381250000  -4.233685e+001  -1.794159e+002 
3384375000  -4.093364e+001  -1.580506e+002 
3387500000  -3.750260e+001  -1.769645e+002 
3390625000  -3.898431e+001  1.642603e+002 
3393750000  -4.006458e+001  1.676083e+002 
3396875000  -3.929699e+001  1.685000e+002 
3400000000  -3.873854e+001  1.617624e+002 
3403125000  -3.935808e+001  1.558447e+002 
3406250000  -3.959548e+001  1.557542e+002 
3409375000  -3.964687e+001  1.472427e+002 
3412500000  -4.016721e+001  1.469641e+002 
3415625000  -4.094451e+001  1.460243e+002 
3418750000  -4.102166e+001  1.481710e+002 
3421875000  -4.124250e+001  1.506142e+002 
3425000000  -4.024861e+001  1.508836e+002 
3428125000  -3.933873e+001  1.452450e+002 
3431250000  -3.919889e+001  1.395084e+002 
3434375000  -3.906142e+001  1.337162e+002 
3437500000  -3.970110e+001  1.295438e+002 
3440625000  -3.991447e+001  1.315397e+002 
3443750000  -3.862268e+001  1.320070e+002 
3446875000  -3.794168e+001  1.245804e+002 
3450000000  -3.744765e+001  1.138378e+002 
3453125000  -3.778295e+001  1.050930e+002 
3456250000  -3.911118e+001  9.705887e+001 
3459375000  -4.001213e+001  9.835501e+001 
3462500000  -3.992039e+001  9.838622e+001 
3465625000  -3.973619e+001  9.212849e+001 
3468750000  -3.999605e+001  8.978043e+001 
3471875000  -3.998174e+001  8.735871e+001 
3475000000  -3.957649e+001  8.442913e+001 
3478125000  -4.020305e+001  7.446811e+001 
3481250000  -4.121837e+001  7.249043e+001 
3484375000  -4.220254e+001  7.757456e+001 
3487500000  -4.117648e+001  7.613460e+001 
3490625000  -4.060492e+001  7.205106e+001 
3493750000  -4.103187e+001  6.399855e+001 
3496875000  -4.165244e+001  6.299200e+001 
3500000000  -4.233965e+001  6.676847e+001 
3503125000  -4.177287e+001  6.515849e+001 
3506250000  -4.051944e+001  6.186838e+001 
3509375000  -4.055215e+001  5.238161e+001 
3512500000  -4.097094e+001  4.327076e+001 
3515625000  -4.172866e+001  4.191495e+001 
3518750000  -4.242152e+001  4.185116e+001 
3521875000  -4.236008e+001  3.901978e+001 
3525000000  -4.361047e+001  3.553735e+001 
3528125000  -4.352553e+001  4.385709e+001 
3531250000  -4.221394e+001  4.093411e+001 
3534375000  -4.198951e+001  3.007805e+001 
3537500000  -4.268790e+001  2.628559e+001 
3540625000  -4.348359e+001  2.579106e+001 
3543750000  -4.415858e+001  3.115347e+001 
3546875000  -4.413973e+001  4.156405e+001 
3550000000  -4.164515e+001  4.166309e+001 
3553125000  -4.043360e+001  2.452595e+001 
3556250000  -4.170617e+001  1.666083e+001 
3559375000  -4.154686e+001  2.074117e+001 
3562500000  -4.029246e+001  1.131944e+001 
3565625000  -4.112653e+001  3.175254e+000 
3568750000  -4.149966e+001  6.428152e+000 
3571875000  -4.131022e+001  4.293501e+000 
3575000000  -4.096051e+001  -2.788243e+000 
3578125000  -4.111126e+001  -7.129157e+000 
3581250000  -4.139680e+001  -7.198150e+000 
3584375000  -4.046420e+001  -1.129910e+001 
3587500000  -3.994782e+001  -2.028321e+001 
3590625000  -4.044538e+001  -3.065426e+001 
3593750000  -4.164881e+001  -3.279005e+001 
3596875000  -4.155364e+001  -2.639887e+001 
3600000000  -4.025754e+001  -3.268179e+001 
3603125000  -4.090591e+001  -4.720695e+001 
3606250000  -4.129172e+001  -5.171461e+001 
3609375000  -4.201512e+001  -5.415459e+001 
3612500000  -4.278394e+001  -5.772358e+001 
3615625000  -4.265478e+001  -6.086087e+001 
3618750000  -4.360155e+001  -6.075798e+001 
3621875000  -4.365559e+001  -6.341227e+001 
3625000000  -4.416052e+001  -6.466079e+001 
3628125000  -4.428328e+001  -6.681016e+001 
3631250000  -4.396369e+001  -7.079485e+001 
3634375000  -4.582239e+001  -7.043941e+001 
3637500000  -4.558399e+001  -6.901570e+001 
3640625000  -4.481315e+001  -6.435343e+001 
3643750000  -4.455629e+001  -7.228262e+001 
3646875000  -4.505335e+001  -7.837253e+001 
3650000000  -4.591584e+001  -7.733244e+001 
3653125000  -4.540698e+001  -8.103625e+001 
3656250000  -4.596824e+001  -7.847389e+001 
3659375000  -4.604009e+001  -7.290677e+001 
3662500000  -4.536682e+001  -7.415094e+001 
3665625000  -4.552819e+001  -7.503947e+001 
3668750000  -4.404094e+001  -7.586028e+001 
3671875000  -4.329348e+001  -8.067798e+001 
3675000000  -4.346991e+001  -8.911153e+001 
3678125000  -4.370235e+001  -8.909452e+001 
3681250000  -4.295399e+001  -9.086270e+001 
3684375000  -4.328316e+001  -9.666640e+001 
3687500000  -4.318853e+001  -1.004370e+002 
3690625000  -4.337773e+001  -1.034849e+002 
3693750000  -4.428110e+001  -1.017019e+002 
3696875000  -4.403058e+001  -1.038839e+002 
3700000000  -4.258212e+001  -1.092967e+002 
3703125000  -4.303776e+001  -1.149066e+002 
3706250000  -4.391675e+001  -1.149967e+002 
3709375000  -4.346087e+001  -1.123263e+002 
3712500000  -4.261061e+001  -1.157152e+002 
3715625000  -4.141420e+001  -1.225528e+002 
3718750000  -4.141149e+001  -1.298911e+002 
3721875000  -4.134072e+001  -1.350675e+002 
3725000000  -4.167846e+001  -1.430267e+002 
3728125000  -4.196954e+001  -1.436098e+002 
3731250000  -4.148171e+001  -1.439524e+002 
3734375000  -4.117539e+001  -1.511859e+002 
3737500000  -4.215090e+001  -1.579256e+002 
3740625000  -4.344865e+001  -1.634425e+002 
3743750000  -4.263198e+001  -1.666377e+002 
3746875000  -4.338321e+001  -1.688910e+002 
3750000000  -4.402201e+001  -1.671090e+002 
3753125000  -4.396904e+001  -1.707307e+002 
3756250000  -4.453014e+001  -1.659842e+002 
3759375000  -4.455892e+001  -1.688992e+002 
3762500000  -4.432006e+001  -1.725989e+002 
3765625000  -4.467137e+001  -1.723261e+002 
3768750000  -4.496471e+001  -1.671583e+002 
3771875000  -4.338720e+001  -1.687963e+002 
3775000000  -4.333275e+001  -1.749868e+002 
3778125000  -4.369386e+001  -1.757349e+002 
3781250000  -4.292301e+001  -1.789050e+002 
3784375000  -4.295066e+001  -1.790942e+002 
3787500000  -4.233284e+001  1.771182e+002 
3790625000  -4.246695e+001  1.702681e+002 
3793750000  -4.256971e+001  1.712425e+002 
3796875000  -4.157171e+001  1.690398e+002 
3800000000  -3.994464e+001  1.659991e+002 
3803125000  -4.063423e+001  1.564735e+002 
3806250000  -4.114326e+001  1.541927e+002 
3809375000  -4.076162e+001  1.533639e+002 
3812500000  -4.016753e+001  1.457765e+002 
3815625000  -4.053176e+001  1.369304e+002 
3818750000  -4.173843e+001  1.373149e+002 
3821875000  -4.149193e+001  1.429043e+002 
3825000000  -3.930664e+001  1.463323e+002 
3828125000  -3.794191e+001  1.312738e+002 
3831250000  -3.880757e+001  1.145465e+002 
3834375000  -4.011975e+001  1.141521e+002 
3837500000  -4.132971e+001  1.182237e+002 
3840625000  -3.981762e+001  1.150829e+002 
3843750000  -3.870661e+001  1.057572e+002 
3846875000  -3.978176e+001  9.598923e+001 
3850000000  -4.126037e+001  1.025721e+002 
3853125000  -4.031060e+001  1.041232e+002 
3856250000  -4.046210e+001  9.764751e+001 
3859375000  -3.972107e+001  9.132138e+001 
3862500000  -3.917342e+001  8.279147e+001 
3865625000  -3.961305e+001  7.909303e+001 
3868750000  -3.973809e+001  7.680615e+001 
3871875000  -3.913734e+001  7.416380e+001 
3875000000  -3.920131e+001  6.353888e+001 
3878125000  -4.048091e+001  6.265176e+001 
3881250000  -4.063026e+001  6.534377e+001 
3884375000  -4.017968e+001  5.968792e+001 
3887500000  -4.031561e+001  5.624150e+001 
3890625000  -4.075384e+001  5.299641e+001 
3893750000  -4.123806e+001  5.091496e+001 
3896875000  -4.165820e+001  5.195528e+001 
3900000000  -4.152209e+001  5.120813e+001 
3903125000  -4.082797e+001  4.835894e+001 
3906250000  -4.097097e+001  4.525534e+001 
3909375000  -3.983853e+001  4.209939e+001 
3912500000  -4.004787e+001  3.522350e+001 
3915625000  -4.125417e+001  3.643538e+001 
3918750000  -4.112868e+001  3.700340e+001 
3921875000  -4.077155e+001  3.397449e+001 
3925000000  -3.953576e+001  2.972226e+001 
3928125000  -3.910935e+001  2.489566e+001 
3931250000  -3.969851e+001  2.095306e+001 
3934375000  -3.995359e+001  1.836782e+001 
3937500000  -4.009505e+001  1.706887e+001 
3940625000  -4.038879e+001  1.643332e+001 
3943750000  -3.969430e+001  1.739328e+001 
3946875000  -3.818008e+001  9.246313e+000 
3950000000  -3.905185e+001  8.142277e-001 
3953125000  -4.002478e+001  -9.143766e-001 
3956250000  -3.890922e+001  1.723353e+000 
3959375000  -3.774164e+001  -2.599326e+000 
3962500000  -3.729473e+001  -7.938579e+000 
3965625000  -3.722416e+001  -1.758149e+001 
3968750000  -3.820454e+001  -2.527783e+001 
3971875000  -3.842697e+001  -2.873960e+001 
3975000000  -3.786311e+001  -2.965343e+001 
3978125000  -3.766273e+001  -3.363600e+001 
3981250000  -3.769983e+001  -3.895370e+001 
3984375000  -3.791425e+001  -4.456771e+001 
3987500000  -3.859683e+001  -4.778725e+001 
3990625000  -3.831495e+001  -4.883583e+001 
3993750000  -3.899446e+001  -5.337843e+001 
3996875000  -3.855867e+001  -5.682983e+001 
4000000000  -3.919163e+001  -5.950537e+001 
4003125000  -3.982306e+001  -5.752230e+001 
4006250000  -3.829664e+001  -5.736400e+001 
4009375000  -3.718818e+001  -7.242664e+001 
4012500000  -3.847068e+001  -7.869263e+001 
4015625000  -4.003486e+001  -7.714223e+001 
4018750000  -4.002938e+001  -7.777419e+001 
4021875000  -3.918970e+001  -7.951151e+001 
4025000000  -3.886829e+001  -8.452591e+001 
4028125000  -3.902372e+001  -8.897337e+001 
4031250000  -3.928204e+001  -9.115435e+001 
4034375000  -3.962428e+001  -9.194464e+001 
4037500000  -3.918806e+001  -9.262891e+001 
4040625000  -3.910643e+001  -9.519851e+001 
4043750000  -3.957683e+001  -9.600549e+001 
4046875000  -3.901284e+001  -9.822348e+001 
4050000000  -3.856112e+001  -1.011268e+002 
4053125000  -3.910312e+001  -1.048773e+002 
4056250000  -3.961930e+001  -1.027260e+002 
4059375000  -3.814980e+001  -1.008318e+002 
4062500000  -3.674841e+001  -1.070238e+002 
4065625000  -3.682202e+001  -1.111591e+002 
4068750000  -3.633251e+001  -1.178221e+002 
4071875000  -3.583041e+001  -1.272034e+002 
4075000000  -3.599178e+001  -1.336627e+002 
4078125000  -3.682397e+001  -1.345133e+002 
4081250000  -3.629803e+001  -1.389962e+002 
4084375000  -3.566112e+001  -1.465032e+002 
4087500000  -3.618608e+001  -1.550476e+002 
4090625000  -3.682838e+001  -1.548963e+002 
4093750000  -3.649123e+001  -1.554077e+002 
4096875000  -3.611443e+001  -1.625466e+002 
4100000000  -3.696901e+001  -1.699297e+002 
4103125000  -3.775267e+001  -1.706102e+002 
4106250000  -3.763199e+001  -1.651141e+002 
4109375000  -3.673315e+001  -1.692836e+002 
4112500000  -3.617762e+001  -1.759926e+002 
4115625000  -3.655659e+001  1.789029e+002 
4118750000  -3.672445e+001  1.753044e+002 
4121875000  -3.635627e+001  1.696088e+002 
4125000000  -3.682743e+001  1.628527e+002 
4128125000  -3.788123e+001  1.638012e+002 
4131250000  -3.760785e+001  1.721407e+002 
4134375000  -3.524669e+001  1.637696e+002 
4137500000  -3.515403e+001  1.445392e+002 
4140625000  -3.734955e+001  1.365875e+002 
4143750000  -3.878442e+001  1.402767e+002 
4146875000  -3.824282e+001  1.469753e+002 
4150000000  -3.749401e+001  1.439087e+002 
4153125000  -3.725833e+001  1.360207e+002 
4156250000  -3.851175e+001  1.334851e+002 
4159375000  -3.862061e+001  1.388681e+002 
4162500000  -3.778244e+001  1.423725e+002 
4165625000  -3.645321e+001  1.360027e+002 
4168750000  -3.602422e+001  1.283211e+002 
4171875000  -3.594560e+001  1.183969e+002 
4175000000  -3.672126e+001  1.139038e+002 
4178125000  -3.715433e+001  1.136666e+002 
4181250000  -3.720897e+001  1.125741e+002 
4184375000  -3.698117e+001  1.080431e+002 
4187500000  -3.692408e+001  1.046393e+002 
4190625000  -3.680315e+001  9.819916e+001 
4193750000  -3.764939e+001  9.506376e+001 
4196875000  -3.828119e+001  9.515878e+001 
4200000000  -3.926945e+001  9.596426e+001 
4203125000  -3.894923e+001  1.108818e+002 
4206250000  -3.543919e+001  1.092075e+002 
4209375000  -3.431247e+001  8.616702e+001 
4212500000  -3.622961e+001  7.909156e+001 
4215625000  -3.700394e+001  8.554478e+001 
4218750000  -3.581530e+001  9.098167e+001 
4221875000  -3.337436e+001  8.074220e+001 
4225000000  -3.463414e+001  6.679063e+001 
4228125000  -3.523044e+001  7.130990e+001 
4231250000  -3.381729e+001  6.561983e+001 
4234375000  -3.336800e+001  5.716853e+001 
4237500000  -3.278912e+001  5.229925e+001 
4240625000  -3.291982e+001  4.226397e+001 
4243750000  -3.396657e+001  3.382197e+001 
4246875000  -3.488914e+001  3.352345e+001 
4250000000  -3.480770e+001  3.465497e+001 
4253125000  -3.428196e+001  3.004939e+001 
4256250000  -3.463288e+001  2.577740e+001 
4259375000  -3.444975e+001  2.183356e+001 
4262500000  -3.466597e+001  1.725034e+001 
4265625000  -3.463472e+001  1.767010e+001 
4268750000  -3.388101e+001  1.112045e+001 
4271875000  -3.378685e+001  3.531685e+000 
4275000000  -3.346481e+001  -4.805678e+000 
4278125000  -3.411292e+001  -1.618813e+001 
4281250000  -3.614214e+001  -1.725362e+001 
4284375000  -3.582618e+001  -1.682785e+001 
4287500000  -3.699720e+001  -2.248383e+001 
4290625000  -3.846805e+001  -1.264563e+001 
4293750000  -3.639560e+001  -7.716712e+000 
4296875000  -3.529470e+001  -1.912671e+001 
4300000000  -3.617525e+001  -2.825374e+001 
4303125000  -3.746929e+001  -2.719618e+001 
4306250000  -3.675572e+001  -1.946811e+001 
4309375000  -3.556049e+001  -2.279341e+001 
4312500000  -3.527341e+001  -3.041022e+001 
4315625000  -3.557438e+001  -3.655998e+001 
4318750000  -3.579480e+001  -3.988652e+001 
4321875000  -3.580437e+001  -3.826424e+001 
4325000000  -3.546802e+001  -3.912618e+001 
4328125000  -3.452825e+001  -4.428210e+001 
4331250000  -3.440604e+001  -5.263144e+001 
4334375000  -3.479771e+001  -5.827178e+001 
4337500000  -3.550055e+001  -6.075461e+001 
4340625000  -3.602411e+001  -5.707013e+001 
4343750000  -3.506197e+001  -5.810409e+001 
4346875000  -3.471773e+001  -6.432169e+001 
4350000000  -3.448291e+001  -6.989204e+001 
4353125000  -3.466735e+001  -7.878187e+001 
4356250000  -3.647917e+001  -7.935704e+001 
4359375000  -3.671744e+001  -6.587042e+001 
4362500000  -3.351936e+001  -6.788397e+001 
4365625000  -3.188753e+001  -8.151001e+001 
4368750000  -3.278075e+001  -9.422524e+001 
4371875000  -3.382381e+001  -9.475446e+001 
4375000000  -3.338096e+001  -9.543234e+001 
4378125000  -3.261888e+001  -1.026393e+002 
4381250000  -3.301510e+001  -1.093767e+002 
4384375000  -3.283765e+001  -1.165485e+002 
4387500000  -3.340163e+001  -1.238032e+002 
4390625000  -3.447653e+001  -1.241830e+002 
4393750000  -3.391292e+001  -1.233902e+002 
4396875000  -3.324059e+001  -1.257254e+002 
4400000000  -3.272104e+001  -1.366001e+002 
4403125000  -3.345319e+001  -1.446335e+002 
4406250000  -3.430075e+001  -1.466273e+002 
4409375000  -3.449750e+001  -1.500465e+002 
4412500000  -3.570966e+001  -1.537742e+002 
4415625000  -3.615484e+001  -1.508606e+002 
