!Agilent Technologies,E8363B,MY43030201,A.06.04.32
!Agilent E8363B: A.06.04.32
!Date: Tuesday, November 11, 2014 21:11:11
!Correction: S21(Response(S21)) 
!S1P File: Measurement: S21:
# Hz S  dB   R 50
3000000000  -3.647708e+001  -5.603807e+001 
3003125000  -3.779248e+001  -6.275925e+001 
3006250000  -3.750274e+001  -6.422558e+001 
3009375000  -3.790246e+001  -5.976100e+001 
3012500000  -3.708212e+001  -6.125769e+001 
3015625000  -3.619432e+001  -6.932110e+001 
3018750000  -3.705734e+001  -7.071318e+001 
3021875000  -3.548495e+001  -6.941441e+001 
3025000000  -3.417258e+001  -7.285343e+001 
3028125000  -3.322609e+001  -7.989419e+001 
3031250000  -3.225078e+001  -9.102100e+001 
3034375000  -3.187584e+001  -1.045353e+002 
3037500000  -3.234561e+001  -1.160285e+002 
3040625000  -3.367049e+001  -1.218186e+002 
3043750000  -3.433726e+001  -1.266536e+002 
3046875000  -3.462315e+001  -1.326499e+002 
3050000000  -3.620844e+001  -1.395011e+002 
3053125000  -3.603711e+001  -1.321470e+002 
3056250000  -3.564367e+001  -1.296340e+002 
3059375000  -3.561000e+001  -1.299064e+002 
3062500000  -3.401575e+001  -1.327557e+002 
3065625000  -3.388875e+001  -1.398262e+002 
3068750000  -3.355956e+001  -1.468150e+002 
3071875000  -3.354582e+001  -1.491395e+002 
3075000000  -3.332660e+001  -1.533819e+002 
3078125000  -3.306373e+001  -1.579320e+002 
3081250000  -3.358387e+001  -1.621729e+002 
3084375000  -3.263238e+001  -1.648589e+002 
3087500000  -3.251835e+001  -1.693665e+002 
3090625000  -3.196879e+001  -1.795390e+002 
3093750000  -3.249572e+001  1.729784e+002 
3096875000  -3.361613e+001  1.677460e+002 
3100000000  -3.337090e+001  1.654498e+002 
3103125000  -3.367921e+001  1.653964e+002 
3106250000  -3.319688e+001  1.616779e+002 
3109375000  -3.325066e+001  1.579355e+002 
3112500000  -3.324506e+001  1.553338e+002 
3115625000  -3.293458e+001  1.506469e+002 
3118750000  -3.325240e+001  1.510324e+002 
3121875000  -3.235176e+001  1.412127e+002 
3125000000  -3.363725e+001  1.371627e+002 
3128125000  -3.442482e+001  1.447871e+002 
3131250000  -3.198417e+001  1.434111e+002 
3134375000  -3.078959e+001  1.275220e+002 
3137500000  -3.134124e+001  1.127507e+002 
3140625000  -3.276115e+001  1.101955e+002 
3143750000  -3.376957e+001  1.120778e+002 
3146875000  -3.328192e+001  1.126916e+002 
3150000000  -3.230388e+001  1.126378e+002 
3153125000  -3.235516e+001  1.039379e+002 
3156250000  -3.338012e+001  1.083765e+002 
3159375000  -3.152487e+001  1.098559e+002 
3162500000  -2.962425e+001  9.529956e+001 
3165625000  -3.078570e+001  8.311103e+001 
3168750000  -3.100501e+001  8.333215e+001 
3171875000  -3.011100e+001  7.790588e+001 
3175000000  -3.089336e+001  6.880474e+001 
3178125000  -3.060996e+001  6.958662e+001 
3181250000  -2.951743e+001  6.342311e+001 
3184375000  -2.887467e+001  5.135199e+001 
3187500000  -3.016292e+001  3.631996e+001 
3190625000  -3.273455e+001  2.851647e+001 
3193750000  -3.329972e+001  3.665088e+001 
3196875000  -3.294436e+001  4.145174e+001 
3200000000  -3.198840e+001  3.827505e+001 
3203125000  -3.122309e+001  3.190481e+001 
3206250000  -3.161767e+001  2.513677e+001 
3209375000  -3.108571e+001  1.906929e+001 
3212500000  -3.138808e+001  1.293783e+001 
3215625000  -3.132879e+001  8.476016e+000 
3218750000  -3.220691e+001  1.606597e+000 
3221875000  -3.287883e+001  -3.690714e+000 
3225000000  -3.252326e+001  -5.342971e+000 
3228125000  -3.297553e+001  -1.137240e+001 
3231250000  -3.361483e+001  -1.325653e+001 
3234375000  -3.336516e+001  -1.292903e+001 
3237500000  -3.325895e+001  -1.480232e+001 
3240625000  -3.290692e+001  -1.795428e+001 
3243750000  -3.255104e+001  -2.528044e+001 
3246875000  -3.295133e+001  -3.233007e+001 
3250000000  -3.330698e+001  -3.463934e+001 
3253125000  -3.351973e+001  -3.694006e+001 
3256250000  -3.304473e+001  -4.366746e+001 
3259375000  -3.345108e+001  -5.227488e+001 
3262500000  -3.453580e+001  -5.651853e+001 
3265625000  -3.516972e+001  -5.264998e+001 
3268750000  -3.508190e+001  -5.123072e+001 
3271875000  -3.467519e+001  -5.204671e+001 
3275000000  -3.368290e+001  -5.885426e+001 
3278125000  -3.411417e+001  -6.507099e+001 
3281250000  -3.432977e+001  -6.396278e+001 
3284375000  -3.374302e+001  -7.033778e+001 
3287500000  -3.398589e+001  -7.495380e+001 
3290625000  -3.426621e+001  -8.071079e+001 
3293750000  -3.403372e+001  -8.634256e+001 
3296875000  -3.513601e+001  -8.672546e+001 
3300000000  -3.479453e+001  -8.602522e+001 
3303125000  -3.356985e+001  -9.177959e+001 
3306250000  -3.350106e+001  -9.893643e+001 
3309375000  -3.320251e+001  -1.050894e+002 
3312500000  -3.323481e+001  -1.162512e+002 
3315625000  -3.425993e+001  -1.240103e+002 
3318750000  -3.574276e+001  -1.259203e+002 
3321875000  -3.681386e+001  -1.272934e+002 
3325000000  -3.735711e+001  -1.208166e+002 
3328125000  -3.673074e+001  -1.211377e+002 
3331250000  -3.549588e+001  -1.141073e+002 
3334375000  -3.280109e+001  -1.255126e+002 
3337500000  -3.291677e+001  -1.455369e+002 
3340625000  -3.439128e+001  -1.559513e+002 
3343750000  -3.630707e+001  -1.563791e+002 
3346875000  -3.645913e+001  -1.547346e+002 
3350000000  -3.579439e+001  -1.565879e+002 
3353125000  -3.572171e+001  -1.622588e+002 
3356250000  -3.549290e+001  -1.701599e+002 
3359375000  -3.620084e+001  -1.786078e+002 
3362500000  -3.741508e+001  1.766292e+002 
3365625000  -3.776068e+001  1.746875e+002 
3368750000  -3.848904e+001  1.718226e+002 
3371875000  -3.890110e+001  1.705867e+002 
3375000000  -4.021468e+001  1.679187e+002 
3378125000  -4.120213e+001  1.671271e+002 
3381250000  -4.264962e+001  1.751938e+002 
3384375000  -4.069392e+001  -1.650400e+002 
3387500000  -3.739564e+001  -1.789351e+002 
3390625000  -3.915842e+001  1.617308e+002 
3393750000  -4.015392e+001  1.632265e+002 
3396875000  -3.910985e+001  1.659101e+002 
3400000000  -3.838771e+001  1.569487e+002 
3403125000  -3.909461e+001  1.513949e+002 
3406250000  -3.965772e+001  1.512322e+002 
3409375000  -3.975399e+001  1.429102e+002 
3412500000  -4.030968e+001  1.416591e+002 
3415625000  -4.075037e+001  1.429226e+002 
3418750000  -4.094798e+001  1.449225e+002 
3421875000  -4.121532e+001  1.453120e+002 
3425000000  -4.017476e+001  1.468260e+002 
3428125000  -3.928865e+001  1.421394e+002 
3431250000  -3.915319e+001  1.353181e+002 
3434375000  -3.910314e+001  1.296908e+002 
3437500000  -3.963305e+001  1.267901e+002 
3440625000  -4.000040e+001  1.283910e+002 
3443750000  -3.867088e+001  1.284728e+002 
3446875000  -3.788632e+001  1.210392e+002 
3450000000  -3.761711e+001  1.108358e+002 
3453125000  -3.795015e+001  9.948384e+001 
3456250000  -3.893394e+001  9.371614e+001 
3459375000  -4.014828e+001  9.388818e+001 
3462500000  -3.975528e+001  9.486361e+001 
3465625000  -3.972511e+001  8.890822e+001 
3468750000  -4.015846e+001  8.519649e+001 
3471875000  -3.982405e+001  8.372682e+001 
3475000000  -3.959248e+001  7.784081e+001 
3478125000  -4.040236e+001  7.136492e+001 
3481250000  -4.121188e+001  6.899984e+001 
3484375000  -4.205214e+001  7.385802e+001 
3487500000  -4.110877e+001  7.224252e+001 
3490625000  -4.077491e+001  6.720866e+001 
3493750000  -4.121267e+001  6.030796e+001 
3496875000  -4.149985e+001  5.915354e+001 
3500000000  -4.252669e+001  6.112212e+001 
3503125000  -4.191094e+001  6.342749e+001 
3506250000  -4.042402e+001  5.783840e+001 
3509375000  -4.057613e+001  4.881155e+001 
3512500000  -4.134729e+001  3.971051e+001 
3515625000  -4.203362e+001  3.971448e+001 
3518750000  -4.225245e+001  3.915546e+001 
3521875000  -4.270140e+001  3.554042e+001 
3525000000  -4.342060e+001  3.129604e+001 
3528125000  -4.303137e+001  4.222858e+001 
3531250000  -4.174915e+001  3.929256e+001 
3534375000  -4.216630e+001  2.832331e+001 
3537500000  -4.238130e+001  2.413536e+001 
3540625000  -4.368424e+001  2.345032e+001 
3543750000  -4.407919e+001  2.854768e+001 
3546875000  -4.431232e+001  3.813222e+001 
3550000000  -4.134335e+001  3.840007e+001 
3553125000  -4.033932e+001  2.076718e+001 
3556250000  -4.179657e+001  1.427921e+001 
3559375000  -4.137406e+001  1.613144e+001 
3562500000  -4.036929e+001  6.359846e+000 
3565625000  -4.128626e+001  1.070605e-001 
3568750000  -4.130548e+001  2.879654e+000 
3571875000  -4.110208e+001  6.261778e-001 
3575000000  -4.076481e+001  -5.918798e+000 
3578125000  -4.116285e+001  -1.075155e+001 
3581250000  -4.141613e+001  -1.022652e+001 
3584375000  -4.030713e+001  -1.408377e+001 
3587500000  -3.981142e+001  -2.437222e+001 
3590625000  -4.042155e+001  -3.465633e+001 
3593750000  -4.164195e+001  -3.652144e+001 
3596875000  -4.150545e+001  -2.951921e+001 
3600000000  -4.023023e+001  -3.674826e+001 
3603125000  -4.080675e+001  -5.073267e+001 
3606250000  -4.134200e+001  -5.559895e+001 
3609375000  -4.186612e+001  -5.653517e+001 
3612500000  -4.267384e+001  -6.285247e+001 
3615625000  -4.296157e+001  -6.416174e+001 
3618750000  -4.360501e+001  -6.403733e+001 
3621875000  -4.354543e+001  -6.654873e+001 
3625000000  -4.428366e+001  -6.532465e+001 
3628125000  -4.414629e+001  -6.823267e+001 
3631250000  -4.401906e+001  -7.467957e+001 
3634375000  -4.542162e+001  -7.524776e+001 
3637500000  -4.554608e+001  -7.152263e+001 
3640625000  -4.478619e+001  -6.991805e+001 
3643750000  -4.445852e+001  -7.452099e+001 
3646875000  -4.474589e+001  -8.080657e+001 
3650000000  -4.575952e+001  -8.011125e+001 
3653125000  -4.508383e+001  -8.298071e+001 
3656250000  -4.584045e+001  -8.206524e+001 
3659375000  -4.605341e+001  -7.755484e+001 
3662500000  -4.444176e+001  -7.992682e+001 
3665625000  -4.504345e+001  -8.063418e+001 
3668750000  -4.374328e+001  -7.991553e+001 
3671875000  -4.272658e+001  -8.530451e+001 
3675000000  -4.312738e+001  -9.277415e+001 
3678125000  -4.330552e+001  -9.399789e+001 
3681250000  -4.328094e+001  -9.585083e+001 
3684375000  -4.283990e+001  -1.012026e+002 
3687500000  -4.308976e+001  -1.040955e+002 
3690625000  -4.302692e+001  -1.098644e+002 
3693750000  -4.411794e+001  -1.091532e+002 
3696875000  -4.401604e+001  -1.074196e+002 
3700000000  -4.270338e+001  -1.142107e+002 
3703125000  -4.323488e+001  -1.195674e+002 
3706250000  -4.413019e+001  -1.193683e+002 
3709375000  -4.343035e+001  -1.174960e+002 
3712500000  -4.230370e+001  -1.205702e+002 
3715625000  -4.160574e+001  -1.281990e+002 
3718750000  -4.124230e+001  -1.321128e+002 
3721875000  -4.116354e+001  -1.394801e+002 
3725000000  -4.144746e+001  -1.468041e+002 
3728125000  -4.191940e+001  -1.469268e+002 
3731250000  -4.153759e+001  -1.501317e+002 
3734375000  -4.130327e+001  -1.563162e+002 
3737500000  -4.178621e+001  -1.625160e+002 
3740625000  -4.320132e+001  -1.666034e+002 
3743750000  -4.290383e+001  -1.707671e+002 
3746875000  -4.321877e+001  -1.729394e+002 
3750000000  -4.399176e+001  -1.760783e+002 
3753125000  -4.407909e+001  -1.736120e+002 
3756250000  -4.438178e+001  -1.723502e+002 
3759375000  -4.443791e+001  -1.735246e+002 
3762500000  -4.404399e+001  -1.783005e+002 
3765625000  -4.452524e+001  -1.774511e+002 
3768750000  -4.455352e+001  -1.733801e+002 
3771875000  -4.286185e+001  -1.737059e+002 
3775000000  -4.301503e+001  1.763198e+002 
3778125000  -4.306432e+001  1.784329e+002 
3781250000  -4.288848e+001  1.769541e+002 
3784375000  -4.305217e+001  1.750468e+002 
3787500000  -4.203654e+001  1.705647e+002 
3790625000  -4.222227e+001  1.658020e+002 
3793750000  -4.248464e+001  1.661801e+002 
3796875000  -4.124744e+001  1.632506e+002 
3800000000  -3.970313e+001  1.627396e+002 
3803125000  -4.037197e+001  1.506407e+002 
3806250000  -4.092992e+001  1.508280e+002 
3809375000  -4.058326e+001  1.460497e+002 
3812500000  -4.007780e+001  1.403861e+002 
3815625000  -4.073484e+001  1.306035e+002 
3818750000  -4.155633e+001  1.305402e+002 
3821875000  -4.137618e+001  1.392706e+002 
3825000000  -3.947698e+001  1.402121e+002 
3828125000  -3.814711e+001  1.247137e+002 
3831250000  -3.877346e+001  1.104626e+002 
3834375000  -4.022633e+001  1.086833e+002 
3837500000  -4.126762e+001  1.118238e+002 
3840625000  -4.009850e+001  1.112330e+002 
3843750000  -3.904533e+001  9.878967e+001 
3846875000  -3.989309e+001  9.268608e+001 
3850000000  -4.120128e+001  9.840212e+001 
3853125000  -4.058993e+001  1.009147e+002 
3856250000  -3.994452e+001  9.034966e+001 
3859375000  -3.957664e+001  8.558095e+001 
3862500000  -3.923414e+001  8.067513e+001 
3865625000  -3.997934e+001  7.298353e+001 
3868750000  -3.982681e+001  7.187843e+001 
3871875000  -3.899091e+001  6.964002e+001 
3875000000  -3.954884e+001  5.896133e+001 
3878125000  -4.070356e+001  5.749261e+001 
3881250000  -4.060494e+001  5.999234e+001 
3884375000  -3.994182e+001  5.454955e+001 
3887500000  -4.049952e+001  5.007618e+001 
3890625000  -4.089928e+001  4.729190e+001 
3893750000  -4.112481e+001  4.661275e+001 
3896875000  -4.136812e+001  4.642808e+001 
3900000000  -4.156388e+001  4.585257e+001 
3903125000  -4.140635e+001  4.301787e+001 
3906250000  -4.058619e+001  4.133311e+001 
3909375000  -3.997403e+001  3.693035e+001 
3912500000  -4.035326e+001  2.810702e+001 
3915625000  -4.159467e+001  3.065420e+001 
3918750000  -4.112144e+001  3.038981e+001 
3921875000  -4.096247e+001  2.819456e+001 
3925000000  -3.992528e+001  2.584521e+001 
3928125000  -3.935909e+001  1.857564e+001 
3931250000  -3.940061e+001  1.458206e+001 
3934375000  -3.999674e+001  1.267830e+001 
3937500000  -4.013186e+001  1.361568e+001 
3940625000  -4.064788e+001  1.042643e+001 
3943750000  -3.933728e+001  1.051513e+001 
3946875000  -3.842315e+001  3.438472e+000 
3950000000  -3.918573e+001  -5.409133e+000 
3953125000  -3.988736e+001  -6.071903e+000 
3956250000  -3.926397e+001  -4.107283e+000 
3959375000  -3.775480e+001  -8.829768e+000 
3962500000  -3.739471e+001  -1.044933e+001 
3965625000  -3.723372e+001  -2.251980e+001 
3968750000  -3.831113e+001  -2.998000e+001 
3971875000  -3.844714e+001  -3.138890e+001 
3975000000  -3.792957e+001  -3.400812e+001 
3978125000  -3.790601e+001  -3.727469e+001 
3981250000  -3.772717e+001  -4.250134e+001 
3984375000  -3.792504e+001  -4.979761e+001 
3987500000  -3.875613e+001  -5.111084e+001 
3990625000  -3.881057e+001  -5.389865e+001 
3993750000  -3.909217e+001  -5.843272e+001 
3996875000  -3.908587e+001  -6.233261e+001 
4000000000  -3.925595e+001  -6.346537e+001 
4003125000  -3.948799e+001  -6.130314e+001 
4006250000  -3.820697e+001  -6.228602e+001 
4009375000  -3.728707e+001  -7.586292e+001 
4012500000  -3.859948e+001  -8.205540e+001 
4015625000  -4.008590e+001  -8.388219e+001 
4018750000  -3.995161e+001  -8.026878e+001 
4021875000  -3.912169e+001  -8.270552e+001 
4025000000  -3.886288e+001  -8.720235e+001 
4028125000  -3.873529e+001  -9.188755e+001 
4031250000  -3.929241e+001  -9.672493e+001 
4034375000  -3.979643e+001  -9.681544e+001 
4037500000  -3.939441e+001  -9.624767e+001 
4040625000  -3.912075e+001  -9.858826e+001 
4043750000  -3.948222e+001  -1.017585e+002 
4046875000  -3.895424e+001  -1.011333e+002 
4050000000  -3.846165e+001  -1.080844e+002 
4053125000  -3.893166e+001  -1.114740e+002 
4056250000  -3.928854e+001  -1.070698e+002 
4059375000  -3.791450e+001  -1.052389e+002 
4062500000  -3.656922e+001  -1.115852e+002 
4065625000  -3.665531e+001  -1.159242e+002 
4068750000  -3.655560e+001  -1.235184e+002 
4071875000  -3.567656e+001  -1.305199e+002 
4075000000  -3.601589e+001  -1.378091e+002 
4078125000  -3.685977e+001  -1.389876e+002 
4081250000  -3.610139e+001  -1.437315e+002 
4084375000  -3.569018e+001  -1.512224e+002 
4087500000  -3.609456e+001  -1.567119e+002 
4090625000  -3.688028e+001  -1.590340e+002 
4093750000  -3.663344e+001  -1.602234e+002 
4096875000  -3.630604e+001  -1.676941e+002 
4100000000  -3.701777e+001  -1.754677e+002 
4103125000  -3.773381e+001  -1.749052e+002 
4106250000  -3.768641e+001  -1.711747e+002 
4109375000  -3.667007e+001  -1.726179e+002 
4112500000  -3.623692e+001  1.796279e+002 
4115625000  -3.664234e+001  1.743440e+002 
4118750000  -3.674126e+001  1.699745e+002 
4121875000  -3.639466e+001  1.650039e+002 
4125000000  -3.691519e+001  1.589065e+002 
4128125000  -3.807326e+001  1.594995e+002 
4131250000  -3.774755e+001  1.661102e+002 
4134375000  -3.510635e+001  1.602032e+002 
4137500000  -3.512862e+001  1.403298e+002 
4140625000  -3.732775e+001  1.333985e+002 
4143750000  -3.897197e+001  1.370437e+002 
4146875000  -3.845282e+001  1.446168e+002 
4150000000  -3.747575e+001  1.393945e+002 
4153125000  -3.742867e+001  1.321928e+002 
4156250000  -3.853835e+001  1.292394e+002 
4159375000  -3.881518e+001  1.352448e+002 
4162500000  -3.760846e+001  1.388331e+002 
4165625000  -3.642751e+001  1.338399e+002 
4168750000  -3.611105e+001  1.257705e+002 
4171875000  -3.578325e+001  1.148689e+002 
4175000000  -3.664193e+001  1.106035e+002 
4178125000  -3.709828e+001  1.103227e+002 
4181250000  -3.696830e+001  1.089985e+002 
4184375000  -3.678957e+001  1.041340e+002 
4187500000  -3.680184e+001  1.012876e+002 
4190625000  -3.664942e+001  9.510091e+001 
4193750000  -3.758197e+001  9.094543e+001 
4196875000  -3.822173e+001  9.051237e+001 
4200000000  -3.898476e+001  9.270791e+001 
4203125000  -3.858353e+001  1.074193e+002 
4206250000  -3.517248e+001  1.060579e+002 
4209375000  -3.451804e+001  8.212333e+001 
4212500000  -3.624163e+001  7.516735e+001 
4215625000  -3.696983e+001  8.070049e+001 
4218750000  -3.549945e+001  8.571580e+001 
4221875000  -3.322693e+001  7.579811e+001 
4225000000  -3.472527e+001  6.304847e+001 
4228125000  -3.510049e+001  6.734480e+001 
4231250000  -3.359862e+001  6.084503e+001 
4234375000  -3.357244e+001  5.268990e+001 
4237500000  -3.310395e+001  4.810417e+001 
4240625000  -3.297650e+001  3.789502e+001 
4243750000  -3.407933e+001  2.937353e+001 
4246875000  -3.512507e+001  2.922612e+001 
4250000000  -3.488751e+001  3.078599e+001 
4253125000  -3.452226e+001  2.638638e+001 
4256250000  -3.475214e+001  2.179019e+001 
4259375000  -3.468483e+001  1.990825e+001 
4262500000  -3.474264e+001  1.392925e+001 
4265625000  -3.482191e+001  1.245765e+001 
4268750000  -3.392146e+001  8.884875e+000 
4271875000  -3.385822e+001  1.553076e+000 
4275000000  -3.339656e+001  -6.822633e+000 
4278125000  -3.426891e+001  -1.743539e+001 
4281250000  -3.583679e+001  -2.054767e+001 
4284375000  -3.573894e+001  -1.927146e+001 
4287500000  -3.685156e+001  -2.411523e+001 
4290625000  -3.801808e+001  -1.553216e+001 
4293750000  -3.593834e+001  -8.423989e+000 
4296875000  -3.485432e+001  -2.223272e+001 
4300000000  -3.594313e+001  -3.091659e+001 
4303125000  -3.714481e+001  -2.996060e+001 
4306250000  -3.642454e+001  -2.337152e+001 
4309375000  -3.503828e+001  -2.469222e+001 
4312500000  -3.483572e+001  -3.391220e+001 
4315625000  -3.493070e+001  -3.958358e+001 
4318750000  -3.544423e+001  -4.418082e+001 
4321875000  -3.533386e+001  -4.273379e+001 
4325000000  -3.484668e+001  -4.230163e+001 
4328125000  -3.422929e+001  -5.019446e+001 
4331250000  -3.408490e+001  -5.768059e+001 
4334375000  -3.430725e+001  -6.385207e+001 
4337500000  -3.529743e+001  -6.667942e+001 
4340625000  -3.570138e+001  -6.278102e+001 
4343750000  -3.477668e+001  -6.309109e+001 
4346875000  -3.444139e+001  -6.963869e+001 
4350000000  -3.436584e+001  -7.593594e+001 
4353125000  -3.448620e+001  -8.456205e+001 
4356250000  -3.621345e+001  -8.475073e+001 
4359375000  -3.627064e+001  -7.175424e+001 
4362500000  -3.321721e+001  -7.319951e+001 
4365625000  -3.203232e+001  -8.618847e+001 
4368750000  -3.259920e+001  -1.002525e+002 
4371875000  -3.389296e+001  -9.956837e+001 
4375000000  -3.342153e+001  -1.004786e+002 
4378125000  -3.266240e+001  -1.075256e+002 
4381250000  -3.297897e+001  -1.147609e+002 
4384375000  -3.282529e+001  -1.202783e+002 
4387500000  -3.352215e+001  -1.274447e+002 
4390625000  -3.449322e+001  -1.269179e+002 
4393750000  -3.380590e+001  -1.266781e+002 
4396875000  -3.328473e+001  -1.307642e+002 
4400000000  -3.267219e+001  -1.394744e+002 
4403125000  -3.347523e+001  -1.476347e+002 
4406250000  -3.426695e+001  -1.503566e+002 
4409375000  -3.445137e+001  -1.536607e+002 
4412500000  -3.571197e+001  -1.574649e+002 
4415625000  -3.574700e+001  -1.525303e+002 
