!Agilent Technologies,E8363B,MY43030201,A.06.04.32
!Agilent E8363B: A.06.04.32
!Date: Tuesday, November 11, 2014 21:07:19
!Correction: S21(Response(S21)) 
!S1P File: Measurement: S21:
# Hz S  dB   R 50
3000000000  -3.638243e+001  -5.109880e+001 
3003125000  -3.760442e+001  -5.806092e+001 
3006250000  -3.741420e+001  -5.987461e+001 
3009375000  -3.765145e+001  -5.431476e+001 
3012500000  -3.703199e+001  -5.706915e+001 
3015625000  -3.611860e+001  -6.424977e+001 
3018750000  -3.692410e+001  -6.568298e+001 
3021875000  -3.546737e+001  -6.494180e+001 
3025000000  -3.407227e+001  -6.843781e+001 
3028125000  -3.318489e+001  -7.487330e+001 
3031250000  -3.216910e+001  -8.646920e+001 
3034375000  -3.184459e+001  -9.966282e+001 
3037500000  -3.225148e+001  -1.119320e+002 
3040625000  -3.360000e+001  -1.166406e+002 
3043750000  -3.427069e+001  -1.212328e+002 
3046875000  -3.454656e+001  -1.281395e+002 
3050000000  -3.610320e+001  -1.338929e+002 
3053125000  -3.609324e+001  -1.277535e+002 
3056250000  -3.556784e+001  -1.240330e+002 
3059375000  -3.563900e+001  -1.260110e+002 
3062500000  -3.411599e+001  -1.290950e+002 
3065625000  -3.391663e+001  -1.349454e+002 
3068750000  -3.358120e+001  -1.418417e+002 
3071875000  -3.352257e+001  -1.450204e+002 
3075000000  -3.332212e+001  -1.482745e+002 
3078125000  -3.299794e+001  -1.522857e+002 
3081250000  -3.355141e+001  -1.565992e+002 
3084375000  -3.269698e+001  -1.601795e+002 
3087500000  -3.245732e+001  -1.642915e+002 
3090625000  -3.197515e+001  -1.746108e+002 
3093750000  -3.244527e+001  1.784969e+002 
3096875000  -3.349317e+001  1.721519e+002 
3100000000  -3.332885e+001  1.703628e+002 
3103125000  -3.355990e+001  1.710181e+002 
3106250000  -3.315899e+001  1.665967e+002 
3109375000  -3.328773e+001  1.637036e+002 
3112500000  -3.316195e+001  1.604407e+002 
3115625000  -3.288850e+001  1.558611e+002 
3118750000  -3.323520e+001  1.556334e+002 
3121875000  -3.234489e+001  1.460929e+002 
3125000000  -3.356246e+001  1.427552e+002 
3128125000  -3.445729e+001  1.498313e+002 
3131250000  -3.196305e+001  1.479480e+002 
3134375000  -3.071834e+001  1.322414e+002 
3137500000  -3.138979e+001  1.181370e+002 
3140625000  -3.282711e+001  1.149670e+002 
3143750000  -3.381105e+001  1.162829e+002 
3146875000  -3.332628e+001  1.176741e+002 
3150000000  -3.229832e+001  1.180583e+002 
3153125000  -3.231531e+001  1.092471e+002 
3156250000  -3.334689e+001  1.137739e+002 
3159375000  -3.153586e+001  1.148511e+002 
3162500000  -2.975789e+001  1.001926e+002 
3165625000  -3.076385e+001  8.846816e+001 
3168750000  -3.099636e+001  8.825983e+001 
3171875000  -3.018328e+001  8.285622e+001 
3175000000  -3.090925e+001  7.362759e+001 
3178125000  -3.071481e+001  7.460465e+001 
3181250000  -2.962887e+001  6.893210e+001 
3184375000  -2.888512e+001  5.653074e+001 
3187500000  -3.014706e+001  4.096422e+001 
3190625000  -3.272947e+001  3.289478e+001 
3193750000  -3.340017e+001  4.207025e+001 
3196875000  -3.290435e+001  4.618565e+001 
3200000000  -3.204375e+001  4.400319e+001 
3203125000  -3.124364e+001  3.718081e+001 
3206250000  -3.160613e+001  3.070157e+001 
3209375000  -3.110453e+001  2.453477e+001 
3212500000  -3.132303e+001  1.801246e+001 
3215625000  -3.145048e+001  1.431029e+001 
3218750000  -3.213853e+001  6.711606e+000 
3221875000  -3.301864e+001  1.547323e+000 
3225000000  -3.253022e+001  2.049299e-001 
3228125000  -3.304966e+001  -5.124819e+000 
3231250000  -3.361489e+001  -7.949972e+000 
3234375000  -3.331634e+001  -7.174228e+000 
3237500000  -3.330733e+001  -9.442571e+000 
3240625000  -3.294017e+001  -1.223085e+001 
3243750000  -3.258049e+001  -1.936711e+001 
3246875000  -3.298120e+001  -2.667732e+001 
3250000000  -3.334766e+001  -2.929844e+001 
3253125000  -3.347557e+001  -3.133694e+001 
3256250000  -3.319371e+001  -3.787513e+001 
3259375000  -3.339826e+001  -4.680695e+001 
3262500000  -3.455535e+001  -4.959385e+001 
3265625000  -3.522013e+001  -4.802004e+001 
3268750000  -3.510601e+001  -4.593836e+001 
3271875000  -3.468007e+001  -4.582520e+001 
3275000000  -3.363725e+001  -5.258913e+001 
3278125000  -3.420308e+001  -5.914168e+001 
3281250000  -3.424810e+001  -5.811190e+001 
3284375000  -3.380180e+001  -6.513600e+001 
3287500000  -3.410929e+001  -6.867321e+001 
3290625000  -3.430224e+001  -7.461454e+001 
3293750000  -3.404232e+001  -8.090041e+001 
3296875000  -3.518051e+001  -8.111610e+001 
3300000000  -3.484057e+001  -8.073737e+001 
3303125000  -3.361810e+001  -8.563074e+001 
3306250000  -3.350688e+001  -9.230680e+001 
3309375000  -3.319780e+001  -9.951669e+001 
3312500000  -3.323538e+001  -1.106359e+002 
3315625000  -3.432097e+001  -1.184745e+002 
3318750000  -3.580338e+001  -1.212025e+002 
3321875000  -3.676215e+001  -1.217496e+002 
3325000000  -3.723314e+001  -1.166525e+002 
3328125000  -3.690604e+001  -1.157705e+002 
3331250000  -3.575774e+001  -1.090386e+002 
3334375000  -3.286073e+001  -1.204253e+002 
3337500000  -3.308861e+001  -1.389750e+002 
3340625000  -3.440438e+001  -1.499279e+002 
3343750000  -3.644530e+001  -1.513867e+002 
3346875000  -3.667880e+001  -1.488071e+002 
3350000000  -3.598958e+001  -1.509780e+002 
3353125000  -3.597922e+001  -1.557607e+002 
3356250000  -3.557156e+001  -1.644933e+002 
3359375000  -3.623129e+001  -1.719498e+002 
3362500000  -3.743417e+001  -1.781407e+002 
3365625000  -3.786673e+001  -1.787515e+002 
3368750000  -3.879291e+001  1.786057e+002 
3371875000  -3.893731e+001  1.754231e+002 
3375000000  -4.021668e+001  1.726512e+002 
3378125000  -4.116294e+001  1.726783e+002 
3381250000  -4.245855e+001  -1.784651e+002 
3384375000  -4.097537e+001  -1.567478e+002 
3387500000  -3.746637e+001  -1.745625e+002 
3390625000  -3.932232e+001  1.673270e+002 
3393750000  -4.037143e+001  1.709253e+002 
3396875000  -3.913586e+001  1.710422e+002 
3400000000  -3.847126e+001  1.636564e+002 
3403125000  -3.926362e+001  1.577833e+002 
3406250000  -3.958191e+001  1.569100e+002 
3409375000  -3.972766e+001  1.504641e+002 
3412500000  -4.045313e+001  1.479132e+002 
3415625000  -4.096555e+001  1.481468e+002 
3418750000  -4.104290e+001  1.479095e+002 
3421875000  -4.130862e+001  1.514134e+002 
3425000000  -4.012057e+001  1.522836e+002 
3428125000  -3.934081e+001  1.484260e+002 
3431250000  -3.906902e+001  1.421828e+002 
3434375000  -3.919339e+001  1.367234e+002 
3437500000  -3.972155e+001  1.318806e+002 
3440625000  -3.998502e+001  1.342701e+002 
3443750000  -3.883745e+001  1.343539e+002 
3446875000  -3.802885e+001  1.261841e+002 
3450000000  -3.765602e+001  1.160999e+002 
3453125000  -3.793784e+001  1.059794e+002 
3456250000  -3.910546e+001  1.009524e+002 
3459375000  -3.996246e+001  1.002094e+002 
3462500000  -3.991949e+001  1.010069e+002 
3465625000  -3.972985e+001  9.546823e+001 
3468750000  -3.985225e+001  9.115321e+001 
3471875000  -4.000590e+001  9.062242e+001 
3475000000  -3.974458e+001  8.425154e+001 
3478125000  -4.029182e+001  7.722449e+001 
3481250000  -4.137830e+001  7.497900e+001 
3484375000  -4.220623e+001  8.011920e+001 
3487500000  -4.145079e+001  7.901872e+001 
3490625000  -4.098563e+001  7.393410e+001 
3493750000  -4.138198e+001  6.767381e+001 
3496875000  -4.169047e+001  6.655541e+001 
3500000000  -4.239170e+001  6.832116e+001 
3503125000  -4.230352e+001  6.968092e+001 
3506250000  -4.049529e+001  6.547719e+001 
3509375000  -4.037049e+001  5.636026e+001 
3512500000  -4.104305e+001  4.527193e+001 
3515625000  -4.184425e+001  4.503091e+001 
3518750000  -4.270657e+001  4.462126e+001 
3521875000  -4.280284e+001  4.184689e+001 
3525000000  -4.351621e+001  3.981829e+001 
3528125000  -4.346421e+001  4.468068e+001 
3531250000  -4.216003e+001  4.478226e+001 
3534375000  -4.223125e+001  3.577186e+001 
3537500000  -4.235826e+001  2.950658e+001 
3540625000  -4.363232e+001  2.843299e+001 
3543750000  -4.406052e+001  3.243774e+001 
3546875000  -4.410349e+001  4.376798e+001 
3550000000  -4.150067e+001  4.373499e+001 
3553125000  -4.002300e+001  2.878061e+001 
3556250000  -4.186139e+001  2.168957e+001 
3559375000  -4.143749e+001  2.229115e+001 
3562500000  -4.031525e+001  1.316822e+001 
3565625000  -4.126958e+001  6.433683e+000 
3568750000  -4.117806e+001  8.714359e+000 
3571875000  -4.109056e+001  5.910955e+000 
3575000000  -4.070065e+001  7.335097e-001 
3578125000  -4.111817e+001  -4.901145e+000 
3581250000  -4.144851e+001  -6.885032e+000 
3584375000  -4.046324e+001  -8.485118e+000 
3587500000  -3.998668e+001  -1.793238e+001 
3590625000  -4.063018e+001  -2.887275e+001 
3593750000  -4.153992e+001  -2.900078e+001 
3596875000  -4.159938e+001  -2.277306e+001 
3600000000  -4.029934e+001  -3.118653e+001 
3603125000  -4.083842e+001  -4.456965e+001 
3606250000  -4.163310e+001  -4.699962e+001 
3609375000  -4.199966e+001  -5.004033e+001 
3612500000  -4.262885e+001  -5.318400e+001 
3615625000  -4.309025e+001  -5.684318e+001 
3618750000  -4.371975e+001  -5.643209e+001 
3621875000  -4.381256e+001  -6.070720e+001 
3625000000  -4.444669e+001  -6.076035e+001 
3628125000  -4.415442e+001  -6.316584e+001 
3631250000  -4.402863e+001  -6.885572e+001 
3634375000  -4.534839e+001  -6.707175e+001 
3637500000  -4.547526e+001  -6.352807e+001 
3640625000  -4.482008e+001  -6.239075e+001 
3643750000  -4.451619e+001  -6.519246e+001 
3646875000  -4.491695e+001  -7.250401e+001 
3650000000  -4.573338e+001  -7.198348e+001 
3653125000  -4.544891e+001  -7.270136e+001 
3656250000  -4.632993e+001  -7.334916e+001 
3659375000  -4.593018e+001  -6.831011e+001 
3662500000  -4.522178e+001  -7.321313e+001 
3665625000  -4.493192e+001  -7.359302e+001 
3668750000  -4.387524e+001  -7.238094e+001 
3671875000  -4.257905e+001  -7.866178e+001 
3675000000  -4.348249e+001  -8.678254e+001 
3678125000  -4.319009e+001  -8.726047e+001 
3681250000  -4.296048e+001  -8.809998e+001 
3684375000  -4.304827e+001  -9.625175e+001 
3687500000  -4.303878e+001  -9.881024e+001 
3690625000  -4.310152e+001  -1.036822e+002 
3693750000  -4.436123e+001  -1.036615e+002 
3696875000  -4.338445e+001  -1.043159e+002 
3700000000  -4.284225e+001  -1.063193e+002 
3703125000  -4.289466e+001  -1.130992e+002 
3706250000  -4.369316e+001  -1.097415e+002 
3709375000  -4.342817e+001  -1.095426e+002 
3712500000  -4.250146e+001  -1.121555e+002 
3715625000  -4.161911e+001  -1.203009e+002 
3718750000  -4.158903e+001  -1.265230e+002 
3721875000  -4.112980e+001  -1.342324e+002 
3725000000  -4.158295e+001  -1.380962e+002 
3728125000  -4.219734e+001  -1.395584e+002 
3731250000  -4.126978e+001  -1.421781e+002 
3734375000  -4.118531e+001  -1.476366e+002 
3737500000  -4.212086e+001  -1.563049e+002 
3740625000  -4.296244e+001  -1.600286e+002 
3743750000  -4.315047e+001  -1.622839e+002 
3746875000  -4.358297e+001  -1.657291e+002 
3750000000  -4.429610e+001  -1.671370e+002 
3753125000  -4.414721e+001  -1.665082e+002 
3756250000  -4.432534e+001  -1.667495e+002 
3759375000  -4.447092e+001  -1.635694e+002 
3762500000  -4.433202e+001  -1.680123e+002 
3765625000  -4.512830e+001  -1.698983e+002 
3768750000  -4.489984e+001  -1.654284e+002 
3771875000  -4.302021e+001  -1.667064e+002 
3775000000  -4.313612e+001  -1.726684e+002 
3778125000  -4.304140e+001  -1.743620e+002 
3781250000  -4.301201e+001  -1.769310e+002 
3784375000  -4.264558e+001  -1.775201e+002 
3787500000  -4.180132e+001  -1.797965e+002 
3790625000  -4.231685e+001  1.720558e+002 
3793750000  -4.252176e+001  1.751405e+002 
3796875000  -4.133057e+001  1.707476e+002 
3800000000  -3.981001e+001  1.686651e+002 
3803125000  -4.027354e+001  1.582121e+002 
3806250000  -4.089946e+001  1.566745e+002 
3809375000  -4.046478e+001  1.548278e+002 
3812500000  -3.979442e+001  1.484097e+002 
3815625000  -4.061174e+001  1.369631e+002 
3818750000  -4.177702e+001  1.377599e+002 
3821875000  -4.112690e+001  1.468942e+002 
3825000000  -3.938662e+001  1.469734e+002 
3828125000  -3.809992e+001  1.316968e+002 
3831250000  -3.860518e+001  1.181981e+002 
3834375000  -4.021804e+001  1.176621e+002 
3837500000  -4.090928e+001  1.201800e+002 
3840625000  -3.974429e+001  1.188886e+002 
3843750000  -3.869306e+001  1.065196e+002 
3846875000  -3.965437e+001  9.713741e+001 
3850000000  -4.114771e+001  1.036237e+002 
3853125000  -4.011383e+001  1.058539e+002 
3856250000  -4.030270e+001  1.009585e+002 
3859375000  -3.949117e+001  9.163435e+001 
3862500000  -3.935339e+001  8.536491e+001 
3865625000  -3.957268e+001  8.264634e+001 
3868750000  -3.980023e+001  8.097473e+001 
3871875000  -3.931885e+001  7.551951e+001 
3875000000  -3.957843e+001  6.686604e+001 
3878125000  -4.048336e+001  6.500909e+001 
3881250000  -4.060298e+001  6.617894e+001 
3884375000  -4.017681e+001  6.199942e+001 
3887500000  -4.037612e+001  5.817074e+001 
3890625000  -4.086425e+001  5.507133e+001 
3893750000  -4.088250e+001  5.277679e+001 
3896875000  -4.159709e+001  5.447725e+001 
3900000000  -4.139905e+001  5.282962e+001 
3903125000  -4.091345e+001  5.015590e+001 
3906250000  -4.073424e+001  4.681058e+001 
3909375000  -3.999893e+001  4.563835e+001 
3912500000  -4.007175e+001  3.657779e+001 
3915625000  -4.120304e+001  3.959351e+001 
3918750000  -4.117759e+001  4.104763e+001 
3921875000  -4.092233e+001  3.653300e+001 
3925000000  -3.978507e+001  3.310256e+001 
3928125000  -3.929845e+001  2.664433e+001 
3931250000  -3.960110e+001  2.174352e+001 
3934375000  -3.980387e+001  2.155194e+001 
3937500000  -3.973037e+001  1.953444e+001 
3940625000  -4.052563e+001  1.678220e+001 
3943750000  -3.947073e+001  1.800474e+001 
3946875000  -3.817370e+001  1.053547e+001 
3950000000  -3.893840e+001  2.527019e+000 
3953125000  -3.996364e+001  2.818685e+000 
3956250000  -3.906451e+001  4.193005e+000 
3959375000  -3.774058e+001  1.174340e+000 
3962500000  -3.729565e+001  -5.633204e+000 
3965625000  -3.697618e+001  -1.545197e+001 
3968750000  -3.818573e+001  -2.174643e+001 
3971875000  -3.839529e+001  -2.541460e+001 
3975000000  -3.772267e+001  -2.867435e+001 
3978125000  -3.778916e+001  -3.120227e+001 
3981250000  -3.780673e+001  -3.621272e+001 
3984375000  -3.794169e+001  -4.193491e+001 
3987500000  -3.862402e+001  -4.436862e+001 
3990625000  -3.854174e+001  -4.682371e+001 
3993750000  -3.874528e+001  -5.177096e+001 
3996875000  -3.896987e+001  -5.512014e+001 
4000000000  -3.924139e+001  -5.600998e+001 
4003125000  -3.962707e+001  -5.473415e+001 
4006250000  -3.835602e+001  -5.519976e+001 
4009375000  -3.743009e+001  -6.885249e+001 
4012500000  -3.847229e+001  -7.528934e+001 
4015625000  -4.012404e+001  -7.507338e+001 
4018750000  -3.976905e+001  -7.317025e+001 
4021875000  -3.916567e+001  -7.631133e+001 
4025000000  -3.900589e+001  -7.967891e+001 
4028125000  -3.885531e+001  -8.487434e+001 
4031250000  -3.947243e+001  -8.737958e+001 
4034375000  -3.966323e+001  -8.933579e+001 
4037500000  -3.921011e+001  -8.889320e+001 
4040625000  -3.913584e+001  -9.111609e+001 
4043750000  -3.958361e+001  -9.368492e+001 
4046875000  -3.892483e+001  -9.297250e+001 
4050000000  -3.839251e+001  -1.002916e+002 
4053125000  -3.903040e+001  -1.034640e+002 
4056250000  -3.923933e+001  -9.993668e+001 
4059375000  -3.803012e+001  -9.774136e+001 
4062500000  -3.664859e+001  -1.033823e+002 
4065625000  -3.671808e+001  -1.087036e+002 
4068750000  -3.636465e+001  -1.154356e+002 
4071875000  -3.577559e+001  -1.224682e+002 
4075000000  -3.596860e+001  -1.301812e+002 
4078125000  -3.649802e+001  -1.312803e+002 
4081250000  -3.612442e+001  -1.358994e+002 
4084375000  -3.567544e+001  -1.427306e+002 
4087500000  -3.621125e+001  -1.504070e+002 
4090625000  -3.682677e+001  -1.529456e+002 
4093750000  -3.648856e+001  -1.526145e+002 
4096875000  -3.613892e+001  -1.600259e+002 
4100000000  -3.692003e+001  -1.679037e+002 
4103125000  -3.769372e+001  -1.668389e+002 
4106250000  -3.768842e+001  -1.633225e+002 
4109375000  -3.664816e+001  -1.648203e+002 
4112500000  -3.606813e+001  -1.740314e+002 
4115625000  -3.667317e+001  -1.791662e+002 
4118750000  -3.699025e+001  1.776347e+002 
4121875000  -3.625419e+001  1.727610e+002 
4125000000  -3.667682e+001  1.671584e+002 
4128125000  -3.785211e+001  1.668871e+002 
4131250000  -3.773358e+001  1.736211e+002 
4134375000  -3.516424e+001  1.664098e+002 
4137500000  -3.504937e+001  1.493722e+002 
4140625000  -3.733124e+001  1.400673e+002 
4143750000  -3.883033e+001  1.437261e+002 
4146875000  -3.829646e+001  1.498652e+002 
4150000000  -3.765609e+001  1.462572e+002 
4153125000  -3.752095e+001  1.395765e+002 
4156250000  -3.858052e+001  1.363131e+002 
4159375000  -3.876207e+001  1.414024e+002 
4162500000  -3.766424e+001  1.448781e+002 
4165625000  -3.662195e+001  1.410410e+002 
4168750000  -3.588995e+001  1.309666e+002 
4171875000  -3.588052e+001  1.210283e+002 
4175000000  -3.653082e+001  1.178761e+002 
4178125000  -3.726838e+001  1.176720e+002 
4181250000  -3.683197e+001  1.163009e+002 
4184375000  -3.684576e+001  1.123121e+002 
4187500000  -3.682902e+001  1.088353e+002 
4190625000  -3.650935e+001  1.016126e+002 
4193750000  -3.747895e+001  9.960909e+001 
4196875000  -3.825067e+001  9.698082e+001 
4200000000  -3.912216e+001  9.987947e+001 
4203125000  -3.872635e+001  1.141399e+002 
4206250000  -3.533056e+001  1.134261e+002 
4209375000  -3.421064e+001  9.057706e+001 
4212500000  -3.618936e+001  8.238119e+001 
4215625000  -3.706470e+001  8.814832e+001 
4218750000  -3.563651e+001  9.287293e+001 
4221875000  -3.339199e+001  8.257220e+001 
4225000000  -3.480114e+001  7.034320e+001 
4228125000  -3.504334e+001  7.487469e+001 
4231250000  -3.342540e+001  6.945564e+001 
4234375000  -3.344182e+001  6.061201e+001 
4237500000  -3.302187e+001  5.571609e+001 
4240625000  -3.298611e+001  4.473392e+001 
4243750000  -3.412016e+001  3.634362e+001 
4246875000  -3.495415e+001  3.664182e+001 
4250000000  -3.489091e+001  3.811538e+001 
4253125000  -3.450409e+001  3.498958e+001 
4256250000  -3.484388e+001  2.969336e+001 
4259375000  -3.460633e+001  2.561945e+001 
4262500000  -3.479025e+001  2.282996e+001 
4265625000  -3.491559e+001  2.115007e+001 
4268750000  -3.393668e+001  1.628978e+001 
4271875000  -3.380827e+001  7.550362e+000 
4275000000  -3.339917e+001  1.401577e+000 
4278125000  -3.406936e+001  -1.168053e+001 
4281250000  -3.607174e+001  -1.194716e+001 
4284375000  -3.583022e+001  -1.216647e+001 
4287500000  -3.672203e+001  -1.664104e+001 
4290625000  -3.805610e+001  -1.009230e+001 
4293750000  -3.614046e+001  -5.403813e+000 
4296875000  -3.488279e+001  -1.374911e+001 
4300000000  -3.595502e+001  -2.312806e+001 
4303125000  -3.723462e+001  -2.146651e+001 
4306250000  -3.614598e+001  -1.648827e+001 
4309375000  -3.499334e+001  -1.784502e+001 
4312500000  -3.496864e+001  -2.720076e+001 
4315625000  -3.509801e+001  -3.234593e+001 
4318750000  -3.553235e+001  -3.574494e+001 
4321875000  -3.559192e+001  -3.526537e+001 
4325000000  -3.497497e+001  -3.583250e+001 
4328125000  -3.429394e+001  -4.081563e+001 
4331250000  -3.412422e+001  -5.086326e+001 
4334375000  -3.469302e+001  -5.577568e+001 
4337500000  -3.532685e+001  -5.848531e+001 
4340625000  -3.594841e+001  -5.464790e+001 
4343750000  -3.494689e+001  -5.535054e+001 
4346875000  -3.453995e+001  -6.235650e+001 
4350000000  -3.450537e+001  -6.814130e+001 
4353125000  -3.451745e+001  -7.571226e+001 
4356250000  -3.628225e+001  -7.702911e+001 
4359375000  -3.663789e+001  -6.448949e+001 
4362500000  -3.342746e+001  -6.475815e+001 
4365625000  -3.201279e+001  -7.964891e+001 
4368750000  -3.271856e+001  -9.168812e+001 
4371875000  -3.409801e+001  -9.248741e+001 
4375000000  -3.338579e+001  -9.291663e+001 
4378125000  -3.279800e+001  -9.951626e+001 
4381250000  -3.301767e+001  -1.072331e+002 
4384375000  -3.283036e+001  -1.127610e+002 
4387500000  -3.359818e+001  -1.208217e+002 
4390625000  -3.468620e+001  -1.205594e+002 
4393750000  -3.383797e+001  -1.190929e+002 
4396875000  -3.335515e+001  -1.229439e+002 
4400000000  -3.288056e+001  -1.320952e+002 
4403125000  -3.357647e+001  -1.412294e+002 
4406250000  -3.430372e+001  -1.428787e+002 
4409375000  -3.460888e+001  -1.456195e+002 
4412500000  -3.577060e+001  -1.498559e+002 
4415625000  -3.616136e+001  -1.461121e+002 
