!Agilent Technologies,E8363B,MY43030201,A.06.04.32
!Agilent E8363B: A.06.04.32
!Date: Tuesday, November 11, 2014 21:00:29
!Correction: S21(Response(S21)) 
!S1P File: Measurement: S21:
# Hz S  dB   R 50
3000000000  -3.637264e+001  -4.268576e+001 
3003125000  -3.743139e+001  -4.889796e+001 
3006250000  -3.730519e+001  -5.097285e+001 
3009375000  -3.764626e+001  -4.688830e+001 
3012500000  -3.686865e+001  -4.904546e+001 
3015625000  -3.599688e+001  -5.598921e+001 
3018750000  -3.662750e+001  -5.721286e+001 
3021875000  -3.533776e+001  -5.692062e+001 
3025000000  -3.389717e+001  -5.999701e+001 
3028125000  -3.305611e+001  -6.602607e+001 
3031250000  -3.200524e+001  -7.742368e+001 
3034375000  -3.161604e+001  -9.141280e+001 
3037500000  -3.200577e+001  -1.035359e+002 
3040625000  -3.331994e+001  -1.080445e+002 
3043750000  -3.409771e+001  -1.136271e+002 
3046875000  -3.409872e+001  -1.196518e+002 
3050000000  -3.584863e+001  -1.263287e+002 
3053125000  -3.589987e+001  -1.210229e+002 
3056250000  -3.530101e+001  -1.174182e+002 
3059375000  -3.557760e+001  -1.186550e+002 
3062500000  -3.396392e+001  -1.212170e+002 
3065625000  -3.373871e+001  -1.264656e+002 
3068750000  -3.344478e+001  -1.343011e+002 
3071875000  -3.335664e+001  -1.367997e+002 
3075000000  -3.326411e+001  -1.413880e+002 
3078125000  -3.292284e+001  -1.449620e+002 
3081250000  -3.342048e+001  -1.488081e+002 
3084375000  -3.262176e+001  -1.525773e+002 
3087500000  -3.234895e+001  -1.563149e+002 
3090625000  -3.194362e+001  -1.663004e+002 
3093750000  -3.231600e+001  -1.739908e+002 
3096875000  -3.343441e+001  1.799555e+002 
3100000000  -3.338032e+001  1.782478e+002 
3103125000  -3.367566e+001  1.783788e+002 
3106250000  -3.311607e+001  1.745432e+002 
3109375000  -3.324675e+001  1.707147e+002 
3112500000  -3.325560e+001  1.683703e+002 
3115625000  -3.297123e+001  1.638799e+002 
3118750000  -3.323143e+001  1.635758e+002 
3121875000  -3.230968e+001  1.546189e+002 
3125000000  -3.349323e+001  1.503670e+002 
3128125000  -3.454230e+001  1.577709e+002 
3131250000  -3.211952e+001  1.554858e+002 
3134375000  -3.078625e+001  1.408152e+002 
3137500000  -3.133351e+001  1.260462e+002 
3140625000  -3.287555e+001  1.226062e+002 
3143750000  -3.394819e+001  1.250893e+002 
3146875000  -3.347486e+001  1.258808e+002 
3150000000  -3.237669e+001  1.268255e+002 
3153125000  -3.231240e+001  1.176070e+002 
3156250000  -3.337521e+001  1.214550e+002 
3159375000  -3.174294e+001  1.238761e+002 
3162500000  -2.973484e+001  1.091603e+002 
3165625000  -3.072359e+001  9.674796e+001 
3168750000  -3.109052e+001  9.725779e+001 
3171875000  -3.019753e+001  9.164468e+001 
3175000000  -3.090805e+001  8.268864e+001 
3178125000  -3.073056e+001  8.381927e+001 
3181250000  -2.958844e+001  7.835533e+001 
3184375000  -2.883068e+001  6.543622e+001 
3187500000  -3.002639e+001  4.977853e+001 
3190625000  -3.277849e+001  4.207120e+001 
3193750000  -3.337772e+001  5.032320e+001 
3196875000  -3.302135e+001  5.537112e+001 
3200000000  -3.213858e+001  5.258248e+001 
3203125000  -3.126055e+001  4.583475e+001 
3206250000  -3.159808e+001  3.999558e+001 
3209375000  -3.110150e+001  3.393865e+001 
3212500000  -3.125748e+001  2.624338e+001 
3215625000  -3.133093e+001  2.197633e+001 
3218750000  -3.218612e+001  1.537819e+001 
3221875000  -3.309705e+001  9.630882e+000 
3225000000  -3.263236e+001  8.305004e+000 
3228125000  -3.302269e+001  3.263996e+000 
3231250000  -3.369103e+001  3.283911e-001 
3234375000  -3.341790e+001  3.070213e-001 
3237500000  -3.338935e+001  -1.688209e+000 
3240625000  -3.313735e+001  -4.252919e+000 
3243750000  -3.260002e+001  -1.098307e+001 
3246875000  -3.303281e+001  -1.805634e+001 
3250000000  -3.350727e+001  -2.099314e+001 
3253125000  -3.358601e+001  -2.306437e+001 
3256250000  -3.331675e+001  -3.039486e+001 
3259375000  -3.353300e+001  -3.811916e+001 
3262500000  -3.477415e+001  -4.205133e+001 
3265625000  -3.538688e+001  -3.955169e+001 
3268750000  -3.527359e+001  -3.672929e+001 
3271875000  -3.492807e+001  -3.703877e+001 
3275000000  -3.380977e+001  -4.365996e+001 
3278125000  -3.433432e+001  -5.103267e+001 
3281250000  -3.454507e+001  -4.912696e+001 
3284375000  -3.404801e+001  -5.579290e+001 
3287500000  -3.424118e+001  -6.012978e+001 
3290625000  -3.458369e+001  -6.550711e+001 
3293750000  -3.429173e+001  -7.215479e+001 
3296875000  -3.535722e+001  -7.260057e+001 
3300000000  -3.511081e+001  -7.151545e+001 
3303125000  -3.393182e+001  -7.639882e+001 
3306250000  -3.371241e+001  -8.387195e+001 
3309375000  -3.339367e+001  -8.903246e+001 
3312500000  -3.345386e+001  -9.990698e+001 
3315625000  -3.450646e+001  -1.084762e+002 
3318750000  -3.583083e+001  -1.114129e+002 
3321875000  -3.698398e+001  -1.116064e+002 
3325000000  -3.744825e+001  -1.066926e+002 
3328125000  -3.718921e+001  -1.064377e+002 
3331250000  -3.588323e+001  -1.001769e+002 
3334375000  -3.317741e+001  -1.096184e+002 
3337500000  -3.332983e+001  -1.282718e+002 
3340625000  -3.461003e+001  -1.398099e+002 
3343750000  -3.663897e+001  -1.408533e+002 
3346875000  -3.675543e+001  -1.390189e+002 
3350000000  -3.609196e+001  -1.404689e+002 
3353125000  -3.615854e+001  -1.456362e+002 
3356250000  -3.562564e+001  -1.533669e+002 
3359375000  -3.633470e+001  -1.622575e+002 
3362500000  -3.762873e+001  -1.686395e+002 
3365625000  -3.810205e+001  -1.696789e+002 
3368750000  -3.877555e+001  -1.716033e+002 
3371875000  -3.892528e+001  -1.736702e+002 
3375000000  -4.032714e+001  -1.757675e+002 
3378125000  -4.127379e+001  -1.773562e+002 
3381250000  -4.261557e+001  -1.712574e+002 
3384375000  -4.132777e+001  -1.489089e+002 
3387500000  -3.768939e+001  -1.653692e+002 
3390625000  -3.922892e+001  1.786825e+002 
3393750000  -4.052157e+001  -1.794161e+002 
3396875000  -3.938233e+001  -1.768822e+002 
3400000000  -3.870089e+001  1.731421e+002 
3403125000  -3.946186e+001  1.677387e+002 
3406250000  -3.989664e+001  1.682823e+002 
3409375000  -3.999024e+001  1.599119e+002 
3412500000  -4.042549e+001  1.591402e+002 
3415625000  -4.109220e+001  1.589099e+002 
3418750000  -4.108339e+001  1.602951e+002 
3421875000  -4.127151e+001  1.618933e+002 
3425000000  -4.043766e+001  1.629848e+002 
3428125000  -3.944298e+001  1.588890e+002 
3431250000  -3.916990e+001  1.522588e+002 
3434375000  -3.923859e+001  1.463765e+002 
3437500000  -3.986207e+001  1.429681e+002 
3440625000  -3.983588e+001  1.439227e+002 
3443750000  -3.895748e+001  1.455068e+002 
3446875000  -3.804539e+001  1.375932e+002 
3450000000  -3.758749e+001  1.274814e+002 
3453125000  -3.792446e+001  1.177717e+002 
3456250000  -3.899442e+001  1.099684e+002 
3459375000  -3.988211e+001  1.100825e+002 
3462500000  -3.961189e+001  1.113725e+002 
3465625000  -3.973926e+001  1.067603e+002 
3468750000  -4.006710e+001  1.020774e+002 
3471875000  -3.991454e+001  1.005384e+002 
3475000000  -3.944396e+001  9.581921e+001 
3478125000  -4.016536e+001  8.767429e+001 
3481250000  -4.093687e+001  8.461800e+001 
3484375000  -4.213820e+001  8.873174e+001 
3487500000  -4.128792e+001  8.843745e+001 
3490625000  -4.058420e+001  8.421083e+001 
3493750000  -4.105343e+001  7.575343e+001 
3496875000  -4.170299e+001  7.401666e+001 
3500000000  -4.246326e+001  7.504266e+001 
3503125000  -4.162749e+001  7.845940e+001 
3506250000  -4.037626e+001  7.225222e+001 
3509375000  -4.046998e+001  6.226395e+001 
3512500000  -4.113635e+001  5.314518e+001 
3515625000  -4.175297e+001  5.230252e+001 
3518750000  -4.253472e+001  5.350031e+001 
3521875000  -4.254261e+001  4.872875e+001 
3525000000  -4.354158e+001  4.816143e+001 
3528125000  -4.325135e+001  5.369498e+001 
3531250000  -4.240249e+001  5.195469e+001 
3534375000  -4.229759e+001  4.291930e+001 
3537500000  -4.293101e+001  3.596956e+001 
3540625000  -4.391069e+001  3.689478e+001 
3543750000  -4.446667e+001  3.999764e+001 
3546875000  -4.474155e+001  5.094667e+001 
3550000000  -4.186574e+001  5.253647e+001 
3553125000  -4.068565e+001  3.563964e+001 
3556250000  -4.224636e+001  3.023924e+001 
3559375000  -4.197166e+001  3.155630e+001 
3562500000  -4.085331e+001  2.142535e+001 
3565625000  -4.147502e+001  1.377505e+001 
3568750000  -4.199570e+001  1.775667e+001 
3571875000  -4.159850e+001  1.912735e+001 
3575000000  -4.155216e+001  1.035195e+001 
3578125000  -4.162950e+001  5.036496e+000 
3581250000  -4.187351e+001  4.698708e+000 
3584375000  -4.090646e+001  1.127394e+000 
3587500000  -4.030301e+001  -6.007168e+000 
3590625000  -4.087025e+001  -1.705897e+001 
3593750000  -4.229755e+001  -2.088861e+001 
3596875000  -4.204127e+001  -1.216481e+001 
3600000000  -4.053256e+001  -1.868924e+001 
3603125000  -4.089961e+001  -3.372934e+001 
3606250000  -4.181185e+001  -3.849060e+001 
3609375000  -4.222677e+001  -3.972918e+001 
3612500000  -4.278054e+001  -4.241039e+001 
3615625000  -4.313504e+001  -4.692580e+001 
3618750000  -4.381960e+001  -4.797400e+001 
3621875000  -4.397406e+001  -5.175521e+001 
3625000000  -4.458569e+001  -5.500271e+001 
3628125000  -4.473151e+001  -5.436227e+001 
3631250000  -4.432229e+001  -5.718723e+001 
3634375000  -4.602278e+001  -6.119729e+001 
3637500000  -4.620945e+001  -5.585862e+001 
3640625000  -4.539415e+001  -5.425253e+001 
3643750000  -4.491770e+001  -5.653242e+001 
3646875000  -4.540991e+001  -6.734068e+001 
3650000000  -4.663647e+001  -6.627724e+001 
3653125000  -4.671660e+001  -6.639486e+001 
3656250000  -4.705958e+001  -6.447021e+001 
3659375000  -4.714108e+001  -5.883242e+001 
3662500000  -4.599618e+001  -6.143932e+001 
3665625000  -4.572685e+001  -5.992004e+001 
3668750000  -4.516898e+001  -5.980124e+001 
3671875000  -4.430003e+001  -6.559370e+001 
3675000000  -4.418577e+001  -7.220297e+001 
3678125000  -4.451476e+001  -7.449412e+001 
3681250000  -4.420166e+001  -7.536683e+001 
3684375000  -4.417347e+001  -7.942480e+001 
3687500000  -4.405212e+001  -8.258309e+001 
3690625000  -4.397960e+001  -8.866105e+001 
3693750000  -4.526028e+001  -8.780743e+001 
3696875000  -4.459511e+001  -8.602956e+001 
3700000000  -4.385021e+001  -9.255704e+001 
3703125000  -4.379136e+001  -9.779199e+001 
3706250000  -4.473966e+001  -9.363631e+001 
3709375000  -4.422969e+001  -9.422560e+001 
3712500000  -4.339436e+001  -9.675896e+001 
3715625000  -4.243520e+001  -1.059731e+002 
3718750000  -4.190183e+001  -1.113206e+002 
3721875000  -4.183901e+001  -1.166006e+002 
3725000000  -4.190426e+001  -1.223796e+002 
3728125000  -4.239209e+001  -1.227856e+002 
3731250000  -4.194818e+001  -1.248771e+002 
3734375000  -4.159415e+001  -1.332464e+002 
3737500000  -4.243061e+001  -1.385930e+002 
3740625000  -4.347293e+001  -1.436892e+002 
3743750000  -4.336100e+001  -1.461628e+002 
3746875000  -4.365544e+001  -1.489163e+002 
3750000000  -4.446584e+001  -1.504617e+002 
3753125000  -4.439310e+001  -1.497544e+002 
3756250000  -4.432094e+001  -1.488720e+002 
3759375000  -4.396714e+001  -1.483854e+002 
3762500000  -4.399984e+001  -1.519869e+002 
3765625000  -4.456710e+001  -1.519399e+002 
3768750000  -4.447859e+001  -1.508434e+002 
3771875000  -4.317146e+001  -1.498513e+002 
3775000000  -4.288332e+001  -1.568266e+002 
3778125000  -4.324113e+001  -1.597317e+002 
3781250000  -4.274079e+001  -1.625515e+002 
3784375000  -4.261977e+001  -1.607568e+002 
3787500000  -4.189133e+001  -1.637526e+002 
3790625000  -4.221275e+001  -1.715256e+002 
3793750000  -4.237694e+001  -1.710658e+002 
3796875000  -4.117771e+001  -1.730222e+002 
3800000000  -3.986504e+001  -1.776821e+002 
3803125000  -4.049847e+001  1.741714e+002 
3806250000  -4.092800e+001  1.719373e+002 
3809375000  -4.060940e+001  1.691264e+002 
3812500000  -3.976347e+001  1.641737e+002 
3815625000  -4.041705e+001  1.548822e+002 
3818750000  -4.151678e+001  1.535981e+002 
3821875000  -4.142432e+001  1.594818e+002 
3825000000  -3.950286e+001  1.631601e+002 
3828125000  -3.814354e+001  1.476539e+002 
3831250000  -3.853630e+001  1.340043e+002 
3834375000  -4.015808e+001  1.317697e+002 
3837500000  -4.097939e+001  1.354200e+002 
3840625000  -3.983449e+001  1.311996e+002 
3843750000  -3.888244e+001  1.207217e+002 
3846875000  -3.963556e+001  1.143318e+002 
3850000000  -4.085098e+001  1.183228e+002 
3853125000  -3.994260e+001  1.220649e+002 
3856250000  -4.035429e+001  1.133200e+002 
3859375000  -3.950909e+001  1.092610e+002 
3862500000  -3.919812e+001  1.026423e+002 
3865625000  -3.920639e+001  9.681471e+001 
3868750000  -3.919991e+001  9.551175e+001 
3871875000  -3.880386e+001  9.126066e+001 
3875000000  -3.896175e+001  8.299588e+001 
3878125000  -4.000756e+001  8.102618e+001 
3881250000  -4.027020e+001  8.208823e+001 
3884375000  -3.989398e+001  7.661218e+001 
3887500000  -3.984409e+001  7.177626e+001 
3890625000  -4.049522e+001  6.902119e+001 
3893750000  -4.065174e+001  6.659491e+001 
3896875000  -4.101603e+001  6.663311e+001 
3900000000  -4.089904e+001  6.343491e+001 
3903125000  -4.062685e+001  6.348824e+001 
3906250000  -4.032556e+001  6.346453e+001 
3909375000  -3.973639e+001  5.757133e+001 
3912500000  -3.953396e+001  4.871524e+001 
3915625000  -4.099894e+001  5.129023e+001 
3918750000  -4.078667e+001  5.239967e+001 
3921875000  -4.024383e+001  4.734544e+001 
3925000000  -3.966177e+001  4.505472e+001 
3928125000  -3.912829e+001  4.004696e+001 
3931250000  -3.961168e+001  3.497834e+001 
3934375000  -3.974276e+001  3.434320e+001 
3937500000  -3.973438e+001  3.074970e+001 
3940625000  -4.019601e+001  3.072737e+001 
3943750000  -3.941900e+001  3.173364e+001 
3946875000  -3.817578e+001  2.557203e+001 
3950000000  -3.873705e+001  1.332247e+001 
3953125000  -3.987276e+001  1.583650e+001 
3956250000  -3.908086e+001  1.834347e+001 
3959375000  -3.751138e+001  1.311258e+001 
3962500000  -3.723777e+001  8.450453e+000 
3965625000  -3.718604e+001  -4.229565e-001 
3968750000  -3.806831e+001  -8.186006e+000 
3971875000  -3.838498e+001  -1.124198e+001 
3975000000  -3.761620e+001  -1.352882e+001 
3978125000  -3.783499e+001  -1.724087e+001 
3981250000  -3.781746e+001  -2.110855e+001 
3984375000  -3.764355e+001  -2.771656e+001 
3987500000  -3.830962e+001  -3.089612e+001 
3990625000  -3.833270e+001  -3.143014e+001 
3993750000  -3.866943e+001  -3.623476e+001 
3996875000  -3.871807e+001  -4.009744e+001 
4000000000  -3.887220e+001  -4.014246e+001 
4003125000  -3.930808e+001  -3.997928e+001 
4006250000  -3.816532e+001  -4.096693e+001 
4009375000  -3.685648e+001  -5.354746e+001 
4012500000  -3.805903e+001  -6.178153e+001 
4015625000  -3.924688e+001  -6.193574e+001 
4018750000  -3.972119e+001  -6.017449e+001 
4021875000  -3.859970e+001  -6.295510e+001 
4025000000  -3.853551e+001  -6.769696e+001 
4028125000  -3.838712e+001  -7.148724e+001 
4031250000  -3.903745e+001  -7.637580e+001 
4034375000  -3.910537e+001  -7.712160e+001 
4037500000  -3.873965e+001  -7.525673e+001 
4040625000  -3.864040e+001  -8.003377e+001 
4043750000  -3.901888e+001  -8.048444e+001 
4046875000  -3.867431e+001  -8.211894e+001 
4050000000  -3.801752e+001  -8.853509e+001 
4053125000  -3.878220e+001  -9.067786e+001 
4056250000  -3.918514e+001  -8.681966e+001 
4059375000  -3.791770e+001  -8.561174e+001 
4062500000  -3.665679e+001  -9.230191e+001 
4065625000  -3.648696e+001  -9.779901e+001 
4068750000  -3.618562e+001  -1.038189e+002 
4071875000  -3.565061e+001  -1.105929e+002 
4075000000  -3.576370e+001  -1.194526e+002 
4078125000  -3.652644e+001  -1.194140e+002 
4081250000  -3.605739e+001  -1.246546e+002 
4084375000  -3.557085e+001  -1.322085e+002 
4087500000  -3.594022e+001  -1.383885e+002 
4090625000  -3.670418e+001  -1.410307e+002 
4093750000  -3.638263e+001  -1.409227e+002 
4096875000  -3.617525e+001  -1.475343e+002 
4100000000  -3.698350e+001  -1.542535e+002 
4103125000  -3.765296e+001  -1.548345e+002 
4106250000  -3.763423e+001  -1.501951e+002 
4109375000  -3.663551e+001  -1.522991e+002 
4112500000  -3.633138e+001  -1.599739e+002 
4115625000  -3.641334e+001  -1.647553e+002 
4118750000  -3.653971e+001  -1.693278e+002 
4121875000  -3.619816e+001  -1.739360e+002 
4125000000  -3.672812e+001  -1.799516e+002 
4128125000  -3.779238e+001  1.793845e+002 
4131250000  -3.736157e+001  -1.732639e+002 
4134375000  -3.505342e+001  -1.784305e+002 
4137500000  -3.501091e+001  1.628305e+002 
4140625000  -3.701627e+001  1.535398e+002 
4143750000  -3.856118e+001  1.579789e+002 
4146875000  -3.817180e+001  1.635435e+002 
4150000000  -3.722616e+001  1.600407e+002 
4153125000  -3.716059e+001  1.529679e+002 
4156250000  -3.804807e+001  1.500208e+002 
4159375000  -3.835155e+001  1.535236e+002 
4162500000  -3.737882e+001  1.596750e+002 
4165625000  -3.633688e+001  1.526829e+002 
4168750000  -3.564553e+001  1.449184e+002 
4171875000  -3.562918e+001  1.354904e+002 
4175000000  -3.628597e+001  1.299514e+002 
4178125000  -3.695575e+001  1.294727e+002 
4181250000  -3.671777e+001  1.275493e+002 
4184375000  -3.661319e+001  1.237709e+002 
4187500000  -3.656958e+001  1.213970e+002 
4190625000  -3.655399e+001  1.148989e+002 
4193750000  -3.725510e+001  1.113857e+002 
4196875000  -3.811574e+001  1.104057e+002 
4200000000  -3.876707e+001  1.120120e+002 
4203125000  -3.872699e+001  1.253867e+002 
4206250000  -3.540716e+001  1.242413e+002 
4209375000  -3.417136e+001  1.043023e+002 
4212500000  -3.599775e+001  9.405801e+001 
4215625000  -3.704037e+001  1.007755e+002 
4218750000  -3.556306e+001  1.051462e+002 
4221875000  -3.337463e+001  9.488087e+001 
4225000000  -3.481755e+001  8.343718e+001 
4228125000  -3.527988e+001  8.538998e+001 
4231250000  -3.371571e+001  8.107961e+001 
4234375000  -3.367126e+001  7.306016e+001 
4237500000  -3.308897e+001  6.867355e+001 
4240625000  -3.321936e+001  5.840009e+001 
4243750000  -3.409314e+001  5.061194e+001 
4246875000  -3.495166e+001  4.860081e+001 
4250000000  -3.503573e+001  5.180800e+001 
4253125000  -3.449759e+001  4.810149e+001 
4256250000  -3.491090e+001  4.231380e+001 
4259375000  -3.443532e+001  3.946822e+001 
4262500000  -3.475381e+001  3.671661e+001 
4265625000  -3.467017e+001  3.457014e+001 
4268750000  -3.410735e+001  3.023413e+001 
4271875000  -3.381566e+001  2.308684e+001 
4275000000  -3.329227e+001  1.491249e+001 
4278125000  -3.413255e+001  4.064773e+000 
4281250000  -3.585191e+001  1.523001e+000 
4284375000  -3.554826e+001  1.891603e+000 
4287500000  -3.674320e+001  -3.371351e+000 
4290625000  -3.795092e+001  6.185742e+000 
4293750000  -3.587531e+001  1.061570e+001 
4296875000  -3.460543e+001  -6.464358e-001 
4300000000  -3.566871e+001  -9.534803e+000 
4303125000  -3.676494e+001  -8.589300e+000 
4306250000  -3.618414e+001  -2.761003e+000 
4309375000  -3.486791e+001  -4.805771e+000 
4312500000  -3.470282e+001  -1.319776e+001 
4315625000  -3.482509e+001  -1.913163e+001 
4318750000  -3.524187e+001  -2.350480e+001 
4321875000  -3.534661e+001  -2.247796e+001 
4325000000  -3.464121e+001  -2.245857e+001 
4328125000  -3.392879e+001  -2.859451e+001 
4331250000  -3.386635e+001  -3.756413e+001 
4334375000  -3.429836e+001  -4.235433e+001 
4337500000  -3.506803e+001  -4.599831e+001 
4340625000  -3.558042e+001  -4.317711e+001 
4343750000  -3.481804e+001  -4.358779e+001 
4346875000  -3.425228e+001  -4.912902e+001 
4350000000  -3.442612e+001  -5.493451e+001 
4353125000  -3.429833e+001  -6.494043e+001 
4356250000  -3.582122e+001  -6.757145e+001 
4359375000  -3.657700e+001  -5.372211e+001 
4362500000  -3.342908e+001  -5.277518e+001 
4365625000  -3.207135e+001  -6.614037e+001 
4368750000  -3.276199e+001  -7.896291e+001 
4371875000  -3.387529e+001  -7.920013e+001 
4375000000  -3.343905e+001  -8.002055e+001 
4378125000  -3.270107e+001  -8.648109e+001 
4381250000  -3.296017e+001  -9.347471e+001 
4384375000  -3.273238e+001  -9.905785e+001 
4387500000  -3.358264e+001  -1.068378e+002 
4390625000  -3.444192e+001  -1.062692e+002 
4393750000  -3.376715e+001  -1.053220e+002 
4396875000  -3.325866e+001  -1.089396e+002 
4400000000  -3.280162e+001  -1.175751e+002 
4403125000  -3.338007e+001  -1.261382e+002 
4406250000  -3.430247e+001  -1.283267e+002 
4409375000  -3.431102e+001  -1.320698e+002 
4412500000  -3.561679e+001  -1.352474e+002 
4415625000  -3.588996e+001  -1.310909e+002 
