!Agilent Technologies,E8363B,MY43030201,A.06.04.32
!Agilent E8363B: A.06.04.32
!Date: Tuesday, November 11, 2014 21:04:53
!Correction: S21(Response(S21)) 
!S1P File: Measurement: S21:
# Hz S  dB   R 50
3000000000  -3.618267e+001  -5.043180e+001 
3003125000  -3.740626e+001  -5.637104e+001 
3006250000  -3.734179e+001  -5.945062e+001 
3009375000  -3.749710e+001  -5.460067e+001 
3012500000  -3.686954e+001  -5.654089e+001 
3015625000  -3.591138e+001  -6.319273e+001 
3018750000  -3.684373e+001  -6.531416e+001 
3021875000  -3.542277e+001  -6.407826e+001 
3025000000  -3.404620e+001  -6.751510e+001 
3028125000  -3.316656e+001  -7.302729e+001 
3031250000  -3.216072e+001  -8.487067e+001 
3034375000  -3.179469e+001  -9.864915e+001 
3037500000  -3.225076e+001  -1.102129e+002 
3040625000  -3.362936e+001  -1.150336e+002 
3043750000  -3.434000e+001  -1.200706e+002 
3046875000  -3.445835e+001  -1.256624e+002 
3050000000  -3.610435e+001  -1.326283e+002 
3053125000  -3.618954e+001  -1.253427e+002 
3056250000  -3.554858e+001  -1.230535e+002 
3059375000  -3.571071e+001  -1.233369e+002 
3062500000  -3.409010e+001  -1.265420e+002 
3065625000  -3.387593e+001  -1.322447e+002 
3068750000  -3.357439e+001  -1.388955e+002 
3071875000  -3.342926e+001  -1.417502e+002 
3075000000  -3.334763e+001  -1.453768e+002 
3078125000  -3.300104e+001  -1.493127e+002 
3081250000  -3.347764e+001  -1.542974e+002 
3084375000  -3.261408e+001  -1.573826e+002 
3087500000  -3.241439e+001  -1.612461e+002 
3090625000  -3.192122e+001  -1.713584e+002 
3093750000  -3.237344e+001  -1.788727e+002 
3096875000  -3.344272e+001  1.750862e+002 
3100000000  -3.326373e+001  1.728404e+002 
3103125000  -3.361376e+001  1.735159e+002 
3106250000  -3.310057e+001  1.694621e+002 
3109375000  -3.318362e+001  1.654680e+002 
3112500000  -3.309570e+001  1.633326e+002 
3115625000  -3.280840e+001  1.573911e+002 
3118750000  -3.309012e+001  1.581514e+002 
3121875000  -3.227375e+001  1.486925e+002 
3125000000  -3.348499e+001  1.448247e+002 
3128125000  -3.437622e+001  1.518663e+002 
3131250000  -3.194266e+001  1.498970e+002 
3134375000  -3.071311e+001  1.344606e+002 
3137500000  -3.122816e+001  1.199253e+002 
3140625000  -3.288934e+001  1.173421e+002 
3143750000  -3.383089e+001  1.186054e+002 
3146875000  -3.327917e+001  1.197180e+002 
3150000000  -3.226405e+001  1.201987e+002 
3153125000  -3.230498e+001  1.107084e+002 
3156250000  -3.337975e+001  1.157118e+002 
3159375000  -3.162327e+001  1.167868e+002 
3162500000  -2.976597e+001  1.023511e+002 
3165625000  -3.072374e+001  8.966460e+001 
3168750000  -3.110078e+001  8.966885e+001 
3171875000  -3.024397e+001  8.439853e+001 
3175000000  -3.106956e+001  7.591077e+001 
3178125000  -3.078234e+001  7.704230e+001 
3181250000  -2.966329e+001  7.122785e+001 
3184375000  -2.900261e+001  5.838772e+001 
3187500000  -3.018752e+001  4.364424e+001 
3190625000  -3.283776e+001  3.484825e+001 
3193750000  -3.353832e+001  4.356128e+001 
3196875000  -3.319686e+001  4.849343e+001 
3200000000  -3.223621e+001  4.627679e+001 
3203125000  -3.148531e+001  3.994410e+001 
3206250000  -3.180209e+001  3.321178e+001 
3209375000  -3.133035e+001  2.764473e+001 
3212500000  -3.154575e+001  2.035612e+001 
3215625000  -3.161928e+001  1.619753e+001 
3218750000  -3.236008e+001  9.938941e+000 
3221875000  -3.318509e+001  4.643600e+000 
3225000000  -3.288028e+001  3.544383e+000 
3228125000  -3.323171e+001  -2.288126e+000 
3231250000  -3.388226e+001  -4.299779e+000 
3234375000  -3.355960e+001  -3.475347e+000 
3237500000  -3.356313e+001  -6.379537e+000 
3240625000  -3.318763e+001  -7.914816e+000 
3243750000  -3.275673e+001  -1.603024e+001 
3246875000  -3.316523e+001  -2.279693e+001 
3250000000  -3.354367e+001  -2.525512e+001 
3253125000  -3.363001e+001  -2.788130e+001 
3256250000  -3.328672e+001  -3.369841e+001 
3259375000  -3.354456e+001  -4.331090e+001 
3262500000  -3.470284e+001  -4.643494e+001 
3265625000  -3.526058e+001  -4.409840e+001 
3268750000  -3.511199e+001  -4.209670e+001 
3271875000  -3.475301e+001  -4.185348e+001 
3275000000  -3.375086e+001  -4.886832e+001 
3278125000  -3.414882e+001  -5.624952e+001 
3281250000  -3.438326e+001  -5.467509e+001 
3284375000  -3.394415e+001  -6.212339e+001 
3287500000  -3.405764e+001  -6.608054e+001 
3290625000  -3.429656e+001  -7.098270e+001 
3293750000  -3.413192e+001  -7.748907e+001 
3296875000  -3.517427e+001  -7.845525e+001 
3300000000  -3.486475e+001  -7.748751e+001 
3303125000  -3.378548e+001  -8.287767e+001 
3306250000  -3.354953e+001  -9.087690e+001 
3309375000  -3.319240e+001  -9.660043e+001 
3312500000  -3.328569e+001  -1.074314e+002 
3315625000  -3.426523e+001  -1.162670e+002 
3318750000  -3.570765e+001  -1.176243e+002 
3321875000  -3.691681e+001  -1.193175e+002 
3325000000  -3.759278e+001  -1.138180e+002 
3328125000  -3.695016e+001  -1.139868e+002 
3331250000  -3.586703e+001  -1.067078e+002 
3334375000  -3.325593e+001  -1.171801e+002 
3337500000  -3.326106e+001  -1.364119e+002 
3340625000  -3.459475e+001  -1.480267e+002 
3343750000  -3.684358e+001  -1.476201e+002 
3346875000  -3.690219e+001  -1.460983e+002 
3350000000  -3.627665e+001  -1.487056e+002 
3353125000  -3.623378e+001  -1.532818e+002 
3356250000  -3.595263e+001  -1.613134e+002 
3359375000  -3.686067e+001  -1.693774e+002 
3362500000  -3.803440e+001  -1.746913e+002 
3365625000  -3.836170e+001  -1.767585e+002 
3368750000  -3.915788e+001  -1.785715e+002 
3371875000  -3.942518e+001  1.780475e+002 
3375000000  -4.072329e+001  1.760724e+002 
3378125000  -4.142717e+001  1.772780e+002 
3381250000  -4.317438e+001  -1.737674e+002 
3384375000  -4.152801e+001  -1.540314e+002 
3387500000  -3.794181e+001  -1.689856e+002 
3390625000  -3.939182e+001  1.715788e+002 
3393750000  -4.083942e+001  1.758732e+002 
3396875000  -3.982736e+001  1.774399e+002 
3400000000  -3.885847e+001  1.687340e+002 
3403125000  -3.977907e+001  1.630703e+002 
3406250000  -3.978792e+001  1.627654e+002 
3409375000  -4.007697e+001  1.555747e+002 
3412500000  -4.049766e+001  1.535687e+002 
3415625000  -4.113990e+001  1.546267e+002 
3418750000  -4.125381e+001  1.535968e+002 
3421875000  -4.157000e+001  1.593637e+002 
3425000000  -4.028897e+001  1.579797e+002 
3428125000  -3.954148e+001  1.524569e+002 
3431250000  -3.928907e+001  1.455241e+002 
3434375000  -3.928231e+001  1.400888e+002 
3437500000  -3.981178e+001  1.372679e+002 
3440625000  -3.996315e+001  1.378106e+002 
3443750000  -3.890402e+001  1.376919e+002 
3446875000  -3.814843e+001  1.307733e+002 
3450000000  -3.788585e+001  1.201914e+002 
3453125000  -3.808992e+001  1.107259e+002 
3456250000  -3.938701e+001  1.033113e+002 
3459375000  -4.028827e+001  1.032895e+002 
3462500000  -4.012210e+001  1.050624e+002 
3465625000  -4.038179e+001  9.991515e+001 
3468750000  -4.054612e+001  9.577831e+001 
3471875000  -4.074390e+001  9.355955e+001 
3475000000  -4.024427e+001  8.997783e+001 
3478125000  -4.082486e+001  8.377364e+001 
3481250000  -4.180124e+001  7.980376e+001 
3484375000  -4.274537e+001  8.633226e+001 
3487500000  -4.199772e+001  8.415497e+001 
3490625000  -4.146873e+001  8.075369e+001 
3493750000  -4.189113e+001  7.612462e+001 
3496875000  -4.255055e+001  7.259464e+001 
3500000000  -4.300676e+001  7.556350e+001 
3503125000  -4.240764e+001  7.811407e+001 
3506250000  -4.102670e+001  7.399923e+001 
3509375000  -4.105013e+001  6.591676e+001 
3512500000  -4.113124e+001  5.742538e+001 
3515625000  -4.199646e+001  5.602405e+001 
3518750000  -4.268580e+001  5.691783e+001 
3521875000  -4.239676e+001  5.303999e+001 
3525000000  -4.306954e+001  5.079037e+001 
3528125000  -4.288939e+001  5.887375e+001 
3531250000  -4.146096e+001  5.527869e+001 
3534375000  -4.147854e+001  4.465049e+001 
3537500000  -4.188022e+001  4.055462e+001 
3540625000  -4.274788e+001  3.650375e+001 
3543750000  -4.307519e+001  4.204222e+001 
3546875000  -4.327870e+001  4.868724e+001 
3550000000  -4.046183e+001  5.070623e+001 
3553125000  -3.912418e+001  3.316905e+001 
3556250000  -4.062095e+001  2.400513e+001 
3559375000  -4.039722e+001  2.649330e+001 
3562500000  -3.956940e+001  1.567499e+001 
3565625000  -4.016568e+001  8.221243e+000 
3568750000  -4.043832e+001  9.756076e+000 
3571875000  -4.045793e+001  9.070786e+000 
3575000000  -4.020681e+001  8.397974e-001 
3578125000  -4.081949e+001  -4.846568e+000 
3581250000  -4.096733e+001  -5.575882e+000 
3584375000  -4.021245e+001  -8.456673e+000 
3587500000  -3.996609e+001  -1.940896e+001 
3590625000  -4.051890e+001  -2.912425e+001 
3593750000  -4.163412e+001  -3.010199e+001 
3596875000  -4.186383e+001  -2.410882e+001 
3600000000  -4.072785e+001  -3.175838e+001 
3603125000  -4.148735e+001  -4.593672e+001 
3606250000  -4.232026e+001  -4.860686e+001 
3609375000  -4.291170e+001  -4.875919e+001 
3612500000  -4.360060e+001  -5.166055e+001 
3615625000  -4.402065e+001  -5.376683e+001 
3618750000  -4.505315e+001  -5.398171e+001 
3621875000  -4.521698e+001  -5.427812e+001 
3625000000  -4.560113e+001  -5.286613e+001 
3628125000  -4.584510e+001  -5.424641e+001 
3631250000  -4.540449e+001  -5.445804e+001 
3634375000  -4.659546e+001  -5.508552e+001 
3637500000  -4.665529e+001  -4.873089e+001 
3640625000  -4.490337e+001  -4.785162e+001 
3643750000  -4.460782e+001  -5.060726e+001 
3646875000  -4.471312e+001  -5.576797e+001 
3650000000  -4.514657e+001  -5.682695e+001 
3653125000  -4.455632e+001  -5.937838e+001 
3656250000  -4.448330e+001  -5.899093e+001 
3659375000  -4.443773e+001  -5.810897e+001 
3662500000  -4.365749e+001  -6.044075e+001 
3665625000  -4.349472e+001  -6.369216e+001 
3668750000  -4.206636e+001  -6.258503e+001 
3671875000  -4.136757e+001  -7.118242e+001 
3675000000  -4.130416e+001  -8.012380e+001 
3678125000  -4.181670e+001  -8.387132e+001 
3681250000  -4.163759e+001  -8.753216e+001 
3684375000  -4.164813e+001  -9.182192e+001 
3687500000  -4.168228e+001  -9.702232e+001 
3690625000  -4.180984e+001  -1.016486e+002 
3693750000  -4.264977e+001  -1.026025e+002 
3696875000  -4.255151e+001  -1.015699e+002 
3700000000  -4.190158e+001  -1.085735e+002 
3703125000  -4.197334e+001  -1.134259e+002 
3706250000  -4.317766e+001  -1.140962e+002 
3709375000  -4.305710e+001  -1.146941e+002 
3712500000  -4.196181e+001  -1.166259e+002 
3715625000  -4.101970e+001  -1.229226e+002 
3718750000  -4.120110e+001  -1.297837e+002 
3721875000  -4.112545e+001  -1.374224e+002 
3725000000  -4.218301e+001  -1.405113e+002 
3728125000  -4.247478e+001  -1.431330e+002 
3731250000  -4.196627e+001  -1.443075e+002 
3734375000  -4.202097e+001  -1.522864e+002 
3737500000  -4.303025e+001  -1.562415e+002 
3740625000  -4.411799e+001  -1.597847e+002 
3743750000  -4.411648e+001  -1.621798e+002 
3746875000  -4.410009e+001  -1.639293e+002 
3750000000  -4.516497e+001  -1.622427e+002 
3753125000  -4.520732e+001  -1.601151e+002 
3756250000  -4.535719e+001  -1.578937e+002 
3759375000  -4.546122e+001  -1.560344e+002 
3762500000  -4.440430e+001  -1.594454e+002 
3765625000  -4.536263e+001  -1.602703e+002 
3768750000  -4.480630e+001  -1.557653e+002 
3771875000  -4.325694e+001  -1.583194e+002 
3775000000  -4.258485e+001  -1.629393e+002 
3778125000  -4.283000e+001  -1.639751e+002 
3781250000  -4.231729e+001  -1.680876e+002 
3784375000  -4.214772e+001  -1.689375e+002 
3787500000  -4.125905e+001  -1.715987e+002 
3790625000  -4.149937e+001  -1.788482e+002 
3793750000  -4.143351e+001  1.789740e+002 
3796875000  -4.072798e+001  1.772783e+002 
3800000000  -3.878360e+001  1.734638e+002 
3803125000  -3.964710e+001  1.627776e+002 
3806250000  -4.038662e+001  1.599437e+002 
3809375000  -3.986343e+001  1.557253e+002 
3812500000  -3.919049e+001  1.494925e+002 
3815625000  -4.012361e+001  1.399836e+002 
3818750000  -4.065264e+001  1.397695e+002 
3821875000  -4.108753e+001  1.478236e+002 
3825000000  -3.904642e+001  1.491516e+002 
3828125000  -3.743562e+001  1.332284e+002 
3831250000  -3.858686e+001  1.187639e+002 
3834375000  -3.995341e+001  1.156817e+002 
3837500000  -4.079640e+001  1.179989e+002 
3840625000  -3.962062e+001  1.187061e+002 
3843750000  -3.853162e+001  1.048783e+002 
3846875000  -3.975400e+001  9.841550e+001 
3850000000  -4.119697e+001  1.029603e+002 
3853125000  -4.056545e+001  1.052426e+002 
3856250000  -4.029574e+001  9.958817e+001 
3859375000  -3.968759e+001  9.435333e+001 
3862500000  -3.955355e+001  8.536294e+001 
3865625000  -4.028141e+001  8.078858e+001 
3868750000  -4.014433e+001  8.118286e+001 
3871875000  -3.963229e+001  7.728376e+001 
3875000000  -3.999871e+001  6.947171e+001 
3878125000  -4.124459e+001  6.594627e+001 
3881250000  -4.132369e+001  6.738322e+001 
3884375000  -4.079833e+001  6.553040e+001 
3887500000  -4.094521e+001  6.277027e+001 
3890625000  -4.151226e+001  6.154065e+001 
3893750000  -4.179075e+001  5.779669e+001 
3896875000  -4.223508e+001  6.040044e+001 
3900000000  -4.236696e+001  6.031690e+001 
3903125000  -4.141441e+001  5.641864e+001 
3906250000  -4.094905e+001  5.574394e+001 
3909375000  -4.028713e+001  5.345806e+001 
3912500000  -4.029138e+001  4.497124e+001 
3915625000  -4.136553e+001  4.657872e+001 
3918750000  -4.105158e+001  4.876835e+001 
3921875000  -4.077254e+001  4.263380e+001 
3925000000  -3.963346e+001  4.036166e+001 
3928125000  -3.870586e+001  3.431343e+001 
3931250000  -3.929282e+001  2.972946e+001 
3934375000  -3.952093e+001  2.755827e+001 
3937500000  -3.949472e+001  2.548472e+001 
3940625000  -3.978148e+001  2.459591e+001 
3943750000  -3.892801e+001  2.393979e+001 
3946875000  -3.764326e+001  1.524532e+001 
3950000000  -3.846371e+001  7.246490e+000 
3953125000  -3.967061e+001  6.573380e+000 
3956250000  -3.848073e+001  8.355823e+000 
3959375000  -3.720996e+001  3.649899e+000 
3962500000  -3.695226e+001  -2.063862e+000 
3965625000  -3.653585e+001  -1.291057e+001 
3968750000  -3.771626e+001  -2.190785e+001 
3971875000  -3.797001e+001  -2.326655e+001 
3975000000  -3.744978e+001  -2.631174e+001 
3978125000  -3.762525e+001  -2.933672e+001 
3981250000  -3.741058e+001  -3.538972e+001 
3984375000  -3.790663e+001  -4.346763e+001 
3987500000  -3.852589e+001  -4.541822e+001 
3990625000  -3.861403e+001  -4.753660e+001 
3993750000  -3.919935e+001  -5.195536e+001 
3996875000  -3.917731e+001  -5.612064e+001 
4000000000  -3.942172e+001  -5.651825e+001 
4003125000  -4.030154e+001  -5.663197e+001 
4006250000  -3.898188e+001  -5.512644e+001 
4009375000  -3.798640e+001  -6.938567e+001 
4012500000  -3.916127e+001  -7.440523e+001 
4015625000  -4.088729e+001  -7.312337e+001 
4018750000  -4.091687e+001  -7.228745e+001 
4021875000  -4.017864e+001  -7.255942e+001 
4025000000  -3.985674e+001  -7.696625e+001 
4028125000  -3.982190e+001  -7.917399e+001 
4031250000  -4.025102e+001  -8.373756e+001 
4034375000  -4.051167e+001  -8.187414e+001 
4037500000  -4.005298e+001  -7.984242e+001 
4040625000  -4.002302e+001  -8.441890e+001 
4043750000  -4.008467e+001  -8.354276e+001 
4046875000  -3.952069e+001  -8.332548e+001 
4050000000  -3.875354e+001  -9.010172e+001 
4053125000  -3.928907e+001  -9.192591e+001 
4056250000  -3.987002e+001  -9.046826e+001 
4059375000  -3.813363e+001  -9.034551e+001 
4062500000  -3.671613e+001  -9.440451e+001 
4065625000  -3.652791e+001  -9.915198e+001 
4068750000  -3.618037e+001  -1.060795e+002 
4071875000  -3.554182e+001  -1.148680e+002 
4075000000  -3.568112e+001  -1.221774e+002 
4078125000  -3.612095e+001  -1.249608e+002 
4081250000  -3.559249e+001  -1.275250e+002 
4084375000  -3.495832e+001  -1.368637e+002 
4087500000  -3.558163e+001  -1.443746e+002 
4090625000  -3.616746e+001  -1.461824e+002 
4093750000  -3.603236e+001  -1.485726e+002 
4096875000  -3.560381e+001  -1.551050e+002 
4100000000  -3.633164e+001  -1.643136e+002 
4103125000  -3.719917e+001  -1.637447e+002 
4106250000  -3.708139e+001  -1.602994e+002 
4109375000  -3.624598e+001  -1.625741e+002 
4112500000  -3.580435e+001  -1.709785e+002 
4115625000  -3.622647e+001  -1.762150e+002 
4118750000  -3.635632e+001  1.799358e+002 
4121875000  -3.597640e+001  1.737612e+002 
4125000000  -3.668222e+001  1.664738e+002 
4128125000  -3.782442e+001  1.671807e+002 
4131250000  -3.746066e+001  1.743227e+002 
4134375000  -3.551651e+001  1.678976e+002 
4137500000  -3.523033e+001  1.484317e+002 
4140625000  -3.756109e+001  1.388793e+002 
4143750000  -3.921121e+001  1.459122e+002 
4146875000  -3.896067e+001  1.523189e+002 
4150000000  -3.821566e+001  1.496490e+002 
4153125000  -3.807431e+001  1.399909e+002 
4156250000  -3.919595e+001  1.403866e+002 
4159375000  -3.934020e+001  1.458611e+002 
4162500000  -3.829446e+001  1.495598e+002 
4165625000  -3.724695e+001  1.459733e+002 
4168750000  -3.688874e+001  1.372216e+002 
4171875000  -3.679116e+001  1.283889e+002 
4175000000  -3.751334e+001  1.243177e+002 
4178125000  -3.794961e+001  1.265243e+002 
4181250000  -3.744175e+001  1.242797e+002 
4184375000  -3.719693e+001  1.210464e+002 
4187500000  -3.723697e+001  1.182037e+002 
4190625000  -3.692773e+001  1.118077e+002 
4193750000  -3.764925e+001  1.081952e+002 
4196875000  -3.820838e+001  1.074448e+002 
4200000000  -3.916308e+001  1.095851e+002 
4203125000  -3.863968e+001  1.240165e+002 
4206250000  -3.506054e+001  1.235249e+002 
4209375000  -3.402178e+001  9.985559e+001 
4212500000  -3.591753e+001  9.201036e+001 
4215625000  -3.689270e+001  9.817514e+001 
4218750000  -3.524442e+001  1.016404e+002 
4221875000  -3.288906e+001  9.147189e+001 
4225000000  -3.422245e+001  7.779890e+001 
4228125000  -3.459684e+001  8.151662e+001 
4231250000  -3.294399e+001  7.551344e+001 
4234375000  -3.287746e+001  6.607737e+001 
4237500000  -3.239548e+001  6.061013e+001 
4240625000  -3.242730e+001  4.993289e+001 
4243750000  -3.363192e+001  4.309404e+001 
4246875000  -3.450108e+001  4.111335e+001 
4250000000  -3.444755e+001  4.175737e+001 
4253125000  -3.385319e+001  3.801273e+001 
4256250000  -3.437971e+001  3.316435e+001 
4259375000  -3.420605e+001  2.915417e+001 
4262500000  -3.439810e+001  2.356460e+001 
4265625000  -3.459409e+001  2.327837e+001 
4268750000  -3.379199e+001  1.861882e+001 
4271875000  -3.357621e+001  1.023374e+001 
4275000000  -3.312921e+001  1.869707e+000 
4278125000  -3.393778e+001  -9.833520e+000 
4281250000  -3.606822e+001  -1.245501e+001 
4284375000  -3.582093e+001  -1.146190e+001 
4287500000  -3.690182e+001  -1.672306e+001 
4290625000  -3.833205e+001  -7.657213e+000 
4293750000  -3.653691e+001  -1.878271e+000 
4296875000  -3.528115e+001  -1.257321e+001 
4300000000  -3.642869e+001  -2.176705e+001 
4303125000  -3.769736e+001  -1.926098e+001 
4306250000  -3.703728e+001  -1.357172e+001 
4309375000  -3.571744e+001  -1.458946e+001 
4312500000  -3.556366e+001  -2.173713e+001 
4315625000  -3.595451e+001  -2.730987e+001 
4318750000  -3.611711e+001  -2.968430e+001 
4321875000  -3.619703e+001  -2.886180e+001 
4325000000  -3.560390e+001  -2.848849e+001 
4328125000  -3.469355e+001  -3.403510e+001 
4331250000  -3.466414e+001  -4.216147e+001 
4334375000  -3.485767e+001  -4.769005e+001 
4337500000  -3.552158e+001  -4.986561e+001 
4340625000  -3.581680e+001  -4.600713e+001 
4343750000  -3.502853e+001  -4.664968e+001 
4346875000  -3.455588e+001  -5.304762e+001 
4350000000  -3.422727e+001  -5.937700e+001 
4353125000  -3.426536e+001  -6.742271e+001 
4356250000  -3.592059e+001  -6.911826e+001 
4359375000  -3.596342e+001  -5.497303e+001 
4362500000  -3.300931e+001  -5.789607e+001 
4365625000  -3.147219e+001  -7.080772e+001 
4368750000  -3.216174e+001  -8.434888e+001 
4371875000  -3.339851e+001  -8.511475e+001 
4375000000  -3.296709e+001  -8.521825e+001 
4378125000  -3.212125e+001  -9.238826e+001 
4381250000  -3.238121e+001  -1.007755e+002 
4384375000  -3.214887e+001  -1.077240e+002 
4387500000  -3.289883e+001  -1.156221e+002 
4390625000  -3.390536e+001  -1.159887e+002 
4393750000  -3.313649e+001  -1.154677e+002 
4396875000  -3.257061e+001  -1.189158e+002 
4400000000  -3.214403e+001  -1.284131e+002 
4403125000  -3.289560e+001  -1.378640e+002 
4406250000  -3.373183e+001  -1.399579e+002 
4409375000  -3.381649e+001  -1.444007e+002 
4412500000  -3.503719e+001  -1.481096e+002 
4415625000  -3.545383e+001  -1.448236e+002 
