!Agilent Technologies,E8363B,MY43030201,A.06.04.32
!Agilent E8363B: A.06.04.32
!Date: Tuesday, November 11, 2014 21:12:48
!Correction: S21(Response(S21)) 
!S1P File: Measurement: S21:
# Hz S  dB   R 50
3000000000  -3.646854e+001  -5.945594e+001 
3003125000  -3.764805e+001  -6.639777e+001 
3006250000  -3.750761e+001  -6.702731e+001 
3009375000  -3.789813e+001  -6.378094e+001 
3012500000  -3.706346e+001  -6.540091e+001 
3015625000  -3.618266e+001  -7.334940e+001 
3018750000  -3.685798e+001  -7.376807e+001 
3021875000  -3.535942e+001  -7.342218e+001 
3025000000  -3.412657e+001  -7.642580e+001 
3028125000  -3.322068e+001  -8.328854e+001 
3031250000  -3.218936e+001  -9.495313e+001 
3034375000  -3.191467e+001  -1.085959e+002 
3037500000  -3.236742e+001  -1.201886e+002 
3040625000  -3.372992e+001  -1.246224e+002 
3043750000  -3.428449e+001  -1.306456e+002 
3046875000  -3.457045e+001  -1.359578e+002 
3050000000  -3.635117e+001  -1.416535e+002 
3053125000  -3.610028e+001  -1.360302e+002 
3056250000  -3.565240e+001  -1.331791e+002 
3059375000  -3.570650e+001  -1.327806e+002 
3062500000  -3.413780e+001  -1.363282e+002 
3065625000  -3.393355e+001  -1.431113e+002 
3068750000  -3.354568e+001  -1.495060e+002 
3071875000  -3.359797e+001  -1.519898e+002 
3075000000  -3.334804e+001  -1.564406e+002 
3078125000  -3.314094e+001  -1.604022e+002 
3081250000  -3.358166e+001  -1.645017e+002 
3084375000  -3.276553e+001  -1.683136e+002 
3087500000  -3.257454e+001  -1.725224e+002 
3090625000  -3.201827e+001  1.769020e+002 
3093750000  -3.260667e+001  1.699535e+002 
3096875000  -3.348519e+001  1.645909e+002 
3100000000  -3.327018e+001  1.629695e+002 
3103125000  -3.370550e+001  1.627513e+002 
3106250000  -3.319468e+001  1.586084e+002 
3109375000  -3.328191e+001  1.542907e+002 
3112500000  -3.321849e+001  1.518592e+002 
3115625000  -3.287157e+001  1.472987e+002 
3118750000  -3.315671e+001  1.470759e+002 
3121875000  -3.232934e+001  1.376041e+002 
3125000000  -3.362208e+001  1.344405e+002 
3128125000  -3.450604e+001  1.414010e+002 
3131250000  -3.194645e+001  1.396931e+002 
3134375000  -3.084112e+001  1.233589e+002 
3137500000  -3.131734e+001  1.098734e+002 
3140625000  -3.278598e+001  1.073767e+002 
3143750000  -3.379538e+001  1.083522e+002 
3146875000  -3.329806e+001  1.095977e+002 
3150000000  -3.235802e+001  1.090510e+002 
3153125000  -3.235623e+001  1.004608e+002 
3156250000  -3.335661e+001  1.052132e+002 
3159375000  -3.153901e+001  1.067763e+002 
3162500000  -2.971129e+001  9.111598e+001 
3165625000  -3.080783e+001  7.927538e+001 
3168750000  -3.100386e+001  7.976341e+001 
3171875000  -3.016641e+001  7.407210e+001 
3175000000  -3.098196e+001  6.520631e+001 
3178125000  -3.060115e+001  6.572246e+001 
3181250000  -2.965430e+001  6.048235e+001 
3184375000  -2.901061e+001  4.757463e+001 
3187500000  -3.018073e+001  3.275474e+001 
3190625000  -3.279565e+001  2.495344e+001 
3193750000  -3.332989e+001  3.347810e+001 
3196875000  -3.301061e+001  3.748312e+001 
3200000000  -3.202352e+001  3.517246e+001 
3203125000  -3.126797e+001  2.873430e+001 
3206250000  -3.159105e+001  2.172264e+001 
3209375000  -3.112956e+001  1.597133e+001 
3212500000  -3.147874e+001  9.146053e+000 
3215625000  -3.143875e+001  5.602747e+000 
3218750000  -3.230210e+001  -2.141927e+000 
3221875000  -3.292449e+001  -7.091811e+000 
3225000000  -3.263799e+001  -8.954501e+000 
3228125000  -3.313482e+001  -1.383246e+001 
3231250000  -3.373532e+001  -1.586752e+001 
3234375000  -3.339157e+001  -1.555329e+001 
3237500000  -3.333954e+001  -1.800912e+001 
3240625000  -3.290519e+001  -2.073527e+001 
3243750000  -3.255326e+001  -2.797344e+001 
3246875000  -3.298490e+001  -3.564180e+001 
3250000000  -3.347458e+001  -3.740430e+001 
3253125000  -3.349957e+001  -3.936024e+001 
3256250000  -3.314996e+001  -4.641848e+001 
3259375000  -3.340273e+001  -5.538075e+001 
3262500000  -3.457124e+001  -5.941690e+001 
3265625000  -3.537296e+001  -5.606976e+001 
3268750000  -3.501565e+001  -5.400813e+001 
3271875000  -3.470533e+001  -5.452390e+001 
3275000000  -3.365948e+001  -6.207229e+001 
3278125000  -3.413700e+001  -6.801533e+001 
3281250000  -3.433301e+001  -6.686965e+001 
3284375000  -3.376200e+001  -7.420734e+001 
3287500000  -3.398026e+001  -7.732646e+001 
3290625000  -3.412783e+001  -8.383698e+001 
3293750000  -3.407855e+001  -8.963618e+001 
3296875000  -3.518272e+001  -8.964056e+001 
3300000000  -3.468082e+001  -8.893428e+001 
3303125000  -3.357646e+001  -9.446099e+001 
3306250000  -3.344802e+001  -1.023897e+002 
3309375000  -3.320886e+001  -1.082701e+002 
3312500000  -3.327020e+001  -1.201199e+002 
3315625000  -3.433373e+001  -1.277643e+002 
3318750000  -3.576427e+001  -1.298629e+002 
3321875000  -3.680132e+001  -1.298925e+002 
3325000000  -3.741678e+001  -1.238941e+002 
3328125000  -3.667450e+001  -1.241434e+002 
3331250000  -3.554491e+001  -1.175745e+002 
3334375000  -3.284980e+001  -1.287912e+002 
3337500000  -3.300475e+001  -1.486087e+002 
3340625000  -3.453447e+001  -1.590674e+002 
3343750000  -3.656867e+001  -1.591353e+002 
3346875000  -3.661695e+001  -1.587092e+002 
3350000000  -3.591300e+001  -1.601004e+002 
3353125000  -3.596986e+001  -1.657230e+002 
3356250000  -3.566702e+001  -1.742975e+002 
3359375000  -3.643544e+001  1.786339e+002 
3362500000  -3.748714e+001  1.721588e+002 
3365625000  -3.803780e+001  1.722493e+002 
3368750000  -3.870864e+001  1.690123e+002 
3371875000  -3.914586e+001  1.672977e+002 
3375000000  -4.046437e+001  1.634547e+002 
3378125000  -4.136750e+001  1.638270e+002 
3381250000  -4.292764e+001  1.731543e+002 
3384375000  -4.113636e+001  -1.642462e+002 
3387500000  -3.750725e+001  1.780004e+002 
3390625000  -3.932286e+001  1.583299e+002 
3393750000  -4.046778e+001  1.625081e+002 
3396875000  -3.924550e+001  1.634289e+002 
3400000000  -3.849046e+001  1.547132e+002 
3403125000  -3.941143e+001  1.490959e+002 
3406250000  -3.957136e+001  1.482842e+002 
3409375000  -3.983088e+001  1.404440e+002 
3412500000  -4.024091e+001  1.391718e+002 
3415625000  -4.080064e+001  1.420701e+002 
3418750000  -4.107073e+001  1.416997e+002 
3421875000  -4.121724e+001  1.440345e+002 
3425000000  -4.022765e+001  1.431925e+002 
3428125000  -3.913764e+001  1.396350e+002 
3431250000  -3.901809e+001  1.331409e+002 
3434375000  -3.913409e+001  1.268798e+002 
3437500000  -3.970929e+001  1.221005e+002 
3440625000  -4.011337e+001  1.244744e+002 
3443750000  -3.878520e+001  1.252037e+002 
3446875000  -3.781423e+001  1.163054e+002 
3450000000  -3.743599e+001  1.067023e+002 
3453125000  -3.812059e+001  9.753531e+001 
3456250000  -3.924985e+001  9.028446e+001 
3459375000  -4.006533e+001  9.214458e+001 
3462500000  -3.979335e+001  9.234499e+001 
3465625000  -3.972849e+001  8.629512e+001 
3468750000  -4.020564e+001  8.095589e+001 
3471875000  -4.006425e+001  8.126514e+001 
3475000000  -3.965979e+001  7.519394e+001 
3478125000  -4.036919e+001  6.786076e+001 
3481250000  -4.134809e+001  6.572787e+001 
3484375000  -4.227613e+001  7.019133e+001 
3487500000  -4.139451e+001  6.944929e+001 
3490625000  -4.090239e+001  6.526161e+001 
3493750000  -4.138357e+001  5.757142e+001 
3496875000  -4.199617e+001  5.763170e+001 
3500000000  -4.260934e+001  5.934797e+001 
3503125000  -4.235518e+001  6.176760e+001 
3506250000  -4.067343e+001  5.685904e+001 
3509375000  -4.076748e+001  4.755837e+001 
3512500000  -4.090216e+001  3.852272e+001 
3515625000  -4.203675e+001  3.567318e+001 
3518750000  -4.265865e+001  3.849652e+001 
3521875000  -4.241856e+001  3.461566e+001 
3525000000  -4.332176e+001  3.315636e+001 
3528125000  -4.349404e+001  4.071569e+001 
3531250000  -4.164540e+001  3.804049e+001 
3534375000  -4.177568e+001  2.883452e+001 
3537500000  -4.228869e+001  2.077279e+001 
3540625000  -4.311323e+001  2.121935e+001 
3543750000  -4.402967e+001  2.373327e+001 
3546875000  -4.376939e+001  3.575338e+001 
3550000000  -4.083397e+001  3.644501e+001 
3553125000  -3.974630e+001  1.777280e+001 
3556250000  -4.147488e+001  1.194206e+001 
3559375000  -4.073001e+001  1.204822e+001 
3562500000  -3.973446e+001  2.983612e+000 
3565625000  -4.064563e+001  -4.638676e+000 
3568750000  -4.122281e+001  -2.369196e+000 
3571875000  -4.092972e+001  -3.989608e+000 
3575000000  -4.059736e+001  -1.060960e+001 
3578125000  -4.110136e+001  -1.539506e+001 
3581250000  -4.134132e+001  -1.743896e+001 
3584375000  -4.013797e+001  -2.190290e+001 
3587500000  -3.980339e+001  -2.825778e+001 
3590625000  -4.038892e+001  -3.945465e+001 
3593750000  -4.176366e+001  -4.071180e+001 
3596875000  -4.165562e+001  -3.644258e+001 
3600000000  -4.030807e+001  -4.209669e+001 
3603125000  -4.083224e+001  -5.572197e+001 
3606250000  -4.155966e+001  -5.904441e+001 
3609375000  -4.210513e+001  -6.220353e+001 
3612500000  -4.302555e+001  -6.381604e+001 
3615625000  -4.311106e+001  -6.925144e+001 
3618750000  -4.390041e+001  -6.736822e+001 
3621875000  -4.392351e+001  -7.213657e+001 
3625000000  -4.456139e+001  -6.968457e+001 
3628125000  -4.441665e+001  -7.213602e+001 
3631250000  -4.469207e+001  -7.564071e+001 
3634375000  -4.606694e+001  -7.811715e+001 
3637500000  -4.580679e+001  -6.953594e+001 
3640625000  -4.507750e+001  -7.121492e+001 
3643750000  -4.471898e+001  -7.415199e+001 
3646875000  -4.486291e+001  -8.005293e+001 
3650000000  -4.571141e+001  -7.902911e+001 
3653125000  -4.523589e+001  -8.064484e+001 
3656250000  -4.578059e+001  -7.907090e+001 
3659375000  -4.541072e+001  -7.728888e+001 
3662500000  -4.472198e+001  -8.049486e+001 
3665625000  -4.441875e+001  -8.227480e+001 
3668750000  -4.321747e+001  -8.214215e+001 
3671875000  -4.232565e+001  -8.737466e+001 
3675000000  -4.246491e+001  -9.581326e+001 
3678125000  -4.296915e+001  -9.677512e+001 
3681250000  -4.262079e+001  -9.811917e+001 
3684375000  -4.240546e+001  -1.037604e+002 
3687500000  -4.245016e+001  -1.088422e+002 
3690625000  -4.272523e+001  -1.118759e+002 
3693750000  -4.359153e+001  -1.148765e+002 
3696875000  -4.325186e+001  -1.143955e+002 
3700000000  -4.279331e+001  -1.186700e+002 
3703125000  -4.259461e+001  -1.242506e+002 
3706250000  -4.372023e+001  -1.227875e+002 
3709375000  -4.303301e+001  -1.220237e+002 
3712500000  -4.242469e+001  -1.263758e+002 
3715625000  -4.140334e+001  -1.330312e+002 
3718750000  -4.125647e+001  -1.397608e+002 
3721875000  -4.106746e+001  -1.444801e+002 
3725000000  -4.162740e+001  -1.525156e+002 
3728125000  -4.211048e+001  -1.530832e+002 
3731250000  -4.185334e+001  -1.569116e+002 
3734375000  -4.141231e+001  -1.617453e+002 
3737500000  -4.176281e+001  -1.706273e+002 
3740625000  -4.319887e+001  -1.737474e+002 
3743750000  -4.329679e+001  -1.751294e+002 
3746875000  -4.392193e+001  -1.781062e+002 
3750000000  -4.440624e+001  -1.785191e+002 
3753125000  -4.460400e+001  -1.777296e+002 
3756250000  -4.477592e+001  -1.770345e+002 
3759375000  -4.492574e+001  -1.763625e+002 
3762500000  -4.443760e+001  1.796168e+002 
3765625000  -4.523253e+001  -1.780097e+002 
3768750000  -4.553599e+001  -1.745860e+002 
3771875000  -4.296368e+001  -1.754514e+002 
3775000000  -4.307979e+001  1.789156e+002 
3778125000  -4.310967e+001  1.773062e+002 
3781250000  -4.290068e+001  1.756566e+002 
3784375000  -4.281546e+001  1.750864e+002 
3787500000  -4.171054e+001  1.712620e+002 
3790625000  -4.217351e+001  1.645090e+002 
3793750000  -4.228633e+001  1.642103e+002 
3796875000  -4.117399e+001  1.616978e+002 
3800000000  -3.928488e+001  1.597262e+002 
3803125000  -4.030928e+001  1.482036e+002 
3806250000  -4.056974e+001  1.459793e+002 
3809375000  -4.009555e+001  1.437583e+002 
3812500000  -3.979098e+001  1.370297e+002 
3815625000  -4.036740e+001  1.257595e+002 
3818750000  -4.139969e+001  1.276204e+002 
3821875000  -4.117913e+001  1.359754e+002 
3825000000  -3.933789e+001  1.369654e+002 
3828125000  -3.809545e+001  1.192146e+002 
3831250000  -3.854334e+001  1.050229e+002 
3834375000  -3.999856e+001  1.041576e+002 
3837500000  -4.101068e+001  1.093891e+002 
3840625000  -3.967412e+001  1.051314e+002 
3843750000  -3.906635e+001  9.523379e+001 
3846875000  -3.993274e+001  8.697281e+001 
3850000000  -4.112638e+001  9.097337e+001 
3853125000  -4.037827e+001  9.481348e+001 
3856250000  -4.055536e+001  8.587100e+001 
3859375000  -3.974039e+001  8.140180e+001 
3862500000  -3.963577e+001  7.346180e+001 
3865625000  -3.998351e+001  6.798360e+001 
3868750000  -3.984751e+001  6.709576e+001 
3871875000  -3.922832e+001  6.339657e+001 
3875000000  -3.964365e+001  5.522744e+001 
3878125000  -4.084278e+001  5.347420e+001 
3881250000  -4.096156e+001  5.655533e+001 
3884375000  -4.052217e+001  5.052634e+001 
3887500000  -4.082062e+001  4.871523e+001 
3890625000  -4.111911e+001  4.281936e+001 
3893750000  -4.149638e+001  4.190424e+001 
3896875000  -4.187746e+001  4.358611e+001 
3900000000  -4.197529e+001  4.295130e+001 
3903125000  -4.183593e+001  4.066969e+001 
3906250000  -4.117061e+001  3.867442e+001 
3909375000  -4.010263e+001  3.479420e+001 
3912500000  -4.035908e+001  2.570496e+001 
3915625000  -4.156629e+001  2.773903e+001 
3918750000  -4.132223e+001  2.873458e+001 
3921875000  -4.076892e+001  2.694681e+001 
3925000000  -3.961203e+001  2.493778e+001 
3928125000  -3.925654e+001  1.728783e+001 
3931250000  -3.963744e+001  1.361744e+001 
3934375000  -3.996797e+001  1.058656e+001 
3937500000  -3.977320e+001  1.074108e+001 
3940625000  -4.048959e+001  8.088476e+000 
3943750000  -3.914746e+001  9.036260e+000 
3946875000  -3.819095e+001  1.958524e+000 
3950000000  -3.886275e+001  -7.362689e+000 
3953125000  -3.973090e+001  -9.240464e+000 
3956250000  -3.866751e+001  -5.881598e+000 
3959375000  -3.733138e+001  -1.160991e+001 
3962500000  -3.717390e+001  -1.592417e+001 
3965625000  -3.696350e+001  -2.784879e+001 
3968750000  -3.805337e+001  -3.478400e+001 
3971875000  -3.824706e+001  -3.602732e+001 
3975000000  -3.764233e+001  -3.913523e+001 
3978125000  -3.758546e+001  -4.300451e+001 
3981250000  -3.759032e+001  -4.890403e+001 
3984375000  -3.790665e+001  -5.575358e+001 
3987500000  -3.862277e+001  -5.766689e+001 
3990625000  -3.839605e+001  -5.891177e+001 
3993750000  -3.900399e+001  -6.559224e+001 
3996875000  -3.880281e+001  -6.729967e+001 
4000000000  -3.937917e+001  -7.007223e+001 
4003125000  -3.997073e+001  -6.689874e+001 
4006250000  -3.812854e+001  -6.921894e+001 
4009375000  -3.729359e+001  -8.198013e+001 
4012500000  -3.905466e+001  -8.794707e+001 
4015625000  -4.042923e+001  -8.700388e+001 
4018750000  -4.034846e+001  -8.575812e+001 
4021875000  -3.957176e+001  -8.831776e+001 
4025000000  -3.895616e+001  -9.269734e+001 
4028125000  -3.910052e+001  -9.678133e+001 
4031250000  -3.968610e+001  -1.016741e+002 
4034375000  -4.007431e+001  -9.887048e+001 
4037500000  -3.940000e+001  -9.845068e+001 
4040625000  -3.921019e+001  -1.019983e+002 
4043750000  -3.980864e+001  -1.027897e+002 
4046875000  -3.914797e+001  -1.033650e+002 
4050000000  -3.865231e+001  -1.089800e+002 
4053125000  -3.903955e+001  -1.115818e+002 
4056250000  -3.958813e+001  -1.087382e+002 
4059375000  -3.785377e+001  -1.073579e+002 
4062500000  -3.679625e+001  -1.127628e+002 
4065625000  -3.668956e+001  -1.178015e+002 
4068750000  -3.634065e+001  -1.246108e+002 
4071875000  -3.562186e+001  -1.343866e+002 
4075000000  -3.589641e+001  -1.410681e+002 
4078125000  -3.651949e+001  -1.428088e+002 
4081250000  -3.593596e+001  -1.467191e+002 
4084375000  -3.552052e+001  -1.548485e+002 
4087500000  -3.595569e+001  -1.622455e+002 
4090625000  -3.668783e+001  -1.619232e+002 
4093750000  -3.611657e+001  -1.635990e+002 
4096875000  -3.597855e+001  -1.718555e+002 
4100000000  -3.676451e+001  -1.793519e+002 
4103125000  -3.742179e+001  -1.785204e+002 
4106250000  -3.754885e+001  -1.742952e+002 
4109375000  -3.655952e+001  -1.769717e+002 
4112500000  -3.606376e+001  1.750923e+002 
4115625000  -3.652402e+001  1.687408e+002 
4118750000  -3.661897e+001  1.642353e+002 
4121875000  -3.616976e+001  1.580379e+002 
4125000000  -3.674853e+001  1.531647e+002 
4128125000  -3.770880e+001  1.531371e+002 
4131250000  -3.764198e+001  1.610715e+002 
4134375000  -3.511311e+001  1.531020e+002 
4137500000  -3.531419e+001  1.345937e+002 
4140625000  -3.769806e+001  1.259183e+002 
4143750000  -3.878646e+001  1.338477e+002 
4146875000  -3.834335e+001  1.378921e+002 
4150000000  -3.775973e+001  1.345131e+002 
4153125000  -3.772514e+001  1.252437e+002 
4156250000  -3.858932e+001  1.240041e+002 
4159375000  -3.904465e+001  1.293608e+002 
4162500000  -3.758296e+001  1.333211e+002 
4165625000  -3.688503e+001  1.290873e+002 
4168750000  -3.618525e+001  1.211468e+002 
4171875000  -3.620409e+001  1.109635e+002 
4175000000  -3.693465e+001  1.057694e+002 
4178125000  -3.767478e+001  1.072272e+002 
4181250000  -3.709421e+001  1.068434e+002 
4184375000  -3.699692e+001  1.011260e+002 
4187500000  -3.695404e+001  9.902254e+001 
4190625000  -3.700846e+001  9.392246e+001 
4193750000  -3.775130e+001  8.899892e+001 
4196875000  -3.829221e+001  8.669666e+001 
4200000000  -3.921780e+001  9.133331e+001 
4203125000  -3.867780e+001  1.051449e+002 
4206250000  -3.514014e+001  1.019828e+002 
4209375000  -3.421037e+001  8.056598e+001 
4212500000  -3.632090e+001  7.202937e+001 
4215625000  -3.716892e+001  7.866449e+001 
4218750000  -3.543924e+001  8.368553e+001 
4221875000  -3.340551e+001  7.310564e+001 
4225000000  -3.445904e+001  6.096585e+001 
4228125000  -3.495525e+001  6.444521e+001 
4231250000  -3.332998e+001  5.882404e+001 
4234375000  -3.320699e+001  4.926641e+001 
4237500000  -3.269717e+001  4.395867e+001 
4240625000  -3.273606e+001  3.332700e+001 
4243750000  -3.380101e+001  2.548573e+001 
4246875000  -3.477282e+001  2.576768e+001 
4250000000  -3.482412e+001  2.710965e+001 
4253125000  -3.443078e+001  2.261691e+001 
4256250000  -3.454231e+001  1.821187e+001 
4259375000  -3.436255e+001  1.392402e+001 
4262500000  -3.453554e+001  8.966455e+000 
4265625000  -3.447516e+001  9.060138e+000 
4268750000  -3.383727e+001  3.951766e+000 
4271875000  -3.368139e+001  -4.649940e+000 
4275000000  -3.333627e+001  -1.287818e+001 
4278125000  -3.419451e+001  -2.407741e+001 
4281250000  -3.604732e+001  -2.758695e+001 
4284375000  -3.559436e+001  -2.835046e+001 
4287500000  -3.685458e+001  -3.156162e+001 
4290625000  -3.814205e+001  -2.101513e+001 
4293750000  -3.621006e+001  -1.714002e+001 
4296875000  -3.494457e+001  -2.820257e+001 
4300000000  -3.602683e+001  -3.842017e+001 
4303125000  -3.740112e+001  -3.540195e+001 
4306250000  -3.663477e+001  -2.924173e+001 
4309375000  -3.542808e+001  -3.061211e+001 
4312500000  -3.527478e+001  -3.981678e+001 
4315625000  -3.544759e+001  -4.441871e+001 
4318750000  -3.581651e+001  -4.814716e+001 
4321875000  -3.591826e+001  -4.785094e+001 
4325000000  -3.515883e+001  -4.682862e+001 
4328125000  -3.454935e+001  -5.319246e+001 
4331250000  -3.436425e+001  -6.133067e+001 
4334375000  -3.476550e+001  -6.659792e+001 
4337500000  -3.563502e+001  -6.861076e+001 
4340625000  -3.607214e+001  -6.623767e+001 
4343750000  -3.488779e+001  -6.718828e+001 
4346875000  -3.457876e+001  -7.279136e+001 
4350000000  -3.464914e+001  -7.935607e+001 
4353125000  -3.455172e+001  -8.689082e+001 
4356250000  -3.634412e+001  -8.721960e+001 
4359375000  -3.628434e+001  -7.332030e+001 
4362500000  -3.333142e+001  -7.586285e+001 
4365625000  -3.189351e+001  -9.038359e+001 
4368750000  -3.271718e+001  -1.020477e+002 
4371875000  -3.381900e+001  -1.011627e+002 
4375000000  -3.315606e+001  -1.042340e+002 
4378125000  -3.251670e+001  -1.110511e+002 
4381250000  -3.282978e+001  -1.174906e+002 
4384375000  -3.261060e+001  -1.248273e+002 
4387500000  -3.347026e+001  -1.318316e+002 
4390625000  -3.424945e+001  -1.318559e+002 
4393750000  -3.349201e+001  -1.325276e+002 
4396875000  -3.307165e+001  -1.359331e+002 
4400000000  -3.242410e+001  -1.438836e+002 
4403125000  -3.332718e+001  -1.528459e+002 
4406250000  -3.399381e+001  -1.552148e+002 
4409375000  -3.435828e+001  -1.595993e+002 
4412500000  -3.539524e+001  -1.627112e+002 
4415625000  -3.573606e+001  -1.585844e+002 
