!Agilent Technologies,E8363B,MY43030201,A.06.04.32
!Agilent E8363B: A.06.04.32
!Date: Tuesday, November 11, 2014 21:04:50
!Correction: S21(Response(S21)) 
!S1P File: Measurement: S21:
# Hz S  dB   R 50
3000000000  -3.622967e+001  -5.187766e+001 
3003125000  -3.741115e+001  -5.671671e+001 
3006250000  -3.729846e+001  -5.953672e+001 
3009375000  -3.765752e+001  -5.549442e+001 
3012500000  -3.696663e+001  -5.652879e+001 
3015625000  -3.600362e+001  -6.476715e+001 
3018750000  -3.682970e+001  -6.469238e+001 
3021875000  -3.535376e+001  -6.423347e+001 
3025000000  -3.419838e+001  -6.838787e+001 
3028125000  -3.319565e+001  -7.396388e+001 
3031250000  -3.221897e+001  -8.531174e+001 
3034375000  -3.181673e+001  -9.886079e+001 
3037500000  -3.229257e+001  -1.105661e+002 
3040625000  -3.365150e+001  -1.155263e+002 
3043750000  -3.428044e+001  -1.200448e+002 
3046875000  -3.448822e+001  -1.259851e+002 
3050000000  -3.617956e+001  -1.325525e+002 
3053125000  -3.623098e+001  -1.259621e+002 
3056250000  -3.563094e+001  -1.232360e+002 
3059375000  -3.570420e+001  -1.236112e+002 
3062500000  -3.428502e+001  -1.263801e+002 
3065625000  -3.390067e+001  -1.324839e+002 
3068750000  -3.370651e+001  -1.391550e+002 
3071875000  -3.347501e+001  -1.418746e+002 
3075000000  -3.336123e+001  -1.455559e+002 
3078125000  -3.305149e+001  -1.495813e+002 
3081250000  -3.353214e+001  -1.539847e+002 
3084375000  -3.267313e+001  -1.574122e+002 
3087500000  -3.241369e+001  -1.614323e+002 
3090625000  -3.199451e+001  -1.716033e+002 
3093750000  -3.239898e+001  -1.790794e+002 
3096875000  -3.334741e+001  1.751850e+002 
3100000000  -3.337039e+001  1.728788e+002 
3103125000  -3.352485e+001  1.734635e+002 
3106250000  -3.305415e+001  1.691816e+002 
3109375000  -3.325542e+001  1.655330e+002 
3112500000  -3.306629e+001  1.630920e+002 
3115625000  -3.271461e+001  1.577989e+002 
3118750000  -3.315675e+001  1.581128e+002 
3121875000  -3.219226e+001  1.487614e+002 
3125000000  -3.347987e+001  1.445439e+002 
3128125000  -3.445307e+001  1.513651e+002 
3131250000  -3.207702e+001  1.495417e+002 
3134375000  -3.066437e+001  1.339789e+002 
3137500000  -3.126631e+001  1.194960e+002 
3140625000  -3.276739e+001  1.166055e+002 
3143750000  -3.376109e+001  1.187617e+002 
3146875000  -3.328463e+001  1.196021e+002 
3150000000  -3.231916e+001  1.197753e+002 
3153125000  -3.227917e+001  1.105266e+002 
3156250000  -3.332652e+001  1.153578e+002 
3159375000  -3.167013e+001  1.164477e+002 
3162500000  -2.972783e+001  1.020510e+002 
3165625000  -3.076363e+001  9.006299e+001 
3168750000  -3.119143e+001  8.974088e+001 
3171875000  -3.027548e+001  8.412793e+001 
3175000000  -3.104757e+001  7.581901e+001 
3178125000  -3.081323e+001  7.640472e+001 
3181250000  -2.963184e+001  7.081771e+001 
3184375000  -2.902926e+001  5.822650e+001 
3187500000  -3.025676e+001  4.266639e+001 
3190625000  -3.294683e+001  3.473999e+001 
3193750000  -3.358439e+001  4.340558e+001 
3196875000  -3.312093e+001  4.828791e+001 
3200000000  -3.226363e+001  4.600637e+001 
3203125000  -3.142418e+001  3.961284e+001 
3206250000  -3.185462e+001  3.311572e+001 
3209375000  -3.142607e+001  2.723015e+001 
3212500000  -3.163353e+001  2.001144e+001 
3215625000  -3.165086e+001  1.641853e+001 
3218750000  -3.250339e+001  9.632332e+000 
3221875000  -3.330404e+001  4.161083e+000 
3225000000  -3.292176e+001  3.126269e+000 
3228125000  -3.328614e+001  -1.831396e+000 
3231250000  -3.394203e+001  -4.455324e+000 
3234375000  -3.361514e+001  -3.800211e+000 
3237500000  -3.361557e+001  -6.301040e+000 
3240625000  -3.313756e+001  -8.538550e+000 
3243750000  -3.280194e+001  -1.596416e+001 
3246875000  -3.319285e+001  -2.275914e+001 
3250000000  -3.353253e+001  -2.562740e+001 
3253125000  -3.360731e+001  -2.753635e+001 
3256250000  -3.327565e+001  -3.459848e+001 
3259375000  -3.352090e+001  -4.285665e+001 
3262500000  -3.476610e+001  -4.633183e+001 
3265625000  -3.543744e+001  -4.399449e+001 
3268750000  -3.518528e+001  -4.168769e+001 
3271875000  -3.497777e+001  -4.163459e+001 
3275000000  -3.369699e+001  -4.867382e+001 
3278125000  -3.423159e+001  -5.597209e+001 
3281250000  -3.437100e+001  -5.452153e+001 
3284375000  -3.388156e+001  -6.220927e+001 
3287500000  -3.404073e+001  -6.529831e+001 
3290625000  -3.430298e+001  -7.109074e+001 
3293750000  -3.406686e+001  -7.721221e+001 
3296875000  -3.525543e+001  -7.844837e+001 
3300000000  -3.490604e+001  -7.779609e+001 
3303125000  -3.378217e+001  -8.292281e+001 
3306250000  -3.348558e+001  -8.991144e+001 
3309375000  -3.322770e+001  -9.650732e+001 
3312500000  -3.326466e+001  -1.078067e+002 
3315625000  -3.439233e+001  -1.157310e+002 
3318750000  -3.582973e+001  -1.189081e+002 
3321875000  -3.687685e+001  -1.190082e+002 
3325000000  -3.736753e+001  -1.138434e+002 
3328125000  -3.711930e+001  -1.137121e+002 
3331250000  -3.588417e+001  -1.063577e+002 
3334375000  -3.318312e+001  -1.167156e+002 
3337500000  -3.324542e+001  -1.359586e+002 
3340625000  -3.451004e+001  -1.469169e+002 
3343750000  -3.662460e+001  -1.488935e+002 
3346875000  -3.678373e+001  -1.465944e+002 
3350000000  -3.628188e+001  -1.482394e+002 
3353125000  -3.618628e+001  -1.529026e+002 
3356250000  -3.574480e+001  -1.612425e+002 
3359375000  -3.662717e+001  -1.693056e+002 
3362500000  -3.783368e+001  -1.759666e+002 
3365625000  -3.822808e+001  -1.755828e+002 
3368750000  -3.897250e+001  -1.785180e+002 
3371875000  -3.924747e+001  1.787376e+002 
3375000000  -4.077144e+001  1.761976e+002 
3378125000  -4.165022e+001  1.760072e+002 
3381250000  -4.269481e+001  -1.739841e+002 
3384375000  -4.152756e+001  -1.538450e+002 
3387500000  -3.780408e+001  -1.689095e+002 
3390625000  -3.943035e+001  1.714946e+002 
3393750000  -4.078026e+001  1.759564e+002 
3396875000  -3.947440e+001  1.776733e+002 
3400000000  -3.910170e+001  1.687365e+002 
3403125000  -3.954073e+001  1.634048e+002 
3406250000  -3.983458e+001  1.615583e+002 
3409375000  -4.002116e+001  1.553965e+002 
3412500000  -4.044933e+001  1.537116e+002 
3415625000  -4.107829e+001  1.538073e+002 
3418750000  -4.105390e+001  1.535751e+002 
3421875000  -4.161570e+001  1.567790e+002 
3425000000  -4.021006e+001  1.567517e+002 
3428125000  -3.950650e+001  1.534747e+002 
3431250000  -3.929792e+001  1.464593e+002 
3434375000  -3.928788e+001  1.404071e+002 
3437500000  -3.970937e+001  1.359700e+002 
3440625000  -4.001779e+001  1.374993e+002 
3443750000  -3.884650e+001  1.380024e+002 
3446875000  -3.801517e+001  1.303615e+002 
3450000000  -3.769479e+001  1.201936e+002 
3453125000  -3.804152e+001  1.102504e+002 
3456250000  -3.926858e+001  1.034115e+002 
3459375000  -4.009017e+001  1.054649e+002 
3462500000  -4.001796e+001  1.051552e+002 
3465625000  -4.011185e+001  1.016293e+002 
3468750000  -4.046490e+001  9.578822e+001 
3471875000  -4.027621e+001  9.411565e+001 
3475000000  -4.020390e+001  8.997822e+001 
3478125000  -4.076743e+001  8.300429e+001 
3481250000  -4.148176e+001  8.086681e+001 
3484375000  -4.254685e+001  8.293581e+001 
3487500000  -4.172775e+001  8.369980e+001 
3490625000  -4.117743e+001  8.063398e+001 
3493750000  -4.182570e+001  7.200015e+001 
3496875000  -4.254512e+001  7.169698e+001 
3500000000  -4.297380e+001  7.622894e+001 
3503125000  -4.237776e+001  7.693451e+001 
3506250000  -4.086046e+001  7.279984e+001 
3509375000  -4.082289e+001  6.509938e+001 
3512500000  -4.138477e+001  5.680451e+001 
3515625000  -4.185454e+001  5.546432e+001 
3518750000  -4.268467e+001  5.410319e+001 
3521875000  -4.235237e+001  5.091094e+001 
3525000000  -4.332910e+001  4.717658e+001 
3528125000  -4.334336e+001  5.747685e+001 
3531250000  -4.178638e+001  5.385748e+001 
3534375000  -4.149152e+001  4.302115e+001 
3537500000  -4.184207e+001  3.797424e+001 
3540625000  -4.308125e+001  3.641069e+001 
3543750000  -4.353117e+001  3.753737e+001 
3546875000  -4.330677e+001  5.054958e+001 
3550000000  -4.061378e+001  5.099789e+001 
3553125000  -3.954037e+001  3.188727e+001 
3556250000  -4.103057e+001  2.543328e+001 
3559375000  -4.063848e+001  2.550600e+001 
3562500000  -3.966904e+001  1.667814e+001 
3565625000  -4.024852e+001  7.959852e+000 
3568750000  -4.078979e+001  1.090508e+001 
3571875000  -4.048524e+001  1.027047e+001 
3575000000  -4.039186e+001  1.302300e+000 
3578125000  -4.087045e+001  -4.916549e+000 
3581250000  -4.119468e+001  -3.989087e+000 
3584375000  -4.031620e+001  -7.220348e+000 
3587500000  -3.985429e+001  -1.750562e+001 
3590625000  -4.040531e+001  -2.760996e+001 
3593750000  -4.195717e+001  -3.032892e+001 
3596875000  -4.171314e+001  -2.486821e+001 
3600000000  -4.040874e+001  -2.953286e+001 
3603125000  -4.087856e+001  -4.331169e+001 
3606250000  -4.204304e+001  -4.877642e+001 
3609375000  -4.275217e+001  -4.921359e+001 
3612500000  -4.322676e+001  -5.233149e+001 
3615625000  -4.366242e+001  -5.591239e+001 
3618750000  -4.435893e+001  -5.344952e+001 
3621875000  -4.451035e+001  -5.732125e+001 
3625000000  -4.521341e+001  -5.472485e+001 
3628125000  -4.564348e+001  -5.725664e+001 
3631250000  -4.526283e+001  -5.972000e+001 
3634375000  -4.684505e+001  -5.921885e+001 
3637500000  -4.677245e+001  -5.095467e+001 
3640625000  -4.541701e+001  -5.017539e+001 
3643750000  -4.483038e+001  -5.394891e+001 
3646875000  -4.484059e+001  -5.890555e+001 
3650000000  -4.530727e+001  -6.087662e+001 
3653125000  -4.506382e+001  -6.000661e+001 
3656250000  -4.540708e+001  -6.135325e+001 
3659375000  -4.496038e+001  -5.836176e+001 
3662500000  -4.417168e+001  -5.912921e+001 
3665625000  -4.388636e+001  -6.296156e+001 
3668750000  -4.266154e+001  -6.589856e+001 
3671875000  -4.176945e+001  -7.164970e+001 
3675000000  -4.186401e+001  -8.064880e+001 
3678125000  -4.239030e+001  -8.175524e+001 
3681250000  -4.187008e+001  -8.603039e+001 
3684375000  -4.165344e+001  -8.879754e+001 
3687500000  -4.211407e+001  -9.648339e+001 
3690625000  -4.206000e+001  -1.008340e+002 
3693750000  -4.286284e+001  -1.009260e+002 
3696875000  -4.305267e+001  -1.015225e+002 
3700000000  -4.195147e+001  -1.067836e+002 
3703125000  -4.234203e+001  -1.119779e+002 
3706250000  -4.318577e+001  -1.135749e+002 
3709375000  -4.329187e+001  -1.127565e+002 
3712500000  -4.215813e+001  -1.166949e+002 
3715625000  -4.117767e+001  -1.226151e+002 
3718750000  -4.120377e+001  -1.279560e+002 
3721875000  -4.120255e+001  -1.347263e+002 
3725000000  -4.168216e+001  -1.402333e+002 
3728125000  -4.224306e+001  -1.409825e+002 
3731250000  -4.182339e+001  -1.430033e+002 
3734375000  -4.149173e+001  -1.491125e+002 
3737500000  -4.236551e+001  -1.585607e+002 
3740625000  -4.402352e+001  -1.602259e+002 
3743750000  -4.372522e+001  -1.618415e+002 
3746875000  -4.448031e+001  -1.636913e+002 
3750000000  -4.490088e+001  -1.656964e+002 
3753125000  -4.499051e+001  -1.622117e+002 
3756250000  -4.531562e+001  -1.578387e+002 
3759375000  -4.534684e+001  -1.585227e+002 
3762500000  -4.516055e+001  -1.618553e+002 
3765625000  -4.545786e+001  -1.595093e+002 
3768750000  -4.514827e+001  -1.578521e+002 
3771875000  -4.320538e+001  -1.572931e+002 
3775000000  -4.309612e+001  -1.621588e+002 
3778125000  -4.306942e+001  -1.651600e+002 
3781250000  -4.286856e+001  -1.689243e+002 
3784375000  -4.241710e+001  -1.690038e+002 
3787500000  -4.165661e+001  -1.713748e+002 
3790625000  -4.204172e+001  -1.781030e+002 
3793750000  -4.185305e+001  1.797137e+002 
3796875000  -4.072543e+001  1.752558e+002 
3800000000  -3.917978e+001  1.745014e+002 
3803125000  -3.976961e+001  1.631168e+002 
3806250000  -4.036464e+001  1.619021e+002 
3809375000  -4.011914e+001  1.583972e+002 
3812500000  -3.925609e+001  1.515682e+002 
3815625000  -4.013144e+001  1.409803e+002 
3818750000  -4.082420e+001  1.403620e+002 
3821875000  -4.103775e+001  1.485297e+002 
3825000000  -3.904945e+001  1.520989e+002 
3828125000  -3.752933e+001  1.333129e+002 
3831250000  -3.844332e+001  1.183736e+002 
3834375000  -3.987710e+001  1.182320e+002 
3837500000  -4.083277e+001  1.209083e+002 
3840625000  -3.967150e+001  1.199647e+002 
3843750000  -3.883023e+001  1.077018e+002 
3846875000  -3.963132e+001  9.987289e+001 
3850000000  -4.110900e+001  1.045543e+002 
3853125000  -4.024184e+001  1.078208e+002 
3856250000  -4.038077e+001  9.909409e+001 
3859375000  -3.980915e+001  9.464699e+001 
3862500000  -3.968401e+001  8.690062e+001 
3865625000  -4.007978e+001  8.274010e+001 
3868750000  -4.007962e+001  8.064336e+001 
3871875000  -3.962111e+001  7.848973e+001 
3875000000  -3.979736e+001  6.932426e+001 
3878125000  -4.094409e+001  6.687337e+001 
3881250000  -4.092119e+001  7.068109e+001 
3884375000  -4.072267e+001  6.645497e+001 
3887500000  -4.091013e+001  6.289914e+001 
3890625000  -4.145326e+001  6.029681e+001 
3893750000  -4.167397e+001  6.020192e+001 
3896875000  -4.228668e+001  6.015675e+001 
3900000000  -4.190309e+001  5.971426e+001 
3903125000  -4.180110e+001  5.707499e+001 
3906250000  -4.124049e+001  5.535667e+001 
3909375000  -4.044014e+001  5.255041e+001 
3912500000  -4.033285e+001  4.373931e+001 
3915625000  -4.158945e+001  4.628983e+001 
3918750000  -4.132346e+001  4.729082e+001 
3921875000  -4.061552e+001  4.385545e+001 
3925000000  -3.976378e+001  4.040216e+001 
3928125000  -3.922768e+001  3.407685e+001 
3931250000  -3.929891e+001  2.862401e+001 
3934375000  -3.956861e+001  2.900187e+001 
3937500000  -3.979520e+001  2.508777e+001 
3940625000  -4.025753e+001  2.609976e+001 
3943750000  -3.908817e+001  2.403217e+001 
3946875000  -3.779041e+001  1.692931e+001 
3950000000  -3.836120e+001  8.087032e+000 
3953125000  -3.962844e+001  6.588107e+000 
3956250000  -3.851476e+001  8.505189e+000 
3959375000  -3.726439e+001  5.599120e+000 
3962500000  -3.670455e+001  -6.911703e-001 
3965625000  -3.674364e+001  -1.186185e+001 
3968750000  -3.761818e+001  -1.962319e+001 
3971875000  -3.793531e+001  -2.248688e+001 
3975000000  -3.738747e+001  -2.486338e+001 
3978125000  -3.757393e+001  -2.815852e+001 
3981250000  -3.751514e+001  -3.478315e+001 
3984375000  -3.782217e+001  -4.128666e+001 
3987500000  -3.846757e+001  -4.531077e+001 
3990625000  -3.834108e+001  -4.561799e+001 
3993750000  -3.881897e+001  -5.040097e+001 
3996875000  -3.892600e+001  -5.559280e+001 
4000000000  -3.958550e+001  -5.664482e+001 
4003125000  -3.991311e+001  -5.504235e+001 
4006250000  -3.881928e+001  -5.421162e+001 
4009375000  -3.779994e+001  -6.823003e+001 
4012500000  -3.900191e+001  -7.309962e+001 
4015625000  -4.030918e+001  -7.277594e+001 
4018750000  -4.065864e+001  -6.869176e+001 
4021875000  -4.008523e+001  -7.287273e+001 
4025000000  -3.961809e+001  -7.825395e+001 
4028125000  -3.985568e+001  -7.962872e+001 
4031250000  -4.027758e+001  -8.209232e+001 
4034375000  -4.033605e+001  -8.332635e+001 
4037500000  -4.017270e+001  -8.118121e+001 
4040625000  -3.975572e+001  -8.486343e+001 
4043750000  -3.991159e+001  -8.320499e+001 
4046875000  -3.940864e+001  -8.475468e+001 
4050000000  -3.886820e+001  -9.341140e+001 
4053125000  -3.906893e+001  -9.366729e+001 
4056250000  -3.979526e+001  -8.929919e+001 
4059375000  -3.824757e+001  -8.863197e+001 
4062500000  -3.688186e+001  -9.517479e+001 
4065625000  -3.659459e+001  -9.949085e+001 
4068750000  -3.623345e+001  -1.066239e+002 
4071875000  -3.539275e+001  -1.152579e+002 
4075000000  -3.572449e+001  -1.228863e+002 
4078125000  -3.630668e+001  -1.241195e+002 
4081250000  -3.564980e+001  -1.276677e+002 
4084375000  -3.522459e+001  -1.370639e+002 
4087500000  -3.570771e+001  -1.434025e+002 
4090625000  -3.612078e+001  -1.457728e+002 
4093750000  -3.612455e+001  -1.468650e+002 
4096875000  -3.574958e+001  -1.542311e+002 
4100000000  -3.639303e+001  -1.634341e+002 
4103125000  -3.717743e+001  -1.623359e+002 
4106250000  -3.715305e+001  -1.594497e+002 
4109375000  -3.627540e+001  -1.619891e+002 
4112500000  -3.578529e+001  -1.710595e+002 
4115625000  -3.617533e+001  -1.757016e+002 
4118750000  -3.640162e+001  -1.791617e+002 
4121875000  -3.612857e+001  1.744815e+002 
4125000000  -3.659638e+001  1.689917e+002 
4128125000  -3.761475e+001  1.685370e+002 
4131250000  -3.733089e+001  1.747727e+002 
4134375000  -3.536433e+001  1.690712e+002 
4137500000  -3.516031e+001  1.493282e+002 
4140625000  -3.753503e+001  1.414278e+002 
4143750000  -3.887452e+001  1.467042e+002 
4146875000  -3.854953e+001  1.533858e+002 
4150000000  -3.799749e+001  1.488999e+002 
4153125000  -3.785237e+001  1.415567e+002 
4156250000  -3.883708e+001  1.397144e+002 
4159375000  -3.914367e+001  1.446418e+002 
4162500000  -3.835699e+001  1.492097e+002 
4165625000  -3.727031e+001  1.430243e+002 
4168750000  -3.650510e+001  1.376831e+002 
4171875000  -3.648264e+001  1.277708e+002 
4175000000  -3.744695e+001  1.249618e+002 
4178125000  -3.787700e+001  1.249856e+002 
4181250000  -3.756452e+001  1.244184e+002 
4184375000  -3.735199e+001  1.196846e+002 
4187500000  -3.712030e+001  1.175113e+002 
4190625000  -3.697630e+001  1.121210e+002 
4193750000  -3.782862e+001  1.081845e+002 
4196875000  -3.825426e+001  1.060466e+002 
4200000000  -3.898919e+001  1.087955e+002 
4203125000  -3.882405e+001  1.216652e+002 
4206250000  -3.548629e+001  1.209093e+002 
4209375000  -3.424302e+001  1.003028e+002 
4212500000  -3.610492e+001  9.070026e+001 
4215625000  -3.702196e+001  9.752084e+001 
4218750000  -3.531350e+001  1.010578e+002 
4221875000  -3.303222e+001  9.206294e+001 
4225000000  -3.421672e+001  7.873952e+001 
4228125000  -3.483448e+001  8.067396e+001 
4231250000  -3.329298e+001  7.621827e+001 
4234375000  -3.289901e+001  6.621373e+001 
4237500000  -3.256977e+001  6.209843e+001 
4240625000  -3.256006e+001  5.138668e+001 
4243750000  -3.353564e+001  4.220184e+001 
4246875000  -3.448031e+001  4.127097e+001 
4250000000  -3.458754e+001  4.291607e+001 
4253125000  -3.388718e+001  3.984125e+001 
4256250000  -3.439000e+001  3.428262e+001 
4259375000  -3.396426e+001  3.009096e+001 
4262500000  -3.416722e+001  2.560006e+001 
4265625000  -3.451597e+001  2.492719e+001 
4268750000  -3.348355e+001  1.785116e+001 
4271875000  -3.357107e+001  1.154958e+001 
4275000000  -3.303788e+001  3.546443e+000 
4278125000  -3.396289e+001  -9.368140e+000 
4281250000  -3.568144e+001  -1.134070e+001 
4284375000  -3.581303e+001  -1.106994e+001 
4287500000  -3.670650e+001  -1.574012e+001 
4290625000  -3.808969e+001  -6.822423e+000 
4293750000  -3.627113e+001  -1.148636e+000 
4296875000  -3.513890e+001  -1.323149e+001 
4300000000  -3.615799e+001  -2.151075e+001 
4303125000  -3.751636e+001  -1.926848e+001 
4306250000  -3.691646e+001  -1.281324e+001 
4309375000  -3.560815e+001  -1.431344e+001 
4312500000  -3.549565e+001  -2.214705e+001 
4315625000  -3.579155e+001  -2.801080e+001 
4318750000  -3.612864e+001  -3.087180e+001 
4321875000  -3.603579e+001  -2.888617e+001 
4325000000  -3.547907e+001  -2.875938e+001 
4328125000  -3.478753e+001  -3.411239e+001 
4331250000  -3.451736e+001  -4.357513e+001 
4334375000  -3.501674e+001  -4.700609e+001 
4337500000  -3.564062e+001  -4.973088e+001 
4340625000  -3.613663e+001  -4.684053e+001 
4343750000  -3.523479e+001  -4.657901e+001 
4346875000  -3.448353e+001  -5.231171e+001 
4350000000  -3.441272e+001  -5.909827e+001 
4353125000  -3.439719e+001  -6.747070e+001 
4356250000  -3.620859e+001  -6.755238e+001 
4359375000  -3.634854e+001  -5.370118e+001 
4362500000  -3.330839e+001  -5.715230e+001 
4365625000  -3.165051e+001  -7.044110e+001 
4368750000  -3.228971e+001  -8.431599e+001 
4371875000  -3.352253e+001  -8.424538e+001 
4375000000  -3.293029e+001  -8.444695e+001 
4378125000  -3.230207e+001  -9.230894e+001 
4381250000  -3.243163e+001  -1.001688e+002 
4384375000  -3.224815e+001  -1.061531e+002 
4387500000  -3.291299e+001  -1.137686e+002 
4390625000  -3.390517e+001  -1.141166e+002 
4393750000  -3.317708e+001  -1.141666e+002 
4396875000  -3.262240e+001  -1.178250e+002 
4400000000  -3.213214e+001  -1.266566e+002 
4403125000  -3.279778e+001  -1.356848e+002 
4406250000  -3.368571e+001  -1.384433e+002 
4409375000  -3.378690e+001  -1.432215e+002 
4412500000  -3.499924e+001  -1.464552e+002 
4415625000  -3.532217e+001  -1.429488e+002 
