!Agilent Technologies,E8363B,MY43030201,A.06.04.32
!Agilent E8363B: A.06.04.32
!Date: Tuesday, November 11, 2014 21:11:02
!Correction: S21(Response(S21)) 
!S1P File: Measurement: S21:
# Hz S  dB   R 50
3000000000  -3.647969e+001  -5.549292e+001 
3003125000  -3.766571e+001  -6.158836e+001 
3006250000  -3.770879e+001  -6.465559e+001 
3009375000  -3.783377e+001  -5.938718e+001 
3012500000  -3.707950e+001  -6.146411e+001 
3015625000  -3.623600e+001  -6.966492e+001 
3018750000  -3.690535e+001  -6.950471e+001 
3021875000  -3.547995e+001  -6.950656e+001 
3025000000  -3.424152e+001  -7.306813e+001 
3028125000  -3.321786e+001  -7.967450e+001 
3031250000  -3.223704e+001  -9.116424e+001 
3034375000  -3.183560e+001  -1.049899e+002 
3037500000  -3.228604e+001  -1.165983e+002 
3040625000  -3.371415e+001  -1.215300e+002 
3043750000  -3.430540e+001  -1.263443e+002 
3046875000  -3.458319e+001  -1.317160e+002 
3050000000  -3.618924e+001  -1.380624e+002 
3053125000  -3.606922e+001  -1.321681e+002 
3056250000  -3.568814e+001  -1.289219e+002 
3059375000  -3.556927e+001  -1.305812e+002 
3062500000  -3.427789e+001  -1.334323e+002 
3065625000  -3.399641e+001  -1.398169e+002 
3068750000  -3.348438e+001  -1.467535e+002 
3071875000  -3.361826e+001  -1.489399e+002 
3075000000  -3.325610e+001  -1.528762e+002 
3078125000  -3.305680e+001  -1.573371e+002 
3081250000  -3.356438e+001  -1.610896e+002 
3084375000  -3.263713e+001  -1.649317e+002 
3087500000  -3.249247e+001  -1.691692e+002 
3090625000  -3.201055e+001  -1.794237e+002 
3093750000  -3.253773e+001  1.733955e+002 
3096875000  -3.349237e+001  1.677490e+002 
3100000000  -3.337519e+001  1.650081e+002 
3103125000  -3.365547e+001  1.664219e+002 
3106250000  -3.317532e+001  1.622694e+002 
3109375000  -3.329767e+001  1.581493e+002 
3112500000  -3.323071e+001  1.555642e+002 
3115625000  -3.278934e+001  1.514069e+002 
3118750000  -3.320701e+001  1.509444e+002 
3121875000  -3.228435e+001  1.419151e+002 
3125000000  -3.355967e+001  1.379223e+002 
3128125000  -3.453159e+001  1.445889e+002 
3131250000  -3.199409e+001  1.426815e+002 
3134375000  -3.075321e+001  1.274235e+002 
3137500000  -3.134111e+001  1.136254e+002 
3140625000  -3.282856e+001  1.111027e+002 
3143750000  -3.384758e+001  1.122115e+002 
3146875000  -3.329968e+001  1.129866e+002 
3150000000  -3.230112e+001  1.132254e+002 
3153125000  -3.233192e+001  1.041473e+002 
3156250000  -3.338205e+001  1.087509e+002 
3159375000  -3.154562e+001  1.102540e+002 
3162500000  -2.969053e+001  9.553537e+001 
3165625000  -3.077909e+001  8.335442e+001 
3168750000  -3.099584e+001  8.337093e+001 
3171875000  -3.012347e+001  7.782183e+001 
3175000000  -3.083195e+001  6.913640e+001 
3178125000  -3.060447e+001  6.990634e+001 
3181250000  -2.955726e+001  6.402849e+001 
3184375000  -2.889420e+001  5.129129e+001 
3187500000  -3.016452e+001  3.619170e+001 
3190625000  -3.277853e+001  2.852379e+001 
3193750000  -3.331189e+001  3.673330e+001 
3196875000  -3.298605e+001  4.180310e+001 
3200000000  -3.198837e+001  3.846504e+001 
3203125000  -3.122658e+001  3.231080e+001 
3206250000  -3.154355e+001  2.538243e+001 
3209375000  -3.104190e+001  1.970640e+001 
3212500000  -3.133319e+001  1.291476e+001 
3215625000  -3.141800e+001  8.748533e+000 
3218750000  -3.211032e+001  1.838817e+000 
3221875000  -3.296509e+001  -3.672666e+000 
3225000000  -3.253989e+001  -4.534813e+000 
3228125000  -3.299819e+001  -1.037225e+001 
3231250000  -3.361740e+001  -1.297444e+001 
3234375000  -3.330877e+001  -1.161183e+001 
3237500000  -3.330975e+001  -1.448120e+001 
3240625000  -3.297375e+001  -1.734047e+001 
3243750000  -3.256424e+001  -2.515091e+001 
3246875000  -3.296306e+001  -3.228719e+001 
3250000000  -3.341219e+001  -3.487716e+001 
3253125000  -3.345225e+001  -3.598477e+001 
3256250000  -3.315125e+001  -4.372066e+001 
3259375000  -3.348654e+001  -5.232458e+001 
3262500000  -3.465057e+001  -5.568259e+001 
3265625000  -3.508587e+001  -5.276686e+001 
3268750000  -3.511079e+001  -5.103916e+001 
3271875000  -3.462144e+001  -5.179695e+001 
3275000000  -3.364434e+001  -5.872881e+001 
3278125000  -3.413297e+001  -6.469244e+001 
3281250000  -3.432727e+001  -6.371490e+001 
3284375000  -3.382439e+001  -7.022685e+001 
3287500000  -3.407144e+001  -7.397428e+001 
3290625000  -3.416953e+001  -7.985951e+001 
3293750000  -3.402888e+001  -8.610000e+001 
3296875000  -3.511264e+001  -8.613958e+001 
3300000000  -3.478131e+001  -8.600961e+001 
3303125000  -3.360961e+001  -9.143752e+001 
3306250000  -3.337695e+001  -9.890903e+001 
3309375000  -3.316908e+001  -1.048089e+002 
3312500000  -3.333478e+001  -1.161939e+002 
3315625000  -3.428289e+001  -1.238393e+002 
3318750000  -3.573926e+001  -1.267173e+002 
3321875000  -3.686168e+001  -1.265479e+002 
3325000000  -3.716684e+001  -1.213708e+002 
3328125000  -3.680974e+001  -1.197246e+002 
3331250000  -3.544376e+001  -1.141438e+002 
3334375000  -3.289601e+001  -1.246499e+002 
3337500000  -3.290176e+001  -1.449253e+002 
3340625000  -3.429954e+001  -1.561075e+002 
3343750000  -3.655532e+001  -1.561186e+002 
3346875000  -3.650304e+001  -1.544370e+002 
3350000000  -3.578963e+001  -1.557716e+002 
3353125000  -3.596378e+001  -1.610279e+002 
3356250000  -3.549831e+001  -1.703789e+002 
3359375000  -3.619809e+001  -1.774243e+002 
3362500000  -3.740210e+001  1.766384e+002 
3365625000  -3.795779e+001  1.744722e+002 
3368750000  -3.868351e+001  1.726712e+002 
3371875000  -3.891811e+001  1.689580e+002 
3375000000  -4.037592e+001  1.674127e+002 
3378125000  -4.108931e+001  1.677073e+002 
3381250000  -4.240443e+001  1.769068e+002 
3384375000  -4.077029e+001  -1.627762e+002 
3387500000  -3.744746e+001  -1.789276e+002 
3390625000  -3.889645e+001  1.620963e+002 
3393750000  -4.011080e+001  1.648073e+002 
3396875000  -3.906364e+001  1.655615e+002 
3400000000  -3.842787e+001  1.573263e+002 
3403125000  -3.918788e+001  1.523548e+002 
3406250000  -3.959243e+001  1.512982e+002 
3409375000  -3.964298e+001  1.440525e+002 
3412500000  -4.020319e+001  1.425248e+002 
3415625000  -4.088705e+001  1.431515e+002 
3418750000  -4.084988e+001  1.435829e+002 
3421875000  -4.124641e+001  1.471674e+002 
3425000000  -4.016432e+001  1.475495e+002 
3428125000  -3.928981e+001  1.430262e+002 
3431250000  -3.914676e+001  1.355618e+002 
3434375000  -3.911801e+001  1.299376e+002 
3437500000  -3.953215e+001  1.262232e+002 
3440625000  -4.006225e+001  1.258088e+002 
3443750000  -3.876198e+001  1.280483e+002 
3446875000  -3.796811e+001  1.198133e+002 
3450000000  -3.742570e+001  1.094654e+002 
3453125000  -3.798242e+001  9.840744e+001 
3456250000  -3.926793e+001  9.265800e+001 
3459375000  -4.023124e+001  9.541755e+001 
3462500000  -3.983142e+001  9.505147e+001 
3465625000  -3.981924e+001  8.924124e+001 
3468750000  -4.014785e+001  8.725607e+001 
3471875000  -4.002475e+001  8.458070e+001 
3475000000  -3.953133e+001  7.800468e+001 
3478125000  -4.051110e+001  7.040086e+001 
3481250000  -4.121875e+001  6.893053e+001 
3484375000  -4.226376e+001  7.371410e+001 
3487500000  -4.142891e+001  7.160587e+001 
3490625000  -4.080497e+001  6.836619e+001 
3493750000  -4.119579e+001  6.035080e+001 
3496875000  -4.178571e+001  5.961850e+001 
3500000000  -4.253750e+001  6.225944e+001 
3503125000  -4.185572e+001  6.460303e+001 
3506250000  -4.054784e+001  6.048919e+001 
3509375000  -4.071692e+001  5.018754e+001 
3512500000  -4.121056e+001  4.008968e+001 
3515625000  -4.190573e+001  4.055391e+001 
3518750000  -4.254959e+001  3.893687e+001 
3521875000  -4.260117e+001  3.852435e+001 
3525000000  -4.346952e+001  3.419593e+001 
3528125000  -4.337922e+001  4.182941e+001 
3531250000  -4.201457e+001  4.249284e+001 
3534375000  -4.230969e+001  2.857004e+001 
3537500000  -4.244427e+001  2.389576e+001 
3540625000  -4.352536e+001  2.319539e+001 
3543750000  -4.408221e+001  2.791689e+001 
3546875000  -4.418512e+001  3.941173e+001 
3550000000  -4.130120e+001  3.957622e+001 
3553125000  -3.999615e+001  2.108875e+001 
3556250000  -4.157294e+001  1.666690e+001 
3559375000  -4.143004e+001  1.525618e+001 
3562500000  -4.024074e+001  7.855024e+000 
3565625000  -4.094518e+001  -1.045506e+000 
3568750000  -4.135521e+001  2.360353e+000 
3571875000  -4.112230e+001  4.344147e-002 
3575000000  -4.068650e+001  -5.388176e+000 
3578125000  -4.118526e+001  -1.066002e+001 
3581250000  -4.132396e+001  -1.167915e+001 
3584375000  -4.048687e+001  -1.532522e+001 
3587500000  -3.984952e+001  -2.413848e+001 
3590625000  -4.030775e+001  -3.302351e+001 
3593750000  -4.166363e+001  -3.535725e+001 
3596875000  -4.163996e+001  -3.059085e+001 
3600000000  -4.010939e+001  -3.618371e+001 
3603125000  -4.054522e+001  -5.123429e+001 
3606250000  -4.141138e+001  -5.471910e+001 
3609375000  -4.229439e+001  -5.689009e+001 
3612500000  -4.285639e+001  -6.053130e+001 
3615625000  -4.296176e+001  -6.352249e+001 
3618750000  -4.382251e+001  -6.393015e+001 
3621875000  -4.375505e+001  -6.604687e+001 
3625000000  -4.411635e+001  -6.874611e+001 
3628125000  -4.445892e+001  -6.779676e+001 
3631250000  -4.420279e+001  -7.390895e+001 
3634375000  -4.530757e+001  -7.622472e+001 
3637500000  -4.548532e+001  -7.111529e+001 
3640625000  -4.504633e+001  -6.814494e+001 
3643750000  -4.438543e+001  -7.276899e+001 
3646875000  -4.499054e+001  -7.910431e+001 
3650000000  -4.567668e+001  -7.727631e+001 
3653125000  -4.545430e+001  -8.087047e+001 
3656250000  -4.583255e+001  -8.255623e+001 
3659375000  -4.561272e+001  -7.825801e+001 
3662500000  -4.535515e+001  -7.844831e+001 
3665625000  -4.489284e+001  -7.786786e+001 
3668750000  -4.370093e+001  -7.875450e+001 
3671875000  -4.241697e+001  -8.477604e+001 
3675000000  -4.325514e+001  -9.315034e+001 
3678125000  -4.299539e+001  -9.243552e+001 
3681250000  -4.269265e+001  -9.673482e+001 
3684375000  -4.260042e+001  -1.009373e+002 
3687500000  -4.290562e+001  -1.034067e+002 
3690625000  -4.297040e+001  -1.074107e+002 
3693750000  -4.387193e+001  -1.093056e+002 
3696875000  -4.348615e+001  -1.064453e+002 
3700000000  -4.248768e+001  -1.143022e+002 
3703125000  -4.275304e+001  -1.195344e+002 
3706250000  -4.361592e+001  -1.197578e+002 
3709375000  -4.303383e+001  -1.172193e+002 
3712500000  -4.209044e+001  -1.227222e+002 
3715625000  -4.156471e+001  -1.276630e+002 
3718750000  -4.141268e+001  -1.317973e+002 
3721875000  -4.108755e+001  -1.394485e+002 
3725000000  -4.154570e+001  -1.446323e+002 
3728125000  -4.195034e+001  -1.485999e+002 
3731250000  -4.167676e+001  -1.487169e+002 
3734375000  -4.110804e+001  -1.559045e+002 
3737500000  -4.192686e+001  -1.665585e+002 
3740625000  -4.322550e+001  -1.680413e+002 
3743750000  -4.305645e+001  -1.685822e+002 
3746875000  -4.330005e+001  -1.732462e+002 
3750000000  -4.418435e+001  -1.735915e+002 
3753125000  -4.398471e+001  -1.720642e+002 
3756250000  -4.436140e+001  -1.724248e+002 
3759375000  -4.458137e+001  -1.705791e+002 
3762500000  -4.413530e+001  -1.765294e+002 
3765625000  -4.500228e+001  -1.751466e+002 
3768750000  -4.448605e+001  -1.743680e+002 
3771875000  -4.277649e+001  -1.727531e+002 
3775000000  -4.318464e+001  1.799652e+002 
3778125000  -4.351204e+001  1.787409e+002 
3781250000  -4.262914e+001  1.775370e+002 
3784375000  -4.277306e+001  1.746967e+002 
3787500000  -4.169817e+001  1.737292e+002 
3790625000  -4.242930e+001  1.689266e+002 
3793750000  -4.229560e+001  1.681020e+002 
3796875000  -4.139033e+001  1.644519e+002 
3800000000  -3.957368e+001  1.622543e+002 
3803125000  -4.030000e+001  1.525974e+002 
3806250000  -4.073304e+001  1.495367e+002 
3809375000  -4.077187e+001  1.466221e+002 
3812500000  -3.977381e+001  1.399883e+002 
3815625000  -4.069916e+001  1.329848e+002 
3818750000  -4.150510e+001  1.307200e+002 
3821875000  -4.146011e+001  1.366672e+002 
3825000000  -3.955421e+001  1.407696e+002 
3828125000  -3.804851e+001  1.241852e+002 
3831250000  -3.872324e+001  1.098197e+002 
3834375000  -4.039423e+001  1.096966e+002 
3837500000  -4.119588e+001  1.124367e+002 
3840625000  -3.979369e+001  1.122176e+002 
3843750000  -3.889887e+001  9.765935e+001 
3846875000  -3.988258e+001  8.976604e+001 
3850000000  -4.127147e+001  9.757735e+001 
3853125000  -4.052972e+001  9.942909e+001 
3856250000  -4.039567e+001  9.221358e+001 
3859375000  -3.940622e+001  8.766174e+001 
3862500000  -3.927013e+001  7.757822e+001 
3865625000  -3.972351e+001  7.400777e+001 
3868750000  -3.965617e+001  7.278809e+001 
3871875000  -3.906451e+001  6.864850e+001 
3875000000  -3.942247e+001  5.921526e+001 
3878125000  -4.068402e+001  5.825127e+001 
3881250000  -4.051472e+001  6.065471e+001 
3884375000  -4.015064e+001  5.600846e+001 
3887500000  -4.044245e+001  5.087603e+001 
3890625000  -4.089429e+001  4.842362e+001 
3893750000  -4.143391e+001  4.680305e+001 
3896875000  -4.166743e+001  4.820444e+001 
3900000000  -4.145634e+001  4.682124e+001 
3903125000  -4.137381e+001  4.258867e+001 
3906250000  -4.059527e+001  4.295000e+001 
3909375000  -4.029170e+001  3.991132e+001 
3912500000  -4.019505e+001  2.903876e+001 
3915625000  -4.171409e+001  3.198134e+001 
3918750000  -4.087859e+001  3.170182e+001 
3921875000  -4.059871e+001  2.923016e+001 
3925000000  -3.994352e+001  2.676957e+001 
3928125000  -3.940691e+001  2.011860e+001 
3931250000  -3.952333e+001  1.550762e+001 
3934375000  -3.983811e+001  1.442169e+001 
3937500000  -4.024593e+001  1.368501e+001 
3940625000  -4.082485e+001  1.020231e+001 
3943750000  -3.944301e+001  1.132071e+001 
3946875000  -3.833480e+001  5.095890e+000 
3950000000  -3.913953e+001  -3.044280e+000 
3953125000  -4.007259e+001  -3.918267e+000 
3956250000  -3.897777e+001  -1.499156e+000 
3959375000  -3.776048e+001  -5.801247e+000 
3962500000  -3.721536e+001  -1.263928e+001 
3965625000  -3.726505e+001  -2.338598e+001 
3968750000  -3.799403e+001  -3.123219e+001 
3971875000  -3.841182e+001  -3.221597e+001 
3975000000  -3.784501e+001  -3.424523e+001 
3978125000  -3.783992e+001  -3.809955e+001 
3981250000  -3.769382e+001  -4.335991e+001 
3984375000  -3.804127e+001  -4.920697e+001 
3987500000  -3.866546e+001  -5.236649e+001 
3990625000  -3.870361e+001  -5.411311e+001 
3993750000  -3.894960e+001  -5.814817e+001 
3996875000  -3.891555e+001  -6.135403e+001 
4000000000  -3.923028e+001  -6.259722e+001 
4003125000  -4.002637e+001  -6.187604e+001 
4006250000  -3.817184e+001  -6.409557e+001 
4009375000  -3.726400e+001  -7.681467e+001 
4012500000  -3.871975e+001  -8.250106e+001 
4015625000  -3.989577e+001  -8.184296e+001 
4018750000  -4.008372e+001  -8.139094e+001 
4021875000  -3.937204e+001  -8.245256e+001 
4025000000  -3.887160e+001  -8.687215e+001 
4028125000  -3.929472e+001  -9.228706e+001 
4031250000  -3.952224e+001  -9.608711e+001 
4034375000  -3.962309e+001  -9.623897e+001 
4037500000  -3.915691e+001  -9.485660e+001 
4040625000  -3.911897e+001  -9.833686e+001 
4043750000  -3.949669e+001  -9.938914e+001 
4046875000  -3.901422e+001  -1.006789e+002 
4050000000  -3.843153e+001  -1.074100e+002 
4053125000  -3.912443e+001  -1.085200e+002 
4056250000  -3.920289e+001  -1.056542e+002 
4059375000  -3.790299e+001  -1.041687e+002 
4062500000  -3.677643e+001  -1.112067e+002 
4065625000  -3.666909e+001  -1.152844e+002 
4068750000  -3.636386e+001  -1.237553e+002 
4071875000  -3.575112e+001  -1.306416e+002 
4075000000  -3.603753e+001  -1.376078e+002 
4078125000  -3.679963e+001  -1.385211e+002 
4081250000  -3.601852e+001  -1.429326e+002 
4084375000  -3.567991e+001  -1.503582e+002 
4087500000  -3.614287e+001  -1.578443e+002 
4090625000  -3.674440e+001  -1.592643e+002 
4093750000  -3.646036e+001  -1.593775e+002 
4096875000  -3.604122e+001  -1.670742e+002 
4100000000  -3.694562e+001  -1.749685e+002 
4103125000  -3.761919e+001  -1.752157e+002 
4106250000  -3.790068e+001  -1.702899e+002 
4109375000  -3.665820e+001  -1.723232e+002 
4112500000  -3.623344e+001  1.797864e+002 
4115625000  -3.657867e+001  1.736442e+002 
4118750000  -3.654139e+001  1.715801e+002 
4121875000  -3.639442e+001  1.647840e+002 
4125000000  -3.704014e+001  1.585242e+002 
4128125000  -3.791684e+001  1.588150e+002 
4131250000  -3.775383e+001  1.669189e+002 
4134375000  -3.521934e+001  1.601121e+002 
4137500000  -3.522921e+001  1.406736e+002 
4140625000  -3.754447e+001  1.326891e+002 
4143750000  -3.855155e+001  1.369372e+002 
4146875000  -3.826136e+001  1.436852e+002 
4150000000  -3.769841e+001  1.394326e+002 
4153125000  -3.756886e+001  1.319357e+002 
4156250000  -3.842738e+001  1.291289e+002 
4159375000  -3.875473e+001  1.346410e+002 
4162500000  -3.764154e+001  1.368109e+002 
4165625000  -3.672886e+001  1.317650e+002 
4168750000  -3.597987e+001  1.251196e+002 
4171875000  -3.591197e+001  1.152136e+002 
4175000000  -3.666286e+001  1.102072e+002 
4178125000  -3.723729e+001  1.107873e+002 
4181250000  -3.691555e+001  1.073313e+002 
4184375000  -3.680219e+001  1.059478e+002 
4187500000  -3.669373e+001  1.008610e+002 
4190625000  -3.666722e+001  9.625539e+001 
4193750000  -3.748219e+001  9.235031e+001 
4196875000  -3.824783e+001  9.253625e+001 
4200000000  -3.901046e+001  9.359552e+001 
4203125000  -3.878196e+001  1.074068e+002 
4206250000  -3.521595e+001  1.057773e+002 
4209375000  -3.432321e+001  8.285867e+001 
4212500000  -3.624571e+001  7.556258e+001 
4215625000  -3.703489e+001  8.094865e+001 
4218750000  -3.559108e+001  8.654003e+001 
4221875000  -3.358299e+001  7.700309e+001 
4225000000  -3.462393e+001  6.336338e+001 
4228125000  -3.523363e+001  6.699870e+001 
4231250000  -3.345858e+001  6.210145e+001 
4234375000  -3.355645e+001  5.217176e+001 
4237500000  -3.291167e+001  4.856771e+001 
4240625000  -3.287333e+001  3.839284e+001 
4243750000  -3.423307e+001  3.013373e+001 
4246875000  -3.501587e+001  2.916942e+001 
4250000000  -3.500989e+001  3.083319e+001 
4253125000  -3.463380e+001  2.855950e+001 
4256250000  -3.471949e+001  2.222681e+001 
4259375000  -3.440517e+001  1.830396e+001 
4262500000  -3.478722e+001  1.287866e+001 
4265625000  -3.488899e+001  1.433292e+001 
4268750000  -3.399056e+001  8.160107e+000 
4271875000  -3.383049e+001  9.451823e-001 
4275000000  -3.344008e+001  -5.958743e+000 
4278125000  -3.437367e+001  -1.803593e+001 
4281250000  -3.615301e+001  -2.029044e+001 
4284375000  -3.581093e+001  -2.112675e+001 
4287500000  -3.684865e+001  -2.439027e+001 
4290625000  -3.804562e+001  -1.315953e+001 
4293750000  -3.609003e+001  -1.041869e+001 
4296875000  -3.496952e+001  -2.235953e+001 
4300000000  -3.606161e+001  -3.162692e+001 
4303125000  -3.719931e+001  -2.946791e+001 
4306250000  -3.647543e+001  -2.337430e+001 
4309375000  -3.493307e+001  -2.591243e+001 
4312500000  -3.499190e+001  -3.400973e+001 
4315625000  -3.515976e+001  -3.991965e+001 
4318750000  -3.544936e+001  -4.309209e+001 
4321875000  -3.555097e+001  -4.236786e+001 
4325000000  -3.492495e+001  -4.289190e+001 
4328125000  -3.430927e+001  -4.911418e+001 
4331250000  -3.420543e+001  -5.845501e+001 
4334375000  -3.456764e+001  -6.346141e+001 
4337500000  -3.547566e+001  -6.565691e+001 
4340625000  -3.597610e+001  -6.177700e+001 
4343750000  -3.485276e+001  -6.355196e+001 
4346875000  -3.441145e+001  -6.922928e+001 
4350000000  -3.462231e+001  -7.594168e+001 
4353125000  -3.446027e+001  -8.408256e+001 
4356250000  -3.633716e+001  -8.483401e+001 
4359375000  -3.646929e+001  -7.187031e+001 
4362500000  -3.341728e+001  -7.159440e+001 
4365625000  -3.203173e+001  -8.568551e+001 
4368750000  -3.278769e+001  -9.916147e+001 
4371875000  -3.402402e+001  -9.883804e+001 
4375000000  -3.348552e+001  -9.971880e+001 
4378125000  -3.276876e+001  -1.073953e+002 
4381250000  -3.297407e+001  -1.147484e+002 
4384375000  -3.272621e+001  -1.205555e+002 
4387500000  -3.353415e+001  -1.269714e+002 
4390625000  -3.461293e+001  -1.279475e+002 
4393750000  -3.381492e+001  -1.267825e+002 
4396875000  -3.323042e+001  -1.309235e+002 
4400000000  -3.280830e+001  -1.391986e+002 
4403125000  -3.355904e+001  -1.477952e+002 
4406250000  -3.435332e+001  -1.491493e+002 
4409375000  -3.450530e+001  -1.541023e+002 
4412500000  -3.558309e+001  -1.572803e+002 
4415625000  -3.610028e+001  -1.518106e+002 
