!Agilent Technologies,E8363B,MY43030201,A.06.04.32
!Agilent E8363B: A.06.04.32
!Date: Tuesday, November 11, 2014 21:10:50
!Correction: S21(Response(S21)) 
!S1P File: Measurement: S21:
# Hz S  dB   R 50
3000000000  -3.652945e+001  -5.456936e+001 
3003125000  -3.780856e+001  -6.168487e+001 
3006250000  -3.753031e+001  -6.338242e+001 
3009375000  -3.786232e+001  -5.894067e+001 
3012500000  -3.699945e+001  -6.071741e+001 
3015625000  -3.621903e+001  -6.786383e+001 
3018750000  -3.703541e+001  -6.956208e+001 
3021875000  -3.549427e+001  -6.853667e+001 
3025000000  -3.414039e+001  -7.219862e+001 
3028125000  -3.317348e+001  -7.880212e+001 
3031250000  -3.223254e+001  -9.012673e+001 
3034375000  -3.176805e+001  -1.038881e+002 
3037500000  -3.232133e+001  -1.159620e+002 
3040625000  -3.359660e+001  -1.211786e+002 
3043750000  -3.426135e+001  -1.255987e+002 
3046875000  -3.442561e+001  -1.317796e+002 
3050000000  -3.632375e+001  -1.379733e+002 
3053125000  -3.612961e+001  -1.316314e+002 
3056250000  -3.553858e+001  -1.281988e+002 
3059375000  -3.567937e+001  -1.288353e+002 
3062500000  -3.406163e+001  -1.326105e+002 
3065625000  -3.393156e+001  -1.389960e+002 
3068750000  -3.357193e+001  -1.460700e+002 
3071875000  -3.361747e+001  -1.482100e+002 
3075000000  -3.323582e+001  -1.528209e+002 
3078125000  -3.309609e+001  -1.563320e+002 
3081250000  -3.349569e+001  -1.612140e+002 
3084375000  -3.264436e+001  -1.646639e+002 
3087500000  -3.252978e+001  -1.687907e+002 
3090625000  -3.195912e+001  -1.788234e+002 
3093750000  -3.248954e+001  1.736326e+002 
3096875000  -3.346350e+001  1.680939e+002 
3100000000  -3.343385e+001  1.664329e+002 
3103125000  -3.363673e+001  1.663617e+002 
3106250000  -3.319333e+001  1.626043e+002 
3109375000  -3.326437e+001  1.590046e+002 
3112500000  -3.314870e+001  1.564437e+002 
3115625000  -3.288309e+001  1.513394e+002 
3118750000  -3.318653e+001  1.514212e+002 
3121875000  -3.231863e+001  1.417785e+002 
3125000000  -3.362659e+001  1.384452e+002 
3128125000  -3.451735e+001  1.464158e+002 
3131250000  -3.206532e+001  1.434368e+002 
3134375000  -3.075885e+001  1.281775e+002 
3137500000  -3.138819e+001  1.142775e+002 
3140625000  -3.273492e+001  1.117471e+002 
3143750000  -3.385751e+001  1.123507e+002 
3146875000  -3.335594e+001  1.139398e+002 
3150000000  -3.233108e+001  1.140626e+002 
3153125000  -3.231857e+001  1.048705e+002 
3156250000  -3.335127e+001  1.098517e+002 
3159375000  -3.147864e+001  1.107910e+002 
3162500000  -2.966498e+001  9.624651e+001 
3165625000  -3.072800e+001  8.376321e+001 
3168750000  -3.100315e+001  8.396069e+001 
3171875000  -3.011963e+001  7.856436e+001 
3175000000  -3.080800e+001  6.971301e+001 
3178125000  -3.060906e+001  7.068871e+001 
3181250000  -2.950130e+001  6.458498e+001 
3184375000  -2.886665e+001  5.194801e+001 
3187500000  -3.011223e+001  3.694604e+001 
3190625000  -3.264290e+001  2.940634e+001 
3193750000  -3.324247e+001  3.785396e+001 
3196875000  -3.294537e+001  4.185687e+001 
3200000000  -3.199498e+001  3.944341e+001 
3203125000  -3.114624e+001  3.218232e+001 
3206250000  -3.150618e+001  2.595065e+001 
3209375000  -3.101497e+001  2.008116e+001 
3212500000  -3.127799e+001  1.314608e+001 
3215625000  -3.129424e+001  9.821540e+000 
3218750000  -3.218824e+001  2.051864e+000 
3221875000  -3.292688e+001  -2.822157e+000 
3225000000  -3.244524e+001  -4.281332e+000 
3228125000  -3.289454e+001  -1.001222e+001 
3231250000  -3.353981e+001  -1.241381e+001 
3234375000  -3.334412e+001  -1.254689e+001 
3237500000  -3.326574e+001  -1.413565e+001 
3240625000  -3.289858e+001  -1.669967e+001 
3243750000  -3.250410e+001  -2.435357e+001 
3246875000  -3.292390e+001  -3.147842e+001 
3250000000  -3.335378e+001  -3.433887e+001 
3253125000  -3.346057e+001  -3.594477e+001 
3256250000  -3.304915e+001  -4.260434e+001 
3259375000  -3.340283e+001  -5.196016e+001 
3262500000  -3.453909e+001  -5.438302e+001 
3265625000  -3.535379e+001  -5.227942e+001 
3268750000  -3.503949e+001  -5.065477e+001 
3271875000  -3.454379e+001  -5.115115e+001 
3275000000  -3.368812e+001  -5.765415e+001 
3278125000  -3.414864e+001  -6.398180e+001 
3281250000  -3.419483e+001  -6.296081e+001 
3284375000  -3.375721e+001  -6.974154e+001 
3287500000  -3.399191e+001  -7.376803e+001 
3290625000  -3.424638e+001  -7.906491e+001 
3293750000  -3.410885e+001  -8.537329e+001 
3296875000  -3.511396e+001  -8.594240e+001 
3300000000  -3.476815e+001  -8.535633e+001 
3303125000  -3.358941e+001  -9.061397e+001 
3306250000  -3.348693e+001  -9.766150e+001 
3309375000  -3.313580e+001  -1.039417e+002 
3312500000  -3.326414e+001  -1.147741e+002 
3315625000  -3.424160e+001  -1.231544e+002 
3318750000  -3.564307e+001  -1.257981e+002 
3321875000  -3.668887e+001  -1.254665e+002 
3325000000  -3.732692e+001  -1.203593e+002 
3328125000  -3.676138e+001  -1.196531e+002 
3331250000  -3.550352e+001  -1.120704e+002 
3334375000  -3.286599e+001  -1.245706e+002 
3337500000  -3.296500e+001  -1.438399e+002 
3340625000  -3.432668e+001  -1.545298e+002 
3343750000  -3.642376e+001  -1.559389e+002 
3346875000  -3.643921e+001  -1.538038e+002 
3350000000  -3.586926e+001  -1.554182e+002 
3353125000  -3.587138e+001  -1.613387e+002 
3356250000  -3.534637e+001  -1.687132e+002 
3359375000  -3.629904e+001  -1.770056e+002 
3362500000  -3.727663e+001  1.767519e+002 
3365625000  -3.792498e+001  1.747199e+002 
3368750000  -3.850942e+001  1.741124e+002 
3371875000  -3.873913e+001  1.703090e+002 
3375000000  -4.031686e+001  1.680689e+002 
3378125000  -4.100105e+001  1.674962e+002 
3381250000  -4.233252e+001  1.767394e+002 
3384375000  -4.097009e+001  -1.633361e+002 
3387500000  -3.754995e+001  -1.797679e+002 
3390625000  -3.923199e+001  1.620065e+002 
3393750000  -4.025894e+001  1.651681e+002 
3396875000  -3.889218e+001  1.669384e+002 
3400000000  -3.860860e+001  1.568957e+002 
3403125000  -3.930074e+001  1.521257e+002 
3406250000  -3.969352e+001  1.519135e+002 
3409375000  -3.965576e+001  1.435874e+002 
3412500000  -4.023220e+001  1.435993e+002 
3415625000  -4.083132e+001  1.429317e+002 
3418750000  -4.103931e+001  1.424526e+002 
3421875000  -4.119867e+001  1.473494e+002 
3425000000  -4.029944e+001  1.473625e+002 
3428125000  -3.933900e+001  1.428108e+002 
3431250000  -3.903550e+001  1.352200e+002 
3434375000  -3.901772e+001  1.300146e+002 
3437500000  -3.963668e+001  1.259619e+002 
3440625000  -3.997851e+001  1.283766e+002 
3443750000  -3.871106e+001  1.288718e+002 
3446875000  -3.786671e+001  1.210377e+002 
3450000000  -3.753943e+001  1.102064e+002 
3453125000  -3.792366e+001  1.007869e+002 
3456250000  -3.918519e+001  9.445296e+001 
3459375000  -4.005051e+001  9.485390e+001 
3462500000  -3.985555e+001  9.608710e+001 
3465625000  -3.969470e+001  8.938569e+001 
3468750000  -4.010700e+001  8.567754e+001 
3471875000  -4.016091e+001  8.404654e+001 
3475000000  -3.949965e+001  7.980128e+001 
3478125000  -4.035074e+001  7.100861e+001 
3481250000  -4.106208e+001  6.998873e+001 
3484375000  -4.205232e+001  7.385896e+001 
3487500000  -4.134986e+001  7.204455e+001 
3490625000  -4.069556e+001  6.812949e+001 
3493750000  -4.122249e+001  5.960210e+001 
3496875000  -4.185715e+001  5.972611e+001 
3500000000  -4.251899e+001  6.303170e+001 
3503125000  -4.180590e+001  6.502520e+001 
3506250000  -4.046724e+001  5.827110e+001 
3509375000  -4.059193e+001  4.851777e+001 
3512500000  -4.089880e+001  3.968663e+001 
3515625000  -4.192039e+001  3.989548e+001 
3518750000  -4.261106e+001  3.997060e+001 
3521875000  -4.249070e+001  3.552615e+001 
3525000000  -4.359198e+001  3.155196e+001 
3528125000  -4.346257e+001  4.116171e+001 
3531250000  -4.205468e+001  3.695901e+001 
3534375000  -4.216796e+001  2.836790e+001 
3537500000  -4.263245e+001  2.256553e+001 
3540625000  -4.339747e+001  2.305409e+001 
3543750000  -4.405692e+001  2.821040e+001 
3546875000  -4.431215e+001  3.921963e+001 
3550000000  -4.179295e+001  3.823918e+001 
3553125000  -4.034695e+001  2.200498e+001 
3556250000  -4.170599e+001  1.558409e+001 
3559375000  -4.145600e+001  1.648878e+001 
3562500000  -4.044237e+001  7.598665e+000 
3565625000  -4.113996e+001  6.557512e-001 
3568750000  -4.119127e+001  3.145418e+000 
3571875000  -4.138396e+001  1.692507e+000 
3575000000  -4.085707e+001  -4.986233e+000 
3578125000  -4.122031e+001  -1.041804e+001 
3581250000  -4.148168e+001  -1.116995e+001 
3584375000  -4.054961e+001  -1.186375e+001 
3587500000  -4.006922e+001  -2.339164e+001 
3590625000  -4.048104e+001  -3.395613e+001 
3593750000  -4.205082e+001  -3.387304e+001 
3596875000  -4.155579e+001  -2.873055e+001 
3600000000  -4.025948e+001  -3.484168e+001 
3603125000  -4.047857e+001  -4.859226e+001 
3606250000  -4.127548e+001  -5.310676e+001 
3609375000  -4.199860e+001  -5.501425e+001 
3612500000  -4.266537e+001  -6.043040e+001 
3615625000  -4.256508e+001  -6.268235e+001 
3618750000  -4.355877e+001  -6.263415e+001 
3621875000  -4.341868e+001  -6.519493e+001 
3625000000  -4.421157e+001  -6.671407e+001 
3628125000  -4.432022e+001  -6.911806e+001 
3631250000  -4.374720e+001  -7.722179e+001 
3634375000  -4.520711e+001  -7.566539e+001 
3637500000  -4.532546e+001  -7.027182e+001 
3640625000  -4.455506e+001  -6.922049e+001 
3643750000  -4.427095e+001  -7.646478e+001 
3646875000  -4.470011e+001  -8.294409e+001 
3650000000  -4.565672e+001  -7.864222e+001 
3653125000  -4.525652e+001  -7.876339e+001 
3656250000  -4.555265e+001  -7.970297e+001 
3659375000  -4.609832e+001  -7.874965e+001 
3662500000  -4.540496e+001  -7.841231e+001 
3665625000  -4.540875e+001  -8.121998e+001 
3668750000  -4.404555e+001  -7.940401e+001 
3671875000  -4.290031e+001  -8.611452e+001 
3675000000  -4.362133e+001  -9.446755e+001 
3678125000  -4.336080e+001  -9.388351e+001 
3681250000  -4.324676e+001  -9.471204e+001 
3684375000  -4.319233e+001  -9.998221e+001 
3687500000  -4.332488e+001  -1.050586e+002 
3690625000  -4.308776e+001  -1.094799e+002 
3693750000  -4.439804e+001  -1.095127e+002 
3696875000  -4.386599e+001  -1.065091e+002 
3700000000  -4.287249e+001  -1.123804e+002 
3703125000  -4.318056e+001  -1.172742e+002 
3706250000  -4.375883e+001  -1.170752e+002 
3709375000  -4.329116e+001  -1.175175e+002 
3712500000  -4.223444e+001  -1.189198e+002 
3715625000  -4.138126e+001  -1.262026e+002 
3718750000  -4.141856e+001  -1.316252e+002 
3721875000  -4.153786e+001  -1.355304e+002 
3725000000  -4.157265e+001  -1.458994e+002 
3728125000  -4.174698e+001  -1.455826e+002 
3731250000  -4.135576e+001  -1.493892e+002 
3734375000  -4.103709e+001  -1.555402e+002 
3737500000  -4.169617e+001  -1.626715e+002 
3740625000  -4.290419e+001  -1.650484e+002 
3743750000  -4.282904e+001  -1.703355e+002 
3746875000  -4.338731e+001  -1.731074e+002 
3750000000  -4.386906e+001  -1.751666e+002 
3753125000  -4.394893e+001  -1.740118e+002 
3756250000  -4.444386e+001  -1.724307e+002 
3759375000  -4.446335e+001  -1.729601e+002 
3762500000  -4.402961e+001  -1.757647e+002 
3765625000  -4.494298e+001  -1.764312e+002 
3768750000  -4.486920e+001  -1.719616e+002 
3771875000  -4.301935e+001  -1.729232e+002 
3775000000  -4.292143e+001  1.793616e+002 
3778125000  -4.288354e+001  1.781915e+002 
3781250000  -4.288808e+001  1.773687e+002 
3784375000  -4.288974e+001  1.762334e+002 
3787500000  -4.225675e+001  1.731810e+002 
3790625000  -4.255474e+001  1.661131e+002 
3793750000  -4.250235e+001  1.674930e+002 
3796875000  -4.135067e+001  1.651421e+002 
3800000000  -3.984177e+001  1.633625e+002 
3803125000  -4.040973e+001  1.516528e+002 
3806250000  -4.100019e+001  1.504085e+002 
3809375000  -4.071220e+001  1.484279e+002 
3812500000  -3.987904e+001  1.422873e+002 
3815625000  -4.061351e+001  1.314645e+002 
3818750000  -4.181890e+001  1.318180e+002 
3821875000  -4.165924e+001  1.409209e+002 
3825000000  -3.943314e+001  1.418802e+002 
3828125000  -3.822383e+001  1.258132e+002 
3831250000  -3.883738e+001  1.113362e+002 
3834375000  -4.050540e+001  1.086248e+002 
3837500000  -4.127746e+001  1.150308e+002 
3840625000  -3.972953e+001  1.130436e+002 
3843750000  -3.894097e+001  9.860729e+001 
3846875000  -3.981243e+001  9.316380e+001 
3850000000  -4.103880e+001  9.780582e+001 
3853125000  -4.064490e+001  9.989585e+001 
3856250000  -4.038850e+001  9.436078e+001 
3859375000  -3.942185e+001  8.853242e+001 
3862500000  -3.930605e+001  7.936371e+001 
3865625000  -3.984928e+001  7.511797e+001 
3868750000  -3.972163e+001  7.274503e+001 
3871875000  -3.910569e+001  7.078736e+001 
3875000000  -3.942237e+001  6.142075e+001 
3878125000  -4.051882e+001  5.690272e+001 
3881250000  -4.092486e+001  6.169365e+001 
3884375000  -4.009117e+001  5.582796e+001 
3887500000  -4.026044e+001  5.052020e+001 
3890625000  -4.087580e+001  4.881527e+001 
3893750000  -4.102058e+001  4.643611e+001 
3896875000  -4.149216e+001  4.800156e+001 
3900000000  -4.149603e+001  4.658759e+001 
3903125000  -4.117748e+001  4.369692e+001 
3906250000  -4.069691e+001  4.207565e+001 
3909375000  -4.007277e+001  3.837808e+001 
3912500000  -4.013357e+001  2.917220e+001 
3915625000  -4.162019e+001  3.185640e+001 
3918750000  -4.110099e+001  3.212383e+001 
3921875000  -4.062568e+001  2.997344e+001 
3925000000  -3.977081e+001  2.662041e+001 
3928125000  -3.933877e+001  1.959717e+001 
3931250000  -3.957647e+001  1.418195e+001 
3934375000  -4.007133e+001  1.407873e+001 
3937500000  -4.019882e+001  1.350103e+001 
3940625000  -4.060892e+001  1.044378e+001 
3943750000  -3.959417e+001  1.121125e+001 
3946875000  -3.849602e+001  4.827509e+000 
3950000000  -3.922540e+001  -2.600500e+000 
3953125000  -4.031172e+001  -4.762269e+000 
3956250000  -3.932336e+001  -3.075400e+000 
3959375000  -3.808216e+001  -5.846910e+000 
3962500000  -3.749575e+001  -1.282618e+001 
3965625000  -3.730526e+001  -2.108657e+001 
3968750000  -3.843140e+001  -2.881043e+001 
3971875000  -3.848581e+001  -3.296742e+001 
3975000000  -3.808673e+001  -3.299155e+001 
3978125000  -3.783509e+001  -3.666656e+001 
3981250000  -3.788369e+001  -4.203479e+001 
3984375000  -3.806376e+001  -4.872792e+001 
3987500000  -3.878979e+001  -5.107135e+001 
3990625000  -3.876409e+001  -5.368579e+001 
3993750000  -3.896138e+001  -5.643579e+001 
3996875000  -3.875969e+001  -6.057536e+001 
4000000000  -3.949928e+001  -6.086775e+001 
4003125000  -3.961215e+001  -6.039927e+001 
4006250000  -3.831674e+001  -6.005510e+001 
4009375000  -3.707740e+001  -7.519418e+001 
4012500000  -3.868100e+001  -8.178646e+001 
4015625000  -3.977843e+001  -8.089146e+001 
4018750000  -3.996750e+001  -7.838452e+001 
4021875000  -3.926397e+001  -8.154695e+001 
4025000000  -3.878282e+001  -8.701543e+001 
4028125000  -3.882728e+001  -9.238273e+001 
4031250000  -3.911187e+001  -9.527193e+001 
4034375000  -3.946807e+001  -9.664068e+001 
4037500000  -3.930753e+001  -9.389474e+001 
4040625000  -3.892156e+001  -9.905971e+001 
4043750000  -3.947989e+001  -9.984615e+001 
4046875000  -3.890667e+001  -1.010110e+002 
4050000000  -3.863257e+001  -1.075738e+002 
4053125000  -3.908507e+001  -1.094048e+002 
4056250000  -3.916454e+001  -1.065383e+002 
4059375000  -3.819530e+001  -1.060975e+002 
4062500000  -3.659904e+001  -1.127535e+002 
4065625000  -3.664637e+001  -1.157484e+002 
4068750000  -3.629716e+001  -1.215504e+002 
4071875000  -3.580254e+001  -1.315365e+002 
4075000000  -3.609569e+001  -1.381363e+002 
4078125000  -3.678100e+001  -1.395284e+002 
4081250000  -3.618464e+001  -1.433785e+002 
4084375000  -3.572956e+001  -1.504295e+002 
4087500000  -3.610263e+001  -1.576490e+002 
4090625000  -3.687683e+001  -1.595933e+002 
4093750000  -3.665101e+001  -1.605325e+002 
4096875000  -3.621444e+001  -1.663489e+002 
4100000000  -3.707180e+001  -1.748423e+002 
4103125000  -3.800653e+001  -1.737398e+002 
4106250000  -3.780651e+001  -1.704810e+002 
4109375000  -3.675641e+001  -1.723134e+002 
4112500000  -3.626995e+001  1.796156e+002 
4115625000  -3.659486e+001  1.768366e+002 
4118750000  -3.694546e+001  1.710334e+002 
4121875000  -3.650433e+001  1.658913e+002 
4125000000  -3.684716e+001  1.592813e+002 
4128125000  -3.802590e+001  1.599651e+002 
4131250000  -3.756042e+001  1.681347e+002 
4134375000  -3.527392e+001  1.608450e+002 
4137500000  -3.523486e+001  1.424188e+002 
4140625000  -3.752953e+001  1.343936e+002 
4143750000  -3.873021e+001  1.387833e+002 
4146875000  -3.817137e+001  1.457160e+002 
4150000000  -3.768438e+001  1.415531e+002 
4153125000  -3.756514e+001  1.321403e+002 
4156250000  -3.845148e+001  1.299008e+002 
4159375000  -3.867925e+001  1.338570e+002 
4162500000  -3.750307e+001  1.397351e+002 
4165625000  -3.641108e+001  1.334206e+002 
4168750000  -3.580721e+001  1.247960e+002 
4171875000  -3.590596e+001  1.163948e+002 
4175000000  -3.659115e+001  1.121070e+002 
4178125000  -3.724668e+001  1.100186e+002 
4181250000  -3.691663e+001  1.099282e+002 
4184375000  -3.688094e+001  1.042119e+002 
4187500000  -3.702620e+001  1.012744e+002 
4190625000  -3.650970e+001  9.567274e+001 
4193750000  -3.755877e+001  9.070660e+001 
4196875000  -3.804607e+001  9.060828e+001 
4200000000  -3.903396e+001  9.257403e+001 
4203125000  -3.889219e+001  1.061967e+002 
4206250000  -3.523056e+001  1.052049e+002 
4209375000  -3.425916e+001  8.328289e+001 
4212500000  -3.642870e+001  7.458274e+001 
4215625000  -3.704568e+001  8.093072e+001 
4218750000  -3.568898e+001  8.647238e+001 
4221875000  -3.341682e+001  7.650478e+001 
4225000000  -3.473868e+001  6.393493e+001 
4228125000  -3.535034e+001  6.660367e+001 
4231250000  -3.379004e+001  6.127894e+001 
4234375000  -3.346643e+001  5.146638e+001 
4237500000  -3.327223e+001  4.878859e+001 
4240625000  -3.311343e+001  3.820411e+001 
4243750000  -3.414437e+001  2.924817e+001 
4246875000  -3.512692e+001  2.975085e+001 
4250000000  -3.520968e+001  3.139879e+001 
4253125000  -3.461723e+001  2.828086e+001 
4256250000  -3.493757e+001  2.309876e+001 
4259375000  -3.468532e+001  1.909154e+001 
4262500000  -3.476599e+001  1.524119e+001 
4265625000  -3.502069e+001  1.499394e+001 
4268750000  -3.392873e+001  9.217667e+000 
4271875000  -3.401062e+001  2.566108e+000 
4275000000  -3.364202e+001  -4.479669e+000 
4278125000  -3.420558e+001  -1.766731e+001 
4281250000  -3.622871e+001  -2.082428e+001 
4284375000  -3.591316e+001  -2.018716e+001 
4287500000  -3.693597e+001  -2.407146e+001 
4290625000  -3.811310e+001  -1.406087e+001 
4293750000  -3.614000e+001  -9.203603e+000 
4296875000  -3.499312e+001  -1.975778e+001 
4300000000  -3.603977e+001  -2.898169e+001 
4303125000  -3.717750e+001  -2.773782e+001 
4306250000  -3.635873e+001  -2.290868e+001 
4309375000  -3.510257e+001  -2.538962e+001 
4312500000  -3.492887e+001  -3.388983e+001 
4315625000  -3.510543e+001  -3.928856e+001 
4318750000  -3.529617e+001  -4.272390e+001 
4321875000  -3.541501e+001  -4.231385e+001 
4325000000  -3.476279e+001  -4.314883e+001 
4328125000  -3.413382e+001  -4.887955e+001 
4331250000  -3.419299e+001  -5.775399e+001 
4334375000  -3.454313e+001  -6.360809e+001 
4337500000  -3.527471e+001  -6.492766e+001 
4340625000  -3.576860e+001  -6.208634e+001 
4343750000  -3.501794e+001  -6.315928e+001 
4346875000  -3.470982e+001  -6.986160e+001 
4350000000  -3.463346e+001  -7.610568e+001 
4353125000  -3.455706e+001  -8.417262e+001 
4356250000  -3.632617e+001  -8.543699e+001 
4359375000  -3.650337e+001  -7.050198e+001 
4362500000  -3.373455e+001  -7.242770e+001 
4365625000  -3.197008e+001  -8.718685e+001 
4368750000  -3.300738e+001  -9.943831e+001 
4371875000  -3.410348e+001  -9.883421e+001 
4375000000  -3.358256e+001  -1.007564e+002 
4378125000  -3.292207e+001  -1.072587e+002 
4381250000  -3.307477e+001  -1.140027e+002 
4384375000  -3.287625e+001  -1.194422e+002 
4387500000  -3.379768e+001  -1.277311e+002 
4390625000  -3.469373e+001  -1.269935e+002 
4393750000  -3.402620e+001  -1.264773e+002 
4396875000  -3.339266e+001  -1.304992e+002 
4400000000  -3.297561e+001  -1.379999e+002 
4403125000  -3.376054e+001  -1.469701e+002 
4406250000  -3.456147e+001  -1.484888e+002 
4409375000  -3.465992e+001  -1.530354e+002 
4412500000  -3.587257e+001  -1.559961e+002 
4415625000  -3.610023e+001  -1.504918e+002 
