!Agilent Technologies,E8363B,MY43030201,A.06.04.32
!Agilent E8363B: A.06.04.32
!Date: Tuesday, November 11, 2014 21:10:26
!Correction: S21(Response(S21)) 
!S1P File: Measurement: S21:
# Hz S  dB   R 50
3000000000  -3.646461e+001  -5.443096e+001 
3003125000  -3.770061e+001  -6.150032e+001 
3006250000  -3.766088e+001  -6.278504e+001 
3009375000  -3.791350e+001  -5.879585e+001 
3012500000  -3.700914e+001  -6.067531e+001 
3015625000  -3.618567e+001  -6.840179e+001 
3018750000  -3.693463e+001  -6.986392e+001 
3021875000  -3.550771e+001  -6.787505e+001 
3025000000  -3.417022e+001  -7.112074e+001 
3028125000  -3.321002e+001  -7.883282e+001 
3031250000  -3.222830e+001  -9.032510e+001 
3034375000  -3.186711e+001  -1.040275e+002 
3037500000  -3.232048e+001  -1.154727e+002 
3040625000  -3.359221e+001  -1.199173e+002 
3043750000  -3.426365e+001  -1.258596e+002 
3046875000  -3.452328e+001  -1.315968e+002 
3050000000  -3.620424e+001  -1.372087e+002 
3053125000  -3.614193e+001  -1.316229e+002 
3056250000  -3.559120e+001  -1.280072e+002 
3059375000  -3.561684e+001  -1.288058e+002 
3062500000  -3.413947e+001  -1.326791e+002 
3065625000  -3.393387e+001  -1.387899e+002 
3068750000  -3.355797e+001  -1.455159e+002 
3071875000  -3.353733e+001  -1.477178e+002 
3075000000  -3.332484e+001  -1.524980e+002 
3078125000  -3.305145e+001  -1.563001e+002 
3081250000  -3.349229e+001  -1.599508e+002 
3084375000  -3.267896e+001  -1.645222e+002 
3087500000  -3.251913e+001  -1.681007e+002 
3090625000  -3.207092e+001  -1.782037e+002 
3093750000  -3.249325e+001  1.743816e+002 
3096875000  -3.349685e+001  1.688873e+002 
3100000000  -3.336206e+001  1.669139e+002 
3103125000  -3.368324e+001  1.672902e+002 
3106250000  -3.320150e+001  1.629682e+002 
3109375000  -3.324989e+001  1.590435e+002 
3112500000  -3.316677e+001  1.564864e+002 
3115625000  -3.289346e+001  1.520672e+002 
3118750000  -3.321379e+001  1.521434e+002 
3121875000  -3.235472e+001  1.426459e+002 
3125000000  -3.364264e+001  1.385143e+002 
3128125000  -3.448982e+001  1.456002e+002 
3131250000  -3.200282e+001  1.438786e+002 
3134375000  -3.076488e+001  1.279150e+002 
3137500000  -3.139057e+001  1.146686e+002 
3140625000  -3.280342e+001  1.117042e+002 
3143750000  -3.382399e+001  1.128242e+002 
3146875000  -3.330592e+001  1.144249e+002 
3150000000  -3.231239e+001  1.139220e+002 
3153125000  -3.234579e+001  1.051687e+002 
3156250000  -3.333342e+001  1.100736e+002 
3159375000  -3.148659e+001  1.108113e+002 
3162500000  -2.965580e+001  9.601552e+001 
3165625000  -3.075901e+001  8.385957e+001 
3168750000  -3.101753e+001  8.404014e+001 
3171875000  -3.020403e+001  7.850445e+001 
3175000000  -3.088497e+001  7.003912e+001 
3178125000  -3.061696e+001  7.012476e+001 
3181250000  -2.948272e+001  6.486461e+001 
3184375000  -2.888850e+001  5.181787e+001 
3187500000  -3.014007e+001  3.759384e+001 
3190625000  -3.272106e+001  2.943849e+001 
3193750000  -3.329966e+001  3.818121e+001 
3196875000  -3.295005e+001  4.212142e+001 
3200000000  -3.193186e+001  3.980434e+001 
3203125000  -3.124091e+001  3.312614e+001 
3206250000  -3.161040e+001  2.607312e+001 
3209375000  -3.102800e+001  2.072093e+001 
3212500000  -3.134872e+001  1.335047e+001 
3215625000  -3.134367e+001  9.652346e+000 
3218750000  -3.225532e+001  2.034535e+000 
3221875000  -3.296564e+001  -2.562140e+000 
3225000000  -3.252160e+001  -4.166575e+000 
3228125000  -3.298159e+001  -9.698034e+000 
3231250000  -3.365799e+001  -1.177310e+001 
3234375000  -3.330738e+001  -1.154303e+001 
3237500000  -3.336668e+001  -1.387761e+001 
3240625000  -3.287491e+001  -1.676420e+001 
3243750000  -3.253478e+001  -2.456803e+001 
3246875000  -3.292103e+001  -3.123374e+001 
3250000000  -3.337755e+001  -3.360716e+001 
3253125000  -3.350373e+001  -3.594287e+001 
3256250000  -3.311886e+001  -4.228503e+001 
3259375000  -3.350700e+001  -5.134970e+001 
3262500000  -3.463215e+001  -5.507330e+001 
3265625000  -3.516024e+001  -5.168676e+001 
3268750000  -3.499289e+001  -5.045670e+001 
3271875000  -3.466532e+001  -5.053379e+001 
3275000000  -3.367973e+001  -5.764967e+001 
3278125000  -3.415304e+001  -6.391975e+001 
3281250000  -3.437406e+001  -6.287054e+001 
3284375000  -3.384383e+001  -6.901568e+001 
3287500000  -3.401636e+001  -7.335647e+001 
3290625000  -3.417075e+001  -7.854538e+001 
3293750000  -3.405420e+001  -8.517289e+001 
3296875000  -3.511036e+001  -8.554801e+001 
3300000000  -3.492744e+001  -8.476132e+001 
3303125000  -3.364928e+001  -9.044645e+001 
3306250000  -3.344213e+001  -9.733230e+001 
3309375000  -3.309613e+001  -1.036701e+002 
3312500000  -3.333771e+001  -1.151175e+002 
3315625000  -3.432558e+001  -1.224158e+002 
3318750000  -3.576996e+001  -1.255109e+002 
3321875000  -3.679778e+001  -1.260906e+002 
3325000000  -3.737662e+001  -1.205000e+002 
3328125000  -3.657093e+001  -1.205775e+002 
3331250000  -3.548785e+001  -1.136013e+002 
3334375000  -3.286679e+001  -1.243053e+002 
3337500000  -3.303215e+001  -1.439566e+002 
3340625000  -3.442865e+001  -1.546812e+002 
3343750000  -3.647765e+001  -1.552648e+002 
3346875000  -3.661765e+001  -1.537144e+002 
3350000000  -3.593668e+001  -1.560596e+002 
3353125000  -3.604897e+001  -1.609245e+002 
3356250000  -3.550983e+001  -1.691097e+002 
3359375000  -3.624569e+001  -1.762470e+002 
3362500000  -3.731358e+001  1.779152e+002 
3365625000  -3.787641e+001  1.754570e+002 
3368750000  -3.869278e+001  1.738481e+002 
3371875000  -3.896508e+001  1.711894e+002 
3375000000  -4.025509e+001  1.673671e+002 
3378125000  -4.116758e+001  1.679162e+002 
3381250000  -4.239674e+001  1.765865e+002 
3384375000  -4.082590e+001  -1.626750e+002 
3387500000  -3.752374e+001  -1.783730e+002 
3390625000  -3.915533e+001  1.622168e+002 
3393750000  -4.029283e+001  1.658422e+002 
3396875000  -3.919425e+001  1.678959e+002 
3400000000  -3.860775e+001  1.574956e+002 
3403125000  -3.903848e+001  1.535231e+002 
3406250000  -3.966105e+001  1.530449e+002 
3409375000  -3.975938e+001  1.457439e+002 
3412500000  -4.016833e+001  1.434566e+002 
3415625000  -4.104327e+001  1.438107e+002 
3418750000  -4.084710e+001  1.455580e+002 
3421875000  -4.132005e+001  1.468402e+002 
3425000000  -4.026134e+001  1.478594e+002 
3428125000  -3.943296e+001  1.437435e+002 
3431250000  -3.926173e+001  1.362122e+002 
3434375000  -3.887564e+001  1.313731e+002 
3437500000  -3.978296e+001  1.271129e+002 
3440625000  -3.993644e+001  1.290074e+002 
3443750000  -3.866483e+001  1.284844e+002 
3446875000  -3.801999e+001  1.208842e+002 
3450000000  -3.749669e+001  1.113916e+002 
3453125000  -3.808849e+001  1.020696e+002 
3456250000  -3.928974e+001  9.441465e+001 
3459375000  -4.012368e+001  9.558669e+001 
3462500000  -3.995585e+001  9.672545e+001 
3465625000  -3.982109e+001  8.984409e+001 
3468750000  -4.000316e+001  8.682269e+001 
3471875000  -3.987721e+001  8.511247e+001 
3475000000  -3.961477e+001  8.021449e+001 
3478125000  -4.029245e+001  7.276028e+001 
3481250000  -4.136404e+001  6.946251e+001 
3484375000  -4.233663e+001  7.500029e+001 
3487500000  -4.141851e+001  7.427435e+001 
3490625000  -4.058401e+001  6.756070e+001 
3493750000  -4.159824e+001  6.157919e+001 
3496875000  -4.176926e+001  6.070795e+001 
3500000000  -4.238905e+001  6.397404e+001 
3503125000  -4.215738e+001  6.548501e+001 
3506250000  -4.045834e+001  5.973237e+001 
3509375000  -4.065685e+001  5.007491e+001 
3512500000  -4.119606e+001  4.218241e+001 
3515625000  -4.178654e+001  4.050972e+001 
3518750000  -4.273646e+001  4.006413e+001 
3521875000  -4.228803e+001  3.719772e+001 
3525000000  -4.340165e+001  3.638268e+001 
3528125000  -4.339733e+001  4.193296e+001 
3531250000  -4.203021e+001  4.035750e+001 
3534375000  -4.209391e+001  2.944453e+001 
3537500000  -4.240592e+001  2.505500e+001 
3540625000  -4.356397e+001  2.409808e+001 
3543750000  -4.427258e+001  2.589153e+001 
3546875000  -4.391224e+001  4.064103e+001 
3550000000  -4.128305e+001  3.945227e+001 
3553125000  -4.017386e+001  2.283646e+001 
3556250000  -4.122653e+001  1.631583e+001 
3559375000  -4.112223e+001  1.727713e+001 
3562500000  -4.013462e+001  9.519456e+000 
3565625000  -4.107487e+001  1.438770e-001 
3568750000  -4.129331e+001  2.852293e+000 
3571875000  -4.097364e+001  1.611373e+000 
3575000000  -4.065878e+001  -5.073056e+000 
3578125000  -4.127084e+001  -1.004203e+001 
3581250000  -4.144581e+001  -1.023092e+001 
3584375000  -4.039834e+001  -1.405478e+001 
3587500000  -3.980602e+001  -2.339901e+001 
3590625000  -4.035580e+001  -3.252439e+001 
3593750000  -4.153870e+001  -3.544059e+001 
3596875000  -4.144548e+001  -2.773006e+001 
3600000000  -3.996725e+001  -3.574046e+001 
3603125000  -4.057928e+001  -4.973765e+001 
3606250000  -4.130098e+001  -5.382332e+001 
3609375000  -4.199690e+001  -5.609558e+001 
3612500000  -4.259888e+001  -5.871587e+001 
3615625000  -4.300288e+001  -6.388875e+001 
3618750000  -4.365129e+001  -6.239398e+001 
3621875000  -4.363840e+001  -6.527656e+001 
3625000000  -4.432354e+001  -6.781817e+001 
3628125000  -4.407031e+001  -6.617796e+001 
3631250000  -4.393100e+001  -7.239737e+001 
3634375000  -4.550463e+001  -7.304398e+001 
3637500000  -4.564379e+001  -6.885988e+001 
3640625000  -4.450203e+001  -6.814949e+001 
3643750000  -4.411962e+001  -7.332331e+001 
3646875000  -4.510764e+001  -8.114046e+001 
3650000000  -4.548988e+001  -7.724422e+001 
3653125000  -4.526006e+001  -7.790972e+001 
3656250000  -4.579203e+001  -7.863089e+001 
3659375000  -4.552604e+001  -7.343984e+001 
3662500000  -4.507446e+001  -7.706573e+001 
3665625000  -4.467946e+001  -7.779652e+001 
3668750000  -4.379762e+001  -7.959618e+001 
3671875000  -4.256323e+001  -8.371764e+001 
3675000000  -4.280549e+001  -9.271035e+001 
3678125000  -4.318510e+001  -9.240154e+001 
3681250000  -4.285865e+001  -9.448648e+001 
3684375000  -4.290082e+001  -1.002875e+002 
3687500000  -4.310362e+001  -1.036605e+002 
3690625000  -4.309308e+001  -1.094549e+002 
3693750000  -4.398692e+001  -1.073506e+002 
3696875000  -4.396214e+001  -1.100418e+002 
3700000000  -4.243258e+001  -1.129811e+002 
3703125000  -4.297750e+001  -1.188105e+002 
3706250000  -4.385225e+001  -1.177994e+002 
3709375000  -4.322763e+001  -1.156178e+002 
3712500000  -4.204527e+001  -1.194679e+002 
3715625000  -4.162024e+001  -1.260487e+002 
3718750000  -4.133290e+001  -1.318683e+002 
3721875000  -4.112194e+001  -1.393964e+002 
3725000000  -4.150808e+001  -1.460324e+002 
3728125000  -4.213485e+001  -1.463860e+002 
3731250000  -4.151320e+001  -1.482443e+002 
3734375000  -4.118464e+001  -1.567282e+002 
3737500000  -4.190660e+001  -1.641058e+002 
3740625000  -4.341759e+001  -1.653724e+002 
3743750000  -4.296603e+001  -1.709512e+002 
3746875000  -4.368076e+001  -1.723119e+002 
3750000000  -4.406416e+001  -1.745803e+002 
3753125000  -4.415191e+001  -1.715387e+002 
3756250000  -4.434107e+001  -1.710465e+002 
3759375000  -4.494240e+001  -1.704710e+002 
3762500000  -4.444497e+001  -1.749164e+002 
3765625000  -4.467317e+001  -1.746786e+002 
3768750000  -4.484558e+001  -1.706713e+002 
3771875000  -4.343812e+001  -1.720545e+002 
3775000000  -4.359549e+001  -1.796282e+002 
3778125000  -4.339761e+001  1.779488e+002 
3781250000  -4.301720e+001  1.798531e+002 
3784375000  -4.275563e+001  1.790509e+002 
3787500000  -4.173253e+001  1.735100e+002 
3790625000  -4.231983e+001  1.700111e+002 
3793750000  -4.251453e+001  1.674326e+002 
3796875000  -4.140864e+001  1.666160e+002 
3800000000  -3.982462e+001  1.642508e+002 
3803125000  -4.009121e+001  1.537992e+002 
3806250000  -4.072524e+001  1.497953e+002 
3809375000  -4.052036e+001  1.498222e+002 
3812500000  -3.979929e+001  1.426136e+002 
3815625000  -4.066883e+001  1.331085e+002 
3818750000  -4.126743e+001  1.331520e+002 
3821875000  -4.099652e+001  1.401530e+002 
3825000000  -3.925894e+001  1.401810e+002 
3828125000  -3.791313e+001  1.262338e+002 
3831250000  -3.872677e+001  1.091567e+002 
3834375000  -4.011879e+001  1.102004e+002 
3837500000  -4.109410e+001  1.134321e+002 
3840625000  -4.005983e+001  1.117817e+002 
3843750000  -3.918952e+001  9.977009e+001 
3846875000  -3.977551e+001  9.091181e+001 
3850000000  -4.107359e+001  9.774563e+001 
3853125000  -4.043369e+001  1.002116e+002 
3856250000  -4.030328e+001  9.187354e+001 
3859375000  -3.942227e+001  8.843957e+001 
3862500000  -3.963936e+001  7.967966e+001 
3865625000  -3.975677e+001  7.506245e+001 
3868750000  -3.964455e+001  7.330446e+001 
3871875000  -3.910188e+001  6.856599e+001 
3875000000  -3.964750e+001  6.012836e+001 
3878125000  -4.072081e+001  5.937730e+001 
3881250000  -4.056382e+001  6.110121e+001 
3884375000  -4.030827e+001  5.678721e+001 
3887500000  -4.038266e+001  5.230761e+001 
3890625000  -4.103563e+001  4.886951e+001 
3893750000  -4.107457e+001  4.643633e+001 
3896875000  -4.162849e+001  4.942537e+001 
3900000000  -4.187792e+001  4.811888e+001 
3903125000  -4.141793e+001  4.579453e+001 
3906250000  -4.082673e+001  4.256202e+001 
3909375000  -4.035249e+001  4.063704e+001 
3912500000  -4.046334e+001  3.244291e+001 
3915625000  -4.153699e+001  3.375673e+001 
3918750000  -4.113914e+001  3.445630e+001 
3921875000  -4.067037e+001  3.005494e+001 
3925000000  -3.974104e+001  2.788375e+001 
3928125000  -3.912768e+001  2.181435e+001 
3931250000  -3.959464e+001  1.589975e+001 
3934375000  -3.990519e+001  1.594501e+001 
3937500000  -4.021873e+001  1.365636e+001 
3940625000  -4.050269e+001  1.316848e+001 
3943750000  -3.948212e+001  1.255418e+001 
3946875000  -3.832354e+001  4.981481e+000 
3950000000  -3.910875e+001  -2.773308e+000 
3953125000  -4.001175e+001  -5.037929e+000 
3956250000  -3.912194e+001  -1.004871e+000 
3959375000  -3.775577e+001  -5.412326e+000 
3962500000  -3.746809e+001  -9.095207e+000 
3965625000  -3.712176e+001  -2.115273e+001 
3968750000  -3.820628e+001  -2.968097e+001 
3971875000  -3.852355e+001  -3.222820e+001 
3975000000  -3.796332e+001  -3.350535e+001 
3978125000  -3.765594e+001  -3.720982e+001 
3981250000  -3.780629e+001  -4.243239e+001 
3984375000  -3.820718e+001  -4.824599e+001 
3987500000  -3.872081e+001  -5.072783e+001 
3990625000  -3.849890e+001  -5.383190e+001 
3993750000  -3.897274e+001  -5.836479e+001 
3996875000  -3.884835e+001  -6.066083e+001 
4000000000  -3.937952e+001  -6.215084e+001 
4003125000  -3.942453e+001  -6.052934e+001 
4006250000  -3.824287e+001  -6.161163e+001 
4009375000  -3.734967e+001  -7.660215e+001 
4012500000  -3.876625e+001  -8.135701e+001 
4015625000  -3.982147e+001  -8.237378e+001 
4018750000  -4.005603e+001  -7.903029e+001 
4021875000  -3.942213e+001  -8.272672e+001 
4025000000  -3.905249e+001  -8.546869e+001 
4028125000  -3.909679e+001  -9.059410e+001 
4031250000  -3.957173e+001  -9.695598e+001 
4034375000  -3.989998e+001  -9.505202e+001 
4037500000  -3.924543e+001  -9.242542e+001 
4040625000  -3.910723e+001  -9.617834e+001 
4043750000  -3.945612e+001  -9.917999e+001 
4046875000  -3.894323e+001  -9.905743e+001 
4050000000  -3.851708e+001  -1.056394e+002 
4053125000  -3.929501e+001  -1.075594e+002 
4056250000  -3.965953e+001  -1.028468e+002 
4059375000  -3.793495e+001  -1.027997e+002 
4062500000  -3.686564e+001  -1.105312e+002 
4065625000  -3.661759e+001  -1.143547e+002 
4068750000  -3.637870e+001  -1.197100e+002 
4071875000  -3.561417e+001  -1.296661e+002 
4075000000  -3.597979e+001  -1.367439e+002 
4078125000  -3.663687e+001  -1.369736e+002 
4081250000  -3.609311e+001  -1.425863e+002 
4084375000  -3.567521e+001  -1.492945e+002 
4087500000  -3.605210e+001  -1.562492e+002 
4090625000  -3.670352e+001  -1.571071e+002 
4093750000  -3.639253e+001  -1.591191e+002 
4096875000  -3.617315e+001  -1.663378e+002 
4100000000  -3.696954e+001  -1.747723e+002 
4103125000  -3.776065e+001  -1.732295e+002 
4106250000  -3.775917e+001  -1.687196e+002 
4109375000  -3.652119e+001  -1.710929e+002 
4112500000  -3.619958e+001  -1.793976e+002 
4115625000  -3.660173e+001  1.752694e+002 
4118750000  -3.684455e+001  1.720578e+002 
4121875000  -3.641707e+001  1.650101e+002 
4125000000  -3.660461e+001  1.595263e+002 
4128125000  -3.789992e+001  1.599793e+002 
4131250000  -3.757727e+001  1.672078e+002 
4134375000  -3.530698e+001  1.602715e+002 
4137500000  -3.531333e+001  1.410846e+002 
4140625000  -3.764045e+001  1.340897e+002 
4143750000  -3.872158e+001  1.370572e+002 
4146875000  -3.858650e+001  1.459096e+002 
4150000000  -3.771062e+001  1.390379e+002 
4153125000  -3.745306e+001  1.309410e+002 
4156250000  -3.857574e+001  1.313514e+002 
4159375000  -3.890700e+001  1.347532e+002 
4162500000  -3.768406e+001  1.386855e+002 
4165625000  -3.679540e+001  1.347523e+002 
4168750000  -3.621894e+001  1.262456e+002 
4171875000  -3.599835e+001  1.151528e+002 
4175000000  -3.672290e+001  1.116606e+002 
4178125000  -3.745752e+001  1.116368e+002 
4181250000  -3.711644e+001  1.104035e+002 
4184375000  -3.684249e+001  1.070738e+002 
4187500000  -3.687894e+001  1.038651e+002 
4190625000  -3.686465e+001  9.676299e+001 
4193750000  -3.761295e+001  9.184634e+001 
4196875000  -3.811282e+001  9.274933e+001 
4200000000  -3.883281e+001  9.627667e+001 
4203125000  -3.870438e+001  1.084924e+002 
4206250000  -3.529916e+001  1.072290e+002 
4209375000  -3.426044e+001  8.501079e+001 
4212500000  -3.625708e+001  7.566300e+001 
4215625000  -3.719111e+001  8.215573e+001 
4218750000  -3.548089e+001  8.761300e+001 
4221875000  -3.334381e+001  7.713214e+001 
4225000000  -3.458147e+001  6.457307e+001 
4228125000  -3.513795e+001  6.866621e+001 
4231250000  -3.356990e+001  6.267263e+001 
4234375000  -3.347747e+001  5.371447e+001 
4237500000  -3.283991e+001  4.900631e+001 
4240625000  -3.293510e+001  3.830193e+001 
4243750000  -3.423164e+001  3.128045e+001 
4246875000  -3.504240e+001  3.008366e+001 
4250000000  -3.501728e+001  3.112034e+001 
4253125000  -3.452429e+001  2.830824e+001 
4256250000  -3.468642e+001  2.357514e+001 
4259375000  -3.454060e+001  1.955564e+001 
4262500000  -3.469116e+001  1.633048e+001 
4265625000  -3.492145e+001  1.405790e+001 
4268750000  -3.386510e+001  9.024768e+000 
4271875000  -3.373859e+001  8.510335e-001 
4275000000  -3.343997e+001  -5.455932e+000 
4278125000  -3.427827e+001  -1.853525e+001 
4281250000  -3.626309e+001  -2.090715e+001 
4284375000  -3.606517e+001  -1.890887e+001 
4287500000  -3.681580e+001  -2.323199e+001 
4290625000  -3.791439e+001  -1.402445e+001 
4293750000  -3.624067e+001  -9.664511e+000 
4296875000  -3.486258e+001  -2.187203e+001 
4300000000  -3.613596e+001  -3.141043e+001 
4303125000  -3.739291e+001  -2.775477e+001 
4306250000  -3.654997e+001  -2.295725e+001 
4309375000  -3.518509e+001  -2.475521e+001 
4312500000  -3.508576e+001  -3.237122e+001 
4315625000  -3.526196e+001  -3.867450e+001 
4318750000  -3.558411e+001  -4.239812e+001 
4321875000  -3.569895e+001  -4.150758e+001 
4325000000  -3.510165e+001  -4.121844e+001 
4328125000  -3.441210e+001  -4.856594e+001 
4331250000  -3.419732e+001  -5.629403e+001 
4334375000  -3.445971e+001  -6.250167e+001 
4337500000  -3.554453e+001  -6.417195e+001 
4340625000  -3.585451e+001  -6.033843e+001 
4343750000  -3.488263e+001  -6.100360e+001 
4346875000  -3.469338e+001  -6.809479e+001 
4350000000  -3.453337e+001  -7.515562e+001 
4353125000  -3.445759e+001  -8.293902e+001 
4356250000  -3.650348e+001  -8.411073e+001 
4359375000  -3.646112e+001  -7.045178e+001 
4362500000  -3.348012e+001  -7.175643e+001 
4365625000  -3.192633e+001  -8.540035e+001 
4368750000  -3.282353e+001  -9.820344e+001 
4371875000  -3.381105e+001  -9.696256e+001 
4375000000  -3.340310e+001  -9.886195e+001 
4378125000  -3.267421e+001  -1.051051e+002 
4381250000  -3.291908e+001  -1.132008e+002 
4384375000  -3.279344e+001  -1.186359e+002 
4387500000  -3.362371e+001  -1.261620e+002 
4390625000  -3.455674e+001  -1.255190e+002 
4393750000  -3.384484e+001  -1.249594e+002 
4396875000  -3.328329e+001  -1.291958e+002 
4400000000  -3.281557e+001  -1.385588e+002 
4403125000  -3.360067e+001  -1.466998e+002 
4406250000  -3.432473e+001  -1.485110e+002 
4409375000  -3.450043e+001  -1.531382e+002 
4412500000  -3.580611e+001  -1.551670e+002 
4415625000  -3.598248e+001  -1.525670e+002 
