!Agilent Technologies,E8363B,MY43030201,A.06.04.32
!Agilent E8363B: A.06.04.32
!Date: Tuesday, November 11, 2014 21:12:41
!Correction: S21(Response(S21)) 
!S1P File: Measurement: S21:
# Hz S  dB   R 50
3000000000  -3.642595e+001  -5.953681e+001 
3003125000  -3.773154e+001  -6.564108e+001 
3006250000  -3.739726e+001  -6.827211e+001 
3009375000  -3.784478e+001  -6.329887e+001 
3012500000  -3.699774e+001  -6.589769e+001 
3015625000  -3.624598e+001  -7.275986e+001 
3018750000  -3.696424e+001  -7.396577e+001 
3021875000  -3.538294e+001  -7.262835e+001 
3025000000  -3.411903e+001  -7.664894e+001 
3028125000  -3.318716e+001  -8.336169e+001 
3031250000  -3.219423e+001  -9.488342e+001 
3034375000  -3.181959e+001  -1.083902e+002 
3037500000  -3.233979e+001  -1.204154e+002 
3040625000  -3.375777e+001  -1.246064e+002 
3043750000  -3.433004e+001  -1.301360e+002 
3046875000  -3.460490e+001  -1.362464e+002 
3050000000  -3.631065e+001  -1.412174e+002 
3053125000  -3.603828e+001  -1.353148e+002 
3056250000  -3.567427e+001  -1.327647e+002 
3059375000  -3.558788e+001  -1.334907e+002 
3062500000  -3.422155e+001  -1.360720e+002 
3065625000  -3.397172e+001  -1.427188e+002 
3068750000  -3.364318e+001  -1.504931e+002 
3071875000  -3.359979e+001  -1.519459e+002 
3075000000  -3.328587e+001  -1.562305e+002 
3078125000  -3.300710e+001  -1.606078e+002 
3081250000  -3.356118e+001  -1.646496e+002 
3084375000  -3.268071e+001  -1.679498e+002 
3087500000  -3.250839e+001  -1.722266e+002 
3090625000  -3.193385e+001  1.774721e+002 
3093750000  -3.247894e+001  1.705553e+002 
3096875000  -3.355949e+001  1.647107e+002 
3100000000  -3.334928e+001  1.622850e+002 
3103125000  -3.365489e+001  1.631006e+002 
3106250000  -3.316192e+001  1.591784e+002 
3109375000  -3.320093e+001  1.549676e+002 
3112500000  -3.320466e+001  1.525592e+002 
3115625000  -3.281356e+001  1.480963e+002 
3118750000  -3.322365e+001  1.476578e+002 
3121875000  -3.228625e+001  1.380482e+002 
3125000000  -3.364885e+001  1.343123e+002 
3128125000  -3.447771e+001  1.416153e+002 
3131250000  -3.200977e+001  1.391800e+002 
3134375000  -3.076436e+001  1.240594e+002 
3137500000  -3.132486e+001  1.096069e+002 
3140625000  -3.276734e+001  1.077469e+002 
3143750000  -3.377087e+001  1.089207e+002 
3146875000  -3.319992e+001  1.098702e+002 
3150000000  -3.234771e+001  1.097506e+002 
3153125000  -3.230847e+001  1.003967e+002 
3156250000  -3.340075e+001  1.053487e+002 
3159375000  -3.150990e+001  1.062043e+002 
3162500000  -2.969400e+001  9.202801e+001 
3165625000  -3.075987e+001  7.915878e+001 
3168750000  -3.101475e+001  8.008038e+001 
3171875000  -3.019439e+001  7.415019e+001 
3175000000  -3.091509e+001  6.500399e+001 
3178125000  -3.067412e+001  6.605619e+001 
3181250000  -2.961014e+001  6.024142e+001 
3184375000  -2.898777e+001  4.777678e+001 
3187500000  -3.021301e+001  3.270473e+001 
3190625000  -3.281756e+001  2.540361e+001 
3193750000  -3.339069e+001  3.317363e+001 
3196875000  -3.302170e+001  3.764843e+001 
3200000000  -3.203219e+001  3.523833e+001 
3203125000  -3.137018e+001  2.853503e+001 
3206250000  -3.159907e+001  2.188562e+001 
3209375000  -3.125653e+001  1.636587e+001 
3212500000  -3.151663e+001  9.132298e+000 
3215625000  -3.143461e+001  5.886454e+000 
3218750000  -3.232749e+001  -1.670134e+000 
3221875000  -3.307759e+001  -6.907340e+000 
3225000000  -3.257932e+001  -7.351198e+000 
3228125000  -3.315170e+001  -1.332924e+001 
3231250000  -3.376770e+001  -1.593438e+001 
3234375000  -3.346480e+001  -1.553391e+001 
3237500000  -3.339549e+001  -1.754441e+001 
3240625000  -3.297283e+001  -2.004324e+001 
3243750000  -3.259187e+001  -2.809819e+001 
3246875000  -3.297561e+001  -3.496295e+001 
3250000000  -3.345290e+001  -3.733217e+001 
3253125000  -3.356091e+001  -3.899870e+001 
3256250000  -3.316575e+001  -4.604755e+001 
3259375000  -3.347703e+001  -5.478080e+001 
3262500000  -3.461250e+001  -5.911747e+001 
3265625000  -3.528354e+001  -5.542440e+001 
3268750000  -3.501041e+001  -5.404510e+001 
3271875000  -3.473827e+001  -5.425858e+001 
3275000000  -3.370012e+001  -6.111461e+001 
3278125000  -3.421621e+001  -6.752032e+001 
3281250000  -3.429193e+001  -6.705325e+001 
3284375000  -3.381186e+001  -7.331165e+001 
3287500000  -3.408180e+001  -7.723622e+001 
3290625000  -3.423787e+001  -8.259861e+001 
3293750000  -3.409527e+001  -8.944637e+001 
3296875000  -3.504620e+001  -8.966795e+001 
3300000000  -3.476747e+001  -8.880418e+001 
3303125000  -3.360689e+001  -9.495742e+001 
3306250000  -3.345898e+001  -1.020753e+002 
3309375000  -3.314743e+001  -1.089682e+002 
3312500000  -3.325569e+001  -1.199204e+002 
3315625000  -3.440291e+001  -1.272325e+002 
3318750000  -3.587308e+001  -1.303725e+002 
3321875000  -3.686777e+001  -1.299646e+002 
3325000000  -3.726237e+001  -1.236384e+002 
3328125000  -3.678164e+001  -1.244871e+002 
3331250000  -3.556747e+001  -1.170871e+002 
3334375000  -3.294818e+001  -1.293381e+002 
3337500000  -3.305326e+001  -1.481963e+002 
3340625000  -3.449990e+001  -1.594342e+002 
3343750000  -3.647503e+001  -1.594033e+002 
3346875000  -3.646667e+001  -1.575063e+002 
3350000000  -3.608544e+001  -1.601126e+002 
3353125000  -3.616992e+001  -1.652952e+002 
3356250000  -3.562344e+001  -1.729102e+002 
3359375000  -3.644176e+001  1.787973e+002 
3362500000  -3.758461e+001  1.724610e+002 
3365625000  -3.807389e+001  1.718921e+002 
3368750000  -3.888272e+001  1.688819e+002 
3371875000  -3.913180e+001  1.669494e+002 
3375000000  -4.047363e+001  1.639683e+002 
3378125000  -4.142825e+001  1.655583e+002 
3381250000  -4.242702e+001  1.753496e+002 
3384375000  -4.115497e+001  -1.655800e+002 
3387500000  -3.760615e+001  1.788785e+002 
3390625000  -3.913691e+001  1.591271e+002 
3393750000  -4.059475e+001  1.617425e+002 
3396875000  -3.920898e+001  1.628981e+002 
3400000000  -3.888605e+001  1.537417e+002 
3403125000  -3.936780e+001  1.500647e+002 
3406250000  -3.961789e+001  1.495687e+002 
3409375000  -3.981300e+001  1.419633e+002 
3412500000  -4.036802e+001  1.392453e+002 
3415625000  -4.085634e+001  1.398207e+002 
3418750000  -4.114735e+001  1.420470e+002 
3421875000  -4.133240e+001  1.446318e+002 
3425000000  -4.011465e+001  1.449876e+002 
3428125000  -3.946847e+001  1.399334e+002 
3431250000  -3.924027e+001  1.323345e+002 
3434375000  -3.913586e+001  1.274898e+002 
3437500000  -3.972302e+001  1.235433e+002 
3440625000  -3.986941e+001  1.251526e+002 
3443750000  -3.863181e+001  1.256453e+002 
3446875000  -3.797021e+001  1.160725e+002 
3450000000  -3.749492e+001  1.073571e+002 
3453125000  -3.810545e+001  9.680030e+001 
3456250000  -3.937931e+001  9.102853e+001 
3459375000  -4.017111e+001  9.078876e+001 
3462500000  -4.001407e+001  9.253220e+001 
3465625000  -3.977175e+001  8.626720e+001 
3468750000  -4.011724e+001  8.296241e+001 
3471875000  -4.005696e+001  8.110468e+001 
3475000000  -3.976935e+001  7.633227e+001 
3478125000  -4.052734e+001  6.846757e+001 
3481250000  -4.140639e+001  6.608197e+001 
3484375000  -4.275594e+001  7.068506e+001 
3487500000  -4.171914e+001  7.120407e+001 
3490625000  -4.095041e+001  6.454819e+001 
3493750000  -4.133529e+001  5.834407e+001 
3496875000  -4.191511e+001  5.722961e+001 
3500000000  -4.271247e+001  6.228872e+001 
3503125000  -4.219559e+001  6.348610e+001 
3506250000  -4.085389e+001  5.711103e+001 
3509375000  -4.072334e+001  4.800655e+001 
3512500000  -4.121858e+001  4.133936e+001 
3515625000  -4.214595e+001  3.808642e+001 
3518750000  -4.229679e+001  3.898773e+001 
3521875000  -4.267702e+001  3.368636e+001 
3525000000  -4.342530e+001  3.377441e+001 
3528125000  -4.309252e+001  4.065951e+001 
3531250000  -4.185578e+001  3.829899e+001 
3534375000  -4.172433e+001  2.790961e+001 
3537500000  -4.218581e+001  2.169456e+001 
3540625000  -4.313929e+001  2.094778e+001 
3543750000  -4.380357e+001  2.499524e+001 
3546875000  -4.361376e+001  3.590536e+001 
3550000000  -4.088106e+001  3.614159e+001 
3553125000  -3.975344e+001  1.886228e+001 
3556250000  -4.120814e+001  1.193228e+001 
3559375000  -4.072580e+001  1.069387e+001 
3562500000  -3.973750e+001  3.277454e+000 
3565625000  -4.077909e+001  -4.138776e+000 
3568750000  -4.089273e+001  -2.029299e+000 
3571875000  -4.077731e+001  -4.517743e+000 
3575000000  -4.051104e+001  -1.156591e+001 
3578125000  -4.091245e+001  -1.645961e+001 
3581250000  -4.126315e+001  -1.553408e+001 
3584375000  -4.028846e+001  -2.132346e+001 
3587500000  -3.963853e+001  -2.906599e+001 
3590625000  -4.037617e+001  -4.096655e+001 
3593750000  -4.186420e+001  -4.011588e+001 
3596875000  -4.151353e+001  -3.498133e+001 
3600000000  -4.035476e+001  -4.155639e+001 
3603125000  -4.075026e+001  -5.648832e+001 
3606250000  -4.185673e+001  -5.853325e+001 
3609375000  -4.242690e+001  -6.262875e+001 
3612500000  -4.304164e+001  -6.588448e+001 
3615625000  -4.328570e+001  -6.909494e+001 
3618750000  -4.442942e+001  -6.793736e+001 
3621875000  -4.403143e+001  -7.100460e+001 
3625000000  -4.488374e+001  -6.927187e+001 
3628125000  -4.447907e+001  -7.327090e+001 
3631250000  -4.475853e+001  -7.746706e+001 
3634375000  -4.630992e+001  -7.569496e+001 
3637500000  -4.579550e+001  -7.005725e+001 
3640625000  -4.504542e+001  -6.672033e+001 
3643750000  -4.472392e+001  -6.996165e+001 
3646875000  -4.472670e+001  -7.805779e+001 
3650000000  -4.576949e+001  -7.587245e+001 
3653125000  -4.530736e+001  -7.880209e+001 
3656250000  -4.587905e+001  -7.869941e+001 
3659375000  -4.561201e+001  -7.414371e+001 
3662500000  -4.426723e+001  -7.743479e+001 
3665625000  -4.422264e+001  -7.649232e+001 
3668750000  -4.322521e+001  -7.853757e+001 
3671875000  -4.188957e+001  -8.605127e+001 
3675000000  -4.238365e+001  -9.388461e+001 
3678125000  -4.246651e+001  -9.585913e+001 
3681250000  -4.257616e+001  -1.000716e+002 
3684375000  -4.202564e+001  -1.039421e+002 
3687500000  -4.236808e+001  -1.089806e+002 
3690625000  -4.254332e+001  -1.143862e+002 
3693750000  -4.347106e+001  -1.130684e+002 
3696875000  -4.309271e+001  -1.150502e+002 
3700000000  -4.204957e+001  -1.196579e+002 
3703125000  -4.247293e+001  -1.272750e+002 
3706250000  -4.331146e+001  -1.274600e+002 
3709375000  -4.293895e+001  -1.248241e+002 
3712500000  -4.218694e+001  -1.266122e+002 
3715625000  -4.139074e+001  -1.357796e+002 
3718750000  -4.101139e+001  -1.407707e+002 
3721875000  -4.097552e+001  -1.489398e+002 
3725000000  -4.156639e+001  -1.542907e+002 
3728125000  -4.202082e+001  -1.539270e+002 
3731250000  -4.183907e+001  -1.582825e+002 
3734375000  -4.148436e+001  -1.630197e+002 
3737500000  -4.226737e+001  -1.693941e+002 
3740625000  -4.370660e+001  -1.708784e+002 
3743750000  -4.340810e+001  -1.754962e+002 
3746875000  -4.386544e+001  -1.776647e+002 
3750000000  -4.466482e+001  -1.789402e+002 
3753125000  -4.474015e+001  -1.776637e+002 
3756250000  -4.496545e+001  -1.755158e+002 
3759375000  -4.521629e+001  -1.742513e+002 
3762500000  -4.474975e+001  1.790379e+002 
3765625000  -4.507660e+001  -1.779845e+002 
3768750000  -4.509230e+001  -1.714693e+002 
3771875000  -4.374049e+001  -1.748145e+002 
3775000000  -4.313676e+001  -1.796796e+002 
3778125000  -4.312548e+001  1.755946e+002 
3781250000  -4.328273e+001  1.773761e+002 
3784375000  -4.254216e+001  1.758922e+002 
3787500000  -4.168983e+001  1.749119e+002 
3790625000  -4.206313e+001  1.648210e+002 
3793750000  -4.205421e+001  1.659681e+002 
3796875000  -4.075142e+001  1.631988e+002 
3800000000  -3.935516e+001  1.596409e+002 
3803125000  -3.986692e+001  1.500723e+002 
3806250000  -4.045616e+001  1.469880e+002 
3809375000  -4.032845e+001  1.447687e+002 
3812500000  -3.961615e+001  1.357914e+002 
3815625000  -4.012254e+001  1.286011e+002 
3818750000  -4.104573e+001  1.267657e+002 
3821875000  -4.091495e+001  1.368278e+002 
3825000000  -3.914164e+001  1.371666e+002 
3828125000  -3.764489e+001  1.207673e+002 
3831250000  -3.865849e+001  1.046492e+002 
3834375000  -4.014793e+001  1.029692e+002 
3837500000  -4.117321e+001  1.087760e+002 
3840625000  -3.963624e+001  1.062019e+002 
3843750000  -3.884204e+001  9.370953e+001 
3846875000  -3.965224e+001  8.628105e+001 
3850000000  -4.092265e+001  8.963348e+001 
3853125000  -4.048199e+001  9.411816e+001 
3856250000  -4.021497e+001  8.748923e+001 
3859375000  -3.935813e+001  7.998339e+001 
3862500000  -3.954608e+001  7.160032e+001 
3865625000  -3.994035e+001  6.904307e+001 
3868750000  -3.983538e+001  6.740035e+001 
3871875000  -3.936385e+001  6.335852e+001 
3875000000  -3.993948e+001  5.358024e+001 
3878125000  -4.101744e+001  5.483103e+001 
3881250000  -4.127290e+001  5.496482e+001 
3884375000  -4.033808e+001  5.089248e+001 
3887500000  -4.088290e+001  4.799384e+001 
3890625000  -4.130587e+001  4.500776e+001 
3893750000  -4.164286e+001  4.377505e+001 
3896875000  -4.187292e+001  4.509995e+001 
3900000000  -4.221889e+001  4.293686e+001 
3903125000  -4.153094e+001  4.184925e+001 
3906250000  -4.094405e+001  3.900370e+001 
3909375000  -4.025344e+001  3.762093e+001 
3912500000  -4.069208e+001  2.895693e+001 
3915625000  -4.168686e+001  3.207762e+001 
3918750000  -4.128819e+001  3.238700e+001 
3921875000  -4.102011e+001  2.778759e+001 
3925000000  -3.977760e+001  2.726857e+001 
3928125000  -3.910622e+001  2.045284e+001 
3931250000  -3.944920e+001  1.295673e+001 
3934375000  -3.970789e+001  1.331190e+001 
3937500000  -4.001227e+001  1.078687e+001 
3940625000  -4.028220e+001  8.363514e+000 
3943750000  -3.895941e+001  9.714636e+000 
3946875000  -3.790868e+001  1.750898e+000 
3950000000  -3.878682e+001  -7.172266e+000 
3953125000  -3.980109e+001  -8.728925e+000 
3956250000  -3.852621e+001  -3.964602e+000 
3959375000  -3.724436e+001  -9.785172e+000 
3962500000  -3.691978e+001  -1.614936e+001 
3965625000  -3.683541e+001  -2.674384e+001 
3968750000  -3.773999e+001  -3.553564e+001 
3971875000  -3.799440e+001  -3.762807e+001 
3975000000  -3.761599e+001  -4.026052e+001 
3978125000  -3.780748e+001  -4.447101e+001 
3981250000  -3.759126e+001  -5.041381e+001 
3984375000  -3.788724e+001  -5.606764e+001 
3987500000  -3.843545e+001  -5.880837e+001 
3990625000  -3.849964e+001  -6.064614e+001 
3993750000  -3.885489e+001  -6.528506e+001 
3996875000  -3.872419e+001  -6.817234e+001 
4000000000  -3.931005e+001  -7.097450e+001 
4003125000  -3.991677e+001  -6.992481e+001 
4006250000  -3.848324e+001  -6.982481e+001 
4009375000  -3.742138e+001  -8.341957e+001 
4012500000  -3.888456e+001  -8.931925e+001 
4015625000  -4.050114e+001  -8.811790e+001 
4018750000  -4.060807e+001  -8.680625e+001 
4021875000  -3.957312e+001  -8.747949e+001 
4025000000  -3.958252e+001  -9.350146e+001 
4028125000  -3.955812e+001  -9.536692e+001 
4031250000  -4.014384e+001  -9.858696e+001 
4034375000  -4.024083e+001  -9.952042e+001 
4037500000  -3.970135e+001  -9.817960e+001 
4040625000  -3.971899e+001  -1.030248e+002 
4043750000  -3.984150e+001  -1.010358e+002 
4046875000  -3.937085e+001  -1.023830e+002 
4050000000  -3.895718e+001  -1.098430e+002 
4053125000  -3.928076e+001  -1.100322e+002 
4056250000  -3.948363e+001  -1.062999e+002 
4059375000  -3.812551e+001  -1.057163e+002 
4062500000  -3.669540e+001  -1.121015e+002 
4065625000  -3.661827e+001  -1.166227e+002 
4068750000  -3.627552e+001  -1.230925e+002 
4071875000  -3.548024e+001  -1.315753e+002 
4075000000  -3.585014e+001  -1.392928e+002 
4078125000  -3.627470e+001  -1.408679e+002 
4081250000  -3.577027e+001  -1.443047e+002 
4084375000  -3.539201e+001  -1.540563e+002 
4087500000  -3.577604e+001  -1.594173e+002 
4090625000  -3.666959e+001  -1.622263e+002 
4093750000  -3.608196e+001  -1.636666e+002 
4096875000  -3.578973e+001  -1.706419e+002 
4100000000  -3.668306e+001  -1.796293e+002 
4103125000  -3.749213e+001  -1.781176e+002 
4106250000  -3.718245e+001  -1.747526e+002 
4109375000  -3.641270e+001  -1.766593e+002 
4112500000  -3.583693e+001  1.749989e+002 
4115625000  -3.624658e+001  1.686805e+002 
4118750000  -3.635317e+001  1.649292e+002 
4121875000  -3.603640e+001  1.597381e+002 
4125000000  -3.663195e+001  1.524219e+002 
4128125000  -3.765549e+001  1.528758e+002 
4131250000  -3.729379e+001  1.596502e+002 
4134375000  -3.505735e+001  1.535566e+002 
4137500000  -3.521542e+001  1.329886e+002 
4140625000  -3.734219e+001  1.259681e+002 
4143750000  -3.890253e+001  1.318669e+002 
4146875000  -3.844970e+001  1.380859e+002 
4150000000  -3.793440e+001  1.327884e+002 
4153125000  -3.789661e+001  1.254788e+002 
4156250000  -3.880151e+001  1.238795e+002 
4159375000  -3.901738e+001  1.288393e+002 
4162500000  -3.813315e+001  1.337228e+002 
4165625000  -3.685926e+001  1.273580e+002 
4168750000  -3.636456e+001  1.221398e+002 
4171875000  -3.646880e+001  1.128784e+002 
4175000000  -3.715440e+001  1.077787e+002 
4178125000  -3.782439e+001  1.072469e+002 
4181250000  -3.727024e+001  1.061955e+002 
4184375000  -3.720963e+001  1.016292e+002 
4187500000  -3.696975e+001  9.998122e+001 
4190625000  -3.696328e+001  9.445711e+001 
4193750000  -3.773328e+001  9.056382e+001 
4196875000  -3.838901e+001  8.961398e+001 
4200000000  -3.929391e+001  9.009650e+001 
4203125000  -3.869631e+001  1.037232e+002 
4206250000  -3.527868e+001  1.045636e+002 
4209375000  -3.411033e+001  8.209383e+001 
4212500000  -3.626960e+001  7.333482e+001 
4215625000  -3.686153e+001  7.976930e+001 
4218750000  -3.537550e+001  8.390174e+001 
4221875000  -3.315053e+001  7.475898e+001 
4225000000  -3.457527e+001  6.063057e+001 
4228125000  -3.482447e+001  6.421976e+001 
4231250000  -3.326580e+001  5.959992e+001 
4234375000  -3.311077e+001  4.991638e+001 
4237500000  -3.253814e+001  4.522359e+001 
4240625000  -3.258261e+001  3.505427e+001 
4243750000  -3.367139e+001  2.589144e+001 
4246875000  -3.473334e+001  2.541651e+001 
4250000000  -3.458824e+001  2.673323e+001 
4253125000  -3.409273e+001  2.308177e+001 
4256250000  -3.451133e+001  1.626591e+001 
4259375000  -3.413102e+001  1.361177e+001 
4262500000  -3.442318e+001  8.865081e+000 
4265625000  -3.444722e+001  7.784015e+000 
4268750000  -3.381298e+001  2.350363e+000 
4271875000  -3.339132e+001  -5.208095e+000 
4275000000  -3.319542e+001  -1.354854e+001 
4278125000  -3.418783e+001  -2.533855e+001 
4281250000  -3.593508e+001  -2.645045e+001 
4284375000  -3.585370e+001  -2.696909e+001 
4287500000  -3.672133e+001  -3.185853e+001 
4290625000  -3.828191e+001  -2.406024e+001 
4293750000  -3.624324e+001  -1.858965e+001 
4296875000  -3.526383e+001  -2.915236e+001 
4300000000  -3.644887e+001  -3.925694e+001 
4303125000  -3.748101e+001  -3.544227e+001 
4306250000  -3.685934e+001  -3.030998e+001 
4309375000  -3.555872e+001  -3.210770e+001 
4312500000  -3.566466e+001  -4.020996e+001 
4315625000  -3.570241e+001  -4.446759e+001 
4318750000  -3.593273e+001  -4.748750e+001 
4321875000  -3.604593e+001  -4.673625e+001 
4325000000  -3.540279e+001  -4.623462e+001 
4328125000  -3.455749e+001  -5.223161e+001 
4331250000  -3.455519e+001  -6.072523e+001 
4334375000  -3.494223e+001  -6.473392e+001 
4337500000  -3.561738e+001  -6.836015e+001 
4340625000  -3.603603e+001  -6.488738e+001 
4343750000  -3.495134e+001  -6.551691e+001 
4346875000  -3.474774e+001  -7.150702e+001 
4350000000  -3.444249e+001  -7.790918e+001 
4353125000  -3.440852e+001  -8.585728e+001 
4356250000  -3.641476e+001  -8.498521e+001 
4359375000  -3.633804e+001  -7.191100e+001 
4362500000  -3.327673e+001  -7.426682e+001 
4365625000  -3.185306e+001  -8.864434e+001 
4368750000  -3.257166e+001  -1.016207e+002 
4371875000  -3.363465e+001  -1.016328e+002 
4375000000  -3.285944e+001  -1.029970e+002 
4378125000  -3.239169e+001  -1.096142e+002 
4381250000  -3.258025e+001  -1.168763e+002 
4384375000  -3.227082e+001  -1.248260e+002 
4387500000  -3.320220e+001  -1.309207e+002 
4390625000  -3.405935e+001  -1.308864e+002 
4393750000  -3.336554e+001  -1.307094e+002 
4396875000  -3.278935e+001  -1.350994e+002 
4400000000  -3.227530e+001  -1.438417e+002 
4403125000  -3.318361e+001  -1.530406e+002 
4406250000  -3.377867e+001  -1.563610e+002 
4409375000  -3.408656e+001  -1.597951e+002 
4412500000  -3.528349e+001  -1.635870e+002 
4415625000  -3.570343e+001  -1.598340e+002 
