!Agilent Technologies,E8363B,MY43030201,A.06.04.32
!Agilent E8363B: A.06.04.32
!Date: Tuesday, November 11, 2014 21:08:23
!Correction: S21(Response(S21)) 
!S1P File: Measurement: S21:
# Hz S  dB   R 50
3000000000  -3.640180e+001  -5.395507e+001 
3003125000  -3.762222e+001  -5.964788e+001 
3006250000  -3.745855e+001  -6.244748e+001 
3009375000  -3.771809e+001  -5.818858e+001 
3012500000  -3.704039e+001  -5.921432e+001 
3015625000  -3.607055e+001  -6.720982e+001 
3018750000  -3.684290e+001  -6.798052e+001 
3021875000  -3.542072e+001  -6.773523e+001 
3025000000  -3.413823e+001  -7.103399e+001 
3028125000  -3.317869e+001  -7.744848e+001 
3031250000  -3.218602e+001  -8.896060e+001 
3034375000  -3.187408e+001  -1.023751e+002 
3037500000  -3.230163e+001  -1.139253e+002 
3040625000  -3.361961e+001  -1.191482e+002 
3043750000  -3.421576e+001  -1.241017e+002 
3046875000  -3.450118e+001  -1.302359e+002 
3050000000  -3.623845e+001  -1.353389e+002 
3053125000  -3.606963e+001  -1.301391e+002 
3056250000  -3.559591e+001  -1.269888e+002 
3059375000  -3.572899e+001  -1.280630e+002 
3062500000  -3.418363e+001  -1.312568e+002 
3065625000  -3.394473e+001  -1.371348e+002 
3068750000  -3.357359e+001  -1.439274e+002 
3071875000  -3.348186e+001  -1.465692e+002 
3075000000  -3.327595e+001  -1.503287e+002 
3078125000  -3.305265e+001  -1.545388e+002 
3081250000  -3.349644e+001  -1.589417e+002 
3084375000  -3.265990e+001  -1.625486e+002 
3087500000  -3.248957e+001  -1.663443e+002 
3090625000  -3.198097e+001  -1.763890e+002 
3093750000  -3.249161e+001  1.757418e+002 
3096875000  -3.344656e+001  1.698510e+002 
3100000000  -3.335965e+001  1.684098e+002 
3103125000  -3.368541e+001  1.684701e+002 
3106250000  -3.318105e+001  1.647581e+002 
3109375000  -3.327644e+001  1.604951e+002 
3112500000  -3.319288e+001  1.581519e+002 
3115625000  -3.288781e+001  1.533671e+002 
3118750000  -3.320115e+001  1.534645e+002 
3121875000  -3.228528e+001  1.442646e+002 
3125000000  -3.355948e+001  1.400563e+002 
3128125000  -3.445609e+001  1.468342e+002 
3131250000  -3.195021e+001  1.453797e+002 
3134375000  -3.073996e+001  1.297239e+002 
3137500000  -3.135257e+001  1.163550e+002 
3140625000  -3.277559e+001  1.131370e+002 
3143750000  -3.382370e+001  1.144461e+002 
3146875000  -3.326930e+001  1.153849e+002 
3150000000  -3.225837e+001  1.153062e+002 
3153125000  -3.232304e+001  1.058410e+002 
3156250000  -3.339346e+001  1.109306e+002 
3159375000  -3.160326e+001  1.119757e+002 
3162500000  -2.963485e+001  9.771768e+001 
3165625000  -3.074945e+001  8.518127e+001 
3168750000  -3.104657e+001  8.591449e+001 
3171875000  -3.020946e+001  8.034718e+001 
3175000000  -3.092842e+001  7.108958e+001 
3178125000  -3.067526e+001  7.186897e+001 
3181250000  -2.961087e+001  6.635219e+001 
3184375000  -2.890327e+001  5.385261e+001 
3187500000  -3.019333e+001  3.841430e+001 
3190625000  -3.287436e+001  3.097968e+001 
3193750000  -3.337711e+001  3.874253e+001 
3196875000  -3.301632e+001  4.425855e+001 
3200000000  -3.208459e+001  4.123136e+001 
3203125000  -3.131832e+001  3.527615e+001 
3206250000  -3.161003e+001  2.800541e+001 
3209375000  -3.117507e+001  2.209434e+001 
3212500000  -3.140897e+001  1.504951e+001 
3215625000  -3.146705e+001  1.144473e+001 
3218750000  -3.231786e+001  4.353318e+000 
3221875000  -3.296048e+001  -6.463549e-001 
3225000000  -3.263783e+001  -2.286001e+000 
3228125000  -3.304763e+001  -8.056339e+000 
3231250000  -3.369998e+001  -1.022708e+001 
3234375000  -3.342946e+001  -9.822903e+000 
3237500000  -3.336353e+001  -1.230298e+001 
3240625000  -3.296826e+001  -1.406027e+001 
3243750000  -3.258947e+001  -2.239414e+001 
3246875000  -3.299547e+001  -2.884767e+001 
3250000000  -3.344031e+001  -3.116713e+001 
3253125000  -3.358470e+001  -3.323024e+001 
3256250000  -3.316732e+001  -4.011750e+001 
3259375000  -3.352047e+001  -4.905762e+001 
3262500000  -3.469139e+001  -5.291586e+001 
3265625000  -3.531380e+001  -5.005504e+001 
3268750000  -3.522258e+001  -4.770102e+001 
3271875000  -3.471401e+001  -4.854111e+001 
3275000000  -3.370894e+001  -5.557715e+001 
3278125000  -3.419673e+001  -6.107341e+001 
3281250000  -3.433383e+001  -6.075770e+001 
3284375000  -3.382498e+001  -6.763855e+001 
3287500000  -3.401596e+001  -7.098471e+001 
3290625000  -3.428631e+001  -7.708908e+001 
3293750000  -3.410469e+001  -8.263976e+001 
3296875000  -3.516936e+001  -8.414664e+001 
3300000000  -3.484044e+001  -8.285419e+001 
3303125000  -3.371644e+001  -8.901321e+001 
3306250000  -3.353450e+001  -9.597170e+001 
3309375000  -3.325890e+001  -1.020567e+002 
3312500000  -3.332269e+001  -1.133085e+002 
3315625000  -3.430140e+001  -1.210758e+002 
3318750000  -3.582332e+001  -1.235727e+002 
3321875000  -3.683503e+001  -1.242659e+002 
3325000000  -3.725743e+001  -1.176594e+002 
3328125000  -3.698466e+001  -1.175416e+002 
3331250000  -3.558955e+001  -1.123749e+002 
3334375000  -3.290129e+001  -1.223753e+002 
3337500000  -3.308838e+001  -1.419854e+002 
3340625000  -3.447324e+001  -1.529570e+002 
3343750000  -3.653857e+001  -1.530868e+002 
3346875000  -3.674457e+001  -1.524184e+002 
3350000000  -3.605892e+001  -1.533032e+002 
3353125000  -3.586860e+001  -1.578746e+002 
3356250000  -3.557887e+001  -1.669205e+002 
3359375000  -3.640849e+001  -1.741432e+002 
3362500000  -3.754925e+001  1.794047e+002 
3365625000  -3.788159e+001  1.778946e+002 
3368750000  -3.860006e+001  1.761857e+002 
3371875000  -3.907407e+001  1.737136e+002 
3375000000  -4.052612e+001  1.699172e+002 
3378125000  -4.127664e+001  1.698496e+002 
3381250000  -4.237655e+001  -1.794258e+002 
3384375000  -4.117989e+001  -1.599441e+002 
3387500000  -3.743518e+001  -1.763288e+002 
3390625000  -3.912565e+001  1.646505e+002 
3393750000  -4.063367e+001  1.683668e+002 
3396875000  -3.918728e+001  1.687395e+002 
3400000000  -3.866991e+001  1.611510e+002 
3403125000  -3.936766e+001  1.552099e+002 
3406250000  -3.980389e+001  1.555410e+002 
3409375000  -3.991500e+001  1.481102e+002 
3412500000  -4.015486e+001  1.452606e+002 
3415625000  -4.112057e+001  1.458601e+002 
3418750000  -4.107910e+001  1.464193e+002 
3421875000  -4.128035e+001  1.507823e+002 
3425000000  -4.014901e+001  1.513000e+002 
3428125000  -3.947018e+001  1.462419e+002 
3431250000  -3.919769e+001  1.389999e+002 
3434375000  -3.908389e+001  1.342467e+002 
3437500000  -3.959958e+001  1.299673e+002 
3440625000  -3.996298e+001  1.307910e+002 
3443750000  -3.871133e+001  1.315316e+002 
3446875000  -3.810702e+001  1.243641e+002 
3450000000  -3.766108e+001  1.136298e+002 
3453125000  -3.805751e+001  1.039233e+002 
3456250000  -3.904295e+001  9.636512e+001 
3459375000  -4.002287e+001  9.800131e+001 
3462500000  -4.019691e+001  9.869854e+001 
3465625000  -4.003175e+001  9.359082e+001 
3468750000  -4.016319e+001  8.699416e+001 
3471875000  -4.007110e+001  8.677657e+001 
3475000000  -3.991314e+001  8.192855e+001 
3478125000  -4.051056e+001  7.343604e+001 
3481250000  -4.133435e+001  7.040386e+001 
3484375000  -4.220104e+001  7.493620e+001 
3487500000  -4.138704e+001  7.630168e+001 
3490625000  -4.092654e+001  7.088797e+001 
3493750000  -4.162627e+001  6.394787e+001 
3496875000  -4.203697e+001  6.355898e+001 
3500000000  -4.248236e+001  6.670599e+001 
3503125000  -4.204619e+001  6.807933e+001 
3506250000  -4.065330e+001  6.377265e+001 
3509375000  -4.065422e+001  5.456479e+001 
3512500000  -4.140117e+001  4.511966e+001 
3515625000  -4.204417e+001  4.333152e+001 
3518750000  -4.262049e+001  4.331315e+001 
3521875000  -4.241397e+001  3.897970e+001 
3525000000  -4.355582e+001  3.749133e+001 
3528125000  -4.327261e+001  4.569275e+001 
3531250000  -4.195699e+001  4.406633e+001 
3534375000  -4.204543e+001  3.139455e+001 
3537500000  -4.227888e+001  2.816686e+001 
3540625000  -4.364817e+001  2.714619e+001 
3543750000  -4.407878e+001  3.129988e+001 
3546875000  -4.383883e+001  4.487246e+001 
3550000000  -4.129227e+001  4.225790e+001 
3553125000  -4.006569e+001  2.570698e+001 
3556250000  -4.157584e+001  1.690394e+001 
3559375000  -4.115767e+001  1.940516e+001 
3562500000  -4.008604e+001  1.045703e+001 
3565625000  -4.099566e+001  2.846183e+000 
3568750000  -4.116939e+001  5.071474e+000 
3571875000  -4.107433e+001  2.749483e+000 
3575000000  -4.070710e+001  -2.298568e+000 
3578125000  -4.116443e+001  -8.313633e+000 
3581250000  -4.119709e+001  -7.732419e+000 
3584375000  -4.057799e+001  -1.158765e+001 
3587500000  -4.006359e+001  -2.105812e+001 
3590625000  -4.049179e+001  -3.170367e+001 
3593750000  -4.195870e+001  -3.227089e+001 
3596875000  -4.180524e+001  -2.923134e+001 
3600000000  -4.028094e+001  -3.223708e+001 
3603125000  -4.091782e+001  -4.846269e+001 
3606250000  -4.174821e+001  -5.337432e+001 
3609375000  -4.196763e+001  -5.509664e+001 
3612500000  -4.297515e+001  -5.650940e+001 
3615625000  -4.330445e+001  -6.124758e+001 
3618750000  -4.430659e+001  -5.968275e+001 
3621875000  -4.399676e+001  -6.371127e+001 
3625000000  -4.428670e+001  -6.455200e+001 
3628125000  -4.430809e+001  -6.544064e+001 
3631250000  -4.453329e+001  -7.025665e+001 
3634375000  -4.595093e+001  -7.006866e+001 
3637500000  -4.598956e+001  -6.455204e+001 
3640625000  -4.493477e+001  -6.371789e+001 
3643750000  -4.460625e+001  -6.891049e+001 
3646875000  -4.526223e+001  -7.149821e+001 
3650000000  -4.540279e+001  -7.471104e+001 
3653125000  -4.563596e+001  -7.305047e+001 
3656250000  -4.552890e+001  -7.631596e+001 
3659375000  -4.616864e+001  -7.090839e+001 
3662500000  -4.485774e+001  -7.265722e+001 
3665625000  -4.491018e+001  -7.293146e+001 
3668750000  -4.385107e+001  -7.579502e+001 
3671875000  -4.249663e+001  -7.803547e+001 
3675000000  -4.282810e+001  -8.934315e+001 
3678125000  -4.288532e+001  -8.845077e+001 
3681250000  -4.284261e+001  -9.294943e+001 
3684375000  -4.265619e+001  -9.738734e+001 
3687500000  -4.264656e+001  -1.012559e+002 
3690625000  -4.294175e+001  -1.045785e+002 
3693750000  -4.383985e+001  -1.063651e+002 
3696875000  -4.346598e+001  -1.054135e+002 
3700000000  -4.241225e+001  -1.118644e+002 
3703125000  -4.257320e+001  -1.175676e+002 
3706250000  -4.373388e+001  -1.173073e+002 
3709375000  -4.317138e+001  -1.148793e+002 
3712500000  -4.233823e+001  -1.177066e+002 
3715625000  -4.142933e+001  -1.270210e+002 
3718750000  -4.109228e+001  -1.304947e+002 
3721875000  -4.110614e+001  -1.376437e+002 
3725000000  -4.178132e+001  -1.450359e+002 
3728125000  -4.192866e+001  -1.466226e+002 
3731250000  -4.142006e+001  -1.482910e+002 
3734375000  -4.147682e+001  -1.550561e+002 
3737500000  -4.239083e+001  -1.629284e+002 
3740625000  -4.328993e+001  -1.636335e+002 
3743750000  -4.303774e+001  -1.656413e+002 
3746875000  -4.383632e+001  -1.686875e+002 
3750000000  -4.442521e+001  -1.702986e+002 
3753125000  -4.452536e+001  -1.693723e+002 
3756250000  -4.487436e+001  -1.659333e+002 
3759375000  -4.498077e+001  -1.684171e+002 
3762500000  -4.446071e+001  -1.710802e+002 
3765625000  -4.481933e+001  -1.706112e+002 
3768750000  -4.484702e+001  -1.652141e+002 
3771875000  -4.353990e+001  -1.668163e+002 
3775000000  -4.291820e+001  -1.743874e+002 
3778125000  -4.337259e+001  -1.769878e+002 
3781250000  -4.291702e+001  -1.761294e+002 
3784375000  -4.297454e+001  -1.765020e+002 
3787500000  -4.207415e+001  1.798482e+002 
3790625000  -4.231698e+001  1.707613e+002 
3793750000  -4.222071e+001  1.710429e+002 
3796875000  -4.095599e+001  1.695175e+002 
3800000000  -3.962334e+001  1.668053e+002 
3803125000  -4.034786e+001  1.575260e+002 
3806250000  -4.060664e+001  1.545745e+002 
3809375000  -4.014053e+001  1.533242e+002 
3812500000  -3.972248e+001  1.448300e+002 
3815625000  -4.063202e+001  1.349815e+002 
3818750000  -4.162459e+001  1.353210e+002 
3821875000  -4.097859e+001  1.433391e+002 
3825000000  -3.934380e+001  1.473390e+002 
3828125000  -3.818916e+001  1.278532e+002 
3831250000  -3.853072e+001  1.132335e+002 
3834375000  -3.994489e+001  1.121391e+002 
3837500000  -4.089331e+001  1.151471e+002 
3840625000  -3.957379e+001  1.136710e+002 
3843750000  -3.873618e+001  1.000501e+002 
3846875000  -3.956648e+001  9.501657e+001 
3850000000  -4.119157e+001  1.013561e+002 
3853125000  -4.050857e+001  1.025285e+002 
3856250000  -4.032988e+001  9.610068e+001 
3859375000  -3.953885e+001  8.933968e+001 
3862500000  -3.954713e+001  8.344990e+001 
3865625000  -3.960810e+001  7.704725e+001 
3868750000  -3.967529e+001  7.539879e+001 
3871875000  -3.897137e+001  7.152464e+001 
3875000000  -3.940948e+001  6.265029e+001 
3878125000  -4.086956e+001  6.195848e+001 
3881250000  -4.078287e+001  6.324116e+001 
3884375000  -4.035318e+001  5.978987e+001 
3887500000  -4.049864e+001  5.492345e+001 
3890625000  -4.117021e+001  5.201003e+001 
3893750000  -4.104644e+001  4.855462e+001 
3896875000  -4.206781e+001  5.075948e+001 
3900000000  -4.148859e+001  4.998869e+001 
3903125000  -4.139639e+001  4.746484e+001 
3906250000  -4.092310e+001  4.752145e+001 
3909375000  -4.024946e+001  4.375132e+001 
3912500000  -4.001756e+001  3.381157e+001 
3915625000  -4.156948e+001  3.515735e+001 
3918750000  -4.140897e+001  3.758828e+001 
3921875000  -4.066598e+001  3.743802e+001 
3925000000  -3.975934e+001  3.250916e+001 
3928125000  -3.916364e+001  2.438636e+001 
3931250000  -3.942970e+001  2.025346e+001 
3934375000  -3.988200e+001  1.865532e+001 
3937500000  -3.995651e+001  1.826871e+001 
3940625000  -4.047899e+001  1.605302e+001 
3943750000  -3.923533e+001  1.522244e+001 
3946875000  -3.811775e+001  9.202494e+000 
3950000000  -3.889149e+001  3.841655e-001 
3953125000  -3.956309e+001  -5.937200e-001 
3956250000  -3.857423e+001  -4.011949e-001 
3959375000  -3.739344e+001  -3.365551e+000 
3962500000  -3.709816e+001  -8.099791e+000 
3965625000  -3.707677e+001  -1.928234e+001 
3968750000  -3.801798e+001  -2.689456e+001 
3971875000  -3.832961e+001  -2.902711e+001 
3975000000  -3.776514e+001  -3.009529e+001 
3978125000  -3.763932e+001  -3.375352e+001 
3981250000  -3.754307e+001  -3.905380e+001 
3984375000  -3.787849e+001  -4.578334e+001 
3987500000  -3.856296e+001  -4.920031e+001 
3990625000  -3.849815e+001  -5.145597e+001 
3993750000  -3.900267e+001  -5.560457e+001 
3996875000  -3.904802e+001  -5.848865e+001 
4000000000  -3.937410e+001  -6.034978e+001 
4003125000  -3.962463e+001  -5.757330e+001 
4006250000  -3.831821e+001  -6.028143e+001 
4009375000  -3.754489e+001  -7.470792e+001 
4012500000  -3.876873e+001  -8.052463e+001 
4015625000  -4.001211e+001  -7.854783e+001 
4018750000  -4.010503e+001  -7.775842e+001 
4021875000  -3.967834e+001  -8.075248e+001 
4025000000  -3.884767e+001  -8.543913e+001 
4028125000  -3.922732e+001  -8.917927e+001 
4031250000  -3.977079e+001  -9.248846e+001 
4034375000  -3.993238e+001  -9.212393e+001 
4037500000  -3.937178e+001  -9.120090e+001 
4040625000  -3.923927e+001  -9.409290e+001 
4043750000  -3.941121e+001  -9.536148e+001 
4046875000  -3.909335e+001  -9.579426e+001 
4050000000  -3.849174e+001  -1.013334e+002 
4053125000  -3.900996e+001  -1.041656e+002 
4056250000  -3.979823e+001  -9.948108e+001 
4059375000  -3.784014e+001  -9.867943e+001 
4062500000  -3.674571e+001  -1.069642e+002 
4065625000  -3.666670e+001  -1.112026e+002 
4068750000  -3.630274e+001  -1.161105e+002 
4071875000  -3.577160e+001  -1.253242e+002 
4075000000  -3.601778e+001  -1.321092e+002 
4078125000  -3.659143e+001  -1.344733e+002 
4081250000  -3.595444e+001  -1.377738e+002 
4084375000  -3.550660e+001  -1.472985e+002 
4087500000  -3.617554e+001  -1.526145e+002 
4090625000  -3.659793e+001  -1.553853e+002 
4093750000  -3.641931e+001  -1.564347e+002 
4096875000  -3.586509e+001  -1.631167e+002 
4100000000  -3.689566e+001  -1.719578e+002 
4103125000  -3.771711e+001  -1.712045e+002 
4106250000  -3.744040e+001  -1.667559e+002 
4109375000  -3.650167e+001  -1.687933e+002 
4112500000  -3.592928e+001  -1.764904e+002 
4115625000  -3.625866e+001  1.783416e+002 
4118750000  -3.663741e+001  1.732459e+002 
4121875000  -3.625136e+001  1.679507e+002 
4125000000  -3.675497e+001  1.622247e+002 
4128125000  -3.775116e+001  1.625579e+002 
4131250000  -3.748364e+001  1.683468e+002 
4134375000  -3.526611e+001  1.631216e+002 
4137500000  -3.514546e+001  1.418953e+002 
4140625000  -3.721676e+001  1.357295e+002 
4143750000  -3.887172e+001  1.403631e+002 
4146875000  -3.844039e+001  1.455195e+002 
4150000000  -3.754395e+001  1.421544e+002 
4153125000  -3.772597e+001  1.350045e+002 
4156250000  -3.883287e+001  1.332761e+002 
4159375000  -3.906657e+001  1.364980e+002 
4162500000  -3.782600e+001  1.412408e+002 
4165625000  -3.675444e+001  1.364554e+002 
4168750000  -3.626334e+001  1.296263e+002 
4171875000  -3.609230e+001  1.201412e+002 
4175000000  -3.688331e+001  1.151758e+002 
4178125000  -3.757856e+001  1.128865e+002 
4181250000  -3.731366e+001  1.135738e+002 
4184375000  -3.711342e+001  1.092856e+002 
4187500000  -3.689640e+001  1.058888e+002 
4190625000  -3.688842e+001  1.009540e+002 
4193750000  -3.768416e+001  9.708096e+001 
4196875000  -3.828586e+001  9.594965e+001 
4200000000  -3.928127e+001  9.959644e+001 
4203125000  -3.868993e+001  1.105022e+002 
4206250000  -3.544262e+001  1.107376e+002 
4209375000  -3.446170e+001  8.900542e+001 
4212500000  -3.632331e+001  8.059971e+001 
4215625000  -3.730877e+001  8.582492e+001 
4218750000  -3.566410e+001  9.098425e+001 
4221875000  -3.345890e+001  8.065704e+001 
4225000000  -3.465702e+001  6.832610e+001 
4228125000  -3.504693e+001  7.147053e+001 
4231250000  -3.351770e+001  6.694006e+001 
4234375000  -3.332496e+001  5.680850e+001 
4237500000  -3.291195e+001  5.217925e+001 
4240625000  -3.291382e+001  4.234235e+001 
4243750000  -3.391478e+001  3.336530e+001 
4246875000  -3.487374e+001  3.329555e+001 
4250000000  -3.473710e+001  3.411129e+001 
4253125000  -3.446466e+001  3.131837e+001 
4256250000  -3.485575e+001  2.591085e+001 
4259375000  -3.453131e+001  2.243567e+001 
4262500000  -3.458325e+001  1.821863e+001 
4265625000  -3.475458e+001  1.726382e+001 
4268750000  -3.388536e+001  1.234393e+001 
4271875000  -3.372573e+001  4.489585e+000 
4275000000  -3.328195e+001  -4.415474e+000 
4278125000  -3.411628e+001  -1.556847e+001 
4281250000  -3.613558e+001  -1.808922e+001 
4284375000  -3.596623e+001  -1.873319e+001 
4287500000  -3.720006e+001  -2.311375e+001 
4290625000  -3.818870e+001  -1.218351e+001 
4293750000  -3.634292e+001  -8.507512e+000 
4296875000  -3.506610e+001  -1.894232e+001 
4300000000  -3.621804e+001  -2.873053e+001 
4303125000  -3.736277e+001  -2.636040e+001 
4306250000  -3.679118e+001  -2.180838e+001 
4309375000  -3.532228e+001  -2.302729e+001 
4312500000  -3.520253e+001  -3.184736e+001 
4315625000  -3.553754e+001  -3.656534e+001 
4318750000  -3.598837e+001  -4.010948e+001 
4321875000  -3.603171e+001  -3.883972e+001 
4325000000  -3.533518e+001  -3.926152e+001 
4328125000  -3.460335e+001  -4.589816e+001 
4331250000  -3.449116e+001  -5.326667e+001 
4334375000  -3.488111e+001  -5.864566e+001 
4337500000  -3.576152e+001  -6.134429e+001 
4340625000  -3.617450e+001  -5.739265e+001 
4343750000  -3.533616e+001  -5.924817e+001 
4346875000  -3.460165e+001  -6.483347e+001 
4350000000  -3.476624e+001  -6.911872e+001 
4353125000  -3.469529e+001  -7.884864e+001 
4356250000  -3.632726e+001  -7.839033e+001 
4359375000  -3.672204e+001  -6.805222e+001 
4362500000  -3.334953e+001  -6.683659e+001 
4365625000  -3.203788e+001  -8.125792e+001 
4368750000  -3.284082e+001  -9.313370e+001 
4371875000  -3.383290e+001  -9.416863e+001 
4375000000  -3.335493e+001  -9.555939e+001 
4378125000  -3.271051e+001  -1.024523e+002 
4381250000  -3.289481e+001  -1.092811e+002 
4384375000  -3.268079e+001  -1.157074e+002 
4387500000  -3.356946e+001  -1.233220e+002 
4390625000  -3.444357e+001  -1.237183e+002 
4393750000  -3.382271e+001  -1.234711e+002 
4396875000  -3.325584e+001  -1.266779e+002 
4400000000  -3.270394e+001  -1.346978e+002 
4403125000  -3.336018e+001  -1.437230e+002 
4406250000  -3.418523e+001  -1.461616e+002 
4409375000  -3.456752e+001  -1.508421e+002 
4412500000  -3.571378e+001  -1.541252e+002 
4415625000  -3.597235e+001  -1.503849e+002 
