!Agilent Technologies,E8363B,MY43030201,A.06.04.32
!Agilent E8363B: A.06.04.32
!Date: Tuesday, November 11, 2014 21:09:43
!Correction: S21(Response(S21)) 
!S1P File: Measurement: S21:
# Hz S  dB   R 50
3000000000  -3.632303e+001  -5.686711e+001 
3003125000  -3.744708e+001  -6.294437e+001 
3006250000  -3.733705e+001  -6.553964e+001 
3009375000  -3.775203e+001  -6.019141e+001 
3012500000  -3.695564e+001  -6.227913e+001 
3015625000  -3.606112e+001  -6.920950e+001 
3018750000  -3.684064e+001  -7.101557e+001 
3021875000  -3.544178e+001  -6.935996e+001 
3025000000  -3.415495e+001  -7.280811e+001 
3028125000  -3.326725e+001  -7.978197e+001 
3031250000  -3.213798e+001  -9.127361e+001 
3034375000  -3.181200e+001  -1.044732e+002 
3037500000  -3.231704e+001  -1.161629e+002 
3040625000  -3.368651e+001  -1.211765e+002 
3043750000  -3.432291e+001  -1.264587e+002 
3046875000  -3.455968e+001  -1.323978e+002 
3050000000  -3.627240e+001  -1.383573e+002 
3053125000  -3.614049e+001  -1.317304e+002 
3056250000  -3.573935e+001  -1.296236e+002 
3059375000  -3.569464e+001  -1.292455e+002 
3062500000  -3.418864e+001  -1.323737e+002 
3065625000  -3.401835e+001  -1.388289e+002 
3068750000  -3.372068e+001  -1.461729e+002 
3071875000  -3.359512e+001  -1.483257e+002 
3075000000  -3.336413e+001  -1.522238e+002 
3078125000  -3.309564e+001  -1.562719e+002 
3081250000  -3.365441e+001  -1.607360e+002 
3084375000  -3.265239e+001  -1.639468e+002 
3087500000  -3.249116e+001  -1.682520e+002 
3090625000  -3.202057e+001  -1.783029e+002 
3093750000  -3.248480e+001  1.743773e+002 
3096875000  -3.346124e+001  1.684598e+002 
3100000000  -3.337224e+001  1.668655e+002 
3103125000  -3.365600e+001  1.669517e+002 
3106250000  -3.314382e+001  1.629462e+002 
3109375000  -3.326313e+001  1.588008e+002 
3112500000  -3.320190e+001  1.563556e+002 
3115625000  -3.280008e+001  1.522614e+002 
3118750000  -3.312469e+001  1.516150e+002 
3121875000  -3.224176e+001  1.420507e+002 
3125000000  -3.354330e+001  1.380630e+002 
3128125000  -3.439482e+001  1.455419e+002 
3131250000  -3.200457e+001  1.432524e+002 
3134375000  -3.071222e+001  1.279288e+002 
3137500000  -3.134681e+001  1.137274e+002 
3140625000  -3.278043e+001  1.109377e+002 
3143750000  -3.391055e+001  1.120958e+002 
3146875000  -3.333739e+001  1.137850e+002 
3150000000  -3.240796e+001  1.135176e+002 
3153125000  -3.237902e+001  1.043934e+002 
3156250000  -3.334916e+001  1.090822e+002 
3159375000  -3.162081e+001  1.099987e+002 
3162500000  -2.977591e+001  9.554036e+001 
3165625000  -3.083820e+001  8.345492e+001 
3168750000  -3.105449e+001  8.398686e+001 
3171875000  -3.014725e+001  7.797572e+001 
3175000000  -3.094228e+001  6.919007e+001 
3178125000  -3.072357e+001  6.982751e+001 
3181250000  -2.969998e+001  6.437650e+001 
3184375000  -2.900142e+001  5.162230e+001 
3187500000  -3.030242e+001  3.639600e+001 
3190625000  -3.294818e+001  2.896603e+001 
3193750000  -3.344890e+001  3.802618e+001 
3196875000  -3.311938e+001  4.190542e+001 
3200000000  -3.216394e+001  3.947664e+001 
3203125000  -3.141320e+001  3.292962e+001 
3206250000  -3.169377e+001  2.600371e+001 
3209375000  -3.129429e+001  2.015565e+001 
3212500000  -3.150826e+001  1.347453e+001 
3215625000  -3.157668e+001  9.915281e+000 
3218750000  -3.235774e+001  2.787137e+000 
3221875000  -3.309195e+001  -2.180000e+000 
3225000000  -3.271875e+001  -3.723876e+000 
3228125000  -3.313087e+001  -9.294372e+000 
3231250000  -3.382202e+001  -1.129961e+001 
3234375000  -3.350949e+001  -1.085717e+001 
3237500000  -3.356536e+001  -1.268807e+001 
3240625000  -3.307569e+001  -1.563511e+001 
3243750000  -3.269476e+001  -2.323313e+001 
3246875000  -3.313246e+001  -3.038247e+001 
3250000000  -3.348625e+001  -3.279112e+001 
3253125000  -3.367729e+001  -3.483562e+001 
3256250000  -3.323738e+001  -4.121962e+001 
3259375000  -3.350337e+001  -5.020854e+001 
3262500000  -3.470572e+001  -5.430531e+001 
3265625000  -3.532235e+001  -5.127615e+001 
3268750000  -3.504414e+001  -4.993607e+001 
3271875000  -3.468662e+001  -4.991027e+001 
3275000000  -3.364607e+001  -5.652583e+001 
3278125000  -3.419046e+001  -6.313269e+001 
3281250000  -3.436839e+001  -6.259262e+001 
3284375000  -3.388749e+001  -6.936519e+001 
3287500000  -3.402146e+001  -7.276248e+001 
3290625000  -3.430826e+001  -7.890235e+001 
3293750000  -3.393576e+001  -8.499298e+001 
3296875000  -3.512259e+001  -8.463775e+001 
3300000000  -3.496489e+001  -8.414069e+001 
3303125000  -3.362881e+001  -9.048272e+001 
3306250000  -3.348294e+001  -9.761280e+001 
3309375000  -3.323238e+001  -1.037771e+002 
3312500000  -3.324775e+001  -1.149057e+002 
3315625000  -3.428799e+001  -1.231991e+002 
3318750000  -3.576894e+001  -1.262247e+002 
3321875000  -3.696309e+001  -1.261528e+002 
3325000000  -3.726054e+001  -1.197451e+002 
3328125000  -3.676548e+001  -1.193445e+002 
3331250000  -3.566901e+001  -1.129332e+002 
3334375000  -3.299405e+001  -1.253502e+002 
3337500000  -3.308899e+001  -1.441256e+002 
3340625000  -3.475101e+001  -1.543123e+002 
3343750000  -3.652976e+001  -1.553185e+002 
3346875000  -3.675689e+001  -1.545963e+002 
3350000000  -3.616277e+001  -1.567054e+002 
3353125000  -3.612959e+001  -1.608212e+002 
3356250000  -3.576283e+001  -1.693025e+002 
3359375000  -3.658043e+001  -1.770819e+002 
3362500000  -3.752213e+001  1.770229e+002 
3365625000  -3.801549e+001  1.758204e+002 
3368750000  -3.888049e+001  1.736677e+002 
3371875000  -3.910659e+001  1.718979e+002 
3375000000  -4.059387e+001  1.701327e+002 
3378125000  -4.127368e+001  1.690514e+002 
3381250000  -4.281263e+001  1.795041e+002 
3384375000  -4.135815e+001  -1.617148e+002 
3387500000  -3.757726e+001  -1.766644e+002 
3390625000  -3.945758e+001  1.628711e+002 
3393750000  -4.032499e+001  1.679267e+002 
3396875000  -3.932006e+001  1.676227e+002 
3400000000  -3.883105e+001  1.599241e+002 
3403125000  -3.952284e+001  1.556260e+002 
3406250000  -3.970656e+001  1.559468e+002 
3409375000  -3.995759e+001  1.491252e+002 
3412500000  -4.048322e+001  1.452961e+002 
3415625000  -4.098471e+001  1.453295e+002 
3418750000  -4.124069e+001  1.455270e+002 
3421875000  -4.126673e+001  1.497979e+002 
3425000000  -4.004294e+001  1.504636e+002 
3428125000  -3.932234e+001  1.447067e+002 
3431250000  -3.919777e+001  1.387892e+002 
3434375000  -3.916121e+001  1.319092e+002 
3437500000  -3.969840e+001  1.283448e+002 
3440625000  -4.004309e+001  1.294789e+002 
3443750000  -3.872209e+001  1.303652e+002 
3446875000  -3.802620e+001  1.233651e+002 
3450000000  -3.763526e+001  1.124776e+002 
3453125000  -3.810297e+001  1.021429e+002 
3456250000  -3.937571e+001  9.582524e+001 
3459375000  -4.037639e+001  9.622137e+001 
3462500000  -4.019043e+001  9.639141e+001 
3465625000  -3.996827e+001  9.028731e+001 
3468750000  -4.035752e+001  8.889464e+001 
3471875000  -4.024487e+001  8.501081e+001 
3475000000  -3.982596e+001  8.127776e+001 
3478125000  -4.058276e+001  7.329086e+001 
3481250000  -4.156426e+001  7.116702e+001 
3484375000  -4.263451e+001  7.706652e+001 
3487500000  -4.165019e+001  7.637035e+001 
3490625000  -4.130607e+001  7.114547e+001 
3493750000  -4.162343e+001  6.384601e+001 
3496875000  -4.219617e+001  6.404805e+001 
3500000000  -4.287798e+001  6.492447e+001 
3503125000  -4.238548e+001  6.885963e+001 
3506250000  -4.091941e+001  6.388860e+001 
3509375000  -4.076294e+001  5.543906e+001 
3512500000  -4.147747e+001  4.525325e+001 
3515625000  -4.215836e+001  4.612064e+001 
3518750000  -4.248249e+001  4.604047e+001 
3521875000  -4.248157e+001  4.397676e+001 
3525000000  -4.341740e+001  3.909186e+001 
3528125000  -4.307220e+001  4.832615e+001 
3531250000  -4.180210e+001  4.684878e+001 
3534375000  -4.160281e+001  3.481136e+001 
3537500000  -4.187239e+001  2.937383e+001 
3540625000  -4.307460e+001  2.714016e+001 
3543750000  -4.346323e+001  3.067827e+001 
3546875000  -4.375481e+001  4.138893e+001 
3550000000  -4.074799e+001  4.263930e+001 
3553125000  -3.941858e+001  2.439132e+001 
3556250000  -4.087891e+001  1.631039e+001 
3559375000  -4.050534e+001  1.859030e+001 
3562500000  -3.962077e+001  9.178099e+000 
3565625000  -4.057946e+001  9.291744e-001 
3568750000  -4.082961e+001  3.094644e+000 
3571875000  -4.039330e+001  8.548779e-001 
3575000000  -4.010791e+001  -5.199408e+000 
3578125000  -4.088500e+001  -1.201651e+001 
3581250000  -4.089967e+001  -1.320114e+001 
3584375000  -4.022255e+001  -1.622065e+001 
3587500000  -3.983380e+001  -2.493716e+001 
3590625000  -4.050782e+001  -3.440697e+001 
3593750000  -4.176671e+001  -3.734079e+001 
3596875000  -4.192348e+001  -3.278789e+001 
3600000000  -4.028912e+001  -3.831065e+001 
3603125000  -4.108289e+001  -5.096809e+001 
3606250000  -4.202535e+001  -5.464629e+001 
3609375000  -4.248048e+001  -5.739431e+001 
3612500000  -4.320942e+001  -6.029873e+001 
3615625000  -4.358784e+001  -6.192471e+001 
3618750000  -4.422786e+001  -6.137539e+001 
3621875000  -4.432666e+001  -6.632578e+001 
3625000000  -4.500260e+001  -6.447417e+001 
3628125000  -4.514536e+001  -6.563767e+001 
3631250000  -4.444966e+001  -7.001134e+001 
3634375000  -4.598898e+001  -6.890304e+001 
3637500000  -4.619150e+001  -5.963972e+001 
3640625000  -4.499014e+001  -5.769339e+001 
3643750000  -4.453435e+001  -6.434007e+001 
3646875000  -4.530376e+001  -7.025784e+001 
3650000000  -4.517781e+001  -6.662189e+001 
3653125000  -4.485840e+001  -7.011308e+001 
3656250000  -4.551650e+001  -7.071492e+001 
3659375000  -4.549938e+001  -6.822875e+001 
3662500000  -4.433540e+001  -7.151456e+001 
3665625000  -4.423571e+001  -7.192009e+001 
3668750000  -4.293872e+001  -7.467516e+001 
3671875000  -4.173727e+001  -8.255956e+001 
3675000000  -4.201368e+001  -8.770538e+001 
3678125000  -4.235223e+001  -9.247939e+001 
3681250000  -4.197441e+001  -9.589238e+001 
3684375000  -4.205672e+001  -9.989390e+001 
3687500000  -4.211470e+001  -1.035041e+002 
3690625000  -4.214568e+001  -1.101180e+002 
3693750000  -4.353220e+001  -1.084025e+002 
3696875000  -4.311734e+001  -1.098722e+002 
3700000000  -4.208154e+001  -1.151813e+002 
3703125000  -4.224562e+001  -1.213601e+002 
3706250000  -4.311044e+001  -1.224904e+002 
3709375000  -4.305479e+001  -1.206988e+002 
3712500000  -4.166082e+001  -1.245879e+002 
3715625000  -4.139580e+001  -1.308918e+002 
3718750000  -4.129222e+001  -1.366462e+002 
3721875000  -4.100557e+001  -1.426301e+002 
3725000000  -4.147254e+001  -1.487016e+002 
3728125000  -4.239668e+001  -1.481948e+002 
3731250000  -4.173455e+001  -1.532448e+002 
3734375000  -4.150172e+001  -1.584928e+002 
3737500000  -4.241909e+001  -1.671611e+002 
3740625000  -4.380325e+001  -1.665923e+002 
3743750000  -4.384671e+001  -1.702727e+002 
3746875000  -4.392213e+001  -1.745952e+002 
3750000000  -4.497078e+001  -1.755278e+002 
3753125000  -4.496502e+001  -1.740057e+002 
3756250000  -4.512514e+001  -1.681980e+002 
3759375000  -4.522338e+001  -1.696835e+002 
3762500000  -4.426748e+001  -1.714027e+002 
3765625000  -4.516317e+001  -1.716810e+002 
3768750000  -4.476661e+001  -1.649267e+002 
3771875000  -4.342147e+001  -1.660059e+002 
3775000000  -4.313017e+001  -1.749506e+002 
3778125000  -4.323842e+001  -1.760696e+002 
3781250000  -4.266766e+001  -1.772754e+002 
3784375000  -4.264135e+001  -1.775726e+002 
3787500000  -4.162451e+001  1.771130e+002 
3790625000  -4.182702e+001  1.707957e+002 
3793750000  -4.188294e+001  1.699971e+002 
3796875000  -4.050362e+001  1.678757e+002 
3800000000  -3.912570e+001  1.659272e+002 
3803125000  -3.987590e+001  1.548733e+002 
3806250000  -4.031591e+001  1.501910e+002 
3809375000  -4.018003e+001  1.485356e+002 
3812500000  -3.931750e+001  1.427296e+002 
3815625000  -4.009661e+001  1.320654e+002 
3818750000  -4.117688e+001  1.322137e+002 
3821875000  -4.084803e+001  1.397227e+002 
3825000000  -3.916008e+001  1.405446e+002 
3828125000  -3.776862e+001  1.238527e+002 
3831250000  -3.860893e+001  1.095832e+002 
3834375000  -3.991713e+001  1.078854e+002 
3837500000  -4.084201e+001  1.139716e+002 
3840625000  -3.973629e+001  1.101304e+002 
3843750000  -3.872690e+001  9.580748e+001 
3846875000  -3.999723e+001  9.098558e+001 
3850000000  -4.131765e+001  9.410352e+001 
3853125000  -4.020642e+001  9.884499e+001 
3856250000  -4.035878e+001  9.144545e+001 
3859375000  -3.966426e+001  8.645163e+001 
3862500000  -3.961076e+001  7.850190e+001 
3865625000  -4.016345e+001  7.322903e+001 
3868750000  -3.991317e+001  7.184056e+001 
3871875000  -3.953087e+001  6.818136e+001 
3875000000  -3.977707e+001  6.073322e+001 
3878125000  -4.095743e+001  5.991624e+001 
3881250000  -4.096791e+001  6.052940e+001 
3884375000  -4.081501e+001  5.698285e+001 
3887500000  -4.120803e+001  5.329523e+001 
3890625000  -4.149334e+001  4.940109e+001 
3893750000  -4.184547e+001  4.850949e+001 
3896875000  -4.200086e+001  5.252238e+001 
3900000000  -4.200393e+001  4.861320e+001 
3903125000  -4.148523e+001  4.688344e+001 
3906250000  -4.108685e+001  4.690366e+001 
3909375000  -4.020221e+001  4.421477e+001 
3912500000  -4.045430e+001  3.538264e+001 
3915625000  -4.145589e+001  3.509534e+001 
3918750000  -4.120091e+001  3.684977e+001 
3921875000  -4.080561e+001  3.420130e+001 
3925000000  -3.974268e+001  3.079567e+001 
3928125000  -3.915243e+001  2.412173e+001 
3931250000  -3.940102e+001  2.003837e+001 
3934375000  -3.966201e+001  1.739574e+001 
3937500000  -3.985975e+001  1.670885e+001 
3940625000  -4.016859e+001  1.373278e+001 
3943750000  -3.901563e+001  1.303501e+001 
3946875000  -3.791619e+001  7.577600e+000 
3950000000  -3.877425e+001  -2.759141e+000 
3953125000  -3.953446e+001  -3.710367e+000 
3956250000  -3.847039e+001  -1.483553e+000 
3959375000  -3.740761e+001  -4.948381e+000 
3962500000  -3.713258e+001  -1.151433e+001 
3965625000  -3.680909e+001  -2.208615e+001 
3968750000  -3.794954e+001  -2.898493e+001 
3971875000  -3.826950e+001  -3.138408e+001 
3975000000  -3.736764e+001  -3.548305e+001 
3978125000  -3.758417e+001  -3.716913e+001 
3981250000  -3.761623e+001  -4.342263e+001 
3984375000  -3.767659e+001  -5.092268e+001 
3987500000  -3.848254e+001  -5.233490e+001 
3990625000  -3.846633e+001  -5.480982e+001 
3993750000  -3.886963e+001  -5.928276e+001 
3996875000  -3.914764e+001  -6.275944e+001 
4000000000  -3.937984e+001  -6.468207e+001 
4003125000  -4.021837e+001  -6.341142e+001 
4006250000  -3.865345e+001  -6.397878e+001 
4009375000  -3.774854e+001  -7.651266e+001 
4012500000  -3.916580e+001  -8.407898e+001 
4015625000  -4.019249e+001  -8.262121e+001 
4018750000  -4.062474e+001  -7.838795e+001 
4021875000  -3.984529e+001  -8.105328e+001 
4025000000  -3.975889e+001  -8.487933e+001 
4028125000  -3.949358e+001  -8.997830e+001 
4031250000  -4.017479e+001  -9.244102e+001 
4034375000  -4.038577e+001  -9.255408e+001 
4037500000  -3.985160e+001  -8.972164e+001 
4040625000  -3.966653e+001  -9.503094e+001 
4043750000  -3.983841e+001  -9.513602e+001 
4046875000  -3.924347e+001  -9.556374e+001 
4050000000  -3.857540e+001  -1.008341e+002 
4053125000  -3.920691e+001  -1.037137e+002 
4056250000  -3.930684e+001  -1.005702e+002 
4059375000  -3.800696e+001  -9.989008e+001 
4062500000  -3.667762e+001  -1.068242e+002 
4065625000  -3.656852e+001  -1.109741e+002 
4068750000  -3.619878e+001  -1.164785e+002 
4071875000  -3.547174e+001  -1.250431e+002 
4075000000  -3.579383e+001  -1.326917e+002 
4078125000  -3.638461e+001  -1.346054e+002 
4081250000  -3.568224e+001  -1.387878e+002 
4084375000  -3.537509e+001  -1.469343e+002 
4087500000  -3.585635e+001  -1.540721e+002 
4090625000  -3.653404e+001  -1.564391e+002 
4093750000  -3.627309e+001  -1.577550e+002 
4096875000  -3.570934e+001  -1.641549e+002 
4100000000  -3.652376e+001  -1.726812e+002 
4103125000  -3.746987e+001  -1.728161e+002 
4106250000  -3.728559e+001  -1.680635e+002 
4109375000  -3.619523e+001  -1.712605e+002 
4112500000  -3.590419e+001  1.791508e+002 
4115625000  -3.612571e+001  1.758912e+002 
4118750000  -3.651756e+001  1.712205e+002 
4121875000  -3.631409e+001  1.648072e+002 
4125000000  -3.656279e+001  1.590904e+002 
4128125000  -3.789908e+001  1.584164e+002 
4131250000  -3.725303e+001  1.659999e+002 
4134375000  -3.535894e+001  1.587720e+002 
4137500000  -3.530450e+001  1.416577e+002 
4140625000  -3.758479e+001  1.319848e+002 
4143750000  -3.914244e+001  1.382466e+002 
4146875000  -3.874314e+001  1.424801e+002 
4150000000  -3.803305e+001  1.385771e+002 
4153125000  -3.791937e+001  1.323466e+002 
4156250000  -3.886507e+001  1.301427e+002 
4159375000  -3.908135e+001  1.355802e+002 
4162500000  -3.808208e+001  1.398993e+002 
4165625000  -3.700106e+001  1.354304e+002 
4168750000  -3.647953e+001  1.272085e+002 
4171875000  -3.646618e+001  1.184752e+002 
4175000000  -3.723542e+001  1.141267e+002 
4178125000  -3.765137e+001  1.140860e+002 
4181250000  -3.706118e+001  1.135999e+002 
4184375000  -3.700737e+001  1.093927e+002 
4187500000  -3.720702e+001  1.071860e+002 
4190625000  -3.679979e+001  1.005935e+002 
4193750000  -3.757116e+001  9.668767e+001 
4196875000  -3.851225e+001  9.614242e+001 
4200000000  -3.914701e+001  9.909214e+001 
4203125000  -3.879976e+001  1.114267e+002 
4206250000  -3.508818e+001  1.103845e+002 
4209375000  -3.389680e+001  8.855949e+001 
4212500000  -3.600500e+001  8.028236e+001 
4215625000  -3.687672e+001  8.620196e+001 
4218750000  -3.514813e+001  9.078609e+001 
4221875000  -3.309550e+001  8.064721e+001 
4225000000  -3.421695e+001  6.689021e+001 
4228125000  -3.465481e+001  6.969289e+001 
4231250000  -3.315881e+001  6.504936e+001 
4234375000  -3.299228e+001  5.635310e+001 
4237500000  -3.254412e+001  5.083684e+001 
4240625000  -3.259861e+001  4.069447e+001 
4243750000  -3.371764e+001  3.278923e+001 
4246875000  -3.472554e+001  3.189994e+001 
4250000000  -3.462081e+001  3.362481e+001 
4253125000  -3.401469e+001  2.845884e+001 
4256250000  -3.435389e+001  2.377723e+001 
4259375000  -3.414735e+001  2.040429e+001 
4262500000  -3.443720e+001  1.489608e+001 
4265625000  -3.454061e+001  1.513778e+001 
4268750000  -3.371294e+001  8.636563e+000 
4271875000  -3.349307e+001  9.603748e-001 
4275000000  -3.317969e+001  -6.652013e+000 
4278125000  -3.407169e+001  -1.755552e+001 
4281250000  -3.592182e+001  -1.935693e+001 
4284375000  -3.571287e+001  -2.015280e+001 
4287500000  -3.691452e+001  -2.392013e+001 
4290625000  -3.811220e+001  -1.558304e+001 
4293750000  -3.632582e+001  -1.016359e+001 
4296875000  -3.518106e+001  -2.150950e+001 
4300000000  -3.602536e+001  -3.012756e+001 
4303125000  -3.732388e+001  -2.891096e+001 
4306250000  -3.667018e+001  -2.200050e+001 
4309375000  -3.524491e+001  -2.394598e+001 
4312500000  -3.518749e+001  -3.234588e+001 
4315625000  -3.548630e+001  -3.783378e+001 
4318750000  -3.576227e+001  -4.143864e+001 
4321875000  -3.591980e+001  -3.920039e+001 
4325000000  -3.510369e+001  -3.875051e+001 
4328125000  -3.449037e+001  -4.511447e+001 
4331250000  -3.424019e+001  -5.363901e+001 
4334375000  -3.462370e+001  -5.978458e+001 
4337500000  -3.544415e+001  -6.049075e+001 
4340625000  -3.586647e+001  -5.837831e+001 
4343750000  -3.484102e+001  -5.804979e+001 
4346875000  -3.438596e+001  -6.459852e+001 
4350000000  -3.430952e+001  -7.041086e+001 
4353125000  -3.416752e+001  -7.961943e+001 
4356250000  -3.585665e+001  -8.001345e+001 
4359375000  -3.614086e+001  -6.588161e+001 
4362500000  -3.311691e+001  -6.710289e+001 
4365625000  -3.154637e+001  -8.191747e+001 
4368750000  -3.252797e+001  -9.447988e+001 
4371875000  -3.342497e+001  -9.471043e+001 
4375000000  -3.290814e+001  -9.790270e+001 
4378125000  -3.219709e+001  -1.049185e+002 
4381250000  -3.255433e+001  -1.111027e+002 
4384375000  -3.228114e+001  -1.182117e+002 
4387500000  -3.306594e+001  -1.246060e+002 
4390625000  -3.395843e+001  -1.254303e+002 
4393750000  -3.324766e+001  -1.245316e+002 
4396875000  -3.264997e+001  -1.289492e+002 
4400000000  -3.235841e+001  -1.380470e+002 
4403125000  -3.294508e+001  -1.462347e+002 
4406250000  -3.385321e+001  -1.495659e+002 
4409375000  -3.400765e+001  -1.534890e+002 
4412500000  -3.517445e+001  -1.565967e+002 
4415625000  -3.551880e+001  -1.530056e+002 
