!Agilent Technologies,E8363B,MY43030201,A.06.04.32
!Agilent E8363B: A.06.04.32
!Date: Tuesday, November 11, 2014 21:03:06
!Correction: S21(Response(S21)) 
!S1P File: Measurement: S21:
# Hz S  dB   R 50
3000000000  -3.641630e+001  -4.606543e+001 
3003125000  -3.755328e+001  -5.238200e+001 
3006250000  -3.737240e+001  -5.517920e+001 
3009375000  -3.755913e+001  -5.035458e+001 
3012500000  -3.693233e+001  -5.177470e+001 
3015625000  -3.599293e+001  -5.913913e+001 
3018750000  -3.674688e+001  -6.064378e+001 
3021875000  -3.545525e+001  -5.956485e+001 
3025000000  -3.411522e+001  -6.311978e+001 
3028125000  -3.312341e+001  -6.949009e+001 
3031250000  -3.209469e+001  -8.103553e+001 
3034375000  -3.170509e+001  -9.434677e+001 
3037500000  -3.222833e+001  -1.068994e+002 
3040625000  -3.347136e+001  -1.109054e+002 
3043750000  -3.417913e+001  -1.162491e+002 
3046875000  -3.431289e+001  -1.223248e+002 
3050000000  -3.601403e+001  -1.295037e+002 
3053125000  -3.601391e+001  -1.227671e+002 
3056250000  -3.545248e+001  -1.203201e+002 
3059375000  -3.560147e+001  -1.202039e+002 
3062500000  -3.415040e+001  -1.239706e+002 
3065625000  -3.390059e+001  -1.297268e+002 
3068750000  -3.349427e+001  -1.369255e+002 
3071875000  -3.346894e+001  -1.397755e+002 
3075000000  -3.328984e+001  -1.429377e+002 
3078125000  -3.295531e+001  -1.475164e+002 
3081250000  -3.347286e+001  -1.517557e+002 
3084375000  -3.261969e+001  -1.550133e+002 
3087500000  -3.243681e+001  -1.588922e+002 
3090625000  -3.193978e+001  -1.692622e+002 
3093750000  -3.238236e+001  -1.768352e+002 
3096875000  -3.344500e+001  1.778143e+002 
3100000000  -3.337717e+001  1.754524e+002 
3103125000  -3.363089e+001  1.760794e+002 
3106250000  -3.314280e+001  1.719865e+002 
3109375000  -3.329859e+001  1.680252e+002 
3112500000  -3.317868e+001  1.663446e+002 
3115625000  -3.290682e+001  1.612569e+002 
3118750000  -3.321977e+001  1.608899e+002 
3121875000  -3.228315e+001  1.518644e+002 
3125000000  -3.352766e+001  1.477132e+002 
3128125000  -3.447195e+001  1.545905e+002 
3131250000  -3.207813e+001  1.532115e+002 
3134375000  -3.082229e+001  1.376512e+002 
3137500000  -3.134285e+001  1.237188e+002 
3140625000  -3.285985e+001  1.209264e+002 
3143750000  -3.379943e+001  1.221630e+002 
3146875000  -3.336531e+001  1.230401e+002 
3150000000  -3.232965e+001  1.230199e+002 
3153125000  -3.230756e+001  1.139620e+002 
3156250000  -3.332907e+001  1.195005e+002 
3159375000  -3.171094e+001  1.204201e+002 
3162500000  -2.976262e+001  1.059646e+002 
3165625000  -3.072913e+001  9.380647e+001 
3168750000  -3.105383e+001  9.384382e+001 
3171875000  -3.014114e+001  8.845989e+001 
3175000000  -3.092154e+001  7.946006e+001 
3178125000  -3.067797e+001  8.065668e+001 
3181250000  -2.963023e+001  7.486985e+001 
3184375000  -2.884723e+001  6.195323e+001 
3187500000  -3.004079e+001  4.680203e+001 
3190625000  -3.278317e+001  3.835633e+001 
3193750000  -3.336356e+001  4.736131e+001 
3196875000  -3.298556e+001  5.165878e+001 
3200000000  -3.213605e+001  4.878347e+001 
3203125000  -3.126033e+001  4.327681e+001 
3206250000  -3.161216e+001  3.588822e+001 
3209375000  -3.117750e+001  3.024258e+001 
3212500000  -3.137068e+001  2.334835e+001 
3215625000  -3.139289e+001  1.994379e+001 
3218750000  -3.218455e+001  1.210796e+001 
3221875000  -3.313000e+001  6.695861e+000 
3225000000  -3.266547e+001  5.972881e+000 
3228125000  -3.296333e+001  4.603160e-001 
3231250000  -3.364839e+001  -2.778726e+000 
3234375000  -3.348276e+001  -2.056276e+000 
3237500000  -3.341740e+001  -3.888725e+000 
3240625000  -3.305749e+001  -6.351612e+000 
3243750000  -3.260884e+001  -1.424352e+001 
3246875000  -3.303255e+001  -2.170087e+001 
3250000000  -3.342585e+001  -2.368399e+001 
3253125000  -3.356517e+001  -2.626110e+001 
3256250000  -3.317635e+001  -3.280940e+001 
3259375000  -3.349981e+001  -4.057092e+001 
3262500000  -3.471671e+001  -4.527353e+001 
3265625000  -3.536163e+001  -4.164501e+001 
3268750000  -3.520171e+001  -3.980133e+001 
3271875000  -3.479234e+001  -4.086673e+001 
3275000000  -3.380488e+001  -4.645021e+001 
3278125000  -3.428632e+001  -5.330870e+001 
3281250000  -3.444210e+001  -5.245367e+001 
3284375000  -3.401685e+001  -5.881778e+001 
3287500000  -3.416420e+001  -6.310176e+001 
3290625000  -3.438300e+001  -6.819866e+001 
3293750000  -3.413349e+001  -7.443851e+001 
3296875000  -3.515449e+001  -7.559767e+001 
3300000000  -3.502580e+001  -7.498081e+001 
3303125000  -3.374965e+001  -8.004157e+001 
3306250000  -3.360211e+001  -8.709031e+001 
3309375000  -3.333835e+001  -9.295676e+001 
3312500000  -3.337152e+001  -1.041924e+002 
3315625000  -3.441255e+001  -1.128189e+002 
3318750000  -3.573851e+001  -1.157379e+002 
3321875000  -3.668731e+001  -1.156644e+002 
3325000000  -3.739848e+001  -1.099590e+002 
3328125000  -3.707656e+001  -1.099808e+002 
3331250000  -3.571970e+001  -1.034197e+002 
3334375000  -3.302629e+001  -1.129686e+002 
3337500000  -3.309268e+001  -1.317655e+002 
3340625000  -3.447885e+001  -1.437930e+002 
3343750000  -3.649138e+001  -1.454397e+002 
3346875000  -3.670701e+001  -1.436160e+002 
3350000000  -3.609359e+001  -1.445513e+002 
3353125000  -3.611296e+001  -1.500507e+002 
3356250000  -3.562363e+001  -1.579593e+002 
3359375000  -3.629747e+001  -1.659763e+002 
3362500000  -3.751406e+001  -1.721986e+002 
3365625000  -3.793881e+001  -1.731756e+002 
3368750000  -3.890502e+001  -1.756683e+002 
3371875000  -3.916841e+001  -1.778840e+002 
3375000000  -4.038878e+001  1.789848e+002 
3378125000  -4.129773e+001  1.799200e+002 
3381250000  -4.246664e+001  -1.746994e+002 
3384375000  -4.129619e+001  -1.524085e+002 
3387500000  -3.753864e+001  -1.668218e+002 
3390625000  -3.932020e+001  1.738791e+002 
3393750000  -4.029171e+001  1.756680e+002 
3396875000  -3.934008e+001  1.779651e+002 
3400000000  -3.863317e+001  1.718963e+002 
3403125000  -3.928494e+001  1.660593e+002 
3406250000  -3.966368e+001  1.642753e+002 
3409375000  -4.005235e+001  1.576123e+002 
3412500000  -4.021490e+001  1.545682e+002 
3415625000  -4.111895e+001  1.549558e+002 
3418750000  -4.111082e+001  1.570536e+002 
3421875000  -4.136428e+001  1.601698e+002 
3425000000  -4.048442e+001  1.594760e+002 
3428125000  -3.938715e+001  1.552287e+002 
3431250000  -3.922739e+001  1.483351e+002 
3434375000  -3.931080e+001  1.425305e+002 
3437500000  -3.976928e+001  1.390963e+002 
3440625000  -3.999561e+001  1.401598e+002 
3443750000  -3.868883e+001  1.400073e+002 
3446875000  -3.793186e+001  1.333349e+002 
3450000000  -3.744722e+001  1.236397e+002 
3453125000  -3.810423e+001  1.122903e+002 
3456250000  -3.900229e+001  1.068637e+002 
3459375000  -4.008826e+001  1.084845e+002 
3462500000  -3.996551e+001  1.078260e+002 
3465625000  -3.975013e+001  1.020236e+002 
3468750000  -4.006427e+001  9.948029e+001 
3471875000  -4.016528e+001  9.911995e+001 
3475000000  -3.967918e+001  9.060003e+001 
3478125000  -4.036911e+001  8.358527e+001 
3481250000  -4.103093e+001  8.134319e+001 
3484375000  -4.222799e+001  8.645161e+001 
3487500000  -4.131812e+001  8.399139e+001 
3490625000  -4.074428e+001  8.029631e+001 
3493750000  -4.122828e+001  7.483293e+001 
3496875000  -4.147906e+001  7.203819e+001 
3500000000  -4.249153e+001  7.474509e+001 
3503125000  -4.187279e+001  7.591956e+001 
3506250000  -4.057162e+001  7.135722e+001 
3509375000  -4.066539e+001  6.204730e+001 
3512500000  -4.127972e+001  5.258006e+001 
3515625000  -4.182994e+001  5.188379e+001 
3518750000  -4.247855e+001  5.236586e+001 
3521875000  -4.240073e+001  4.928467e+001 
3525000000  -4.352145e+001  4.513274e+001 
3528125000  -4.346593e+001  5.589645e+001 
3531250000  -4.215289e+001  5.206166e+001 
3534375000  -4.217166e+001  4.062368e+001 
3537500000  -4.249976e+001  3.696083e+001 
3540625000  -4.354585e+001  3.423226e+001 
3543750000  -4.400420e+001  3.933129e+001 
3546875000  -4.410500e+001  5.121954e+001 
3550000000  -4.122709e+001  5.073410e+001 
3553125000  -4.023436e+001  3.288788e+001 
3556250000  -4.178445e+001  2.829410e+001 
3559375000  -4.139750e+001  2.908214e+001 
3562500000  -4.043631e+001  1.961934e+001 
3565625000  -4.149846e+001  1.178869e+001 
3568750000  -4.127985e+001  1.470715e+001 
3571875000  -4.080994e+001  1.329278e+001 
3575000000  -4.095882e+001  6.293834e+000 
3578125000  -4.131264e+001  1.388200e+000 
3581250000  -4.175804e+001  1.024358e+000 
3584375000  -4.042508e+001  -4.249111e+000 
3587500000  -3.994654e+001  -1.286130e+001 
3590625000  -4.044420e+001  -2.070205e+001 
3593750000  -4.209243e+001  -2.339816e+001 
3596875000  -4.182585e+001  -1.735574e+001 
3600000000  -4.031098e+001  -2.403662e+001 
3603125000  -4.074312e+001  -3.905606e+001 
3606250000  -4.147547e+001  -4.245272e+001 
3609375000  -4.230557e+001  -4.442315e+001 
3612500000  -4.309307e+001  -4.840784e+001 
3615625000  -4.316678e+001  -5.411177e+001 
3618750000  -4.385004e+001  -5.086698e+001 
3621875000  -4.363210e+001  -5.418919e+001 
3625000000  -4.479150e+001  -5.401256e+001 
3628125000  -4.420692e+001  -5.758393e+001 
3631250000  -4.475266e+001  -6.161807e+001 
3634375000  -4.565273e+001  -6.107872e+001 
3637500000  -4.558239e+001  -5.989954e+001 
3640625000  -4.464468e+001  -5.533001e+001 
3643750000  -4.482199e+001  -6.052856e+001 
3646875000  -4.512322e+001  -6.550716e+001 
3650000000  -4.607788e+001  -6.433356e+001 
3653125000  -4.617179e+001  -6.605254e+001 
3656250000  -4.610212e+001  -6.622028e+001 
3659375000  -4.628930e+001  -6.075532e+001 
3662500000  -4.540793e+001  -6.390184e+001 
3665625000  -4.499487e+001  -6.546164e+001 
3668750000  -4.380560e+001  -6.304078e+001 
3671875000  -4.285963e+001  -6.905888e+001 
3675000000  -4.321880e+001  -7.841465e+001 
3678125000  -4.361626e+001  -7.862612e+001 
3681250000  -4.325503e+001  -8.143040e+001 
3684375000  -4.310292e+001  -8.677896e+001 
3687500000  -4.306273e+001  -8.961517e+001 
3690625000  -4.312566e+001  -9.423068e+001 
3693750000  -4.399332e+001  -9.578474e+001 
3696875000  -4.402670e+001  -9.486388e+001 
3700000000  -4.290272e+001  -9.911314e+001 
3703125000  -4.281639e+001  -1.067047e+002 
3706250000  -4.366329e+001  -1.038519e+002 
3709375000  -4.390709e+001  -1.043387e+002 
3712500000  -4.249221e+001  -1.062617e+002 
3715625000  -4.177784e+001  -1.132119e+002 
3718750000  -4.155706e+001  -1.183456e+002 
3721875000  -4.148794e+001  -1.266771e+002 
3725000000  -4.150309e+001  -1.326428e+002 
3728125000  -4.239815e+001  -1.325003e+002 
3731250000  -4.176748e+001  -1.368338e+002 
3734375000  -4.126272e+001  -1.420324e+002 
3737500000  -4.237233e+001  -1.506473e+002 
3740625000  -4.351739e+001  -1.530607e+002 
3743750000  -4.320655e+001  -1.540670e+002 
3746875000  -4.367253e+001  -1.575819e+002 
3750000000  -4.416570e+001  -1.588286e+002 
3753125000  -4.454957e+001  -1.578737e+002 
3756250000  -4.474977e+001  -1.574663e+002 
3759375000  -4.472031e+001  -1.595646e+002 
3762500000  -4.410277e+001  -1.599992e+002 
3765625000  -4.493806e+001  -1.626115e+002 
3768750000  -4.476342e+001  -1.585756e+002 
3771875000  -4.326436e+001  -1.587241e+002 
3775000000  -4.299510e+001  -1.641546e+002 
3778125000  -4.341502e+001  -1.680237e+002 
3781250000  -4.300329e+001  -1.658343e+002 
3784375000  -4.291486e+001  -1.680014e+002 
3787500000  -4.179163e+001  -1.715220e+002 
3790625000  -4.244196e+001  -1.758753e+002 
3793750000  -4.241480e+001  -1.793489e+002 
3796875000  -4.133041e+001  1.796800e+002 
3800000000  -3.963831e+001  1.786821e+002 
3803125000  -4.028904e+001  1.681312e+002 
3806250000  -4.106702e+001  1.640203e+002 
3809375000  -4.049113e+001  1.629520e+002 
3812500000  -3.976591e+001  1.560608e+002 
3815625000  -4.026330e+001  1.458076e+002 
3818750000  -4.146598e+001  1.461344e+002 
3821875000  -4.128915e+001  1.530164e+002 
3825000000  -3.970079e+001  1.544689e+002 
3828125000  -3.799892e+001  1.411097e+002 
3831250000  -3.850113e+001  1.255421e+002 
3834375000  -3.998436e+001  1.253805e+002 
3837500000  -4.091743e+001  1.260279e+002 
3840625000  -3.978738e+001  1.249722e+002 
3843750000  -3.890469e+001  1.135894e+002 
3846875000  -3.954118e+001  1.058726e+002 
3850000000  -4.119241e+001  1.108446e+002 
3853125000  -4.027026e+001  1.133773e+002 
3856250000  -4.042043e+001  1.066085e+002 
3859375000  -3.949643e+001  1.018124e+002 
3862500000  -3.941344e+001  9.226310e+001 
3865625000  -3.978146e+001  8.922922e+001 
3868750000  -3.977493e+001  8.789120e+001 
3871875000  -3.902344e+001  8.368719e+001 
3875000000  -3.939954e+001  7.500316e+001 
3878125000  -4.039607e+001  7.331658e+001 
3881250000  -4.045129e+001  7.626377e+001 
3884375000  -3.997896e+001  7.059697e+001 
3887500000  -4.028544e+001  6.611659e+001 
3890625000  -4.080531e+001  6.287159e+001 
3893750000  -4.132051e+001  6.142240e+001 
3896875000  -4.146526e+001  6.172575e+001 
3900000000  -4.148821e+001  6.085256e+001 
3903125000  -4.107547e+001  6.032718e+001 
3906250000  -4.076332e+001  5.824257e+001 
3909375000  -4.023909e+001  5.253369e+001 
3912500000  -4.001360e+001  4.654663e+001 
3915625000  -4.147868e+001  4.703428e+001 
3918750000  -4.084042e+001  4.714584e+001 
3921875000  -4.054219e+001  4.325890e+001 
3925000000  -3.951423e+001  4.165801e+001 
3928125000  -3.888684e+001  3.590885e+001 
3931250000  -3.952644e+001  3.232214e+001 
3934375000  -3.991896e+001  2.888171e+001 
3937500000  -3.994534e+001  3.126931e+001 
3940625000  -4.042460e+001  2.568356e+001 
3943750000  -3.904728e+001  2.577663e+001 
3946875000  -3.826960e+001  1.998673e+001 
3950000000  -3.897673e+001  1.228190e+001 
3953125000  -3.974487e+001  1.090580e+001 
3956250000  -3.889450e+001  1.258168e+001 
3959375000  -3.748125e+001  7.569406e+000 
3962500000  -3.727012e+001  2.980845e+000 
3965625000  -3.709330e+001  -7.492486e+000 
3968750000  -3.816539e+001  -1.418153e+001 
3971875000  -3.843396e+001  -1.613599e+001 
3975000000  -3.777347e+001  -2.027390e+001 
3978125000  -3.779448e+001  -2.207421e+001 
3981250000  -3.763928e+001  -2.750574e+001 
3984375000  -3.801137e+001  -3.520391e+001 
3987500000  -3.850852e+001  -3.643151e+001 
3990625000  -3.843751e+001  -3.812290e+001 
3993750000  -3.885278e+001  -4.253927e+001 
3996875000  -3.901960e+001  -4.650654e+001 
4000000000  -3.918639e+001  -4.798879e+001 
4003125000  -3.960641e+001  -4.518954e+001 
4006250000  -3.819467e+001  -4.734988e+001 
4009375000  -3.722943e+001  -6.046565e+001 
4012500000  -3.854877e+001  -6.610340e+001 
4015625000  -3.991434e+001  -6.716928e+001 
4018750000  -3.993569e+001  -6.547211e+001 
4021875000  -3.933308e+001  -6.804554e+001 
4025000000  -3.892719e+001  -7.172015e+001 
4028125000  -3.880917e+001  -7.715765e+001 
4031250000  -3.948502e+001  -7.972048e+001 
4034375000  -3.976023e+001  -7.985684e+001 
4037500000  -3.925830e+001  -7.800864e+001 
4040625000  -3.907209e+001  -8.402921e+001 
4043750000  -3.931535e+001  -8.244909e+001 
4046875000  -3.888737e+001  -8.506120e+001 
4050000000  -3.839514e+001  -9.079072e+001 
4053125000  -3.874115e+001  -9.250683e+001 
4056250000  -3.933556e+001  -9.045057e+001 
4059375000  -3.788420e+001  -8.801369e+001 
4062500000  -3.680906e+001  -9.496072e+001 
4065625000  -3.646383e+001  -9.977572e+001 
4068750000  -3.627533e+001  -1.050029e+002 
4071875000  -3.555935e+001  -1.129255e+002 
4075000000  -3.601207e+001  -1.211238e+002 
4078125000  -3.636826e+001  -1.225123e+002 
4081250000  -3.586990e+001  -1.261401e+002 
4084375000  -3.546989e+001  -1.344977e+002 
4087500000  -3.589380e+001  -1.411715e+002 
4090625000  -3.664354e+001  -1.427645e+002 
4093750000  -3.636800e+001  -1.442565e+002 
4096875000  -3.579162e+001  -1.511844e+002 
4100000000  -3.663453e+001  -1.594371e+002 
4103125000  -3.759973e+001  -1.578774e+002 
4106250000  -3.736943e+001  -1.554050e+002 
4109375000  -3.654187e+001  -1.567244e+002 
4112500000  -3.596059e+001  -1.639502e+002 
4115625000  -3.643962e+001  -1.696452e+002 
4118750000  -3.656997e+001  -1.741516e+002 
4121875000  -3.601488e+001  -1.792022e+002 
4125000000  -3.669230e+001  1.749542e+002 
4128125000  -3.773210e+001  1.740237e+002 
4131250000  -3.743047e+001  -1.791052e+002 
4134375000  -3.510324e+001  1.772805e+002 
4137500000  -3.490746e+001  1.561855e+002 
4140625000  -3.725510e+001  1.486386e+002 
4143750000  -3.882933e+001  1.531574e+002 
4146875000  -3.826301e+001  1.597126e+002 
4150000000  -3.742960e+001  1.549601e+002 
4153125000  -3.735238e+001  1.476648e+002 
4156250000  -3.842352e+001  1.458015e+002 
4159375000  -3.857022e+001  1.508720e+002 
4162500000  -3.741785e+001  1.532243e+002 
4165625000  -3.657091e+001  1.492929e+002 
4168750000  -3.595201e+001  1.419014e+002 
4171875000  -3.568810e+001  1.324448e+002 
4175000000  -3.650391e+001  1.257064e+002 
4178125000  -3.699958e+001  1.261987e+002 
4181250000  -3.698933e+001  1.247289e+002 
4184375000  -3.684137e+001  1.218749e+002 
4187500000  -3.660114e+001  1.184423e+002 
4190625000  -3.649601e+001  1.136671e+002 
4193750000  -3.718945e+001  1.092066e+002 
4196875000  -3.793604e+001  1.079829e+002 
4200000000  -3.891132e+001  1.093689e+002 
4203125000  -3.870881e+001  1.238525e+002 
4206250000  -3.510091e+001  1.217338e+002 
4209375000  -3.400916e+001  1.009403e+002 
4212500000  -3.608962e+001  9.077473e+001 
4215625000  -3.689192e+001  9.985338e+001 
4218750000  -3.539425e+001  1.038563e+002 
4221875000  -3.312305e+001  9.386974e+001 
4225000000  -3.441059e+001  7.836196e+001 
4228125000  -3.510825e+001  8.359582e+001 
4231250000  -3.342802e+001  7.906033e+001 
4234375000  -3.310990e+001  7.063821e+001 
4237500000  -3.279974e+001  6.556355e+001 
4240625000  -3.282200e+001  5.450037e+001 
4243750000  -3.381556e+001  4.659598e+001 
4246875000  -3.469867e+001  4.570139e+001 
4250000000  -3.472845e+001  4.797516e+001 
4253125000  -3.409319e+001  4.447933e+001 
4256250000  -3.461397e+001  3.883086e+001 
4259375000  -3.422552e+001  3.525212e+001 
4262500000  -3.439495e+001  3.095348e+001 
4265625000  -3.442815e+001  2.932581e+001 
4268750000  -3.371976e+001  2.423762e+001 
4271875000  -3.344943e+001  1.849669e+001 
4275000000  -3.315894e+001  1.007540e+001 
4278125000  -3.361411e+001  -1.827097e+000 
4281250000  -3.575003e+001  -3.933866e+000 
4284375000  -3.574018e+001  -4.153016e+000 
4287500000  -3.646205e+001  -7.818805e+000 
4290625000  -3.799627e+001  5.103300e-001 
4293750000  -3.580931e+001  5.044058e+000 
4296875000  -3.470676e+001  -5.478116e+000 
4300000000  -3.561691e+001  -1.404030e+001 
4303125000  -3.676867e+001  -1.353928e+001 
4306250000  -3.609930e+001  -7.937467e+000 
4309375000  -3.475934e+001  -9.992281e+000 
4312500000  -3.479321e+001  -1.832521e+001 
4315625000  -3.480426e+001  -2.370340e+001 
4318750000  -3.523440e+001  -2.662083e+001 
4321875000  -3.518061e+001  -2.617022e+001 
4325000000  -3.461002e+001  -2.694448e+001 
4328125000  -3.389048e+001  -3.153716e+001 
4331250000  -3.384401e+001  -4.110674e+001 
4334375000  -3.426781e+001  -4.652028e+001 
4337500000  -3.503909e+001  -4.925508e+001 
4340625000  -3.555009e+001  -4.658449e+001 
4343750000  -3.458693e+001  -4.675962e+001 
4346875000  -3.427984e+001  -5.222764e+001 
4350000000  -3.408910e+001  -5.950695e+001 
4353125000  -3.395937e+001  -6.676236e+001 
4356250000  -3.563317e+001  -6.904266e+001 
4359375000  -3.620214e+001  -5.560709e+001 
4362500000  -3.325909e+001  -5.540153e+001 
4365625000  -3.176848e+001  -6.952602e+001 
4368750000  -3.222075e+001  -8.270267e+001 
4371875000  -3.345749e+001  -8.331303e+001 
4375000000  -3.294086e+001  -8.370334e+001 
4378125000  -3.230388e+001  -9.088058e+001 
4381250000  -3.248314e+001  -9.715983e+001 
4384375000  -3.231884e+001  -1.036372e+002 
4387500000  -3.306750e+001  -1.110896e+002 
4390625000  -3.396622e+001  -1.116042e+002 
4393750000  -3.336016e+001  -1.105023e+002 
4396875000  -3.286844e+001  -1.141834e+002 
4400000000  -3.220299e+001  -1.222571e+002 
4403125000  -3.302221e+001  -1.310455e+002 
4406250000  -3.373867e+001  -1.333063e+002 
4409375000  -3.382072e+001  -1.377795e+002 
4412500000  -3.503737e+001  -1.412623e+002 
4415625000  -3.549071e+001  -1.379984e+002 
