!Agilent Technologies,E8363B,MY43030201,A.06.04.32
!Agilent E8363B: A.06.04.32
!Date: Tuesday, November 11, 2014 21:04:36
!Correction: S21(Response(S21)) 
!S1P File: Measurement: S21:
# Hz S  dB   R 50
3000000000  -3.647887e+001  -4.737864e+001 
3003125000  -3.751946e+001  -5.370804e+001 
3006250000  -3.739705e+001  -5.685075e+001 
3009375000  -3.766314e+001  -5.131366e+001 
3012500000  -3.701372e+001  -5.331058e+001 
3015625000  -3.612848e+001  -6.081153e+001 
3018750000  -3.681625e+001  -6.197572e+001 
3021875000  -3.538911e+001  -6.096864e+001 
3025000000  -3.413380e+001  -6.505910e+001 
3028125000  -3.317743e+001  -7.117989e+001 
3031250000  -3.219783e+001  -8.242366e+001 
3034375000  -3.181616e+001  -9.612282e+001 
3037500000  -3.220281e+001  -1.080505e+002 
3040625000  -3.353907e+001  -1.130169e+002 
3043750000  -3.426803e+001  -1.178051e+002 
3046875000  -3.442225e+001  -1.240564e+002 
3050000000  -3.615676e+001  -1.296253e+002 
3053125000  -3.617196e+001  -1.234845e+002 
3056250000  -3.543653e+001  -1.217459e+002 
3059375000  -3.561762e+001  -1.217960e+002 
3062500000  -3.413781e+001  -1.252236e+002 
3065625000  -3.388986e+001  -1.310113e+002 
3068750000  -3.361987e+001  -1.382149e+002 
3071875000  -3.345663e+001  -1.402691e+002 
3075000000  -3.329840e+001  -1.447966e+002 
3078125000  -3.295528e+001  -1.494106e+002 
3081250000  -3.357645e+001  -1.532607e+002 
3084375000  -3.270250e+001  -1.564498e+002 
3087500000  -3.247656e+001  -1.607139e+002 
3090625000  -3.192006e+001  -1.704774e+002 
3093750000  -3.234893e+001  -1.775575e+002 
3096875000  -3.347690e+001  1.761019e+002 
3100000000  -3.339255e+001  1.735540e+002 
3103125000  -3.362331e+001  1.750806e+002 
3106250000  -3.313825e+001  1.704763e+002 
3109375000  -3.328730e+001  1.660728e+002 
3112500000  -3.329894e+001  1.639392e+002 
3115625000  -3.291470e+001  1.592650e+002 
3118750000  -3.324199e+001  1.599211e+002 
3121875000  -3.230918e+001  1.506902e+002 
3125000000  -3.354337e+001  1.458559e+002 
3128125000  -3.442942e+001  1.531911e+002 
3131250000  -3.209381e+001  1.516173e+002 
3134375000  -3.065591e+001  1.366227e+002 
3137500000  -3.126951e+001  1.217187e+002 
3140625000  -3.276676e+001  1.191016e+002 
3143750000  -3.383093e+001  1.205624e+002 
3146875000  -3.331217e+001  1.214086e+002 
3150000000  -3.228183e+001  1.223011e+002 
3153125000  -3.231762e+001  1.132900e+002 
3156250000  -3.335732e+001  1.173857e+002 
3159375000  -3.162069e+001  1.189928e+002 
3162500000  -2.969088e+001  1.042331e+002 
3165625000  -3.067476e+001  9.199011e+001 
3168750000  -3.104720e+001  9.189949e+001 
3171875000  -3.013880e+001  8.641803e+001 
3175000000  -3.089961e+001  7.755902e+001 
3178125000  -3.060243e+001  7.859027e+001 
3181250000  -2.962325e+001  7.308826e+001 
3184375000  -2.883358e+001  6.033242e+001 
3187500000  -3.001778e+001  4.527635e+001 
3190625000  -3.287856e+001  3.708509e+001 
3193750000  -3.340634e+001  4.556899e+001 
3196875000  -3.294822e+001  5.029029e+001 
3200000000  -3.205544e+001  4.744790e+001 
3203125000  -3.124676e+001  4.132934e+001 
3206250000  -3.162192e+001  3.469317e+001 
3209375000  -3.110827e+001  2.833812e+001 
3212500000  -3.130430e+001  2.189965e+001 
3215625000  -3.136688e+001  1.785460e+001 
3218750000  -3.209989e+001  1.008034e+001 
3221875000  -3.300490e+001  4.884287e+000 
3225000000  -3.264203e+001  3.703130e+000 
3228125000  -3.298328e+001  -1.256740e+000 
3231250000  -3.368396e+001  -4.436244e+000 
3234375000  -3.343781e+001  -3.699874e+000 
3237500000  -3.331008e+001  -6.012259e+000 
3240625000  -3.300557e+001  -8.125376e+000 
3243750000  -3.257758e+001  -1.514332e+001 
3246875000  -3.291095e+001  -2.257851e+001 
3250000000  -3.341534e+001  -2.560041e+001 
3253125000  -3.349852e+001  -2.712535e+001 
3256250000  -3.307066e+001  -3.388339e+001 
3259375000  -3.343682e+001  -4.285764e+001 
3262500000  -3.458668e+001  -4.680536e+001 
3265625000  -3.524922e+001  -4.421132e+001 
3268750000  -3.510925e+001  -4.164528e+001 
3271875000  -3.478544e+001  -4.217979e+001 
3275000000  -3.375939e+001  -4.878118e+001 
3278125000  -3.422022e+001  -5.573416e+001 
3281250000  -3.435683e+001  -5.391464e+001 
3284375000  -3.392411e+001  -6.171542e+001 
3287500000  -3.413621e+001  -6.505395e+001 
3290625000  -3.429239e+001  -7.098570e+001 
3293750000  -3.405299e+001  -7.638866e+001 
3296875000  -3.516576e+001  -7.690567e+001 
3300000000  -3.489861e+001  -7.714766e+001 
3303125000  -3.378404e+001  -8.214974e+001 
3306250000  -3.358284e+001  -8.858812e+001 
3309375000  -3.321748e+001  -9.495233e+001 
3312500000  -3.327938e+001  -1.062060e+002 
3315625000  -3.433378e+001  -1.144552e+002 
3318750000  -3.569315e+001  -1.171104e+002 
3321875000  -3.675366e+001  -1.165705e+002 
3325000000  -3.729160e+001  -1.120889e+002 
3328125000  -3.687497e+001  -1.118184e+002 
3331250000  -3.571375e+001  -1.045639e+002 
3334375000  -3.300889e+001  -1.156591e+002 
3337500000  -3.305806e+001  -1.344505e+002 
3340625000  -3.442821e+001  -1.457899e+002 
3343750000  -3.660745e+001  -1.474323e+002 
3346875000  -3.662698e+001  -1.452461e+002 
3350000000  -3.597422e+001  -1.472063e+002 
3353125000  -3.595617e+001  -1.521986e+002 
3356250000  -3.557473e+001  -1.598053e+002 
3359375000  -3.634012e+001  -1.685116e+002 
3362500000  -3.748243e+001  -1.737977e+002 
3365625000  -3.791825e+001  -1.755421e+002 
3368750000  -3.869801e+001  -1.774107e+002 
3371875000  -3.889102e+001  1.794629e+002 
3375000000  -4.026257e+001  1.756421e+002 
3378125000  -4.134670e+001  1.781576e+002 
3381250000  -4.229373e+001  -1.751945e+002 
3384375000  -4.126519e+001  -1.544767e+002 
3387500000  -3.748951e+001  -1.703045e+002 
3390625000  -3.905408e+001  1.707347e+002 
3393750000  -4.042129e+001  1.743720e+002 
3396875000  -3.903403e+001  1.764985e+002 
3400000000  -3.873167e+001  1.678801e+002 
3403125000  -3.933272e+001  1.618195e+002 
3406250000  -3.981439e+001  1.614724e+002 
3409375000  -3.958651e+001  1.543787e+002 
3412500000  -4.040192e+001  1.516721e+002 
3415625000  -4.096001e+001  1.538188e+002 
3418750000  -4.105472e+001  1.532045e+002 
3421875000  -4.128926e+001  1.568767e+002 
3425000000  -4.031266e+001  1.571820e+002 
3428125000  -3.931256e+001  1.524419e+002 
3431250000  -3.914708e+001  1.465419e+002 
3434375000  -3.909763e+001  1.406565e+002 
3437500000  -3.966428e+001  1.364176e+002 
3440625000  -3.998857e+001  1.376448e+002 
3443750000  -3.872749e+001  1.395765e+002 
3446875000  -3.795728e+001  1.307374e+002 
3450000000  -3.758984e+001  1.204916e+002 
3453125000  -3.787781e+001  1.104686e+002 
3456250000  -3.908597e+001  1.041662e+002 
3459375000  -3.992918e+001  1.068254e+002 
3462500000  -3.981763e+001  1.060616e+002 
3465625000  -3.972278e+001  9.904908e+001 
3468750000  -4.023070e+001  9.592058e+001 
3471875000  -3.982490e+001  9.421950e+001 
3475000000  -3.961219e+001  9.043110e+001 
3478125000  -4.040464e+001  8.149387e+001 
3481250000  -4.107623e+001  7.970024e+001 
3484375000  -4.204876e+001  8.267270e+001 
3487500000  -4.156506e+001  8.195831e+001 
3490625000  -4.082978e+001  7.874186e+001 
3493750000  -4.106901e+001  7.058180e+001 
3496875000  -4.177611e+001  7.040532e+001 
3500000000  -4.212595e+001  7.183260e+001 
3503125000  -4.191842e+001  7.375574e+001 
3506250000  -4.053989e+001  6.968414e+001 
3509375000  -4.060091e+001  6.026569e+001 
3512500000  -4.100456e+001  5.254314e+001 
3515625000  -4.183020e+001  4.801496e+001 
3518750000  -4.256240e+001  4.998883e+001 
3521875000  -4.256501e+001  4.573013e+001 
3525000000  -4.334103e+001  4.365675e+001 
3528125000  -4.323666e+001  5.259244e+001 
3531250000  -4.185604e+001  5.039341e+001 
3534375000  -4.188149e+001  3.995181e+001 
3537500000  -4.257509e+001  3.502666e+001 
3540625000  -4.365573e+001  3.398598e+001 
3543750000  -4.440466e+001  3.972823e+001 
3546875000  -4.420864e+001  4.920684e+001 
3550000000  -4.152340e+001  4.909530e+001 
3553125000  -4.013008e+001  3.167220e+001 
3556250000  -4.155459e+001  2.594917e+001 
3559375000  -4.131551e+001  2.759193e+001 
3562500000  -4.029081e+001  1.899110e+001 
3565625000  -4.106779e+001  1.014585e+001 
3568750000  -4.129371e+001  1.388015e+001 
3571875000  -4.092433e+001  1.140829e+001 
3575000000  -4.075986e+001  5.773206e+000 
3578125000  -4.126027e+001  -2.470371e+000 
3581250000  -4.127958e+001  -8.897336e-001 
3584375000  -4.054419e+001  -4.392807e+000 
3587500000  -4.004485e+001  -1.228092e+001 
3590625000  -4.053364e+001  -2.242704e+001 
3593750000  -4.217210e+001  -2.591861e+001 
3596875000  -4.191917e+001  -1.954445e+001 
3600000000  -4.049668e+001  -2.289019e+001 
3603125000  -4.069106e+001  -4.040512e+001 
3606250000  -4.163495e+001  -4.350928e+001 
3609375000  -4.227113e+001  -4.625339e+001 
3612500000  -4.277906e+001  -4.887725e+001 
3615625000  -4.303708e+001  -5.410540e+001 
3618750000  -4.401033e+001  -5.224804e+001 
3621875000  -4.366299e+001  -5.842575e+001 
3625000000  -4.435421e+001  -5.701831e+001 
3628125000  -4.467310e+001  -5.928433e+001 
3631250000  -4.411699e+001  -6.382345e+001 
3634375000  -4.526521e+001  -6.262719e+001 
3637500000  -4.563274e+001  -5.892705e+001 
3640625000  -4.471242e+001  -5.484733e+001 
3643750000  -4.468964e+001  -6.422603e+001 
3646875000  -4.522843e+001  -6.799461e+001 
3650000000  -4.598019e+001  -6.761856e+001 
3653125000  -4.545460e+001  -6.756332e+001 
3656250000  -4.589390e+001  -6.941881e+001 
3659375000  -4.601933e+001  -6.440620e+001 
3662500000  -4.477001e+001  -6.729188e+001 
3665625000  -4.489488e+001  -6.843104e+001 
3668750000  -4.375159e+001  -6.768455e+001 
3671875000  -4.310473e+001  -7.270671e+001 
3675000000  -4.309798e+001  -8.075712e+001 
3678125000  -4.326802e+001  -8.253866e+001 
3681250000  -4.305713e+001  -8.323241e+001 
3684375000  -4.303236e+001  -9.053412e+001 
3687500000  -4.313671e+001  -9.397280e+001 
3690625000  -4.320583e+001  -9.798988e+001 
3693750000  -4.394509e+001  -9.923882e+001 
3696875000  -4.376451e+001  -9.840660e+001 
3700000000  -4.297042e+001  -1.012928e+002 
3703125000  -4.315464e+001  -1.086246e+002 
3706250000  -4.371081e+001  -1.071304e+002 
3709375000  -4.312620e+001  -1.068368e+002 
3712500000  -4.217003e+001  -1.077807e+002 
3715625000  -4.159278e+001  -1.165156e+002 
3718750000  -4.134599e+001  -1.214514e+002 
3721875000  -4.117779e+001  -1.271617e+002 
3725000000  -4.143868e+001  -1.353972e+002 
3728125000  -4.176092e+001  -1.357902e+002 
3731250000  -4.165457e+001  -1.366215e+002 
3734375000  -4.077705e+001  -1.446035e+002 
3737500000  -4.191664e+001  -1.500496e+002 
3740625000  -4.267345e+001  -1.561052e+002 
3743750000  -4.345173e+001  -1.587895e+002 
3746875000  -4.353601e+001  -1.585372e+002 
3750000000  -4.425947e+001  -1.628873e+002 
3753125000  -4.404111e+001  -1.628051e+002 
3756250000  -4.426698e+001  -1.609500e+002 
3759375000  -4.443777e+001  -1.606655e+002 
3762500000  -4.424124e+001  -1.635625e+002 
3765625000  -4.480402e+001  -1.651100e+002 
3768750000  -4.455012e+001  -1.637139e+002 
3771875000  -4.314584e+001  -1.599956e+002 
3775000000  -4.277916e+001  -1.675938e+002 
3778125000  -4.302633e+001  -1.697153e+002 
3781250000  -4.265401e+001  -1.710783e+002 
3784375000  -4.270427e+001  -1.703966e+002 
3787500000  -4.203303e+001  -1.756661e+002 
3790625000  -4.249413e+001  1.774640e+002 
3793750000  -4.250130e+001  1.783234e+002 
3796875000  -4.127858e+001  1.738268e+002 
3800000000  -3.965577e+001  1.737364e+002 
3803125000  -4.033960e+001  1.637100e+002 
3806250000  -4.113543e+001  1.621804e+002 
3809375000  -4.059460e+001  1.598695e+002 
3812500000  -3.978434e+001  1.527686e+002 
3815625000  -4.035773e+001  1.434511e+002 
3818750000  -4.143802e+001  1.426375e+002 
3821875000  -4.152887e+001  1.506469e+002 
3825000000  -3.938085e+001  1.538205e+002 
3828125000  -3.800564e+001  1.385871e+002 
3831250000  -3.853964e+001  1.233542e+002 
3834375000  -4.026925e+001  1.204586e+002 
3837500000  -4.088971e+001  1.245998e+002 
3840625000  -4.001790e+001  1.212656e+002 
3843750000  -3.899266e+001  1.099979e+002 
3846875000  -3.963712e+001  1.038338e+002 
3850000000  -4.135550e+001  1.091242e+002 
3853125000  -4.014011e+001  1.102089e+002 
3856250000  -4.008713e+001  1.040436e+002 
3859375000  -3.949464e+001  9.892776e+001 
3862500000  -3.943726e+001  9.064610e+001 
3865625000  -3.985072e+001  8.586468e+001 
3868750000  -3.960744e+001  8.427334e+001 
3871875000  -3.924523e+001  8.082470e+001 
3875000000  -3.939780e+001  7.084049e+001 
3878125000  -4.068591e+001  6.973016e+001 
3881250000  -4.067105e+001  7.259870e+001 
3884375000  -4.010140e+001  6.768497e+001 
3887500000  -4.049313e+001  6.294625e+001 
3890625000  -4.094979e+001  5.991246e+001 
3893750000  -4.116688e+001  5.835056e+001 
3896875000  -4.144608e+001  5.968272e+001 
3900000000  -4.157301e+001  5.870995e+001 
3903125000  -4.081149e+001  5.571841e+001 
3906250000  -4.066522e+001  5.223280e+001 
3909375000  -4.019301e+001  5.112968e+001 
3912500000  -4.006232e+001  4.230390e+001 
3915625000  -4.147821e+001  4.361808e+001 
3918750000  -4.123671e+001  4.270872e+001 
3921875000  -4.085412e+001  4.082127e+001 
3925000000  -3.984710e+001  4.026762e+001 
3928125000  -3.938097e+001  3.205534e+001 
3931250000  -3.979770e+001  2.656086e+001 
3934375000  -3.968012e+001  2.625847e+001 
3937500000  -3.997162e+001  2.402831e+001 
3940625000  -4.041899e+001  2.345338e+001 
3943750000  -3.957935e+001  2.279376e+001 
3946875000  -3.835434e+001  1.702490e+001 
3950000000  -3.889476e+001  8.807509e+000 
3953125000  -3.997245e+001  6.654279e+000 
3956250000  -3.891585e+001  8.022010e+000 
3959375000  -3.802488e+001  5.477009e+000 
3962500000  -3.745254e+001  1.314398e+000 
3965625000  -3.705759e+001  -1.061778e+001 
3968750000  -3.830002e+001  -1.761897e+001 
3971875000  -3.841677e+001  -1.918111e+001 
3975000000  -3.787820e+001  -2.236021e+001 
3978125000  -3.795392e+001  -2.456434e+001 
3981250000  -3.788465e+001  -3.084221e+001 
3984375000  -3.797858e+001  -3.622400e+001 
3987500000  -3.859401e+001  -3.957351e+001 
3990625000  -3.866806e+001  -4.086220e+001 
3993750000  -3.914708e+001  -4.603892e+001 
3996875000  -3.894805e+001  -4.886869e+001 
4000000000  -3.916886e+001  -5.255428e+001 
4003125000  -3.961359e+001  -4.939961e+001 
4006250000  -3.851310e+001  -5.065197e+001 
4009375000  -3.747573e+001  -6.411330e+001 
4012500000  -3.861981e+001  -7.048664e+001 
4015625000  -4.000487e+001  -7.082367e+001 
4018750000  -3.993351e+001  -6.868222e+001 
4021875000  -3.926892e+001  -6.880490e+001 
4025000000  -3.902637e+001  -7.540324e+001 
4028125000  -3.884219e+001  -7.938480e+001 
4031250000  -3.927472e+001  -8.270934e+001 
4034375000  -3.980492e+001  -8.454303e+001 
4037500000  -3.919796e+001  -8.307294e+001 
4040625000  -3.910775e+001  -8.635542e+001 
4043750000  -3.916982e+001  -8.852171e+001 
4046875000  -3.895932e+001  -8.777274e+001 
4050000000  -3.847422e+001  -9.524194e+001 
4053125000  -3.907296e+001  -9.689174e+001 
4056250000  -3.935489e+001  -9.441962e+001 
4059375000  -3.808009e+001  -9.424541e+001 
4062500000  -3.666358e+001  -9.889960e+001 
4065625000  -3.671772e+001  -1.020743e+002 
4068750000  -3.628997e+001  -1.088085e+002 
4071875000  -3.566199e+001  -1.182573e+002 
4075000000  -3.600573e+001  -1.245308e+002 
4078125000  -3.660376e+001  -1.257278e+002 
4081250000  -3.605229e+001  -1.305890e+002 
4084375000  -3.558659e+001  -1.379868e+002 
4087500000  -3.619987e+001  -1.460054e+002 
4090625000  -3.685713e+001  -1.465570e+002 
4093750000  -3.649043e+001  -1.472668e+002 
4096875000  -3.601102e+001  -1.545552e+002 
4100000000  -3.695478e+001  -1.619921e+002 
4103125000  -3.760770e+001  -1.611248e+002 
4106250000  -3.754309e+001  -1.579557e+002 
4109375000  -3.666373e+001  -1.598723e+002 
4112500000  -3.609554e+001  -1.676236e+002 
4115625000  -3.657324e+001  -1.718689e+002 
4118750000  -3.681015e+001  -1.772240e+002 
4121875000  -3.633683e+001  1.783495e+002 
4125000000  -3.687704e+001  1.718104e+002 
4128125000  -3.756212e+001  1.716987e+002 
4131250000  -3.756203e+001  1.789025e+002 
4134375000  -3.527510e+001  1.735032e+002 
4137500000  -3.520497e+001  1.529654e+002 
4140625000  -3.733504e+001  1.468741e+002 
4143750000  -3.878509e+001  1.506834e+002 
4146875000  -3.832121e+001  1.559924e+002 
4150000000  -3.764723e+001  1.528456e+002 
4153125000  -3.736889e+001  1.449750e+002 
4156250000  -3.841637e+001  1.432700e+002 
4159375000  -3.884521e+001  1.478577e+002 
4162500000  -3.763531e+001  1.529953e+002 
4165625000  -3.639322e+001  1.458281e+002 
4168750000  -3.579494e+001  1.385627e+002 
4171875000  -3.591528e+001  1.289153e+002 
4175000000  -3.662516e+001  1.238922e+002 
4178125000  -3.715200e+001  1.244545e+002 
4181250000  -3.701184e+001  1.220639e+002 
4184375000  -3.678461e+001  1.177090e+002 
4187500000  -3.680039e+001  1.151845e+002 
4190625000  -3.647965e+001  1.090996e+002 
4193750000  -3.744233e+001  1.047447e+002 
4196875000  -3.797258e+001  1.037302e+002 
4200000000  -3.876630e+001  1.058315e+002 
4203125000  -3.857270e+001  1.196525e+002 
4206250000  -3.530675e+001  1.188725e+002 
4209375000  -3.426300e+001  9.752122e+001 
4212500000  -3.615650e+001  8.886352e+001 
4215625000  -3.697726e+001  9.381328e+001 
4218750000  -3.568684e+001  9.980211e+001 
4221875000  -3.309208e+001  8.940763e+001 
4225000000  -3.463276e+001  7.508427e+001 
4228125000  -3.491036e+001  7.944345e+001 
4231250000  -3.348293e+001  7.571054e+001 
4234375000  -3.350006e+001  6.670763e+001 
4237500000  -3.289911e+001  6.042010e+001 
4240625000  -3.285910e+001  5.058119e+001 
4243750000  -3.409076e+001  4.242324e+001 
4246875000  -3.504035e+001  4.217888e+001 
4250000000  -3.495711e+001  4.369563e+001 
4253125000  -3.452575e+001  4.143687e+001 
4256250000  -3.467114e+001  3.576553e+001 
4259375000  -3.439635e+001  3.166147e+001 
4262500000  -3.472722e+001  2.781907e+001 
4265625000  -3.475028e+001  2.728722e+001 
4268750000  -3.401227e+001  2.158763e+001 
4271875000  -3.377066e+001  1.478798e+001 
4275000000  -3.333028e+001  7.345752e+000 
4278125000  -3.401900e+001  -4.650747e+000 
4281250000  -3.590488e+001  -6.551035e+000 
4284375000  -3.567690e+001  -6.221706e+000 
4287500000  -3.675083e+001  -1.232333e+001 
4290625000  -3.792488e+001  -3.161917e+000 
4293750000  -3.600920e+001  3.750485e+000 
4296875000  -3.492472e+001  -7.497510e+000 
4300000000  -3.603780e+001  -1.818917e+001 
4303125000  -3.694911e+001  -1.634517e+001 
4306250000  -3.638021e+001  -1.013644e+001 
4309375000  -3.498825e+001  -1.210139e+001 
4312500000  -3.476947e+001  -2.089860e+001 
4315625000  -3.484430e+001  -2.604192e+001 
4318750000  -3.532567e+001  -2.986745e+001 
4321875000  -3.548313e+001  -2.937614e+001 
4325000000  -3.474269e+001  -2.940995e+001 
4328125000  -3.412065e+001  -3.598194e+001 
4331250000  -3.383009e+001  -4.439714e+001 
4334375000  -3.441952e+001  -4.963204e+001 
4337500000  -3.525526e+001  -5.220335e+001 
4340625000  -3.570994e+001  -5.096107e+001 
4343750000  -3.483758e+001  -5.044662e+001 
4346875000  -3.429447e+001  -5.579562e+001 
4350000000  -3.425560e+001  -6.267631e+001 
4353125000  -3.413415e+001  -7.068917e+001 
4356250000  -3.610441e+001  -7.095654e+001 
4359375000  -3.643856e+001  -5.974910e+001 
4362500000  -3.353643e+001  -5.865277e+001 
4365625000  -3.185809e+001  -7.325615e+001 
4368750000  -3.261941e+001  -8.497073e+001 
4371875000  -3.363002e+001  -8.612761e+001 
4375000000  -3.324959e+001  -8.691817e+001 
4378125000  -3.251405e+001  -9.346053e+001 
4381250000  -3.279454e+001  -1.009629e+002 
4384375000  -3.267274e+001  -1.071580e+002 
4387500000  -3.336155e+001  -1.138712e+002 
4390625000  -3.438475e+001  -1.143734e+002 
4393750000  -3.376053e+001  -1.137271e+002 
4396875000  -3.320153e+001  -1.168480e+002 
4400000000  -3.266588e+001  -1.254277e+002 
4403125000  -3.326900e+001  -1.342077e+002 
4406250000  -3.411641e+001  -1.360783e+002 
4409375000  -3.438017e+001  -1.395683e+002 
4412500000  -3.546535e+001  -1.432081e+002 
4415625000  -3.569772e+001  -1.387616e+002 
