!Agilent Technologies,E8363B,MY43030201,A.06.04.32
!Agilent E8363B: A.06.04.32
!Date: Tuesday, November 11, 2014 21:04:13
!Correction: S21(Response(S21)) 
!S1P File: Measurement: S21:
# Hz S  dB   R 50
3000000000  -3.657862e+001  -4.702406e+001 
3003125000  -3.761331e+001  -5.277852e+001 
3006250000  -3.749400e+001  -5.626638e+001 
3009375000  -3.767242e+001  -5.152472e+001 
3012500000  -3.703115e+001  -5.310830e+001 
3015625000  -3.602491e+001  -6.020068e+001 
3018750000  -3.680036e+001  -6.209218e+001 
3021875000  -3.540454e+001  -6.103836e+001 
3025000000  -3.410752e+001  -6.474107e+001 
3028125000  -3.319625e+001  -7.056178e+001 
3031250000  -3.210981e+001  -8.182224e+001 
3034375000  -3.179145e+001  -9.527928e+001 
3037500000  -3.218033e+001  -1.079175e+002 
3040625000  -3.349976e+001  -1.121161e+002 
3043750000  -3.415375e+001  -1.179657e+002 
3046875000  -3.438085e+001  -1.227997e+002 
3050000000  -3.610371e+001  -1.290993e+002 
3053125000  -3.607952e+001  -1.233548e+002 
3056250000  -3.553740e+001  -1.208147e+002 
3059375000  -3.575116e+001  -1.213482e+002 
3062500000  -3.410752e+001  -1.246798e+002 
3065625000  -3.387586e+001  -1.305835e+002 
3068750000  -3.358640e+001  -1.377549e+002 
3071875000  -3.347956e+001  -1.400230e+002 
3075000000  -3.330564e+001  -1.442940e+002 
3078125000  -3.301104e+001  -1.484416e+002 
3081250000  -3.351426e+001  -1.526018e+002 
3084375000  -3.257533e+001  -1.555586e+002 
3087500000  -3.237352e+001  -1.604134e+002 
3090625000  -3.194888e+001  -1.693035e+002 
3093750000  -3.240185e+001  -1.773871e+002 
3096875000  -3.345292e+001  1.766062e+002 
3100000000  -3.334483e+001  1.741607e+002 
3103125000  -3.361138e+001  1.751569e+002 
3106250000  -3.317286e+001  1.711648e+002 
3109375000  -3.328202e+001  1.671599e+002 
3112500000  -3.321756e+001  1.650521e+002 
3115625000  -3.287930e+001  1.606772e+002 
3118750000  -3.319614e+001  1.604626e+002 
3121875000  -3.230855e+001  1.504201e+002 
3125000000  -3.354673e+001  1.468172e+002 
3128125000  -3.442707e+001  1.536213e+002 
3131250000  -3.210936e+001  1.520043e+002 
3134375000  -3.070136e+001  1.366190e+002 
3137500000  -3.127022e+001  1.224219e+002 
3140625000  -3.278605e+001  1.191618e+002 
3143750000  -3.378559e+001  1.213496e+002 
3146875000  -3.328829e+001  1.223309e+002 
3150000000  -3.225778e+001  1.225593e+002 
3153125000  -3.238268e+001  1.134947e+002 
3156250000  -3.330866e+001  1.175926e+002 
3159375000  -3.159122e+001  1.195089e+002 
3162500000  -2.965409e+001  1.054063e+002 
3165625000  -3.064876e+001  9.270513e+001 
3168750000  -3.105276e+001  9.270689e+001 
3171875000  -3.011546e+001  8.744638e+001 
3175000000  -3.090072e+001  7.857848e+001 
3178125000  -3.070518e+001  7.921683e+001 
3181250000  -2.954330e+001  7.398019e+001 
3184375000  -2.886607e+001  6.105884e+001 
3187500000  -3.007430e+001  4.580048e+001 
3190625000  -3.271230e+001  3.716204e+001 
3193750000  -3.330048e+001  4.635643e+001 
3196875000  -3.297037e+001  5.036728e+001 
3200000000  -3.204910e+001  4.819031e+001 
3203125000  -3.120972e+001  4.190419e+001 
3206250000  -3.162646e+001  3.533270e+001 
3209375000  -3.111320e+001  2.932837e+001 
3212500000  -3.125693e+001  2.182452e+001 
3215625000  -3.139064e+001  1.822654e+001 
3218750000  -3.222402e+001  1.067808e+001 
3221875000  -3.296018e+001  5.513699e+000 
3225000000  -3.255048e+001  4.559361e+000 
3228125000  -3.295030e+001  -4.065466e-001 
3231250000  -3.364187e+001  -3.682452e+000 
3234375000  -3.350098e+001  -2.536711e+000 
3237500000  -3.342848e+001  -5.155556e+000 
3240625000  -3.298459e+001  -7.324898e+000 
3243750000  -3.260308e+001  -1.533791e+001 
3246875000  -3.298380e+001  -2.225304e+001 
3250000000  -3.339977e+001  -2.444549e+001 
3253125000  -3.352912e+001  -2.673365e+001 
3256250000  -3.311353e+001  -3.327805e+001 
3259375000  -3.350624e+001  -4.211032e+001 
3262500000  -3.465957e+001  -4.580250e+001 
3265625000  -3.524381e+001  -4.287827e+001 
3268750000  -3.516031e+001  -4.124463e+001 
3271875000  -3.487415e+001  -4.140778e+001 
3275000000  -3.375752e+001  -4.839185e+001 
3278125000  -3.420244e+001  -5.445133e+001 
3281250000  -3.440962e+001  -5.419835e+001 
3284375000  -3.384777e+001  -5.985863e+001 
3287500000  -3.404781e+001  -6.395176e+001 
3290625000  -3.429916e+001  -6.978228e+001 
3293750000  -3.415387e+001  -7.592466e+001 
3296875000  -3.511692e+001  -7.688641e+001 
3300000000  -3.492709e+001  -7.582349e+001 
3303125000  -3.375182e+001  -8.109014e+001 
3306250000  -3.353630e+001  -8.781478e+001 
3309375000  -3.322327e+001  -9.441370e+001 
3312500000  -3.330173e+001  -1.053402e+002 
3315625000  -3.427995e+001  -1.137100e+002 
3318750000  -3.573693e+001  -1.155245e+002 
3321875000  -3.686262e+001  -1.169746e+002 
3325000000  -3.730950e+001  -1.123736e+002 
3328125000  -3.694229e+001  -1.111851e+002 
3331250000  -3.570525e+001  -1.042439e+002 
3334375000  -3.306117e+001  -1.149320e+002 
3337500000  -3.313441e+001  -1.342092e+002 
3340625000  -3.446524e+001  -1.450223e+002 
3343750000  -3.641946e+001  -1.465640e+002 
3346875000  -3.664051e+001  -1.439592e+002 
3350000000  -3.603812e+001  -1.461658e+002 
3353125000  -3.600046e+001  -1.512223e+002 
3356250000  -3.559315e+001  -1.595670e+002 
3359375000  -3.639772e+001  -1.671561e+002 
3362500000  -3.760899e+001  -1.731969e+002 
3365625000  -3.792892e+001  -1.745516e+002 
3368750000  -3.858357e+001  -1.765269e+002 
3371875000  -3.882426e+001  -1.795080e+002 
3375000000  -4.035251e+001  1.777667e+002 
3378125000  -4.120749e+001  1.780068e+002 
3381250000  -4.233834e+001  -1.737077e+002 
3384375000  -4.103065e+001  -1.529587e+002 
3387500000  -3.731874e+001  -1.702480e+002 
3390625000  -3.940932e+001  1.726284e+002 
3393750000  -4.049134e+001  1.757813e+002 
3396875000  -3.923784e+001  1.763574e+002 
3400000000  -3.864130e+001  1.673023e+002 
3403125000  -3.925374e+001  1.641604e+002 
3406250000  -3.976258e+001  1.615427e+002 
3409375000  -3.985196e+001  1.544370e+002 
3412500000  -4.034491e+001  1.529097e+002 
3415625000  -4.113673e+001  1.531440e+002 
3418750000  -4.108738e+001  1.533777e+002 
3421875000  -4.128054e+001  1.573393e+002 
3425000000  -4.027449e+001  1.579765e+002 
3428125000  -3.938220e+001  1.531346e+002 
3431250000  -3.918564e+001  1.470323e+002 
3434375000  -3.927767e+001  1.405786e+002 
3437500000  -3.991324e+001  1.369129e+002 
3440625000  -3.997275e+001  1.374884e+002 
3443750000  -3.888948e+001  1.399537e+002 
3446875000  -3.798975e+001  1.319853e+002 
3450000000  -3.761665e+001  1.220399e+002 
3453125000  -3.796440e+001  1.113043e+002 
3456250000  -3.911952e+001  1.056002e+002 
3459375000  -4.013774e+001  1.072157e+002 
3462500000  -4.002500e+001  1.051121e+002 
3465625000  -4.017661e+001  9.986203e+001 
3468750000  -4.007043e+001  9.648778e+001 
3471875000  -4.033435e+001  9.448582e+001 
3475000000  -3.952001e+001  9.045364e+001 
3478125000  -4.027485e+001  8.191669e+001 
3481250000  -4.150469e+001  8.015858e+001 
3484375000  -4.190918e+001  8.371616e+001 
3487500000  -4.158821e+001  8.184868e+001 
3490625000  -4.070544e+001  7.835464e+001 
3493750000  -4.133301e+001  7.270332e+001 
3496875000  -4.169361e+001  7.032825e+001 
3500000000  -4.241592e+001  7.368465e+001 
3503125000  -4.194061e+001  7.413321e+001 
3506250000  -4.063780e+001  7.069169e+001 
3509375000  -4.065216e+001  6.129971e+001 
3512500000  -4.124639e+001  5.087560e+001 
3515625000  -4.194542e+001  4.918380e+001 
3518750000  -4.273434e+001  5.048087e+001 
3521875000  -4.239772e+001  4.804178e+001 
3525000000  -4.362730e+001  4.560536e+001 
3528125000  -4.334813e+001  5.140539e+001 
3531250000  -4.195083e+001  5.026579e+001 
3534375000  -4.200193e+001  3.816846e+001 
3537500000  -4.260418e+001  3.450725e+001 
3540625000  -4.337387e+001  3.486245e+001 
3543750000  -4.443668e+001  3.702250e+001 
3546875000  -4.420079e+001  4.933132e+001 
3550000000  -4.166623e+001  4.914376e+001 
3553125000  -4.030069e+001  3.261655e+001 
3556250000  -4.144285e+001  2.802209e+001 
3559375000  -4.146499e+001  2.791214e+001 
3562500000  -4.034065e+001  1.957187e+001 
3565625000  -4.098704e+001  9.699225e+000 
3568750000  -4.134290e+001  1.473153e+001 
3571875000  -4.122413e+001  1.303509e+001 
3575000000  -4.076637e+001  4.972560e+000 
3578125000  -4.131392e+001  -1.134464e+000 
3581250000  -4.156826e+001  1.477112e+000 
3584375000  -4.056141e+001  -3.609836e+000 
3587500000  -4.031211e+001  -1.191001e+001 
3590625000  -4.068153e+001  -2.255005e+001 
3593750000  -4.174399e+001  -2.474884e+001 
3596875000  -4.199839e+001  -1.840647e+001 
3600000000  -4.041952e+001  -2.324693e+001 
3603125000  -4.090668e+001  -3.979253e+001 
3606250000  -4.162842e+001  -4.432736e+001 
3609375000  -4.204486e+001  -4.541016e+001 
3612500000  -4.266249e+001  -4.916014e+001 
3615625000  -4.281794e+001  -5.157455e+001 
3618750000  -4.375962e+001  -5.314011e+001 
3621875000  -4.369361e+001  -5.603524e+001 
3625000000  -4.414963e+001  -5.631856e+001 
3628125000  -4.446797e+001  -6.074237e+001 
3631250000  -4.418319e+001  -6.333445e+001 
3634375000  -4.596713e+001  -6.262785e+001 
3637500000  -4.537690e+001  -5.917562e+001 
3640625000  -4.484250e+001  -5.564374e+001 
3643750000  -4.457053e+001  -6.223448e+001 
3646875000  -4.525299e+001  -6.650285e+001 
3650000000  -4.572008e+001  -6.516530e+001 
3653125000  -4.551563e+001  -7.006775e+001 
3656250000  -4.591147e+001  -7.034219e+001 
3659375000  -4.581136e+001  -6.397295e+001 
3662500000  -4.533606e+001  -6.814899e+001 
3665625000  -4.475628e+001  -6.639819e+001 
3668750000  -4.401336e+001  -6.748887e+001 
3671875000  -4.288438e+001  -7.463467e+001 
3675000000  -4.311841e+001  -8.148363e+001 
3678125000  -4.335875e+001  -8.176073e+001 
3681250000  -4.324459e+001  -8.317178e+001 
3684375000  -4.292158e+001  -8.840871e+001 
3687500000  -4.293923e+001  -9.381219e+001 
3690625000  -4.298246e+001  -9.539681e+001 
3693750000  -4.394666e+001  -9.759827e+001 
3696875000  -4.371018e+001  -9.446419e+001 
3700000000  -4.291750e+001  -1.011728e+002 
3703125000  -4.312416e+001  -1.072278e+002 
3706250000  -4.397598e+001  -1.085366e+002 
3709375000  -4.321413e+001  -1.040539e+002 
3712500000  -4.249329e+001  -1.100595e+002 
3715625000  -4.178346e+001  -1.144164e+002 
3718750000  -4.108681e+001  -1.211332e+002 
3721875000  -4.123457e+001  -1.265500e+002 
3725000000  -4.148366e+001  -1.336784e+002 
3728125000  -4.199747e+001  -1.345160e+002 
3731250000  -4.154974e+001  -1.379244e+002 
3734375000  -4.107867e+001  -1.440159e+002 
3737500000  -4.221711e+001  -1.507376e+002 
3740625000  -4.346500e+001  -1.539476e+002 
3743750000  -4.316026e+001  -1.575673e+002 
3746875000  -4.357620e+001  -1.586853e+002 
3750000000  -4.401152e+001  -1.603652e+002 
3753125000  -4.407380e+001  -1.638967e+002 
3756250000  -4.470314e+001  -1.592169e+002 
3759375000  -4.444802e+001  -1.593960e+002 
3762500000  -4.417902e+001  -1.614037e+002 
3765625000  -4.490263e+001  -1.607179e+002 
3768750000  -4.500636e+001  -1.570481e+002 
3771875000  -4.320707e+001  -1.610884e+002 
3775000000  -4.298654e+001  -1.667841e+002 
3778125000  -4.318038e+001  -1.671496e+002 
3781250000  -4.296169e+001  -1.706328e+002 
3784375000  -4.299797e+001  -1.704900e+002 
3787500000  -4.209537e+001  -1.738028e+002 
3790625000  -4.269368e+001  1.777227e+002 
3793750000  -4.232559e+001  -1.787436e+002 
3796875000  -4.116510e+001  1.772523e+002 
3800000000  -3.961790e+001  1.742599e+002 
3803125000  -4.058546e+001  1.649927e+002 
3806250000  -4.125102e+001  1.616650e+002 
3809375000  -4.061959e+001  1.595521e+002 
3812500000  -3.992887e+001  1.536883e+002 
3815625000  -4.022713e+001  1.428111e+002 
3818750000  -4.146992e+001  1.443277e+002 
3821875000  -4.167158e+001  1.521510e+002 
3825000000  -3.940722e+001  1.515441e+002 
3828125000  -3.803461e+001  1.368057e+002 
3831250000  -3.865391e+001  1.226108e+002 
3834375000  -4.004980e+001  1.220765e+002 
3837500000  -4.110186e+001  1.267709e+002 
3840625000  -3.994898e+001  1.212032e+002 
3843750000  -3.891320e+001  1.119728e+002 
3846875000  -3.970203e+001  1.027439e+002 
3850000000  -4.125465e+001  1.085806e+002 
3853125000  -4.009644e+001  1.126368e+002 
3856250000  -4.022430e+001  1.051038e+002 
3859375000  -3.973737e+001  9.994849e+001 
3862500000  -3.928361e+001  9.232417e+001 
3865625000  -3.971076e+001  8.745194e+001 
3868750000  -3.966050e+001  8.517313e+001 
3871875000  -3.905516e+001  8.178369e+001 
3875000000  -3.918130e+001  7.367628e+001 
3878125000  -4.038694e+001  7.191885e+001 
3881250000  -4.053337e+001  7.322257e+001 
3884375000  -4.001169e+001  6.939251e+001 
3887500000  -4.041698e+001  6.505951e+001 
3890625000  -4.082305e+001  5.930670e+001 
3893750000  -4.112384e+001  5.880031e+001 
3896875000  -4.158342e+001  6.048561e+001 
3900000000  -4.161801e+001  5.904317e+001 
3903125000  -4.110077e+001  5.610353e+001 
3906250000  -4.053816e+001  5.458836e+001 
3909375000  -3.999493e+001  5.228481e+001 
3912500000  -3.994570e+001  4.178881e+001 
3915625000  -4.121584e+001  4.539845e+001 
3918750000  -4.133282e+001  4.428265e+001 
3921875000  -4.057636e+001  4.188422e+001 
3925000000  -3.989199e+001  4.061146e+001 
3928125000  -3.934484e+001  3.320920e+001 
3931250000  -3.957079e+001  2.851619e+001 
3934375000  -3.975289e+001  2.688358e+001 
3937500000  -3.999677e+001  2.643622e+001 
3940625000  -4.067525e+001  2.371070e+001 
3943750000  -3.967719e+001  2.478228e+001 
3946875000  -3.833035e+001  1.761185e+001 
3950000000  -3.872862e+001  9.030153e+000 
3953125000  -3.989969e+001  9.631698e+000 
3956250000  -3.919358e+001  1.082913e+001 
3959375000  -3.789625e+001  5.089017e+000 
3962500000  -3.719595e+001  8.126245e-001 
3965625000  -3.686378e+001  -9.013029e+000 
3968750000  -3.835447e+001  -1.662566e+001 
3971875000  -3.842483e+001  -1.905935e+001 
3975000000  -3.785505e+001  -2.095580e+001 
3978125000  -3.774829e+001  -2.496550e+001 
3981250000  -3.781932e+001  -3.001505e+001 
3984375000  -3.820914e+001  -3.468819e+001 
3987500000  -3.830537e+001  -3.944081e+001 
3990625000  -3.863402e+001  -4.030548e+001 
3993750000  -3.903473e+001  -4.424283e+001 
3996875000  -3.911863e+001  -4.916756e+001 
4000000000  -3.926019e+001  -4.978958e+001 
4003125000  -3.959251e+001  -4.926094e+001 
4006250000  -3.818899e+001  -4.912408e+001 
4009375000  -3.755650e+001  -6.234716e+001 
4012500000  -3.832180e+001  -6.794814e+001 
4015625000  -3.975655e+001  -6.836482e+001 
4018750000  -4.004434e+001  -6.564323e+001 
4021875000  -3.922873e+001  -6.991115e+001 
4025000000  -3.915820e+001  -7.486150e+001 
4028125000  -3.888511e+001  -7.820539e+001 
4031250000  -3.938424e+001  -8.217361e+001 
4034375000  -3.981178e+001  -8.341962e+001 
4037500000  -3.927939e+001  -8.100248e+001 
4040625000  -3.898993e+001  -8.528713e+001 
4043750000  -3.941874e+001  -8.682410e+001 
4046875000  -3.905672e+001  -8.709072e+001 
4050000000  -3.841176e+001  -9.390335e+001 
4053125000  -3.884217e+001  -9.738152e+001 
4056250000  -3.965502e+001  -9.185422e+001 
4059375000  -3.820719e+001  -9.128802e+001 
4062500000  -3.683715e+001  -9.824655e+001 
4065625000  -3.655826e+001  -1.044665e+002 
4068750000  -3.630960e+001  -1.087895e+002 
4071875000  -3.573439e+001  -1.177607e+002 
4075000000  -3.589087e+001  -1.240621e+002 
4078125000  -3.669514e+001  -1.253697e+002 
4081250000  -3.605511e+001  -1.302104e+002 
4084375000  -3.559066e+001  -1.368129e+002 
4087500000  -3.609360e+001  -1.444712e+002 
4090625000  -3.676921e+001  -1.460670e+002 
4093750000  -3.647425e+001  -1.465502e+002 
4096875000  -3.607668e+001  -1.535003e+002 
4100000000  -3.692542e+001  -1.611505e+002 
4103125000  -3.771842e+001  -1.606557e+002 
4106250000  -3.760811e+001  -1.558713e+002 
4109375000  -3.663528e+001  -1.580030e+002 
4112500000  -3.615488e+001  -1.666185e+002 
4115625000  -3.656295e+001  -1.719367e+002 
4118750000  -3.686886e+001  -1.761279e+002 
4121875000  -3.630433e+001  1.793690e+002 
4125000000  -3.677145e+001  1.726045e+002 
4128125000  -3.780323e+001  1.729580e+002 
4131250000  -3.765211e+001  1.797350e+002 
4134375000  -3.539919e+001  1.745717e+002 
4137500000  -3.497836e+001  1.541694e+002 
4140625000  -3.740934e+001  1.468901e+002 
4143750000  -3.867921e+001  1.501849e+002 
4146875000  -3.842156e+001  1.572528e+002 
4150000000  -3.782804e+001  1.538008e+002 
4153125000  -3.729443e+001  1.470008e+002 
4156250000  -3.832383e+001  1.448601e+002 
4159375000  -3.857389e+001  1.481986e+002 
4162500000  -3.752682e+001  1.525056e+002 
4165625000  -3.637235e+001  1.475721e+002 
4168750000  -3.581784e+001  1.392650e+002 
4171875000  -3.599289e+001  1.296366e+002 
4175000000  -3.665452e+001  1.257071e+002 
4178125000  -3.717363e+001  1.229148e+002 
4181250000  -3.697289e+001  1.231336e+002 
4184375000  -3.680680e+001  1.194950e+002 
4187500000  -3.673375e+001  1.160659e+002 
4190625000  -3.656920e+001  1.107190e+002 
4193750000  -3.727975e+001  1.057281e+002 
4196875000  -3.827135e+001  1.040478e+002 
4200000000  -3.896456e+001  1.066891e+002 
4203125000  -3.872429e+001  1.206087e+002 
4206250000  -3.524077e+001  1.205408e+002 
4209375000  -3.419824e+001  9.846712e+001 
4212500000  -3.615130e+001  8.903454e+001 
4215625000  -3.700390e+001  9.573630e+001 
4218750000  -3.553611e+001  1.003328e+002 
4221875000  -3.331511e+001  9.151028e+001 
4225000000  -3.443201e+001  7.862661e+001 
4228125000  -3.503219e+001  8.049158e+001 
4231250000  -3.346384e+001  7.601904e+001 
4234375000  -3.336412e+001  6.709152e+001 
4237500000  -3.297775e+001  6.286489e+001 
4240625000  -3.283131e+001  5.232771e+001 
4243750000  -3.399131e+001  4.459221e+001 
4246875000  -3.499958e+001  4.426530e+001 
4250000000  -3.504044e+001  4.563890e+001 
4253125000  -3.427747e+001  4.166875e+001 
4256250000  -3.483682e+001  3.718035e+001 
4259375000  -3.446037e+001  3.380032e+001 
4262500000  -3.459062e+001  2.838184e+001 
4265625000  -3.474992e+001  2.813870e+001 
4268750000  -3.385552e+001  2.415215e+001 
4271875000  -3.394409e+001  1.572169e+001 
4275000000  -3.338412e+001  7.569069e+000 
4278125000  -3.403941e+001  -3.148964e+000 
4281250000  -3.582087e+001  -5.830564e+000 
4284375000  -3.581107e+001  -5.024109e+000 
4287500000  -3.679119e+001  -1.046902e+001 
4290625000  -3.787364e+001  -1.539772e+000 
4293750000  -3.621529e+001  3.299941e+000 
4296875000  -3.483269e+001  -7.750999e+000 
4300000000  -3.581286e+001  -1.659721e+001 
4303125000  -3.681726e+001  -1.527267e+001 
4306250000  -3.638032e+001  -9.172158e+000 
4309375000  -3.496580e+001  -1.059917e+001 
4312500000  -3.477076e+001  -1.905213e+001 
4315625000  -3.497103e+001  -2.513367e+001 
4318750000  -3.512868e+001  -2.941210e+001 
4321875000  -3.533181e+001  -2.856569e+001 
4325000000  -3.451498e+001  -2.868466e+001 
4328125000  -3.398225e+001  -3.600763e+001 
4331250000  -3.381098e+001  -4.330011e+001 
4334375000  -3.427726e+001  -4.866924e+001 
4337500000  -3.493141e+001  -5.174963e+001 
4340625000  -3.564487e+001  -4.748806e+001 
4343750000  -3.470645e+001  -5.022414e+001 
4346875000  -3.433318e+001  -5.541378e+001 
4350000000  -3.427283e+001  -6.015383e+001 
4353125000  -3.400706e+001  -6.918073e+001 
4356250000  -3.601160e+001  -7.108965e+001 
4359375000  -3.645501e+001  -5.835975e+001 
4362500000  -3.339087e+001  -5.947896e+001 
4365625000  -3.192021e+001  -7.184818e+001 
4368750000  -3.247682e+001  -8.479922e+001 
4371875000  -3.361782e+001  -8.533240e+001 
4375000000  -3.318587e+001  -8.548494e+001 
4378125000  -3.263855e+001  -9.316251e+001 
4381250000  -3.267277e+001  -9.940464e+001 
4384375000  -3.248604e+001  -1.069714e+002 
4387500000  -3.331448e+001  -1.126110e+002 
4390625000  -3.426571e+001  -1.137464e+002 
4393750000  -3.371492e+001  -1.129683e+002 
4396875000  -3.301768e+001  -1.150372e+002 
4400000000  -3.261463e+001  -1.249005e+002 
4403125000  -3.325262e+001  -1.329543e+002 
4406250000  -3.421716e+001  -1.363492e+002 
4409375000  -3.427354e+001  -1.388132e+002 
4412500000  -3.540305e+001  -1.431124e+002 
4415625000  -3.579547e+001  -1.374980e+002 
