!Agilent Technologies,E8363B,MY43030201,A.06.04.32
!Agilent E8363B: A.06.04.32
!Date: Tuesday, November 11, 2014 21:06:01
!Correction: S21(Response(S21)) 
!S1P File: Measurement: S21:
# Hz S  dB   R 50
3000000000  -3.636619e+001  -4.960851e+001 
3003125000  -3.756004e+001  -5.595533e+001 
3006250000  -3.743814e+001  -5.794436e+001 
3009375000  -3.770384e+001  -5.363167e+001 
3012500000  -3.699586e+001  -5.549145e+001 
3015625000  -3.604527e+001  -6.259346e+001 
3018750000  -3.696646e+001  -6.431281e+001 
3021875000  -3.539104e+001  -6.321346e+001 
3025000000  -3.406087e+001  -6.702167e+001 
3028125000  -3.317871e+001  -7.323599e+001 
3031250000  -3.216703e+001  -8.456371e+001 
3034375000  -3.178298e+001  -9.791968e+001 
3037500000  -3.228606e+001  -1.099203e+002 
3040625000  -3.364164e+001  -1.146320e+002 
3043750000  -3.423491e+001  -1.200638e+002 
3046875000  -3.449626e+001  -1.259583e+002 
3050000000  -3.607171e+001  -1.320597e+002 
3053125000  -3.611332e+001  -1.260321e+002 
3056250000  -3.569934e+001  -1.232969e+002 
3059375000  -3.576458e+001  -1.230001e+002 
3062500000  -3.407774e+001  -1.260347e+002 
3065625000  -3.394202e+001  -1.326105e+002 
3068750000  -3.362817e+001  -1.397296e+002 
3071875000  -3.345702e+001  -1.426303e+002 
3075000000  -3.334547e+001  -1.462852e+002 
3078125000  -3.308065e+001  -1.501547e+002 
3081250000  -3.359498e+001  -1.549210e+002 
3084375000  -3.263927e+001  -1.580700e+002 
3087500000  -3.247128e+001  -1.619422e+002 
3090625000  -3.198612e+001  -1.720752e+002 
3093750000  -3.239555e+001  -1.794046e+002 
3096875000  -3.347301e+001  1.744664e+002 
3100000000  -3.339315e+001  1.722175e+002 
3103125000  -3.355349e+001  1.729628e+002 
3106250000  -3.307270e+001  1.690719e+002 
3109375000  -3.325313e+001  1.647436e+002 
3112500000  -3.316954e+001  1.625377e+002 
3115625000  -3.277493e+001  1.579964e+002 
3118750000  -3.318098e+001  1.575098e+002 
3121875000  -3.223470e+001  1.482484e+002 
3125000000  -3.347443e+001  1.446852e+002 
3128125000  -3.447552e+001  1.515540e+002 
3131250000  -3.198838e+001  1.501943e+002 
3134375000  -3.075917e+001  1.343885e+002 
3137500000  -3.130803e+001  1.197001e+002 
3140625000  -3.280824e+001  1.171009e+002 
3143750000  -3.385378e+001  1.188580e+002 
3146875000  -3.340287e+001  1.193920e+002 
3150000000  -3.232898e+001  1.201095e+002 
3153125000  -3.235347e+001  1.107552e+002 
3156250000  -3.330113e+001  1.155530e+002 
3159375000  -3.168597e+001  1.168059e+002 
3162500000  -2.969483e+001  1.021632e+002 
3165625000  -3.079939e+001  9.011819e+001 
3168750000  -3.106591e+001  9.019753e+001 
3171875000  -3.021684e+001  8.463931e+001 
3175000000  -3.094926e+001  7.532660e+001 
3178125000  -3.068958e+001  7.656290e+001 
3181250000  -2.958819e+001  7.121989e+001 
3184375000  -2.889589e+001  5.857835e+001 
3187500000  -3.012656e+001  4.349478e+001 
3190625000  -3.281723e+001  3.468556e+001 
3193750000  -3.333131e+001  4.362385e+001 
3196875000  -3.301413e+001  4.851432e+001 
3200000000  -3.207931e+001  4.554289e+001 
3203125000  -3.130962e+001  3.942466e+001 
3206250000  -3.161783e+001  3.316051e+001 
3209375000  -3.119015e+001  2.685605e+001 
3212500000  -3.136843e+001  1.948468e+001 
3215625000  -3.145614e+001  1.648531e+001 
3218750000  -3.227890e+001  8.906780e+000 
3221875000  -3.306739e+001  3.908891e+000 
3225000000  -3.266328e+001  2.511832e+000 
3228125000  -3.303686e+001  -3.214800e+000 
3231250000  -3.376026e+001  -5.406821e+000 
3234375000  -3.344864e+001  -5.471865e+000 
3237500000  -3.342534e+001  -7.102787e+000 
3240625000  -3.296616e+001  -9.695656e+000 
3243750000  -3.256570e+001  -1.754083e+001 
3246875000  -3.301339e+001  -2.437619e+001 
3250000000  -3.344672e+001  -2.635455e+001 
3253125000  -3.342168e+001  -2.864934e+001 
3256250000  -3.317957e+001  -3.547366e+001 
3259375000  -3.347815e+001  -4.432572e+001 
3262500000  -3.450875e+001  -4.778756e+001 
3265625000  -3.529906e+001  -4.553233e+001 
3268750000  -3.518594e+001  -4.346631e+001 
3271875000  -3.476503e+001  -4.396712e+001 
3275000000  -3.365531e+001  -5.041148e+001 
3278125000  -3.414277e+001  -5.744770e+001 
3281250000  -3.432041e+001  -5.626133e+001 
3284375000  -3.380784e+001  -6.275407e+001 
3287500000  -3.401870e+001  -6.654680e+001 
3290625000  -3.438688e+001  -7.173222e+001 
3293750000  -3.403511e+001  -7.870882e+001 
3296875000  -3.520718e+001  -7.865871e+001 
3300000000  -3.487315e+001  -7.821302e+001 
3303125000  -3.372456e+001  -8.385002e+001 
3306250000  -3.353389e+001  -9.089631e+001 
3309375000  -3.320137e+001  -9.709869e+001 
3312500000  -3.332103e+001  -1.080429e+002 
3315625000  -3.427887e+001  -1.161910e+002 
3318750000  -3.574765e+001  -1.189715e+002 
3321875000  -3.686968e+001  -1.197031e+002 
3325000000  -3.741011e+001  -1.140700e+002 
3328125000  -3.682329e+001  -1.144898e+002 
3331250000  -3.565941e+001  -1.067022e+002 
3334375000  -3.292412e+001  -1.174593e+002 
3337500000  -3.319865e+001  -1.370956e+002 
3340625000  -3.448625e+001  -1.479753e+002 
3343750000  -3.656319e+001  -1.491345e+002 
3346875000  -3.659581e+001  -1.477183e+002 
3350000000  -3.604410e+001  -1.487724e+002 
3353125000  -3.610928e+001  -1.539578e+002 
3356250000  -3.566251e+001  -1.616564e+002 
3359375000  -3.646231e+001  -1.712197e+002 
3362500000  -3.765602e+001  -1.755793e+002 
3365625000  -3.801683e+001  -1.767028e+002 
3368750000  -3.870994e+001  -1.789034e+002 
3371875000  -3.911107e+001  1.786165e+002 
3375000000  -4.037055e+001  1.758977e+002 
3378125000  -4.138074e+001  1.755670e+002 
3381250000  -4.279619e+001  -1.773899e+002 
3384375000  -4.126363e+001  -1.544739e+002 
3387500000  -3.750918e+001  -1.704469e+002 
3390625000  -3.925716e+001  1.686015e+002 
3393750000  -4.061248e+001  1.736889e+002 
3396875000  -3.932108e+001  1.745336e+002 
3400000000  -3.875703e+001  1.668488e+002 
3403125000  -3.937337e+001  1.607224e+002 
3406250000  -3.963188e+001  1.604896e+002 
3409375000  -3.991894e+001  1.531151e+002 
3412500000  -4.025533e+001  1.499176e+002 
3415625000  -4.119697e+001  1.516367e+002 
3418750000  -4.107351e+001  1.529996e+002 
3421875000  -4.146244e+001  1.561943e+002 
3425000000  -4.031420e+001  1.563654e+002 
3428125000  -3.953436e+001  1.503150e+002 
3431250000  -3.923058e+001  1.445053e+002 
3434375000  -3.919717e+001  1.390843e+002 
3437500000  -3.973786e+001  1.345636e+002 
3440625000  -3.983345e+001  1.366223e+002 
3443750000  -3.892751e+001  1.369601e+002 
3446875000  -3.797882e+001  1.282971e+002 
3450000000  -3.760016e+001  1.192451e+002 
3453125000  -3.803065e+001  1.090369e+002 
3456250000  -3.912305e+001  1.018495e+002 
3459375000  -4.003988e+001  1.026996e+002 
3462500000  -4.000064e+001  1.045365e+002 
3465625000  -3.997338e+001  9.812769e+001 
3468750000  -4.019586e+001  9.372261e+001 
3471875000  -4.012992e+001  9.178088e+001 
3475000000  -3.968360e+001  8.751265e+001 
3478125000  -4.061476e+001  8.019416e+001 
3481250000  -4.139251e+001  7.697778e+001 
3484375000  -4.241501e+001  8.100640e+001 
3487500000  -4.150912e+001  8.182732e+001 
3490625000  -4.093358e+001  7.595019e+001 
3493750000  -4.143264e+001  7.031042e+001 
3496875000  -4.198347e+001  6.937428e+001 
3500000000  -4.281174e+001  7.150610e+001 
3503125000  -4.199175e+001  7.299661e+001 
3506250000  -4.074526e+001  6.865929e+001 
3509375000  -4.068598e+001  6.031176e+001 
3512500000  -4.118325e+001  5.097755e+001 
3515625000  -4.210741e+001  4.776084e+001 
3518750000  -4.280962e+001  4.970632e+001 
3521875000  -4.236427e+001  4.671966e+001 
3525000000  -4.318072e+001  4.180963e+001 
3528125000  -4.345293e+001  5.239721e+001 
3531250000  -4.193620e+001  5.106815e+001 
3534375000  -4.184071e+001  3.965112e+001 
3537500000  -4.239751e+001  3.456660e+001 
3540625000  -4.322080e+001  3.279264e+001 
3543750000  -4.380180e+001  3.605764e+001 
3546875000  -4.414948e+001  4.727196e+001 
3550000000  -4.151438e+001  4.839695e+001 
3553125000  -4.001788e+001  2.936630e+001 
3556250000  -4.126175e+001  2.519075e+001 
3559375000  -4.114415e+001  2.523949e+001 
3562500000  -4.037056e+001  1.769050e+001 
3565625000  -4.071396e+001  6.564715e+000 
3568750000  -4.118651e+001  9.492481e+000 
3571875000  -4.087696e+001  8.366138e+000 
3575000000  -4.067452e+001  1.194701e+000 
3578125000  -4.114854e+001  -3.849402e+000 
3581250000  -4.121657e+001  -4.029360e+000 
3584375000  -4.060790e+001  -5.914344e+000 
3587500000  -3.995209e+001  -1.675895e+001 
3590625000  -4.044084e+001  -2.655309e+001 
3593750000  -4.190121e+001  -2.851130e+001 
3596875000  -4.189917e+001  -2.217179e+001 
3600000000  -4.038890e+001  -2.832460e+001 
3603125000  -4.075151e+001  -4.335869e+001 
3606250000  -4.159573e+001  -4.834384e+001 
3609375000  -4.231982e+001  -4.842442e+001 
3612500000  -4.309937e+001  -5.104898e+001 
3615625000  -4.306330e+001  -5.490551e+001 
3618750000  -4.412152e+001  -5.405687e+001 
3621875000  -4.389398e+001  -5.854273e+001 
3625000000  -4.474983e+001  -5.779372e+001 
3628125000  -4.493668e+001  -6.037533e+001 
3631250000  -4.473665e+001  -6.413852e+001 
3634375000  -4.636285e+001  -6.218864e+001 
3637500000  -4.612379e+001  -5.605614e+001 
3640625000  -4.506380e+001  -5.740299e+001 
3643750000  -4.487768e+001  -6.105682e+001 
3646875000  -4.484463e+001  -6.615804e+001 
3650000000  -4.579277e+001  -6.761750e+001 
3653125000  -4.544645e+001  -6.762536e+001 
3656250000  -4.565958e+001  -6.799061e+001 
3659375000  -4.557283e+001  -6.690556e+001 
3662500000  -4.514566e+001  -6.681868e+001 
3665625000  -4.457772e+001  -6.920298e+001 
3668750000  -4.349265e+001  -6.591674e+001 
3671875000  -4.256612e+001  -7.521828e+001 
3675000000  -4.302806e+001  -8.365937e+001 
3678125000  -4.267175e+001  -8.435297e+001 
3681250000  -4.293362e+001  -8.608240e+001 
3684375000  -4.267549e+001  -9.194251e+001 
3687500000  -4.267299e+001  -9.778989e+001 
3690625000  -4.282326e+001  -1.000795e+002 
3693750000  -4.347082e+001  -9.998201e+001 
3696875000  -4.343787e+001  -1.010548e+002 
3700000000  -4.246985e+001  -1.044896e+002 
3703125000  -4.289283e+001  -1.104006e+002 
3706250000  -4.379345e+001  -1.124432e+002 
3709375000  -4.336651e+001  -1.102445e+002 
3712500000  -4.243910e+001  -1.135024e+002 
3715625000  -4.160316e+001  -1.184322e+002 
3718750000  -4.124753e+001  -1.257121e+002 
3721875000  -4.114628e+001  -1.329008e+002 
3725000000  -4.156590e+001  -1.378993e+002 
3728125000  -4.185036e+001  -1.401548e+002 
3731250000  -4.169380e+001  -1.416875e+002 
3734375000  -4.119672e+001  -1.481752e+002 
3737500000  -4.214094e+001  -1.539495e+002 
3740625000  -4.304962e+001  -1.595042e+002 
3743750000  -4.340854e+001  -1.606217e+002 
3746875000  -4.387972e+001  -1.621320e+002 
3750000000  -4.439086e+001  -1.614107e+002 
3753125000  -4.415636e+001  -1.640022e+002 
3756250000  -4.449601e+001  -1.612462e+002 
3759375000  -4.511159e+001  -1.611835e+002 
3762500000  -4.468445e+001  -1.634987e+002 
3765625000  -4.489647e+001  -1.642919e+002 
3768750000  -4.465710e+001  -1.613647e+002 
3771875000  -4.329837e+001  -1.602421e+002 
3775000000  -4.321730e+001  -1.676333e+002 
3778125000  -4.300602e+001  -1.706661e+002 
3781250000  -4.283080e+001  -1.707412e+002 
3784375000  -4.242415e+001  -1.715512e+002 
3787500000  -4.188439e+001  -1.745555e+002 
3790625000  -4.215160e+001  1.777173e+002 
3793750000  -4.230789e+001  1.761281e+002 
3796875000  -4.095777e+001  1.752105e+002 
3800000000  -3.937839e+001  1.734633e+002 
3803125000  -3.996449e+001  1.619627e+002 
3806250000  -4.083387e+001  1.603209e+002 
3809375000  -4.031048e+001  1.576865e+002 
3812500000  -3.952980e+001  1.508503e+002 
3815625000  -4.025076e+001  1.416006e+002 
3818750000  -4.136406e+001  1.408609e+002 
3821875000  -4.139913e+001  1.497070e+002 
3825000000  -3.922000e+001  1.518641e+002 
3828125000  -3.800762e+001  1.351190e+002 
3831250000  -3.846061e+001  1.210561e+002 
3834375000  -4.006546e+001  1.161071e+002 
3837500000  -4.125441e+001  1.227895e+002 
3840625000  -3.972116e+001  1.195275e+002 
3843750000  -3.891076e+001  1.080338e+002 
3846875000  -3.969765e+001  1.007187e+002 
3850000000  -4.105494e+001  1.049494e+002 
3853125000  -4.013037e+001  1.099733e+002 
3856250000  -4.025657e+001  1.013513e+002 
3859375000  -3.966687e+001  9.655614e+001 
3862500000  -3.940508e+001  8.836017e+001 
3865625000  -3.968649e+001  8.343475e+001 
3868750000  -3.982230e+001  7.924986e+001 
3871875000  -3.921231e+001  7.844254e+001 
3875000000  -3.948764e+001  6.851634e+001 
3878125000  -4.107162e+001  6.643648e+001 
3881250000  -4.103473e+001  6.998132e+001 
3884375000  -4.017727e+001  6.664830e+001 
3887500000  -4.037206e+001  6.074053e+001 
3890625000  -4.075974e+001  5.805101e+001 
3893750000  -4.114803e+001  5.648796e+001 
3896875000  -4.171441e+001  5.920155e+001 
3900000000  -4.200463e+001  5.605501e+001 
3903125000  -4.122030e+001  5.416011e+001 
3906250000  -4.083580e+001  5.256376e+001 
3909375000  -4.005601e+001  4.913630e+001 
3912500000  -4.036428e+001  4.018338e+001 
3915625000  -4.125201e+001  4.220603e+001 
3918750000  -4.114708e+001  4.407335e+001 
3921875000  -4.052198e+001  3.922254e+001 
3925000000  -3.986114e+001  3.763163e+001 
3928125000  -3.920773e+001  3.142566e+001 
3931250000  -3.950617e+001  2.645481e+001 
3934375000  -3.949872e+001  2.294877e+001 
3937500000  -3.986761e+001  2.277445e+001 
3940625000  -4.048393e+001  2.156147e+001 
3943750000  -3.937891e+001  2.180232e+001 
3946875000  -3.825731e+001  1.558255e+001 
3950000000  -3.863411e+001  6.748110e+000 
3953125000  -3.971904e+001  4.723965e+000 
3956250000  -3.877656e+001  6.707376e+000 
3959375000  -3.753153e+001  3.308359e+000 
3962500000  -3.715909e+001  -2.069197e+000 
3965625000  -3.690565e+001  -1.293813e+001 
3968750000  -3.790113e+001  -2.010116e+001 
3971875000  -3.826059e+001  -2.256148e+001 
3975000000  -3.763658e+001  -2.429815e+001 
3978125000  -3.775352e+001  -2.897427e+001 
3981250000  -3.746373e+001  -3.394713e+001 
3984375000  -3.791586e+001  -4.065363e+001 
3987500000  -3.870203e+001  -4.281084e+001 
3990625000  -3.843560e+001  -4.396400e+001 
3993750000  -3.908157e+001  -4.907128e+001 
3996875000  -3.902485e+001  -5.253468e+001 
4000000000  -3.902866e+001  -5.309992e+001 
4003125000  -3.989970e+001  -5.249984e+001 
4006250000  -3.836652e+001  -5.308971e+001 
4009375000  -3.747623e+001  -6.718155e+001 
4012500000  -3.885020e+001  -7.323669e+001 
4015625000  -4.003452e+001  -7.211208e+001 
4018750000  -4.032814e+001  -7.248513e+001 
4021875000  -3.929965e+001  -7.308321e+001 
4025000000  -3.917367e+001  -7.786832e+001 
4028125000  -3.919317e+001  -8.102157e+001 
4031250000  -3.971380e+001  -8.493994e+001 
4034375000  -3.981600e+001  -8.646822e+001 
4037500000  -3.949385e+001  -8.523362e+001 
4040625000  -3.912816e+001  -8.757466e+001 
4043750000  -3.948887e+001  -8.831684e+001 
4046875000  -3.904058e+001  -8.927711e+001 
4050000000  -3.850555e+001  -9.640767e+001 
4053125000  -3.888200e+001  -9.875395e+001 
4056250000  -3.942671e+001  -9.495866e+001 
4059375000  -3.824974e+001  -9.398898e+001 
4062500000  -3.677293e+001  -9.898530e+001 
4065625000  -3.660424e+001  -1.044996e+002 
4068750000  -3.634943e+001  -1.112253e+002 
4071875000  -3.567308e+001  -1.193119e+002 
4075000000  -3.589511e+001  -1.261089e+002 
4078125000  -3.663864e+001  -1.277294e+002 
4081250000  -3.595579e+001  -1.316154e+002 
4084375000  -3.556956e+001  -1.405972e+002 
4087500000  -3.598355e+001  -1.474501e+002 
4090625000  -3.665007e+001  -1.484603e+002 
4093750000  -3.646986e+001  -1.490991e+002 
4096875000  -3.584224e+001  -1.567160e+002 
4100000000  -3.663824e+001  -1.644908e+002 
4103125000  -3.771959e+001  -1.637574e+002 
4106250000  -3.753025e+001  -1.596691e+002 
4109375000  -3.653854e+001  -1.618137e+002 
4112500000  -3.604726e+001  -1.703084e+002 
4115625000  -3.645129e+001  -1.756938e+002 
4118750000  -3.670259e+001  -1.795872e+002 
4121875000  -3.626358e+001  1.757994e+002 
4125000000  -3.679869e+001  1.685247e+002 
4128125000  -3.766476e+001  1.684859e+002 
4131250000  -3.761908e+001  1.744262e+002 
4134375000  -3.513734e+001  1.702755e+002 
4137500000  -3.519985e+001  1.501551e+002 
4140625000  -3.742847e+001  1.432318e+002 
4143750000  -3.896632e+001  1.463571e+002 
4146875000  -3.832442e+001  1.540154e+002 
4150000000  -3.749953e+001  1.495255e+002 
4153125000  -3.757137e+001  1.402740e+002 
4156250000  -3.861521e+001  1.408429e+002 
4159375000  -3.883405e+001  1.435740e+002 
4162500000  -3.771539e+001  1.482911e+002 
4165625000  -3.677013e+001  1.443462e+002 
4168750000  -3.597990e+001  1.345936e+002 
4171875000  -3.630790e+001  1.250702e+002 
4175000000  -3.673525e+001  1.203510e+002 
4178125000  -3.740406e+001  1.206528e+002 
4181250000  -3.717526e+001  1.198450e+002 
4184375000  -3.700259e+001  1.169705e+002 
4187500000  -3.692603e+001  1.130938e+002 
4190625000  -3.673874e+001  1.075456e+002 
4193750000  -3.762662e+001  1.030471e+002 
4196875000  -3.810003e+001  1.029410e+002 
4200000000  -3.883689e+001  1.046554e+002 
4203125000  -3.905246e+001  1.181215e+002 
4206250000  -3.520350e+001  1.167909e+002 
4209375000  -3.416577e+001  9.478555e+001 
4212500000  -3.604427e+001  8.597783e+001 
4215625000  -3.692193e+001  9.328300e+001 
4218750000  -3.546766e+001  9.671367e+001 
4221875000  -3.332718e+001  8.672260e+001 
4225000000  -3.435230e+001  7.272243e+001 
4228125000  -3.499900e+001  7.775909e+001 
4231250000  -3.354485e+001  7.293015e+001 
4234375000  -3.323978e+001  6.348352e+001 
4237500000  -3.286472e+001  5.919358e+001 
4240625000  -3.289226e+001  5.031035e+001 
4243750000  -3.403049e+001  4.098426e+001 
4246875000  -3.506618e+001  3.986397e+001 
4250000000  -3.501168e+001  4.145432e+001 
4253125000  -3.436646e+001  3.793619e+001 
4256250000  -3.464178e+001  3.310706e+001 
4259375000  -3.452576e+001  3.023317e+001 
4262500000  -3.469831e+001  2.400899e+001 
4265625000  -3.472490e+001  2.382775e+001 
4268750000  -3.375342e+001  1.868577e+001 
4271875000  -3.364589e+001  1.048428e+001 
4275000000  -3.336893e+001  4.218795e+000 
4278125000  -3.424389e+001  -8.072003e+000 
4281250000  -3.587194e+001  -1.148267e+001 
4284375000  -3.578197e+001  -1.151655e+001 
4287500000  -3.661285e+001  -1.593594e+001 
4290625000  -3.814395e+001  -4.486876e+000 
4293750000  -3.637121e+001  4.318769e-001 
4296875000  -3.497751e+001  -1.184601e+001 
4300000000  -3.602926e+001  -2.124594e+001 
4303125000  -3.711275e+001  -1.938636e+001 
4306250000  -3.653257e+001  -1.384587e+001 
4309375000  -3.506295e+001  -1.510006e+001 
4312500000  -3.521599e+001  -2.243488e+001 
4315625000  -3.534851e+001  -2.963023e+001 
4318750000  -3.554597e+001  -3.313001e+001 
4321875000  -3.566040e+001  -3.150117e+001 
4325000000  -3.501032e+001  -3.101361e+001 
4328125000  -3.437175e+001  -3.771521e+001 
4331250000  -3.420955e+001  -4.631107e+001 
4334375000  -3.451939e+001  -5.199965e+001 
4337500000  -3.535856e+001  -5.443259e+001 
4340625000  -3.588875e+001  -5.170335e+001 
4343750000  -3.492397e+001  -5.155930e+001 
4346875000  -3.430121e+001  -5.768002e+001 
4350000000  -3.453265e+001  -6.334578e+001 
4353125000  -3.441597e+001  -7.255065e+001 
4356250000  -3.595440e+001  -7.424342e+001 
4359375000  -3.639483e+001  -6.161298e+001 
4362500000  -3.337772e+001  -6.227724e+001 
4365625000  -3.198365e+001  -7.411127e+001 
4368750000  -3.267788e+001  -8.701212e+001 
4371875000  -3.373568e+001  -8.806200e+001 
4375000000  -3.325768e+001  -8.943243e+001 
4378125000  -3.241526e+001  -9.502407e+001 
4381250000  -3.279574e+001  -1.027697e+002 
4384375000  -3.261353e+001  -1.084700e+002 
4387500000  -3.341353e+001  -1.162940e+002 
4390625000  -3.428252e+001  -1.166611e+002 
4393750000  -3.372569e+001  -1.164950e+002 
4396875000  -3.312518e+001  -1.197079e+002 
4400000000  -3.260956e+001  -1.274973e+002 
4403125000  -3.328959e+001  -1.371525e+002 
4406250000  -3.426812e+001  -1.393688e+002 
4409375000  -3.423039e+001  -1.430383e+002 
4412500000  -3.542121e+001  -1.466149e+002 
4415625000  -3.591685e+001  -1.439888e+002 
