!Agilent Technologies,E8363B,MY43030201,A.06.04.32
!Agilent E8363B: A.06.04.32
!Date: Tuesday, November 11, 2014 21:08:22
!Correction: S21(Response(S21)) 
!S1P File: Measurement: S21:
# Hz S  dB   R 50
3000000000  -3.643139e+001  -5.422368e+001 
3003125000  -3.752812e+001  -6.086621e+001 
3006250000  -3.747994e+001  -6.211616e+001 
3009375000  -3.780169e+001  -5.849205e+001 
3012500000  -3.705083e+001  -5.977943e+001 
3015625000  -3.607080e+001  -6.723904e+001 
3018750000  -3.694383e+001  -6.814723e+001 
3021875000  -3.542688e+001  -6.777506e+001 
3025000000  -3.414988e+001  -7.089764e+001 
3028125000  -3.317860e+001  -7.752855e+001 
3031250000  -3.222023e+001  -8.934389e+001 
3034375000  -3.185708e+001  -1.030349e+002 
3037500000  -3.229950e+001  -1.146474e+002 
3040625000  -3.371228e+001  -1.195570e+002 
3043750000  -3.430851e+001  -1.241439e+002 
3046875000  -3.451703e+001  -1.304898e+002 
3050000000  -3.617702e+001  -1.366967e+002 
3053125000  -3.608477e+001  -1.302189e+002 
3056250000  -3.560453e+001  -1.270733e+002 
3059375000  -3.567804e+001  -1.275044e+002 
3062500000  -3.414487e+001  -1.307995e+002 
3065625000  -3.389627e+001  -1.371936e+002 
3068750000  -3.355409e+001  -1.441301e+002 
3071875000  -3.348049e+001  -1.463778e+002 
3075000000  -3.335286e+001  -1.506202e+002 
3078125000  -3.318596e+001  -1.545901e+002 
3081250000  -3.358268e+001  -1.589865e+002 
3084375000  -3.269170e+001  -1.622870e+002 
3087500000  -3.254282e+001  -1.663510e+002 
3090625000  -3.196285e+001  -1.764666e+002 
3093750000  -3.251568e+001  1.758311e+002 
3096875000  -3.351232e+001  1.701196e+002 
3100000000  -3.339468e+001  1.679073e+002 
3103125000  -3.367544e+001  1.686991e+002 
3106250000  -3.320099e+001  1.643656e+002 
3109375000  -3.319310e+001  1.603255e+002 
3112500000  -3.316055e+001  1.582704e+002 
3115625000  -3.287464e+001  1.534059e+002 
3118750000  -3.318293e+001  1.538160e+002 
3121875000  -3.223386e+001  1.439989e+002 
3125000000  -3.359710e+001  1.400547e+002 
3128125000  -3.449226e+001  1.466658e+002 
3131250000  -3.213775e+001  1.453420e+002 
3134375000  -3.066321e+001  1.301199e+002 
3137500000  -3.132230e+001  1.160029e+002 
3140625000  -3.281087e+001  1.131034e+002 
3143750000  -3.380405e+001  1.139189e+002 
3146875000  -3.322770e+001  1.158101e+002 
3150000000  -3.228476e+001  1.152401e+002 
3153125000  -3.230729e+001  1.064876e+002 
3156250000  -3.334006e+001  1.113052e+002 
3159375000  -3.163925e+001  1.124761e+002 
3162500000  -2.976704e+001  9.787395e+001 
3165625000  -3.076798e+001  8.559702e+001 
3168750000  -3.100233e+001  8.601260e+001 
3171875000  -3.013461e+001  8.006985e+001 
3175000000  -3.095383e+001  7.112774e+001 
3178125000  -3.067047e+001  7.197855e+001 
3181250000  -2.958366e+001  6.643632e+001 
3184375000  -2.898749e+001  5.362523e+001 
3187500000  -3.014433e+001  3.859154e+001 
3190625000  -3.287886e+001  3.064014e+001 
3193750000  -3.345205e+001  3.917908e+001 
3196875000  -3.304385e+001  4.336352e+001 
3200000000  -3.208125e+001  4.099392e+001 
3203125000  -3.127554e+001  3.491522e+001 
3206250000  -3.161651e+001  2.822303e+001 
3209375000  -3.113503e+001  2.214201e+001 
3212500000  -3.133391e+001  1.473537e+001 
3215625000  -3.147449e+001  1.148511e+001 
3218750000  -3.220662e+001  4.598392e+000 
3221875000  -3.303992e+001  -6.783864e-001 
3225000000  -3.261889e+001  -2.156622e+000 
3228125000  -3.296314e+001  -7.034679e+000 
3231250000  -3.375796e+001  -1.021621e+001 
3234375000  -3.342291e+001  -9.833283e+000 
3237500000  -3.333511e+001  -1.167814e+001 
3240625000  -3.290681e+001  -1.472351e+001 
3243750000  -3.259609e+001  -2.207705e+001 
3246875000  -3.303841e+001  -2.903967e+001 
3250000000  -3.343719e+001  -3.114589e+001 
3253125000  -3.356422e+001  -3.409923e+001 
3256250000  -3.316696e+001  -3.999798e+001 
3259375000  -3.345401e+001  -4.959023e+001 
3262500000  -3.467859e+001  -5.252468e+001 
3265625000  -3.523993e+001  -4.975945e+001 
3268750000  -3.504435e+001  -4.825262e+001 
3271875000  -3.479847e+001  -4.804750e+001 
3275000000  -3.368157e+001  -5.512503e+001 
3278125000  -3.413572e+001  -6.163646e+001 
3281250000  -3.433684e+001  -6.065041e+001 
3284375000  -3.387424e+001  -6.745009e+001 
3287500000  -3.401839e+001  -7.108884e+001 
3290625000  -3.432976e+001  -7.691393e+001 
3293750000  -3.410899e+001  -8.278576e+001 
3296875000  -3.515785e+001  -8.316294e+001 
3300000000  -3.489520e+001  -8.254510e+001 
3303125000  -3.374413e+001  -8.860122e+001 
3306250000  -3.349739e+001  -9.564815e+001 
3309375000  -3.319510e+001  -1.017183e+002 
3312500000  -3.333101e+001  -1.128936e+002 
3315625000  -3.433200e+001  -1.219151e+002 
3318750000  -3.580539e+001  -1.240606e+002 
3321875000  -3.688990e+001  -1.240921e+002 
3325000000  -3.737328e+001  -1.186487e+002 
3328125000  -3.686651e+001  -1.179820e+002 
3331250000  -3.573188e+001  -1.121649e+002 
3334375000  -3.295188e+001  -1.230140e+002 
3337500000  -3.317601e+001  -1.423675e+002 
3340625000  -3.458084e+001  -1.522506e+002 
3343750000  -3.652426e+001  -1.531465e+002 
3346875000  -3.669078e+001  -1.516788e+002 
3350000000  -3.609276e+001  -1.542505e+002 
3353125000  -3.614338e+001  -1.582141e+002 
3356250000  -3.555423e+001  -1.665098e+002 
3359375000  -3.650220e+001  -1.750349e+002 
3362500000  -3.751332e+001  1.791114e+002 
3365625000  -3.802148e+001  1.783303e+002 
3368750000  -3.877184e+001  1.757187e+002 
3371875000  -3.914608e+001  1.730915e+002 
3375000000  -4.056696e+001  1.702900e+002 
3378125000  -4.129359e+001  1.702402e+002 
3381250000  -4.262333e+001  -1.798506e+002 
3384375000  -4.116214e+001  -1.601943e+002 
3387500000  -3.742837e+001  -1.751099e+002 
3390625000  -3.960000e+001  1.653010e+002 
3393750000  -4.051616e+001  1.690765e+002 
3396875000  -3.901414e+001  1.691143e+002 
3400000000  -3.881276e+001  1.611713e+002 
3403125000  -3.945911e+001  1.549616e+002 
3406250000  -3.962830e+001  1.558349e+002 
3409375000  -3.977533e+001  1.466754e+002 
3412500000  -4.041065e+001  1.462318e+002 
3415625000  -4.103621e+001  1.470719e+002 
3418750000  -4.107122e+001  1.477072e+002 
3421875000  -4.121216e+001  1.499557e+002 
3425000000  -4.039775e+001  1.492711e+002 
3428125000  -3.946121e+001  1.462933e+002 
3431250000  -3.931977e+001  1.403965e+002 
3434375000  -3.920052e+001  1.328411e+002 
3437500000  -3.972332e+001  1.303320e+002 
3440625000  -4.005265e+001  1.316017e+002 
3443750000  -3.876314e+001  1.310434e+002 
3446875000  -3.792979e+001  1.240902e+002 
3450000000  -3.754974e+001  1.130964e+002 
3453125000  -3.803311e+001  1.032295e+002 
3456250000  -3.915218e+001  9.740427e+001 
3459375000  -4.010255e+001  9.840747e+001 
3462500000  -3.999892e+001  9.773061e+001 
3465625000  -3.996024e+001  9.144245e+001 
3468750000  -4.010018e+001  8.771606e+001 
3471875000  -4.008191e+001  8.880487e+001 
3475000000  -3.980590e+001  8.136451e+001 
3478125000  -4.041072e+001  7.466666e+001 
3481250000  -4.142014e+001  7.236766e+001 
3484375000  -4.241087e+001  7.590590e+001 
3487500000  -4.130841e+001  7.486375e+001 
3490625000  -4.083263e+001  7.153393e+001 
3493750000  -4.148113e+001  6.507481e+001 
3496875000  -4.210936e+001  6.286893e+001 
3500000000  -4.243760e+001  6.703522e+001 
3503125000  -4.218128e+001  6.760019e+001 
3506250000  -4.072551e+001  6.396261e+001 
3509375000  -4.081650e+001  5.384979e+001 
3512500000  -4.134929e+001  4.553952e+001 
3515625000  -4.213217e+001  4.291468e+001 
3518750000  -4.235644e+001  4.419793e+001 
3521875000  -4.266927e+001  4.187769e+001 
3525000000  -4.333657e+001  3.811987e+001 
3528125000  -4.330247e+001  4.525626e+001 
3531250000  -4.148195e+001  4.439640e+001 
3534375000  -4.184177e+001  3.403101e+001 
3537500000  -4.244276e+001  2.921338e+001 
3540625000  -4.352938e+001  2.702139e+001 
3543750000  -4.395534e+001  3.067353e+001 
3546875000  -4.375119e+001  4.211949e+001 
3550000000  -4.138871e+001  3.999604e+001 
3553125000  -3.980688e+001  2.310966e+001 
3556250000  -4.130099e+001  1.831509e+001 
3559375000  -4.133088e+001  1.968482e+001 
3562500000  -4.024159e+001  9.151138e+000 
3565625000  -4.095992e+001  2.928010e+000 
3568750000  -4.110244e+001  5.748922e+000 
3571875000  -4.102448e+001  2.459898e+000 
3575000000  -4.073516e+001  -4.875866e+000 
3578125000  -4.113710e+001  -1.017021e+001 
3581250000  -4.132390e+001  -1.006610e+001 
3584375000  -4.031784e+001  -1.237150e+001 
3587500000  -3.999463e+001  -2.245210e+001 
3590625000  -4.057939e+001  -3.106748e+001 
3593750000  -4.180196e+001  -3.467110e+001 
3596875000  -4.181745e+001  -2.682839e+001 
3600000000  -4.053831e+001  -3.487788e+001 
3603125000  -4.076576e+001  -4.826935e+001 
3606250000  -4.180594e+001  -5.098449e+001 
3609375000  -4.233350e+001  -5.599702e+001 
3612500000  -4.287945e+001  -5.754846e+001 
3615625000  -4.321002e+001  -6.131160e+001 
3618750000  -4.383110e+001  -5.968577e+001 
3621875000  -4.402097e+001  -6.521741e+001 
3625000000  -4.462104e+001  -6.456770e+001 
3628125000  -4.467868e+001  -6.565918e+001 
3631250000  -4.437746e+001  -7.042190e+001 
3634375000  -4.612056e+001  -7.165710e+001 
3637500000  -4.605030e+001  -6.355412e+001 
3640625000  -4.479447e+001  -5.996695e+001 
3643750000  -4.470321e+001  -6.817604e+001 
3646875000  -4.519520e+001  -7.296169e+001 
3650000000  -4.597194e+001  -7.222384e+001 
3653125000  -4.530453e+001  -7.719341e+001 
3656250000  -4.598492e+001  -7.439070e+001 
3659375000  -4.568436e+001  -6.720103e+001 
3662500000  -4.470306e+001  -7.258494e+001 
3665625000  -4.445222e+001  -7.601589e+001 
3668750000  -4.361069e+001  -7.370813e+001 
3671875000  -4.257693e+001  -8.037957e+001 
3675000000  -4.296151e+001  -8.813664e+001 
3678125000  -4.272331e+001  -8.947188e+001 
3681250000  -4.254086e+001  -9.165778e+001 
3684375000  -4.252291e+001  -9.704178e+001 
3687500000  -4.274660e+001  -1.004282e+002 
3690625000  -4.286637e+001  -1.052797e+002 
3693750000  -4.363875e+001  -1.067230e+002 
3696875000  -4.343123e+001  -1.053273e+002 
3700000000  -4.271261e+001  -1.118758e+002 
3703125000  -4.287939e+001  -1.167936e+002 
3706250000  -4.379560e+001  -1.162542e+002 
3709375000  -4.327427e+001  -1.165649e+002 
3712500000  -4.229256e+001  -1.182817e+002 
3715625000  -4.151676e+001  -1.257494e+002 
3718750000  -4.134061e+001  -1.306019e+002 
3721875000  -4.110024e+001  -1.382346e+002 
3725000000  -4.158990e+001  -1.424906e+002 
3728125000  -4.199967e+001  -1.450473e+002 
3731250000  -4.188293e+001  -1.495206e+002 
3734375000  -4.145680e+001  -1.539232e+002 
3737500000  -4.227943e+001  -1.608206e+002 
3740625000  -4.284015e+001  -1.642114e+002 
3743750000  -4.343799e+001  -1.674267e+002 
3746875000  -4.355868e+001  -1.677317e+002 
3750000000  -4.451344e+001  -1.714605e+002 
3753125000  -4.458150e+001  -1.715729e+002 
3756250000  -4.496101e+001  -1.684714e+002 
3759375000  -4.512726e+001  -1.681781e+002 
3762500000  -4.416994e+001  -1.700285e+002 
3765625000  -4.505949e+001  -1.717673e+002 
3768750000  -4.494831e+001  -1.655116e+002 
3771875000  -4.314075e+001  -1.689126e+002 
3775000000  -4.320739e+001  -1.736948e+002 
3778125000  -4.354164e+001  -1.756735e+002 
3781250000  -4.288089e+001  -1.786151e+002 
3784375000  -4.259499e+001  -1.779071e+002 
3787500000  -4.207030e+001  -1.776140e+002 
3790625000  -4.217904e+001  1.722462e+002 
3793750000  -4.225637e+001  1.736583e+002 
3796875000  -4.108433e+001  1.694275e+002 
3800000000  -3.961727e+001  1.677016e+002 
3803125000  -4.018402e+001  1.575345e+002 
3806250000  -4.051887e+001  1.531829e+002 
3809375000  -4.050664e+001  1.530916e+002 
3812500000  -3.986455e+001  1.449583e+002 
3815625000  -4.006794e+001  1.356380e+002 
3818750000  -4.146958e+001  1.361087e+002 
3821875000  -4.096711e+001  1.447509e+002 
3825000000  -3.922559e+001  1.461240e+002 
3828125000  -3.772596e+001  1.282364e+002 
3831250000  -3.847091e+001  1.142604e+002 
3834375000  -4.008862e+001  1.114553e+002 
3837500000  -4.097779e+001  1.166625e+002 
3840625000  -4.014988e+001  1.132572e+002 
3843750000  -3.865347e+001  1.020998e+002 
3846875000  -3.951780e+001  9.467302e+001 
3850000000  -4.083416e+001  9.989983e+001 
3853125000  -4.024656e+001  1.022395e+002 
3856250000  -4.054171e+001  9.574769e+001 
3859375000  -3.959709e+001  8.967802e+001 
3862500000  -3.948146e+001  8.031610e+001 
3865625000  -3.996756e+001  7.742027e+001 
3868750000  -3.995678e+001  7.586364e+001 
3871875000  -3.942106e+001  7.177245e+001 
3875000000  -3.939564e+001  6.375606e+001 
3878125000  -4.050528e+001  6.182747e+001 
3881250000  -4.073274e+001  6.514385e+001 
3884375000  -4.034869e+001  5.870119e+001 
3887500000  -4.029355e+001  5.447843e+001 
3890625000  -4.091876e+001  5.237698e+001 
3893750000  -4.122982e+001  4.880435e+001 
3896875000  -4.149854e+001  5.120512e+001 
3900000000  -4.178941e+001  5.102788e+001 
3903125000  -4.140021e+001  4.839834e+001 
3906250000  -4.088336e+001  4.597707e+001 
3909375000  -4.014431e+001  4.394724e+001 
3912500000  -3.999005e+001  3.653331e+001 
3915625000  -4.159471e+001  3.631756e+001 
3918750000  -4.127507e+001  3.724261e+001 
3921875000  -4.080185e+001  3.443516e+001 
3925000000  -3.984895e+001  3.354290e+001 
3928125000  -3.895302e+001  2.644010e+001 
3931250000  -3.961470e+001  1.972829e+001 
3934375000  -3.966217e+001  1.995772e+001 
3937500000  -3.994648e+001  1.782073e+001 
3940625000  -4.034819e+001  1.535838e+001 
3943750000  -3.910061e+001  1.665814e+001 
3946875000  -3.819594e+001  9.240322e+000 
3950000000  -3.903807e+001  1.727255e+000 
3953125000  -3.968869e+001  1.582582e+000 
3956250000  -3.861550e+001  2.718015e-001 
3959375000  -3.756765e+001  -2.508249e+000 
3962500000  -3.713859e+001  -7.937540e+000 
3965625000  -3.709804e+001  -1.770971e+001 
3968750000  -3.794930e+001  -2.637441e+001 
3971875000  -3.819269e+001  -2.976870e+001 
3975000000  -3.757305e+001  -3.045693e+001 
3978125000  -3.767163e+001  -3.490577e+001 
3981250000  -3.759480e+001  -4.036828e+001 
3984375000  -3.790436e+001  -4.716720e+001 
3987500000  -3.867132e+001  -4.900830e+001 
3990625000  -3.844492e+001  -5.013379e+001 
3993750000  -3.892421e+001  -5.589962e+001 
3996875000  -3.888061e+001  -5.813134e+001 
4000000000  -3.935277e+001  -5.981927e+001 
4003125000  -3.973824e+001  -5.875956e+001 
4006250000  -3.833031e+001  -6.000031e+001 
4009375000  -3.746737e+001  -7.299706e+001 
4012500000  -3.875201e+001  -8.018552e+001 
4015625000  -4.006757e+001  -7.772986e+001 
4018750000  -4.020274e+001  -7.876205e+001 
4021875000  -3.945202e+001  -7.826307e+001 
4025000000  -3.920819e+001  -8.437110e+001 
4028125000  -3.928567e+001  -8.924868e+001 
4031250000  -3.977475e+001  -9.166048e+001 
4034375000  -4.015072e+001  -9.208474e+001 
4037500000  -3.945877e+001  -8.990717e+001 
4040625000  -3.922897e+001  -9.451378e+001 
4043750000  -3.961459e+001  -9.400963e+001 
4046875000  -3.929778e+001  -9.513804e+001 
4050000000  -3.845372e+001  -1.018937e+002 
4053125000  -3.916993e+001  -1.035088e+002 
4056250000  -3.955938e+001  -9.960603e+001 
4059375000  -3.789156e+001  -9.894824e+001 
4062500000  -3.667784e+001  -1.054879e+002 
4065625000  -3.668158e+001  -1.101090e+002 
4068750000  -3.630530e+001  -1.167498e+002 
4071875000  -3.576546e+001  -1.250911e+002 
4075000000  -3.619114e+001  -1.320850e+002 
4078125000  -3.654123e+001  -1.335829e+002 
4081250000  -3.587519e+001  -1.391395e+002 
4084375000  -3.555485e+001  -1.463142e+002 
4087500000  -3.616732e+001  -1.535957e+002 
4090625000  -3.653026e+001  -1.554453e+002 
4093750000  -3.644254e+001  -1.557109e+002 
4096875000  -3.592826e+001  -1.621418e+002 
4100000000  -3.669494e+001  -1.703279e+002 
4103125000  -3.769707e+001  -1.713215e+002 
4106250000  -3.746864e+001  -1.657547e+002 
4109375000  -3.655420e+001  -1.688770e+002 
4112500000  -3.602585e+001  -1.773303e+002 
4115625000  -3.640018e+001  1.781980e+002 
4118750000  -3.669733e+001  1.739932e+002 
4121875000  -3.632985e+001  1.675109e+002 
4125000000  -3.674842e+001  1.626093e+002 
4128125000  -3.774757e+001  1.622452e+002 
4131250000  -3.738032e+001  1.705533e+002 
4134375000  -3.505962e+001  1.626505e+002 
4137500000  -3.523088e+001  1.433008e+002 
4140625000  -3.746224e+001  1.350670e+002 
4143750000  -3.905427e+001  1.400525e+002 
4146875000  -3.822874e+001  1.461054e+002 
4150000000  -3.760303e+001  1.409309e+002 
4153125000  -3.751213e+001  1.340046e+002 
4156250000  -3.871848e+001  1.321500e+002 
4159375000  -3.898303e+001  1.370084e+002 
4162500000  -3.788286e+001  1.413437e+002 
4165625000  -3.675179e+001  1.370817e+002 
4168750000  -3.610773e+001  1.285065e+002 
4171875000  -3.624272e+001  1.195881e+002 
4175000000  -3.684313e+001  1.144057e+002 
4178125000  -3.746148e+001  1.141000e+002 
4181250000  -3.720772e+001  1.154055e+002 
4184375000  -3.703115e+001  1.090770e+002 
4187500000  -3.695053e+001  1.039584e+002 
4190625000  -3.688850e+001  1.010886e+002 
4193750000  -3.776490e+001  9.580396e+001 
4196875000  -3.838941e+001  9.505011e+001 
4200000000  -3.915613e+001  9.828283e+001 
4203125000  -3.873863e+001  1.121873e+002 
4206250000  -3.538651e+001  1.111673e+002 
4209375000  -3.422433e+001  8.871828e+001 
4212500000  -3.628456e+001  8.031712e+001 
4215625000  -3.704528e+001  8.550748e+001 
4218750000  -3.569384e+001  9.157386e+001 
4221875000  -3.347385e+001  8.060842e+001 
4225000000  -3.454079e+001  6.674118e+001 
4228125000  -3.497146e+001  7.183261e+001 
4231250000  -3.346266e+001  6.677184e+001 
4234375000  -3.328633e+001  5.710252e+001 
4237500000  -3.293859e+001  5.284175e+001 
4240625000  -3.292502e+001  4.245691e+001 
4243750000  -3.402636e+001  3.370037e+001 
4246875000  -3.482807e+001  3.310229e+001 
4250000000  -3.483937e+001  3.470344e+001 
4253125000  -3.427562e+001  3.151939e+001 
4256250000  -3.463643e+001  2.529634e+001 
4259375000  -3.441680e+001  2.218034e+001 
4262500000  -3.460440e+001  1.779333e+001 
4265625000  -3.470163e+001  1.773802e+001 
4268750000  -3.375252e+001  1.027754e+001 
4271875000  -3.375072e+001  4.173768e+000 
4275000000  -3.336543e+001  -3.165061e+000 
4278125000  -3.423986e+001  -1.512386e+001 
4281250000  -3.601517e+001  -1.796523e+001 
4284375000  -3.586708e+001  -1.841283e+001 
4287500000  -3.682173e+001  -2.214335e+001 
4290625000  -3.817733e+001  -1.263738e+001 
4293750000  -3.622083e+001  -9.209949e+000 
4296875000  -3.504498e+001  -1.895103e+001 
4300000000  -3.631785e+001  -2.831960e+001 
4303125000  -3.739695e+001  -2.668054e+001 
4306250000  -3.661744e+001  -1.923400e+001 
4309375000  -3.542052e+001  -2.298160e+001 
4312500000  -3.536326e+001  -3.257056e+001 
4315625000  -3.548427e+001  -3.712538e+001 
4318750000  -3.580917e+001  -3.966861e+001 
4321875000  -3.599195e+001  -3.942838e+001 
4325000000  -3.537424e+001  -3.864326e+001 
4328125000  -3.465519e+001  -4.527556e+001 
4331250000  -3.447438e+001  -5.330332e+001 
4334375000  -3.483780e+001  -5.844370e+001 
4337500000  -3.570075e+001  -6.151460e+001 
4340625000  -3.599588e+001  -5.705853e+001 
4343750000  -3.531746e+001  -5.811815e+001 
4346875000  -3.484458e+001  -6.440638e+001 
4350000000  -3.464526e+001  -6.988893e+001 
4353125000  -3.469628e+001  -7.859518e+001 
4356250000  -3.632248e+001  -8.037350e+001 
4359375000  -3.654825e+001  -6.636381e+001 
4362500000  -3.367928e+001  -6.705600e+001 
4365625000  -3.197681e+001  -8.142079e+001 
4368750000  -3.278631e+001  -9.442506e+001 
4371875000  -3.381507e+001  -9.444756e+001 
4375000000  -3.333255e+001  -9.477769e+001 
4378125000  -3.267373e+001  -1.022396e+002 
4381250000  -3.299623e+001  -1.089580e+002 
4384375000  -3.255912e+001  -1.156386e+002 
4387500000  -3.349915e+001  -1.231698e+002 
4390625000  -3.433557e+001  -1.228845e+002 
4393750000  -3.375365e+001  -1.227629e+002 
4396875000  -3.325377e+001  -1.263367e+002 
4400000000  -3.276278e+001  -1.356922e+002 
4403125000  -3.349648e+001  -1.447391e+002 
4406250000  -3.423848e+001  -1.455487e+002 
4409375000  -3.432779e+001  -1.515061e+002 
4412500000  -3.573114e+001  -1.536842e+002 
4415625000  -3.600490e+001  -1.490104e+002 
