!Agilent Technologies,E8363B,MY43030201,A.06.04.32
!Agilent E8363B: A.06.04.32
!Date: Tuesday, November 11, 2014 21:06:18
!Correction: S21(Response(S21)) 
!S1P File: Measurement: S21:
# Hz S  dB   R 50
3000000000  -3.648494e+001  -4.936726e+001 
3003125000  -3.759303e+001  -5.512428e+001 
3006250000  -3.741651e+001  -5.787300e+001 
3009375000  -3.787167e+001  -5.400779e+001 
3012500000  -3.705978e+001  -5.461972e+001 
3015625000  -3.614990e+001  -6.241549e+001 
3018750000  -3.679979e+001  -6.408308e+001 
3021875000  -3.546564e+001  -6.223151e+001 
3025000000  -3.412669e+001  -6.661533e+001 
3028125000  -3.316313e+001  -7.264359e+001 
3031250000  -3.217475e+001  -8.439260e+001 
3034375000  -3.187359e+001  -9.802551e+001 
3037500000  -3.225605e+001  -1.097909e+002 
3040625000  -3.355494e+001  -1.146955e+002 
3043750000  -3.418487e+001  -1.200883e+002 
3046875000  -3.449786e+001  -1.255690e+002 
3050000000  -3.605687e+001  -1.319075e+002 
3053125000  -3.613365e+001  -1.263479e+002 
3056250000  -3.560546e+001  -1.233251e+002 
3059375000  -3.564415e+001  -1.230214e+002 
3062500000  -3.410997e+001  -1.266708e+002 
3065625000  -3.392048e+001  -1.325841e+002 
3068750000  -3.357009e+001  -1.400831e+002 
3071875000  -3.348750e+001  -1.421479e+002 
3075000000  -3.328263e+001  -1.462375e+002 
3078125000  -3.299777e+001  -1.507961e+002 
3081250000  -3.351915e+001  -1.553076e+002 
3084375000  -3.268040e+001  -1.585738e+002 
3087500000  -3.246648e+001  -1.622919e+002 
3090625000  -3.196585e+001  -1.722640e+002 
3093750000  -3.243119e+001  -1.799738e+002 
3096875000  -3.346495e+001  1.744152e+002 
3100000000  -3.334741e+001  1.720710e+002 
3103125000  -3.369869e+001  1.728151e+002 
3106250000  -3.317024e+001  1.686727e+002 
3109375000  -3.327920e+001  1.648779e+002 
3112500000  -3.323341e+001  1.625206e+002 
3115625000  -3.289983e+001  1.575857e+002 
3118750000  -3.314177e+001  1.572513e+002 
3121875000  -3.234819e+001  1.482208e+002 
3125000000  -3.358415e+001  1.437803e+002 
3128125000  -3.449060e+001  1.511187e+002 
3131250000  -3.204071e+001  1.495160e+002 
3134375000  -3.075450e+001  1.346273e+002 
3137500000  -3.132162e+001  1.199607e+002 
3140625000  -3.282606e+001  1.178233e+002 
3143750000  -3.387079e+001  1.185206e+002 
3146875000  -3.331572e+001  1.196674e+002 
3150000000  -3.227706e+001  1.199409e+002 
3153125000  -3.223792e+001  1.109557e+002 
3156250000  -3.335418e+001  1.160698e+002 
3159375000  -3.163546e+001  1.167819e+002 
3162500000  -2.975413e+001  1.020776e+002 
3165625000  -3.069995e+001  9.003854e+001 
3168750000  -3.103066e+001  9.049004e+001 
3171875000  -3.021668e+001  8.475685e+001 
3175000000  -3.092698e+001  7.578687e+001 
3178125000  -3.063905e+001  7.657012e+001 
3181250000  -2.952094e+001  7.122991e+001 
3184375000  -2.893148e+001  5.851078e+001 
3187500000  -3.005468e+001  4.269267e+001 
3190625000  -3.272309e+001  3.503484e+001 
3193750000  -3.330232e+001  4.368672e+001 
3196875000  -3.301225e+001  4.867599e+001 
3200000000  -3.208999e+001  4.537669e+001 
3203125000  -3.128165e+001  3.939888e+001 
3206250000  -3.157823e+001  3.273870e+001 
3209375000  -3.115821e+001  2.687393e+001 
3212500000  -3.132043e+001  1.969816e+001 
3215625000  -3.135074e+001  1.554406e+001 
3218750000  -3.215044e+001  8.080945e+000 
3221875000  -3.306454e+001  3.534555e+000 
3225000000  -3.261625e+001  1.933234e+000 
3228125000  -3.298539e+001  -3.566576e+000 
3231250000  -3.368921e+001  -6.207593e+000 
3234375000  -3.339012e+001  -5.429729e+000 
3237500000  -3.334274e+001  -7.711686e+000 
3240625000  -3.304572e+001  -1.028259e+001 
3243750000  -3.261456e+001  -1.783335e+001 
3246875000  -3.291690e+001  -2.459450e+001 
3250000000  -3.335461e+001  -2.695618e+001 
3253125000  -3.348347e+001  -2.931984e+001 
3256250000  -3.313404e+001  -3.605782e+001 
3259375000  -3.347589e+001  -4.483313e+001 
3262500000  -3.463952e+001  -4.868369e+001 
3265625000  -3.527637e+001  -4.533122e+001 
3268750000  -3.509238e+001  -4.353661e+001 
3271875000  -3.477413e+001  -4.384175e+001 
3275000000  -3.374417e+001  -5.012324e+001 
3278125000  -3.421558e+001  -5.726857e+001 
3281250000  -3.427794e+001  -5.637741e+001 
3284375000  -3.378546e+001  -6.324694e+001 
3287500000  -3.400148e+001  -6.649814e+001 
3290625000  -3.435221e+001  -7.271039e+001 
3293750000  -3.406377e+001  -7.860873e+001 
3296875000  -3.512306e+001  -7.912070e+001 
3300000000  -3.485030e+001  -7.894321e+001 
3303125000  -3.368103e+001  -8.388525e+001 
3306250000  -3.354907e+001  -9.091860e+001 
3309375000  -3.319884e+001  -9.743118e+001 
3312500000  -3.328226e+001  -1.084455e+002 
3315625000  -3.432632e+001  -1.158957e+002 
3318750000  -3.562646e+001  -1.193369e+002 
3321875000  -3.678160e+001  -1.200114e+002 
3325000000  -3.731643e+001  -1.158499e+002 
3328125000  -3.682065e+001  -1.139096e+002 
3331250000  -3.567666e+001  -1.075592e+002 
3334375000  -3.296044e+001  -1.174927e+002 
3337500000  -3.308559e+001  -1.363704e+002 
3340625000  -3.447694e+001  -1.478738e+002 
3343750000  -3.644896e+001  -1.495049e+002 
3346875000  -3.667141e+001  -1.471298e+002 
3350000000  -3.596849e+001  -1.488451e+002 
3353125000  -3.596364e+001  -1.538742e+002 
3356250000  -3.561256e+001  -1.625450e+002 
3359375000  -3.635384e+001  -1.695775e+002 
3362500000  -3.750557e+001  -1.763451e+002 
3365625000  -3.796531e+001  -1.773948e+002 
3368750000  -3.866719e+001  1.792780e+002 
3371875000  -3.897451e+001  1.779451e+002 
3375000000  -4.048064e+001  1.752977e+002 
3378125000  -4.120821e+001  1.762480e+002 
3381250000  -4.242624e+001  -1.768104e+002 
3384375000  -4.094289e+001  -1.551924e+002 
3387500000  -3.755531e+001  -1.727991e+002 
3390625000  -3.908976e+001  1.676567e+002 
3393750000  -4.026764e+001  1.719182e+002 
3396875000  -3.920119e+001  1.731626e+002 
3400000000  -3.874264e+001  1.652302e+002 
3403125000  -3.918415e+001  1.598925e+002 
3406250000  -3.969172e+001  1.586480e+002 
3409375000  -3.965686e+001  1.519918e+002 
3412500000  -4.032319e+001  1.506931e+002 
3415625000  -4.074829e+001  1.510834e+002 
3418750000  -4.108614e+001  1.509503e+002 
3421875000  -4.130667e+001  1.544411e+002 
3425000000  -4.043717e+001  1.547327e+002 
3428125000  -3.939961e+001  1.509885e+002 
3431250000  -3.906414e+001  1.440107e+002 
3434375000  -3.906511e+001  1.388738e+002 
3437500000  -3.969427e+001  1.341881e+002 
3440625000  -4.001974e+001  1.353330e+002 
3443750000  -3.873636e+001  1.360826e+002 
3446875000  -3.783138e+001  1.275455e+002 
3450000000  -3.760711e+001  1.179976e+002 
3453125000  -3.797813e+001  1.081206e+002 
3456250000  -3.911682e+001  1.024143e+002 
3459375000  -4.009265e+001  1.027768e+002 
3462500000  -3.973011e+001  1.033357e+002 
3465625000  -3.979709e+001  9.743748e+001 
3468750000  -4.004221e+001  9.353239e+001 
3471875000  -3.999594e+001  9.196705e+001 
3475000000  -3.965470e+001  8.686404e+001 
3478125000  -4.020171e+001  7.990595e+001 
3481250000  -4.134648e+001  7.786137e+001 
3484375000  -4.210647e+001  8.111887e+001 
3487500000  -4.125837e+001  8.042700e+001 
3490625000  -4.083695e+001  7.670387e+001 
3493750000  -4.131218e+001  6.988917e+001 
3496875000  -4.149855e+001  6.709122e+001 
3500000000  -4.262408e+001  6.946235e+001 
3503125000  -4.215240e+001  7.442902e+001 
3506250000  -4.079105e+001  6.686423e+001 
3509375000  -4.072022e+001  5.661119e+001 
3512500000  -4.092347e+001  4.993156e+001 
3515625000  -4.179919e+001  4.646080e+001 
3518750000  -4.235578e+001  4.935233e+001 
3521875000  -4.266235e+001  4.418963e+001 
3525000000  -4.354642e+001  4.290970e+001 
3528125000  -4.349423e+001  4.997517e+001 
3531250000  -4.196902e+001  4.679146e+001 
3534375000  -4.190247e+001  3.653273e+001 
3537500000  -4.245174e+001  3.226804e+001 
3540625000  -4.346627e+001  3.022978e+001 
3543750000  -4.414477e+001  3.406536e+001 
3546875000  -4.451823e+001  4.547746e+001 
3550000000  -4.145834e+001  4.683217e+001 
3553125000  -4.012374e+001  3.105973e+001 
3556250000  -4.136208e+001  2.303354e+001 
3559375000  -4.141815e+001  2.492280e+001 
3562500000  -4.038837e+001  1.658386e+001 
3565625000  -4.103215e+001  7.499792e+000 
3568750000  -4.143120e+001  1.168143e+001 
3571875000  -4.124404e+001  9.425936e+000 
3575000000  -4.087345e+001  2.784710e+000 
3578125000  -4.125151e+001  -3.333210e+000 
3581250000  -4.141022e+001  -3.927862e+000 
3584375000  -4.079344e+001  -5.927527e+000 
3587500000  -4.029166e+001  -1.591740e+001 
3590625000  -4.048806e+001  -2.639923e+001 
3593750000  -4.189345e+001  -2.858445e+001 
3596875000  -4.162938e+001  -2.130322e+001 
3600000000  -4.029922e+001  -2.915968e+001 
3603125000  -4.064624e+001  -4.350404e+001 
3606250000  -4.160873e+001  -4.730124e+001 
3609375000  -4.220421e+001  -4.882035e+001 
3612500000  -4.283651e+001  -5.350991e+001 
3615625000  -4.297673e+001  -5.485185e+001 
3618750000  -4.369338e+001  -5.569232e+001 
3621875000  -4.364161e+001  -6.057568e+001 
3625000000  -4.436518e+001  -6.141517e+001 
3628125000  -4.451593e+001  -6.197941e+001 
3631250000  -4.443639e+001  -6.593538e+001 
3634375000  -4.532390e+001  -6.662473e+001 
3637500000  -4.578162e+001  -6.144300e+001 
3640625000  -4.483374e+001  -5.977728e+001 
3643750000  -4.441796e+001  -6.372061e+001 
3646875000  -4.488278e+001  -6.909270e+001 
3650000000  -4.586953e+001  -7.030650e+001 
3653125000  -4.542590e+001  -7.088235e+001 
3656250000  -4.616093e+001  -7.016144e+001 
3659375000  -4.568178e+001  -7.032741e+001 
3662500000  -4.518774e+001  -6.968794e+001 
3665625000  -4.501974e+001  -6.990652e+001 
3668750000  -4.364870e+001  -7.083936e+001 
3671875000  -4.282954e+001  -7.564149e+001 
3675000000  -4.322454e+001  -8.167980e+001 
3678125000  -4.340606e+001  -8.358567e+001 
3681250000  -4.301879e+001  -8.672116e+001 
3684375000  -4.321824e+001  -9.219165e+001 
3687500000  -4.308081e+001  -9.542019e+001 
3690625000  -4.328304e+001  -1.003230e+002 
3693750000  -4.402470e+001  -1.002993e+002 
3696875000  -4.345724e+001  -9.856263e+001 
3700000000  -4.257091e+001  -1.065315e+002 
3703125000  -4.271867e+001  -1.106928e+002 
3706250000  -4.391685e+001  -1.116088e+002 
3709375000  -4.342350e+001  -1.079763e+002 
3712500000  -4.234706e+001  -1.125581e+002 
3715625000  -4.147647e+001  -1.179539e+002 
3718750000  -4.120780e+001  -1.234644e+002 
3721875000  -4.140789e+001  -1.314936e+002 
3725000000  -4.133397e+001  -1.369850e+002 
3728125000  -4.192470e+001  -1.375415e+002 
3731250000  -4.169386e+001  -1.421223e+002 
3734375000  -4.110992e+001  -1.461543e+002 
3737500000  -4.208730e+001  -1.534218e+002 
3740625000  -4.336411e+001  -1.566339e+002 
3743750000  -4.313560e+001  -1.612056e+002 
3746875000  -4.369365e+001  -1.630603e+002 
3750000000  -4.416386e+001  -1.644031e+002 
3753125000  -4.420941e+001  -1.667028e+002 
3756250000  -4.448263e+001  -1.637129e+002 
3759375000  -4.452772e+001  -1.624678e+002 
3762500000  -4.423419e+001  -1.683769e+002 
3765625000  -4.452311e+001  -1.672794e+002 
3768750000  -4.462707e+001  -1.599322e+002 
3771875000  -4.334928e+001  -1.655219e+002 
3775000000  -4.291998e+001  -1.714396e+002 
3778125000  -4.301726e+001  -1.723628e+002 
3781250000  -4.318221e+001  -1.714535e+002 
3784375000  -4.256315e+001  -1.731657e+002 
3787500000  -4.201699e+001  -1.769444e+002 
3790625000  -4.229721e+001  1.746885e+002 
3793750000  -4.244292e+001  1.748420e+002 
3796875000  -4.121142e+001  1.769087e+002 
3800000000  -3.973478e+001  1.738442e+002 
3803125000  -4.023305e+001  1.604213e+002 
3806250000  -4.078206e+001  1.588168e+002 
3809375000  -4.024484e+001  1.578085e+002 
3812500000  -3.966646e+001  1.503546e+002 
3815625000  -4.053361e+001  1.406190e+002 
3818750000  -4.139798e+001  1.394435e+002 
3821875000  -4.125001e+001  1.474247e+002 
3825000000  -3.916789e+001  1.506723e+002 
3828125000  -3.805310e+001  1.337590e+002 
3831250000  -3.858869e+001  1.189935e+002 
3834375000  -3.991832e+001  1.179569e+002 
3837500000  -4.112083e+001  1.219691e+002 
3840625000  -3.995164e+001  1.181704e+002 
3843750000  -3.882206e+001  1.067930e+002 
3846875000  -3.972001e+001  9.968823e+001 
3850000000  -4.091396e+001  1.049744e+002 
3853125000  -4.039891e+001  1.054173e+002 
3856250000  -4.042455e+001  1.007692e+002 
3859375000  -3.980070e+001  9.715650e+001 
3862500000  -3.943153e+001  8.655344e+001 
3865625000  -3.974200e+001  8.178126e+001 
3868750000  -3.974686e+001  8.222394e+001 
3871875000  -3.926887e+001  7.873584e+001 
3875000000  -3.932940e+001  6.842059e+001 
3878125000  -4.070264e+001  6.617736e+001 
3881250000  -4.060009e+001  6.804479e+001 
3884375000  -4.042241e+001  6.487202e+001 
3887500000  -4.059022e+001  6.141898e+001 
3890625000  -4.083595e+001  5.868389e+001 
3893750000  -4.130421e+001  5.887159e+001 
3896875000  -4.145140e+001  6.002390e+001 
3900000000  -4.144380e+001  5.580819e+001 
3903125000  -4.099340e+001  5.410358e+001 
3906250000  -4.095361e+001  5.142982e+001 
3909375000  -4.024749e+001  4.840145e+001 
3912500000  -4.014405e+001  4.037926e+001 
3915625000  -4.153963e+001  4.049255e+001 
3918750000  -4.114272e+001  4.329180e+001 
3921875000  -4.058373e+001  3.856451e+001 
3925000000  -3.973122e+001  3.672761e+001 
3928125000  -3.924237e+001  2.995443e+001 
3931250000  -3.951812e+001  2.504369e+001 
3934375000  -3.979125e+001  2.442286e+001 
3937500000  -4.010289e+001  2.355818e+001 
3940625000  -4.035712e+001  1.902663e+001 
3943750000  -3.941945e+001  2.133247e+001 
3946875000  -3.840283e+001  1.428672e+001 
3950000000  -3.893060e+001  4.668849e+000 
3953125000  -4.012793e+001  4.830725e+000 
3956250000  -3.871686e+001  6.200174e+000 
3959375000  -3.761040e+001  2.352603e+000 
3962500000  -3.717904e+001  -3.142856e+000 
3965625000  -3.695768e+001  -1.254294e+001 
3968750000  -3.809385e+001  -2.066734e+001 
3971875000  -3.829020e+001  -2.362256e+001 
3975000000  -3.777174e+001  -2.675717e+001 
3978125000  -3.750500e+001  -2.839688e+001 
3981250000  -3.771579e+001  -3.295148e+001 
3984375000  -3.796086e+001  -4.091587e+001 
3987500000  -3.850354e+001  -4.316661e+001 
3990625000  -3.852847e+001  -4.506207e+001 
3993750000  -3.901497e+001  -5.074316e+001 
3996875000  -3.904961e+001  -5.359802e+001 
4000000000  -3.922913e+001  -5.485020e+001 
4003125000  -3.956105e+001  -5.233890e+001 
4006250000  -3.859035e+001  -5.303075e+001 
4009375000  -3.741557e+001  -6.685738e+001 
4012500000  -3.858367e+001  -7.376406e+001 
4015625000  -4.000267e+001  -7.220739e+001 
4018750000  -4.015424e+001  -7.165900e+001 
4021875000  -3.916074e+001  -7.328333e+001 
4025000000  -3.908763e+001  -7.907075e+001 
4028125000  -3.906372e+001  -8.283761e+001 
4031250000  -3.969548e+001  -8.702964e+001 
4034375000  -3.989028e+001  -8.594128e+001 
4037500000  -3.955825e+001  -8.510264e+001 
4040625000  -3.939231e+001  -8.788676e+001 
4043750000  -3.973810e+001  -8.859528e+001 
4046875000  -3.910521e+001  -8.981246e+001 
4050000000  -3.858909e+001  -9.645419e+001 
4053125000  -3.900403e+001  -9.831679e+001 
4056250000  -3.945910e+001  -9.526419e+001 
4059375000  -3.799489e+001  -9.480826e+001 
4062500000  -3.691163e+001  -1.004313e+002 
4065625000  -3.667577e+001  -1.049745e+002 
4068750000  -3.638751e+001  -1.114623e+002 
4071875000  -3.574206e+001  -1.198572e+002 
4075000000  -3.620857e+001  -1.278490e+002 
4078125000  -3.647691e+001  -1.288154e+002 
4081250000  -3.582740e+001  -1.329533e+002 
4084375000  -3.559866e+001  -1.399068e+002 
4087500000  -3.599807e+001  -1.478591e+002 
4090625000  -3.655309e+001  -1.499264e+002 
4093750000  -3.657494e+001  -1.503362e+002 
4096875000  -3.614689e+001  -1.569060e+002 
4100000000  -3.682999e+001  -1.646823e+002 
4103125000  -3.760775e+001  -1.649619e+002 
4106250000  -3.738871e+001  -1.604334e+002 
4109375000  -3.660891e+001  -1.636533e+002 
4112500000  -3.611532e+001  -1.699421e+002 
4115625000  -3.648780e+001  -1.773944e+002 
4118750000  -3.666756e+001  -1.796120e+002 
4121875000  -3.628675e+001  1.751885e+002 
4125000000  -3.672655e+001  1.678039e+002 
4128125000  -3.797199e+001  1.673754e+002 
4131250000  -3.752959e+001  1.756776e+002 
4134375000  -3.525130e+001  1.681801e+002 
4137500000  -3.512913e+001  1.494099e+002 
4140625000  -3.741131e+001  1.414592e+002 
4143750000  -3.894754e+001  1.465992e+002 
4146875000  -3.853693e+001  1.520411e+002 
4150000000  -3.758010e+001  1.498686e+002 
4153125000  -3.765498e+001  1.427007e+002 
4156250000  -3.863989e+001  1.376581e+002 
4159375000  -3.878578e+001  1.446396e+002 
4162500000  -3.778203e+001  1.471951e+002 
4165625000  -3.670477e+001  1.438896e+002 
4168750000  -3.598100e+001  1.353203e+002 
4171875000  -3.624078e+001  1.256487e+002 
4175000000  -3.695582e+001  1.205346e+002 
4178125000  -3.743377e+001  1.212855e+002 
4181250000  -3.716824e+001  1.200969e+002 
4184375000  -3.703256e+001  1.147343e+002 
4187500000  -3.686005e+001  1.115010e+002 
4190625000  -3.672397e+001  1.064582e+002 
4193750000  -3.753500e+001  1.019456e+002 
4196875000  -3.806999e+001  1.022556e+002 
4200000000  -3.906770e+001  1.042321e+002 
4203125000  -3.887530e+001  1.168807e+002 
4206250000  -3.517229e+001  1.171748e+002 
4209375000  -3.440399e+001  9.429699e+001 
4212500000  -3.612737e+001  8.682807e+001 
4215625000  -3.707528e+001  9.235883e+001 
4218750000  -3.564732e+001  9.766296e+001 
4221875000  -3.330587e+001  8.705902e+001 
4225000000  -3.457468e+001  7.256907e+001 
4228125000  -3.499043e+001  7.718250e+001 
4231250000  -3.344539e+001  7.300346e+001 
4234375000  -3.324471e+001  6.270581e+001 
4237500000  -3.288119e+001  5.866816e+001 
4240625000  -3.305344e+001  4.721505e+001 
4243750000  -3.399955e+001  3.969153e+001 
4246875000  -3.489413e+001  3.935974e+001 
4250000000  -3.491515e+001  4.073805e+001 
4253125000  -3.427449e+001  3.755643e+001 
4256250000  -3.469172e+001  3.174285e+001 
4259375000  -3.456369e+001  2.792871e+001 
4262500000  -3.447083e+001  2.466274e+001 
4265625000  -3.469880e+001  2.235515e+001 
4268750000  -3.390839e+001  1.847423e+001 
4271875000  -3.367578e+001  1.007265e+001 
4275000000  -3.339005e+001  3.060933e+000 
4278125000  -3.400459e+001  -9.587367e+000 
4281250000  -3.610229e+001  -1.266681e+001 
4284375000  -3.583767e+001  -1.127689e+001 
4287500000  -3.685124e+001  -1.591246e+001 
4290625000  -3.804968e+001  -6.582230e+000 
4293750000  -3.636145e+001  -1.323343e+000 
4296875000  -3.475545e+001  -1.282251e+001 
4300000000  -3.592339e+001  -2.348081e+001 
4303125000  -3.742924e+001  -1.899676e+001 
4306250000  -3.650344e+001  -1.434227e+001 
4309375000  -3.540330e+001  -1.637476e+001 
4312500000  -3.511140e+001  -2.547085e+001 
4315625000  -3.527792e+001  -3.016849e+001 
4318750000  -3.572088e+001  -3.381736e+001 
4321875000  -3.588614e+001  -3.164348e+001 
4325000000  -3.502991e+001  -3.110681e+001 
4328125000  -3.449438e+001  -3.899654e+001 
4331250000  -3.419138e+001  -4.714074e+001 
4334375000  -3.482849e+001  -5.247824e+001 
4337500000  -3.528530e+001  -5.492797e+001 
4340625000  -3.597898e+001  -5.263331e+001 
4343750000  -3.486821e+001  -5.308669e+001 
4346875000  -3.443697e+001  -5.782558e+001 
4350000000  -3.462625e+001  -6.459840e+001 
4353125000  -3.440065e+001  -7.207968e+001 
4356250000  -3.626628e+001  -7.558799e+001 
4359375000  -3.637233e+001  -6.144819e+001 
4362500000  -3.341859e+001  -6.110012e+001 
4365625000  -3.190967e+001  -7.566596e+001 
4368750000  -3.261898e+001  -8.840266e+001 
4371875000  -3.384956e+001  -8.823315e+001 
4375000000  -3.336268e+001  -8.852611e+001 
4378125000  -3.266906e+001  -9.660365e+001 
4381250000  -3.287534e+001  -1.028066e+002 
4384375000  -3.247379e+001  -1.100828e+002 
4387500000  -3.350981e+001  -1.171347e+002 
4390625000  -3.436942e+001  -1.172449e+002 
4393750000  -3.372942e+001  -1.161269e+002 
4396875000  -3.313294e+001  -1.201858e+002 
4400000000  -3.256729e+001  -1.283772e+002 
4403125000  -3.333826e+001  -1.378071e+002 
4406250000  -3.420660e+001  -1.408637e+002 
4409375000  -3.442085e+001  -1.436183e+002 
4412500000  -3.565576e+001  -1.471598e+002 
4415625000  -3.581955e+001  -1.435081e+002 
