!Agilent Technologies,E8363B,MY43030201,A.06.04.32
!Agilent E8363B: A.06.04.32
!Date: Tuesday, November 11, 2014 21:09:25
!Correction: S21(Response(S21)) 
!S1P File: Measurement: S21:
# Hz S  dB   R 50
3000000000  -3.654486e+001  -5.397878e+001 
3003125000  -3.779108e+001  -6.075328e+001 
3006250000  -3.744481e+001  -6.283041e+001 
3009375000  -3.787838e+001  -5.837508e+001 
3012500000  -3.703385e+001  -6.009464e+001 
3015625000  -3.620868e+001  -6.745286e+001 
3018750000  -3.690866e+001  -6.857958e+001 
3021875000  -3.560549e+001  -6.772971e+001 
3025000000  -3.420346e+001  -7.202603e+001 
3028125000  -3.318148e+001  -7.798860e+001 
3031250000  -3.216582e+001  -8.907665e+001 
3034375000  -3.189128e+001  -1.030386e+002 
3037500000  -3.233708e+001  -1.146321e+002 
3040625000  -3.366952e+001  -1.199990e+002 
3043750000  -3.418969e+001  -1.247353e+002 
3046875000  -3.453035e+001  -1.310451e+002 
3050000000  -3.620698e+001  -1.368089e+002 
3053125000  -3.607545e+001  -1.309920e+002 
3056250000  -3.554237e+001  -1.274234e+002 
3059375000  -3.566896e+001  -1.278108e+002 
3062500000  -3.419256e+001  -1.321967e+002 
3065625000  -3.401890e+001  -1.385494e+002 
3068750000  -3.360810e+001  -1.447007e+002 
3071875000  -3.354113e+001  -1.471212e+002 
3075000000  -3.330436e+001  -1.512020e+002 
3078125000  -3.304695e+001  -1.553286e+002 
3081250000  -3.355709e+001  -1.600820e+002 
3084375000  -3.259027e+001  -1.635195e+002 
3087500000  -3.253848e+001  -1.670038e+002 
3090625000  -3.199167e+001  -1.775595e+002 
3093750000  -3.251873e+001  1.748763e+002 
3096875000  -3.353659e+001  1.694286e+002 
3100000000  -3.338313e+001  1.672484e+002 
3103125000  -3.367185e+001  1.678036e+002 
3106250000  -3.321365e+001  1.634934e+002 
3109375000  -3.323245e+001  1.596763e+002 
3112500000  -3.319200e+001  1.570067e+002 
3115625000  -3.286248e+001  1.526967e+002 
3118750000  -3.324356e+001  1.529028e+002 
3121875000  -3.230091e+001  1.434049e+002 
3125000000  -3.360936e+001  1.396369e+002 
3128125000  -3.451707e+001  1.468537e+002 
3131250000  -3.194496e+001  1.448284e+002 
3134375000  -3.069615e+001  1.291363e+002 
3137500000  -3.138387e+001  1.156770e+002 
3140625000  -3.276931e+001  1.126537e+002 
3143750000  -3.380433e+001  1.136120e+002 
3146875000  -3.329941e+001  1.148755e+002 
3150000000  -3.227611e+001  1.151898e+002 
3153125000  -3.227422e+001  1.059574e+002 
3156250000  -3.332199e+001  1.109478e+002 
3159375000  -3.162119e+001  1.117605e+002 
3162500000  -2.967080e+001  9.710600e+001 
3165625000  -3.078728e+001  8.487554e+001 
3168750000  -3.103380e+001  8.541139e+001 
3171875000  -3.014998e+001  7.930716e+001 
3175000000  -3.095048e+001  7.041576e+001 
3178125000  -3.061082e+001  7.127129e+001 
3181250000  -2.961239e+001  6.601744e+001 
3184375000  -2.892190e+001  5.293513e+001 
3187500000  -3.005438e+001  3.808890e+001 
3190625000  -3.279419e+001  3.072441e+001 
3193750000  -3.330199e+001  3.903564e+001 
3196875000  -3.295949e+001  4.349651e+001 
3200000000  -3.194075e+001  4.040702e+001 
3203125000  -3.127751e+001  3.398531e+001 
3206250000  -3.156323e+001  2.757589e+001 
3209375000  -3.106576e+001  2.147371e+001 
3212500000  -3.131272e+001  1.448244e+001 
3215625000  -3.139202e+001  1.057772e+001 
3218750000  -3.213522e+001  3.961957e+000 
3221875000  -3.301355e+001  -2.002676e+000 
3225000000  -3.258917e+001  -3.433002e+000 
3228125000  -3.291353e+001  -8.901532e+000 
3231250000  -3.363847e+001  -1.099102e+001 
3234375000  -3.332669e+001  -1.061937e+001 
3237500000  -3.345856e+001  -1.262202e+001 
3240625000  -3.287676e+001  -1.510492e+001 
3243750000  -3.252284e+001  -2.340799e+001 
3246875000  -3.293615e+001  -3.043398e+001 
3250000000  -3.336195e+001  -3.354480e+001 
3253125000  -3.351954e+001  -3.510271e+001 
3256250000  -3.308235e+001  -4.136491e+001 
3259375000  -3.342175e+001  -4.986788e+001 
3262500000  -3.470351e+001  -5.422263e+001 
3265625000  -3.524983e+001  -5.065484e+001 
3268750000  -3.514607e+001  -4.849526e+001 
3271875000  -3.465657e+001  -4.905244e+001 
3275000000  -3.362249e+001  -5.599595e+001 
3278125000  -3.417184e+001  -6.281407e+001 
3281250000  -3.428815e+001  -6.155528e+001 
3284375000  -3.386384e+001  -6.926664e+001 
3287500000  -3.398866e+001  -7.263487e+001 
3290625000  -3.425525e+001  -7.823441e+001 
3293750000  -3.401480e+001  -8.476647e+001 
3296875000  -3.516000e+001  -8.475612e+001 
3300000000  -3.483288e+001  -8.385834e+001 
3303125000  -3.367396e+001  -8.938828e+001 
3306250000  -3.352324e+001  -9.658016e+001 
3309375000  -3.309296e+001  -1.025865e+002 
3312500000  -3.325156e+001  -1.141279e+002 
3315625000  -3.439096e+001  -1.221069e+002 
3318750000  -3.587204e+001  -1.253588e+002 
3321875000  -3.686544e+001  -1.245995e+002 
3325000000  -3.722726e+001  -1.190428e+002 
3328125000  -3.673931e+001  -1.188368e+002 
3331250000  -3.554478e+001  -1.126132e+002 
3334375000  -3.294838e+001  -1.228983e+002 
3337500000  -3.299896e+001  -1.435557e+002 
3340625000  -3.439896e+001  -1.533923e+002 
3343750000  -3.635366e+001  -1.553006e+002 
3346875000  -3.657492e+001  -1.527319e+002 
3350000000  -3.594414e+001  -1.539836e+002 
3353125000  -3.588069e+001  -1.596036e+002 
3356250000  -3.545406e+001  -1.681783e+002 
3359375000  -3.632444e+001  -1.765644e+002 
3362500000  -3.724389e+001  1.782743e+002 
3365625000  -3.781620e+001  1.772743e+002 
3368750000  -3.884013e+001  1.739883e+002 
3371875000  -3.898613e+001  1.725833e+002 
3375000000  -4.033528e+001  1.693496e+002 
3378125000  -4.106767e+001  1.689959e+002 
3381250000  -4.244565e+001  1.765799e+002 
3384375000  -4.116016e+001  -1.617623e+002 
3387500000  -3.738928e+001  -1.776279e+002 
3390625000  -3.900890e+001  1.632331e+002 
3393750000  -4.042766e+001  1.664797e+002 
3396875000  -3.910339e+001  1.675063e+002 
3400000000  -3.870913e+001  1.588014e+002 
3403125000  -3.944214e+001  1.552903e+002 
3406250000  -3.958854e+001  1.527894e+002 
3409375000  -3.969736e+001  1.450360e+002 
3412500000  -4.033319e+001  1.444579e+002 
3415625000  -4.089948e+001  1.438422e+002 
3418750000  -4.115460e+001  1.451180e+002 
3421875000  -4.119389e+001  1.486629e+002 
3425000000  -4.019888e+001  1.482883e+002 
3428125000  -3.938752e+001  1.440488e+002 
3431250000  -3.918308e+001  1.383234e+002 
3434375000  -3.922211e+001  1.320294e+002 
3437500000  -3.975026e+001  1.279676e+002 
3440625000  -3.997468e+001  1.305258e+002 
3443750000  -3.880835e+001  1.303131e+002 
3446875000  -3.783493e+001  1.220268e+002 
3450000000  -3.768899e+001  1.122371e+002 
3453125000  -3.783466e+001  1.023620e+002 
3456250000  -3.910202e+001  9.580682e+001 
3459375000  -3.995969e+001  9.645063e+001 
3462500000  -3.983160e+001  9.662574e+001 
3465625000  -3.976321e+001  9.055201e+001 
3468750000  -4.021999e+001  8.745002e+001 
3471875000  -3.989233e+001  8.620743e+001 
3475000000  -3.966428e+001  8.063982e+001 
3478125000  -4.047670e+001  7.287340e+001 
3481250000  -4.121606e+001  7.056627e+001 
3484375000  -4.245259e+001  7.503728e+001 
3487500000  -4.120521e+001  7.404771e+001 
3490625000  -4.077048e+001  6.932219e+001 
3493750000  -4.127718e+001  6.431415e+001 
3496875000  -4.181864e+001  6.153400e+001 
3500000000  -4.212129e+001  6.378107e+001 
3503125000  -4.181475e+001  6.648699e+001 
3506250000  -4.058184e+001  6.069757e+001 
3509375000  -4.053341e+001  5.233628e+001 
3512500000  -4.107713e+001  4.250199e+001 
3515625000  -4.181542e+001  4.075287e+001 
3518750000  -4.256853e+001  4.037296e+001 
3521875000  -4.258822e+001  3.957875e+001 
3525000000  -4.326581e+001  3.764326e+001 
3528125000  -4.350165e+001  4.318465e+001 
3531250000  -4.208611e+001  4.049564e+001 
3534375000  -4.194665e+001  3.115737e+001 
3537500000  -4.222567e+001  2.641805e+001 
3540625000  -4.348577e+001  2.505647e+001 
3543750000  -4.404015e+001  3.004991e+001 
3546875000  -4.400709e+001  4.169974e+001 
3550000000  -4.144927e+001  4.109955e+001 
3553125000  -4.007178e+001  2.321585e+001 
3556250000  -4.155301e+001  1.860649e+001 
3559375000  -4.119846e+001  1.661035e+001 
3562500000  -4.014865e+001  8.646176e+000 
3565625000  -4.137926e+001  2.284875e+000 
3568750000  -4.129421e+001  4.814924e+000 
3571875000  -4.115076e+001  3.539351e+000 
3575000000  -4.066772e+001  -3.961009e+000 
3578125000  -4.124937e+001  -9.990767e+000 
3581250000  -4.131170e+001  -9.926787e+000 
3584375000  -4.037454e+001  -1.321230e+001 
3587500000  -3.966060e+001  -2.229364e+001 
3590625000  -4.037442e+001  -3.090035e+001 
3593750000  -4.184847e+001  -3.403650e+001 
3596875000  -4.148491e+001  -2.630538e+001 
3600000000  -4.017717e+001  -3.171409e+001 
3603125000  -4.070992e+001  -4.672394e+001 
3606250000  -4.153663e+001  -5.278293e+001 
3609375000  -4.180271e+001  -5.536217e+001 
3612500000  -4.272064e+001  -5.742960e+001 
3615625000  -4.297941e+001  -6.298558e+001 
3618750000  -4.333902e+001  -6.124348e+001 
3621875000  -4.363044e+001  -6.400225e+001 
3625000000  -4.412462e+001  -6.405584e+001 
3628125000  -4.404192e+001  -6.555878e+001 
3631250000  -4.396416e+001  -7.229606e+001 
3634375000  -4.540944e+001  -7.115406e+001 
3637500000  -4.531203e+001  -6.641348e+001 
3640625000  -4.463568e+001  -6.642593e+001 
3643750000  -4.432817e+001  -7.189828e+001 
3646875000  -4.492778e+001  -7.800976e+001 
3650000000  -4.584880e+001  -7.735449e+001 
3653125000  -4.540992e+001  -7.913850e+001 
3656250000  -4.534056e+001  -7.922127e+001 
3659375000  -4.578811e+001  -7.442972e+001 
3662500000  -4.521951e+001  -7.501777e+001 
3665625000  -4.496112e+001  -7.643533e+001 
3668750000  -4.373347e+001  -7.696829e+001 
3671875000  -4.244404e+001  -8.566226e+001 
3675000000  -4.265268e+001  -9.066012e+001 
3678125000  -4.344281e+001  -9.152414e+001 
3681250000  -4.286138e+001  -9.299252e+001 
3684375000  -4.291335e+001  -9.812068e+001 
3687500000  -4.318071e+001  -1.034185e+002 
3690625000  -4.318147e+001  -1.078781e+002 
3693750000  -4.371962e+001  -1.098281e+002 
3696875000  -4.333968e+001  -1.063991e+002 
3700000000  -4.241732e+001  -1.135675e+002 
3703125000  -4.287899e+001  -1.170872e+002 
3706250000  -4.342455e+001  -1.157881e+002 
3709375000  -4.302118e+001  -1.171148e+002 
3712500000  -4.235276e+001  -1.165987e+002 
3715625000  -4.130390e+001  -1.267771e+002 
3718750000  -4.108104e+001  -1.325969e+002 
3721875000  -4.111444e+001  -1.375111e+002 
3725000000  -4.133882e+001  -1.421361e+002 
3728125000  -4.179676e+001  -1.456945e+002 
3731250000  -4.148732e+001  -1.481261e+002 
3734375000  -4.118961e+001  -1.532348e+002 
3737500000  -4.209519e+001  -1.613106e+002 
3740625000  -4.282578e+001  -1.656421e+002 
3743750000  -4.300507e+001  -1.671448e+002 
3746875000  -4.327705e+001  -1.717332e+002 
3750000000  -4.374918e+001  -1.716014e+002 
3753125000  -4.438146e+001  -1.725597e+002 
3756250000  -4.415125e+001  -1.701250e+002 
3759375000  -4.441959e+001  -1.702784e+002 
3762500000  -4.385468e+001  -1.757693e+002 
3765625000  -4.473908e+001  -1.724313e+002 
3768750000  -4.472633e+001  -1.705276e+002 
3771875000  -4.321442e+001  -1.751860e+002 
3775000000  -4.286240e+001  -1.795637e+002 
3778125000  -4.339612e+001  1.797031e+002 
3781250000  -4.294319e+001  -1.794008e+002 
3784375000  -4.272320e+001  1.790665e+002 
3787500000  -4.189504e+001  1.752612e+002 
3790625000  -4.231628e+001  1.667546e+002 
3793750000  -4.224573e+001  1.685221e+002 
3796875000  -4.141766e+001  1.665378e+002 
3800000000  -3.976704e+001  1.648425e+002 
3803125000  -4.022599e+001  1.542237e+002 
3806250000  -4.098420e+001  1.511851e+002 
3809375000  -4.044371e+001  1.487604e+002 
3812500000  -3.997069e+001  1.432307e+002 
3815625000  -4.056720e+001  1.313750e+002 
3818750000  -4.163884e+001  1.329170e+002 
3821875000  -4.148674e+001  1.428988e+002 
3825000000  -3.942939e+001  1.439892e+002 
3828125000  -3.806309e+001  1.275233e+002 
3831250000  -3.880552e+001  1.124448e+002 
3834375000  -4.049808e+001  1.103305e+002 
3837500000  -4.135226e+001  1.145936e+002 
3840625000  -4.002701e+001  1.132551e+002 
3843750000  -3.883071e+001  1.016370e+002 
3846875000  -3.975917e+001  9.357105e+001 
3850000000  -4.107907e+001  9.997065e+001 
3853125000  -4.015115e+001  1.012869e+002 
3856250000  -4.023046e+001  9.449202e+001 
3859375000  -3.960780e+001  8.979750e+001 
3862500000  -3.952314e+001  8.054459e+001 
3865625000  -3.953669e+001  7.643233e+001 
3868750000  -3.967707e+001  7.532346e+001 
3871875000  -3.901625e+001  7.145007e+001 
3875000000  -3.935339e+001  6.127067e+001 
3878125000  -4.065516e+001  6.140584e+001 
3881250000  -4.074075e+001  6.296449e+001 
3884375000  -4.011392e+001  5.721603e+001 
3887500000  -4.028036e+001  5.346081e+001 
3890625000  -4.106586e+001  4.955933e+001 
3893750000  -4.106137e+001  4.652359e+001 
3896875000  -4.185785e+001  4.972622e+001 
3900000000  -4.162101e+001  4.787973e+001 
3903125000  -4.110188e+001  4.536934e+001 
3906250000  -4.062501e+001  4.494415e+001 
3909375000  -4.012863e+001  4.082632e+001 
3912500000  -4.025977e+001  3.294510e+001 
3915625000  -4.139389e+001  3.370970e+001 
3918750000  -4.131269e+001  3.593087e+001 
3921875000  -4.074561e+001  3.272282e+001 
3925000000  -3.978432e+001  2.922936e+001 
3928125000  -3.906711e+001  2.260472e+001 
3931250000  -3.962816e+001  1.806679e+001 
3934375000  -4.017082e+001  1.635171e+001 
3937500000  -4.027193e+001  1.600184e+001 
3940625000  -4.045667e+001  1.143227e+001 
3943750000  -3.956662e+001  1.486149e+001 
3946875000  -3.833976e+001  7.110796e+000 
3950000000  -3.903381e+001  -3.020555e+000 
3953125000  -4.001413e+001  -4.297559e+000 
3956250000  -3.907282e+001  -1.328351e+000 
3959375000  -3.803934e+001  -4.125579e+000 
3962500000  -3.758522e+001  -7.850532e+000 
3965625000  -3.724021e+001  -1.996745e+001 
3968750000  -3.835469e+001  -2.756559e+001 
3971875000  -3.858085e+001  -3.039398e+001 
3975000000  -3.798347e+001  -3.164427e+001 
3978125000  -3.791673e+001  -3.556088e+001 
3981250000  -3.773311e+001  -4.005635e+001 
3984375000  -3.800919e+001  -4.737259e+001 
3987500000  -3.855312e+001  -4.831256e+001 
3990625000  -3.879418e+001  -5.020977e+001 
3993750000  -3.890797e+001  -5.561579e+001 
3996875000  -3.887663e+001  -5.843209e+001 
4000000000  -3.924220e+001  -5.915628e+001 
4003125000  -3.974314e+001  -5.827141e+001 
4006250000  -3.831794e+001  -6.032325e+001 
4009375000  -3.723637e+001  -7.326390e+001 
4012500000  -3.855561e+001  -7.871355e+001 
4015625000  -4.001654e+001  -8.017841e+001 
4018750000  -4.022144e+001  -7.713007e+001 
4021875000  -3.910709e+001  -7.992262e+001 
4025000000  -3.912929e+001  -8.670161e+001 
4028125000  -3.894022e+001  -8.934164e+001 
4031250000  -3.940479e+001  -9.264057e+001 
4034375000  -3.985948e+001  -9.286050e+001 
4037500000  -3.910457e+001  -9.259773e+001 
4040625000  -3.922381e+001  -9.697830e+001 
4043750000  -3.936897e+001  -9.745058e+001 
4046875000  -3.902001e+001  -9.867065e+001 
4050000000  -3.842094e+001  -1.058839e+002 
4053125000  -3.927407e+001  -1.068184e+002 
4056250000  -3.958184e+001  -1.041087e+002 
4059375000  -3.805444e+001  -1.019218e+002 
4062500000  -3.652918e+001  -1.087646e+002 
4065625000  -3.666038e+001  -1.123314e+002 
4068750000  -3.637607e+001  -1.197753e+002 
4071875000  -3.568338e+001  -1.289446e+002 
4075000000  -3.623587e+001  -1.353041e+002 
4078125000  -3.674194e+001  -1.371988e+002 
4081250000  -3.601994e+001  -1.406550e+002 
4084375000  -3.566973e+001  -1.487019e+002 
4087500000  -3.618396e+001  -1.544565e+002 
4090625000  -3.681549e+001  -1.558488e+002 
4093750000  -3.649404e+001  -1.570655e+002 
4096875000  -3.620036e+001  -1.640180e+002 
4100000000  -3.699760e+001  -1.716156e+002 
4103125000  -3.789169e+001  -1.718667e+002 
4106250000  -3.756060e+001  -1.671060e+002 
4109375000  -3.670316e+001  -1.696885e+002 
4112500000  -3.627326e+001  -1.773851e+002 
4115625000  -3.658561e+001  1.785713e+002 
4118750000  -3.684724e+001  1.740581e+002 
4121875000  -3.630051e+001  1.693808e+002 
4125000000  -3.674392e+001  1.628620e+002 
4128125000  -3.787289e+001  1.631985e+002 
4131250000  -3.748560e+001  1.700670e+002 
4134375000  -3.507263e+001  1.627280e+002 
4137500000  -3.509204e+001  1.429626e+002 
4140625000  -3.733472e+001  1.368743e+002 
4143750000  -3.879288e+001  1.415606e+002 
4146875000  -3.842362e+001  1.473463e+002 
4150000000  -3.759798e+001  1.433751e+002 
4153125000  -3.745009e+001  1.356712e+002 
4156250000  -3.837585e+001  1.320938e+002 
4159375000  -3.868090e+001  1.385714e+002 
4162500000  -3.757207e+001  1.429974e+002 
4165625000  -3.655196e+001  1.367847e+002 
4168750000  -3.572413e+001  1.287079e+002 
4171875000  -3.572435e+001  1.181155e+002 
4175000000  -3.670387e+001  1.124717e+002 
4178125000  -3.715088e+001  1.130074e+002 
4181250000  -3.695119e+001  1.122726e+002 
4184375000  -3.669815e+001  1.076896e+002 
4187500000  -3.676344e+001  1.043310e+002 
4190625000  -3.654774e+001  9.852769e+001 
4193750000  -3.743235e+001  9.497431e+001 
4196875000  -3.815953e+001  9.422653e+001 
4200000000  -3.904945e+001  9.492046e+001 
4203125000  -3.854596e+001  1.100886e+002 
4206250000  -3.512828e+001  1.084839e+002 
4209375000  -3.423103e+001  8.604839e+001 
4212500000  -3.622813e+001  7.859247e+001 
4215625000  -3.689612e+001  8.501426e+001 
4218750000  -3.560891e+001  8.857690e+001 
4221875000  -3.335548e+001  7.990094e+001 
4225000000  -3.486919e+001  6.567773e+001 
4228125000  -3.502779e+001  7.015001e+001 
4231250000  -3.354850e+001  6.485699e+001 
4234375000  -3.341063e+001  5.537949e+001 
4237500000  -3.307666e+001  5.106731e+001 
4240625000  -3.322448e+001  4.026290e+001 
4243750000  -3.400246e+001  3.357935e+001 
4246875000  -3.494617e+001  3.256750e+001 
4250000000  -3.488049e+001  3.392152e+001 
4253125000  -3.454087e+001  3.033289e+001 
4256250000  -3.471699e+001  2.606724e+001 
4259375000  -3.447355e+001  2.165244e+001 
4262500000  -3.457383e+001  1.763597e+001 
4265625000  -3.480587e+001  1.597091e+001 
4268750000  -3.395566e+001  1.214633e+001 
4271875000  -3.383934e+001  4.176940e+000 
4275000000  -3.327161e+001  -4.048365e+000 
4278125000  -3.410090e+001  -1.469310e+001 
4281250000  -3.582766e+001  -1.748574e+001 
4284375000  -3.571582e+001  -1.650645e+001 
4287500000  -3.650520e+001  -2.099663e+001 
4290625000  -3.827545e+001  -1.185043e+001 
4293750000  -3.614202e+001  -7.149912e+000 
4296875000  -3.486579e+001  -1.850235e+001 
4300000000  -3.584518e+001  -2.708274e+001 
4303125000  -3.707853e+001  -2.585795e+001 
4306250000  -3.618767e+001  -2.027132e+001 
4309375000  -3.480635e+001  -2.339400e+001 
4312500000  -3.487336e+001  -3.104305e+001 
4315625000  -3.501408e+001  -3.692351e+001 
4318750000  -3.530956e+001  -4.072023e+001 
4321875000  -3.535641e+001  -3.919045e+001 
4325000000  -3.483352e+001  -3.984945e+001 
4328125000  -3.398772e+001  -4.692533e+001 
4331250000  -3.404282e+001  -5.544509e+001 
4334375000  -3.447983e+001  -6.035813e+001 
4337500000  -3.522884e+001  -6.334454e+001 
4340625000  -3.566995e+001  -5.908570e+001 
4343750000  -3.475409e+001  -6.089747e+001 
4346875000  -3.421896e+001  -6.723312e+001 
4350000000  -3.428175e+001  -7.270707e+001 
4353125000  -3.421741e+001  -8.162103e+001 
4356250000  -3.612001e+001  -8.277922e+001 
4359375000  -3.639131e+001  -6.878757e+001 
4362500000  -3.319640e+001  -6.963280e+001 
4365625000  -3.200909e+001  -8.365042e+001 
4368750000  -3.264300e+001  -9.637395e+001 
4371875000  -3.369362e+001  -9.645396e+001 
4375000000  -3.327876e+001  -9.789915e+001 
4378125000  -3.273219e+001  -1.046944e+002 
4381250000  -3.283663e+001  -1.114271e+002 
4384375000  -3.266885e+001  -1.176919e+002 
4387500000  -3.355146e+001  -1.249325e+002 
4390625000  -3.428301e+001  -1.249733e+002 
4393750000  -3.386858e+001  -1.237575e+002 
4396875000  -3.332085e+001  -1.266173e+002 
4400000000  -3.274366e+001  -1.364283e+002 
4403125000  -3.356526e+001  -1.441659e+002 
4406250000  -3.422973e+001  -1.466634e+002 
4409375000  -3.426059e+001  -1.497586e+002 
4412500000  -3.561936e+001  -1.534670e+002 
4415625000  -3.567877e+001  -1.499318e+002 
