!Agilent Technologies,E8363B,MY43030201,A.06.04.32
!Agilent E8363B: A.06.04.32
!Date: Tuesday, November 11, 2014 21:00:43
!Correction: S21(Response(S21)) 
!S1P File: Measurement: S21:
# Hz S  dB   R 50
3000000000  -3.628148e+001  -4.403616e+001 
3003125000  -3.734790e+001  -4.968275e+001 
3006250000  -3.717516e+001  -5.275874e+001 
3009375000  -3.762566e+001  -4.851492e+001 
3012500000  -3.684757e+001  -4.949407e+001 
3015625000  -3.584726e+001  -5.703746e+001 
3018750000  -3.668077e+001  -5.872792e+001 
3021875000  -3.535881e+001  -5.768594e+001 
3025000000  -3.398870e+001  -6.149217e+001 
3028125000  -3.305686e+001  -6.732005e+001 
3031250000  -3.204879e+001  -7.904647e+001 
3034375000  -3.162024e+001  -9.253709e+001 
3037500000  -3.203203e+001  -1.039914e+002 
3040625000  -3.341437e+001  -1.093982e+002 
3043750000  -3.410241e+001  -1.143394e+002 
3046875000  -3.425797e+001  -1.211472e+002 
3050000000  -3.592007e+001  -1.275209e+002 
3053125000  -3.593665e+001  -1.205588e+002 
3056250000  -3.533322e+001  -1.177569e+002 
3059375000  -3.555105e+001  -1.175787e+002 
3062500000  -3.414684e+001  -1.212343e+002 
3065625000  -3.387605e+001  -1.276357e+002 
3068750000  -3.354314e+001  -1.344962e+002 
3071875000  -3.335525e+001  -1.375083e+002 
3075000000  -3.314917e+001  -1.412273e+002 
3078125000  -3.295186e+001  -1.454078e+002 
3081250000  -3.352701e+001  -1.494853e+002 
3084375000  -3.257388e+001  -1.534276e+002 
3087500000  -3.242382e+001  -1.572850e+002 
3090625000  -3.195565e+001  -1.670352e+002 
3093750000  -3.230057e+001  -1.745456e+002 
3096875000  -3.342422e+001  1.793968e+002 
3100000000  -3.329214e+001  1.771475e+002 
3103125000  -3.365177e+001  1.776041e+002 
3106250000  -3.319085e+001  1.738346e+002 
3109375000  -3.332271e+001  1.702481e+002 
3112500000  -3.319538e+001  1.676982e+002 
3115625000  -3.295902e+001  1.634718e+002 
3118750000  -3.319445e+001  1.634920e+002 
3121875000  -3.237952e+001  1.541525e+002 
3125000000  -3.347855e+001  1.498576e+002 
3128125000  -3.458205e+001  1.564316e+002 
3131250000  -3.209194e+001  1.552575e+002 
3134375000  -3.076961e+001  1.402465e+002 
3137500000  -3.137712e+001  1.256150e+002 
3140625000  -3.285306e+001  1.228068e+002 
3143750000  -3.398387e+001  1.250143e+002 
3146875000  -3.334512e+001  1.252505e+002 
3150000000  -3.230461e+001  1.256001e+002 
3153125000  -3.241381e+001  1.163843e+002 
3156250000  -3.341552e+001  1.208625e+002 
3159375000  -3.173888e+001  1.224996e+002 
3162500000  -2.968997e+001  1.078145e+002 
3165625000  -3.085070e+001  9.543430e+001 
3168750000  -3.107151e+001  9.562186e+001 
3171875000  -3.028444e+001  9.021358e+001 
3175000000  -3.096834e+001  8.164046e+001 
3178125000  -3.076358e+001  8.228214e+001 
3181250000  -2.958392e+001  7.731917e+001 
3184375000  -2.889378e+001  6.456641e+001 
3187500000  -3.005687e+001  4.805827e+001 
3190625000  -3.282272e+001  4.046346e+001 
3193750000  -3.346631e+001  4.927184e+001 
3196875000  -3.303871e+001  5.505904e+001 
3200000000  -3.227003e+001  5.180916e+001 
3203125000  -3.137107e+001  4.537094e+001 
3206250000  -3.172443e+001  3.870828e+001 
3209375000  -3.119908e+001  3.284275e+001 
3212500000  -3.144318e+001  2.602419e+001 
3215625000  -3.144388e+001  2.124687e+001 
3218750000  -3.232621e+001  1.404256e+001 
3221875000  -3.313811e+001  9.304865e+000 
3225000000  -3.270150e+001  7.963673e+000 
3228125000  -3.307115e+001  2.373046e+000 
3231250000  -3.372773e+001  1.160936e-001 
3234375000  -3.347926e+001  4.205874e-002 
3237500000  -3.351717e+001  -1.604968e+000 
3240625000  -3.320185e+001  -4.126955e+000 
3243750000  -3.274464e+001  -1.140070e+001 
3246875000  -3.317066e+001  -1.890991e+001 
3250000000  -3.353361e+001  -2.122244e+001 
3253125000  -3.366231e+001  -2.324679e+001 
3256250000  -3.335152e+001  -3.007505e+001 
3259375000  -3.362543e+001  -3.852005e+001 
3262500000  -3.481882e+001  -4.208983e+001 
3265625000  -3.540552e+001  -3.960886e+001 
3268750000  -3.527911e+001  -3.779898e+001 
3271875000  -3.501805e+001  -3.804019e+001 
3275000000  -3.388320e+001  -4.420411e+001 
3278125000  -3.426802e+001  -5.064261e+001 
3281250000  -3.460364e+001  -4.982235e+001 
3284375000  -3.399910e+001  -5.697461e+001 
3287500000  -3.427222e+001  -6.046623e+001 
3290625000  -3.453553e+001  -6.642164e+001 
3293750000  -3.432425e+001  -7.164225e+001 
3296875000  -3.534928e+001  -7.324024e+001 
3300000000  -3.517333e+001  -7.167821e+001 
3303125000  -3.394046e+001  -7.716597e+001 
3306250000  -3.371670e+001  -8.485719e+001 
3309375000  -3.336808e+001  -9.056548e+001 
3312500000  -3.353127e+001  -1.012814e+002 
3315625000  -3.443839e+001  -1.092449e+002 
3318750000  -3.581211e+001  -1.119222e+002 
3321875000  -3.705931e+001  -1.135079e+002 
3325000000  -3.743138e+001  -1.086673e+002 
3328125000  -3.724386e+001  -1.084192e+002 
3331250000  -3.586819e+001  -1.006512e+002 
3334375000  -3.328390e+001  -1.107511e+002 
3337500000  -3.324526e+001  -1.298485e+002 
3340625000  -3.472471e+001  -1.410513e+002 
3343750000  -3.653387e+001  -1.418151e+002 
3346875000  -3.690297e+001  -1.412232e+002 
3350000000  -3.618579e+001  -1.412899e+002 
3353125000  -3.624740e+001  -1.466456e+002 
3356250000  -3.584112e+001  -1.550448e+002 
3359375000  -3.665351e+001  -1.630492e+002 
3362500000  -3.773874e+001  -1.689840e+002 
3365625000  -3.817665e+001  -1.701244e+002 
3368750000  -3.903580e+001  -1.722735e+002 
3371875000  -3.922989e+001  -1.748873e+002 
3375000000  -4.069316e+001  -1.783013e+002 
3378125000  -4.145186e+001  -1.789833e+002 
3381250000  -4.258475e+001  -1.700878e+002 
3384375000  -4.154172e+001  -1.491096e+002 
3387500000  -3.775930e+001  -1.624136e+002 
3390625000  -3.922057e+001  1.761110e+002 
3393750000  -4.056112e+001  1.793916e+002 
3396875000  -3.960362e+001  -1.776899e+002 
3400000000  -3.874792e+001  1.741696e+002 
3403125000  -3.927391e+001  1.677181e+002 
3406250000  -3.986503e+001  1.685236e+002 
3409375000  -4.005860e+001  1.599721e+002 
3412500000  -4.048569e+001  1.576369e+002 
3415625000  -4.115828e+001  1.584240e+002 
3418750000  -4.123034e+001  1.610700e+002 
3421875000  -4.141267e+001  1.641179e+002 
3425000000  -4.035234e+001  1.627507e+002 
3428125000  -3.943038e+001  1.578928e+002 
3431250000  -3.946858e+001  1.518690e+002 
3434375000  -3.946743e+001  1.455586e+002 
3437500000  -3.989595e+001  1.423657e+002 
3440625000  -3.998957e+001  1.422648e+002 
3443750000  -3.875602e+001  1.442436e+002 
3446875000  -3.782421e+001  1.368639e+002 
3450000000  -3.764962e+001  1.268151e+002 
3453125000  -3.806169e+001  1.170747e+002 
3456250000  -3.913652e+001  1.110036e+002 
3459375000  -3.998760e+001  1.110701e+002 
3462500000  -3.997757e+001  1.101398e+002 
3465625000  -3.980450e+001  1.056607e+002 
3468750000  -4.027156e+001  1.017629e+002 
3471875000  -4.016186e+001  9.993924e+001 
3475000000  -3.965928e+001  9.454913e+001 
3478125000  -4.038546e+001  8.766430e+001 
3481250000  -4.115631e+001  8.481570e+001 
3484375000  -4.227884e+001  8.862006e+001 
3487500000  -4.135960e+001  8.839984e+001 
3490625000  -4.078219e+001  8.435647e+001 
3493750000  -4.127091e+001  7.629128e+001 
3496875000  -4.179956e+001  7.402156e+001 
3500000000  -4.239321e+001  7.832341e+001 
3503125000  -4.183118e+001  7.737148e+001 
3506250000  -4.078039e+001  7.545442e+001 
3509375000  -4.077003e+001  6.562160e+001 
3512500000  -4.128082e+001  5.543521e+001 
3515625000  -4.178556e+001  5.390628e+001 
3518750000  -4.253971e+001  5.444681e+001 
3521875000  -4.290313e+001  5.198671e+001 
3525000000  -4.357775e+001  4.806404e+001 
3528125000  -4.386642e+001  5.433556e+001 
3531250000  -4.225346e+001  5.360521e+001 
3534375000  -4.224067e+001  4.378885e+001 
3537500000  -4.254220e+001  3.916492e+001 
3540625000  -4.348279e+001  3.640820e+001 
3543750000  -4.437384e+001  4.187040e+001 
3546875000  -4.430027e+001  5.163398e+001 
3550000000  -4.157929e+001  5.404097e+001 
3553125000  -4.048304e+001  3.724059e+001 
3556250000  -4.154195e+001  2.826626e+001 
3559375000  -4.168110e+001  3.060748e+001 
3562500000  -4.041111e+001  2.286398e+001 
3565625000  -4.125307e+001  1.604593e+001 
3568750000  -4.162161e+001  1.686391e+001 
3571875000  -4.149372e+001  1.533931e+001 
3575000000  -4.111705e+001  8.849324e+000 
3578125000  -4.140437e+001  2.756324e+000 
3581250000  -4.161637e+001  3.381824e+000 
3584375000  -4.078367e+001  -6.972017e-001 
3587500000  -4.016411e+001  -8.204945e+000 
3590625000  -4.071682e+001  -1.894113e+001 
3593750000  -4.212300e+001  -2.066024e+001 
3596875000  -4.199008e+001  -1.501205e+001 
3600000000  -4.066422e+001  -2.019934e+001 
3603125000  -4.094344e+001  -3.642978e+001 
3606250000  -4.210677e+001  -4.065391e+001 
3609375000  -4.234595e+001  -4.193030e+001 
3612500000  -4.329860e+001  -4.606556e+001 
3615625000  -4.287626e+001  -4.910178e+001 
3618750000  -4.425664e+001  -4.810044e+001 
3621875000  -4.424079e+001  -5.221086e+001 
3625000000  -4.455445e+001  -5.051342e+001 
3628125000  -4.495277e+001  -5.582270e+001 
3631250000  -4.465308e+001  -5.977377e+001 
3634375000  -4.634752e+001  -6.195357e+001 
3637500000  -4.622132e+001  -5.071408e+001 
3640625000  -4.544263e+001  -4.933035e+001 
3643750000  -4.512033e+001  -5.563429e+001 
3646875000  -4.598983e+001  -5.941670e+001 
3650000000  -4.676669e+001  -6.447511e+001 
3653125000  -4.627177e+001  -6.168541e+001 
3656250000  -4.652946e+001  -6.166195e+001 
3659375000  -4.677476e+001  -5.929025e+001 
3662500000  -4.648765e+001  -5.873873e+001 
3665625000  -4.538386e+001  -6.097313e+001 
3668750000  -4.464254e+001  -6.041665e+001 
3671875000  -4.368644e+001  -6.623077e+001 
3675000000  -4.356786e+001  -7.276289e+001 
3678125000  -4.367675e+001  -7.501232e+001 
3681250000  -4.354819e+001  -7.562524e+001 
3684375000  -4.352086e+001  -8.252164e+001 
3687500000  -4.333319e+001  -8.559445e+001 
3690625000  -4.355573e+001  -9.063303e+001 
3693750000  -4.424821e+001  -8.994659e+001 
3696875000  -4.422906e+001  -8.784623e+001 
3700000000  -4.309854e+001  -9.489964e+001 
3703125000  -4.352922e+001  -9.966185e+001 
3706250000  -4.438739e+001  -9.685503e+001 
3709375000  -4.416660e+001  -9.535774e+001 
3712500000  -4.264709e+001  -1.018812e+002 
3715625000  -4.213222e+001  -1.090000e+002 
3718750000  -4.165450e+001  -1.136019e+002 
3721875000  -4.152454e+001  -1.187851e+002 
3725000000  -4.196209e+001  -1.268311e+002 
3728125000  -4.251262e+001  -1.268294e+002 
3731250000  -4.196884e+001  -1.311100e+002 
3734375000  -4.172714e+001  -1.346553e+002 
3737500000  -4.250412e+001  -1.440883e+002 
3740625000  -4.379604e+001  -1.444875e+002 
3743750000  -4.357064e+001  -1.497090e+002 
3746875000  -4.369276e+001  -1.511087e+002 
3750000000  -4.437035e+001  -1.505543e+002 
3753125000  -4.441169e+001  -1.520306e+002 
3756250000  -4.460129e+001  -1.483181e+002 
3759375000  -4.491398e+001  -1.499634e+002 
3762500000  -4.410737e+001  -1.545564e+002 
3765625000  -4.472413e+001  -1.525699e+002 
3768750000  -4.484237e+001  -1.496967e+002 
3771875000  -4.297776e+001  -1.508152e+002 
3775000000  -4.314346e+001  -1.559675e+002 
3778125000  -4.312960e+001  -1.581048e+002 
3781250000  -4.285410e+001  -1.587939e+002 
3784375000  -4.275462e+001  -1.601135e+002 
3787500000  -4.168839e+001  -1.638569e+002 
3790625000  -4.249019e+001  -1.713225e+002 
3793750000  -4.214820e+001  -1.709372e+002 
3796875000  -4.078247e+001  -1.741316e+002 
3800000000  -3.949796e+001  -1.763098e+002 
3803125000  -4.003560e+001  1.722276e+002 
3806250000  -4.085232e+001  1.737611e+002 
3809375000  -4.060256e+001  1.673902e+002 
3812500000  -3.948131e+001  1.620757e+002 
3815625000  -4.009174e+001  1.522243e+002 
3818750000  -4.133509e+001  1.516730e+002 
3821875000  -4.107978e+001  1.574863e+002 
3825000000  -3.925465e+001  1.603560e+002 
3828125000  -3.789938e+001  1.461756e+002 
3831250000  -3.859126e+001  1.306322e+002 
3834375000  -4.013155e+001  1.292082e+002 
3837500000  -4.077453e+001  1.348481e+002 
3840625000  -3.972709e+001  1.298497e+002 
3843750000  -3.878892e+001  1.203825e+002 
3846875000  -3.953597e+001  1.117864e+002 
3850000000  -4.091343e+001  1.156163e+002 
3853125000  -3.978059e+001  1.213972e+002 
3856250000  -3.993606e+001  1.116070e+002 
3859375000  -3.958946e+001  1.053785e+002 
3862500000  -3.917271e+001  9.971404e+001 
3865625000  -3.938518e+001  9.481136e+001 
3868750000  -3.941780e+001  9.308724e+001 
3871875000  -3.895750e+001  8.995214e+001 
3875000000  -3.885815e+001  7.999327e+001 
3878125000  -4.043602e+001  7.776287e+001 
3881250000  -4.033792e+001  8.038725e+001 
3884375000  -3.992139e+001  7.533533e+001 
3887500000  -4.007543e+001  7.276188e+001 
3890625000  -4.049220e+001  6.812860e+001 
3893750000  -4.081527e+001  6.574121e+001 
3896875000  -4.118202e+001  6.805877e+001 
3900000000  -4.137447e+001  6.674049e+001 
3903125000  -4.094800e+001  6.079638e+001 
3906250000  -4.056411e+001  6.244393e+001 
3909375000  -3.985305e+001  5.915800e+001 
3912500000  -3.979942e+001  4.965940e+001 
3915625000  -4.106493e+001  5.119988e+001 
3918750000  -4.086605e+001  5.188963e+001 
3921875000  -4.041545e+001  4.902690e+001 
3925000000  -3.954727e+001  4.786236e+001 
3928125000  -3.907667e+001  4.033036e+001 
3931250000  -3.955544e+001  3.440483e+001 
3934375000  -3.966201e+001  3.309364e+001 
3937500000  -3.981416e+001  3.107221e+001 
3940625000  -4.034093e+001  3.084793e+001 
3943750000  -3.915491e+001  3.004577e+001 
3946875000  -3.814962e+001  2.438046e+001 
3950000000  -3.881701e+001  1.591300e+001 
3953125000  -3.984799e+001  1.531579e+001 
3956250000  -3.866045e+001  1.574697e+001 
3959375000  -3.766014e+001  1.163541e+001 
3962500000  -3.727545e+001  7.972721e+000 
3965625000  -3.722933e+001  -2.159596e+000 
3968750000  -3.820840e+001  -1.047243e+001 
3971875000  -3.834718e+001  -1.352007e+001 
3975000000  -3.761338e+001  -1.444707e+001 
3978125000  -3.747225e+001  -1.816533e+001 
3981250000  -3.767633e+001  -2.333768e+001 
3984375000  -3.777721e+001  -2.886416e+001 
3987500000  -3.821601e+001  -3.175826e+001 
3990625000  -3.836317e+001  -3.462536e+001 
3993750000  -3.873833e+001  -3.860148e+001 
3996875000  -3.874222e+001  -4.216349e+001 
4000000000  -3.896112e+001  -4.457116e+001 
4003125000  -3.955877e+001  -4.208004e+001 
4006250000  -3.809913e+001  -4.349621e+001 
4009375000  -3.693404e+001  -5.609990e+001 
4012500000  -3.826302e+001  -6.311982e+001 
4015625000  -3.953352e+001  -6.368946e+001 
4018750000  -3.961949e+001  -6.034370e+001 
4021875000  -3.896850e+001  -6.402086e+001 
4025000000  -3.868187e+001  -6.878773e+001 
4028125000  -3.861702e+001  -7.255325e+001 
4031250000  -3.924817e+001  -7.650049e+001 
4034375000  -3.962984e+001  -7.659332e+001 
4037500000  -3.897044e+001  -7.538466e+001 
4040625000  -3.887326e+001  -7.980606e+001 
4043750000  -3.919052e+001  -8.081881e+001 
4046875000  -3.872147e+001  -8.315165e+001 
4050000000  -3.808686e+001  -8.852396e+001 
4053125000  -3.849940e+001  -9.250938e+001 
4056250000  -3.924460e+001  -8.638934e+001 
4059375000  -3.790313e+001  -8.717119e+001 
4062500000  -3.657122e+001  -9.251454e+001 
4065625000  -3.627631e+001  -9.686421e+001 
4068750000  -3.613065e+001  -1.032262e+002 
4071875000  -3.550341e+001  -1.113661e+002 
4075000000  -3.589796e+001  -1.184981e+002 
4078125000  -3.650337e+001  -1.208811e+002 
4081250000  -3.577150e+001  -1.242974e+002 
4084375000  -3.559146e+001  -1.317458e+002 
4087500000  -3.577372e+001  -1.385581e+002 
4090625000  -3.676266e+001  -1.404106e+002 
4093750000  -3.626157e+001  -1.418046e+002 
4096875000  -3.607796e+001  -1.481639e+002 
4100000000  -3.668656e+001  -1.565414e+002 
4103125000  -3.767224e+001  -1.554105e+002 
4106250000  -3.750172e+001  -1.520303e+002 
4109375000  -3.657745e+001  -1.537036e+002 
4112500000  -3.591111e+001  -1.613126e+002 
4115625000  -3.645671e+001  -1.661869e+002 
4118750000  -3.665424e+001  -1.706623e+002 
4121875000  -3.616196e+001  -1.752433e+002 
4125000000  -3.675677e+001  1.785530e+002 
4128125000  -3.764907e+001  1.788939e+002 
4131250000  -3.729695e+001  -1.746643e+002 
4134375000  -3.503599e+001  1.799911e+002 
4137500000  -3.506392e+001  1.592811e+002 
4140625000  -3.713371e+001  1.526089e+002 
4143750000  -3.853354e+001  1.573149e+002 
4146875000  -3.813485e+001  1.628068e+002 
4150000000  -3.752172e+001  1.583940e+002 
4153125000  -3.721089e+001  1.508392e+002 
4156250000  -3.839730e+001  1.494241e+002 
4159375000  -3.871188e+001  1.535403e+002 
4162500000  -3.769979e+001  1.583093e+002 
4165625000  -3.631684e+001  1.522000e+002 
4168750000  -3.572872e+001  1.447172e+002 
4171875000  -3.589375e+001  1.344999e+002 
4175000000  -3.652593e+001  1.294919e+002 
4178125000  -3.719942e+001  1.284412e+002 
4181250000  -3.674171e+001  1.279726e+002 
4184375000  -3.653575e+001  1.229599e+002 
4187500000  -3.670827e+001  1.211253e+002 
4190625000  -3.665745e+001  1.152597e+002 
4193750000  -3.732969e+001  1.111442e+002 
4196875000  -3.798689e+001  1.105917e+002 
4200000000  -3.878564e+001  1.130857e+002 
4203125000  -3.870830e+001  1.255173e+002 
4206250000  -3.530869e+001  1.264282e+002 
4209375000  -3.396046e+001  1.035431e+002 
4212500000  -3.593306e+001  9.389072e+001 
4215625000  -3.702169e+001  1.004068e+002 
4218750000  -3.554122e+001  1.043152e+002 
4221875000  -3.326506e+001  9.514297e+001 
4225000000  -3.435764e+001  8.162032e+001 
4228125000  -3.520633e+001  8.619341e+001 
4231250000  -3.359644e+001  8.140035e+001 
4234375000  -3.332010e+001  7.223735e+001 
4237500000  -3.288828e+001  6.718460e+001 
4240625000  -3.302452e+001  5.770941e+001 
4243750000  -3.400302e+001  4.939961e+001 
4246875000  -3.494139e+001  5.010499e+001 
4250000000  -3.504113e+001  5.120524e+001 
4253125000  -3.445797e+001  4.673687e+001 
4256250000  -3.466257e+001  4.085135e+001 
4259375000  -3.452002e+001  3.977503e+001 
4262500000  -3.468817e+001  3.411130e+001 
4265625000  -3.478017e+001  3.303739e+001 
4268750000  -3.373719e+001  2.832470e+001 
4271875000  -3.389036e+001  2.076391e+001 
4275000000  -3.353426e+001  1.340850e+001 
4278125000  -3.413033e+001  2.355358e+000 
4281250000  -3.597984e+001  -1.751067e+000 
4284375000  -3.574337e+001  -2.673481e-001 
4287500000  -3.673862e+001  -5.279292e+000 
4290625000  -3.792586e+001  5.085310e+000 
4293750000  -3.608476e+001  1.019621e+001 
4296875000  -3.498718e+001  -1.114720e+000 
4300000000  -3.587273e+001  -1.280591e+001 
4303125000  -3.676939e+001  -9.802908e+000 
4306250000  -3.634552e+001  -4.189935e+000 
4309375000  -3.513614e+001  -6.360354e+000 
4312500000  -3.479819e+001  -1.351124e+001 
4315625000  -3.493486e+001  -1.985770e+001 
4318750000  -3.520454e+001  -2.356330e+001 
4321875000  -3.549604e+001  -2.239563e+001 
4325000000  -3.476072e+001  -2.307381e+001 
4328125000  -3.420722e+001  -2.972206e+001 
4331250000  -3.397554e+001  -3.815509e+001 
4334375000  -3.430555e+001  -4.267270e+001 
4337500000  -3.510263e+001  -4.562361e+001 
4340625000  -3.561779e+001  -4.227446e+001 
4343750000  -3.492413e+001  -4.341814e+001 
4346875000  -3.451000e+001  -4.931509e+001 
4350000000  -3.435223e+001  -5.551548e+001 
4353125000  -3.423127e+001  -6.335295e+001 
4356250000  -3.590485e+001  -6.686507e+001 
4359375000  -3.671567e+001  -5.226518e+001 
4362500000  -3.368946e+001  -5.191631e+001 
4365625000  -3.195281e+001  -6.694002e+001 
4368750000  -3.262507e+001  -7.786926e+001 
4371875000  -3.372100e+001  -7.942983e+001 
4375000000  -3.349427e+001  -7.956590e+001 
4378125000  -3.269395e+001  -8.729776e+001 
4381250000  -3.289391e+001  -9.385094e+001 
4384375000  -3.270812e+001  -1.005594e+002 
4387500000  -3.344191e+001  -1.076063e+002 
4390625000  -3.455407e+001  -1.077142e+002 
4393750000  -3.369352e+001  -1.066829e+002 
4396875000  -3.317860e+001  -1.099199e+002 
4400000000  -3.260724e+001  -1.180849e+002 
4403125000  -3.330620e+001  -1.263116e+002 
4406250000  -3.417546e+001  -1.302075e+002 
4409375000  -3.433603e+001  -1.325070e+002 
4412500000  -3.553453e+001  -1.357195e+002 
4415625000  -3.583175e+001  -1.319894e+002 
