!Agilent Technologies,E8363B,MY43030201,A.06.04.32
!Agilent E8363B: A.06.04.32
!Date: Tuesday, November 11, 2014 21:04:25
!Correction: S21(Response(S21)) 
!S1P File: Measurement: S21:
# Hz S  dB   R 50
3000000000  -3.647756e+001  -4.738456e+001 
3003125000  -3.756458e+001  -5.336820e+001 
3006250000  -3.742582e+001  -5.569260e+001 
3009375000  -3.777224e+001  -5.280936e+001 
3012500000  -3.704129e+001  -5.317822e+001 
3015625000  -3.614537e+001  -6.048264e+001 
3018750000  -3.683588e+001  -6.209826e+001 
3021875000  -3.544459e+001  -6.124549e+001 
3025000000  -3.407072e+001  -6.453276e+001 
3028125000  -3.311959e+001  -7.047704e+001 
3031250000  -3.217958e+001  -8.223756e+001 
3034375000  -3.180186e+001  -9.583113e+001 
3037500000  -3.219030e+001  -1.077245e+002 
3040625000  -3.348280e+001  -1.128121e+002 
3043750000  -3.422937e+001  -1.171579e+002 
3046875000  -3.435684e+001  -1.232155e+002 
3050000000  -3.598532e+001  -1.304956e+002 
3053125000  -3.603287e+001  -1.245086e+002 
3056250000  -3.551701e+001  -1.211677e+002 
3059375000  -3.573317e+001  -1.216346e+002 
3062500000  -3.410594e+001  -1.252168e+002 
3065625000  -3.395531e+001  -1.308251e+002 
3068750000  -3.362753e+001  -1.383264e+002 
3071875000  -3.339895e+001  -1.404200e+002 
3075000000  -3.323679e+001  -1.443649e+002 
3078125000  -3.304364e+001  -1.486140e+002 
3081250000  -3.352917e+001  -1.530041e+002 
3084375000  -3.263709e+001  -1.563882e+002 
3087500000  -3.243758e+001  -1.601481e+002 
3090625000  -3.197673e+001  -1.702382e+002 
3093750000  -3.236758e+001  -1.776453e+002 
3096875000  -3.342327e+001  1.762494e+002 
3100000000  -3.329733e+001  1.733627e+002 
3103125000  -3.367087e+001  1.749941e+002 
3106250000  -3.311443e+001  1.707830e+002 
3109375000  -3.319680e+001  1.667194e+002 
3112500000  -3.317507e+001  1.646954e+002 
3115625000  -3.287412e+001  1.597323e+002 
3118750000  -3.318154e+001  1.600774e+002 
3121875000  -3.225708e+001  1.502004e+002 
3125000000  -3.351120e+001  1.463873e+002 
3128125000  -3.452103e+001  1.532074e+002 
3131250000  -3.209564e+001  1.518116e+002 
3134375000  -3.074872e+001  1.366596e+002 
3137500000  -3.130046e+001  1.219517e+002 
3140625000  -3.279401e+001  1.197410e+002 
3143750000  -3.381766e+001  1.212008e+002 
3146875000  -3.331953e+001  1.218597e+002 
3150000000  -3.228247e+001  1.214756e+002 
3153125000  -3.225771e+001  1.132545e+002 
3156250000  -3.333300e+001  1.176873e+002 
3159375000  -3.161673e+001  1.186538e+002 
3162500000  -2.968239e+001  1.047917e+002 
3165625000  -3.067948e+001  9.205350e+001 
3168750000  -3.101624e+001  9.217984e+001 
3171875000  -3.021343e+001  8.672034e+001 
3175000000  -3.096236e+001  7.784180e+001 
3178125000  -3.061639e+001  7.856808e+001 
3181250000  -2.960699e+001  7.327915e+001 
3184375000  -2.881850e+001  6.001292e+001 
3187500000  -3.006328e+001  4.511963e+001 
3190625000  -3.270663e+001  3.676723e+001 
3193750000  -3.349303e+001  4.583653e+001 
3196875000  -3.298760e+001  5.083418e+001 
3200000000  -3.204331e+001  4.785043e+001 
3203125000  -3.125472e+001  4.179709e+001 
3206250000  -3.169127e+001  3.499142e+001 
3209375000  -3.112454e+001  2.888700e+001 
3212500000  -3.138257e+001  2.197755e+001 
3215625000  -3.135233e+001  1.757987e+001 
3218750000  -3.218195e+001  1.036203e+001 
3221875000  -3.306150e+001  5.715605e+000 
3225000000  -3.265318e+001  4.470980e+000 
3228125000  -3.301130e+001  -7.434992e-001 
3231250000  -3.360725e+001  -3.470759e+000 
3234375000  -3.343110e+001  -2.913287e+000 
3237500000  -3.343055e+001  -5.172525e+000 
3240625000  -3.297380e+001  -8.225031e+000 
3243750000  -3.252538e+001  -1.605403e+001 
3246875000  -3.295687e+001  -2.245053e+001 
3250000000  -3.338715e+001  -2.498833e+001 
3253125000  -3.352533e+001  -2.666697e+001 
3256250000  -3.320339e+001  -3.398382e+001 
3259375000  -3.335162e+001  -4.253101e+001 
3262500000  -3.466676e+001  -4.590990e+001 
3265625000  -3.522172e+001  -4.296303e+001 
3268750000  -3.512247e+001  -4.105738e+001 
3271875000  -3.480487e+001  -4.191837e+001 
3275000000  -3.368109e+001  -4.841719e+001 
3278125000  -3.423965e+001  -5.541487e+001 
3281250000  -3.440011e+001  -5.414716e+001 
3284375000  -3.385509e+001  -6.087199e+001 
3287500000  -3.405447e+001  -6.434546e+001 
3290625000  -3.439682e+001  -7.069228e+001 
3293750000  -3.406120e+001  -7.675092e+001 
3296875000  -3.506566e+001  -7.746490e+001 
3300000000  -3.493928e+001  -7.683025e+001 
3303125000  -3.375261e+001  -8.145496e+001 
3306250000  -3.352519e+001  -8.881020e+001 
3309375000  -3.324252e+001  -9.503395e+001 
3312500000  -3.340847e+001  -1.058752e+002 
3315625000  -3.434439e+001  -1.150736e+002 
3318750000  -3.571507e+001  -1.171234e+002 
3321875000  -3.691500e+001  -1.174500e+002 
3325000000  -3.752641e+001  -1.123249e+002 
3328125000  -3.695068e+001  -1.122552e+002 
3331250000  -3.592075e+001  -1.054684e+002 
3334375000  -3.300392e+001  -1.156413e+002 
3337500000  -3.309187e+001  -1.352148e+002 
3340625000  -3.448860e+001  -1.463733e+002 
3343750000  -3.649675e+001  -1.468260e+002 
3346875000  -3.669540e+001  -1.456080e+002 
3350000000  -3.603634e+001  -1.461937e+002 
3353125000  -3.616032e+001  -1.508468e+002 
3356250000  -3.557449e+001  -1.594800e+002 
3359375000  -3.646376e+001  -1.681670e+002 
3362500000  -3.763316e+001  -1.735416e+002 
3365625000  -3.804365e+001  -1.746166e+002 
3368750000  -3.902699e+001  -1.774994e+002 
3371875000  -3.906883e+001  1.795286e+002 
3375000000  -4.050467e+001  1.775041e+002 
3378125000  -4.122947e+001  1.768830e+002 
3381250000  -4.252263e+001  -1.751853e+002 
3384375000  -4.092804e+001  -1.513769e+002 
3387500000  -3.739562e+001  -1.695019e+002 
3390625000  -3.943010e+001  1.721755e+002 
3393750000  -4.036581e+001  1.758323e+002 
3396875000  -3.929266e+001  1.760802e+002 
3400000000  -3.877710e+001  1.682905e+002 
3403125000  -3.939424e+001  1.623711e+002 
3406250000  -3.977903e+001  1.627596e+002 
3409375000  -3.992207e+001  1.553629e+002 
3412500000  -4.020457e+001  1.533407e+002 
3415625000  -4.100874e+001  1.528063e+002 
3418750000  -4.116412e+001  1.549146e+002 
3421875000  -4.125132e+001  1.579356e+002 
3425000000  -4.023534e+001  1.583688e+002 
3428125000  -3.951371e+001  1.541423e+002 
3431250000  -3.918441e+001  1.468846e+002 
3434375000  -3.923016e+001  1.408385e+002 
3437500000  -3.983323e+001  1.367503e+002 
3440625000  -3.998746e+001  1.376169e+002 
3443750000  -3.857333e+001  1.395283e+002 
3446875000  -3.790571e+001  1.306986e+002 
3450000000  -3.772906e+001  1.211065e+002 
3453125000  -3.814606e+001  1.102331e+002 
3456250000  -3.913622e+001  1.046814e+002 
3459375000  -4.024257e+001  1.050393e+002 
3462500000  -4.000322e+001  1.069275e+002 
3465625000  -3.995348e+001  1.008013e+002 
3468750000  -4.010738e+001  9.579456e+001 
3471875000  -4.006878e+001  9.540186e+001 
3475000000  -3.968907e+001  9.018680e+001 
3478125000  -4.054355e+001  8.350232e+001 
3481250000  -4.121584e+001  7.940084e+001 
3484375000  -4.214148e+001  8.456879e+001 
3487500000  -4.160921e+001  8.190984e+001 
3490625000  -4.103504e+001  7.911391e+001 
3493750000  -4.163106e+001  7.261266e+001 
3496875000  -4.199759e+001  7.066383e+001 
3500000000  -4.271063e+001  7.273238e+001 
3503125000  -4.183091e+001  7.714912e+001 
3506250000  -4.083467e+001  7.124904e+001 
3509375000  -4.071253e+001  6.233225e+001 
3512500000  -4.115802e+001  5.290892e+001 
3515625000  -4.204854e+001  5.073354e+001 
3518750000  -4.252893e+001  5.124010e+001 
3521875000  -4.260991e+001  4.931017e+001 
3525000000  -4.356947e+001  4.700055e+001 
3528125000  -4.304932e+001  5.206500e+001 
3531250000  -4.197638e+001  5.140953e+001 
3534375000  -4.196125e+001  4.115958e+001 
3537500000  -4.220543e+001  3.590562e+001 
3540625000  -4.333776e+001  3.305480e+001 
3543750000  -4.383522e+001  3.903004e+001 
3546875000  -4.403163e+001  4.975811e+001 
3550000000  -4.114400e+001  4.896713e+001 
3553125000  -3.996769e+001  3.349820e+001 
3556250000  -4.141409e+001  2.655820e+001 
3559375000  -4.122239e+001  2.662439e+001 
3562500000  -4.011388e+001  1.866912e+001 
3565625000  -4.085978e+001  9.746148e+000 
3568750000  -4.114341e+001  1.324820e+001 
3571875000  -4.104049e+001  1.159324e+001 
3575000000  -4.088291e+001  4.395812e+000 
3578125000  -4.119542e+001  -3.085101e+000 
3581250000  -4.122285e+001  -1.778258e+000 
3584375000  -4.037936e+001  -4.393041e+000 
3587500000  -4.003967e+001  -1.450101e+001 
3590625000  -4.041674e+001  -2.353895e+001 
3593750000  -4.160490e+001  -2.697379e+001 
3596875000  -4.198899e+001  -1.989804e+001 
3600000000  -4.028606e+001  -2.745119e+001 
3603125000  -4.100480e+001  -4.043568e+001 
3606250000  -4.164039e+001  -4.334663e+001 
3609375000  -4.236607e+001  -4.621624e+001 
3612500000  -4.325470e+001  -4.950078e+001 
3615625000  -4.323034e+001  -5.250726e+001 
3618750000  -4.380745e+001  -5.249180e+001 
3621875000  -4.394128e+001  -5.506081e+001 
3625000000  -4.456992e+001  -5.482155e+001 
3628125000  -4.448899e+001  -6.088045e+001 
3631250000  -4.470354e+001  -5.926492e+001 
3634375000  -4.621607e+001  -6.217770e+001 
3637500000  -4.613183e+001  -5.675064e+001 
3640625000  -4.478565e+001  -5.228464e+001 
3643750000  -4.465915e+001  -5.660816e+001 
3646875000  -4.545660e+001  -6.744618e+001 
3650000000  -4.581964e+001  -6.492346e+001 
3653125000  -4.563003e+001  -6.359325e+001 
3656250000  -4.570624e+001  -6.549586e+001 
3659375000  -4.604009e+001  -6.432265e+001 
3662500000  -4.459634e+001  -6.455524e+001 
3665625000  -4.462698e+001  -6.559782e+001 
3668750000  -4.356643e+001  -6.736217e+001 
3671875000  -4.270293e+001  -7.156207e+001 
3675000000  -4.268018e+001  -8.027615e+001 
3678125000  -4.293678e+001  -8.279491e+001 
3681250000  -4.260255e+001  -8.297501e+001 
3684375000  -4.254844e+001  -8.821298e+001 
3687500000  -4.291687e+001  -9.395422e+001 
3690625000  -4.272570e+001  -9.704234e+001 
3693750000  -4.369163e+001  -9.850912e+001 
3696875000  -4.354703e+001  -9.690476e+001 
3700000000  -4.270117e+001  -1.056291e+002 
3703125000  -4.253236e+001  -1.091455e+002 
3706250000  -4.351302e+001  -1.079543e+002 
3709375000  -4.323677e+001  -1.070956e+002 
3712500000  -4.225702e+001  -1.091261e+002 
3715625000  -4.132772e+001  -1.176082e+002 
3718750000  -4.100384e+001  -1.224222e+002 
3721875000  -4.114921e+001  -1.279022e+002 
3725000000  -4.166762e+001  -1.359211e+002 
3728125000  -4.215731e+001  -1.370841e+002 
3731250000  -4.153255e+001  -1.396441e+002 
3734375000  -4.106429e+001  -1.463099e+002 
3737500000  -4.239749e+001  -1.525535e+002 
3740625000  -4.314520e+001  -1.544809e+002 
3743750000  -4.334005e+001  -1.588945e+002 
3746875000  -4.361805e+001  -1.605173e+002 
3750000000  -4.405703e+001  -1.633631e+002 
3753125000  -4.468890e+001  -1.615710e+002 
3756250000  -4.449262e+001  -1.576252e+002 
3759375000  -4.486333e+001  -1.576472e+002 
3762500000  -4.439493e+001  -1.625158e+002 
3765625000  -4.466679e+001  -1.616559e+002 
3768750000  -4.507845e+001  -1.596930e+002 
3771875000  -4.336939e+001  -1.621316e+002 
3775000000  -4.299840e+001  -1.678740e+002 
3778125000  -4.311528e+001  -1.670784e+002 
3781250000  -4.306055e+001  -1.700189e+002 
3784375000  -4.309766e+001  -1.698435e+002 
3787500000  -4.197169e+001  -1.750643e+002 
3790625000  -4.251722e+001  1.798047e+002 
3793750000  -4.244592e+001  -1.792131e+002 
3796875000  -4.113924e+001  1.772902e+002 
3800000000  -3.949942e+001  1.745693e+002 
3803125000  -4.015987e+001  1.649167e+002 
3806250000  -4.061524e+001  1.611312e+002 
3809375000  -4.043269e+001  1.603816e+002 
3812500000  -3.973539e+001  1.523750e+002 
3815625000  -4.028664e+001  1.451679e+002 
3818750000  -4.121423e+001  1.411017e+002 
3821875000  -4.126515e+001  1.497397e+002 
3825000000  -3.940748e+001  1.517385e+002 
3828125000  -3.794479e+001  1.374446e+002 
3831250000  -3.869378e+001  1.200936e+002 
3834375000  -4.022647e+001  1.194507e+002 
3837500000  -4.080392e+001  1.240666e+002 
3840625000  -3.996819e+001  1.210099e+002 
3843750000  -3.913750e+001  1.087755e+002 
3846875000  -3.959608e+001  1.035376e+002 
3850000000  -4.087506e+001  1.063523e+002 
3853125000  -4.053005e+001  1.098458e+002 
3856250000  -4.012287e+001  1.027413e+002 
3859375000  -3.964453e+001  9.900447e+001 
3862500000  -3.940767e+001  8.907595e+001 
3865625000  -3.978074e+001  8.465662e+001 
3868750000  -3.970210e+001  8.538469e+001 
3871875000  -3.927914e+001  8.112043e+001 
3875000000  -3.962438e+001  7.051282e+001 
3878125000  -4.062954e+001  7.075101e+001 
3881250000  -4.081317e+001  7.338013e+001 
3884375000  -4.037770e+001  6.640836e+001 
3887500000  -4.039080e+001  6.434320e+001 
3890625000  -4.114756e+001  6.082058e+001 
3893750000  -4.118100e+001  5.637149e+001 
3896875000  -4.167903e+001  6.062811e+001 
3900000000  -4.190777e+001  5.868667e+001 
3903125000  -4.125389e+001  5.512476e+001 
3906250000  -4.095945e+001  5.480093e+001 
3909375000  -4.021904e+001  5.238693e+001 
3912500000  -4.006255e+001  4.340172e+001 
3915625000  -4.123742e+001  4.408550e+001 
3918750000  -4.109187e+001  4.638194e+001 
3921875000  -4.068775e+001  4.260535e+001 
3925000000  -3.964450e+001  4.022015e+001 
3928125000  -3.929987e+001  3.285038e+001 
3931250000  -3.934387e+001  2.845846e+001 
3934375000  -3.984456e+001  2.670567e+001 
3937500000  -3.989489e+001  2.754188e+001 
3940625000  -4.028336e+001  2.284189e+001 
3943750000  -3.928405e+001  2.334571e+001 
3946875000  -3.820591e+001  1.748819e+001 
3950000000  -3.886012e+001  8.325161e+000 
3953125000  -4.004337e+001  6.731146e+000 
3956250000  -3.885118e+001  8.576844e+000 
3959375000  -3.778153e+001  4.079144e+000 
3962500000  -3.722409e+001  -1.203224e+000 
3965625000  -3.670885e+001  -1.060345e+001 
3968750000  -3.794949e+001  -1.805403e+001 
3971875000  -3.820948e+001  -2.154379e+001 
3975000000  -3.775937e+001  -2.363401e+001 
3978125000  -3.770020e+001  -2.663682e+001 
3981250000  -3.768224e+001  -3.128497e+001 
3984375000  -3.793727e+001  -3.684470e+001 
3987500000  -3.859662e+001  -4.067108e+001 
3990625000  -3.871494e+001  -4.213006e+001 
3993750000  -3.907727e+001  -4.605659e+001 
3996875000  -3.897749e+001  -5.058096e+001 
4000000000  -3.924172e+001  -5.293500e+001 
4003125000  -3.980722e+001  -4.973930e+001 
4006250000  -3.835049e+001  -5.123190e+001 
4009375000  -3.749570e+001  -6.437469e+001 
4012500000  -3.870440e+001  -7.173643e+001 
4015625000  -4.006530e+001  -6.856860e+001 
4018750000  -4.020581e+001  -6.843987e+001 
4021875000  -3.945606e+001  -7.078087e+001 
4025000000  -3.929401e+001  -7.478179e+001 
4028125000  -3.920761e+001  -7.915180e+001 
4031250000  -3.977947e+001  -8.352000e+001 
4034375000  -4.000761e+001  -8.213286e+001 
4037500000  -3.964633e+001  -8.147511e+001 
4040625000  -3.955802e+001  -8.598450e+001 
4043750000  -3.958886e+001  -8.534858e+001 
4046875000  -3.907243e+001  -8.635094e+001 
4050000000  -3.868373e+001  -9.384151e+001 
4053125000  -3.917407e+001  -9.586560e+001 
4056250000  -3.919973e+001  -9.177951e+001 
4059375000  -3.833494e+001  -9.044756e+001 
4062500000  -3.686842e+001  -9.662853e+001 
4065625000  -3.670890e+001  -1.021745e+002 
4068750000  -3.634453e+001  -1.078537e+002 
4071875000  -3.560332e+001  -1.163547e+002 
4075000000  -3.586103e+001  -1.228130e+002 
4078125000  -3.641735e+001  -1.250417e+002 
4081250000  -3.590248e+001  -1.298380e+002 
4084375000  -3.551134e+001  -1.370078e+002 
4087500000  -3.599379e+001  -1.440019e+002 
4090625000  -3.649988e+001  -1.459045e+002 
4093750000  -3.635722e+001  -1.474311e+002 
4096875000  -3.579814e+001  -1.547459e+002 
4100000000  -3.659826e+001  -1.613930e+002 
4103125000  -3.762947e+001  -1.611273e+002 
4106250000  -3.754185e+001  -1.573427e+002 
4109375000  -3.646889e+001  -1.599528e+002 
4112500000  -3.590652e+001  -1.668068e+002 
4115625000  -3.625443e+001  -1.725333e+002 
4118750000  -3.661193e+001  -1.775699e+002 
4121875000  -3.625066e+001  1.773413e+002 
4125000000  -3.653863e+001  1.714217e+002 
4128125000  -3.779593e+001  1.714198e+002 
4131250000  -3.763129e+001  1.785337e+002 
4134375000  -3.527442e+001  1.712603e+002 
4137500000  -3.512768e+001  1.540347e+002 
4140625000  -3.741737e+001  1.449159e+002 
4143750000  -3.880838e+001  1.491656e+002 
4146875000  -3.838233e+001  1.554906e+002 
4150000000  -3.768848e+001  1.529975e+002 
4153125000  -3.770421e+001  1.458884e+002 
4156250000  -3.872226e+001  1.422436e+002 
4159375000  -3.895480e+001  1.462492e+002 
4162500000  -3.799125e+001  1.503708e+002 
4165625000  -3.693873e+001  1.471038e+002 
4168750000  -3.595204e+001  1.396942e+002 
4171875000  -3.611736e+001  1.280465e+002 
4175000000  -3.673397e+001  1.254328e+002 
4178125000  -3.751898e+001  1.239854e+002 
4181250000  -3.682618e+001  1.233532e+002 
4184375000  -3.696125e+001  1.207508e+002 
4187500000  -3.695660e+001  1.168461e+002 
4190625000  -3.674591e+001  1.103142e+002 
4193750000  -3.742093e+001  1.072475e+002 
4196875000  -3.788275e+001  1.057311e+002 
4200000000  -3.913623e+001  1.090454e+002 
4203125000  -3.871289e+001  1.199281e+002 
4206250000  -3.527295e+001  1.195121e+002 
4209375000  -3.410264e+001  9.901418e+001 
4212500000  -3.624713e+001  9.043779e+001 
4215625000  -3.703857e+001  9.590366e+001 
4218750000  -3.553503e+001  1.009717e+002 
4221875000  -3.328751e+001  9.021615e+001 
4225000000  -3.437927e+001  7.703494e+001 
4228125000  -3.522372e+001  8.098927e+001 
4231250000  -3.345570e+001  7.559721e+001 
4234375000  -3.322575e+001  6.711919e+001 
4237500000  -3.275527e+001  6.263253e+001 
4240625000  -3.270980e+001  5.145957e+001 
4243750000  -3.385643e+001  4.293777e+001 
4246875000  -3.477871e+001  4.328299e+001 
4250000000  -3.474371e+001  4.474313e+001 
4253125000  -3.432525e+001  4.107857e+001 
4256250000  -3.449570e+001  3.681917e+001 
4259375000  -3.437442e+001  3.256582e+001 
4262500000  -3.453341e+001  2.774952e+001 
4265625000  -3.468462e+001  2.653743e+001 
4268750000  -3.372272e+001  2.171517e+001 
4271875000  -3.367385e+001  1.412102e+001 
4275000000  -3.326458e+001  6.197915e+000 
4278125000  -3.390775e+001  -5.819202e+000 
4281250000  -3.587394e+001  -8.469909e+000 
4284375000  -3.584190e+001  -8.479467e+000 
4287500000  -3.670687e+001  -1.205404e+001 
4290625000  -3.800595e+001  -3.012729e+000 
4293750000  -3.616863e+001  3.495407e+000 
4296875000  -3.497614e+001  -9.073877e+000 
4300000000  -3.608852e+001  -1.771709e+001 
4303125000  -3.711300e+001  -1.613859e+001 
4306250000  -3.647533e+001  -1.035369e+001 
4309375000  -3.514497e+001  -1.243796e+001 
4312500000  -3.504416e+001  -2.059528e+001 
4315625000  -3.530002e+001  -2.668431e+001 
4318750000  -3.555931e+001  -2.966330e+001 
4321875000  -3.572254e+001  -2.884702e+001 
4325000000  -3.503017e+001  -2.965022e+001 
4328125000  -3.427481e+001  -3.486907e+001 
4331250000  -3.410728e+001  -4.365663e+001 
4334375000  -3.452391e+001  -4.837708e+001 
4337500000  -3.523460e+001  -5.063840e+001 
4340625000  -3.575592e+001  -4.844455e+001 
4343750000  -3.480867e+001  -4.929977e+001 
4346875000  -3.448181e+001  -5.474152e+001 
4350000000  -3.442471e+001  -6.023569e+001 
4353125000  -3.431430e+001  -6.917899e+001 
4356250000  -3.605119e+001  -7.055839e+001 
4359375000  -3.627379e+001  -5.837171e+001 
4362500000  -3.325451e+001  -5.782920e+001 
4365625000  -3.182175e+001  -7.236286e+001 
4368750000  -3.252993e+001  -8.450631e+001 
4371875000  -3.359937e+001  -8.620556e+001 
4375000000  -3.317202e+001  -8.587306e+001 
4378125000  -3.245826e+001  -9.341277e+001 
4381250000  -3.265893e+001  -9.981213e+001 
4384375000  -3.242880e+001  -1.061947e+002 
4387500000  -3.317617e+001  -1.135242e+002 
4390625000  -3.409466e+001  -1.133271e+002 
4393750000  -3.354047e+001  -1.132430e+002 
4396875000  -3.302180e+001  -1.173441e+002 
4400000000  -3.240606e+001  -1.260811e+002 
4403125000  -3.318224e+001  -1.335222e+002 
4406250000  -3.398877e+001  -1.372997e+002 
4409375000  -3.422945e+001  -1.401413e+002 
4412500000  -3.539320e+001  -1.445857e+002 
4415625000  -3.569666e+001  -1.393509e+002 
