!Agilent Technologies,E8363B,MY43030201,A.06.04.32
!Agilent E8363B: A.06.04.32
!Date: Tuesday, November 11, 2014 21:03:17
!Correction: S21(Response(S21)) 
!S1P File: Measurement: S21:
# Hz S  dB   R 50
3000000000  -3.457522e+001  -5.777733e+001 
3003125000  -3.569460e+001  -6.310642e+001 
3006250000  -3.571769e+001  -6.542519e+001 
3009375000  -3.612226e+001  -6.118035e+001 
3012500000  -3.546620e+001  -6.218129e+001 
3015625000  -3.479095e+001  -6.958089e+001 
3018750000  -3.554746e+001  -7.101714e+001 
3021875000  -3.425176e+001  -6.987724e+001 
3025000000  -3.303892e+001  -7.280013e+001 
3028125000  -3.220688e+001  -7.893407e+001 
3031250000  -3.130563e+001  -9.014104e+001 
3034375000  -3.099355e+001  -1.033918e+002 
3037500000  -3.147030e+001  -1.149463e+002 
3040625000  -3.277432e+001  -1.198883e+002 
3043750000  -3.352863e+001  -1.239634e+002 
3046875000  -3.379739e+001  -1.305670e+002 
3050000000  -3.546202e+001  -1.365901e+002 
3053125000  -3.537402e+001  -1.298746e+002 
3056250000  -3.501895e+001  -1.273993e+002 
3059375000  -3.515633e+001  -1.272232e+002 
3062500000  -3.376427e+001  -1.305024e+002 
3065625000  -3.351923e+001  -1.367412e+002 
3068750000  -3.317699e+001  -1.432138e+002 
3071875000  -3.322289e+001  -1.455041e+002 
3075000000  -3.300069e+001  -1.491920e+002 
3078125000  -3.271999e+001  -1.531306e+002 
3081250000  -3.320634e+001  -1.572430e+002 
3084375000  -3.234784e+001  -1.604252e+002 
3087500000  -3.216589e+001  -1.640535e+002 
3090625000  -3.169265e+001  -1.739330e+002 
3093750000  -3.209566e+001  1.787092e+002 
3096875000  -3.317779e+001  1.725540e+002 
3100000000  -3.313687e+001  1.704727e+002 
3103125000  -3.335638e+001  1.716410e+002 
3106250000  -3.287870e+001  1.673705e+002 
3109375000  -3.299148e+001  1.638026e+002 
3112500000  -3.291246e+001  1.608997e+002 
3115625000  -3.262490e+001  1.563373e+002 
3118750000  -3.289475e+001  1.564319e+002 
3121875000  -3.211174e+001  1.470344e+002 
3125000000  -3.328783e+001  1.430373e+002 
3128125000  -3.423427e+001  1.495309e+002 
3131250000  -3.195801e+001  1.488830e+002 
3134375000  -3.060385e+001  1.333758e+002 
3137500000  -3.113810e+001  1.189809e+002 
3140625000  -3.262563e+001  1.161292e+002 
3143750000  -3.369526e+001  1.179295e+002 
3146875000  -3.328207e+001  1.187209e+002 
3150000000  -3.224365e+001  1.186319e+002 
3153125000  -3.231737e+001  1.101082e+002 
3156250000  -3.329981e+001  1.148253e+002 
3159375000  -3.166664e+001  1.161180e+002 
3162500000  -2.974758e+001  1.020121e+002 
3165625000  -3.072675e+001  8.975396e+001 
3168750000  -3.109804e+001  8.940997e+001 
3171875000  -3.023669e+001  8.444832e+001 
3175000000  -3.098283e+001  7.512721e+001 
3178125000  -3.078217e+001  7.613426e+001 
3181250000  -2.969994e+001  7.125426e+001 
3184375000  -2.898906e+001  5.810443e+001 
3187500000  -3.018401e+001  4.243239e+001 
3190625000  -3.291433e+001  3.537975e+001 
3193750000  -3.360563e+001  4.393467e+001 
3196875000  -3.320417e+001  4.898580e+001 
3200000000  -3.230756e+001  4.664050e+001 
3203125000  -3.156344e+001  4.003214e+001 
3206250000  -3.187252e+001  3.386406e+001 
3209375000  -3.138864e+001  2.791447e+001 
3212500000  -3.163147e+001  2.102529e+001 
3215625000  -3.171198e+001  1.736407e+001 
3218750000  -3.248162e+001  1.033868e+001 
3221875000  -3.329998e+001  5.423658e+000 
3225000000  -3.287185e+001  4.409409e+000 
3228125000  -3.324329e+001  -6.910520e-001 
3231250000  -3.392733e+001  -3.427511e+000 
3234375000  -3.362303e+001  -2.901119e+000 
3237500000  -3.361856e+001  -5.097133e+000 
3240625000  -3.318773e+001  -7.183667e+000 
3243750000  -3.277012e+001  -1.475814e+001 
3246875000  -3.318293e+001  -2.191167e+001 
3250000000  -3.352877e+001  -2.442077e+001 
3253125000  -3.358574e+001  -2.558310e+001 
3256250000  -3.315091e+001  -3.280460e+001 
3259375000  -3.346939e+001  -4.110361e+001 
3262500000  -3.462674e+001  -4.482508e+001 
3265625000  -3.528416e+001  -4.218249e+001 
3268750000  -3.519637e+001  -4.021891e+001 
3271875000  -3.474579e+001  -4.146434e+001 
3275000000  -3.380503e+001  -4.697063e+001 
3278125000  -3.410165e+001  -5.372236e+001 
3281250000  -3.433940e+001  -5.283202e+001 
3284375000  -3.386413e+001  -6.004760e+001 
3287500000  -3.402493e+001  -6.386768e+001 
3290625000  -3.416260e+001  -7.001012e+001 
3293750000  -3.406296e+001  -7.620856e+001 
3296875000  -3.509557e+001  -7.725256e+001 
3300000000  -3.479112e+001  -7.650115e+001 
3303125000  -3.375243e+001  -8.226567e+001 
3306250000  -3.361323e+001  -8.861063e+001 
3309375000  -3.329985e+001  -9.490179e+001 
3312500000  -3.332346e+001  -1.059285e+002 
3315625000  -3.437828e+001  -1.143191e+002 
3318750000  -3.575917e+001  -1.173690e+002 
3321875000  -3.692903e+001  -1.169781e+002 
3325000000  -3.742258e+001  -1.127172e+002 
3328125000  -3.702900e+001  -1.127540e+002 
3331250000  -3.593587e+001  -1.056487e+002 
3334375000  -3.324664e+001  -1.155794e+002 
3337500000  -3.340490e+001  -1.352862e+002 
3340625000  -3.477324e+001  -1.462651e+002 
3343750000  -3.674632e+001  -1.474840e+002 
3346875000  -3.697654e+001  -1.451054e+002 
3350000000  -3.642351e+001  -1.467117e+002 
3353125000  -3.641530e+001  -1.520499e+002 
3356250000  -3.590332e+001  -1.592855e+002 
3359375000  -3.674029e+001  -1.676439e+002 
3362500000  -3.809311e+001  -1.734410e+002 
3365625000  -3.847328e+001  -1.748962e+002 
3368750000  -3.918693e+001  -1.767762e+002 
3371875000  -3.952730e+001  -1.781036e+002 
3375000000  -4.084790e+001  1.777773e+002 
3378125000  -4.175718e+001  1.776951e+002 
3381250000  -4.290251e+001  -1.723951e+002 
3384375000  -4.196722e+001  -1.489680e+002 
3387500000  -3.797587e+001  -1.652654e+002 
3390625000  -3.956458e+001  1.743321e+002 
3393750000  -4.079416e+001  1.780208e+002 
3396875000  -3.969200e+001  1.791598e+002 
3400000000  -3.909425e+001  1.701246e+002 
3403125000  -3.983184e+001  1.670621e+002 
3406250000  -3.985893e+001  1.667631e+002 
3409375000  -3.993816e+001  1.586603e+002 
3412500000  -4.040420e+001  1.566670e+002 
3415625000  -4.092056e+001  1.558440e+002 
3418750000  -4.117667e+001  1.572223e+002 
3421875000  -4.120730e+001  1.605128e+002 
3425000000  -4.045606e+001  1.598056e+002 
3428125000  -3.922478e+001  1.555726e+002 
3431250000  -3.936223e+001  1.486198e+002 
3434375000  -3.927431e+001  1.427042e+002 
3437500000  -3.972389e+001  1.396980e+002 
3440625000  -4.019594e+001  1.397302e+002 
3443750000  -3.903976e+001  1.410662e+002 
3446875000  -3.810135e+001  1.330181e+002 
3450000000  -3.766236e+001  1.215894e+002 
3453125000  -3.825682e+001  1.121683e+002 
3456250000  -3.932980e+001  1.052857e+002 
3459375000  -4.037310e+001  1.068951e+002 
3462500000  -4.014248e+001  1.087199e+002 
3465625000  -4.009784e+001  1.010288e+002 
3468750000  -4.082391e+001  9.775187e+001 
3471875000  -4.059294e+001  9.649686e+001 
3475000000  -4.013098e+001  9.282395e+001 
3478125000  -4.093999e+001  8.566965e+001 
3481250000  -4.194702e+001  8.172197e+001 
3484375000  -4.307703e+001  8.626543e+001 
3487500000  -4.222058e+001  8.718044e+001 
3490625000  -4.154202e+001  8.326893e+001 
3493750000  -4.202840e+001  7.737287e+001 
3496875000  -4.250646e+001  7.729845e+001 
3500000000  -4.301519e+001  7.922752e+001 
3503125000  -4.256367e+001  8.256910e+001 
3506250000  -4.107114e+001  8.018446e+001 
3509375000  -4.092727e+001  7.060246e+001 
3512500000  -4.121796e+001  6.144671e+001 
3515625000  -4.201871e+001  5.823360e+001 
3518750000  -4.240709e+001  5.914473e+001 
3521875000  -4.209577e+001  5.605202e+001 
3525000000  -4.293541e+001  5.452139e+001 
3528125000  -4.271748e+001  5.998994e+001 
3531250000  -4.130249e+001  5.862609e+001 
3534375000  -4.113766e+001  4.858061e+001 
3537500000  -4.159522e+001  4.010332e+001 
3540625000  -4.244899e+001  3.928820e+001 
3543750000  -4.291042e+001  4.207863e+001 
3546875000  -4.271557e+001  5.227592e+001 
3550000000  -4.017205e+001  5.204417e+001 
3553125000  -3.907364e+001  3.301940e+001 
3556250000  -4.050160e+001  2.654424e+001 
3559375000  -4.030196e+001  2.622083e+001 
3562500000  -3.921598e+001  1.698443e+001 
3565625000  -4.024493e+001  1.044085e+001 
3568750000  -4.027974e+001  1.047860e+001 
3571875000  -4.019352e+001  9.435079e+000 
3575000000  -4.003615e+001  2.275026e-001 
3578125000  -4.054672e+001  -2.939543e+000 
3581250000  -4.076528e+001  -4.465929e+000 
3584375000  -4.011650e+001  -8.344560e+000 
3587500000  -3.984584e+001  -1.564485e+001 
3590625000  -4.049088e+001  -2.761001e+001 
3593750000  -4.175879e+001  -3.028250e+001 
3596875000  -4.209042e+001  -2.246293e+001 
3600000000  -4.069874e+001  -2.877126e+001 
3603125000  -4.132126e+001  -4.301612e+001 
3606250000  -4.223267e+001  -4.762338e+001 
3609375000  -4.302597e+001  -4.943831e+001 
3612500000  -4.366500e+001  -5.071946e+001 
3615625000  -4.398097e+001  -5.263911e+001 
3618750000  -4.507137e+001  -5.260723e+001 
3621875000  -4.483826e+001  -5.189513e+001 
3625000000  -4.593452e+001  -5.217632e+001 
3628125000  -4.568317e+001  -4.804136e+001 
3631250000  -4.553367e+001  -5.178761e+001 
3634375000  -4.678712e+001  -5.404463e+001 
3637500000  -4.635147e+001  -4.716994e+001 
3640625000  -4.518968e+001  -4.230947e+001 
3643750000  -4.467860e+001  -4.722466e+001 
3646875000  -4.445517e+001  -5.215948e+001 
3650000000  -4.540012e+001  -5.493182e+001 
3653125000  -4.456581e+001  -5.475629e+001 
3656250000  -4.474592e+001  -5.479619e+001 
3659375000  -4.451602e+001  -5.666717e+001 
3662500000  -4.341431e+001  -5.650377e+001 
3665625000  -4.329086e+001  -6.024094e+001 
3668750000  -4.227305e+001  -6.160856e+001 
3671875000  -4.081391e+001  -6.986816e+001 
3675000000  -4.124892e+001  -7.802314e+001 
3678125000  -4.162526e+001  -8.139818e+001 
3681250000  -4.152166e+001  -8.349117e+001 
3684375000  -4.129684e+001  -9.004473e+001 
3687500000  -4.185056e+001  -9.486298e+001 
3690625000  -4.178130e+001  -1.011711e+002 
3693750000  -4.247831e+001  -1.015230e+002 
3696875000  -4.255886e+001  -1.016600e+002 
3700000000  -4.169903e+001  -1.076385e+002 
3703125000  -4.211938e+001  -1.138330e+002 
3706250000  -4.291833e+001  -1.126042e+002 
3709375000  -4.282666e+001  -1.107315e+002 
3712500000  -4.183658e+001  -1.153934e+002 
3715625000  -4.162038e+001  -1.238508e+002 
3718750000  -4.119455e+001  -1.282808e+002 
3721875000  -4.127970e+001  -1.366697e+002 
3725000000  -4.140773e+001  -1.402538e+002 
3728125000  -4.225624e+001  -1.416217e+002 
3731250000  -4.173742e+001  -1.453634e+002 
3734375000  -4.168195e+001  -1.476456e+002 
3737500000  -4.280357e+001  -1.601998e+002 
3740625000  -4.394798e+001  -1.574234e+002 
3743750000  -4.407061e+001  -1.602442e+002 
3746875000  -4.467591e+001  -1.629140e+002 
3750000000  -4.516993e+001  -1.628392e+002 
3753125000  -4.538269e+001  -1.605033e+002 
3756250000  -4.564444e+001  -1.593784e+002 
3759375000  -4.565548e+001  -1.561483e+002 
3762500000  -4.517973e+001  -1.565514e+002 
3765625000  -4.532845e+001  -1.544697e+002 
3768750000  -4.504738e+001  -1.527352e+002 
3771875000  -4.343907e+001  -1.556210e+002 
3775000000  -4.313555e+001  -1.614738e+002 
3778125000  -4.281807e+001  -1.625204e+002 
3781250000  -4.248793e+001  -1.656750e+002 
3784375000  -4.242780e+001  -1.663759e+002 
3787500000  -4.121358e+001  -1.701127e+002 
3790625000  -4.179990e+001  -1.768311e+002 
3793750000  -4.147686e+001  -1.798730e+002 
3796875000  -4.040994e+001  1.799806e+002 
3800000000  -3.892688e+001  1.756786e+002 
3803125000  -3.946401e+001  1.662621e+002 
3806250000  -4.039998e+001  1.620481e+002 
3809375000  -3.987908e+001  1.602483e+002 
3812500000  -3.917561e+001  1.531847e+002 
3815625000  -3.956796e+001  1.431925e+002 
3818750000  -4.075595e+001  1.414148e+002 
3821875000  -4.088853e+001  1.462603e+002 
3825000000  -3.886880e+001  1.517583e+002 
3828125000  -3.744537e+001  1.344373e+002 
3831250000  -3.828686e+001  1.198275e+002 
3834375000  -3.986074e+001  1.172578e+002 
3837500000  -4.077305e+001  1.216633e+002 
3840625000  -3.970755e+001  1.199118e+002 
3843750000  -3.874911e+001  1.070717e+002 
3846875000  -3.976914e+001  9.916440e+001 
3850000000  -4.114335e+001  1.045667e+002 
3853125000  -4.069899e+001  1.065464e+002 
3856250000  -4.036721e+001  1.008357e+002 
3859375000  -3.981301e+001  9.641076e+001 
3862500000  -3.959937e+001  8.874402e+001 
3865625000  -4.014646e+001  8.388680e+001 
3868750000  -4.030293e+001  8.268322e+001 
3871875000  -3.961367e+001  7.874126e+001 
3875000000  -3.995919e+001  7.188087e+001 
3878125000  -4.115321e+001  6.866284e+001 
3881250000  -4.136605e+001  7.065635e+001 
3884375000  -4.094503e+001  6.664896e+001 
3887500000  -4.115578e+001  6.416484e+001 
3890625000  -4.150732e+001  6.339536e+001 
3893750000  -4.168864e+001  6.244700e+001 
3896875000  -4.229033e+001  6.048433e+001 
3900000000  -4.174253e+001  6.205136e+001 
3903125000  -4.151396e+001  5.859651e+001 
3906250000  -4.120904e+001  5.719959e+001 
3909375000  -4.047206e+001  5.437837e+001 
3912500000  -4.028642e+001  4.805439e+001 
3915625000  -4.160129e+001  4.817002e+001 
3918750000  -4.126678e+001  4.887234e+001 
3921875000  -4.060361e+001  4.816082e+001 
3925000000  -3.972246e+001  4.381637e+001 
3928125000  -3.898704e+001  3.818878e+001 
3931250000  -3.937553e+001  3.035027e+001 
3934375000  -3.968155e+001  3.154074e+001 
3937500000  -3.958377e+001  2.962852e+001 
3940625000  -3.998582e+001  2.715700e+001 
3943750000  -3.896012e+001  2.738163e+001 
3946875000  -3.791610e+001  1.963386e+001 
3950000000  -3.847416e+001  9.987167e+000 
3953125000  -3.926801e+001  7.696180e+000 
3956250000  -3.823266e+001  1.100950e+001 
3959375000  -3.719777e+001  6.927401e+000 
3962500000  -3.662376e+001  1.871800e-001 
3965625000  -3.675686e+001  -1.036319e+001 
3968750000  -3.766002e+001  -1.795588e+001 
3971875000  -3.791983e+001  -2.033859e+001 
3975000000  -3.750429e+001  -2.404192e+001 
3978125000  -3.742838e+001  -2.861674e+001 
3981250000  -3.757064e+001  -3.353394e+001 
3984375000  -3.784672e+001  -3.986180e+001 
3987500000  -3.861225e+001  -4.347738e+001 
3990625000  -3.847016e+001  -4.489512e+001 
3993750000  -3.901626e+001  -4.947338e+001 
3996875000  -3.907533e+001  -5.408974e+001 
4000000000  -3.943947e+001  -5.517575e+001 
4003125000  -4.000821e+001  -5.293160e+001 
4006250000  -3.890855e+001  -5.390460e+001 
4009375000  -3.817025e+001  -6.743987e+001 
4012500000  -3.937702e+001  -7.215480e+001 
4015625000  -4.081818e+001  -7.164130e+001 
4018750000  -4.090343e+001  -6.904221e+001 
4021875000  -4.016290e+001  -7.054145e+001 
4025000000  -3.998441e+001  -7.515125e+001 
4028125000  -3.985579e+001  -7.774306e+001 
4031250000  -4.036572e+001  -8.019841e+001 
4034375000  -4.082100e+001  -8.088434e+001 
4037500000  -4.027911e+001  -7.816846e+001 
4040625000  -3.990925e+001  -7.914381e+001 
4043750000  -4.023338e+001  -8.052744e+001 
4046875000  -3.962523e+001  -8.297316e+001 
4050000000  -3.906932e+001  -8.728989e+001 
4053125000  -3.940308e+001  -9.040039e+001 
4056250000  -3.962854e+001  -8.591899e+001 
4059375000  -3.824815e+001  -8.504332e+001 
4062500000  -3.682482e+001  -8.999262e+001 
4065625000  -3.661100e+001  -9.543387e+001 
4068750000  -3.632650e+001  -1.025830e+002 
4071875000  -3.549667e+001  -1.113933e+002 
4075000000  -3.567890e+001  -1.193414e+002 
4078125000  -3.621442e+001  -1.218614e+002 
4081250000  -3.564221e+001  -1.249112e+002 
4084375000  -3.505345e+001  -1.340232e+002 
4087500000  -3.550642e+001  -1.404896e+002 
4090625000  -3.616997e+001  -1.425785e+002 
4093750000  -3.575502e+001  -1.443014e+002 
4096875000  -3.558190e+001  -1.516802e+002 
4100000000  -3.633196e+001  -1.594299e+002 
4103125000  -3.710338e+001  -1.594233e+002 
4106250000  -3.709386e+001  -1.574607e+002 
4109375000  -3.607122e+001  -1.577059e+002 
4112500000  -3.554840e+001  -1.669294e+002 
4115625000  -3.596138e+001  -1.720208e+002 
4118750000  -3.656319e+001  -1.766989e+002 
4121875000  -3.605027e+001  1.768642e+002 
4125000000  -3.653865e+001  1.707828e+002 
4128125000  -3.761395e+001  1.708041e+002 
4131250000  -3.727550e+001  1.778661e+002 
4134375000  -3.523862e+001  1.709831e+002 
4137500000  -3.506760e+001  1.502002e+002 
4140625000  -3.748725e+001  1.443938e+002 
4143750000  -3.889533e+001  1.470975e+002 
4146875000  -3.859816e+001  1.537399e+002 
4150000000  -3.787927e+001  1.496489e+002 
4153125000  -3.792790e+001  1.430948e+002 
4156250000  -3.916513e+001  1.424562e+002 
4159375000  -3.948072e+001  1.447732e+002 
4162500000  -3.838138e+001  1.521310e+002 
4165625000  -3.732449e+001  1.472023e+002 
4168750000  -3.672008e+001  1.409649e+002 
4171875000  -3.682289e+001  1.306926e+002 
4175000000  -3.743612e+001  1.282503e+002 
4178125000  -3.799838e+001  1.264698e+002 
4181250000  -3.749776e+001  1.268696e+002 
4184375000  -3.730878e+001  1.244982e+002 
4187500000  -3.725771e+001  1.210519e+002 
4190625000  -3.683390e+001  1.160719e+002 
4193750000  -3.771862e+001  1.130029e+002 
4196875000  -3.809988e+001  1.113308e+002 
4200000000  -3.892435e+001  1.136712e+002 
4203125000  -3.863606e+001  1.274174e+002 
4206250000  -3.520223e+001  1.250527e+002 
4209375000  -3.402687e+001  1.041790e+002 
4212500000  -3.592880e+001  9.465170e+001 
4215625000  -3.669878e+001  1.011897e+002 
4218750000  -3.523702e+001  1.059729e+002 
4221875000  -3.278231e+001  9.629388e+001 
4225000000  -3.393608e+001  8.269263e+001 
4228125000  -3.447614e+001  8.484260e+001 
4231250000  -3.284309e+001  7.990063e+001 
4234375000  -3.278747e+001  7.053362e+001 
4237500000  -3.222292e+001  6.436027e+001 
4240625000  -3.233077e+001  5.412162e+001 
4243750000  -3.340926e+001  4.630692e+001 
4246875000  -3.416243e+001  4.560387e+001 
4250000000  -3.439367e+001  4.558077e+001 
4253125000  -3.383375e+001  4.288382e+001 
4256250000  -3.407544e+001  3.604897e+001 
4259375000  -3.371232e+001  3.207500e+001 
4262500000  -3.413135e+001  2.869423e+001 
4265625000  -3.428958e+001  2.784415e+001 
4268750000  -3.332943e+001  2.176657e+001 
4271875000  -3.309003e+001  1.482249e+001 
4275000000  -3.307265e+001  6.018045e+000 
4278125000  -3.369542e+001  -5.755442e+000 
4281250000  -3.545874e+001  -8.441310e+000 
4284375000  -3.549139e+001  -8.590167e+000 
4287500000  -3.657899e+001  -1.378816e+001 
4290625000  -3.824911e+001  -4.054405e+000 
4293750000  -3.609139e+001  8.256634e-001 
4296875000  -3.516487e+001  -9.426634e+000 
4300000000  -3.610995e+001  -1.966211e+001 
4303125000  -3.735379e+001  -1.724119e+001 
4306250000  -3.695493e+001  -1.247982e+001 
4309375000  -3.563361e+001  -1.210834e+001 
4312500000  -3.546708e+001  -1.986060e+001 
4315625000  -3.571220e+001  -2.511725e+001 
4318750000  -3.588382e+001  -2.732700e+001 
4321875000  -3.603497e+001  -2.672689e+001 
4325000000  -3.543166e+001  -2.540712e+001 
4328125000  -3.466479e+001  -3.138266e+001 
4331250000  -3.441114e+001  -3.939431e+001 
4334375000  -3.481716e+001  -4.296047e+001 
4337500000  -3.556616e+001  -4.717041e+001 
4340625000  -3.579507e+001  -4.310060e+001 
4343750000  -3.495936e+001  -4.397941e+001 
4346875000  -3.444995e+001  -5.018556e+001 
4350000000  -3.423343e+001  -5.451694e+001 
4353125000  -3.409393e+001  -6.359899e+001 
4356250000  -3.566779e+001  -6.502661e+001 
4359375000  -3.597778e+001  -5.182780e+001 
4362500000  -3.296543e+001  -5.418873e+001 
4365625000  -3.144056e+001  -6.685446e+001 
4368750000  -3.214314e+001  -7.958290e+001 
4371875000  -3.310617e+001  -8.079379e+001 
4375000000  -3.261100e+001  -8.100758e+001 
4378125000  -3.194185e+001  -8.950163e+001 
4381250000  -3.206797e+001  -9.656178e+001 
4384375000  -3.172498e+001  -1.035820e+002 
4387500000  -3.243589e+001  -1.109153e+002 
4390625000  -3.347378e+001  -1.110542e+002 
4393750000  -3.286620e+001  -1.110911e+002 
4396875000  -3.229994e+001  -1.151998e+002 
4400000000  -3.180000e+001  -1.237290e+002 
4403125000  -3.247611e+001  -1.326489e+002 
4406250000  -3.332618e+001  -1.363176e+002 
4409375000  -3.342360e+001  -1.402288e+002 
4412500000  -3.464890e+001  -1.445205e+002 
4415625000  -3.497606e+001  -1.419272e+002 
