!Agilent Technologies,E8363B,MY43030201,A.06.04.32
!Agilent E8363B: A.06.04.32
!Date: Tuesday, November 11, 2014 21:08:41
!Correction: S21(Response(S21)) 
!S1P File: Measurement: S21:
# Hz S  dB   R 50
3000000000  -3.651400e+001  -5.344703e+001 
3003125000  -3.760713e+001  -5.950281e+001 
3006250000  -3.743171e+001  -6.134423e+001 
3009375000  -3.788168e+001  -5.715498e+001 
3012500000  -3.704044e+001  -5.936174e+001 
3015625000  -3.620982e+001  -6.610970e+001 
3018750000  -3.692319e+001  -6.748763e+001 
3021875000  -3.552811e+001  -6.653866e+001 
3025000000  -3.413676e+001  -6.997688e+001 
3028125000  -3.321939e+001  -7.746592e+001 
3031250000  -3.221570e+001  -8.869710e+001 
3034375000  -3.184474e+001  -1.023316e+002 
3037500000  -3.235243e+001  -1.135092e+002 
3040625000  -3.365227e+001  -1.189744e+002 
3043750000  -3.423489e+001  -1.238922e+002 
3046875000  -3.449693e+001  -1.296742e+002 
3050000000  -3.615040e+001  -1.360027e+002 
3053125000  -3.612477e+001  -1.293843e+002 
3056250000  -3.552934e+001  -1.270865e+002 
3059375000  -3.559784e+001  -1.278339e+002 
3062500000  -3.416166e+001  -1.309582e+002 
3065625000  -3.385518e+001  -1.369432e+002 
3068750000  -3.362399e+001  -1.439763e+002 
3071875000  -3.347183e+001  -1.462534e+002 
3075000000  -3.327682e+001  -1.501022e+002 
3078125000  -3.300296e+001  -1.547671e+002 
3081250000  -3.356504e+001  -1.587709e+002 
3084375000  -3.267147e+001  -1.623416e+002 
3087500000  -3.255823e+001  -1.668037e+002 
3090625000  -3.193055e+001  -1.770538e+002 
3093750000  -3.245694e+001  1.757130e+002 
3096875000  -3.342171e+001  1.699714e+002 
3100000000  -3.340586e+001  1.684790e+002 
3103125000  -3.363986e+001  1.686245e+002 
3106250000  -3.317255e+001  1.646185e+002 
3109375000  -3.320460e+001  1.601967e+002 
3112500000  -3.324055e+001  1.579813e+002 
3115625000  -3.293712e+001  1.533587e+002 
3118750000  -3.325861e+001  1.533000e+002 
3121875000  -3.234768e+001  1.441815e+002 
3125000000  -3.360464e+001  1.400561e+002 
3128125000  -3.449010e+001  1.469274e+002 
3131250000  -3.206914e+001  1.449822e+002 
3134375000  -3.079018e+001  1.298977e+002 
3137500000  -3.136498e+001  1.155431e+002 
3140625000  -3.275615e+001  1.130171e+002 
3143750000  -3.388968e+001  1.143758e+002 
3146875000  -3.325819e+001  1.158091e+002 
3150000000  -3.228046e+001  1.157058e+002 
3153125000  -3.234245e+001  1.064489e+002 
3156250000  -3.337189e+001  1.121114e+002 
3159375000  -3.159642e+001  1.123821e+002 
3162500000  -2.971346e+001  9.763733e+001 
3165625000  -3.073258e+001  8.522540e+001 
3168750000  -3.097617e+001  8.585838e+001 
3171875000  -3.008955e+001  8.053802e+001 
3175000000  -3.091985e+001  7.182193e+001 
3178125000  -3.060490e+001  7.244390e+001 
3181250000  -2.957977e+001  6.652507e+001 
3184375000  -2.890361e+001  5.352123e+001 
3187500000  -3.007952e+001  3.927006e+001 
3190625000  -3.280880e+001  3.106030e+001 
3193750000  -3.333704e+001  3.989225e+001 
3196875000  -3.303687e+001  4.360046e+001 
3200000000  -3.205301e+001  4.096902e+001 
3203125000  -3.128253e+001  3.477411e+001 
3206250000  -3.152404e+001  2.806789e+001 
3209375000  -3.111723e+001  2.213857e+001 
3212500000  -3.139619e+001  1.555488e+001 
3215625000  -3.143280e+001  1.209757e+001 
3218750000  -3.220613e+001  4.066837e+000 
3221875000  -3.301363e+001  -1.235757e+000 
3225000000  -3.259076e+001  -2.709583e+000 
3228125000  -3.298741e+001  -7.927874e+000 
3231250000  -3.365540e+001  -1.022721e+001 
3234375000  -3.333612e+001  -9.912248e+000 
3237500000  -3.338450e+001  -1.180081e+001 
3240625000  -3.290331e+001  -1.487134e+001 
3243750000  -3.259034e+001  -2.226735e+001 
3246875000  -3.297429e+001  -2.913446e+001 
3250000000  -3.340833e+001  -3.202938e+001 
3253125000  -3.355622e+001  -3.366528e+001 
3256250000  -3.305630e+001  -4.096825e+001 
3259375000  -3.348316e+001  -4.935240e+001 
3262500000  -3.463601e+001  -5.277411e+001 
3265625000  -3.528593e+001  -5.020424e+001 
3268750000  -3.514960e+001  -4.804342e+001 
3271875000  -3.470435e+001  -4.869985e+001 
3275000000  -3.364702e+001  -5.522974e+001 
3278125000  -3.432501e+001  -6.175604e+001 
3281250000  -3.437938e+001  -6.102765e+001 
3284375000  -3.387831e+001  -6.681052e+001 
3287500000  -3.405356e+001  -7.093074e+001 
3290625000  -3.426485e+001  -7.695695e+001 
3293750000  -3.410239e+001  -8.293093e+001 
3296875000  -3.521203e+001  -8.352057e+001 
3300000000  -3.486714e+001  -8.272547e+001 
3303125000  -3.367667e+001  -8.859311e+001 
3306250000  -3.345962e+001  -9.570842e+001 
3309375000  -3.331172e+001  -1.023015e+002 
3312500000  -3.330403e+001  -1.130193e+002 
3315625000  -3.435992e+001  -1.213743e+002 
3318750000  -3.564030e+001  -1.236447e+002 
3321875000  -3.683324e+001  -1.235584e+002 
3325000000  -3.735264e+001  -1.174364e+002 
3328125000  -3.681616e+001  -1.181775e+002 
3331250000  -3.578259e+001  -1.108584e+002 
3334375000  -3.292307e+001  -1.229048e+002 
3337500000  -3.304986e+001  -1.417229e+002 
3340625000  -3.445690e+001  -1.520772e+002 
3343750000  -3.647405e+001  -1.527095e+002 
3346875000  -3.651095e+001  -1.519787e+002 
3350000000  -3.598386e+001  -1.533972e+002 
3353125000  -3.591711e+001  -1.586973e+002 
3356250000  -3.550941e+001  -1.669656e+002 
3359375000  -3.629235e+001  -1.746158e+002 
3362500000  -3.741356e+001  1.794518e+002 
3365625000  -3.785624e+001  1.788779e+002 
3368750000  -3.862387e+001  1.758958e+002 
3371875000  -3.877755e+001  1.729913e+002 
3375000000  -4.020552e+001  1.708601e+002 
3378125000  -4.111097e+001  1.705405e+002 
3381250000  -4.256233e+001  -1.799824e+002 
3384375000  -4.094700e+001  -1.590409e+002 
3387500000  -3.744452e+001  -1.779712e+002 
3390625000  -3.901665e+001  1.632002e+002 
3393750000  -4.020903e+001  1.688611e+002 
3396875000  -3.904266e+001  1.699894e+002 
3400000000  -3.852084e+001  1.601400e+002 
3403125000  -3.927982e+001  1.550945e+002 
3406250000  -3.950632e+001  1.546128e+002 
3409375000  -3.971747e+001  1.473264e+002 
3412500000  -4.029470e+001  1.455308e+002 
3415625000  -4.096075e+001  1.459025e+002 
3418750000  -4.104319e+001  1.465388e+002 
3421875000  -4.118804e+001  1.502308e+002 
3425000000  -4.022535e+001  1.495357e+002 
3428125000  -3.929300e+001  1.455227e+002 
3431250000  -3.923957e+001  1.389356e+002 
3434375000  -3.913539e+001  1.322903e+002 
3437500000  -3.957066e+001  1.296793e+002 
3440625000  -3.994445e+001  1.310613e+002 
3443750000  -3.863027e+001  1.310002e+002 
3446875000  -3.792291e+001  1.233094e+002 
3450000000  -3.755100e+001  1.133834e+002 
3453125000  -3.814132e+001  1.029677e+002 
3456250000  -3.915645e+001  9.749210e+001 
3459375000  -4.017159e+001  9.814739e+001 
3462500000  -3.987379e+001  9.791024e+001 
3465625000  -3.976387e+001  9.171465e+001 
3468750000  -4.020717e+001  8.948895e+001 
3471875000  -3.998574e+001  8.723569e+001 
3475000000  -3.948915e+001  8.289137e+001 
3478125000  -4.025485e+001  7.400009e+001 
3481250000  -4.128843e+001  7.195485e+001 
3484375000  -4.222440e+001  7.730220e+001 
3487500000  -4.128928e+001  7.396166e+001 
3490625000  -4.061145e+001  7.096536e+001 
3493750000  -4.120151e+001  6.272154e+001 
3496875000  -4.160232e+001  6.409905e+001 
3500000000  -4.245714e+001  6.557787e+001 
3503125000  -4.194508e+001  6.849541e+001 
3506250000  -4.064295e+001  6.265294e+001 
3509375000  -4.031806e+001  5.196429e+001 
3512500000  -4.119340e+001  4.302462e+001 
3515625000  -4.195264e+001  4.229975e+001 
3518750000  -4.247871e+001  4.126457e+001 
3521875000  -4.221615e+001  4.010524e+001 
3525000000  -4.357998e+001  3.742030e+001 
3528125000  -4.378411e+001  4.445523e+001 
3531250000  -4.184280e+001  3.973684e+001 
3534375000  -4.187434e+001  3.069762e+001 
3537500000  -4.231480e+001  2.800778e+001 
3540625000  -4.356105e+001  2.554127e+001 
3543750000  -4.443441e+001  2.960954e+001 
3546875000  -4.440546e+001  4.136520e+001 
3550000000  -4.152934e+001  4.242749e+001 
3553125000  -4.000819e+001  2.430338e+001 
3556250000  -4.188621e+001  1.895817e+001 
3559375000  -4.144436e+001  1.941740e+001 
3562500000  -4.004453e+001  1.110698e+001 
3565625000  -4.113717e+001  2.779714e+000 
3568750000  -4.113100e+001  7.035527e+000 
3571875000  -4.094275e+001  4.443462e+000 
3575000000  -4.071574e+001  -3.182659e+000 
3578125000  -4.157691e+001  -8.269245e+000 
3581250000  -4.152967e+001  -8.089268e+000 
3584375000  -4.042257e+001  -1.197482e+001 
3587500000  -3.988974e+001  -1.929550e+001 
3590625000  -4.040573e+001  -3.121744e+001 
3593750000  -4.179407e+001  -3.393661e+001 
3596875000  -4.180355e+001  -2.785861e+001 
3600000000  -4.037577e+001  -3.310634e+001 
3603125000  -4.083417e+001  -4.758913e+001 
3606250000  -4.168261e+001  -5.325109e+001 
3609375000  -4.203719e+001  -5.573380e+001 
3612500000  -4.299417e+001  -5.770977e+001 
3615625000  -4.306695e+001  -6.005669e+001 
3618750000  -4.381109e+001  -6.001815e+001 
3621875000  -4.360598e+001  -6.298853e+001 
3625000000  -4.433754e+001  -6.567116e+001 
3628125000  -4.442828e+001  -6.689837e+001 
3631250000  -4.410286e+001  -7.142191e+001 
3634375000  -4.580456e+001  -7.274265e+001 
3637500000  -4.550833e+001  -6.662882e+001 
3640625000  -4.474254e+001  -6.346963e+001 
3643750000  -4.462912e+001  -7.140915e+001 
3646875000  -4.491636e+001  -7.863683e+001 
3650000000  -4.602437e+001  -7.459247e+001 
3653125000  -4.526906e+001  -7.497675e+001 
3656250000  -4.586403e+001  -7.805647e+001 
3659375000  -4.608065e+001  -7.448996e+001 
3662500000  -4.539277e+001  -7.426324e+001 
3665625000  -4.529185e+001  -7.543642e+001 
3668750000  -4.411464e+001  -7.552395e+001 
3671875000  -4.269575e+001  -8.133432e+001 
3675000000  -4.305924e+001  -8.912166e+001 
3678125000  -4.321590e+001  -8.999387e+001 
3681250000  -4.281427e+001  -9.167351e+001 
3684375000  -4.319735e+001  -9.558825e+001 
3687500000  -4.326242e+001  -1.015408e+002 
3690625000  -4.306670e+001  -1.039380e+002 
3693750000  -4.423839e+001  -1.052371e+002 
3696875000  -4.355117e+001  -1.041751e+002 
3700000000  -4.281061e+001  -1.111442e+002 
3703125000  -4.292336e+001  -1.157111e+002 
3706250000  -4.387812e+001  -1.154553e+002 
3709375000  -4.344356e+001  -1.140581e+002 
3712500000  -4.246196e+001  -1.195696e+002 
3715625000  -4.128938e+001  -1.220269e+002 
3718750000  -4.119082e+001  -1.300433e+002 
3721875000  -4.118166e+001  -1.360026e+002 
3725000000  -4.151304e+001  -1.435262e+002 
3728125000  -4.180378e+001  -1.428859e+002 
3731250000  -4.152942e+001  -1.452207e+002 
3734375000  -4.125602e+001  -1.535585e+002 
3737500000  -4.202581e+001  -1.597738e+002 
3740625000  -4.333745e+001  -1.628495e+002 
3743750000  -4.297848e+001  -1.661548e+002 
3746875000  -4.334224e+001  -1.688024e+002 
3750000000  -4.433224e+001  -1.684903e+002 
3753125000  -4.424757e+001  -1.698424e+002 
3756250000  -4.422970e+001  -1.676433e+002 
3759375000  -4.442912e+001  -1.700691e+002 
3762500000  -4.395084e+001  -1.720449e+002 
3765625000  -4.498809e+001  -1.708808e+002 
3768750000  -4.483432e+001  -1.667944e+002 
3771875000  -4.307907e+001  -1.700940e+002 
3775000000  -4.306163e+001  -1.742598e+002 
3778125000  -4.319707e+001  -1.768895e+002 
3781250000  -4.307473e+001  -1.771676e+002 
3784375000  -4.254356e+001  -1.791750e+002 
3787500000  -4.201567e+001  1.759901e+002 
3790625000  -4.287606e+001  1.710708e+002 
3793750000  -4.262928e+001  1.721455e+002 
3796875000  -4.091276e+001  1.697481e+002 
3800000000  -3.971533e+001  1.657686e+002 
3803125000  -4.052494e+001  1.554372e+002 
3806250000  -4.090866e+001  1.534116e+002 
3809375000  -4.048096e+001  1.506537e+002 
3812500000  -3.985699e+001  1.440076e+002 
3815625000  -4.054773e+001  1.346193e+002 
3818750000  -4.165767e+001  1.351838e+002 
3821875000  -4.144015e+001  1.452033e+002 
3825000000  -3.938549e+001  1.438370e+002 
3828125000  -3.800744e+001  1.277072e+002 
3831250000  -3.873902e+001  1.141510e+002 
3834375000  -4.015004e+001  1.112415e+002 
3837500000  -4.109986e+001  1.167321e+002 
3840625000  -3.996344e+001  1.139263e+002 
3843750000  -3.909513e+001  1.028978e+002 
3846875000  -3.991122e+001  9.552054e+001 
3850000000  -4.138224e+001  1.001530e+002 
3853125000  -4.018525e+001  1.034418e+002 
3856250000  -3.993243e+001  9.552271e+001 
3859375000  -3.967273e+001  9.155743e+001 
3862500000  -3.933185e+001  8.224780e+001 
3865625000  -3.957064e+001  8.002198e+001 
3868750000  -3.973764e+001  7.674094e+001 
3871875000  -3.902765e+001  7.223395e+001 
3875000000  -3.951708e+001  6.449420e+001 
3878125000  -4.076901e+001  6.107928e+001 
3881250000  -4.047501e+001  6.426558e+001 
3884375000  -4.024407e+001  5.815922e+001 
3887500000  -4.048185e+001  5.348070e+001 
3890625000  -4.086629e+001  5.152373e+001 
3893750000  -4.143409e+001  4.957977e+001 
3896875000  -4.171584e+001  5.156865e+001 
3900000000  -4.176323e+001  4.979423e+001 
3903125000  -4.089226e+001  4.672163e+001 
3906250000  -4.093265e+001  4.745398e+001 
3909375000  -4.040607e+001  4.347247e+001 
3912500000  -3.998544e+001  3.277746e+001 
3915625000  -4.139678e+001  3.647446e+001 
3918750000  -4.118346e+001  3.791777e+001 
3921875000  -4.059695e+001  3.350432e+001 
3925000000  -3.986128e+001  3.252279e+001 
3928125000  -3.921378e+001  2.403675e+001 
3931250000  -3.959735e+001  1.939949e+001 
3934375000  -4.002395e+001  1.804520e+001 
3937500000  -3.992057e+001  1.667983e+001 
3940625000  -4.026777e+001  1.529891e+001 
3943750000  -3.950488e+001  1.541938e+001 
3946875000  -3.832029e+001  9.556453e+000 
3950000000  -3.909706e+001  1.574587e-001 
3953125000  -3.990881e+001  -2.037615e+000 
3956250000  -3.892436e+001  4.618343e-001 
3959375000  -3.780771e+001  -2.657017e+000 
3962500000  -3.739056e+001  -7.812595e+000 
3965625000  -3.705585e+001  -1.836024e+001 
3968750000  -3.793671e+001  -2.725924e+001 
3971875000  -3.834098e+001  -3.025072e+001 
3975000000  -3.758601e+001  -2.993466e+001 
3978125000  -3.776177e+001  -3.473472e+001 
3981250000  -3.781899e+001  -3.925633e+001 
3984375000  -3.798993e+001  -4.500549e+001 
3987500000  -3.848388e+001  -4.881146e+001 
3990625000  -3.843604e+001  -5.001121e+001 
3993750000  -3.882926e+001  -5.449804e+001 
3996875000  -3.886010e+001  -5.756046e+001 
4000000000  -3.932770e+001  -6.025258e+001 
4003125000  -3.981790e+001  -5.631111e+001 
4006250000  -3.844205e+001  -6.026822e+001 
4009375000  -3.724949e+001  -7.262074e+001 
4012500000  -3.858178e+001  -7.936271e+001 
4015625000  -3.995957e+001  -7.990522e+001 
4018750000  -4.007436e+001  -7.642552e+001 
4021875000  -3.906262e+001  -7.927734e+001 
4025000000  -3.892699e+001  -8.250156e+001 
4028125000  -3.904606e+001  -8.856734e+001 
4031250000  -3.929539e+001  -9.104848e+001 
4034375000  -3.991866e+001  -9.206998e+001 
4037500000  -3.947774e+001  -9.060136e+001 
4040625000  -3.888126e+001  -9.396967e+001 
4043750000  -3.956823e+001  -9.545660e+001 
4046875000  -3.904879e+001  -9.549943e+001 
4050000000  -3.854082e+001  -1.022920e+002 
4053125000  -3.916144e+001  -1.058804e+002 
4056250000  -3.959619e+001  -1.021281e+002 
4059375000  -3.827190e+001  -1.025803e+002 
4062500000  -3.681441e+001  -1.067001e+002 
4065625000  -3.685952e+001  -1.106124e+002 
4068750000  -3.634162e+001  -1.188452e+002 
4071875000  -3.568687e+001  -1.257515e+002 
4075000000  -3.602305e+001  -1.341114e+002 
4078125000  -3.666140e+001  -1.352721e+002 
4081250000  -3.600144e+001  -1.390316e+002 
4084375000  -3.563545e+001  -1.470076e+002 
4087500000  -3.607747e+001  -1.527316e+002 
4090625000  -3.676387e+001  -1.546842e+002 
4093750000  -3.642096e+001  -1.565130e+002 
4096875000  -3.597716e+001  -1.634945e+002 
4100000000  -3.697326e+001  -1.709280e+002 
4103125000  -3.775305e+001  -1.706918e+002 
4106250000  -3.766827e+001  -1.657622e+002 
4109375000  -3.664514e+001  -1.670405e+002 
4112500000  -3.631529e+001  -1.755629e+002 
4115625000  -3.661792e+001  1.787582e+002 
4118750000  -3.659747e+001  1.749271e+002 
4121875000  -3.629958e+001  1.680343e+002 
4125000000  -3.677004e+001  1.636681e+002 
4128125000  -3.769783e+001  1.620992e+002 
4131250000  -3.781680e+001  1.704688e+002 
4134375000  -3.538203e+001  1.633750e+002 
4137500000  -3.523627e+001  1.431543e+002 
4140625000  -3.721705e+001  1.366569e+002 
4143750000  -3.889850e+001  1.427592e+002 
4146875000  -3.853886e+001  1.483020e+002 
4150000000  -3.745266e+001  1.429957e+002 
4153125000  -3.726965e+001  1.355110e+002 
4156250000  -3.877931e+001  1.336668e+002 
4159375000  -3.883029e+001  1.383385e+002 
4162500000  -3.763390e+001  1.413569e+002 
4165625000  -3.663866e+001  1.376570e+002 
4168750000  -3.585513e+001  1.293952e+002 
4171875000  -3.597020e+001  1.199191e+002 
4175000000  -3.664095e+001  1.148284e+002 
4178125000  -3.737312e+001  1.147621e+002 
4181250000  -3.699608e+001  1.127590e+002 
4184375000  -3.669436e+001  1.087945e+002 
4187500000  -3.668558e+001  1.063160e+002 
4190625000  -3.665255e+001  9.973627e+001 
4193750000  -3.741406e+001  9.725804e+001 
4196875000  -3.817758e+001  9.514166e+001 
4200000000  -3.919837e+001  9.851971e+001 
4203125000  -3.884973e+001  1.108849e+002 
4206250000  -3.519138e+001  1.110935e+002 
4209375000  -3.402122e+001  8.809634e+001 
4212500000  -3.624566e+001  7.946552e+001 
4215625000  -3.694835e+001  8.576767e+001 
4218750000  -3.562263e+001  9.045171e+001 
4221875000  -3.318424e+001  8.208086e+001 
4225000000  -3.453419e+001  6.840321e+001 
4228125000  -3.486529e+001  7.255808e+001 
4231250000  -3.348001e+001  6.628055e+001 
4234375000  -3.323721e+001  5.724051e+001 
4237500000  -3.296200e+001  5.225678e+001 
4240625000  -3.301142e+001  4.247913e+001 
4243750000  -3.389885e+001  3.323958e+001 
4246875000  -3.496534e+001  3.245884e+001 
4250000000  -3.503699e+001  3.491319e+001 
4253125000  -3.442302e+001  3.184179e+001 
4256250000  -3.479317e+001  2.797436e+001 
4259375000  -3.453680e+001  2.369357e+001 
4262500000  -3.461665e+001  1.887126e+001 
4265625000  -3.486203e+001  1.748249e+001 
4268750000  -3.377500e+001  1.255110e+001 
4271875000  -3.374397e+001  5.782137e+000 
4275000000  -3.322291e+001  -1.368370e+000 
4278125000  -3.411325e+001  -1.371106e+001 
4281250000  -3.607579e+001  -1.596573e+001 
4284375000  -3.594257e+001  -1.703253e+001 
4287500000  -3.664634e+001  -2.030693e+001 
4290625000  -3.784652e+001  -1.193574e+001 
4293750000  -3.579735e+001  -6.079905e+000 
4296875000  -3.494429e+001  -1.701667e+001 
4300000000  -3.581543e+001  -2.688110e+001 
4303125000  -3.724213e+001  -2.527105e+001 
4306250000  -3.620374e+001  -2.015246e+001 
4309375000  -3.498503e+001  -2.242320e+001 
4312500000  -3.494030e+001  -2.936554e+001 
4315625000  -3.487771e+001  -3.571668e+001 
4318750000  -3.547319e+001  -3.949118e+001 
4321875000  -3.562152e+001  -3.860497e+001 
4325000000  -3.475956e+001  -3.734461e+001 
4328125000  -3.416141e+001  -4.527074e+001 
4331250000  -3.403402e+001  -5.431422e+001 
4334375000  -3.444006e+001  -5.856106e+001 
4337500000  -3.538007e+001  -6.125092e+001 
4340625000  -3.566273e+001  -5.815606e+001 
4343750000  -3.482349e+001  -5.940155e+001 
4346875000  -3.438960e+001  -6.494495e+001 
4350000000  -3.442972e+001  -7.136510e+001 
4353125000  -3.429062e+001  -7.934454e+001 
4356250000  -3.615896e+001  -8.068370e+001 
4359375000  -3.612712e+001  -6.847913e+001 
4362500000  -3.327123e+001  -6.805335e+001 
4365625000  -3.186931e+001  -8.100343e+001 
4368750000  -3.267320e+001  -9.488218e+001 
4371875000  -3.356527e+001  -9.564970e+001 
4375000000  -3.321574e+001  -9.580433e+001 
4378125000  -3.276318e+001  -1.022081e+002 
4381250000  -3.275290e+001  -1.099656e+002 
4384375000  -3.256553e+001  -1.162648e+002 
4387500000  -3.347785e+001  -1.234771e+002 
4390625000  -3.427824e+001  -1.232419e+002 
4393750000  -3.365971e+001  -1.235428e+002 
4396875000  -3.305685e+001  -1.255133e+002 
4400000000  -3.255729e+001  -1.350941e+002 
4403125000  -3.325761e+001  -1.443792e+002 
4406250000  -3.409153e+001  -1.458875e+002 
4409375000  -3.445354e+001  -1.490802e+002 
4412500000  -3.552079e+001  -1.526372e+002 
4415625000  -3.577488e+001  -1.478801e+002 
