!Agilent Technologies,E8363B,MY43030201,A.06.04.32
!Agilent E8363B: A.06.04.32
!Date: Tuesday, November 11, 2014 21:12:33
!Correction: S21(Response(S21)) 
!S1P File: Measurement: S21:
# Hz S  dB   R 50
3000000000  -3.655138e+001  -5.944102e+001 
3003125000  -3.769198e+001  -6.573403e+001 
3006250000  -3.760348e+001  -6.799431e+001 
3009375000  -3.784280e+001  -6.172287e+001 
3012500000  -3.694999e+001  -6.515727e+001 
3015625000  -3.625848e+001  -7.181805e+001 
3018750000  -3.687385e+001  -7.332697e+001 
3021875000  -3.549506e+001  -7.167001e+001 
3025000000  -3.418350e+001  -7.582792e+001 
3028125000  -3.320197e+001  -8.275934e+001 
3031250000  -3.220927e+001  -9.434784e+001 
3034375000  -3.186390e+001  -1.079714e+002 
3037500000  -3.237410e+001  -1.196395e+002 
3040625000  -3.370076e+001  -1.244212e+002 
3043750000  -3.430184e+001  -1.294393e+002 
3046875000  -3.462309e+001  -1.348091e+002 
3050000000  -3.607365e+001  -1.407556e+002 
3053125000  -3.616014e+001  -1.349702e+002 
3056250000  -3.569565e+001  -1.323669e+002 
3059375000  -3.569293e+001  -1.328771e+002 
3062500000  -3.407810e+001  -1.359585e+002 
3065625000  -3.397301e+001  -1.431115e+002 
3068750000  -3.369593e+001  -1.492262e+002 
3071875000  -3.356003e+001  -1.513583e+002 
3075000000  -3.331004e+001  -1.559833e+002 
3078125000  -3.306467e+001  -1.601065e+002 
3081250000  -3.357866e+001  -1.640852e+002 
3084375000  -3.263050e+001  -1.679861e+002 
3087500000  -3.246475e+001  -1.721204e+002 
3090625000  -3.198708e+001  1.775458e+002 
3093750000  -3.254274e+001  1.705344e+002 
3096875000  -3.350676e+001  1.653677e+002 
3100000000  -3.340874e+001  1.627536e+002 
3103125000  -3.372613e+001  1.632162e+002 
3106250000  -3.319916e+001  1.591669e+002 
3109375000  -3.325331e+001  1.549848e+002 
3112500000  -3.313733e+001  1.525638e+002 
3115625000  -3.290489e+001  1.478936e+002 
3118750000  -3.317084e+001  1.480014e+002 
3121875000  -3.233372e+001  1.382493e+002 
3125000000  -3.365414e+001  1.350292e+002 
3128125000  -3.450392e+001  1.418943e+002 
3131250000  -3.206269e+001  1.396461e+002 
3134375000  -3.073573e+001  1.240260e+002 
3137500000  -3.142735e+001  1.106445e+002 
3140625000  -3.280309e+001  1.077296e+002 
3143750000  -3.386335e+001  1.088965e+002 
3146875000  -3.330202e+001  1.100801e+002 
3150000000  -3.233697e+001  1.095895e+002 
3153125000  -3.238260e+001  1.006989e+002 
3156250000  -3.334110e+001  1.053569e+002 
3159375000  -3.153152e+001  1.072837e+002 
3162500000  -2.971858e+001  9.201582e+001 
3165625000  -3.084995e+001  7.970306e+001 
3168750000  -3.103216e+001  8.076525e+001 
3171875000  -3.013884e+001  7.436650e+001 
3175000000  -3.091788e+001  6.590849e+001 
3178125000  -3.063158e+001  6.651768e+001 
3181250000  -2.956167e+001  6.098867e+001 
3184375000  -2.891623e+001  4.789650e+001 
3187500000  -3.023883e+001  3.328849e+001 
3190625000  -3.273685e+001  2.627597e+001 
3193750000  -3.329864e+001  3.372180e+001 
3196875000  -3.298963e+001  3.880526e+001 
3200000000  -3.198538e+001  3.577377e+001 
3203125000  -3.123058e+001  2.929586e+001 
3206250000  -3.161581e+001  2.244313e+001 
3209375000  -3.112191e+001  1.664603e+001 
3212500000  -3.138045e+001  9.760967e+000 
3215625000  -3.134221e+001  5.721288e+000 
3218750000  -3.226213e+001  -2.209713e+000 
3221875000  -3.291896e+001  -6.845141e+000 
3225000000  -3.263433e+001  -7.934999e+000 
3228125000  -3.305948e+001  -1.324367e+001 
3231250000  -3.375527e+001  -1.541631e+001 
3234375000  -3.340832e+001  -1.490901e+001 
3237500000  -3.342498e+001  -1.719080e+001 
3240625000  -3.291819e+001  -2.059672e+001 
3243750000  -3.257740e+001  -2.846148e+001 
3246875000  -3.301330e+001  -3.522118e+001 
3250000000  -3.337634e+001  -3.738245e+001 
3253125000  -3.354570e+001  -3.887481e+001 
3256250000  -3.305122e+001  -4.623003e+001 
3259375000  -3.340607e+001  -5.510088e+001 
3262500000  -3.467175e+001  -5.878612e+001 
3265625000  -3.529018e+001  -5.568827e+001 
3268750000  -3.513206e+001  -5.345627e+001 
3271875000  -3.461110e+001  -5.459149e+001 
3275000000  -3.373630e+001  -6.147308e+001 
3278125000  -3.414939e+001  -6.731265e+001 
3281250000  -3.430966e+001  -6.694540e+001 
3284375000  -3.378719e+001  -7.349303e+001 
3287500000  -3.407107e+001  -7.709097e+001 
3290625000  -3.416979e+001  -8.366965e+001 
3293750000  -3.393624e+001  -8.922012e+001 
3296875000  -3.514742e+001  -8.995296e+001 
3300000000  -3.480873e+001  -8.936996e+001 
3303125000  -3.363188e+001  -9.461004e+001 
3306250000  -3.339132e+001  -1.015616e+002 
3309375000  -3.318687e+001  -1.081816e+002 
3312500000  -3.331003e+001  -1.192638e+002 
3315625000  -3.436378e+001  -1.274323e+002 
3318750000  -3.585507e+001  -1.301230e+002 
3321875000  -3.686776e+001  -1.292248e+002 
3325000000  -3.726273e+001  -1.239465e+002 
3328125000  -3.663344e+001  -1.232606e+002 
3331250000  -3.549866e+001  -1.172914e+002 
3334375000  -3.291805e+001  -1.281051e+002 
3337500000  -3.299747e+001  -1.486284e+002 
3340625000  -3.447306e+001  -1.584385e+002 
3343750000  -3.648455e+001  -1.594395e+002 
3346875000  -3.648872e+001  -1.572923e+002 
3350000000  -3.594847e+001  -1.600927e+002 
3353125000  -3.595409e+001  -1.647037e+002 
3356250000  -3.564965e+001  -1.724439e+002 
3359375000  -3.628870e+001  1.780680e+002 
3362500000  -3.749082e+001  1.733572e+002 
3365625000  -3.791700e+001  1.720741e+002 
3368750000  -3.874193e+001  1.694785e+002 
3371875000  -3.899388e+001  1.658701e+002 
3375000000  -4.033792e+001  1.643929e+002 
3378125000  -4.127112e+001  1.639433e+002 
3381250000  -4.221691e+001  1.756677e+002 
3384375000  -4.086916e+001  -1.673159e+002 
3387500000  -3.750633e+001  1.773866e+002 
3390625000  -3.933776e+001  1.593759e+002 
3393750000  -4.031736e+001  1.627968e+002 
3396875000  -3.911540e+001  1.625197e+002 
3400000000  -3.850799e+001  1.552104e+002 
3403125000  -3.906815e+001  1.490757e+002 
3406250000  -3.948804e+001  1.498560e+002 
3409375000  -3.979756e+001  1.411139e+002 
3412500000  -3.993526e+001  1.396919e+002 
3415625000  -4.096326e+001  1.403599e+002 
3418750000  -4.112066e+001  1.419068e+002 
3421875000  -4.119835e+001  1.450994e+002 
3425000000  -4.018397e+001  1.435670e+002 
3428125000  -3.931116e+001  1.390526e+002 
3431250000  -3.924754e+001  1.326782e+002 
3434375000  -3.911975e+001  1.268976e+002 
3437500000  -3.978133e+001  1.225964e+002 
3440625000  -3.994832e+001  1.249312e+002 
3443750000  -3.855637e+001  1.259775e+002 
3446875000  -3.777378e+001  1.173774e+002 
3450000000  -3.745763e+001  1.071700e+002 
3453125000  -3.789309e+001  9.732085e+001 
3456250000  -3.932278e+001  9.064371e+001 
3459375000  -4.008884e+001  9.144443e+001 
3462500000  -3.973688e+001  9.193870e+001 
3465625000  -3.983603e+001  8.630786e+001 
3468750000  -4.020756e+001  8.203992e+001 
3471875000  -4.007188e+001  8.110484e+001 
3475000000  -3.990434e+001  7.634705e+001 
3478125000  -4.043386e+001  6.885744e+001 
3481250000  -4.115316e+001  6.623152e+001 
3484375000  -4.223226e+001  7.102644e+001 
3487500000  -4.153889e+001  6.756789e+001 
3490625000  -4.093821e+001  6.419182e+001 
3493750000  -4.135241e+001  5.616193e+001 
3496875000  -4.165889e+001  5.717659e+001 
3500000000  -4.265284e+001  6.052586e+001 
3503125000  -4.213627e+001  5.989752e+001 
3506250000  -4.082703e+001  5.512681e+001 
3509375000  -4.066211e+001  4.564528e+001 
3512500000  -4.087688e+001  3.829623e+001 
3515625000  -4.181715e+001  3.372968e+001 
3518750000  -4.259705e+001  3.565778e+001 
3521875000  -4.226582e+001  3.527517e+001 
3525000000  -4.337313e+001  3.221826e+001 
3528125000  -4.345483e+001  3.971401e+001 
3531250000  -4.193577e+001  3.694019e+001 
3534375000  -4.195081e+001  2.636399e+001 
3537500000  -4.269081e+001  2.099408e+001 
3540625000  -4.310705e+001  1.977287e+001 
3543750000  -4.401654e+001  2.510054e+001 
3546875000  -4.391539e+001  3.901560e+001 
3550000000  -4.105310e+001  3.522216e+001 
3553125000  -4.003986e+001  1.747340e+001 
3556250000  -4.153873e+001  1.181602e+001 
3559375000  -4.100193e+001  1.213637e+001 
3562500000  -4.034615e+001  4.033802e+000 
3565625000  -4.102178e+001  -4.213624e+000 
3568750000  -4.138848e+001  -1.019477e+000 
3571875000  -4.107452e+001  -2.660229e+000 
3575000000  -4.053514e+001  -1.046833e+001 
3578125000  -4.118573e+001  -1.443700e+001 
3581250000  -4.145718e+001  -1.364979e+001 
3584375000  -4.038705e+001  -1.842479e+001 
3587500000  -3.988356e+001  -2.771607e+001 
3590625000  -4.032149e+001  -3.956100e+001 
3593750000  -4.198033e+001  -3.997498e+001 
3596875000  -4.175735e+001  -3.354450e+001 
3600000000  -4.017678e+001  -4.074619e+001 
3603125000  -4.076594e+001  -5.635303e+001 
3606250000  -4.132285e+001  -5.793478e+001 
3609375000  -4.231074e+001  -6.068275e+001 
3612500000  -4.267110e+001  -6.321939e+001 
3615625000  -4.286484e+001  -6.882792e+001 
3618750000  -4.367176e+001  -6.771393e+001 
3621875000  -4.347062e+001  -7.065552e+001 
3625000000  -4.431372e+001  -6.869370e+001 
3628125000  -4.458969e+001  -7.093602e+001 
3631250000  -4.405111e+001  -7.683141e+001 
3634375000  -4.589985e+001  -7.805001e+001 
3637500000  -4.550046e+001  -7.318165e+001 
3640625000  -4.468552e+001  -6.727198e+001 
3643750000  -4.411522e+001  -7.555061e+001 
3646875000  -4.526388e+001  -8.254360e+001 
3650000000  -4.562151e+001  -8.103226e+001 
3653125000  -4.545195e+001  -8.373489e+001 
3656250000  -4.590516e+001  -8.251516e+001 
3659375000  -4.613940e+001  -8.192023e+001 
3662500000  -4.478484e+001  -7.887798e+001 
3665625000  -4.440112e+001  -8.016225e+001 
3668750000  -4.364113e+001  -8.027965e+001 
3671875000  -4.243557e+001  -8.814151e+001 
3675000000  -4.275525e+001  -9.457526e+001 
3678125000  -4.304491e+001  -9.694893e+001 
3681250000  -4.269548e+001  -9.939204e+001 
3684375000  -4.301445e+001  -1.043423e+002 
3687500000  -4.264857e+001  -1.088924e+002 
3690625000  -4.261221e+001  -1.129622e+002 
3693750000  -4.403496e+001  -1.137688e+002 
3696875000  -4.367963e+001  -1.133854e+002 
3700000000  -4.273050e+001  -1.185323e+002 
3703125000  -4.257647e+001  -1.229760e+002 
3706250000  -4.361945e+001  -1.241492e+002 
3709375000  -4.317392e+001  -1.202661e+002 
3712500000  -4.234201e+001  -1.238635e+002 
3715625000  -4.148886e+001  -1.317110e+002 
3718750000  -4.117904e+001  -1.374000e+002 
3721875000  -4.083875e+001  -1.446683e+002 
3725000000  -4.149960e+001  -1.514137e+002 
3728125000  -4.207561e+001  -1.489692e+002 
3731250000  -4.153119e+001  -1.541743e+002 
3734375000  -4.152419e+001  -1.598267e+002 
3737500000  -4.194479e+001  -1.656710e+002 
3740625000  -4.331612e+001  -1.704155e+002 
3743750000  -4.337335e+001  -1.734107e+002 
3746875000  -4.370952e+001  -1.782317e+002 
3750000000  -4.441835e+001  -1.750104e+002 
3753125000  -4.392833e+001  -1.764605e+002 
3756250000  -4.474384e+001  -1.739057e+002 
3759375000  -4.466064e+001  -1.747226e+002 
3762500000  -4.461059e+001  -1.797142e+002 
3765625000  -4.494456e+001  -1.783703e+002 
3768750000  -4.512456e+001  -1.761661e+002 
3771875000  -4.306851e+001  -1.776414e+002 
3775000000  -4.310974e+001  1.774703e+002 
3778125000  -4.300558e+001  1.779700e+002 
3781250000  -4.295816e+001  1.743882e+002 
3784375000  -4.288596e+001  1.739364e+002 
3787500000  -4.158222e+001  1.692673e+002 
3790625000  -4.241308e+001  1.641344e+002 
3793750000  -4.230112e+001  1.632616e+002 
3796875000  -4.134029e+001  1.619788e+002 
3800000000  -3.941325e+001  1.594686e+002 
3803125000  -4.042762e+001  1.474155e+002 
3806250000  -4.109051e+001  1.468161e+002 
3809375000  -4.054003e+001  1.443296e+002 
3812500000  -3.972869e+001  1.393362e+002 
3815625000  -4.068766e+001  1.276645e+002 
3818750000  -4.148778e+001  1.270785e+002 
3821875000  -4.150639e+001  1.379439e+002 
3825000000  -3.916729e+001  1.379534e+002 
3828125000  -3.786290e+001  1.200537e+002 
3831250000  -3.867503e+001  1.070703e+002 
3834375000  -4.030153e+001  1.042354e+002 
3837500000  -4.101988e+001  1.104472e+002 
3840625000  -3.963820e+001  1.069882e+002 
3843750000  -3.867891e+001  9.467203e+001 
3846875000  -3.982742e+001  8.795560e+001 
3850000000  -4.146620e+001  9.334901e+001 
3853125000  -4.035003e+001  9.574390e+001 
3856250000  -4.018910e+001  9.079022e+001 
3859375000  -3.934897e+001  8.264035e+001 
3862500000  -3.937572e+001  7.426138e+001 
3865625000  -4.006974e+001  7.051959e+001 
3868750000  -3.970105e+001  6.860938e+001 
3871875000  -3.897898e+001  6.626131e+001 
3875000000  -3.934005e+001  5.554690e+001 
3878125000  -4.048232e+001  5.513508e+001 
3881250000  -4.083807e+001  5.817534e+001 
3884375000  -4.036375e+001  5.226813e+001 
3887500000  -4.038575e+001  4.753019e+001 
3890625000  -4.088202e+001  4.352388e+001 
3893750000  -4.104512e+001  4.357825e+001 
3896875000  -4.159729e+001  4.443115e+001 
3900000000  -4.160609e+001  4.374058e+001 
3903125000  -4.100600e+001  4.010961e+001 
3906250000  -4.092922e+001  3.807580e+001 
3909375000  -3.994230e+001  3.531594e+001 
3912500000  -4.035275e+001  2.691957e+001 
3915625000  -4.155220e+001  2.838979e+001 
3918750000  -4.101845e+001  2.996680e+001 
3921875000  -4.071028e+001  2.706433e+001 
3925000000  -3.972878e+001  2.464771e+001 
3928125000  -3.908129e+001  1.752476e+001 
3931250000  -3.949974e+001  1.202372e+001 
3934375000  -4.000520e+001  1.235872e+001 
3937500000  -4.020518e+001  1.055713e+001 
3940625000  -4.040389e+001  8.379902e+000 
3943750000  -3.901846e+001  5.856304e+000 
3946875000  -3.823352e+001  1.893866e+000 
3950000000  -3.885464e+001  -7.837102e+000 
3953125000  -3.996651e+001  -9.959359e+000 
3956250000  -3.888152e+001  -5.664924e+000 
3959375000  -3.770383e+001  -1.075538e+001 
3962500000  -3.729151e+001  -1.648412e+001 
3965625000  -3.723997e+001  -2.626488e+001 
3968750000  -3.829333e+001  -3.302092e+001 
3971875000  -3.820631e+001  -3.611512e+001 
3975000000  -3.777077e+001  -3.868618e+001 
3978125000  -3.774941e+001  -4.117184e+001 
3981250000  -3.779609e+001  -4.885751e+001 
3984375000  -3.799562e+001  -5.350197e+001 
3987500000  -3.846233e+001  -5.584509e+001 
3990625000  -3.862185e+001  -5.776303e+001 
3993750000  -3.904867e+001  -6.274213e+001 
3996875000  -3.888242e+001  -6.643189e+001 
4000000000  -3.945634e+001  -6.714095e+001 
4003125000  -3.959873e+001  -6.445258e+001 
4006250000  -3.854057e+001  -6.768936e+001 
4009375000  -3.724983e+001  -8.101546e+001 
4012500000  -3.861609e+001  -8.665023e+001 
4015625000  -4.004729e+001  -8.530105e+001 
4018750000  -4.014090e+001  -8.687781e+001 
4021875000  -3.951536e+001  -8.636373e+001 
4025000000  -3.931581e+001  -9.326905e+001 
4028125000  -3.911787e+001  -9.545789e+001 
4031250000  -3.951475e+001  -9.894096e+001 
4034375000  -3.988743e+001  -1.005894e+002 
4037500000  -3.919955e+001  -9.809863e+001 
4040625000  -3.947396e+001  -1.023563e+002 
4043750000  -3.930055e+001  -1.036633e+002 
4046875000  -3.915943e+001  -1.049488e+002 
4050000000  -3.846790e+001  -1.106303e+002 
4053125000  -3.904253e+001  -1.128426e+002 
4056250000  -3.965887e+001  -1.068805e+002 
4059375000  -3.799239e+001  -1.082977e+002 
4062500000  -3.672704e+001  -1.138148e+002 
4065625000  -3.679667e+001  -1.185816e+002 
4068750000  -3.620811e+001  -1.246300e+002 
4071875000  -3.580438e+001  -1.340053e+002 
4075000000  -3.586338e+001  -1.404232e+002 
4078125000  -3.656719e+001  -1.422121e+002 
4081250000  -3.586953e+001  -1.462276e+002 
4084375000  -3.553084e+001  -1.536221e+002 
4087500000  -3.610919e+001  -1.620703e+002 
4090625000  -3.660343e+001  -1.630015e+002 
4093750000  -3.650394e+001  -1.634622e+002 
4096875000  -3.615445e+001  -1.705245e+002 
4100000000  -3.690990e+001  -1.783774e+002 
4103125000  -3.762656e+001  -1.784093e+002 
4106250000  -3.764220e+001  -1.749301e+002 
4109375000  -3.640806e+001  -1.764173e+002 
4112500000  -3.623149e+001  1.751609e+002 
4115625000  -3.666751e+001  1.714634e+002 
4118750000  -3.653880e+001  1.666992e+002 
4121875000  -3.617447e+001  1.605823e+002 
4125000000  -3.687746e+001  1.552567e+002 
4128125000  -3.784694e+001  1.551277e+002 
4131250000  -3.732611e+001  1.619183e+002 
4134375000  -3.520832e+001  1.553775e+002 
4137500000  -3.505218e+001  1.370175e+002 
4140625000  -3.753348e+001  1.275632e+002 
4143750000  -3.886736e+001  1.315806e+002 
4146875000  -3.833743e+001  1.390437e+002 
4150000000  -3.759135e+001  1.354251e+002 
4153125000  -3.746555e+001  1.276328e+002 
4156250000  -3.853473e+001  1.250243e+002 
4159375000  -3.895717e+001  1.296925e+002 
4162500000  -3.771310e+001  1.336386e+002 
4165625000  -3.677542e+001  1.303129e+002 
4168750000  -3.606331e+001  1.201367e+002 
4171875000  -3.614557e+001  1.122946e+002 
4175000000  -3.684560e+001  1.067683e+002 
4178125000  -3.742265e+001  1.059595e+002 
4181250000  -3.695636e+001  1.054047e+002 
4184375000  -3.692153e+001  1.014634e+002 
4187500000  -3.682283e+001  9.885463e+001 
4190625000  -3.687281e+001  9.259695e+001 
4193750000  -3.759628e+001  8.860202e+001 
4196875000  -3.822192e+001  8.872547e+001 
4200000000  -3.943167e+001  9.019521e+001 
4203125000  -3.866850e+001  1.044393e+002 
4206250000  -3.503194e+001  1.019435e+002 
4209375000  -3.430860e+001  8.024430e+001 
4212500000  -3.625417e+001  7.162489e+001 
4215625000  -3.715571e+001  7.944588e+001 
4218750000  -3.555348e+001  8.284096e+001 
4221875000  -3.332159e+001  7.343124e+001 
4225000000  -3.454397e+001  6.009433e+001 
4228125000  -3.519120e+001  6.324782e+001 
4231250000  -3.350621e+001  5.813961e+001 
4234375000  -3.338268e+001  4.889273e+001 
4237500000  -3.290829e+001  4.468336e+001 
4240625000  -3.303939e+001  3.467011e+001 
4243750000  -3.404307e+001  2.590148e+001 
4246875000  -3.493593e+001  2.510507e+001 
4250000000  -3.496800e+001  2.661485e+001 
4253125000  -3.443942e+001  2.297321e+001 
4256250000  -3.479553e+001  1.857498e+001 
4259375000  -3.443290e+001  1.549192e+001 
4262500000  -3.459381e+001  1.022051e+001 
4265625000  -3.474920e+001  9.248407e+000 
4268750000  -3.391862e+001  4.134119e+000 
4271875000  -3.367836e+001  -4.256906e+000 
4275000000  -3.346428e+001  -1.073976e+001 
4278125000  -3.423138e+001  -2.368521e+001 
4281250000  -3.610558e+001  -2.400211e+001 
4284375000  -3.575694e+001  -2.472353e+001 
4287500000  -3.682303e+001  -2.988287e+001 
4290625000  -3.787222e+001  -1.914685e+001 
4293750000  -3.619234e+001  -1.622344e+001 
4296875000  -3.491479e+001  -2.629125e+001 
4300000000  -3.586124e+001  -3.493948e+001 
4303125000  -3.721702e+001  -3.386514e+001 
4306250000  -3.651409e+001  -2.841078e+001 
4309375000  -3.528078e+001  -3.013104e+001 
4312500000  -3.492281e+001  -3.792424e+001 
4315625000  -3.540939e+001  -4.460604e+001 
4318750000  -3.573232e+001  -4.791465e+001 
4321875000  -3.567369e+001  -4.650882e+001 
4325000000  -3.512570e+001  -4.688420e+001 
4328125000  -3.429970e+001  -5.307310e+001 
4331250000  -3.434402e+001  -6.189262e+001 
4334375000  -3.474124e+001  -6.740632e+001 
4337500000  -3.549045e+001  -6.955304e+001 
4340625000  -3.586317e+001  -6.630961e+001 
4343750000  -3.495787e+001  -6.736010e+001 
4346875000  -3.462296e+001  -7.366537e+001 
4350000000  -3.439409e+001  -7.852266e+001 
4353125000  -3.446858e+001  -8.828931e+001 
4356250000  -3.637732e+001  -8.757731e+001 
4359375000  -3.652226e+001  -7.364265e+001 
4362500000  -3.328344e+001  -7.654529e+001 
4365625000  -3.187963e+001  -8.982330e+001 
4368750000  -3.269536e+001  -1.016076e+002 
4371875000  -3.372869e+001  -1.028720e+002 
4375000000  -3.330196e+001  -1.033755e+002 
4378125000  -3.262957e+001  -1.110148e+002 
4381250000  -3.293817e+001  -1.186458e+002 
4384375000  -3.267105e+001  -1.245627e+002 
4387500000  -3.351788e+001  -1.317349e+002 
4390625000  -3.434713e+001  -1.319118e+002 
4393750000  -3.383699e+001  -1.308014e+002 
4396875000  -3.323381e+001  -1.339526e+002 
4400000000  -3.266611e+001  -1.434306e+002 
4403125000  -3.350021e+001  -1.521271e+002 
4406250000  -3.404207e+001  -1.544885e+002 
4409375000  -3.444492e+001  -1.571888e+002 
4412500000  -3.574046e+001  -1.616148e+002 
4415625000  -3.572477e+001  -1.567431e+002 
