!Agilent Technologies,E8363B,MY43030201,A.06.04.32
!Agilent E8363B: A.06.04.32
!Date: Tuesday, November 11, 2014 21:08:09
!Correction: S21(Response(S21)) 
!S1P File: Measurement: S21:
# Hz S  dB   R 50
3000000000  -3.636935e+001  -5.404441e+001 
3003125000  -3.752531e+001  -5.950646e+001 
3006250000  -3.736818e+001  -6.259174e+001 
3009375000  -3.775847e+001  -5.863845e+001 
3012500000  -3.693699e+001  -6.000782e+001 
3015625000  -3.611554e+001  -6.720995e+001 
3018750000  -3.693806e+001  -6.834395e+001 
3021875000  -3.544674e+001  -6.736386e+001 
3025000000  -3.411679e+001  -7.105436e+001 
3028125000  -3.321185e+001  -7.741772e+001 
3031250000  -3.217771e+001  -8.881561e+001 
3034375000  -3.181986e+001  -1.020550e+002 
3037500000  -3.228419e+001  -1.143104e+002 
3040625000  -3.363653e+001  -1.195088e+002 
3043750000  -3.424223e+001  -1.243339e+002 
3046875000  -3.441156e+001  -1.303685e+002 
3050000000  -3.620082e+001  -1.362599e+002 
3053125000  -3.604859e+001  -1.299530e+002 
3056250000  -3.563644e+001  -1.269578e+002 
3059375000  -3.578044e+001  -1.273045e+002 
3062500000  -3.415814e+001  -1.308040e+002 
3065625000  -3.400907e+001  -1.369775e+002 
3068750000  -3.360073e+001  -1.434546e+002 
3071875000  -3.352862e+001  -1.462136e+002 
3075000000  -3.338440e+001  -1.508550e+002 
3078125000  -3.305173e+001  -1.545394e+002 
3081250000  -3.357439e+001  -1.590274e+002 
3084375000  -3.262926e+001  -1.621588e+002 
3087500000  -3.248893e+001  -1.666476e+002 
3090625000  -3.203893e+001  -1.763307e+002 
3093750000  -3.247195e+001  1.759899e+002 
3096875000  -3.347002e+001  1.704233e+002 
3100000000  -3.330425e+001  1.685754e+002 
3103125000  -3.371525e+001  1.689057e+002 
3106250000  -3.311687e+001  1.649827e+002 
3109375000  -3.326015e+001  1.608622e+002 
3112500000  -3.314101e+001  1.583870e+002 
3115625000  -3.286153e+001  1.535156e+002 
3118750000  -3.316720e+001  1.537345e+002 
3121875000  -3.228049e+001  1.440967e+002 
3125000000  -3.359120e+001  1.401970e+002 
3128125000  -3.447843e+001  1.479558e+002 
3131250000  -3.195478e+001  1.455619e+002 
3134375000  -3.078418e+001  1.294556e+002 
3137500000  -3.132723e+001  1.161519e+002 
3140625000  -3.278908e+001  1.133425e+002 
3143750000  -3.382279e+001  1.147607e+002 
3146875000  -3.333241e+001  1.161312e+002 
3150000000  -3.229858e+001  1.157982e+002 
3153125000  -3.237973e+001  1.062284e+002 
3156250000  -3.337765e+001  1.121139e+002 
3159375000  -3.164598e+001  1.125785e+002 
3162500000  -2.970749e+001  9.789378e+001 
3165625000  -3.080549e+001  8.550990e+001 
3168750000  -3.099930e+001  8.583319e+001 
3171875000  -3.015360e+001  8.011849e+001 
3175000000  -3.090173e+001  7.189880e+001 
3178125000  -3.069427e+001  7.241188e+001 
3181250000  -2.963241e+001  6.645454e+001 
3184375000  -2.890941e+001  5.431813e+001 
3187500000  -3.020167e+001  3.894578e+001 
3190625000  -3.291121e+001  3.086107e+001 
3193750000  -3.339877e+001  3.921942e+001 
3196875000  -3.307022e+001  4.422670e+001 
3200000000  -3.209280e+001  4.157343e+001 
3203125000  -3.129375e+001  3.487865e+001 
3206250000  -3.164975e+001  2.787419e+001 
3209375000  -3.115499e+001  2.217929e+001 
3212500000  -3.147000e+001  1.587500e+001 
3215625000  -3.145790e+001  1.179636e+001 
3218750000  -3.225732e+001  4.415785e+000 
3221875000  -3.302245e+001  -7.727425e-001 
3225000000  -3.271296e+001  -2.213440e+000 
3228125000  -3.310169e+001  -7.538401e+000 
3231250000  -3.372398e+001  -9.934891e+000 
3234375000  -3.350665e+001  -9.382674e+000 
3237500000  -3.343849e+001  -1.141414e+001 
3240625000  -3.297519e+001  -1.393504e+001 
3243750000  -3.264340e+001  -2.208115e+001 
3246875000  -3.306408e+001  -2.839356e+001 
3250000000  -3.338661e+001  -3.121662e+001 
3253125000  -3.353512e+001  -3.354943e+001 
3256250000  -3.320001e+001  -4.014111e+001 
3259375000  -3.338947e+001  -4.835867e+001 
3262500000  -3.462735e+001  -5.260390e+001 
3265625000  -3.528968e+001  -4.945550e+001 
3268750000  -3.510744e+001  -4.739318e+001 
3271875000  -3.463726e+001  -4.749181e+001 
3275000000  -3.368306e+001  -5.439591e+001 
3278125000  -3.421725e+001  -6.121603e+001 
3281250000  -3.429962e+001  -6.027036e+001 
3284375000  -3.386679e+001  -6.736973e+001 
3287500000  -3.399856e+001  -7.097520e+001 
3290625000  -3.432204e+001  -7.706991e+001 
3293750000  -3.407549e+001  -8.261487e+001 
3296875000  -3.528011e+001  -8.330349e+001 
3300000000  -3.487014e+001  -8.236397e+001 
3303125000  -3.370724e+001  -8.818275e+001 
3306250000  -3.351243e+001  -9.515198e+001 
3309375000  -3.321203e+001  -1.015307e+002 
3312500000  -3.336453e+001  -1.130546e+002 
3315625000  -3.429441e+001  -1.208310e+002 
3318750000  -3.576346e+001  -1.242953e+002 
3321875000  -3.685840e+001  -1.237831e+002 
3325000000  -3.740942e+001  -1.188566e+002 
3328125000  -3.700735e+001  -1.183697e+002 
3331250000  -3.574092e+001  -1.115663e+002 
3334375000  -3.291422e+001  -1.224885e+002 
3337500000  -3.310641e+001  -1.413982e+002 
3340625000  -3.447692e+001  -1.521698e+002 
3343750000  -3.651750e+001  -1.528080e+002 
3346875000  -3.656370e+001  -1.525738e+002 
3350000000  -3.606182e+001  -1.534521e+002 
3353125000  -3.612178e+001  -1.575165e+002 
3356250000  -3.547345e+001  -1.664682e+002 
3359375000  -3.642549e+001  -1.743341e+002 
3362500000  -3.763621e+001  1.788678e+002 
3365625000  -3.806929e+001  1.785069e+002 
3368750000  -3.877908e+001  1.765325e+002 
3371875000  -3.906329e+001  1.744665e+002 
3375000000  -4.048069e+001  1.705436e+002 
3378125000  -4.133262e+001  1.704467e+002 
3381250000  -4.257615e+001  -1.792227e+002 
3384375000  -4.123972e+001  -1.608343e+002 
3387500000  -3.758426e+001  -1.766047e+002 
3390625000  -3.924492e+001  1.657307e+002 
3393750000  -4.040169e+001  1.684563e+002 
3396875000  -3.934501e+001  1.703719e+002 
3400000000  -3.886404e+001  1.616774e+002 
3403125000  -3.935170e+001  1.564868e+002 
3406250000  -3.982018e+001  1.559472e+002 
3409375000  -3.981749e+001  1.484152e+002 
3412500000  -4.033753e+001  1.453498e+002 
3415625000  -4.102680e+001  1.476437e+002 
3418750000  -4.121794e+001  1.476730e+002 
3421875000  -4.141941e+001  1.498080e+002 
3425000000  -4.013202e+001  1.513486e+002 
3428125000  -3.930742e+001  1.470014e+002 
3431250000  -3.916050e+001  1.403866e+002 
3434375000  -3.900715e+001  1.337101e+002 
3437500000  -3.986395e+001  1.307872e+002 
3440625000  -4.012239e+001  1.306428e+002 
3443750000  -3.883858e+001  1.327122e+002 
3446875000  -3.798615e+001  1.240619e+002 
3450000000  -3.770646e+001  1.139603e+002 
3453125000  -3.800254e+001  1.046973e+002 
3456250000  -3.917843e+001  9.727193e+001 
3459375000  -4.004387e+001  9.785588e+001 
3462500000  -3.994621e+001  9.879568e+001 
3465625000  -3.999046e+001  9.262597e+001 
3468750000  -4.023825e+001  8.915908e+001 
3471875000  -4.032036e+001  8.868462e+001 
3475000000  -3.960292e+001  8.246761e+001 
3478125000  -4.061353e+001  7.389213e+001 
3481250000  -4.150395e+001  7.270720e+001 
3484375000  -4.253617e+001  7.771119e+001 
3487500000  -4.144251e+001  7.551210e+001 
3490625000  -4.073154e+001  7.164298e+001 
3493750000  -4.151097e+001  6.535060e+001 
3496875000  -4.210874e+001  6.508701e+001 
3500000000  -4.287301e+001  6.639022e+001 
3503125000  -4.221053e+001  6.878160e+001 
3506250000  -4.067104e+001  6.478613e+001 
3509375000  -4.085387e+001  5.563357e+001 
3512500000  -4.131808e+001  4.719648e+001 
3515625000  -4.218958e+001  4.392441e+001 
3518750000  -4.253367e+001  4.443005e+001 
3521875000  -4.255000e+001  4.028803e+001 
3525000000  -4.333785e+001  3.905842e+001 
3528125000  -4.319992e+001  4.676922e+001 
3531250000  -4.182973e+001  4.527129e+001 
3534375000  -4.198168e+001  3.427677e+001 
3537500000  -4.225225e+001  2.900846e+001 
3540625000  -4.334350e+001  2.568684e+001 
3543750000  -4.410445e+001  2.963103e+001 
3546875000  -4.394463e+001  4.292183e+001 
3550000000  -4.102829e+001  4.346632e+001 
3553125000  -3.986586e+001  2.568591e+001 
3556250000  -4.147021e+001  1.980733e+001 
3559375000  -4.118407e+001  2.096899e+001 
3562500000  -4.009359e+001  9.372051e+000 
3565625000  -4.102747e+001  2.970427e+000 
3568750000  -4.130037e+001  5.900391e+000 
3571875000  -4.078004e+001  2.902465e+000 
3575000000  -4.079588e+001  -2.696115e+000 
3578125000  -4.101979e+001  -7.588889e+000 
3581250000  -4.123916e+001  -8.780521e+000 
3584375000  -4.035281e+001  -1.384550e+001 
3587500000  -4.024435e+001  -2.136471e+001 
3590625000  -4.076368e+001  -3.120066e+001 
3593750000  -4.153896e+001  -3.491396e+001 
3596875000  -4.172685e+001  -2.719442e+001 
3600000000  -4.040313e+001  -3.496302e+001 
3603125000  -4.065696e+001  -4.788967e+001 
3606250000  -4.162381e+001  -5.222405e+001 
3609375000  -4.255427e+001  -5.463577e+001 
3612500000  -4.293126e+001  -5.783693e+001 
3615625000  -4.339080e+001  -6.118187e+001 
3618750000  -4.421754e+001  -5.880873e+001 
3621875000  -4.392294e+001  -6.205474e+001 
3625000000  -4.444607e+001  -6.275109e+001 
3628125000  -4.454485e+001  -6.606647e+001 
3631250000  -4.457342e+001  -7.000577e+001 
3634375000  -4.584769e+001  -6.934498e+001 
3637500000  -4.594605e+001  -6.079372e+001 
3640625000  -4.517632e+001  -6.296512e+001 
3643750000  -4.466599e+001  -6.734279e+001 
3646875000  -4.532776e+001  -7.054445e+001 
3650000000  -4.545938e+001  -6.798374e+001 
3653125000  -4.523352e+001  -7.324376e+001 
3656250000  -4.594875e+001  -7.181651e+001 
3659375000  -4.591738e+001  -6.908311e+001 
3662500000  -4.467819e+001  -6.918605e+001 
3665625000  -4.456375e+001  -7.226856e+001 
3668750000  -4.347789e+001  -7.370612e+001 
3671875000  -4.235752e+001  -8.073277e+001 
3675000000  -4.247984e+001  -8.531631e+001 
3678125000  -4.250552e+001  -8.808102e+001 
3681250000  -4.246131e+001  -9.155874e+001 
3684375000  -4.252015e+001  -9.628986e+001 
3687500000  -4.245795e+001  -9.930278e+001 
3690625000  -4.253033e+001  -1.059552e+002 
3693750000  -4.394627e+001  -1.068097e+002 
3696875000  -4.352215e+001  -1.066299e+002 
3700000000  -4.245471e+001  -1.112141e+002 
3703125000  -4.281619e+001  -1.169551e+002 
3706250000  -4.380758e+001  -1.187978e+002 
3709375000  -4.323458e+001  -1.155147e+002 
3712500000  -4.224360e+001  -1.171502e+002 
3715625000  -4.156295e+001  -1.250964e+002 
3718750000  -4.123408e+001  -1.308389e+002 
3721875000  -4.123186e+001  -1.386303e+002 
3725000000  -4.162632e+001  -1.440168e+002 
3728125000  -4.223289e+001  -1.452704e+002 
3731250000  -4.190969e+001  -1.470127e+002 
3734375000  -4.142374e+001  -1.534179e+002 
3737500000  -4.218150e+001  -1.626930e+002 
3740625000  -4.339866e+001  -1.628742e+002 
3743750000  -4.296027e+001  -1.661817e+002 
3746875000  -4.402670e+001  -1.697373e+002 
3750000000  -4.440527e+001  -1.703620e+002 
3753125000  -4.459853e+001  -1.676267e+002 
3756250000  -4.471523e+001  -1.677124e+002 
3759375000  -4.503573e+001  -1.653485e+002 
3762500000  -4.426956e+001  -1.687440e+002 
3765625000  -4.477334e+001  -1.693671e+002 
3768750000  -4.481042e+001  -1.659933e+002 
3771875000  -4.331312e+001  -1.658897e+002 
3775000000  -4.301135e+001  -1.716013e+002 
3778125000  -4.317065e+001  -1.743036e+002 
3781250000  -4.274116e+001  -1.747971e+002 
3784375000  -4.278076e+001  -1.768494e+002 
3787500000  -4.188024e+001  1.794998e+002 
3790625000  -4.239212e+001  1.745986e+002 
3793750000  -4.187344e+001  1.733056e+002 
3796875000  -4.102472e+001  1.710786e+002 
3800000000  -3.934411e+001  1.670576e+002 
3803125000  -4.011309e+001  1.558170e+002 
3806250000  -4.048549e+001  1.552751e+002 
3809375000  -4.032947e+001  1.525910e+002 
3812500000  -3.943947e+001  1.464734e+002 
3815625000  -4.031515e+001  1.353909e+002 
3818750000  -4.122315e+001  1.340344e+002 
3821875000  -4.126160e+001  1.439245e+002 
3825000000  -3.907460e+001  1.431860e+002 
3828125000  -3.779707e+001  1.287153e+002 
3831250000  -3.853760e+001  1.140819e+002 
3834375000  -4.010987e+001  1.128170e+002 
3837500000  -4.107135e+001  1.176285e+002 
3840625000  -3.964206e+001  1.135369e+002 
3843750000  -3.869442e+001  1.024241e+002 
3846875000  -3.977727e+001  9.425800e+001 
3850000000  -4.108536e+001  9.998263e+001 
3853125000  -4.043904e+001  1.023582e+002 
3856250000  -4.006515e+001  9.520496e+001 
3859375000  -3.965510e+001  8.995441e+001 
3862500000  -3.949181e+001  8.147346e+001 
3865625000  -3.975914e+001  7.799250e+001 
3868750000  -3.974714e+001  7.608705e+001 
3871875000  -3.931912e+001  7.343365e+001 
3875000000  -3.954592e+001  6.151114e+001 
3878125000  -4.086917e+001  6.212366e+001 
3881250000  -4.064968e+001  6.449667e+001 
3884375000  -4.020432e+001  5.972195e+001 
3887500000  -4.057962e+001  5.698713e+001 
3890625000  -4.089262e+001  5.107777e+001 
3893750000  -4.132947e+001  5.210179e+001 
3896875000  -4.198107e+001  5.356851e+001 
3900000000  -4.216110e+001  5.072596e+001 
3903125000  -4.125420e+001  4.951890e+001 
3906250000  -4.094933e+001  4.789271e+001 
3909375000  -4.002671e+001  4.425542e+001 
3912500000  -4.034935e+001  3.452156e+001 
3915625000  -4.121650e+001  3.859050e+001 
3918750000  -4.127515e+001  3.896991e+001 
3921875000  -4.075247e+001  3.447857e+001 
3925000000  -3.955843e+001  3.290813e+001 
3928125000  -3.906392e+001  2.597730e+001 
3931250000  -3.951301e+001  2.043669e+001 
3934375000  -3.980345e+001  2.075546e+001 
3937500000  -3.997891e+001  1.916145e+001 
3940625000  -4.024791e+001  1.596509e+001 
3943750000  -3.933546e+001  1.696638e+001 
3946875000  -3.800627e+001  8.263581e+000 
3950000000  -3.883439e+001  1.628598e+000 
3953125000  -3.983393e+001  2.404613e-001 
3956250000  -3.853825e+001  1.759647e+000 
3959375000  -3.749734e+001  -3.671180e+000 
3962500000  -3.712112e+001  -7.729895e+000 
3965625000  -3.708431e+001  -1.865259e+001 
3968750000  -3.789063e+001  -2.690659e+001 
3971875000  -3.798646e+001  -2.966811e+001 
3975000000  -3.778420e+001  -3.132515e+001 
3978125000  -3.763358e+001  -3.419403e+001 
3981250000  -3.762246e+001  -4.069681e+001 
3984375000  -3.797234e+001  -4.682759e+001 
3987500000  -3.835358e+001  -4.959752e+001 
3990625000  -3.839262e+001  -5.204042e+001 
3993750000  -3.887777e+001  -5.429264e+001 
3996875000  -3.893639e+001  -5.853778e+001 
4000000000  -3.927325e+001  -6.049503e+001 
4003125000  -3.988497e+001  -5.815059e+001 
4006250000  -3.833236e+001  -5.973282e+001 
4009375000  -3.740688e+001  -7.337130e+001 
4012500000  -3.877391e+001  -8.025979e+001 
4015625000  -4.012781e+001  -7.838639e+001 
4018750000  -4.021482e+001  -7.864228e+001 
4021875000  -3.941331e+001  -8.065417e+001 
4025000000  -3.930441e+001  -8.342798e+001 
4028125000  -3.917822e+001  -8.806843e+001 
4031250000  -3.971620e+001  -9.277470e+001 
4034375000  -4.003024e+001  -8.981308e+001 
4037500000  -3.928538e+001  -8.865340e+001 
4040625000  -3.937325e+001  -9.288459e+001 
4043750000  -3.943010e+001  -9.537707e+001 
4046875000  -3.920897e+001  -9.633123e+001 
4050000000  -3.855380e+001  -1.013565e+002 
4053125000  -3.906979e+001  -1.041010e+002 
4056250000  -3.945941e+001  -9.918684e+001 
4059375000  -3.796088e+001  -9.948650e+001 
4062500000  -3.669832e+001  -1.059054e+002 
4065625000  -3.659755e+001  -1.100561e+002 
4068750000  -3.638569e+001  -1.161095e+002 
4071875000  -3.563572e+001  -1.262945e+002 
4075000000  -3.584138e+001  -1.318594e+002 
4078125000  -3.643812e+001  -1.342574e+002 
4081250000  -3.573249e+001  -1.374498e+002 
4084375000  -3.543218e+001  -1.456976e+002 
4087500000  -3.600762e+001  -1.527399e+002 
4090625000  -3.655553e+001  -1.549530e+002 
4093750000  -3.641232e+001  -1.565242e+002 
4096875000  -3.592123e+001  -1.638961e+002 
4100000000  -3.674904e+001  -1.715055e+002 
4103125000  -3.773410e+001  -1.706664e+002 
4106250000  -3.746459e+001  -1.669854e+002 
4109375000  -3.643036e+001  -1.681107e+002 
4112500000  -3.597193e+001  -1.773112e+002 
4115625000  -3.645687e+001  1.786899e+002 
4118750000  -3.672655e+001  1.729610e+002 
4121875000  -3.634620e+001  1.676783e+002 
4125000000  -3.657706e+001  1.617099e+002 
4128125000  -3.772902e+001  1.618134e+002 
4131250000  -3.748427e+001  1.698069e+002 
4134375000  -3.529565e+001  1.625289e+002 
4137500000  -3.523280e+001  1.432452e+002 
4140625000  -3.758093e+001  1.348781e+002 
4143750000  -3.894315e+001  1.394654e+002 
4146875000  -3.832243e+001  1.461840e+002 
4150000000  -3.756423e+001  1.421502e+002 
4153125000  -3.765232e+001  1.347453e+002 
4156250000  -3.875206e+001  1.319769e+002 
4159375000  -3.894547e+001  1.362880e+002 
4162500000  -3.788684e+001  1.417648e+002 
4165625000  -3.676070e+001  1.357065e+002 
4168750000  -3.611984e+001  1.286622e+002 
4171875000  -3.635662e+001  1.193868e+002 
4175000000  -3.701155e+001  1.143915e+002 
4178125000  -3.761928e+001  1.136772e+002 
4181250000  -3.720879e+001  1.134413e+002 
4184375000  -3.694264e+001  1.093255e+002 
4187500000  -3.695002e+001  1.056217e+002 
4190625000  -3.682647e+001  1.006826e+002 
4193750000  -3.759005e+001  9.709190e+001 
4196875000  -3.833624e+001  9.479376e+001 
4200000000  -3.913224e+001  9.810304e+001 
4203125000  -3.878691e+001  1.118526e+002 
4206250000  -3.512199e+001  1.119573e+002 
4209375000  -3.432431e+001  8.849938e+001 
4212500000  -3.651055e+001  8.007600e+001 
4215625000  -3.711118e+001  8.639757e+001 
4218750000  -3.556838e+001  9.010336e+001 
4221875000  -3.336174e+001  7.992751e+001 
4225000000  -3.458675e+001  6.748025e+001 
4228125000  -3.513651e+001  7.189442e+001 
4231250000  -3.353712e+001  6.703909e+001 
4234375000  -3.341012e+001  5.606370e+001 
4237500000  -3.285473e+001  5.340347e+001 
4240625000  -3.288545e+001  4.160435e+001 
4243750000  -3.413052e+001  3.474624e+001 
4246875000  -3.502362e+001  3.411239e+001 
4250000000  -3.488411e+001  3.505619e+001 
4253125000  -3.429311e+001  3.102127e+001 
4256250000  -3.472888e+001  2.575688e+001 
4259375000  -3.448951e+001  2.226076e+001 
4262500000  -3.459293e+001  1.744777e+001 
4265625000  -3.474672e+001  1.730704e+001 
4268750000  -3.367146e+001  1.170953e+001 
4271875000  -3.386519e+001  3.257436e+000 
4275000000  -3.320363e+001  -3.997076e+000 
4278125000  -3.422256e+001  -1.641095e+001 
4281250000  -3.605888e+001  -1.817918e+001 
4284375000  -3.592165e+001  -1.803217e+001 
4287500000  -3.693111e+001  -2.313728e+001 
4290625000  -3.797511e+001  -1.460420e+001 
4293750000  -3.618458e+001  -8.831317e+000 
4296875000  -3.537699e+001  -1.959701e+001 
4300000000  -3.630542e+001  -2.750894e+001 
4303125000  -3.758360e+001  -2.649525e+001 
4306250000  -3.664881e+001  -2.019829e+001 
4309375000  -3.554345e+001  -2.332450e+001 
4312500000  -3.536404e+001  -2.953890e+001 
4315625000  -3.538811e+001  -3.680423e+001 
4318750000  -3.584782e+001  -3.910083e+001 
4321875000  -3.594880e+001  -3.860817e+001 
4325000000  -3.539369e+001  -3.781572e+001 
4328125000  -3.477187e+001  -4.419252e+001 
4331250000  -3.446306e+001  -5.249105e+001 
4334375000  -3.481034e+001  -5.808368e+001 
4337500000  -3.564196e+001  -6.032758e+001 
4340625000  -3.617036e+001  -5.668320e+001 
4343750000  -3.517463e+001  -5.903059e+001 
4346875000  -3.474246e+001  -6.411938e+001 
4350000000  -3.459233e+001  -7.068439e+001 
4353125000  -3.470786e+001  -7.922980e+001 
4356250000  -3.650451e+001  -7.902525e+001 
4359375000  -3.661286e+001  -6.528833e+001 
4362500000  -3.358288e+001  -6.691811e+001 
4365625000  -3.218217e+001  -8.039964e+001 
4368750000  -3.288975e+001  -9.316352e+001 
4371875000  -3.387386e+001  -9.357316e+001 
4375000000  -3.328971e+001  -9.541152e+001 
4378125000  -3.264347e+001  -1.016091e+002 
4381250000  -3.291447e+001  -1.083441e+002 
4384375000  -3.265457e+001  -1.166878e+002 
4387500000  -3.365617e+001  -1.236801e+002 
4390625000  -3.450680e+001  -1.224971e+002 
4393750000  -3.375224e+001  -1.222607e+002 
4396875000  -3.318457e+001  -1.256600e+002 
4400000000  -3.269592e+001  -1.348193e+002 
4403125000  -3.357492e+001  -1.439221e+002 
4406250000  -3.426071e+001  -1.469718e+002 
4409375000  -3.448101e+001  -1.497193e+002 
4412500000  -3.574533e+001  -1.529003e+002 
4415625000  -3.588997e+001  -1.498315e+002 
