!Agilent Technologies,E8363B,MY43030201,A.06.04.32
!Agilent E8363B: A.06.04.32
!Date: Tuesday, November 11, 2014 21:07:22
!Correction: S21(Response(S21)) 
!S1P File: Measurement: S21:
# Hz S  dB   R 50
3000000000  -3.654706e+001  -5.089065e+001 
3003125000  -3.773554e+001  -5.681732e+001 
3006250000  -3.749170e+001  -5.923135e+001 
3009375000  -3.778868e+001  -5.444563e+001 
3012500000  -3.704475e+001  -5.693087e+001 
3015625000  -3.614781e+001  -6.368966e+001 
3018750000  -3.691494e+001  -6.533852e+001 
3021875000  -3.545489e+001  -6.391464e+001 
3025000000  -3.411495e+001  -6.799590e+001 
3028125000  -3.321064e+001  -7.400262e+001 
3031250000  -3.220345e+001  -8.586884e+001 
3034375000  -3.182192e+001  -9.948027e+001 
3037500000  -3.226823e+001  -1.110404e+002 
3040625000  -3.356408e+001  -1.167045e+002 
3043750000  -3.426845e+001  -1.211041e+002 
3046875000  -3.445845e+001  -1.272399e+002 
3050000000  -3.631334e+001  -1.334252e+002 
3053125000  -3.615553e+001  -1.273408e+002 
3056250000  -3.555564e+001  -1.242269e+002 
3059375000  -3.548527e+001  -1.249529e+002 
3062500000  -3.403228e+001  -1.288960e+002 
3065625000  -3.390221e+001  -1.351691e+002 
3068750000  -3.362456e+001  -1.418895e+002 
3071875000  -3.342111e+001  -1.440272e+002 
3075000000  -3.327085e+001  -1.482353e+002 
3078125000  -3.295343e+001  -1.520602e+002 
3081250000  -3.355313e+001  -1.566024e+002 
3084375000  -3.263134e+001  -1.595014e+002 
3087500000  -3.248101e+001  -1.642541e+002 
3090625000  -3.198430e+001  -1.745864e+002 
3093750000  -3.243961e+001  1.785993e+002 
3096875000  -3.348782e+001  1.716531e+002 
3100000000  -3.335787e+001  1.699642e+002 
3103125000  -3.363382e+001  1.712174e+002 
3106250000  -3.322232e+001  1.670077e+002 
3109375000  -3.322092e+001  1.627069e+002 
3112500000  -3.318292e+001  1.606768e+002 
3115625000  -3.287273e+001  1.561975e+002 
3118750000  -3.324701e+001  1.560794e+002 
3121875000  -3.240018e+001  1.465258e+002 
3125000000  -3.351553e+001  1.421823e+002 
3128125000  -3.443426e+001  1.501198e+002 
3131250000  -3.204719e+001  1.478528e+002 
3134375000  -3.079313e+001  1.321481e+002 
3137500000  -3.131507e+001  1.186460e+002 
3140625000  -3.283247e+001  1.160403e+002 
3143750000  -3.365557e+001  1.173405e+002 
3146875000  -3.330341e+001  1.181619e+002 
3150000000  -3.228592e+001  1.181337e+002 
3153125000  -3.234780e+001  1.095299e+002 
3156250000  -3.334363e+001  1.141107e+002 
3159375000  -3.159892e+001  1.153018e+002 
3162500000  -2.969244e+001  1.005394e+002 
3165625000  -3.073852e+001  8.799067e+001 
3168750000  -3.103285e+001  8.868439e+001 
3171875000  -3.017599e+001  8.289438e+001 
3175000000  -3.089048e+001  7.424539e+001 
3178125000  -3.066471e+001  7.505611e+001 
3181250000  -2.960141e+001  6.921726e+001 
3184375000  -2.888291e+001  5.634617e+001 
3187500000  -3.004854e+001  4.145544e+001 
3190625000  -3.271441e+001  3.363058e+001 
3193750000  -3.330176e+001  4.245452e+001 
3196875000  -3.296197e+001  4.638810e+001 
3200000000  -3.201702e+001  4.400131e+001 
3203125000  -3.118854e+001  3.760628e+001 
3206250000  -3.156113e+001  3.092598e+001 
3209375000  -3.107061e+001  2.485290e+001 
3212500000  -3.132907e+001  1.797745e+001 
3215625000  -3.141439e+001  1.440137e+001 
3218750000  -3.213424e+001  6.544952e+000 
3221875000  -3.299360e+001  1.491358e+000 
3225000000  -3.261636e+001  1.137846e-001 
3228125000  -3.298182e+001  -5.325367e+000 
3231250000  -3.356531e+001  -7.992260e+000 
3234375000  -3.335505e+001  -7.728934e+000 
3237500000  -3.332650e+001  -9.617597e+000 
3240625000  -3.290929e+001  -1.251903e+001 
3243750000  -3.248287e+001  -1.962783e+001 
3246875000  -3.294697e+001  -2.691873e+001 
3250000000  -3.335191e+001  -2.929194e+001 
3253125000  -3.347473e+001  -3.170428e+001 
3256250000  -3.317570e+001  -3.772614e+001 
3259375000  -3.337783e+001  -4.685788e+001 
3262500000  -3.457710e+001  -5.078818e+001 
3265625000  -3.525820e+001  -4.782954e+001 
3268750000  -3.509624e+001  -4.538184e+001 
3271875000  -3.475697e+001  -4.639579e+001 
3275000000  -3.370235e+001  -5.246879e+001 
3278125000  -3.417395e+001  -5.978891e+001 
3281250000  -3.426176e+001  -5.874664e+001 
3284375000  -3.390108e+001  -6.500461e+001 
3287500000  -3.397628e+001  -6.989568e+001 
3290625000  -3.429652e+001  -7.531033e+001 
3293750000  -3.412595e+001  -8.059834e+001 
3296875000  -3.522371e+001  -8.147023e+001 
3300000000  -3.478429e+001  -8.072634e+001 
3303125000  -3.366648e+001  -8.619119e+001 
3306250000  -3.346191e+001  -9.287991e+001 
3309375000  -3.308310e+001  -9.905132e+001 
3312500000  -3.324741e+001  -1.102996e+002 
3315625000  -3.427331e+001  -1.182456e+002 
3318750000  -3.572042e+001  -1.208350e+002 
3321875000  -3.678008e+001  -1.204290e+002 
3325000000  -3.737095e+001  -1.155455e+002 
3328125000  -3.682176e+001  -1.149679e+002 
3331250000  -3.557086e+001  -1.086025e+002 
3334375000  -3.294648e+001  -1.194389e+002 
3337500000  -3.299048e+001  -1.384375e+002 
3340625000  -3.439626e+001  -1.496961e+002 
3343750000  -3.644823e+001  -1.508292e+002 
3346875000  -3.644339e+001  -1.488094e+002 
3350000000  -3.592015e+001  -1.517322e+002 
3353125000  -3.598346e+001  -1.560126e+002 
3356250000  -3.545193e+001  -1.639007e+002 
3359375000  -3.627413e+001  -1.715700e+002 
3362500000  -3.734809e+001  -1.782986e+002 
3365625000  -3.785186e+001  -1.788829e+002 
3368750000  -3.848562e+001  1.772379e+002 
3371875000  -3.895484e+001  1.757763e+002 
3375000000  -4.029834e+001  1.734798e+002 
3378125000  -4.111361e+001  1.710845e+002 
3381250000  -4.240297e+001  -1.787396e+002 
3384375000  -4.094488e+001  -1.574189e+002 
3387500000  -3.752308e+001  -1.747097e+002 
3390625000  -3.926564e+001  1.669050e+002 
3393750000  -4.021552e+001  1.702562e+002 
3396875000  -3.909988e+001  1.714986e+002 
3400000000  -3.873539e+001  1.629365e+002 
3403125000  -3.924374e+001  1.577097e+002 
3406250000  -3.946362e+001  1.569387e+002 
3409375000  -3.964163e+001  1.490177e+002 
3412500000  -4.009968e+001  1.485264e+002 
3415625000  -4.092817e+001  1.484630e+002 
3418750000  -4.105748e+001  1.488396e+002 
3421875000  -4.135680e+001  1.522438e+002 
3425000000  -4.035294e+001  1.532218e+002 
3428125000  -3.941072e+001  1.493006e+002 
3431250000  -3.927654e+001  1.415335e+002 
3434375000  -3.906956e+001  1.353720e+002 
3437500000  -3.955804e+001  1.322059e+002 
3440625000  -3.990487e+001  1.330672e+002 
3443750000  -3.870577e+001  1.344258e+002 
3446875000  -3.782190e+001  1.264700e+002 
3450000000  -3.762272e+001  1.159064e+002 
3453125000  -3.795786e+001  1.059080e+002 
3456250000  -3.900335e+001  9.983493e+001 
3459375000  -3.990487e+001  1.001933e+002 
3462500000  -3.999263e+001  9.990333e+001 
3465625000  -3.972071e+001  9.632914e+001 
3468750000  -4.018369e+001  9.129707e+001 
3471875000  -4.014210e+001  9.008534e+001 
3475000000  -3.952993e+001  8.534714e+001 
3478125000  -4.016350e+001  7.700742e+001 
3481250000  -4.129658e+001  7.447471e+001 
3484375000  -4.219734e+001  7.861421e+001 
3487500000  -4.140109e+001  7.761864e+001 
3490625000  -4.078349e+001  7.169026e+001 
3493750000  -4.107105e+001  6.669608e+001 
3496875000  -4.175572e+001  6.459758e+001 
3500000000  -4.236026e+001  6.717780e+001 
3503125000  -4.188727e+001  6.872161e+001 
3506250000  -4.052801e+001  6.501842e+001 
3509375000  -4.069634e+001  5.416494e+001 
3512500000  -4.116091e+001  4.578185e+001 
3515625000  -4.174656e+001  4.245359e+001 
3518750000  -4.235929e+001  4.498055e+001 
3521875000  -4.258915e+001  4.128024e+001 
3525000000  -4.360090e+001  3.979393e+001 
3528125000  -4.372626e+001  4.597663e+001 
3531250000  -4.203633e+001  4.343367e+001 
3534375000  -4.209439e+001  3.375244e+001 
3537500000  -4.251224e+001  2.888473e+001 
3540625000  -4.336644e+001  3.053815e+001 
3543750000  -4.445657e+001  3.052070e+001 
3546875000  -4.399598e+001  4.391035e+001 
3550000000  -4.156096e+001  4.399578e+001 
3553125000  -3.983488e+001  2.778975e+001 
3556250000  -4.161220e+001  1.906757e+001 
3559375000  -4.139330e+001  2.134058e+001 
3562500000  -4.028598e+001  1.333800e+001 
3565625000  -4.106165e+001  5.316569e+000 
3568750000  -4.118443e+001  8.854109e+000 
3571875000  -4.144127e+001  7.071195e+000 
3575000000  -4.058026e+001  -8.721449e-001 
3578125000  -4.137249e+001  -3.936395e+000 
3581250000  -4.107202e+001  -5.289385e+000 
3584375000  -4.049048e+001  -9.261944e+000 
3587500000  -4.013293e+001  -1.724081e+001 
3590625000  -4.036134e+001  -2.820299e+001 
3593750000  -4.132997e+001  -2.993739e+001 
3596875000  -4.151881e+001  -2.393041e+001 
3600000000  -4.039913e+001  -3.107143e+001 
3603125000  -4.095516e+001  -4.533608e+001 
3606250000  -4.157965e+001  -4.851954e+001 
3609375000  -4.191811e+001  -5.251055e+001 
3612500000  -4.245954e+001  -5.378715e+001 
3615625000  -4.322886e+001  -5.765990e+001 
3618750000  -4.346517e+001  -5.580219e+001 
3621875000  -4.363291e+001  -6.070248e+001 
3625000000  -4.420976e+001  -6.236404e+001 
3628125000  -4.451505e+001  -6.456964e+001 
3631250000  -4.426296e+001  -6.989675e+001 
3634375000  -4.543208e+001  -6.986034e+001 
3637500000  -4.550418e+001  -6.376811e+001 
3640625000  -4.471556e+001  -6.113189e+001 
3643750000  -4.400843e+001  -6.758570e+001 
3646875000  -4.529853e+001  -7.441579e+001 
3650000000  -4.555595e+001  -7.471547e+001 
3653125000  -4.573952e+001  -7.472350e+001 
3656250000  -4.593848e+001  -7.317152e+001 
3659375000  -4.585202e+001  -7.010477e+001 
3662500000  -4.499715e+001  -7.442034e+001 
3665625000  -4.486233e+001  -7.191940e+001 
3668750000  -4.367397e+001  -7.218568e+001 
3671875000  -4.271565e+001  -7.914415e+001 
3675000000  -4.348116e+001  -8.636563e+001 
3678125000  -4.339294e+001  -8.651041e+001 
3681250000  -4.320268e+001  -8.955243e+001 
3684375000  -4.292432e+001  -9.541905e+001 
3687500000  -4.342615e+001  -9.950217e+001 
3690625000  -4.323711e+001  -1.018954e+002 
3693750000  -4.424122e+001  -1.011527e+002 
3696875000  -4.354636e+001  -9.990217e+001 
3700000000  -4.285501e+001  -1.057434e+002 
3703125000  -4.271762e+001  -1.118033e+002 
3706250000  -4.376049e+001  -1.141004e+002 
3709375000  -4.338497e+001  -1.107417e+002 
3712500000  -4.249532e+001  -1.115316e+002 
3715625000  -4.159712e+001  -1.223374e+002 
3718750000  -4.120001e+001  -1.253956e+002 
3721875000  -4.107877e+001  -1.328277e+002 
3725000000  -4.161599e+001  -1.400236e+002 
3728125000  -4.189057e+001  -1.391486e+002 
3731250000  -4.156577e+001  -1.416787e+002 
3734375000  -4.115901e+001  -1.482357e+002 
3737500000  -4.228859e+001  -1.580500e+002 
3740625000  -4.304058e+001  -1.600260e+002 
3743750000  -4.278006e+001  -1.634124e+002 
3746875000  -4.358589e+001  -1.644860e+002 
3750000000  -4.413118e+001  -1.655137e+002 
3753125000  -4.445268e+001  -1.637462e+002 
3756250000  -4.434109e+001  -1.648973e+002 
3759375000  -4.467996e+001  -1.654748e+002 
3762500000  -4.411401e+001  -1.697150e+002 
3765625000  -4.442392e+001  -1.675045e+002 
3768750000  -4.471313e+001  -1.642155e+002 
3771875000  -4.326110e+001  -1.656173e+002 
3775000000  -4.321806e+001  -1.737204e+002 
3778125000  -4.316657e+001  -1.742940e+002 
3781250000  -4.272647e+001  -1.720155e+002 
3784375000  -4.267232e+001  -1.769509e+002 
3787500000  -4.222928e+001  1.792539e+002 
3790625000  -4.243965e+001  1.739038e+002 
3793750000  -4.230072e+001  1.719873e+002 
3796875000  -4.149717e+001  1.704122e+002 
3800000000  -3.969411e+001  1.677114e+002 
3803125000  -4.042248e+001  1.592561e+002 
3806250000  -4.139479e+001  1.550839e+002 
3809375000  -4.055426e+001  1.539076e+002 
3812500000  -4.009303e+001  1.477313e+002 
3815625000  -4.035571e+001  1.378870e+002 
3818750000  -4.151339e+001  1.369725e+002 
3821875000  -4.124671e+001  1.462259e+002 
3825000000  -3.954335e+001  1.482756e+002 
3828125000  -3.803731e+001  1.318317e+002 
3831250000  -3.848709e+001  1.170307e+002 
3834375000  -4.015909e+001  1.156974e+002 
3837500000  -4.109097e+001  1.203713e+002 
3840625000  -3.987468e+001  1.164864e+002 
3843750000  -3.903887e+001  1.048550e+002 
3846875000  -3.977039e+001  9.760802e+001 
3850000000  -4.107768e+001  1.038612e+002 
3853125000  -4.053078e+001  1.047109e+002 
3856250000  -4.046763e+001  9.862885e+001 
3859375000  -3.956948e+001  9.313924e+001 
3862500000  -3.929052e+001  8.641666e+001 
3865625000  -3.981059e+001  8.027183e+001 
3868750000  -3.954245e+001  7.957030e+001 
3871875000  -3.893454e+001  7.585278e+001 
3875000000  -3.937595e+001  6.652721e+001 
3878125000  -4.045640e+001  6.590305e+001 
3881250000  -4.040327e+001  6.672563e+001 
3884375000  -4.019310e+001  6.175551e+001 
3887500000  -4.016378e+001  5.874809e+001 
3890625000  -4.085705e+001  5.394487e+001 
3893750000  -4.095757e+001  5.162430e+001 
3896875000  -4.128538e+001  5.345658e+001 
3900000000  -4.162017e+001  5.337121e+001 
3903125000  -4.108674e+001  5.088650e+001 
3906250000  -4.067780e+001  5.041673e+001 
3909375000  -4.021959e+001  4.745860e+001 
3912500000  -4.024146e+001  3.696245e+001 
3915625000  -4.147905e+001  3.736324e+001 
3918750000  -4.110746e+001  3.963789e+001 
3921875000  -4.046243e+001  3.646136e+001 
3925000000  -3.975724e+001  3.406387e+001 
3928125000  -3.933357e+001  2.671492e+001 
3931250000  -3.981961e+001  2.190402e+001 
3934375000  -3.983974e+001  2.089918e+001 
3937500000  -4.008426e+001  1.931099e+001 
3940625000  -4.057598e+001  1.635323e+001 
3943750000  -3.931583e+001  1.637787e+001 
3946875000  -3.822641e+001  1.146095e+001 
3950000000  -3.884739e+001  2.030151e+000 
3953125000  -4.003786e+001  1.140780e+000 
3956250000  -3.901157e+001  4.470475e+000 
3959375000  -3.751975e+001  -9.055548e-001 
3962500000  -3.726921e+001  -5.595946e+000 
3965625000  -3.718858e+001  -1.679789e+001 
3968750000  -3.802651e+001  -2.286317e+001 
3971875000  -3.833495e+001  -2.612484e+001 
3975000000  -3.783290e+001  -2.771266e+001 
3978125000  -3.784155e+001  -2.879343e+001 
3981250000  -3.768692e+001  -3.597467e+001 
3984375000  -3.802935e+001  -4.198982e+001 
3987500000  -3.852194e+001  -4.470019e+001 
3990625000  -3.866782e+001  -4.735008e+001 
3993750000  -3.905102e+001  -5.100980e+001 
3996875000  -3.875845e+001  -5.649888e+001 
4000000000  -3.932700e+001  -5.732199e+001 
4003125000  -3.967865e+001  -5.518128e+001 
4006250000  -3.816172e+001  -5.579577e+001 
4009375000  -3.722281e+001  -6.906744e+001 
4012500000  -3.848540e+001  -7.525047e+001 
4015625000  -3.980746e+001  -7.551041e+001 
4018750000  -3.999513e+001  -7.291299e+001 
4021875000  -3.911654e+001  -7.537249e+001 
4025000000  -3.890830e+001  -8.016267e+001 
4028125000  -3.883719e+001  -8.574174e+001 
4031250000  -3.955759e+001  -9.024973e+001 
4034375000  -3.966705e+001  -9.034698e+001 
4037500000  -3.927895e+001  -8.944884e+001 
4040625000  -3.905188e+001  -9.109811e+001 
4043750000  -3.918498e+001  -9.248770e+001 
4046875000  -3.892410e+001  -9.417510e+001 
4050000000  -3.831669e+001  -1.010988e+002 
4053125000  -3.923682e+001  -1.023927e+002 
4056250000  -3.934731e+001  -9.940867e+001 
4059375000  -3.808309e+001  -9.908441e+001 
4062500000  -3.671037e+001  -1.047330e+002 
4065625000  -3.671912e+001  -1.081935e+002 
4068750000  -3.643462e+001  -1.156976e+002 
4071875000  -3.571954e+001  -1.236522e+002 
4075000000  -3.602300e+001  -1.314415e+002 
4078125000  -3.637877e+001  -1.325359e+002 
4081250000  -3.597988e+001  -1.362085e+002 
4084375000  -3.570417e+001  -1.445703e+002 
4087500000  -3.612147e+001  -1.500845e+002 
4090625000  -3.686917e+001  -1.520804e+002 
4093750000  -3.651727e+001  -1.536969e+002 
4096875000  -3.623861e+001  -1.606624e+002 
4100000000  -3.684076e+001  -1.688165e+002 
4103125000  -3.777916e+001  -1.676267e+002 
4106250000  -3.769872e+001  -1.637555e+002 
4109375000  -3.678344e+001  -1.657371e+002 
4112500000  -3.608306e+001  -1.735026e+002 
4115625000  -3.668685e+001  1.799121e+002 
4118750000  -3.668718e+001  1.778115e+002 
4121875000  -3.647339e+001  1.718906e+002 
4125000000  -3.662760e+001  1.666728e+002 
4128125000  -3.790940e+001  1.660819e+002 
4131250000  -3.748888e+001  1.726216e+002 
4134375000  -3.521635e+001  1.661456e+002 
4137500000  -3.515808e+001  1.480084e+002 
4140625000  -3.755349e+001  1.401806e+002 
4143750000  -3.860238e+001  1.435522e+002 
4146875000  -3.830326e+001  1.510875e+002 
4150000000  -3.744865e+001  1.469810e+002 
4153125000  -3.749474e+001  1.388925e+002 
4156250000  -3.844233e+001  1.360007e+002 
4159375000  -3.868124e+001  1.413805e+002 
4162500000  -3.772750e+001  1.452393e+002 
4165625000  -3.656977e+001  1.409022e+002 
4168750000  -3.606049e+001  1.320187e+002 
4171875000  -3.596262e+001  1.232628e+002 
4175000000  -3.657391e+001  1.167474e+002 
4178125000  -3.731937e+001  1.167287e+002 
4181250000  -3.702453e+001  1.148398e+002 
4184375000  -3.685956e+001  1.116433e+002 
4187500000  -3.680931e+001  1.086040e+002 
4190625000  -3.684669e+001  1.032344e+002 
4193750000  -3.770071e+001  9.856819e+001 
4196875000  -3.808751e+001  9.784541e+001 
4200000000  -3.916669e+001  1.003425e+002 
4203125000  -3.847262e+001  1.124493e+002 
4206250000  -3.523451e+001  1.120272e+002 
4209375000  -3.417521e+001  9.023559e+001 
4212500000  -3.614727e+001  8.030637e+001 
4215625000  -3.697898e+001  8.850557e+001 
4218750000  -3.555365e+001  9.359442e+001 
4221875000  -3.342423e+001  8.205708e+001 
4225000000  -3.459389e+001  6.981593e+001 
4228125000  -3.511221e+001  7.248374e+001 
4231250000  -3.359118e+001  6.772762e+001 
4234375000  -3.356786e+001  5.914893e+001 
4237500000  -3.311879e+001  5.559755e+001 
4240625000  -3.324032e+001  4.411848e+001 
4243750000  -3.418289e+001  3.647845e+001 
4246875000  -3.510397e+001  3.613137e+001 
4250000000  -3.484011e+001  3.773317e+001 
4253125000  -3.460604e+001  3.352784e+001 
4256250000  -3.495347e+001  2.798275e+001 
4259375000  -3.472070e+001  2.514573e+001 
4262500000  -3.478850e+001  2.144059e+001 
4265625000  -3.488821e+001  2.138235e+001 
4268750000  -3.408705e+001  1.530523e+001 
4271875000  -3.380194e+001  8.705048e+000 
4275000000  -3.348340e+001  8.446090e-001 
4278125000  -3.419622e+001  -1.163879e+001 
4281250000  -3.620174e+001  -1.337819e+001 
4284375000  -3.583959e+001  -1.380975e+001 
4287500000  -3.686471e+001  -1.646769e+001 
4290625000  -3.829560e+001  -9.149717e+000 
4293750000  -3.606820e+001  -3.588306e+000 
4296875000  -3.488196e+001  -1.433599e+001 
4300000000  -3.594873e+001  -2.449883e+001 
4303125000  -3.708432e+001  -2.274518e+001 
4306250000  -3.640134e+001  -1.698298e+001 
4309375000  -3.502626e+001  -1.873419e+001 
4312500000  -3.485912e+001  -2.682300e+001 
4315625000  -3.505899e+001  -3.371322e+001 
4318750000  -3.562178e+001  -3.621814e+001 
4321875000  -3.555490e+001  -3.532704e+001 
4325000000  -3.511800e+001  -3.551792e+001 
4328125000  -3.424962e+001  -4.284666e+001 
4331250000  -3.414157e+001  -5.179061e+001 
4334375000  -3.457028e+001  -5.706826e+001 
4337500000  -3.543221e+001  -5.915282e+001 
4340625000  -3.579318e+001  -5.657904e+001 
4343750000  -3.498331e+001  -5.554447e+001 
4346875000  -3.453888e+001  -6.316262e+001 
4350000000  -3.465867e+001  -6.917547e+001 
4353125000  -3.436966e+001  -7.742902e+001 
4356250000  -3.653189e+001  -7.885074e+001 
4359375000  -3.658538e+001  -6.632982e+001 
4362500000  -3.337931e+001  -6.571623e+001 
4365625000  -3.219643e+001  -7.993515e+001 
4368750000  -3.296083e+001  -9.165173e+001 
4371875000  -3.400065e+001  -9.218804e+001 
4375000000  -3.335848e+001  -9.317856e+001 
4378125000  -3.293932e+001  -9.976421e+001 
4381250000  -3.316973e+001  -1.070769e+002 
4384375000  -3.279999e+001  -1.133139e+002 
4387500000  -3.378902e+001  -1.206252e+002 
4390625000  -3.453615e+001  -1.201749e+002 
4393750000  -3.408877e+001  -1.201392e+002 
4396875000  -3.335611e+001  -1.228233e+002 
4400000000  -3.285709e+001  -1.327170e+002 
4403125000  -3.354980e+001  -1.409706e+002 
4406250000  -3.458788e+001  -1.430612e+002 
4409375000  -3.456134e+001  -1.473118e+002 
4412500000  -3.569286e+001  -1.489091e+002 
4415625000  -3.621049e+001  -1.453543e+002 
