!Agilent Technologies,E8363B,MY43030201,A.06.04.32
!Agilent E8363B: A.06.04.32
!Date: Tuesday, November 11, 2014 21:03:01
!Correction: S21(Response(S21)) 
!S1P File: Measurement: S21:
# Hz S  dB   R 50
3000000000  -3.637656e+001  -4.571229e+001 
3003125000  -3.761318e+001  -5.187674e+001 
3006250000  -3.741494e+001  -5.422450e+001 
3009375000  -3.765055e+001  -5.019355e+001 
3012500000  -3.691340e+001  -5.113765e+001 
3015625000  -3.596369e+001  -5.864843e+001 
3018750000  -3.675658e+001  -6.066575e+001 
3021875000  -3.540306e+001  -5.929844e+001 
3025000000  -3.403955e+001  -6.298790e+001 
3028125000  -3.314675e+001  -6.856017e+001 
3031250000  -3.206076e+001  -8.038979e+001 
3034375000  -3.176086e+001  -9.400497e+001 
3037500000  -3.220743e+001  -1.061988e+002 
3040625000  -3.345004e+001  -1.109527e+002 
3043750000  -3.416913e+001  -1.162286e+002 
3046875000  -3.424658e+001  -1.218191e+002 
3050000000  -3.600006e+001  -1.286647e+002 
3053125000  -3.601921e+001  -1.230800e+002 
3056250000  -3.548552e+001  -1.198995e+002 
3059375000  -3.556974e+001  -1.202079e+002 
3062500000  -3.411909e+001  -1.237152e+002 
3065625000  -3.382029e+001  -1.293954e+002 
3068750000  -3.352670e+001  -1.364034e+002 
3071875000  -3.352851e+001  -1.393047e+002 
3075000000  -3.328474e+001  -1.433897e+002 
3078125000  -3.297696e+001  -1.471751e+002 
3081250000  -3.346448e+001  -1.512842e+002 
3084375000  -3.262672e+001  -1.549751e+002 
3087500000  -3.241763e+001  -1.588237e+002 
3090625000  -3.201263e+001  -1.691788e+002 
3093750000  -3.245615e+001  -1.765159e+002 
3096875000  -3.332679e+001  1.771683e+002 
3100000000  -3.332237e+001  1.753901e+002 
3103125000  -3.369344e+001  1.763671e+002 
3106250000  -3.318433e+001  1.721904e+002 
3109375000  -3.323597e+001  1.680958e+002 
3112500000  -3.324781e+001  1.659272e+002 
3115625000  -3.287748e+001  1.611349e+002 
3118750000  -3.317034e+001  1.613085e+002 
3121875000  -3.232013e+001  1.521462e+002 
3125000000  -3.353850e+001  1.475035e+002 
3128125000  -3.458749e+001  1.544285e+002 
3131250000  -3.212872e+001  1.532074e+002 
3134375000  -3.073458e+001  1.381472e+002 
3137500000  -3.130160e+001  1.236618e+002 
3140625000  -3.290403e+001  1.203858e+002 
3143750000  -3.381938e+001  1.223505e+002 
3146875000  -3.332566e+001  1.228955e+002 
3150000000  -3.230323e+001  1.236691e+002 
3153125000  -3.232172e+001  1.145867e+002 
3156250000  -3.339429e+001  1.191876e+002 
3159375000  -3.165888e+001  1.208434e+002 
3162500000  -2.967032e+001  1.062627e+002 
3165625000  -3.075187e+001  9.437891e+001 
3168750000  -3.100280e+001  9.421633e+001 
3171875000  -3.018577e+001  8.847366e+001 
3175000000  -3.091488e+001  7.977187e+001 
3178125000  -3.071127e+001  8.061882e+001 
3181250000  -2.955637e+001  7.532285e+001 
3184375000  -2.884623e+001  6.254787e+001 
3187500000  -3.004229e+001  4.690963e+001 
3190625000  -3.265009e+001  3.872078e+001 
3193750000  -3.337607e+001  4.708421e+001 
3196875000  -3.295857e+001  5.200380e+001 
3200000000  -3.209174e+001  4.986197e+001 
3203125000  -3.126219e+001  4.328867e+001 
3206250000  -3.157514e+001  3.617232e+001 
3209375000  -3.113674e+001  3.043098e+001 
3212500000  -3.135783e+001  2.334688e+001 
3215625000  -3.138863e+001  1.969678e+001 
3218750000  -3.217606e+001  1.204159e+001 
3221875000  -3.305779e+001  7.223971e+000 
3225000000  -3.266311e+001  6.001365e+000 
3228125000  -3.298978e+001  2.947743e-001 
3231250000  -3.370836e+001  -2.521797e+000 
3234375000  -3.335152e+001  -1.779129e+000 
3237500000  -3.342876e+001  -4.410538e+000 
3240625000  -3.292496e+001  -6.550114e+000 
3243750000  -3.254673e+001  -1.426606e+001 
3246875000  -3.297984e+001  -2.118830e+001 
3250000000  -3.340534e+001  -2.370825e+001 
3253125000  -3.356837e+001  -2.576457e+001 
3256250000  -3.325019e+001  -3.187108e+001 
3259375000  -3.348686e+001  -4.086446e+001 
3262500000  -3.464096e+001  -4.565066e+001 
3265625000  -3.529391e+001  -4.204418e+001 
3268750000  -3.507106e+001  -3.972533e+001 
3271875000  -3.478307e+001  -3.994141e+001 
3275000000  -3.379485e+001  -4.677123e+001 
3278125000  -3.425710e+001  -5.356428e+001 
3281250000  -3.429861e+001  -5.254427e+001 
3284375000  -3.392394e+001  -5.982431e+001 
3287500000  -3.418625e+001  -6.266722e+001 
3290625000  -3.434412e+001  -6.894656e+001 
3293750000  -3.411993e+001  -7.423792e+001 
3296875000  -3.508044e+001  -7.429818e+001 
3300000000  -3.490979e+001  -7.432075e+001 
3303125000  -3.379752e+001  -7.969026e+001 
3306250000  -3.362724e+001  -8.633703e+001 
3309375000  -3.327314e+001  -9.277567e+001 
3312500000  -3.337472e+001  -1.039298e+002 
3315625000  -3.437580e+001  -1.117673e+002 
3318750000  -3.568002e+001  -1.144806e+002 
3321875000  -3.687909e+001  -1.158130e+002 
3325000000  -3.728829e+001  -1.113657e+002 
3328125000  -3.711388e+001  -1.091844e+002 
3331250000  -3.570438e+001  -1.028046e+002 
3334375000  -3.307078e+001  -1.133235e+002 
3337500000  -3.307146e+001  -1.315298e+002 
3340625000  -3.445428e+001  -1.434484e+002 
3343750000  -3.641912e+001  -1.448160e+002 
3346875000  -3.665769e+001  -1.426338e+002 
3350000000  -3.593002e+001  -1.446243e+002 
3353125000  -3.613582e+001  -1.489724e+002 
3356250000  -3.551144e+001  -1.575324e+002 
3359375000  -3.626424e+001  -1.658369e+002 
3362500000  -3.761856e+001  -1.712108e+002 
3365625000  -3.810979e+001  -1.731210e+002 
3368750000  -3.872220e+001  -1.763264e+002 
3371875000  -3.892838e+001  -1.785997e+002 
3375000000  -4.025603e+001  1.794873e+002 
3378125000  -4.110008e+001  1.794384e+002 
3381250000  -4.236160e+001  -1.728664e+002 
3384375000  -4.115686e+001  -1.505025e+002 
3387500000  -3.749452e+001  -1.666669e+002 
3390625000  -3.917282e+001  1.740036e+002 
3393750000  -4.041124e+001  1.754512e+002 
3396875000  -3.916397e+001  1.779414e+002 
3400000000  -3.862179e+001  1.698625e+002 
3403125000  -3.927563e+001  1.649835e+002 
3406250000  -3.968363e+001  1.641840e+002 
3409375000  -3.991146e+001  1.560726e+002 
3412500000  -4.028218e+001  1.535127e+002 
3415625000  -4.101611e+001  1.563355e+002 
3418750000  -4.089009e+001  1.559451e+002 
3421875000  -4.119664e+001  1.595049e+002 
3425000000  -4.035913e+001  1.592243e+002 
3428125000  -3.950480e+001  1.560575e+002 
3431250000  -3.949379e+001  1.479899e+002 
3434375000  -3.935255e+001  1.438954e+002 
3437500000  -3.982068e+001  1.373693e+002 
3440625000  -3.985342e+001  1.404343e+002 
3443750000  -3.882681e+001  1.415448e+002 
3446875000  -3.804813e+001  1.337031e+002 
3450000000  -3.749569e+001  1.224175e+002 
3453125000  -3.780843e+001  1.140207e+002 
3456250000  -3.910605e+001  1.070413e+002 
3459375000  -3.977087e+001  1.080591e+002 
3462500000  -4.001774e+001  1.067947e+002 
3465625000  -3.980516e+001  1.025297e+002 
3468750000  -4.007517e+001  9.704270e+001 
3471875000  -4.003405e+001  9.646358e+001 
3475000000  -3.956966e+001  9.156568e+001 
3478125000  -4.030099e+001  8.415914e+001 
3481250000  -4.107627e+001  8.061481e+001 
3484375000  -4.198328e+001  8.625526e+001 
3487500000  -4.141139e+001  8.506796e+001 
3490625000  -4.094641e+001  8.064736e+001 
3493750000  -4.119366e+001  7.390309e+001 
3496875000  -4.177898e+001  7.036739e+001 
3500000000  -4.206401e+001  7.306408e+001 
3503125000  -4.195630e+001  7.508949e+001 
3506250000  -4.043498e+001  7.132656e+001 
3509375000  -4.084559e+001  6.176275e+001 
3512500000  -4.113223e+001  5.261698e+001 
3515625000  -4.203559e+001  5.036987e+001 
3518750000  -4.248183e+001  5.078056e+001 
3521875000  -4.284828e+001  4.791354e+001 
3525000000  -4.345899e+001  4.476329e+001 
3528125000  -4.340676e+001  5.194802e+001 
3531250000  -4.210907e+001  5.073618e+001 
3534375000  -4.211209e+001  4.009111e+001 
3537500000  -4.264848e+001  3.539303e+001 
3540625000  -4.365476e+001  3.344628e+001 
3543750000  -4.423479e+001  3.695232e+001 
3546875000  -4.428035e+001  5.187081e+001 
3550000000  -4.182562e+001  5.149305e+001 
3553125000  -4.019479e+001  3.196991e+001 
3556250000  -4.194333e+001  2.754704e+001 
3559375000  -4.172363e+001  2.785793e+001 
3562500000  -4.056405e+001  2.087495e+001 
3565625000  -4.130406e+001  1.245315e+001 
3568750000  -4.133082e+001  1.405605e+001 
3571875000  -4.113573e+001  1.465833e+001 
3575000000  -4.100894e+001  8.417976e+000 
3578125000  -4.139247e+001  6.696869e-001 
3581250000  -4.143262e+001  -9.858634e-002 
3584375000  -4.030415e+001  -2.147672e+000 
3587500000  -3.996262e+001  -9.925765e+000 
3590625000  -4.069758e+001  -2.060803e+001 
3593750000  -4.195196e+001  -2.258482e+001 
3596875000  -4.175998e+001  -1.523641e+001 
3600000000  -4.054016e+001  -2.226781e+001 
3603125000  -4.098801e+001  -3.704392e+001 
3606250000  -4.161481e+001  -4.206407e+001 
3609375000  -4.226949e+001  -4.379653e+001 
3612500000  -4.279091e+001  -4.729045e+001 
3615625000  -4.294450e+001  -5.038435e+001 
3618750000  -4.355157e+001  -4.913237e+001 
3621875000  -4.351747e+001  -5.358992e+001 
3625000000  -4.437286e+001  -5.469768e+001 
3628125000  -4.448245e+001  -5.758338e+001 
3631250000  -4.435543e+001  -6.208405e+001 
3634375000  -4.566412e+001  -6.102093e+001 
3637500000  -4.554755e+001  -5.595369e+001 
3640625000  -4.469999e+001  -5.460651e+001 
3643750000  -4.456556e+001  -6.211757e+001 
3646875000  -4.530548e+001  -6.682396e+001 
3650000000  -4.615051e+001  -6.568415e+001 
3653125000  -4.537884e+001  -6.887861e+001 
3656250000  -4.596372e+001  -6.658772e+001 
3659375000  -4.626817e+001  -6.632256e+001 
3662500000  -4.544487e+001  -6.545004e+001 
3665625000  -4.475832e+001  -6.659483e+001 
3668750000  -4.373005e+001  -6.570132e+001 
3671875000  -4.322584e+001  -7.102184e+001 
3675000000  -4.361708e+001  -7.912374e+001 
3678125000  -4.364560e+001  -7.890964e+001 
3681250000  -4.336324e+001  -8.002747e+001 
3684375000  -4.344708e+001  -8.532899e+001 
3687500000  -4.294623e+001  -8.993832e+001 
3690625000  -4.296295e+001  -9.563695e+001 
3693750000  -4.425922e+001  -9.456439e+001 
3696875000  -4.399184e+001  -9.365488e+001 
3700000000  -4.299063e+001  -9.875331e+001 
3703125000  -4.312414e+001  -1.029500e+002 
3706250000  -4.400764e+001  -1.059196e+002 
3709375000  -4.355313e+001  -1.022809e+002 
3712500000  -4.227724e+001  -1.061783e+002 
3715625000  -4.170364e+001  -1.140567e+002 
3718750000  -4.146819e+001  -1.174950e+002 
3721875000  -4.153766e+001  -1.249615e+002 
3725000000  -4.151717e+001  -1.321781e+002 
3728125000  -4.200581e+001  -1.313235e+002 
3731250000  -4.155476e+001  -1.327957e+002 
3734375000  -4.141212e+001  -1.388943e+002 
3737500000  -4.218026e+001  -1.485952e+002 
3740625000  -4.321260e+001  -1.541263e+002 
3743750000  -4.290396e+001  -1.540520e+002 
3746875000  -4.318470e+001  -1.579255e+002 
3750000000  -4.399878e+001  -1.587211e+002 
3753125000  -4.398668e+001  -1.575391e+002 
3756250000  -4.437009e+001  -1.600216e+002 
3759375000  -4.456037e+001  -1.562565e+002 
3762500000  -4.377942e+001  -1.626430e+002 
3765625000  -4.482470e+001  -1.632245e+002 
3768750000  -4.426429e+001  -1.582901e+002 
3771875000  -4.325077e+001  -1.588214e+002 
3775000000  -4.293435e+001  -1.657650e+002 
3778125000  -4.340759e+001  -1.678714e+002 
3781250000  -4.298888e+001  -1.653457e+002 
3784375000  -4.274657e+001  -1.679773e+002 
3787500000  -4.195078e+001  -1.703327e+002 
3790625000  -4.243122e+001  -1.763376e+002 
3793750000  -4.236441e+001  -1.777297e+002 
3796875000  -4.148042e+001  -1.792695e+002 
3800000000  -3.969531e+001  1.761321e+002 
3803125000  -4.024199e+001  1.673114e+002 
3806250000  -4.098886e+001  1.630753e+002 
3809375000  -4.069976e+001  1.635995e+002 
3812500000  -3.991630e+001  1.562293e+002 
3815625000  -4.047194e+001  1.475540e+002 
3818750000  -4.164270e+001  1.455999e+002 
3821875000  -4.126206e+001  1.540894e+002 
3825000000  -3.948116e+001  1.559352e+002 
3828125000  -3.819074e+001  1.412567e+002 
3831250000  -3.887681e+001  1.264290e+002 
3834375000  -4.045649e+001  1.245358e+002 
3837500000  -4.099622e+001  1.294134e+002 
3840625000  -3.987218e+001  1.254623e+002 
3843750000  -3.842886e+001  1.125995e+002 
3846875000  -3.956261e+001  1.071908e+002 
3850000000  -4.109933e+001  1.113812e+002 
3853125000  -4.021474e+001  1.135696e+002 
3856250000  -4.055382e+001  1.056483e+002 
3859375000  -3.942212e+001  1.030492e+002 
3862500000  -3.919258e+001  9.306110e+001 
3865625000  -3.954012e+001  9.070158e+001 
3868750000  -3.961082e+001  8.893949e+001 
3871875000  -3.907137e+001  8.599677e+001 
3875000000  -3.896958e+001  7.506789e+001 
3878125000  -4.062207e+001  7.223286e+001 
3881250000  -4.050885e+001  7.601415e+001 
3884375000  -3.995899e+001  7.121912e+001 
3887500000  -4.011925e+001  6.621268e+001 
3890625000  -4.069009e+001  6.059455e+001 
3893750000  -4.103274e+001  6.106647e+001 
3896875000  -4.131497e+001  6.372218e+001 
3900000000  -4.167126e+001  5.999199e+001 
3903125000  -4.111733e+001  5.862179e+001 
3906250000  -4.056495e+001  5.663929e+001 
3909375000  -3.988656e+001  5.292589e+001 
3912500000  -4.029256e+001  4.472619e+001 
3915625000  -4.112970e+001  4.596204e+001 
3918750000  -4.110686e+001  4.853468e+001 
3921875000  -4.063063e+001  4.467228e+001 
3925000000  -3.976503e+001  4.078435e+001 
3928125000  -3.931860e+001  3.592854e+001 
3931250000  -3.969003e+001  2.906563e+001 
3934375000  -4.002819e+001  2.995564e+001 
3937500000  -4.009023e+001  2.737142e+001 
3940625000  -4.035340e+001  2.618519e+001 
3943750000  -3.937130e+001  2.589883e+001 
3946875000  -3.830614e+001  1.975165e+001 
3950000000  -3.908133e+001  1.266649e+001 
3953125000  -3.987457e+001  8.936807e+000 
3956250000  -3.903810e+001  1.292478e+001 
3959375000  -3.778601e+001  6.388477e+000 
3962500000  -3.734510e+001  2.674635e+000 
3965625000  -3.724646e+001  -6.242102e+000 
3968750000  -3.810467e+001  -1.515927e+001 
3971875000  -3.847481e+001  -1.764270e+001 
3975000000  -3.785971e+001  -1.833538e+001 
3978125000  -3.772751e+001  -2.188949e+001 
3981250000  -3.778448e+001  -2.732496e+001 
3984375000  -3.834366e+001  -3.267336e+001 
3987500000  -3.861534e+001  -3.645313e+001 
3990625000  -3.850540e+001  -3.746438e+001 
3993750000  -3.891990e+001  -4.149329e+001 
3996875000  -3.908408e+001  -4.550006e+001 
4000000000  -3.936820e+001  -4.699717e+001 
4003125000  -3.966172e+001  -4.616293e+001 
4006250000  -3.828426e+001  -4.596201e+001 
4009375000  -3.734841e+001  -5.839289e+001 
4012500000  -3.849313e+001  -6.581282e+001 
4015625000  -3.966533e+001  -6.531368e+001 
4018750000  -3.981526e+001  -6.418703e+001 
4021875000  -3.918220e+001  -6.539116e+001 
4025000000  -3.862410e+001  -7.211813e+001 
4028125000  -3.896041e+001  -7.575279e+001 
4031250000  -3.923299e+001  -7.871899e+001 
4034375000  -3.966679e+001  -8.074603e+001 
4037500000  -3.917871e+001  -7.890038e+001 
4040625000  -3.891667e+001  -8.276939e+001 
4043750000  -3.930474e+001  -8.447125e+001 
4046875000  -3.864388e+001  -8.561604e+001 
4050000000  -3.824065e+001  -9.136231e+001 
4053125000  -3.886804e+001  -9.223348e+001 
4056250000  -3.943054e+001  -9.152316e+001 
4059375000  -3.802094e+001  -9.104911e+001 
4062500000  -3.673275e+001  -9.544405e+001 
4065625000  -3.674371e+001  -1.007897e+002 
4068750000  -3.636019e+001  -1.071605e+002 
4071875000  -3.552113e+001  -1.153122e+002 
4075000000  -3.596847e+001  -1.220358e+002 
4078125000  -3.639190e+001  -1.242554e+002 
4081250000  -3.595514e+001  -1.276650e+002 
4084375000  -3.563255e+001  -1.347508e+002 
4087500000  -3.606512e+001  -1.419280e+002 
4090625000  -3.649329e+001  -1.434073e+002 
4093750000  -3.654174e+001  -1.445875e+002 
4096875000  -3.600991e+001  -1.502386e+002 
4100000000  -3.690344e+001  -1.594977e+002 
4103125000  -3.772544e+001  -1.589279e+002 
4106250000  -3.754506e+001  -1.533315e+002 
4109375000  -3.654296e+001  -1.556448e+002 
4112500000  -3.621600e+001  -1.639660e+002 
4115625000  -3.645185e+001  -1.696541e+002 
4118750000  -3.678493e+001  -1.732837e+002 
4121875000  -3.635980e+001  -1.776949e+002 
4125000000  -3.677311e+001  1.755263e+002 
4128125000  -3.764211e+001  1.756747e+002 
4131250000  -3.735439e+001  -1.766682e+002 
4134375000  -3.499384e+001  1.771283e+002 
4137500000  -3.495650e+001  1.576175e+002 
4140625000  -3.713807e+001  1.497351e+002 
4143750000  -3.846835e+001  1.549428e+002 
4146875000  -3.818426e+001  1.609940e+002 
4150000000  -3.747122e+001  1.575090e+002 
4153125000  -3.735384e+001  1.485540e+002 
4156250000  -3.803132e+001  1.467331e+002 
4159375000  -3.858162e+001  1.509248e+002 
4162500000  -3.743229e+001  1.535950e+002 
4165625000  -3.633300e+001  1.498075e+002 
4168750000  -3.565525e+001  1.428845e+002 
4171875000  -3.555762e+001  1.321020e+002 
4175000000  -3.619112e+001  1.268871e+002 
4178125000  -3.675584e+001  1.262061e+002 
4181250000  -3.664398e+001  1.247120e+002 
4184375000  -3.658499e+001  1.208403e+002 
4187500000  -3.678168e+001  1.180549e+002 
4190625000  -3.633427e+001  1.128604e+002 
4193750000  -3.698614e+001  1.084687e+002 
4196875000  -3.799360e+001  1.070856e+002 
4200000000  -3.879316e+001  1.080629e+002 
4203125000  -3.854365e+001  1.228618e+002 
4206250000  -3.531726e+001  1.226496e+002 
4209375000  -3.398929e+001  1.000610e+002 
4212500000  -3.615851e+001  9.220796e+001 
4215625000  -3.702782e+001  9.709583e+001 
4218750000  -3.540983e+001  1.027513e+002 
4221875000  -3.316552e+001  9.285513e+001 
4225000000  -3.430740e+001  7.891985e+001 
4228125000  -3.498005e+001  8.382978e+001 
4231250000  -3.344500e+001  7.881013e+001 
4234375000  -3.311232e+001  6.944979e+001 
4237500000  -3.274547e+001  6.367919e+001 
4240625000  -3.286882e+001  5.401289e+001 
4243750000  -3.402383e+001  4.650123e+001 
4246875000  -3.476853e+001  4.591603e+001 
4250000000  -3.483867e+001  4.737886e+001 
4253125000  -3.432666e+001  4.494622e+001 
4256250000  -3.454067e+001  4.012683e+001 
4259375000  -3.431868e+001  3.549591e+001 
4262500000  -3.445260e+001  3.178893e+001 
4265625000  -3.470179e+001  3.113798e+001 
4268750000  -3.377702e+001  2.512452e+001 
4271875000  -3.359670e+001  1.876873e+001 
4275000000  -3.307948e+001  1.096883e+001 
4278125000  -3.378243e+001  -4.001839e-001 
4281250000  -3.568996e+001  -3.547528e+000 
4284375000  -3.551990e+001  -4.425076e+000 
4287500000  -3.656723e+001  -7.028065e+000 
4290625000  -3.783829e+001  7.100598e-001 
4293750000  -3.582586e+001  6.140198e+000 
4296875000  -3.458190e+001  -4.326098e+000 
4300000000  -3.575718e+001  -1.433818e+001 
4303125000  -3.678858e+001  -1.318629e+001 
4306250000  -3.596258e+001  -6.330112e+000 
4309375000  -3.458160e+001  -8.713457e+000 
4312500000  -3.450764e+001  -1.677080e+001 
4315625000  -3.468091e+001  -2.365044e+001 
4318750000  -3.502481e+001  -2.702390e+001 
4321875000  -3.519859e+001  -2.672165e+001 
4325000000  -3.436182e+001  -2.619664e+001 
4328125000  -3.384788e+001  -3.268418e+001 
4331250000  -3.379643e+001  -4.172424e+001 
4334375000  -3.399934e+001  -4.782923e+001 
4337500000  -3.488897e+001  -5.066304e+001 
4340625000  -3.538868e+001  -4.689159e+001 
4343750000  -3.444696e+001  -4.698095e+001 
4346875000  -3.404650e+001  -5.302674e+001 
4350000000  -3.397061e+001  -5.982313e+001 
4353125000  -3.393574e+001  -6.779622e+001 
4356250000  -3.566055e+001  -7.006489e+001 
4359375000  -3.617735e+001  -5.703062e+001 
4362500000  -3.329677e+001  -5.712429e+001 
4365625000  -3.165356e+001  -7.065465e+001 
4368750000  -3.243806e+001  -8.391103e+001 
4371875000  -3.362357e+001  -8.304503e+001 
4375000000  -3.316383e+001  -8.473405e+001 
4378125000  -3.230698e+001  -9.150053e+001 
4381250000  -3.263808e+001  -9.772976e+001 
4384375000  -3.235611e+001  -1.040722e+002 
4387500000  -3.313034e+001  -1.112290e+002 
4390625000  -3.421494e+001  -1.119744e+002 
4393750000  -3.352937e+001  -1.104161e+002 
4396875000  -3.299352e+001  -1.138382e+002 
4400000000  -3.248158e+001  -1.227424e+002 
4403125000  -3.301421e+001  -1.311176e+002 
4406250000  -3.397310e+001  -1.337507e+002 
4409375000  -3.392645e+001  -1.371873e+002 
4412500000  -3.522314e+001  -1.404110e+002 
4415625000  -3.569984e+001  -1.360388e+002 
