!Agilent Technologies,E8363B,MY43030201,A.06.04.32
!Agilent E8363B: A.06.04.32
!Date: Tuesday, November 11, 2014 21:04:24
!Correction: S21(Response(S21)) 
!S1P File: Measurement: S21:
# Hz S  dB   R 50
3000000000  -3.640826e+001  -4.786032e+001 
3003125000  -3.745975e+001  -5.349330e+001 
3006250000  -3.741773e+001  -5.658053e+001 
3009375000  -3.776268e+001  -5.155722e+001 
3012500000  -3.701281e+001  -5.316150e+001 
3015625000  -3.601461e+001  -6.060590e+001 
3018750000  -3.681627e+001  -6.186212e+001 
3021875000  -3.544395e+001  -6.149786e+001 
3025000000  -3.411853e+001  -6.509559e+001 
3028125000  -3.311240e+001  -7.111399e+001 
3031250000  -3.216782e+001  -8.253855e+001 
3034375000  -3.176357e+001  -9.611032e+001 
3037500000  -3.217088e+001  -1.078325e+002 
3040625000  -3.357277e+001  -1.128080e+002 
3043750000  -3.422261e+001  -1.178450e+002 
3046875000  -3.437494e+001  -1.242270e+002 
3050000000  -3.597369e+001  -1.300728e+002 
3053125000  -3.612395e+001  -1.238393e+002 
3056250000  -3.554531e+001  -1.211314e+002 
3059375000  -3.569613e+001  -1.214514e+002 
3062500000  -3.408548e+001  -1.254066e+002 
3065625000  -3.393941e+001  -1.317660e+002 
3068750000  -3.358974e+001  -1.377918e+002 
3071875000  -3.342927e+001  -1.405146e+002 
3075000000  -3.328456e+001  -1.445996e+002 
3078125000  -3.301302e+001  -1.484335e+002 
3081250000  -3.352441e+001  -1.528583e+002 
3084375000  -3.266533e+001  -1.565334e+002 
3087500000  -3.240895e+001  -1.601901e+002 
3090625000  -3.196319e+001  -1.705174e+002 
3093750000  -3.239695e+001  -1.777785e+002 
3096875000  -3.356601e+001  1.761913e+002 
3100000000  -3.332537e+001  1.738797e+002 
3103125000  -3.356358e+001  1.750464e+002 
3106250000  -3.317965e+001  1.705520e+002 
3109375000  -3.326548e+001  1.670016e+002 
3112500000  -3.315953e+001  1.648036e+002 
3115625000  -3.280979e+001  1.594652e+002 
3118750000  -3.310653e+001  1.603155e+002 
3121875000  -3.230828e+001  1.503746e+002 
3125000000  -3.350212e+001  1.460627e+002 
3128125000  -3.441155e+001  1.534883e+002 
3131250000  -3.211586e+001  1.518543e+002 
3134375000  -3.075767e+001  1.363667e+002 
3137500000  -3.130202e+001  1.217528e+002 
3140625000  -3.286050e+001  1.192940e+002 
3143750000  -3.380224e+001  1.211161e+002 
3146875000  -3.325203e+001  1.220733e+002 
3150000000  -3.236258e+001  1.219780e+002 
3153125000  -3.224778e+001  1.130939e+002 
3156250000  -3.329903e+001  1.176999e+002 
3159375000  -3.169129e+001  1.187202e+002 
3162500000  -2.969706e+001  1.046803e+002 
3165625000  -3.076952e+001  9.213515e+001 
3168750000  -3.108574e+001  9.236796e+001 
3171875000  -3.016150e+001  8.668977e+001 
3175000000  -3.091266e+001  7.778228e+001 
3178125000  -3.071317e+001  7.916264e+001 
3181250000  -2.961393e+001  7.316549e+001 
3184375000  -2.885953e+001  6.061161e+001 
3187500000  -3.007520e+001  4.517522e+001 
3190625000  -3.280189e+001  3.707656e+001 
3193750000  -3.340219e+001  4.521447e+001 
3196875000  -3.301786e+001  5.051325e+001 
3200000000  -3.210719e+001  4.773755e+001 
3203125000  -3.131011e+001  4.112914e+001 
3206250000  -3.159912e+001  3.410858e+001 
3209375000  -3.112105e+001  2.856661e+001 
3212500000  -3.136039e+001  2.180516e+001 
3215625000  -3.140429e+001  1.836386e+001 
3218750000  -3.226185e+001  1.059719e+001 
3221875000  -3.311602e+001  6.023463e+000 
3225000000  -3.268787e+001  4.598546e+000 
3228125000  -3.303791e+001  -5.720881e-001 
3231250000  -3.367240e+001  -3.853848e+000 
3234375000  -3.345669e+001  -3.287232e+000 
3237500000  -3.347219e+001  -5.247612e+000 
3240625000  -3.299595e+001  -7.506546e+000 
3243750000  -3.261748e+001  -1.571513e+001 
3246875000  -3.308563e+001  -2.207484e+001 
3250000000  -3.340562e+001  -2.520715e+001 
3253125000  -3.356857e+001  -2.636503e+001 
3256250000  -3.328314e+001  -3.384830e+001 
3259375000  -3.352806e+001  -4.229483e+001 
3262500000  -3.461974e+001  -4.599939e+001 
3265625000  -3.519909e+001  -4.310262e+001 
3268750000  -3.515756e+001  -4.127875e+001 
3271875000  -3.473610e+001  -4.190877e+001 
3275000000  -3.364818e+001  -4.783955e+001 
3278125000  -3.421228e+001  -5.505102e+001 
3281250000  -3.433575e+001  -5.358552e+001 
3284375000  -3.384310e+001  -6.073159e+001 
3287500000  -3.403916e+001  -6.429879e+001 
3290625000  -3.435254e+001  -7.017841e+001 
3293750000  -3.410794e+001  -7.559356e+001 
3296875000  -3.516911e+001  -7.667911e+001 
3300000000  -3.495388e+001  -7.579954e+001 
3303125000  -3.371750e+001  -8.209610e+001 
3306250000  -3.352628e+001  -8.893422e+001 
3309375000  -3.321676e+001  -9.478950e+001 
3312500000  -3.343410e+001  -1.059464e+002 
3315625000  -3.433083e+001  -1.143818e+002 
3318750000  -3.568893e+001  -1.172890e+002 
3321875000  -3.681737e+001  -1.163418e+002 
3325000000  -3.727665e+001  -1.119197e+002 
3328125000  -3.694501e+001  -1.125175e+002 
3331250000  -3.581717e+001  -1.050465e+002 
3334375000  -3.309442e+001  -1.140826e+002 
3337500000  -3.311544e+001  -1.345747e+002 
3340625000  -3.451574e+001  -1.457966e+002 
3343750000  -3.644357e+001  -1.462038e+002 
3346875000  -3.672522e+001  -1.441536e+002 
3350000000  -3.619356e+001  -1.470898e+002 
3353125000  -3.609412e+001  -1.508108e+002 
3356250000  -3.561205e+001  -1.593597e+002 
3359375000  -3.633924e+001  -1.674181e+002 
3362500000  -3.755413e+001  -1.739074e+002 
3365625000  -3.796798e+001  -1.752990e+002 
3368750000  -3.883455e+001  -1.769900e+002 
3371875000  -3.899262e+001  -1.797672e+002 
3375000000  -4.051668e+001  1.773692e+002 
3378125000  -4.125949e+001  1.774546e+002 
3381250000  -4.240313e+001  -1.753746e+002 
3384375000  -4.108517e+001  -1.523535e+002 
3387500000  -3.773863e+001  -1.678173e+002 
3390625000  -3.942179e+001  1.698097e+002 
3393750000  -4.067215e+001  1.762502e+002 
3396875000  -3.920127e+001  1.771613e+002 
3400000000  -3.859691e+001  1.690020e+002 
3403125000  -3.916625e+001  1.627730e+002 
3406250000  -3.975054e+001  1.618882e+002 
3409375000  -3.977393e+001  1.546653e+002 
3412500000  -4.057599e+001  1.538705e+002 
3415625000  -4.097973e+001  1.545144e+002 
3418750000  -4.108260e+001  1.555733e+002 
3421875000  -4.118591e+001  1.572625e+002 
3425000000  -4.035949e+001  1.580506e+002 
3428125000  -3.940104e+001  1.538277e+002 
3431250000  -3.922569e+001  1.466746e+002 
3434375000  -3.914267e+001  1.404121e+002 
3437500000  -3.975920e+001  1.367840e+002 
3440625000  -4.016639e+001  1.382353e+002 
3443750000  -3.876584e+001  1.380911e+002 
3446875000  -3.801254e+001  1.312508e+002 
3450000000  -3.754914e+001  1.208020e+002 
3453125000  -3.783233e+001  1.108339e+002 
3456250000  -3.929275e+001  1.055700e+002 
3459375000  -4.021099e+001  1.046606e+002 
3462500000  -3.984253e+001  1.062749e+002 
3465625000  -3.983456e+001  1.003360e+002 
3468750000  -4.030334e+001  9.622372e+001 
3471875000  -3.993295e+001  9.364872e+001 
3475000000  -3.979934e+001  9.074841e+001 
3478125000  -4.033235e+001  8.262874e+001 
3481250000  -4.135952e+001  8.026688e+001 
3484375000  -4.220314e+001  8.380498e+001 
3487500000  -4.142677e+001  8.266265e+001 
3490625000  -4.102534e+001  8.056383e+001 
3493750000  -4.133584e+001  7.264811e+001 
3496875000  -4.197916e+001  7.041609e+001 
3500000000  -4.254753e+001  7.265365e+001 
3503125000  -4.191724e+001  7.565952e+001 
3506250000  -4.072036e+001  7.029953e+001 
3509375000  -4.079504e+001  6.314405e+001 
3512500000  -4.112925e+001  5.339108e+001 
3515625000  -4.184455e+001  5.129677e+001 
3518750000  -4.268032e+001  5.128547e+001 
3521875000  -4.240819e+001  4.984318e+001 
3525000000  -4.326040e+001  4.686221e+001 
3528125000  -4.333204e+001  5.213527e+001 
3531250000  -4.205657e+001  4.990609e+001 
3534375000  -4.176579e+001  4.069046e+001 
3537500000  -4.219568e+001  3.418838e+001 
3540625000  -4.345229e+001  3.418391e+001 
3543750000  -4.415998e+001  3.741270e+001 
3546875000  -4.394503e+001  4.832078e+001 
3550000000  -4.138622e+001  5.059767e+001 
3553125000  -3.988977e+001  3.223289e+001 
3556250000  -4.128964e+001  2.450886e+001 
3559375000  -4.112196e+001  2.636057e+001 
3562500000  -3.999253e+001  1.831024e+001 
3565625000  -4.076277e+001  1.091481e+001 
3568750000  -4.105734e+001  1.287185e+001 
3571875000  -4.094836e+001  1.143726e+001 
3575000000  -4.067052e+001  3.813396e+000 
3578125000  -4.104161e+001  -1.564543e+000 
3581250000  -4.144342e+001  -3.012339e+000 
3584375000  -4.044595e+001  -4.307405e+000 
3587500000  -4.001078e+001  -1.267598e+001 
3590625000  -4.088406e+001  -2.485956e+001 
3593750000  -4.200460e+001  -2.663225e+001 
3596875000  -4.147349e+001  -2.083148e+001 
3600000000  -4.022614e+001  -2.571220e+001 
3603125000  -4.077856e+001  -4.092137e+001 
3606250000  -4.150563e+001  -4.577547e+001 
3609375000  -4.206221e+001  -4.877959e+001 
3612500000  -4.318919e+001  -4.979647e+001 
3615625000  -4.315921e+001  -5.395417e+001 
3618750000  -4.418227e+001  -5.522287e+001 
3621875000  -4.396698e+001  -5.677728e+001 
3625000000  -4.444958e+001  -5.714668e+001 
3628125000  -4.487699e+001  -5.784846e+001 
3631250000  -4.442072e+001  -6.302771e+001 
3634375000  -4.558096e+001  -6.269585e+001 
3637500000  -4.577319e+001  -5.493089e+001 
3640625000  -4.507405e+001  -5.455623e+001 
3643750000  -4.446252e+001  -6.082407e+001 
3646875000  -4.542035e+001  -6.761610e+001 
3650000000  -4.594023e+001  -6.421474e+001 
3653125000  -4.561558e+001  -6.560107e+001 
3656250000  -4.559352e+001  -6.729370e+001 
3659375000  -4.573674e+001  -6.185464e+001 
3662500000  -4.508778e+001  -6.404177e+001 
3665625000  -4.444074e+001  -6.411564e+001 
3668750000  -4.373972e+001  -6.510072e+001 
3671875000  -4.263474e+001  -7.201596e+001 
3675000000  -4.247737e+001  -7.978244e+001 
3678125000  -4.309000e+001  -8.112498e+001 
3681250000  -4.274206e+001  -8.443060e+001 
3684375000  -4.249732e+001  -8.832716e+001 
3687500000  -4.311038e+001  -9.327519e+001 
3690625000  -4.299572e+001  -9.630350e+001 
3693750000  -4.391088e+001  -9.866387e+001 
3696875000  -4.371465e+001  -9.864278e+001 
3700000000  -4.238544e+001  -1.020181e+002 
3703125000  -4.267733e+001  -1.095834e+002 
3706250000  -4.337651e+001  -1.100458e+002 
3709375000  -4.317418e+001  -1.066694e+002 
3712500000  -4.247786e+001  -1.080950e+002 
3715625000  -4.151957e+001  -1.174330e+002 
3718750000  -4.100866e+001  -1.240354e+002 
3721875000  -4.131726e+001  -1.283592e+002 
3725000000  -4.145043e+001  -1.363732e+002 
3728125000  -4.195891e+001  -1.404067e+002 
3731250000  -4.181900e+001  -1.375565e+002 
3734375000  -4.103357e+001  -1.481073e+002 
3737500000  -4.242647e+001  -1.525227e+002 
3740625000  -4.326194e+001  -1.569013e+002 
3743750000  -4.349683e+001  -1.604402e+002 
3746875000  -4.394291e+001  -1.604253e+002 
3750000000  -4.467311e+001  -1.627434e+002 
3753125000  -4.438499e+001  -1.610734e+002 
3756250000  -4.485079e+001  -1.599640e+002 
3759375000  -4.490828e+001  -1.593708e+002 
3762500000  -4.451611e+001  -1.630599e+002 
3765625000  -4.513671e+001  -1.611035e+002 
3768750000  -4.503251e+001  -1.561321e+002 
3771875000  -4.358220e+001  -1.607881e+002 
3775000000  -4.346783e+001  -1.653730e+002 
3778125000  -4.333559e+001  -1.683067e+002 
3781250000  -4.283203e+001  -1.698663e+002 
3784375000  -4.292870e+001  -1.687608e+002 
3787500000  -4.193433e+001  -1.710976e+002 
3790625000  -4.238088e+001  -1.799185e+002 
3793750000  -4.228673e+001  1.793244e+002 
3796875000  -4.119826e+001  1.758422e+002 
3800000000  -3.943888e+001  1.752732e+002 
3803125000  -4.030826e+001  1.639872e+002 
3806250000  -4.080564e+001  1.633639e+002 
3809375000  -4.046631e+001  1.612748e+002 
3812500000  -3.955223e+001  1.549976e+002 
3815625000  -4.013280e+001  1.425182e+002 
3818750000  -4.114596e+001  1.436120e+002 
3821875000  -4.097514e+001  1.513830e+002 
3825000000  -3.928093e+001  1.527410e+002 
3828125000  -3.779005e+001  1.369868e+002 
3831250000  -3.855855e+001  1.223380e+002 
3834375000  -4.008371e+001  1.215850e+002 
3837500000  -4.080421e+001  1.241175e+002 
3840625000  -3.976241e+001  1.218067e+002 
3843750000  -3.900156e+001  1.088528e+002 
3846875000  -3.982388e+001  1.022186e+002 
3850000000  -4.100315e+001  1.072771e+002 
3853125000  -4.037634e+001  1.094467e+002 
3856250000  -4.049555e+001  1.019126e+002 
3859375000  -3.976907e+001  9.773847e+001 
3862500000  -3.950974e+001  9.048533e+001 
3865625000  -3.986895e+001  8.464518e+001 
3868750000  -3.963540e+001  8.401749e+001 
3871875000  -3.924451e+001  8.070444e+001 
3875000000  -3.957590e+001  7.085217e+001 
3878125000  -4.070480e+001  6.944070e+001 
3881250000  -4.075109e+001  7.321114e+001 
3884375000  -4.036698e+001  6.754991e+001 
3887500000  -4.051299e+001  6.325860e+001 
3890625000  -4.127584e+001  6.131179e+001 
3893750000  -4.136707e+001  5.850686e+001 
3896875000  -4.153400e+001  6.046756e+001 
3900000000  -4.183964e+001  5.946693e+001 
3903125000  -4.134420e+001  5.659612e+001 
3906250000  -4.103226e+001  5.479152e+001 
3909375000  -4.034459e+001  5.225244e+001 
3912500000  -4.040855e+001  4.341882e+001 
3915625000  -4.155513e+001  4.436124e+001 
3918750000  -4.078762e+001  4.551588e+001 
3921875000  -4.080585e+001  4.292358e+001 
3925000000  -3.971374e+001  3.866135e+001 
3928125000  -3.909777e+001  3.437219e+001 
3931250000  -3.944638e+001  3.031867e+001 
3934375000  -3.984320e+001  2.672941e+001 
3937500000  -3.997334e+001  2.598195e+001 
3940625000  -4.048104e+001  2.446578e+001 
3943750000  -3.933740e+001  2.389112e+001 
3946875000  -3.808030e+001  1.850680e+001 
3950000000  -3.873931e+001  8.151122e+000 
3953125000  -3.958653e+001  8.695632e+000 
3956250000  -3.865523e+001  8.056548e+000 
3959375000  -3.758351e+001  6.371217e+000 
3962500000  -3.715306e+001  1.460737e-001 
3965625000  -3.679284e+001  -8.874386e+000 
3968750000  -3.819872e+001  -1.715788e+001 
3971875000  -3.838859e+001  -1.906480e+001 
3975000000  -3.754539e+001  -2.275183e+001 
3978125000  -3.781713e+001  -2.524913e+001 
3981250000  -3.756487e+001  -3.210958e+001 
3984375000  -3.795541e+001  -3.927359e+001 
3987500000  -3.841718e+001  -4.079393e+001 
3990625000  -3.845487e+001  -4.035300e+001 
3993750000  -3.872556e+001  -4.676445e+001 
3996875000  -3.900056e+001  -4.832707e+001 
4000000000  -3.940877e+001  -5.258610e+001 
4003125000  -3.978363e+001  -5.049179e+001 
4006250000  -3.881425e+001  -5.084436e+001 
4009375000  -3.742105e+001  -6.400014e+001 
4012500000  -3.860305e+001  -7.036072e+001 
4015625000  -3.999632e+001  -7.107024e+001 
4018750000  -4.015269e+001  -6.998687e+001 
4021875000  -3.933556e+001  -6.914312e+001 
4025000000  -3.914986e+001  -7.417223e+001 
4028125000  -3.926292e+001  -7.890485e+001 
4031250000  -3.966339e+001  -8.331020e+001 
4034375000  -3.994988e+001  -8.240961e+001 
4037500000  -3.947548e+001  -8.115795e+001 
4040625000  -3.934299e+001  -8.436695e+001 
4043750000  -3.959857e+001  -8.585056e+001 
4046875000  -3.906613e+001  -8.680219e+001 
4050000000  -3.853989e+001  -9.253777e+001 
4053125000  -3.909169e+001  -9.522811e+001 
4056250000  -3.953902e+001  -9.178916e+001 
4059375000  -3.817511e+001  -9.039442e+001 
4062500000  -3.679753e+001  -9.714013e+001 
4065625000  -3.689319e+001  -1.008355e+002 
4068750000  -3.645119e+001  -1.072234e+002 
4071875000  -3.558469e+001  -1.161967e+002 
4075000000  -3.585583e+001  -1.224826e+002 
4078125000  -3.655852e+001  -1.252186e+002 
4081250000  -3.604594e+001  -1.278805e+002 
4084375000  -3.546140e+001  -1.363388e+002 
4087500000  -3.592930e+001  -1.435678e+002 
4090625000  -3.659363e+001  -1.448242e+002 
4093750000  -3.628637e+001  -1.468200e+002 
4096875000  -3.584626e+001  -1.531887e+002 
4100000000  -3.672786e+001  -1.610730e+002 
4103125000  -3.765303e+001  -1.618212e+002 
4106250000  -3.740147e+001  -1.581455e+002 
4109375000  -3.641059e+001  -1.593465e+002 
4112500000  -3.596722e+001  -1.654491e+002 
4115625000  -3.626387e+001  -1.720632e+002 
4118750000  -3.645863e+001  -1.774681e+002 
4121875000  -3.608800e+001  1.772162e+002 
4125000000  -3.659480e+001  1.711777e+002 
4128125000  -3.787613e+001  1.709681e+002 
4131250000  -3.738770e+001  1.784778e+002 
4134375000  -3.519921e+001  1.726510e+002 
4137500000  -3.503959e+001  1.520502e+002 
4140625000  -3.742212e+001  1.445009e+002 
4143750000  -3.893659e+001  1.487475e+002 
4146875000  -3.841016e+001  1.554700e+002 
4150000000  -3.760294e+001  1.521339e+002 
4153125000  -3.762896e+001  1.444742e+002 
4156250000  -3.858905e+001  1.412669e+002 
4159375000  -3.873415e+001  1.466437e+002 
4162500000  -3.785315e+001  1.508561e+002 
4165625000  -3.673201e+001  1.467361e+002 
4168750000  -3.606026e+001  1.383989e+002 
4171875000  -3.604925e+001  1.283185e+002 
4175000000  -3.671914e+001  1.250666e+002 
4178125000  -3.741348e+001  1.245895e+002 
4181250000  -3.710933e+001  1.223496e+002 
4184375000  -3.697318e+001  1.200310e+002 
4187500000  -3.705353e+001  1.155120e+002 
4190625000  -3.673212e+001  1.108098e+002 
4193750000  -3.761353e+001  1.076983e+002 
4196875000  -3.804932e+001  1.058031e+002 
4200000000  -3.911655e+001  1.069844e+002 
4203125000  -3.881789e+001  1.201334e+002 
4206250000  -3.518527e+001  1.211655e+002 
4209375000  -3.434718e+001  9.911473e+001 
4212500000  -3.612497e+001  8.997338e+001 
4215625000  -3.687416e+001  9.547240e+001 
4218750000  -3.540125e+001  1.006816e+002 
4221875000  -3.304068e+001  9.123586e+001 
4225000000  -3.430220e+001  7.733929e+001 
4228125000  -3.503021e+001  8.095593e+001 
4231250000  -3.344041e+001  7.734550e+001 
4234375000  -3.315582e+001  6.711195e+001 
4237500000  -3.289019e+001  6.255510e+001 
4240625000  -3.271099e+001  5.230487e+001 
4243750000  -3.384963e+001  4.387792e+001 
4246875000  -3.469075e+001  4.345011e+001 
4250000000  -3.475642e+001  4.431585e+001 
4253125000  -3.416583e+001  4.136991e+001 
4256250000  -3.451471e+001  3.557597e+001 
4259375000  -3.421856e+001  3.300650e+001 
4262500000  -3.453138e+001  2.773852e+001 
4265625000  -3.470054e+001  2.706107e+001 
4268750000  -3.377439e+001  2.179863e+001 
4271875000  -3.371426e+001  1.463367e+001 
4275000000  -3.321811e+001  6.072162e+000 
4278125000  -3.404176e+001  -5.216310e+000 
4281250000  -3.568994e+001  -8.258718e+000 
4284375000  -3.581805e+001  -7.190204e+000 
4287500000  -3.658811e+001  -1.365624e+001 
4290625000  -3.795844e+001  -3.989975e+000 
4293750000  -3.610426e+001  1.747230e+000 
4296875000  -3.481076e+001  -8.725266e+000 
4300000000  -3.599407e+001  -1.834027e+001 
4303125000  -3.724635e+001  -1.702256e+001 
4306250000  -3.647507e+001  -1.145568e+001 
4309375000  -3.548904e+001  -1.299574e+001 
4312500000  -3.497293e+001  -1.954023e+001 
4315625000  -3.532664e+001  -2.710960e+001 
4318750000  -3.556040e+001  -3.073896e+001 
4321875000  -3.564715e+001  -2.873328e+001 
4325000000  -3.496281e+001  -2.794590e+001 
4328125000  -3.440347e+001  -3.482129e+001 
4331250000  -3.415276e+001  -4.360162e+001 
4334375000  -3.460876e+001  -4.797086e+001 
4337500000  -3.537322e+001  -5.067262e+001 
4340625000  -3.562918e+001  -4.723802e+001 
4343750000  -3.506589e+001  -4.872361e+001 
4346875000  -3.447610e+001  -5.385870e+001 
4350000000  -3.444168e+001  -5.960035e+001 
4353125000  -3.413323e+001  -6.896851e+001 
4356250000  -3.577814e+001  -7.071874e+001 
4359375000  -3.643287e+001  -5.799437e+001 
4362500000  -3.342474e+001  -5.820694e+001 
4365625000  -3.178394e+001  -7.109138e+001 
4368750000  -3.262621e+001  -8.339798e+001 
4371875000  -3.367299e+001  -8.452717e+001 
4375000000  -3.315343e+001  -8.529554e+001 
4378125000  -3.238864e+001  -9.234871e+001 
4381250000  -3.276380e+001  -9.951853e+001 
4384375000  -3.244507e+001  -1.055097e+002 
4387500000  -3.307135e+001  -1.131595e+002 
4390625000  -3.415502e+001  -1.126988e+002 
4393750000  -3.352901e+001  -1.143024e+002 
4396875000  -3.285963e+001  -1.170045e+002 
4400000000  -3.230516e+001  -1.255721e+002 
4403125000  -3.312729e+001  -1.341151e+002 
4406250000  -3.390215e+001  -1.372206e+002 
4409375000  -3.403117e+001  -1.409101e+002 
4412500000  -3.524147e+001  -1.430359e+002 
4415625000  -3.576727e+001  -1.400316e+002 
