!Agilent Technologies,E8363B,MY43030201,A.06.04.32
!Agilent E8363B: A.06.04.32
!Date: Tuesday, November 11, 2014 21:02:39
!Correction: S21(Response(S21)) 
!S1P File: Measurement: S21:
# Hz S  dB   R 50
3000000000  -3.634886e+001  -4.623954e+001 
3003125000  -3.748271e+001  -5.196093e+001 
3006250000  -3.735635e+001  -5.495018e+001 
3009375000  -3.762941e+001  -5.023984e+001 
3012500000  -3.693082e+001  -5.232890e+001 
3015625000  -3.593833e+001  -5.913094e+001 
3018750000  -3.671845e+001  -6.044883e+001 
3021875000  -3.543161e+001  -6.051628e+001 
3025000000  -3.405943e+001  -6.349091e+001 
3028125000  -3.317015e+001  -6.928928e+001 
3031250000  -3.203026e+001  -8.060920e+001 
3034375000  -3.168645e+001  -9.409538e+001 
3037500000  -3.208411e+001  -1.065251e+002 
3040625000  -3.355622e+001  -1.111035e+002 
3043750000  -3.411782e+001  -1.156940e+002 
3046875000  -3.422758e+001  -1.222540e+002 
3050000000  -3.592003e+001  -1.303229e+002 
3053125000  -3.598275e+001  -1.222526e+002 
3056250000  -3.549805e+001  -1.193778e+002 
3059375000  -3.561878e+001  -1.198807e+002 
3062500000  -3.407427e+001  -1.240177e+002 
3065625000  -3.390409e+001  -1.294064e+002 
3068750000  -3.354202e+001  -1.366515e+002 
3071875000  -3.345566e+001  -1.394181e+002 
3075000000  -3.330170e+001  -1.426187e+002 
3078125000  -3.301905e+001  -1.469089e+002 
3081250000  -3.355020e+001  -1.514613e+002 
3084375000  -3.254256e+001  -1.545689e+002 
3087500000  -3.242271e+001  -1.589804e+002 
3090625000  -3.193612e+001  -1.690975e+002 
3093750000  -3.238180e+001  -1.763227e+002 
3096875000  -3.343945e+001  1.779277e+002 
3100000000  -3.337419e+001  1.754993e+002 
3103125000  -3.356985e+001  1.764807e+002 
3106250000  -3.314670e+001  1.723790e+002 
3109375000  -3.308851e+001  1.682841e+002 
3112500000  -3.314315e+001  1.663014e+002 
3115625000  -3.282317e+001  1.605518e+002 
3118750000  -3.318517e+001  1.612832e+002 
3121875000  -3.231274e+001  1.518461e+002 
3125000000  -3.349557e+001  1.478409e+002 
3128125000  -3.448828e+001  1.546615e+002 
3131250000  -3.196892e+001  1.530980e+002 
3134375000  -3.069999e+001  1.377062e+002 
3137500000  -3.129871e+001  1.236994e+002 
3140625000  -3.275839e+001  1.206547e+002 
3143750000  -3.385760e+001  1.225681e+002 
3146875000  -3.330053e+001  1.229103e+002 
3150000000  -3.228318e+001  1.238840e+002 
3153125000  -3.239665e+001  1.147565e+002 
3156250000  -3.336534e+001  1.189328e+002 
3159375000  -3.170558e+001  1.203541e+002 
3162500000  -2.970677e+001  1.060696e+002 
3165625000  -3.071016e+001  9.395323e+001 
3168750000  -3.105987e+001  9.352900e+001 
3171875000  -3.018856e+001  8.824388e+001 
3175000000  -3.092193e+001  7.991067e+001 
3178125000  -3.068095e+001  8.047385e+001 
3181250000  -2.957725e+001  7.458609e+001 
3184375000  -2.882969e+001  6.223965e+001 
3187500000  -3.004289e+001  4.710105e+001 
3190625000  -3.275234e+001  3.839022e+001 
3193750000  -3.338540e+001  4.709221e+001 
3196875000  -3.298532e+001  5.130101e+001 
3200000000  -3.208862e+001  4.927527e+001 
3203125000  -3.126897e+001  4.328448e+001 
3206250000  -3.160245e+001  3.645053e+001 
3209375000  -3.111386e+001  3.031664e+001 
3212500000  -3.135710e+001  2.387009e+001 
3215625000  -3.141684e+001  1.951057e+001 
3218750000  -3.218744e+001  1.234229e+001 
3221875000  -3.303869e+001  7.085333e+000 
3225000000  -3.265570e+001  5.860158e+000 
3228125000  -3.294092e+001  6.917488e-001 
3231250000  -3.367134e+001  -2.023432e+000 
3234375000  -3.339029e+001  -2.013535e+000 
3237500000  -3.336715e+001  -4.155195e+000 
3240625000  -3.297266e+001  -6.040451e+000 
3243750000  -3.256734e+001  -1.379007e+001 
3246875000  -3.298771e+001  -2.109508e+001 
3250000000  -3.332346e+001  -2.365454e+001 
3253125000  -3.354122e+001  -2.536853e+001 
3256250000  -3.324265e+001  -3.265457e+001 
3259375000  -3.351080e+001  -4.049312e+001 
3262500000  -3.462777e+001  -4.448704e+001 
3265625000  -3.520488e+001  -4.170794e+001 
3268750000  -3.513960e+001  -3.999253e+001 
3271875000  -3.475436e+001  -4.025286e+001 
3275000000  -3.372208e+001  -4.645100e+001 
3278125000  -3.417015e+001  -5.313338e+001 
3281250000  -3.444773e+001  -5.226040e+001 
3284375000  -3.386072e+001  -5.906779e+001 
3287500000  -3.406281e+001  -6.252286e+001 
3290625000  -3.444411e+001  -6.833720e+001 
3293750000  -3.411605e+001  -7.439040e+001 
3296875000  -3.522523e+001  -7.550229e+001 
3300000000  -3.493917e+001  -7.401881e+001 
3303125000  -3.376467e+001  -8.093372e+001 
3306250000  -3.350633e+001  -8.703526e+001 
3309375000  -3.335509e+001  -9.380266e+001 
3312500000  -3.344518e+001  -1.041601e+002 
3315625000  -3.441519e+001  -1.126279e+002 
3318750000  -3.572820e+001  -1.164575e+002 
3321875000  -3.686610e+001  -1.159375e+002 
3325000000  -3.755182e+001  -1.105926e+002 
3328125000  -3.692027e+001  -1.108464e+002 
3331250000  -3.575077e+001  -1.042079e+002 
3334375000  -3.313106e+001  -1.138482e+002 
3337500000  -3.319622e+001  -1.332314e+002 
3340625000  -3.457321e+001  -1.440676e+002 
3343750000  -3.662413e+001  -1.446618e+002 
3346875000  -3.679383e+001  -1.437899e+002 
3350000000  -3.632501e+001  -1.453428e+002 
3353125000  -3.628244e+001  -1.501590e+002 
3356250000  -3.573740e+001  -1.581867e+002 
3359375000  -3.661307e+001  -1.665563e+002 
3362500000  -3.777391e+001  -1.729925e+002 
3365625000  -3.827609e+001  -1.737704e+002 
3368750000  -3.892973e+001  -1.753237e+002 
3371875000  -3.929120e+001  -1.789698e+002 
3375000000  -4.058054e+001  1.785733e+002 
3378125000  -4.150398e+001  1.787355e+002 
3381250000  -4.251916e+001  -1.723928e+002 
3384375000  -4.133368e+001  -1.514187e+002 
3387500000  -3.781454e+001  -1.662010e+002 
3390625000  -3.937408e+001  1.731034e+002 
3393750000  -4.067716e+001  1.766570e+002 
3396875000  -3.952818e+001  1.794933e+002 
3400000000  -3.866336e+001  1.706425e+002 
3403125000  -3.939180e+001  1.655649e+002 
3406250000  -3.984378e+001  1.649354e+002 
3409375000  -3.998013e+001  1.564393e+002 
3412500000  -4.015149e+001  1.565704e+002 
3415625000  -4.125679e+001  1.560031e+002 
3418750000  -4.102072e+001  1.561892e+002 
3421875000  -4.144470e+001  1.595795e+002 
3425000000  -4.049138e+001  1.601484e+002 
3428125000  -3.949129e+001  1.556653e+002 
3431250000  -3.940509e+001  1.479238e+002 
3434375000  -3.924162e+001  1.416167e+002 
3437500000  -3.987573e+001  1.406965e+002 
3440625000  -4.009036e+001  1.392361e+002 
3443750000  -3.902375e+001  1.413915e+002 
3446875000  -3.797895e+001  1.330098e+002 
3450000000  -3.777732e+001  1.229683e+002 
3453125000  -3.814946e+001  1.131635e+002 
3456250000  -3.934416e+001  1.057474e+002 
3459375000  -3.998845e+001  1.078304e+002 
3462500000  -3.987281e+001  1.069590e+002 
3465625000  -4.003347e+001  1.009119e+002 
3468750000  -4.025670e+001  9.868433e+001 
3471875000  -4.024532e+001  9.608837e+001 
3475000000  -3.976423e+001  9.106325e+001 
3478125000  -4.072279e+001  8.400185e+001 
3481250000  -4.142405e+001  8.228827e+001 
3484375000  -4.223819e+001  8.703465e+001 
3487500000  -4.162241e+001  8.573518e+001 
3490625000  -4.096721e+001  8.210017e+001 
3493750000  -4.142212e+001  7.587440e+001 
3496875000  -4.225759e+001  7.308012e+001 
3500000000  -4.277410e+001  7.601559e+001 
3503125000  -4.219634e+001  7.862450e+001 
3506250000  -4.095327e+001  7.590267e+001 
3509375000  -4.086825e+001  6.323284e+001 
3512500000  -4.157552e+001  5.703390e+001 
3515625000  -4.224044e+001  5.412714e+001 
3518750000  -4.263052e+001  5.370061e+001 
3521875000  -4.257874e+001  5.218322e+001 
3525000000  -4.364929e+001  4.914067e+001 
3528125000  -4.337260e+001  5.798881e+001 
3531250000  -4.193649e+001  5.553694e+001 
3534375000  -4.194673e+001  4.496035e+001 
3537500000  -4.199208e+001  3.850524e+001 
3540625000  -4.320575e+001  3.854804e+001 
3543750000  -4.375132e+001  4.099562e+001 
3546875000  -4.362119e+001  5.278084e+001 
3550000000  -4.127074e+001  5.269015e+001 
3553125000  -3.983824e+001  3.440878e+001 
3556250000  -4.092802e+001  2.647159e+001 
3559375000  -4.074670e+001  2.915844e+001 
3562500000  -3.977837e+001  1.917239e+001 
3565625000  -4.071517e+001  1.293222e+001 
3568750000  -4.094149e+001  1.466871e+001 
3571875000  -4.104678e+001  1.280586e+001 
3575000000  -4.051245e+001  5.622312e+000 
3578125000  -4.128947e+001  -1.762211e-001 
3581250000  -4.135319e+001  -4.610437e-001 
3584375000  -4.039287e+001  -3.850149e+000 
3587500000  -4.017734e+001  -1.130022e+001 
3590625000  -4.049751e+001  -2.305523e+001 
3593750000  -4.189968e+001  -2.693381e+001 
3596875000  -4.181151e+001  -1.814316e+001 
3600000000  -4.040681e+001  -2.578011e+001 
3603125000  -4.091872e+001  -4.067524e+001 
3606250000  -4.184040e+001  -4.403782e+001 
3609375000  -4.246151e+001  -4.608775e+001 
3612500000  -4.357083e+001  -4.868434e+001 
3615625000  -4.365459e+001  -5.325815e+001 
3618750000  -4.460723e+001  -4.941000e+001 
3621875000  -4.424589e+001  -5.634159e+001 
3625000000  -4.495546e+001  -5.432553e+001 
3628125000  -4.501162e+001  -5.558430e+001 
3631250000  -4.483502e+001  -5.731857e+001 
3634375000  -4.602148e+001  -5.670022e+001 
3637500000  -4.621484e+001  -5.180861e+001 
3640625000  -4.497055e+001  -4.776139e+001 
3643750000  -4.478221e+001  -5.265516e+001 
3646875000  -4.510553e+001  -5.984584e+001 
3650000000  -4.577279e+001  -5.685995e+001 
3653125000  -4.555479e+001  -6.147378e+001 
3656250000  -4.598984e+001  -6.000463e+001 
3659375000  -4.570296e+001  -5.762901e+001 
3662500000  -4.478088e+001  -5.886357e+001 
3665625000  -4.416514e+001  -6.262760e+001 
3668750000  -4.322700e+001  -6.294955e+001 
3671875000  -4.217006e+001  -6.948663e+001 
3675000000  -4.244039e+001  -7.839395e+001 
3678125000  -4.261900e+001  -7.908998e+001 
3681250000  -4.229408e+001  -8.237141e+001 
3684375000  -4.231128e+001  -8.705151e+001 
3687500000  -4.268325e+001  -9.195125e+001 
3690625000  -4.279222e+001  -9.774118e+001 
3693750000  -4.323668e+001  -9.662546e+001 
3696875000  -4.328310e+001  -9.740832e+001 
3700000000  -4.248245e+001  -1.043202e+002 
3703125000  -4.275862e+001  -1.083024e+002 
3706250000  -4.383534e+001  -1.079352e+002 
3709375000  -4.337065e+001  -1.064177e+002 
3712500000  -4.237391e+001  -1.104475e+002 
3715625000  -4.128922e+001  -1.162896e+002 
3718750000  -4.110705e+001  -1.233104e+002 
3721875000  -4.117134e+001  -1.291165e+002 
3725000000  -4.173921e+001  -1.349998e+002 
3728125000  -4.227258e+001  -1.367630e+002 
3731250000  -4.179334e+001  -1.372552e+002 
3734375000  -4.134351e+001  -1.453056e+002 
3737500000  -4.256218e+001  -1.512653e+002 
3740625000  -4.325974e+001  -1.537126e+002 
3743750000  -4.322804e+001  -1.567208e+002 
3746875000  -4.407658e+001  -1.604969e+002 
3750000000  -4.457027e+001  -1.580348e+002 
3753125000  -4.444059e+001  -1.584358e+002 
3756250000  -4.511770e+001  -1.567379e+002 
3759375000  -4.546444e+001  -1.536559e+002 
3762500000  -4.447474e+001  -1.586014e+002 
3765625000  -4.515201e+001  -1.568643e+002 
3768750000  -4.517817e+001  -1.559507e+002 
3771875000  -4.303756e+001  -1.552856e+002 
3775000000  -4.270151e+001  -1.607522e+002 
3778125000  -4.310637e+001  -1.636223e+002 
3781250000  -4.250966e+001  -1.649321e+002 
3784375000  -4.262971e+001  -1.660368e+002 
3787500000  -4.161186e+001  -1.691050e+002 
3790625000  -4.162436e+001  -1.759864e+002 
3793750000  -4.199458e+001  -1.770166e+002 
3796875000  -4.075189e+001  1.793022e+002 
3800000000  -3.920967e+001  1.775905e+002 
3803125000  -3.984090e+001  1.674053e+002 
3806250000  -4.035893e+001  1.643567e+002 
3809375000  -4.023446e+001  1.623915e+002 
3812500000  -3.945754e+001  1.566321e+002 
3815625000  -3.993508e+001  1.456975e+002 
3818750000  -4.084126e+001  1.434439e+002 
3821875000  -4.117178e+001  1.508844e+002 
3825000000  -3.942527e+001  1.534698e+002 
3828125000  -3.752531e+001  1.389014e+002 
3831250000  -3.853768e+001  1.224618e+002 
3834375000  -3.983603e+001  1.216023e+002 
3837500000  -4.072676e+001  1.247170e+002 
3840625000  -3.978378e+001  1.239971e+002 
3843750000  -3.869072e+001  1.105319e+002 
3846875000  -3.987403e+001  1.037157e+002 
3850000000  -4.120039e+001  1.094560e+002 
3853125000  -4.037221e+001  1.112004e+002 
3856250000  -4.044972e+001  1.042071e+002 
3859375000  -3.973338e+001  9.833215e+001 
3862500000  -3.946940e+001  9.006255e+001 
3865625000  -4.004854e+001  8.816468e+001 
3868750000  -3.994901e+001  8.495313e+001 
3871875000  -3.919072e+001  8.155486e+001 
3875000000  -3.935291e+001  7.333804e+001 
3878125000  -4.077206e+001  7.186954e+001 
3881250000  -4.086983e+001  7.478661e+001 
3884375000  -4.053460e+001  6.936098e+001 
3887500000  -4.049466e+001  6.455801e+001 
3890625000  -4.129191e+001  6.301350e+001 
3893750000  -4.119724e+001  6.071185e+001 
3896875000  -4.166498e+001  6.363788e+001 
3900000000  -4.193293e+001  6.274933e+001 
3903125000  -4.129348e+001  5.935565e+001 
3906250000  -4.066990e+001  5.866730e+001 
3909375000  -4.005354e+001  5.534119e+001 
3912500000  -4.014351e+001  4.650864e+001 
3915625000  -4.117209e+001  4.909962e+001 
3918750000  -4.101872e+001  4.845660e+001 
3921875000  -4.060120e+001  4.469223e+001 
3925000000  -3.975445e+001  4.368345e+001 
3928125000  -3.903094e+001  3.637857e+001 
3931250000  -3.925633e+001  3.064711e+001 
3934375000  -3.961740e+001  3.104422e+001 
3937500000  -3.986707e+001  2.815209e+001 
3940625000  -4.025363e+001  2.555149e+001 
3943750000  -3.907044e+001  2.618738e+001 
3946875000  -3.784940e+001  1.984394e+001 
3950000000  -3.876628e+001  1.107874e+001 
3953125000  -3.950051e+001  1.108083e+001 
3956250000  -3.867851e+001  1.271171e+001 
3959375000  -3.728686e+001  6.072008e+000 
3962500000  -3.692728e+001  3.055515e+000 
3965625000  -3.689164e+001  -9.084132e+000 
3968750000  -3.789257e+001  -1.745343e+001 
3971875000  -3.834555e+001  -1.881681e+001 
3975000000  -3.756055e+001  -2.217865e+001 
3978125000  -3.746445e+001  -2.564916e+001 
3981250000  -3.749356e+001  -3.141095e+001 
3984375000  -3.801968e+001  -3.645425e+001 
3987500000  -3.839832e+001  -3.968297e+001 
3990625000  -3.857449e+001  -4.040372e+001 
3993750000  -3.892476e+001  -4.547250e+001 
3996875000  -3.921019e+001  -4.824986e+001 
4000000000  -3.938734e+001  -5.099662e+001 
4003125000  -3.979447e+001  -4.906168e+001 
4006250000  -3.852709e+001  -5.073780e+001 
4009375000  -3.758583e+001  -6.349348e+001 
4012500000  -3.873801e+001  -6.974645e+001 
4015625000  -4.039085e+001  -7.019872e+001 
4018750000  -4.047425e+001  -6.728355e+001 
4021875000  -3.982853e+001  -6.954414e+001 
4025000000  -3.928941e+001  -7.234494e+001 
4028125000  -3.940836e+001  -7.665669e+001 
4031250000  -3.965385e+001  -7.947013e+001 
4034375000  -4.021447e+001  -7.995612e+001 
4037500000  -3.948772e+001  -7.873009e+001 
4040625000  -3.942283e+001  -8.205611e+001 
4043750000  -3.955916e+001  -8.249956e+001 
4046875000  -3.914090e+001  -8.341422e+001 
4050000000  -3.853904e+001  -8.955995e+001 
4053125000  -3.915733e+001  -9.183031e+001 
4056250000  -3.937689e+001  -9.125359e+001 
4059375000  -3.820028e+001  -8.889836e+001 
4062500000  -3.671613e+001  -9.341949e+001 
4065625000  -3.640885e+001  -9.833810e+001 
4068750000  -3.606757e+001  -1.049223e+002 
4071875000  -3.554644e+001  -1.145677e+002 
4075000000  -3.590918e+001  -1.221866e+002 
4078125000  -3.621759e+001  -1.234818e+002 
4081250000  -3.587817e+001  -1.277374e+002 
4084375000  -3.533321e+001  -1.342985e+002 
4087500000  -3.584046e+001  -1.418638e+002 
4090625000  -3.634887e+001  -1.438791e+002 
4093750000  -3.624293e+001  -1.447711e+002 
4096875000  -3.578656e+001  -1.532716e+002 
4100000000  -3.658038e+001  -1.599641e+002 
4103125000  -3.726506e+001  -1.608559e+002 
4106250000  -3.737154e+001  -1.563176e+002 
4109375000  -3.635655e+001  -1.586452e+002 
4112500000  -3.588608e+001  -1.654131e+002 
4115625000  -3.623408e+001  -1.728333e+002 
4118750000  -3.660757e+001  -1.752968e+002 
4121875000  -3.604684e+001  1.787046e+002 
4125000000  -3.673064e+001  1.722723e+002 
4128125000  -3.770119e+001  1.716193e+002 
4131250000  -3.759520e+001  1.783669e+002 
4134375000  -3.540882e+001  1.732397e+002 
4137500000  -3.506842e+001  1.538182e+002 
4140625000  -3.744961e+001  1.454187e+002 
4143750000  -3.878587e+001  1.496855e+002 
4146875000  -3.853835e+001  1.559538e+002 
4150000000  -3.800512e+001  1.537827e+002 
4153125000  -3.772933e+001  1.454201e+002 
4156250000  -3.860964e+001  1.435171e+002 
4159375000  -3.908710e+001  1.480441e+002 
4162500000  -3.795292e+001  1.534877e+002 
4165625000  -3.676689e+001  1.487288e+002 
4168750000  -3.623715e+001  1.412841e+002 
4171875000  -3.649533e+001  1.322360e+002 
4175000000  -3.694143e+001  1.267818e+002 
4178125000  -3.758265e+001  1.274028e+002 
4181250000  -3.734986e+001  1.257394e+002 
4184375000  -3.702137e+001  1.216019e+002 
4187500000  -3.690751e+001  1.190460e+002 
4190625000  -3.676389e+001  1.135040e+002 
4193750000  -3.736571e+001  1.088968e+002 
4196875000  -3.821497e+001  1.089939e+002 
4200000000  -3.931309e+001  1.086623e+002 
4203125000  -3.871088e+001  1.234226e+002 
4206250000  -3.526419e+001  1.223437e+002 
4209375000  -3.407029e+001  1.019894e+002 
4212500000  -3.600795e+001  9.248611e+001 
4215625000  -3.683837e+001  9.855752e+001 
4218750000  -3.531966e+001  1.029084e+002 
4221875000  -3.307419e+001  9.231673e+001 
4225000000  -3.433022e+001  7.884090e+001 
4228125000  -3.492493e+001  8.257941e+001 
4231250000  -3.341768e+001  7.785140e+001 
4234375000  -3.322639e+001  6.806672e+001 
4237500000  -3.280443e+001  6.307650e+001 
4240625000  -3.290625e+001  5.235795e+001 
4243750000  -3.392334e+001  4.463425e+001 
4246875000  -3.480973e+001  4.280258e+001 
4250000000  -3.483163e+001  4.589347e+001 
4253125000  -3.412441e+001  4.192525e+001 
4256250000  -3.457531e+001  3.546939e+001 
4259375000  -3.433933e+001  3.291465e+001 
4262500000  -3.448695e+001  2.806272e+001 
4265625000  -3.460891e+001  2.683339e+001 
4268750000  -3.394450e+001  2.084020e+001 
4271875000  -3.366858e+001  1.459423e+001 
4275000000  -3.333343e+001  6.248896e+000 
4278125000  -3.409355e+001  -6.171843e+000 
4281250000  -3.614026e+001  -7.354043e+000 
4284375000  -3.603685e+001  -7.390238e+000 
4287500000  -3.675418e+001  -1.193813e+001 
4290625000  -3.829880e+001  -2.220329e+000 
4293750000  -3.623786e+001  2.698832e+000 
4296875000  -3.540474e+001  -8.755484e+000 
4300000000  -3.628827e+001  -1.701408e+001 
4303125000  -3.739301e+001  -1.721787e+001 
4306250000  -3.687624e+001  -9.279022e+000 
4309375000  -3.559422e+001  -9.702351e+000 
4312500000  -3.541073e+001  -1.870887e+001 
4315625000  -3.546555e+001  -2.406331e+001 
4318750000  -3.595097e+001  -2.806376e+001 
4321875000  -3.598539e+001  -2.640280e+001 
4325000000  -3.533179e+001  -2.642497e+001 
4328125000  -3.460820e+001  -3.221941e+001 
4331250000  -3.440939e+001  -4.179963e+001 
4334375000  -3.474823e+001  -4.541525e+001 
4337500000  -3.547477e+001  -4.807068e+001 
4340625000  -3.589271e+001  -4.590031e+001 
4343750000  -3.506049e+001  -4.659844e+001 
4346875000  -3.440487e+001  -5.256102e+001 
4350000000  -3.438846e+001  -5.878078e+001 
4353125000  -3.421014e+001  -6.695200e+001 
4356250000  -3.590173e+001  -6.842284e+001 
4359375000  -3.653911e+001  -5.635741e+001 
4362500000  -3.327480e+001  -5.606193e+001 
4365625000  -3.199767e+001  -6.974619e+001 
4368750000  -3.250814e+001  -8.274365e+001 
4371875000  -3.373326e+001  -8.336575e+001 
4375000000  -3.324618e+001  -8.356364e+001 
4378125000  -3.263651e+001  -9.082892e+001 
4381250000  -3.266693e+001  -9.801642e+001 
4384375000  -3.240425e+001  -1.049625e+002 
4387500000  -3.333305e+001  -1.119915e+002 
4390625000  -3.417789e+001  -1.132840e+002 
4393750000  -3.359948e+001  -1.123608e+002 
4396875000  -3.302879e+001  -1.154913e+002 
4400000000  -3.253069e+001  -1.237545e+002 
4403125000  -3.326435e+001  -1.333964e+002 
4406250000  -3.407034e+001  -1.356810e+002 
4409375000  -3.439975e+001  -1.398173e+002 
4412500000  -3.547765e+001  -1.439474e+002 
4415625000  -3.581424e+001  -1.405749e+002 
