!Agilent Technologies,E8363B,MY43030201,A.06.04.32
!Agilent E8363B: A.06.04.32
!Date: Tuesday, November 11, 2014 21:02:03
!Correction: S21(Response(S21)) 
!S1P File: Measurement: S21:
# Hz S  dB   R 50
3000000000  -3.637331e+001  -4.660307e+001 
3003125000  -3.748442e+001  -5.147983e+001 
3006250000  -3.732832e+001  -5.351034e+001 
3009375000  -3.759818e+001  -5.025537e+001 
3012500000  -3.686743e+001  -5.104290e+001 
3015625000  -3.596589e+001  -5.878790e+001 
3018750000  -3.679519e+001  -6.060363e+001 
3021875000  -3.533972e+001  -5.935721e+001 
3025000000  -3.402448e+001  -6.337398e+001 
3028125000  -3.309827e+001  -6.871616e+001 
3031250000  -3.206959e+001  -8.067427e+001 
3034375000  -3.170370e+001  -9.422865e+001 
3037500000  -3.214442e+001  -1.062508e+002 
3040625000  -3.350787e+001  -1.111546e+002 
3043750000  -3.408199e+001  -1.154376e+002 
3046875000  -3.436363e+001  -1.222236e+002 
3050000000  -3.600615e+001  -1.295165e+002 
3053125000  -3.605304e+001  -1.224500e+002 
3056250000  -3.553488e+001  -1.199783e+002 
3059375000  -3.558314e+001  -1.202032e+002 
3062500000  -3.404862e+001  -1.237994e+002 
3065625000  -3.385986e+001  -1.299887e+002 
3068750000  -3.356351e+001  -1.364660e+002 
3071875000  -3.341954e+001  -1.387410e+002 
3075000000  -3.332468e+001  -1.426517e+002 
3078125000  -3.301278e+001  -1.468289e+002 
3081250000  -3.353693e+001  -1.515340e+002 
3084375000  -3.264418e+001  -1.549324e+002 
3087500000  -3.244956e+001  -1.586423e+002 
3090625000  -3.193347e+001  -1.683562e+002 
3093750000  -3.233176e+001  -1.759588e+002 
3096875000  -3.345742e+001  1.780335e+002 
3100000000  -3.335952e+001  1.757601e+002 
3103125000  -3.356807e+001  1.770377e+002 
3106250000  -3.319993e+001  1.727371e+002 
3109375000  -3.327012e+001  1.683706e+002 
3112500000  -3.320646e+001  1.666828e+002 
3115625000  -3.287541e+001  1.613252e+002 
3118750000  -3.326170e+001  1.612685e+002 
3121875000  -3.230892e+001  1.519003e+002 
3125000000  -3.350349e+001  1.481036e+002 
3128125000  -3.447375e+001  1.547500e+002 
3131250000  -3.205878e+001  1.533047e+002 
3134375000  -3.073583e+001  1.380538e+002 
3137500000  -3.127776e+001  1.238877e+002 
3140625000  -3.278115e+001  1.207947e+002 
3143750000  -3.389273e+001  1.225646e+002 
3146875000  -3.335281e+001  1.240455e+002 
3150000000  -3.236469e+001  1.234879e+002 
3153125000  -3.235049e+001  1.148835e+002 
3156250000  -3.336449e+001  1.194305e+002 
3159375000  -3.171605e+001  1.206841e+002 
3162500000  -2.973862e+001  1.061968e+002 
3165625000  -3.073106e+001  9.353468e+001 
3168750000  -3.107242e+001  9.383300e+001 
3171875000  -3.021856e+001  8.833457e+001 
3175000000  -3.102719e+001  8.008709e+001 
3178125000  -3.066370e+001  8.048069e+001 
3181250000  -2.958316e+001  7.515689e+001 
3184375000  -2.888579e+001  6.241008e+001 
3187500000  -3.007649e+001  4.710194e+001 
3190625000  -3.282561e+001  3.851627e+001 
3193750000  -3.330621e+001  4.742384e+001 
3196875000  -3.303414e+001  5.232925e+001 
3200000000  -3.211724e+001  5.019472e+001 
3203125000  -3.131958e+001  4.327321e+001 
3206250000  -3.162845e+001  3.664698e+001 
3209375000  -3.113848e+001  3.064070e+001 
3212500000  -3.138097e+001  2.332110e+001 
3215625000  -3.146825e+001  1.962590e+001 
3218750000  -3.212772e+001  1.258769e+001 
3221875000  -3.308052e+001  6.888950e+000 
3225000000  -3.270083e+001  6.051789e+000 
3228125000  -3.302388e+001  5.803545e-001 
3231250000  -3.373109e+001  -1.603088e+000 
3234375000  -3.343449e+001  -1.746542e+000 
3237500000  -3.344995e+001  -3.586627e+000 
3240625000  -3.307568e+001  -6.106740e+000 
3243750000  -3.262359e+001  -1.381982e+001 
3246875000  -3.300965e+001  -2.062023e+001 
3250000000  -3.348645e+001  -2.355828e+001 
3253125000  -3.356283e+001  -2.518349e+001 
3256250000  -3.324359e+001  -3.199324e+001 
3259375000  -3.347415e+001  -4.040626e+001 
3262500000  -3.467682e+001  -4.511893e+001 
3265625000  -3.530096e+001  -4.132531e+001 
3268750000  -3.524115e+001  -3.912323e+001 
3271875000  -3.484689e+001  -4.003687e+001 
3275000000  -3.372472e+001  -4.622158e+001 
3278125000  -3.423989e+001  -5.265905e+001 
3281250000  -3.446763e+001  -5.196210e+001 
3284375000  -3.408175e+001  -5.909459e+001 
3287500000  -3.414057e+001  -6.277454e+001 
3290625000  -3.448187e+001  -6.826741e+001 
3293750000  -3.413083e+001  -7.467075e+001 
3296875000  -3.521581e+001  -7.466946e+001 
3300000000  -3.507034e+001  -7.423187e+001 
3303125000  -3.381537e+001  -7.973454e+001 
3306250000  -3.360194e+001  -8.684122e+001 
3309375000  -3.332359e+001  -9.264200e+001 
3312500000  -3.339594e+001  -1.039608e+002 
3315625000  -3.436687e+001  -1.121117e+002 
3318750000  -3.580506e+001  -1.150381e+002 
3321875000  -3.685054e+001  -1.152577e+002 
3325000000  -3.734016e+001  -1.114620e+002 
3328125000  -3.700423e+001  -1.083313e+002 
3331250000  -3.578264e+001  -1.024027e+002 
3334375000  -3.318171e+001  -1.128718e+002 
3337500000  -3.322487e+001  -1.322242e+002 
3340625000  -3.451150e+001  -1.434374e+002 
3343750000  -3.644878e+001  -1.444922e+002 
3346875000  -3.672211e+001  -1.423088e+002 
3350000000  -3.616737e+001  -1.443733e+002 
3353125000  -3.614817e+001  -1.492840e+002 
3356250000  -3.577927e+001  -1.574238e+002 
3359375000  -3.647630e+001  -1.659603e+002 
3362500000  -3.765785e+001  -1.707686e+002 
3365625000  -3.814233e+001  -1.729426e+002 
3368750000  -3.897647e+001  -1.750048e+002 
3371875000  -3.921793e+001  -1.771251e+002 
3375000000  -4.033609e+001  -1.799259e+002 
3378125000  -4.130376e+001  -1.795424e+002 
3381250000  -4.243853e+001  -1.709084e+002 
3384375000  -4.092287e+001  -1.502287e+002 
3387500000  -3.767693e+001  -1.670689e+002 
3390625000  -3.934084e+001  1.731644e+002 
3393750000  -4.043087e+001  1.771493e+002 
3396875000  -3.949141e+001  1.786341e+002 
3400000000  -3.892895e+001  1.725737e+002 
3403125000  -3.926748e+001  1.654352e+002 
3406250000  -3.972921e+001  1.658457e+002 
3409375000  -3.984309e+001  1.580103e+002 
3412500000  -4.039890e+001  1.553411e+002 
3415625000  -4.120457e+001  1.567948e+002 
3418750000  -4.099952e+001  1.573339e+002 
3421875000  -4.141111e+001  1.586486e+002 
3425000000  -4.038648e+001  1.601110e+002 
3428125000  -3.948227e+001  1.553105e+002 
3431250000  -3.917757e+001  1.489963e+002 
3434375000  -3.928791e+001  1.441920e+002 
3437500000  -3.967749e+001  1.398032e+002 
3440625000  -4.018991e+001  1.401992e+002 
3443750000  -3.889586e+001  1.414738e+002 
3446875000  -3.812751e+001  1.337144e+002 
3450000000  -3.760637e+001  1.243269e+002 
3453125000  -3.793124e+001  1.129600e+002 
3456250000  -3.918707e+001  1.068943e+002 
3459375000  -4.002418e+001  1.080620e+002 
3462500000  -4.015183e+001  1.086946e+002 
3465625000  -3.994870e+001  1.029174e+002 
3468750000  -4.024523e+001  9.857289e+001 
3471875000  -4.009764e+001  9.759902e+001 
3475000000  -3.975652e+001  9.302454e+001 
3478125000  -4.037164e+001  8.495924e+001 
3481250000  -4.119492e+001  8.233971e+001 
3484375000  -4.241052e+001  8.550047e+001 
3487500000  -4.157188e+001  8.533693e+001 
3490625000  -4.082331e+001  8.095903e+001 
3493750000  -4.115591e+001  7.396122e+001 
3496875000  -4.207278e+001  7.214939e+001 
3500000000  -4.251693e+001  7.509335e+001 
3503125000  -4.207780e+001  7.738793e+001 
3506250000  -4.047024e+001  7.276743e+001 
3509375000  -4.083187e+001  6.304813e+001 
3512500000  -4.131586e+001  5.513383e+001 
3515625000  -4.166909e+001  5.050704e+001 
3518750000  -4.252401e+001  5.162818e+001 
3521875000  -4.266964e+001  4.988821e+001 
3525000000  -4.352789e+001  4.895810e+001 
3528125000  -4.353529e+001  5.477102e+001 
3531250000  -4.218303e+001  5.171324e+001 
3534375000  -4.206363e+001  4.281730e+001 
3537500000  -4.259798e+001  3.566539e+001 
3540625000  -4.364844e+001  3.613286e+001 
3543750000  -4.418070e+001  3.730285e+001 
3546875000  -4.426762e+001  5.067392e+001 
3550000000  -4.137147e+001  5.204657e+001 
3553125000  -4.033377e+001  3.423751e+001 
3556250000  -4.173526e+001  2.716751e+001 
3559375000  -4.171436e+001  2.839667e+001 
3562500000  -4.046455e+001  2.060874e+001 
3565625000  -4.115726e+001  1.302484e+001 
3568750000  -4.129433e+001  1.603692e+001 
3571875000  -4.136781e+001  1.200742e+001 
3575000000  -4.081015e+001  6.887758e+000 
3578125000  -4.146196e+001  1.162320e+000 
3581250000  -4.134891e+001  1.815456e+000 
3584375000  -4.051503e+001  -2.985716e+000 
3587500000  -4.008798e+001  -1.096133e+001 
3590625000  -4.109682e+001  -2.215964e+001 
3593750000  -4.193984e+001  -2.388991e+001 
3596875000  -4.170317e+001  -1.796482e+001 
3600000000  -4.043020e+001  -2.400755e+001 
3603125000  -4.108521e+001  -3.935954e+001 
3606250000  -4.177600e+001  -4.114197e+001 
3609375000  -4.229436e+001  -4.565642e+001 
3612500000  -4.282317e+001  -4.756710e+001 
3615625000  -4.335014e+001  -5.212438e+001 
3618750000  -4.396470e+001  -5.111411e+001 
3621875000  -4.399525e+001  -5.570519e+001 
3625000000  -4.454351e+001  -5.507281e+001 
3628125000  -4.466351e+001  -5.827455e+001 
3631250000  -4.436544e+001  -6.090068e+001 
3634375000  -4.662931e+001  -6.152492e+001 
3637500000  -4.565509e+001  -5.740947e+001 
3640625000  -4.519369e+001  -5.296907e+001 
3643750000  -4.482572e+001  -5.735960e+001 
3646875000  -4.539629e+001  -6.590690e+001 
3650000000  -4.589656e+001  -6.390307e+001 
3653125000  -4.546554e+001  -6.696258e+001 
3656250000  -4.653006e+001  -6.644877e+001 
3659375000  -4.644746e+001  -6.143169e+001 
3662500000  -4.534620e+001  -6.110326e+001 
3665625000  -4.542348e+001  -6.372063e+001 
3668750000  -4.411468e+001  -6.346906e+001 
3671875000  -4.305323e+001  -7.028610e+001 
3675000000  -4.318219e+001  -7.597797e+001 
3678125000  -4.351949e+001  -7.856070e+001 
3681250000  -4.314388e+001  -7.994368e+001 
3684375000  -4.292767e+001  -8.595928e+001 
3687500000  -4.322016e+001  -8.996838e+001 
3690625000  -4.309907e+001  -9.544160e+001 
3693750000  -4.432576e+001  -9.380483e+001 
3696875000  -4.389541e+001  -9.356498e+001 
3700000000  -4.326252e+001  -9.931486e+001 
3703125000  -4.308816e+001  -1.029195e+002 
3706250000  -4.388508e+001  -1.044628e+002 
3709375000  -4.375166e+001  -1.049316e+002 
3712500000  -4.258812e+001  -1.072272e+002 
3715625000  -4.175398e+001  -1.135688e+002 
3718750000  -4.169656e+001  -1.178190e+002 
3721875000  -4.154161e+001  -1.242121e+002 
3725000000  -4.186526e+001  -1.320811e+002 
3728125000  -4.224173e+001  -1.306819e+002 
3731250000  -4.204704e+001  -1.351808e+002 
3734375000  -4.136584e+001  -1.397099e+002 
3737500000  -4.232905e+001  -1.497504e+002 
3740625000  -4.352662e+001  -1.529590e+002 
3743750000  -4.334967e+001  -1.548720e+002 
3746875000  -4.401960e+001  -1.544087e+002 
3750000000  -4.484374e+001  -1.546679e+002 
3753125000  -4.454766e+001  -1.559618e+002 
3756250000  -4.472989e+001  -1.553127e+002 
3759375000  -4.474303e+001  -1.569374e+002 
3762500000  -4.410812e+001  -1.580514e+002 
3765625000  -4.493402e+001  -1.567882e+002 
3768750000  -4.456255e+001  -1.539978e+002 
3771875000  -4.350488e+001  -1.554236e+002 
3775000000  -4.299672e+001  -1.638523e+002 
3778125000  -4.364034e+001  -1.639400e+002 
3781250000  -4.291405e+001  -1.658832e+002 
3784375000  -4.300510e+001  -1.669328e+002 
3787500000  -4.210522e+001  -1.677827e+002 
3790625000  -4.250028e+001  -1.751163e+002 
3793750000  -4.229663e+001  -1.768615e+002 
3796875000  -4.091718e+001  -1.780327e+002 
3800000000  -3.957287e+001  1.781398e+002 
3803125000  -4.029983e+001  1.684867e+002 
3806250000  -4.089106e+001  1.688346e+002 
3809375000  -4.047344e+001  1.638244e+002 
3812500000  -3.965876e+001  1.578155e+002 
3815625000  -4.014138e+001  1.481185e+002 
3818750000  -4.090314e+001  1.478076e+002 
3821875000  -4.118679e+001  1.547781e+002 
3825000000  -3.946126e+001  1.568749e+002 
3828125000  -3.772984e+001  1.404311e+002 
3831250000  -3.874764e+001  1.278881e+002 
3834375000  -4.002579e+001  1.250344e+002 
3837500000  -4.099938e+001  1.275384e+002 
3840625000  -3.992972e+001  1.265888e+002 
3843750000  -3.888672e+001  1.138535e+002 
3846875000  -3.975898e+001  1.066301e+002 
3850000000  -4.081798e+001  1.112971e+002 
3853125000  -4.074721e+001  1.136894e+002 
3856250000  -4.019923e+001  1.076900e+002 
3859375000  -3.948879e+001  1.037774e+002 
3862500000  -3.949178e+001  9.467920e+001 
3865625000  -3.948481e+001  8.968892e+001 
3868750000  -3.984041e+001  8.906718e+001 
3871875000  -3.895811e+001  8.290375e+001 
3875000000  -3.951713e+001  7.499921e+001 
3878125000  -4.072087e+001  7.263882e+001 
3881250000  -4.067939e+001  7.681074e+001 
3884375000  -4.017446e+001  7.187748e+001 
3887500000  -4.016459e+001  6.816608e+001 
3890625000  -4.091262e+001  6.380688e+001 
3893750000  -4.091605e+001  6.172055e+001 
3896875000  -4.144940e+001  6.307425e+001 
3900000000  -4.186351e+001  6.228355e+001 
3903125000  -4.104555e+001  6.124532e+001 
3906250000  -4.088697e+001  5.777872e+001 
3909375000  -4.035294e+001  5.550827e+001 
3912500000  -4.019433e+001  4.702363e+001 
3915625000  -4.154599e+001  4.783921e+001 
3918750000  -4.092247e+001  4.843700e+001 
3921875000  -4.037446e+001  4.475217e+001 
3925000000  -3.944526e+001  4.286604e+001 
3928125000  -3.903676e+001  3.631661e+001 
3931250000  -3.952822e+001  3.152159e+001 
3934375000  -3.947470e+001  3.146702e+001 
3937500000  -3.995638e+001  2.977572e+001 
3940625000  -4.029372e+001  2.785832e+001 
3943750000  -3.917405e+001  2.769789e+001 
3946875000  -3.809803e+001  2.134494e+001 
3950000000  -3.881549e+001  1.115821e+001 
3953125000  -3.976498e+001  1.033100e+001 
3956250000  -3.895671e+001  1.292394e+001 
3959375000  -3.760355e+001  8.915382e+000 
3962500000  -3.746357e+001  4.834843e+000 
3965625000  -3.678593e+001  -6.660718e+000 
3968750000  -3.807465e+001  -1.446126e+001 
3971875000  -3.814576e+001  -1.803901e+001 
3975000000  -3.763835e+001  -1.787214e+001 
3978125000  -3.773452e+001  -2.323940e+001 
3981250000  -3.770860e+001  -2.766875e+001 
3984375000  -3.801174e+001  -3.444146e+001 
3987500000  -3.833875e+001  -3.661475e+001 
3990625000  -3.839881e+001  -3.643064e+001 
3993750000  -3.897995e+001  -4.205101e+001 
3996875000  -3.914396e+001  -4.629958e+001 
4000000000  -3.907387e+001  -4.822478e+001 
4003125000  -3.975628e+001  -4.704150e+001 
4006250000  -3.837432e+001  -4.745596e+001 
4009375000  -3.729309e+001  -5.957864e+001 
4012500000  -3.859113e+001  -6.741338e+001 
4015625000  -3.978090e+001  -6.650177e+001 
4018750000  -3.966659e+001  -6.454815e+001 
4021875000  -3.935195e+001  -6.763412e+001 
4025000000  -3.892472e+001  -7.273005e+001 
4028125000  -3.902222e+001  -7.590089e+001 
4031250000  -3.946062e+001  -8.105370e+001 
4034375000  -3.975793e+001  -8.089380e+001 
4037500000  -3.919324e+001  -7.787455e+001 
4040625000  -3.908652e+001  -8.391839e+001 
4043750000  -3.950894e+001  -8.345343e+001 
4046875000  -3.863488e+001  -8.342833e+001 
4050000000  -3.834988e+001  -9.135596e+001 
4053125000  -3.906904e+001  -9.240803e+001 
4056250000  -3.943729e+001  -8.985658e+001 
4059375000  -3.803525e+001  -8.976538e+001 
4062500000  -3.678959e+001  -9.418567e+001 
4065625000  -3.665936e+001  -1.005397e+002 
4068750000  -3.635033e+001  -1.059073e+002 
4071875000  -3.563275e+001  -1.153190e+002 
4075000000  -3.592632e+001  -1.207384e+002 
4078125000  -3.644811e+001  -1.236337e+002 
4081250000  -3.603474e+001  -1.272298e+002 
4084375000  -3.555497e+001  -1.344202e+002 
4087500000  -3.584791e+001  -1.421361e+002 
4090625000  -3.657554e+001  -1.428743e+002 
4093750000  -3.637341e+001  -1.441991e+002 
4096875000  -3.608043e+001  -1.505175e+002 
4100000000  -3.675341e+001  -1.590846e+002 
4103125000  -3.765324e+001  -1.598098e+002 
4106250000  -3.739960e+001  -1.541410e+002 
4109375000  -3.656637e+001  -1.570941e+002 
4112500000  -3.610772e+001  -1.652682e+002 
4115625000  -3.641981e+001  -1.687245e+002 
4118750000  -3.664671e+001  -1.741710e+002 
4121875000  -3.624170e+001  -1.795895e+002 
4125000000  -3.664756e+001  1.744076e+002 
4128125000  -3.770543e+001  1.748982e+002 
4131250000  -3.771876e+001  -1.791340e+002 
4134375000  -3.512196e+001  1.749296e+002 
4137500000  -3.513182e+001  1.553299e+002 
4140625000  -3.751259e+001  1.472582e+002 
4143750000  -3.852552e+001  1.508996e+002 
4146875000  -3.858533e+001  1.592303e+002 
4150000000  -3.767616e+001  1.554260e+002 
4153125000  -3.751798e+001  1.469683e+002 
4156250000  -3.841153e+001  1.448338e+002 
4159375000  -3.877221e+001  1.484898e+002 
4162500000  -3.774757e+001  1.530454e+002 
4165625000  -3.658321e+001  1.487368e+002 
4168750000  -3.580375e+001  1.402413e+002 
4171875000  -3.603614e+001  1.314805e+002 
4175000000  -3.671859e+001  1.271510e+002 
4178125000  -3.719264e+001  1.258839e+002 
4181250000  -3.703741e+001  1.247348e+002 
4184375000  -3.691751e+001  1.213092e+002 
4187500000  -3.674361e+001  1.187107e+002 
4190625000  -3.678936e+001  1.121512e+002 
4193750000  -3.752802e+001  1.084023e+002 
4196875000  -3.820506e+001  1.075905e+002 
4200000000  -3.894492e+001  1.098845e+002 
4203125000  -3.891685e+001  1.213779e+002 
4206250000  -3.537175e+001  1.225532e+002 
4209375000  -3.414628e+001  1.016429e+002 
4212500000  -3.623594e+001  9.124945e+001 
4215625000  -3.704312e+001  9.782945e+001 
4218750000  -3.567841e+001  1.022307e+002 
4221875000  -3.341286e+001  9.273631e+001 
4225000000  -3.452308e+001  8.018304e+001 
4228125000  -3.519998e+001  8.428213e+001 
4231250000  -3.360709e+001  7.956900e+001 
4234375000  -3.349090e+001  6.978503e+001 
4237500000  -3.298434e+001  6.443407e+001 
4240625000  -3.301506e+001  5.415144e+001 
4243750000  -3.398083e+001  4.555387e+001 
4246875000  -3.498806e+001  4.566878e+001 
4250000000  -3.491986e+001  4.723188e+001 
4253125000  -3.443782e+001  4.443876e+001 
4256250000  -3.483541e+001  3.810183e+001 
4259375000  -3.440536e+001  3.391094e+001 
4262500000  -3.468225e+001  2.931390e+001 
4265625000  -3.478325e+001  3.022449e+001 
4268750000  -3.388221e+001  2.519607e+001 
4271875000  -3.369574e+001  1.694575e+001 
4275000000  -3.360889e+001  8.892748e+000 
4278125000  -3.416452e+001  -3.027390e+000 
4281250000  -3.601253e+001  -5.184014e+000 
4284375000  -3.579470e+001  -5.156328e+000 
4287500000  -3.685709e+001  -9.776050e+000 
4290625000  -3.811940e+001  -3.519006e-001 
4293750000  -3.629763e+001  5.452065e+000 
4296875000  -3.512780e+001  -4.983325e+000 
4300000000  -3.586102e+001  -1.462334e+001 
4303125000  -3.715469e+001  -1.519450e+001 
4306250000  -3.666233e+001  -7.346763e+000 
4309375000  -3.532666e+001  -9.649784e+000 
4312500000  -3.508409e+001  -1.713934e+001 
4315625000  -3.529186e+001  -2.414045e+001 
4318750000  -3.562293e+001  -2.681715e+001 
4321875000  -3.567907e+001  -2.595210e+001 
4325000000  -3.510250e+001  -2.671944e+001 
4328125000  -3.446907e+001  -3.210518e+001 
4331250000  -3.404700e+001  -4.084563e+001 
4334375000  -3.464236e+001  -4.703487e+001 
4337500000  -3.546240e+001  -4.895058e+001 
4340625000  -3.596177e+001  -4.642425e+001 
4343750000  -3.492443e+001  -4.623895e+001 
4346875000  -3.449994e+001  -5.370581e+001 
4350000000  -3.445876e+001  -5.905162e+001 
4353125000  -3.424464e+001  -6.753978e+001 
4356250000  -3.601030e+001  -6.762472e+001 
4359375000  -3.658433e+001  -5.464920e+001 
4362500000  -3.365844e+001  -5.483500e+001 
4365625000  -3.211834e+001  -6.903788e+001 
4368750000  -3.264141e+001  -8.154579e+001 
4371875000  -3.396353e+001  -8.195153e+001 
4375000000  -3.343932e+001  -8.417163e+001 
4378125000  -3.273342e+001  -9.018660e+001 
4381250000  -3.277969e+001  -9.703548e+001 
4384375000  -3.277522e+001  -1.034772e+002 
4387500000  -3.344918e+001  -1.102611e+002 
4390625000  -3.451679e+001  -1.109547e+002 
4393750000  -3.394217e+001  -1.099483e+002 
4396875000  -3.324816e+001  -1.140926e+002 
4400000000  -3.280761e+001  -1.217796e+002 
4403125000  -3.329214e+001  -1.308762e+002 
4406250000  -3.422205e+001  -1.341005e+002 
4409375000  -3.440044e+001  -1.374476e+002 
4412500000  -3.550948e+001  -1.409674e+002 
4415625000  -3.601221e+001  -1.368304e+002 
