!Agilent Technologies,E8363B,MY43030201,A.06.04.32
!Agilent E8363B: A.06.04.32
!Date: Tuesday, November 11, 2014 21:10:44
!Correction: S21(Response(S21)) 
!S1P File: Measurement: S21:
# Hz S  dB   R 50
3000000000  -3.654884e+001  -5.521183e+001 
3003125000  -3.763316e+001  -6.205838e+001 
3006250000  -3.750724e+001  -6.450620e+001 
3009375000  -3.780672e+001  -5.934146e+001 
3012500000  -3.698441e+001  -6.096316e+001 
3015625000  -3.626198e+001  -6.858896e+001 
3018750000  -3.687201e+001  -6.990125e+001 
3021875000  -3.546107e+001  -6.881068e+001 
3025000000  -3.412726e+001  -7.230775e+001 
3028125000  -3.322815e+001  -7.906186e+001 
3031250000  -3.222690e+001  -9.047617e+001 
3034375000  -3.183468e+001  -1.041902e+002 
3037500000  -3.229296e+001  -1.159643e+002 
3040625000  -3.373108e+001  -1.209865e+002 
3043750000  -3.428374e+001  -1.259922e+002 
3046875000  -3.463429e+001  -1.314571e+002 
3050000000  -3.620326e+001  -1.376204e+002 
3053125000  -3.602754e+001  -1.319143e+002 
3056250000  -3.557679e+001  -1.287871e+002 
3059375000  -3.567227e+001  -1.289634e+002 
3062500000  -3.425393e+001  -1.326645e+002 
3065625000  -3.399291e+001  -1.393961e+002 
3068750000  -3.365862e+001  -1.459987e+002 
3071875000  -3.353029e+001  -1.486802e+002 
3075000000  -3.331236e+001  -1.529424e+002 
3078125000  -3.306256e+001  -1.566594e+002 
3081250000  -3.348353e+001  -1.607981e+002 
3084375000  -3.266156e+001  -1.641249e+002 
3087500000  -3.250959e+001  -1.684179e+002 
3090625000  -3.193968e+001  -1.789590e+002 
3093750000  -3.247590e+001  1.736767e+002 
3096875000  -3.353507e+001  1.684158e+002 
3100000000  -3.333197e+001  1.657790e+002 
3103125000  -3.359761e+001  1.667299e+002 
3106250000  -3.323752e+001  1.621652e+002 
3109375000  -3.324946e+001  1.585566e+002 
3112500000  -3.318981e+001  1.560969e+002 
3115625000  -3.283791e+001  1.514310e+002 
3118750000  -3.321284e+001  1.514609e+002 
3121875000  -3.229237e+001  1.423652e+002 
3125000000  -3.362549e+001  1.379274e+002 
3128125000  -3.451908e+001  1.452855e+002 
3131250000  -3.205283e+001  1.435621e+002 
3134375000  -3.071178e+001  1.277678e+002 
3137500000  -3.133577e+001  1.142335e+002 
3140625000  -3.280119e+001  1.110823e+002 
3143750000  -3.382755e+001  1.123024e+002 
3146875000  -3.333282e+001  1.136502e+002 
3150000000  -3.228221e+001  1.136779e+002 
3153125000  -3.234705e+001  1.044623e+002 
3156250000  -3.337784e+001  1.094087e+002 
3159375000  -3.155093e+001  1.108211e+002 
3162500000  -2.970058e+001  9.600125e+001 
3165625000  -3.075671e+001  8.409159e+001 
3168750000  -3.103221e+001  8.389100e+001 
3171875000  -3.013276e+001  7.826950e+001 
3175000000  -3.086998e+001  6.955614e+001 
3178125000  -3.064251e+001  7.020160e+001 
3181250000  -2.957025e+001  6.440779e+001 
3184375000  -2.896343e+001  5.184341e+001 
3187500000  -3.015128e+001  3.669678e+001 
3190625000  -3.279683e+001  2.888223e+001 
3193750000  -3.324356e+001  3.768703e+001 
3196875000  -3.299870e+001  4.164833e+001 
3200000000  -3.195054e+001  3.900558e+001 
3203125000  -3.122215e+001  3.298515e+001 
3206250000  -3.157049e+001  2.564770e+001 
3209375000  -3.109734e+001  2.000889e+001 
3212500000  -3.135372e+001  1.296210e+001 
3215625000  -3.144810e+001  9.046677e+000 
3218750000  -3.218081e+001  1.302135e+000 
3221875000  -3.288442e+001  -3.102401e+000 
3225000000  -3.258549e+001  -4.353914e+000 
3228125000  -3.297671e+001  -9.896300e+000 
3231250000  -3.365086e+001  -1.243952e+001 
3234375000  -3.334402e+001  -1.218249e+001 
3237500000  -3.339610e+001  -1.414074e+001 
3240625000  -3.289939e+001  -1.686371e+001 
3243750000  -3.257453e+001  -2.432756e+001 
3246875000  -3.292929e+001  -3.157545e+001 
3250000000  -3.342830e+001  -3.391511e+001 
3253125000  -3.348626e+001  -3.594561e+001 
3256250000  -3.308203e+001  -4.231269e+001 
3259375000  -3.342640e+001  -5.119011e+001 
3262500000  -3.458214e+001  -5.557480e+001 
3265625000  -3.517143e+001  -5.297919e+001 
3268750000  -3.508133e+001  -5.041346e+001 
3271875000  -3.471782e+001  -5.067520e+001 
3275000000  -3.358439e+001  -5.784721e+001 
3278125000  -3.418243e+001  -6.428308e+001 
3281250000  -3.430596e+001  -6.313629e+001 
3284375000  -3.386508e+001  -7.020448e+001 
3287500000  -3.406709e+001  -7.350551e+001 
3290625000  -3.423861e+001  -7.924882e+001 
3293750000  -3.402794e+001  -8.515804e+001 
3296875000  -3.509565e+001  -8.595280e+001 
3300000000  -3.488752e+001  -8.521158e+001 
3303125000  -3.359019e+001  -9.077899e+001 
3306250000  -3.343448e+001  -9.813645e+001 
3309375000  -3.323132e+001  -1.046867e+002 
3312500000  -3.333110e+001  -1.154865e+002 
3315625000  -3.424468e+001  -1.241689e+002 
3318750000  -3.573021e+001  -1.253763e+002 
3321875000  -3.680851e+001  -1.256078e+002 
3325000000  -3.726094e+001  -1.204318e+002 
3328125000  -3.662671e+001  -1.204859e+002 
3331250000  -3.545974e+001  -1.146474e+002 
3334375000  -3.280152e+001  -1.248902e+002 
3337500000  -3.308338e+001  -1.443102e+002 
3340625000  -3.446180e+001  -1.545820e+002 
3343750000  -3.632189e+001  -1.560152e+002 
3346875000  -3.652319e+001  -1.545681e+002 
3350000000  -3.600251e+001  -1.560260e+002 
3353125000  -3.606000e+001  -1.615416e+002 
3356250000  -3.569173e+001  -1.692528e+002 
3359375000  -3.632322e+001  -1.769648e+002 
3362500000  -3.741419e+001  1.769656e+002 
3365625000  -3.802468e+001  1.753558e+002 
3368750000  -3.860119e+001  1.726214e+002 
3371875000  -3.873109e+001  1.708796e+002 
3375000000  -4.043560e+001  1.683695e+002 
3378125000  -4.120123e+001  1.677522e+002 
3381250000  -4.250561e+001  1.777430e+002 
3384375000  -4.086919e+001  -1.609128e+002 
3387500000  -3.749218e+001  -1.790556e+002 
3390625000  -3.915783e+001  1.608378e+002 
3393750000  -4.028233e+001  1.644531e+002 
3396875000  -3.916214e+001  1.660789e+002 
3400000000  -3.876665e+001  1.572637e+002 
3403125000  -3.913231e+001  1.531274e+002 
3406250000  -3.987245e+001  1.523027e+002 
3409375000  -3.990559e+001  1.441479e+002 
3412500000  -4.034249e+001  1.421014e+002 
3415625000  -4.075756e+001  1.446019e+002 
3418750000  -4.101030e+001  1.448997e+002 
3421875000  -4.116132e+001  1.486966e+002 
3425000000  -4.021782e+001  1.480479e+002 
3428125000  -3.925043e+001  1.434415e+002 
3431250000  -3.924889e+001  1.355272e+002 
3434375000  -3.913326e+001  1.310583e+002 
3437500000  -3.988712e+001  1.264880e+002 
3440625000  -3.976709e+001  1.277851e+002 
3443750000  -3.879345e+001  1.292917e+002 
3446875000  -3.787818e+001  1.207184e+002 
3450000000  -3.739043e+001  1.106520e+002 
3453125000  -3.781027e+001  1.004139e+002 
3456250000  -3.908165e+001  9.523315e+001 
3459375000  -3.978491e+001  9.566660e+001 
3462500000  -3.985066e+001  9.474880e+001 
3465625000  -3.967734e+001  9.170860e+001 
3468750000  -4.006078e+001  8.597321e+001 
3471875000  -4.012411e+001  8.394871e+001 
3475000000  -3.964991e+001  8.017834e+001 
3478125000  -4.029405e+001  7.162236e+001 
3481250000  -4.156386e+001  6.797794e+001 
3484375000  -4.219883e+001  7.438645e+001 
3487500000  -4.116099e+001  7.360156e+001 
3490625000  -4.079426e+001  6.856070e+001 
3493750000  -4.128012e+001  6.071301e+001 
3496875000  -4.206101e+001  6.028674e+001 
3500000000  -4.266759e+001  6.285179e+001 
3503125000  -4.191858e+001  6.412137e+001 
3506250000  -4.065973e+001  5.774223e+001 
3509375000  -4.067427e+001  5.060953e+001 
3512500000  -4.104306e+001  4.321893e+001 
3515625000  -4.205935e+001  4.017831e+001 
3518750000  -4.223394e+001  3.978918e+001 
3521875000  -4.245464e+001  3.912525e+001 
3525000000  -4.349463e+001  3.655219e+001 
3528125000  -4.320569e+001  4.221490e+001 
3531250000  -4.178567e+001  3.829604e+001 
3534375000  -4.212872e+001  2.923024e+001 
3537500000  -4.249965e+001  2.571944e+001 
3540625000  -4.345154e+001  2.375326e+001 
3543750000  -4.417286e+001  2.602581e+001 
3546875000  -4.395970e+001  4.071129e+001 
3550000000  -4.118216e+001  3.911819e+001 
3553125000  -4.010459e+001  2.285730e+001 
3556250000  -4.157431e+001  1.676274e+001 
3559375000  -4.131545e+001  1.764317e+001 
3562500000  -3.995768e+001  8.644670e+000 
3565625000  -4.098785e+001  -3.826071e-002 
3568750000  -4.123988e+001  2.735027e+000 
3571875000  -4.105835e+001  1.348528e+000 
3575000000  -4.066726e+001  -3.483040e+000 
3578125000  -4.118454e+001  -9.644880e+000 
3581250000  -4.158252e+001  -1.111628e+001 
3584375000  -4.033073e+001  -1.400182e+001 
3587500000  -3.996172e+001  -2.346114e+001 
3590625000  -4.052610e+001  -3.297666e+001 
3593750000  -4.164941e+001  -3.431520e+001 
3596875000  -4.193658e+001  -2.817960e+001 
3600000000  -4.021162e+001  -3.511204e+001 
3603125000  -4.066757e+001  -4.963045e+001 
3606250000  -4.151286e+001  -5.398770e+001 
3609375000  -4.235900e+001  -5.615250e+001 
3612500000  -4.247746e+001  -5.954195e+001 
3615625000  -4.295234e+001  -6.316632e+001 
3618750000  -4.373469e+001  -6.161706e+001 
3621875000  -4.354733e+001  -6.671901e+001 
3625000000  -4.417651e+001  -6.701674e+001 
3628125000  -4.444461e+001  -6.696014e+001 
3631250000  -4.435828e+001  -7.349318e+001 
3634375000  -4.569323e+001  -7.324204e+001 
3637500000  -4.562994e+001  -6.914419e+001 
3640625000  -4.475553e+001  -6.676133e+001 
3643750000  -4.405536e+001  -7.190533e+001 
3646875000  -4.484363e+001  -8.003843e+001 
3650000000  -4.550549e+001  -7.929878e+001 
3653125000  -4.536874e+001  -7.956721e+001 
3656250000  -4.566682e+001  -7.942822e+001 
3659375000  -4.582016e+001  -7.661449e+001 
3662500000  -4.487326e+001  -7.985038e+001 
3665625000  -4.463600e+001  -7.842304e+001 
3668750000  -4.365113e+001  -7.809294e+001 
3671875000  -4.258111e+001  -8.331648e+001 
3675000000  -4.293320e+001  -9.260184e+001 
3678125000  -4.329004e+001  -9.343898e+001 
3681250000  -4.309651e+001  -9.499569e+001 
3684375000  -4.256712e+001  -9.960252e+001 
3687500000  -4.302738e+001  -1.031221e+002 
3690625000  -4.319448e+001  -1.067309e+002 
3693750000  -4.389295e+001  -1.098784e+002 
3696875000  -4.356505e+001  -1.077196e+002 
3700000000  -4.266269e+001  -1.129047e+002 
3703125000  -4.284143e+001  -1.177380e+002 
3706250000  -4.381271e+001  -1.203803e+002 
3709375000  -4.328434e+001  -1.184350e+002 
3712500000  -4.215764e+001  -1.197341e+002 
3715625000  -4.178563e+001  -1.247578e+002 
3718750000  -4.120091e+001  -1.329855e+002 
3721875000  -4.110768e+001  -1.401898e+002 
3725000000  -4.168686e+001  -1.469954e+002 
3728125000  -4.175574e+001  -1.464566e+002 
3731250000  -4.155963e+001  -1.493484e+002 
3734375000  -4.089013e+001  -1.559928e+002 
3737500000  -4.198104e+001  -1.625608e+002 
3740625000  -4.292938e+001  -1.668815e+002 
3743750000  -4.315862e+001  -1.715323e+002 
3746875000  -4.330234e+001  -1.710011e+002 
3750000000  -4.402145e+001  -1.736638e+002 
3753125000  -4.424109e+001  -1.741612e+002 
3756250000  -4.475737e+001  -1.731111e+002 
3759375000  -4.454044e+001  -1.720010e+002 
3762500000  -4.384424e+001  -1.770145e+002 
3765625000  -4.460664e+001  -1.744620e+002 
3768750000  -4.487600e+001  -1.703656e+002 
3771875000  -4.327057e+001  -1.732583e+002 
3775000000  -4.297661e+001  -1.777646e+002 
3778125000  -4.336750e+001  -1.798072e+002 
3781250000  -4.298112e+001  1.786404e+002 
3784375000  -4.250610e+001  1.749276e+002 
3787500000  -4.184876e+001  1.751732e+002 
3790625000  -4.210160e+001  1.668739e+002 
3793750000  -4.236416e+001  1.691617e+002 
3796875000  -4.123357e+001  1.649477e+002 
3800000000  -3.958033e+001  1.635485e+002 
3803125000  -4.041523e+001  1.524277e+002 
3806250000  -4.126418e+001  1.505376e+002 
3809375000  -4.064241e+001  1.482173e+002 
3812500000  -3.968678e+001  1.421165e+002 
3815625000  -4.023183e+001  1.313720e+002 
3818750000  -4.153500e+001  1.313994e+002 
3821875000  -4.133364e+001  1.408414e+002 
3825000000  -3.923768e+001  1.427122e+002 
3828125000  -3.802966e+001  1.239322e+002 
3831250000  -3.879900e+001  1.089018e+002 
3834375000  -4.046904e+001  1.088371e+002 
3837500000  -4.113621e+001  1.128717e+002 
3840625000  -3.979498e+001  1.117256e+002 
3843750000  -3.874316e+001  9.923209e+001 
3846875000  -3.968214e+001  9.231184e+001 
3850000000  -4.110614e+001  9.811507e+001 
3853125000  -4.011311e+001  1.001119e+002 
3856250000  -4.025499e+001  9.356710e+001 
3859375000  -3.946885e+001  8.827601e+001 
3862500000  -3.927209e+001  7.923523e+001 
3865625000  -3.984017e+001  7.391595e+001 
3868750000  -3.981152e+001  7.533514e+001 
3871875000  -3.919224e+001  6.891560e+001 
3875000000  -3.953766e+001  5.783334e+001 
3878125000  -4.068623e+001  5.893993e+001 
3881250000  -4.062054e+001  6.203351e+001 
3884375000  -4.012528e+001  5.613597e+001 
3887500000  -4.035777e+001  5.095197e+001 
3890625000  -4.081089e+001  5.145932e+001 
3893750000  -4.116551e+001  4.764948e+001 
3896875000  -4.176851e+001  4.826085e+001 
3900000000  -4.178428e+001  4.623686e+001 
3903125000  -4.106305e+001  4.420235e+001 
3906250000  -4.099092e+001  4.369350e+001 
3909375000  -4.005672e+001  3.923117e+001 
3912500000  -4.005372e+001  3.025998e+001 
3915625000  -4.158627e+001  3.250064e+001 
3918750000  -4.114033e+001  3.485216e+001 
3921875000  -4.081806e+001  3.079223e+001 
3925000000  -3.992275e+001  2.731750e+001 
3928125000  -3.907971e+001  2.174519e+001 
3931250000  -3.965849e+001  1.606351e+001 
3934375000  -4.001251e+001  1.382296e+001 
3937500000  -4.010945e+001  1.362629e+001 
3940625000  -4.042102e+001  1.108008e+001 
3943750000  -3.925521e+001  1.129781e+001 
3946875000  -3.836114e+001  4.596094e+000 
3950000000  -3.906808e+001  -3.521490e+000 
3953125000  -3.989676e+001  -4.556016e+000 
3956250000  -3.890662e+001  -4.265358e+000 
3959375000  -3.758477e+001  -5.610981e+000 
3962500000  -3.742332e+001  -1.047942e+001 
3965625000  -3.716878e+001  -2.216241e+001 
3968750000  -3.797356e+001  -2.888050e+001 
3971875000  -3.842337e+001  -3.295343e+001 
3975000000  -3.783189e+001  -3.276094e+001 
3978125000  -3.783103e+001  -3.638726e+001 
3981250000  -3.774780e+001  -4.234257e+001 
3984375000  -3.792995e+001  -4.844633e+001 
3987500000  -3.869682e+001  -5.228278e+001 
3990625000  -3.867192e+001  -5.326956e+001 
3993750000  -3.896188e+001  -5.689483e+001 
3996875000  -3.893145e+001  -6.147338e+001 
4000000000  -3.919541e+001  -6.214024e+001 
4003125000  -3.959291e+001  -6.402439e+001 
4006250000  -3.847361e+001  -6.270405e+001 
4009375000  -3.738443e+001  -7.667818e+001 
4012500000  -3.883950e+001  -8.162926e+001 
4015625000  -4.028707e+001  -8.137908e+001 
4018750000  -3.996835e+001  -8.063570e+001 
4021875000  -3.928896e+001  -8.269820e+001 
4025000000  -3.897684e+001  -8.675787e+001 
4028125000  -3.906455e+001  -9.255398e+001 
4031250000  -3.949350e+001  -9.536353e+001 
4034375000  -3.984026e+001  -9.590694e+001 
4037500000  -3.930526e+001  -9.397543e+001 
4040625000  -3.928964e+001  -9.750641e+001 
4043750000  -3.936050e+001  -9.941367e+001 
4046875000  -3.910458e+001  -1.002252e+002 
4050000000  -3.844433e+001  -1.058497e+002 
4053125000  -3.898281e+001  -1.089295e+002 
4056250000  -3.953431e+001  -1.035123e+002 
4059375000  -3.810825e+001  -1.045367e+002 
4062500000  -3.668190e+001  -1.084336e+002 
4065625000  -3.654993e+001  -1.143284e+002 
4068750000  -3.647568e+001  -1.212103e+002 
4071875000  -3.563528e+001  -1.304369e+002 
4075000000  -3.608230e+001  -1.372761e+002 
4078125000  -3.665359e+001  -1.385607e+002 
4081250000  -3.607954e+001  -1.418567e+002 
4084375000  -3.582116e+001  -1.493446e+002 
4087500000  -3.611596e+001  -1.562487e+002 
4090625000  -3.661955e+001  -1.575059e+002 
4093750000  -3.644273e+001  -1.592459e+002 
4096875000  -3.610593e+001  -1.670400e+002 
4100000000  -3.674344e+001  -1.745851e+002 
4103125000  -3.792170e+001  -1.728541e+002 
4106250000  -3.765511e+001  -1.699203e+002 
4109375000  -3.649538e+001  -1.721289e+002 
4112500000  -3.617165e+001  1.790904e+002 
4115625000  -3.650139e+001  1.745880e+002 
4118750000  -3.660144e+001  1.718458e+002 
4121875000  -3.630569e+001  1.656569e+002 
4125000000  -3.686517e+001  1.574729e+002 
4128125000  -3.790268e+001  1.600045e+002 
4131250000  -3.765692e+001  1.665825e+002 
4134375000  -3.520448e+001  1.599844e+002 
4137500000  -3.536678e+001  1.416402e+002 
4140625000  -3.741467e+001  1.327518e+002 
4143750000  -3.891088e+001  1.365481e+002 
4146875000  -3.853561e+001  1.450472e+002 
4150000000  -3.756799e+001  1.401255e+002 
4153125000  -3.768280e+001  1.320303e+002 
4156250000  -3.855596e+001  1.289842e+002 
4159375000  -3.878088e+001  1.330950e+002 
4162500000  -3.765926e+001  1.387327e+002 
4165625000  -3.663002e+001  1.337380e+002 
4168750000  -3.601131e+001  1.250792e+002 
4171875000  -3.599024e+001  1.168020e+002 
4175000000  -3.665083e+001  1.111051e+002 
4178125000  -3.742478e+001  1.102734e+002 
4181250000  -3.697153e+001  1.092250e+002 
4184375000  -3.693441e+001  1.056862e+002 
4187500000  -3.678296e+001  1.029068e+002 
4190625000  -3.662677e+001  9.682808e+001 
4193750000  -3.765427e+001  9.327824e+001 
4196875000  -3.828883e+001  9.211109e+001 
4200000000  -3.937509e+001  9.393613e+001 
4203125000  -3.891084e+001  1.087352e+002 
4206250000  -3.519514e+001  1.077795e+002 
4209375000  -3.424478e+001  8.561586e+001 
4212500000  -3.631794e+001  7.592592e+001 
4215625000  -3.711005e+001  8.185595e+001 
4218750000  -3.550038e+001  8.726876e+001 
4221875000  -3.344735e+001  7.848341e+001 
4225000000  -3.467618e+001  6.487563e+001 
4228125000  -3.517896e+001  6.799923e+001 
4231250000  -3.350668e+001  6.201656e+001 
4234375000  -3.337446e+001  5.303899e+001 
4237500000  -3.308058e+001  4.892767e+001 
4240625000  -3.293972e+001  3.808376e+001 
4243750000  -3.411092e+001  2.981284e+001 
4246875000  -3.499834e+001  3.016184e+001 
4250000000  -3.487609e+001  3.144576e+001 
4253125000  -3.442844e+001  2.754518e+001 
4256250000  -3.486944e+001  2.312885e+001 
4259375000  -3.441036e+001  1.997063e+001 
4262500000  -3.470730e+001  1.498162e+001 
4265625000  -3.470539e+001  1.383652e+001 
4268750000  -3.385231e+001  8.490039e+000 
4271875000  -3.382492e+001  1.589882e+000 
4275000000  -3.342773e+001  -6.442791e+000 
4278125000  -3.442914e+001  -1.800893e+001 
4281250000  -3.606931e+001  -2.051348e+001 
4284375000  -3.579942e+001  -2.011651e+001 
4287500000  -3.673293e+001  -2.328851e+001 
4290625000  -3.820243e+001  -1.477308e+001 
4293750000  -3.616122e+001  -9.624113e+000 
4296875000  -3.504454e+001  -2.185410e+001 
4300000000  -3.620695e+001  -3.086805e+001 
4303125000  -3.722242e+001  -2.928999e+001 
4306250000  -3.638973e+001  -2.303125e+001 
4309375000  -3.533925e+001  -2.556707e+001 
4312500000  -3.512389e+001  -3.387235e+001 
4315625000  -3.501129e+001  -3.944776e+001 
4318750000  -3.564799e+001  -4.324896e+001 
4321875000  -3.582162e+001  -4.073038e+001 
4325000000  -3.513877e+001  -4.162103e+001 
4328125000  -3.430550e+001  -4.885973e+001 
4331250000  -3.417273e+001  -5.675260e+001 
4334375000  -3.456820e+001  -6.283013e+001 
4337500000  -3.542444e+001  -6.403178e+001 
4340625000  -3.589536e+001  -6.240267e+001 
4343750000  -3.502206e+001  -6.264772e+001 
4346875000  -3.464131e+001  -6.868578e+001 
4350000000  -3.439320e+001  -7.456752e+001 
4353125000  -3.460543e+001  -8.330095e+001 
4356250000  -3.637188e+001  -8.378411e+001 
4359375000  -3.657692e+001  -7.051141e+001 
4362500000  -3.331695e+001  -7.156087e+001 
4365625000  -3.183727e+001  -8.629082e+001 
4368750000  -3.274145e+001  -9.772787e+001 
4371875000  -3.378452e+001  -9.824611e+001 
4375000000  -3.335086e+001  -9.996910e+001 
4378125000  -3.259283e+001  -1.055911e+002 
4381250000  -3.293122e+001  -1.138480e+002 
4384375000  -3.275782e+001  -1.196908e+002 
4387500000  -3.368119e+001  -1.264793e+002 
4390625000  -3.466870e+001  -1.267650e+002 
4393750000  -3.382916e+001  -1.256329e+002 
4396875000  -3.330352e+001  -1.302999e+002 
4400000000  -3.274064e+001  -1.379888e+002 
4403125000  -3.334086e+001  -1.477226e+002 
4406250000  -3.424238e+001  -1.493921e+002 
4409375000  -3.444479e+001  -1.533924e+002 
4412500000  -3.572588e+001  -1.561730e+002 
4415625000  -3.592617e+001  -1.518575e+002 
