!Agilent Technologies,E8363B,MY43030201,A.06.04.32
!Agilent E8363B: A.06.04.32
!Date: Tuesday, November 11, 2014 21:12:05
!Correction: S21(Response(S21)) 
!S1P File: Measurement: S21:
# Hz S  dB   R 50
3000000000  -3.653262e+001  -5.789427e+001 
3003125000  -3.772161e+001  -6.387586e+001 
3006250000  -3.740298e+001  -6.576408e+001 
3009375000  -3.791583e+001  -6.161480e+001 
3012500000  -3.707061e+001  -6.454401e+001 
3015625000  -3.621987e+001  -7.045387e+001 
3018750000  -3.706211e+001  -7.256800e+001 
3021875000  -3.546011e+001  -7.157257e+001 
3025000000  -3.408962e+001  -7.456783e+001 
3028125000  -3.320482e+001  -8.150966e+001 
3031250000  -3.216914e+001  -9.307794e+001 
3034375000  -3.187228e+001  -1.069734e+002 
3037500000  -3.238680e+001  -1.189323e+002 
3040625000  -3.363469e+001  -1.234644e+002 
3043750000  -3.428569e+001  -1.285828e+002 
3046875000  -3.447412e+001  -1.347660e+002 
3050000000  -3.621165e+001  -1.403287e+002 
3053125000  -3.607389e+001  -1.341068e+002 
3056250000  -3.564968e+001  -1.313526e+002 
3059375000  -3.565216e+001  -1.309722e+002 
3062500000  -3.417315e+001  -1.354332e+002 
3065625000  -3.396166e+001  -1.423604e+002 
3068750000  -3.357590e+001  -1.486221e+002 
3071875000  -3.357815e+001  -1.508695e+002 
3075000000  -3.339843e+001  -1.555898e+002 
3078125000  -3.307649e+001  -1.592395e+002 
3081250000  -3.350519e+001  -1.638459e+002 
3084375000  -3.269393e+001  -1.668914e+002 
3087500000  -3.244722e+001  -1.712122e+002 
3090625000  -3.200801e+001  1.785022e+002 
3093750000  -3.255140e+001  1.710355e+002 
3096875000  -3.352843e+001  1.657532e+002 
3100000000  -3.339463e+001  1.634974e+002 
3103125000  -3.372097e+001  1.643914e+002 
3106250000  -3.314824e+001  1.597014e+002 
3109375000  -3.326053e+001  1.561590e+002 
3112500000  -3.318994e+001  1.534487e+002 
3115625000  -3.290315e+001  1.487545e+002 
3118750000  -3.317839e+001  1.483532e+002 
3121875000  -3.225943e+001  1.393804e+002 
3125000000  -3.369490e+001  1.358838e+002 
3128125000  -3.452159e+001  1.435294e+002 
3131250000  -3.204641e+001  1.401373e+002 
3134375000  -3.078345e+001  1.250310e+002 
3137500000  -3.137409e+001  1.108320e+002 
3140625000  -3.279807e+001  1.090143e+002 
3143750000  -3.377653e+001  1.100566e+002 
3146875000  -3.329000e+001  1.110293e+002 
3150000000  -3.231804e+001  1.105296e+002 
3153125000  -3.234634e+001  1.015507e+002 
3156250000  -3.339903e+001  1.066244e+002 
3159375000  -3.157715e+001  1.079009e+002 
3162500000  -2.968940e+001  9.278033e+001 
3165625000  -3.074956e+001  8.119269e+001 
3168750000  -3.103780e+001  8.166942e+001 
3171875000  -3.013036e+001  7.563007e+001 
3175000000  -3.090277e+001  6.670123e+001 
3178125000  -3.060993e+001  6.701015e+001 
3181250000  -2.957305e+001  6.162101e+001 
3184375000  -2.895357e+001  4.937915e+001 
3187500000  -3.023666e+001  3.389657e+001 
3190625000  -3.281259e+001  2.648203e+001 
3193750000  -3.336020e+001  3.452203e+001 
3196875000  -3.302439e+001  3.902783e+001 
3200000000  -3.198508e+001  3.637195e+001 
3203125000  -3.124669e+001  3.003819e+001 
3206250000  -3.155551e+001  2.315567e+001 
3209375000  -3.109113e+001  1.703798e+001 
3212500000  -3.141936e+001  1.063123e+001 
3215625000  -3.139696e+001  6.655258e+000 
3218750000  -3.221667e+001  -9.424733e-001 
3221875000  -3.305924e+001  -5.509127e+000 
3225000000  -3.257039e+001  -7.358232e+000 
3228125000  -3.303157e+001  -1.258479e+001 
3231250000  -3.363493e+001  -1.475630e+001 
3234375000  -3.338819e+001  -1.486659e+001 
3237500000  -3.344329e+001  -1.664498e+001 
3240625000  -3.291140e+001  -1.962043e+001 
3243750000  -3.263950e+001  -2.679921e+001 
3246875000  -3.298912e+001  -3.422204e+001 
3250000000  -3.347748e+001  -3.622993e+001 
3253125000  -3.360017e+001  -3.844024e+001 
3256250000  -3.304115e+001  -4.522152e+001 
3259375000  -3.339911e+001  -5.456834e+001 
3262500000  -3.467770e+001  -5.804212e+001 
3265625000  -3.517303e+001  -5.538224e+001 
3268750000  -3.507226e+001  -5.280460e+001 
3271875000  -3.466335e+001  -5.378543e+001 
3275000000  -3.371867e+001  -6.029937e+001 
3278125000  -3.422184e+001  -6.647796e+001 
3281250000  -3.438181e+001  -6.591388e+001 
3284375000  -3.388256e+001  -7.258071e+001 
3287500000  -3.408012e+001  -7.557069e+001 
3290625000  -3.427063e+001  -8.221841e+001 
3293750000  -3.400747e+001  -8.832300e+001 
3296875000  -3.514464e+001  -8.910943e+001 
3300000000  -3.471133e+001  -8.852551e+001 
3303125000  -3.362333e+001  -9.373410e+001 
3306250000  -3.343212e+001  -1.003435e+002 
3309375000  -3.318881e+001  -1.075743e+002 
3312500000  -3.332903e+001  -1.189248e+002 
3315625000  -3.432794e+001  -1.265633e+002 
3318750000  -3.585377e+001  -1.289735e+002 
3321875000  -3.677903e+001  -1.288676e+002 
3325000000  -3.735847e+001  -1.233239e+002 
3328125000  -3.680305e+001  -1.230967e+002 
3331250000  -3.551485e+001  -1.163824e+002 
3334375000  -3.281799e+001  -1.279427e+002 
3337500000  -3.295031e+001  -1.474374e+002 
3340625000  -3.464578e+001  -1.578765e+002 
3343750000  -3.641938e+001  -1.580545e+002 
3346875000  -3.655123e+001  -1.579713e+002 
3350000000  -3.605843e+001  -1.584429e+002 
3353125000  -3.605875e+001  -1.644836e+002 
3356250000  -3.551523e+001  -1.724757e+002 
3359375000  -3.652401e+001  1.791949e+002 
3362500000  -3.764423e+001  1.736831e+002 
3365625000  -3.797558e+001  1.724561e+002 
3368750000  -3.881781e+001  1.708136e+002 
3371875000  -3.903806e+001  1.675937e+002 
3375000000  -4.041151e+001  1.649707e+002 
3378125000  -4.118057e+001  1.653978e+002 
3381250000  -4.274530e+001  1.741987e+002 
3384375000  -4.137958e+001  -1.648177e+002 
3387500000  -3.756876e+001  1.791613e+002 
3390625000  -3.919328e+001  1.582406e+002 
3393750000  -4.032630e+001  1.624491e+002 
3396875000  -3.935884e+001  1.649007e+002 
3400000000  -3.866373e+001  1.554310e+002 
3403125000  -3.934289e+001  1.507825e+002 
3406250000  -3.981422e+001  1.500029e+002 
3409375000  -3.978548e+001  1.419944e+002 
3412500000  -4.026832e+001  1.402002e+002 
3415625000  -4.097632e+001  1.415345e+002 
3418750000  -4.093266e+001  1.423921e+002 
3421875000  -4.108911e+001  1.440538e+002 
3425000000  -4.029493e+001  1.452227e+002 
3428125000  -3.934365e+001  1.396533e+002 
3431250000  -3.910728e+001  1.340931e+002 
3434375000  -3.927804e+001  1.281385e+002 
3437500000  -3.982209e+001  1.253702e+002 
3440625000  -3.995054e+001  1.252755e+002 
3443750000  -3.869528e+001  1.265148e+002 
3446875000  -3.791984e+001  1.171567e+002 
3450000000  -3.750426e+001  1.077658e+002 
3453125000  -3.796043e+001  9.831891e+001 
3456250000  -3.919910e+001  9.152464e+001 
3459375000  -4.021650e+001  9.271900e+001 
3462500000  -3.996876e+001  9.273091e+001 
3465625000  -3.973878e+001  8.723315e+001 
3468750000  -4.013478e+001  8.390382e+001 
3471875000  -3.999462e+001  8.155215e+001 
3475000000  -3.961545e+001  7.726574e+001 
3478125000  -4.050480e+001  6.836333e+001 
3481250000  -4.139587e+001  6.723591e+001 
3484375000  -4.254823e+001  7.158515e+001 
3487500000  -4.164714e+001  6.928294e+001 
3490625000  -4.103531e+001  6.620433e+001 
3493750000  -4.147392e+001  5.910213e+001 
3496875000  -4.226480e+001  5.699636e+001 
3500000000  -4.266879e+001  6.178552e+001 
3503125000  -4.206177e+001  6.402806e+001 
3506250000  -4.066103e+001  6.017182e+001 
3509375000  -4.074673e+001  4.961074e+001 
3512500000  -4.124961e+001  4.203158e+001 
3515625000  -4.216418e+001  3.962295e+001 
3518750000  -4.264769e+001  3.975293e+001 
3521875000  -4.256286e+001  3.569143e+001 
3525000000  -4.313792e+001  3.447876e+001 
3528125000  -4.312148e+001  4.392537e+001 
3531250000  -4.173880e+001  3.958776e+001 
3534375000  -4.177890e+001  2.793782e+001 
3537500000  -4.195150e+001  2.393144e+001 
3540625000  -4.294840e+001  2.159716e+001 
3543750000  -4.396486e+001  2.615797e+001 
3546875000  -4.363986e+001  3.646022e+001 
3550000000  -4.115857e+001  3.785010e+001 
3553125000  -3.982214e+001  1.952310e+001 
3556250000  -4.114490e+001  1.132952e+001 
3559375000  -4.092157e+001  1.323345e+001 
3562500000  -3.994445e+001  5.452608e+000 
3565625000  -4.088230e+001  -3.367568e+000 
3568750000  -4.099071e+001  -2.999617e-001 
3571875000  -4.081712e+001  -2.491191e+000 
3575000000  -4.040281e+001  -1.067454e+001 
3578125000  -4.094553e+001  -1.626692e+001 
3581250000  -4.117634e+001  -1.561117e+001 
3584375000  -4.033855e+001  -1.947669e+001 
3587500000  -3.977212e+001  -2.710839e+001 
3590625000  -4.070315e+001  -3.854453e+001 
3593750000  -4.153424e+001  -3.976038e+001 
3596875000  -4.170105e+001  -3.520792e+001 
3600000000  -4.010934e+001  -4.100258e+001 
3603125000  -4.067264e+001  -5.577250e+001 
3606250000  -4.201810e+001  -5.889371e+001 
3609375000  -4.222610e+001  -6.055158e+001 
3612500000  -4.317567e+001  -6.480260e+001 
3615625000  -4.308590e+001  -6.700759e+001 
3618750000  -4.412664e+001  -6.495182e+001 
3621875000  -4.425831e+001  -7.051499e+001 
3625000000  -4.487539e+001  -6.965850e+001 
3628125000  -4.510839e+001  -6.884786e+001 
3631250000  -4.468505e+001  -7.534998e+001 
3634375000  -4.626007e+001  -7.557879e+001 
3637500000  -4.574283e+001  -6.757081e+001 
3640625000  -4.512455e+001  -6.645092e+001 
3643750000  -4.440266e+001  -7.074679e+001 
3646875000  -4.485367e+001  -7.681618e+001 
3650000000  -4.541446e+001  -7.499280e+001 
3653125000  -4.511411e+001  -7.717740e+001 
3656250000  -4.570253e+001  -7.911790e+001 
3659375000  -4.557817e+001  -7.588560e+001 
3662500000  -4.406421e+001  -7.722585e+001 
3665625000  -4.480161e+001  -7.855174e+001 
3668750000  -4.327143e+001  -7.920848e+001 
3671875000  -4.229572e+001  -8.727126e+001 
3675000000  -4.246803e+001  -9.310976e+001 
3678125000  -4.257870e+001  -9.506278e+001 
3681250000  -4.216689e+001  -9.752242e+001 
3684375000  -4.219037e+001  -1.040424e+002 
3687500000  -4.251123e+001  -1.094540e+002 
3690625000  -4.254991e+001  -1.128441e+002 
3693750000  -4.362060e+001  -1.126617e+002 
3696875000  -4.317135e+001  -1.142682e+002 
3700000000  -4.223026e+001  -1.195037e+002 
3703125000  -4.257275e+001  -1.236100e+002 
3706250000  -4.349471e+001  -1.229798e+002 
3709375000  -4.306574e+001  -1.230700e+002 
3712500000  -4.217789e+001  -1.264579e+002 
3715625000  -4.115844e+001  -1.346150e+002 
3718750000  -4.123386e+001  -1.378857e+002 
3721875000  -4.117705e+001  -1.456326e+002 
3725000000  -4.121573e+001  -1.506831e+002 
3728125000  -4.202776e+001  -1.525330e+002 
3731250000  -4.131339e+001  -1.544728e+002 
3734375000  -4.156556e+001  -1.598363e+002 
3737500000  -4.236215e+001  -1.691779e+002 
3740625000  -4.340277e+001  -1.724419e+002 
3743750000  -4.364914e+001  -1.758446e+002 
3746875000  -4.345518e+001  -1.789708e+002 
3750000000  -4.425975e+001  -1.765211e+002 
3753125000  -4.478010e+001  -1.774729e+002 
3756250000  -4.523373e+001  -1.757989e+002 
3759375000  -4.488918e+001  -1.717338e+002 
3762500000  -4.438996e+001  -1.748865e+002 
3765625000  -4.519831e+001  -1.754530e+002 
3768750000  -4.502889e+001  -1.695587e+002 
3771875000  -4.292422e+001  -1.749722e+002 
3775000000  -4.303869e+001  -1.769635e+002 
3778125000  -4.321046e+001  -1.789555e+002 
3781250000  -4.288469e+001  1.780484e+002 
3784375000  -4.259026e+001  1.753650e+002 
3787500000  -4.178645e+001  1.724065e+002 
3790625000  -4.192027e+001  1.662309e+002 
3793750000  -4.193813e+001  1.660253e+002 
3796875000  -4.088667e+001  1.635744e+002 
3800000000  -3.932527e+001  1.611442e+002 
3803125000  -4.007530e+001  1.480248e+002 
3806250000  -4.057386e+001  1.490002e+002 
3809375000  -4.026325e+001  1.462872e+002 
3812500000  -3.969984e+001  1.396476e+002 
3815625000  -4.025037e+001  1.265257e+002 
3818750000  -4.108887e+001  1.268973e+002 
3821875000  -4.105890e+001  1.383815e+002 
3825000000  -3.939274e+001  1.387337e+002 
3828125000  -3.769921e+001  1.214042e+002 
3831250000  -3.843095e+001  1.076375e+002 
3834375000  -4.012716e+001  1.054990e+002 
3837500000  -4.093933e+001  1.084417e+002 
3840625000  -3.991195e+001  1.053023e+002 
3843750000  -3.881858e+001  9.472164e+001 
3846875000  -3.982559e+001  8.821080e+001 
3850000000  -4.106769e+001  9.355613e+001 
3853125000  -4.021637e+001  9.642486e+001 
3856250000  -4.021423e+001  9.041660e+001 
3859375000  -3.951269e+001  8.416831e+001 
3862500000  -3.951378e+001  7.184808e+001 
3865625000  -3.998731e+001  6.946016e+001 
3868750000  -3.991751e+001  7.014469e+001 
3871875000  -3.936125e+001  6.668971e+001 
3875000000  -3.952446e+001  5.492991e+001 
3878125000  -4.066645e+001  5.369965e+001 
3881250000  -4.065963e+001  5.663961e+001 
3884375000  -4.031170e+001  5.274951e+001 
3887500000  -4.072416e+001  4.926643e+001 
3890625000  -4.116318e+001  4.491005e+001 
3893750000  -4.151631e+001  4.224144e+001 
3896875000  -4.181517e+001  4.462719e+001 
3900000000  -4.224145e+001  4.416573e+001 
3903125000  -4.143515e+001  4.295556e+001 
3906250000  -4.114438e+001  4.041914e+001 
3909375000  -4.002954e+001  3.739062e+001 
3912500000  -4.039430e+001  2.909469e+001 
3915625000  -4.160083e+001  3.265673e+001 
3918750000  -4.112296e+001  3.301283e+001 
3921875000  -4.069328e+001  2.798075e+001 
3925000000  -3.983820e+001  2.535341e+001 
3928125000  -3.915306e+001  1.786889e+001 
3931250000  -3.954352e+001  1.504402e+001 
3934375000  -3.987223e+001  1.357463e+001 
3937500000  -4.019242e+001  1.048113e+001 
3940625000  -4.027082e+001  1.023467e+001 
3943750000  -3.925226e+001  1.010633e+001 
3946875000  -3.805027e+001  2.512384e+000 
3950000000  -3.885275e+001  -5.872399e+000 
3953125000  -3.982815e+001  -6.771423e+000 
3956250000  -3.858065e+001  -4.070881e+000 
3959375000  -3.741737e+001  -8.825709e+000 
3962500000  -3.717636e+001  -1.313829e+001 
3965625000  -3.706130e+001  -2.573003e+001 
3968750000  -3.792993e+001  -3.382922e+001 
3971875000  -3.830198e+001  -3.578059e+001 
3975000000  -3.765262e+001  -3.892284e+001 
3978125000  -3.762024e+001  -4.226423e+001 
3981250000  -3.765089e+001  -4.882293e+001 
3984375000  -3.781445e+001  -5.413583e+001 
3987500000  -3.876568e+001  -5.600668e+001 
3990625000  -3.847638e+001  -5.904316e+001 
3993750000  -3.883453e+001  -6.355657e+001 
3996875000  -3.902632e+001  -6.604700e+001 
4000000000  -3.944445e+001  -6.827303e+001 
4003125000  -3.992755e+001  -6.568494e+001 
4006250000  -3.863952e+001  -6.702531e+001 
4009375000  -3.729073e+001  -8.219228e+001 
4012500000  -3.892907e+001  -8.697261e+001 
4015625000  -4.028800e+001  -8.655335e+001 
4018750000  -4.031209e+001  -8.468117e+001 
4021875000  -3.944806e+001  -8.517039e+001 
4025000000  -3.936869e+001  -9.087915e+001 
4028125000  -3.960217e+001  -9.573634e+001 
4031250000  -3.995745e+001  -9.828660e+001 
4034375000  -4.014071e+001  -9.700685e+001 
4037500000  -3.976218e+001  -9.558007e+001 
4040625000  -3.945692e+001  -9.913348e+001 
4043750000  -3.971803e+001  -1.010261e+002 
4046875000  -3.939451e+001  -1.017974e+002 
4050000000  -3.883392e+001  -1.085653e+002 
4053125000  -3.913164e+001  -1.100665e+002 
4056250000  -3.960580e+001  -1.060960e+002 
4059375000  -3.825182e+001  -1.058626e+002 
4062500000  -3.675826e+001  -1.113946e+002 
4065625000  -3.677192e+001  -1.162859e+002 
4068750000  -3.613462e+001  -1.229730e+002 
4071875000  -3.565702e+001  -1.313444e+002 
4075000000  -3.583338e+001  -1.394133e+002 
4078125000  -3.661310e+001  -1.397472e+002 
4081250000  -3.564704e+001  -1.443737e+002 
4084375000  -3.540052e+001  -1.526259e+002 
4087500000  -3.589342e+001  -1.601730e+002 
4090625000  -3.653919e+001  -1.617113e+002 
4093750000  -3.625103e+001  -1.616482e+002 
4096875000  -3.590752e+001  -1.699001e+002 
4100000000  -3.681974e+001  -1.775465e+002 
4103125000  -3.759081e+001  -1.761873e+002 
4106250000  -3.742566e+001  -1.715774e+002 
4109375000  -3.638310e+001  -1.752646e+002 
4112500000  -3.597452e+001  1.761461e+002 
4115625000  -3.644249e+001  1.715723e+002 
4118750000  -3.658086e+001  1.671963e+002 
4121875000  -3.624505e+001  1.597266e+002 
4125000000  -3.665641e+001  1.540118e+002 
4128125000  -3.769273e+001  1.563820e+002 
4131250000  -3.757399e+001  1.636197e+002 
4134375000  -3.531314e+001  1.557186e+002 
4137500000  -3.516178e+001  1.353798e+002 
4140625000  -3.755434e+001  1.278433e+002 
4143750000  -3.894260e+001  1.340425e+002 
4146875000  -3.870187e+001  1.397149e+002 
4150000000  -3.748312e+001  1.350144e+002 
4153125000  -3.760949e+001  1.276867e+002 
4156250000  -3.876216e+001  1.257503e+002 
4159375000  -3.898338e+001  1.317152e+002 
4162500000  -3.783678e+001  1.344117e+002 
4165625000  -3.686707e+001  1.297285e+002 
4168750000  -3.637708e+001  1.223408e+002 
4171875000  -3.630238e+001  1.122614e+002 
4175000000  -3.696422e+001  1.086994e+002 
4178125000  -3.756293e+001  1.096544e+002 
4181250000  -3.729124e+001  1.081817e+002 
4184375000  -3.693657e+001  1.041912e+002 
4187500000  -3.692952e+001  1.000009e+002 
4190625000  -3.694675e+001  9.520380e+001 
4193750000  -3.762061e+001  9.131752e+001 
4196875000  -3.826039e+001  8.905267e+001 
4200000000  -3.926547e+001  9.204502e+001 
4203125000  -3.866240e+001  1.065055e+002 
4206250000  -3.533425e+001  1.051897e+002 
4209375000  -3.436134e+001  8.263301e+001 
4212500000  -3.626484e+001  7.396792e+001 
4215625000  -3.701899e+001  8.082841e+001 
4218750000  -3.543596e+001  8.517739e+001 
4221875000  -3.309288e+001  7.508139e+001 
4225000000  -3.446007e+001  6.372829e+001 
4228125000  -3.503732e+001  6.624229e+001 
4231250000  -3.331214e+001  6.052203e+001 
4234375000  -3.315236e+001  5.007827e+001 
4237500000  -3.272726e+001  4.473997e+001 
4240625000  -3.276878e+001  3.513803e+001 
4243750000  -3.374604e+001  2.730086e+001 
4246875000  -3.465440e+001  2.565189e+001 
4250000000  -3.467137e+001  2.820544e+001 
4253125000  -3.421872e+001  2.444692e+001 
4256250000  -3.453393e+001  1.892911e+001 
4259375000  -3.427280e+001  1.536907e+001 
4262500000  -3.449558e+001  1.078114e+001 
4265625000  -3.456713e+001  1.143903e+001 
4268750000  -3.375562e+001  3.562042e+000 
4271875000  -3.372068e+001  -2.727289e+000 
4275000000  -3.318258e+001  -1.038840e+001 
4278125000  -3.416597e+001  -2.363684e+001 
4281250000  -3.615134e+001  -2.405709e+001 
4284375000  -3.582456e+001  -2.433927e+001 
4287500000  -3.664830e+001  -2.939708e+001 
4290625000  -3.837646e+001  -1.906817e+001 
4293750000  -3.635830e+001  -1.436090e+001 
4296875000  -3.513232e+001  -2.739902e+001 
4300000000  -3.610609e+001  -3.570465e+001 
4303125000  -3.712359e+001  -3.396422e+001 
4306250000  -3.642101e+001  -2.702035e+001 
4309375000  -3.528813e+001  -3.024554e+001 
4312500000  -3.512926e+001  -3.724405e+001 
4315625000  -3.528633e+001  -4.289700e+001 
4318750000  -3.584367e+001  -4.602029e+001 
4321875000  -3.575866e+001  -4.529751e+001 
4325000000  -3.504728e+001  -4.505623e+001 
4328125000  -3.441851e+001  -5.158976e+001 
4331250000  -3.420611e+001  -6.038591e+001 
4334375000  -3.467416e+001  -6.542028e+001 
4337500000  -3.544721e+001  -6.755827e+001 
4340625000  -3.585772e+001  -6.396643e+001 
4343750000  -3.489321e+001  -6.544228e+001 
4346875000  -3.446269e+001  -7.166824e+001 
4350000000  -3.439921e+001  -7.765949e+001 
4353125000  -3.440018e+001  -8.537947e+001 
4356250000  -3.625208e+001  -8.616679e+001 
4359375000  -3.634190e+001  -7.257101e+001 
4362500000  -3.324808e+001  -7.306754e+001 
4365625000  -3.177934e+001  -8.828531e+001 
4368750000  -3.255478e+001  -1.008711e+002 
4371875000  -3.366743e+001  -9.978119e+001 
4375000000  -3.308765e+001  -1.022930e+002 
4378125000  -3.252375e+001  -1.100348e+002 
4381250000  -3.269476e+001  -1.164851e+002 
4384375000  -3.236619e+001  -1.233949e+002 
4387500000  -3.326531e+001  -1.300950e+002 
4390625000  -3.410751e+001  -1.306607e+002 
4393750000  -3.354739e+001  -1.295181e+002 
4396875000  -3.285176e+001  -1.341632e+002 
4400000000  -3.245970e+001  -1.432043e+002 
4403125000  -3.324733e+001  -1.517149e+002 
4406250000  -3.404553e+001  -1.542874e+002 
4409375000  -3.417616e+001  -1.570650e+002 
4412500000  -3.553007e+001  -1.613719e+002 
4415625000  -3.567527e+001  -1.582606e+002 
