!Agilent Technologies,E8363B,MY43030201,A.06.04.32
!Agilent E8363B: A.06.04.32
!Date: Tuesday, November 11, 2014 21:07:57
!Correction: S21(Response(S21)) 
!S1P File: Measurement: S21:
# Hz S  dB   R 50
3000000000  -3.649202e+001  -5.275683e+001 
3003125000  -3.778252e+001  -5.875776e+001 
3006250000  -3.762630e+001  -6.085169e+001 
3009375000  -3.775800e+001  -5.653155e+001 
3012500000  -3.699243e+001  -5.783043e+001 
3015625000  -3.611409e+001  -6.503413e+001 
3018750000  -3.689090e+001  -6.640435e+001 
3021875000  -3.539384e+001  -6.599014e+001 
3025000000  -3.412059e+001  -6.927650e+001 
3028125000  -3.310509e+001  -7.615697e+001 
3031250000  -3.211811e+001  -8.773728e+001 
3034375000  -3.182347e+001  -1.010236e+002 
3037500000  -3.228046e+001  -1.130558e+002 
3040625000  -3.352394e+001  -1.177030e+002 
3043750000  -3.417036e+001  -1.229917e+002 
3046875000  -3.446525e+001  -1.292384e+002 
3050000000  -3.614561e+001  -1.349327e+002 
3053125000  -3.609202e+001  -1.283562e+002 
3056250000  -3.566159e+001  -1.261579e+002 
3059375000  -3.555082e+001  -1.265066e+002 
3062500000  -3.413134e+001  -1.298195e+002 
3065625000  -3.390313e+001  -1.363639e+002 
3068750000  -3.358455e+001  -1.436204e+002 
3071875000  -3.344569e+001  -1.460531e+002 
3075000000  -3.332759e+001  -1.496304e+002 
3078125000  -3.302234e+001  -1.539108e+002 
3081250000  -3.359665e+001  -1.583285e+002 
3084375000  -3.264826e+001  -1.615191e+002 
3087500000  -3.250376e+001  -1.651204e+002 
3090625000  -3.199771e+001  -1.761989e+002 
3093750000  -3.242811e+001  1.770526e+002 
3096875000  -3.341157e+001  1.709109e+002 
3100000000  -3.339357e+001  1.689533e+002 
3103125000  -3.361054e+001  1.696057e+002 
3106250000  -3.318644e+001  1.648506e+002 
3109375000  -3.326826e+001  1.611437e+002 
3112500000  -3.314802e+001  1.592007e+002 
3115625000  -3.287879e+001  1.544778e+002 
3118750000  -3.319622e+001  1.546654e+002 
3121875000  -3.235120e+001  1.448593e+002 
3125000000  -3.350206e+001  1.412344e+002 
3128125000  -3.454890e+001  1.486776e+002 
3131250000  -3.199448e+001  1.461968e+002 
3134375000  -3.082406e+001  1.311867e+002 
3137500000  -3.138291e+001  1.173235e+002 
3140625000  -3.281570e+001  1.143629e+002 
3143750000  -3.385217e+001  1.150767e+002 
3146875000  -3.326542e+001  1.168092e+002 
3150000000  -3.235580e+001  1.168625e+002 
3153125000  -3.235196e+001  1.078096e+002 
3156250000  -3.335337e+001  1.122793e+002 
3159375000  -3.160383e+001  1.134637e+002 
3162500000  -2.965345e+001  9.925568e+001 
3165625000  -3.074627e+001  8.645531e+001 
3168750000  -3.101343e+001  8.696605e+001 
3171875000  -3.015516e+001  8.128603e+001 
3175000000  -3.088221e+001  7.233447e+001 
3178125000  -3.063711e+001  7.332384e+001 
3181250000  -2.954524e+001  6.752174e+001 
3184375000  -2.885910e+001  5.525155e+001 
3187500000  -3.010528e+001  3.956905e+001 
3190625000  -3.276754e+001  3.177483e+001 
3193750000  -3.328317e+001  4.088409e+001 
3196875000  -3.296996e+001  4.505561e+001 
3200000000  -3.199787e+001  4.249197e+001 
3203125000  -3.121353e+001  3.580387e+001 
3206250000  -3.152246e+001  2.904643e+001 
3209375000  -3.109397e+001  2.279808e+001 
3212500000  -3.130679e+001  1.637621e+001 
3215625000  -3.136358e+001  1.236762e+001 
3218750000  -3.209527e+001  5.110529e+000 
3221875000  -3.300826e+001  -7.443784e-001 
3225000000  -3.255754e+001  -1.528592e+000 
3228125000  -3.292982e+001  -6.959711e+000 
3231250000  -3.357916e+001  -9.208570e+000 
3234375000  -3.336002e+001  -8.818748e+000 
3237500000  -3.336959e+001  -1.145475e+001 
3240625000  -3.283822e+001  -1.371577e+001 
3243750000  -3.255188e+001  -2.114392e+001 
3246875000  -3.297291e+001  -2.809084e+001 
3250000000  -3.336658e+001  -3.082962e+001 
3253125000  -3.345356e+001  -3.291229e+001 
3256250000  -3.309706e+001  -3.921235e+001 
3259375000  -3.342311e+001  -4.788437e+001 
3262500000  -3.458008e+001  -5.203811e+001 
3265625000  -3.524360e+001  -4.964553e+001 
3268750000  -3.511478e+001  -4.757974e+001 
3271875000  -3.469034e+001  -4.757159e+001 
3275000000  -3.369506e+001  -5.422373e+001 
3278125000  -3.414819e+001  -6.160424e+001 
3281250000  -3.427105e+001  -6.005630e+001 
3284375000  -3.381882e+001  -6.685678e+001 
3287500000  -3.407117e+001  -6.994294e+001 
3290625000  -3.425685e+001  -7.609072e+001 
3293750000  -3.407991e+001  -8.224703e+001 
3296875000  -3.508522e+001  -8.301596e+001 
3300000000  -3.491656e+001  -8.199688e+001 
3303125000  -3.370881e+001  -8.769898e+001 
3306250000  -3.341652e+001  -9.446995e+001 
3309375000  -3.315469e+001  -1.010746e+002 
3312500000  -3.332044e+001  -1.119213e+002 
3315625000  -3.414106e+001  -1.198139e+002 
3318750000  -3.568685e+001  -1.224964e+002 
3321875000  -3.683305e+001  -1.226716e+002 
3325000000  -3.735485e+001  -1.168095e+002 
3328125000  -3.685053e+001  -1.160236e+002 
3331250000  -3.557788e+001  -1.104215e+002 
3334375000  -3.288883e+001  -1.218146e+002 
3337500000  -3.303413e+001  -1.405888e+002 
3340625000  -3.435883e+001  -1.512403e+002 
3343750000  -3.651229e+001  -1.518898e+002 
3346875000  -3.659554e+001  -1.511755e+002 
3350000000  -3.592862e+001  -1.528154e+002 
3353125000  -3.600882e+001  -1.564527e+002 
3356250000  -3.553058e+001  -1.652823e+002 
3359375000  -3.634229e+001  -1.735360e+002 
3362500000  -3.736712e+001  -1.794452e+002 
3365625000  -3.794596e+001  1.797002e+002 
3368750000  -3.857935e+001  1.770108e+002 
3371875000  -3.888810e+001  1.735821e+002 
3375000000  -4.025599e+001  1.713337e+002 
3378125000  -4.116647e+001  1.720938e+002 
3381250000  -4.229862e+001  1.796193e+002 
3384375000  -4.086169e+001  -1.591167e+002 
3387500000  -3.742122e+001  -1.747249e+002 
3390625000  -3.899635e+001  1.654883e+002 
3393750000  -4.015162e+001  1.680285e+002 
3396875000  -3.914039e+001  1.700929e+002 
3400000000  -3.865033e+001  1.628087e+002 
3403125000  -3.929480e+001  1.550845e+002 
3406250000  -3.969605e+001  1.563846e+002 
3409375000  -3.968991e+001  1.479509e+002 
3412500000  -4.020847e+001  1.472601e+002 
3415625000  -4.097131e+001  1.464005e+002 
3418750000  -4.108253e+001  1.463296e+002 
3421875000  -4.141378e+001  1.499504e+002 
3425000000  -4.031219e+001  1.517269e+002 
3428125000  -3.933516e+001  1.469653e+002 
3431250000  -3.921317e+001  1.388535e+002 
3434375000  -3.926535e+001  1.338554e+002 
3437500000  -3.972446e+001  1.300767e+002 
3440625000  -4.009025e+001  1.303430e+002 
3443750000  -3.864301e+001  1.330346e+002 
3446875000  -3.790144e+001  1.247600e+002 
3450000000  -3.753199e+001  1.144080e+002 
3453125000  -3.790995e+001  1.041658e+002 
3456250000  -3.919299e+001  9.807552e+001 
3459375000  -4.012847e+001  9.963022e+001 
3462500000  -3.994740e+001  9.927131e+001 
3465625000  -3.976288e+001  9.301207e+001 
3468750000  -4.010974e+001  8.858990e+001 
3471875000  -3.999150e+001  8.765483e+001 
3475000000  -3.958352e+001  8.365018e+001 
3478125000  -4.020153e+001  7.511745e+001 
3481250000  -4.111692e+001  7.297233e+001 
3484375000  -4.199804e+001  7.593761e+001 
3487500000  -4.132265e+001  7.495879e+001 
3490625000  -4.065362e+001  7.216161e+001 
3493750000  -4.137128e+001  6.471815e+001 
3496875000  -4.175968e+001  6.339340e+001 
3500000000  -4.218086e+001  6.522695e+001 
3503125000  -4.194902e+001  6.894875e+001 
3506250000  -4.066167e+001  6.342524e+001 
3509375000  -4.071893e+001  5.431853e+001 
3512500000  -4.090015e+001  4.414998e+001 
3515625000  -4.196595e+001  4.039848e+001 
3518750000  -4.256965e+001  4.283727e+001 
3521875000  -4.243682e+001  4.176517e+001 
3525000000  -4.377170e+001  3.421120e+001 
3528125000  -4.316028e+001  4.641653e+001 
3531250000  -4.190218e+001  4.260912e+001 
3534375000  -4.214352e+001  3.236628e+001 
3537500000  -4.262774e+001  2.829411e+001 
3540625000  -4.376940e+001  2.693445e+001 
3543750000  -4.419436e+001  3.076613e+001 
3546875000  -4.421030e+001  4.306002e+001 
3550000000  -4.151456e+001  4.195233e+001 
3553125000  -4.000886e+001  2.522219e+001 
3556250000  -4.157952e+001  1.855249e+001 
3559375000  -4.135090e+001  2.203523e+001 
3562500000  -4.035299e+001  1.225378e+001 
3565625000  -4.118222e+001  4.261264e+000 
3568750000  -4.137273e+001  8.056640e+000 
3571875000  -4.127385e+001  6.408696e+000 
3575000000  -4.074051e+001  7.438258e-002 
3578125000  -4.104327e+001  -7.791148e+000 
3581250000  -4.148475e+001  -7.870155e+000 
3584375000  -4.072603e+001  -1.003452e+001 
3587500000  -4.000250e+001  -1.899330e+001 
3590625000  -4.055268e+001  -3.116813e+001 
3593750000  -4.186860e+001  -3.108504e+001 
3596875000  -4.181833e+001  -2.559706e+001 
3600000000  -4.015859e+001  -3.153096e+001 
3603125000  -4.073552e+001  -4.611090e+001 
3606250000  -4.150083e+001  -5.038670e+001 
3609375000  -4.221015e+001  -5.343866e+001 
3612500000  -4.259213e+001  -5.581832e+001 
3615625000  -4.265722e+001  -5.946196e+001 
3618750000  -4.386092e+001  -5.772845e+001 
3621875000  -4.363498e+001  -6.280666e+001 
3625000000  -4.428605e+001  -6.476099e+001 
3628125000  -4.436452e+001  -6.414676e+001 
3631250000  -4.406691e+001  -7.059203e+001 
3634375000  -4.519609e+001  -7.017790e+001 
3637500000  -4.547797e+001  -6.516421e+001 
3640625000  -4.462153e+001  -6.291005e+001 
3643750000  -4.418553e+001  -7.151410e+001 
3646875000  -4.510694e+001  -7.625773e+001 
3650000000  -4.592975e+001  -7.744578e+001 
3653125000  -4.544356e+001  -7.903001e+001 
3656250000  -4.587955e+001  -7.670483e+001 
3659375000  -4.616485e+001  -7.258823e+001 
3662500000  -4.544080e+001  -7.453755e+001 
3665625000  -4.497959e+001  -7.410531e+001 
3668750000  -4.421200e+001  -7.411764e+001 
3671875000  -4.277922e+001  -8.017987e+001 
3675000000  -4.314558e+001  -8.774073e+001 
3678125000  -4.347959e+001  -8.978002e+001 
3681250000  -4.324539e+001  -8.897952e+001 
3684375000  -4.304757e+001  -9.526163e+001 
3687500000  -4.317743e+001  -9.744860e+001 
3690625000  -4.312691e+001  -1.040352e+002 
3693750000  -4.413610e+001  -1.055417e+002 
3696875000  -4.355046e+001  -1.035484e+002 
3700000000  -4.296851e+001  -1.068216e+002 
3703125000  -4.296907e+001  -1.165501e+002 
3706250000  -4.393519e+001  -1.155598e+002 
3709375000  -4.330927e+001  -1.129309e+002 
3712500000  -4.268036e+001  -1.155219e+002 
3715625000  -4.156375e+001  -1.221275e+002 
3718750000  -4.118917e+001  -1.273665e+002 
3721875000  -4.112636e+001  -1.340495e+002 
3725000000  -4.150252e+001  -1.390158e+002 
3728125000  -4.219153e+001  -1.407951e+002 
3731250000  -4.153969e+001  -1.434069e+002 
3734375000  -4.115447e+001  -1.517267e+002 
3737500000  -4.175972e+001  -1.592599e+002 
3740625000  -4.291886e+001  -1.605468e+002 
3743750000  -4.269876e+001  -1.659385e+002 
3746875000  -4.334346e+001  -1.693604e+002 
3750000000  -4.385810e+001  -1.664465e+002 
3753125000  -4.406244e+001  -1.687452e+002 
3756250000  -4.428622e+001  -1.667852e+002 
3759375000  -4.472179e+001  -1.674845e+002 
3762500000  -4.374189e+001  -1.713743e+002 
3765625000  -4.489550e+001  -1.688299e+002 
3768750000  -4.471067e+001  -1.674180e+002 
3771875000  -4.350026e+001  -1.682070e+002 
3775000000  -4.284600e+001  -1.746501e+002 
3778125000  -4.320165e+001  -1.760282e+002 
3781250000  -4.327894e+001  -1.779498e+002 
3784375000  -4.292899e+001  -1.782654e+002 
3787500000  -4.192595e+001  1.774926e+002 
3790625000  -4.246347e+001  1.723394e+002 
3793750000  -4.250679e+001  1.713960e+002 
3796875000  -4.135374e+001  1.673714e+002 
3800000000  -3.962789e+001  1.671014e+002 
3803125000  -4.051572e+001  1.570089e+002 
3806250000  -4.072201e+001  1.538039e+002 
3809375000  -4.070863e+001  1.536789e+002 
3812500000  -3.984147e+001  1.463678e+002 
3815625000  -4.050615e+001  1.378628e+002 
3818750000  -4.154245e+001  1.374464e+002 
3821875000  -4.143355e+001  1.455257e+002 
3825000000  -3.929068e+001  1.462273e+002 
3828125000  -3.793163e+001  1.330410e+002 
3831250000  -3.879500e+001  1.136689e+002 
3834375000  -4.023590e+001  1.135500e+002 
3837500000  -4.091014e+001  1.175896e+002 
3840625000  -3.969392e+001  1.165707e+002 
3843750000  -3.900372e+001  1.047436e+002 
3846875000  -3.998301e+001  9.801696e+001 
3850000000  -4.122255e+001  1.001777e+002 
3853125000  -4.022030e+001  1.039724e+002 
3856250000  -3.996671e+001  9.920709e+001 
3859375000  -3.949189e+001  9.211687e+001 
3862500000  -3.943874e+001  8.425301e+001 
3865625000  -3.991775e+001  7.922890e+001 
3868750000  -3.942327e+001  7.749483e+001 
3871875000  -3.881918e+001  7.349133e+001 
3875000000  -3.923928e+001  6.512977e+001 
3878125000  -4.054259e+001  6.331319e+001 
3881250000  -4.065908e+001  6.567060e+001 
3884375000  -4.000750e+001  6.051044e+001 
3887500000  -4.048080e+001  5.637234e+001 
3890625000  -4.071960e+001  5.379644e+001 
3893750000  -4.091701e+001  5.239174e+001 
3896875000  -4.147674e+001  5.320218e+001 
3900000000  -4.164294e+001  4.992895e+001 
3903125000  -4.145044e+001  4.781041e+001 
3906250000  -4.067431e+001  4.560189e+001 
3909375000  -4.007627e+001  4.335199e+001 
3912500000  -4.049295e+001  3.472844e+001 
3915625000  -4.143723e+001  3.506181e+001 
3918750000  -4.139024e+001  3.877527e+001 
3921875000  -4.071386e+001  3.375000e+001 
3925000000  -3.974610e+001  3.205613e+001 
3928125000  -3.922664e+001  2.480415e+001 
3931250000  -3.956799e+001  1.888460e+001 
3934375000  -4.000785e+001  1.923199e+001 
3937500000  -4.006334e+001  1.659978e+001 
3940625000  -4.064169e+001  1.548149e+001 
3943750000  -3.936454e+001  1.675406e+001 
3946875000  -3.813368e+001  9.569370e+000 
3950000000  -3.886854e+001  1.900172e+000 
3953125000  -3.988326e+001  -2.161863e+000 
3956250000  -3.898644e+001  3.491803e-001 
3959375000  -3.746736e+001  -2.199425e+000 
3962500000  -3.732405e+001  -5.889504e+000 
3965625000  -3.722189e+001  -1.803457e+001 
3968750000  -3.809080e+001  -2.540174e+001 
3971875000  -3.854605e+001  -2.815890e+001 
3975000000  -3.764806e+001  -2.904148e+001 
3978125000  -3.784551e+001  -3.326839e+001 
3981250000  -3.757911e+001  -3.588770e+001 
3984375000  -3.806276e+001  -4.428248e+001 
3987500000  -3.863954e+001  -4.638295e+001 
3990625000  -3.868080e+001  -4.727273e+001 
3993750000  -3.883030e+001  -5.299221e+001 
3996875000  -3.904147e+001  -5.534272e+001 
4000000000  -3.950073e+001  -5.706351e+001 
4003125000  -3.968211e+001  -5.673833e+001 
4006250000  -3.820378e+001  -5.760075e+001 
4009375000  -3.732791e+001  -7.293190e+001 
4012500000  -3.860979e+001  -7.767269e+001 
4015625000  -3.972385e+001  -7.787769e+001 
4018750000  -3.976163e+001  -7.486664e+001 
4021875000  -3.879982e+001  -7.880537e+001 
4025000000  -3.892326e+001  -8.366080e+001 
4028125000  -3.891902e+001  -8.814194e+001 
4031250000  -3.939581e+001  -9.254671e+001 
4034375000  -3.958000e+001  -9.139168e+001 
4037500000  -3.925516e+001  -9.030200e+001 
4040625000  -3.897544e+001  -9.474857e+001 
4043750000  -3.956049e+001  -9.613940e+001 
4046875000  -3.897116e+001  -9.637132e+001 
4050000000  -3.858320e+001  -1.032635e+002 
4053125000  -3.896739e+001  -1.048981e+002 
4056250000  -3.923270e+001  -1.020188e+002 
4059375000  -3.799987e+001  -9.988409e+001 
4062500000  -3.679898e+001  -1.073060e+002 
4065625000  -3.671125e+001  -1.107953e+002 
4068750000  -3.640028e+001  -1.181401e+002 
4071875000  -3.572240e+001  -1.261059e+002 
4075000000  -3.609074e+001  -1.336295e+002 
4078125000  -3.655148e+001  -1.352918e+002 
4081250000  -3.612698e+001  -1.391141e+002 
4084375000  -3.572958e+001  -1.463888e+002 
4087500000  -3.618762e+001  -1.533259e+002 
4090625000  -3.685767e+001  -1.549366e+002 
4093750000  -3.668729e+001  -1.553904e+002 
4096875000  -3.631757e+001  -1.633021e+002 
4100000000  -3.695080e+001  -1.692429e+002 
4103125000  -3.802988e+001  -1.693822e+002 
4106250000  -3.766579e+001  -1.656333e+002 
4109375000  -3.678308e+001  -1.671072e+002 
4112500000  -3.619721e+001  -1.753164e+002 
4115625000  -3.669164e+001  1.795247e+002 
4118750000  -3.667026e+001  1.754078e+002 
4121875000  -3.624285e+001  1.698552e+002 
4125000000  -3.711099e+001  1.646147e+002 
4128125000  -3.784241e+001  1.646176e+002 
4131250000  -3.734950e+001  1.707153e+002 
4134375000  -3.512274e+001  1.628963e+002 
4137500000  -3.521334e+001  1.461971e+002 
4140625000  -3.719627e+001  1.372518e+002 
4143750000  -3.879813e+001  1.415534e+002 
4146875000  -3.837735e+001  1.484980e+002 
4150000000  -3.772132e+001  1.450882e+002 
4153125000  -3.749075e+001  1.370800e+002 
4156250000  -3.841667e+001  1.359587e+002 
4159375000  -3.872064e+001  1.387667e+002 
4162500000  -3.757599e+001  1.441844e+002 
4165625000  -3.631897e+001  1.387740e+002 
4168750000  -3.593073e+001  1.295476e+002 
4171875000  -3.600243e+001  1.203141e+002 
4175000000  -3.672397e+001  1.154082e+002 
4178125000  -3.739560e+001  1.139162e+002 
4181250000  -3.682898e+001  1.123753e+002 
4184375000  -3.676596e+001  1.102035e+002 
4187500000  -3.681691e+001  1.058319e+002 
4190625000  -3.665016e+001  1.003392e+002 
4193750000  -3.762627e+001  9.671094e+001 
4196875000  -3.824400e+001  9.472521e+001 
4200000000  -3.914850e+001  9.799136e+001 
4203125000  -3.913292e+001  1.113091e+002 
4206250000  -3.512783e+001  1.098230e+002 
4209375000  -3.433954e+001  8.846265e+001 
4212500000  -3.655147e+001  7.952155e+001 
4215625000  -3.736927e+001  8.702571e+001 
4218750000  -3.578614e+001  9.004942e+001 
4221875000  -3.350467e+001  8.120662e+001 
4225000000  -3.468040e+001  6.631152e+001 
4228125000  -3.516424e+001  7.006946e+001 
4231250000  -3.382197e+001  6.632439e+001 
4234375000  -3.352781e+001  5.707649e+001 
4237500000  -3.310777e+001  5.215213e+001 
4240625000  -3.312055e+001  4.288141e+001 
4243750000  -3.432757e+001  3.401542e+001 
4246875000  -3.513057e+001  3.424298e+001 
4250000000  -3.514691e+001  3.527095e+001 
4253125000  -3.453473e+001  3.137148e+001 
4256250000  -3.498654e+001  2.644409e+001 
4259375000  -3.457789e+001  2.355412e+001 
4262500000  -3.462944e+001  1.982500e+001 
4265625000  -3.487620e+001  1.793048e+001 
4268750000  -3.408303e+001  1.315137e+001 
4271875000  -3.382516e+001  5.790627e+000 
4275000000  -3.357505e+001  -2.174024e+000 
4278125000  -3.428079e+001  -1.278894e+001 
4281250000  -3.609925e+001  -1.667908e+001 
4284375000  -3.585382e+001  -1.586654e+001 
4287500000  -3.703540e+001  -2.022811e+001 
4290625000  -3.799929e+001  -9.349053e+000 
4293750000  -3.635954e+001  -6.239910e+000 
4296875000  -3.514540e+001  -1.733089e+001 
4300000000  -3.597403e+001  -2.596606e+001 
4303125000  -3.727673e+001  -2.451112e+001 
4306250000  -3.638789e+001  -1.811024e+001 
4309375000  -3.529837e+001  -2.047466e+001 
4312500000  -3.499248e+001  -2.928581e+001 
4315625000  -3.523777e+001  -3.630868e+001 
4318750000  -3.561581e+001  -3.915000e+001 
4321875000  -3.569461e+001  -3.794151e+001 
4325000000  -3.501757e+001  -3.842380e+001 
4328125000  -3.443610e+001  -4.521573e+001 
4331250000  -3.421942e+001  -5.435040e+001 
4334375000  -3.467777e+001  -6.019376e+001 
4337500000  -3.564730e+001  -6.136665e+001 
4340625000  -3.598760e+001  -5.823967e+001 
4343750000  -3.512573e+001  -5.920835e+001 
4346875000  -3.464906e+001  -6.489201e+001 
4350000000  -3.450380e+001  -7.173730e+001 
4353125000  -3.461323e+001  -7.985553e+001 
4356250000  -3.650475e+001  -7.944045e+001 
4359375000  -3.680804e+001  -6.786127e+001 
4362500000  -3.358113e+001  -6.716219e+001 
4365625000  -3.213977e+001  -8.171447e+001 
4368750000  -3.318601e+001  -9.415634e+001 
4371875000  -3.411277e+001  -9.397511e+001 
4375000000  -3.369139e+001  -9.553720e+001 
4378125000  -3.303434e+001  -1.014408e+002 
4381250000  -3.314500e+001  -1.087794e+002 
4384375000  -3.296305e+001  -1.157228e+002 
4387500000  -3.382386e+001  -1.222266e+002 
4390625000  -3.467148e+001  -1.232970e+002 
4393750000  -3.408863e+001  -1.220028e+002 
4396875000  -3.347872e+001  -1.252981e+002 
4400000000  -3.288061e+001  -1.336383e+002 
4403125000  -3.368688e+001  -1.425721e+002 
4406250000  -3.452870e+001  -1.449827e+002 
4409375000  -3.458117e+001  -1.478861e+002 
4412500000  -3.608614e+001  -1.527800e+002 
4415625000  -3.611713e+001  -1.482680e+002 
