!Agilent Technologies,E8363B,MY43030201,A.06.04.32
!Agilent E8363B: A.06.04.32
!Date: Tuesday, November 11, 2014 21:05:26
!Correction: S21(Response(S21)) 
!S1P File: Measurement: S21:
# Hz S  dB   R 50
3000000000  -3.644458e+001  -4.822691e+001 
3003125000  -3.761194e+001  -5.424356e+001 
3006250000  -3.748088e+001  -5.717044e+001 
3009375000  -3.768491e+001  -5.167933e+001 
3012500000  -3.712149e+001  -5.420980e+001 
3015625000  -3.600304e+001  -6.144313e+001 
3018750000  -3.683195e+001  -6.272394e+001 
3021875000  -3.547295e+001  -6.216823e+001 
3025000000  -3.412596e+001  -6.555270e+001 
3028125000  -3.312456e+001  -7.187178e+001 
3031250000  -3.217041e+001  -8.298060e+001 
3034375000  -3.182831e+001  -9.716603e+001 
3037500000  -3.223576e+001  -1.084327e+002 
3040625000  -3.358268e+001  -1.133799e+002 
3043750000  -3.427043e+001  -1.185552e+002 
3046875000  -3.440049e+001  -1.247753e+002 
3050000000  -3.603728e+001  -1.301495e+002 
3053125000  -3.606126e+001  -1.255323e+002 
3056250000  -3.553431e+001  -1.224840e+002 
3059375000  -3.566510e+001  -1.220087e+002 
3062500000  -3.419248e+001  -1.257347e+002 
3065625000  -3.386347e+001  -1.312011e+002 
3068750000  -3.346889e+001  -1.385698e+002 
3071875000  -3.346258e+001  -1.416361e+002 
3075000000  -3.327258e+001  -1.453024e+002 
3078125000  -3.308252e+001  -1.493038e+002 
3081250000  -3.348781e+001  -1.542400e+002 
3084375000  -3.272635e+001  -1.574011e+002 
3087500000  -3.246139e+001  -1.612773e+002 
3090625000  -3.196537e+001  -1.717006e+002 
3093750000  -3.237427e+001  -1.787238e+002 
3096875000  -3.341219e+001  1.753015e+002 
3100000000  -3.337587e+001  1.733741e+002 
3103125000  -3.363284e+001  1.742911e+002 
3106250000  -3.318225e+001  1.699213e+002 
3109375000  -3.315808e+001  1.658950e+002 
3112500000  -3.326179e+001  1.636806e+002 
3115625000  -3.280574e+001  1.585589e+002 
3118750000  -3.322593e+001  1.591238e+002 
3121875000  -3.234233e+001  1.497386e+002 
3125000000  -3.344800e+001  1.453422e+002 
3128125000  -3.452787e+001  1.522048e+002 
3131250000  -3.202399e+001  1.507336e+002 
3134375000  -3.079738e+001  1.355014e+002 
3137500000  -3.129368e+001  1.216087e+002 
3140625000  -3.291961e+001  1.182470e+002 
3143750000  -3.377581e+001  1.201735e+002 
3146875000  -3.330696e+001  1.209380e+002 
3150000000  -3.234777e+001  1.207724e+002 
3153125000  -3.231465e+001  1.117738e+002 
3156250000  -3.331240e+001  1.166959e+002 
3159375000  -3.164642e+001  1.179082e+002 
3162500000  -2.977638e+001  1.030579e+002 
3165625000  -3.079210e+001  9.110690e+001 
3168750000  -3.100276e+001  9.110732e+001 
3171875000  -3.016967e+001  8.583855e+001 
3175000000  -3.090772e+001  7.689832e+001 
3178125000  -3.071310e+001  7.815438e+001 
3181250000  -2.961038e+001  7.236340e+001 
3184375000  -2.884467e+001  5.997382e+001 
3187500000  -3.017014e+001  4.421326e+001 
3190625000  -3.268265e+001  3.603905e+001 
3193750000  -3.348712e+001  4.477812e+001 
3196875000  -3.300776e+001  4.932652e+001 
3200000000  -3.203602e+001  4.657592e+001 
3203125000  -3.120893e+001  4.069410e+001 
3206250000  -3.158003e+001  3.430529e+001 
3209375000  -3.105182e+001  2.752837e+001 
3212500000  -3.133074e+001  2.109881e+001 
3215625000  -3.132716e+001  1.677722e+001 
3218750000  -3.222303e+001  9.996408e+000 
3221875000  -3.303037e+001  4.820209e+000 
3225000000  -3.258315e+001  4.015065e+000 
3228125000  -3.298408e+001  -2.862796e+000 
3231250000  -3.369814e+001  -4.601576e+000 
3234375000  -3.338111e+001  -4.517115e+000 
3237500000  -3.334256e+001  -6.698308e+000 
3240625000  -3.294468e+001  -9.128061e+000 
3243750000  -3.254311e+001  -1.684891e+001 
3246875000  -3.292948e+001  -2.323718e+001 
3250000000  -3.339457e+001  -2.630838e+001 
3253125000  -3.353098e+001  -2.806413e+001 
3256250000  -3.322198e+001  -3.513105e+001 
3259375000  -3.351439e+001  -4.394600e+001 
3262500000  -3.459513e+001  -4.729587e+001 
3265625000  -3.527914e+001  -4.434513e+001 
3268750000  -3.515103e+001  -4.266690e+001 
3271875000  -3.471864e+001  -4.309671e+001 
3275000000  -3.376702e+001  -5.013593e+001 
3278125000  -3.416735e+001  -5.653995e+001 
3281250000  -3.440715e+001  -5.543766e+001 
3284375000  -3.388792e+001  -6.181779e+001 
3287500000  -3.412072e+001  -6.567941e+001 
3290625000  -3.440288e+001  -7.123713e+001 
3293750000  -3.411848e+001  -7.758446e+001 
3296875000  -3.508501e+001  -7.861942e+001 
3300000000  -3.480428e+001  -7.755347e+001 
3303125000  -3.362803e+001  -8.258384e+001 
3306250000  -3.351317e+001  -8.972490e+001 
3309375000  -3.326036e+001  -9.605692e+001 
3312500000  -3.329102e+001  -1.072628e+002 
3315625000  -3.426686e+001  -1.148024e+002 
3318750000  -3.564993e+001  -1.170295e+002 
3321875000  -3.682168e+001  -1.182762e+002 
3325000000  -3.744508e+001  -1.131199e+002 
3328125000  -3.702565e+001  -1.122671e+002 
3331250000  -3.554396e+001  -1.060629e+002 
3334375000  -3.303511e+001  -1.169427e+002 
3337500000  -3.308271e+001  -1.360449e+002 
3340625000  -3.453406e+001  -1.470806e+002 
3343750000  -3.640098e+001  -1.475157e+002 
3346875000  -3.671165e+001  -1.460198e+002 
3350000000  -3.608619e+001  -1.483068e+002 
3353125000  -3.602348e+001  -1.524804e+002 
3356250000  -3.553014e+001  -1.611988e+002 
3359375000  -3.630352e+001  -1.692336e+002 
3362500000  -3.740158e+001  -1.746533e+002 
3365625000  -3.779929e+001  -1.762137e+002 
3368750000  -3.862045e+001  -1.780999e+002 
3371875000  -3.887986e+001  1.782532e+002 
3375000000  -4.036256e+001  1.764212e+002 
3378125000  -4.130772e+001  1.767890e+002 
3381250000  -4.252075e+001  -1.752885e+002 
3384375000  -4.106743e+001  -1.540598e+002 
3387500000  -3.764643e+001  -1.717556e+002 
3390625000  -3.935149e+001  1.707675e+002 
3393750000  -4.041416e+001  1.735927e+002 
3396875000  -3.910087e+001  1.746920e+002 
3400000000  -3.852844e+001  1.660175e+002 
3403125000  -3.918199e+001  1.607876e+002 
3406250000  -3.958808e+001  1.612494e+002 
3409375000  -3.971766e+001  1.524522e+002 
3412500000  -4.034504e+001  1.509402e+002 
3415625000  -4.108594e+001  1.526268e+002 
3418750000  -4.118455e+001  1.532888e+002 
3421875000  -4.121421e+001  1.558984e+002 
3425000000  -4.020055e+001  1.558224e+002 
3428125000  -3.943132e+001  1.524051e+002 
3431250000  -3.934431e+001  1.447514e+002 
3434375000  -3.920820e+001  1.390824e+002 
3437500000  -3.971103e+001  1.347916e+002 
3440625000  -4.005430e+001  1.362464e+002 
3443750000  -3.869386e+001  1.372408e+002 
3446875000  -3.797582e+001  1.295877e+002 
3450000000  -3.752623e+001  1.201527e+002 
3453125000  -3.797391e+001  1.099098e+002 
3456250000  -3.910025e+001  1.033666e+002 
3459375000  -4.021816e+001  1.037872e+002 
3462500000  -3.980434e+001  1.044290e+002 
3465625000  -3.979409e+001  9.949994e+001 
3468750000  -4.021935e+001  9.551058e+001 
3471875000  -4.010735e+001  9.243936e+001 
3475000000  -3.950581e+001  8.788412e+001 
3478125000  -4.047518e+001  8.036659e+001 
3481250000  -4.143892e+001  7.817414e+001 
3484375000  -4.219030e+001  8.228298e+001 
3487500000  -4.137513e+001  8.117719e+001 
3490625000  -4.076279e+001  7.650078e+001 
3493750000  -4.113424e+001  7.008647e+001 
3496875000  -4.193197e+001  6.817760e+001 
3500000000  -4.248869e+001  7.062042e+001 
3503125000  -4.189756e+001  7.397240e+001 
3506250000  -4.075067e+001  6.920090e+001 
3509375000  -4.047491e+001  6.032348e+001 
3512500000  -4.115391e+001  5.071968e+001 
3515625000  -4.196708e+001  4.849321e+001 
3518750000  -4.239203e+001  4.840373e+001 
3521875000  -4.221603e+001  4.453126e+001 
3525000000  -4.327823e+001  4.283963e+001 
3528125000  -4.326568e+001  4.871979e+001 
3531250000  -4.182050e+001  4.703333e+001 
3534375000  -4.216360e+001  3.822538e+001 
3537500000  -4.244670e+001  3.325617e+001 
3540625000  -4.339809e+001  3.100955e+001 
3543750000  -4.431559e+001  3.610450e+001 
3546875000  -4.409284e+001  4.888540e+001 
3550000000  -4.151674e+001  4.773457e+001 
3553125000  -4.016316e+001  3.017228e+001 
3556250000  -4.179609e+001  2.493672e+001 
3559375000  -4.137021e+001  2.599678e+001 
3562500000  -4.029797e+001  1.854182e+001 
3565625000  -4.129200e+001  1.016931e+001 
3568750000  -4.142230e+001  1.133679e+001 
3571875000  -4.121305e+001  1.002735e+001 
3575000000  -4.057155e+001  3.119928e+000 
3578125000  -4.141090e+001  -1.661334e+000 
3581250000  -4.126742e+001  -1.513541e+000 
3584375000  -4.081855e+001  -5.964531e+000 
3587500000  -4.009713e+001  -1.362655e+001 
3590625000  -4.060486e+001  -2.453093e+001 
3593750000  -4.193364e+001  -2.628707e+001 
3596875000  -4.160920e+001  -2.111247e+001 
3600000000  -4.042104e+001  -2.633702e+001 
3603125000  -4.074562e+001  -4.120658e+001 
3606250000  -4.135733e+001  -4.526506e+001 
3609375000  -4.215116e+001  -4.860283e+001 
3612500000  -4.267256e+001  -5.051712e+001 
3615625000  -4.306988e+001  -5.245333e+001 
3618750000  -4.376445e+001  -5.502649e+001 
3621875000  -4.384129e+001  -5.751702e+001 
3625000000  -4.424736e+001  -5.835843e+001 
3628125000  -4.446983e+001  -6.069487e+001 
3631250000  -4.416464e+001  -6.706007e+001 
3634375000  -4.568606e+001  -6.494899e+001 
3637500000  -4.569755e+001  -5.757447e+001 
3640625000  -4.476123e+001  -5.691824e+001 
3643750000  -4.437068e+001  -6.188817e+001 
3646875000  -4.502116e+001  -7.041702e+001 
3650000000  -4.582125e+001  -6.791808e+001 
3653125000  -4.544620e+001  -7.052184e+001 
3656250000  -4.589310e+001  -7.071291e+001 
3659375000  -4.575677e+001  -6.501083e+001 
3662500000  -4.518231e+001  -6.698010e+001 
3665625000  -4.457872e+001  -7.190131e+001 
3668750000  -4.392293e+001  -6.881180e+001 
3671875000  -4.265798e+001  -7.426284e+001 
3675000000  -4.296424e+001  -8.061414e+001 
3678125000  -4.316029e+001  -8.072278e+001 
3681250000  -4.296143e+001  -8.451493e+001 
3684375000  -4.298250e+001  -8.993754e+001 
3687500000  -4.332883e+001  -9.404363e+001 
3690625000  -4.295131e+001  -9.856010e+001 
3693750000  -4.396966e+001  -9.927343e+001 
3696875000  -4.361947e+001  -1.002704e+002 
3700000000  -4.265180e+001  -1.027364e+002 
3703125000  -4.305303e+001  -1.083335e+002 
3706250000  -4.387149e+001  -1.098389e+002 
3709375000  -4.342215e+001  -1.079758e+002 
3712500000  -4.215643e+001  -1.095804e+002 
3715625000  -4.164986e+001  -1.184378e+002 
3718750000  -4.112949e+001  -1.233914e+002 
3721875000  -4.122189e+001  -1.299746e+002 
3725000000  -4.146204e+001  -1.341050e+002 
3728125000  -4.208404e+001  -1.374047e+002 
3731250000  -4.150438e+001  -1.421790e+002 
3734375000  -4.116415e+001  -1.464314e+002 
3737500000  -4.198859e+001  -1.528237e+002 
3740625000  -4.356672e+001  -1.573819e+002 
3743750000  -4.332011e+001  -1.585404e+002 
3746875000  -4.330415e+001  -1.618827e+002 
3750000000  -4.394712e+001  -1.623493e+002 
3753125000  -4.407178e+001  -1.619907e+002 
3756250000  -4.415301e+001  -1.593363e+002 
3759375000  -4.452369e+001  -1.602786e+002 
3762500000  -4.445649e+001  -1.670472e+002 
3765625000  -4.480521e+001  -1.637464e+002 
3768750000  -4.504496e+001  -1.589745e+002 
3771875000  -4.335793e+001  -1.640689e+002 
3775000000  -4.287047e+001  -1.680333e+002 
3778125000  -4.340418e+001  -1.719888e+002 
3781250000  -4.308013e+001  -1.705112e+002 
3784375000  -4.274243e+001  -1.724298e+002 
3787500000  -4.203023e+001  -1.748769e+002 
3790625000  -4.241478e+001  -1.798629e+002 
3793750000  -4.243925e+001  1.797552e+002 
3796875000  -4.126105e+001  1.746237e+002 
3800000000  -3.980444e+001  1.722224e+002 
3803125000  -4.031553e+001  1.632165e+002 
3806250000  -4.099734e+001  1.587685e+002 
3809375000  -4.047854e+001  1.598923e+002 
3812500000  -3.973716e+001  1.531596e+002 
3815625000  -4.041362e+001  1.440061e+002 
3818750000  -4.146412e+001  1.411165e+002 
3821875000  -4.144769e+001  1.479736e+002 
3825000000  -3.933781e+001  1.509176e+002 
3828125000  -3.807065e+001  1.359926e+002 
3831250000  -3.872345e+001  1.209383e+002 
3834375000  -4.028144e+001  1.188028e+002 
3837500000  -4.115421e+001  1.240530e+002 
3840625000  -3.999100e+001  1.225580e+002 
3843750000  -3.889973e+001  1.112835e+002 
3846875000  -3.933032e+001  1.004794e+002 
3850000000  -4.072810e+001  1.060347e+002 
3853125000  -4.056042e+001  1.082811e+002 
3856250000  -4.026904e+001  1.031831e+002 
3859375000  -3.950847e+001  9.795253e+001 
3862500000  -3.955737e+001  9.040089e+001 
3865625000  -3.996492e+001  8.432069e+001 
3868750000  -3.965855e+001  8.305154e+001 
3871875000  -3.920979e+001  7.900745e+001 
3875000000  -3.948693e+001  7.030023e+001 
3878125000  -4.049367e+001  6.860027e+001 
3881250000  -4.054221e+001  6.927944e+001 
3884375000  -4.024197e+001  6.490377e+001 
3887500000  -4.058307e+001  6.295927e+001 
3890625000  -4.067389e+001  5.783942e+001 
3893750000  -4.121649e+001  5.745786e+001 
3896875000  -4.155803e+001  5.944104e+001 
3900000000  -4.161038e+001  5.897618e+001 
3903125000  -4.102667e+001  5.433246e+001 
3906250000  -4.035074e+001  5.190881e+001 
3909375000  -4.035098e+001  4.918969e+001 
3912500000  -4.019906e+001  4.148063e+001 
3915625000  -4.146566e+001  4.290803e+001 
3918750000  -4.128790e+001  4.337589e+001 
3921875000  -4.090432e+001  3.950743e+001 
3925000000  -3.987487e+001  3.761670e+001 
3928125000  -3.927783e+001  3.189166e+001 
3931250000  -3.958545e+001  2.665804e+001 
3934375000  -3.985452e+001  2.506635e+001 
3937500000  -4.001244e+001  2.473065e+001 
3940625000  -4.035133e+001  2.169768e+001 
3943750000  -3.942756e+001  2.331011e+001 
3946875000  -3.839304e+001  1.559718e+001 
3950000000  -3.902997e+001  8.017217e+000 
3953125000  -4.009748e+001  6.491618e+000 
3956250000  -3.905851e+001  8.403819e+000 
3959375000  -3.760457e+001  5.152287e+000 
3962500000  -3.717065e+001  -2.895024e-001 
3965625000  -3.718354e+001  -1.342119e+001 
3968750000  -3.833088e+001  -1.685478e+001 
3971875000  -3.818876e+001  -2.205730e+001 
3975000000  -3.774889e+001  -2.419593e+001 
3978125000  -3.777146e+001  -2.716080e+001 
3981250000  -3.764904e+001  -3.242077e+001 
3984375000  -3.768572e+001  -3.907156e+001 
3987500000  -3.853555e+001  -4.037112e+001 
3990625000  -3.857400e+001  -4.355210e+001 
3993750000  -3.913494e+001  -4.732681e+001 
3996875000  -3.881467e+001  -5.164260e+001 
4000000000  -3.932066e+001  -5.364954e+001 
4003125000  -3.969111e+001  -5.071093e+001 
4006250000  -3.852995e+001  -5.229420e+001 
4009375000  -3.725382e+001  -6.549259e+001 
4012500000  -3.880638e+001  -7.370288e+001 
4015625000  -4.012019e+001  -7.188588e+001 
4018750000  -3.990689e+001  -7.141588e+001 
4021875000  -3.929052e+001  -7.181178e+001 
4025000000  -3.915649e+001  -7.630340e+001 
4028125000  -3.918768e+001  -7.892300e+001 
4031250000  -3.971922e+001  -8.503414e+001 
4034375000  -3.980200e+001  -8.510434e+001 
4037500000  -3.922343e+001  -8.461826e+001 
4040625000  -3.917089e+001  -8.702259e+001 
4043750000  -3.957703e+001  -8.914606e+001 
4046875000  -3.901628e+001  -9.088214e+001 
4050000000  -3.850940e+001  -9.576215e+001 
4053125000  -3.888282e+001  -9.785580e+001 
4056250000  -3.970732e+001  -9.430379e+001 
4059375000  -3.826500e+001  -9.291383e+001 
4062500000  -3.684919e+001  -9.948929e+001 
4065625000  -3.659935e+001  -1.039974e+002 
4068750000  -3.624674e+001  -1.096290e+002 
4071875000  -3.555314e+001  -1.188918e+002 
4075000000  -3.603321e+001  -1.254627e+002 
4078125000  -3.665334e+001  -1.276603e+002 
4081250000  -3.606383e+001  -1.305418e+002 
4084375000  -3.563544e+001  -1.393309e+002 
4087500000  -3.594848e+001  -1.460959e+002 
4090625000  -3.675183e+001  -1.473483e+002 
4093750000  -3.640040e+001  -1.488833e+002 
4096875000  -3.603876e+001  -1.562076e+002 
4100000000  -3.690859e+001  -1.638619e+002 
4103125000  -3.766653e+001  -1.621605e+002 
4106250000  -3.738219e+001  -1.594020e+002 
4109375000  -3.640729e+001  -1.608495e+002 
4112500000  -3.611463e+001  -1.700609e+002 
4115625000  -3.631805e+001  -1.738239e+002 
4118750000  -3.688837e+001  -1.781314e+002 
4121875000  -3.621424e+001  1.759639e+002 
4125000000  -3.675264e+001  1.704579e+002 
4128125000  -3.774348e+001  1.703977e+002 
4131250000  -3.767579e+001  1.778990e+002 
4134375000  -3.522700e+001  1.716284e+002 
4137500000  -3.512134e+001  1.514810e+002 
4140625000  -3.735519e+001  1.441528e+002 
4143750000  -3.884631e+001  1.490518e+002 
4146875000  -3.847868e+001  1.547360e+002 
4150000000  -3.764289e+001  1.513878e+002 
4153125000  -3.763485e+001  1.427422e+002 
4156250000  -3.834840e+001  1.403103e+002 
4159375000  -3.852382e+001  1.453188e+002 
4162500000  -3.789489e+001  1.492743e+002 
4165625000  -3.688576e+001  1.448026e+002 
4168750000  -3.611859e+001  1.366039e+002 
4171875000  -3.607854e+001  1.257694e+002 
4175000000  -3.676722e+001  1.224730e+002 
4178125000  -3.741603e+001  1.224423e+002 
4181250000  -3.704922e+001  1.206178e+002 
4184375000  -3.690991e+001  1.165265e+002 
4187500000  -3.689257e+001  1.144497e+002 
4190625000  -3.670150e+001  1.082533e+002 
4193750000  -3.740215e+001  1.041949e+002 
4196875000  -3.815390e+001  1.021571e+002 
4200000000  -3.899446e+001  1.048004e+002 
4203125000  -3.867625e+001  1.185524e+002 
4206250000  -3.530148e+001  1.186632e+002 
4209375000  -3.423176e+001  9.520042e+001 
4212500000  -3.616085e+001  8.746379e+001 
4215625000  -3.705363e+001  9.324158e+001 
4218750000  -3.552392e+001  9.854774e+001 
4221875000  -3.342511e+001  8.788824e+001 
4225000000  -3.450759e+001  7.551510e+001 
4228125000  -3.505051e+001  7.816053e+001 
4231250000  -3.341272e+001  7.316702e+001 
4234375000  -3.354960e+001  6.496974e+001 
4237500000  -3.292073e+001  5.979977e+001 
4240625000  -3.284856e+001  4.941638e+001 
4243750000  -3.401268e+001  4.173752e+001 
4246875000  -3.485851e+001  4.195752e+001 
4250000000  -3.503687e+001  4.285983e+001 
4253125000  -3.427044e+001  3.955328e+001 
4256250000  -3.492479e+001  3.504494e+001 
4259375000  -3.442652e+001  3.088864e+001 
4262500000  -3.464346e+001  2.540751e+001 
4265625000  -3.458665e+001  2.604967e+001 
4268750000  -3.388349e+001  2.012224e+001 
4271875000  -3.380392e+001  1.261027e+001 
4275000000  -3.318108e+001  5.149022e+000 
4278125000  -3.409420e+001  -6.539015e+000 
4281250000  -3.589708e+001  -1.029442e+001 
4284375000  -3.578124e+001  -8.623900e+000 
4287500000  -3.668008e+001  -1.282584e+001 
4290625000  -3.809174e+001  -3.264648e+000 
4293750000  -3.611562e+001  -3.836403e-001 
4296875000  -3.507162e+001  -1.043887e+001 
4300000000  -3.602286e+001  -2.079413e+001 
4303125000  -3.713217e+001  -1.817563e+001 
4306250000  -3.645861e+001  -1.161658e+001 
4309375000  -3.535354e+001  -1.454938e+001 
4312500000  -3.491257e+001  -2.253127e+001 
4315625000  -3.508417e+001  -2.781124e+001 
4318750000  -3.554086e+001  -3.086776e+001 
4321875000  -3.563072e+001  -3.135762e+001 
4325000000  -3.489832e+001  -3.073293e+001 
4328125000  -3.429247e+001  -3.702224e+001 
4331250000  -3.422951e+001  -4.681417e+001 
4334375000  -3.456786e+001  -5.041732e+001 
4337500000  -3.543266e+001  -5.319027e+001 
4340625000  -3.566854e+001  -5.085545e+001 
4343750000  -3.491210e+001  -5.127046e+001 
4346875000  -3.452102e+001  -5.715036e+001 
4350000000  -3.452533e+001  -6.273534e+001 
4353125000  -3.431539e+001  -7.151632e+001 
4356250000  -3.614176e+001  -7.214589e+001 
4359375000  -3.641846e+001  -5.890087e+001 
4362500000  -3.359626e+001  -6.018457e+001 
4365625000  -3.201192e+001  -7.360626e+001 
4368750000  -3.265776e+001  -8.640878e+001 
4371875000  -3.391557e+001  -8.646811e+001 
4375000000  -3.326918e+001  -8.842303e+001 
4378125000  -3.259970e+001  -9.395744e+001 
4381250000  -3.284647e+001  -1.016076e+002 
4384375000  -3.255510e+001  -1.066870e+002 
4387500000  -3.346231e+001  -1.143707e+002 
4390625000  -3.433875e+001  -1.156154e+002 
4393750000  -3.373033e+001  -1.138953e+002 
4396875000  -3.322451e+001  -1.177383e+002 
4400000000  -3.261998e+001  -1.272230e+002 
4403125000  -3.316091e+001  -1.356139e+002 
4406250000  -3.414080e+001  -1.374491e+002 
4409375000  -3.415395e+001  -1.423430e+002 
4412500000  -3.545502e+001  -1.453776e+002 
4415625000  -3.560814e+001  -1.405895e+002 
