!Agilent Technologies,E8363B,MY43030201,A.06.04.32
!Agilent E8363B: A.06.04.32
!Date: Tuesday, November 11, 2014 21:03:59
!Correction: S21(Response(S21)) 
!S1P File: Measurement: S21:
# Hz S  dB   R 50
3000000000  -3.649821e+001  -4.645987e+001 
3003125000  -3.759842e+001  -5.222532e+001 
3006250000  -3.735474e+001  -5.529048e+001 
3009375000  -3.778820e+001  -4.983314e+001 
3012500000  -3.695483e+001  -5.217368e+001 
3015625000  -3.608165e+001  -5.920698e+001 
3018750000  -3.677682e+001  -6.074635e+001 
3021875000  -3.541602e+001  -6.006276e+001 
3025000000  -3.410008e+001  -6.376627e+001 
3028125000  -3.318342e+001  -6.987890e+001 
3031250000  -3.213317e+001  -8.132001e+001 
3034375000  -3.175394e+001  -9.509358e+001 
3037500000  -3.215645e+001  -1.070614e+002 
3040625000  -3.349544e+001  -1.121786e+002 
3043750000  -3.416101e+001  -1.163394e+002 
3046875000  -3.435428e+001  -1.224021e+002 
3050000000  -3.603126e+001  -1.297045e+002 
3053125000  -3.599201e+001  -1.236378e+002 
3056250000  -3.553824e+001  -1.206712e+002 
3059375000  -3.566452e+001  -1.204534e+002 
3062500000  -3.418028e+001  -1.240480e+002 
3065625000  -3.383519e+001  -1.308165e+002 
3068750000  -3.355339e+001  -1.374419e+002 
3071875000  -3.341129e+001  -1.398033e+002 
3075000000  -3.320776e+001  -1.440442e+002 
3078125000  -3.304132e+001  -1.476254e+002 
3081250000  -3.343119e+001  -1.520784e+002 
3084375000  -3.266480e+001  -1.555752e+002 
3087500000  -3.249086e+001  -1.592146e+002 
3090625000  -3.187684e+001  -1.693185e+002 
3093750000  -3.236428e+001  -1.769215e+002 
3096875000  -3.351223e+001  1.772912e+002 
3100000000  -3.339086e+001  1.750163e+002 
3103125000  -3.354773e+001  1.756183e+002 
3106250000  -3.319406e+001  1.715663e+002 
3109375000  -3.332883e+001  1.672566e+002 
3112500000  -3.312689e+001  1.650364e+002 
3115625000  -3.278646e+001  1.604876e+002 
3118750000  -3.316970e+001  1.606632e+002 
3121875000  -3.226704e+001  1.513650e+002 
3125000000  -3.349910e+001  1.473865e+002 
3128125000  -3.448099e+001  1.539554e+002 
3131250000  -3.203568e+001  1.525771e+002 
3134375000  -3.081692e+001  1.375527e+002 
3137500000  -3.130099e+001  1.224545e+002 
3140625000  -3.271250e+001  1.202051e+002 
3143750000  -3.385533e+001  1.221064e+002 
3146875000  -3.335133e+001  1.229190e+002 
3150000000  -3.236030e+001  1.230436e+002 
3153125000  -3.227349e+001  1.138523e+002 
3156250000  -3.332014e+001  1.184659e+002 
3159375000  -3.159547e+001  1.199279e+002 
3162500000  -2.965043e+001  1.055843e+002 
3165625000  -3.066987e+001  9.313360e+001 
3168750000  -3.103499e+001  9.326869e+001 
3171875000  -3.014154e+001  8.760137e+001 
3175000000  -3.083817e+001  7.900478e+001 
3178125000  -3.066673e+001  7.944266e+001 
3181250000  -2.952429e+001  7.438403e+001 
3184375000  -2.884997e+001  6.165043e+001 
3187500000  -2.994324e+001  4.646677e+001 
3190625000  -3.273792e+001  3.824097e+001 
3193750000  -3.332574e+001  4.621170e+001 
3196875000  -3.294634e+001  5.160397e+001 
3200000000  -3.192419e+001  4.822209e+001 
3203125000  -3.128480e+001  4.215743e+001 
3206250000  -3.147833e+001  3.522351e+001 
3209375000  -3.110598e+001  2.969397e+001 
3212500000  -3.126796e+001  2.248130e+001 
3215625000  -3.136272e+001  1.846649e+001 
3218750000  -3.214479e+001  1.121361e+001 
3221875000  -3.292345e+001  5.804336e+000 
3225000000  -3.258801e+001  4.869215e+000 
3228125000  -3.291437e+001  -2.543381e-001 
3231250000  -3.360061e+001  -2.430771e+000 
3234375000  -3.340473e+001  -2.656014e+000 
3237500000  -3.337572e+001  -4.998262e+000 
3240625000  -3.296932e+001  -7.301098e+000 
3243750000  -3.256533e+001  -1.489121e+001 
3246875000  -3.292421e+001  -2.185399e+001 
3250000000  -3.339019e+001  -2.418023e+001 
3253125000  -3.346460e+001  -2.676226e+001 
3256250000  -3.322438e+001  -3.339961e+001 
3259375000  -3.339783e+001  -4.154420e+001 
3262500000  -3.457502e+001  -4.572782e+001 
3265625000  -3.537259e+001  -4.322604e+001 
3268750000  -3.508537e+001  -4.068969e+001 
3271875000  -3.481336e+001  -4.110056e+001 
3275000000  -3.375293e+001  -4.741050e+001 
3278125000  -3.420776e+001  -5.449242e+001 
3281250000  -3.438409e+001  -5.348778e+001 
3284375000  -3.393699e+001  -6.005330e+001 
3287500000  -3.409593e+001  -6.384764e+001 
3290625000  -3.435215e+001  -6.979419e+001 
3293750000  -3.409909e+001  -7.568871e+001 
3296875000  -3.516148e+001  -7.634149e+001 
3300000000  -3.494222e+001  -7.637599e+001 
3303125000  -3.373964e+001  -8.084011e+001 
3306250000  -3.355112e+001  -8.822910e+001 
3309375000  -3.325201e+001  -9.405103e+001 
3312500000  -3.333146e+001  -1.051138e+002 
3315625000  -3.427690e+001  -1.134301e+002 
3318750000  -3.578127e+001  -1.153510e+002 
3321875000  -3.681600e+001  -1.170513e+002 
3325000000  -3.720516e+001  -1.104716e+002 
3328125000  -3.704536e+001  -1.106916e+002 
3331250000  -3.565501e+001  -1.041994e+002 
3334375000  -3.299644e+001  -1.140485e+002 
3337500000  -3.308785e+001  -1.338009e+002 
3340625000  -3.444173e+001  -1.451226e+002 
3343750000  -3.635503e+001  -1.459263e+002 
3346875000  -3.667596e+001  -1.431731e+002 
3350000000  -3.595958e+001  -1.457277e+002 
3353125000  -3.599617e+001  -1.497239e+002 
3356250000  -3.543401e+001  -1.587578e+002 
3359375000  -3.632137e+001  -1.674682e+002 
3362500000  -3.738702e+001  -1.731210e+002 
3365625000  -3.789993e+001  -1.743295e+002 
3368750000  -3.865185e+001  -1.772567e+002 
3371875000  -3.883478e+001  -1.795057e+002 
3375000000  -4.031993e+001  1.781931e+002 
3378125000  -4.096528e+001  1.777874e+002 
3381250000  -4.217223e+001  -1.737704e+002 
3384375000  -4.118139e+001  -1.533678e+002 
3387500000  -3.739886e+001  -1.690598e+002 
3390625000  -3.900522e+001  1.712109e+002 
3393750000  -4.042638e+001  1.755099e+002 
3396875000  -3.922681e+001  1.771273e+002 
3400000000  -3.854671e+001  1.689671e+002 
3403125000  -3.917885e+001  1.619501e+002 
3406250000  -3.940981e+001  1.632633e+002 
3409375000  -3.966952e+001  1.545069e+002 
3412500000  -4.022886e+001  1.521608e+002 
3415625000  -4.110463e+001  1.545307e+002 
3418750000  -4.107248e+001  1.540602e+002 
3421875000  -4.138999e+001  1.572557e+002 
3425000000  -4.021830e+001  1.589394e+002 
3428125000  -3.930905e+001  1.537402e+002 
3431250000  -3.927652e+001  1.475947e+002 
3434375000  -3.905598e+001  1.414001e+002 
3437500000  -3.974279e+001  1.373553e+002 
3440625000  -4.007875e+001  1.389707e+002 
3443750000  -3.869919e+001  1.388783e+002 
3446875000  -3.788966e+001  1.321819e+002 
3450000000  -3.756192e+001  1.213335e+002 
3453125000  -3.791922e+001  1.126875e+002 
3456250000  -3.913062e+001  1.059163e+002 
3459375000  -3.980526e+001  1.064045e+002 
3462500000  -3.971687e+001  1.069320e+002 
3465625000  -3.995272e+001  9.999207e+001 
3468750000  -4.011542e+001  9.800528e+001 
3471875000  -3.994098e+001  9.479956e+001 
3475000000  -3.966652e+001  8.976830e+001 
3478125000  -4.014008e+001  8.248071e+001 
3481250000  -4.086411e+001  7.975594e+001 
3484375000  -4.218799e+001  8.385149e+001 
3487500000  -4.142605e+001  8.443871e+001 
3490625000  -4.059529e+001  7.909036e+001 
3493750000  -4.123176e+001  7.245393e+001 
3496875000  -4.153507e+001  7.098864e+001 
3500000000  -4.223555e+001  7.234846e+001 
3503125000  -4.173742e+001  7.387672e+001 
3506250000  -4.056609e+001  7.074396e+001 
3509375000  -4.047709e+001  6.141549e+001 
3512500000  -4.110294e+001  5.156822e+001 
3515625000  -4.174729e+001  4.905165e+001 
3518750000  -4.255990e+001  4.853236e+001 
3521875000  -4.247718e+001  4.744079e+001 
3525000000  -4.317959e+001  4.357854e+001 
3528125000  -4.359468e+001  5.237486e+001 
3531250000  -4.185982e+001  4.993678e+001 
3534375000  -4.219434e+001  3.871946e+001 
3537500000  -4.251762e+001  3.366353e+001 
3540625000  -4.380962e+001  3.155720e+001 
3543750000  -4.452028e+001  3.807270e+001 
3546875000  -4.443965e+001  5.048057e+001 
3550000000  -4.152768e+001  5.004070e+001 
3553125000  -4.018537e+001  3.190622e+001 
3556250000  -4.164124e+001  2.839329e+001 
3559375000  -4.171831e+001  2.772916e+001 
3562500000  -4.034562e+001  1.913596e+001 
3565625000  -4.124741e+001  1.206549e+001 
3568750000  -4.151072e+001  1.450133e+001 
3571875000  -4.134367e+001  1.325641e+001 
3575000000  -4.070838e+001  6.429950e+000 
3578125000  -4.123303e+001  3.320238e-001 
3581250000  -4.128821e+001  2.567272e+000 
3584375000  -4.035313e+001  -2.453401e+000 
3587500000  -3.988166e+001  -1.242377e+001 
3590625000  -4.058280e+001  -2.227134e+001 
3593750000  -4.198415e+001  -2.405893e+001 
3596875000  -4.166681e+001  -1.906346e+001 
3600000000  -4.016142e+001  -2.329485e+001 
3603125000  -4.059926e+001  -3.824087e+001 
3606250000  -4.172478e+001  -4.264237e+001 
3609375000  -4.209121e+001  -4.483600e+001 
3612500000  -4.273133e+001  -4.806003e+001 
3615625000  -4.291312e+001  -5.170676e+001 
3618750000  -4.381381e+001  -5.163520e+001 
3621875000  -4.352961e+001  -5.540104e+001 
3625000000  -4.444346e+001  -5.665508e+001 
3628125000  -4.412954e+001  -5.783832e+001 
3631250000  -4.395147e+001  -6.263992e+001 
3634375000  -4.485671e+001  -6.325916e+001 
3637500000  -4.545365e+001  -5.835647e+001 
3640625000  -4.455559e+001  -5.580245e+001 
3643750000  -4.455207e+001  -6.215922e+001 
3646875000  -4.483176e+001  -6.958727e+001 
3650000000  -4.603984e+001  -6.995994e+001 
3653125000  -4.539637e+001  -6.982584e+001 
3656250000  -4.582084e+001  -6.616966e+001 
3659375000  -4.620206e+001  -6.629823e+001 
3662500000  -4.500084e+001  -6.822057e+001 
3665625000  -4.495828e+001  -6.721838e+001 
3668750000  -4.367411e+001  -6.845743e+001 
3671875000  -4.317345e+001  -7.323545e+001 
3675000000  -4.341216e+001  -7.910208e+001 
3678125000  -4.352238e+001  -8.276802e+001 
3681250000  -4.355114e+001  -8.228428e+001 
3684375000  -4.305569e+001  -8.788982e+001 
3687500000  -4.364403e+001  -9.035099e+001 
3690625000  -4.291867e+001  -9.421332e+001 
3693750000  -4.437256e+001  -9.730964e+001 
3696875000  -4.427279e+001  -9.342282e+001 
3700000000  -4.294003e+001  -1.013838e+002 
3703125000  -4.313356e+001  -1.064955e+002 
3706250000  -4.417218e+001  -1.065284e+002 
3709375000  -4.344885e+001  -1.031861e+002 
3712500000  -4.248248e+001  -1.076991e+002 
3715625000  -4.158818e+001  -1.137937e+002 
3718750000  -4.149268e+001  -1.195856e+002 
3721875000  -4.144081e+001  -1.260388e+002 
3725000000  -4.151122e+001  -1.343526e+002 
3728125000  -4.198758e+001  -1.341401e+002 
3731250000  -4.149718e+001  -1.359790e+002 
3734375000  -4.123177e+001  -1.424259e+002 
3737500000  -4.181676e+001  -1.487789e+002 
3740625000  -4.319586e+001  -1.546858e+002 
3743750000  -4.334157e+001  -1.554489e+002 
3746875000  -4.380613e+001  -1.599682e+002 
3750000000  -4.377629e+001  -1.615975e+002 
3753125000  -4.412040e+001  -1.604509e+002 
3756250000  -4.429819e+001  -1.594187e+002 
3759375000  -4.401450e+001  -1.633472e+002 
3762500000  -4.405823e+001  -1.625996e+002 
3765625000  -4.472007e+001  -1.626993e+002 
3768750000  -4.447929e+001  -1.596607e+002 
3771875000  -4.284889e+001  -1.604005e+002 
3775000000  -4.311985e+001  -1.674077e+002 
3778125000  -4.331227e+001  -1.684924e+002 
3781250000  -4.285585e+001  -1.705120e+002 
3784375000  -4.290491e+001  -1.711403e+002 
3787500000  -4.216034e+001  -1.740550e+002 
3790625000  -4.232092e+001  -1.799564e+002 
3793750000  -4.252773e+001  -1.786973e+002 
3796875000  -4.114494e+001  1.782367e+002 
3800000000  -3.986962e+001  1.756451e+002 
3803125000  -4.016898e+001  1.654103e+002 
3806250000  -4.115585e+001  1.642519e+002 
3809375000  -4.078250e+001  1.614051e+002 
3812500000  -3.993546e+001  1.550777e+002 
3815625000  -4.041475e+001  1.455254e+002 
3818750000  -4.143847e+001  1.439060e+002 
3821875000  -4.130135e+001  1.513112e+002 
3825000000  -3.944647e+001  1.548065e+002 
3828125000  -3.824284e+001  1.385082e+002 
3831250000  -3.848322e+001  1.246327e+002 
3834375000  -4.012657e+001  1.223990e+002 
3837500000  -4.117075e+001  1.260803e+002 
3840625000  -4.008261e+001  1.252589e+002 
3843750000  -3.884339e+001  1.122693e+002 
3846875000  -3.981735e+001  1.056430e+002 
3850000000  -4.108816e+001  1.106783e+002 
3853125000  -4.025549e+001  1.113922e+002 
3856250000  -4.025963e+001  1.057488e+002 
3859375000  -3.962356e+001  1.014373e+002 
3862500000  -3.935990e+001  9.299160e+001 
3865625000  -3.968317e+001  8.761295e+001 
3868750000  -3.955210e+001  8.623965e+001 
3871875000  -3.915562e+001  8.292332e+001 
3875000000  -3.944677e+001  7.362814e+001 
3878125000  -4.050064e+001  7.073262e+001 
3881250000  -4.041574e+001  7.301130e+001 
3884375000  -4.012456e+001  7.040199e+001 
3887500000  -4.017003e+001  6.453422e+001 
3890625000  -4.085171e+001  6.225784e+001 
3893750000  -4.094173e+001  6.157491e+001 
3896875000  -4.138435e+001  6.013073e+001 
3900000000  -4.142915e+001  5.679957e+001 
3903125000  -4.113183e+001  5.829747e+001 
3906250000  -4.089366e+001  5.406014e+001 
3909375000  -3.992870e+001  5.176233e+001 
3912500000  -4.003217e+001  4.380493e+001 
3915625000  -4.172883e+001  4.368956e+001 
3918750000  -4.102312e+001  4.581880e+001 
3921875000  -4.062736e+001  4.158328e+001 
3925000000  -3.977751e+001  3.838719e+001 
3928125000  -3.959546e+001  3.489640e+001 
3931250000  -3.940759e+001  2.786215e+001 
3934375000  -3.993056e+001  2.887508e+001 
3937500000  -3.997275e+001  2.479868e+001 
3940625000  -4.049825e+001  2.370312e+001 
3943750000  -3.965287e+001  2.411844e+001 
3946875000  -3.831656e+001  1.915670e+001 
3950000000  -3.910918e+001  9.406843e+000 
3953125000  -4.001651e+001  5.812815e+000 
3956250000  -3.899448e+001  1.069438e+001 
3959375000  -3.801941e+001  7.270094e+000 
3962500000  -3.728615e+001  1.538820e+000 
3965625000  -3.738574e+001  -7.972468e+000 
3968750000  -3.853206e+001  -1.582883e+001 
3971875000  -3.854115e+001  -1.732811e+001 
3975000000  -3.796277e+001  -1.926105e+001 
3978125000  -3.792758e+001  -2.444385e+001 
3981250000  -3.775285e+001  -2.829993e+001 
3984375000  -3.809739e+001  -3.453018e+001 
3987500000  -3.879862e+001  -3.775399e+001 
3990625000  -3.867180e+001  -3.894752e+001 
3993750000  -3.893798e+001  -4.433822e+001 
3996875000  -3.881417e+001  -4.628014e+001 
4000000000  -3.908705e+001  -4.757746e+001 
4003125000  -3.971821e+001  -4.857119e+001 
4006250000  -3.822600e+001  -4.785602e+001 
4009375000  -3.726866e+001  -6.101743e+001 
4012500000  -3.839524e+001  -6.819242e+001 
4015625000  -3.976847e+001  -6.879676e+001 
4018750000  -4.005617e+001  -6.557861e+001 
4021875000  -3.923898e+001  -6.774532e+001 
4025000000  -3.868885e+001  -7.438236e+001 
4028125000  -3.878301e+001  -7.937514e+001 
4031250000  -3.922304e+001  -8.204467e+001 
4034375000  -3.941846e+001  -8.440673e+001 
4037500000  -3.897084e+001  -8.110241e+001 
4040625000  -3.908128e+001  -8.663264e+001 
4043750000  -3.933274e+001  -8.647585e+001 
4046875000  -3.886443e+001  -8.803258e+001 
4050000000  -3.814497e+001  -9.475491e+001 
4053125000  -3.892458e+001  -9.527224e+001 
4056250000  -3.947784e+001  -9.171722e+001 
4059375000  -3.834480e+001  -9.188310e+001 
4062500000  -3.674637e+001  -9.799950e+001 
4065625000  -3.663555e+001  -1.024437e+002 
4068750000  -3.638886e+001  -1.085376e+002 
4071875000  -3.576953e+001  -1.162642e+002 
4075000000  -3.619182e+001  -1.235973e+002 
4078125000  -3.666912e+001  -1.270731e+002 
4081250000  -3.615221e+001  -1.282845e+002 
4084375000  -3.574488e+001  -1.374265e+002 
4087500000  -3.603650e+001  -1.440375e+002 
4090625000  -3.686549e+001  -1.442349e+002 
4093750000  -3.654271e+001  -1.458474e+002 
4096875000  -3.610016e+001  -1.542391e+002 
4100000000  -3.697677e+001  -1.610871e+002 
4103125000  -3.787557e+001  -1.611180e+002 
4106250000  -3.768992e+001  -1.561052e+002 
4109375000  -3.656179e+001  -1.578694e+002 
4112500000  -3.628577e+001  -1.659769e+002 
4115625000  -3.647228e+001  -1.710330e+002 
4118750000  -3.683947e+001  -1.745543e+002 
4121875000  -3.631847e+001  1.796801e+002 
4125000000  -3.669173e+001  1.748170e+002 
4128125000  -3.782040e+001  1.733406e+002 
4131250000  -3.746510e+001  -1.781784e+002 
4134375000  -3.517931e+001  1.760451e+002 
4137500000  -3.507718e+001  1.551074e+002 
4140625000  -3.727419e+001  1.479598e+002 
4143750000  -3.874900e+001  1.532222e+002 
4146875000  -3.823151e+001  1.582033e+002 
4150000000  -3.739425e+001  1.543809e+002 
4153125000  -3.719076e+001  1.467891e+002 
4156250000  -3.827502e+001  1.441068e+002 
4159375000  -3.848764e+001  1.494987e+002 
4162500000  -3.750277e+001  1.521364e+002 
4165625000  -3.633863e+001  1.480563e+002 
4168750000  -3.561362e+001  1.399449e+002 
4171875000  -3.561125e+001  1.310392e+002 
4175000000  -3.652157e+001  1.256186e+002 
4178125000  -3.687040e+001  1.236375e+002 
4181250000  -3.671366e+001  1.235701e+002 
4184375000  -3.677158e+001  1.190211e+002 
4187500000  -3.665924e+001  1.167041e+002 
4190625000  -3.657895e+001  1.103451e+002 
4193750000  -3.715245e+001  1.063157e+002 
4196875000  -3.792809e+001  1.049277e+002 
4200000000  -3.875585e+001  1.064010e+002 
4203125000  -3.876884e+001  1.172983e+002 
4206250000  -3.518214e+001  1.206556e+002 
4209375000  -3.419425e+001  9.727071e+001 
4212500000  -3.610578e+001  8.980948e+001 
4215625000  -3.711088e+001  9.632043e+001 
4218750000  -3.567152e+001  1.001681e+002 
4221875000  -3.334749e+001  9.042905e+001 
4225000000  -3.446618e+001  7.733597e+001 
4228125000  -3.526981e+001  8.035753e+001 
4231250000  -3.350296e+001  7.659299e+001 
4234375000  -3.325731e+001  6.777080e+001 
4237500000  -3.298878e+001  6.237324e+001 
4240625000  -3.307523e+001  5.255828e+001 
4243750000  -3.408013e+001  4.564140e+001 
4246875000  -3.489139e+001  4.454481e+001 
4250000000  -3.502974e+001  4.538635e+001 
4253125000  -3.450087e+001  4.284056e+001 
4256250000  -3.481419e+001  3.656502e+001 
4259375000  -3.447519e+001  3.475306e+001 
4262500000  -3.480783e+001  2.976262e+001 
4265625000  -3.478393e+001  2.841199e+001 
4268750000  -3.388171e+001  2.407729e+001 
4271875000  -3.370869e+001  1.677335e+001 
4275000000  -3.344070e+001  9.547088e+000 
4278125000  -3.407546e+001  -1.921199e+000 
4281250000  -3.598743e+001  -3.475096e+000 
4284375000  -3.580111e+001  -4.717679e+000 
4287500000  -3.659223e+001  -8.952796e+000 
4290625000  -3.795126e+001  -5.950869e-001 
4293750000  -3.610814e+001  6.392121e+000 
4296875000  -3.466297e+001  -5.484727e+000 
4300000000  -3.568247e+001  -1.540762e+001 
4303125000  -3.678011e+001  -1.388547e+001 
4306250000  -3.615891e+001  -8.900543e+000 
4309375000  -3.483252e+001  -1.058638e+001 
4312500000  -3.459653e+001  -1.917477e+001 
4315625000  -3.474475e+001  -2.547560e+001 
4318750000  -3.510668e+001  -2.841530e+001 
4321875000  -3.521211e+001  -2.823602e+001 
4325000000  -3.457248e+001  -2.802260e+001 
4328125000  -3.407497e+001  -3.516353e+001 
4331250000  -3.381280e+001  -4.381591e+001 
4334375000  -3.424583e+001  -4.958848e+001 
4337500000  -3.501305e+001  -5.121302e+001 
4340625000  -3.559856e+001  -4.864863e+001 
4343750000  -3.473481e+001  -4.966113e+001 
4346875000  -3.424945e+001  -5.550309e+001 
4350000000  -3.416425e+001  -6.097862e+001 
4353125000  -3.404593e+001  -6.986880e+001 
4356250000  -3.591821e+001  -7.087800e+001 
4359375000  -3.631964e+001  -5.931598e+001 
4362500000  -3.334737e+001  -5.868999e+001 
4365625000  -3.192348e+001  -7.247883e+001 
4368750000  -3.253627e+001  -8.412368e+001 
4371875000  -3.377481e+001  -8.567576e+001 
4375000000  -3.326902e+001  -8.538921e+001 
4378125000  -3.266352e+001  -9.202313e+001 
4381250000  -3.275657e+001  -9.894248e+001 
4384375000  -3.256028e+001  -1.056510e+002 
4387500000  -3.327667e+001  -1.136272e+002 
4390625000  -3.427321e+001  -1.123804e+002 
4393750000  -3.379564e+001  -1.113613e+002 
4396875000  -3.299412e+001  -1.157100e+002 
4400000000  -3.261725e+001  -1.237840e+002 
4403125000  -3.318226e+001  -1.326576e+002 
4406250000  -3.418795e+001  -1.353797e+002 
4409375000  -3.428275e+001  -1.379306e+002 
4412500000  -3.534418e+001  -1.425900e+002 
4415625000  -3.559464e+001  -1.374818e+002 
