!Agilent Technologies,E8363B,MY43030201,A.06.04.32
!Agilent E8363B: A.06.04.32
!Date: Tuesday, November 11, 2014 21:09:59
!Correction: S21(Response(S21)) 
!S1P File: Measurement: S21:
# Hz S  dB   R 50
3000000000  -3.642926e+001  -5.561083e+001 
3003125000  -3.754830e+001  -6.105904e+001 
3006250000  -3.742889e+001  -6.392495e+001 
3009375000  -3.771866e+001  -5.869065e+001 
3012500000  -3.697211e+001  -6.119173e+001 
3015625000  -3.605663e+001  -6.837484e+001 
3018750000  -3.686279e+001  -6.900322e+001 
3021875000  -3.552222e+001  -6.882744e+001 
3025000000  -3.408880e+001  -7.279425e+001 
3028125000  -3.310704e+001  -7.898723e+001 
3031250000  -3.219473e+001  -9.037946e+001 
3034375000  -3.182458e+001  -1.039461e+002 
3037500000  -3.242181e+001  -1.158038e+002 
3040625000  -3.372477e+001  -1.209337e+002 
3043750000  -3.432016e+001  -1.263314e+002 
3046875000  -3.451131e+001  -1.319173e+002 
3050000000  -3.611420e+001  -1.374442e+002 
3053125000  -3.605167e+001  -1.315880e+002 
3056250000  -3.564987e+001  -1.279633e+002 
3059375000  -3.564196e+001  -1.292951e+002 
3062500000  -3.416975e+001  -1.320783e+002 
3065625000  -3.402252e+001  -1.388315e+002 
3068750000  -3.358568e+001  -1.453711e+002 
3071875000  -3.356528e+001  -1.481473e+002 
3075000000  -3.322557e+001  -1.521647e+002 
3078125000  -3.315618e+001  -1.561400e+002 
3081250000  -3.356946e+001  -1.608807e+002 
3084375000  -3.270135e+001  -1.638714e+002 
3087500000  -3.246108e+001  -1.677166e+002 
3090625000  -3.200755e+001  -1.783837e+002 
3093750000  -3.250434e+001  1.743311e+002 
3096875000  -3.353862e+001  1.684579e+002 
3100000000  -3.337260e+001  1.666564e+002 
3103125000  -3.364532e+001  1.674376e+002 
3106250000  -3.315493e+001  1.631349e+002 
3109375000  -3.323899e+001  1.595572e+002 
3112500000  -3.320730e+001  1.570565e+002 
3115625000  -3.290388e+001  1.520602e+002 
3118750000  -3.318285e+001  1.516994e+002 
3121875000  -3.231814e+001  1.425866e+002 
3125000000  -3.362270e+001  1.384781e+002 
3128125000  -3.444328e+001  1.459084e+002 
3131250000  -3.205822e+001  1.438355e+002 
3134375000  -3.071989e+001  1.280251e+002 
3137500000  -3.138918e+001  1.139888e+002 
3140625000  -3.281480e+001  1.110220e+002 
3143750000  -3.384402e+001  1.130616e+002 
3146875000  -3.320831e+001  1.137775e+002 
3150000000  -3.228251e+001  1.134287e+002 
3153125000  -3.231348e+001  1.048051e+002 
3156250000  -3.333678e+001  1.093744e+002 
3159375000  -3.160511e+001  1.102486e+002 
3162500000  -2.965706e+001  9.588088e+001 
3165625000  -3.078683e+001  8.368533e+001 
3168750000  -3.106355e+001  8.415039e+001 
3171875000  -3.018081e+001  7.849220e+001 
3175000000  -3.090003e+001  6.959459e+001 
3178125000  -3.072396e+001  7.017218e+001 
3181250000  -2.960354e+001  6.472039e+001 
3184375000  -2.893238e+001  5.245390e+001 
3187500000  -3.016911e+001  3.691769e+001 
3190625000  -3.283516e+001  2.952680e+001 
3193750000  -3.332761e+001  3.808487e+001 
3196875000  -3.304813e+001  4.268752e+001 
3200000000  -3.204144e+001  3.933566e+001 
3203125000  -3.137011e+001  3.340020e+001 
3206250000  -3.161031e+001  2.646951e+001 
3209375000  -3.112144e+001  2.045055e+001 
3212500000  -3.146915e+001  1.335582e+001 
3215625000  -3.152191e+001  1.001220e+001 
3218750000  -3.224933e+001  2.686637e+000 
3221875000  -3.305775e+001  -1.720028e+000 
3225000000  -3.271738e+001  -3.633843e+000 
3228125000  -3.310295e+001  -8.758914e+000 
3231250000  -3.366878e+001  -1.182587e+001 
3234375000  -3.339638e+001  -1.117157e+001 
3237500000  -3.338896e+001  -1.313972e+001 
3240625000  -3.299845e+001  -1.662151e+001 
3243750000  -3.262322e+001  -2.384065e+001 
3246875000  -3.298501e+001  -3.105667e+001 
3250000000  -3.341285e+001  -3.307250e+001 
3253125000  -3.354983e+001  -3.499974e+001 
3256250000  -3.324632e+001  -4.189049e+001 
3259375000  -3.353381e+001  -5.061060e+001 
3262500000  -3.468486e+001  -5.420023e+001 
3265625000  -3.531070e+001  -5.189609e+001 
3268750000  -3.502040e+001  -4.949485e+001 
3271875000  -3.469953e+001  -4.973619e+001 
3275000000  -3.360909e+001  -5.674310e+001 
3278125000  -3.418557e+001  -6.304918e+001 
3281250000  -3.434970e+001  -6.191616e+001 
3284375000  -3.383755e+001  -6.958541e+001 
3287500000  -3.397499e+001  -7.216183e+001 
3290625000  -3.424574e+001  -7.909386e+001 
3293750000  -3.398101e+001  -8.476861e+001 
3296875000  -3.518618e+001  -8.517442e+001 
3300000000  -3.479831e+001  -8.520380e+001 
3303125000  -3.357962e+001  -9.035374e+001 
3306250000  -3.345204e+001  -9.778156e+001 
3309375000  -3.314130e+001  -1.040113e+002 
3312500000  -3.330412e+001  -1.153296e+002 
3315625000  -3.428585e+001  -1.234599e+002 
3318750000  -3.569870e+001  -1.254050e+002 
3321875000  -3.683957e+001  -1.254489e+002 
3325000000  -3.735620e+001  -1.204184e+002 
3328125000  -3.675339e+001  -1.196964e+002 
3331250000  -3.572264e+001  -1.135300e+002 
3334375000  -3.288483e+001  -1.243532e+002 
3337500000  -3.308647e+001  -1.435768e+002 
3340625000  -3.451664e+001  -1.547846e+002 
3343750000  -3.652167e+001  -1.554532e+002 
3346875000  -3.663842e+001  -1.538684e+002 
3350000000  -3.605964e+001  -1.553207e+002 
3353125000  -3.601731e+001  -1.604702e+002 
3356250000  -3.564359e+001  -1.692334e+002 
3359375000  -3.652145e+001  -1.769078e+002 
3362500000  -3.752441e+001  1.772677e+002 
3365625000  -3.803452e+001  1.764077e+002 
3368750000  -3.874947e+001  1.739553e+002 
3371875000  -3.890013e+001  1.708498e+002 
3375000000  -4.044407e+001  1.687545e+002 
3378125000  -4.135556e+001  1.679521e+002 
3381250000  -4.243063e+001  1.757010e+002 
3384375000  -4.096750e+001  -1.606509e+002 
3387500000  -3.765551e+001  -1.784579e+002 
3390625000  -3.934985e+001  1.638526e+002 
3393750000  -4.049337e+001  1.673023e+002 
3396875000  -3.925471e+001  1.677205e+002 
3400000000  -3.853098e+001  1.598216e+002 
3403125000  -3.938441e+001  1.539065e+002 
3406250000  -3.965440e+001  1.547096e+002 
3409375000  -3.983725e+001  1.448016e+002 
3412500000  -4.013904e+001  1.448792e+002 
3415625000  -4.093262e+001  1.466397e+002 
3418750000  -4.110214e+001  1.450624e+002 
3421875000  -4.107498e+001  1.486614e+002 
3425000000  -4.013279e+001  1.491982e+002 
3428125000  -3.919638e+001  1.453737e+002 
3431250000  -3.929474e+001  1.375643e+002 
3434375000  -3.928271e+001  1.318347e+002 
3437500000  -3.970456e+001  1.267059e+002 
3440625000  -3.992200e+001  1.299005e+002 
3443750000  -3.873455e+001  1.298620e+002 
3446875000  -3.792834e+001  1.226795e+002 
3450000000  -3.753532e+001  1.125907e+002 
3453125000  -3.795411e+001  1.019893e+002 
3456250000  -3.915914e+001  9.580976e+001 
3459375000  -4.023689e+001  9.567204e+001 
3462500000  -3.983091e+001  9.646040e+001 
3465625000  -3.981830e+001  9.133539e+001 
3468750000  -4.014587e+001  8.743456e+001 
3471875000  -4.018801e+001  8.640033e+001 
3475000000  -3.975249e+001  8.027226e+001 
3478125000  -4.055444e+001  7.242063e+001 
3481250000  -4.140977e+001  7.087271e+001 
3484375000  -4.218412e+001  7.463406e+001 
3487500000  -4.140837e+001  7.437054e+001 
3490625000  -4.108932e+001  7.030097e+001 
3493750000  -4.156977e+001  6.198389e+001 
3496875000  -4.214463e+001  6.186785e+001 
3500000000  -4.264805e+001  6.434525e+001 
3503125000  -4.224403e+001  6.754501e+001 
3506250000  -4.075526e+001  6.266143e+001 
3509375000  -4.067364e+001  5.179814e+001 
3512500000  -4.125444e+001  4.569415e+001 
3515625000  -4.197968e+001  4.113116e+001 
3518750000  -4.257283e+001  4.243724e+001 
3521875000  -4.275092e+001  3.926469e+001 
3525000000  -4.338262e+001  3.754055e+001 
3528125000  -4.333189e+001  4.447487e+001 
3531250000  -4.168486e+001  4.144605e+001 
3534375000  -4.177758e+001  3.224616e+001 
3537500000  -4.207095e+001  2.578748e+001 
3540625000  -4.346843e+001  2.520897e+001 
3543750000  -4.391441e+001  2.945077e+001 
3546875000  -4.392851e+001  4.232599e+001 
3550000000  -4.104258e+001  4.078185e+001 
3553125000  -3.993364e+001  2.347189e+001 
3556250000  -4.111696e+001  1.651600e+001 
3559375000  -4.076283e+001  1.676863e+001 
3562500000  -3.976571e+001  8.935422e+000 
3565625000  -4.079089e+001  2.365088e+000 
3568750000  -4.098539e+001  3.533331e+000 
3571875000  -4.085056e+001  1.273415e+000 
3575000000  -4.045631e+001  -6.081494e+000 
3578125000  -4.108709e+001  -1.120816e+001 
3581250000  -4.121879e+001  -1.126201e+001 
3584375000  -4.031206e+001  -1.639603e+001 
3587500000  -3.968325e+001  -2.406499e+001 
3590625000  -4.049701e+001  -3.530769e+001 
3593750000  -4.169991e+001  -3.786432e+001 
3596875000  -4.184700e+001  -2.841419e+001 
3600000000  -4.035881e+001  -3.590096e+001 
3603125000  -4.065558e+001  -4.919275e+001 
3606250000  -4.179976e+001  -5.441752e+001 
3609375000  -4.230926e+001  -5.570522e+001 
3612500000  -4.318057e+001  -6.051566e+001 
3615625000  -4.321967e+001  -6.510777e+001 
3618750000  -4.422369e+001  -6.206268e+001 
3621875000  -4.370888e+001  -6.544942e+001 
3625000000  -4.494735e+001  -6.632207e+001 
3628125000  -4.493739e+001  -6.543639e+001 
3631250000  -4.445312e+001  -7.112358e+001 
3634375000  -4.581402e+001  -7.369386e+001 
3637500000  -4.587920e+001  -6.588535e+001 
3640625000  -4.484035e+001  -6.391020e+001 
3643750000  -4.456737e+001  -6.702868e+001 
3646875000  -4.512144e+001  -7.203809e+001 
3650000000  -4.565329e+001  -7.428050e+001 
3653125000  -4.531624e+001  -7.548354e+001 
3656250000  -4.562778e+001  -7.405153e+001 
3659375000  -4.524705e+001  -7.174957e+001 
3662500000  -4.453578e+001  -7.449290e+001 
3665625000  -4.417220e+001  -7.233133e+001 
3668750000  -4.339018e+001  -7.407777e+001 
3671875000  -4.228345e+001  -8.088071e+001 
3675000000  -4.244925e+001  -9.042164e+001 
3678125000  -4.271159e+001  -9.083733e+001 
3681250000  -4.251931e+001  -9.227113e+001 
3684375000  -4.241583e+001  -9.849081e+001 
3687500000  -4.257379e+001  -1.027831e+002 
3690625000  -4.268767e+001  -1.072841e+002 
3693750000  -4.343216e+001  -1.068516e+002 
3696875000  -4.329824e+001  -1.083590e+002 
3700000000  -4.219200e+001  -1.153035e+002 
3703125000  -4.244507e+001  -1.198355e+002 
3706250000  -4.381260e+001  -1.192654e+002 
3709375000  -4.327015e+001  -1.178058e+002 
3712500000  -4.194387e+001  -1.210558e+002 
3715625000  -4.138322e+001  -1.277515e+002 
3718750000  -4.124586e+001  -1.335338e+002 
3721875000  -4.112336e+001  -1.412031e+002 
3725000000  -4.156108e+001  -1.487300e+002 
3728125000  -4.232849e+001  -1.491650e+002 
3731250000  -4.154697e+001  -1.507973e+002 
3734375000  -4.120761e+001  -1.554008e+002 
3737500000  -4.206404e+001  -1.645461e+002 
3740625000  -4.314773e+001  -1.678880e+002 
3743750000  -4.333792e+001  -1.708042e+002 
3746875000  -4.370930e+001  -1.721081e+002 
3750000000  -4.469224e+001  -1.720567e+002 
3753125000  -4.479134e+001  -1.723787e+002 
3756250000  -4.509319e+001  -1.711650e+002 
3759375000  -4.481101e+001  -1.717813e+002 
3762500000  -4.463724e+001  -1.724927e+002 
3765625000  -4.528710e+001  -1.727211e+002 
3768750000  -4.503172e+001  -1.673242e+002 
3771875000  -4.339945e+001  -1.727566e+002 
3775000000  -4.307283e+001  -1.744319e+002 
3778125000  -4.337529e+001  -1.772953e+002 
3781250000  -4.312719e+001  1.795548e+002 
3784375000  -4.286605e+001  1.793578e+002 
3787500000  -4.164715e+001  1.772063e+002 
3790625000  -4.214268e+001  1.687621e+002 
3793750000  -4.222941e+001  1.704122e+002 
3796875000  -4.105102e+001  1.665975e+002 
3800000000  -3.937748e+001  1.652692e+002 
3803125000  -4.009424e+001  1.551324e+002 
3806250000  -4.066714e+001  1.512486e+002 
3809375000  -4.061705e+001  1.514052e+002 
3812500000  -3.958109e+001  1.429682e+002 
3815625000  -4.020275e+001  1.340235e+002 
3818750000  -4.121760e+001  1.313779e+002 
3821875000  -4.114406e+001  1.391892e+002 
3825000000  -3.924625e+001  1.437267e+002 
3828125000  -3.790835e+001  1.256692e+002 
3831250000  -3.849035e+001  1.101906e+002 
3834375000  -3.996767e+001  1.089936e+002 
3837500000  -4.107993e+001  1.133151e+002 
3840625000  -3.982924e+001  1.123771e+002 
3843750000  -3.892605e+001  9.938058e+001 
3846875000  -3.984932e+001  9.139612e+001 
3850000000  -4.108863e+001  9.710641e+001 
3853125000  -4.019922e+001  1.013097e+002 
3856250000  -4.014898e+001  9.195754e+001 
3859375000  -3.960431e+001  8.624712e+001 
3862500000  -3.948649e+001  7.829706e+001 
3865625000  -3.979563e+001  7.392446e+001 
3868750000  -3.976978e+001  7.426559e+001 
3871875000  -3.912920e+001  6.830630e+001 
3875000000  -3.969239e+001  6.099112e+001 
3878125000  -4.075479e+001  5.801524e+001 
3881250000  -4.117385e+001  6.162902e+001 
3884375000  -4.050293e+001  5.686942e+001 
3887500000  -4.046228e+001  5.240003e+001 
3890625000  -4.140658e+001  5.041596e+001 
3893750000  -4.144349e+001  4.942747e+001 
3896875000  -4.210281e+001  4.960189e+001 
3900000000  -4.172364e+001  4.744770e+001 
3903125000  -4.156628e+001  4.566144e+001 
3906250000  -4.076245e+001  4.537618e+001 
3909375000  -4.020113e+001  4.123472e+001 
3912500000  -4.040132e+001  3.454428e+001 
3915625000  -4.143793e+001  3.661044e+001 
3918750000  -4.119327e+001  3.696622e+001 
3921875000  -4.074147e+001  3.448867e+001 
3925000000  -3.964306e+001  2.991928e+001 
3928125000  -3.917785e+001  2.193029e+001 
3931250000  -3.954978e+001  1.866652e+001 
3934375000  -3.986850e+001  1.770434e+001 
3937500000  -3.996525e+001  1.531153e+001 
3940625000  -4.042087e+001  1.392546e+001 
3943750000  -3.901978e+001  1.292752e+001 
3946875000  -3.811990e+001  7.598753e+000 
3950000000  -3.886977e+001  -1.868226e+000 
3953125000  -3.994730e+001  -2.197984e+000 
3956250000  -3.883488e+001  -7.327852e-001 
3959375000  -3.771137e+001  -4.881357e+000 
3962500000  -3.719776e+001  -1.037385e+001 
3965625000  -3.689185e+001  -2.067284e+001 
3968750000  -3.791091e+001  -3.034025e+001 
3971875000  -3.844120e+001  -3.020607e+001 
3975000000  -3.760810e+001  -3.334773e+001 
3978125000  -3.764917e+001  -3.650602e+001 
3981250000  -3.771936e+001  -4.263492e+001 
3984375000  -3.796283e+001  -4.967149e+001 
3987500000  -3.854474e+001  -5.162452e+001 
3990625000  -3.864537e+001  -5.243167e+001 
3993750000  -3.890867e+001  -5.815979e+001 
3996875000  -3.913877e+001  -6.289358e+001 
4000000000  -3.951957e+001  -6.440852e+001 
4003125000  -3.986612e+001  -6.220002e+001 
4006250000  -3.842388e+001  -6.241339e+001 
4009375000  -3.750078e+001  -7.630929e+001 
4012500000  -3.899420e+001  -8.216682e+001 
4015625000  -4.007847e+001  -8.076690e+001 
4018750000  -4.037014e+001  -7.905615e+001 
4021875000  -3.962561e+001  -8.201237e+001 
4025000000  -3.917447e+001  -8.755319e+001 
4028125000  -3.916530e+001  -9.054720e+001 
4031250000  -3.988792e+001  -9.359113e+001 
4034375000  -4.010727e+001  -9.339392e+001 
4037500000  -3.952958e+001  -9.275757e+001 
4040625000  -3.951749e+001  -9.625045e+001 
4043750000  -3.988483e+001  -9.866692e+001 
4046875000  -3.913305e+001  -9.662028e+001 
4050000000  -3.872631e+001  -1.041766e+002 
4053125000  -3.929065e+001  -1.048958e+002 
4056250000  -3.960339e+001  -1.016099e+002 
4059375000  -3.807823e+001  -9.944759e+001 
4062500000  -3.664668e+001  -1.074223e+002 
4065625000  -3.670512e+001  -1.112125e+002 
4068750000  -3.629480e+001  -1.180053e+002 
4071875000  -3.556010e+001  -1.273757e+002 
4075000000  -3.607495e+001  -1.341517e+002 
4078125000  -3.657771e+001  -1.365581e+002 
4081250000  -3.588495e+001  -1.396634e+002 
4084375000  -3.558312e+001  -1.473026e+002 
4087500000  -3.594784e+001  -1.542973e+002 
4090625000  -3.655883e+001  -1.554772e+002 
4093750000  -3.622143e+001  -1.573554e+002 
4096875000  -3.594466e+001  -1.651392e+002 
4100000000  -3.689282e+001  -1.723517e+002 
4103125000  -3.778218e+001  -1.713647e+002 
4106250000  -3.733320e+001  -1.681384e+002 
4109375000  -3.651790e+001  -1.700538e+002 
4112500000  -3.595135e+001  -1.788132e+002 
4115625000  -3.646403e+001  1.761528e+002 
4118750000  -3.654311e+001  1.715523e+002 
4121875000  -3.623373e+001  1.654140e+002 
4125000000  -3.669490e+001  1.592376e+002 
4128125000  -3.771951e+001  1.597050e+002 
4131250000  -3.763899e+001  1.672631e+002 
4134375000  -3.504499e+001  1.599076e+002 
4137500000  -3.517938e+001  1.416996e+002 
4140625000  -3.749203e+001  1.329031e+002 
4143750000  -3.897318e+001  1.386319e+002 
4146875000  -3.851376e+001  1.450779e+002 
4150000000  -3.769262e+001  1.392899e+002 
4153125000  -3.776725e+001  1.331599e+002 
4156250000  -3.883466e+001  1.308439e+002 
4159375000  -3.885404e+001  1.355419e+002 
4162500000  -3.793752e+001  1.395128e+002 
4165625000  -3.683743e+001  1.351446e+002 
4168750000  -3.626485e+001  1.278907e+002 
4171875000  -3.624245e+001  1.174712e+002 
4175000000  -3.694029e+001  1.126838e+002 
4178125000  -3.740019e+001  1.126344e+002 
4181250000  -3.712473e+001  1.122421e+002 
4184375000  -3.701008e+001  1.083656e+002 
4187500000  -3.698066e+001  1.042250e+002 
4190625000  -3.687277e+001  9.859866e+001 
4193750000  -3.759830e+001  9.606920e+001 
4196875000  -3.838800e+001  9.493579e+001 
4200000000  -3.918460e+001  9.599429e+001 
4203125000  -3.897047e+001  1.118018e+002 
4206250000  -3.538297e+001  1.097081e+002 
4209375000  -3.411099e+001  8.723789e+001 
4212500000  -3.624063e+001  7.753330e+001 
4215625000  -3.685474e+001  8.487976e+001 
4218750000  -3.550874e+001  9.082761e+001 
4221875000  -3.315227e+001  7.972392e+001 
4225000000  -3.455777e+001  6.598788e+001 
4228125000  -3.488977e+001  7.018484e+001 
4231250000  -3.339326e+001  6.516767e+001 
4234375000  -3.334947e+001  5.530378e+001 
4237500000  -3.277536e+001  5.096972e+001 
4240625000  -3.273684e+001  4.101860e+001 
4243750000  -3.375877e+001  3.266749e+001 
4246875000  -3.470201e+001  3.208174e+001 
4250000000  -3.471336e+001  3.244212e+001 
4253125000  -3.428921e+001  2.900188e+001 
4256250000  -3.441598e+001  2.476473e+001 
4259375000  -3.430560e+001  2.030434e+001 
4262500000  -3.453593e+001  1.622997e+001 
4265625000  -3.472681e+001  1.415440e+001 
4268750000  -3.372820e+001  9.840398e+000 
4271875000  -3.358712e+001  1.265534e+000 
4275000000  -3.327441e+001  -5.838625e+000 
4278125000  -3.409585e+001  -1.838222e+001 
4281250000  -3.596550e+001  -1.883075e+001 
4284375000  -3.567740e+001  -2.048788e+001 
4287500000  -3.689816e+001  -2.344817e+001 
4290625000  -3.825504e+001  -1.516865e+001 
4293750000  -3.632635e+001  -1.080267e+001 
4296875000  -3.498677e+001  -2.080899e+001 
4300000000  -3.601449e+001  -3.005736e+001 
4303125000  -3.721261e+001  -2.836708e+001 
4306250000  -3.649183e+001  -2.261151e+001 
4309375000  -3.530492e+001  -2.437555e+001 
4312500000  -3.512419e+001  -3.309931e+001 
4315625000  -3.519881e+001  -3.861728e+001 
4318750000  -3.582679e+001  -4.110804e+001 
4321875000  -3.582598e+001  -4.112421e+001 
4325000000  -3.519249e+001  -4.045217e+001 
4328125000  -3.447502e+001  -4.497956e+001 
4331250000  -3.418986e+001  -5.496688e+001 
4334375000  -3.479398e+001  -5.980281e+001 
4337500000  -3.552236e+001  -6.217575e+001 
4340625000  -3.593095e+001  -5.993272e+001 
4343750000  -3.521134e+001  -5.959775e+001 
4346875000  -3.457497e+001  -6.644461e+001 
4350000000  -3.440892e+001  -7.118932e+001 
4353125000  -3.429027e+001  -7.942500e+001 
4356250000  -3.629608e+001  -8.158652e+001 
4359375000  -3.652246e+001  -6.807626e+001 
4362500000  -3.324385e+001  -6.852027e+001 
4365625000  -3.193717e+001  -8.272047e+001 
4368750000  -3.264051e+001  -9.462076e+001 
4371875000  -3.355147e+001  -9.579034e+001 
4375000000  -3.321882e+001  -9.673582e+001 
4378125000  -3.255673e+001  -1.042084e+002 
4381250000  -3.271282e+001  -1.106331e+002 
4384375000  -3.239666e+001  -1.173618e+002 
4387500000  -3.324728e+001  -1.252252e+002 
4390625000  -3.413995e+001  -1.253188e+002 
4393750000  -3.352979e+001  -1.245448e+002 
4396875000  -3.297442e+001  -1.274193e+002 
4400000000  -3.243881e+001  -1.377314e+002 
4403125000  -3.315060e+001  -1.460874e+002 
4406250000  -3.399515e+001  -1.494212e+002 
4409375000  -3.407220e+001  -1.533522e+002 
4412500000  -3.545720e+001  -1.560177e+002 
4415625000  -3.571850e+001  -1.513326e+002 
