!Agilent Technologies,E8363B,MY43030201,A.06.04.32
!Agilent E8363B: A.06.04.32
!Date: Tuesday, November 11, 2014 21:00:24
!Correction: S21(Response(S21)) 
!S1P File: Measurement: S21:
# Hz S  dB   R 50
3000000000  -3.629222e+001  -4.325377e+001 
3003125000  -3.738910e+001  -4.737677e+001 
3006250000  -3.731272e+001  -5.118762e+001 
3009375000  -3.752711e+001  -4.708590e+001 
3012500000  -3.686709e+001  -4.858570e+001 
3015625000  -3.592425e+001  -5.621079e+001 
3018750000  -3.678619e+001  -5.731536e+001 
3021875000  -3.539715e+001  -5.656708e+001 
3025000000  -3.398908e+001  -6.074249e+001 
3028125000  -3.300431e+001  -6.656494e+001 
3031250000  -3.198753e+001  -7.749711e+001 
3034375000  -3.156648e+001  -9.174224e+001 
3037500000  -3.204216e+001  -1.038021e+002 
3040625000  -3.336201e+001  -1.083711e+002 
3043750000  -3.412040e+001  -1.134245e+002 
3046875000  -3.417392e+001  -1.195880e+002 
3050000000  -3.580170e+001  -1.267086e+002 
3053125000  -3.588691e+001  -1.206969e+002 
3056250000  -3.537254e+001  -1.183128e+002 
3059375000  -3.547377e+001  -1.176982e+002 
3062500000  -3.398075e+001  -1.213517e+002 
3065625000  -3.380356e+001  -1.269173e+002 
3068750000  -3.347425e+001  -1.340215e+002 
3071875000  -3.336944e+001  -1.370598e+002 
3075000000  -3.323587e+001  -1.404428e+002 
3078125000  -3.297132e+001  -1.444345e+002 
3081250000  -3.348728e+001  -1.490386e+002 
3084375000  -3.268408e+001  -1.527700e+002 
3087500000  -3.236187e+001  -1.563683e+002 
3090625000  -3.196961e+001  -1.668308e+002 
3093750000  -3.232526e+001  -1.737936e+002 
3096875000  -3.339553e+001  -1.798499e+002 
3100000000  -3.333077e+001  1.775826e+002 
3103125000  -3.360482e+001  1.788066e+002 
3106250000  -3.314190e+001  1.752068e+002 
3109375000  -3.330899e+001  1.704852e+002 
3112500000  -3.326630e+001  1.686971e+002 
3115625000  -3.283578e+001  1.636383e+002 
3118750000  -3.323043e+001  1.635796e+002 
3121875000  -3.235461e+001  1.549075e+002 
3125000000  -3.348836e+001  1.503983e+002 
3128125000  -3.450282e+001  1.572599e+002 
3131250000  -3.211393e+001  1.557221e+002 
3134375000  -3.072722e+001  1.410898e+002 
3137500000  -3.127537e+001  1.261054e+002 
3140625000  -3.287444e+001  1.234639e+002 
3143750000  -3.403041e+001  1.254633e+002 
3146875000  -3.334798e+001  1.260490e+002 
3150000000  -3.235116e+001  1.267695e+002 
3153125000  -3.228852e+001  1.172460e+002 
3156250000  -3.330249e+001  1.223210e+002 
3159375000  -3.178305e+001  1.236272e+002 
3162500000  -2.974555e+001  1.086966e+002 
3165625000  -3.081470e+001  9.707248e+001 
3168750000  -3.117739e+001  9.704716e+001 
3171875000  -3.019645e+001  9.131052e+001 
3175000000  -3.093180e+001  8.262488e+001 
3178125000  -3.074855e+001  8.375419e+001 
3181250000  -2.956870e+001  7.823545e+001 
3184375000  -2.886940e+001  6.508560e+001 
3187500000  -2.998133e+001  5.008092e+001 
3190625000  -3.284720e+001  4.105362e+001 
3193750000  -3.339158e+001  5.036367e+001 
3196875000  -3.307047e+001  5.526561e+001 
3200000000  -3.212488e+001  5.248323e+001 
3203125000  -3.125926e+001  4.629226e+001 
3206250000  -3.164929e+001  3.927351e+001 
3209375000  -3.113943e+001  3.345656e+001 
3212500000  -3.133591e+001  2.568326e+001 
3215625000  -3.147200e+001  2.170050e+001 
3218750000  -3.218084e+001  1.479881e+001 
3221875000  -3.306982e+001  9.200500e+000 
3225000000  -3.263947e+001  8.698981e+000 
3228125000  -3.300570e+001  3.307206e+000 
3231250000  -3.374871e+001  5.259489e-001 
3234375000  -3.341880e+001  7.378243e-001 
3237500000  -3.341603e+001  -1.239294e+000 
3240625000  -3.305588e+001  -4.189268e+000 
3243750000  -3.260928e+001  -1.150415e+001 
3246875000  -3.308493e+001  -1.811563e+001 
3250000000  -3.350552e+001  -2.061538e+001 
3253125000  -3.360792e+001  -2.300464e+001 
3256250000  -3.330265e+001  -2.938565e+001 
3259375000  -3.350247e+001  -3.840408e+001 
3262500000  -3.479450e+001  -4.202994e+001 
3265625000  -3.546027e+001  -3.981394e+001 
3268750000  -3.537315e+001  -3.751888e+001 
3271875000  -3.495847e+001  -3.717865e+001 
3275000000  -3.390950e+001  -4.425390e+001 
3278125000  -3.430711e+001  -5.016468e+001 
3281250000  -3.458132e+001  -4.977657e+001 
3284375000  -3.408149e+001  -5.626628e+001 
3287500000  -3.428212e+001  -6.001912e+001 
3290625000  -3.451735e+001  -6.595464e+001 
3293750000  -3.433329e+001  -7.189651e+001 
3296875000  -3.527034e+001  -7.236658e+001 
3300000000  -3.508287e+001  -7.084921e+001 
3303125000  -3.389228e+001  -7.650977e+001 
3306250000  -3.370367e+001  -8.346598e+001 
3309375000  -3.345852e+001  -8.925500e+001 
3312500000  -3.348878e+001  -1.004244e+002 
3315625000  -3.446123e+001  -1.094706e+002 
3318750000  -3.587378e+001  -1.114427e+002 
3321875000  -3.702325e+001  -1.115799e+002 
3325000000  -3.760421e+001  -1.076745e+002 
3328125000  -3.712654e+001  -1.057683e+002 
3331250000  -3.587087e+001  -9.910493e+001 
3334375000  -3.331002e+001  -1.099113e+002 
3337500000  -3.333002e+001  -1.282459e+002 
3340625000  -3.456494e+001  -1.397545e+002 
3343750000  -3.659280e+001  -1.417464e+002 
3346875000  -3.685727e+001  -1.399394e+002 
3350000000  -3.614650e+001  -1.413576e+002 
3353125000  -3.624235e+001  -1.457070e+002 
3356250000  -3.568005e+001  -1.543032e+002 
3359375000  -3.638099e+001  -1.617535e+002 
3362500000  -3.753204e+001  -1.683275e+002 
3365625000  -3.800624e+001  -1.697565e+002 
3368750000  -3.877249e+001  -1.715997e+002 
3371875000  -3.915005e+001  -1.752320e+002 
3375000000  -4.047862e+001  -1.780856e+002 
3378125000  -4.109714e+001  -1.770070e+002 
3381250000  -4.235036e+001  -1.687028e+002 
3384375000  -4.140577e+001  -1.478146e+002 
3387500000  -3.752976e+001  -1.638315e+002 
3390625000  -3.944215e+001  1.777114e+002 
3393750000  -4.051340e+001  -1.784055e+002 
3396875000  -3.936468e+001  -1.780380e+002 
3400000000  -3.873341e+001  1.730361e+002 
3403125000  -3.934365e+001  1.689099e+002 
3406250000  -3.967063e+001  1.685208e+002 
3409375000  -3.991133e+001  1.598703e+002 
3412500000  -4.036190e+001  1.583251e+002 
3415625000  -4.122627e+001  1.601361e+002 
3418750000  -4.105465e+001  1.607714e+002 
3421875000  -4.138805e+001  1.637397e+002 
3425000000  -4.044876e+001  1.628890e+002 
3428125000  -3.967937e+001  1.585628e+002 
3431250000  -3.943195e+001  1.522182e+002 
3434375000  -3.925551e+001  1.463797e+002 
3437500000  -3.972976e+001  1.423184e+002 
3440625000  -4.001381e+001  1.428703e+002 
3443750000  -3.876180e+001  1.451061e+002 
3446875000  -3.796341e+001  1.373509e+002 
3450000000  -3.752605e+001  1.272167e+002 
3453125000  -3.798748e+001  1.175745e+002 
3456250000  -3.914606e+001  1.112349e+002 
3459375000  -3.994228e+001  1.103157e+002 
3462500000  -3.980360e+001  1.109399e+002 
3465625000  -3.971004e+001  1.060910e+002 
3468750000  -4.002307e+001  1.014514e+002 
3471875000  -3.989854e+001  1.006437e+002 
3475000000  -3.944824e+001  9.500261e+001 
3478125000  -4.010109e+001  8.637270e+001 
3481250000  -4.118540e+001  8.502111e+001 
3484375000  -4.219140e+001  8.736131e+001 
3487500000  -4.106562e+001  8.851634e+001 
3490625000  -4.047043e+001  8.285232e+001 
3493750000  -4.117373e+001  7.741885e+001 
3496875000  -4.178294e+001  7.356766e+001 
3500000000  -4.210868e+001  7.782597e+001 
3503125000  -4.195026e+001  7.954723e+001 
3506250000  -4.057510e+001  7.191994e+001 
3509375000  -4.041020e+001  6.417188e+001 
3512500000  -4.110575e+001  5.609444e+001 
3515625000  -4.200357e+001  5.276486e+001 
3518750000  -4.255636e+001  5.263131e+001 
3521875000  -4.259341e+001  4.947846e+001 
3525000000  -4.345543e+001  4.554753e+001 
3528125000  -4.363551e+001  5.564216e+001 
3531250000  -4.224475e+001  5.256165e+001 
3534375000  -4.225563e+001  4.357702e+001 
3537500000  -4.292945e+001  3.760859e+001 
3540625000  -4.375927e+001  3.583983e+001 
3543750000  -4.446300e+001  3.955379e+001 
3546875000  -4.478882e+001  5.193349e+001 
3550000000  -4.192339e+001  5.322461e+001 
3553125000  -4.062654e+001  3.742072e+001 
3556250000  -4.192465e+001  3.071049e+001 
3559375000  -4.217361e+001  3.248908e+001 
3562500000  -4.086780e+001  2.388681e+001 
3565625000  -4.147194e+001  1.765231e+001 
3568750000  -4.185458e+001  1.851574e+001 
3571875000  -4.153728e+001  1.657369e+001 
3575000000  -4.112466e+001  1.093269e+001 
3578125000  -4.161794e+001  4.137384e+000 
3581250000  -4.207682e+001  4.935639e+000 
3584375000  -4.106563e+001  1.787790e+000 
3587500000  -4.026191e+001  -6.911127e+000 
3590625000  -4.090482e+001  -1.557701e+001 
3593750000  -4.182123e+001  -1.983801e+001 
3596875000  -4.207983e+001  -1.454032e+001 
3600000000  -4.046303e+001  -1.902808e+001 
3603125000  -4.107944e+001  -3.553788e+001 
3606250000  -4.182573e+001  -3.760150e+001 
3609375000  -4.257058e+001  -4.073619e+001 
3612500000  -4.282640e+001  -4.451370e+001 
3615625000  -4.331505e+001  -4.843040e+001 
3618750000  -4.392770e+001  -4.762868e+001 
3621875000  -4.380998e+001  -5.179844e+001 
3625000000  -4.466567e+001  -5.529177e+001 
3628125000  -4.458742e+001  -5.474944e+001 
3631250000  -4.444690e+001  -6.008344e+001 
3634375000  -4.579725e+001  -6.044510e+001 
3637500000  -4.631746e+001  -5.457861e+001 
3640625000  -4.559173e+001  -5.467686e+001 
3643750000  -4.507655e+001  -5.896469e+001 
3646875000  -4.592357e+001  -6.511297e+001 
3650000000  -4.643731e+001  -6.579745e+001 
3653125000  -4.664713e+001  -6.756785e+001 
3656250000  -4.678947e+001  -6.330719e+001 
3659375000  -4.672966e+001  -5.936336e+001 
3662500000  -4.630810e+001  -6.179365e+001 
3665625000  -4.582657e+001  -6.006204e+001 
3668750000  -4.519978e+001  -5.738203e+001 
3671875000  -4.395436e+001  -6.533909e+001 
3675000000  -4.470321e+001  -7.316879e+001 
3678125000  -4.442958e+001  -7.229856e+001 
3681250000  -4.385926e+001  -7.483774e+001 
3684375000  -4.410801e+001  -8.190739e+001 
3687500000  -4.433611e+001  -8.503925e+001 
3690625000  -4.381091e+001  -8.583147e+001 
3693750000  -4.482269e+001  -8.632304e+001 
3696875000  -4.436133e+001  -8.642594e+001 
3700000000  -4.403980e+001  -9.192310e+001 
3703125000  -4.363425e+001  -9.939130e+001 
3706250000  -4.440214e+001  -9.603511e+001 
3709375000  -4.407428e+001  -9.263390e+001 
3712500000  -4.277618e+001  -9.685670e+001 
3715625000  -4.223353e+001  -1.055419e+002 
3718750000  -4.204992e+001  -1.092274e+002 
3721875000  -4.180468e+001  -1.156320e+002 
3725000000  -4.210487e+001  -1.221645e+002 
3728125000  -4.257310e+001  -1.241042e+002 
3731250000  -4.193176e+001  -1.260120e+002 
3734375000  -4.167211e+001  -1.314579e+002 
3737500000  -4.236975e+001  -1.391941e+002 
3740625000  -4.344427e+001  -1.433026e+002 
3743750000  -4.359538e+001  -1.452004e+002 
3746875000  -4.350933e+001  -1.486329e+002 
3750000000  -4.436624e+001  -1.513253e+002 
3753125000  -4.425015e+001  -1.497735e+002 
3756250000  -4.457875e+001  -1.482693e+002 
3759375000  -4.452381e+001  -1.502471e+002 
3762500000  -4.403823e+001  -1.533116e+002 
3765625000  -4.452456e+001  -1.541517e+002 
3768750000  -4.480445e+001  -1.495811e+002 
3771875000  -4.343924e+001  -1.487725e+002 
3775000000  -4.282283e+001  -1.590327e+002 
3778125000  -4.347762e+001  -1.575792e+002 
3781250000  -4.312495e+001  -1.590602e+002 
3784375000  -4.268773e+001  -1.614394e+002 
3787500000  -4.182074e+001  -1.646050e+002 
3790625000  -4.240023e+001  -1.704711e+002 
3793750000  -4.279248e+001  -1.718739e+002 
3796875000  -4.120219e+001  -1.753374e+002 
3800000000  -3.962813e+001  -1.760504e+002 
3803125000  -4.052187e+001  1.744969e+002 
3806250000  -4.106822e+001  1.710227e+002 
3809375000  -4.056947e+001  1.695367e+002 
3812500000  -3.996066e+001  1.629359e+002 
3815625000  -4.044935e+001  1.531400e+002 
3818750000  -4.149434e+001  1.529993e+002 
3821875000  -4.105097e+001  1.594203e+002 
3825000000  -3.963575e+001  1.625326e+002 
3828125000  -3.813253e+001  1.474698e+002 
3831250000  -3.872955e+001  1.340255e+002 
3834375000  -3.998772e+001  1.309818e+002 
3837500000  -4.097282e+001  1.352020e+002 
3840625000  -3.961005e+001  1.330451e+002 
3843750000  -3.904330e+001  1.204133e+002 
3846875000  -3.939754e+001  1.126601e+002 
3850000000  -4.121384e+001  1.182813e+002 
3853125000  -4.025511e+001  1.208121e+002 
3856250000  -4.024915e+001  1.160537e+002 
3859375000  -3.951950e+001  1.083542e+002 
3862500000  -3.903096e+001  1.017805e+002 
3865625000  -3.952064e+001  9.544812e+001 
3868750000  -3.916120e+001  9.603659e+001 
3871875000  -3.854271e+001  9.193309e+001 
3875000000  -3.881882e+001  8.105858e+001 
3878125000  -4.000849e+001  8.136164e+001 
3881250000  -4.041267e+001  8.221537e+001 
3884375000  -3.985966e+001  7.663895e+001 
3887500000  -3.982800e+001  7.318588e+001 
3890625000  -4.038668e+001  6.909706e+001 
3893750000  -4.041674e+001  6.493137e+001 
3896875000  -4.135362e+001  6.551829e+001 
3900000000  -4.113677e+001  6.599635e+001 
3903125000  -4.073940e+001  6.368406e+001 
3906250000  -4.060487e+001  6.157247e+001 
3909375000  -3.975739e+001  5.836025e+001 
3912500000  -3.954128e+001  4.824209e+001 
3915625000  -4.097343e+001  5.072055e+001 
3918750000  -4.084380e+001  4.960360e+001 
3921875000  -4.026545e+001  4.715442e+001 
3925000000  -3.975290e+001  4.580628e+001 
3928125000  -3.897623e+001  3.916492e+001 
3931250000  -3.946299e+001  3.333978e+001 
3934375000  -3.962202e+001  3.489869e+001 
3937500000  -3.985980e+001  3.317712e+001 
3940625000  -4.043377e+001  3.038776e+001 
3943750000  -3.924451e+001  3.004103e+001 
3946875000  -3.815291e+001  2.434088e+001 
3950000000  -3.894365e+001  1.513847e+001 
3953125000  -3.966454e+001  1.369794e+001 
3956250000  -3.899300e+001  1.515846e+001 
3959375000  -3.772340e+001  1.303047e+001 
3962500000  -3.735898e+001  8.742826e+000 
3965625000  -3.702458e+001  -2.338067e+000 
3968750000  -3.815764e+001  -8.719743e+000 
3971875000  -3.820632e+001  -1.085896e+001 
3975000000  -3.766393e+001  -1.360627e+001 
3978125000  -3.759622e+001  -1.704266e+001 
3981250000  -3.777568e+001  -2.136546e+001 
3984375000  -3.787541e+001  -2.782762e+001 
3987500000  -3.838886e+001  -3.070688e+001 
3990625000  -3.824752e+001  -3.240340e+001 
3993750000  -3.868934e+001  -3.742559e+001 
3996875000  -3.872352e+001  -3.915482e+001 
4000000000  -3.896909e+001  -4.154775e+001 
4003125000  -3.944978e+001  -3.938948e+001 
4006250000  -3.781700e+001  -4.037048e+001 
4009375000  -3.686836e+001  -5.396499e+001 
4012500000  -3.791528e+001  -6.137706e+001 
4015625000  -3.932102e+001  -6.161996e+001 
4018750000  -3.967336e+001  -5.926585e+001 
4021875000  -3.864165e+001  -6.121625e+001 
4025000000  -3.852551e+001  -6.676338e+001 
4028125000  -3.851635e+001  -7.086789e+001 
4031250000  -3.874337e+001  -7.656901e+001 
4034375000  -3.926324e+001  -7.615489e+001 
4037500000  -3.872017e+001  -7.634816e+001 
4040625000  -3.848888e+001  -8.058691e+001 
4043750000  -3.889929e+001  -8.083224e+001 
4046875000  -3.844471e+001  -8.208842e+001 
4050000000  -3.805991e+001  -8.861977e+001 
4053125000  -3.866477e+001  -9.112711e+001 
4056250000  -3.922125e+001  -8.721463e+001 
4059375000  -3.778009e+001  -8.822440e+001 
4062500000  -3.651354e+001  -9.289333e+001 
4065625000  -3.636592e+001  -9.698044e+001 
4068750000  -3.616347e+001  -1.033640e+002 
4071875000  -3.561853e+001  -1.120344e+002 
4075000000  -3.600160e+001  -1.180884e+002 
4078125000  -3.651933e+001  -1.202155e+002 
4081250000  -3.595473e+001  -1.235589e+002 
4084375000  -3.562435e+001  -1.315448e+002 
4087500000  -3.612585e+001  -1.370469e+002 
4090625000  -3.653946e+001  -1.394149e+002 
4093750000  -3.644914e+001  -1.408476e+002 
4096875000  -3.610647e+001  -1.467210e+002 
4100000000  -3.682311e+001  -1.548296e+002 
4103125000  -3.745989e+001  -1.550700e+002 
4106250000  -3.761423e+001  -1.508622e+002 
4109375000  -3.674252e+001  -1.523023e+002 
4112500000  -3.609450e+001  -1.593810e+002 
4115625000  -3.646831e+001  -1.651453e+002 
4118750000  -3.671686e+001  -1.679126e+002 
4121875000  -3.626901e+001  -1.752020e+002 
4125000000  -3.668111e+001  1.790242e+002 
4128125000  -3.766357e+001  -1.799885e+002 
4131250000  -3.754887e+001  -1.735833e+002 
4134375000  -3.523128e+001  -1.786659e+002 
4137500000  -3.502213e+001  1.618312e+002 
4140625000  -3.697118e+001  1.546021e+002 
4143750000  -3.851754e+001  1.587487e+002 
4146875000  -3.808759e+001  1.644788e+002 
4150000000  -3.712205e+001  1.619054e+002 
4153125000  -3.718187e+001  1.529594e+002 
4156250000  -3.808230e+001  1.493859e+002 
4159375000  -3.829685e+001  1.544371e+002 
4162500000  -3.730839e+001  1.593537e+002 
4165625000  -3.618798e+001  1.533479e+002 
4168750000  -3.557219e+001  1.463123e+002 
4171875000  -3.568756e+001  1.351494e+002 
4175000000  -3.632322e+001  1.312359e+002 
4178125000  -3.704924e+001  1.314614e+002 
4181250000  -3.672842e+001  1.292988e+002 
4184375000  -3.654198e+001  1.237984e+002 
4187500000  -3.638871e+001  1.214543e+002 
4190625000  -3.632244e+001  1.156230e+002 
4193750000  -3.723512e+001  1.116773e+002 
4196875000  -3.777748e+001  1.093328e+002 
4200000000  -3.874649e+001  1.108152e+002 
4203125000  -3.881340e+001  1.243318e+002 
4206250000  -3.534356e+001  1.255871e+002 
4209375000  -3.410222e+001  1.035412e+002 
4212500000  -3.612377e+001  9.382691e+001 
4215625000  -3.711444e+001  9.989407e+001 
4218750000  -3.567041e+001  1.052395e+002 
4221875000  -3.345858e+001  9.543232e+001 
4225000000  -3.468204e+001  8.258174e+001 
4228125000  -3.533451e+001  8.673883e+001 
4231250000  -3.369250e+001  8.246174e+001 
4234375000  -3.347411e+001  7.196537e+001 
4237500000  -3.298778e+001  6.904428e+001 
4240625000  -3.312793e+001  5.807327e+001 
4243750000  -3.414490e+001  5.091436e+001 
4246875000  -3.496687e+001  5.119636e+001 
4250000000  -3.519044e+001  5.204103e+001 
4253125000  -3.453551e+001  4.895510e+001 
4256250000  -3.476189e+001  4.365780e+001 
4259375000  -3.441576e+001  4.059775e+001 
4262500000  -3.466908e+001  3.642617e+001 
4265625000  -3.488655e+001  3.638616e+001 
4268750000  -3.389534e+001  2.976479e+001 
4271875000  -3.375016e+001  2.325771e+001 
4275000000  -3.337861e+001  1.616513e+001 
4278125000  -3.399620e+001  3.350329e+000 
4281250000  -3.588042e+001  1.583747e+000 
4284375000  -3.563964e+001  9.125752e-001 
4287500000  -3.647672e+001  -4.263206e+000 
4290625000  -3.793892e+001  6.121340e+000 
4293750000  -3.573832e+001  1.173308e+001 
4296875000  -3.480922e+001  6.268218e-001 
4300000000  -3.562744e+001  -9.238877e+000 
4303125000  -3.698863e+001  -8.413218e+000 
4306250000  -3.613310e+001  -2.564991e+000 
4309375000  -3.505645e+001  -4.161611e+000 
4312500000  -3.473627e+001  -1.343100e+001 
4315625000  -3.482683e+001  -1.862584e+001 
4318750000  -3.512683e+001  -2.265711e+001 
4321875000  -3.537452e+001  -2.300195e+001 
4325000000  -3.472471e+001  -2.162877e+001 
4328125000  -3.402242e+001  -2.893081e+001 
4331250000  -3.385444e+001  -3.858769e+001 
4334375000  -3.434727e+001  -4.281974e+001 
4337500000  -3.510751e+001  -4.525153e+001 
4340625000  -3.546223e+001  -4.217477e+001 
4343750000  -3.472768e+001  -4.481227e+001 
4346875000  -3.439595e+001  -4.991638e+001 
4350000000  -3.433434e+001  -5.471970e+001 
4353125000  -3.440123e+001  -6.375831e+001 
4356250000  -3.594792e+001  -6.488688e+001 
4359375000  -3.640186e+001  -5.249223e+001 
4362500000  -3.372013e+001  -5.225684e+001 
4365625000  -3.213718e+001  -6.622711e+001 
4368750000  -3.266930e+001  -7.792757e+001 
4371875000  -3.371993e+001  -7.861337e+001 
4375000000  -3.342809e+001  -7.983356e+001 
4378125000  -3.263443e+001  -8.726432e+001 
4381250000  -3.291690e+001  -9.301820e+001 
4384375000  -3.276082e+001  -9.945202e+001 
4387500000  -3.357832e+001  -1.063972e+002 
4390625000  -3.440796e+001  -1.060421e+002 
4393750000  -3.381264e+001  -1.052795e+002 
4396875000  -3.319209e+001  -1.083681e+002 
4400000000  -3.269915e+001  -1.172673e+002 
4403125000  -3.339134e+001  -1.259835e+002 
4406250000  -3.425732e+001  -1.277187e+002 
4409375000  -3.433200e+001  -1.305893e+002 
4412500000  -3.545164e+001  -1.348941e+002 
4415625000  -3.587271e+001  -1.304916e+002 
