!Agilent Technologies,E8363B,MY43030201,A.06.04.32
!Agilent E8363B: A.06.04.32
!Date: Tuesday, November 11, 2014 21:05:04
!Correction: S21(Response(S21)) 
!S1P File: Measurement: S21:
# Hz S  dB   R 50
3000000000  -3.646023e+001  -4.874012e+001 
3003125000  -3.757465e+001  -5.460941e+001 
3006250000  -3.746772e+001  -5.753083e+001 
3009375000  -3.769225e+001  -5.306853e+001 
3012500000  -3.692992e+001  -5.455488e+001 
3015625000  -3.600872e+001  -6.192923e+001 
3018750000  -3.681106e+001  -6.337912e+001 
3021875000  -3.547648e+001  -6.249984e+001 
3025000000  -3.413481e+001  -6.575084e+001 
3028125000  -3.311540e+001  -7.226050e+001 
3031250000  -3.216109e+001  -8.365917e+001 
3034375000  -3.178699e+001  -9.685393e+001 
3037500000  -3.221278e+001  -1.090479e+002 
3040625000  -3.353650e+001  -1.137935e+002 
3043750000  -3.424331e+001  -1.185761e+002 
3046875000  -3.444860e+001  -1.243667e+002 
3050000000  -3.613280e+001  -1.310523e+002 
3053125000  -3.609090e+001  -1.251936e+002 
3056250000  -3.552015e+001  -1.221557e+002 
3059375000  -3.573227e+001  -1.232705e+002 
3062500000  -3.412896e+001  -1.259447e+002 
3065625000  -3.386242e+001  -1.319698e+002 
3068750000  -3.357708e+001  -1.389728e+002 
3071875000  -3.358159e+001  -1.417002e+002 
3075000000  -3.331054e+001  -1.451606e+002 
3078125000  -3.302803e+001  -1.491529e+002 
3081250000  -3.352436e+001  -1.537995e+002 
3084375000  -3.268167e+001  -1.573763e+002 
3087500000  -3.246429e+001  -1.608654e+002 
3090625000  -3.192378e+001  -1.711667e+002 
3093750000  -3.239777e+001  -1.783881e+002 
3096875000  -3.345037e+001  1.754921e+002 
3100000000  -3.329453e+001  1.734251e+002 
3103125000  -3.366155e+001  1.740260e+002 
3106250000  -3.316843e+001  1.696462e+002 
3109375000  -3.322303e+001  1.657859e+002 
3112500000  -3.319494e+001  1.634601e+002 
3115625000  -3.285263e+001  1.587616e+002 
3118750000  -3.318325e+001  1.586521e+002 
3121875000  -3.229807e+001  1.496836e+002 
3125000000  -3.345762e+001  1.455808e+002 
3128125000  -3.445712e+001  1.521519e+002 
3131250000  -3.197643e+001  1.506483e+002 
3134375000  -3.070381e+001  1.355483e+002 
3137500000  -3.131767e+001  1.209224e+002 
3140625000  -3.281715e+001  1.175497e+002 
3143750000  -3.383880e+001  1.198885e+002 
3146875000  -3.341066e+001  1.205510e+002 
3150000000  -3.226258e+001  1.209531e+002 
3153125000  -3.229219e+001  1.117906e+002 
3156250000  -3.336862e+001  1.161291e+002 
3159375000  -3.152204e+001  1.178548e+002 
3162500000  -2.972296e+001  1.034088e+002 
3165625000  -3.071761e+001  9.111195e+001 
3168750000  -3.104968e+001  9.107412e+001 
3171875000  -3.017087e+001  8.549296e+001 
3175000000  -3.090113e+001  7.717164e+001 
3178125000  -3.065415e+001  7.778929e+001 
3181250000  -2.956995e+001  7.263763e+001 
3184375000  -2.888588e+001  5.959527e+001 
3187500000  -3.007979e+001  4.369048e+001 
3190625000  -3.271809e+001  3.629827e+001 
3193750000  -3.340123e+001  4.512085e+001 
3196875000  -3.304511e+001  4.933015e+001 
3200000000  -3.206146e+001  4.674169e+001 
3203125000  -3.129527e+001  4.070309e+001 
3206250000  -3.159426e+001  3.377208e+001 
3209375000  -3.112106e+001  2.757316e+001 
3212500000  -3.137532e+001  2.037511e+001 
3215625000  -3.146586e+001  1.683402e+001 
3218750000  -3.220496e+001  1.023955e+001 
3221875000  -3.312411e+001  4.712937e+000 
3225000000  -3.266603e+001  3.429742e+000 
3228125000  -3.297906e+001  -1.837390e+000 
3231250000  -3.378852e+001  -4.181558e+000 
3234375000  -3.343471e+001  -4.354592e+000 
3237500000  -3.342092e+001  -6.304513e+000 
3240625000  -3.300312e+001  -9.398738e+000 
3243750000  -3.269410e+001  -1.611082e+001 
3246875000  -3.299223e+001  -2.366038e+001 
3250000000  -3.346657e+001  -2.598234e+001 
3253125000  -3.363744e+001  -2.752829e+001 
3256250000  -3.310535e+001  -3.518018e+001 
3259375000  -3.347233e+001  -4.294795e+001 
3262500000  -3.466108e+001  -4.680582e+001 
3265625000  -3.523602e+001  -4.388957e+001 
3268750000  -3.523188e+001  -4.207811e+001 
3271875000  -3.474710e+001  -4.312663e+001 
3275000000  -3.378677e+001  -4.924306e+001 
3278125000  -3.421754e+001  -5.584389e+001 
3281250000  -3.427872e+001  -5.484887e+001 
3284375000  -3.386594e+001  -6.232080e+001 
3287500000  -3.402316e+001  -6.529633e+001 
3290625000  -3.439558e+001  -7.165163e+001 
3293750000  -3.405839e+001  -7.693208e+001 
3296875000  -3.507038e+001  -7.784390e+001 
3300000000  -3.497984e+001  -7.752580e+001 
3303125000  -3.367233e+001  -8.263824e+001 
3306250000  -3.351779e+001  -8.959979e+001 
3309375000  -3.326650e+001  -9.516578e+001 
3312500000  -3.329067e+001  -1.070692e+002 
3315625000  -3.432527e+001  -1.156712e+002 
3318750000  -3.560482e+001  -1.184787e+002 
3321875000  -3.694579e+001  -1.181293e+002 
3325000000  -3.727047e+001  -1.130931e+002 
3328125000  -3.695235e+001  -1.125211e+002 
3331250000  -3.562466e+001  -1.051058e+002 
3334375000  -3.307331e+001  -1.171283e+002 
3337500000  -3.309028e+001  -1.358298e+002 
3340625000  -3.449298e+001  -1.466801e+002 
3343750000  -3.654950e+001  -1.475449e+002 
3346875000  -3.659676e+001  -1.449545e+002 
3350000000  -3.613569e+001  -1.476176e+002 
3353125000  -3.605070e+001  -1.522478e+002 
3356250000  -3.560796e+001  -1.610894e+002 
3359375000  -3.647176e+001  -1.690163e+002 
3362500000  -3.756301e+001  -1.743159e+002 
3365625000  -3.790826e+001  -1.758089e+002 
3368750000  -3.880803e+001  -1.788569e+002 
3371875000  -3.906244e+001  1.785966e+002 
3375000000  -4.038570e+001  1.762522e+002 
3378125000  -4.118914e+001  1.756512e+002 
3381250000  -4.256828e+001  -1.759898e+002 
3384375000  -4.125310e+001  -1.532521e+002 
3387500000  -3.760739e+001  -1.700219e+002 
3390625000  -3.931276e+001  1.708665e+002 
3393750000  -4.057914e+001  1.747437e+002 
3396875000  -3.916291e+001  1.753138e+002 
3400000000  -3.866252e+001  1.673809e+002 
3403125000  -3.950934e+001  1.615902e+002 
3406250000  -3.970445e+001  1.612282e+002 
3409375000  -4.002826e+001  1.539126e+002 
3412500000  -4.029062e+001  1.523460e+002 
3415625000  -4.098940e+001  1.530938e+002 
3418750000  -4.087736e+001  1.533981e+002 
3421875000  -4.133908e+001  1.566627e+002 
3425000000  -4.015422e+001  1.566476e+002 
3428125000  -3.939592e+001  1.535558e+002 
3431250000  -3.935533e+001  1.453788e+002 
3434375000  -3.930370e+001  1.391278e+002 
3437500000  -3.972040e+001  1.354730e+002 
3440625000  -3.993047e+001  1.371389e+002 
3443750000  -3.872449e+001  1.384731e+002 
3446875000  -3.795217e+001  1.302097e+002 
3450000000  -3.764923e+001  1.205586e+002 
3453125000  -3.780043e+001  1.093589e+002 
3456250000  -3.902659e+001  1.040539e+002 
3459375000  -4.015577e+001  1.041362e+002 
3462500000  -3.991833e+001  1.051569e+002 
3465625000  -3.983568e+001  9.961441e+001 
3468750000  -4.004519e+001  9.537068e+001 
3471875000  -4.014687e+001  9.409720e+001 
3475000000  -3.983766e+001  8.931223e+001 
3478125000  -4.055363e+001  8.217740e+001 
3481250000  -4.127247e+001  7.834838e+001 
3484375000  -4.248781e+001  8.238696e+001 
3487500000  -4.140572e+001  8.187376e+001 
3490625000  -4.099019e+001  7.774821e+001 
3493750000  -4.121242e+001  7.241356e+001 
3496875000  -4.184161e+001  6.898659e+001 
3500000000  -4.247273e+001  7.246466e+001 
3503125000  -4.209670e+001  7.396918e+001 
3506250000  -4.073834e+001  7.007323e+001 
3509375000  -4.057509e+001  6.029580e+001 
3512500000  -4.140096e+001  5.088644e+001 
3515625000  -4.169578e+001  4.903642e+001 
3518750000  -4.234327e+001  4.926761e+001 
3521875000  -4.257176e+001  4.742226e+001 
3525000000  -4.345677e+001  4.389553e+001 
3528125000  -4.349071e+001  5.024349e+001 
3531250000  -4.177548e+001  5.208931e+001 
3534375000  -4.191736e+001  3.943020e+001 
3537500000  -4.222284e+001  3.542896e+001 
3540625000  -4.352499e+001  3.242838e+001 
3543750000  -4.382121e+001  3.630621e+001 
3546875000  -4.412461e+001  4.950090e+001 
3550000000  -4.134480e+001  4.894315e+001 
3553125000  -4.002410e+001  3.108985e+001 
3556250000  -4.142573e+001  2.649804e+001 
3559375000  -4.136895e+001  2.593459e+001 
3562500000  -4.009682e+001  1.523105e+001 
3565625000  -4.088383e+001  9.063017e+000 
3568750000  -4.113818e+001  1.315279e+001 
3571875000  -4.105270e+001  1.098334e+001 
3575000000  -4.065136e+001  2.832138e+000 
3578125000  -4.117707e+001  -3.977038e+000 
3581250000  -4.148775e+001  -3.154255e+000 
3584375000  -4.061006e+001  -4.995684e+000 
3587500000  -3.983776e+001  -1.383549e+001 
3590625000  -4.062090e+001  -2.580098e+001 
3593750000  -4.171281e+001  -2.770291e+001 
3596875000  -4.184195e+001  -2.097139e+001 
3600000000  -4.042304e+001  -2.663077e+001 
3603125000  -4.102587e+001  -4.109759e+001 
3606250000  -4.145415e+001  -4.691254e+001 
3609375000  -4.219956e+001  -4.787196e+001 
3612500000  -4.287161e+001  -5.204161e+001 
3615625000  -4.336012e+001  -5.630792e+001 
3618750000  -4.380901e+001  -5.633347e+001 
3621875000  -4.398346e+001  -6.037600e+001 
3625000000  -4.438221e+001  -5.942817e+001 
3628125000  -4.449150e+001  -5.855621e+001 
3631250000  -4.468539e+001  -6.509766e+001 
3634375000  -4.583347e+001  -6.362651e+001 
3637500000  -4.589410e+001  -5.949676e+001 
3640625000  -4.568002e+001  -5.844159e+001 
3643750000  -4.476581e+001  -6.086565e+001 
3646875000  -4.499985e+001  -6.845932e+001 
3650000000  -4.600754e+001  -6.547074e+001 
3653125000  -4.521954e+001  -6.975403e+001 
3656250000  -4.589902e+001  -6.677435e+001 
3659375000  -4.644591e+001  -6.491759e+001 
3662500000  -4.533705e+001  -6.677105e+001 
3665625000  -4.479105e+001  -6.649355e+001 
3668750000  -4.347567e+001  -6.615309e+001 
3671875000  -4.264743e+001  -7.263155e+001 
3675000000  -4.280453e+001  -7.866096e+001 
3678125000  -4.295352e+001  -8.279131e+001 
3681250000  -4.281297e+001  -8.307255e+001 
3684375000  -4.257254e+001  -9.036887e+001 
3687500000  -4.250892e+001  -9.418909e+001 
3690625000  -4.295376e+001  -9.907214e+001 
3693750000  -4.351607e+001  -9.900170e+001 
3696875000  -4.320768e+001  -9.855536e+001 
3700000000  -4.269518e+001  -1.028121e+002 
3703125000  -4.272111e+001  -1.102029e+002 
3706250000  -4.358067e+001  -1.089454e+002 
3709375000  -4.324366e+001  -1.062707e+002 
3712500000  -4.243116e+001  -1.106521e+002 
3715625000  -4.182796e+001  -1.189919e+002 
3718750000  -4.131767e+001  -1.240806e+002 
3721875000  -4.116656e+001  -1.316082e+002 
3725000000  -4.124945e+001  -1.373378e+002 
3728125000  -4.226701e+001  -1.381835e+002 
3731250000  -4.174117e+001  -1.414664e+002 
3734375000  -4.119595e+001  -1.461282e+002 
3737500000  -4.217529e+001  -1.553484e+002 
3740625000  -4.340899e+001  -1.588110e+002 
3743750000  -4.313459e+001  -1.620205e+002 
3746875000  -4.378465e+001  -1.627987e+002 
3750000000  -4.462739e+001  -1.642586e+002 
3753125000  -4.446626e+001  -1.641025e+002 
3756250000  -4.468850e+001  -1.631859e+002 
3759375000  -4.453104e+001  -1.611386e+002 
3762500000  -4.429405e+001  -1.660560e+002 
3765625000  -4.509723e+001  -1.640673e+002 
3768750000  -4.508278e+001  -1.595115e+002 
3771875000  -4.353846e+001  -1.616738e+002 
3775000000  -4.330773e+001  -1.666987e+002 
3778125000  -4.349901e+001  -1.682414e+002 
3781250000  -4.292268e+001  -1.707277e+002 
3784375000  -4.295637e+001  -1.719075e+002 
3787500000  -4.219606e+001  -1.739129e+002 
3790625000  -4.218733e+001  1.787259e+002 
3793750000  -4.243554e+001  1.797569e+002 
3796875000  -4.106670e+001  1.780123e+002 
3800000000  -3.963791e+001  1.739310e+002 
3803125000  -4.019810e+001  1.645120e+002 
3806250000  -4.087288e+001  1.616780e+002 
3809375000  -4.022224e+001  1.593289e+002 
3812500000  -3.976336e+001  1.536618e+002 
3815625000  -4.042743e+001  1.436677e+002 
3818750000  -4.135649e+001  1.417133e+002 
3821875000  -4.126019e+001  1.493761e+002 
3825000000  -3.938302e+001  1.532914e+002 
3828125000  -3.819913e+001  1.351506e+002 
3831250000  -3.873718e+001  1.209312e+002 
3834375000  -4.003352e+001  1.176118e+002 
3837500000  -4.102840e+001  1.236971e+002 
3840625000  -3.988045e+001  1.219212e+002 
3843750000  -3.914859e+001  1.108958e+002 
3846875000  -3.984838e+001  1.030150e+002 
3850000000  -4.107047e+001  1.072990e+002 
3853125000  -4.056952e+001  1.082492e+002 
3856250000  -4.033838e+001  1.033915e+002 
3859375000  -3.957037e+001  9.693384e+001 
3862500000  -3.935772e+001  8.874796e+001 
3865625000  -3.972583e+001  8.445350e+001 
3868750000  -3.988613e+001  8.455856e+001 
3871875000  -3.906588e+001  7.923737e+001 
3875000000  -3.944779e+001  6.975804e+001 
3878125000  -4.060374e+001  6.787100e+001 
3881250000  -4.093153e+001  7.008846e+001 
3884375000  -4.028071e+001  6.601997e+001 
3887500000  -4.050544e+001  6.240910e+001 
3890625000  -4.097179e+001  5.987293e+001 
3893750000  -4.145551e+001  5.697095e+001 
3896875000  -4.167735e+001  5.967456e+001 
3900000000  -4.183091e+001  5.706347e+001 
3903125000  -4.129952e+001  5.678237e+001 
3906250000  -4.092172e+001  5.498319e+001 
3909375000  -4.024194e+001  5.043129e+001 
3912500000  -4.038635e+001  4.225573e+001 
3915625000  -4.159391e+001  4.490689e+001 
3918750000  -4.127822e+001  4.488536e+001 
3921875000  -4.086097e+001  4.141314e+001 
3925000000  -3.990406e+001  4.027817e+001 
3928125000  -3.924199e+001  3.436687e+001 
3931250000  -3.959007e+001  2.828813e+001 
3934375000  -3.990337e+001  2.635820e+001 
3937500000  -3.998348e+001  2.594554e+001 
3940625000  -4.053131e+001  2.309196e+001 
3943750000  -3.931866e+001  2.449697e+001 
3946875000  -3.826278e+001  1.715804e+001 
3950000000  -3.905025e+001  8.082940e+000 
3953125000  -4.024098e+001  6.916986e+000 
3956250000  -3.882521e+001  9.325197e+000 
3959375000  -3.774710e+001  5.114046e+000 
3962500000  -3.711696e+001  -5.945602e-001 
3965625000  -3.721734e+001  -1.118123e+001 
3968750000  -3.795034e+001  -1.825404e+001 
3971875000  -3.845375e+001  -2.069705e+001 
3975000000  -3.770573e+001  -2.318213e+001 
3978125000  -3.770358e+001  -2.630092e+001 
3981250000  -3.755445e+001  -3.206659e+001 
3984375000  -3.806899e+001  -3.829712e+001 
3987500000  -3.832521e+001  -4.119559e+001 
3990625000  -3.829993e+001  -4.436769e+001 
3993750000  -3.888377e+001  -4.867992e+001 
3996875000  -3.889467e+001  -5.219070e+001 
4000000000  -3.908041e+001  -5.203304e+001 
4003125000  -3.949007e+001  -5.055722e+001 
4006250000  -3.820625e+001  -5.258909e+001 
4009375000  -3.730339e+001  -6.641667e+001 
4012500000  -3.859982e+001  -7.337681e+001 
4015625000  -4.009846e+001  -7.194563e+001 
4018750000  -4.005081e+001  -6.926804e+001 
4021875000  -3.952318e+001  -7.139070e+001 
4025000000  -3.924370e+001  -7.716312e+001 
4028125000  -3.927077e+001  -8.054964e+001 
4031250000  -3.986093e+001  -8.500042e+001 
4034375000  -3.993742e+001  -8.461736e+001 
4037500000  -3.946124e+001  -8.328481e+001 
4040625000  -3.931051e+001  -8.719039e+001 
4043750000  -3.949113e+001  -8.720068e+001 
4046875000  -3.908380e+001  -8.734261e+001 
4050000000  -3.845832e+001  -9.528526e+001 
4053125000  -3.888813e+001  -9.711745e+001 
4056250000  -3.948447e+001  -9.210996e+001 
4059375000  -3.831843e+001  -9.253475e+001 
4062500000  -3.682151e+001  -9.796732e+001 
4065625000  -3.667088e+001  -1.019520e+002 
4068750000  -3.661412e+001  -1.086691e+002 
4071875000  -3.568391e+001  -1.168028e+002 
4075000000  -3.614963e+001  -1.253217e+002 
4078125000  -3.666963e+001  -1.265436e+002 
4081250000  -3.604575e+001  -1.300413e+002 
4084375000  -3.559645e+001  -1.379893e+002 
4087500000  -3.602481e+001  -1.452337e+002 
4090625000  -3.658585e+001  -1.463732e+002 
4093750000  -3.631911e+001  -1.476675e+002 
4096875000  -3.594914e+001  -1.542351e+002 
4100000000  -3.679491e+001  -1.629114e+002 
4103125000  -3.763542e+001  -1.620833e+002 
4106250000  -3.753416e+001  -1.591308e+002 
4109375000  -3.650443e+001  -1.602808e+002 
4112500000  -3.608060e+001  -1.684838e+002 
4115625000  -3.638873e+001  -1.734695e+002 
4118750000  -3.659240e+001  -1.773123e+002 
4121875000  -3.609640e+001  1.767505e+002 
4125000000  -3.661486e+001  1.699789e+002 
4128125000  -3.774249e+001  1.695811e+002 
4131250000  -3.733616e+001  1.770634e+002 
4134375000  -3.521174e+001  1.710248e+002 
4137500000  -3.507958e+001  1.510049e+002 
4140625000  -3.739233e+001  1.433247e+002 
4143750000  -3.876655e+001  1.464463e+002 
4146875000  -3.851079e+001  1.531979e+002 
4150000000  -3.754337e+001  1.507171e+002 
4153125000  -3.749498e+001  1.431557e+002 
4156250000  -3.866399e+001  1.403004e+002 
4159375000  -3.903111e+001  1.464430e+002 
4162500000  -3.773383e+001  1.501263e+002 
4165625000  -3.665234e+001  1.442399e+002 
4168750000  -3.612948e+001  1.364225e+002 
4171875000  -3.622748e+001  1.274768e+002 
4175000000  -3.676159e+001  1.221597e+002 
4178125000  -3.749952e+001  1.213627e+002 
4181250000  -3.718694e+001  1.226403e+002 
4184375000  -3.709784e+001  1.179043e+002 
4187500000  -3.701430e+001  1.143955e+002 
4190625000  -3.685958e+001  1.092886e+002 
4193750000  -3.766638e+001  1.040720e+002 
4196875000  -3.822115e+001  1.038537e+002 
4200000000  -3.933276e+001  1.064630e+002 
4203125000  -3.898350e+001  1.207567e+002 
4206250000  -3.534941e+001  1.198328e+002 
4209375000  -3.437841e+001  9.748618e+001 
4212500000  -3.627188e+001  8.811108e+001 
4215625000  -3.717222e+001  9.613602e+001 
4218750000  -3.571186e+001  9.902984e+001 
4221875000  -3.331897e+001  8.974302e+001 
4225000000  -3.461755e+001  7.602103e+001 
4228125000  -3.510519e+001  8.024603e+001 
4231250000  -3.344081e+001  7.531537e+001 
4234375000  -3.331084e+001  6.503277e+001 
4237500000  -3.290036e+001  6.186630e+001 
4240625000  -3.286077e+001  5.110881e+001 
4243750000  -3.392991e+001  4.258648e+001 
4246875000  -3.476323e+001  4.246698e+001 
4250000000  -3.489305e+001  4.360513e+001 
4253125000  -3.433123e+001  3.985599e+001 
4256250000  -3.464521e+001  3.469130e+001 
4259375000  -3.434967e+001  3.026711e+001 
4262500000  -3.450685e+001  2.656145e+001 
4265625000  -3.471643e+001  2.589971e+001 
4268750000  -3.369051e+001  2.031688e+001 
4271875000  -3.362231e+001  1.311662e+001 
4275000000  -3.325805e+001  4.859859e+000 
4278125000  -3.401853e+001  -6.663427e+000 
4281250000  -3.599070e+001  -8.512152e+000 
4284375000  -3.564805e+001  -9.555856e+000 
4287500000  -3.670832e+001  -1.365674e+001 
4290625000  -3.787121e+001  -4.815733e+000 
4293750000  -3.603733e+001  -8.609916e-001 
4296875000  -3.499826e+001  -1.050033e+001 
4300000000  -3.625541e+001  -1.949508e+001 
4303125000  -3.739504e+001  -1.939420e+001 
4306250000  -3.649823e+001  -1.317912e+001 
4309375000  -3.538981e+001  -1.554669e+001 
4312500000  -3.513231e+001  -2.190368e+001 
4315625000  -3.526184e+001  -2.891319e+001 
4318750000  -3.560151e+001  -3.187203e+001 
4321875000  -3.586077e+001  -3.062841e+001 
4325000000  -3.505190e+001  -3.047101e+001 
4328125000  -3.451473e+001  -3.721664e+001 
4331250000  -3.440623e+001  -4.551950e+001 
4334375000  -3.488857e+001  -4.971191e+001 
4337500000  -3.552792e+001  -5.334262e+001 
4340625000  -3.597941e+001  -4.905710e+001 
4343750000  -3.500523e+001  -4.944808e+001 
4346875000  -3.454792e+001  -5.586402e+001 
4350000000  -3.446226e+001  -6.179061e+001 
4353125000  -3.436513e+001  -6.980964e+001 
4356250000  -3.627619e+001  -7.133909e+001 
4359375000  -3.618216e+001  -5.824531e+001 
4362500000  -3.367315e+001  -5.797301e+001 
4365625000  -3.191519e+001  -7.188657e+001 
4368750000  -3.263367e+001  -8.533019e+001 
4371875000  -3.370207e+001  -8.518555e+001 
4375000000  -3.328366e+001  -8.586774e+001 
4378125000  -3.253350e+001  -9.349771e+001 
4381250000  -3.286264e+001  -1.009098e+002 
4384375000  -3.253880e+001  -1.061662e+002 
4387500000  -3.330364e+001  -1.136993e+002 
4390625000  -3.430561e+001  -1.133313e+002 
4393750000  -3.351484e+001  -1.141482e+002 
4396875000  -3.296268e+001  -1.174362e+002 
4400000000  -3.232918e+001  -1.258354e+002 
4403125000  -3.317085e+001  -1.348934e+002 
4406250000  -3.405363e+001  -1.372730e+002 
4409375000  -3.415279e+001  -1.414547e+002 
4412500000  -3.548041e+001  -1.446405e+002 
4415625000  -3.572462e+001  -1.407908e+002 
