!Agilent Technologies,E8363B,MY43030201,A.06.04.32
!Agilent E8363B: A.06.04.32
!Date: Tuesday, November 11, 2014 21:07:09
!Correction: S21(Response(S21)) 
!S1P File: Measurement: S21:
# Hz S  dB   R 50
3000000000  -3.650739e+001  -5.098435e+001 
3003125000  -3.761032e+001  -5.685678e+001 
3006250000  -3.743219e+001  -5.905179e+001 
3009375000  -3.781406e+001  -5.448800e+001 
3012500000  -3.701061e+001  -5.712291e+001 
3015625000  -3.609330e+001  -6.382368e+001 
3018750000  -3.695309e+001  -6.522656e+001 
3021875000  -3.536348e+001  -6.409408e+001 
3025000000  -3.415575e+001  -6.855907e+001 
3028125000  -3.318092e+001  -7.415758e+001 
3031250000  -3.219653e+001  -8.595592e+001 
3034375000  -3.174539e+001  -9.934197e+001 
3037500000  -3.226289e+001  -1.111802e+002 
3040625000  -3.361693e+001  -1.164608e+002 
3043750000  -3.427592e+001  -1.215126e+002 
3046875000  -3.446488e+001  -1.274525e+002 
3050000000  -3.617342e+001  -1.331523e+002 
3053125000  -3.603866e+001  -1.271289e+002 
3056250000  -3.548888e+001  -1.250320e+002 
3059375000  -3.559996e+001  -1.247243e+002 
3062500000  -3.416756e+001  -1.279026e+002 
3065625000  -3.404000e+001  -1.338179e+002 
3068750000  -3.354391e+001  -1.416086e+002 
3071875000  -3.348376e+001  -1.435288e+002 
3075000000  -3.326970e+001  -1.474644e+002 
3078125000  -3.310750e+001  -1.521146e+002 
3081250000  -3.352825e+001  -1.563749e+002 
3084375000  -3.261709e+001  -1.600783e+002 
3087500000  -3.245188e+001  -1.640582e+002 
3090625000  -3.192873e+001  -1.740871e+002 
3093750000  -3.241272e+001  1.786255e+002 
3096875000  -3.342508e+001  1.727955e+002 
3100000000  -3.335828e+001  1.704701e+002 
3103125000  -3.355112e+001  1.712236e+002 
3106250000  -3.309811e+001  1.673576e+002 
3109375000  -3.327673e+001  1.629898e+002 
3112500000  -3.316698e+001  1.609960e+002 
3115625000  -3.285037e+001  1.559857e+002 
3118750000  -3.321276e+001  1.564609e+002 
3121875000  -3.237910e+001  1.467185e+002 
3125000000  -3.354205e+001  1.424156e+002 
3128125000  -3.444090e+001  1.503102e+002 
3131250000  -3.215294e+001  1.484579e+002 
3134375000  -3.077311e+001  1.326971e+002 
3137500000  -3.125566e+001  1.182417e+002 
3140625000  -3.283538e+001  1.155729e+002 
3143750000  -3.383323e+001  1.171675e+002 
3146875000  -3.329811e+001  1.186244e+002 
3150000000  -3.229876e+001  1.187703e+002 
3153125000  -3.230847e+001  1.094588e+002 
3156250000  -3.335913e+001  1.142356e+002 
3159375000  -3.162510e+001  1.155168e+002 
3162500000  -2.968845e+001  1.003101e+002 
3165625000  -3.074518e+001  8.858852e+001 
3168750000  -3.108864e+001  8.839040e+001 
3171875000  -3.020303e+001  8.337850e+001 
3175000000  -3.097562e+001  7.440456e+001 
3178125000  -3.068831e+001  7.493111e+001 
3181250000  -2.956880e+001  6.963293e+001 
3184375000  -2.889475e+001  5.702031e+001 
3187500000  -3.012274e+001  4.154768e+001 
3190625000  -3.283085e+001  3.336774e+001 
3193750000  -3.340548e+001  4.207892e+001 
3196875000  -3.306450e+001  4.723317e+001 
3200000000  -3.204770e+001  4.380730e+001 
3203125000  -3.130622e+001  3.812393e+001 
3206250000  -3.157490e+001  3.097048e+001 
3209375000  -3.111560e+001  2.540761e+001 
3212500000  -3.134498e+001  1.803361e+001 
3215625000  -3.138491e+001  1.459845e+001 
3218750000  -3.217807e+001  7.227071e+000 
3221875000  -3.304618e+001  1.172607e+000 
3225000000  -3.256927e+001  4.001842e-001 
3228125000  -3.304374e+001  -4.941730e+000 
3231250000  -3.373555e+001  -7.169302e+000 
3234375000  -3.340715e+001  -7.084177e+000 
3237500000  -3.338900e+001  -9.164980e+000 
3240625000  -3.293550e+001  -1.145673e+001 
3243750000  -3.254542e+001  -1.924247e+001 
3246875000  -3.296360e+001  -2.619436e+001 
3250000000  -3.342984e+001  -2.876715e+001 
3253125000  -3.352151e+001  -3.050858e+001 
3256250000  -3.317394e+001  -3.722578e+001 
3259375000  -3.345910e+001  -4.571600e+001 
3262500000  -3.459740e+001  -5.034764e+001 
3265625000  -3.525749e+001  -4.729992e+001 
3268750000  -3.522150e+001  -4.488792e+001 
3271875000  -3.480213e+001  -4.545375e+001 
3275000000  -3.370071e+001  -5.176013e+001 
3278125000  -3.418707e+001  -5.859887e+001 
3281250000  -3.434109e+001  -5.784127e+001 
3284375000  -3.384162e+001  -6.422712e+001 
3287500000  -3.413120e+001  -6.800671e+001 
3290625000  -3.429572e+001  -7.397752e+001 
3293750000  -3.403676e+001  -8.015858e+001 
3296875000  -3.510776e+001  -8.068806e+001 
3300000000  -3.482326e+001  -7.984085e+001 
3303125000  -3.367966e+001  -8.546877e+001 
3306250000  -3.352204e+001  -9.259943e+001 
3309375000  -3.319177e+001  -9.926939e+001 
3312500000  -3.339664e+001  -1.098155e+002 
3315625000  -3.427869e+001  -1.182460e+002 
3318750000  -3.564249e+001  -1.203098e+002 
3321875000  -3.669054e+001  -1.214367e+002 
3325000000  -3.728130e+001  -1.156236e+002 
3328125000  -3.677219e+001  -1.148040e+002 
3331250000  -3.562914e+001  -1.085012e+002 
3334375000  -3.304450e+001  -1.195586e+002 
3337500000  -3.311920e+001  -1.390683e+002 
3340625000  -3.446226e+001  -1.495331e+002 
3343750000  -3.641014e+001  -1.504037e+002 
3346875000  -3.670973e+001  -1.484096e+002 
3350000000  -3.603818e+001  -1.512046e+002 
3353125000  -3.612257e+001  -1.554606e+002 
3356250000  -3.564968e+001  -1.639868e+002 
3359375000  -3.635860e+001  -1.730104e+002 
3362500000  -3.766143e+001  -1.777379e+002 
3365625000  -3.804028e+001  -1.780840e+002 
3368750000  -3.884865e+001  1.787343e+002 
3371875000  -3.895519e+001  1.766789e+002 
3375000000  -4.042169e+001  1.733476e+002 
3378125000  -4.130742e+001  1.724098e+002 
3381250000  -4.260538e+001  -1.783310e+002 
3384375000  -4.114814e+001  -1.579484e+002 
3387500000  -3.755429e+001  -1.729526e+002 
3390625000  -3.912817e+001  1.665281e+002 
3393750000  -4.026878e+001  1.723945e+002 
3396875000  -3.918040e+001  1.730492e+002 
3400000000  -3.869414e+001  1.629767e+002 
3403125000  -3.936246e+001  1.581877e+002 
3406250000  -3.979382e+001  1.595760e+002 
3409375000  -3.993706e+001  1.506264e+002 
3412500000  -4.029976e+001  1.476711e+002 
3415625000  -4.081286e+001  1.504062e+002 
3418750000  -4.127120e+001  1.512459e+002 
3421875000  -4.123643e+001  1.531611e+002 
3425000000  -4.030431e+001  1.541723e+002 
3428125000  -3.923246e+001  1.498388e+002 
3431250000  -3.922206e+001  1.420360e+002 
3434375000  -3.937288e+001  1.362894e+002 
3437500000  -3.976696e+001  1.335154e+002 
3440625000  -4.008130e+001  1.339809e+002 
3443750000  -3.889058e+001  1.347540e+002 
3446875000  -3.791962e+001  1.274280e+002 
3450000000  -3.761732e+001  1.165940e+002 
3453125000  -3.801034e+001  1.066236e+002 
3456250000  -3.916297e+001  1.010180e+002 
3459375000  -4.032438e+001  1.020716e+002 
3462500000  -4.002877e+001  1.004075e+002 
3465625000  -3.995638e+001  9.635194e+001 
3468750000  -4.017815e+001  9.120111e+001 
3471875000  -4.026054e+001  9.072917e+001 
3475000000  -3.987636e+001  8.641277e+001 
3478125000  -4.067333e+001  7.754483e+001 
3481250000  -4.129424e+001  7.605967e+001 
3484375000  -4.220342e+001  8.053497e+001 
3487500000  -4.132940e+001  7.899675e+001 
3490625000  -4.100139e+001  7.435923e+001 
3493750000  -4.140405e+001  6.792104e+001 
3496875000  -4.199720e+001  6.699531e+001 
3500000000  -4.262923e+001  6.951968e+001 
3503125000  -4.239996e+001  7.227254e+001 
3506250000  -4.089009e+001  6.795809e+001 
3509375000  -4.079216e+001  5.771889e+001 
3512500000  -4.126199e+001  4.724238e+001 
3515625000  -4.195510e+001  4.754201e+001 
3518750000  -4.233332e+001  4.861650e+001 
3521875000  -4.251345e+001  4.544529e+001 
3525000000  -4.357124e+001  3.904464e+001 
3528125000  -4.317577e+001  4.873775e+001 
3531250000  -4.209678e+001  4.912553e+001 
3534375000  -4.192310e+001  3.576471e+001 
3537500000  -4.231706e+001  3.212619e+001 
3540625000  -4.325850e+001  3.053997e+001 
3543750000  -4.395296e+001  3.417994e+001 
3546875000  -4.405022e+001  4.375326e+001 
3550000000  -4.131512e+001  4.687551e+001 
3553125000  -4.013021e+001  2.705959e+001 
3556250000  -4.126480e+001  2.069188e+001 
3559375000  -4.112259e+001  2.276808e+001 
3562500000  -4.018246e+001  1.357589e+001 
3565625000  -4.097279e+001  5.458710e+000 
3568750000  -4.105235e+001  8.830594e+000 
3571875000  -4.097665e+001  5.292924e+000 
3575000000  -4.059644e+001  -8.368757e-002 
3578125000  -4.110142e+001  -7.399087e+000 
3581250000  -4.146285e+001  -2.737678e+000 
3584375000  -4.061876e+001  -8.461647e+000 
3587500000  -3.997021e+001  -1.952677e+001 
3590625000  -4.059142e+001  -2.999088e+001 
3593750000  -4.197581e+001  -3.224710e+001 
3596875000  -4.162182e+001  -2.495863e+001 
3600000000  -4.041232e+001  -2.975920e+001 
3603125000  -4.083217e+001  -4.598164e+001 
3606250000  -4.177851e+001  -4.788787e+001 
3609375000  -4.222905e+001  -5.257564e+001 
3612500000  -4.276961e+001  -5.456987e+001 
3615625000  -4.320102e+001  -5.634995e+001 
3618750000  -4.433453e+001  -5.710382e+001 
3621875000  -4.407417e+001  -5.989138e+001 
3625000000  -4.467873e+001  -6.026063e+001 
3628125000  -4.447642e+001  -6.304885e+001 
3631250000  -4.457296e+001  -6.634106e+001 
3634375000  -4.596382e+001  -6.477182e+001 
3637500000  -4.628444e+001  -6.040341e+001 
3640625000  -4.509990e+001  -5.930753e+001 
3643750000  -4.441530e+001  -6.056215e+001 
3646875000  -4.483986e+001  -6.952524e+001 
3650000000  -4.617966e+001  -7.054823e+001 
3653125000  -4.542575e+001  -7.142140e+001 
3656250000  -4.609324e+001  -7.041046e+001 
3659375000  -4.563569e+001  -6.525634e+001 
3662500000  -4.493092e+001  -6.803583e+001 
3665625000  -4.437140e+001  -6.877625e+001 
3668750000  -4.356095e+001  -6.935263e+001 
3671875000  -4.248537e+001  -7.756120e+001 
3675000000  -4.252020e+001  -8.406679e+001 
3678125000  -4.265802e+001  -8.425292e+001 
3681250000  -4.252355e+001  -8.703827e+001 
3684375000  -4.237832e+001  -9.326366e+001 
3687500000  -4.234048e+001  -9.857459e+001 
3690625000  -4.297009e+001  -1.006018e+002 
3693750000  -4.363018e+001  -1.042441e+002 
3696875000  -4.347524e+001  -1.036052e+002 
3700000000  -4.277640e+001  -1.072511e+002 
3703125000  -4.268155e+001  -1.146568e+002 
3706250000  -4.370857e+001  -1.134033e+002 
3709375000  -4.343498e+001  -1.115802e+002 
3712500000  -4.205817e+001  -1.150896e+002 
3715625000  -4.164846e+001  -1.234336e+002 
3718750000  -4.098099e+001  -1.277728e+002 
3721875000  -4.153322e+001  -1.348308e+002 
3725000000  -4.154496e+001  -1.408273e+002 
3728125000  -4.202117e+001  -1.416904e+002 
3731250000  -4.153594e+001  -1.445189e+002 
3734375000  -4.150957e+001  -1.501031e+002 
3737500000  -4.204906e+001  -1.602166e+002 
3740625000  -4.316143e+001  -1.590181e+002 
3743750000  -4.329790e+001  -1.640146e+002 
3746875000  -4.339743e+001  -1.672910e+002 
3750000000  -4.455245e+001  -1.672240e+002 
3753125000  -4.427665e+001  -1.648245e+002 
3756250000  -4.466286e+001  -1.635265e+002 
3759375000  -4.481126e+001  -1.647559e+002 
3762500000  -4.431958e+001  -1.677141e+002 
3765625000  -4.508286e+001  -1.665872e+002 
3768750000  -4.508044e+001  -1.602445e+002 
3771875000  -4.320353e+001  -1.640128e+002 
3775000000  -4.277287e+001  -1.712802e+002 
3778125000  -4.319621e+001  -1.709667e+002 
3781250000  -4.309164e+001  -1.721619e+002 
3784375000  -4.248082e+001  -1.759577e+002 
3787500000  -4.169392e+001  -1.767438e+002 
3790625000  -4.205607e+001  1.760938e+002 
3793750000  -4.224997e+001  1.757966e+002 
3796875000  -4.079051e+001  1.724361e+002 
3800000000  -3.945064e+001  1.709667e+002 
3803125000  -4.011689e+001  1.606894e+002 
3806250000  -4.077099e+001  1.572714e+002 
3809375000  -4.035322e+001  1.560210e+002 
3812500000  -3.965348e+001  1.489405e+002 
3815625000  -4.024533e+001  1.393908e+002 
3818750000  -4.091891e+001  1.373702e+002 
3821875000  -4.096278e+001  1.471176e+002 
3825000000  -3.921436e+001  1.479033e+002 
3828125000  -3.767432e+001  1.314486e+002 
3831250000  -3.842410e+001  1.178072e+002 
3834375000  -4.004302e+001  1.152574e+002 
3837500000  -4.068574e+001  1.186165e+002 
3840625000  -3.985118e+001  1.183962e+002 
3843750000  -3.886477e+001  1.043593e+002 
3846875000  -3.991479e+001  9.773009e+001 
3850000000  -4.105000e+001  1.014325e+002 
3853125000  -4.025467e+001  1.044551e+002 
3856250000  -4.050480e+001  9.777351e+001 
3859375000  -3.951796e+001  9.257427e+001 
3862500000  -3.953652e+001  8.527744e+001 
3865625000  -3.998066e+001  8.068970e+001 
3868750000  -3.962468e+001  7.936171e+001 
3871875000  -3.922251e+001  7.648895e+001 
3875000000  -3.953732e+001  6.462381e+001 
3878125000  -4.080210e+001  6.589839e+001 
3881250000  -4.090123e+001  6.655416e+001 
3884375000  -4.028615e+001  6.299662e+001 
3887500000  -4.049724e+001  5.825748e+001 
3890625000  -4.100288e+001  5.622871e+001 
3893750000  -4.112456e+001  5.339085e+001 
3896875000  -4.175166e+001  5.812828e+001 
3900000000  -4.203492e+001  5.343472e+001 
3903125000  -4.124563e+001  5.109781e+001 
3906250000  -4.136633e+001  5.207514e+001 
3909375000  -4.020131e+001  4.746293e+001 
3912500000  -4.027478e+001  3.930316e+001 
3915625000  -4.147434e+001  3.947508e+001 
3918750000  -4.125372e+001  4.129421e+001 
3921875000  -4.057000e+001  3.932631e+001 
3925000000  -3.961243e+001  3.472849e+001 
3928125000  -3.908071e+001  2.938304e+001 
3931250000  -3.960501e+001  2.508649e+001 
3934375000  -3.996252e+001  2.290102e+001 
3937500000  -3.986702e+001  2.151864e+001 
3940625000  -4.027194e+001  1.867205e+001 
3943750000  -3.917835e+001  1.855807e+001 
3946875000  -3.807658e+001  1.344759e+001 
3950000000  -3.869951e+001  4.644540e+000 
3953125000  -3.986067e+001  2.654696e+000 
3956250000  -3.860246e+001  4.832961e+000 
3959375000  -3.747350e+001  1.625611e+000 
3962500000  -3.731072e+001  -5.855084e+000 
3965625000  -3.687799e+001  -1.432899e+001 
3968750000  -3.781502e+001  -2.267707e+001 
3971875000  -3.828008e+001  -2.670589e+001 
3975000000  -3.759018e+001  -2.747587e+001 
3978125000  -3.762512e+001  -3.155064e+001 
3981250000  -3.745288e+001  -3.691266e+001 
3984375000  -3.788647e+001  -4.482529e+001 
3987500000  -3.843648e+001  -4.624890e+001 
3990625000  -3.839507e+001  -4.684532e+001 
3993750000  -3.903447e+001  -5.288377e+001 
3996875000  -3.887832e+001  -5.639486e+001 
4000000000  -3.945342e+001  -5.829846e+001 
4003125000  -3.967613e+001  -5.521936e+001 
4006250000  -3.840943e+001  -5.596588e+001 
4009375000  -3.759043e+001  -7.014536e+001 
4012500000  -3.870262e+001  -7.710561e+001 
4015625000  -4.012343e+001  -7.544318e+001 
4018750000  -4.035484e+001  -7.476206e+001 
4021875000  -3.956776e+001  -7.538474e+001 
4025000000  -3.921983e+001  -8.129522e+001 
4028125000  -3.925050e+001  -8.501139e+001 
4031250000  -3.994289e+001  -8.746645e+001 
4034375000  -4.002718e+001  -8.852129e+001 
4037500000  -3.955535e+001  -8.661900e+001 
4040625000  -3.923229e+001  -9.019035e+001 
4043750000  -3.959169e+001  -9.144799e+001 
4046875000  -3.894892e+001  -9.294748e+001 
4050000000  -3.861377e+001  -9.808607e+001 
4053125000  -3.919445e+001  -9.983365e+001 
4056250000  -3.952242e+001  -9.681105e+001 
4059375000  -3.808547e+001  -9.629273e+001 
4062500000  -3.675513e+001  -1.005794e+002 
4065625000  -3.647668e+001  -1.063644e+002 
4068750000  -3.634542e+001  -1.125764e+002 
4071875000  -3.556341e+001  -1.223229e+002 
4075000000  -3.596838e+001  -1.278364e+002 
4078125000  -3.664467e+001  -1.306008e+002 
4081250000  -3.585217e+001  -1.346776e+002 
4084375000  -3.547025e+001  -1.417650e+002 
4087500000  -3.598606e+001  -1.493654e+002 
4090625000  -3.657605e+001  -1.518249e+002 
4093750000  -3.630354e+001  -1.521762e+002 
4096875000  -3.588298e+001  -1.599483e+002 
4100000000  -3.654732e+001  -1.673364e+002 
4103125000  -3.751268e+001  -1.674272e+002 
4106250000  -3.744651e+001  -1.630981e+002 
4109375000  -3.641286e+001  -1.646324e+002 
4112500000  -3.589075e+001  -1.732090e+002 
4115625000  -3.633427e+001  -1.780615e+002 
4118750000  -3.665535e+001  1.773231e+002 
4121875000  -3.621861e+001  1.714026e+002 
4125000000  -3.669632e+001  1.643336e+002 
4128125000  -3.752391e+001  1.647294e+002 
4131250000  -3.749388e+001  1.720147e+002 
4134375000  -3.525941e+001  1.662058e+002 
4137500000  -3.516787e+001  1.470771e+002 
4140625000  -3.733284e+001  1.393834e+002 
4143750000  -3.889678e+001  1.439686e+002 
4146875000  -3.825790e+001  1.488661e+002 
4150000000  -3.756334e+001  1.467832e+002 
4153125000  -3.749567e+001  1.378899e+002 
4156250000  -3.872436e+001  1.360299e+002 
4159375000  -3.889043e+001  1.419751e+002 
4162500000  -3.782212e+001  1.445930e+002 
4165625000  -3.669094e+001  1.401307e+002 
4168750000  -3.623862e+001  1.338335e+002 
4171875000  -3.619302e+001  1.237327e+002 
4175000000  -3.697477e+001  1.173958e+002 
4178125000  -3.726456e+001  1.184769e+002 
4181250000  -3.733519e+001  1.168027e+002 
4184375000  -3.695952e+001  1.130049e+002 
4187500000  -3.674341e+001  1.117813e+002 
4190625000  -3.657272e+001  1.042329e+002 
4193750000  -3.760114e+001  1.016386e+002 
4196875000  -3.829719e+001  1.009024e+002 
4200000000  -3.901646e+001  1.025866e+002 
4203125000  -3.866483e+001  1.154139e+002 
4206250000  -3.532584e+001  1.150155e+002 
4209375000  -3.409600e+001  9.423226e+001 
4212500000  -3.623445e+001  8.530739e+001 
4215625000  -3.703380e+001  9.055353e+001 
4218750000  -3.551836e+001  9.509283e+001 
4221875000  -3.314388e+001  8.470641e+001 
4225000000  -3.443972e+001  7.192681e+001 
4228125000  -3.495121e+001  7.472563e+001 
4231250000  -3.345941e+001  7.043389e+001 
4234375000  -3.329153e+001  6.151554e+001 
4237500000  -3.277026e+001  5.689189e+001 
4240625000  -3.285120e+001  4.586543e+001 
4243750000  -3.390311e+001  3.730277e+001 
4246875000  -3.482909e+001  3.685815e+001 
4250000000  -3.458483e+001  3.771714e+001 
4253125000  -3.431317e+001  3.493458e+001 
4256250000  -3.439907e+001  2.896300e+001 
4259375000  -3.432487e+001  2.628138e+001 
4262500000  -3.448350e+001  2.165398e+001 
4265625000  -3.477233e+001  2.038511e+001 
4268750000  -3.375953e+001  1.447421e+001 
4271875000  -3.367060e+001  8.068488e+000 
4275000000  -3.330486e+001  -6.887186e-001 
4278125000  -3.411009e+001  -1.219710e+001 
4281250000  -3.617325e+001  -1.505580e+001 
4284375000  -3.581414e+001  -1.423349e+001 
4287500000  -3.672118e+001  -1.956814e+001 
4290625000  -3.843742e+001  -8.490751e+000 
4293750000  -3.630828e+001  -3.985799e+000 
4296875000  -3.504353e+001  -1.559994e+001 
4300000000  -3.613247e+001  -2.434095e+001 
4303125000  -3.756148e+001  -2.213843e+001 
4306250000  -3.663865e+001  -1.723439e+001 
4309375000  -3.541363e+001  -1.799300e+001 
4312500000  -3.514122e+001  -2.751549e+001 
4315625000  -3.529747e+001  -3.270547e+001 
4318750000  -3.581279e+001  -3.599442e+001 
4321875000  -3.588496e+001  -3.439565e+001 
4325000000  -3.520029e+001  -3.480157e+001 
4328125000  -3.464577e+001  -4.065222e+001 
4331250000  -3.429729e+001  -4.943993e+001 
4334375000  -3.475397e+001  -5.473385e+001 
4337500000  -3.554498e+001  -5.742506e+001 
4340625000  -3.596950e+001  -5.259451e+001 
4343750000  -3.501666e+001  -5.383895e+001 
4346875000  -3.452328e+001  -6.041926e+001 
4350000000  -3.431144e+001  -6.597541e+001 
4353125000  -3.443317e+001  -7.529218e+001 
4356250000  -3.638966e+001  -7.635552e+001 
4359375000  -3.664999e+001  -6.196154e+001 
4362500000  -3.349161e+001  -6.280799e+001 
4365625000  -3.180824e+001  -7.758147e+001 
4368750000  -3.268472e+001  -8.906628e+001 
4371875000  -3.374230e+001  -8.954890e+001 
4375000000  -3.314388e+001  -9.061662e+001 
4378125000  -3.269390e+001  -9.819967e+001 
4381250000  -3.276925e+001  -1.058695e+002 
4384375000  -3.248529e+001  -1.123620e+002 
4387500000  -3.327139e+001  -1.197989e+002 
4390625000  -3.434466e+001  -1.196552e+002 
4393750000  -3.365421e+001  -1.190907e+002 
4396875000  -3.310687e+001  -1.231775e+002 
4400000000  -3.250224e+001  -1.317339e+002 
4403125000  -3.337125e+001  -1.402364e+002 
4406250000  -3.411688e+001  -1.438318e+002 
4409375000  -3.423235e+001  -1.464748e+002 
4412500000  -3.551855e+001  -1.505287e+002 
4415625000  -3.588422e+001  -1.466512e+002 
