!Agilent Technologies,E8363B,MY43030201,A.06.04.32
!Agilent E8363B: A.06.04.32
!Date: Tuesday, November 11, 2014 21:06:45
!Correction: S21(Response(S21)) 
!S1P File: Measurement: S21:
# Hz S  dB   R 50
3000000000  -3.657169e+001  -4.950068e+001 
3003125000  -3.760383e+001  -5.593297e+001 
3006250000  -3.747506e+001  -5.741474e+001 
3009375000  -3.782805e+001  -5.400873e+001 
3012500000  -3.695918e+001  -5.588346e+001 
3015625000  -3.612485e+001  -6.312251e+001 
3018750000  -3.686970e+001  -6.449443e+001 
3021875000  -3.552521e+001  -6.299971e+001 
3025000000  -3.412642e+001  -6.720929e+001 
3028125000  -3.314148e+001  -7.318049e+001 
3031250000  -3.215404e+001  -8.450539e+001 
3034375000  -3.176699e+001  -9.839465e+001 
3037500000  -3.222872e+001  -1.104331e+002 
3040625000  -3.356599e+001  -1.148849e+002 
3043750000  -3.426704e+001  -1.195422e+002 
3046875000  -3.439376e+001  -1.264519e+002 
3050000000  -3.607352e+001  -1.329597e+002 
3053125000  -3.604298e+001  -1.260336e+002 
3056250000  -3.557274e+001  -1.238271e+002 
3059375000  -3.561761e+001  -1.234534e+002 
3062500000  -3.408739e+001  -1.278554e+002 
3065625000  -3.389104e+001  -1.339595e+002 
3068750000  -3.354414e+001  -1.404066e+002 
3071875000  -3.349813e+001  -1.426910e+002 
3075000000  -3.330922e+001  -1.472554e+002 
3078125000  -3.298031e+001  -1.509395e+002 
3081250000  -3.344921e+001  -1.554310e+002 
3084375000  -3.261266e+001  -1.589431e+002 
3087500000  -3.243830e+001  -1.626403e+002 
3090625000  -3.197108e+001  -1.730153e+002 
3093750000  -3.239563e+001  1.795760e+002 
3096875000  -3.351611e+001  1.738502e+002 
3100000000  -3.338031e+001  1.714192e+002 
3103125000  -3.368808e+001  1.724016e+002 
3106250000  -3.318626e+001  1.682102e+002 
3109375000  -3.326057e+001  1.645773e+002 
3112500000  -3.315604e+001  1.620822e+002 
3115625000  -3.289625e+001  1.570524e+002 
3118750000  -3.320401e+001  1.575941e+002 
3121875000  -3.232335e+001  1.482259e+002 
3125000000  -3.355379e+001  1.435504e+002 
3128125000  -3.451703e+001  1.507134e+002 
3131250000  -3.209414e+001  1.493462e+002 
3134375000  -3.074330e+001  1.337869e+002 
3137500000  -3.131764e+001  1.197272e+002 
3140625000  -3.280029e+001  1.168247e+002 
3143750000  -3.382669e+001  1.182024e+002 
3146875000  -3.333969e+001  1.195062e+002 
3150000000  -3.234830e+001  1.196908e+002 
3153125000  -3.238247e+001  1.103725e+002 
3156250000  -3.326297e+001  1.151088e+002 
3159375000  -3.163270e+001  1.163542e+002 
3162500000  -2.966475e+001  1.021374e+002 
3165625000  -3.066915e+001  8.963474e+001 
3168750000  -3.103163e+001  8.979150e+001 
3171875000  -3.008186e+001  8.454507e+001 
3175000000  -3.081988e+001  7.549165e+001 
3178125000  -3.064531e+001  7.632177e+001 
3181250000  -2.953184e+001  7.042612e+001 
3184375000  -2.877955e+001  5.810690e+001 
3187500000  -3.000644e+001  4.251892e+001 
3190625000  -3.284694e+001  3.516315e+001 
3193750000  -3.322741e+001  4.327632e+001 
3196875000  -3.291576e+001  4.804388e+001 
3200000000  -3.199108e+001  4.517601e+001 
3203125000  -3.119460e+001  3.904677e+001 
3206250000  -3.154614e+001  3.220403e+001 
3209375000  -3.107510e+001  2.574090e+001 
3212500000  -3.126054e+001  1.912071e+001 
3215625000  -3.134236e+001  1.551639e+001 
3218750000  -3.215487e+001  8.006937e+000 
3221875000  -3.296475e+001  2.385767e+000 
3225000000  -3.253555e+001  1.422181e+000 
3228125000  -3.294842e+001  -3.800759e+000 
3231250000  -3.368205e+001  -6.660028e+000 
3234375000  -3.339144e+001  -6.464499e+000 
3237500000  -3.324152e+001  -8.805479e+000 
3240625000  -3.289796e+001  -1.073608e+001 
3243750000  -3.249979e+001  -1.857976e+001 
3246875000  -3.297503e+001  -2.587953e+001 
3250000000  -3.343331e+001  -2.819036e+001 
3253125000  -3.349682e+001  -3.028643e+001 
3256250000  -3.311303e+001  -3.723314e+001 
3259375000  -3.337325e+001  -4.517819e+001 
3262500000  -3.461609e+001  -4.917864e+001 
3265625000  -3.527604e+001  -4.599333e+001 
3268750000  -3.505347e+001  -4.438974e+001 
3271875000  -3.459843e+001  -4.495297e+001 
3275000000  -3.373407e+001  -5.157728e+001 
3278125000  -3.420093e+001  -5.819331e+001 
3281250000  -3.435221e+001  -5.686659e+001 
3284375000  -3.383249e+001  -6.383036e+001 
3287500000  -3.396447e+001  -6.706098e+001 
3290625000  -3.433470e+001  -7.269292e+001 
3293750000  -3.410291e+001  -7.940655e+001 
3296875000  -3.511345e+001  -8.063773e+001 
3300000000  -3.488375e+001  -7.944457e+001 
3303125000  -3.365797e+001  -8.449812e+001 
3306250000  -3.349335e+001  -9.130252e+001 
3309375000  -3.312470e+001  -9.811835e+001 
3312500000  -3.327148e+001  -1.087535e+002 
3315625000  -3.422934e+001  -1.171116e+002 
3318750000  -3.574895e+001  -1.185725e+002 
3321875000  -3.672545e+001  -1.196993e+002 
3325000000  -3.752160e+001  -1.138347e+002 
3328125000  -3.670953e+001  -1.138396e+002 
3331250000  -3.565913e+001  -1.072738e+002 
3334375000  -3.302010e+001  -1.179693e+002 
3337500000  -3.299508e+001  -1.372996e+002 
3340625000  -3.446671e+001  -1.487059e+002 
3343750000  -3.643171e+001  -1.499615e+002 
3346875000  -3.645696e+001  -1.475616e+002 
3350000000  -3.588158e+001  -1.496881e+002 
3353125000  -3.592623e+001  -1.541352e+002 
3356250000  -3.556417e+001  -1.623842e+002 
3359375000  -3.642342e+001  -1.713123e+002 
3362500000  -3.734444e+001  -1.757587e+002 
3365625000  -3.783393e+001  -1.777564e+002 
3368750000  -3.858022e+001  1.795715e+002 
3371875000  -3.880409e+001  1.777659e+002 
3375000000  -4.013613e+001  1.738762e+002 
3378125000  -4.106531e+001  1.743474e+002 
3381250000  -4.231127e+001  -1.765314e+002 
3384375000  -4.100789e+001  -1.576697e+002 
3387500000  -3.751094e+001  -1.720376e+002 
3390625000  -3.900345e+001  1.678177e+002 
3393750000  -4.013472e+001  1.723636e+002 
3396875000  -3.927210e+001  1.730497e+002 
3400000000  -3.856957e+001  1.650572e+002 
3403125000  -3.927159e+001  1.592892e+002 
3406250000  -3.950828e+001  1.585592e+002 
3409375000  -3.989426e+001  1.498821e+002 
3412500000  -4.012983e+001  1.492411e+002 
3415625000  -4.086705e+001  1.499598e+002 
3418750000  -4.110839e+001  1.501233e+002 
3421875000  -4.129181e+001  1.548035e+002 
3425000000  -4.035316e+001  1.538537e+002 
3428125000  -3.940155e+001  1.500784e+002 
3431250000  -3.927254e+001  1.426766e+002 
3434375000  -3.901551e+001  1.371863e+002 
3437500000  -3.965705e+001  1.334198e+002 
3440625000  -3.992918e+001  1.342413e+002 
3443750000  -3.878879e+001  1.368315e+002 
3446875000  -3.797776e+001  1.273369e+002 
3450000000  -3.751616e+001  1.180284e+002 
3453125000  -3.798295e+001  1.082943e+002 
3456250000  -3.897564e+001  1.011814e+002 
3459375000  -4.005978e+001  1.022627e+002 
3462500000  -3.995803e+001  1.032206e+002 
3465625000  -3.965450e+001  9.830974e+001 
3468750000  -4.034237e+001  9.137636e+001 
3471875000  -3.996318e+001  9.144942e+001 
3475000000  -3.953067e+001  8.654687e+001 
3478125000  -4.024641e+001  7.843856e+001 
3481250000  -4.103180e+001  7.538214e+001 
3484375000  -4.210982e+001  8.008211e+001 
3487500000  -4.119846e+001  7.990193e+001 
3490625000  -4.074923e+001  7.555509e+001 
3493750000  -4.140298e+001  6.724463e+001 
3496875000  -4.157032e+001  6.697640e+001 
3500000000  -4.225292e+001  7.016136e+001 
3503125000  -4.187614e+001  7.062829e+001 
3506250000  -4.073167e+001  6.622643e+001 
3509375000  -4.055441e+001  5.652379e+001 
3512500000  -4.115197e+001  4.616240e+001 
3515625000  -4.160986e+001  4.420008e+001 
3518750000  -4.275612e+001  4.422067e+001 
3521875000  -4.248442e+001  4.164426e+001 
3525000000  -4.331106e+001  4.092646e+001 
3528125000  -4.351863e+001  4.890182e+001 
3531250000  -4.211300e+001  4.503599e+001 
3534375000  -4.222834e+001  3.552787e+001 
3537500000  -4.283589e+001  3.069894e+001 
3540625000  -4.348108e+001  3.003083e+001 
3543750000  -4.433289e+001  3.064152e+001 
3546875000  -4.418424e+001  4.560477e+001 
3550000000  -4.127853e+001  4.644402e+001 
3553125000  -4.037125e+001  2.917208e+001 
3556250000  -4.189659e+001  2.172541e+001 
3559375000  -4.153307e+001  2.312438e+001 
3562500000  -4.032843e+001  1.679381e+001 
3565625000  -4.103839e+001  7.792437e+000 
3568750000  -4.146558e+001  9.572076e+000 
3571875000  -4.129945e+001  1.023935e+001 
3575000000  -4.080875e+001  2.999927e+000 
3578125000  -4.123868e+001  -3.758106e+000 
3581250000  -4.125679e+001  -3.356375e+000 
3584375000  -4.036003e+001  -6.498044e+000 
3587500000  -4.007655e+001  -1.526594e+001 
3590625000  -4.042844e+001  -2.616018e+001 
3593750000  -4.189044e+001  -2.773178e+001 
3596875000  -4.177858e+001  -2.151930e+001 
3600000000  -4.036081e+001  -2.686115e+001 
3603125000  -4.067327e+001  -4.167589e+001 
3606250000  -4.152927e+001  -4.521717e+001 
3609375000  -4.198340e+001  -4.947573e+001 
3612500000  -4.271531e+001  -5.129620e+001 
3615625000  -4.275090e+001  -5.531499e+001 
3618750000  -4.355574e+001  -5.397822e+001 
3621875000  -4.347792e+001  -5.863587e+001 
3625000000  -4.417728e+001  -6.084559e+001 
3628125000  -4.403965e+001  -6.084600e+001 
3631250000  -4.391798e+001  -6.685382e+001 
3634375000  -4.560069e+001  -6.809028e+001 
3637500000  -4.533991e+001  -6.226192e+001 
3640625000  -4.451423e+001  -5.923132e+001 
3643750000  -4.446696e+001  -6.584370e+001 
3646875000  -4.488208e+001  -7.369217e+001 
3650000000  -4.567344e+001  -7.133260e+001 
3653125000  -4.552032e+001  -7.305554e+001 
3656250000  -4.609264e+001  -7.430659e+001 
3659375000  -4.590546e+001  -6.973708e+001 
3662500000  -4.528992e+001  -7.112785e+001 
3665625000  -4.463882e+001  -7.218301e+001 
3668750000  -4.394267e+001  -7.169209e+001 
3671875000  -4.259721e+001  -7.818192e+001 
3675000000  -4.340895e+001  -8.513085e+001 
3678125000  -4.380624e+001  -8.542284e+001 
3681250000  -4.336249e+001  -8.635992e+001 
3684375000  -4.314642e+001  -9.207346e+001 
3687500000  -4.322145e+001  -9.697457e+001 
3690625000  -4.302343e+001  -9.918761e+001 
3693750000  -4.419094e+001  -1.006554e+002 
3696875000  -4.386458e+001  -1.001794e+002 
3700000000  -4.304249e+001  -1.079913e+002 
3703125000  -4.290249e+001  -1.112539e+002 
3706250000  -4.401646e+001  -1.088984e+002 
3709375000  -4.360534e+001  -1.074328e+002 
3712500000  -4.264156e+001  -1.129406e+002 
3715625000  -4.139553e+001  -1.168970e+002 
3718750000  -4.117422e+001  -1.235390e+002 
3721875000  -4.121873e+001  -1.303310e+002 
3725000000  -4.137299e+001  -1.347493e+002 
3728125000  -4.192176e+001  -1.363932e+002 
3731250000  -4.141327e+001  -1.405770e+002 
3734375000  -4.113386e+001  -1.453669e+002 
3737500000  -4.189584e+001  -1.550445e+002 
3740625000  -4.271677e+001  -1.572718e+002 
3743750000  -4.286525e+001  -1.618287e+002 
3746875000  -4.345469e+001  -1.654344e+002 
3750000000  -4.424553e+001  -1.639434e+002 
3753125000  -4.385944e+001  -1.632330e+002 
3756250000  -4.433685e+001  -1.653144e+002 
3759375000  -4.430397e+001  -1.656660e+002 
3762500000  -4.384115e+001  -1.677135e+002 
3765625000  -4.443417e+001  -1.664785e+002 
3768750000  -4.465232e+001  -1.655239e+002 
3771875000  -4.303112e+001  -1.648254e+002 
3775000000  -4.299928e+001  -1.735017e+002 
3778125000  -4.322808e+001  -1.760349e+002 
3781250000  -4.288597e+001  -1.752920e+002 
3784375000  -4.252334e+001  -1.761704e+002 
3787500000  -4.194418e+001  -1.793211e+002 
3790625000  -4.232275e+001  1.742061e+002 
3793750000  -4.231302e+001  1.760414e+002 
3796875000  -4.117761e+001  1.737365e+002 
3800000000  -3.983274e+001  1.695593e+002 
3803125000  -4.022954e+001  1.583752e+002 
3806250000  -4.117566e+001  1.566304e+002 
3809375000  -4.086444e+001  1.559059e+002 
3812500000  -3.995573e+001  1.491621e+002 
3815625000  -4.059382e+001  1.390271e+002 
3818750000  -4.156786e+001  1.390462e+002 
3821875000  -4.120316e+001  1.471742e+002 
3825000000  -3.937719e+001  1.493382e+002 
3828125000  -3.823096e+001  1.340516e+002 
3831250000  -3.867631e+001  1.189708e+002 
3834375000  -4.036168e+001  1.181669e+002 
3837500000  -4.120808e+001  1.205332e+002 
3840625000  -4.002274e+001  1.203419e+002 
3843750000  -3.909794e+001  1.059522e+002 
3846875000  -3.985682e+001  9.996333e+001 
3850000000  -4.136747e+001  1.055088e+002 
3853125000  -4.032422e+001  1.087386e+002 
3856250000  -4.036065e+001  1.009878e+002 
3859375000  -3.970109e+001  9.575491e+001 
3862500000  -3.961037e+001  8.703034e+001 
3865625000  -3.958646e+001  8.286749e+001 
3868750000  -3.951583e+001  8.120258e+001 
3871875000  -3.902135e+001  7.816707e+001 
3875000000  -3.932656e+001  6.900297e+001 
3878125000  -4.048849e+001  6.706499e+001 
3881250000  -4.074080e+001  6.899866e+001 
3884375000  -4.008981e+001  6.373786e+001 
3887500000  -4.031699e+001  6.088588e+001 
3890625000  -4.096895e+001  5.640597e+001 
3893750000  -4.105510e+001  5.449395e+001 
3896875000  -4.123675e+001  5.523909e+001 
3900000000  -4.148542e+001  5.510398e+001 
3903125000  -4.125013e+001  5.198442e+001 
3906250000  -4.061699e+001  5.103437e+001 
3909375000  -4.004455e+001  4.604320e+001 
3912500000  -4.009464e+001  3.777869e+001 
3915625000  -4.139434e+001  3.934132e+001 
3918750000  -4.124004e+001  3.900617e+001 
3921875000  -4.057518e+001  3.726408e+001 
3925000000  -3.973970e+001  3.480317e+001 
3928125000  -3.914097e+001  2.795182e+001 
3931250000  -3.965417e+001  2.336139e+001 
3934375000  -3.972675e+001  2.174174e+001 
3937500000  -3.990448e+001  2.155655e+001 
3940625000  -4.059781e+001  2.171985e+001 
3943750000  -3.964091e+001  2.138723e+001 
3946875000  -3.864098e+001  1.196385e+001 
3950000000  -3.883996e+001  4.885509e+000 
3953125000  -4.016782e+001  2.752693e+000 
3956250000  -3.922328e+001  4.617074e+000 
3959375000  -3.789396e+001  9.428685e-001 
3962500000  -3.736570e+001  -3.282051e+000 
3965625000  -3.726139e+001  -1.319063e+001 
3968750000  -3.822045e+001  -2.219570e+001 
3971875000  -3.848600e+001  -2.181447e+001 
3975000000  -3.797369e+001  -2.624862e+001 
3978125000  -3.796447e+001  -2.971983e+001 
3981250000  -3.785701e+001  -3.388447e+001 
3984375000  -3.805188e+001  -4.078832e+001 
3987500000  -3.860067e+001  -4.278108e+001 
3990625000  -3.851394e+001  -4.311643e+001 
3993750000  -3.903842e+001  -4.866412e+001 
3996875000  -3.904942e+001  -5.161206e+001 
4000000000  -3.929315e+001  -5.321500e+001 
4003125000  -3.960346e+001  -5.200637e+001 
4006250000  -3.795572e+001  -5.309364e+001 
4009375000  -3.737087e+001  -6.625301e+001 
4012500000  -3.835606e+001  -7.349664e+001 
4015625000  -3.968256e+001  -7.292905e+001 
4018750000  -3.977330e+001  -6.982638e+001 
4021875000  -3.889822e+001  -7.311033e+001 
4025000000  -3.868217e+001  -7.963162e+001 
4028125000  -3.885918e+001  -8.238201e+001 
4031250000  -3.931902e+001  -8.684472e+001 
4034375000  -3.930230e+001  -8.872544e+001 
4037500000  -3.932391e+001  -8.524993e+001 
4040625000  -3.910523e+001  -9.073196e+001 
4043750000  -3.924177e+001  -9.078562e+001 
4046875000  -3.873931e+001  -9.204919e+001 
4050000000  -3.835841e+001  -1.004438e+002 
4053125000  -3.894433e+001  -1.012115e+002 
4056250000  -3.908632e+001  -9.728386e+001 
4059375000  -3.827359e+001  -9.887979e+001 
4062500000  -3.667681e+001  -1.037743e+002 
4065625000  -3.677603e+001  -1.080168e+002 
4068750000  -3.626439e+001  -1.127594e+002 
4071875000  -3.577171e+001  -1.215533e+002 
4075000000  -3.607199e+001  -1.288106e+002 
4078125000  -3.671714e+001  -1.308508e+002 
4081250000  -3.617010e+001  -1.343810e+002 
4084375000  -3.567431e+001  -1.427031e+002 
4087500000  -3.611450e+001  -1.482771e+002 
4090625000  -3.670522e+001  -1.508945e+002 
4093750000  -3.651643e+001  -1.518238e+002 
4096875000  -3.613336e+001  -1.582677e+002 
4100000000  -3.709643e+001  -1.662982e+002 
4103125000  -3.797982e+001  -1.668526e+002 
4106250000  -3.783972e+001  -1.608140e+002 
4109375000  -3.677225e+001  -1.634414e+002 
4112500000  -3.630622e+001  -1.716294e+002 
4115625000  -3.683523e+001  -1.776005e+002 
4118750000  -3.687456e+001  1.794590e+002 
4121875000  -3.638754e+001  1.759713e+002 
4125000000  -3.685123e+001  1.684348e+002 
4128125000  -3.770607e+001  1.685070e+002 
4131250000  -3.752821e+001  1.759467e+002 
4134375000  -3.527596e+001  1.698037e+002 
4137500000  -3.522980e+001  1.498764e+002 
4140625000  -3.736282e+001  1.416040e+002 
4143750000  -3.905297e+001  1.472064e+002 
4146875000  -3.835920e+001  1.537265e+002 
4150000000  -3.735571e+001  1.494484e+002 
4153125000  -3.726887e+001  1.411311e+002 
4156250000  -3.839318e+001  1.393245e+002 
4159375000  -3.860352e+001  1.437487e+002 
4162500000  -3.735880e+001  1.478398e+002 
4165625000  -3.648103e+001  1.417663e+002 
4168750000  -3.576982e+001  1.343078e+002 
4171875000  -3.588753e+001  1.241709e+002 
4175000000  -3.665007e+001  1.198269e+002 
4178125000  -3.716140e+001  1.192133e+002 
4181250000  -3.674693e+001  1.181080e+002 
4184375000  -3.679216e+001  1.140914e+002 
4187500000  -3.655640e+001  1.098407e+002 
4190625000  -3.658801e+001  1.043087e+002 
4193750000  -3.735872e+001  1.007321e+002 
4196875000  -3.819249e+001  1.000156e+002 
4200000000  -3.865242e+001  9.995649e+001 
4203125000  -3.884441e+001  1.152473e+002 
4206250000  -3.527327e+001  1.131695e+002 
4209375000  -3.421775e+001  9.296912e+001 
4212500000  -3.628229e+001  8.403796e+001 
4215625000  -3.704279e+001  8.953728e+001 
4218750000  -3.554774e+001  9.293517e+001 
4221875000  -3.338937e+001  8.463958e+001 
4225000000  -3.460890e+001  7.148335e+001 
4228125000  -3.512950e+001  7.703776e+001 
4231250000  -3.364356e+001  7.125372e+001 
4234375000  -3.355460e+001  6.059691e+001 
4237500000  -3.296450e+001  5.673578e+001 
4240625000  -3.311925e+001  4.666589e+001 
4243750000  -3.420173e+001  3.890183e+001 
4246875000  -3.497733e+001  3.821872e+001 
4250000000  -3.514194e+001  3.947673e+001 
4253125000  -3.460258e+001  3.683846e+001 
4256250000  -3.483956e+001  3.095566e+001 
4259375000  -3.460064e+001  2.851708e+001 
4262500000  -3.490406e+001  2.383113e+001 
4265625000  -3.484082e+001  2.317870e+001 
4268750000  -3.400929e+001  1.814241e+001 
4271875000  -3.390491e+001  1.090204e+001 
4275000000  -3.345033e+001  2.191822e+000 
4278125000  -3.436380e+001  -8.068500e+000 
4281250000  -3.609209e+001  -1.033198e+001 
4284375000  -3.569352e+001  -1.083957e+001 
4287500000  -3.685130e+001  -1.578326e+001 
4290625000  -3.825480e+001  -4.814122e+000 
4293750000  -3.607692e+001  -4.532959e-001 
4296875000  -3.485064e+001  -1.161693e+001 
4300000000  -3.590450e+001  -2.112777e+001 
4303125000  -3.693057e+001  -2.012817e+001 
4306250000  -3.628258e+001  -1.367218e+001 
4309375000  -3.496149e+001  -1.597472e+001 
4312500000  -3.487688e+001  -2.417146e+001 
4315625000  -3.496585e+001  -3.079060e+001 
4318750000  -3.522109e+001  -3.410883e+001 
4321875000  -3.542608e+001  -3.354717e+001 
4325000000  -3.483182e+001  -3.356457e+001 
4328125000  -3.411434e+001  -4.008213e+001 
4331250000  -3.403114e+001  -4.824394e+001 
4334375000  -3.447525e+001  -5.406178e+001 
4337500000  -3.518894e+001  -5.692463e+001 
4340625000  -3.578300e+001  -5.488577e+001 
4343750000  -3.482664e+001  -5.576715e+001 
4346875000  -3.431347e+001  -6.073314e+001 
4350000000  -3.442153e+001  -6.678490e+001 
4353125000  -3.438074e+001  -7.599728e+001 
4356250000  -3.624732e+001  -7.639162e+001 
4359375000  -3.665663e+001  -6.303587e+001 
4362500000  -3.349128e+001  -6.352465e+001 
4365625000  -3.202732e+001  -7.736108e+001 
4368750000  -3.280331e+001  -9.080575e+001 
4371875000  -3.387835e+001  -9.008298e+001 
4375000000  -3.351665e+001  -9.113030e+001 
4378125000  -3.282582e+001  -9.845824e+001 
4381250000  -3.312485e+001  -1.048797e+002 
4384375000  -3.284774e+001  -1.115036e+002 
4387500000  -3.373876e+001  -1.179071e+002 
4390625000  -3.473204e+001  -1.179108e+002 
4393750000  -3.395597e+001  -1.177332e+002 
4396875000  -3.345598e+001  -1.213024e+002 
4400000000  -3.280999e+001  -1.298256e+002 
4403125000  -3.348369e+001  -1.377367e+002 
4406250000  -3.442177e+001  -1.401894e+002 
4409375000  -3.456960e+001  -1.433674e+002 
4412500000  -3.558569e+001  -1.472962e+002 
4415625000  -3.624653e+001  -1.436675e+002 
