!Agilent Technologies,E8363B,MY43030201,A.06.04.32
!Agilent E8363B: A.06.04.32
!Date: Tuesday, November 11, 2014 21:07:48
!Correction: S21(Response(S21)) 
!S1P File: Measurement: S21:
# Hz S  dB   R 50
3000000000  -3.650161e+001  -5.130773e+001 
3003125000  -3.753768e+001  -5.743711e+001 
3006250000  -3.738049e+001  -6.088450e+001 
3009375000  -3.786942e+001  -5.599561e+001 
3012500000  -3.706160e+001  -5.853931e+001 
3015625000  -3.605636e+001  -6.486064e+001 
3018750000  -3.691579e+001  -6.658311e+001 
3021875000  -3.544904e+001  -6.523837e+001 
3025000000  -3.407292e+001  -6.938413e+001 
3028125000  -3.323911e+001  -7.524798e+001 
3031250000  -3.211241e+001  -8.709927e+001 
3034375000  -3.182389e+001  -1.008069e+002 
3037500000  -3.225113e+001  -1.128400e+002 
3040625000  -3.363467e+001  -1.177897e+002 
3043750000  -3.426497e+001  -1.231029e+002 
3046875000  -3.447180e+001  -1.284052e+002 
3050000000  -3.615173e+001  -1.342758e+002 
3053125000  -3.617833e+001  -1.279443e+002 
3056250000  -3.556395e+001  -1.256869e+002 
3059375000  -3.564170e+001  -1.253841e+002 
3062500000  -3.404855e+001  -1.292575e+002 
3065625000  -3.392624e+001  -1.358175e+002 
3068750000  -3.354310e+001  -1.432777e+002 
3071875000  -3.354523e+001  -1.453238e+002 
3075000000  -3.333157e+001  -1.493767e+002 
3078125000  -3.305204e+001  -1.534569e+002 
3081250000  -3.355838e+001  -1.581060e+002 
3084375000  -3.264063e+001  -1.616252e+002 
3087500000  -3.249380e+001  -1.649013e+002 
3090625000  -3.206431e+001  -1.753567e+002 
3093750000  -3.242459e+001  1.774833e+002 
3096875000  -3.349763e+001  1.714721e+002 
3100000000  -3.341162e+001  1.693552e+002 
3103125000  -3.366855e+001  1.696876e+002 
3106250000  -3.314334e+001  1.664117e+002 
3109375000  -3.327823e+001  1.616560e+002 
3112500000  -3.318596e+001  1.590876e+002 
3115625000  -3.290234e+001  1.545721e+002 
3118750000  -3.316448e+001  1.549316e+002 
3121875000  -3.228945e+001  1.457336e+002 
3125000000  -3.359188e+001  1.413110e+002 
3128125000  -3.456769e+001  1.487296e+002 
3131250000  -3.203267e+001  1.462929e+002 
3134375000  -3.076666e+001  1.312029e+002 
3137500000  -3.134437e+001  1.172575e+002 
3140625000  -3.279853e+001  1.142909e+002 
3143750000  -3.376518e+001  1.160740e+002 
3146875000  -3.330635e+001  1.165430e+002 
3150000000  -3.227878e+001  1.172310e+002 
3153125000  -3.241627e+001  1.080999e+002 
3156250000  -3.336203e+001  1.125542e+002 
3159375000  -3.163296e+001  1.136016e+002 
3162500000  -2.972154e+001  9.935796e+001 
3165625000  -3.073158e+001  8.741682e+001 
3168750000  -3.102593e+001  8.734008e+001 
3171875000  -3.014907e+001  8.190704e+001 
3175000000  -3.090917e+001  7.259991e+001 
3178125000  -3.059577e+001  7.363955e+001 
3181250000  -2.958338e+001  6.816354e+001 
3184375000  -2.882021e+001  5.548335e+001 
3187500000  -3.018493e+001  4.000583e+001 
3190625000  -3.286967e+001  3.197634e+001 
3193750000  -3.333884e+001  4.143653e+001 
3196875000  -3.289936e+001  4.555591e+001 
3200000000  -3.200540e+001  4.282416e+001 
3203125000  -3.125189e+001  3.633159e+001 
3206250000  -3.155584e+001  2.916333e+001 
3209375000  -3.109948e+001  2.350360e+001 
3212500000  -3.135815e+001  1.705116e+001 
3215625000  -3.139323e+001  1.297446e+001 
3218750000  -3.223936e+001  5.830707e+000 
3221875000  -3.304412e+001  3.466735e-002 
3225000000  -3.255647e+001  -1.221599e+000 
3228125000  -3.302527e+001  -6.947952e+000 
3231250000  -3.371284e+001  -8.883132e+000 
3234375000  -3.336263e+001  -8.326941e+000 
3237500000  -3.332484e+001  -1.077658e+001 
3240625000  -3.298664e+001  -1.298175e+001 
3243750000  -3.257256e+001  -2.080922e+001 
3246875000  -3.295207e+001  -2.777508e+001 
3250000000  -3.335909e+001  -3.024453e+001 
3253125000  -3.350845e+001  -3.237865e+001 
3256250000  -3.303747e+001  -3.918706e+001 
3259375000  -3.352753e+001  -4.747946e+001 
3262500000  -3.459391e+001  -5.161691e+001 
3265625000  -3.522614e+001  -4.887602e+001 
3268750000  -3.516067e+001  -4.605501e+001 
3271875000  -3.467685e+001  -4.697406e+001 
3275000000  -3.376961e+001  -5.395156e+001 
3278125000  -3.409053e+001  -6.054569e+001 
3281250000  -3.440833e+001  -5.986059e+001 
3284375000  -3.387472e+001  -6.642816e+001 
3287500000  -3.402636e+001  -7.008723e+001 
3290625000  -3.426254e+001  -7.633231e+001 
3293750000  -3.416959e+001  -8.201424e+001 
3296875000  -3.515737e+001  -8.254557e+001 
3300000000  -3.472433e+001  -8.066828e+001 
3303125000  -3.362648e+001  -8.654108e+001 
3306250000  -3.350993e+001  -9.378730e+001 
3309375000  -3.314344e+001  -1.004475e+002 
3312500000  -3.328775e+001  -1.116572e+002 
3315625000  -3.437427e+001  -1.194790e+002 
3318750000  -3.579620e+001  -1.220857e+002 
3321875000  -3.675787e+001  -1.225771e+002 
3325000000  -3.759619e+001  -1.167388e+002 
3328125000  -3.706025e+001  -1.173457e+002 
3331250000  -3.547842e+001  -1.101759e+002 
3334375000  -3.292267e+001  -1.213446e+002 
3337500000  -3.306886e+001  -1.407775e+002 
3340625000  -3.445223e+001  -1.508376e+002 
3343750000  -3.652139e+001  -1.527264e+002 
3346875000  -3.658535e+001  -1.502128e+002 
3350000000  -3.594729e+001  -1.521847e+002 
3353125000  -3.595703e+001  -1.566869e+002 
3356250000  -3.551637e+001  -1.653811e+002 
3359375000  -3.629852e+001  -1.733650e+002 
3362500000  -3.744023e+001  1.795815e+002 
3365625000  -3.785507e+001  1.796797e+002 
3368750000  -3.876722e+001  1.765173e+002 
3371875000  -3.901170e+001  1.745643e+002 
3375000000  -4.015494e+001  1.716318e+002 
3378125000  -4.128022e+001  1.718655e+002 
3381250000  -4.247560e+001  1.797533e+002 
3384375000  -4.091720e+001  -1.595887e+002 
3387500000  -3.748723e+001  -1.749419e+002 
3390625000  -3.906271e+001  1.661487e+002 
3393750000  -4.025693e+001  1.706239e+002 
3396875000  -3.924815e+001  1.701232e+002 
3400000000  -3.889835e+001  1.626271e+002 
3403125000  -3.938781e+001  1.568936e+002 
3406250000  -3.970119e+001  1.567902e+002 
3409375000  -3.981926e+001  1.489685e+002 
3412500000  -4.023239e+001  1.464610e+002 
3415625000  -4.072716e+001  1.475820e+002 
3418750000  -4.121036e+001  1.479236e+002 
3421875000  -4.128088e+001  1.509554e+002 
3425000000  -4.019533e+001  1.500248e+002 
3428125000  -3.959873e+001  1.476825e+002 
3431250000  -3.926516e+001  1.400449e+002 
3434375000  -3.904419e+001  1.340653e+002 
3437500000  -3.967351e+001  1.312902e+002 
3440625000  -3.974699e+001  1.316649e+002 
3443750000  -3.883316e+001  1.337426e+002 
3446875000  -3.788857e+001  1.248162e+002 
3450000000  -3.749469e+001  1.150870e+002 
3453125000  -3.794657e+001  1.054761e+002 
3456250000  -3.898719e+001  9.888723e+001 
3459375000  -4.001648e+001  1.000501e+002 
3462500000  -3.982489e+001  9.968575e+001 
3465625000  -3.959564e+001  9.418925e+001 
3468750000  -3.999716e+001  9.077950e+001 
3471875000  -4.003794e+001  8.763452e+001 
3475000000  -3.961617e+001  8.431917e+001 
3478125000  -4.022550e+001  7.592685e+001 
3481250000  -4.128156e+001  7.375458e+001 
3484375000  -4.233954e+001  7.701953e+001 
3487500000  -4.133778e+001  7.726460e+001 
3490625000  -4.064771e+001  7.112313e+001 
3493750000  -4.123681e+001  6.490057e+001 
3496875000  -4.186829e+001  6.390525e+001 
3500000000  -4.281457e+001  6.670479e+001 
3503125000  -4.206773e+001  6.820132e+001 
3506250000  -4.063022e+001  6.150767e+001 
3509375000  -4.071038e+001  5.327050e+001 
3512500000  -4.134666e+001  4.572789e+001 
3515625000  -4.191022e+001  4.229377e+001 
3518750000  -4.235020e+001  4.358546e+001 
3521875000  -4.227929e+001  4.241722e+001 
3525000000  -4.308561e+001  3.855444e+001 
3528125000  -4.325663e+001  4.608066e+001 
3531250000  -4.186109e+001  4.479279e+001 
3534375000  -4.210436e+001  3.369530e+001 
3537500000  -4.232502e+001  2.772872e+001 
3540625000  -4.343010e+001  2.777192e+001 
3543750000  -4.401388e+001  3.063640e+001 
3546875000  -4.429107e+001  4.467659e+001 
3550000000  -4.126719e+001  4.315588e+001 
3553125000  -4.002679e+001  2.556001e+001 
3556250000  -4.170204e+001  1.913542e+001 
3559375000  -4.123182e+001  1.995534e+001 
3562500000  -4.014340e+001  1.187847e+001 
3565625000  -4.127325e+001  4.489758e+000 
3568750000  -4.120213e+001  6.709138e+000 
3571875000  -4.124759e+001  6.118318e+000 
3575000000  -4.093001e+001  -7.879840e-001 
3578125000  -4.114178e+001  -7.561826e+000 
3581250000  -4.127309e+001  -7.155837e+000 
3584375000  -4.041162e+001  -1.158644e+001 
3587500000  -4.001508e+001  -2.069097e+001 
3590625000  -4.052827e+001  -3.037627e+001 
3593750000  -4.173938e+001  -3.234784e+001 
3596875000  -4.165751e+001  -2.533175e+001 
3600000000  -4.024296e+001  -3.058528e+001 
3603125000  -4.060155e+001  -4.548460e+001 
3606250000  -4.157254e+001  -5.037961e+001 
3609375000  -4.209939e+001  -5.313490e+001 
3612500000  -4.281359e+001  -5.621029e+001 
3615625000  -4.295659e+001  -6.108012e+001 
3618750000  -4.378056e+001  -5.754734e+001 
3621875000  -4.368261e+001  -6.289660e+001 
3625000000  -4.436327e+001  -6.319475e+001 
3628125000  -4.443053e+001  -6.400686e+001 
3631250000  -4.444448e+001  -6.967856e+001 
3634375000  -4.586647e+001  -7.053684e+001 
3637500000  -4.567825e+001  -6.452790e+001 
3640625000  -4.516863e+001  -6.204038e+001 
3643750000  -4.470287e+001  -6.752274e+001 
3646875000  -4.522271e+001  -7.436510e+001 
3650000000  -4.589694e+001  -7.537566e+001 
3653125000  -4.537057e+001  -7.639343e+001 
3656250000  -4.607532e+001  -7.650673e+001 
3659375000  -4.617889e+001  -7.345117e+001 
3662500000  -4.528490e+001  -7.371876e+001 
3665625000  -4.500465e+001  -7.324502e+001 
3668750000  -4.367162e+001  -7.359460e+001 
3671875000  -4.277919e+001  -8.120080e+001 
3675000000  -4.312642e+001  -8.533817e+001 
3678125000  -4.330565e+001  -8.830804e+001 
3681250000  -4.279828e+001  -8.727152e+001 
3684375000  -4.269483e+001  -9.342462e+001 
3687500000  -4.308695e+001  -1.003658e+002 
3690625000  -4.311105e+001  -1.051514e+002 
3693750000  -4.404192e+001  -1.024032e+002 
3696875000  -4.370771e+001  -1.062801e+002 
3700000000  -4.274929e+001  -1.079676e+002 
3703125000  -4.311084e+001  -1.132552e+002 
3706250000  -4.395024e+001  -1.140227e+002 
3709375000  -4.347531e+001  -1.126751e+002 
3712500000  -4.243312e+001  -1.141379e+002 
3715625000  -4.197902e+001  -1.238626e+002 
3718750000  -4.139657e+001  -1.275824e+002 
3721875000  -4.106049e+001  -1.343835e+002 
3725000000  -4.175345e+001  -1.418870e+002 
3728125000  -4.202424e+001  -1.410266e+002 
3731250000  -4.167536e+001  -1.452650e+002 
3734375000  -4.114315e+001  -1.501601e+002 
3737500000  -4.203263e+001  -1.613502e+002 
3740625000  -4.341980e+001  -1.611595e+002 
3743750000  -4.335333e+001  -1.625911e+002 
3746875000  -4.382824e+001  -1.662937e+002 
3750000000  -4.428549e+001  -1.680275e+002 
3753125000  -4.426738e+001  -1.660749e+002 
3756250000  -4.463530e+001  -1.658180e+002 
3759375000  -4.461494e+001  -1.661092e+002 
3762500000  -4.412238e+001  -1.703153e+002 
3765625000  -4.516394e+001  -1.702514e+002 
3768750000  -4.489536e+001  -1.696829e+002 
3771875000  -4.345940e+001  -1.679608e+002 
3775000000  -4.309909e+001  -1.702641e+002 
3778125000  -4.356227e+001  -1.741413e+002 
3781250000  -4.304739e+001  -1.767294e+002 
3784375000  -4.285331e+001  -1.777467e+002 
3787500000  -4.187951e+001  -1.795542e+002 
3790625000  -4.264455e+001  1.728783e+002 
3793750000  -4.238910e+001  1.717890e+002 
3796875000  -4.121241e+001  1.711206e+002 
3800000000  -3.958617e+001  1.683718e+002 
3803125000  -4.009925e+001  1.580065e+002 
3806250000  -4.087736e+001  1.559941e+002 
3809375000  -4.059397e+001  1.535858e+002 
3812500000  -3.972163e+001  1.466672e+002 
3815625000  -4.016505e+001  1.372277e+002 
3818750000  -4.135455e+001  1.357862e+002 
3821875000  -4.156125e+001  1.470577e+002 
3825000000  -3.934600e+001  1.472830e+002 
3828125000  -3.812926e+001  1.289715e+002 
3831250000  -3.856341e+001  1.158387e+002 
3834375000  -4.024278e+001  1.144801e+002 
3837500000  -4.108210e+001  1.184257e+002 
3840625000  -3.992764e+001  1.175591e+002 
3843750000  -3.874111e+001  1.030924e+002 
3846875000  -3.989812e+001  9.693536e+001 
3850000000  -4.084285e+001  1.009849e+002 
3853125000  -4.063416e+001  1.055562e+002 
3856250000  -4.006897e+001  9.713854e+001 
3859375000  -3.955481e+001  9.228966e+001 
3862500000  -3.942295e+001  8.495674e+001 
3865625000  -3.974199e+001  7.999167e+001 
3868750000  -3.956858e+001  7.930286e+001 
3871875000  -3.913582e+001  7.433494e+001 
3875000000  -3.954667e+001  6.512463e+001 
3878125000  -4.059794e+001  6.332959e+001 
3881250000  -4.067864e+001  6.570228e+001 
3884375000  -4.024891e+001  6.098935e+001 
3887500000  -4.027041e+001  5.677858e+001 
3890625000  -4.092414e+001  5.365546e+001 
3893750000  -4.116118e+001  5.091078e+001 
3896875000  -4.149424e+001  5.340045e+001 
3900000000  -4.161322e+001  5.236645e+001 
3903125000  -4.140488e+001  4.926854e+001 
3906250000  -4.101181e+001  4.733450e+001 
3909375000  -4.027959e+001  4.427037e+001 
3912500000  -4.001345e+001  3.632779e+001 
3915625000  -4.123004e+001  3.772289e+001 
3918750000  -4.067846e+001  3.813073e+001 
3921875000  -4.075320e+001  3.527310e+001 
3925000000  -3.959349e+001  3.382950e+001 
3928125000  -3.925292e+001  2.550430e+001 
3931250000  -3.962224e+001  2.173271e+001 
3934375000  -3.992079e+001  2.082775e+001 
3937500000  -3.996914e+001  1.724233e+001 
3940625000  -4.054494e+001  1.695539e+001 
3943750000  -3.930870e+001  1.685591e+001 
3946875000  -3.822018e+001  1.217497e+001 
3950000000  -3.912744e+001  2.642233e+000 
3953125000  -3.971043e+001  -3.734006e-001 
3956250000  -3.858055e+001  4.027632e+000 
3959375000  -3.769160e+001  8.011552e-002 
3962500000  -3.704813e+001  -6.687516e+000 
3965625000  -3.713894e+001  -1.716746e+001 
3968750000  -3.828068e+001  -2.458043e+001 
3971875000  -3.836607e+001  -2.613886e+001 
3975000000  -3.771638e+001  -2.892441e+001 
3978125000  -3.772778e+001  -3.277887e+001 
3981250000  -3.759014e+001  -3.708058e+001 
3984375000  -3.789082e+001  -4.447636e+001 
3987500000  -3.849489e+001  -4.732325e+001 
3990625000  -3.841792e+001  -4.849156e+001 
3993750000  -3.879857e+001  -5.287115e+001 
3996875000  -3.891536e+001  -5.695761e+001 
4000000000  -3.930452e+001  -5.657113e+001 
4003125000  -3.973087e+001  -5.585996e+001 
4006250000  -3.850904e+001  -5.947280e+001 
4009375000  -3.697675e+001  -7.092016e+001 
4012500000  -3.869016e+001  -7.882529e+001 
4015625000  -3.992097e+001  -7.742919e+001 
4018750000  -4.005034e+001  -7.796153e+001 
4021875000  -3.928653e+001  -7.823798e+001 
4025000000  -3.897073e+001  -8.333934e+001 
4028125000  -3.914631e+001  -8.759174e+001 
4031250000  -3.954558e+001  -8.941867e+001 
4034375000  -3.969481e+001  -9.094381e+001 
4037500000  -3.924051e+001  -8.752070e+001 
4040625000  -3.916485e+001  -9.347710e+001 
4043750000  -3.940889e+001  -9.456775e+001 
4046875000  -3.894883e+001  -9.534524e+001 
4050000000  -3.842623e+001  -1.022258e+002 
4053125000  -3.899007e+001  -1.037029e+002 
4056250000  -3.945546e+001  -9.867748e+001 
4059375000  -3.802752e+001  -9.898465e+001 
4062500000  -3.684227e+001  -1.047150e+002 
4065625000  -3.664713e+001  -1.101705e+002 
4068750000  -3.619223e+001  -1.165302e+002 
4071875000  -3.571347e+001  -1.244504e+002 
4075000000  -3.608620e+001  -1.318944e+002 
4078125000  -3.668804e+001  -1.338214e+002 
4081250000  -3.603135e+001  -1.370872e+002 
4084375000  -3.561658e+001  -1.452984e+002 
4087500000  -3.588984e+001  -1.525104e+002 
4090625000  -3.668540e+001  -1.538514e+002 
4093750000  -3.639708e+001  -1.552506e+002 
4096875000  -3.598701e+001  -1.626654e+002 
4100000000  -3.671623e+001  -1.698500e+002 
4103125000  -3.777522e+001  -1.692724e+002 
4106250000  -3.770410e+001  -1.650749e+002 
4109375000  -3.672392e+001  -1.664589e+002 
4112500000  -3.612313e+001  -1.750792e+002 
4115625000  -3.650452e+001  1.792529e+002 
4118750000  -3.671960e+001  1.751323e+002 
4121875000  -3.633667e+001  1.702474e+002 
4125000000  -3.684114e+001  1.640355e+002 
4128125000  -3.770812e+001  1.634970e+002 
4131250000  -3.757610e+001  1.710773e+002 
4134375000  -3.522341e+001  1.634499e+002 
4137500000  -3.522959e+001  1.447893e+002 
4140625000  -3.745652e+001  1.375572e+002 
4143750000  -3.870704e+001  1.419791e+002 
4146875000  -3.839699e+001  1.478487e+002 
4150000000  -3.743994e+001  1.455476e+002 
4153125000  -3.730838e+001  1.367139e+002 
4156250000  -3.854669e+001  1.357849e+002 
4159375000  -3.877244e+001  1.397383e+002 
4162500000  -3.770819e+001  1.434149e+002 
4165625000  -3.669984e+001  1.388686e+002 
4168750000  -3.599888e+001  1.297408e+002 
4171875000  -3.607589e+001  1.204485e+002 
4175000000  -3.672297e+001  1.159985e+002 
4178125000  -3.745886e+001  1.143268e+002 
4181250000  -3.698417e+001  1.137164e+002 
4184375000  -3.698787e+001  1.098476e+002 
4187500000  -3.674174e+001  1.063135e+002 
4190625000  -3.669769e+001  1.014301e+002 
4193750000  -3.751392e+001  9.599554e+001 
4196875000  -3.813338e+001  9.640753e+001 
4200000000  -3.898901e+001  9.948381e+001 
4203125000  -3.888134e+001  1.129692e+002 
4206250000  -3.541051e+001  1.113706e+002 
4209375000  -3.441728e+001  8.994849e+001 
4212500000  -3.630711e+001  8.042225e+001 
4215625000  -3.727041e+001  8.548560e+001 
4218750000  -3.560799e+001  9.087814e+001 
4221875000  -3.338060e+001  8.239622e+001 
4225000000  -3.458665e+001  6.823190e+001 
4228125000  -3.523222e+001  7.242734e+001 
4231250000  -3.358849e+001  6.681806e+001 
4234375000  -3.339400e+001  5.748822e+001 
4237500000  -3.329985e+001  5.421281e+001 
4240625000  -3.311749e+001  4.303624e+001 
4243750000  -3.421067e+001  3.474311e+001 
4246875000  -3.500687e+001  3.468636e+001 
4250000000  -3.503511e+001  3.548740e+001 
4253125000  -3.452924e+001  3.249765e+001 
4256250000  -3.468343e+001  2.819156e+001 
4259375000  -3.453705e+001  2.430968e+001 
4262500000  -3.482880e+001  2.011031e+001 
4265625000  -3.497295e+001  1.807866e+001 
4268750000  -3.385455e+001  1.445627e+001 
4271875000  -3.374633e+001  5.675858e+000 
4275000000  -3.353033e+001  -1.118513e+000 
4278125000  -3.420448e+001  -1.244930e+001 
4281250000  -3.592216e+001  -1.513369e+001 
4284375000  -3.569054e+001  -1.501757e+001 
4287500000  -3.687996e+001  -1.964576e+001 
4290625000  -3.825551e+001  -1.011028e+001 
4293750000  -3.608435e+001  -4.044521e+000 
4296875000  -3.492970e+001  -1.660852e+001 
4300000000  -3.590617e+001  -2.631581e+001 
4303125000  -3.719245e+001  -2.462644e+001 
4306250000  -3.629921e+001  -1.903325e+001 
4309375000  -3.525175e+001  -2.235823e+001 
4312500000  -3.512189e+001  -2.890300e+001 
4315625000  -3.521273e+001  -3.484223e+001 
4318750000  -3.572718e+001  -3.796025e+001 
4321875000  -3.568617e+001  -3.763897e+001 
4325000000  -3.505974e+001  -3.713456e+001 
4328125000  -3.433785e+001  -4.408348e+001 
4331250000  -3.428479e+001  -5.268114e+001 
4334375000  -3.477264e+001  -5.823688e+001 
4337500000  -3.549212e+001  -6.037016e+001 
4340625000  -3.601373e+001  -5.650377e+001 
4343750000  -3.513086e+001  -5.855042e+001 
4346875000  -3.473208e+001  -6.501885e+001 
4350000000  -3.461378e+001  -6.953905e+001 
4353125000  -3.456041e+001  -7.836849e+001 
4356250000  -3.651237e+001  -7.975955e+001 
4359375000  -3.659050e+001  -6.491255e+001 
4362500000  -3.360833e+001  -6.714999e+001 
4365625000  -3.217184e+001  -7.977898e+001 
4368750000  -3.284995e+001  -9.357048e+001 
4371875000  -3.398564e+001  -9.328086e+001 
4375000000  -3.342202e+001  -9.467455e+001 
4378125000  -3.282630e+001  -1.010723e+002 
4381250000  -3.302584e+001  -1.085901e+002 
4384375000  -3.297939e+001  -1.148245e+002 
4387500000  -3.366313e+001  -1.220649e+002 
4390625000  -3.453763e+001  -1.223521e+002 
4393750000  -3.396189e+001  -1.209423e+002 
4396875000  -3.331493e+001  -1.239029e+002 
4400000000  -3.297537e+001  -1.330466e+002 
4403125000  -3.361941e+001  -1.428844e+002 
4406250000  -3.445182e+001  -1.438360e+002 
4409375000  -3.446394e+001  -1.476730e+002 
4412500000  -3.571036e+001  -1.526877e+002 
4415625000  -3.594856e+001  -1.467534e+002 
