!Agilent Technologies,E8363B,MY43030201,A.06.04.32
!Agilent E8363B: A.06.04.32
!Date: Tuesday, November 11, 2014 21:08:35
!Correction: S21(Response(S21)) 
!S1P File: Measurement: S21:
# Hz S  dB   R 50
3000000000  -3.649252e+001  -5.356527e+001 
3003125000  -3.750748e+001  -5.979022e+001 
3006250000  -3.752612e+001  -6.237354e+001 
3009375000  -3.785695e+001  -5.827181e+001 
3012500000  -3.690749e+001  -5.953793e+001 
3015625000  -3.626778e+001  -6.719623e+001 
3018750000  -3.688174e+001  -6.866812e+001 
3021875000  -3.545425e+001  -6.707048e+001 
3025000000  -3.413396e+001  -7.118204e+001 
3028125000  -3.322390e+001  -7.734161e+001 
3031250000  -3.214434e+001  -8.902531e+001 
3034375000  -3.181261e+001  -1.025952e+002 
3037500000  -3.232782e+001  -1.143782e+002 
3040625000  -3.367221e+001  -1.191893e+002 
3043750000  -3.432422e+001  -1.240125e+002 
3046875000  -3.453820e+001  -1.299088e+002 
3050000000  -3.618520e+001  -1.354116e+002 
3053125000  -3.607688e+001  -1.295079e+002 
3056250000  -3.568325e+001  -1.269924e+002 
3059375000  -3.564644e+001  -1.278746e+002 
3062500000  -3.417066e+001  -1.313401e+002 
3065625000  -3.391302e+001  -1.368951e+002 
3068750000  -3.368325e+001  -1.446128e+002 
3071875000  -3.356233e+001  -1.465737e+002 
3075000000  -3.334523e+001  -1.507480e+002 
3078125000  -3.301302e+001  -1.546425e+002 
3081250000  -3.360344e+001  -1.590920e+002 
3084375000  -3.258107e+001  -1.630947e+002 
3087500000  -3.250281e+001  -1.664117e+002 
3090625000  -3.198323e+001  -1.770132e+002 
3093750000  -3.252852e+001  1.755743e+002 
3096875000  -3.345724e+001  1.703381e+002 
3100000000  -3.335434e+001  1.675795e+002 
3103125000  -3.370774e+001  1.688490e+002 
3106250000  -3.320638e+001  1.647025e+002 
3109375000  -3.322867e+001  1.606024e+002 
3112500000  -3.326299e+001  1.580509e+002 
3115625000  -3.289619e+001  1.533768e+002 
3118750000  -3.314784e+001  1.537061e+002 
3121875000  -3.232189e+001  1.441303e+002 
3125000000  -3.359262e+001  1.399699e+002 
3128125000  -3.456009e+001  1.473026e+002 
3131250000  -3.197596e+001  1.453721e+002 
3134375000  -3.079234e+001  1.294846e+002 
3137500000  -3.139026e+001  1.160511e+002 
3140625000  -3.283110e+001  1.128689e+002 
3143750000  -3.377885e+001  1.142392e+002 
3146875000  -3.329368e+001  1.157233e+002 
3150000000  -3.224604e+001  1.155628e+002 
3153125000  -3.239253e+001  1.058038e+002 
3156250000  -3.338055e+001  1.107326e+002 
3159375000  -3.158879e+001  1.121576e+002 
3162500000  -2.970684e+001  9.791807e+001 
3165625000  -3.070907e+001  8.575272e+001 
3168750000  -3.100466e+001  8.586862e+001 
3171875000  -3.016269e+001  8.016064e+001 
3175000000  -3.093427e+001  7.127454e+001 
3178125000  -3.060856e+001  7.249390e+001 
3181250000  -2.955857e+001  6.618939e+001 
3184375000  -2.889800e+001  5.393988e+001 
3187500000  -3.018909e+001  3.848894e+001 
3190625000  -3.282035e+001  3.097858e+001 
3193750000  -3.330895e+001  3.959754e+001 
3196875000  -3.302543e+001  4.356281e+001 
3200000000  -3.200333e+001  4.101932e+001 
3203125000  -3.133142e+001  3.491493e+001 
3206250000  -3.160660e+001  2.798649e+001 
3209375000  -3.115548e+001  2.209807e+001 
3212500000  -3.147267e+001  1.489396e+001 
3215625000  -3.140871e+001  1.155191e+001 
3218750000  -3.220402e+001  4.606937e+000 
3221875000  -3.305568e+001  -1.278394e+000 
3225000000  -3.257963e+001  -2.672384e+000 
3228125000  -3.304615e+001  -7.835755e+000 
3231250000  -3.362724e+001  -1.030714e+001 
3234375000  -3.342119e+001  -9.698604e+000 
3237500000  -3.336884e+001  -1.221101e+001 
3240625000  -3.299065e+001  -1.484826e+001 
3243750000  -3.260040e+001  -2.232234e+001 
3246875000  -3.295839e+001  -2.943438e+001 
3250000000  -3.339796e+001  -3.139696e+001 
3253125000  -3.347681e+001  -3.361538e+001 
3256250000  -3.313505e+001  -4.048307e+001 
3259375000  -3.347045e+001  -4.931690e+001 
3262500000  -3.464850e+001  -5.290211e+001 
3265625000  -3.524469e+001  -4.997226e+001 
3268750000  -3.509055e+001  -4.829891e+001 
3271875000  -3.467710e+001  -4.898075e+001 
3275000000  -3.366263e+001  -5.509715e+001 
3278125000  -3.421173e+001  -6.165052e+001 
3281250000  -3.441973e+001  -6.070718e+001 
3284375000  -3.390005e+001  -6.756053e+001 
3287500000  -3.406818e+001  -7.100063e+001 
3290625000  -3.427499e+001  -7.690649e+001 
3293750000  -3.411555e+001  -8.326559e+001 
3296875000  -3.523566e+001  -8.357878e+001 
3300000000  -3.486883e+001  -8.298473e+001 
3303125000  -3.363699e+001  -8.834084e+001 
3306250000  -3.343395e+001  -9.571246e+001 
3309375000  -3.316118e+001  -1.017723e+002 
3312500000  -3.331483e+001  -1.132682e+002 
3315625000  -3.434189e+001  -1.213866e+002 
3318750000  -3.572574e+001  -1.241128e+002 
3321875000  -3.682769e+001  -1.243127e+002 
3325000000  -3.721682e+001  -1.187684e+002 
3328125000  -3.689670e+001  -1.179066e+002 
3331250000  -3.557600e+001  -1.111494e+002 
3334375000  -3.299263e+001  -1.226268e+002 
3337500000  -3.312257e+001  -1.425908e+002 
3340625000  -3.460704e+001  -1.531178e+002 
3343750000  -3.640948e+001  -1.542992e+002 
3346875000  -3.650795e+001  -1.522202e+002 
3350000000  -3.610464e+001  -1.543723e+002 
3353125000  -3.604300e+001  -1.592334e+002 
3356250000  -3.556467e+001  -1.674062e+002 
3359375000  -3.641314e+001  -1.753149e+002 
3362500000  -3.750500e+001  1.798432e+002 
3365625000  -3.810227e+001  1.789897e+002 
3368750000  -3.879224e+001  1.754332e+002 
3371875000  -3.894150e+001  1.725566e+002 
3375000000  -4.033741e+001  1.699340e+002 
3378125000  -4.118216e+001  1.698435e+002 
3381250000  -4.230806e+001  1.796171e+002 
3384375000  -4.091645e+001  -1.608215e+002 
3387500000  -3.749821e+001  -1.771011e+002 
3390625000  -3.919388e+001  1.644512e+002 
3393750000  -4.038760e+001  1.682861e+002 
3396875000  -3.929682e+001  1.695869e+002 
3400000000  -3.867537e+001  1.610149e+002 
3403125000  -3.920541e+001  1.559805e+002 
3406250000  -3.960993e+001  1.551988e+002 
3409375000  -3.978293e+001  1.460790e+002 
3412500000  -4.025970e+001  1.456902e+002 
3415625000  -4.110135e+001  1.462735e+002 
3418750000  -4.089580e+001  1.464619e+002 
3421875000  -4.133644e+001  1.498993e+002 
3425000000  -4.036686e+001  1.501307e+002 
3428125000  -3.927615e+001  1.460267e+002 
3431250000  -3.928409e+001  1.386942e+002 
3434375000  -3.919316e+001  1.330223e+002 
3437500000  -3.961955e+001  1.281372e+002 
3440625000  -3.997998e+001  1.303447e+002 
3443750000  -3.874968e+001  1.317552e+002 
3446875000  -3.777664e+001  1.241405e+002 
3450000000  -3.751452e+001  1.123767e+002 
3453125000  -3.798224e+001  1.025841e+002 
3456250000  -3.891033e+001  9.702648e+001 
3459375000  -3.996956e+001  9.797709e+001 
3462500000  -3.991299e+001  9.691940e+001 
3465625000  -3.971024e+001  9.321930e+001 
3468750000  -4.037216e+001  8.897186e+001 
3471875000  -4.005743e+001  8.750182e+001 
3475000000  -3.956634e+001  8.139962e+001 
3478125000  -4.033131e+001  7.510857e+001 
3481250000  -4.122461e+001  7.214026e+001 
3484375000  -4.223542e+001  7.560465e+001 
3487500000  -4.148881e+001  7.520643e+001 
3490625000  -4.059224e+001  7.208917e+001 
3493750000  -4.140362e+001  6.454270e+001 
3496875000  -4.220895e+001  6.265695e+001 
3500000000  -4.257227e+001  6.516066e+001 
3503125000  -4.183905e+001  6.700285e+001 
3506250000  -4.103284e+001  6.436005e+001 
3509375000  -4.055991e+001  5.381313e+001 
3512500000  -4.107781e+001  4.466893e+001 
3515625000  -4.216654e+001  4.267012e+001 
3518750000  -4.238625e+001  4.507429e+001 
3521875000  -4.258216e+001  3.911348e+001 
3525000000  -4.358089e+001  3.837793e+001 
3528125000  -4.338103e+001  4.504955e+001 
3531250000  -4.200518e+001  4.235049e+001 
3534375000  -4.212657e+001  3.254752e+001 
3537500000  -4.250213e+001  2.869399e+001 
3540625000  -4.350058e+001  2.474506e+001 
3543750000  -4.443742e+001  3.015522e+001 
3546875000  -4.406947e+001  4.135210e+001 
3550000000  -4.111967e+001  4.156169e+001 
3553125000  -3.983411e+001  2.311561e+001 
3556250000  -4.155807e+001  1.874869e+001 
3559375000  -4.117325e+001  1.909064e+001 
3562500000  -4.018961e+001  1.002700e+001 
3565625000  -4.113266e+001  2.269730e+000 
3568750000  -4.140755e+001  4.982571e+000 
3571875000  -4.110499e+001  3.259361e+000 
3575000000  -4.081392e+001  -2.456602e+000 
3578125000  -4.128029e+001  -7.130945e+000 
3581250000  -4.144707e+001  -1.006925e+001 
3584375000  -4.041012e+001  -1.228734e+001 
3587500000  -3.999681e+001  -1.924795e+001 
3590625000  -4.048329e+001  -3.163043e+001 
3593750000  -4.179092e+001  -3.239199e+001 
3596875000  -4.180490e+001  -2.818321e+001 
3600000000  -4.035912e+001  -3.343001e+001 
3603125000  -4.090020e+001  -4.874102e+001 
3606250000  -4.158203e+001  -5.305798e+001 
3609375000  -4.234392e+001  -5.386945e+001 
3612500000  -4.264047e+001  -5.953335e+001 
3615625000  -4.293921e+001  -6.046159e+001 
3618750000  -4.391524e+001  -6.084157e+001 
3621875000  -4.351085e+001  -6.284418e+001 
3625000000  -4.445189e+001  -6.409569e+001 
3628125000  -4.437743e+001  -6.355081e+001 
3631250000  -4.471242e+001  -6.989368e+001 
3634375000  -4.584159e+001  -6.852408e+001 
3637500000  -4.573860e+001  -6.510143e+001 
3640625000  -4.509192e+001  -6.369635e+001 
3643750000  -4.433014e+001  -6.981610e+001 
3646875000  -4.498409e+001  -7.640781e+001 
3650000000  -4.584301e+001  -7.276654e+001 
3653125000  -4.579798e+001  -7.479761e+001 
3656250000  -4.540229e+001  -7.654627e+001 
3659375000  -4.589816e+001  -7.231644e+001 
3662500000  -4.509489e+001  -7.171965e+001 
3665625000  -4.483024e+001  -7.620440e+001 
3668750000  -4.383494e+001  -7.349217e+001 
3671875000  -4.235794e+001  -8.178698e+001 
3675000000  -4.327855e+001  -8.819450e+001 
3678125000  -4.326299e+001  -9.058771e+001 
3681250000  -4.299962e+001  -9.258102e+001 
3684375000  -4.278867e+001  -9.740708e+001 
3687500000  -4.295356e+001  -1.003994e+002 
3690625000  -4.273976e+001  -1.059670e+002 
3693750000  -4.409040e+001  -1.047781e+002 
3696875000  -4.351720e+001  -1.052591e+002 
3700000000  -4.297466e+001  -1.113860e+002 
3703125000  -4.255347e+001  -1.181337e+002 
3706250000  -4.393051e+001  -1.150365e+002 
3709375000  -4.314167e+001  -1.167515e+002 
3712500000  -4.235713e+001  -1.168608e+002 
3715625000  -4.161122e+001  -1.231273e+002 
3718750000  -4.120295e+001  -1.300400e+002 
3721875000  -4.118288e+001  -1.378873e+002 
3725000000  -4.161151e+001  -1.429450e+002 
3728125000  -4.197372e+001  -1.445137e+002 
3731250000  -4.143423e+001  -1.491944e+002 
3734375000  -4.118517e+001  -1.526694e+002 
3737500000  -4.246638e+001  -1.601359e+002 
3740625000  -4.333453e+001  -1.637545e+002 
3743750000  -4.309071e+001  -1.657353e+002 
3746875000  -4.370050e+001  -1.685951e+002 
3750000000  -4.433112e+001  -1.701736e+002 
3753125000  -4.441307e+001  -1.691924e+002 
3756250000  -4.433070e+001  -1.691076e+002 
3759375000  -4.467921e+001  -1.684451e+002 
3762500000  -4.441429e+001  -1.706491e+002 
3765625000  -4.477188e+001  -1.720871e+002 
3768750000  -4.481625e+001  -1.660526e+002 
3771875000  -4.316765e+001  -1.701219e+002 
3775000000  -4.292757e+001  -1.748210e+002 
3778125000  -4.323635e+001  -1.765129e+002 
3781250000  -4.308227e+001  -1.788962e+002 
3784375000  -4.252918e+001  1.799671e+002 
3787500000  -4.215901e+001  -1.795210e+002 
3790625000  -4.258341e+001  1.702729e+002 
3793750000  -4.256547e+001  1.706437e+002 
3796875000  -4.118649e+001  1.695309e+002 
3800000000  -3.955754e+001  1.662887e+002 
3803125000  -4.012740e+001  1.560349e+002 
3806250000  -4.081890e+001  1.535247e+002 
3809375000  -4.043904e+001  1.520033e+002 
3812500000  -3.970993e+001  1.448359e+002 
3815625000  -4.047678e+001  1.350897e+002 
3818750000  -4.115588e+001  1.347069e+002 
3821875000  -4.117678e+001  1.437538e+002 
3825000000  -3.942465e+001  1.440129e+002 
3828125000  -3.812627e+001  1.287779e+002 
3831250000  -3.879772e+001  1.131121e+002 
3834375000  -4.013656e+001  1.134594e+002 
3837500000  -4.133582e+001  1.173766e+002 
3840625000  -3.980389e+001  1.142142e+002 
3843750000  -3.873444e+001  1.008967e+002 
3846875000  -3.976324e+001  9.577926e+001 
3850000000  -4.124992e+001  9.951756e+001 
3853125000  -4.047683e+001  1.037893e+002 
3856250000  -4.030418e+001  9.433596e+001 
3859375000  -3.977665e+001  9.127707e+001 
3862500000  -3.935054e+001  8.303465e+001 
3865625000  -3.964211e+001  7.777032e+001 
3868750000  -3.976302e+001  7.741319e+001 
3871875000  -3.902969e+001  7.244270e+001 
3875000000  -3.952617e+001  6.443787e+001 
3878125000  -4.048671e+001  6.175823e+001 
3881250000  -4.059339e+001  6.254078e+001 
3884375000  -4.040201e+001  5.908562e+001 
3887500000  -4.032566e+001  5.419176e+001 
3890625000  -4.086559e+001  5.232863e+001 
3893750000  -4.114388e+001  5.029257e+001 
3896875000  -4.159790e+001  5.024430e+001 
3900000000  -4.136665e+001  4.888229e+001 
3903125000  -4.113078e+001  4.694341e+001 
3906250000  -4.077602e+001  4.524608e+001 
3909375000  -4.001098e+001  4.173565e+001 
3912500000  -3.987067e+001  3.472153e+001 
3915625000  -4.132821e+001  3.720580e+001 
3918750000  -4.120152e+001  3.955124e+001 
3921875000  -4.061900e+001  3.448846e+001 
3925000000  -3.979458e+001  3.253360e+001 
3928125000  -3.915088e+001  2.523723e+001 
3931250000  -3.969577e+001  2.034170e+001 
3934375000  -3.974765e+001  1.789059e+001 
3937500000  -3.997680e+001  1.668504e+001 
3940625000  -4.030984e+001  1.433981e+001 
3943750000  -3.931696e+001  1.519957e+001 
3946875000  -3.832170e+001  9.333289e+000 
3950000000  -3.889019e+001  5.924432e-001 
3953125000  -3.997185e+001  3.523051e-001 
3956250000  -3.898405e+001  1.972738e+000 
3959375000  -3.779850e+001  -3.322815e+000 
3962500000  -3.723318e+001  -8.309175e+000 
3965625000  -3.696423e+001  -1.923265e+001 
3968750000  -3.800805e+001  -2.668615e+001 
3971875000  -3.859211e+001  -2.825427e+001 
3975000000  -3.785974e+001  -3.005280e+001 
3978125000  -3.772937e+001  -3.444165e+001 
3981250000  -3.768081e+001  -3.960634e+001 
3984375000  -3.796140e+001  -4.552330e+001 
3987500000  -3.859542e+001  -4.866466e+001 
3990625000  -3.856338e+001  -5.001507e+001 
3993750000  -3.902530e+001  -5.559642e+001 
3996875000  -3.884274e+001  -5.822417e+001 
4000000000  -3.934821e+001  -5.897453e+001 
4003125000  -3.954865e+001  -5.755955e+001 
4006250000  -3.838552e+001  -5.996975e+001 
4009375000  -3.720748e+001  -7.332682e+001 
4012500000  -3.870621e+001  -7.742245e+001 
4015625000  -4.009856e+001  -8.021140e+001 
4018750000  -4.012892e+001  -7.764082e+001 
4021875000  -3.936918e+001  -7.804694e+001 
4025000000  -3.879566e+001  -8.356786e+001 
4028125000  -3.911261e+001  -8.795324e+001 
4031250000  -3.956030e+001  -9.189700e+001 
4034375000  -3.999366e+001  -9.051579e+001 
4037500000  -3.932146e+001  -9.110479e+001 
4040625000  -3.926769e+001  -9.491682e+001 
4043750000  -3.930822e+001  -9.578617e+001 
4046875000  -3.909225e+001  -9.842789e+001 
4050000000  -3.854802e+001  -1.021847e+002 
4053125000  -3.897175e+001  -1.041325e+002 
4056250000  -3.946360e+001  -1.027045e+002 
4059375000  -3.810019e+001  -1.006590e+002 
4062500000  -3.673847e+001  -1.067190e+002 
4065625000  -3.671149e+001  -1.124986e+002 
4068750000  -3.627589e+001  -1.176280e+002 
4071875000  -3.575655e+001  -1.269236e+002 
4075000000  -3.602400e+001  -1.336951e+002 
4078125000  -3.662393e+001  -1.357446e+002 
4081250000  -3.608047e+001  -1.388539e+002 
4084375000  -3.561216e+001  -1.472215e+002 
4087500000  -3.613007e+001  -1.534465e+002 
4090625000  -3.688914e+001  -1.552536e+002 
4093750000  -3.646526e+001  -1.576083e+002 
4096875000  -3.619377e+001  -1.647372e+002 
4100000000  -3.707355e+001  -1.714630e+002 
4103125000  -3.780641e+001  -1.722199e+002 
4106250000  -3.754938e+001  -1.662086e+002 
4109375000  -3.675476e+001  -1.677205e+002 
4112500000  -3.608296e+001  -1.772772e+002 
4115625000  -3.655770e+001  1.791435e+002 
4118750000  -3.674363e+001  1.745104e+002 
4121875000  -3.637965e+001  1.697409e+002 
4125000000  -3.673754e+001  1.624193e+002 
4128125000  -3.787491e+001  1.605491e+002 
4131250000  -3.737196e+001  1.705189e+002 
4134375000  -3.524412e+001  1.632204e+002 
4137500000  -3.536189e+001  1.440037e+002 
4140625000  -3.728268e+001  1.365223e+002 
4143750000  -3.887785e+001  1.417347e+002 
4146875000  -3.859974e+001  1.473366e+002 
4150000000  -3.759092e+001  1.426828e+002 
4153125000  -3.719967e+001  1.356917e+002 
4156250000  -3.850496e+001  1.321920e+002 
4159375000  -3.888045e+001  1.365906e+002 
4162500000  -3.787984e+001  1.414120e+002 
4165625000  -3.669571e+001  1.366634e+002 
4168750000  -3.597372e+001  1.288151e+002 
4171875000  -3.602392e+001  1.193056e+002 
4175000000  -3.651301e+001  1.138311e+002 
4178125000  -3.717851e+001  1.148573e+002 
4181250000  -3.704316e+001  1.125243e+002 
4184375000  -3.679175e+001  1.083600e+002 
4187500000  -3.700944e+001  1.052892e+002 
4190625000  -3.665824e+001  9.998907e+001 
4193750000  -3.749573e+001  9.583090e+001 
4196875000  -3.808020e+001  9.526694e+001 
4200000000  -3.906297e+001  9.597296e+001 
4203125000  -3.866938e+001  1.111587e+002 
4206250000  -3.520005e+001  1.097094e+002 
4209375000  -3.425450e+001  8.814978e+001 
4212500000  -3.617412e+001  7.970031e+001 
4215625000  -3.715849e+001  8.626058e+001 
4218750000  -3.561084e+001  9.068826e+001 
4221875000  -3.318979e+001  7.974512e+001 
4225000000  -3.478054e+001  6.721239e+001 
4228125000  -3.512838e+001  7.089182e+001 
4231250000  -3.359389e+001  6.566541e+001 
4234375000  -3.343055e+001  5.664826e+001 
4237500000  -3.303407e+001  5.214317e+001 
4240625000  -3.295706e+001  4.172460e+001 
4243750000  -3.409873e+001  3.285876e+001 
4246875000  -3.502872e+001  3.329481e+001 
4250000000  -3.499329e+001  3.545961e+001 
4253125000  -3.435085e+001  3.142924e+001 
4256250000  -3.478939e+001  2.586021e+001 
4259375000  -3.442476e+001  2.234001e+001 
4262500000  -3.471767e+001  1.819191e+001 
4265625000  -3.491683e+001  1.796762e+001 
4268750000  -3.411541e+001  1.180361e+001 
4271875000  -3.390236e+001  4.898820e+000 
4275000000  -3.341142e+001  -2.375264e+000 
4278125000  -3.427274e+001  -1.405190e+001 
4281250000  -3.622279e+001  -1.594567e+001 
4284375000  -3.591378e+001  -1.755243e+001 
4287500000  -3.688183e+001  -2.055265e+001 
4290625000  -3.808850e+001  -1.211897e+001 
4293750000  -3.602816e+001  -6.932981e+000 
4296875000  -3.490415e+001  -1.854952e+001 
4300000000  -3.593837e+001  -2.703810e+001 
4303125000  -3.717515e+001  -2.481116e+001 
4306250000  -3.647011e+001  -1.980671e+001 
4309375000  -3.519960e+001  -2.120816e+001 
4312500000  -3.491881e+001  -3.018451e+001 
4315625000  -3.528275e+001  -3.551888e+001 
4318750000  -3.550753e+001  -3.996434e+001 
4321875000  -3.566579e+001  -3.799187e+001 
4325000000  -3.501769e+001  -3.829015e+001 
4328125000  -3.437425e+001  -4.520677e+001 
4331250000  -3.413883e+001  -5.438515e+001 
4334375000  -3.463828e+001  -5.941839e+001 
4337500000  -3.555759e+001  -6.246248e+001 
4340625000  -3.576667e+001  -6.004668e+001 
4343750000  -3.493567e+001  -5.937876e+001 
4346875000  -3.456160e+001  -6.520878e+001 
4350000000  -3.432553e+001  -7.132798e+001 
4353125000  -3.451697e+001  -7.973966e+001 
4356250000  -3.637690e+001  -8.002668e+001 
4359375000  -3.659583e+001  -6.631694e+001 
4362500000  -3.356040e+001  -6.912353e+001 
4365625000  -3.201131e+001  -8.154118e+001 
4368750000  -3.263280e+001  -9.587654e+001 
4371875000  -3.391319e+001  -9.438650e+001 
4375000000  -3.327862e+001  -9.641113e+001 
4378125000  -3.274583e+001  -1.036468e+002 
4381250000  -3.296488e+001  -1.099918e+002 
4384375000  -3.263881e+001  -1.160766e+002 
4387500000  -3.353629e+001  -1.235144e+002 
4390625000  -3.452312e+001  -1.236967e+002 
4393750000  -3.383788e+001  -1.225647e+002 
4396875000  -3.325851e+001  -1.263813e+002 
4400000000  -3.274198e+001  -1.344000e+002 
4403125000  -3.353796e+001  -1.442355e+002 
4406250000  -3.433870e+001  -1.468658e+002 
4409375000  -3.453391e+001  -1.499746e+002 
4412500000  -3.563882e+001  -1.532268e+002 
4415625000  -3.598794e+001  -1.488274e+002 
