!Agilent Technologies,E8363B,MY43030201,A.06.04.32
!Agilent E8363B: A.06.04.32
!Date: Tuesday, November 11, 2014 21:02:19
!Correction: S21(Response(S21)) 
!S1P File: Measurement: S21:
# Hz S  dB   R 50
3000000000  -3.639332e+001  -4.633488e+001 
3003125000  -3.744062e+001  -5.062335e+001 
3006250000  -3.738907e+001  -5.461149e+001 
3009375000  -3.757680e+001  -4.986309e+001 
3012500000  -3.692672e+001  -5.105362e+001 
3015625000  -3.594060e+001  -5.882277e+001 
3018750000  -3.674342e+001  -6.105346e+001 
3021875000  -3.535004e+001  -5.874215e+001 
3025000000  -3.401566e+001  -6.292815e+001 
3028125000  -3.311901e+001  -6.927392e+001 
3031250000  -3.203885e+001  -8.043539e+001 
3034375000  -3.174567e+001  -9.396636e+001 
3037500000  -3.211911e+001  -1.059299e+002 
3040625000  -3.339982e+001  -1.108524e+002 
3043750000  -3.412526e+001  -1.159216e+002 
3046875000  -3.437838e+001  -1.225488e+002 
3050000000  -3.602302e+001  -1.281843e+002 
3053125000  -3.605496e+001  -1.220458e+002 
3056250000  -3.557627e+001  -1.201881e+002 
3059375000  -3.556831e+001  -1.197637e+002 
3062500000  -3.411877e+001  -1.230983e+002 
3065625000  -3.385486e+001  -1.293936e+002 
3068750000  -3.356921e+001  -1.360205e+002 
3071875000  -3.342175e+001  -1.387976e+002 
3075000000  -3.327934e+001  -1.430825e+002 
3078125000  -3.302789e+001  -1.471230e+002 
3081250000  -3.348960e+001  -1.512917e+002 
3084375000  -3.262614e+001  -1.551477e+002 
3087500000  -3.241039e+001  -1.584802e+002 
3090625000  -3.196821e+001  -1.687639e+002 
3093750000  -3.239858e+001  -1.764639e+002 
3096875000  -3.336231e+001  1.777395e+002 
3100000000  -3.335221e+001  1.759498e+002 
3103125000  -3.353793e+001  1.771897e+002 
3106250000  -3.304882e+001  1.722551e+002 
3109375000  -3.326865e+001  1.685460e+002 
3112500000  -3.322889e+001  1.661617e+002 
3115625000  -3.289980e+001  1.612036e+002 
3118750000  -3.317527e+001  1.614480e+002 
3121875000  -3.232750e+001  1.519194e+002 
3125000000  -3.342606e+001  1.481023e+002 
3128125000  -3.458002e+001  1.550886e+002 
3131250000  -3.202607e+001  1.538083e+002 
3134375000  -3.067976e+001  1.381788e+002 
3137500000  -3.130002e+001  1.233997e+002 
3140625000  -3.284038e+001  1.208065e+002 
3143750000  -3.380085e+001  1.221704e+002 
3146875000  -3.323405e+001  1.231294e+002 
3150000000  -3.239104e+001  1.241632e+002 
3153125000  -3.232230e+001  1.147976e+002 
3156250000  -3.333036e+001  1.195703e+002 
3159375000  -3.178145e+001  1.209828e+002 
3162500000  -2.970832e+001  1.060520e+002 
3165625000  -3.071827e+001  9.424393e+001 
3168750000  -3.109964e+001  9.422099e+001 
3171875000  -3.026193e+001  8.840450e+001 
3175000000  -3.100757e+001  8.014288e+001 
3178125000  -3.065444e+001  8.057478e+001 
3181250000  -2.951898e+001  7.504822e+001 
3184375000  -2.889933e+001  6.280458e+001 
3187500000  -3.009239e+001  4.709218e+001 
3190625000  -3.282109e+001  3.854031e+001 
3193750000  -3.335911e+001  4.722707e+001 
3196875000  -3.303587e+001  5.219967e+001 
3200000000  -3.210406e+001  4.911487e+001 
3203125000  -3.127057e+001  4.336278e+001 
3206250000  -3.168410e+001  3.644638e+001 
3209375000  -3.114101e+001  3.050312e+001 
3212500000  -3.133508e+001  2.344609e+001 
3215625000  -3.141729e+001  1.964947e+001 
3218750000  -3.221561e+001  1.244700e+001 
3221875000  -3.305548e+001  6.592983e+000 
3225000000  -3.269796e+001  5.698186e+000 
3228125000  -3.304449e+001  8.023964e-001 
3231250000  -3.365165e+001  -1.789270e+000 
3234375000  -3.340936e+001  -1.785996e+000 
3237500000  -3.344241e+001  -4.107631e+000 
3240625000  -3.298880e+001  -6.131106e+000 
3243750000  -3.259528e+001  -1.351070e+001 
3246875000  -3.292672e+001  -2.081427e+001 
3250000000  -3.340260e+001  -2.308925e+001 
3253125000  -3.359200e+001  -2.521741e+001 
3256250000  -3.320513e+001  -3.257787e+001 
3259375000  -3.345078e+001  -4.074442e+001 
3262500000  -3.472303e+001  -4.438182e+001 
3265625000  -3.531258e+001  -4.107135e+001 
3268750000  -3.522189e+001  -3.988868e+001 
3271875000  -3.478022e+001  -3.994596e+001 
3275000000  -3.382733e+001  -4.656572e+001 
3278125000  -3.436790e+001  -5.249903e+001 
3281250000  -3.440406e+001  -5.232555e+001 
3284375000  -3.406223e+001  -5.866662e+001 
3287500000  -3.410081e+001  -6.274392e+001 
3290625000  -3.448703e+001  -6.822375e+001 
3293750000  -3.413797e+001  -7.433949e+001 
3296875000  -3.520554e+001  -7.499403e+001 
3300000000  -3.497845e+001  -7.510490e+001 
3303125000  -3.374559e+001  -7.945004e+001 
3306250000  -3.360381e+001  -8.714706e+001 
3309375000  -3.327645e+001  -9.294777e+001 
3312500000  -3.339533e+001  -1.039094e+002 
3315625000  -3.433618e+001  -1.117751e+002 
3318750000  -3.581119e+001  -1.148491e+002 
3321875000  -3.692842e+001  -1.152233e+002 
3325000000  -3.731045e+001  -1.102010e+002 
3328125000  -3.702112e+001  -1.105081e+002 
3331250000  -3.565548e+001  -1.025733e+002 
3334375000  -3.318612e+001  -1.135483e+002 
3337500000  -3.318561e+001  -1.323540e+002 
3340625000  -3.453994e+001  -1.437555e+002 
3343750000  -3.650891e+001  -1.444730e+002 
3346875000  -3.668972e+001  -1.426635e+002 
3350000000  -3.614335e+001  -1.440952e+002 
3353125000  -3.624666e+001  -1.489206e+002 
3356250000  -3.556269e+001  -1.574580e+002 
3359375000  -3.641805e+001  -1.648069e+002 
3362500000  -3.751798e+001  -1.707733e+002 
3365625000  -3.805299e+001  -1.724530e+002 
3368750000  -3.869608e+001  -1.748968e+002 
3371875000  -3.900233e+001  -1.773320e+002 
3375000000  -4.039055e+001  1.787830e+002 
3378125000  -4.113176e+001  1.799996e+002 
3381250000  -4.250176e+001  -1.740265e+002 
3384375000  -4.152938e+001  -1.511329e+002 
3387500000  -3.775539e+001  -1.656514e+002 
3390625000  -3.909052e+001  1.730731e+002 
3393750000  -4.057452e+001  1.773522e+002 
3396875000  -3.929842e+001  1.788030e+002 
3400000000  -3.875263e+001  1.703002e+002 
3403125000  -3.947989e+001  1.653364e+002 
3406250000  -3.979068e+001  1.658382e+002 
3409375000  -3.978576e+001  1.580616e+002 
3412500000  -4.052395e+001  1.548392e+002 
3415625000  -4.110358e+001  1.555928e+002 
3418750000  -4.094284e+001  1.567853e+002 
3421875000  -4.138240e+001  1.598086e+002 
3425000000  -4.040235e+001  1.594260e+002 
3428125000  -3.953102e+001  1.555157e+002 
3431250000  -3.938614e+001  1.491483e+002 
3434375000  -3.942424e+001  1.435069e+002 
3437500000  -3.992476e+001  1.391832e+002 
3440625000  -4.010737e+001  1.408633e+002 
3443750000  -3.878444e+001  1.420662e+002 
3446875000  -3.812355e+001  1.332972e+002 
3450000000  -3.776177e+001  1.232521e+002 
3453125000  -3.783934e+001  1.142422e+002 
3456250000  -3.904634e+001  1.064644e+002 
3459375000  -4.002924e+001  1.087292e+002 
3462500000  -3.976979e+001  1.079801e+002 
3465625000  -3.954227e+001  1.030982e+002 
3468750000  -4.017630e+001  9.866007e+001 
3471875000  -3.998101e+001  9.775536e+001 
3475000000  -3.949797e+001  9.313305e+001 
3478125000  -4.047086e+001  8.355705e+001 
3481250000  -4.117900e+001  8.098132e+001 
3484375000  -4.206570e+001  8.569838e+001 
3487500000  -4.110978e+001  8.596631e+001 
3490625000  -4.066511e+001  8.158324e+001 
3493750000  -4.150665e+001  7.370445e+001 
3496875000  -4.155172e+001  7.212978e+001 
3500000000  -4.231711e+001  7.427348e+001 
3503125000  -4.207771e+001  7.693105e+001 
3506250000  -4.084645e+001  7.246626e+001 
3509375000  -4.075404e+001  6.297327e+001 
3512500000  -4.108824e+001  5.248898e+001 
3515625000  -4.171088e+001  4.841031e+001 
3518750000  -4.257927e+001  5.234315e+001 
3521875000  -4.256511e+001  4.966194e+001 
3525000000  -4.364550e+001  4.449105e+001 
3528125000  -4.320599e+001  5.257442e+001 
3531250000  -4.192762e+001  5.192147e+001 
3534375000  -4.194815e+001  4.075877e+001 
3537500000  -4.259036e+001  3.852541e+001 
3540625000  -4.356996e+001  3.641970e+001 
3543750000  -4.422198e+001  3.865997e+001 
3546875000  -4.427428e+001  5.059053e+001 
3550000000  -4.147869e+001  5.199986e+001 
3553125000  -4.027529e+001  3.476748e+001 
3556250000  -4.152827e+001  2.580387e+001 
3559375000  -4.157949e+001  2.950947e+001 
3562500000  -4.029278e+001  2.033083e+001 
3565625000  -4.130326e+001  1.294108e+001 
3568750000  -4.155180e+001  1.436437e+001 
3571875000  -4.152054e+001  1.535842e+001 
3575000000  -4.082294e+001  6.077435e+000 
3578125000  -4.123427e+001  2.390138e+000 
3581250000  -4.147919e+001  2.109725e+000 
3584375000  -4.054642e+001  -1.149076e+000 
3587500000  -4.023507e+001  -1.066908e+001 
3590625000  -4.077449e+001  -2.137709e+001 
3593750000  -4.171439e+001  -2.333800e+001 
3596875000  -4.181853e+001  -1.700448e+001 
3600000000  -4.045018e+001  -2.291261e+001 
3603125000  -4.113434e+001  -3.677332e+001 
3606250000  -4.168740e+001  -4.167111e+001 
3609375000  -4.244120e+001  -4.360794e+001 
3612500000  -4.290209e+001  -4.689162e+001 
3615625000  -4.336333e+001  -5.141122e+001 
3618750000  -4.386095e+001  -5.172233e+001 
3621875000  -4.390921e+001  -5.504999e+001 
3625000000  -4.436497e+001  -5.451860e+001 
3628125000  -4.449463e+001  -5.638909e+001 
3631250000  -4.461294e+001  -6.258091e+001 
3634375000  -4.627051e+001  -6.132303e+001 
3637500000  -4.566887e+001  -5.836802e+001 
3640625000  -4.510921e+001  -5.287451e+001 
3643750000  -4.485945e+001  -6.070638e+001 
3646875000  -4.557588e+001  -6.569064e+001 
3650000000  -4.627997e+001  -6.509905e+001 
3653125000  -4.526311e+001  -6.775690e+001 
3656250000  -4.625262e+001  -6.673738e+001 
3659375000  -4.650060e+001  -6.361306e+001 
3662500000  -4.509921e+001  -6.283945e+001 
3665625000  -4.527294e+001  -6.453957e+001 
3668750000  -4.415811e+001  -6.533820e+001 
3671875000  -4.301308e+001  -6.801003e+001 
3675000000  -4.303400e+001  -7.710625e+001 
3678125000  -4.357907e+001  -7.672780e+001 
3681250000  -4.311155e+001  -8.039893e+001 
3684375000  -4.344745e+001  -8.592342e+001 
3687500000  -4.340371e+001  -8.987598e+001 
3690625000  -4.343018e+001  -9.326421e+001 
3693750000  -4.398724e+001  -9.248761e+001 
3696875000  -4.388985e+001  -9.410810e+001 
3700000000  -4.274892e+001  -9.695133e+001 
3703125000  -4.339673e+001  -1.056768e+002 
3706250000  -4.396590e+001  -1.029297e+002 
3709375000  -4.385452e+001  -1.029777e+002 
3712500000  -4.270040e+001  -1.064788e+002 
3715625000  -4.155721e+001  -1.124933e+002 
3718750000  -4.165588e+001  -1.193885e+002 
3721875000  -4.155469e+001  -1.225148e+002 
3725000000  -4.205202e+001  -1.312550e+002 
3728125000  -4.202188e+001  -1.326048e+002 
3731250000  -4.191015e+001  -1.342075e+002 
3734375000  -4.147885e+001  -1.414954e+002 
3737500000  -4.238096e+001  -1.490975e+002 
3740625000  -4.317091e+001  -1.513310e+002 
3743750000  -4.328989e+001  -1.522643e+002 
3746875000  -4.376227e+001  -1.549675e+002 
3750000000  -4.449002e+001  -1.581267e+002 
3753125000  -4.452502e+001  -1.575518e+002 
3756250000  -4.443568e+001  -1.542506e+002 
3759375000  -4.448941e+001  -1.573311e+002 
3762500000  -4.443473e+001  -1.567135e+002 
3765625000  -4.532890e+001  -1.573377e+002 
3768750000  -4.508751e+001  -1.573626e+002 
3771875000  -4.356453e+001  -1.586047e+002 
3775000000  -4.270547e+001  -1.644132e+002 
3778125000  -4.337547e+001  -1.639243e+002 
3781250000  -4.327301e+001  -1.649838e+002 
3784375000  -4.292555e+001  -1.661160e+002 
3787500000  -4.209918e+001  -1.691238e+002 
3790625000  -4.240573e+001  -1.774304e+002 
3793750000  -4.211092e+001  -1.773619e+002 
3796875000  -4.128956e+001  -1.766747e+002 
3800000000  -3.946143e+001  1.780831e+002 
3803125000  -4.038807e+001  1.692366e+002 
3806250000  -4.069748e+001  1.661791e+002 
3809375000  -4.041317e+001  1.631766e+002 
3812500000  -3.977820e+001  1.575979e+002 
3815625000  -4.016041e+001  1.484965e+002 
3818750000  -4.149562e+001  1.452380e+002 
3821875000  -4.116532e+001  1.556842e+002 
3825000000  -3.915551e+001  1.567809e+002 
3828125000  -3.817590e+001  1.419062e+002 
3831250000  -3.879662e+001  1.257969e+002 
3834375000  -4.016142e+001  1.255663e+002 
3837500000  -4.114097e+001  1.297357e+002 
3840625000  -4.001174e+001  1.258026e+002 
3843750000  -3.871501e+001  1.145711e+002 
3846875000  -3.958735e+001  1.082151e+002 
3850000000  -4.103282e+001  1.110920e+002 
3853125000  -4.053825e+001  1.148626e+002 
3856250000  -4.040315e+001  1.066617e+002 
3859375000  -3.968767e+001  1.035253e+002 
3862500000  -3.953965e+001  9.488229e+001 
3865625000  -3.972988e+001  8.944671e+001 
3868750000  -3.967708e+001  8.845766e+001 
3871875000  -3.911563e+001  8.551643e+001 
3875000000  -3.947399e+001  7.625877e+001 
3878125000  -4.075162e+001  7.212522e+001 
3881250000  -4.057942e+001  7.691643e+001 
3884375000  -4.024683e+001  7.274084e+001 
3887500000  -4.033940e+001  6.762051e+001 
3890625000  -4.099828e+001  6.397570e+001 
3893750000  -4.106013e+001  6.309072e+001 
3896875000  -4.127010e+001  6.272974e+001 
3900000000  -4.162083e+001  6.044796e+001 
3903125000  -4.106430e+001  5.940789e+001 
3906250000  -4.089053e+001  5.867856e+001 
3909375000  -4.005003e+001  5.509694e+001 
3912500000  -4.040821e+001  4.644926e+001 
3915625000  -4.133028e+001  4.780714e+001 
3918750000  -4.118568e+001  4.753645e+001 
3921875000  -4.050786e+001  4.608281e+001 
3925000000  -3.973881e+001  4.380804e+001 
3928125000  -3.906903e+001  3.613734e+001 
3931250000  -3.932014e+001  3.160835e+001 
3934375000  -3.959626e+001  2.919273e+001 
3937500000  -3.967855e+001  2.769662e+001 
3940625000  -4.040625e+001  2.637476e+001 
3943750000  -3.933412e+001  2.793301e+001 
3946875000  -3.823824e+001  1.903793e+001 
3950000000  -3.887669e+001  9.731324e+000 
3953125000  -3.985002e+001  9.695185e+000 
3956250000  -3.883522e+001  1.392741e+001 
3959375000  -3.767559e+001  6.318746e+000 
3962500000  -3.723256e+001  3.043378e+000 
3965625000  -3.685868e+001  -8.051565e+000 
3968750000  -3.822580e+001  -1.412455e+001 
3971875000  -3.832776e+001  -1.645073e+001 
3975000000  -3.784450e+001  -1.980682e+001 
3978125000  -3.775314e+001  -2.232393e+001 
3981250000  -3.769028e+001  -2.804222e+001 
3984375000  -3.780678e+001  -3.388699e+001 
3987500000  -3.851994e+001  -3.730290e+001 
3990625000  -3.861556e+001  -3.909239e+001 
3993750000  -3.887857e+001  -4.229350e+001 
3996875000  -3.890165e+001  -4.712895e+001 
4000000000  -3.912194e+001  -4.830916e+001 
4003125000  -3.957618e+001  -4.635008e+001 
4006250000  -3.812140e+001  -4.643275e+001 
4009375000  -3.709097e+001  -6.083336e+001 
4012500000  -3.859238e+001  -6.728054e+001 
4015625000  -3.978485e+001  -6.699859e+001 
4018750000  -4.019308e+001  -6.681122e+001 
4021875000  -3.918449e+001  -6.669186e+001 
4025000000  -3.879449e+001  -7.229556e+001 
4028125000  -3.908271e+001  -7.684042e+001 
4031250000  -3.929924e+001  -8.065984e+001 
4034375000  -3.944004e+001  -8.023557e+001 
4037500000  -3.918267e+001  -7.933321e+001 
4040625000  -3.928488e+001  -8.398878e+001 
4043750000  -3.923602e+001  -8.482309e+001 
4046875000  -3.878439e+001  -8.469303e+001 
4050000000  -3.840091e+001  -9.138901e+001 
4053125000  -3.896688e+001  -9.448306e+001 
4056250000  -3.943301e+001  -9.050388e+001 
4059375000  -3.808677e+001  -8.963597e+001 
4062500000  -3.664574e+001  -9.506659e+001 
4065625000  -3.669674e+001  -9.997227e+001 
4068750000  -3.633746e+001  -1.059484e+002 
4071875000  -3.565395e+001  -1.147335e+002 
4075000000  -3.600003e+001  -1.209704e+002 
4078125000  -3.655642e+001  -1.237337e+002 
4081250000  -3.606864e+001  -1.272210e+002 
4084375000  -3.562911e+001  -1.348363e+002 
4087500000  -3.601211e+001  -1.419686e+002 
4090625000  -3.648412e+001  -1.442941e+002 
4093750000  -3.656227e+001  -1.454623e+002 
4096875000  -3.598478e+001  -1.523464e+002 
4100000000  -3.675874e+001  -1.596462e+002 
4103125000  -3.779397e+001  -1.595027e+002 
4106250000  -3.758638e+001  -1.562959e+002 
4109375000  -3.656608e+001  -1.559027e+002 
4112500000  -3.616037e+001  -1.651584e+002 
4115625000  -3.662258e+001  -1.697719e+002 
4118750000  -3.677661e+001  -1.729813e+002 
4121875000  -3.636210e+001  -1.793927e+002 
4125000000  -3.661230e+001  1.751772e+002 
4128125000  -3.775695e+001  1.739892e+002 
4131250000  -3.763186e+001  -1.784648e+002 
4134375000  -3.524792e+001  1.756400e+002 
4137500000  -3.518519e+001  1.551596e+002 
4140625000  -3.731533e+001  1.480143e+002 
4143750000  -3.873996e+001  1.526554e+002 
4146875000  -3.834461e+001  1.594248e+002 
4150000000  -3.752094e+001  1.561292e+002 
4153125000  -3.733301e+001  1.476267e+002 
4156250000  -3.853385e+001  1.439144e+002 
4159375000  -3.870362e+001  1.497191e+002 
4162500000  -3.772554e+001  1.535568e+002 
4165625000  -3.661911e+001  1.488894e+002 
4168750000  -3.605421e+001  1.418399e+002 
4171875000  -3.613309e+001  1.316532e+002 
4175000000  -3.691429e+001  1.254059e+002 
4178125000  -3.722945e+001  1.253640e+002 
4181250000  -3.687014e+001  1.240655e+002 
4184375000  -3.682576e+001  1.202074e+002 
4187500000  -3.682280e+001  1.176762e+002 
4190625000  -3.662754e+001  1.108055e+002 
4193750000  -3.735850e+001  1.077920e+002 
4196875000  -3.790635e+001  1.076304e+002 
4200000000  -3.904250e+001  1.091216e+002 
4203125000  -3.888264e+001  1.229616e+002 
4206250000  -3.538105e+001  1.225274e+002 
4209375000  -3.433485e+001  1.008075e+002 
4212500000  -3.615739e+001  9.047855e+001 
4215625000  -3.698167e+001  9.699883e+001 
4218750000  -3.552699e+001  1.031170e+002 
4221875000  -3.350237e+001  9.103166e+001 
4225000000  -3.451114e+001  7.997936e+001 
4228125000  -3.518966e+001  8.386301e+001 
4231250000  -3.360067e+001  7.836150e+001 
4234375000  -3.341704e+001  6.838933e+001 
4237500000  -3.289353e+001  6.426253e+001 
4240625000  -3.299930e+001  5.421496e+001 
4243750000  -3.408750e+001  4.590290e+001 
4246875000  -3.489579e+001  4.559532e+001 
4250000000  -3.490432e+001  4.697599e+001 
4253125000  -3.449005e+001  4.363986e+001 
4256250000  -3.468994e+001  3.791077e+001 
4259375000  -3.462823e+001  3.567042e+001 
4262500000  -3.467667e+001  2.952599e+001 
4265625000  -3.474100e+001  3.002403e+001 
4268750000  -3.390577e+001  2.538972e+001 
4271875000  -3.394774e+001  1.788230e+001 
4275000000  -3.340755e+001  9.268559e+000 
4278125000  -3.414408e+001  -2.988385e+000 
4281250000  -3.586612e+001  -4.708024e+000 
4284375000  -3.596014e+001  -4.381975e+000 
4287500000  -3.689404e+001  -1.076140e+001 
4290625000  -3.813360e+001  -5.749582e-001 
4293750000  -3.621632e+001  6.126277e+000 
4296875000  -3.488299e+001  -5.918709e+000 
4300000000  -3.597069e+001  -1.464648e+001 
4303125000  -3.726355e+001  -1.290062e+001 
4306250000  -3.665678e+001  -7.342613e+000 
4309375000  -3.526038e+001  -1.095427e+001 
4312500000  -3.505102e+001  -1.800443e+001 
4315625000  -3.531728e+001  -2.379340e+001 
4318750000  -3.546846e+001  -2.822420e+001 
4321875000  -3.560238e+001  -2.640169e+001 
4325000000  -3.508556e+001  -2.731623e+001 
4328125000  -3.447695e+001  -3.263281e+001 
4331250000  -3.420820e+001  -4.125706e+001 
4334375000  -3.456943e+001  -4.713340e+001 
4337500000  -3.533780e+001  -4.921195e+001 
4340625000  -3.574749e+001  -4.698900e+001 
4343750000  -3.500678e+001  -4.664922e+001 
4346875000  -3.452365e+001  -5.261973e+001 
4350000000  -3.450934e+001  -5.915643e+001 
4353125000  -3.440621e+001  -6.779579e+001 
4356250000  -3.615021e+001  -6.943301e+001 
4359375000  -3.645759e+001  -5.655778e+001 
4362500000  -3.364890e+001  -5.539407e+001 
4365625000  -3.187580e+001  -6.915259e+001 
4368750000  -3.280605e+001  -8.295445e+001 
4371875000  -3.373816e+001  -8.306447e+001 
4375000000  -3.345956e+001  -8.369765e+001 
4378125000  -3.268174e+001  -9.021681e+001 
4381250000  -3.303244e+001  -9.787118e+001 
4384375000  -3.271273e+001  -1.036287e+002 
4387500000  -3.348846e+001  -1.104456e+002 
4390625000  -3.441585e+001  -1.106893e+002 
4393750000  -3.364683e+001  -1.090090e+002 
4396875000  -3.311294e+001  -1.138094e+002 
4400000000  -3.282928e+001  -1.226806e+002 
4403125000  -3.339707e+001  -1.310999e+002 
4406250000  -3.432083e+001  -1.326941e+002 
4409375000  -3.431028e+001  -1.373690e+002 
4412500000  -3.578944e+001  -1.407242e+002 
4415625000  -3.615604e+001  -1.372858e+002 
