!Agilent Technologies,E8363B,MY43030201,A.06.04.32
!Agilent E8363B: A.06.04.32
!Date: Tuesday, November 11, 2014 21:06:28
!Correction: S21(Response(S21)) 
!S1P File: Measurement: S21:
# Hz S  dB   R 50
3000000000  -3.653513e+001  -4.885690e+001 
3003125000  -3.767574e+001  -5.519508e+001 
3006250000  -3.751316e+001  -5.725291e+001 
3009375000  -3.783250e+001  -5.314645e+001 
3012500000  -3.704513e+001  -5.430851e+001 
3015625000  -3.608733e+001  -6.161884e+001 
3018750000  -3.688158e+001  -6.339058e+001 
3021875000  -3.540022e+001  -6.259357e+001 
3025000000  -3.417218e+001  -6.622581e+001 
3028125000  -3.317133e+001  -7.288127e+001 
3031250000  -3.209356e+001  -8.380303e+001 
3034375000  -3.177333e+001  -9.747060e+001 
3037500000  -3.214389e+001  -1.096462e+002 
3040625000  -3.362275e+001  -1.142871e+002 
3043750000  -3.426781e+001  -1.196717e+002 
3046875000  -3.429564e+001  -1.254833e+002 
3050000000  -3.607069e+001  -1.315077e+002 
3053125000  -3.599810e+001  -1.260514e+002 
3056250000  -3.551153e+001  -1.237568e+002 
3059375000  -3.553247e+001  -1.234756e+002 
3062500000  -3.410870e+001  -1.272107e+002 
3065625000  -3.392987e+001  -1.329634e+002 
3068750000  -3.357092e+001  -1.398561e+002 
3071875000  -3.350793e+001  -1.430457e+002 
3075000000  -3.329499e+001  -1.462756e+002 
3078125000  -3.297189e+001  -1.506354e+002 
3081250000  -3.358278e+001  -1.549666e+002 
3084375000  -3.260176e+001  -1.587373e+002 
3087500000  -3.245087e+001  -1.622788e+002 
3090625000  -3.200499e+001  -1.724532e+002 
3093750000  -3.241089e+001  1.798851e+002 
3096875000  -3.353197e+001  1.744045e+002 
3100000000  -3.338683e+001  1.717254e+002 
3103125000  -3.363980e+001  1.727512e+002 
3106250000  -3.320831e+001  1.689776e+002 
3109375000  -3.331404e+001  1.644672e+002 
3112500000  -3.315535e+001  1.621895e+002 
3115625000  -3.290696e+001  1.579528e+002 
3118750000  -3.317449e+001  1.576643e+002 
3121875000  -3.234509e+001  1.485189e+002 
3125000000  -3.353081e+001  1.442785e+002 
3128125000  -3.453130e+001  1.513259e+002 
3131250000  -3.204653e+001  1.495894e+002 
3134375000  -3.069592e+001  1.348437e+002 
3137500000  -3.135951e+001  1.204430e+002 
3140625000  -3.289744e+001  1.176845e+002 
3143750000  -3.381112e+001  1.190788e+002 
3146875000  -3.326798e+001  1.196530e+002 
3150000000  -3.231432e+001  1.207051e+002 
3153125000  -3.237469e+001  1.111009e+002 
3156250000  -3.335728e+001  1.157950e+002 
3159375000  -3.165645e+001  1.171050e+002 
3162500000  -2.972442e+001  1.021992e+002 
3165625000  -3.072081e+001  9.003545e+001 
3168750000  -3.098811e+001  9.013447e+001 
3171875000  -3.015750e+001  8.477617e+001 
3175000000  -3.085088e+001  7.623970e+001 
3178125000  -3.065629e+001  7.684754e+001 
3181250000  -2.947795e+001  7.168089e+001 
3184375000  -2.880424e+001  5.840162e+001 
3187500000  -3.001055e+001  4.285837e+001 
3190625000  -3.280767e+001  3.535956e+001 
3193750000  -3.333191e+001  4.383395e+001 
3196875000  -3.289915e+001  4.894342e+001 
3200000000  -3.195656e+001  4.588392e+001 
3203125000  -3.122053e+001  3.959657e+001 
3206250000  -3.155520e+001  3.289040e+001 
3209375000  -3.102712e+001  2.673135e+001 
3212500000  -3.129018e+001  1.991451e+001 
3215625000  -3.133061e+001  1.576817e+001 
3218750000  -3.215271e+001  7.886972e+000 
3221875000  -3.297335e+001  3.505786e+000 
3225000000  -3.260755e+001  2.102693e+000 
3228125000  -3.293808e+001  -2.980171e+000 
3231250000  -3.352497e+001  -6.006423e+000 
3234375000  -3.333434e+001  -5.963841e+000 
3237500000  -3.329657e+001  -8.426946e+000 
3240625000  -3.290074e+001  -1.049523e+001 
3243750000  -3.246013e+001  -1.769516e+001 
3246875000  -3.297459e+001  -2.592936e+001 
3250000000  -3.337955e+001  -2.802369e+001 
3253125000  -3.340591e+001  -2.919813e+001 
3256250000  -3.304278e+001  -3.690700e+001 
3259375000  -3.339196e+001  -4.545652e+001 
3262500000  -3.462735e+001  -4.875461e+001 
3265625000  -3.532404e+001  -4.630109e+001 
3268750000  -3.506222e+001  -4.380329e+001 
3271875000  -3.471331e+001  -4.432385e+001 
3275000000  -3.369826e+001  -5.054257e+001 
3278125000  -3.416355e+001  -5.747788e+001 
3281250000  -3.431412e+001  -5.688631e+001 
3284375000  -3.383330e+001  -6.289671e+001 
3287500000  -3.402211e+001  -6.681567e+001 
3290625000  -3.427396e+001  -7.208293e+001 
3293750000  -3.407904e+001  -7.883090e+001 
3296875000  -3.519539e+001  -7.964442e+001 
3300000000  -3.485381e+001  -7.890611e+001 
3303125000  -3.364615e+001  -8.431245e+001 
3306250000  -3.348033e+001  -9.116135e+001 
3309375000  -3.314788e+001  -9.696120e+001 
3312500000  -3.329873e+001  -1.082542e+002 
3315625000  -3.425333e+001  -1.160765e+002 
3318750000  -3.565944e+001  -1.194328e+002 
3321875000  -3.664539e+001  -1.195439e+002 
3325000000  -3.735995e+001  -1.147689e+002 
3328125000  -3.685262e+001  -1.137416e+002 
3331250000  -3.561190e+001  -1.066928e+002 
3334375000  -3.284307e+001  -1.178333e+002 
3337500000  -3.302654e+001  -1.373426e+002 
3340625000  -3.450895e+001  -1.481409e+002 
3343750000  -3.641903e+001  -1.492792e+002 
3346875000  -3.656467e+001  -1.469515e+002 
3350000000  -3.588129e+001  -1.494773e+002 
3353125000  -3.606766e+001  -1.542247e+002 
3356250000  -3.553888e+001  -1.623808e+002 
3359375000  -3.625367e+001  -1.697352e+002 
3362500000  -3.747330e+001  -1.763746e+002 
3365625000  -3.773899e+001  -1.787780e+002 
3368750000  -3.867534e+001  -1.794627e+002 
3371875000  -3.888044e+001  1.777297e+002 
3375000000  -4.014384e+001  1.739800e+002 
3378125000  -4.106807e+001  1.746861e+002 
3381250000  -4.236678e+001  -1.747910e+002 
3384375000  -4.080787e+001  -1.536496e+002 
3387500000  -3.746285e+001  -1.713120e+002 
3390625000  -3.906579e+001  1.696901e+002 
3393750000  -4.021669e+001  1.733184e+002 
3396875000  -3.913383e+001  1.725378e+002 
3400000000  -3.864295e+001  1.657146e+002 
3403125000  -3.951552e+001  1.593913e+002 
3406250000  -3.957921e+001  1.595834e+002 
3409375000  -3.983116e+001  1.505449e+002 
3412500000  -4.031358e+001  1.496327e+002 
3415625000  -4.085474e+001  1.500832e+002 
3418750000  -4.100917e+001  1.512858e+002 
3421875000  -4.113451e+001  1.539149e+002 
3425000000  -4.029583e+001  1.549817e+002 
3428125000  -3.926662e+001  1.506904e+002 
3431250000  -3.910509e+001  1.442831e+002 
3434375000  -3.916973e+001  1.377845e+002 
3437500000  -3.968519e+001  1.341741e+002 
3440625000  -3.980543e+001  1.346112e+002 
3443750000  -3.870842e+001  1.361418e+002 
3446875000  -3.794434e+001  1.274402e+002 
3450000000  -3.764683e+001  1.187319e+002 
3453125000  -3.806509e+001  1.086516e+002 
3456250000  -3.911356e+001  1.014042e+002 
3459375000  -4.003927e+001  1.035794e+002 
3462500000  -3.983027e+001  1.021930e+002 
3465625000  -3.985930e+001  9.623287e+001 
3468750000  -4.014063e+001  9.439889e+001 
3471875000  -3.994779e+001  9.191702e+001 
3475000000  -3.951044e+001  8.733549e+001 
3478125000  -4.018639e+001  7.986694e+001 
3481250000  -4.136670e+001  7.523940e+001 
3484375000  -4.193567e+001  7.854877e+001 
3487500000  -4.144496e+001  7.963077e+001 
3490625000  -4.066109e+001  7.606038e+001 
3493750000  -4.104914e+001  6.843113e+001 
3496875000  -4.172413e+001  6.747054e+001 
3500000000  -4.220630e+001  6.778951e+001 
3503125000  -4.192005e+001  7.139270e+001 
3506250000  -4.058047e+001  6.694344e+001 
3509375000  -4.054108e+001  5.645197e+001 
3512500000  -4.116966e+001  4.708724e+001 
3515625000  -4.200857e+001  4.657697e+001 
3518750000  -4.263198e+001  4.619603e+001 
3521875000  -4.234885e+001  4.409206e+001 
3525000000  -4.360725e+001  4.027622e+001 
3528125000  -4.336617e+001  4.599616e+001 
3531250000  -4.190981e+001  4.557393e+001 
3534375000  -4.228554e+001  3.649458e+001 
3537500000  -4.251979e+001  3.160578e+001 
3540625000  -4.373074e+001  2.984701e+001 
3543750000  -4.426497e+001  3.282720e+001 
3546875000  -4.437756e+001  4.549498e+001 
3550000000  -4.167758e+001  4.643586e+001 
3553125000  -4.026326e+001  2.847172e+001 
3556250000  -4.185803e+001  2.427707e+001 
3559375000  -4.145608e+001  2.336079e+001 
3562500000  -4.050901e+001  1.484151e+001 
3565625000  -4.100607e+001  7.514321e+000 
3568750000  -4.128822e+001  9.996648e+000 
3571875000  -4.121260e+001  8.502515e+000 
3575000000  -4.089233e+001  2.435108e+000 
3578125000  -4.123788e+001  -3.327061e+000 
3581250000  -4.138504e+001  -3.074701e+000 
3584375000  -4.074801e+001  -7.277806e+000 
3587500000  -4.022300e+001  -1.495870e+001 
3590625000  -4.068018e+001  -2.514026e+001 
3593750000  -4.182676e+001  -2.853704e+001 
3596875000  -4.188443e+001  -2.214780e+001 
3600000000  -4.026835e+001  -2.744182e+001 
3603125000  -4.046753e+001  -4.095358e+001 
3606250000  -4.164660e+001  -4.617409e+001 
3609375000  -4.213126e+001  -4.733494e+001 
3612500000  -4.258390e+001  -5.306997e+001 
3615625000  -4.276162e+001  -5.537856e+001 
3618750000  -4.366564e+001  -5.549429e+001 
3621875000  -4.393459e+001  -5.960442e+001 
3625000000  -4.387358e+001  -5.899685e+001 
3628125000  -4.404343e+001  -6.086795e+001 
3631250000  -4.401725e+001  -6.575999e+001 
3634375000  -4.541598e+001  -6.587726e+001 
3637500000  -4.527737e+001  -6.150698e+001 
3640625000  -4.496733e+001  -6.068875e+001 
3643750000  -4.441030e+001  -6.524921e+001 
3646875000  -4.507736e+001  -7.300600e+001 
3650000000  -4.571267e+001  -7.299491e+001 
3653125000  -4.578687e+001  -7.252568e+001 
3656250000  -4.598837e+001  -7.512334e+001 
3659375000  -4.673155e+001  -6.902488e+001 
3662500000  -4.543357e+001  -7.202128e+001 
3665625000  -4.523892e+001  -7.178249e+001 
3668750000  -4.415534e+001  -7.130188e+001 
3671875000  -4.319134e+001  -7.740172e+001 
3675000000  -4.364978e+001  -8.542908e+001 
3678125000  -4.347128e+001  -8.368460e+001 
3681250000  -4.344067e+001  -8.726257e+001 
3684375000  -4.319395e+001  -9.181945e+001 
3687500000  -4.362582e+001  -9.485478e+001 
3690625000  -4.354449e+001  -1.012185e+002 
3693750000  -4.421936e+001  -9.946626e+001 
3696875000  -4.406025e+001  -9.974432e+001 
3700000000  -4.321024e+001  -1.027185e+002 
3703125000  -4.290689e+001  -1.093316e+002 
3706250000  -4.415286e+001  -1.094951e+002 
3709375000  -4.336052e+001  -1.086663e+002 
3712500000  -4.216654e+001  -1.115279e+002 
3715625000  -4.194584e+001  -1.179212e+002 
3718750000  -4.125114e+001  -1.234092e+002 
3721875000  -4.110875e+001  -1.297617e+002 
3725000000  -4.180993e+001  -1.361002e+002 
3728125000  -4.200929e+001  -1.395191e+002 
3731250000  -4.175834e+001  -1.409422e+002 
3734375000  -4.122071e+001  -1.452173e+002 
3737500000  -4.178591e+001  -1.558673e+002 
3740625000  -4.280664e+001  -1.584982e+002 
3743750000  -4.298537e+001  -1.596105e+002 
3746875000  -4.340121e+001  -1.648376e+002 
3750000000  -4.414721e+001  -1.618883e+002 
3753125000  -4.398754e+001  -1.639171e+002 
3756250000  -4.430579e+001  -1.656553e+002 
3759375000  -4.461112e+001  -1.638037e+002 
3762500000  -4.429188e+001  -1.653807e+002 
3765625000  -4.449866e+001  -1.664255e+002 
3768750000  -4.465707e+001  -1.613006e+002 
3771875000  -4.300537e+001  -1.651055e+002 
3775000000  -4.270954e+001  -1.701645e+002 
3778125000  -4.346939e+001  -1.744074e+002 
3781250000  -4.304221e+001  -1.733345e+002 
3784375000  -4.300578e+001  -1.761673e+002 
3787500000  -4.171251e+001  -1.772706e+002 
3790625000  -4.239433e+001  1.753107e+002 
3793750000  -4.250473e+001  1.742467e+002 
3796875000  -4.135705e+001  1.737407e+002 
3800000000  -3.961748e+001  1.710646e+002 
3803125000  -4.034570e+001  1.620127e+002 
3806250000  -4.070396e+001  1.584568e+002 
3809375000  -4.037840e+001  1.567221e+002 
3812500000  -3.970421e+001  1.511252e+002 
3815625000  -4.026297e+001  1.397756e+002 
3818750000  -4.116686e+001  1.376224e+002 
3821875000  -4.146646e+001  1.459272e+002 
3825000000  -3.920030e+001  1.496993e+002 
3828125000  -3.805524e+001  1.331735e+002 
3831250000  -3.842434e+001  1.193297e+002 
3834375000  -4.021764e+001  1.177842e+002 
3837500000  -4.081018e+001  1.198394e+002 
3840625000  -3.992067e+001  1.180069e+002 
3843750000  -3.875220e+001  1.070639e+002 
3846875000  -3.988365e+001  1.002393e+002 
3850000000  -4.098720e+001  1.047108e+002 
3853125000  -4.031696e+001  1.091720e+002 
3856250000  -4.009921e+001  1.013226e+002 
3859375000  -3.965585e+001  9.599449e+001 
3862500000  -3.939424e+001  8.659306e+001 
3865625000  -3.992252e+001  8.403886e+001 
3868750000  -3.986508e+001  8.059338e+001 
3871875000  -3.926148e+001  7.810794e+001 
3875000000  -3.945595e+001  6.958437e+001 
3878125000  -4.079376e+001  6.628754e+001 
3881250000  -4.042303e+001  6.853508e+001 
3884375000  -4.026007e+001  6.529884e+001 
3887500000  -4.053696e+001  5.949876e+001 
3890625000  -4.095500e+001  5.626049e+001 
3893750000  -4.117981e+001  5.541538e+001 
3896875000  -4.166963e+001  5.664357e+001 
3900000000  -4.191816e+001  5.568666e+001 
3903125000  -4.153571e+001  5.321182e+001 
3906250000  -4.083410e+001  5.169590e+001 
3909375000  -3.994582e+001  4.766439e+001 
3912500000  -4.017361e+001  4.135003e+001 
3915625000  -4.126886e+001  4.082743e+001 
3918750000  -4.116916e+001  4.240195e+001 
3921875000  -4.068535e+001  3.875925e+001 
3925000000  -4.002815e+001  3.590452e+001 
3928125000  -3.931639e+001  2.865387e+001 
3931250000  -3.967078e+001  2.356173e+001 
3934375000  -3.988213e+001  2.309495e+001 
3937500000  -3.999904e+001  2.113407e+001 
3940625000  -4.036612e+001  1.988273e+001 
3943750000  -3.921141e+001  2.128179e+001 
3946875000  -3.799096e+001  1.327124e+001 
3950000000  -3.869236e+001  5.090557e+000 
3953125000  -4.011533e+001  5.489595e+000 
3956250000  -3.887915e+001  5.846923e+000 
3959375000  -3.775470e+001  1.761085e+000 
3962500000  -3.720570e+001  -4.593635e+000 
3965625000  -3.708221e+001  -1.294204e+001 
3968750000  -3.813476e+001  -1.999230e+001 
3971875000  -3.830774e+001  -2.423680e+001 
3975000000  -3.778010e+001  -2.661063e+001 
3978125000  -3.774960e+001  -2.908121e+001 
3981250000  -3.776241e+001  -3.472599e+001 
3984375000  -3.800474e+001  -4.122596e+001 
3987500000  -3.848217e+001  -4.250634e+001 
3990625000  -3.856157e+001  -4.513327e+001 
3993750000  -3.903802e+001  -4.889976e+001 
3996875000  -3.890275e+001  -5.468029e+001 
4000000000  -3.923116e+001  -5.627547e+001 
4003125000  -3.993040e+001  -5.286659e+001 
4006250000  -3.857384e+001  -5.291618e+001 
4009375000  -3.749648e+001  -6.819962e+001 
4012500000  -3.876892e+001  -7.364845e+001 
4015625000  -3.982196e+001  -7.329130e+001 
4018750000  -4.021212e+001  -7.194816e+001 
4021875000  -3.937531e+001  -7.422855e+001 
4025000000  -3.917141e+001  -7.794788e+001 
4028125000  -3.927166e+001  -8.296908e+001 
4031250000  -3.942041e+001  -8.709667e+001 
4034375000  -3.965556e+001  -8.818263e+001 
4037500000  -3.938585e+001  -8.501968e+001 
4040625000  -3.926738e+001  -8.959632e+001 
4043750000  -3.964389e+001  -9.064639e+001 
4046875000  -3.885845e+001  -9.122466e+001 
4050000000  -3.856980e+001  -9.727500e+001 
4053125000  -3.874725e+001  -1.008363e+002 
4056250000  -3.965590e+001  -9.729922e+001 
4059375000  -3.813777e+001  -9.548267e+001 
4062500000  -3.677785e+001  -1.007944e+002 
4065625000  -3.672419e+001  -1.064441e+002 
4068750000  -3.627971e+001  -1.139268e+002 
4071875000  -3.567088e+001  -1.209049e+002 
4075000000  -3.605147e+001  -1.273411e+002 
4078125000  -3.650760e+001  -1.307994e+002 
4081250000  -3.600655e+001  -1.331252e+002 
4084375000  -3.557111e+001  -1.409632e+002 
4087500000  -3.623322e+001  -1.488254e+002 
4090625000  -3.674530e+001  -1.504339e+002 
4093750000  -3.649513e+001  -1.517979e+002 
4096875000  -3.605357e+001  -1.574572e+002 
4100000000  -3.695409e+001  -1.660698e+002 
4103125000  -3.775960e+001  -1.651960e+002 
4106250000  -3.743604e+001  -1.610093e+002 
4109375000  -3.658953e+001  -1.637648e+002 
4112500000  -3.613985e+001  -1.718160e+002 
4115625000  -3.645728e+001  -1.767960e+002 
4118750000  -3.666119e+001  1.799911e+002 
4121875000  -3.611935e+001  1.744647e+002 
4125000000  -3.693537e+001  1.683951e+002 
4128125000  -3.781648e+001  1.687260e+002 
4131250000  -3.739447e+001  1.739972e+002 
4134375000  -3.530928e+001  1.692437e+002 
4137500000  -3.511773e+001  1.490441e+002 
4140625000  -3.766468e+001  1.415231e+002 
4143750000  -3.895404e+001  1.451124e+002 
4146875000  -3.846854e+001  1.521233e+002 
4150000000  -3.755835e+001  1.487143e+002 
4153125000  -3.746238e+001  1.417927e+002 
4156250000  -3.845797e+001  1.388746e+002 
4159375000  -3.892112e+001  1.436959e+002 
4162500000  -3.786694e+001  1.480772e+002 
4165625000  -3.646333e+001  1.429901e+002 
4168750000  -3.601025e+001  1.350412e+002 
4171875000  -3.623060e+001  1.244626e+002 
4175000000  -3.676694e+001  1.204679e+002 
4178125000  -3.715331e+001  1.202243e+002 
4181250000  -3.689353e+001  1.196031e+002 
4184375000  -3.679035e+001  1.150368e+002 
4187500000  -3.685344e+001  1.119594e+002 
4190625000  -3.672758e+001  1.062953e+002 
4193750000  -3.742670e+001  1.019381e+002 
4196875000  -3.811120e+001  9.998464e+001 
4200000000  -3.903431e+001  1.042711e+002 
4203125000  -3.912627e+001  1.166945e+002 
4206250000  -3.538646e+001  1.159838e+002 
4209375000  -3.401176e+001  9.365161e+001 
4212500000  -3.609934e+001  8.578577e+001 
4215625000  -3.693691e+001  9.073217e+001 
4218750000  -3.557251e+001  9.602113e+001 
4221875000  -3.325723e+001  8.595197e+001 
4225000000  -3.429762e+001  7.323457e+001 
4228125000  -3.494902e+001  7.682330e+001 
4231250000  -3.337702e+001  7.248541e+001 
4234375000  -3.323910e+001  6.176984e+001 
4237500000  -3.299371e+001  5.723565e+001 
4240625000  -3.294861e+001  4.612748e+001 
4243750000  -3.399717e+001  3.873362e+001 
4246875000  -3.496683e+001  3.863247e+001 
4250000000  -3.492913e+001  3.960213e+001 
4253125000  -3.447742e+001  3.694899e+001 
4256250000  -3.482652e+001  3.042636e+001 
4259375000  -3.471247e+001  2.821161e+001 
4262500000  -3.465665e+001  2.330437e+001 
4265625000  -3.503119e+001  2.292501e+001 
4268750000  -3.397920e+001  1.797270e+001 
4271875000  -3.388292e+001  1.035632e+001 
4275000000  -3.355895e+001  2.551810e+000 
4278125000  -3.438911e+001  -9.040690e+000 
4281250000  -3.620706e+001  -1.153316e+001 
4284375000  -3.572731e+001  -1.107923e+001 
4287500000  -3.667985e+001  -1.549009e+001 
4290625000  -3.817204e+001  -6.601943e+000 
4293750000  -3.613564e+001  3.015356e-001 
4296875000  -3.499225e+001  -1.300844e+001 
4300000000  -3.599572e+001  -2.239862e+001 
4303125000  -3.708871e+001  -1.966030e+001 
4306250000  -3.648094e+001  -1.383970e+001 
4309375000  -3.531019e+001  -1.589915e+001 
4312500000  -3.497399e+001  -2.449428e+001 
4315625000  -3.522550e+001  -2.949654e+001 
4318750000  -3.563927e+001  -3.431852e+001 
4321875000  -3.557154e+001  -3.239549e+001 
4325000000  -3.501019e+001  -3.292822e+001 
4328125000  -3.435922e+001  -3.914848e+001 
4331250000  -3.403452e+001  -4.753453e+001 
4334375000  -3.449392e+001  -5.356680e+001 
4337500000  -3.536768e+001  -5.572097e+001 
4340625000  -3.585186e+001  -5.350859e+001 
4343750000  -3.487617e+001  -5.364534e+001 
4346875000  -3.446385e+001  -5.922820e+001 
4350000000  -3.442339e+001  -6.573215e+001 
4353125000  -3.447363e+001  -7.397092e+001 
4356250000  -3.609932e+001  -7.566889e+001 
4359375000  -3.629159e+001  -6.227399e+001 
4362500000  -3.350258e+001  -6.184348e+001 
4365625000  -3.204007e+001  -7.706969e+001 
4368750000  -3.279785e+001  -8.911187e+001 
4371875000  -3.374552e+001  -8.879155e+001 
4375000000  -3.343217e+001  -9.078741e+001 
4378125000  -3.269033e+001  -9.754454e+001 
4381250000  -3.285442e+001  -1.043392e+002 
4384375000  -3.276800e+001  -1.103753e+002 
4387500000  -3.364141e+001  -1.179352e+002 
4390625000  -3.438358e+001  -1.180594e+002 
4393750000  -3.389546e+001  -1.169454e+002 
4396875000  -3.315465e+001  -1.202751e+002 
4400000000  -3.276038e+001  -1.300480e+002 
4403125000  -3.347382e+001  -1.381923e+002 
4406250000  -3.444847e+001  -1.411534e+002 
4409375000  -3.448916e+001  -1.444339e+002 
4412500000  -3.563333e+001  -1.462517e+002 
4415625000  -3.598099e+001  -1.437931e+002 
