!Agilent Technologies,E8363B,MY43030201,A.06.04.32
!Agilent E8363B: A.06.04.32
!Date: Tuesday, November 11, 2014 21:07:17
!Correction: S21(Response(S21)) 
!S1P File: Measurement: S21:
# Hz S  dB   R 50
3000000000  -3.647085e+001  -5.095248e+001 
3003125000  -3.762508e+001  -5.722414e+001 
3006250000  -3.736980e+001  -5.887743e+001 
3009375000  -3.770009e+001  -5.503232e+001 
3012500000  -3.695803e+001  -5.688195e+001 
3015625000  -3.609206e+001  -6.442435e+001 
3018750000  -3.682478e+001  -6.563287e+001 
3021875000  -3.542973e+001  -6.421220e+001 
3025000000  -3.418943e+001  -6.813145e+001 
3028125000  -3.322250e+001  -7.499099e+001 
3031250000  -3.214179e+001  -8.623807e+001 
3034375000  -3.177870e+001  -9.972878e+001 
3037500000  -3.231023e+001  -1.118486e+002 
3040625000  -3.361261e+001  -1.166975e+002 
3043750000  -3.420902e+001  -1.214915e+002 
3046875000  -3.451174e+001  -1.278692e+002 
3050000000  -3.614791e+001  -1.337394e+002 
3053125000  -3.606890e+001  -1.278373e+002 
3056250000  -3.567904e+001  -1.248576e+002 
3059375000  -3.556090e+001  -1.249288e+002 
3062500000  -3.410786e+001  -1.286407e+002 
3065625000  -3.377938e+001  -1.342967e+002 
3068750000  -3.355106e+001  -1.417245e+002 
3071875000  -3.346590e+001  -1.439138e+002 
3075000000  -3.333313e+001  -1.485845e+002 
3078125000  -3.306265e+001  -1.525553e+002 
3081250000  -3.353622e+001  -1.569063e+002 
3084375000  -3.268592e+001  -1.602195e+002 
3087500000  -3.239529e+001  -1.642429e+002 
3090625000  -3.194935e+001  -1.743471e+002 
3093750000  -3.247860e+001  1.787027e+002 
3096875000  -3.345893e+001  1.728248e+002 
3100000000  -3.336403e+001  1.706638e+002 
3103125000  -3.365382e+001  1.713263e+002 
3106250000  -3.314832e+001  1.667330e+002 
3109375000  -3.323374e+001  1.625493e+002 
3112500000  -3.322781e+001  1.611600e+002 
3115625000  -3.289519e+001  1.557896e+002 
3118750000  -3.315064e+001  1.560734e+002 
3121875000  -3.235412e+001  1.467058e+002 
3125000000  -3.361917e+001  1.422621e+002 
3128125000  -3.454364e+001  1.498751e+002 
3131250000  -3.206699e+001  1.476593e+002 
3134375000  -3.074646e+001  1.319088e+002 
3137500000  -3.134545e+001  1.182367e+002 
3140625000  -3.275592e+001  1.153223e+002 
3143750000  -3.387159e+001  1.175218e+002 
3146875000  -3.323399e+001  1.183098e+002 
3150000000  -3.229015e+001  1.179279e+002 
3153125000  -3.229615e+001  1.088879e+002 
3156250000  -3.328792e+001  1.137616e+002 
3159375000  -3.156283e+001  1.152005e+002 
3162500000  -2.969086e+001  9.995809e+001 
3165625000  -3.074899e+001  8.856385e+001 
3168750000  -3.098587e+001  8.843030e+001 
3171875000  -3.012188e+001  8.314630e+001 
3175000000  -3.089648e+001  7.411739e+001 
3178125000  -3.068315e+001  7.513998e+001 
3181250000  -2.957757e+001  6.907763e+001 
3184375000  -2.885922e+001  5.673209e+001 
3187500000  -3.008108e+001  4.110849e+001 
3190625000  -3.287777e+001  3.334602e+001 
3193750000  -3.329195e+001  4.219243e+001 
3196875000  -3.301356e+001  4.620213e+001 
3200000000  -3.202677e+001  4.344587e+001 
3203125000  -3.127485e+001  3.711703e+001 
3206250000  -3.154740e+001  3.087822e+001 
3209375000  -3.114755e+001  2.484303e+001 
3212500000  -3.125924e+001  1.759799e+001 
3215625000  -3.137226e+001  1.467102e+001 
3218750000  -3.215666e+001  6.291624e+000 
3221875000  -3.296568e+001  1.481724e+000 
3225000000  -3.262651e+001  8.411101e-002 
3228125000  -3.304314e+001  -5.330060e+000 
3231250000  -3.374984e+001  -7.521544e+000 
3234375000  -3.339536e+001  -8.165376e+000 
3237500000  -3.339025e+001  -9.481712e+000 
3240625000  -3.293478e+001  -1.213239e+001 
3243750000  -3.259455e+001  -1.999165e+001 
3246875000  -3.304270e+001  -2.672386e+001 
3250000000  -3.343674e+001  -2.935920e+001 
3253125000  -3.349324e+001  -3.135719e+001 
3256250000  -3.314734e+001  -3.784534e+001 
3259375000  -3.339983e+001  -4.674533e+001 
3262500000  -3.461753e+001  -5.076744e+001 
3265625000  -3.522668e+001  -4.720927e+001 
3268750000  -3.508297e+001  -4.581475e+001 
3271875000  -3.473233e+001  -4.583699e+001 
3275000000  -3.374030e+001  -5.229195e+001 
3278125000  -3.415390e+001  -5.905145e+001 
3281250000  -3.431023e+001  -5.798393e+001 
3284375000  -3.384851e+001  -6.585560e+001 
3287500000  -3.407534e+001  -6.893463e+001 
3290625000  -3.423186e+001  -7.436086e+001 
3293750000  -3.405788e+001  -8.069178e+001 
3296875000  -3.511743e+001  -8.136436e+001 
3300000000  -3.482317e+001  -7.980200e+001 
3303125000  -3.366415e+001  -8.535081e+001 
3306250000  -3.351862e+001  -9.313967e+001 
3309375000  -3.322943e+001  -9.955151e+001 
3312500000  -3.331094e+001  -1.102752e+002 
3315625000  -3.432232e+001  -1.181802e+002 
3318750000  -3.577769e+001  -1.216221e+002 
3321875000  -3.702374e+001  -1.212473e+002 
3325000000  -3.732478e+001  -1.148736e+002 
3328125000  -3.685681e+001  -1.156331e+002 
3331250000  -3.583733e+001  -1.088530e+002 
3334375000  -3.290621e+001  -1.190238e+002 
3337500000  -3.312379e+001  -1.385366e+002 
3340625000  -3.441988e+001  -1.497977e+002 
3343750000  -3.642429e+001  -1.513322e+002 
3346875000  -3.664657e+001  -1.496442e+002 
3350000000  -3.593061e+001  -1.514861e+002 
3353125000  -3.595483e+001  -1.550179e+002 
3356250000  -3.545667e+001  -1.640022e+002 
3359375000  -3.634315e+001  -1.727224e+002 
3362500000  -3.742910e+001  -1.772509e+002 
3365625000  -3.783282e+001  -1.784534e+002 
3368750000  -3.863778e+001  1.771087e+002 
3371875000  -3.891793e+001  1.754739e+002 
3375000000  -4.027006e+001  1.733257e+002 
3378125000  -4.115048e+001  1.737031e+002 
3381250000  -4.253175e+001  -1.795069e+002 
3384375000  -4.084269e+001  -1.573805e+002 
3387500000  -3.743918e+001  -1.730051e+002 
3390625000  -3.918338e+001  1.677271e+002 
3393750000  -4.018243e+001  1.706761e+002 
3396875000  -3.904385e+001  1.715546e+002 
3400000000  -3.861889e+001  1.638600e+002 
3403125000  -3.932040e+001  1.577836e+002 
3406250000  -3.958030e+001  1.582401e+002 
3409375000  -3.974834e+001  1.493021e+002 
3412500000  -4.017405e+001  1.488785e+002 
3415625000  -4.096027e+001  1.489500e+002 
3418750000  -4.109835e+001  1.490240e+002 
3421875000  -4.103423e+001  1.511910e+002 
3425000000  -4.027436e+001  1.525775e+002 
3428125000  -3.931625e+001  1.489358e+002 
3431250000  -3.928190e+001  1.416694e+002 
3434375000  -3.893935e+001  1.355307e+002 
3437500000  -3.958235e+001  1.321012e+002 
3440625000  -3.994557e+001  1.330206e+002 
3443750000  -3.857217e+001  1.343968e+002 
3446875000  -3.789033e+001  1.268509e+002 
3450000000  -3.735831e+001  1.166889e+002 
3453125000  -3.796484e+001  1.064435e+002 
3456250000  -3.910876e+001  1.004502e+002 
3459375000  -3.990213e+001  1.014169e+002 
3462500000  -3.988826e+001  1.017105e+002 
3465625000  -3.982175e+001  9.499249e+001 
3468750000  -4.007723e+001  9.262904e+001 
3471875000  -3.997892e+001  9.009944e+001 
3475000000  -3.964968e+001  8.491021e+001 
3478125000  -4.037166e+001  7.769170e+001 
3481250000  -4.109009e+001  7.614281e+001 
3484375000  -4.222514e+001  7.851109e+001 
3487500000  -4.117023e+001  7.662506e+001 
3490625000  -4.063834e+001  7.378865e+001 
3493750000  -4.134570e+001  6.625360e+001 
3496875000  -4.185530e+001  6.524744e+001 
3500000000  -4.225013e+001  6.760596e+001 
3503125000  -4.204937e+001  7.190070e+001 
3506250000  -4.049168e+001  6.623761e+001 
3509375000  -4.070720e+001  5.516962e+001 
3512500000  -4.132867e+001  4.789447e+001 
3515625000  -4.200955e+001  4.374529e+001 
3518750000  -4.254385e+001  4.375901e+001 
3521875000  -4.213147e+001  4.408764e+001 
3525000000  -4.332251e+001  4.091964e+001 
3528125000  -4.338645e+001  4.758316e+001 
3531250000  -4.224373e+001  4.589436e+001 
3534375000  -4.216121e+001  3.430245e+001 
3537500000  -4.250087e+001  3.081610e+001 
3540625000  -4.357478e+001  2.816308e+001 
3543750000  -4.442899e+001  3.514885e+001 
3546875000  -4.436196e+001  4.582022e+001 
3550000000  -4.143274e+001  4.607497e+001 
3553125000  -4.019162e+001  2.757791e+001 
3556250000  -4.155748e+001  2.214760e+001 
3559375000  -4.117637e+001  2.313860e+001 
3562500000  -4.022453e+001  1.441286e+001 
3565625000  -4.129887e+001  6.897000e+000 
3568750000  -4.108528e+001  1.028624e+001 
3571875000  -4.103423e+001  6.872569e+000 
3575000000  -4.080737e+001  -6.236975e-001 
3578125000  -4.130352e+001  -6.246348e+000 
3581250000  -4.125042e+001  -5.230641e+000 
3584375000  -4.048149e+001  -8.503686e+000 
3587500000  -3.973236e+001  -1.777211e+001 
3590625000  -4.046553e+001  -2.886296e+001 
3593750000  -4.160408e+001  -3.074902e+001 
3596875000  -4.153102e+001  -2.318717e+001 
3600000000  -4.041024e+001  -3.007389e+001 
3603125000  -4.060548e+001  -4.393670e+001 
3606250000  -4.130901e+001  -4.840335e+001 
3609375000  -4.214122e+001  -5.055387e+001 
3612500000  -4.289726e+001  -5.640018e+001 
3615625000  -4.299180e+001  -5.811826e+001 
3618750000  -4.366703e+001  -5.683230e+001 
3621875000  -4.360569e+001  -5.999690e+001 
3625000000  -4.418338e+001  -6.004494e+001 
3628125000  -4.436477e+001  -6.198220e+001 
3631250000  -4.425996e+001  -6.792461e+001 
3634375000  -4.571871e+001  -6.919146e+001 
3637500000  -4.568862e+001  -6.307583e+001 
3640625000  -4.496259e+001  -6.071186e+001 
3643750000  -4.455712e+001  -6.451935e+001 
3646875000  -4.506684e+001  -7.122162e+001 
3650000000  -4.553996e+001  -7.421962e+001 
3653125000  -4.557553e+001  -7.173230e+001 
3656250000  -4.608636e+001  -7.465438e+001 
3659375000  -4.576717e+001  -7.096175e+001 
3662500000  -4.497792e+001  -7.355069e+001 
3665625000  -4.516905e+001  -7.034179e+001 
3668750000  -4.388470e+001  -7.205089e+001 
3671875000  -4.309784e+001  -7.695395e+001 
3675000000  -4.312615e+001  -8.674789e+001 
3678125000  -4.348318e+001  -9.053424e+001 
3681250000  -4.293288e+001  -8.730820e+001 
3684375000  -4.291842e+001  -9.317719e+001 
3687500000  -4.300904e+001  -9.730637e+001 
3690625000  -4.289768e+001  -1.025243e+002 
3693750000  -4.426596e+001  -1.029316e+002 
3696875000  -4.393626e+001  -1.040724e+002 
3700000000  -4.287955e+001  -1.069774e+002 
3703125000  -4.259884e+001  -1.125038e+002 
3706250000  -4.417101e+001  -1.111041e+002 
3709375000  -4.355647e+001  -1.117877e+002 
3712500000  -4.250891e+001  -1.132164e+002 
3715625000  -4.145792e+001  -1.217953e+002 
3718750000  -4.127843e+001  -1.278050e+002 
3721875000  -4.123659e+001  -1.332182e+002 
3725000000  -4.135581e+001  -1.403056e+002 
3728125000  -4.192014e+001  -1.386685e+002 
3731250000  -4.174462e+001  -1.433164e+002 
3734375000  -4.143853e+001  -1.498602e+002 
3737500000  -4.233276e+001  -1.579415e+002 
3740625000  -4.285241e+001  -1.595596e+002 
3743750000  -4.318127e+001  -1.651236e+002 
3746875000  -4.338698e+001  -1.646109e+002 
3750000000  -4.439764e+001  -1.667613e+002 
3753125000  -4.439559e+001  -1.652611e+002 
3756250000  -4.454389e+001  -1.664324e+002 
3759375000  -4.451114e+001  -1.640761e+002 
3762500000  -4.427758e+001  -1.702420e+002 
3765625000  -4.501025e+001  -1.686222e+002 
3768750000  -4.460704e+001  -1.668880e+002 
3771875000  -4.306228e+001  -1.667712e+002 
3775000000  -4.305235e+001  -1.728924e+002 
3778125000  -4.331412e+001  -1.743204e+002 
3781250000  -4.298495e+001  -1.757576e+002 
3784375000  -4.273196e+001  -1.768840e+002 
3787500000  -4.203548e+001  -1.791954e+002 
3790625000  -4.249807e+001  1.729196e+002 
3793750000  -4.244627e+001  1.729861e+002 
3796875000  -4.104779e+001  1.728851e+002 
3800000000  -3.974493e+001  1.702655e+002 
3803125000  -4.037458e+001  1.609108e+002 
3806250000  -4.093483e+001  1.561009e+002 
3809375000  -4.052159e+001  1.553688e+002 
3812500000  -3.989614e+001  1.486256e+002 
3815625000  -4.042012e+001  1.389477e+002 
3818750000  -4.140887e+001  1.372652e+002 
3821875000  -4.112143e+001  1.448357e+002 
3825000000  -3.931343e+001  1.497328e+002 
3828125000  -3.809270e+001  1.318721e+002 
3831250000  -3.875174e+001  1.187447e+002 
3834375000  -4.033041e+001  1.165101e+002 
3837500000  -4.119490e+001  1.204961e+002 
3840625000  -3.995039e+001  1.172818e+002 
3843750000  -3.922288e+001  1.066209e+002 
3846875000  -3.961542e+001  9.902832e+001 
3850000000  -4.106462e+001  1.044968e+002 
3853125000  -4.027809e+001  1.039788e+002 
3856250000  -4.051647e+001  9.939401e+001 
3859375000  -3.934397e+001  9.398039e+001 
3862500000  -3.933415e+001  8.662505e+001 
3865625000  -3.961649e+001  8.220439e+001 
3868750000  -3.984246e+001  8.103296e+001 
3871875000  -3.921730e+001  7.647544e+001 
3875000000  -3.954239e+001  6.570632e+001 
3878125000  -4.062064e+001  6.462976e+001 
3881250000  -4.050390e+001  6.641058e+001 
3884375000  -4.033462e+001  6.259801e+001 
3887500000  -4.054567e+001  5.709068e+001 
3890625000  -4.077331e+001  5.540045e+001 
3893750000  -4.108777e+001  5.258509e+001 
3896875000  -4.121582e+001  5.476473e+001 
3900000000  -4.167810e+001  5.290591e+001 
3903125000  -4.083684e+001  4.887812e+001 
3906250000  -4.086579e+001  4.992610e+001 
3909375000  -4.018615e+001  4.646189e+001 
3912500000  -4.025444e+001  3.928120e+001 
3915625000  -4.155812e+001  3.907302e+001 
3918750000  -4.092430e+001  3.855856e+001 
3921875000  -4.045862e+001  3.428928e+001 
3925000000  -3.976066e+001  3.339137e+001 
3928125000  -3.905570e+001  2.708863e+001 
3931250000  -3.940696e+001  2.315321e+001 
3934375000  -3.971564e+001  2.075748e+001 
3937500000  -4.008824e+001  1.906017e+001 
3940625000  -4.051833e+001  1.894273e+001 
3943750000  -3.938101e+001  1.720636e+001 
3946875000  -3.822676e+001  1.273281e+001 
3950000000  -3.895652e+001  3.631792e+000 
3953125000  -3.982304e+001  1.602055e+000 
3956250000  -3.878903e+001  5.883129e+000 
3959375000  -3.761580e+001  1.108133e+000 
3962500000  -3.727674e+001  -5.005159e+000 
3965625000  -3.716466e+001  -1.551622e+001 
3968750000  -3.808124e+001  -2.440756e+001 
3971875000  -3.836104e+001  -2.640861e+001 
3975000000  -3.799774e+001  -2.814589e+001 
3978125000  -3.762756e+001  -3.073490e+001 
3981250000  -3.761819e+001  -3.649521e+001 
3984375000  -3.808302e+001  -4.239940e+001 
3987500000  -3.853202e+001  -4.372164e+001 
3990625000  -3.856919e+001  -4.682708e+001 
3993750000  -3.887460e+001  -5.060144e+001 
3996875000  -3.894766e+001  -5.564183e+001 
4000000000  -3.925911e+001  -5.680322e+001 
4003125000  -3.957241e+001  -5.421548e+001 
4006250000  -3.830580e+001  -5.750631e+001 
4009375000  -3.744204e+001  -6.874708e+001 
4012500000  -3.911237e+001  -7.555679e+001 
4015625000  -3.992552e+001  -7.476601e+001 
4018750000  -3.997741e+001  -7.294754e+001 
4021875000  -3.928680e+001  -7.633456e+001 
4025000000  -3.888497e+001  -8.112154e+001 
4028125000  -3.917790e+001  -8.436256e+001 
4031250000  -3.942686e+001  -8.854532e+001 
4034375000  -3.976336e+001  -8.912928e+001 
4037500000  -3.936510e+001  -8.754410e+001 
4040625000  -3.922789e+001  -9.096343e+001 
4043750000  -3.936374e+001  -9.284501e+001 
4046875000  -3.887117e+001  -9.449206e+001 
4050000000  -3.833472e+001  -1.012938e+002 
4053125000  -3.896260e+001  -1.030914e+002 
4056250000  -3.958178e+001  -9.686573e+001 
4059375000  -3.807012e+001  -9.907559e+001 
4062500000  -3.665253e+001  -1.044450e+002 
4065625000  -3.668832e+001  -1.075132e+002 
4068750000  -3.646923e+001  -1.144220e+002 
4071875000  -3.561458e+001  -1.229786e+002 
4075000000  -3.597808e+001  -1.304187e+002 
4078125000  -3.670170e+001  -1.322415e+002 
4081250000  -3.614040e+001  -1.355718e+002 
4084375000  -3.573967e+001  -1.436428e+002 
4087500000  -3.605075e+001  -1.518564e+002 
4090625000  -3.677860e+001  -1.520420e+002 
4093750000  -3.641795e+001  -1.530653e+002 
4096875000  -3.610158e+001  -1.605086e+002 
4100000000  -3.696923e+001  -1.675058e+002 
4103125000  -3.773666e+001  -1.685459e+002 
4106250000  -3.741733e+001  -1.625578e+002 
4109375000  -3.661549e+001  -1.655839e+002 
4112500000  -3.608475e+001  -1.725149e+002 
4115625000  -3.639117e+001  -1.778312e+002 
4118750000  -3.663878e+001  1.787105e+002 
4121875000  -3.630953e+001  1.725565e+002 
4125000000  -3.684547e+001  1.660887e+002 
4128125000  -3.795621e+001  1.651251e+002 
4131250000  -3.751353e+001  1.723367e+002 
4134375000  -3.515390e+001  1.676930e+002 
4137500000  -3.504287e+001  1.463134e+002 
4140625000  -3.738058e+001  1.398835e+002 
4143750000  -3.876837e+001  1.448452e+002 
4146875000  -3.825917e+001  1.521830e+002 
4150000000  -3.754151e+001  1.464717e+002 
4153125000  -3.752794e+001  1.391547e+002 
4156250000  -3.833501e+001  1.376001e+002 
4159375000  -3.875807e+001  1.421642e+002 
4162500000  -3.775168e+001  1.454520e+002 
4165625000  -3.654225e+001  1.408270e+002 
4168750000  -3.584150e+001  1.329706e+002 
4171875000  -3.611190e+001  1.226781e+002 
4175000000  -3.667513e+001  1.174120e+002 
4178125000  -3.741032e+001  1.169315e+002 
4181250000  -3.705619e+001  1.164826e+002 
4184375000  -3.696382e+001  1.126474e+002 
4187500000  -3.706124e+001  1.089563e+002 
4190625000  -3.656556e+001  1.030527e+002 
4193750000  -3.756533e+001  9.939896e+001 
4196875000  -3.817422e+001  9.816093e+001 
4200000000  -3.914838e+001  1.001301e+002 
4203125000  -3.880250e+001  1.150889e+002 
4206250000  -3.528025e+001  1.135248e+002 
4209375000  -3.417826e+001  9.148027e+001 
4212500000  -3.619854e+001  8.293829e+001 
4215625000  -3.699659e+001  8.827212e+001 
4218750000  -3.546482e+001  9.138616e+001 
4221875000  -3.358910e+001  8.313750e+001 
4225000000  -3.457801e+001  7.109798e+001 
4228125000  -3.511719e+001  7.392760e+001 
4231250000  -3.355798e+001  6.967339e+001 
4234375000  -3.339006e+001  6.109671e+001 
4237500000  -3.306165e+001  5.555280e+001 
4240625000  -3.305358e+001  4.491719e+001 
4243750000  -3.397367e+001  3.778992e+001 
4246875000  -3.494283e+001  3.644555e+001 
4250000000  -3.499774e+001  3.809776e+001 
4253125000  -3.440420e+001  3.415863e+001 
4256250000  -3.480429e+001  2.975694e+001 
4259375000  -3.442246e+001  2.590313e+001 
4262500000  -3.471489e+001  2.154134e+001 
4265625000  -3.484071e+001  2.183797e+001 
4268750000  -3.393106e+001  1.548393e+001 
4271875000  -3.369168e+001  8.919598e+000 
4275000000  -3.331413e+001  -5.579594e-001 
4278125000  -3.420416e+001  -1.082158e+001 
4281250000  -3.612911e+001  -1.311175e+001 
4284375000  -3.584607e+001  -1.283477e+001 
4287500000  -3.675694e+001  -1.779096e+001 
4290625000  -3.805357e+001  -7.857336e+000 
4293750000  -3.602366e+001  -3.287512e+000 
4296875000  -3.507722e+001  -1.457488e+001 
4300000000  -3.611830e+001  -2.347949e+001 
4303125000  -3.722475e+001  -2.289775e+001 
4306250000  -3.638004e+001  -1.640206e+001 
4309375000  -3.512279e+001  -1.849163e+001 
4312500000  -3.512042e+001  -2.658894e+001 
4315625000  -3.526970e+001  -3.325106e+001 
4318750000  -3.541648e+001  -3.460464e+001 
4321875000  -3.563760e+001  -3.540545e+001 
4325000000  -3.502132e+001  -3.598635e+001 
4328125000  -3.452391e+001  -4.170457e+001 
4331250000  -3.428675e+001  -5.084404e+001 
4334375000  -3.453672e+001  -5.556606e+001 
4337500000  -3.546842e+001  -5.758076e+001 
4340625000  -3.581555e+001  -5.545861e+001 
4343750000  -3.503105e+001  -5.522831e+001 
4346875000  -3.468347e+001  -6.209487e+001 
4350000000  -3.426900e+001  -6.907897e+001 
4353125000  -3.451472e+001  -7.600489e+001 
4356250000  -3.621498e+001  -7.901941e+001 
4359375000  -3.663592e+001  -6.317266e+001 
4362500000  -3.363335e+001  -6.407906e+001 
4365625000  -3.184652e+001  -7.734087e+001 
4368750000  -3.278272e+001  -9.185925e+001 
4371875000  -3.394354e+001  -9.152707e+001 
4375000000  -3.333925e+001  -9.251804e+001 
4378125000  -3.268618e+001  -9.981128e+001 
4381250000  -3.294022e+001  -1.064205e+002 
4384375000  -3.268793e+001  -1.130366e+002 
4387500000  -3.347818e+001  -1.199691e+002 
4390625000  -3.442288e+001  -1.200790e+002 
4393750000  -3.383720e+001  -1.190373e+002 
4396875000  -3.326237e+001  -1.226181e+002 
4400000000  -3.282388e+001  -1.314124e+002 
4403125000  -3.347190e+001  -1.396391e+002 
4406250000  -3.418169e+001  -1.427850e+002 
4409375000  -3.446886e+001  -1.464349e+002 
4412500000  -3.574038e+001  -1.498434e+002 
4415625000  -3.609731e+001  -1.453702e+002 
