!Agilent Technologies,E8363B,MY43030201,A.06.04.32
!Agilent E8363B: A.06.04.32
!Date: Tuesday, November 11, 2014 21:07:59
!Correction: S21(Response(S21)) 
!S1P File: Measurement: S21:
# Hz S  dB   R 50
3000000000  -3.653333e+001  -5.309766e+001 
3003125000  -3.760518e+001  -5.842999e+001 
3006250000  -3.752362e+001  -6.198578e+001 
3009375000  -3.783136e+001  -5.626464e+001 
3012500000  -3.712781e+001  -5.842656e+001 
3015625000  -3.610859e+001  -6.546628e+001 
3018750000  -3.693320e+001  -6.639928e+001 
3021875000  -3.542545e+001  -6.579974e+001 
3025000000  -3.411616e+001  -6.960601e+001 
3028125000  -3.317039e+001  -7.572626e+001 
3031250000  -3.212973e+001  -8.787318e+001 
3034375000  -3.174461e+001  -1.011871e+002 
3037500000  -3.223858e+001  -1.127360e+002 
3040625000  -3.365404e+001  -1.181500e+002 
3043750000  -3.423955e+001  -1.231434e+002 
3046875000  -3.447739e+001  -1.284698e+002 
3050000000  -3.607734e+001  -1.350260e+002 
3053125000  -3.600691e+001  -1.289287e+002 
3056250000  -3.551101e+001  -1.265149e+002 
3059375000  -3.561569e+001  -1.270624e+002 
3062500000  -3.407065e+001  -1.297189e+002 
3065625000  -3.391755e+001  -1.362235e+002 
3068750000  -3.357674e+001  -1.429354e+002 
3071875000  -3.352341e+001  -1.456112e+002 
3075000000  -3.334408e+001  -1.496242e+002 
3078125000  -3.305878e+001  -1.536102e+002 
3081250000  -3.352149e+001  -1.581337e+002 
3084375000  -3.260042e+001  -1.618619e+002 
3087500000  -3.242978e+001  -1.659959e+002 
3090625000  -3.198256e+001  -1.760268e+002 
3093750000  -3.242362e+001  1.767983e+002 
3096875000  -3.348069e+001  1.709030e+002 
3100000000  -3.332581e+001  1.690911e+002 
3103125000  -3.362110e+001  1.697585e+002 
3106250000  -3.315990e+001  1.653437e+002 
3109375000  -3.329813e+001  1.616826e+002 
3112500000  -3.320267e+001  1.591907e+002 
3115625000  -3.293348e+001  1.540422e+002 
3118750000  -3.319229e+001  1.550491e+002 
3121875000  -3.228775e+001  1.448704e+002 
3125000000  -3.352021e+001  1.406569e+002 
3128125000  -3.446968e+001  1.484867e+002 
3131250000  -3.206860e+001  1.465918e+002 
3134375000  -3.074338e+001  1.311942e+002 
3137500000  -3.134763e+001  1.159438e+002 
3140625000  -3.283561e+001  1.143116e+002 
3143750000  -3.383582e+001  1.158189e+002 
3146875000  -3.331110e+001  1.166133e+002 
3150000000  -3.225431e+001  1.168064e+002 
3153125000  -3.236145e+001  1.070019e+002 
3156250000  -3.331424e+001  1.122290e+002 
3159375000  -3.163815e+001  1.135684e+002 
3162500000  -2.965215e+001  9.886543e+001 
3165625000  -3.076230e+001  8.632071e+001 
3168750000  -3.101462e+001  8.691956e+001 
3171875000  -3.017104e+001  8.133295e+001 
3175000000  -3.088508e+001  7.240751e+001 
3178125000  -3.064658e+001  7.289250e+001 
3181250000  -2.960133e+001  6.753165e+001 
3184375000  -2.885886e+001  5.455087e+001 
3187500000  -3.012064e+001  4.006028e+001 
3190625000  -3.280293e+001  3.135245e+001 
3193750000  -3.330038e+001  4.035912e+001 
3196875000  -3.301771e+001  4.472639e+001 
3200000000  -3.201991e+001  4.257189e+001 
3203125000  -3.123149e+001  3.597656e+001 
3206250000  -3.158992e+001  2.879921e+001 
3209375000  -3.113715e+001  2.325399e+001 
3212500000  -3.140353e+001  1.620391e+001 
3215625000  -3.146713e+001  1.184342e+001 
3218750000  -3.221244e+001  4.566854e+000 
3221875000  -3.291790e+001  -1.717507e-001 
3225000000  -3.257844e+001  -1.747405e+000 
3228125000  -3.302856e+001  -6.338626e+000 
3231250000  -3.366707e+001  -9.185264e+000 
3234375000  -3.347713e+001  -8.583390e+000 
3237500000  -3.344481e+001  -1.133777e+001 
3240625000  -3.292960e+001  -1.384619e+001 
3243750000  -3.256861e+001  -2.166646e+001 
3246875000  -3.292405e+001  -2.831313e+001 
3250000000  -3.339611e+001  -3.112137e+001 
3253125000  -3.353367e+001  -3.320584e+001 
3256250000  -3.313223e+001  -3.999109e+001 
3259375000  -3.344987e+001  -4.765524e+001 
3262500000  -3.454437e+001  -5.180859e+001 
3265625000  -3.523468e+001  -4.820561e+001 
3268750000  -3.506750e+001  -4.681927e+001 
3271875000  -3.474277e+001  -4.848492e+001 
3275000000  -3.374560e+001  -5.369361e+001 
3278125000  -3.416109e+001  -6.106439e+001 
3281250000  -3.430745e+001  -6.022465e+001 
3284375000  -3.378902e+001  -6.700601e+001 
3287500000  -3.394334e+001  -7.077541e+001 
3290625000  -3.430322e+001  -7.689665e+001 
3293750000  -3.403238e+001  -8.251814e+001 
3296875000  -3.508668e+001  -8.279546e+001 
3300000000  -3.483682e+001  -8.234641e+001 
3303125000  -3.370775e+001  -8.751568e+001 
3306250000  -3.348444e+001  -9.453229e+001 
3309375000  -3.319365e+001  -1.009385e+002 
3312500000  -3.335849e+001  -1.117116e+002 
3315625000  -3.438898e+001  -1.204396e+002 
3318750000  -3.561963e+001  -1.226967e+002 
3321875000  -3.705476e+001  -1.227540e+002 
3325000000  -3.733053e+001  -1.166680e+002 
3328125000  -3.678061e+001  -1.165652e+002 
3331250000  -3.575851e+001  -1.106513e+002 
3334375000  -3.295642e+001  -1.209196e+002 
3337500000  -3.303466e+001  -1.412986e+002 
3340625000  -3.441387e+001  -1.515347e+002 
3343750000  -3.647381e+001  -1.529953e+002 
3346875000  -3.647784e+001  -1.510000e+002 
3350000000  -3.602361e+001  -1.531505e+002 
3353125000  -3.603889e+001  -1.574704e+002 
3356250000  -3.560229e+001  -1.655745e+002 
3359375000  -3.635376e+001  -1.742688e+002 
3362500000  -3.740997e+001  -1.797381e+002 
3365625000  -3.785252e+001  1.791044e+002 
3368750000  -3.884330e+001  1.769972e+002 
3371875000  -3.901067e+001  1.733153e+002 
3375000000  -4.037421e+001  1.706313e+002 
3378125000  -4.113527e+001  1.710270e+002 
3381250000  -4.230219e+001  -1.782924e+002 
3384375000  -4.095992e+001  -1.599927e+002 
3387500000  -3.770151e+001  -1.745444e+002 
3390625000  -3.900299e+001  1.657131e+002 
3393750000  -4.062003e+001  1.676781e+002 
3396875000  -3.916971e+001  1.704404e+002 
3400000000  -3.858749e+001  1.614750e+002 
3403125000  -3.911877e+001  1.554166e+002 
3406250000  -3.970070e+001  1.570174e+002 
3409375000  -3.968234e+001  1.480766e+002 
3412500000  -4.033908e+001  1.467319e+002 
3415625000  -4.079526e+001  1.466600e+002 
3418750000  -4.125793e+001  1.479803e+002 
3421875000  -4.108092e+001  1.510326e+002 
3425000000  -4.021383e+001  1.513338e+002 
3428125000  -3.940416e+001  1.457278e+002 
3431250000  -3.904813e+001  1.401664e+002 
3434375000  -3.907373e+001  1.332679e+002 
3437500000  -3.970003e+001  1.294054e+002 
3440625000  -3.997603e+001  1.318645e+002 
3443750000  -3.869298e+001  1.324676e+002 
3446875000  -3.779369e+001  1.240001e+002 
3450000000  -3.768419e+001  1.146200e+002 
3453125000  -3.800636e+001  1.054813e+002 
3456250000  -3.919837e+001  9.770004e+001 
3459375000  -4.012437e+001  9.881345e+001 
3462500000  -3.975254e+001  1.000194e+002 
3465625000  -3.981102e+001  9.393182e+001 
3468750000  -3.998573e+001  8.855332e+001 
3471875000  -4.021306e+001  8.761026e+001 
3475000000  -3.952053e+001  8.289455e+001 
3478125000  -4.039769e+001  7.497131e+001 
3481250000  -4.122451e+001  7.403883e+001 
3484375000  -4.231600e+001  7.693590e+001 
3487500000  -4.147548e+001  7.522690e+001 
3490625000  -4.066026e+001  7.048144e+001 
3493750000  -4.141588e+001  6.383969e+001 
3496875000  -4.203059e+001  6.354882e+001 
3500000000  -4.234594e+001  6.607381e+001 
3503125000  -4.194794e+001  6.692709e+001 
3506250000  -4.040311e+001  6.427207e+001 
3509375000  -4.073355e+001  5.383716e+001 
3512500000  -4.099628e+001  4.511703e+001 
3515625000  -4.197866e+001  4.182571e+001 
3518750000  -4.239482e+001  4.341685e+001 
3521875000  -4.219819e+001  3.920453e+001 
3525000000  -4.356851e+001  3.492064e+001 
3528125000  -4.325500e+001  4.520575e+001 
3531250000  -4.209051e+001  4.360176e+001 
3534375000  -4.228285e+001  3.181889e+001 
3537500000  -4.218679e+001  2.702367e+001 
3540625000  -4.344522e+001  2.489360e+001 
3543750000  -4.454316e+001  3.071157e+001 
3546875000  -4.424232e+001  4.249417e+001 
3550000000  -4.125222e+001  4.261636e+001 
3553125000  -4.023777e+001  2.536830e+001 
3556250000  -4.168872e+001  1.808245e+001 
3559375000  -4.143565e+001  2.037239e+001 
3562500000  -4.023326e+001  1.099257e+001 
3565625000  -4.116975e+001  4.025493e+000 
3568750000  -4.135904e+001  5.874968e+000 
3571875000  -4.130483e+001  4.991451e+000 
3575000000  -4.087659e+001  -2.936697e+000 
3578125000  -4.123632e+001  -7.723947e+000 
3581250000  -4.130825e+001  -7.979654e+000 
3584375000  -4.053004e+001  -1.174382e+001 
3587500000  -3.977684e+001  -2.016334e+001 
3590625000  -4.060364e+001  -3.034214e+001 
3593750000  -4.168849e+001  -3.133835e+001 
3596875000  -4.167200e+001  -2.822936e+001 
3600000000  -4.036473e+001  -3.056483e+001 
3603125000  -4.037786e+001  -4.683015e+001 
3606250000  -4.162534e+001  -4.954847e+001 
3609375000  -4.198658e+001  -5.384170e+001 
3612500000  -4.264210e+001  -5.461352e+001 
3615625000  -4.310950e+001  -5.987005e+001 
3618750000  -4.354242e+001  -6.074097e+001 
3621875000  -4.373378e+001  -6.286947e+001 
3625000000  -4.410194e+001  -6.456448e+001 
3628125000  -4.462477e+001  -6.560139e+001 
3631250000  -4.432428e+001  -7.190076e+001 
3634375000  -4.561298e+001  -7.087804e+001 
3637500000  -4.560823e+001  -6.464178e+001 
3640625000  -4.467692e+001  -6.304654e+001 
3643750000  -4.468648e+001  -6.929135e+001 
3646875000  -4.517060e+001  -7.562775e+001 
3650000000  -4.584711e+001  -7.411825e+001 
3653125000  -4.547467e+001  -7.722974e+001 
3656250000  -4.608649e+001  -7.609731e+001 
3659375000  -4.629488e+001  -7.379054e+001 
3662500000  -4.514014e+001  -7.599031e+001 
3665625000  -4.499719e+001  -7.196844e+001 
3668750000  -4.390538e+001  -7.563008e+001 
3671875000  -4.296768e+001  -8.021553e+001 
3675000000  -4.350070e+001  -8.545264e+001 
3678125000  -4.322542e+001  -9.115919e+001 
3681250000  -4.307630e+001  -9.134747e+001 
3684375000  -4.261025e+001  -9.518348e+001 
3687500000  -4.318512e+001  -1.013807e+002 
3690625000  -4.301666e+001  -1.035973e+002 
3693750000  -4.382198e+001  -1.010928e+002 
3696875000  -4.374348e+001  -1.037824e+002 
3700000000  -4.295672e+001  -1.085536e+002 
3703125000  -4.256459e+001  -1.148200e+002 
3706250000  -4.365222e+001  -1.148709e+002 
3709375000  -4.329073e+001  -1.126026e+002 
3712500000  -4.225523e+001  -1.164791e+002 
3715625000  -4.139940e+001  -1.239922e+002 
3718750000  -4.113311e+001  -1.267555e+002 
3721875000  -4.105543e+001  -1.349448e+002 
3725000000  -4.181088e+001  -1.400527e+002 
3728125000  -4.185076e+001  -1.418433e+002 
3731250000  -4.154968e+001  -1.449747e+002 
3734375000  -4.129792e+001  -1.504209e+002 
3737500000  -4.200703e+001  -1.577027e+002 
3740625000  -4.299780e+001  -1.645481e+002 
3743750000  -4.289005e+001  -1.637608e+002 
3746875000  -4.358428e+001  -1.679495e+002 
3750000000  -4.443732e+001  -1.686613e+002 
3753125000  -4.426400e+001  -1.690016e+002 
3756250000  -4.423872e+001  -1.681618e+002 
3759375000  -4.472775e+001  -1.676031e+002 
3762500000  -4.442136e+001  -1.718377e+002 
3765625000  -4.483972e+001  -1.708177e+002 
3768750000  -4.458867e+001  -1.686075e+002 
3771875000  -4.331828e+001  -1.692435e+002 
3775000000  -4.324813e+001  -1.761073e+002 
3778125000  -4.332589e+001  -1.777008e+002 
3781250000  -4.308815e+001  -1.795544e+002 
3784375000  -4.274258e+001  -1.796351e+002 
3787500000  -4.196614e+001  1.787296e+002 
3790625000  -4.241722e+001  1.735656e+002 
3793750000  -4.251341e+001  1.720232e+002 
3796875000  -4.142437e+001  1.706812e+002 
3800000000  -3.980598e+001  1.660947e+002 
3803125000  -4.016190e+001  1.585243e+002 
3806250000  -4.102243e+001  1.551102e+002 
3809375000  -4.044908e+001  1.512547e+002 
3812500000  -3.972458e+001  1.461712e+002 
3815625000  -4.026240e+001  1.364399e+002 
3818750000  -4.147145e+001  1.341856e+002 
3821875000  -4.149273e+001  1.439315e+002 
3825000000  -3.959344e+001  1.470490e+002 
3828125000  -3.815911e+001  1.303185e+002 
3831250000  -3.869715e+001  1.153752e+002 
3834375000  -4.026017e+001  1.117240e+002 
3837500000  -4.081994e+001  1.176392e+002 
3840625000  -3.991178e+001  1.157985e+002 
3843750000  -3.901164e+001  1.031794e+002 
3846875000  -3.975202e+001  9.599393e+001 
3850000000  -4.112784e+001  1.019138e+002 
3853125000  -4.035365e+001  1.056460e+002 
3856250000  -4.037930e+001  9.797272e+001 
3859375000  -3.944992e+001  9.151955e+001 
3862500000  -3.940049e+001  8.492572e+001 
3865625000  -3.964243e+001  7.972202e+001 
3868750000  -3.964249e+001  7.859933e+001 
3871875000  -3.893629e+001  7.338261e+001 
3875000000  -3.960226e+001  6.433916e+001 
3878125000  -4.071341e+001  6.286027e+001 
3881250000  -4.036285e+001  6.449332e+001 
3884375000  -4.013298e+001  6.148639e+001 
3887500000  -4.046389e+001  5.643003e+001 
3890625000  -4.094532e+001  5.531793e+001 
3893750000  -4.109387e+001  4.948475e+001 
3896875000  -4.160799e+001  5.377654e+001 
3900000000  -4.143091e+001  5.016508e+001 
3903125000  -4.124917e+001  4.804576e+001 
3906250000  -4.073127e+001  4.718376e+001 
3909375000  -3.996754e+001  4.252608e+001 
3912500000  -4.018435e+001  3.459555e+001 
3915625000  -4.170221e+001  3.691914e+001 
3918750000  -4.110773e+001  3.749846e+001 
3921875000  -4.074456e+001  3.400746e+001 
3925000000  -3.993587e+001  3.109772e+001 
3928125000  -3.913161e+001  2.524236e+001 
3931250000  -3.977005e+001  2.048270e+001 
3934375000  -3.997373e+001  1.963527e+001 
3937500000  -3.998764e+001  1.821569e+001 
3940625000  -4.071746e+001  1.481842e+001 
3943750000  -3.953146e+001  1.672988e+001 
3946875000  -3.828700e+001  9.063539e+000 
3950000000  -3.879053e+001  1.841851e+000 
3953125000  -3.996120e+001  7.105474e-001 
3956250000  -3.905155e+001  1.855563e+000 
3959375000  -3.775845e+001  -1.490285e+000 
3962500000  -3.738623e+001  -7.474641e+000 
3965625000  -3.706810e+001  -1.846449e+001 
3968750000  -3.812790e+001  -2.483486e+001 
3971875000  -3.841505e+001  -2.674611e+001 
3975000000  -3.779647e+001  -2.992886e+001 
3978125000  -3.780307e+001  -3.456742e+001 
3981250000  -3.751890e+001  -3.969354e+001 
3984375000  -3.806064e+001  -4.500847e+001 
3987500000  -3.851092e+001  -4.695860e+001 
3990625000  -3.870308e+001  -4.937082e+001 
3993750000  -3.907107e+001  -5.337048e+001 
3996875000  -3.898596e+001  -5.773312e+001 
4000000000  -3.945082e+001  -5.802935e+001 
4003125000  -3.954064e+001  -5.579966e+001 
4006250000  -3.815755e+001  -5.859315e+001 
4009375000  -3.715607e+001  -7.268411e+001 
4012500000  -3.859005e+001  -7.666931e+001 
4015625000  -4.006536e+001  -7.704195e+001 
4018750000  -4.002538e+001  -7.533605e+001 
4021875000  -3.924275e+001  -7.740026e+001 
4025000000  -3.905215e+001  -8.289320e+001 
4028125000  -3.907331e+001  -8.811407e+001 
4031250000  -3.921286e+001  -9.067628e+001 
4034375000  -3.990866e+001  -8.916903e+001 
4037500000  -3.916467e+001  -9.156558e+001 
4040625000  -3.896330e+001  -9.290195e+001 
4043750000  -3.946617e+001  -9.554456e+001 
4046875000  -3.892904e+001  -9.571730e+001 
4050000000  -3.848293e+001  -1.022977e+002 
4053125000  -3.912714e+001  -1.047260e+002 
4056250000  -3.962788e+001  -1.013100e+002 
4059375000  -3.794658e+001  -1.000359e+002 
4062500000  -3.660589e+001  -1.071948e+002 
4065625000  -3.672810e+001  -1.107033e+002 
4068750000  -3.634650e+001  -1.171476e+002 
4071875000  -3.571968e+001  -1.256075e+002 
4075000000  -3.609410e+001  -1.331246e+002 
4078125000  -3.666943e+001  -1.349271e+002 
4081250000  -3.585963e+001  -1.378927e+002 
4084375000  -3.571489e+001  -1.452226e+002 
4087500000  -3.606715e+001  -1.536809e+002 
4090625000  -3.674133e+001  -1.541820e+002 
4093750000  -3.646875e+001  -1.558690e+002 
4096875000  -3.617311e+001  -1.623693e+002 
4100000000  -3.699092e+001  -1.697184e+002 
4103125000  -3.784928e+001  -1.688306e+002 
4106250000  -3.754647e+001  -1.657153e+002 
4109375000  -3.661157e+001  -1.676332e+002 
4112500000  -3.624166e+001  -1.749046e+002 
4115625000  -3.652637e+001  1.792551e+002 
4118750000  -3.661088e+001  1.752184e+002 
4121875000  -3.619989e+001  1.698697e+002 
4125000000  -3.685490e+001  1.635371e+002 
4128125000  -3.780557e+001  1.644486e+002 
4131250000  -3.748556e+001  1.712124e+002 
4134375000  -3.508955e+001  1.634847e+002 
4137500000  -3.509256e+001  1.448098e+002 
4140625000  -3.742924e+001  1.364880e+002 
4143750000  -3.872487e+001  1.416468e+002 
4146875000  -3.819230e+001  1.483089e+002 
4150000000  -3.757624e+001  1.426404e+002 
4153125000  -3.754591e+001  1.369553e+002 
4156250000  -3.849924e+001  1.346259e+002 
4159375000  -3.872248e+001  1.375646e+002 
4162500000  -3.761336e+001  1.418147e+002 
4165625000  -3.653463e+001  1.369182e+002 
4168750000  -3.605875e+001  1.294339e+002 
4171875000  -3.608086e+001  1.188032e+002 
4175000000  -3.684507e+001  1.145088e+002 
4178125000  -3.733747e+001  1.143640e+002 
4181250000  -3.721125e+001  1.131467e+002 
4184375000  -3.690541e+001  1.092747e+002 
4187500000  -3.693743e+001  1.060608e+002 
4190625000  -3.668508e+001  9.971037e+001 
4193750000  -3.761575e+001  9.519514e+001 
4196875000  -3.842172e+001  9.623907e+001 
4200000000  -3.934681e+001  9.733751e+001 
4203125000  -3.901358e+001  1.105612e+002 
4206250000  -3.551537e+001  1.113033e+002 
4209375000  -3.438561e+001  8.632516e+001 
4212500000  -3.614054e+001  7.974400e+001 
4215625000  -3.720729e+001  8.541575e+001 
4218750000  -3.571200e+001  8.996982e+001 
4221875000  -3.344279e+001  8.015023e+001 
4225000000  -3.466643e+001  6.670852e+001 
4228125000  -3.518049e+001  7.180370e+001 
4231250000  -3.373935e+001  6.627957e+001 
4234375000  -3.362121e+001  5.660202e+001 
4237500000  -3.316751e+001  5.361629e+001 
4240625000  -3.318291e+001  4.319785e+001 
4243750000  -3.410044e+001  3.439822e+001 
4246875000  -3.511055e+001  3.310610e+001 
4250000000  -3.500868e+001  3.557243e+001 
4253125000  -3.464159e+001  3.153590e+001 
4256250000  -3.480766e+001  2.749973e+001 
4259375000  -3.458542e+001  2.363636e+001 
4262500000  -3.482550e+001  1.906232e+001 
4265625000  -3.491241e+001  1.664266e+001 
4268750000  -3.407813e+001  1.213257e+001 
4271875000  -3.396240e+001  5.529353e+000 
4275000000  -3.357926e+001  -2.499813e+000 
4278125000  -3.409426e+001  -1.370912e+001 
4281250000  -3.610844e+001  -1.635468e+001 
4284375000  -3.585645e+001  -1.671094e+001 
4287500000  -3.694239e+001  -2.139716e+001 
4290625000  -3.816300e+001  -1.222437e+001 
4293750000  -3.620438e+001  -5.754588e+000 
4296875000  -3.521716e+001  -1.812144e+001 
4300000000  -3.620646e+001  -2.726861e+001 
4303125000  -3.724021e+001  -2.518746e+001 
4306250000  -3.666465e+001  -1.886744e+001 
4309375000  -3.529710e+001  -2.214197e+001 
4312500000  -3.510329e+001  -2.995626e+001 
4315625000  -3.527244e+001  -3.518897e+001 
4318750000  -3.568415e+001  -4.057678e+001 
4321875000  -3.592153e+001  -3.796514e+001 
4325000000  -3.502174e+001  -3.793519e+001 
4328125000  -3.460424e+001  -4.540465e+001 
4331250000  -3.416762e+001  -5.304344e+001 
4334375000  -3.478939e+001  -5.880651e+001 
4337500000  -3.565357e+001  -6.116298e+001 
4340625000  -3.599665e+001  -5.804220e+001 
4343750000  -3.515724e+001  -5.822277e+001 
4346875000  -3.456616e+001  -6.518798e+001 
4350000000  -3.468122e+001  -7.039874e+001 
4353125000  -3.463025e+001  -7.887526e+001 
4356250000  -3.632747e+001  -7.951328e+001 
4359375000  -3.664304e+001  -6.627332e+001 
4362500000  -3.365165e+001  -6.747820e+001 
4365625000  -3.219358e+001  -8.196130e+001 
4368750000  -3.301734e+001  -9.362377e+001 
4371875000  -3.392660e+001  -9.490620e+001 
4375000000  -3.345329e+001  -9.505280e+001 
4378125000  -3.287550e+001  -1.022955e+002 
4381250000  -3.313777e+001  -1.088159e+002 
4384375000  -3.294185e+001  -1.165934e+002 
4387500000  -3.370892e+001  -1.223406e+002 
4390625000  -3.465391e+001  -1.225286e+002 
4393750000  -3.400163e+001  -1.223792e+002 
4396875000  -3.348316e+001  -1.249810e+002 
4400000000  -3.289521e+001  -1.343381e+002 
4403125000  -3.372494e+001  -1.425504e+002 
4406250000  -3.449154e+001  -1.462875e+002 
4409375000  -3.457618e+001  -1.488752e+002 
4412500000  -3.593631e+001  -1.527782e+002 
4415625000  -3.625905e+001  -1.482226e+002 
