!Agilent Technologies,E8363B,MY43030201,A.06.04.32
!Agilent E8363B: A.06.04.32
!Date: Tuesday, November 11, 2014 21:03:34
!Correction: S21(Response(S21)) 
!S1P File: Measurement: S21:
# Hz S  dB   R 50
3000000000  -3.634344e+001  -4.640711e+001 
3003125000  -3.752023e+001  -5.179351e+001 
3006250000  -3.745522e+001  -5.526678e+001 
3009375000  -3.769783e+001  -5.086234e+001 
3012500000  -3.700031e+001  -5.180062e+001 
3015625000  -3.601445e+001  -5.863255e+001 
3018750000  -3.679381e+001  -6.120311e+001 
3021875000  -3.542888e+001  -5.987012e+001 
3025000000  -3.411234e+001  -6.350306e+001 
3028125000  -3.316563e+001  -6.971426e+001 
3031250000  -3.212759e+001  -8.050969e+001 
3034375000  -3.168043e+001  -9.465242e+001 
3037500000  -3.216265e+001  -1.067160e+002 
3040625000  -3.347545e+001  -1.115215e+002 
3043750000  -3.421536e+001  -1.163849e+002 
3046875000  -3.438276e+001  -1.227053e+002 
3050000000  -3.606757e+001  -1.292775e+002 
3053125000  -3.593382e+001  -1.225552e+002 
3056250000  -3.536173e+001  -1.210313e+002 
3059375000  -3.553991e+001  -1.205713e+002 
3062500000  -3.411921e+001  -1.240801e+002 
3065625000  -3.389851e+001  -1.299897e+002 
3068750000  -3.351765e+001  -1.370890e+002 
3071875000  -3.348826e+001  -1.398743e+002 
3075000000  -3.323540e+001  -1.434891e+002 
3078125000  -3.300264e+001  -1.472124e+002 
3081250000  -3.345238e+001  -1.517121e+002 
3084375000  -3.265556e+001  -1.554557e+002 
3087500000  -3.242620e+001  -1.593388e+002 
3090625000  -3.190836e+001  -1.692055e+002 
3093750000  -3.239388e+001  -1.768604e+002 
3096875000  -3.340563e+001  1.771837e+002 
3100000000  -3.335732e+001  1.751824e+002 
3103125000  -3.354984e+001  1.755668e+002 
3106250000  -3.317524e+001  1.715825e+002 
3109375000  -3.324116e+001  1.675928e+002 
3112500000  -3.318026e+001  1.657595e+002 
3115625000  -3.283601e+001  1.612389e+002 
3118750000  -3.319117e+001  1.610656e+002 
3121875000  -3.224892e+001  1.516588e+002 
3125000000  -3.347097e+001  1.471766e+002 
3128125000  -3.447159e+001  1.543824e+002 
3131250000  -3.205767e+001  1.530902e+002 
3134375000  -3.071692e+001  1.372200e+002 
3137500000  -3.131584e+001  1.230206e+002 
3140625000  -3.277647e+001  1.202129e+002 
3143750000  -3.385709e+001  1.221103e+002 
3146875000  -3.335218e+001  1.230876e+002 
3150000000  -3.231962e+001  1.234714e+002 
3153125000  -3.234195e+001  1.138086e+002 
3156250000  -3.335009e+001  1.180793e+002 
3159375000  -3.153316e+001  1.199441e+002 
3162500000  -2.975015e+001  1.058441e+002 
3165625000  -3.074324e+001  9.321767e+001 
3168750000  -3.109681e+001  9.311153e+001 
3171875000  -3.014949e+001  8.801974e+001 
3175000000  -3.090458e+001  7.905913e+001 
3178125000  -3.064912e+001  7.955292e+001 
3181250000  -2.959279e+001  7.455148e+001 
3184375000  -2.888131e+001  6.191165e+001 
3187500000  -3.004455e+001  4.668842e+001 
3190625000  -3.269206e+001  3.830476e+001 
3193750000  -3.338024e+001  4.685654e+001 
3196875000  -3.292382e+001  5.132708e+001 
3200000000  -3.209827e+001  4.939853e+001 
3203125000  -3.129050e+001  4.249950e+001 
3206250000  -3.160233e+001  3.610110e+001 
3209375000  -3.107028e+001  2.960250e+001 
3212500000  -3.132279e+001  2.291334e+001 
3215625000  -3.136394e+001  1.864193e+001 
3218750000  -3.206905e+001  1.125671e+001 
3221875000  -3.308257e+001  6.968925e+000 
3225000000  -3.265385e+001  4.928651e+000 
3228125000  -3.304395e+001  2.533751e-001 
3231250000  -3.368427e+001  -2.752072e+000 
3234375000  -3.336220e+001  -2.652086e+000 
3237500000  -3.337810e+001  -4.948464e+000 
3240625000  -3.290518e+001  -7.192779e+000 
3243750000  -3.258123e+001  -1.399924e+001 
3246875000  -3.297356e+001  -2.201220e+001 
3250000000  -3.343637e+001  -2.415257e+001 
3253125000  -3.344470e+001  -2.563495e+001 
3256250000  -3.316448e+001  -3.289218e+001 
3259375000  -3.354333e+001  -4.112709e+001 
3262500000  -3.463224e+001  -4.518854e+001 
3265625000  -3.534983e+001  -4.292282e+001 
3268750000  -3.504519e+001  -4.079480e+001 
3271875000  -3.476872e+001  -4.078568e+001 
3275000000  -3.369494e+001  -4.702634e+001 
3278125000  -3.410157e+001  -5.371795e+001 
3281250000  -3.434786e+001  -5.291441e+001 
3284375000  -3.391117e+001  -5.960757e+001 
3287500000  -3.407330e+001  -6.314468e+001 
3290625000  -3.432930e+001  -6.997154e+001 
3293750000  -3.409797e+001  -7.525417e+001 
3296875000  -3.520318e+001  -7.597597e+001 
3300000000  -3.488663e+001  -7.532459e+001 
3303125000  -3.377771e+001  -8.045761e+001 
3306250000  -3.352610e+001  -8.723093e+001 
3309375000  -3.329973e+001  -9.330827e+001 
3312500000  -3.333592e+001  -1.046812e+002 
3315625000  -3.425842e+001  -1.127464e+002 
3318750000  -3.579496e+001  -1.156397e+002 
3321875000  -3.682170e+001  -1.160662e+002 
3325000000  -3.721520e+001  -1.110901e+002 
3328125000  -3.689297e+001  -1.106015e+002 
3331250000  -3.566502e+001  -1.041371e+002 
3334375000  -3.308488e+001  -1.135871e+002 
3337500000  -3.317197e+001  -1.332404e+002 
3340625000  -3.457236e+001  -1.444318e+002 
3343750000  -3.645557e+001  -1.457675e+002 
3346875000  -3.662308e+001  -1.433340e+002 
3350000000  -3.590559e+001  -1.455908e+002 
3353125000  -3.593933e+001  -1.497376e+002 
3356250000  -3.558219e+001  -1.585001e+002 
3359375000  -3.632264e+001  -1.672177e+002 
3362500000  -3.743421e+001  -1.723913e+002 
3365625000  -3.780751e+001  -1.743103e+002 
3368750000  -3.888345e+001  -1.748373e+002 
3371875000  -3.885934e+001  -1.792903e+002 
3375000000  -4.025190e+001  1.790813e+002 
3378125000  -4.104564e+001  1.777731e+002 
3381250000  -4.241451e+001  -1.734485e+002 
3384375000  -4.126453e+001  -1.530772e+002 
3387500000  -3.755254e+001  -1.685403e+002 
3390625000  -3.910424e+001  1.717718e+002 
3393750000  -4.043541e+001  1.746414e+002 
3396875000  -3.907166e+001  1.773968e+002 
3400000000  -3.874310e+001  1.696910e+002 
3403125000  -3.923489e+001  1.644504e+002 
3406250000  -3.953068e+001  1.630354e+002 
3409375000  -3.974907e+001  1.552153e+002 
3412500000  -4.030602e+001  1.536289e+002 
3415625000  -4.094268e+001  1.544654e+002 
3418750000  -4.087712e+001  1.547914e+002 
3421875000  -4.116315e+001  1.570604e+002 
3425000000  -4.038739e+001  1.578371e+002 
3428125000  -3.943697e+001  1.536205e+002 
3431250000  -3.934380e+001  1.474097e+002 
3434375000  -3.914758e+001  1.414041e+002 
3437500000  -3.973701e+001  1.380542e+002 
3440625000  -3.989231e+001  1.390662e+002 
3443750000  -3.867258e+001  1.405119e+002 
3446875000  -3.796385e+001  1.324376e+002 
3450000000  -3.755235e+001  1.225750e+002 
3453125000  -3.787949e+001  1.127102e+002 
3456250000  -3.920771e+001  1.057010e+002 
3459375000  -3.999427e+001  1.066241e+002 
3462500000  -3.989725e+001  1.053291e+002 
3465625000  -3.978688e+001  1.019407e+002 
3468750000  -4.006496e+001  9.597035e+001 
3471875000  -3.996988e+001  9.582456e+001 
3475000000  -3.954803e+001  9.081644e+001 
3478125000  -4.019979e+001  8.352269e+001 
3481250000  -4.136307e+001  8.047358e+001 
3484375000  -4.199861e+001  8.266080e+001 
3487500000  -4.129519e+001  8.387222e+001 
3490625000  -4.065817e+001  7.837092e+001 
3493750000  -4.138750e+001  7.275941e+001 
3496875000  -4.187285e+001  7.198089e+001 
3500000000  -4.241443e+001  7.381049e+001 
3503125000  -4.180626e+001  7.534656e+001 
3506250000  -4.075978e+001  7.130181e+001 
3509375000  -4.065163e+001  6.154762e+001 
3512500000  -4.120365e+001  5.266029e+001 
3515625000  -4.196079e+001  5.081638e+001 
3518750000  -4.259833e+001  5.114013e+001 
3521875000  -4.232076e+001  4.958826e+001 
3525000000  -4.342486e+001  4.468092e+001 
3528125000  -4.343019e+001  5.387922e+001 
3531250000  -4.247805e+001  5.076557e+001 
3534375000  -4.223512e+001  4.009592e+001 
3537500000  -4.250947e+001  3.789080e+001 
3540625000  -4.356482e+001  3.327369e+001 
3543750000  -4.421545e+001  3.718356e+001 
3546875000  -4.415571e+001  4.995047e+001 
3550000000  -4.146451e+001  5.095499e+001 
3553125000  -4.022336e+001  3.414714e+001 
3556250000  -4.165393e+001  2.785504e+001 
3559375000  -4.142811e+001  2.947755e+001 
3562500000  -4.053698e+001  1.925282e+001 
3565625000  -4.130853e+001  1.165204e+001 
3568750000  -4.149796e+001  1.466078e+001 
3571875000  -4.101989e+001  1.323244e+001 
3575000000  -4.080011e+001  5.556712e+000 
3578125000  -4.131166e+001  1.098245e+000 
3581250000  -4.142397e+001  -2.995146e-001 
3584375000  -4.060952e+001  -1.782359e+000 
3587500000  -3.997971e+001  -1.094567e+001 
3590625000  -4.061190e+001  -2.268167e+001 
3593750000  -4.191180e+001  -2.435791e+001 
3596875000  -4.166726e+001  -1.643923e+001 
3600000000  -4.021568e+001  -2.341853e+001 
3603125000  -4.056039e+001  -3.894373e+001 
3606250000  -4.140635e+001  -4.243982e+001 
3609375000  -4.213759e+001  -4.642837e+001 
3612500000  -4.278871e+001  -4.756443e+001 
3615625000  -4.279002e+001  -5.231583e+001 
3618750000  -4.379661e+001  -5.035290e+001 
3621875000  -4.357704e+001  -5.483633e+001 
3625000000  -4.414385e+001  -5.823865e+001 
3628125000  -4.471773e+001  -5.606142e+001 
3631250000  -4.441750e+001  -6.085250e+001 
3634375000  -4.545379e+001  -6.087749e+001 
3637500000  -4.539159e+001  -5.630756e+001 
3640625000  -4.480654e+001  -5.434267e+001 
3643750000  -4.474268e+001  -6.136307e+001 
3646875000  -4.517616e+001  -6.886668e+001 
3650000000  -4.606815e+001  -6.706083e+001 
3653125000  -4.553170e+001  -6.805513e+001 
3656250000  -4.579109e+001  -6.978957e+001 
3659375000  -4.633208e+001  -6.297765e+001 
3662500000  -4.505547e+001  -6.547900e+001 
3665625000  -4.481084e+001  -6.599349e+001 
3668750000  -4.392955e+001  -6.596736e+001 
3671875000  -4.308714e+001  -7.261268e+001 
3675000000  -4.299413e+001  -8.010323e+001 
3678125000  -4.341110e+001  -8.175080e+001 
3681250000  -4.301426e+001  -8.360337e+001 
3684375000  -4.313398e+001  -8.818930e+001 
3687500000  -4.339499e+001  -9.263331e+001 
3690625000  -4.301151e+001  -9.545572e+001 
3693750000  -4.379017e+001  -9.571017e+001 
3696875000  -4.361813e+001  -9.416704e+001 
3700000000  -4.308348e+001  -1.011003e+002 
3703125000  -4.273936e+001  -1.057601e+002 
3706250000  -4.389997e+001  -1.079151e+002 
3709375000  -4.354258e+001  -1.042805e+002 
3712500000  -4.217731e+001  -1.078079e+002 
3715625000  -4.145835e+001  -1.171271e+002 
3718750000  -4.145066e+001  -1.200520e+002 
3721875000  -4.111849e+001  -1.278500e+002 
3725000000  -4.172045e+001  -1.339096e+002 
3728125000  -4.199954e+001  -1.326049e+002 
3731250000  -4.162006e+001  -1.358782e+002 
3734375000  -4.118227e+001  -1.420513e+002 
3737500000  -4.209971e+001  -1.523503e+002 
3740625000  -4.336626e+001  -1.540742e+002 
3743750000  -4.308595e+001  -1.560177e+002 
3746875000  -4.357211e+001  -1.593223e+002 
3750000000  -4.400924e+001  -1.608311e+002 
3753125000  -4.414937e+001  -1.622228e+002 
3756250000  -4.440733e+001  -1.565018e+002 
3759375000  -4.468297e+001  -1.612721e+002 
3762500000  -4.344744e+001  -1.621089e+002 
3765625000  -4.467255e+001  -1.649993e+002 
3768750000  -4.468972e+001  -1.594892e+002 
3771875000  -4.297661e+001  -1.599391e+002 
3775000000  -4.312867e+001  -1.689557e+002 
3778125000  -4.348460e+001  -1.701451e+002 
3781250000  -4.291107e+001  -1.695362e+002 
3784375000  -4.268393e+001  -1.698271e+002 
3787500000  -4.199764e+001  -1.734525e+002 
3790625000  -4.242368e+001  1.793542e+002 
3793750000  -4.233547e+001  -1.794139e+002 
3796875000  -4.141220e+001  1.763011e+002 
3800000000  -3.976395e+001  1.756736e+002 
3803125000  -4.024992e+001  1.659175e+002 
3806250000  -4.104208e+001  1.637056e+002 
3809375000  -4.049434e+001  1.601684e+002 
3812500000  -3.987342e+001  1.543083e+002 
3815625000  -4.032615e+001  1.452583e+002 
3818750000  -4.139667e+001  1.441215e+002 
3821875000  -4.141505e+001  1.524912e+002 
3825000000  -3.965445e+001  1.542138e+002 
3828125000  -3.782074e+001  1.383690e+002 
3831250000  -3.876490e+001  1.230881e+002 
3834375000  -4.018235e+001  1.230696e+002 
3837500000  -4.103936e+001  1.259177e+002 
3840625000  -4.002426e+001  1.245115e+002 
3843750000  -3.892175e+001  1.132010e+002 
3846875000  -3.981167e+001  1.051225e+002 
3850000000  -4.115569e+001  1.089311e+002 
3853125000  -4.031609e+001  1.119852e+002 
3856250000  -4.045827e+001  1.051898e+002 
3859375000  -3.962849e+001  9.998418e+001 
3862500000  -3.957039e+001  9.246632e+001 
3865625000  -3.985012e+001  8.643638e+001 
3868750000  -3.978222e+001  8.576247e+001 
3871875000  -3.904967e+001  8.267772e+001 
3875000000  -3.935821e+001  7.336404e+001 
3878125000  -4.044324e+001  7.198106e+001 
3881250000  -4.059574e+001  7.244637e+001 
3884375000  -4.036092e+001  6.868655e+001 
3887500000  -4.052600e+001  6.498518e+001 
3890625000  -4.078511e+001  6.058482e+001 
3893750000  -4.104124e+001  6.143976e+001 
3896875000  -4.154397e+001  6.059715e+001 
3900000000  -4.142476e+001  5.790251e+001 
3903125000  -4.154496e+001  5.709336e+001 
3906250000  -4.061564e+001  5.522632e+001 
3909375000  -4.007279e+001  5.372507e+001 
3912500000  -4.005219e+001  4.560670e+001 
3915625000  -4.132985e+001  4.379657e+001 
3918750000  -4.136281e+001  4.434534e+001 
3921875000  -4.098275e+001  4.178519e+001 
3925000000  -3.995158e+001  4.129528e+001 
3928125000  -3.927583e+001  3.377582e+001 
3931250000  -3.949097e+001  2.929193e+001 
3934375000  -3.989378e+001  2.828215e+001 
3937500000  -4.006789e+001  2.719065e+001 
3940625000  -4.060699e+001  2.524681e+001 
3943750000  -3.948566e+001  2.684687e+001 
3946875000  -3.840320e+001  1.783214e+001 
3950000000  -3.898170e+001  1.140432e+001 
3953125000  -3.997679e+001  7.206896e+000 
3956250000  -3.875497e+001  1.313059e+001 
3959375000  -3.775223e+001  7.252578e+000 
3962500000  -3.745773e+001  3.188993e+000 
3965625000  -3.707764e+001  -9.044909e+000 
3968750000  -3.821094e+001  -1.571370e+001 
3971875000  -3.864968e+001  -1.862657e+001 
3975000000  -3.790959e+001  -2.026871e+001 
3978125000  -3.782001e+001  -2.375167e+001 
3981250000  -3.773835e+001  -2.871450e+001 
3984375000  -3.813376e+001  -3.476041e+001 
3987500000  -3.854543e+001  -3.772750e+001 
3990625000  -3.868056e+001  -3.843252e+001 
3993750000  -3.900119e+001  -4.314819e+001 
3996875000  -3.909799e+001  -4.846067e+001 
4000000000  -3.894651e+001  -4.842081e+001 
4003125000  -3.961259e+001  -4.723743e+001 
4006250000  -3.830630e+001  -4.732048e+001 
4009375000  -3.738937e+001  -6.193250e+001 
4012500000  -3.869135e+001  -6.749474e+001 
4015625000  -3.981818e+001  -6.802320e+001 
4018750000  -3.975579e+001  -6.514333e+001 
4021875000  -3.925901e+001  -6.782888e+001 
4025000000  -3.906213e+001  -7.181421e+001 
4028125000  -3.905694e+001  -7.603246e+001 
4031250000  -3.945441e+001  -7.970038e+001 
4034375000  -3.978743e+001  -8.216513e+001 
4037500000  -3.905485e+001  -8.018833e+001 
4040625000  -3.909055e+001  -8.528064e+001 
4043750000  -3.937987e+001  -8.460471e+001 
4046875000  -3.895200e+001  -8.594819e+001 
4050000000  -3.832943e+001  -9.172060e+001 
4053125000  -3.891173e+001  -9.452271e+001 
4056250000  -3.940255e+001  -9.057977e+001 
4059375000  -3.800300e+001  -9.135085e+001 
4062500000  -3.675470e+001  -9.755502e+001 
4065625000  -3.693394e+001  -1.008225e+002 
4068750000  -3.625317e+001  -1.060779e+002 
4071875000  -3.556107e+001  -1.150601e+002 
4075000000  -3.605204e+001  -1.218475e+002 
4078125000  -3.640615e+001  -1.243036e+002 
4081250000  -3.595830e+001  -1.284646e+002 
4084375000  -3.582255e+001  -1.360771e+002 
4087500000  -3.611338e+001  -1.438403e+002 
4090625000  -3.664206e+001  -1.445302e+002 
4093750000  -3.644488e+001  -1.447255e+002 
4096875000  -3.624649e+001  -1.525596e+002 
4100000000  -3.694441e+001  -1.599453e+002 
4103125000  -3.781155e+001  -1.587472e+002 
4106250000  -3.771622e+001  -1.544150e+002 
4109375000  -3.657499e+001  -1.569244e+002 
4112500000  -3.614170e+001  -1.650796e+002 
4115625000  -3.649752e+001  -1.693065e+002 
4118750000  -3.680630e+001  -1.739689e+002 
4121875000  -3.624490e+001  -1.796353e+002 
4125000000  -3.657610e+001  1.750580e+002 
4128125000  -3.765397e+001  1.739317e+002 
4131250000  -3.760862e+001  -1.782948e+002 
4134375000  -3.512708e+001  1.757758e+002 
4137500000  -3.508228e+001  1.563620e+002 
4140625000  -3.737595e+001  1.486367e+002 
4143750000  -3.886603e+001  1.519725e+002 
4146875000  -3.811053e+001  1.611602e+002 
4150000000  -3.743671e+001  1.543888e+002 
4153125000  -3.745073e+001  1.486389e+002 
4156250000  -3.819144e+001  1.453359e+002 
4159375000  -3.857119e+001  1.482560e+002 
4162500000  -3.735814e+001  1.540559e+002 
4165625000  -3.637543e+001  1.490264e+002 
4168750000  -3.590572e+001  1.400159e+002 
4171875000  -3.589816e+001  1.316212e+002 
4175000000  -3.648602e+001  1.264122e+002 
4178125000  -3.703284e+001  1.258982e+002 
4181250000  -3.678117e+001  1.243536e+002 
4184375000  -3.679251e+001  1.209592e+002 
4187500000  -3.678865e+001  1.167497e+002 
4190625000  -3.663437e+001  1.119698e+002 
4193750000  -3.728177e+001  1.065815e+002 
4196875000  -3.787518e+001  1.070171e+002 
4200000000  -3.891040e+001  1.086561e+002 
4203125000  -3.878952e+001  1.207638e+002 
4206250000  -3.534216e+001  1.202484e+002 
4209375000  -3.413952e+001  9.944024e+001 
4212500000  -3.603266e+001  9.088374e+001 
4215625000  -3.687932e+001  9.742359e+001 
4218750000  -3.552941e+001  1.031070e+002 
4221875000  -3.310901e+001  9.226934e+001 
4225000000  -3.443325e+001  7.916563e+001 
4228125000  -3.490059e+001  8.272616e+001 
4231250000  -3.334654e+001  7.723009e+001 
4234375000  -3.323164e+001  6.851028e+001 
4237500000  -3.277885e+001  6.463943e+001 
4240625000  -3.279389e+001  5.334452e+001 
4243750000  -3.394462e+001  4.527118e+001 
4246875000  -3.482648e+001  4.534209e+001 
4250000000  -3.475144e+001  4.683959e+001 
4253125000  -3.430894e+001  4.418718e+001 
4256250000  -3.456212e+001  3.836589e+001 
4259375000  -3.435239e+001  3.591986e+001 
4262500000  -3.440175e+001  3.065934e+001 
4265625000  -3.462593e+001  2.954904e+001 
4268750000  -3.391998e+001  2.370798e+001 
4271875000  -3.361960e+001  1.674726e+001 
4275000000  -3.311529e+001  8.702621e+000 
4278125000  -3.386382e+001  -1.937931e+000 
4281250000  -3.564595e+001  -4.081999e+000 
4284375000  -3.558487e+001  -4.736481e+000 
4287500000  -3.650446e+001  -7.081726e+000 
4290625000  -3.793848e+001  -8.697564e-001 
4293750000  -3.590065e+001  6.617118e+000 
4296875000  -3.467012e+001  -5.305678e+000 
4300000000  -3.557100e+001  -1.532468e+001 
4303125000  -3.683402e+001  -1.395092e+001 
4306250000  -3.590794e+001  -7.677982e+000 
4309375000  -3.481879e+001  -9.358504e+000 
4312500000  -3.460493e+001  -1.763332e+001 
4315625000  -3.484187e+001  -2.434159e+001 
4318750000  -3.525358e+001  -2.858627e+001 
4321875000  -3.524175e+001  -2.806222e+001 
4325000000  -3.465290e+001  -2.797219e+001 
4328125000  -3.401067e+001  -3.383770e+001 
4331250000  -3.383220e+001  -4.317218e+001 
4334375000  -3.435621e+001  -4.684988e+001 
4337500000  -3.494910e+001  -5.080249e+001 
4340625000  -3.550350e+001  -4.810546e+001 
4343750000  -3.463733e+001  -4.799532e+001 
4346875000  -3.421716e+001  -5.420588e+001 
4350000000  -3.403698e+001  -5.989285e+001 
4353125000  -3.403297e+001  -6.868474e+001 
4356250000  -3.595366e+001  -6.940337e+001 
4359375000  -3.607219e+001  -5.682940e+001 
4362500000  -3.323838e+001  -5.664342e+001 
4365625000  -3.167883e+001  -7.079001e+001 
4368750000  -3.232343e+001  -8.309781e+001 
4371875000  -3.355516e+001  -8.431094e+001 
4375000000  -3.311853e+001  -8.470412e+001 
4378125000  -3.241967e+001  -9.128828e+001 
4381250000  -3.265516e+001  -9.796006e+001 
4384375000  -3.238958e+001  -1.040800e+002 
4387500000  -3.313376e+001  -1.116496e+002 
4390625000  -3.417721e+001  -1.127928e+002 
4393750000  -3.355612e+001  -1.113364e+002 
4396875000  -3.276828e+001  -1.147287e+002 
4400000000  -3.247135e+001  -1.229712e+002 
4403125000  -3.305062e+001  -1.315934e+002 
4406250000  -3.387164e+001  -1.347402e+002 
4409375000  -3.389757e+001  -1.377802e+002 
4412500000  -3.522383e+001  -1.411717e+002 
4415625000  -3.548079e+001  -1.376277e+002 
