!Agilent Technologies,E8363B,MY43030201,A.06.04.32
!Agilent E8363B: A.06.04.32
!Date: Tuesday, November 11, 2014 21:05:05
!Correction: S21(Response(S21)) 
!S1P File: Measurement: S21:
# Hz S  dB   R 50
3000000000  -3.645943e+001  -4.958185e+001 
3003125000  -3.744940e+001  -5.558866e+001 
3006250000  -3.743030e+001  -5.864844e+001 
3009375000  -3.761662e+001  -5.355411e+001 
3012500000  -3.700396e+001  -5.618782e+001 
3015625000  -3.607883e+001  -6.259584e+001 
3018750000  -3.691920e+001  -6.272532e+001 
3021875000  -3.545888e+001  -6.272973e+001 
3025000000  -3.412400e+001  -6.709540e+001 
3028125000  -3.316896e+001  -7.270110e+001 
3031250000  -3.210572e+001  -8.437280e+001 
3034375000  -3.177745e+001  -9.755261e+001 
3037500000  -3.225161e+001  -1.095822e+002 
3040625000  -3.358612e+001  -1.146116e+002 
3043750000  -3.426974e+001  -1.195814e+002 
3046875000  -3.437704e+001  -1.256100e+002 
3050000000  -3.624755e+001  -1.314641e+002 
3053125000  -3.607806e+001  -1.257029e+002 
3056250000  -3.551673e+001  -1.222624e+002 
3059375000  -3.576042e+001  -1.230084e+002 
3062500000  -3.419936e+001  -1.265266e+002 
3065625000  -3.395280e+001  -1.322585e+002 
3068750000  -3.360093e+001  -1.390654e+002 
3071875000  -3.343465e+001  -1.422256e+002 
3075000000  -3.335193e+001  -1.462242e+002 
3078125000  -3.306111e+001  -1.494126e+002 
3081250000  -3.355536e+001  -1.538198e+002 
3084375000  -3.263501e+001  -1.575642e+002 
3087500000  -3.239358e+001  -1.613707e+002 
3090625000  -3.200930e+001  -1.715822e+002 
3093750000  -3.235405e+001  -1.790686e+002 
3096875000  -3.347236e+001  1.754769e+002 
3100000000  -3.338553e+001  1.732387e+002 
3103125000  -3.364702e+001  1.735197e+002 
3106250000  -3.311311e+001  1.692134e+002 
3109375000  -3.325824e+001  1.657030e+002 
3112500000  -3.315693e+001  1.635707e+002 
3115625000  -3.282568e+001  1.584458e+002 
3118750000  -3.313073e+001  1.582364e+002 
3121875000  -3.224056e+001  1.492366e+002 
3125000000  -3.349360e+001  1.449251e+002 
3128125000  -3.446771e+001  1.518869e+002 
3131250000  -3.203165e+001  1.504521e+002 
3134375000  -3.074366e+001  1.349656e+002 
3137500000  -3.126467e+001  1.204363e+002 
3140625000  -3.279045e+001  1.172059e+002 
3143750000  -3.382607e+001  1.199607e+002 
3146875000  -3.331401e+001  1.201825e+002 
3150000000  -3.227703e+001  1.203334e+002 
3153125000  -3.231201e+001  1.115111e+002 
3156250000  -3.327546e+001  1.161103e+002 
3159375000  -3.160225e+001  1.174691e+002 
3162500000  -2.968694e+001  1.021907e+002 
3165625000  -3.073497e+001  9.016306e+001 
3168750000  -3.108137e+001  9.077670e+001 
3171875000  -3.014918e+001  8.527797e+001 
3175000000  -3.089834e+001  7.662739e+001 
3178125000  -3.069069e+001  7.710583e+001 
3181250000  -2.963317e+001  7.152209e+001 
3184375000  -2.897530e+001  5.927504e+001 
3187500000  -3.011464e+001  4.395469e+001 
3190625000  -3.283924e+001  3.656232e+001 
3193750000  -3.341924e+001  4.454293e+001 
3196875000  -3.305173e+001  4.879531e+001 
3200000000  -3.210831e+001  4.645192e+001 
3203125000  -3.129857e+001  4.038066e+001 
3206250000  -3.172319e+001  3.348840e+001 
3209375000  -3.121153e+001  2.713442e+001 
3212500000  -3.149181e+001  2.029251e+001 
3215625000  -3.147580e+001  1.668300e+001 
3218750000  -3.229260e+001  9.442775e+000 
3221875000  -3.307933e+001  4.376935e+000 
3225000000  -3.272122e+001  3.219002e+000 
3228125000  -3.310527e+001  -2.602454e+000 
3231250000  -3.378910e+001  -5.068721e+000 
3234375000  -3.348676e+001  -4.435813e+000 
3237500000  -3.345708e+001  -6.327586e+000 
3240625000  -3.312598e+001  -9.188736e+000 
3243750000  -3.260280e+001  -1.633262e+001 
3246875000  -3.307121e+001  -2.349943e+001 
3250000000  -3.354760e+001  -2.598536e+001 
3253125000  -3.353184e+001  -2.746683e+001 
3256250000  -3.322038e+001  -3.467706e+001 
3259375000  -3.347017e+001  -4.346037e+001 
3262500000  -3.468163e+001  -4.725006e+001 
3265625000  -3.521240e+001  -4.434786e+001 
3268750000  -3.509176e+001  -4.232211e+001 
3271875000  -3.475768e+001  -4.256175e+001 
3275000000  -3.378505e+001  -4.934801e+001 
3278125000  -3.418760e+001  -5.639375e+001 
3281250000  -3.441119e+001  -5.510095e+001 
3284375000  -3.382607e+001  -6.225405e+001 
3287500000  -3.407803e+001  -6.559269e+001 
3290625000  -3.424152e+001  -7.173534e+001 
3293750000  -3.406686e+001  -7.753956e+001 
3296875000  -3.516059e+001  -7.833644e+001 
3300000000  -3.497494e+001  -7.735703e+001 
3303125000  -3.378589e+001  -8.253927e+001 
3306250000  -3.357854e+001  -9.000582e+001 
3309375000  -3.318161e+001  -9.590491e+001 
3312500000  -3.334572e+001  -1.077451e+002 
3315625000  -3.441820e+001  -1.151433e+002 
3318750000  -3.575753e+001  -1.187122e+002 
3321875000  -3.681736e+001  -1.192713e+002 
3325000000  -3.730655e+001  -1.136432e+002 
3328125000  -3.711703e+001  -1.128032e+002 
3331250000  -3.561564e+001  -1.066164e+002 
3334375000  -3.318113e+001  -1.168236e+002 
3337500000  -3.314785e+001  -1.358786e+002 
3340625000  -3.448814e+001  -1.475812e+002 
3343750000  -3.654782e+001  -1.478864e+002 
3346875000  -3.675318e+001  -1.464471e+002 
3350000000  -3.606417e+001  -1.482665e+002 
3353125000  -3.619332e+001  -1.528888e+002 
3356250000  -3.562482e+001  -1.615297e+002 
3359375000  -3.655032e+001  -1.694012e+002 
3362500000  -3.765827e+001  -1.750522e+002 
3365625000  -3.806799e+001  -1.770100e+002 
3368750000  -3.886449e+001  -1.783247e+002 
3371875000  -3.925195e+001  1.791535e+002 
3375000000  -4.044765e+001  1.769514e+002 
3378125000  -4.143588e+001  1.757661e+002 
3381250000  -4.243087e+001  -1.737367e+002 
3384375000  -4.149406e+001  -1.541565e+002 
3387500000  -3.788520e+001  -1.696136e+002 
3390625000  -3.923724e+001  1.698623e+002 
3393750000  -4.067349e+001  1.743340e+002 
3396875000  -3.944794e+001  1.762512e+002 
3400000000  -3.899514e+001  1.673332e+002 
3403125000  -3.958626e+001  1.623623e+002 
3406250000  -3.979435e+001  1.618773e+002 
3409375000  -3.986467e+001  1.537830e+002 
3412500000  -4.037416e+001  1.509867e+002 
3415625000  -4.133949e+001  1.532498e+002 
3418750000  -4.101394e+001  1.538409e+002 
3421875000  -4.130804e+001  1.559462e+002 
3425000000  -4.038820e+001  1.569168e+002 
3428125000  -3.957487e+001  1.530985e+002 
3431250000  -3.929031e+001  1.465500e+002 
3434375000  -3.909953e+001  1.398301e+002 
3437500000  -3.980817e+001  1.369409e+002 
3440625000  -4.008247e+001  1.374712e+002 
3443750000  -3.884027e+001  1.378607e+002 
3446875000  -3.796350e+001  1.301484e+002 
3450000000  -3.786043e+001  1.206214e+002 
3453125000  -3.812280e+001  1.100695e+002 
3456250000  -3.929726e+001  1.040729e+002 
3459375000  -4.007687e+001  1.039266e+002 
3462500000  -4.007567e+001  1.050260e+002 
3465625000  -4.003544e+001  9.765673e+001 
3468750000  -4.030787e+001  9.483943e+001 
3471875000  -4.021572e+001  9.336967e+001 
3475000000  -3.998475e+001  8.914734e+001 
3478125000  -4.057282e+001  8.116787e+001 
3481250000  -4.122932e+001  7.875444e+001 
3484375000  -4.256995e+001  8.158131e+001 
3487500000  -4.158854e+001  8.277791e+001 
3490625000  -4.089789e+001  7.783365e+001 
3493750000  -4.151423e+001  7.203841e+001 
3496875000  -4.228594e+001  7.029412e+001 
3500000000  -4.270084e+001  7.377229e+001 
3503125000  -4.219808e+001  7.568546e+001 
3506250000  -4.081702e+001  7.164462e+001 
3509375000  -4.082985e+001  6.215495e+001 
3512500000  -4.122126e+001  5.321017e+001 
3515625000  -4.191956e+001  5.156540e+001 
3518750000  -4.239892e+001  5.121806e+001 
3521875000  -4.249671e+001  5.007728e+001 
3525000000  -4.357439e+001  4.758326e+001 
3528125000  -4.353423e+001  5.213708e+001 
3531250000  -4.180053e+001  5.148247e+001 
3534375000  -4.176180e+001  4.162996e+001 
3537500000  -4.210017e+001  3.620562e+001 
3540625000  -4.311294e+001  3.420381e+001 
3543750000  -4.391871e+001  3.721163e+001 
3546875000  -4.348846e+001  4.916130e+001 
3550000000  -4.096467e+001  5.096096e+001 
3553125000  -3.986981e+001  3.115440e+001 
3556250000  -4.099677e+001  2.546014e+001 
3559375000  -4.104419e+001  2.765423e+001 
3562500000  -3.983156e+001  1.652854e+001 
3565625000  -4.080679e+001  7.816732e+000 
3568750000  -4.099107e+001  1.109009e+001 
3571875000  -4.086188e+001  1.027721e+001 
3575000000  -4.040840e+001  2.502962e+000 
3578125000  -4.096572e+001  -3.920635e+000 
3581250000  -4.118555e+001  -3.278337e+000 
3584375000  -4.036889e+001  -6.805983e+000 
3587500000  -3.986284e+001  -1.604411e+001 
3590625000  -4.064074e+001  -2.629261e+001 
3593750000  -4.178397e+001  -2.834851e+001 
3596875000  -4.186451e+001  -2.280186e+001 
3600000000  -4.052770e+001  -2.591362e+001 
3603125000  -4.102990e+001  -4.080862e+001 
3606250000  -4.170763e+001  -4.627689e+001 
3609375000  -4.232664e+001  -4.840981e+001 
3612500000  -4.302055e+001  -5.201601e+001 
3615625000  -4.338655e+001  -5.331458e+001 
3618750000  -4.405136e+001  -5.417009e+001 
3621875000  -4.408519e+001  -5.647497e+001 
3625000000  -4.496474e+001  -5.633683e+001 
3628125000  -4.475561e+001  -5.801922e+001 
3631250000  -4.448020e+001  -6.108239e+001 
3634375000  -4.614903e+001  -5.721484e+001 
3637500000  -4.613807e+001  -5.535720e+001 
3640625000  -4.498635e+001  -5.178633e+001 
3643750000  -4.441594e+001  -5.621086e+001 
3646875000  -4.504887e+001  -6.289821e+001 
3650000000  -4.570245e+001  -6.476129e+001 
3653125000  -4.552673e+001  -6.510995e+001 
3656250000  -4.552822e+001  -6.386372e+001 
3659375000  -4.555301e+001  -6.035363e+001 
3662500000  -4.460769e+001  -6.421825e+001 
3665625000  -4.403011e+001  -6.556692e+001 
3668750000  -4.303199e+001  -6.435286e+001 
3671875000  -4.194098e+001  -7.334260e+001 
3675000000  -4.224625e+001  -8.123965e+001 
3678125000  -4.257177e+001  -8.245185e+001 
3681250000  -4.235239e+001  -8.432867e+001 
3684375000  -4.220607e+001  -9.130053e+001 
3687500000  -4.225571e+001  -9.725465e+001 
3690625000  -4.248125e+001  -1.003238e+002 
3693750000  -4.334549e+001  -1.012933e+002 
3696875000  -4.318599e+001  -9.954713e+001 
3700000000  -4.239236e+001  -1.068123e+002 
3703125000  -4.235258e+001  -1.126287e+002 
3706250000  -4.336327e+001  -1.125721e+002 
3709375000  -4.292139e+001  -1.108300e+002 
3712500000  -4.191939e+001  -1.137452e+002 
3715625000  -4.118747e+001  -1.200928e+002 
3718750000  -4.107587e+001  -1.271659e+002 
3721875000  -4.095664e+001  -1.328957e+002 
3725000000  -4.185494e+001  -1.388693e+002 
3728125000  -4.202605e+001  -1.398984e+002 
3731250000  -4.179457e+001  -1.426190e+002 
3734375000  -4.146556e+001  -1.483048e+002 
3737500000  -4.289903e+001  -1.564616e+002 
3740625000  -4.376739e+001  -1.582355e+002 
3743750000  -4.349744e+001  -1.607746e+002 
3746875000  -4.378550e+001  -1.617854e+002 
3750000000  -4.491048e+001  -1.621489e+002 
3753125000  -4.472872e+001  -1.630616e+002 
3756250000  -4.518083e+001  -1.613135e+002 
3759375000  -4.482399e+001  -1.582271e+002 
3762500000  -4.432089e+001  -1.612257e+002 
3765625000  -4.477772e+001  -1.606040e+002 
3768750000  -4.504529e+001  -1.550036e+002 
3771875000  -4.322160e+001  -1.596669e+002 
3775000000  -4.323392e+001  -1.661178e+002 
3778125000  -4.301935e+001  -1.678001e+002 
3781250000  -4.283568e+001  -1.677513e+002 
3784375000  -4.250679e+001  -1.683896e+002 
3787500000  -4.176386e+001  -1.725847e+002 
3790625000  -4.210143e+001  1.794678e+002 
3793750000  -4.210741e+001  1.782716e+002 
3796875000  -4.076308e+001  1.755889e+002 
3800000000  -3.916209e+001  1.725461e+002 
3803125000  -3.996987e+001  1.631823e+002 
3806250000  -4.071176e+001  1.600487e+002 
3809375000  -4.016056e+001  1.582407e+002 
3812500000  -3.936682e+001  1.521485e+002 
3815625000  -4.010595e+001  1.424557e+002 
3818750000  -4.117446e+001  1.408272e+002 
3821875000  -4.125198e+001  1.492737e+002 
3825000000  -3.917794e+001  1.496742e+002 
3828125000  -3.796960e+001  1.335576e+002 
3831250000  -3.860352e+001  1.187801e+002 
3834375000  -4.013408e+001  1.175383e+002 
3837500000  -4.100055e+001  1.224502e+002 
3840625000  -3.977141e+001  1.206452e+002 
3843750000  -3.891228e+001  1.082683e+002 
3846875000  -3.980962e+001  9.912553e+001 
3850000000  -4.089677e+001  1.064231e+002 
3853125000  -4.041219e+001  1.077658e+002 
3856250000  -4.040055e+001  1.009333e+002 
3859375000  -3.975044e+001  9.492739e+001 
3862500000  -3.963488e+001  8.739861e+001 
3865625000  -3.995315e+001  8.128417e+001 
3868750000  -3.993029e+001  8.181294e+001 
3871875000  -3.961054e+001  7.791797e+001 
3875000000  -4.012293e+001  6.896860e+001 
3878125000  -4.079734e+001  6.742468e+001 
3881250000  -4.115406e+001  7.202894e+001 
3884375000  -4.045076e+001  6.506036e+001 
3887500000  -4.086136e+001  6.170230e+001 
3890625000  -4.122729e+001  6.064044e+001 
3893750000  -4.129925e+001  5.778958e+001 
3896875000  -4.185950e+001  5.874769e+001 
3900000000  -4.206080e+001  5.865621e+001 
3903125000  -4.158746e+001  5.576785e+001 
3906250000  -4.107070e+001  5.450619e+001 
3909375000  -4.037488e+001  5.193527e+001 
3912500000  -4.028633e+001  4.440467e+001 
3915625000  -4.152022e+001  4.542005e+001 
3918750000  -4.103632e+001  4.347684e+001 
3921875000  -4.066637e+001  4.250797e+001 
3925000000  -3.964157e+001  3.953022e+001 
3928125000  -3.893747e+001  3.392742e+001 
3931250000  -3.945800e+001  2.699391e+001 
3934375000  -3.975043e+001  2.709190e+001 
3937500000  -3.966452e+001  2.398014e+001 
3940625000  -4.028516e+001  2.299055e+001 
3943750000  -3.911369e+001  2.398674e+001 
3946875000  -3.832146e+001  1.703132e+001 
3950000000  -3.875945e+001  8.557664e+000 
3953125000  -3.949578e+001  6.703067e+000 
3956250000  -3.863255e+001  8.352496e+000 
3959375000  -3.738011e+001  3.379474e+000 
3962500000  -3.693587e+001  -2.053097e+000 
3965625000  -3.704459e+001  -1.247488e+001 
3968750000  -3.781493e+001  -1.892689e+001 
3971875000  -3.807110e+001  -2.146802e+001 
3975000000  -3.768419e+001  -2.548933e+001 
3978125000  -3.761612e+001  -2.815115e+001 
3981250000  -3.755847e+001  -3.307528e+001 
3984375000  -3.783955e+001  -3.992058e+001 
3987500000  -3.851186e+001  -4.410661e+001 
3990625000  -3.865100e+001  -4.452487e+001 
3993750000  -3.898737e+001  -5.071818e+001 
3996875000  -3.902491e+001  -5.465884e+001 
4000000000  -3.954819e+001  -5.552357e+001 
4003125000  -3.999203e+001  -5.353857e+001 
4006250000  -3.888173e+001  -5.229811e+001 
4009375000  -3.762189e+001  -6.739444e+001 
4012500000  -3.905488e+001  -7.206382e+001 
4015625000  -4.027475e+001  -7.260954e+001 
4018750000  -4.018975e+001  -7.243877e+001 
4021875000  -3.994120e+001  -7.087666e+001 
4025000000  -3.952981e+001  -7.727885e+001 
4028125000  -3.930227e+001  -8.093398e+001 
4031250000  -4.009837e+001  -8.511359e+001 
4034375000  -4.011927e+001  -8.325193e+001 
4037500000  -3.966962e+001  -8.179344e+001 
4040625000  -3.941860e+001  -8.592862e+001 
4043750000  -3.988221e+001  -8.488567e+001 
4046875000  -3.938367e+001  -8.674123e+001 
4050000000  -3.882649e+001  -9.327451e+001 
4053125000  -3.937729e+001  -9.519923e+001 
4056250000  -3.956246e+001  -9.211434e+001 
4059375000  -3.809054e+001  -9.056570e+001 
4062500000  -3.680159e+001  -9.755796e+001 
4065625000  -3.661245e+001  -1.010478e+002 
4068750000  -3.629885e+001  -1.075366e+002 
4071875000  -3.563721e+001  -1.174000e+002 
4075000000  -3.587087e+001  -1.230572e+002 
4078125000  -3.636831e+001  -1.257036e+002 
4081250000  -3.591870e+001  -1.293524e+002 
4084375000  -3.545304e+001  -1.374500e+002 
4087500000  -3.596434e+001  -1.445030e+002 
4090625000  -3.651186e+001  -1.473298e+002 
4093750000  -3.597754e+001  -1.481202e+002 
4096875000  -3.591549e+001  -1.559311e+002 
4100000000  -3.662160e+001  -1.638750e+002 
4103125000  -3.738854e+001  -1.630813e+002 
4106250000  -3.735629e+001  -1.593345e+002 
4109375000  -3.630624e+001  -1.622795e+002 
4112500000  -3.588965e+001  -1.695366e+002 
4115625000  -3.629654e+001  -1.764022e+002 
4118750000  -3.664466e+001  -1.796810e+002 
4121875000  -3.616672e+001  1.743453e+002 
4125000000  -3.652387e+001  1.696543e+002 
4128125000  -3.781453e+001  1.688342e+002 
4131250000  -3.761756e+001  1.764044e+002 
4134375000  -3.513046e+001  1.700123e+002 
4137500000  -3.517673e+001  1.496891e+002 
4140625000  -3.747991e+001  1.425609e+002 
4143750000  -3.890685e+001  1.460522e+002 
4146875000  -3.859014e+001  1.534233e+002 
4150000000  -3.779724e+001  1.485075e+002 
4153125000  -3.783006e+001  1.410545e+002 
4156250000  -3.885403e+001  1.411867e+002 
4159375000  -3.915981e+001  1.442124e+002 
4162500000  -3.785085e+001  1.492092e+002 
4165625000  -3.703267e+001  1.431870e+002 
4168750000  -3.642702e+001  1.378270e+002 
4171875000  -3.671635e+001  1.282171e+002 
4175000000  -3.721477e+001  1.226792e+002 
4178125000  -3.735518e+001  1.234973e+002 
4181250000  -3.722586e+001  1.235166e+002 
4184375000  -3.715374e+001  1.189701e+002 
4187500000  -3.703199e+001  1.169836e+002 
4190625000  -3.675968e+001  1.102938e+002 
4193750000  -3.762637e+001  1.067962e+002 
4196875000  -3.818441e+001  1.048285e+002 
4200000000  -3.910258e+001  1.063752e+002 
4203125000  -3.870662e+001  1.208722e+002 
4206250000  -3.511550e+001  1.215771e+002 
4209375000  -3.401169e+001  9.782700e+001 
4212500000  -3.605485e+001  8.845428e+001 
4215625000  -3.694090e+001  9.474490e+001 
4218750000  -3.523319e+001  1.002629e+002 
4221875000  -3.316689e+001  8.976855e+001 
4225000000  -3.434301e+001  7.578376e+001 
4228125000  -3.500357e+001  8.086695e+001 
4231250000  -3.323349e+001  7.530412e+001 
4234375000  -3.311056e+001  6.649539e+001 
4237500000  -3.265591e+001  5.987332e+001 
4240625000  -3.274427e+001  5.030405e+001 
4243750000  -3.375922e+001  4.247823e+001 
4246875000  -3.462856e+001  4.093386e+001 
4250000000  -3.461683e+001  4.261850e+001 
4253125000  -3.407229e+001  3.890388e+001 
4256250000  -3.443882e+001  3.325572e+001 
4259375000  -3.410239e+001  3.021188e+001 
4262500000  -3.432598e+001  2.546182e+001 
4265625000  -3.450225e+001  2.422356e+001 
4268750000  -3.369140e+001  1.935610e+001 
4271875000  -3.349749e+001  1.152441e+001 
4275000000  -3.332539e+001  3.122735e+000 
4278125000  -3.400792e+001  -9.207653e+000 
4281250000  -3.613716e+001  -1.056296e+001 
4284375000  -3.585733e+001  -1.134250e+001 
4287500000  -3.668338e+001  -1.664259e+001 
4290625000  -3.826270e+001  -4.821474e+000 
4293750000  -3.627114e+001  -8.620015e-001 
4296875000  -3.520347e+001  -1.037634e+001 
4300000000  -3.610960e+001  -2.094278e+001 
4303125000  -3.743881e+001  -1.951502e+001 
4306250000  -3.670098e+001  -1.323836e+001 
4309375000  -3.536499e+001  -1.435980e+001 
4312500000  -3.534357e+001  -2.243473e+001 
4315625000  -3.544976e+001  -2.800419e+001 
4318750000  -3.599738e+001  -2.963728e+001 
4321875000  -3.592023e+001  -3.024007e+001 
4325000000  -3.525240e+001  -2.817677e+001 
4328125000  -3.457848e+001  -3.575134e+001 
4331250000  -3.435274e+001  -4.408405e+001 
4334375000  -3.469602e+001  -4.849745e+001 
4337500000  -3.542930e+001  -5.175338e+001 
4340625000  -3.597354e+001  -4.853350e+001 
4343750000  -3.497405e+001  -4.813625e+001 
4346875000  -3.449866e+001  -5.435549e+001 
4350000000  -3.427303e+001  -6.126349e+001 
4353125000  -3.441230e+001  -6.961005e+001 
4356250000  -3.586076e+001  -7.001804e+001 
4359375000  -3.642672e+001  -5.715992e+001 
4362500000  -3.337837e+001  -5.807024e+001 
4365625000  -3.174900e+001  -7.189791e+001 
4368750000  -3.237371e+001  -8.511020e+001 
4371875000  -3.352481e+001  -8.581288e+001 
4375000000  -3.307929e+001  -8.665141e+001 
4378125000  -3.236530e+001  -9.324903e+001 
4381250000  -3.266175e+001  -1.007587e+002 
4384375000  -3.236088e+001  -1.072775e+002 
4387500000  -3.313617e+001  -1.148370e+002 
4390625000  -3.414226e+001  -1.149316e+002 
4393750000  -3.332605e+001  -1.141998e+002 
4396875000  -3.286663e+001  -1.186821e+002 
4400000000  -3.237768e+001  -1.274256e+002 
4403125000  -3.296204e+001  -1.371054e+002 
4406250000  -3.391070e+001  -1.391095e+002 
4409375000  -3.398552e+001  -1.434543e+002 
4412500000  -3.527755e+001  -1.462479e+002 
4415625000  -3.545325e+001  -1.429657e+002 
