!Agilent Technologies,E8363B,MY43030201,A.06.04.32
!Agilent E8363B: A.06.04.32
!Date: Tuesday, November 11, 2014 21:12:10
!Correction: S21(Response(S21)) 
!S1P File: Measurement: S21:
# Hz S  dB   R 50
3000000000  -3.661334e+001  -5.736115e+001 
3003125000  -3.776835e+001  -6.331673e+001 
3006250000  -3.765043e+001  -6.622644e+001 
3009375000  -3.783646e+001  -6.142760e+001 
3012500000  -3.709953e+001  -6.404089e+001 
3015625000  -3.626908e+001  -7.075429e+001 
3018750000  -3.693782e+001  -7.192521e+001 
3021875000  -3.552368e+001  -7.132526e+001 
3025000000  -3.411272e+001  -7.477725e+001 
3028125000  -3.324960e+001  -8.210697e+001 
3031250000  -3.219434e+001  -9.329964e+001 
3034375000  -3.182157e+001  -1.065835e+002 
3037500000  -3.232510e+001  -1.184080e+002 
3040625000  -3.365086e+001  -1.234621e+002 
3043750000  -3.421212e+001  -1.283694e+002 
3046875000  -3.465308e+001  -1.349053e+002 
3050000000  -3.641014e+001  -1.406741e+002 
3053125000  -3.601980e+001  -1.344417e+002 
3056250000  -3.555804e+001  -1.305094e+002 
3059375000  -3.561283e+001  -1.321804e+002 
3062500000  -3.409033e+001  -1.355804e+002 
3065625000  -3.400541e+001  -1.416275e+002 
3068750000  -3.359544e+001  -1.488821e+002 
3071875000  -3.358584e+001  -1.510068e+002 
3075000000  -3.335928e+001  -1.554185e+002 
3078125000  -3.307041e+001  -1.593568e+002 
3081250000  -3.351946e+001  -1.643266e+002 
3084375000  -3.268724e+001  -1.673741e+002 
3087500000  -3.251487e+001  -1.714609e+002 
3090625000  -3.202839e+001  1.782593e+002 
3093750000  -3.252358e+001  1.712464e+002 
3096875000  -3.352641e+001  1.655101e+002 
3100000000  -3.337120e+001  1.633890e+002 
3103125000  -3.365493e+001  1.628941e+002 
3106250000  -3.319260e+001  1.602640e+002 
3109375000  -3.320114e+001  1.562335e+002 
3112500000  -3.318003e+001  1.534933e+002 
3115625000  -3.291671e+001  1.487272e+002 
3118750000  -3.319893e+001  1.482113e+002 
3121875000  -3.231499e+001  1.389386e+002 
3125000000  -3.369864e+001  1.353436e+002 
3128125000  -3.445045e+001  1.430870e+002 
3131250000  -3.196213e+001  1.408268e+002 
3134375000  -3.081991e+001  1.254800e+002 
3137500000  -3.139465e+001  1.113851e+002 
3140625000  -3.285565e+001  1.088148e+002 
3143750000  -3.377311e+001  1.095742e+002 
3146875000  -3.328648e+001  1.115993e+002 
3150000000  -3.231669e+001  1.109528e+002 
3153125000  -3.231923e+001  1.020279e+002 
3156250000  -3.329784e+001  1.073915e+002 
3159375000  -3.151641e+001  1.075510e+002 
3162500000  -2.970632e+001  9.337222e+001 
3165625000  -3.076704e+001  8.107511e+001 
3168750000  -3.102964e+001  8.111298e+001 
3171875000  -3.009892e+001  7.591881e+001 
3175000000  -3.087272e+001  6.682396e+001 
3178125000  -3.055657e+001  6.794730e+001 
3181250000  -2.962213e+001  6.179437e+001 
3184375000  -2.892052e+001  4.905886e+001 
3187500000  -3.017332e+001  3.407687e+001 
3190625000  -3.280986e+001  2.651449e+001 
3193750000  -3.325550e+001  3.489062e+001 
3196875000  -3.295576e+001  3.932608e+001 
3200000000  -3.193444e+001  3.656047e+001 
3203125000  -3.113732e+001  2.973222e+001 
3206250000  -3.151427e+001  2.313029e+001 
3209375000  -3.108044e+001  1.689089e+001 
3212500000  -3.131616e+001  1.001253e+001 
3215625000  -3.134696e+001  7.120754e+000 
3218750000  -3.213099e+001  -6.481169e-001 
3221875000  -3.289113e+001  -6.794252e+000 
3225000000  -3.245739e+001  -7.397124e+000 
3228125000  -3.296070e+001  -1.271043e+001 
3231250000  -3.362249e+001  -1.510385e+001 
3234375000  -3.336373e+001  -1.542339e+001 
3237500000  -3.327685e+001  -1.682249e+001 
3240625000  -3.287918e+001  -1.963409e+001 
3243750000  -3.252246e+001  -2.753131e+001 
3246875000  -3.289303e+001  -3.416723e+001 
3250000000  -3.342786e+001  -3.674877e+001 
3253125000  -3.340318e+001  -3.871582e+001 
3256250000  -3.306063e+001  -4.594171e+001 
3259375000  -3.335296e+001  -5.471920e+001 
3262500000  -3.455546e+001  -5.776228e+001 
3265625000  -3.517773e+001  -5.565954e+001 
3268750000  -3.510399e+001  -5.355398e+001 
3271875000  -3.454418e+001  -5.369860e+001 
3275000000  -3.360401e+001  -6.073382e+001 
3278125000  -3.416947e+001  -6.738245e+001 
3281250000  -3.432489e+001  -6.604401e+001 
3284375000  -3.386588e+001  -7.259011e+001 
3287500000  -3.411343e+001  -7.658130e+001 
3290625000  -3.428589e+001  -8.284335e+001 
3293750000  -3.401799e+001  -8.853968e+001 
3296875000  -3.504372e+001  -8.839140e+001 
3300000000  -3.472954e+001  -8.828866e+001 
3303125000  -3.362519e+001  -9.374629e+001 
3306250000  -3.342932e+001  -1.004349e+002 
3309375000  -3.311936e+001  -1.073537e+002 
3312500000  -3.321049e+001  -1.189942e+002 
3315625000  -3.433367e+001  -1.262161e+002 
3318750000  -3.577678e+001  -1.284789e+002 
3321875000  -3.684399e+001  -1.288428e+002 
3325000000  -3.722660e+001  -1.232504e+002 
3328125000  -3.676681e+001  -1.224891e+002 
3331250000  -3.540830e+001  -1.165932e+002 
3334375000  -3.277371e+001  -1.273475e+002 
3337500000  -3.299818e+001  -1.475972e+002 
3340625000  -3.446989e+001  -1.576809e+002 
3343750000  -3.636230e+001  -1.580909e+002 
3346875000  -3.642961e+001  -1.570527e+002 
3350000000  -3.580159e+001  -1.590908e+002 
3353125000  -3.598730e+001  -1.642648e+002 
3356250000  -3.542506e+001  -1.728294e+002 
3359375000  -3.628580e+001  1.795038e+002 
3362500000  -3.735753e+001  1.739780e+002 
3365625000  -3.769989e+001  1.729404e+002 
3368750000  -3.862584e+001  1.697841e+002 
3371875000  -3.874233e+001  1.667813e+002 
3375000000  -4.020753e+001  1.653483e+002 
3378125000  -4.110228e+001  1.648416e+002 
3381250000  -4.253062e+001  1.740340e+002 
3384375000  -4.076751e+001  -1.658582e+002 
3387500000  -3.735517e+001  1.775780e+002 
3390625000  -3.909915e+001  1.583179e+002 
3393750000  -4.034727e+001  1.619545e+002 
3396875000  -3.902615e+001  1.626711e+002 
3400000000  -3.857661e+001  1.550613e+002 
3403125000  -3.905847e+001  1.480999e+002 
3406250000  -3.948955e+001  1.491608e+002 
3409375000  -3.976596e+001  1.411795e+002 
3412500000  -4.013027e+001  1.389947e+002 
3415625000  -4.079282e+001  1.395468e+002 
3418750000  -4.112285e+001  1.420696e+002 
3421875000  -4.122478e+001  1.457447e+002 
3425000000  -4.014239e+001  1.443621e+002 
3428125000  -3.919339e+001  1.396025e+002 
3431250000  -3.918748e+001  1.315052e+002 
3434375000  -3.910949e+001  1.273657e+002 
3437500000  -3.971957e+001  1.230751e+002 
3440625000  -3.985038e+001  1.254386e+002 
3443750000  -3.870551e+001  1.261644e+002 
3446875000  -3.776348e+001  1.179118e+002 
3450000000  -3.736734e+001  1.062884e+002 
3453125000  -3.800333e+001  9.725230e+001 
3456250000  -3.899310e+001  9.144806e+001 
3459375000  -4.010307e+001  9.311316e+001 
3462500000  -3.984184e+001  9.237092e+001 
3465625000  -3.982092e+001  8.805703e+001 
3468750000  -3.994439e+001  8.395654e+001 
3471875000  -3.992440e+001  8.015209e+001 
3475000000  -3.953901e+001  7.503764e+001 
3478125000  -4.024414e+001  6.912000e+001 
3481250000  -4.118786e+001  6.608106e+001 
3484375000  -4.216704e+001  7.054864e+001 
3487500000  -4.112120e+001  6.890794e+001 
3490625000  -4.053279e+001  6.591431e+001 
3493750000  -4.117766e+001  5.577716e+001 
3496875000  -4.215639e+001  5.569613e+001 
3500000000  -4.221885e+001  5.952887e+001 
3503125000  -4.199191e+001  6.148876e+001 
3506250000  -4.041101e+001  5.636584e+001 
3509375000  -4.053230e+001  4.564278e+001 
3512500000  -4.106536e+001  3.680379e+001 
3515625000  -4.197878e+001  3.459659e+001 
3518750000  -4.266884e+001  3.492213e+001 
3521875000  -4.252728e+001  3.272616e+001 
3525000000  -4.355964e+001  2.898488e+001 
3528125000  -4.325079e+001  3.585064e+001 
3531250000  -4.188566e+001  3.505667e+001 
3534375000  -4.220422e+001  2.511992e+001 
3537500000  -4.266922e+001  2.038058e+001 
3540625000  -4.372659e+001  2.014551e+001 
3543750000  -4.464310e+001  2.346108e+001 
3546875000  -4.402958e+001  3.488862e+001 
3550000000  -4.165133e+001  3.711165e+001 
3553125000  -4.023433e+001  1.759760e+001 
3556250000  -4.178806e+001  1.253970e+001 
3559375000  -4.131024e+001  1.490087e+001 
3562500000  -4.028739e+001  3.330652e+000 
3565625000  -4.122036e+001  -1.301521e+000 
3568750000  -4.143158e+001  -2.572907e-001 
3571875000  -4.116189e+001  -1.393324e+000 
3575000000  -4.078561e+001  -8.053524e+000 
3578125000  -4.129951e+001  -1.292964e+001 
3581250000  -4.142325e+001  -1.389928e+001 
3584375000  -4.070022e+001  -1.563193e+001 
3587500000  -4.000282e+001  -2.538969e+001 
3590625000  -4.045077e+001  -3.432386e+001 
3593750000  -4.165714e+001  -3.701225e+001 
3596875000  -4.174122e+001  -3.009671e+001 
3600000000  -4.020161e+001  -3.826295e+001 
3603125000  -4.032279e+001  -5.069448e+001 
3606250000  -4.138848e+001  -5.506942e+001 
3609375000  -4.196208e+001  -6.017701e+001 
3612500000  -4.245656e+001  -6.259337e+001 
3615625000  -4.273353e+001  -6.596192e+001 
3618750000  -4.353451e+001  -6.622175e+001 
3621875000  -4.370834e+001  -6.652932e+001 
3625000000  -4.379887e+001  -7.155798e+001 
3628125000  -4.392849e+001  -7.230737e+001 
3631250000  -4.379369e+001  -7.681276e+001 
3634375000  -4.483651e+001  -7.802469e+001 
3637500000  -4.520847e+001  -7.256150e+001 
3640625000  -4.433049e+001  -7.216753e+001 
3643750000  -4.421003e+001  -7.683001e+001 
3646875000  -4.465446e+001  -8.288321e+001 
3650000000  -4.604073e+001  -8.396642e+001 
3653125000  -4.551854e+001  -8.537045e+001 
3656250000  -4.573769e+001  -8.584872e+001 
3659375000  -4.595084e+001  -8.060435e+001 
3662500000  -4.503921e+001  -8.535266e+001 
3665625000  -4.476506e+001  -8.153663e+001 
3668750000  -4.388362e+001  -8.053562e+001 
3671875000  -4.279990e+001  -8.724838e+001 
3675000000  -4.331763e+001  -9.675726e+001 
3678125000  -4.331518e+001  -9.712937e+001 
3681250000  -4.331176e+001  -1.009660e+002 
3684375000  -4.274368e+001  -1.055729e+002 
3687500000  -4.343931e+001  -1.096373e+002 
3690625000  -4.307860e+001  -1.115615e+002 
3693750000  -4.417352e+001  -1.117187e+002 
3696875000  -4.384180e+001  -1.092351e+002 
3700000000  -4.259885e+001  -1.160175e+002 
3703125000  -4.319513e+001  -1.202121e+002 
3706250000  -4.366941e+001  -1.215363e+002 
3709375000  -4.355656e+001  -1.186441e+002 
3712500000  -4.206697e+001  -1.232933e+002 
3715625000  -4.179309e+001  -1.279959e+002 
3718750000  -4.125719e+001  -1.344804e+002 
3721875000  -4.108683e+001  -1.422474e+002 
3725000000  -4.142545e+001  -1.486183e+002 
3728125000  -4.208486e+001  -1.473399e+002 
3731250000  -4.150535e+001  -1.515598e+002 
3734375000  -4.090948e+001  -1.582328e+002 
3737500000  -4.187479e+001  -1.663376e+002 
3740625000  -4.283302e+001  -1.676581e+002 
3743750000  -4.299078e+001  -1.723547e+002 
3746875000  -4.328560e+001  -1.750493e+002 
3750000000  -4.371212e+001  -1.766669e+002 
3753125000  -4.373585e+001  -1.765254e+002 
3756250000  -4.445143e+001  -1.751834e+002 
3759375000  -4.438687e+001  -1.775603e+002 
3762500000  -4.397813e+001  1.796636e+002 
3765625000  -4.474268e+001  1.792802e+002 
3768750000  -4.467953e+001  -1.793130e+002 
3771875000  -4.299123e+001  -1.788448e+002 
3775000000  -4.268155e+001  1.742517e+002 
3778125000  -4.346355e+001  1.736875e+002 
3781250000  -4.324525e+001  1.754043e+002 
3784375000  -4.301547e+001  1.741661e+002 
3787500000  -4.210460e+001  1.689911e+002 
3790625000  -4.224764e+001  1.621294e+002 
3793750000  -4.280994e+001  1.626239e+002 
3796875000  -4.136161e+001  1.597086e+002 
3800000000  -3.984885e+001  1.590123e+002 
3803125000  -4.069770e+001  1.486912e+002 
3806250000  -4.122317e+001  1.473033e+002 
3809375000  -4.085211e+001  1.453492e+002 
3812500000  -4.009493e+001  1.365733e+002 
3815625000  -4.056527e+001  1.285061e+002 
3818750000  -4.164755e+001  1.294211e+002 
3821875000  -4.139581e+001  1.353496e+002 
3825000000  -3.964294e+001  1.392558e+002 
3828125000  -3.795772e+001  1.219424e+002 
3831250000  -3.894463e+001  1.077359e+002 
3834375000  -4.032636e+001  1.053077e+002 
3837500000  -4.120887e+001  1.107332e+002 
3840625000  -3.988301e+001  1.079758e+002 
3843750000  -3.909560e+001  9.627981e+001 
3846875000  -3.994814e+001  8.963984e+001 
3850000000  -4.108463e+001  9.466095e+001 
3853125000  -4.043003e+001  9.611184e+001 
3856250000  -4.015488e+001  8.978763e+001 
3859375000  -3.956054e+001  8.630561e+001 
3862500000  -3.924191e+001  7.720973e+001 
3865625000  -3.996413e+001  7.249117e+001 
3868750000  -3.969296e+001  6.941987e+001 
3871875000  -3.911993e+001  6.821097e+001 
3875000000  -3.939572e+001  5.721110e+001 
3878125000  -4.071094e+001  5.608489e+001 
3881250000  -4.058112e+001  5.796122e+001 
3884375000  -4.026742e+001  5.273093e+001 
3887500000  -4.017742e+001  4.891663e+001 
3890625000  -4.096434e+001  4.454340e+001 
3893750000  -4.138760e+001  4.252479e+001 
3896875000  -4.143026e+001  4.533144e+001 
3900000000  -4.174347e+001  4.371523e+001 
3903125000  -4.146229e+001  4.070778e+001 
3906250000  -4.091976e+001  3.727423e+001 
3909375000  -3.983001e+001  3.487270e+001 
3912500000  -4.011697e+001  2.664190e+001 
3915625000  -4.158406e+001  2.716890e+001 
3918750000  -4.109585e+001  2.825623e+001 
3921875000  -4.077892e+001  2.661889e+001 
3925000000  -4.002266e+001  2.294641e+001 
3928125000  -3.930531e+001  1.573979e+001 
3931250000  -3.960997e+001  1.147269e+001 
3934375000  -4.003162e+001  1.019551e+001 
3937500000  -4.023386e+001  9.181069e+000 
3940625000  -4.034774e+001  7.229735e+000 
3943750000  -3.937937e+001  7.375201e+000 
3946875000  -3.843436e+001  1.781299e+000 
3950000000  -3.912841e+001  -7.314876e+000 
3953125000  -4.025325e+001  -9.183177e+000 
3956250000  -3.893517e+001  -7.569688e+000 
3959375000  -3.775165e+001  -1.196842e+001 
3962500000  -3.731940e+001  -1.458907e+001 
3965625000  -3.755035e+001  -2.545625e+001 
3968750000  -3.838675e+001  -3.136249e+001 
3971875000  -3.838480e+001  -3.494386e+001 
3975000000  -3.776795e+001  -3.635148e+001 
3978125000  -3.773086e+001  -4.026375e+001 
3981250000  -3.780593e+001  -4.469944e+001 
3984375000  -3.807110e+001  -5.258766e+001 
3987500000  -3.873232e+001  -5.384431e+001 
3990625000  -3.856805e+001  -5.557657e+001 
3993750000  -3.907229e+001  -6.014687e+001 
3996875000  -3.906110e+001  -6.613970e+001 
4000000000  -3.931239e+001  -6.414420e+001 
4003125000  -3.981282e+001  -6.237965e+001 
4006250000  -3.817043e+001  -6.425007e+001 
4009375000  -3.724545e+001  -7.697299e+001 
4012500000  -3.825895e+001  -8.567872e+001 
4015625000  -4.001777e+001  -8.536700e+001 
4018750000  -3.971815e+001  -8.332143e+001 
4021875000  -3.906062e+001  -8.555655e+001 
4025000000  -3.895935e+001  -8.987131e+001 
4028125000  -3.876436e+001  -9.573359e+001 
4031250000  -3.952419e+001  -9.956065e+001 
4034375000  -3.975798e+001  -9.698660e+001 
4037500000  -3.914008e+001  -9.643274e+001 
4040625000  -3.908316e+001  -1.006950e+002 
4043750000  -3.929427e+001  -1.037018e+002 
4046875000  -3.877211e+001  -1.035936e+002 
4050000000  -3.842505e+001  -1.111685e+002 
4053125000  -3.897495e+001  -1.125426e+002 
4056250000  -3.958744e+001  -1.091279e+002 
4059375000  -3.795890e+001  -1.081595e+002 
4062500000  -3.674155e+001  -1.146453e+002 
4065625000  -3.660340e+001  -1.187907e+002 
4068750000  -3.645679e+001  -1.252900e+002 
4071875000  -3.560154e+001  -1.344173e+002 
4075000000  -3.599289e+001  -1.398667e+002 
4078125000  -3.676478e+001  -1.427422e+002 
4081250000  -3.612530e+001  -1.470841e+002 
4084375000  -3.577012e+001  -1.545141e+002 
4087500000  -3.615826e+001  -1.607332e+002 
4090625000  -3.695547e+001  -1.618752e+002 
4093750000  -3.666031e+001  -1.633272e+002 
4096875000  -3.615111e+001  -1.701574e+002 
4100000000  -3.706735e+001  -1.775259e+002 
4103125000  -3.794027e+001  -1.761654e+002 
4106250000  -3.780716e+001  -1.714302e+002 
4109375000  -3.659924e+001  -1.755368e+002 
4112500000  -3.626082e+001  1.772313e+002 
4115625000  -3.665525e+001  1.721707e+002 
4118750000  -3.675651e+001  1.672453e+002 
4121875000  -3.647403e+001  1.621132e+002 
4125000000  -3.692861e+001  1.563602e+002 
4128125000  -3.782343e+001  1.565758e+002 
4131250000  -3.767211e+001  1.645711e+002 
4134375000  -3.530301e+001  1.577370e+002 
4137500000  -3.524759e+001  1.368812e+002 
4140625000  -3.764282e+001  1.312115e+002 
4143750000  -3.879370e+001  1.354247e+002 
4146875000  -3.836423e+001  1.409067e+002 
4150000000  -3.734961e+001  1.370198e+002 
4153125000  -3.728241e+001  1.303675e+002 
4156250000  -3.831217e+001  1.274683e+002 
4159375000  -3.863050e+001  1.314854e+002 
4162500000  -3.786775e+001  1.363504e+002 
4165625000  -3.659882e+001  1.310267e+002 
4168750000  -3.574869e+001  1.221747e+002 
4171875000  -3.593216e+001  1.124796e+002 
4175000000  -3.664248e+001  1.081559e+002 
4178125000  -3.722836e+001  1.062897e+002 
4181250000  -3.671767e+001  1.056422e+002 
4184375000  -3.666899e+001  1.009789e+002 
4187500000  -3.677978e+001  9.802727e+001 
4190625000  -3.646607e+001  9.246237e+001 
4193750000  -3.745713e+001  8.835072e+001 
4196875000  -3.817122e+001  8.744087e+001 
4200000000  -3.905789e+001  8.877277e+001 
4203125000  -3.880998e+001  1.044339e+002 
4206250000  -3.503650e+001  1.011312e+002 
4209375000  -3.414680e+001  7.982201e+001 
4212500000  -3.645592e+001  7.160261e+001 
4215625000  -3.701734e+001  7.729900e+001 
4218750000  -3.562619e+001  8.261660e+001 
4221875000  -3.355069e+001  7.283292e+001 
4225000000  -3.484893e+001  6.106900e+001 
4228125000  -3.498195e+001  6.382868e+001 
4231250000  -3.360609e+001  5.746913e+001 
4234375000  -3.340899e+001  4.872680e+001 
4237500000  -3.308291e+001  4.467797e+001 
4240625000  -3.326864e+001  3.414670e+001 
4243750000  -3.421377e+001  2.665851e+001 
4246875000  -3.501696e+001  2.601853e+001 
4250000000  -3.505113e+001  2.856335e+001 
4253125000  -3.451467e+001  2.394349e+001 
4256250000  -3.490262e+001  2.017921e+001 
4259375000  -3.451270e+001  1.585611e+001 
4262500000  -3.491068e+001  1.120278e+001 
4265625000  -3.486501e+001  1.077650e+001 
4268750000  -3.405260e+001  6.114778e+000 
4271875000  -3.384503e+001  -1.671028e+000 
4275000000  -3.344543e+001  -7.934261e+000 
4278125000  -3.420166e+001  -2.005777e+001 
4281250000  -3.590624e+001  -2.280578e+001 
4284375000  -3.557166e+001  -2.315727e+001 
4287500000  -3.680002e+001  -2.646556e+001 
4290625000  -3.784047e+001  -1.666144e+001 
4293750000  -3.587727e+001  -1.208458e+001 
4296875000  -3.490630e+001  -2.432251e+001 
4300000000  -3.584479e+001  -3.344425e+001 
4303125000  -3.709143e+001  -3.146340e+001 
4306250000  -3.633627e+001  -2.455133e+001 
4309375000  -3.489959e+001  -2.841716e+001 
4312500000  -3.475557e+001  -3.748226e+001 
4315625000  -3.501661e+001  -4.412866e+001 
4318750000  -3.541019e+001  -4.693320e+001 
4321875000  -3.537088e+001  -4.546553e+001 
4325000000  -3.476210e+001  -4.648324e+001 
4328125000  -3.419857e+001  -5.331972e+001 
4331250000  -3.395049e+001  -6.166437e+001 
4334375000  -3.446738e+001  -6.692047e+001 
4337500000  -3.540552e+001  -7.029841e+001 
4340625000  -3.574890e+001  -6.626605e+001 
4343750000  -3.487966e+001  -6.764567e+001 
4346875000  -3.452396e+001  -7.436620e+001 
4350000000  -3.444002e+001  -7.864722e+001 
4353125000  -3.446046e+001  -8.778724e+001 
4356250000  -3.631390e+001  -8.989365e+001 
4359375000  -3.661183e+001  -7.296467e+001 
4362500000  -3.344548e+001  -7.546622e+001 
4365625000  -3.191321e+001  -9.077245e+001 
4368750000  -3.271595e+001  -1.027925e+002 
4371875000  -3.381802e+001  -1.022068e+002 
4375000000  -3.321101e+001  -1.037753e+002 
4378125000  -3.274977e+001  -1.104389e+002 
4381250000  -3.283739e+001  -1.176022e+002 
4384375000  -3.273386e+001  -1.236454e+002 
4387500000  -3.343917e+001  -1.300931e+002 
4390625000  -3.456517e+001  -1.304824e+002 
4393750000  -3.374953e+001  -1.299828e+002 
4396875000  -3.323180e+001  -1.337114e+002 
4400000000  -3.281861e+001  -1.416544e+002 
4403125000  -3.347942e+001  -1.506217e+002 
4406250000  -3.435770e+001  -1.534294e+002 
4409375000  -3.440752e+001  -1.572816e+002 
4412500000  -3.574161e+001  -1.601828e+002 
4415625000  -3.595848e+001  -1.554202e+002 
