!Agilent Technologies,E8363B,MY43030201,A.06.04.32
!Agilent E8363B: A.06.04.32
!Date: Tuesday, November 11, 2014 21:06:25
!Correction: S21(Response(S21)) 
!S1P File: Measurement: S21:
# Hz S  dB   R 50
3000000000  -3.648320e+001  -4.973204e+001 
3003125000  -3.760915e+001  -5.575755e+001 
3006250000  -3.747234e+001  -5.760721e+001 
3009375000  -3.774252e+001  -5.386333e+001 
3012500000  -3.709810e+001  -5.581642e+001 
3015625000  -3.603450e+001  -6.316492e+001 
3018750000  -3.686961e+001  -6.482051e+001 
3021875000  -3.553751e+001  -6.307172e+001 
3025000000  -3.412019e+001  -6.686237e+001 
3028125000  -3.317801e+001  -7.319691e+001 
3031250000  -3.216351e+001  -8.465192e+001 
3034375000  -3.179635e+001  -9.826765e+001 
3037500000  -3.225179e+001  -1.102502e+002 
3040625000  -3.352905e+001  -1.148155e+002 
3043750000  -3.418502e+001  -1.199431e+002 
3046875000  -3.442058e+001  -1.257931e+002 
3050000000  -3.602639e+001  -1.326639e+002 
3053125000  -3.604376e+001  -1.263218e+002 
3056250000  -3.555301e+001  -1.235187e+002 
3059375000  -3.568932e+001  -1.225221e+002 
3062500000  -3.415903e+001  -1.272399e+002 
3065625000  -3.400039e+001  -1.328098e+002 
3068750000  -3.355780e+001  -1.405075e+002 
3071875000  -3.355110e+001  -1.423650e+002 
3075000000  -3.339528e+001  -1.460680e+002 
3078125000  -3.300184e+001  -1.505829e+002 
3081250000  -3.354664e+001  -1.548987e+002 
3084375000  -3.262033e+001  -1.582957e+002 
3087500000  -3.246399e+001  -1.626682e+002 
3090625000  -3.201387e+001  -1.727059e+002 
3093750000  -3.240289e+001  1.798366e+002 
3096875000  -3.345984e+001  1.738384e+002 
3100000000  -3.336381e+001  1.715394e+002 
3103125000  -3.359171e+001  1.725046e+002 
3106250000  -3.313625e+001  1.684358e+002 
3109375000  -3.317699e+001  1.644685e+002 
3112500000  -3.315370e+001  1.617958e+002 
3115625000  -3.291977e+001  1.572033e+002 
3118750000  -3.315947e+001  1.573231e+002 
3121875000  -3.233427e+001  1.480143e+002 
3125000000  -3.346927e+001  1.436356e+002 
3128125000  -3.446778e+001  1.514481e+002 
3131250000  -3.208687e+001  1.495450e+002 
3134375000  -3.078940e+001  1.341668e+002 
3137500000  -3.125276e+001  1.200157e+002 
3140625000  -3.276057e+001  1.175010e+002 
3143750000  -3.382509e+001  1.184341e+002 
3146875000  -3.333855e+001  1.191463e+002 
3150000000  -3.235413e+001  1.197874e+002 
3153125000  -3.229953e+001  1.104432e+002 
3156250000  -3.328364e+001  1.151759e+002 
3159375000  -3.157333e+001  1.166584e+002 
3162500000  -2.969221e+001  1.022116e+002 
3165625000  -3.063916e+001  8.960749e+001 
3168750000  -3.103929e+001  8.965595e+001 
3171875000  -3.017113e+001  8.433576e+001 
3175000000  -3.093615e+001  7.552332e+001 
3178125000  -3.064429e+001  7.665088e+001 
3181250000  -2.957986e+001  7.128344e+001 
3184375000  -2.884101e+001  5.836351e+001 
3187500000  -3.004471e+001  4.298658e+001 
3190625000  -3.276000e+001  3.483578e+001 
3193750000  -3.335795e+001  4.381744e+001 
3196875000  -3.307092e+001  4.852778e+001 
3200000000  -3.204698e+001  4.520262e+001 
3203125000  -3.124724e+001  3.919550e+001 
3206250000  -3.153576e+001  3.213549e+001 
3209375000  -3.116931e+001  2.656507e+001 
3212500000  -3.133842e+001  1.947247e+001 
3215625000  -3.141282e+001  1.574585e+001 
3218750000  -3.216114e+001  7.971160e+000 
3221875000  -3.305651e+001  3.018694e+000 
3225000000  -3.266096e+001  1.743483e+000 
3228125000  -3.300515e+001  -3.371594e+000 
3231250000  -3.368590e+001  -6.185851e+000 
3234375000  -3.344412e+001  -6.310352e+000 
3237500000  -3.338619e+001  -7.931931e+000 
3240625000  -3.297411e+001  -1.037728e+001 
3243750000  -3.251857e+001  -1.839149e+001 
3246875000  -3.297719e+001  -2.563674e+001 
3250000000  -3.333485e+001  -2.723373e+001 
3253125000  -3.354363e+001  -2.929750e+001 
3256250000  -3.315368e+001  -3.578950e+001 
3259375000  -3.337399e+001  -4.515052e+001 
3262500000  -3.464049e+001  -4.856967e+001 
3265625000  -3.523040e+001  -4.584504e+001 
3268750000  -3.504923e+001  -4.383857e+001 
3271875000  -3.484629e+001  -4.379189e+001 
3275000000  -3.378508e+001  -5.085219e+001 
3278125000  -3.415825e+001  -5.753475e+001 
3281250000  -3.442644e+001  -5.645817e+001 
3284375000  -3.376647e+001  -6.286475e+001 
3287500000  -3.394883e+001  -6.741776e+001 
3290625000  -3.427185e+001  -7.284653e+001 
3293750000  -3.412542e+001  -7.866611e+001 
3296875000  -3.515065e+001  -7.944666e+001 
3300000000  -3.484545e+001  -7.856194e+001 
3303125000  -3.370955e+001  -8.416666e+001 
3306250000  -3.355029e+001  -9.100493e+001 
3309375000  -3.318093e+001  -9.739188e+001 
3312500000  -3.330951e+001  -1.085077e+002 
3315625000  -3.424791e+001  -1.164128e+002 
3318750000  -3.558349e+001  -1.194230e+002 
3321875000  -3.686058e+001  -1.195346e+002 
3325000000  -3.725677e+001  -1.142027e+002 
3328125000  -3.669941e+001  -1.141352e+002 
3331250000  -3.570012e+001  -1.069210e+002 
3334375000  -3.291391e+001  -1.171338e+002 
3337500000  -3.305644e+001  -1.373217e+002 
3340625000  -3.454636e+001  -1.477587e+002 
3343750000  -3.651172e+001  -1.493061e+002 
3346875000  -3.664005e+001  -1.467719e+002 
3350000000  -3.596753e+001  -1.493811e+002 
3353125000  -3.598973e+001  -1.533977e+002 
3356250000  -3.552808e+001  -1.622879e+002 
3359375000  -3.629758e+001  -1.705361e+002 
3362500000  -3.747255e+001  -1.756834e+002 
3365625000  -3.790738e+001  -1.773305e+002 
3368750000  -3.876791e+001  -1.798594e+002 
3371875000  -3.908968e+001  1.762265e+002 
3375000000  -4.035606e+001  1.742941e+002 
3378125000  -4.124596e+001  1.739635e+002 
3381250000  -4.247388e+001  -1.761019e+002 
3384375000  -4.081038e+001  -1.548739e+002 
3387500000  -3.749822e+001  -1.705806e+002 
3390625000  -3.931750e+001  1.681967e+002 
3393750000  -4.055447e+001  1.722369e+002 
3396875000  -3.917210e+001  1.740670e+002 
3400000000  -3.876893e+001  1.665031e+002 
3403125000  -3.917965e+001  1.601758e+002 
3406250000  -3.966383e+001  1.605578e+002 
3409375000  -3.990197e+001  1.512073e+002 
3412500000  -4.007859e+001  1.495685e+002 
3415625000  -4.092888e+001  1.513600e+002 
3418750000  -4.090245e+001  1.515070e+002 
3421875000  -4.111051e+001  1.544411e+002 
3425000000  -4.022696e+001  1.545041e+002 
3428125000  -3.949606e+001  1.519470e+002 
3431250000  -3.916015e+001  1.437719e+002 
3434375000  -3.930677e+001  1.373489e+002 
3437500000  -3.972017e+001  1.341630e+002 
3440625000  -3.996555e+001  1.349718e+002 
3443750000  -3.871241e+001  1.359262e+002 
3446875000  -3.795432e+001  1.283574e+002 
3450000000  -3.764540e+001  1.178301e+002 
3453125000  -3.800188e+001  1.076489e+002 
3456250000  -3.908519e+001  1.017435e+002 
3459375000  -3.996410e+001  1.021353e+002 
3462500000  -3.979687e+001  1.028847e+002 
3465625000  -3.984507e+001  9.808389e+001 
3468750000  -4.041702e+001  9.345395e+001 
3471875000  -4.009004e+001  9.167550e+001 
3475000000  -3.980022e+001  8.668273e+001 
3478125000  -4.052946e+001  8.081948e+001 
3481250000  -4.143826e+001  7.744667e+001 
3484375000  -4.220105e+001  8.157747e+001 
3487500000  -4.122596e+001  7.957561e+001 
3490625000  -4.068780e+001  7.531476e+001 
3493750000  -4.131570e+001  6.957483e+001 
3496875000  -4.161277e+001  6.651347e+001 
3500000000  -4.247842e+001  6.863205e+001 
3503125000  -4.206219e+001  7.181580e+001 
3506250000  -4.076592e+001  6.636491e+001 
3509375000  -4.078442e+001  5.717853e+001 
3512500000  -4.107589e+001  4.929234e+001 
3515625000  -4.223409e+001  4.757016e+001 
3518750000  -4.290375e+001  4.792693e+001 
3521875000  -4.251051e+001  4.509413e+001 
3525000000  -4.358069e+001  4.112381e+001 
3528125000  -4.340667e+001  4.761721e+001 
3531250000  -4.212257e+001  4.830107e+001 
3534375000  -4.254404e+001  3.706909e+001 
3537500000  -4.237177e+001  3.156288e+001 
3540625000  -4.351132e+001  3.061385e+001 
3543750000  -4.413924e+001  3.539806e+001 
3546875000  -4.452889e+001  4.766508e+001 
3550000000  -4.162411e+001  4.588466e+001 
3553125000  -4.010072e+001  2.866156e+001 
3556250000  -4.176057e+001  2.271726e+001 
3559375000  -4.144521e+001  2.449363e+001 
3562500000  -4.022313e+001  1.585401e+001 
3565625000  -4.130390e+001  8.895227e+000 
3568750000  -4.118242e+001  1.132733e+001 
3571875000  -4.124234e+001  1.072968e+001 
3575000000  -4.077442e+001  1.266279e+000 
3578125000  -4.123129e+001  -3.742093e+000 
3581250000  -4.141203e+001  -4.840619e+000 
3584375000  -4.052253e+001  -6.318575e+000 
3587500000  -4.003199e+001  -1.511878e+001 
3590625000  -4.054808e+001  -2.504317e+001 
3593750000  -4.185772e+001  -2.897420e+001 
3596875000  -4.196374e+001  -2.124146e+001 
3600000000  -4.023953e+001  -2.732583e+001 
3603125000  -4.086483e+001  -4.258655e+001 
3606250000  -4.142314e+001  -4.462034e+001 
3609375000  -4.221953e+001  -4.780528e+001 
3612500000  -4.287241e+001  -5.279595e+001 
3615625000  -4.301887e+001  -5.522265e+001 
3618750000  -4.371134e+001  -5.340613e+001 
3621875000  -4.388622e+001  -5.970658e+001 
3625000000  -4.398449e+001  -5.893420e+001 
3628125000  -4.453672e+001  -6.077885e+001 
3631250000  -4.412478e+001  -6.489371e+001 
3634375000  -4.551859e+001  -6.794542e+001 
3637500000  -4.564642e+001  -6.251728e+001 
3640625000  -4.432392e+001  -5.861165e+001 
3643750000  -4.463290e+001  -6.510838e+001 
3646875000  -4.476050e+001  -6.957232e+001 
3650000000  -4.567556e+001  -6.969218e+001 
3653125000  -4.553320e+001  -6.779868e+001 
3656250000  -4.567369e+001  -7.324074e+001 
3659375000  -4.595181e+001  -6.862381e+001 
3662500000  -4.525790e+001  -6.978259e+001 
3665625000  -4.460536e+001  -7.099848e+001 
3668750000  -4.361958e+001  -6.817979e+001 
3671875000  -4.283527e+001  -7.729372e+001 
3675000000  -4.323645e+001  -8.541772e+001 
3678125000  -4.319758e+001  -8.449597e+001 
3681250000  -4.297023e+001  -8.889085e+001 
3684375000  -4.292030e+001  -9.283402e+001 
3687500000  -4.311402e+001  -9.739686e+001 
3690625000  -4.314632e+001  -9.859451e+001 
3693750000  -4.404580e+001  -9.999309e+001 
3696875000  -4.341423e+001  -9.916912e+001 
3700000000  -4.271122e+001  -1.026313e+002 
3703125000  -4.274114e+001  -1.115846e+002 
3706250000  -4.380860e+001  -1.106770e+002 
3709375000  -4.368022e+001  -1.091851e+002 
3712500000  -4.237224e+001  -1.114838e+002 
3715625000  -4.174778e+001  -1.170389e+002 
3718750000  -4.142906e+001  -1.243814e+002 
3721875000  -4.133397e+001  -1.311598e+002 
3725000000  -4.146775e+001  -1.369049e+002 
3728125000  -4.162513e+001  -1.393000e+002 
3731250000  -4.155365e+001  -1.414109e+002 
3734375000  -4.097453e+001  -1.475411e+002 
3737500000  -4.209811e+001  -1.564570e+002 
3740625000  -4.306397e+001  -1.564151e+002 
3743750000  -4.305519e+001  -1.597276e+002 
3746875000  -4.337616e+001  -1.650599e+002 
3750000000  -4.389256e+001  -1.634702e+002 
3753125000  -4.412850e+001  -1.661158e+002 
3756250000  -4.466107e+001  -1.624559e+002 
3759375000  -4.445622e+001  -1.614691e+002 
3762500000  -4.428631e+001  -1.660823e+002 
3765625000  -4.452752e+001  -1.661956e+002 
3768750000  -4.447469e+001  -1.611365e+002 
3771875000  -4.302915e+001  -1.636661e+002 
3775000000  -4.283221e+001  -1.702173e+002 
3778125000  -4.336450e+001  -1.720971e+002 
3781250000  -4.307246e+001  -1.715761e+002 
3784375000  -4.239384e+001  -1.750031e+002 
3787500000  -4.185514e+001  -1.771329e+002 
3790625000  -4.249439e+001  1.768688e+002 
3793750000  -4.213808e+001  1.743102e+002 
3796875000  -4.108366e+001  1.723832e+002 
3800000000  -3.972770e+001  1.714815e+002 
3803125000  -4.058067e+001  1.614876e+002 
3806250000  -4.104975e+001  1.589144e+002 
3809375000  -4.064328e+001  1.562866e+002 
3812500000  -3.977696e+001  1.498224e+002 
3815625000  -4.072906e+001  1.412626e+002 
3818750000  -4.136291e+001  1.393718e+002 
3821875000  -4.109140e+001  1.489599e+002 
3825000000  -3.938793e+001  1.489183e+002 
3828125000  -3.799035e+001  1.353252e+002 
3831250000  -3.854935e+001  1.192732e+002 
3834375000  -4.010825e+001  1.188824e+002 
3837500000  -4.123714e+001  1.224568e+002 
3840625000  -3.985166e+001  1.199957e+002 
3843750000  -3.898814e+001  1.077142e+002 
3846875000  -3.986624e+001  1.020048e+002 
3850000000  -4.127791e+001  1.062266e+002 
3853125000  -4.029623e+001  1.083109e+002 
3856250000  -4.027660e+001  1.019470e+002 
3859375000  -3.947394e+001  9.470905e+001 
3862500000  -3.948925e+001  8.909031e+001 
3865625000  -3.977095e+001  8.370203e+001 
3868750000  -3.950613e+001  8.258115e+001 
3871875000  -3.918439e+001  7.888355e+001 
3875000000  -3.925958e+001  6.989085e+001 
3878125000  -4.033774e+001  6.888036e+001 
3881250000  -4.066675e+001  6.957677e+001 
3884375000  -3.981752e+001  6.529695e+001 
3887500000  -4.030677e+001  5.911648e+001 
3890625000  -4.083461e+001  5.738606e+001 
3893750000  -4.084320e+001  5.492625e+001 
3896875000  -4.154670e+001  5.600386e+001 
3900000000  -4.159400e+001  5.413248e+001 
3903125000  -4.109715e+001  5.164565e+001 
3906250000  -4.088604e+001  4.959852e+001 
3909375000  -3.988213e+001  4.757825e+001 
3912500000  -4.006470e+001  3.719987e+001 
3915625000  -4.145127e+001  4.010851e+001 
3918750000  -4.117281e+001  4.176323e+001 
3921875000  -4.086322e+001  3.738126e+001 
3925000000  -3.995065e+001  3.620711e+001 
3928125000  -3.917892e+001  2.878845e+001 
3931250000  -3.955397e+001  2.470518e+001 
3934375000  -3.984543e+001  2.301483e+001 
3937500000  -3.993660e+001  2.108144e+001 
3940625000  -4.043333e+001  2.034328e+001 
3943750000  -3.931691e+001  2.046358e+001 
3946875000  -3.825399e+001  1.377990e+001 
3950000000  -3.909679e+001  6.198115e+000 
3953125000  -3.992699e+001  4.733853e+000 
3956250000  -3.905798e+001  6.227365e+000 
3959375000  -3.781951e+001  2.949636e+000 
3962500000  -3.745847e+001  -1.858874e+000 
3965625000  -3.726545e+001  -1.288907e+001 
3968750000  -3.820709e+001  -2.016147e+001 
3971875000  -3.850356e+001  -2.328864e+001 
3975000000  -3.794211e+001  -2.581905e+001 
3978125000  -3.792440e+001  -2.781062e+001 
3981250000  -3.777698e+001  -3.364350e+001 
3984375000  -3.810859e+001  -3.927139e+001 
3987500000  -3.857446e+001  -4.230143e+001 
3990625000  -3.845014e+001  -4.365853e+001 
3993750000  -3.885088e+001  -4.901536e+001 
3996875000  -3.892753e+001  -5.179584e+001 
4000000000  -3.946835e+001  -5.274520e+001 
4003125000  -3.977420e+001  -5.153690e+001 
4006250000  -3.829238e+001  -5.244173e+001 
4009375000  -3.743550e+001  -6.752061e+001 
4012500000  -3.856322e+001  -7.255811e+001 
4015625000  -3.975474e+001  -7.234042e+001 
4018750000  -3.984130e+001  -7.218304e+001 
4021875000  -3.919251e+001  -7.355256e+001 
4025000000  -3.898170e+001  -7.740652e+001 
4028125000  -3.884193e+001  -8.149330e+001 
4031250000  -3.935363e+001  -8.571838e+001 
4034375000  -3.968643e+001  -8.659793e+001 
4037500000  -3.904457e+001  -8.563596e+001 
4040625000  -3.907410e+001  -8.817899e+001 
4043750000  -3.933802e+001  -9.122211e+001 
4046875000  -3.892031e+001  -9.274392e+001 
4050000000  -3.850304e+001  -9.878423e+001 
4053125000  -3.891655e+001  -1.015884e+002 
4056250000  -3.957332e+001  -9.617873e+001 
4059375000  -3.826287e+001  -9.565104e+001 
4062500000  -3.685518e+001  -1.018164e+002 
4065625000  -3.651497e+001  -1.071246e+002 
4068750000  -3.637639e+001  -1.143908e+002 
4071875000  -3.579783e+001  -1.212650e+002 
4075000000  -3.613840e+001  -1.286616e+002 
4078125000  -3.670580e+001  -1.310836e+002 
4081250000  -3.637358e+001  -1.340103e+002 
4084375000  -3.571691e+001  -1.417520e+002 
4087500000  -3.620282e+001  -1.487325e+002 
4090625000  -3.684640e+001  -1.502531e+002 
4093750000  -3.660442e+001  -1.527356e+002 
4096875000  -3.614177e+001  -1.579912e+002 
4100000000  -3.697265e+001  -1.655379e+002 
4103125000  -3.790344e+001  -1.664914e+002 
4106250000  -3.757711e+001  -1.605912e+002 
4109375000  -3.679063e+001  -1.630080e+002 
4112500000  -3.615946e+001  -1.715011e+002 
4115625000  -3.647058e+001  -1.754470e+002 
4118750000  -3.682504e+001  -1.791586e+002 
4121875000  -3.633969e+001  1.745938e+002 
4125000000  -3.691327e+001  1.694924e+002 
4128125000  -3.783658e+001  1.690201e+002 
4131250000  -3.750582e+001  1.773061e+002 
4134375000  -3.531289e+001  1.699695e+002 
4137500000  -3.520505e+001  1.508297e+002 
4140625000  -3.753432e+001  1.431756e+002 
4143750000  -3.833119e+001  1.465333e+002 
4146875000  -3.826183e+001  1.555035e+002 
4150000000  -3.738438e+001  1.486814e+002 
4153125000  -3.753109e+001  1.413088e+002 
4156250000  -3.844488e+001  1.392766e+002 
4159375000  -3.879020e+001  1.448051e+002 
4162500000  -3.753739e+001  1.485657e+002 
4165625000  -3.649717e+001  1.434221e+002 
4168750000  -3.558815e+001  1.347704e+002 
4171875000  -3.595201e+001  1.248487e+002 
4175000000  -3.667684e+001  1.199454e+002 
4178125000  -3.714688e+001  1.182799e+002 
4181250000  -3.691613e+001  1.182675e+002 
4184375000  -3.666426e+001  1.146732e+002 
4187500000  -3.674986e+001  1.111993e+002 
4190625000  -3.664894e+001  1.044408e+002 
4193750000  -3.748460e+001  1.006939e+002 
4196875000  -3.826995e+001  1.009362e+002 
4200000000  -3.896521e+001  1.023575e+002 
4203125000  -3.868806e+001  1.145902e+002 
4206250000  -3.541801e+001  1.163151e+002 
4209375000  -3.433520e+001  9.277071e+001 
4212500000  -3.627646e+001  8.423549e+001 
4215625000  -3.712671e+001  9.009258e+001 
4218750000  -3.556623e+001  9.515742e+001 
4221875000  -3.346323e+001  8.518839e+001 
4225000000  -3.478702e+001  7.294495e+001 
4228125000  -3.525972e+001  7.755388e+001 
4231250000  -3.360837e+001  7.178417e+001 
4234375000  -3.336564e+001  6.158710e+001 
4237500000  -3.313242e+001  5.777223e+001 
4240625000  -3.310330e+001  4.726058e+001 
4243750000  -3.413601e+001  3.873055e+001 
4246875000  -3.513650e+001  3.931325e+001 
4250000000  -3.505707e+001  4.132931e+001 
4253125000  -3.451431e+001  3.716937e+001 
4256250000  -3.500957e+001  3.190336e+001 
4259375000  -3.470321e+001  2.866496e+001 
4262500000  -3.476549e+001  2.414933e+001 
4265625000  -3.488096e+001  2.324365e+001 
4268750000  -3.403382e+001  1.926141e+001 
4271875000  -3.392058e+001  1.142427e+001 
4275000000  -3.338937e+001  4.126235e+000 
4278125000  -3.417533e+001  -9.218814e+000 
4281250000  -3.616704e+001  -9.727874e+000 
4284375000  -3.587982e+001  -1.074883e+001 
4287500000  -3.663626e+001  -1.485197e+001 
4290625000  -3.794152e+001  -6.324865e+000 
4293750000  -3.626560e+001  3.374759e-001 
4296875000  -3.507933e+001  -1.208399e+001 
4300000000  -3.598672e+001  -2.146171e+001 
4303125000  -3.734697e+001  -1.918667e+001 
4306250000  -3.644670e+001  -1.310115e+001 
4309375000  -3.501348e+001  -1.577477e+001 
4312500000  -3.503793e+001  -2.405867e+001 
4315625000  -3.497048e+001  -3.033936e+001 
4318750000  -3.538310e+001  -3.400031e+001 
4321875000  -3.560668e+001  -3.338994e+001 
4325000000  -3.500566e+001  -3.244530e+001 
4328125000  -3.425101e+001  -3.877235e+001 
4331250000  -3.397398e+001  -4.831453e+001 
4334375000  -3.453917e+001  -5.335114e+001 
4337500000  -3.535511e+001  -5.648166e+001 
4340625000  -3.574961e+001  -5.310566e+001 
4343750000  -3.499545e+001  -5.431737e+001 
4346875000  -3.444529e+001  -5.936324e+001 
4350000000  -3.453397e+001  -6.544477e+001 
4353125000  -3.430816e+001  -7.577132e+001 
4356250000  -3.624560e+001  -7.636640e+001 
4359375000  -3.634723e+001  -6.317455e+001 
4362500000  -3.357288e+001  -6.157342e+001 
4365625000  -3.195603e+001  -7.606184e+001 
4368750000  -3.290100e+001  -8.925715e+001 
4371875000  -3.378520e+001  -8.924927e+001 
4375000000  -3.338603e+001  -9.073272e+001 
4378125000  -3.289883e+001  -9.710585e+001 
4381250000  -3.308365e+001  -1.046289e+002 
4384375000  -3.286668e+001  -1.101059e+002 
4387500000  -3.355495e+001  -1.182040e+002 
4390625000  -3.458988e+001  -1.175444e+002 
4393750000  -3.393223e+001  -1.165846e+002 
4396875000  -3.336997e+001  -1.200830e+002 
4400000000  -3.279646e+001  -1.291137e+002 
4403125000  -3.349485e+001  -1.373859e+002 
4406250000  -3.434965e+001  -1.394742e+002 
4409375000  -3.445681e+001  -1.432279e+002 
4412500000  -3.554148e+001  -1.463208e+002 
4415625000  -3.603425e+001  -1.428770e+002 
