!Agilent Technologies,E8363B,MY43030201,A.06.04.32
!Agilent E8363B: A.06.04.32
!Date: Tuesday, November 11, 2014 21:04:21
!Correction: S21(Response(S21)) 
!S1P File: Measurement: S21:
# Hz S  dB   R 50
3000000000  -3.628543e+001  -4.931507e+001 
3003125000  -3.742695e+001  -5.517333e+001 
3006250000  -3.736880e+001  -5.705411e+001 
3009375000  -3.760732e+001  -5.288690e+001 
3012500000  -3.695728e+001  -5.455079e+001 
3015625000  -3.599242e+001  -6.163988e+001 
3018750000  -3.682686e+001  -6.304787e+001 
3021875000  -3.539892e+001  -6.262057e+001 
3025000000  -3.409221e+001  -6.557327e+001 
3028125000  -3.310249e+001  -7.165694e+001 
3031250000  -3.215733e+001  -8.367950e+001 
3034375000  -3.179305e+001  -9.698705e+001 
3037500000  -3.227917e+001  -1.088662e+002 
3040625000  -3.351010e+001  -1.139978e+002 
3043750000  -3.421008e+001  -1.185344e+002 
3046875000  -3.447026e+001  -1.245023e+002 
3050000000  -3.616164e+001  -1.308236e+002 
3053125000  -3.616484e+001  -1.246850e+002 
3056250000  -3.545971e+001  -1.214627e+002 
3059375000  -3.563990e+001  -1.219817e+002 
3062500000  -3.419625e+001  -1.248698e+002 
3065625000  -3.393503e+001  -1.314551e+002 
3068750000  -3.371105e+001  -1.381445e+002 
3071875000  -3.346699e+001  -1.408629e+002 
3075000000  -3.326599e+001  -1.444702e+002 
3078125000  -3.308905e+001  -1.485494e+002 
3081250000  -3.352704e+001  -1.532540e+002 
3084375000  -3.264570e+001  -1.562002e+002 
3087500000  -3.243917e+001  -1.605950e+002 
3090625000  -3.199145e+001  -1.708288e+002 
3093750000  -3.238879e+001  -1.779738e+002 
3096875000  -3.342401e+001  1.762352e+002 
3100000000  -3.333430e+001  1.744053e+002 
3103125000  -3.362518e+001  1.747302e+002 
3106250000  -3.313370e+001  1.704815e+002 
3109375000  -3.314064e+001  1.663756e+002 
3112500000  -3.306839e+001  1.644280e+002 
3115625000  -3.281323e+001  1.592500e+002 
3118750000  -3.312937e+001  1.595037e+002 
3121875000  -3.231001e+001  1.503628e+002 
3125000000  -3.341373e+001  1.461567e+002 
3128125000  -3.439749e+001  1.527968e+002 
3131250000  -3.201195e+001  1.513574e+002 
3134375000  -3.067411e+001  1.357105e+002 
3137500000  -3.125316e+001  1.215942e+002 
3140625000  -3.283805e+001  1.179098e+002 
3143750000  -3.384652e+001  1.205620e+002 
3146875000  -3.326573e+001  1.207498e+002 
3150000000  -3.230587e+001  1.216588e+002 
3153125000  -3.233470e+001  1.120271e+002 
3156250000  -3.339838e+001  1.170154e+002 
3159375000  -3.166701e+001  1.185548e+002 
3162500000  -2.968923e+001  1.035544e+002 
3165625000  -3.071383e+001  9.152229e+001 
3168750000  -3.115941e+001  9.148422e+001 
3171875000  -3.029066e+001  8.567577e+001 
3175000000  -3.093609e+001  7.734282e+001 
3178125000  -3.075557e+001  7.796548e+001 
3181250000  -2.963160e+001  7.269948e+001 
3184375000  -2.894751e+001  6.012934e+001 
3187500000  -3.008617e+001  4.442386e+001 
3190625000  -3.297432e+001  3.591882e+001 
3193750000  -3.343655e+001  4.506462e+001 
3196875000  -3.316275e+001  5.026948e+001 
3200000000  -3.223822e+001  4.712481e+001 
3203125000  -3.141597e+001  4.096057e+001 
3206250000  -3.170321e+001  3.418336e+001 
3209375000  -3.130259e+001  2.850128e+001 
3212500000  -3.149149e+001  2.172546e+001 
3215625000  -3.152553e+001  1.761129e+001 
3218750000  -3.237360e+001  1.041433e+001 
3221875000  -3.314631e+001  6.125792e+000 
3225000000  -3.275284e+001  3.755867e+000 
3228125000  -3.313626e+001  -9.584698e-001 
3231250000  -3.385283e+001  -3.665684e+000 
3234375000  -3.347107e+001  -3.431532e+000 
3237500000  -3.350070e+001  -4.870172e+000 
3240625000  -3.304784e+001  -7.905801e+000 
3243750000  -3.270031e+001  -1.528454e+001 
3246875000  -3.300978e+001  -2.220486e+001 
3250000000  -3.355576e+001  -2.441318e+001 
3253125000  -3.354711e+001  -2.646538e+001 
3256250000  -3.324523e+001  -3.323898e+001 
3259375000  -3.358891e+001  -4.263970e+001 
3262500000  -3.468596e+001  -4.600428e+001 
3265625000  -3.522664e+001  -4.289491e+001 
3268750000  -3.507239e+001  -4.094037e+001 
3271875000  -3.476161e+001  -4.128376e+001 
3275000000  -3.373742e+001  -4.773875e+001 
3278125000  -3.421577e+001  -5.511518e+001 
3281250000  -3.438930e+001  -5.339470e+001 
3284375000  -3.387785e+001  -6.046837e+001 
3287500000  -3.402908e+001  -6.396043e+001 
3290625000  -3.440530e+001  -7.024619e+001 
3293750000  -3.413488e+001  -7.612955e+001 
3296875000  -3.519401e+001  -7.656338e+001 
3300000000  -3.491631e+001  -7.688308e+001 
3303125000  -3.380494e+001  -8.152725e+001 
3306250000  -3.359224e+001  -8.921273e+001 
3309375000  -3.321526e+001  -9.514708e+001 
3312500000  -3.330712e+001  -1.064142e+002 
3315625000  -3.427597e+001  -1.143387e+002 
3318750000  -3.574102e+001  -1.173521e+002 
3321875000  -3.683668e+001  -1.188513e+002 
3325000000  -3.757074e+001  -1.132644e+002 
3328125000  -3.705726e+001  -1.125564e+002 
3331250000  -3.583685e+001  -1.060504e+002 
3334375000  -3.318026e+001  -1.153971e+002 
3337500000  -3.328119e+001  -1.350194e+002 
3340625000  -3.459670e+001  -1.455812e+002 
3343750000  -3.669616e+001  -1.475199e+002 
3346875000  -3.690966e+001  -1.446266e+002 
3350000000  -3.619907e+001  -1.467754e+002 
3353125000  -3.628911e+001  -1.516654e+002 
3356250000  -3.578160e+001  -1.599590e+002 
3359375000  -3.655601e+001  -1.682392e+002 
3362500000  -3.776841e+001  -1.738228e+002 
3365625000  -3.833239e+001  -1.749174e+002 
3368750000  -3.898574e+001  -1.762723e+002 
3371875000  -3.912372e+001  -1.799049e+002 
3375000000  -4.057234e+001  1.776757e+002 
3378125000  -4.149846e+001  1.768358e+002 
3381250000  -4.267179e+001  -1.759933e+002 
3384375000  -4.097878e+001  -1.531133e+002 
3387500000  -3.773222e+001  -1.681859e+002 
3390625000  -3.956952e+001  1.709049e+002 
3393750000  -4.069719e+001  1.759694e+002 
3396875000  -3.935610e+001  1.771580e+002 
3400000000  -3.889775e+001  1.698376e+002 
3403125000  -3.947487e+001  1.653747e+002 
3406250000  -3.974951e+001  1.640665e+002 
3409375000  -3.986803e+001  1.555729e+002 
3412500000  -4.021090e+001  1.550034e+002 
3415625000  -4.128448e+001  1.549286e+002 
3418750000  -4.124694e+001  1.551989e+002 
3421875000  -4.120077e+001  1.593305e+002 
3425000000  -4.029102e+001  1.588590e+002 
3428125000  -3.940781e+001  1.542367e+002 
3431250000  -3.927146e+001  1.473611e+002 
3434375000  -3.923091e+001  1.407500e+002 
3437500000  -3.983046e+001  1.368630e+002 
3440625000  -4.010099e+001  1.382574e+002 
3443750000  -3.875263e+001  1.392435e+002 
3446875000  -3.805033e+001  1.319250e+002 
3450000000  -3.763870e+001  1.209682e+002 
3453125000  -3.799540e+001  1.108632e+002 
3456250000  -3.903490e+001  1.057200e+002 
3459375000  -3.992085e+001  1.055787e+002 
3462500000  -4.013438e+001  1.061860e+002 
3465625000  -4.004609e+001  1.006163e+002 
3468750000  -4.050196e+001  9.686535e+001 
3471875000  -4.011581e+001  9.488727e+001 
3475000000  -3.976627e+001  9.069604e+001 
3478125000  -4.035754e+001  8.251986e+001 
3481250000  -4.169992e+001  8.131528e+001 
3484375000  -4.250913e+001  8.492624e+001 
3487500000  -4.153654e+001  8.414406e+001 
3490625000  -4.103615e+001  8.036891e+001 
3493750000  -4.133678e+001  7.402716e+001 
3496875000  -4.216151e+001  7.180426e+001 
3500000000  -4.262372e+001  7.506076e+001 
3503125000  -4.212097e+001  7.795923e+001 
3506250000  -4.062878e+001  7.145064e+001 
3509375000  -4.072460e+001  6.340254e+001 
3512500000  -4.103445e+001  5.499912e+001 
3515625000  -4.202472e+001  5.327036e+001 
3518750000  -4.264250e+001  5.485777e+001 
3521875000  -4.231208e+001  5.232006e+001 
3525000000  -4.332881e+001  4.708856e+001 
3528125000  -4.311190e+001  5.645035e+001 
3531250000  -4.192305e+001  5.445601e+001 
3534375000  -4.189416e+001  4.334031e+001 
3537500000  -4.204158e+001  3.695580e+001 
3540625000  -4.306510e+001  3.655509e+001 
3543750000  -4.347979e+001  3.924818e+001 
3546875000  -4.374717e+001  4.930719e+001 
3550000000  -4.091941e+001  5.022379e+001 
3553125000  -3.979214e+001  3.130055e+001 
3556250000  -4.122063e+001  2.613372e+001 
3559375000  -4.078085e+001  2.793888e+001 
3562500000  -3.985552e+001  1.726545e+001 
3565625000  -4.038100e+001  9.420073e+000 
3568750000  -4.086836e+001  1.176034e+001 
3571875000  -4.090469e+001  1.042982e+001 
3575000000  -4.061723e+001  3.736100e+000 
3578125000  -4.106911e+001  -2.837137e+000 
3581250000  -4.107333e+001  -2.552351e+000 
3584375000  -4.032258e+001  -7.336943e+000 
3587500000  -3.995546e+001  -1.389629e+001 
3590625000  -4.041916e+001  -2.633756e+001 
3593750000  -4.184212e+001  -2.805826e+001 
3596875000  -4.178204e+001  -2.257162e+001 
3600000000  -4.032833e+001  -2.874768e+001 
3603125000  -4.103718e+001  -4.260867e+001 
3606250000  -4.180313e+001  -4.624564e+001 
3609375000  -4.243964e+001  -4.785920e+001 
3612500000  -4.337045e+001  -5.253061e+001 
3615625000  -4.372387e+001  -5.549042e+001 
3618750000  -4.427126e+001  -5.431542e+001 
3621875000  -4.471723e+001  -5.803389e+001 
3625000000  -4.520568e+001  -5.556002e+001 
3628125000  -4.486798e+001  -5.740792e+001 
3631250000  -4.483438e+001  -6.085843e+001 
3634375000  -4.621187e+001  -6.257105e+001 
3637500000  -4.619645e+001  -5.542691e+001 
3640625000  -4.514322e+001  -4.996438e+001 
3643750000  -4.485249e+001  -5.679617e+001 
3646875000  -4.562065e+001  -6.283890e+001 
3650000000  -4.578533e+001  -5.967995e+001 
3653125000  -4.534186e+001  -6.171856e+001 
3656250000  -4.563023e+001  -6.266138e+001 
3659375000  -4.562610e+001  -5.773032e+001 
3662500000  -4.484145e+001  -6.004843e+001 
3665625000  -4.422788e+001  -6.274966e+001 
3668750000  -4.342869e+001  -6.329952e+001 
3671875000  -4.225882e+001  -7.182143e+001 
3675000000  -4.253034e+001  -7.909332e+001 
3678125000  -4.274881e+001  -8.194098e+001 
3681250000  -4.232798e+001  -8.252440e+001 
3684375000  -4.243098e+001  -8.926970e+001 
3687500000  -4.229147e+001  -9.356432e+001 
3690625000  -4.239082e+001  -9.760807e+001 
3693750000  -4.348236e+001  -9.687714e+001 
3696875000  -4.307851e+001  -9.787251e+001 
3700000000  -4.230309e+001  -1.029766e+002 
3703125000  -4.225092e+001  -1.098392e+002 
3706250000  -4.340679e+001  -1.108696e+002 
3709375000  -4.324373e+001  -1.095940e+002 
3712500000  -4.209753e+001  -1.138131e+002 
3715625000  -4.129301e+001  -1.205243e+002 
3718750000  -4.143145e+001  -1.249779e+002 
3721875000  -4.084524e+001  -1.308274e+002 
3725000000  -4.121882e+001  -1.388108e+002 
3728125000  -4.218850e+001  -1.388927e+002 
3731250000  -4.172499e+001  -1.413566e+002 
3734375000  -4.149855e+001  -1.499580e+002 
3737500000  -4.295609e+001  -1.562010e+002 
3740625000  -4.367297e+001  -1.597116e+002 
3743750000  -4.384040e+001  -1.607113e+002 
3746875000  -4.392435e+001  -1.639966e+002 
3750000000  -4.483141e+001  -1.626696e+002 
3753125000  -4.490257e+001  -1.607361e+002 
3756250000  -4.511693e+001  -1.583677e+002 
3759375000  -4.514296e+001  -1.578268e+002 
3762500000  -4.468587e+001  -1.625033e+002 
3765625000  -4.552635e+001  -1.582124e+002 
3768750000  -4.536153e+001  -1.579685e+002 
3771875000  -4.368292e+001  -1.583933e+002 
3775000000  -4.314517e+001  -1.645433e+002 
3778125000  -4.337776e+001  -1.650997e+002 
3781250000  -4.317799e+001  -1.643080e+002 
3784375000  -4.267905e+001  -1.679598e+002 
3787500000  -4.168349e+001  -1.699105e+002 
3790625000  -4.221593e+001  -1.776480e+002 
3793750000  -4.219106e+001  1.799486e+002 
3796875000  -4.102777e+001  -1.796178e+002 
3800000000  -3.940478e+001  1.761462e+002 
3803125000  -4.012758e+001  1.664759e+002 
3806250000  -4.053568e+001  1.634686e+002 
3809375000  -4.035911e+001  1.593094e+002 
3812500000  -3.952288e+001  1.543365e+002 
3815625000  -4.008528e+001  1.441664e+002 
3818750000  -4.102188e+001  1.414906e+002 
3821875000  -4.090243e+001  1.501744e+002 
3825000000  -3.913364e+001  1.520658e+002 
3828125000  -3.780986e+001  1.364919e+002 
3831250000  -3.845581e+001  1.205255e+002 
3834375000  -4.018279e+001  1.195776e+002 
3837500000  -4.108157e+001  1.245160e+002 
3840625000  -3.957041e+001  1.228187e+002 
3843750000  -3.870613e+001  1.103124e+002 
3846875000  -3.960043e+001  1.015201e+002 
3850000000  -4.087671e+001  1.066380e+002 
3853125000  -4.028056e+001  1.070958e+002 
3856250000  -4.054643e+001  1.018095e+002 
3859375000  -3.948288e+001  9.732533e+001 
3862500000  -3.982543e+001  9.040466e+001 
3865625000  -3.993739e+001  8.521661e+001 
3868750000  -3.975154e+001  8.509137e+001 
3871875000  -3.930766e+001  7.914507e+001 
3875000000  -3.981148e+001  7.021343e+001 
3878125000  -4.071804e+001  6.895057e+001 
3881250000  -4.088709e+001  7.288766e+001 
3884375000  -4.045731e+001  6.942533e+001 
3887500000  -4.077040e+001  6.213801e+001 
3890625000  -4.153522e+001  6.094214e+001 
3893750000  -4.141870e+001  6.060727e+001 
3896875000  -4.168719e+001  6.178970e+001 
3900000000  -4.193472e+001  5.939779e+001 
3903125000  -4.161945e+001  5.709501e+001 
3906250000  -4.093985e+001  5.450589e+001 
3909375000  -4.025481e+001  5.365657e+001 
3912500000  -4.037735e+001  4.618920e+001 
3915625000  -4.172704e+001  4.794212e+001 
3918750000  -4.129835e+001  4.796541e+001 
3921875000  -4.083559e+001  4.507948e+001 
3925000000  -3.998178e+001  4.187810e+001 
3928125000  -3.901023e+001  3.501774e+001 
3931250000  -3.943695e+001  3.002912e+001 
3934375000  -3.963695e+001  2.943669e+001 
3937500000  -4.003203e+001  2.880487e+001 
3940625000  -4.039765e+001  2.537946e+001 
3943750000  -3.910280e+001  2.516953e+001 
3946875000  -3.799368e+001  1.801234e+001 
3950000000  -3.846703e+001  1.082550e+001 
3953125000  -3.950575e+001  6.863750e+000 
3956250000  -3.846609e+001  9.082006e+000 
3959375000  -3.754280e+001  6.973695e+000 
3962500000  -3.696279e+001  1.283116e+000 
3965625000  -3.683105e+001  -1.075283e+001 
3968750000  -3.792113e+001  -1.724155e+001 
3971875000  -3.817291e+001  -2.072300e+001 
3975000000  -3.755083e+001  -2.445630e+001 
3978125000  -3.763335e+001  -2.577353e+001 
3981250000  -3.741749e+001  -3.150366e+001 
3984375000  -3.795845e+001  -3.818605e+001 
3987500000  -3.838901e+001  -4.342817e+001 
3990625000  -3.841200e+001  -4.265033e+001 
3993750000  -3.908632e+001  -4.742552e+001 
3996875000  -3.886611e+001  -5.230286e+001 
4000000000  -3.895417e+001  -5.240067e+001 
4003125000  -3.969149e+001  -5.109051e+001 
4006250000  -3.856827e+001  -5.137613e+001 
4009375000  -3.780354e+001  -6.695117e+001 
4012500000  -3.891921e+001  -7.074029e+001 
4015625000  -4.001883e+001  -6.984038e+001 
4018750000  -4.047293e+001  -6.997279e+001 
4021875000  -3.954898e+001  -7.079555e+001 
4025000000  -3.953257e+001  -7.518162e+001 
4028125000  -3.947564e+001  -7.840823e+001 
4031250000  -3.983624e+001  -8.396466e+001 
4034375000  -4.008715e+001  -8.260004e+001 
4037500000  -3.985983e+001  -8.194342e+001 
4040625000  -3.966844e+001  -8.330811e+001 
4043750000  -3.985830e+001  -8.459087e+001 
4046875000  -3.938025e+001  -8.423347e+001 
4050000000  -3.885704e+001  -9.159653e+001 
4053125000  -3.902344e+001  -9.252672e+001 
4056250000  -3.984748e+001  -8.989208e+001 
4059375000  -3.836300e+001  -8.898734e+001 
4062500000  -3.691315e+001  -9.575121e+001 
4065625000  -3.660312e+001  -1.003446e+002 
4068750000  -3.645911e+001  -1.058201e+002 
4071875000  -3.561360e+001  -1.146260e+002 
4075000000  -3.601657e+001  -1.214237e+002 
4078125000  -3.632957e+001  -1.235353e+002 
4081250000  -3.586014e+001  -1.271607e+002 
4084375000  -3.551037e+001  -1.367860e+002 
4087500000  -3.573664e+001  -1.428554e+002 
4090625000  -3.644930e+001  -1.440448e+002 
4093750000  -3.634325e+001  -1.462107e+002 
4096875000  -3.597598e+001  -1.536903e+002 
4100000000  -3.666125e+001  -1.612192e+002 
4103125000  -3.725147e+001  -1.611440e+002 
4106250000  -3.708430e+001  -1.571596e+002 
4109375000  -3.620666e+001  -1.592213e+002 
4112500000  -3.578379e+001  -1.668394e+002 
4115625000  -3.619044e+001  -1.726391e+002 
4118750000  -3.651430e+001  -1.773196e+002 
4121875000  -3.597215e+001  1.766588e+002 
4125000000  -3.656901e+001  1.708355e+002 
4128125000  -3.777511e+001  1.720367e+002 
4131250000  -3.736079e+001  1.769787e+002 
4134375000  -3.513974e+001  1.716033e+002 
4137500000  -3.509461e+001  1.509332e+002 
4140625000  -3.743180e+001  1.444448e+002 
4143750000  -3.866817e+001  1.488425e+002 
4146875000  -3.852543e+001  1.552567e+002 
4150000000  -3.766718e+001  1.516147e+002 
4153125000  -3.758777e+001  1.437632e+002 
4156250000  -3.867218e+001  1.407971e+002 
4159375000  -3.886105e+001  1.466496e+002 
4162500000  -3.798808e+001  1.510778e+002 
4165625000  -3.688634e+001  1.460770e+002 
4168750000  -3.634695e+001  1.386306e+002 
4171875000  -3.646620e+001  1.285823e+002 
4175000000  -3.724463e+001  1.244280e+002 
4178125000  -3.787243e+001  1.248807e+002 
4181250000  -3.733813e+001  1.247380e+002 
4184375000  -3.739227e+001  1.215578e+002 
4187500000  -3.718262e+001  1.183055e+002 
4190625000  -3.705588e+001  1.115193e+002 
4193750000  -3.755107e+001  1.095552e+002 
4196875000  -3.804074e+001  1.094497e+002 
4200000000  -3.916529e+001  1.102525e+002 
4203125000  -3.868661e+001  1.245657e+002 
4206250000  -3.539430e+001  1.223671e+002 
4209375000  -3.430445e+001  1.010893e+002 
4212500000  -3.623865e+001  9.016998e+001 
4215625000  -3.697647e+001  9.787345e+001 
4218750000  -3.542813e+001  1.032895e+002 
4221875000  -3.325795e+001  9.175288e+001 
4225000000  -3.427685e+001  7.892333e+001 
4228125000  -3.485018e+001  8.309882e+001 
4231250000  -3.335058e+001  7.720020e+001 
4234375000  -3.313983e+001  6.759032e+001 
4237500000  -3.264225e+001  6.327777e+001 
4240625000  -3.269376e+001  5.387808e+001 
4243750000  -3.380725e+001  4.476260e+001 
4246875000  -3.474309e+001  4.306205e+001 
4250000000  -3.457382e+001  4.619500e+001 
4253125000  -3.422125e+001  4.176146e+001 
4256250000  -3.442201e+001  3.615543e+001 
4259375000  -3.399549e+001  3.243401e+001 
4262500000  -3.435864e+001  2.922358e+001 
4265625000  -3.445373e+001  2.708060e+001 
4268750000  -3.364262e+001  2.101788e+001 
4271875000  -3.344973e+001  1.351713e+001 
4275000000  -3.319265e+001  5.592613e+000 
4278125000  -3.382724e+001  -6.080075e+000 
4281250000  -3.576863e+001  -8.711377e+000 
4284375000  -3.557113e+001  -9.408478e+000 
4287500000  -3.671909e+001  -1.381133e+001 
4290625000  -3.804883e+001  -3.855779e+000 
4293750000  -3.615868e+001  1.057998e+000 
4296875000  -3.504878e+001  -1.047328e+001 
4300000000  -3.619114e+001  -1.993769e+001 
4303125000  -3.729676e+001  -1.802471e+001 
4306250000  -3.670097e+001  -1.209259e+001 
4309375000  -3.544049e+001  -1.475644e+001 
4312500000  -3.528413e+001  -2.056516e+001 
4315625000  -3.554927e+001  -2.718516e+001 
4318750000  -3.582152e+001  -2.877281e+001 
4321875000  -3.598152e+001  -2.956045e+001 
4325000000  -3.520768e+001  -2.749790e+001 
4328125000  -3.473380e+001  -3.534603e+001 
4331250000  -3.448894e+001  -4.300010e+001 
4334375000  -3.477510e+001  -4.744058e+001 
4337500000  -3.572175e+001  -4.990874e+001 
4340625000  -3.589269e+001  -4.643915e+001 
4343750000  -3.506197e+001  -4.596569e+001 
4346875000  -3.463771e+001  -5.279513e+001 
4350000000  -3.435463e+001  -5.868722e+001 
4353125000  -3.424434e+001  -6.640045e+001 
4356250000  -3.614893e+001  -6.903600e+001 
4359375000  -3.644511e+001  -5.701028e+001 
4362500000  -3.328797e+001  -5.547228e+001 
4365625000  -3.179994e+001  -7.074371e+001 
4368750000  -3.232781e+001  -8.229430e+001 
4371875000  -3.357801e+001  -8.235926e+001 
4375000000  -3.311664e+001  -8.464249e+001 
4378125000  -3.236196e+001  -9.112949e+001 
4381250000  -3.254042e+001  -9.811387e+001 
4384375000  -3.219812e+001  -1.046318e+002 
4387500000  -3.311576e+001  -1.119567e+002 
4390625000  -3.399376e+001  -1.122707e+002 
4393750000  -3.329593e+001  -1.124690e+002 
4396875000  -3.290384e+001  -1.158122e+002 
4400000000  -3.214297e+001  -1.242582e+002 
4403125000  -3.284886e+001  -1.341045e+002 
4406250000  -3.379649e+001  -1.366539e+002 
4409375000  -3.385360e+001  -1.405790e+002 
4412500000  -3.499246e+001  -1.449257e+002 
4415625000  -3.548537e+001  -1.402223e+002 
