!Agilent Technologies,E8363B,MY43030201,A.06.04.32
!Agilent E8363B: A.06.04.32
!Date: Tuesday, November 11, 2014 21:06:12
!Correction: S21(Response(S21)) 
!S1P File: Measurement: S21:
# Hz S  dB   R 50
3000000000  -3.646977e+001  -4.880637e+001 
3003125000  -3.762497e+001  -5.499354e+001 
3006250000  -3.750691e+001  -5.796566e+001 
3009375000  -3.765455e+001  -5.336924e+001 
3012500000  -3.691674e+001  -5.468180e+001 
3015625000  -3.613346e+001  -6.252075e+001 
3018750000  -3.688121e+001  -6.283021e+001 
3021875000  -3.545962e+001  -6.251331e+001 
3025000000  -3.423133e+001  -6.602600e+001 
3028125000  -3.319089e+001  -7.254263e+001 
3031250000  -3.209721e+001  -8.412736e+001 
3034375000  -3.176417e+001  -9.765628e+001 
3037500000  -3.228489e+001  -1.098887e+002 
3040625000  -3.358391e+001  -1.141242e+002 
3043750000  -3.427586e+001  -1.195405e+002 
3046875000  -3.432423e+001  -1.254501e+002 
3050000000  -3.608337e+001  -1.324915e+002 
3053125000  -3.603416e+001  -1.254934e+002 
3056250000  -3.552660e+001  -1.225610e+002 
3059375000  -3.561567e+001  -1.234537e+002 
3062500000  -3.415747e+001  -1.271427e+002 
3065625000  -3.395512e+001  -1.326149e+002 
3068750000  -3.359944e+001  -1.399002e+002 
3071875000  -3.350282e+001  -1.421063e+002 
3075000000  -3.330813e+001  -1.462467e+002 
3078125000  -3.299864e+001  -1.498893e+002 
3081250000  -3.352731e+001  -1.548437e+002 
3084375000  -3.267136e+001  -1.579122e+002 
3087500000  -3.241303e+001  -1.620871e+002 
3090625000  -3.199827e+001  -1.719740e+002 
3093750000  -3.235207e+001  -1.796022e+002 
3096875000  -3.344978e+001  1.746162e+002 
3100000000  -3.339038e+001  1.726064e+002 
3103125000  -3.370329e+001  1.731445e+002 
3106250000  -3.319566e+001  1.683368e+002 
3109375000  -3.330982e+001  1.648977e+002 
3112500000  -3.320886e+001  1.624038e+002 
3115625000  -3.287627e+001  1.573620e+002 
3118750000  -3.312050e+001  1.583708e+002 
3121875000  -3.232279e+001  1.487576e+002 
3125000000  -3.350816e+001  1.448576e+002 
3128125000  -3.448243e+001  1.519897e+002 
3131250000  -3.203383e+001  1.505897e+002 
3134375000  -3.075696e+001  1.346895e+002 
3137500000  -3.128590e+001  1.201499e+002 
3140625000  -3.288492e+001  1.172617e+002 
3143750000  -3.387147e+001  1.188584e+002 
3146875000  -3.336197e+001  1.203169e+002 
3150000000  -3.229919e+001  1.207864e+002 
3153125000  -3.233126e+001  1.112639e+002 
3156250000  -3.332667e+001  1.159377e+002 
3159375000  -3.156769e+001  1.173829e+002 
3162500000  -2.977684e+001  1.028576e+002 
3165625000  -3.070972e+001  9.057529e+001 
3168750000  -3.102232e+001  9.050623e+001 
3171875000  -3.011006e+001  8.486134e+001 
3175000000  -3.090684e+001  7.588430e+001 
3178125000  -3.064251e+001  7.706388e+001 
3181250000  -2.963685e+001  7.168034e+001 
3184375000  -2.884110e+001  5.910439e+001 
3187500000  -2.998143e+001  4.318547e+001 
3190625000  -3.272966e+001  3.498365e+001 
3193750000  -3.325504e+001  4.425527e+001 
3196875000  -3.297238e+001  4.848025e+001 
3200000000  -3.203621e+001  4.607993e+001 
3203125000  -3.126397e+001  3.915413e+001 
3206250000  -3.156016e+001  3.270654e+001 
3209375000  -3.108006e+001  2.701825e+001 
3212500000  -3.125987e+001  2.057919e+001 
3215625000  -3.131237e+001  1.552409e+001 
3218750000  -3.219440e+001  9.089380e+000 
3221875000  -3.300314e+001  3.012323e+000 
3225000000  -3.261039e+001  2.195395e+000 
3228125000  -3.296132e+001  -3.392104e+000 
3231250000  -3.367629e+001  -5.639803e+000 
3234375000  -3.334535e+001  -5.106734e+000 
3237500000  -3.347953e+001  -7.356863e+000 
3240625000  -3.294300e+001  -9.567493e+000 
3243750000  -3.253717e+001  -1.724014e+001 
3246875000  -3.291432e+001  -2.464890e+001 
3250000000  -3.338880e+001  -2.691532e+001 
3253125000  -3.351461e+001  -2.910744e+001 
3256250000  -3.311129e+001  -3.624356e+001 
3259375000  -3.342039e+001  -4.476558e+001 
3262500000  -3.464028e+001  -4.820813e+001 
3265625000  -3.525439e+001  -4.527452e+001 
3268750000  -3.509613e+001  -4.317490e+001 
3271875000  -3.464485e+001  -4.387501e+001 
3275000000  -3.377212e+001  -5.050523e+001 
3278125000  -3.417923e+001  -5.651608e+001 
3281250000  -3.431759e+001  -5.601593e+001 
3284375000  -3.388840e+001  -6.270760e+001 
3287500000  -3.412328e+001  -6.703005e+001 
3290625000  -3.434943e+001  -7.287978e+001 
3293750000  -3.408432e+001  -7.887626e+001 
3296875000  -3.503990e+001  -7.890585e+001 
3300000000  -3.489009e+001  -7.820568e+001 
3303125000  -3.368578e+001  -8.370623e+001 
3306250000  -3.348134e+001  -9.072176e+001 
3309375000  -3.328928e+001  -9.700082e+001 
3312500000  -3.327096e+001  -1.082726e+002 
3315625000  -3.425180e+001  -1.158921e+002 
3318750000  -3.580324e+001  -1.190949e+002 
3321875000  -3.672330e+001  -1.203739e+002 
3325000000  -3.729607e+001  -1.144177e+002 
3328125000  -3.683022e+001  -1.139968e+002 
3331250000  -3.573634e+001  -1.070293e+002 
3334375000  -3.291423e+001  -1.168545e+002 
3337500000  -3.312140e+001  -1.361608e+002 
3340625000  -3.435386e+001  -1.472244e+002 
3343750000  -3.652130e+001  -1.487592e+002 
3346875000  -3.660608e+001  -1.462974e+002 
3350000000  -3.593657e+001  -1.485157e+002 
3353125000  -3.595912e+001  -1.525609e+002 
3356250000  -3.557203e+001  -1.619436e+002 
3359375000  -3.632055e+001  -1.700036e+002 
3362500000  -3.749319e+001  -1.753666e+002 
3365625000  -3.786932e+001  -1.770405e+002 
3368750000  -3.866490e+001  -1.792713e+002 
3371875000  -3.895301e+001  1.787111e+002 
3375000000  -4.054980e+001  1.752791e+002 
3378125000  -4.116956e+001  1.743453e+002 
3381250000  -4.242355e+001  -1.769697e+002 
3384375000  -4.101035e+001  -1.550577e+002 
3387500000  -3.737799e+001  -1.710633e+002 
3390625000  -3.916508e+001  1.690830e+002 
3393750000  -4.033944e+001  1.729935e+002 
3396875000  -3.916532e+001  1.727130e+002 
3400000000  -3.865812e+001  1.652417e+002 
3403125000  -3.902914e+001  1.602663e+002 
3406250000  -3.959930e+001  1.614343e+002 
3409375000  -3.993492e+001  1.518937e+002 
3412500000  -4.018965e+001  1.507083e+002 
3415625000  -4.105264e+001  1.508345e+002 
3418750000  -4.103773e+001  1.525641e+002 
3421875000  -4.111971e+001  1.552138e+002 
3425000000  -4.034824e+001  1.554688e+002 
3428125000  -3.945175e+001  1.504967e+002 
3431250000  -3.929116e+001  1.440560e+002 
3434375000  -3.921914e+001  1.383457e+002 
3437500000  -3.968737e+001  1.348278e+002 
3440625000  -4.000408e+001  1.363677e+002 
3443750000  -3.872389e+001  1.366114e+002 
3446875000  -3.781157e+001  1.281797e+002 
3450000000  -3.766406e+001  1.189296e+002 
3453125000  -3.805523e+001  1.087762e+002 
3456250000  -3.911260e+001  1.021002e+002 
3459375000  -3.999720e+001  1.017100e+002 
3462500000  -3.993439e+001  1.030701e+002 
3465625000  -3.974965e+001  9.734425e+001 
3468750000  -4.014986e+001  9.379140e+001 
3471875000  -3.994841e+001  9.202106e+001 
3475000000  -3.971922e+001  8.766899e+001 
3478125000  -4.047354e+001  7.994717e+001 
3481250000  -4.126727e+001  7.703495e+001 
3484375000  -4.208597e+001  8.138460e+001 
3487500000  -4.156590e+001  8.132800e+001 
3490625000  -4.049079e+001  7.542126e+001 
3493750000  -4.118531e+001  6.820820e+001 
3496875000  -4.152436e+001  6.810919e+001 
3500000000  -4.232845e+001  7.044782e+001 
3503125000  -4.207941e+001  7.225097e+001 
3506250000  -4.060014e+001  6.670712e+001 
3509375000  -4.061299e+001  5.702544e+001 
3512500000  -4.117612e+001  4.933667e+001 
3515625000  -4.172215e+001  4.637274e+001 
3518750000  -4.269938e+001  4.646416e+001 
3521875000  -4.275756e+001  4.477890e+001 
3525000000  -4.364280e+001  3.979416e+001 
3528125000  -4.342107e+001  4.920570e+001 
3531250000  -4.223228e+001  4.894156e+001 
3534375000  -4.203643e+001  3.707166e+001 
3537500000  -4.245044e+001  3.264688e+001 
3540625000  -4.370352e+001  3.065722e+001 
3543750000  -4.408745e+001  3.361304e+001 
3546875000  -4.441463e+001  4.562312e+001 
3550000000  -4.155577e+001  4.805613e+001 
3553125000  -4.038362e+001  2.872825e+001 
3556250000  -4.151582e+001  2.394362e+001 
3559375000  -4.137803e+001  2.451342e+001 
3562500000  -4.043174e+001  1.651070e+001 
3565625000  -4.124002e+001  8.680140e+000 
3568750000  -4.144077e+001  1.132451e+001 
3571875000  -4.145144e+001  9.386521e+000 
3575000000  -4.058578e+001  3.359325e+000 
3578125000  -4.141057e+001  -1.695391e+000 
3581250000  -4.138885e+001  -2.642900e+000 
3584375000  -4.093735e+001  -6.941355e+000 
3587500000  -4.014817e+001  -1.418836e+001 
3590625000  -4.053854e+001  -2.430112e+001 
3593750000  -4.156831e+001  -2.650361e+001 
3596875000  -4.172961e+001  -2.180891e+001 
3600000000  -4.022396e+001  -2.740180e+001 
3603125000  -4.066759e+001  -4.139112e+001 
3606250000  -4.154530e+001  -4.525094e+001 
3609375000  -4.211211e+001  -4.804371e+001 
3612500000  -4.259061e+001  -5.173120e+001 
3615625000  -4.305565e+001  -5.582279e+001 
3618750000  -4.377035e+001  -5.410281e+001 
3621875000  -4.379977e+001  -5.753019e+001 
3625000000  -4.437107e+001  -6.114096e+001 
3628125000  -4.420746e+001  -6.161499e+001 
3631250000  -4.425990e+001  -6.451510e+001 
3634375000  -4.563250e+001  -6.666584e+001 
3637500000  -4.540894e+001  -6.284261e+001 
3640625000  -4.444954e+001  -5.993589e+001 
3643750000  -4.414630e+001  -6.569363e+001 
3646875000  -4.525673e+001  -6.999357e+001 
3650000000  -4.566177e+001  -7.259728e+001 
3653125000  -4.546095e+001  -7.149907e+001 
3656250000  -4.587527e+001  -7.229037e+001 
3659375000  -4.617841e+001  -6.979733e+001 
3662500000  -4.504416e+001  -7.051559e+001 
3665625000  -4.489600e+001  -7.016167e+001 
3668750000  -4.376812e+001  -7.143521e+001 
3671875000  -4.325527e+001  -7.553134e+001 
3675000000  -4.336170e+001  -8.520727e+001 
3678125000  -4.340549e+001  -8.359026e+001 
3681250000  -4.313031e+001  -8.626589e+001 
3684375000  -4.301461e+001  -9.140364e+001 
3687500000  -4.328596e+001  -9.559210e+001 
3690625000  -4.304390e+001  -9.912488e+001 
3693750000  -4.394691e+001  -1.003221e+002 
3696875000  -4.351543e+001  -9.957881e+001 
3700000000  -4.309819e+001  -1.055902e+002 
3703125000  -4.279934e+001  -1.106937e+002 
3706250000  -4.383402e+001  -1.088276e+002 
3709375000  -4.370474e+001  -1.082895e+002 
3712500000  -4.241084e+001  -1.120103e+002 
3715625000  -4.162539e+001  -1.194138e+002 
3718750000  -4.130462e+001  -1.238215e+002 
3721875000  -4.142681e+001  -1.304751e+002 
3725000000  -4.145345e+001  -1.360436e+002 
3728125000  -4.205366e+001  -1.382372e+002 
3731250000  -4.158044e+001  -1.402274e+002 
3734375000  -4.106480e+001  -1.469484e+002 
3737500000  -4.216061e+001  -1.534787e+002 
3740625000  -4.289471e+001  -1.568244e+002 
3743750000  -4.352629e+001  -1.595356e+002 
3746875000  -4.356360e+001  -1.629989e+002 
3750000000  -4.413429e+001  -1.645798e+002 
3753125000  -4.397784e+001  -1.655139e+002 
3756250000  -4.418747e+001  -1.627418e+002 
3759375000  -4.468596e+001  -1.631794e+002 
3762500000  -4.436228e+001  -1.678178e+002 
3765625000  -4.510989e+001  -1.638896e+002 
3768750000  -4.528307e+001  -1.643770e+002 
3771875000  -4.277115e+001  -1.654790e+002 
3775000000  -4.282911e+001  -1.705258e+002 
3778125000  -4.333204e+001  -1.709757e+002 
3781250000  -4.304556e+001  -1.730940e+002 
3784375000  -4.259639e+001  -1.728647e+002 
3787500000  -4.213844e+001  -1.766231e+002 
3790625000  -4.214148e+001  1.780876e+002 
3793750000  -4.252761e+001  1.773702e+002 
3796875000  -4.130260e+001  1.735235e+002 
3800000000  -3.977318e+001  1.720117e+002 
3803125000  -4.029863e+001  1.624932e+002 
3806250000  -4.114244e+001  1.598363e+002 
3809375000  -4.079000e+001  1.580382e+002 
3812500000  -3.994450e+001  1.509633e+002 
3815625000  -4.055142e+001  1.404180e+002 
3818750000  -4.140627e+001  1.420142e+002 
3821875000  -4.122800e+001  1.481506e+002 
3825000000  -3.938624e+001  1.507954e+002 
3828125000  -3.818292e+001  1.357401e+002 
3831250000  -3.867684e+001  1.193781e+002 
3834375000  -4.028858e+001  1.184048e+002 
3837500000  -4.098600e+001  1.213311e+002 
3840625000  -3.991998e+001  1.203471e+002 
3843750000  -3.866597e+001  1.070722e+002 
3846875000  -3.959149e+001  1.001896e+002 
3850000000  -4.083340e+001  1.063347e+002 
3853125000  -4.048318e+001  1.086234e+002 
3856250000  -4.030064e+001  1.013597e+002 
3859375000  -3.945899e+001  9.893136e+001 
3862500000  -3.920916e+001  8.839767e+001 
3865625000  -3.965165e+001  8.265198e+001 
3868750000  -3.958943e+001  8.348358e+001 
3871875000  -3.922419e+001  7.888228e+001 
3875000000  -3.951706e+001  6.980138e+001 
3878125000  -4.040760e+001  6.721555e+001 
3881250000  -4.054863e+001  6.993453e+001 
3884375000  -4.007887e+001  6.406035e+001 
3887500000  -4.039758e+001  6.004994e+001 
3890625000  -4.079432e+001  5.875185e+001 
3893750000  -4.099818e+001  5.583782e+001 
3896875000  -4.149274e+001  5.611426e+001 
3900000000  -4.153077e+001  5.661686e+001 
3903125000  -4.112003e+001  5.318468e+001 
3906250000  -4.070992e+001  5.104886e+001 
3909375000  -4.008405e+001  4.781620e+001 
3912500000  -4.023801e+001  3.838036e+001 
3915625000  -4.153864e+001  3.920322e+001 
3918750000  -4.107791e+001  4.392700e+001 
3921875000  -4.087162e+001  3.939558e+001 
3925000000  -3.964351e+001  3.588100e+001 
3928125000  -3.921579e+001  2.974740e+001 
3931250000  -3.972788e+001  2.350442e+001 
3934375000  -3.998089e+001  2.404083e+001 
3937500000  -4.009573e+001  2.335412e+001 
3940625000  -4.070230e+001  2.050772e+001 
3943750000  -3.956732e+001  1.954335e+001 
3946875000  -3.835833e+001  1.426185e+001 
3950000000  -3.899041e+001  5.646462e+000 
3953125000  -4.032582e+001  7.545340e+000 
3956250000  -3.909940e+001  5.553395e+000 
3959375000  -3.775898e+001  4.309302e+000 
3962500000  -3.725455e+001  -2.348364e+000 
3965625000  -3.714955e+001  -1.262742e+001 
3968750000  -3.809970e+001  -2.078490e+001 
3971875000  -3.850705e+001  -2.260511e+001 
3975000000  -3.777721e+001  -2.538286e+001 
3978125000  -3.798773e+001  -2.792138e+001 
3981250000  -3.780133e+001  -3.354854e+001 
3984375000  -3.800548e+001  -3.898272e+001 
3987500000  -3.857284e+001  -4.143090e+001 
3990625000  -3.844878e+001  -4.386942e+001 
3993750000  -3.894662e+001  -4.856575e+001 
3996875000  -3.898057e+001  -5.306337e+001 
4000000000  -3.940396e+001  -5.341616e+001 
4003125000  -3.985983e+001  -5.214030e+001 
4006250000  -3.838873e+001  -5.331372e+001 
4009375000  -3.737968e+001  -6.579414e+001 
4012500000  -3.852211e+001  -7.396931e+001 
4015625000  -3.967993e+001  -7.236787e+001 
4018750000  -3.975902e+001  -7.051179e+001 
4021875000  -3.929750e+001  -7.430170e+001 
4025000000  -3.898999e+001  -7.807660e+001 
4028125000  -3.886470e+001  -8.143741e+001 
4031250000  -3.940564e+001  -8.596041e+001 
4034375000  -3.957783e+001  -8.624672e+001 
4037500000  -3.926640e+001  -8.593658e+001 
4040625000  -3.907298e+001  -8.871407e+001 
4043750000  -3.916354e+001  -8.994963e+001 
4046875000  -3.908133e+001  -9.144616e+001 
4050000000  -3.851339e+001  -9.637624e+001 
4053125000  -3.897862e+001  -9.933761e+001 
4056250000  -3.934908e+001  -9.773811e+001 
4059375000  -3.784708e+001  -9.476180e+001 
4062500000  -3.673977e+001  -1.016947e+002 
4065625000  -3.652799e+001  -1.049065e+002 
4068750000  -3.643616e+001  -1.116791e+002 
4071875000  -3.568160e+001  -1.206607e+002 
4075000000  -3.600737e+001  -1.278270e+002 
4078125000  -3.659794e+001  -1.302505e+002 
4081250000  -3.609958e+001  -1.331552e+002 
4084375000  -3.567772e+001  -1.398443e+002 
4087500000  -3.603908e+001  -1.484524e+002 
4090625000  -3.681041e+001  -1.482848e+002 
4093750000  -3.647233e+001  -1.502476e+002 
4096875000  -3.594480e+001  -1.563538e+002 
4100000000  -3.699030e+001  -1.650983e+002 
4103125000  -3.778499e+001  -1.645823e+002 
4106250000  -3.767196e+001  -1.611725e+002 
4109375000  -3.681859e+001  -1.629967e+002 
4112500000  -3.615867e+001  -1.700222e+002 
4115625000  -3.650265e+001  -1.754869e+002 
4118750000  -3.685521e+001  -1.783899e+002 
4121875000  -3.627178e+001  1.748242e+002 
4125000000  -3.683223e+001  1.706115e+002 
4128125000  -3.784550e+001  1.700040e+002 
4131250000  -3.757133e+001  1.767862e+002 
4134375000  -3.509287e+001  1.699453e+002 
4137500000  -3.516892e+001  1.495069e+002 
4140625000  -3.732620e+001  1.439526e+002 
4143750000  -3.888306e+001  1.476624e+002 
4146875000  -3.847576e+001  1.542900e+002 
4150000000  -3.752698e+001  1.500090e+002 
4153125000  -3.744380e+001  1.426991e+002 
4156250000  -3.831691e+001  1.397407e+002 
4159375000  -3.863299e+001  1.436819e+002 
4162500000  -3.736445e+001  1.486118e+002 
4165625000  -3.652408e+001  1.443285e+002 
4168750000  -3.596799e+001  1.359932e+002 
4171875000  -3.594072e+001  1.242694e+002 
4175000000  -3.648508e+001  1.210129e+002 
4178125000  -3.716902e+001  1.207972e+002 
4181250000  -3.685644e+001  1.192712e+002 
4184375000  -3.683900e+001  1.140696e+002 
4187500000  -3.695677e+001  1.123834e+002 
4190625000  -3.672933e+001  1.057651e+002 
4193750000  -3.733308e+001  1.016465e+002 
4196875000  -3.807104e+001  1.008166e+002 
4200000000  -3.903147e+001  1.033354e+002 
4203125000  -3.872784e+001  1.167238e+002 
4206250000  -3.550111e+001  1.158270e+002 
4209375000  -3.417277e+001  9.527619e+001 
4212500000  -3.611356e+001  8.365635e+001 
4215625000  -3.703848e+001  9.013163e+001 
4218750000  -3.560207e+001  9.508683e+001 
4221875000  -3.328511e+001  8.704568e+001 
4225000000  -3.458720e+001  7.343420e+001 
4228125000  -3.507465e+001  7.686117e+001 
4231250000  -3.359436e+001  7.221349e+001 
4234375000  -3.341010e+001  6.323790e+001 
4237500000  -3.308706e+001  5.809175e+001 
4240625000  -3.297295e+001  4.789964e+001 
4243750000  -3.405178e+001  4.058102e+001 
4246875000  -3.513140e+001  4.057515e+001 
4250000000  -3.510212e+001  4.180117e+001 
4253125000  -3.441797e+001  3.782825e+001 
4256250000  -3.482595e+001  3.256227e+001 
4259375000  -3.462654e+001  2.966914e+001 
4262500000  -3.484603e+001  2.388342e+001 
4265625000  -3.495872e+001  2.423829e+001 
4268750000  -3.408683e+001  1.996473e+001 
4271875000  -3.384402e+001  1.246030e+001 
4275000000  -3.345815e+001  3.375085e+000 
4278125000  -3.425532e+001  -7.221373e+000 
4281250000  -3.597826e+001  -1.011195e+001 
4284375000  -3.581103e+001  -9.767678e+000 
4287500000  -3.661983e+001  -1.349975e+001 
4290625000  -3.809678e+001  -5.254485e+000 
4293750000  -3.602432e+001  9.336866e-001 
4296875000  -3.492760e+001  -9.923262e+000 
4300000000  -3.582436e+001  -2.057901e+001 
4303125000  -3.698782e+001  -1.908545e+001 
4306250000  -3.639107e+001  -1.344027e+001 
4309375000  -3.508662e+001  -1.484846e+001 
4312500000  -3.482441e+001  -2.337972e+001 
4315625000  -3.518290e+001  -3.022339e+001 
4318750000  -3.543547e+001  -3.220419e+001 
4321875000  -3.552258e+001  -3.180450e+001 
4325000000  -3.497535e+001  -3.288063e+001 
4328125000  -3.428621e+001  -3.771303e+001 
4331250000  -3.411214e+001  -4.664049e+001 
4334375000  -3.459619e+001  -5.191698e+001 
4337500000  -3.522628e+001  -5.585172e+001 
4340625000  -3.572338e+001  -5.249591e+001 
4343750000  -3.501928e+001  -5.279991e+001 
4346875000  -3.461897e+001  -5.903881e+001 
4350000000  -3.437817e+001  -6.463037e+001 
4353125000  -3.440436e+001  -7.297690e+001 
4356250000  -3.646539e+001  -7.485535e+001 
4359375000  -3.625450e+001  -6.114579e+001 
4362500000  -3.325679e+001  -6.209513e+001 
4365625000  -3.202334e+001  -7.521729e+001 
4368750000  -3.266599e+001  -8.868024e+001 
4371875000  -3.394160e+001  -8.980289e+001 
4375000000  -3.340839e+001  -8.914576e+001 
4378125000  -3.281391e+001  -9.663729e+001 
4381250000  -3.297491e+001  -1.037384e+002 
4384375000  -3.279055e+001  -1.096077e+002 
4387500000  -3.370213e+001  -1.172936e+002 
4390625000  -3.445921e+001  -1.174542e+002 
4393750000  -3.394863e+001  -1.155918e+002 
4396875000  -3.328735e+001  -1.191910e+002 
4400000000  -3.278564e+001  -1.280026e+002 
4403125000  -3.345354e+001  -1.371033e+002 
4406250000  -3.424018e+001  -1.394841e+002 
4409375000  -3.441870e+001  -1.422364e+002 
4412500000  -3.554764e+001  -1.462300e+002 
4415625000  -3.599092e+001  -1.429205e+002 
