!Agilent Technologies,E8363B,MY43030201,A.06.04.32
!Agilent E8363B: A.06.04.32
!Date: Tuesday, November 11, 2014 21:00:38
!Correction: S21(Response(S21)) 
!S1P File: Measurement: S21:
# Hz S  dB   R 50
3000000000  -3.640254e+001  -4.269947e+001 
3003125000  -3.756015e+001  -4.813640e+001 
3006250000  -3.717763e+001  -5.060630e+001 
3009375000  -3.756768e+001  -4.633591e+001 
3012500000  -3.695526e+001  -4.819479e+001 
3015625000  -3.597438e+001  -5.594753e+001 
3018750000  -3.673846e+001  -5.800879e+001 
3021875000  -3.530309e+001  -5.632006e+001 
3025000000  -3.393760e+001  -5.999414e+001 
3028125000  -3.304668e+001  -6.573709e+001 
3031250000  -3.199526e+001  -7.776466e+001 
3034375000  -3.165536e+001  -9.094909e+001 
3037500000  -3.201653e+001  -1.033815e+002 
3040625000  -3.333456e+001  -1.082927e+002 
3043750000  -3.413482e+001  -1.137531e+002 
3046875000  -3.415477e+001  -1.198372e+002 
3050000000  -3.577212e+001  -1.262851e+002 
3053125000  -3.599534e+001  -1.199382e+002 
3056250000  -3.534746e+001  -1.174274e+002 
3059375000  -3.550341e+001  -1.180687e+002 
3062500000  -3.392694e+001  -1.217668e+002 
3065625000  -3.380988e+001  -1.273577e+002 
3068750000  -3.355399e+001  -1.339761e+002 
3071875000  -3.341748e+001  -1.373036e+002 
3075000000  -3.322927e+001  -1.404962e+002 
3078125000  -3.291214e+001  -1.456279e+002 
3081250000  -3.350108e+001  -1.493986e+002 
3084375000  -3.259309e+001  -1.525261e+002 
3087500000  -3.243328e+001  -1.568338e+002 
3090625000  -3.193150e+001  -1.667475e+002 
3093750000  -3.230946e+001  -1.739941e+002 
3096875000  -3.345910e+001  1.798605e+002 
3100000000  -3.334735e+001  1.775797e+002 
3103125000  -3.359764e+001  1.784536e+002 
3106250000  -3.317725e+001  1.742955e+002 
3109375000  -3.326614e+001  1.706285e+002 
3112500000  -3.325679e+001  1.682929e+002 
3115625000  -3.286996e+001  1.631379e+002 
3118750000  -3.320493e+001  1.638124e+002 
3121875000  -3.240654e+001  1.545707e+002 
3125000000  -3.356681e+001  1.497602e+002 
3128125000  -3.455507e+001  1.571529e+002 
3131250000  -3.212630e+001  1.560751e+002 
3134375000  -3.077381e+001  1.407075e+002 
3137500000  -3.140954e+001  1.263986e+002 
3140625000  -3.290855e+001  1.233548e+002 
3143750000  -3.392055e+001  1.259034e+002 
3146875000  -3.347702e+001  1.256563e+002 
3150000000  -3.235405e+001  1.267061e+002 
3153125000  -3.228394e+001  1.169047e+002 
3156250000  -3.340503e+001  1.225362e+002 
3159375000  -3.177149e+001  1.227414e+002 
3162500000  -2.976366e+001  1.094054e+002 
3165625000  -3.075302e+001  9.673080e+001 
3168750000  -3.106112e+001  9.718217e+001 
3171875000  -3.017621e+001  9.116860e+001 
3175000000  -3.095980e+001  8.250726e+001 
3178125000  -3.073188e+001  8.340905e+001 
3181250000  -2.959232e+001  7.822121e+001 
3184375000  -2.885717e+001  6.524668e+001 
3187500000  -2.998205e+001  4.978355e+001 
3190625000  -3.282309e+001  4.115050e+001 
3193750000  -3.345491e+001  4.966589e+001 
3196875000  -3.301217e+001  5.473086e+001 
3200000000  -3.210561e+001  5.223869e+001 
3203125000  -3.131669e+001  4.562548e+001 
3206250000  -3.159745e+001  3.902469e+001 
3209375000  -3.113649e+001  3.362138e+001 
3212500000  -3.131817e+001  2.643333e+001 
3215625000  -3.142914e+001  2.206064e+001 
3218750000  -3.219288e+001  1.489080e+001 
3221875000  -3.309443e+001  9.299140e+000 
3225000000  -3.266895e+001  8.372728e+000 
3228125000  -3.302023e+001  2.614245e+000 
3231250000  -3.366294e+001  -3.682758e-001 
3234375000  -3.344036e+001  3.546827e-001 
3237500000  -3.349475e+001  -1.512330e+000 
3240625000  -3.311816e+001  -3.629581e+000 
3243750000  -3.256308e+001  -1.116694e+001 
3246875000  -3.308036e+001  -1.891455e+001 
3250000000  -3.350797e+001  -2.117097e+001 
3253125000  -3.362378e+001  -2.286787e+001 
3256250000  -3.335073e+001  -3.014718e+001 
3259375000  -3.361073e+001  -3.831894e+001 
3262500000  -3.473618e+001  -4.250896e+001 
3265625000  -3.537819e+001  -3.958077e+001 
3268750000  -3.526965e+001  -3.756951e+001 
3271875000  -3.488602e+001  -3.739814e+001 
3275000000  -3.388197e+001  -4.439884e+001 
3278125000  -3.439166e+001  -5.133595e+001 
3281250000  -3.452022e+001  -4.950661e+001 
3284375000  -3.420764e+001  -5.671303e+001 
3287500000  -3.425752e+001  -6.091658e+001 
3290625000  -3.448523e+001  -6.592215e+001 
3293750000  -3.429315e+001  -7.152569e+001 
3296875000  -3.532895e+001  -7.239964e+001 
3300000000  -3.506785e+001  -7.170973e+001 
3303125000  -3.403478e+001  -7.635893e+001 
3306250000  -3.367473e+001  -8.384796e+001 
3309375000  -3.336648e+001  -9.038718e+001 
3312500000  -3.358034e+001  -1.006885e+002 
3315625000  -3.444118e+001  -1.094000e+002 
3318750000  -3.577626e+001  -1.116128e+002 
3321875000  -3.704002e+001  -1.120241e+002 
3325000000  -3.746612e+001  -1.076882e+002 
3328125000  -3.700051e+001  -1.067643e+002 
3331250000  -3.595482e+001  -9.815560e+001 
3334375000  -3.321901e+001  -1.093598e+002 
3337500000  -3.320396e+001  -1.291901e+002 
3340625000  -3.453983e+001  -1.395862e+002 
3343750000  -3.659604e+001  -1.414098e+002 
3346875000  -3.676255e+001  -1.397502e+002 
3350000000  -3.612701e+001  -1.414844e+002 
3353125000  -3.619915e+001  -1.457709e+002 
3356250000  -3.571719e+001  -1.544091e+002 
3359375000  -3.660419e+001  -1.625173e+002 
3362500000  -3.758150e+001  -1.687585e+002 
3365625000  -3.799741e+001  -1.695068e+002 
3368750000  -3.871183e+001  -1.726353e+002 
3371875000  -3.908515e+001  -1.747828e+002 
3375000000  -4.033669e+001  -1.774528e+002 
3378125000  -4.141428e+001  -1.764153e+002 
3381250000  -4.232935e+001  -1.687406e+002 
3384375000  -4.119588e+001  -1.495100e+002 
3387500000  -3.771069e+001  -1.634341e+002 
3390625000  -3.935177e+001  1.758475e+002 
3393750000  -4.051258e+001  1.793401e+002 
3396875000  -3.927824e+001  -1.789485e+002 
3400000000  -3.880191e+001  1.736867e+002 
3403125000  -3.935078e+001  1.681763e+002 
3406250000  -3.956886e+001  1.693328e+002 
3409375000  -3.991266e+001  1.600657e+002 
3412500000  -4.044656e+001  1.593819e+002 
3415625000  -4.129497e+001  1.583802e+002 
3418750000  -4.098230e+001  1.586649e+002 
3421875000  -4.141541e+001  1.616770e+002 
3425000000  -4.038429e+001  1.629565e+002 
3428125000  -3.932878e+001  1.584368e+002 
3431250000  -3.952908e+001  1.517664e+002 
3434375000  -3.926123e+001  1.464252e+002 
3437500000  -3.972344e+001  1.431198e+002 
3440625000  -4.003872e+001  1.445882e+002 
3443750000  -3.879192e+001  1.448502e+002 
3446875000  -3.811293e+001  1.375586e+002 
3450000000  -3.765311e+001  1.272200e+002 
3453125000  -3.795607e+001  1.158519e+002 
3456250000  -3.917677e+001  1.115209e+002 
3459375000  -3.986531e+001  1.103005e+002 
3462500000  -3.991845e+001  1.102933e+002 
3465625000  -3.977732e+001  1.056806e+002 
3468750000  -3.989959e+001  1.022646e+002 
3471875000  -3.995358e+001  1.004516e+002 
3475000000  -3.927076e+001  9.445313e+001 
3478125000  -4.016264e+001  8.749553e+001 
3481250000  -4.092529e+001  8.477884e+001 
3484375000  -4.210200e+001  8.758387e+001 
3487500000  -4.110220e+001  8.656142e+001 
3490625000  -4.050191e+001  8.264127e+001 
3493750000  -4.114599e+001  7.614713e+001 
3496875000  -4.170686e+001  7.336731e+001 
3500000000  -4.210596e+001  7.594786e+001 
3503125000  -4.176033e+001  7.677921e+001 
3506250000  -4.055312e+001  7.324651e+001 
3509375000  -4.054994e+001  6.373624e+001 
3512500000  -4.092959e+001  5.486389e+001 
3515625000  -4.170064e+001  5.220942e+001 
3518750000  -4.253346e+001  5.185056e+001 
3521875000  -4.255075e+001  4.852262e+001 
3525000000  -4.344699e+001  4.643320e+001 
3528125000  -4.359797e+001  5.389144e+001 
3531250000  -4.239995e+001  5.254959e+001 
3534375000  -4.231967e+001  4.356520e+001 
3537500000  -4.282854e+001  3.655094e+001 
3540625000  -4.396714e+001  3.389820e+001 
3543750000  -4.440561e+001  3.765844e+001 
3546875000  -4.482933e+001  5.145307e+001 
3550000000  -4.199833e+001  5.337682e+001 
3553125000  -4.073259e+001  3.612295e+001 
3556250000  -4.203878e+001  3.009567e+001 
3559375000  -4.214542e+001  3.064356e+001 
3562500000  -4.086076e+001  2.377309e+001 
3565625000  -4.177780e+001  1.477280e+001 
3568750000  -4.199311e+001  1.725138e+001 
3571875000  -4.162410e+001  1.634682e+001 
3575000000  -4.123247e+001  9.896454e+000 
3578125000  -4.168637e+001  4.643775e+000 
3581250000  -4.166001e+001  4.516697e+000 
3584375000  -4.089731e+001  4.641156e-001 
3587500000  -4.040773e+001  -7.377006e+000 
3590625000  -4.104697e+001  -1.665811e+001 
3593750000  -4.221588e+001  -1.851955e+001 
3596875000  -4.208915e+001  -1.391146e+001 
3600000000  -4.056213e+001  -2.036472e+001 
3603125000  -4.101532e+001  -3.361635e+001 
3606250000  -4.176961e+001  -3.747860e+001 
3609375000  -4.221311e+001  -4.133446e+001 
3612500000  -4.299751e+001  -4.478438e+001 
3615625000  -4.322243e+001  -4.958442e+001 
3618750000  -4.386291e+001  -4.992442e+001 
3621875000  -4.354718e+001  -5.219197e+001 
3625000000  -4.472720e+001  -5.329259e+001 
3628125000  -4.465042e+001  -5.625252e+001 
3631250000  -4.430688e+001  -5.996121e+001 
3634375000  -4.602274e+001  -6.014925e+001 
3637500000  -4.606441e+001  -5.554634e+001 
3640625000  -4.520973e+001  -5.076407e+001 
3643750000  -4.503891e+001  -6.049476e+001 
3646875000  -4.593043e+001  -6.576260e+001 
3650000000  -4.668443e+001  -6.529418e+001 
3653125000  -4.664048e+001  -6.362383e+001 
3656250000  -4.688623e+001  -6.620544e+001 
3659375000  -4.725651e+001  -6.069312e+001 
3662500000  -4.616219e+001  -6.097201e+001 
3665625000  -4.612768e+001  -6.250796e+001 
3668750000  -4.516785e+001  -6.091590e+001 
3671875000  -4.352680e+001  -6.772058e+001 
3675000000  -4.443532e+001  -7.449893e+001 
3678125000  -4.445042e+001  -7.333854e+001 
3681250000  -4.430619e+001  -7.384635e+001 
3684375000  -4.392001e+001  -8.022725e+001 
3687500000  -4.416833e+001  -8.548764e+001 
3690625000  -4.401903e+001  -8.741885e+001 
3693750000  -4.459502e+001  -8.592354e+001 
3696875000  -4.469146e+001  -8.596839e+001 
3700000000  -4.362596e+001  -9.109120e+001 
3703125000  -4.384834e+001  -9.853975e+001 
3706250000  -4.438904e+001  -9.783027e+001 
3709375000  -4.417328e+001  -9.735539e+001 
3712500000  -4.323412e+001  -9.851437e+001 
3715625000  -4.222232e+001  -1.028779e+002 
3718750000  -4.193106e+001  -1.122757e+002 
3721875000  -4.187189e+001  -1.174628e+002 
3725000000  -4.183765e+001  -1.222649e+002 
3728125000  -4.231361e+001  -1.232880e+002 
3731250000  -4.186987e+001  -1.276674e+002 
3734375000  -4.150757e+001  -1.313431e+002 
3737500000  -4.248298e+001  -1.400047e+002 
3740625000  -4.326260e+001  -1.430382e+002 
3743750000  -4.322432e+001  -1.478414e+002 
3746875000  -4.360873e+001  -1.489264e+002 
3750000000  -4.414783e+001  -1.487186e+002 
3753125000  -4.431511e+001  -1.497731e+002 
3756250000  -4.473032e+001  -1.497896e+002 
3759375000  -4.450590e+001  -1.501701e+002 
3762500000  -4.411476e+001  -1.542973e+002 
3765625000  -4.479372e+001  -1.522693e+002 
3768750000  -4.495806e+001  -1.502825e+002 
3771875000  -4.311507e+001  -1.514706e+002 
3775000000  -4.289229e+001  -1.569026e+002 
3778125000  -4.324860e+001  -1.611935e+002 
3781250000  -4.298528e+001  -1.625105e+002 
3784375000  -4.274471e+001  -1.631355e+002 
3787500000  -4.187229e+001  -1.658796e+002 
3790625000  -4.251267e+001  -1.726729e+002 
3793750000  -4.241332e+001  -1.739766e+002 
3796875000  -4.133303e+001  -1.742952e+002 
3800000000  -3.994708e+001  -1.765752e+002 
3803125000  -4.007088e+001  1.743210e+002 
3806250000  -4.071785e+001  1.707488e+002 
3809375000  -4.065477e+001  1.689227e+002 
3812500000  -3.985556e+001  1.628776e+002 
3815625000  -4.027795e+001  1.534596e+002 
3818750000  -4.123096e+001  1.534115e+002 
3821875000  -4.167771e+001  1.595392e+002 
3825000000  -3.971074e+001  1.625899e+002 
3828125000  -3.821135e+001  1.477753e+002 
3831250000  -3.861773e+001  1.326307e+002 
3834375000  -4.011252e+001  1.307932e+002 
3837500000  -4.087432e+001  1.339975e+002 
3840625000  -3.970876e+001  1.308605e+002 
3843750000  -3.878811e+001  1.201613e+002 
3846875000  -3.945448e+001  1.136847e+002 
3850000000  -4.090984e+001  1.179330e+002 
3853125000  -3.992475e+001  1.196669e+002 
3856250000  -3.987703e+001  1.126345e+002 
3859375000  -3.947096e+001  1.089171e+002 
3862500000  -3.913231e+001  1.008171e+002 
3865625000  -3.946151e+001  9.653394e+001 
3868750000  -3.923453e+001  9.502721e+001 
3871875000  -3.883500e+001  9.142679e+001 
3875000000  -3.911736e+001  8.079234e+001 
3878125000  -4.012302e+001  7.856259e+001 
3881250000  -4.007873e+001  8.232551e+001 
3884375000  -3.978299e+001  7.786207e+001 
3887500000  -3.989966e+001  7.134981e+001 
3890625000  -4.036878e+001  6.751408e+001 
3893750000  -4.082059e+001  6.565142e+001 
3896875000  -4.089867e+001  6.622503e+001 
3900000000  -4.121549e+001  6.655534e+001 
3903125000  -4.072190e+001  6.375687e+001 
3906250000  -4.046694e+001  6.143716e+001 
3909375000  -3.957821e+001  5.850981e+001 
3912500000  -3.947792e+001  4.939305e+001 
3915625000  -4.112421e+001  5.136020e+001 
3918750000  -4.081671e+001  5.244738e+001 
3921875000  -4.029744e+001  4.619401e+001 
3925000000  -3.955930e+001  4.601020e+001 
3928125000  -3.911180e+001  3.940406e+001 
3931250000  -3.935606e+001  3.408221e+001 
3934375000  -3.967434e+001  3.240743e+001 
3937500000  -3.979184e+001  3.214802e+001 
3940625000  -4.040313e+001  3.034051e+001 
3943750000  -3.940009e+001  3.149768e+001 
3946875000  -3.804580e+001  2.485736e+001 
3950000000  -3.852332e+001  1.613083e+001 
3953125000  -3.997640e+001  1.427472e+001 
3956250000  -3.887740e+001  1.820812e+001 
3959375000  -3.765858e+001  1.245042e+001 
3962500000  -3.732335e+001  8.657089e+000 
3965625000  -3.716231e+001  -2.332303e+000 
3968750000  -3.807220e+001  -9.476645e+000 
3971875000  -3.841798e+001  -1.170796e+001 
3975000000  -3.796471e+001  -1.423598e+001 
3978125000  -3.765025e+001  -1.659516e+001 
3981250000  -3.779543e+001  -2.246134e+001 
3984375000  -3.790514e+001  -2.830382e+001 
3987500000  -3.849858e+001  -3.104397e+001 
3990625000  -3.827027e+001  -3.250497e+001 
3993750000  -3.862541e+001  -3.597229e+001 
3996875000  -3.888432e+001  -4.079664e+001 
4000000000  -3.915183e+001  -4.142418e+001 
4003125000  -3.925871e+001  -3.963655e+001 
4006250000  -3.809118e+001  -4.189083e+001 
4009375000  -3.708325e+001  -5.540294e+001 
4012500000  -3.820785e+001  -6.124487e+001 
4015625000  -3.913463e+001  -6.280582e+001 
4018750000  -3.952222e+001  -6.073416e+001 
4021875000  -3.878082e+001  -6.266495e+001 
4025000000  -3.853856e+001  -6.886881e+001 
4028125000  -3.843818e+001  -7.188313e+001 
4031250000  -3.903657e+001  -7.688926e+001 
4034375000  -3.945358e+001  -7.792152e+001 
4037500000  -3.876806e+001  -7.580704e+001 
4040625000  -3.855360e+001  -8.087893e+001 
4043750000  -3.916666e+001  -8.169754e+001 
4046875000  -3.861032e+001  -8.160472e+001 
4050000000  -3.802698e+001  -8.878925e+001 
4053125000  -3.872581e+001  -9.233036e+001 
4056250000  -3.914989e+001  -8.698068e+001 
4059375000  -3.810730e+001  -8.687697e+001 
4062500000  -3.659343e+001  -9.379037e+001 
4065625000  -3.645667e+001  -9.707879e+001 
4068750000  -3.611991e+001  -1.032765e+002 
4071875000  -3.563376e+001  -1.124395e+002 
4075000000  -3.597920e+001  -1.194378e+002 
4078125000  -3.636823e+001  -1.203870e+002 
4081250000  -3.606390e+001  -1.233580e+002 
4084375000  -3.548613e+001  -1.313898e+002 
4087500000  -3.590544e+001  -1.378170e+002 
4090625000  -3.665245e+001  -1.405399e+002 
4093750000  -3.648196e+001  -1.410775e+002 
4096875000  -3.613029e+001  -1.472493e+002 
4100000000  -3.680777e+001  -1.550317e+002 
4103125000  -3.753349e+001  -1.544580e+002 
4106250000  -3.758268e+001  -1.497571e+002 
4109375000  -3.660199e+001  -1.513260e+002 
4112500000  -3.618195e+001  -1.606268e+002 
4115625000  -3.633368e+001  -1.639715e+002 
4118750000  -3.673890e+001  -1.696418e+002 
4121875000  -3.619317e+001  -1.734496e+002 
4125000000  -3.671470e+001  1.793729e+002 
4128125000  -3.769161e+001  1.788703e+002 
4131250000  -3.734621e+001  -1.734685e+002 
4134375000  -3.517288e+001  -1.795520e+002 
4137500000  -3.500918e+001  1.614784e+002 
4140625000  -3.713633e+001  1.540138e+002 
4143750000  -3.841560e+001  1.573274e+002 
4146875000  -3.805335e+001  1.634696e+002 
4150000000  -3.720302e+001  1.604972e+002 
4153125000  -3.722230e+001  1.530087e+002 
4156250000  -3.814328e+001  1.498494e+002 
4159375000  -3.847847e+001  1.532597e+002 
4162500000  -3.734229e+001  1.593574e+002 
4165625000  -3.615977e+001  1.543701e+002 
4168750000  -3.551467e+001  1.445101e+002 
4171875000  -3.564749e+001  1.357669e+002 
4175000000  -3.631693e+001  1.297105e+002 
4178125000  -3.684101e+001  1.290598e+002 
4181250000  -3.681024e+001  1.276540e+002 
4184375000  -3.655522e+001  1.243261e+002 
4187500000  -3.668792e+001  1.201528e+002 
4190625000  -3.659864e+001  1.146204e+002 
4193750000  -3.715772e+001  1.106368e+002 
4196875000  -3.799788e+001  1.099189e+002 
4200000000  -3.882640e+001  1.116359e+002 
4203125000  -3.854114e+001  1.247672e+002 
4206250000  -3.524011e+001  1.237027e+002 
4209375000  -3.414080e+001  1.029522e+002 
4212500000  -3.623386e+001  9.401248e+001 
4215625000  -3.702398e+001  1.002135e+002 
4218750000  -3.558223e+001  1.065463e+002 
4221875000  -3.330560e+001  9.561149e+001 
4225000000  -3.445886e+001  8.144215e+001 
4228125000  -3.520314e+001  8.636839e+001 
4231250000  -3.382069e+001  8.183643e+001 
4234375000  -3.350372e+001  7.229660e+001 
4237500000  -3.311903e+001  6.872245e+001 
4240625000  -3.314222e+001  5.863743e+001 
4243750000  -3.412421e+001  5.031202e+001 
4246875000  -3.502435e+001  4.976245e+001 
4250000000  -3.494684e+001  5.078451e+001 
4253125000  -3.440457e+001  4.867167e+001 
4256250000  -3.495975e+001  4.295350e+001 
4259375000  -3.450861e+001  4.117387e+001 
4262500000  -3.482006e+001  3.490135e+001 
4265625000  -3.460579e+001  3.533873e+001 
4268750000  -3.388985e+001  3.017137e+001 
4271875000  -3.374560e+001  2.228733e+001 
4275000000  -3.333849e+001  1.552098e+001 
4278125000  -3.415898e+001  2.802764e+000 
4281250000  -3.589236e+001  4.150175e-001 
4284375000  -3.583872e+001  1.342725e+000 
4287500000  -3.658947e+001  -3.456885e+000 
4290625000  -3.804111e+001  5.286134e+000 
4293750000  -3.592663e+001  1.093229e+001 
4296875000  -3.485625e+001  -7.020670e-001 
4300000000  -3.564906e+001  -1.091608e+001 
4303125000  -3.668972e+001  -7.194926e+000 
4306250000  -3.621645e+001  -2.837646e+000 
4309375000  -3.485907e+001  -5.269000e+000 
4312500000  -3.468359e+001  -1.350766e+001 
4315625000  -3.467302e+001  -1.985142e+001 
4318750000  -3.523169e+001  -2.318793e+001 
4321875000  -3.526551e+001  -2.287568e+001 
4325000000  -3.461294e+001  -2.290299e+001 
4328125000  -3.391046e+001  -2.929958e+001 
4331250000  -3.385217e+001  -3.803055e+001 
4334375000  -3.434505e+001  -4.343681e+001 
4337500000  -3.497557e+001  -4.600291e+001 
4340625000  -3.561062e+001  -4.375265e+001 
4343750000  -3.471319e+001  -4.313831e+001 
4346875000  -3.436752e+001  -5.053829e+001 
4350000000  -3.431750e+001  -5.593616e+001 
4353125000  -3.417922e+001  -6.425144e+001 
4356250000  -3.589689e+001  -6.598337e+001 
4359375000  -3.645251e+001  -5.378022e+001 
4362500000  -3.360192e+001  -5.212720e+001 
4365625000  -3.199111e+001  -6.517425e+001 
4368750000  -3.258529e+001  -7.974342e+001 
4371875000  -3.372268e+001  -7.961487e+001 
4375000000  -3.336482e+001  -8.041544e+001 
4378125000  -3.271682e+001  -8.613962e+001 
4381250000  -3.285598e+001  -9.387760e+001 
4384375000  -3.274280e+001  -9.881013e+001 
4387500000  -3.351343e+001  -1.070716e+002 
4390625000  -3.448244e+001  -1.067304e+002 
4393750000  -3.388501e+001  -1.057497e+002 
4396875000  -3.313860e+001  -1.083606e+002 
4400000000  -3.277932e+001  -1.177236e+002 
4403125000  -3.348618e+001  -1.257669e+002 
4406250000  -3.424401e+001  -1.282862e+002 
4409375000  -3.449488e+001  -1.313917e+002 
4412500000  -3.566077e+001  -1.346378e+002 
4415625000  -3.596638e+001  -1.323958e+002 
