!Agilent Technologies,E8363B,MY43030201,A.06.04.32
!Agilent E8363B: A.06.04.32
!Date: Tuesday, November 11, 2014 21:07:38
!Correction: S21(Response(S21)) 
!S1P File: Measurement: S21:
# Hz S  dB   R 50
3000000000  -3.649975e+001  -5.120457e+001 
3003125000  -3.768471e+001  -5.768697e+001 
3006250000  -3.755363e+001  -5.929370e+001 
3009375000  -3.776245e+001  -5.525797e+001 
3012500000  -3.704472e+001  -5.744620e+001 
3015625000  -3.618245e+001  -6.482121e+001 
3018750000  -3.682388e+001  -6.533298e+001 
3021875000  -3.546650e+001  -6.449350e+001 
3025000000  -3.414930e+001  -6.886354e+001 
3028125000  -3.322123e+001  -7.519176e+001 
3031250000  -3.213391e+001  -8.670287e+001 
3034375000  -3.182164e+001  -1.000903e+002 
3037500000  -3.235130e+001  -1.122502e+002 
3040625000  -3.355735e+001  -1.166193e+002 
3043750000  -3.426084e+001  -1.223979e+002 
3046875000  -3.445651e+001  -1.279854e+002 
3050000000  -3.608170e+001  -1.349607e+002 
3053125000  -3.602301e+001  -1.281049e+002 
3056250000  -3.557452e+001  -1.246038e+002 
3059375000  -3.565689e+001  -1.258041e+002 
3062500000  -3.400992e+001  -1.288862e+002 
3065625000  -3.390750e+001  -1.350269e+002 
3068750000  -3.356581e+001  -1.419626e+002 
3071875000  -3.352797e+001  -1.443343e+002 
3075000000  -3.328273e+001  -1.492001e+002 
3078125000  -3.306198e+001  -1.532680e+002 
3081250000  -3.347663e+001  -1.575747e+002 
3084375000  -3.267284e+001  -1.611289e+002 
3087500000  -3.253187e+001  -1.649821e+002 
3090625000  -3.200756e+001  -1.753977e+002 
3093750000  -3.251183e+001  1.776379e+002 
3096875000  -3.345353e+001  1.717196e+002 
3100000000  -3.343695e+001  1.696671e+002 
3103125000  -3.367995e+001  1.704791e+002 
3106250000  -3.311829e+001  1.660303e+002 
3109375000  -3.320007e+001  1.622320e+002 
3112500000  -3.319334e+001  1.596583e+002 
3115625000  -3.286710e+001  1.553850e+002 
3118750000  -3.330899e+001  1.554827e+002 
3121875000  -3.228499e+001  1.453384e+002 
3125000000  -3.355843e+001  1.419704e+002 
3128125000  -3.446659e+001  1.493107e+002 
3131250000  -3.203291e+001  1.476163e+002 
3134375000  -3.075623e+001  1.314692e+002 
3137500000  -3.134862e+001  1.176899e+002 
3140625000  -3.283066e+001  1.151707e+002 
3143750000  -3.379165e+001  1.158021e+002 
3146875000  -3.331312e+001  1.176393e+002 
3150000000  -3.237123e+001  1.177242e+002 
3153125000  -3.230220e+001  1.084296e+002 
3156250000  -3.330581e+001  1.130508e+002 
3159375000  -3.159238e+001  1.146154e+002 
3162500000  -2.965217e+001  9.987521e+001 
3165625000  -3.073518e+001  8.757648e+001 
3168750000  -3.101027e+001  8.820217e+001 
3171875000  -3.009451e+001  8.210606e+001 
3175000000  -3.087531e+001  7.361781e+001 
3178125000  -3.058494e+001  7.419618e+001 
3181250000  -2.957613e+001  6.880652e+001 
3184375000  -2.884231e+001  5.588223e+001 
3187500000  -3.009871e+001  4.061885e+001 
3190625000  -3.275849e+001  3.292026e+001 
3193750000  -3.328894e+001  4.145422e+001 
3196875000  -3.290503e+001  4.617568e+001 
3200000000  -3.199330e+001  4.304060e+001 
3203125000  -3.118636e+001  3.635388e+001 
3206250000  -3.154058e+001  2.977431e+001 
3209375000  -3.106088e+001  2.405282e+001 
3212500000  -3.127378e+001  1.741544e+001 
3215625000  -3.136097e+001  1.353259e+001 
3218750000  -3.221737e+001  5.876009e+000 
3221875000  -3.291860e+001  4.461375e-001 
3225000000  -3.256203e+001  -1.018960e+000 
3228125000  -3.295703e+001  -6.136618e+000 
3231250000  -3.361281e+001  -8.671587e+000 
3234375000  -3.333824e+001  -8.438550e+000 
3237500000  -3.338020e+001  -1.002589e+001 
3240625000  -3.290765e+001  -1.269086e+001 
3243750000  -3.251611e+001  -2.078149e+001 
3246875000  -3.297742e+001  -2.734293e+001 
3250000000  -3.338240e+001  -2.972348e+001 
3253125000  -3.345419e+001  -3.214891e+001 
3256250000  -3.316567e+001  -3.864814e+001 
3259375000  -3.343359e+001  -4.736534e+001 
3262500000  -3.461895e+001  -5.139889e+001 
3265625000  -3.530889e+001  -4.779736e+001 
3268750000  -3.508027e+001  -4.631269e+001 
3271875000  -3.466055e+001  -4.640108e+001 
3275000000  -3.363899e+001  -5.313651e+001 
3278125000  -3.422755e+001  -6.034860e+001 
3281250000  -3.432215e+001  -5.917621e+001 
3284375000  -3.384983e+001  -6.562083e+001 
3287500000  -3.405804e+001  -6.944313e+001 
3290625000  -3.430068e+001  -7.525944e+001 
3293750000  -3.401224e+001  -8.137038e+001 
3296875000  -3.516744e+001  -8.134555e+001 
3300000000  -3.486510e+001  -8.098782e+001 
3303125000  -3.362548e+001  -8.684489e+001 
3306250000  -3.345209e+001  -9.383475e+001 
3309375000  -3.320663e+001  -9.986299e+001 
3312500000  -3.326807e+001  -1.115876e+002 
3315625000  -3.426957e+001  -1.195437e+002 
3318750000  -3.575663e+001  -1.214890e+002 
3321875000  -3.680313e+001  -1.216381e+002 
3325000000  -3.727673e+001  -1.164321e+002 
3328125000  -3.691105e+001  -1.157071e+002 
3331250000  -3.551576e+001  -1.084101e+002 
3334375000  -3.284830e+001  -1.204781e+002 
3337500000  -3.293517e+001  -1.401517e+002 
3340625000  -3.432442e+001  -1.505081e+002 
3343750000  -3.651447e+001  -1.519472e+002 
3346875000  -3.658900e+001  -1.501990e+002 
3350000000  -3.594970e+001  -1.513951e+002 
3353125000  -3.589225e+001  -1.561142e+002 
3356250000  -3.545833e+001  -1.647414e+002 
3359375000  -3.628010e+001  -1.724710e+002 
3362500000  -3.750020e+001  -1.784788e+002 
3365625000  -3.794581e+001  -1.790421e+002 
3368750000  -3.859071e+001  1.772747e+002 
3371875000  -3.896420e+001  1.747640e+002 
3375000000  -4.035283e+001  1.708071e+002 
3378125000  -4.102755e+001  1.715287e+002 
3381250000  -4.225784e+001  -1.771833e+002 
3384375000  -4.104097e+001  -1.589617e+002 
3387500000  -3.725867e+001  -1.762850e+002 
3390625000  -3.915197e+001  1.646817e+002 
3393750000  -4.048767e+001  1.694088e+002 
3396875000  -3.891827e+001  1.707889e+002 
3400000000  -3.861028e+001  1.628175e+002 
3403125000  -3.916063e+001  1.567544e+002 
3406250000  -3.967247e+001  1.561026e+002 
3409375000  -3.987051e+001  1.488111e+002 
3412500000  -4.021112e+001  1.460519e+002 
3415625000  -4.085531e+001  1.479142e+002 
3418750000  -4.096721e+001  1.479040e+002 
3421875000  -4.102506e+001  1.503483e+002 
3425000000  -4.021322e+001  1.517579e+002 
3428125000  -3.919415e+001  1.464828e+002 
3431250000  -3.908257e+001  1.416816e+002 
3434375000  -3.913485e+001  1.354831e+002 
3437500000  -3.979683e+001  1.320122e+002 
3440625000  -3.986542e+001  1.316115e+002 
3443750000  -3.860490e+001  1.333882e+002 
3446875000  -3.788324e+001  1.254915e+002 
3450000000  -3.745816e+001  1.150261e+002 
3453125000  -3.797831e+001  1.054059e+002 
3456250000  -3.897750e+001  9.840265e+001 
3459375000  -4.001285e+001  9.957698e+001 
3462500000  -3.965394e+001  9.976344e+001 
3465625000  -3.992269e+001  9.456783e+001 
3468750000  -4.008088e+001  9.042668e+001 
3471875000  -3.986570e+001  8.811124e+001 
3475000000  -3.948532e+001  8.360564e+001 
3478125000  -4.031112e+001  7.640219e+001 
3481250000  -4.123627e+001  7.476929e+001 
3484375000  -4.224546e+001  7.841606e+001 
3487500000  -4.123706e+001  7.699040e+001 
3490625000  -4.087195e+001  7.355003e+001 
3493750000  -4.124992e+001  6.633820e+001 
3496875000  -4.168357e+001  6.475832e+001 
3500000000  -4.241624e+001  6.609625e+001 
3503125000  -4.188057e+001  6.704655e+001 
3506250000  -4.050863e+001  6.259230e+001 
3509375000  -4.046887e+001  5.260557e+001 
3512500000  -4.109193e+001  4.361894e+001 
3515625000  -4.180381e+001  4.382785e+001 
3518750000  -4.263055e+001  4.277296e+001 
3521875000  -4.241328e+001  4.012691e+001 
3525000000  -4.323751e+001  3.653819e+001 
3528125000  -4.329395e+001  4.698414e+001 
3531250000  -4.178490e+001  4.463607e+001 
3534375000  -4.218118e+001  3.328932e+001 
3537500000  -4.262295e+001  2.653402e+001 
3540625000  -4.355691e+001  2.702835e+001 
3543750000  -4.431407e+001  3.144395e+001 
3546875000  -4.407199e+001  4.329928e+001 
3550000000  -4.188054e+001  4.276568e+001 
3553125000  -4.031129e+001  2.743539e+001 
3556250000  -4.156115e+001  1.991220e+001 
3559375000  -4.150587e+001  2.051362e+001 
3562500000  -4.029139e+001  1.314187e+001 
3565625000  -4.138628e+001  5.403333e+000 
3568750000  -4.177844e+001  8.534160e+000 
3571875000  -4.128113e+001  4.679916e+000 
3575000000  -4.078884e+001  -4.955248e-001 
3578125000  -4.155763e+001  -4.949885e+000 
3581250000  -4.150762e+001  -6.265555e+000 
3584375000  -4.042749e+001  -9.464116e+000 
3587500000  -4.025211e+001  -1.690312e+001 
3590625000  -4.057896e+001  -2.910482e+001 
3593750000  -4.180470e+001  -3.041273e+001 
3596875000  -4.138646e+001  -2.337728e+001 
3600000000  -4.002294e+001  -2.994244e+001 
3603125000  -4.057297e+001  -4.420785e+001 
3606250000  -4.148393e+001  -4.919516e+001 
3609375000  -4.192610e+001  -5.147686e+001 
3612500000  -4.265648e+001  -5.446960e+001 
3615625000  -4.291431e+001  -5.818496e+001 
3618750000  -4.378350e+001  -5.831204e+001 
3621875000  -4.344786e+001  -6.056730e+001 
3625000000  -4.413017e+001  -6.182484e+001 
3628125000  -4.431732e+001  -6.372550e+001 
3631250000  -4.403351e+001  -7.204412e+001 
3634375000  -4.525547e+001  -6.948733e+001 
3637500000  -4.589926e+001  -6.464801e+001 
3640625000  -4.462978e+001  -6.405116e+001 
3643750000  -4.398744e+001  -7.006421e+001 
3646875000  -4.496847e+001  -7.463388e+001 
3650000000  -4.551628e+001  -7.597032e+001 
3653125000  -4.534764e+001  -7.697121e+001 
3656250000  -4.576194e+001  -7.611950e+001 
3659375000  -4.626781e+001  -7.470200e+001 
3662500000  -4.563157e+001  -7.319033e+001 
3665625000  -4.500107e+001  -7.410771e+001 
3668750000  -4.384171e+001  -7.413985e+001 
3671875000  -4.313643e+001  -8.039881e+001 
3675000000  -4.318668e+001  -8.704605e+001 
3678125000  -4.342022e+001  -8.954687e+001 
3681250000  -4.320456e+001  -8.962237e+001 
3684375000  -4.315122e+001  -9.425343e+001 
3687500000  -4.309018e+001  -9.796526e+001 
3690625000  -4.298964e+001  -1.035129e+002 
3693750000  -4.436106e+001  -1.045518e+002 
3696875000  -4.393202e+001  -1.024305e+002 
3700000000  -4.288808e+001  -1.070127e+002 
3703125000  -4.328920e+001  -1.116722e+002 
3706250000  -4.392520e+001  -1.139930e+002 
3709375000  -4.354670e+001  -1.101587e+002 
3712500000  -4.261337e+001  -1.142800e+002 
3715625000  -4.164416e+001  -1.217630e+002 
3718750000  -4.137181e+001  -1.267847e+002 
3721875000  -4.119595e+001  -1.327589e+002 
3725000000  -4.148228e+001  -1.389126e+002 
3728125000  -4.164130e+001  -1.391105e+002 
3731250000  -4.160389e+001  -1.422830e+002 
3734375000  -4.091345e+001  -1.498179e+002 
3737500000  -4.206429e+001  -1.585355e+002 
3740625000  -4.303343e+001  -1.579209e+002 
3743750000  -4.273842e+001  -1.643257e+002 
3746875000  -4.328414e+001  -1.680074e+002 
3750000000  -4.417617e+001  -1.680574e+002 
3753125000  -4.371902e+001  -1.683445e+002 
3756250000  -4.410227e+001  -1.668477e+002 
3759375000  -4.412071e+001  -1.676745e+002 
3762500000  -4.390182e+001  -1.707839e+002 
3765625000  -4.463894e+001  -1.697504e+002 
3768750000  -4.439899e+001  -1.649191e+002 
3771875000  -4.294037e+001  -1.677745e+002 
3775000000  -4.309097e+001  -1.738756e+002 
3778125000  -4.313527e+001  -1.776409e+002 
3781250000  -4.310870e+001  -1.780878e+002 
3784375000  -4.262893e+001  -1.777770e+002 
3787500000  -4.198465e+001  1.789891e+002 
3790625000  -4.245660e+001  1.714421e+002 
3793750000  -4.225857e+001  1.703741e+002 
3796875000  -4.136288e+001  1.701235e+002 
3800000000  -3.979595e+001  1.682576e+002 
3803125000  -4.041208e+001  1.574164e+002 
3806250000  -4.105611e+001  1.539635e+002 
3809375000  -4.081977e+001  1.537413e+002 
3812500000  -3.999331e+001  1.482665e+002 
3815625000  -4.058179e+001  1.364106e+002 
3818750000  -4.160223e+001  1.357088e+002 
3821875000  -4.152666e+001  1.476117e+002 
3825000000  -3.958214e+001  1.480608e+002 
3828125000  -3.812746e+001  1.315590e+002 
3831250000  -3.903531e+001  1.164289e+002 
3834375000  -4.025705e+001  1.162528e+002 
3837500000  -4.119276e+001  1.193793e+002 
3840625000  -3.996894e+001  1.158311e+002 
3843750000  -3.889838e+001  1.067849e+002 
3846875000  -3.979922e+001  9.913873e+001 
3850000000  -4.105693e+001  1.049154e+002 
3853125000  -4.008066e+001  1.060273e+002 
3856250000  -4.024279e+001  9.837034e+001 
3859375000  -3.926616e+001  9.218309e+001 
3862500000  -3.949586e+001  8.498716e+001 
3865625000  -3.984645e+001  8.155608e+001 
3868750000  -3.947427e+001  8.041486e+001 
3871875000  -3.924447e+001  7.565325e+001 
3875000000  -3.936174e+001  6.757289e+001 
3878125000  -4.055201e+001  6.271849e+001 
3881250000  -4.046078e+001  6.787201e+001 
3884375000  -4.008179e+001  6.035704e+001 
3887500000  -4.051957e+001  5.843669e+001 
3890625000  -4.063506e+001  5.312955e+001 
3893750000  -4.088146e+001  5.153634e+001 
3896875000  -4.145089e+001  5.339325e+001 
3900000000  -4.152304e+001  4.954486e+001 
3903125000  -4.152921e+001  5.095267e+001 
3906250000  -4.086643e+001  4.899504e+001 
3909375000  -3.993691e+001  4.467322e+001 
3912500000  -3.987574e+001  3.736729e+001 
3915625000  -4.141288e+001  3.792324e+001 
3918750000  -4.103886e+001  3.983949e+001 
3921875000  -4.060234e+001  3.456596e+001 
3925000000  -3.969286e+001  3.287188e+001 
3928125000  -3.911869e+001  2.425500e+001 
3931250000  -3.964707e+001  2.148839e+001 
3934375000  -4.003145e+001  2.022509e+001 
3937500000  -4.008989e+001  1.819708e+001 
3940625000  -4.067987e+001  1.593134e+001 
3943750000  -3.946634e+001  1.581468e+001 
3946875000  -3.821939e+001  1.070571e+001 
3950000000  -3.919757e+001  7.814556e-001 
3953125000  -4.025983e+001  3.123808e-001 
3956250000  -3.899905e+001  3.295376e+000 
3959375000  -3.802999e+001  -1.051074e+000 
3962500000  -3.732475e+001  -6.034609e+000 
3965625000  -3.715957e+001  -1.678675e+001 
3968750000  -3.818231e+001  -2.439471e+001 
3971875000  -3.859214e+001  -2.685070e+001 
3975000000  -3.780545e+001  -2.879332e+001 
3978125000  -3.785765e+001  -3.257290e+001 
3981250000  -3.761525e+001  -3.664114e+001 
3984375000  -3.811144e+001  -4.364408e+001 
3987500000  -3.866426e+001  -4.586949e+001 
3990625000  -3.870416e+001  -4.687760e+001 
3993750000  -3.887527e+001  -5.278469e+001 
3996875000  -3.886208e+001  -5.533331e+001 
4000000000  -3.930039e+001  -5.717219e+001 
4003125000  -3.960606e+001  -5.548861e+001 
4006250000  -3.816038e+001  -5.623931e+001 
4009375000  -3.730252e+001  -6.966688e+001 
4012500000  -3.835003e+001  -7.788644e+001 
4015625000  -3.959776e+001  -7.586409e+001 
4018750000  -3.981322e+001  -7.378822e+001 
4021875000  -3.900798e+001  -7.502493e+001 
4025000000  -3.869724e+001  -8.152763e+001 
4028125000  -3.868976e+001  -8.562021e+001 
4031250000  -3.930563e+001  -8.995380e+001 
4034375000  -3.942025e+001  -9.085983e+001 
4037500000  -3.908097e+001  -8.914565e+001 
4040625000  -3.896205e+001  -9.316000e+001 
4043750000  -3.903122e+001  -9.469321e+001 
4046875000  -3.878577e+001  -9.575585e+001 
4050000000  -3.819667e+001  -1.025251e+002 
4053125000  -3.907348e+001  -1.040472e+002 
4056250000  -3.946899e+001  -9.996896e+001 
4059375000  -3.792001e+001  -1.011893e+002 
4062500000  -3.672313e+001  -1.062008e+002 
4065625000  -3.663174e+001  -1.107911e+002 
4068750000  -3.639673e+001  -1.172943e+002 
4071875000  -3.573740e+001  -1.251103e+002 
4075000000  -3.601475e+001  -1.322958e+002 
4078125000  -3.667257e+001  -1.341517e+002 
4081250000  -3.613970e+001  -1.374490e+002 
4084375000  -3.561460e+001  -1.462600e+002 
4087500000  -3.625231e+001  -1.523696e+002 
4090625000  -3.683914e+001  -1.533353e+002 
4093750000  -3.657980e+001  -1.552197e+002 
4096875000  -3.630447e+001  -1.621556e+002 
4100000000  -3.700223e+001  -1.689059e+002 
4103125000  -3.802779e+001  -1.680188e+002 
4106250000  -3.773315e+001  -1.642971e+002 
4109375000  -3.668074e+001  -1.652128e+002 
4112500000  -3.604801e+001  -1.735315e+002 
4115625000  -3.652824e+001  -1.788758e+002 
4118750000  -3.682171e+001  1.772434e+002 
4121875000  -3.630180e+001  1.708474e+002 
4125000000  -3.698026e+001  1.646532e+002 
4128125000  -3.784806e+001  1.644583e+002 
4131250000  -3.751326e+001  1.709200e+002 
4134375000  -3.516753e+001  1.672169e+002 
4137500000  -3.517898e+001  1.464247e+002 
4140625000  -3.760735e+001  1.386848e+002 
4143750000  -3.884792e+001  1.435185e+002 
4146875000  -3.799585e+001  1.497712e+002 
4150000000  -3.731696e+001  1.454165e+002 
4153125000  -3.742466e+001  1.383378e+002 
4156250000  -3.852613e+001  1.366195e+002 
4159375000  -3.884950e+001  1.422704e+002 
4162500000  -3.777071e+001  1.448946e+002 
4165625000  -3.640042e+001  1.387591e+002 
4168750000  -3.581990e+001  1.310037e+002 
4171875000  -3.591499e+001  1.204877e+002 
4175000000  -3.675154e+001  1.162231e+002 
4178125000  -3.716445e+001  1.153647e+002 
4181250000  -3.684595e+001  1.146913e+002 
4184375000  -3.673313e+001  1.111463e+002 
4187500000  -3.683149e+001  1.061556e+002 
4190625000  -3.662336e+001  1.005052e+002 
4193750000  -3.749657e+001  9.657909e+001 
4196875000  -3.802925e+001  9.621078e+001 
4200000000  -3.902399e+001  9.742200e+001 
4203125000  -3.893897e+001  1.109611e+002 
4206250000  -3.517570e+001  1.107143e+002 
4209375000  -3.433552e+001  8.849141e+001 
4212500000  -3.625939e+001  7.975095e+001 
4215625000  -3.717388e+001  8.638528e+001 
4218750000  -3.559175e+001  9.184576e+001 
4221875000  -3.339466e+001  8.186811e+001 
4225000000  -3.467252e+001  6.818153e+001 
4228125000  -3.544094e+001  7.159684e+001 
4231250000  -3.358429e+001  6.608978e+001 
4234375000  -3.358101e+001  5.762220e+001 
4237500000  -3.307206e+001  5.370454e+001 
4240625000  -3.330471e+001  4.336839e+001 
4243750000  -3.420536e+001  3.519523e+001 
4246875000  -3.513047e+001  3.477737e+001 
4250000000  -3.506032e+001  3.778142e+001 
4253125000  -3.460291e+001  3.283883e+001 
4256250000  -3.489409e+001  2.833531e+001 
4259375000  -3.461733e+001  2.360652e+001 
4262500000  -3.474820e+001  2.148329e+001 
4265625000  -3.507102e+001  2.010803e+001 
4268750000  -3.407227e+001  1.434870e+001 
4271875000  -3.384906e+001  7.076829e+000 
4275000000  -3.353683e+001  -8.515167e-002 
4278125000  -3.421646e+001  -1.000799e+001 
4281250000  -3.603920e+001  -1.507139e+001 
4284375000  -3.588030e+001  -1.422216e+001 
4287500000  -3.676820e+001  -1.834919e+001 
4290625000  -3.799941e+001  -7.354979e+000 
4293750000  -3.610744e+001  -4.391295e+000 
4296875000  -3.496285e+001  -1.522244e+001 
4300000000  -3.594824e+001  -2.451376e+001 
4303125000  -3.724489e+001  -2.410636e+001 
4306250000  -3.658245e+001  -1.598095e+001 
4309375000  -3.505629e+001  -2.003727e+001 
4312500000  -3.501344e+001  -2.832564e+001 
4315625000  -3.513908e+001  -3.349792e+001 
4318750000  -3.562420e+001  -3.844838e+001 
4321875000  -3.576372e+001  -3.675830e+001 
4325000000  -3.510551e+001  -3.674694e+001 
4328125000  -3.429602e+001  -4.389899e+001 
4331250000  -3.427762e+001  -5.262403e+001 
4334375000  -3.472343e+001  -5.788567e+001 
4337500000  -3.541076e+001  -6.056752e+001 
4340625000  -3.586235e+001  -5.768724e+001 
4343750000  -3.504194e+001  -5.871460e+001 
4346875000  -3.461370e+001  -6.469657e+001 
4350000000  -3.439598e+001  -7.117899e+001 
4353125000  -3.449746e+001  -7.957572e+001 
4356250000  -3.628710e+001  -8.113049e+001 
4359375000  -3.663193e+001  -6.486276e+001 
4362500000  -3.345254e+001  -6.694109e+001 
4365625000  -3.219048e+001  -7.970738e+001 
4368750000  -3.291555e+001  -9.459554e+001 
4371875000  -3.400316e+001  -9.287401e+001 
4375000000  -3.362722e+001  -9.452156e+001 
4378125000  -3.296024e+001  -1.011734e+002 
4381250000  -3.309523e+001  -1.082710e+002 
4384375000  -3.303708e+001  -1.144711e+002 
4387500000  -3.390694e+001  -1.212988e+002 
4390625000  -3.474455e+001  -1.215516e+002 
4393750000  -3.395021e+001  -1.211664e+002 
4396875000  -3.349789e+001  -1.245198e+002 
4400000000  -3.292842e+001  -1.328053e+002 
4403125000  -3.372773e+001  -1.414314e+002 
4406250000  -3.450084e+001  -1.435085e+002 
4409375000  -3.458154e+001  -1.471010e+002 
4412500000  -3.576908e+001  -1.503688e+002 
4415625000  -3.611139e+001  -1.456885e+002 
