!Agilent Technologies,E8363B,MY43030201,A.06.04.32
!Agilent E8363B: A.06.04.32
!Date: Tuesday, November 11, 2014 21:02:14
!Correction: S21(Response(S21)) 
!S1P File: Measurement: S21:
# Hz S  dB   R 50
3000000000  -3.626448e+001  -4.681208e+001 
3003125000  -3.738664e+001  -5.173779e+001 
3006250000  -3.722001e+001  -5.560843e+001 
3009375000  -3.755876e+001  -5.095078e+001 
3012500000  -3.689583e+001  -5.191811e+001 
3015625000  -3.595240e+001  -5.903532e+001 
3018750000  -3.676001e+001  -6.091753e+001 
3021875000  -3.538803e+001  -5.968663e+001 
3025000000  -3.399807e+001  -6.364899e+001 
3028125000  -3.307318e+001  -6.985316e+001 
3031250000  -3.205427e+001  -8.091682e+001 
3034375000  -3.172749e+001  -9.427745e+001 
3037500000  -3.217548e+001  -1.067706e+002 
3040625000  -3.351136e+001  -1.114866e+002 
3043750000  -3.418267e+001  -1.165899e+002 
3046875000  -3.434384e+001  -1.228990e+002 
3050000000  -3.599449e+001  -1.293564e+002 
3053125000  -3.602034e+001  -1.232358e+002 
3056250000  -3.538836e+001  -1.202781e+002 
3059375000  -3.560257e+001  -1.200465e+002 
3062500000  -3.411914e+001  -1.235408e+002 
3065625000  -3.395245e+001  -1.296755e+002 
3068750000  -3.353853e+001  -1.366093e+002 
3071875000  -3.345994e+001  -1.389888e+002 
3075000000  -3.328513e+001  -1.426160e+002 
3078125000  -3.297466e+001  -1.466946e+002 
3081250000  -3.348773e+001  -1.512002e+002 
3084375000  -3.261426e+001  -1.550164e+002 
3087500000  -3.237280e+001  -1.590463e+002 
3090625000  -3.193437e+001  -1.691952e+002 
3093750000  -3.233614e+001  -1.759799e+002 
3096875000  -3.340363e+001  1.780054e+002 
3100000000  -3.332876e+001  1.752638e+002 
3103125000  -3.365362e+001  1.763398e+002 
3106250000  -3.316185e+001  1.723346e+002 
3109375000  -3.320534e+001  1.681531e+002 
3112500000  -3.311055e+001  1.657726e+002 
3115625000  -3.282495e+001  1.610395e+002 
3118750000  -3.314796e+001  1.610914e+002 
3121875000  -3.220633e+001  1.518671e+002 
3125000000  -3.346589e+001  1.477132e+002 
3128125000  -3.444293e+001  1.548386e+002 
3131250000  -3.196712e+001  1.532961e+002 
3134375000  -3.074351e+001  1.377237e+002 
3137500000  -3.130042e+001  1.230875e+002 
3140625000  -3.284089e+001  1.202678e+002 
3143750000  -3.385640e+001  1.223235e+002 
3146875000  -3.332008e+001  1.231721e+002 
3150000000  -3.231313e+001  1.231856e+002 
3153125000  -3.232625e+001  1.145314e+002 
3156250000  -3.336536e+001  1.190432e+002 
3159375000  -3.162247e+001  1.203082e+002 
3162500000  -2.975413e+001  1.059225e+002 
3165625000  -3.077054e+001  9.380054e+001 
3168750000  -3.115411e+001  9.357401e+001 
3171875000  -3.019914e+001  8.827468e+001 
3175000000  -3.092763e+001  7.929524e+001 
3178125000  -3.080597e+001  8.019587e+001 
3181250000  -2.963383e+001  7.471556e+001 
3184375000  -2.890524e+001  6.194555e+001 
3187500000  -3.005324e+001  4.669336e+001 
3190625000  -3.283307e+001  3.819287e+001 
3193750000  -3.344140e+001  4.707144e+001 
3196875000  -3.301356e+001  5.158592e+001 
3200000000  -3.217680e+001  4.982300e+001 
3203125000  -3.135831e+001  4.287716e+001 
3206250000  -3.170986e+001  3.684944e+001 
3209375000  -3.118695e+001  3.060320e+001 
3212500000  -3.141746e+001  2.330417e+001 
3215625000  -3.148598e+001  1.934208e+001 
3218750000  -3.227785e+001  1.201251e+001 
3221875000  -3.313433e+001  7.362399e+000 
3225000000  -3.280185e+001  6.043063e+000 
3228125000  -3.312356e+001  6.386832e-001 
3231250000  -3.380201e+001  -1.775478e+000 
3234375000  -3.350278e+001  -1.122527e+000 
3237500000  -3.349579e+001  -3.769202e+000 
3240625000  -3.309198e+001  -6.168276e+000 
3243750000  -3.270272e+001  -1.368266e+001 
3246875000  -3.306359e+001  -2.040918e+001 
3250000000  -3.352822e+001  -2.311539e+001 
3253125000  -3.359786e+001  -2.516833e+001 
3256250000  -3.324015e+001  -3.198989e+001 
3259375000  -3.359089e+001  -3.999750e+001 
3262500000  -3.475002e+001  -4.397837e+001 
3265625000  -3.535320e+001  -4.158573e+001 
3268750000  -3.535260e+001  -3.982296e+001 
3271875000  -3.485767e+001  -3.982545e+001 
3275000000  -3.390297e+001  -4.591772e+001 
3278125000  -3.419857e+001  -5.339121e+001 
3281250000  -3.436178e+001  -5.226268e+001 
3284375000  -3.392164e+001  -5.966616e+001 
3287500000  -3.418058e+001  -6.303574e+001 
3290625000  -3.443758e+001  -6.822606e+001 
3293750000  -3.425475e+001  -7.448566e+001 
3296875000  -3.519293e+001  -7.494433e+001 
3300000000  -3.505816e+001  -7.399210e+001 
3303125000  -3.392332e+001  -7.984914e+001 
3306250000  -3.363515e+001  -8.687262e+001 
3309375000  -3.338467e+001  -9.368541e+001 
3312500000  -3.336557e+001  -1.040450e+002 
3315625000  -3.439176e+001  -1.120054e+002 
3318750000  -3.584277e+001  -1.152300e+002 
3321875000  -3.705655e+001  -1.169748e+002 
3325000000  -3.735160e+001  -1.093654e+002 
3328125000  -3.718959e+001  -1.095175e+002 
3331250000  -3.576914e+001  -1.039085e+002 
3334375000  -3.321630e+001  -1.133406e+002 
3337500000  -3.326600e+001  -1.326181e+002 
3340625000  -3.468834e+001  -1.438186e+002 
3343750000  -3.647469e+001  -1.454441e+002 
3346875000  -3.680751e+001  -1.441506e+002 
3350000000  -3.618344e+001  -1.444293e+002 
3353125000  -3.611454e+001  -1.494588e+002 
3356250000  -3.579214e+001  -1.579027e+002 
3359375000  -3.659294e+001  -1.662192e+002 
3362500000  -3.782754e+001  -1.721013e+002 
3365625000  -3.811521e+001  -1.723057e+002 
3368750000  -3.899584e+001  -1.755110e+002 
3371875000  -3.916574e+001  -1.781043e+002 
3375000000  -4.050831e+001  1.787082e+002 
3378125000  -4.156783e+001  1.782924e+002 
3381250000  -4.277040e+001  -1.713952e+002 
3384375000  -4.154381e+001  -1.518490e+002 
3387500000  -3.748334e+001  -1.670213e+002 
3390625000  -3.939102e+001  1.748463e+002 
3393750000  -4.085067e+001  1.785118e+002 
3396875000  -3.942224e+001  1.784753e+002 
3400000000  -3.885186e+001  1.704752e+002 
3403125000  -3.953936e+001  1.660881e+002 
3406250000  -3.970049e+001  1.649347e+002 
3409375000  -3.986505e+001  1.579559e+002 
3412500000  -4.045489e+001  1.550248e+002 
3415625000  -4.120470e+001  1.569154e+002 
3418750000  -4.131372e+001  1.567829e+002 
3421875000  -4.138894e+001  1.603474e+002 
3425000000  -4.043026e+001  1.598905e+002 
3428125000  -3.933664e+001  1.564215e+002 
3431250000  -3.949561e+001  1.492539e+002 
3434375000  -3.914000e+001  1.439683e+002 
3437500000  -3.989377e+001  1.404853e+002 
3440625000  -4.015620e+001  1.408058e+002 
3443750000  -3.880267e+001  1.419350e+002 
3446875000  -3.821036e+001  1.333340e+002 
3450000000  -3.786091e+001  1.241613e+002 
3453125000  -3.799027e+001  1.131649e+002 
3456250000  -3.922033e+001  1.070450e+002 
3459375000  -4.024932e+001  1.080437e+002 
3462500000  -3.995570e+001  1.077585e+002 
3465625000  -3.992079e+001  1.019699e+002 
3468750000  -4.023158e+001  9.786023e+001 
3471875000  -4.017805e+001  9.588490e+001 
3475000000  -4.008072e+001  9.247446e+001 
3478125000  -4.058647e+001  8.460445e+001 
3481250000  -4.144570e+001  8.255070e+001 
3484375000  -4.225629e+001  8.530786e+001 
3487500000  -4.170666e+001  8.484396e+001 
3490625000  -4.078918e+001  8.220951e+001 
3493750000  -4.148350e+001  7.483210e+001 
3496875000  -4.205526e+001  7.229908e+001 
3500000000  -4.252094e+001  7.571168e+001 
3503125000  -4.219588e+001  7.861504e+001 
3506250000  -4.055676e+001  7.292783e+001 
3509375000  -4.075091e+001  6.441212e+001 
3512500000  -4.149858e+001  5.616400e+001 
3515625000  -4.188817e+001  5.270881e+001 
3518750000  -4.247271e+001  5.411477e+001 
3521875000  -4.247129e+001  5.144198e+001 
3525000000  -4.318607e+001  4.545906e+001 
3528125000  -4.327070e+001  5.517438e+001 
3531250000  -4.201704e+001  5.201309e+001 
3534375000  -4.200914e+001  4.319772e+001 
3537500000  -4.244757e+001  3.776427e+001 
3540625000  -4.332651e+001  3.596775e+001 
3543750000  -4.433082e+001  3.886466e+001 
3546875000  -4.379799e+001  5.035346e+001 
3550000000  -4.101178e+001  5.256802e+001 
3553125000  -3.992755e+001  3.352853e+001 
3556250000  -4.155807e+001  2.760153e+001 
3559375000  -4.128328e+001  2.884004e+001 
3562500000  -4.006258e+001  1.944919e+001 
3565625000  -4.104990e+001  1.171026e+001 
3568750000  -4.125765e+001  1.304969e+001 
3571875000  -4.122295e+001  1.215626e+001 
3575000000  -4.082705e+001  5.838899e+000 
3578125000  -4.121325e+001  1.438578e-001 
3581250000  -4.134911e+001  -1.392462e+000 
3584375000  -4.061278e+001  -4.133649e+000 
3587500000  -3.996515e+001  -1.175623e+001 
3590625000  -4.064606e+001  -2.379956e+001 
3593750000  -4.191074e+001  -2.662279e+001 
3596875000  -4.203982e+001  -1.924534e+001 
3600000000  -4.056947e+001  -2.527983e+001 
3603125000  -4.130759e+001  -4.020359e+001 
3606250000  -4.178124e+001  -4.430928e+001 
3609375000  -4.249435e+001  -4.587173e+001 
3612500000  -4.304538e+001  -4.847063e+001 
3615625000  -4.351150e+001  -5.170513e+001 
3618750000  -4.408121e+001  -5.307126e+001 
3621875000  -4.459958e+001  -5.337574e+001 
3625000000  -4.485410e+001  -5.517347e+001 
3628125000  -4.447671e+001  -5.289517e+001 
3631250000  -4.501435e+001  -5.995374e+001 
3634375000  -4.626583e+001  -6.029369e+001 
3637500000  -4.590456e+001  -5.624118e+001 
3640625000  -4.556647e+001  -5.361351e+001 
3643750000  -4.488629e+001  -5.468318e+001 
3646875000  -4.572792e+001  -6.259533e+001 
3650000000  -4.640832e+001  -6.027565e+001 
3653125000  -4.563938e+001  -6.249179e+001 
3656250000  -4.605670e+001  -6.352201e+001 
3659375000  -4.630572e+001  -6.067323e+001 
3662500000  -4.529510e+001  -6.186428e+001 
3665625000  -4.522441e+001  -6.064737e+001 
3668750000  -4.402505e+001  -6.245444e+001 
3671875000  -4.275679e+001  -6.673758e+001 
3675000000  -4.300618e+001  -7.571581e+001 
3678125000  -4.311221e+001  -7.674263e+001 
3681250000  -4.271260e+001  -8.011354e+001 
3684375000  -4.302376e+001  -8.625215e+001 
3687500000  -4.287547e+001  -9.198895e+001 
3690625000  -4.274575e+001  -9.498866e+001 
3693750000  -4.387191e+001  -9.451670e+001 
3696875000  -4.358813e+001  -9.557429e+001 
3700000000  -4.286480e+001  -9.977012e+001 
3703125000  -4.296209e+001  -1.074895e+002 
3706250000  -4.364183e+001  -1.057872e+002 
3709375000  -4.338539e+001  -1.027022e+002 
3712500000  -4.265166e+001  -1.073833e+002 
3715625000  -4.170308e+001  -1.135315e+002 
3718750000  -4.154274e+001  -1.198459e+002 
3721875000  -4.157994e+001  -1.263565e+002 
3725000000  -4.178482e+001  -1.320600e+002 
3728125000  -4.228789e+001  -1.350018e+002 
3731250000  -4.193881e+001  -1.383043e+002 
3734375000  -4.173899e+001  -1.406571e+002 
3737500000  -4.251419e+001  -1.511838e+002 
3740625000  -4.357732e+001  -1.517299e+002 
3743750000  -4.381469e+001  -1.554160e+002 
3746875000  -4.406864e+001  -1.590998e+002 
3750000000  -4.529625e+001  -1.586412e+002 
3753125000  -4.450638e+001  -1.573087e+002 
3756250000  -4.526593e+001  -1.543517e+002 
3759375000  -4.523949e+001  -1.552454e+002 
3762500000  -4.455376e+001  -1.577315e+002 
3765625000  -4.560892e+001  -1.547163e+002 
3768750000  -4.501569e+001  -1.528035e+002 
3771875000  -4.381838e+001  -1.540392e+002 
3775000000  -4.322697e+001  -1.587228e+002 
3778125000  -4.334706e+001  -1.626824e+002 
3781250000  -4.293275e+001  -1.634493e+002 
3784375000  -4.240837e+001  -1.636481e+002 
3787500000  -4.160310e+001  -1.690137e+002 
3790625000  -4.221315e+001  -1.762010e+002 
3793750000  -4.195927e+001  -1.756469e+002 
3796875000  -4.108592e+001  -1.776027e+002 
3800000000  -3.956477e+001  -1.792724e+002 
3803125000  -4.009330e+001  1.691556e+002 
3806250000  -4.051617e+001  1.659529e+002 
3809375000  -4.015611e+001  1.628549e+002 
3812500000  -3.959601e+001  1.581493e+002 
3815625000  -3.991891e+001  1.492484e+002 
3818750000  -4.097038e+001  1.480766e+002 
3821875000  -4.086100e+001  1.535022e+002 
3825000000  -3.906001e+001  1.546847e+002 
3828125000  -3.762809e+001  1.404158e+002 
3831250000  -3.816740e+001  1.253643e+002 
3834375000  -4.000759e+001  1.241945e+002 
3837500000  -4.122647e+001  1.271589e+002 
3840625000  -3.984920e+001  1.253223e+002 
3843750000  -3.859559e+001  1.140003e+002 
3846875000  -3.966477e+001  1.055007e+002 
3850000000  -4.128041e+001  1.123071e+002 
3853125000  -4.033537e+001  1.138306e+002 
3856250000  -4.026369e+001  1.058256e+002 
3859375000  -3.957174e+001  1.014115e+002 
3862500000  -3.922349e+001  9.208364e+001 
3865625000  -3.961386e+001  8.745496e+001 
3868750000  -3.971867e+001  8.862282e+001 
3871875000  -3.913382e+001  8.336597e+001 
3875000000  -3.953435e+001  7.523681e+001 
3878125000  -4.051105e+001  7.383440e+001 
3881250000  -4.039193e+001  7.621771e+001 
3884375000  -4.013263e+001  7.136887e+001 
3887500000  -4.036483e+001  6.775616e+001 
3890625000  -4.099930e+001  6.436938e+001 
3893750000  -4.122315e+001  6.319183e+001 
3896875000  -4.171708e+001  6.566035e+001 
3900000000  -4.183478e+001  6.221289e+001 
3903125000  -4.117859e+001  6.105283e+001 
3906250000  -4.079733e+001  5.805535e+001 
3909375000  -4.007751e+001  5.668192e+001 
3912500000  -3.999946e+001  4.740652e+001 
3915625000  -4.141711e+001  4.961803e+001 
3918750000  -4.105425e+001  4.917965e+001 
3921875000  -4.060131e+001  4.782331e+001 
3925000000  -3.951019e+001  4.459535e+001 
3928125000  -3.902090e+001  3.915959e+001 
3931250000  -3.934455e+001  3.211863e+001 
3934375000  -3.969164e+001  3.004420e+001 
3937500000  -3.976476e+001  2.923703e+001 
3940625000  -4.017900e+001  2.726534e+001 
3943750000  -3.902020e+001  2.809705e+001 
3946875000  -3.798056e+001  2.149113e+001 
3950000000  -3.872001e+001  1.220893e+001 
3953125000  -3.978848e+001  9.370838e+000 
3956250000  -3.870058e+001  1.285363e+001 
3959375000  -3.746375e+001  9.174445e+000 
3962500000  -3.682569e+001  5.952045e+000 
3965625000  -3.688958e+001  -5.536638e+000 
3968750000  -3.777090e+001  -1.467734e+001 
3971875000  -3.819688e+001  -1.727456e+001 
3975000000  -3.758649e+001  -1.960668e+001 
3978125000  -3.755828e+001  -2.363443e+001 
3981250000  -3.741274e+001  -2.845525e+001 
3984375000  -3.770860e+001  -3.524768e+001 
3987500000  -3.847973e+001  -3.850466e+001 
3990625000  -3.852689e+001  -3.907167e+001 
3993750000  -3.883880e+001  -4.370684e+001 
3996875000  -3.887022e+001  -4.894681e+001 
4000000000  -3.913184e+001  -4.993234e+001 
4003125000  -3.966891e+001  -4.892219e+001 
4006250000  -3.835226e+001  -4.848692e+001 
4009375000  -3.750237e+001  -6.176671e+001 
4012500000  -3.866393e+001  -6.805959e+001 
4015625000  -3.981098e+001  -6.705506e+001 
4018750000  -4.012915e+001  -6.677644e+001 
4021875000  -3.938283e+001  -6.854484e+001 
4025000000  -3.932100e+001  -7.185711e+001 
4028125000  -3.911003e+001  -7.572692e+001 
4031250000  -3.974950e+001  -7.888267e+001 
4034375000  -4.004686e+001  -7.934550e+001 
4037500000  -3.948655e+001  -7.939632e+001 
4040625000  -3.944356e+001  -8.282039e+001 
4043750000  -3.970304e+001  -8.355749e+001 
4046875000  -3.911002e+001  -8.311116e+001 
4050000000  -3.855194e+001  -9.193106e+001 
4053125000  -3.891242e+001  -9.220803e+001 
4056250000  -3.949900e+001  -8.959476e+001 
4059375000  -3.792037e+001  -8.755973e+001 
4062500000  -3.669826e+001  -9.403721e+001 
4065625000  -3.641602e+001  -9.799583e+001 
4068750000  -3.630519e+001  -1.045865e+002 
4071875000  -3.549311e+001  -1.132119e+002 
4075000000  -3.592044e+001  -1.203993e+002 
4078125000  -3.640087e+001  -1.223145e+002 
4081250000  -3.587782e+001  -1.256320e+002 
4084375000  -3.552778e+001  -1.337261e+002 
4087500000  -3.566375e+001  -1.416745e+002 
4090625000  -3.648775e+001  -1.434594e+002 
4093750000  -3.640424e+001  -1.438736e+002 
4096875000  -3.584409e+001  -1.521606e+002 
4100000000  -3.674566e+001  -1.594038e+002 
4103125000  -3.735967e+001  -1.590193e+002 
4106250000  -3.746672e+001  -1.535642e+002 
4109375000  -3.635881e+001  -1.573188e+002 
4112500000  -3.590263e+001  -1.641060e+002 
4115625000  -3.637920e+001  -1.700665e+002 
4118750000  -3.631285e+001  -1.744547e+002 
4121875000  -3.617393e+001  1.798363e+002 
4125000000  -3.646215e+001  1.743207e+002 
4128125000  -3.754658e+001  1.725410e+002 
4131250000  -3.731064e+001  -1.794490e+002 
4134375000  -3.511525e+001  1.741026e+002 
4137500000  -3.512444e+001  1.535710e+002 
4140625000  -3.730119e+001  1.460674e+002 
4143750000  -3.878278e+001  1.509916e+002 
4146875000  -3.839856e+001  1.566953e+002 
4150000000  -3.745739e+001  1.537395e+002 
4153125000  -3.762751e+001  1.471577e+002 
4156250000  -3.863049e+001  1.444410e+002 
4159375000  -3.874091e+001  1.471255e+002 
4162500000  -3.792993e+001  1.531534e+002 
4165625000  -3.676465e+001  1.487188e+002 
4168750000  -3.605696e+001  1.410209e+002 
4171875000  -3.634791e+001  1.310138e+002 
4175000000  -3.689338e+001  1.260049e+002 
4178125000  -3.741095e+001  1.266254e+002 
4181250000  -3.714901e+001  1.257596e+002 
4184375000  -3.705558e+001  1.214055e+002 
4187500000  -3.686834e+001  1.190525e+002 
4190625000  -3.686385e+001  1.133173e+002 
4193750000  -3.750989e+001  1.089997e+002 
4196875000  -3.822158e+001  1.091475e+002 
4200000000  -3.922372e+001  1.099275e+002 
4203125000  -3.881149e+001  1.236082e+002 
4206250000  -3.546196e+001  1.240746e+002 
4209375000  -3.430906e+001  1.010387e+002 
4212500000  -3.626587e+001  9.294421e+001 
4215625000  -3.681474e+001  9.792194e+001 
4218750000  -3.584012e+001  1.043382e+002 
4221875000  -3.315293e+001  9.356617e+001 
4225000000  -3.467582e+001  8.048553e+001 
4228125000  -3.497874e+001  8.429271e+001 
4231250000  -3.339601e+001  7.965048e+001 
4234375000  -3.317264e+001  7.020832e+001 
4237500000  -3.285547e+001  6.447947e+001 
4240625000  -3.284698e+001  5.449356e+001 
4243750000  -3.385578e+001  4.605190e+001 
4246875000  -3.476171e+001  4.469071e+001 
4250000000  -3.467689e+001  4.739982e+001 
4253125000  -3.424888e+001  4.238681e+001 
4256250000  -3.459455e+001  3.728057e+001 
4259375000  -3.428863e+001  3.505682e+001 
4262500000  -3.449730e+001  2.982302e+001 
4265625000  -3.467429e+001  2.965280e+001 
4268750000  -3.375478e+001  2.342940e+001 
4271875000  -3.363453e+001  1.724143e+001 
4275000000  -3.325908e+001  8.182351e+000 
4278125000  -3.397526e+001  -3.979086e+000 
4281250000  -3.614053e+001  -5.672025e+000 
4284375000  -3.574019e+001  -5.893065e+000 
4287500000  -3.671416e+001  -1.149447e+001 
4290625000  -3.808478e+001  -1.875601e+000 
4293750000  -3.616541e+001  3.654001e+000 
4296875000  -3.528563e+001  -7.142618e+000 
4300000000  -3.613196e+001  -1.834061e+001 
4303125000  -3.706714e+001  -1.575254e+001 
4306250000  -3.662898e+001  -8.736279e+000 
4309375000  -3.527343e+001  -1.010624e+001 
4312500000  -3.525230e+001  -1.911117e+001 
4315625000  -3.544194e+001  -2.384442e+001 
4318750000  -3.569965e+001  -2.706544e+001 
4321875000  -3.593811e+001  -2.612139e+001 
4325000000  -3.520445e+001  -2.680199e+001 
4328125000  -3.456200e+001  -3.249088e+001 
4331250000  -3.454273e+001  -4.093264e+001 
4334375000  -3.484862e+001  -4.565854e+001 
4337500000  -3.547762e+001  -4.861548e+001 
4340625000  -3.603300e+001  -4.517587e+001 
4343750000  -3.493176e+001  -4.469246e+001 
4346875000  -3.467204e+001  -5.275249e+001 
4350000000  -3.438616e+001  -5.841129e+001 
4353125000  -3.424840e+001  -6.661420e+001 
4356250000  -3.606517e+001  -6.771664e+001 
4359375000  -3.659334e+001  -5.434752e+001 
4362500000  -3.351161e+001  -5.526006e+001 
4365625000  -3.189270e+001  -6.766228e+001 
4368750000  -3.268593e+001  -8.065930e+001 
4371875000  -3.382286e+001  -8.171558e+001 
4375000000  -3.327606e+001  -8.301437e+001 
4378125000  -3.268610e+001  -8.910733e+001 
4381250000  -3.291029e+001  -9.599678e+001 
4384375000  -3.263316e+001  -1.027046e+002 
4387500000  -3.333018e+001  -1.109033e+002 
4390625000  -3.431620e+001  -1.108090e+002 
4393750000  -3.363506e+001  -1.099914e+002 
4396875000  -3.296518e+001  -1.127852e+002 
4400000000  -3.254066e+001  -1.219562e+002 
4403125000  -3.322748e+001  -1.310392e+002 
4406250000  -3.413902e+001  -1.341981e+002 
4409375000  -3.422781e+001  -1.380804e+002 
4412500000  -3.538948e+001  -1.423945e+002 
4415625000  -3.584967e+001  -1.369787e+002 
