!Agilent Technologies,E8363B,MY43030201,A.06.04.32
!Agilent E8363B: A.06.04.32
!Date: Tuesday, November 11, 2014 21:10:03
!Correction: S21(Response(S21)) 
!S1P File: Measurement: S21:
# Hz S  dB   R 50
3000000000  -3.636496e+001  -5.683490e+001 
3003125000  -3.753212e+001  -6.332684e+001 
3006250000  -3.742524e+001  -6.487893e+001 
3009375000  -3.771812e+001  -6.125505e+001 
3012500000  -3.689800e+001  -6.236444e+001 
3015625000  -3.616691e+001  -6.992258e+001 
3018750000  -3.695711e+001  -7.120998e+001 
3021875000  -3.552243e+001  -6.904787e+001 
3025000000  -3.419519e+001  -7.337044e+001 
3028125000  -3.317361e+001  -8.011117e+001 
3031250000  -3.218404e+001  -9.169552e+001 
3034375000  -3.186117e+001  -1.052951e+002 
3037500000  -3.235453e+001  -1.169856e+002 
3040625000  -3.372823e+001  -1.216951e+002 
3043750000  -3.432936e+001  -1.266001e+002 
3046875000  -3.459973e+001  -1.321494e+002 
3050000000  -3.629090e+001  -1.386326e+002 
3053125000  -3.628360e+001  -1.320641e+002 
3056250000  -3.577049e+001  -1.299030e+002 
3059375000  -3.572990e+001  -1.288553e+002 
3062500000  -3.420957e+001  -1.325492e+002 
3065625000  -3.404084e+001  -1.391175e+002 
3068750000  -3.358115e+001  -1.461201e+002 
3071875000  -3.367303e+001  -1.482907e+002 
3075000000  -3.335227e+001  -1.523488e+002 
3078125000  -3.309354e+001  -1.567912e+002 
3081250000  -3.358643e+001  -1.610660e+002 
3084375000  -3.269714e+001  -1.643712e+002 
3087500000  -3.246502e+001  -1.686185e+002 
3090625000  -3.204193e+001  -1.789306e+002 
3093750000  -3.248737e+001  1.738759e+002 
3096875000  -3.353740e+001  1.689057e+002 
3100000000  -3.335748e+001  1.665674e+002 
3103125000  -3.366323e+001  1.672119e+002 
3106250000  -3.315564e+001  1.629730e+002 
3109375000  -3.318443e+001  1.585164e+002 
3112500000  -3.314417e+001  1.557982e+002 
3115625000  -3.281261e+001  1.514126e+002 
3118750000  -3.317970e+001  1.516057e+002 
3121875000  -3.227634e+001  1.414500e+002 
3125000000  -3.357532e+001  1.376599e+002 
3128125000  -3.439598e+001  1.449089e+002 
3131250000  -3.203887e+001  1.430480e+002 
3134375000  -3.069936e+001  1.279773e+002 
3137500000  -3.130432e+001  1.133196e+002 
3140625000  -3.274229e+001  1.106504e+002 
3143750000  -3.379079e+001  1.124716e+002 
3146875000  -3.325420e+001  1.132975e+002 
3150000000  -3.232111e+001  1.132421e+002 
3153125000  -3.235249e+001  1.036741e+002 
3156250000  -3.336706e+001  1.088739e+002 
3159375000  -3.153002e+001  1.099117e+002 
3162500000  -2.969246e+001  9.538945e+001 
3165625000  -3.086995e+001  8.299166e+001 
3168750000  -3.108642e+001  8.313111e+001 
3171875000  -3.022826e+001  7.720286e+001 
3175000000  -3.089842e+001  6.869299e+001 
3178125000  -3.072141e+001  6.935694e+001 
3181250000  -2.967583e+001  6.426066e+001 
3184375000  -2.902107e+001  5.135646e+001 
3187500000  -3.035209e+001  3.602039e+001 
3190625000  -3.284968e+001  2.830644e+001 
3193750000  -3.340041e+001  3.721914e+001 
3196875000  -3.307188e+001  4.138782e+001 
3200000000  -3.211456e+001  3.834816e+001 
3203125000  -3.135584e+001  3.265216e+001 
3206250000  -3.168545e+001  2.615269e+001 
3209375000  -3.127564e+001  2.018612e+001 
3212500000  -3.154004e+001  1.303520e+001 
3215625000  -3.159277e+001  9.514621e+000 
3218750000  -3.230784e+001  2.328941e+000 
3221875000  -3.311202e+001  -3.061026e+000 
3225000000  -3.271012e+001  -4.224773e+000 
3228125000  -3.310714e+001  -9.727280e+000 
3231250000  -3.377187e+001  -1.182355e+001 
3234375000  -3.342905e+001  -1.099939e+001 
3237500000  -3.354441e+001  -1.356253e+001 
3240625000  -3.301517e+001  -1.607372e+001 
3243750000  -3.263612e+001  -2.383309e+001 
3246875000  -3.305992e+001  -3.094161e+001 
3250000000  -3.349967e+001  -3.289465e+001 
3253125000  -3.358056e+001  -3.470228e+001 
3256250000  -3.318430e+001  -4.132466e+001 
3259375000  -3.350091e+001  -5.085373e+001 
3262500000  -3.462450e+001  -5.458294e+001 
3265625000  -3.519953e+001  -5.129124e+001 
3268750000  -3.511169e+001  -4.916029e+001 
3271875000  -3.469429e+001  -5.006107e+001 
3275000000  -3.363332e+001  -5.719162e+001 
3278125000  -3.416374e+001  -6.409708e+001 
3281250000  -3.427579e+001  -6.235353e+001 
3284375000  -3.379567e+001  -6.983157e+001 
3287500000  -3.400010e+001  -7.254298e+001 
3290625000  -3.427229e+001  -7.967606e+001 
3293750000  -3.404100e+001  -8.513609e+001 
3296875000  -3.509620e+001  -8.624569e+001 
3300000000  -3.486246e+001  -8.510541e+001 
3303125000  -3.361562e+001  -9.050782e+001 
3306250000  -3.348893e+001  -9.774416e+001 
3309375000  -3.318381e+001  -1.045438e+002 
3312500000  -3.341828e+001  -1.155363e+002 
3315625000  -3.443705e+001  -1.235338e+002 
3318750000  -3.570220e+001  -1.258308e+002 
3321875000  -3.689219e+001  -1.256464e+002 
3325000000  -3.745392e+001  -1.195982e+002 
3328125000  -3.680870e+001  -1.202977e+002 
3331250000  -3.566737e+001  -1.140715e+002 
3334375000  -3.309802e+001  -1.248412e+002 
3337500000  -3.320407e+001  -1.443118e+002 
3340625000  -3.456475e+001  -1.554951e+002 
3343750000  -3.669173e+001  -1.563624e+002 
3346875000  -3.667910e+001  -1.539243e+002 
3350000000  -3.606779e+001  -1.555934e+002 
3353125000  -3.616225e+001  -1.605592e+002 
3356250000  -3.584514e+001  -1.691072e+002 
3359375000  -3.651583e+001  -1.772346e+002 
3362500000  -3.765921e+001  1.774048e+002 
3365625000  -3.838163e+001  1.757157e+002 
3368750000  -3.900666e+001  1.727644e+002 
3371875000  -3.930247e+001  1.709348e+002 
3375000000  -4.047789e+001  1.681452e+002 
3378125000  -4.152667e+001  1.684902e+002 
3381250000  -4.276932e+001  1.770128e+002 
3384375000  -4.090785e+001  -1.622983e+002 
3387500000  -3.763824e+001  -1.767087e+002 
3390625000  -3.949330e+001  1.635652e+002 
3393750000  -4.074781e+001  1.653097e+002 
3396875000  -3.931635e+001  1.670340e+002 
3400000000  -3.879337e+001  1.595320e+002 
3403125000  -3.949432e+001  1.544956e+002 
3406250000  -3.960839e+001  1.541016e+002 
3409375000  -3.987567e+001  1.461195e+002 
3412500000  -4.032415e+001  1.448499e+002 
3415625000  -4.107784e+001  1.448097e+002 
3418750000  -4.097078e+001  1.456416e+002 
3421875000  -4.140585e+001  1.475654e+002 
3425000000  -4.038700e+001  1.493464e+002 
3428125000  -3.937917e+001  1.439393e+002 
3431250000  -3.927682e+001  1.377336e+002 
3434375000  -3.911781e+001  1.314203e+002 
3437500000  -3.968132e+001  1.278933e+002 
3440625000  -4.002937e+001  1.303237e+002 
3443750000  -3.867420e+001  1.295845e+002 
3446875000  -3.809018e+001  1.209595e+002 
3450000000  -3.766764e+001  1.118174e+002 
3453125000  -3.804360e+001  1.009010e+002 
3456250000  -3.935263e+001  9.471349e+001 
3459375000  -4.024091e+001  9.528232e+001 
3462500000  -4.027867e+001  9.663588e+001 
3465625000  -4.001746e+001  9.029041e+001 
3468750000  -4.045790e+001  8.647163e+001 
3471875000  -4.045774e+001  8.573763e+001 
3475000000  -3.977061e+001  7.984801e+001 
3478125000  -4.061403e+001  7.328096e+001 
3481250000  -4.160651e+001  7.121590e+001 
3484375000  -4.256434e+001  7.533829e+001 
3487500000  -4.183762e+001  7.599384e+001 
3490625000  -4.110636e+001  6.990103e+001 
3493750000  -4.187675e+001  6.293784e+001 
3496875000  -4.237994e+001  6.306535e+001 
3500000000  -4.305102e+001  6.569335e+001 
3503125000  -4.244471e+001  6.914938e+001 
3506250000  -4.083237e+001  6.456148e+001 
3509375000  -4.090860e+001  5.511348e+001 
3512500000  -4.131010e+001  4.621106e+001 
3515625000  -4.211531e+001  4.522006e+001 
3518750000  -4.267249e+001  4.649982e+001 
3521875000  -4.247437e+001  4.131120e+001 
3525000000  -4.328039e+001  3.912608e+001 
3528125000  -4.298560e+001  4.783727e+001 
3531250000  -4.154969e+001  4.480025e+001 
3534375000  -4.181237e+001  3.418933e+001 
3537500000  -4.206998e+001  2.686572e+001 
3540625000  -4.277527e+001  2.741588e+001 
3543750000  -4.351622e+001  3.092949e+001 
3546875000  -4.354955e+001  4.290577e+001 
3550000000  -4.086578e+001  4.273960e+001 
3553125000  -3.973126e+001  2.270237e+001 
3556250000  -4.075152e+001  1.769315e+001 
3559375000  -4.066533e+001  1.770296e+001 
3562500000  -3.978429e+001  7.765268e+000 
3565625000  -4.066754e+001  5.901663e-001 
3568750000  -4.100931e+001  3.170496e+000 
3571875000  -4.063991e+001  -1.628366e-001 
3575000000  -4.021831e+001  -6.478231e+000 
3578125000  -4.100930e+001  -1.228863e+001 
3581250000  -4.111102e+001  -1.266306e+001 
3584375000  -4.021952e+001  -1.582848e+001 
3587500000  -3.992795e+001  -2.569067e+001 
3590625000  -4.035508e+001  -3.573523e+001 
3593750000  -4.167759e+001  -3.747329e+001 
3596875000  -4.191748e+001  -3.040549e+001 
3600000000  -4.060074e+001  -3.772615e+001 
3603125000  -4.080099e+001  -5.150911e+001 
3606250000  -4.161705e+001  -5.574290e+001 
3609375000  -4.225411e+001  -5.670958e+001 
3612500000  -4.320895e+001  -5.983902e+001 
3615625000  -4.340838e+001  -6.345417e+001 
3618750000  -4.414828e+001  -6.063099e+001 
3621875000  -4.417776e+001  -6.464535e+001 
3625000000  -4.505958e+001  -6.419277e+001 
3628125000  -4.503841e+001  -6.508576e+001 
3631250000  -4.514707e+001  -7.020503e+001 
3634375000  -4.604163e+001  -6.746959e+001 
3637500000  -4.618428e+001  -6.223037e+001 
3640625000  -4.522498e+001  -5.809804e+001 
3643750000  -4.438666e+001  -6.255988e+001 
3646875000  -4.479332e+001  -7.141522e+001 
3650000000  -4.536424e+001  -6.867321e+001 
3653125000  -4.481752e+001  -7.150383e+001 
3656250000  -4.513309e+001  -7.341161e+001 
3659375000  -4.519781e+001  -7.116811e+001 
3662500000  -4.443969e+001  -7.234750e+001 
3665625000  -4.420148e+001  -7.221396e+001 
3668750000  -4.313738e+001  -7.504530e+001 
3671875000  -4.179377e+001  -8.143456e+001 
3675000000  -4.190056e+001  -9.106783e+001 
3678125000  -4.236861e+001  -9.057423e+001 
3681250000  -4.207658e+001  -9.406058e+001 
3684375000  -4.186328e+001  -1.005176e+002 
3687500000  -4.231356e+001  -1.046592e+002 
3690625000  -4.242256e+001  -1.088163e+002 
3693750000  -4.329774e+001  -1.091991e+002 
3696875000  -4.313271e+001  -1.093863e+002 
3700000000  -4.194384e+001  -1.146192e+002 
3703125000  -4.215730e+001  -1.196557e+002 
3706250000  -4.361946e+001  -1.213460e+002 
3709375000  -4.290727e+001  -1.193608e+002 
3712500000  -4.193438e+001  -1.248146e+002 
3715625000  -4.118752e+001  -1.307651e+002 
3718750000  -4.130731e+001  -1.371130e+002 
3721875000  -4.106494e+001  -1.428763e+002 
3725000000  -4.141119e+001  -1.503698e+002 
3728125000  -4.218812e+001  -1.481254e+002 
3731250000  -4.177604e+001  -1.517685e+002 
3734375000  -4.159250e+001  -1.574419e+002 
3737500000  -4.252247e+001  -1.648622e+002 
3740625000  -4.351049e+001  -1.694474e+002 
3743750000  -4.339497e+001  -1.696119e+002 
3746875000  -4.404413e+001  -1.704571e+002 
3750000000  -4.472895e+001  -1.718397e+002 
3753125000  -4.460611e+001  -1.708076e+002 
3756250000  -4.484703e+001  -1.665304e+002 
3759375000  -4.475253e+001  -1.679270e+002 
3762500000  -4.460565e+001  -1.708161e+002 
3765625000  -4.495894e+001  -1.714808e+002 
3768750000  -4.482423e+001  -1.689749e+002 
3771875000  -4.294435e+001  -1.672588e+002 
3775000000  -4.276741e+001  -1.744852e+002 
3778125000  -4.307943e+001  -1.762021e+002 
3781250000  -4.264552e+001  -1.764351e+002 
3784375000  -4.215817e+001  1.793322e+002 
3787500000  -4.144393e+001  1.759169e+002 
3790625000  -4.220502e+001  1.696699e+002 
3793750000  -4.175996e+001  1.690615e+002 
3796875000  -4.098594e+001  1.663486e+002 
3800000000  -3.907986e+001  1.649469e+002 
3803125000  -3.994845e+001  1.531839e+002 
3806250000  -4.055609e+001  1.515594e+002 
3809375000  -4.010869e+001  1.487123e+002 
3812500000  -3.942012e+001  1.424749e+002 
3815625000  -3.999482e+001  1.317352e+002 
3818750000  -4.110551e+001  1.307930e+002 
3821875000  -4.101847e+001  1.397760e+002 
3825000000  -3.896159e+001  1.412473e+002 
3828125000  -3.770578e+001  1.253598e+002 
3831250000  -3.840305e+001  1.101753e+002 
3834375000  -4.014165e+001  1.066708e+002 
3837500000  -4.092044e+001  1.103176e+002 
3840625000  -3.974907e+001  1.090956e+002 
3843750000  -3.885209e+001  9.815410e+001 
3846875000  -3.959799e+001  8.969405e+001 
3850000000  -4.090295e+001  9.534035e+001 
3853125000  -4.034850e+001  9.618021e+001 
3856250000  -4.021789e+001  9.038345e+001 
3859375000  -3.971926e+001  8.566529e+001 
3862500000  -3.962904e+001  7.803813e+001 
3865625000  -4.015327e+001  7.265206e+001 
3868750000  -3.990121e+001  7.259432e+001 
3871875000  -3.933862e+001  6.750929e+001 
3875000000  -3.988382e+001  5.907000e+001 
3878125000  -4.106220e+001  5.765985e+001 
3881250000  -4.119199e+001  6.180430e+001 
3884375000  -4.054682e+001  5.782220e+001 
3887500000  -4.070992e+001  5.154166e+001 
3890625000  -4.151572e+001  5.086871e+001 
3893750000  -4.153462e+001  4.784110e+001 
3896875000  -4.208248e+001  5.058632e+001 
3900000000  -4.209851e+001  4.782268e+001 
3903125000  -4.150676e+001  4.638290e+001 
3906250000  -4.114249e+001  4.561208e+001 
3909375000  -4.034863e+001  4.149375e+001 
3912500000  -4.027355e+001  3.351109e+001 
3915625000  -4.154855e+001  3.405487e+001 
3918750000  -4.124743e+001  3.502739e+001 
3921875000  -4.059915e+001  3.166384e+001 
3925000000  -3.984875e+001  2.831882e+001 
3928125000  -3.931353e+001  2.409510e+001 
3931250000  -3.965504e+001  1.807378e+001 
3934375000  -3.978887e+001  1.763087e+001 
3937500000  -3.971345e+001  1.468665e+001 
3940625000  -4.020347e+001  1.348573e+001 
3943750000  -3.893472e+001  1.325769e+001 
3946875000  -3.794651e+001  7.659801e+000 
3950000000  -3.879544e+001  -1.376118e+000 
3953125000  -3.971140e+001  -3.285439e+000 
3956250000  -3.869934e+001  -1.702110e+000 
3959375000  -3.739401e+001  -5.492541e+000 
3962500000  -3.699821e+001  -1.076349e+001 
3965625000  -3.693941e+001  -2.258230e+001 
3968750000  -3.800567e+001  -2.948580e+001 
3971875000  -3.820467e+001  -3.168983e+001 
3975000000  -3.768682e+001  -3.558929e+001 
3978125000  -3.748117e+001  -3.979987e+001 
3981250000  -3.757230e+001  -4.356076e+001 
3984375000  -3.779597e+001  -5.079388e+001 
3987500000  -3.857152e+001  -5.303180e+001 
3990625000  -3.852071e+001  -5.428553e+001 
3993750000  -3.904900e+001  -5.811178e+001 
3996875000  -3.880454e+001  -6.384877e+001 
4000000000  -3.953321e+001  -6.322581e+001 
4003125000  -4.009211e+001  -6.255587e+001 
4006250000  -3.856784e+001  -6.516074e+001 
4009375000  -3.776663e+001  -7.673559e+001 
4012500000  -3.915796e+001  -8.359173e+001 
4015625000  -4.032399e+001  -8.185249e+001 
4018750000  -4.054007e+001  -8.028221e+001 
4021875000  -3.977618e+001  -8.089572e+001 
4025000000  -3.952713e+001  -8.519032e+001 
4028125000  -3.956921e+001  -9.065504e+001 
4031250000  -4.000674e+001  -9.346088e+001 
4034375000  -4.017438e+001  -9.112217e+001 
4037500000  -3.964754e+001  -9.146410e+001 
4040625000  -3.966315e+001  -9.425126e+001 
4043750000  -3.966493e+001  -9.534576e+001 
4046875000  -3.933326e+001  -9.511142e+001 
4050000000  -3.860789e+001  -1.036457e+002 
4053125000  -3.935128e+001  -1.041428e+002 
4056250000  -3.945398e+001  -1.013735e+002 
4059375000  -3.812888e+001  -1.007163e+002 
4062500000  -3.669984e+001  -1.078408e+002 
4065625000  -3.651861e+001  -1.113485e+002 
4068750000  -3.622998e+001  -1.170215e+002 
4071875000  -3.553357e+001  -1.262730e+002 
4075000000  -3.596410e+001  -1.344379e+002 
4078125000  -3.647785e+001  -1.353882e+002 
4081250000  -3.569653e+001  -1.392732e+002 
4084375000  -3.528999e+001  -1.477183e+002 
4087500000  -3.586431e+001  -1.552143e+002 
4090625000  -3.646206e+001  -1.565428e+002 
4093750000  -3.599234e+001  -1.581805e+002 
4096875000  -3.580918e+001  -1.667364e+002 
4100000000  -3.648375e+001  -1.733777e+002 
4103125000  -3.757928e+001  -1.728291e+002 
4106250000  -3.731944e+001  -1.699409e+002 
4109375000  -3.643117e+001  -1.718448e+002 
4112500000  -3.583197e+001  1.796245e+002 
4115625000  -3.650558e+001  1.742318e+002 
4118750000  -3.658530e+001  1.709725e+002 
4121875000  -3.616543e+001  1.652156e+002 
4125000000  -3.665345e+001  1.575630e+002 
4128125000  -3.788737e+001  1.591414e+002 
4131250000  -3.743150e+001  1.664945e+002 
4134375000  -3.525759e+001  1.587229e+002 
4137500000  -3.530035e+001  1.404620e+002 
4140625000  -3.762643e+001  1.321481e+002 
4143750000  -3.889433e+001  1.363670e+002 
4146875000  -3.869710e+001  1.439855e+002 
4150000000  -3.794284e+001  1.396188e+002 
4153125000  -3.787985e+001  1.334275e+002 
4156250000  -3.882966e+001  1.306382e+002 
4159375000  -3.918463e+001  1.349012e+002 
4162500000  -3.785704e+001  1.402911e+002 
4165625000  -3.691792e+001  1.361768e+002 
4168750000  -3.641099e+001  1.270662e+002 
4171875000  -3.631428e+001  1.185327e+002 
4175000000  -3.703064e+001  1.141620e+002 
4178125000  -3.751424e+001  1.142545e+002 
4181250000  -3.717826e+001  1.131915e+002 
4184375000  -3.715727e+001  1.095218e+002 
4187500000  -3.689214e+001  1.048671e+002 
4190625000  -3.695755e+001  1.001026e+002 
4193750000  -3.766958e+001  9.666292e+001 
4196875000  -3.814252e+001  9.612152e+001 
4200000000  -3.917827e+001  9.752568e+001 
4203125000  -3.872397e+001  1.108490e+002 
4206250000  -3.529348e+001  1.096927e+002 
4209375000  -3.416358e+001  8.685334e+001 
4212500000  -3.604176e+001  7.903016e+001 
4215625000  -3.689712e+001  8.469277e+001 
4218750000  -3.533099e+001  8.902128e+001 
4221875000  -3.326136e+001  7.999196e+001 
4225000000  -3.435196e+001  6.575317e+001 
4228125000  -3.474963e+001  6.953054e+001 
4231250000  -3.309010e+001  6.446638e+001 
4234375000  -3.296518e+001  5.456461e+001 
4237500000  -3.272068e+001  5.105081e+001 
4240625000  -3.275623e+001  3.868266e+001 
4243750000  -3.373779e+001  3.102206e+001 
4246875000  -3.473117e+001  3.046816e+001 
4250000000  -3.463924e+001  3.249194e+001 
4253125000  -3.420855e+001  2.799120e+001 
4256250000  -3.451563e+001  2.241358e+001 
4259375000  -3.426256e+001  2.051990e+001 
4262500000  -3.447609e+001  1.561514e+001 
4265625000  -3.489571e+001  1.507349e+001 
4268750000  -3.363327e+001  9.151999e+000 
4271875000  -3.384412e+001  8.582011e-001 
4275000000  -3.327834e+001  -5.620893e+000 
4278125000  -3.412002e+001  -1.853984e+001 
4281250000  -3.595753e+001  -2.148158e+001 
4284375000  -3.588837e+001  -2.085876e+001 
4287500000  -3.702379e+001  -2.515610e+001 
4290625000  -3.840972e+001  -1.735764e+001 
4293750000  -3.624698e+001  -1.167168e+001 
4296875000  -3.508191e+001  -2.233318e+001 
4300000000  -3.624058e+001  -3.091829e+001 
4303125000  -3.745807e+001  -2.875540e+001 
4306250000  -3.657546e+001  -2.293255e+001 
4309375000  -3.523829e+001  -2.489859e+001 
4312500000  -3.534460e+001  -3.191457e+001 
4315625000  -3.546651e+001  -3.678207e+001 
4318750000  -3.584015e+001  -4.099932e+001 
4321875000  -3.589374e+001  -4.002587e+001 
4325000000  -3.520028e+001  -4.101798e+001 
4328125000  -3.465456e+001  -4.539571e+001 
4331250000  -3.433888e+001  -5.393069e+001 
4334375000  -3.466198e+001  -5.988454e+001 
4337500000  -3.559317e+001  -6.174559e+001 
4340625000  -3.606556e+001  -5.853114e+001 
4343750000  -3.482811e+001  -5.995095e+001 
4346875000  -3.451539e+001  -6.614692e+001 
4350000000  -3.434052e+001  -7.235395e+001 
4353125000  -3.427641e+001  -8.059709e+001 
4356250000  -3.608580e+001  -8.064795e+001 
4359375000  -3.611354e+001  -6.801265e+001 
4362500000  -3.309880e+001  -6.888591e+001 
4365625000  -3.167841e+001  -8.337251e+001 
4368750000  -3.234289e+001  -9.630798e+001 
4371875000  -3.363544e+001  -9.595947e+001 
4375000000  -3.304817e+001  -9.738908e+001 
4378125000  -3.239612e+001  -1.042851e+002 
4381250000  -3.259546e+001  -1.118653e+002 
4384375000  -3.235129e+001  -1.189259e+002 
4387500000  -3.315770e+001  -1.258050e+002 
4390625000  -3.413613e+001  -1.260892e+002 
4393750000  -3.346259e+001  -1.255812e+002 
4396875000  -3.303268e+001  -1.294226e+002 
4400000000  -3.241674e+001  -1.382200e+002 
4403125000  -3.314778e+001  -1.470016e+002 
4406250000  -3.391976e+001  -1.492012e+002 
4409375000  -3.417852e+001  -1.528900e+002 
4412500000  -3.531088e+001  -1.571596e+002 
4415625000  -3.564518e+001  -1.531445e+002 
