!Agilent Technologies,E8363B,MY43030201,A.06.04.32
!Agilent E8363B: A.06.04.32
!Date: Tuesday, November 11, 2014 21:02:27
!Correction: S21(Response(S21)) 
!S1P File: Measurement: S21:
# Hz S  dB   R 50
3000000000  -3.625311e+001  -4.820217e+001 
3003125000  -3.744437e+001  -5.359404e+001 
3006250000  -3.721410e+001  -5.672623e+001 
3009375000  -3.758028e+001  -5.286043e+001 
3012500000  -3.683575e+001  -5.441707e+001 
3015625000  -3.587838e+001  -6.144417e+001 
3018750000  -3.673820e+001  -6.268736e+001 
3021875000  -3.537249e+001  -6.179917e+001 
3025000000  -3.402155e+001  -6.534914e+001 
3028125000  -3.311117e+001  -7.116093e+001 
3031250000  -3.208459e+001  -8.227785e+001 
3034375000  -3.174652e+001  -9.580667e+001 
3037500000  -3.217325e+001  -1.085451e+002 
3040625000  -3.350946e+001  -1.136916e+002 
3043750000  -3.422901e+001  -1.175575e+002 
3046875000  -3.438730e+001  -1.234453e+002 
3050000000  -3.589952e+001  -1.305895e+002 
3053125000  -3.614783e+001  -1.238828e+002 
3056250000  -3.552828e+001  -1.216531e+002 
3059375000  -3.564791e+001  -1.212680e+002 
3062500000  -3.424357e+001  -1.248653e+002 
3065625000  -3.395372e+001  -1.303446e+002 
3068750000  -3.361746e+001  -1.372145e+002 
3071875000  -3.342227e+001  -1.401085e+002 
3075000000  -3.329765e+001  -1.437916e+002 
3078125000  -3.299029e+001  -1.482100e+002 
3081250000  -3.358080e+001  -1.521925e+002 
3084375000  -3.262881e+001  -1.558129e+002 
3087500000  -3.244474e+001  -1.593369e+002 
3090625000  -3.196832e+001  -1.694505e+002 
3093750000  -3.237061e+001  -1.772979e+002 
3096875000  -3.344220e+001  1.772687e+002 
3100000000  -3.337637e+001  1.744271e+002 
3103125000  -3.356676e+001  1.756396e+002 
3106250000  -3.309385e+001  1.713967e+002 
3109375000  -3.324317e+001  1.673219e+002 
3112500000  -3.318535e+001  1.649446e+002 
3115625000  -3.278043e+001  1.604406e+002 
3118750000  -3.312049e+001  1.603624e+002 
3121875000  -3.224938e+001  1.506709e+002 
3125000000  -3.335381e+001  1.467490e+002 
3128125000  -3.437670e+001  1.538343e+002 
3131250000  -3.206059e+001  1.519965e+002 
3134375000  -3.070878e+001  1.366817e+002 
3137500000  -3.123395e+001  1.223940e+002 
3140625000  -3.275636e+001  1.195253e+002 
3143750000  -3.378195e+001  1.214867e+002 
3146875000  -3.333456e+001  1.217202e+002 
3150000000  -3.228317e+001  1.219398e+002 
3153125000  -3.225029e+001  1.130801e+002 
3156250000  -3.328738e+001  1.176607e+002 
3159375000  -3.171435e+001  1.188464e+002 
3162500000  -2.977977e+001  1.044079e+002 
3165625000  -3.076688e+001  9.245887e+001 
3168750000  -3.106010e+001  9.248735e+001 
3171875000  -3.020209e+001  8.721143e+001 
3175000000  -3.102427e+001  7.840721e+001 
3178125000  -3.076968e+001  7.929868e+001 
3181250000  -2.973283e+001  7.348927e+001 
3184375000  -2.891208e+001  6.077312e+001 
3187500000  -3.010370e+001  4.527465e+001 
3190625000  -3.292876e+001  3.721381e+001 
3193750000  -3.347660e+001  4.605622e+001 
3196875000  -3.317836e+001  5.081479e+001 
3200000000  -3.221766e+001  4.804559e+001 
3203125000  -3.140540e+001  4.196983e+001 
3206250000  -3.175161e+001  3.544556e+001 
3209375000  -3.130866e+001  2.989700e+001 
3212500000  -3.153848e+001  2.255356e+001 
3215625000  -3.153818e+001  1.864700e+001 
3218750000  -3.237045e+001  1.123941e+001 
3221875000  -3.320228e+001  5.717163e+000 
3225000000  -3.274394e+001  5.557302e+000 
3228125000  -3.313730e+001  -1.980973e-001 
3231250000  -3.378939e+001  -2.341752e+000 
3234375000  -3.362725e+001  -2.199791e+000 
3237500000  -3.357056e+001  -4.468872e+000 
3240625000  -3.313527e+001  -6.732807e+000 
3243750000  -3.262047e+001  -1.431274e+001 
3246875000  -3.318884e+001  -2.157959e+001 
3250000000  -3.359999e+001  -2.323510e+001 
3253125000  -3.363710e+001  -2.490938e+001 
3256250000  -3.324439e+001  -3.271901e+001 
3259375000  -3.350320e+001  -4.092682e+001 
3262500000  -3.471647e+001  -4.549402e+001 
3265625000  -3.542369e+001  -4.284588e+001 
3268750000  -3.524913e+001  -4.081318e+001 
3271875000  -3.481621e+001  -4.041417e+001 
3275000000  -3.381297e+001  -4.686627e+001 
3278125000  -3.417885e+001  -5.365878e+001 
3281250000  -3.437822e+001  -5.279480e+001 
3284375000  -3.391116e+001  -5.994938e+001 
3287500000  -3.413233e+001  -6.358179e+001 
3290625000  -3.442781e+001  -6.913185e+001 
3293750000  -3.411969e+001  -7.479887e+001 
3296875000  -3.525773e+001  -7.575475e+001 
3300000000  -3.496613e+001  -7.615459e+001 
3303125000  -3.380693e+001  -8.144776e+001 
3306250000  -3.360112e+001  -8.745019e+001 
3309375000  -3.327292e+001  -9.341862e+001 
3312500000  -3.342284e+001  -1.050744e+002 
3315625000  -3.432835e+001  -1.133636e+002 
3318750000  -3.574269e+001  -1.164108e+002 
3321875000  -3.690929e+001  -1.171144e+002 
3325000000  -3.757877e+001  -1.122780e+002 
3328125000  -3.706110e+001  -1.104791e+002 
3331250000  -3.579143e+001  -1.043856e+002 
3334375000  -3.315209e+001  -1.150275e+002 
3337500000  -3.320649e+001  -1.336870e+002 
3340625000  -3.460505e+001  -1.448325e+002 
3343750000  -3.671367e+001  -1.464395e+002 
3346875000  -3.688851e+001  -1.447861e+002 
3350000000  -3.628364e+001  -1.467708e+002 
3353125000  -3.626470e+001  -1.504286e+002 
3356250000  -3.582886e+001  -1.583878e+002 
3359375000  -3.663225e+001  -1.668135e+002 
3362500000  -3.766576e+001  -1.733231e+002 
3365625000  -3.818808e+001  -1.741527e+002 
3368750000  -3.902367e+001  -1.765755e+002 
3371875000  -3.928217e+001  -1.787130e+002 
3375000000  -4.058410e+001  1.784346e+002 
3378125000  -4.132303e+001  1.779577e+002 
3381250000  -4.285281e+001  -1.717397e+002 
3384375000  -4.120161e+001  -1.506348e+002 
3387500000  -3.783947e+001  -1.667212e+002 
3390625000  -3.952396e+001  1.728246e+002 
3393750000  -4.057819e+001  1.776557e+002 
3396875000  -3.952998e+001  1.786312e+002 
3400000000  -3.895634e+001  1.710067e+002 
3403125000  -3.966899e+001  1.653680e+002 
3406250000  -3.984802e+001  1.652535e+002 
3409375000  -3.988709e+001  1.577906e+002 
3412500000  -4.037219e+001  1.537100e+002 
3415625000  -4.121695e+001  1.557351e+002 
3418750000  -4.131311e+001  1.574485e+002 
3421875000  -4.154354e+001  1.602072e+002 
3425000000  -4.052827e+001  1.593147e+002 
3428125000  -3.942359e+001  1.561221e+002 
3431250000  -3.924850e+001  1.486858e+002 
3434375000  -3.924892e+001  1.423975e+002 
3437500000  -3.968795e+001  1.393143e+002 
3440625000  -4.008800e+001  1.400727e+002 
3443750000  -3.900619e+001  1.410263e+002 
3446875000  -3.806550e+001  1.327229e+002 
3450000000  -3.782502e+001  1.226269e+002 
3453125000  -3.801598e+001  1.130949e+002 
3456250000  -3.919679e+001  1.055443e+002 
3459375000  -4.025017e+001  1.067494e+002 
3462500000  -4.006760e+001  1.068942e+002 
3465625000  -4.021769e+001  1.025754e+002 
3468750000  -4.028776e+001  9.789251e+001 
3471875000  -4.036327e+001  9.652940e+001 
3475000000  -4.005628e+001  9.057199e+001 
3478125000  -4.074252e+001  8.582236e+001 
3481250000  -4.153482e+001  8.133789e+001 
3484375000  -4.252583e+001  8.606863e+001 
3487500000  -4.193178e+001  8.529657e+001 
3490625000  -4.119674e+001  8.041528e+001 
3493750000  -4.166395e+001  7.408045e+001 
3496875000  -4.227269e+001  7.174141e+001 
3500000000  -4.286569e+001  7.669162e+001 
3503125000  -4.220166e+001  7.852734e+001 
3506250000  -4.099623e+001  7.598711e+001 
3509375000  -4.087870e+001  6.639433e+001 
3512500000  -4.148290e+001  5.726548e+001 
3515625000  -4.208286e+001  5.438795e+001 
3518750000  -4.246138e+001  5.539048e+001 
3521875000  -4.229371e+001  5.474776e+001 
3525000000  -4.350496e+001  5.007703e+001 
3528125000  -4.337938e+001  5.794909e+001 
3531250000  -4.188943e+001  5.531814e+001 
3534375000  -4.183508e+001  4.564107e+001 
3537500000  -4.230490e+001  4.005029e+001 
3540625000  -4.309480e+001  3.962235e+001 
3543750000  -4.367965e+001  4.111588e+001 
3546875000  -4.363526e+001  5.144590e+001 
3550000000  -4.099862e+001  5.157569e+001 
3553125000  -3.959261e+001  3.377679e+001 
3556250000  -4.115134e+001  2.863036e+001 
3559375000  -4.103484e+001  2.883872e+001 
3562500000  -3.963282e+001  1.881906e+001 
3565625000  -4.066380e+001  1.154240e+001 
3568750000  -4.082496e+001  1.403058e+001 
3571875000  -4.086847e+001  1.266044e+001 
3575000000  -4.056808e+001  3.193087e+000 
3578125000  -4.104010e+001  -1.476234e+000 
3581250000  -4.120353e+001  -2.211909e+000 
3584375000  -4.049152e+001  -5.885056e+000 
3587500000  -4.019822e+001  -1.306135e+001 
3590625000  -4.022479e+001  -2.394263e+001 
3593750000  -4.200298e+001  -2.662705e+001 
3596875000  -4.183286e+001  -1.914263e+001 
3600000000  -4.063804e+001  -2.603285e+001 
3603125000  -4.088181e+001  -4.166084e+001 
3606250000  -4.193352e+001  -4.356340e+001 
3609375000  -4.254993e+001  -4.574681e+001 
3612500000  -4.330435e+001  -4.878632e+001 
3615625000  -4.342757e+001  -5.333736e+001 
3618750000  -4.466081e+001  -5.047380e+001 
3621875000  -4.456929e+001  -5.527376e+001 
3625000000  -4.489126e+001  -5.355156e+001 
3628125000  -4.548177e+001  -5.332239e+001 
3631250000  -4.545675e+001  -5.718488e+001 
3634375000  -4.660820e+001  -5.776752e+001 
3637500000  -4.601017e+001  -5.235416e+001 
3640625000  -4.508501e+001  -4.749683e+001 
3643750000  -4.466187e+001  -5.296191e+001 
3646875000  -4.529802e+001  -5.815820e+001 
3650000000  -4.651826e+001  -5.744624e+001 
3653125000  -4.525435e+001  -6.124663e+001 
3656250000  -4.552303e+001  -5.996336e+001 
3659375000  -4.537864e+001  -5.805899e+001 
3662500000  -4.448454e+001  -6.089485e+001 
3665625000  -4.427061e+001  -6.172163e+001 
3668750000  -4.300441e+001  -6.105759e+001 
3671875000  -4.194268e+001  -6.907284e+001 
3675000000  -4.238436e+001  -7.666576e+001 
3678125000  -4.254053e+001  -8.011648e+001 
3681250000  -4.226410e+001  -8.137416e+001 
3684375000  -4.214836e+001  -8.768590e+001 
3687500000  -4.263028e+001  -9.372802e+001 
3690625000  -4.272001e+001  -9.766148e+001 
3693750000  -4.342156e+001  -9.602200e+001 
3696875000  -4.308725e+001  -9.906950e+001 
3700000000  -4.239658e+001  -1.026722e+002 
3703125000  -4.260575e+001  -1.065515e+002 
3706250000  -4.341262e+001  -1.074565e+002 
3709375000  -4.295705e+001  -1.047138e+002 
3712500000  -4.215012e+001  -1.107535e+002 
3715625000  -4.151060e+001  -1.182226e+002 
3718750000  -4.150172e+001  -1.233373e+002 
3721875000  -4.128287e+001  -1.287553e+002 
3725000000  -4.161403e+001  -1.346236e+002 
3728125000  -4.215623e+001  -1.364230e+002 
3731250000  -4.202323e+001  -1.389933e+002 
3734375000  -4.175517e+001  -1.448007e+002 
3737500000  -4.277837e+001  -1.538964e+002 
3740625000  -4.362603e+001  -1.544414e+002 
3743750000  -4.369714e+001  -1.577120e+002 
3746875000  -4.415174e+001  -1.588787e+002 
3750000000  -4.481034e+001  -1.589950e+002 
3753125000  -4.495837e+001  -1.574719e+002 
3756250000  -4.520949e+001  -1.541433e+002 
3759375000  -4.504066e+001  -1.538942e+002 
3762500000  -4.455941e+001  -1.558613e+002 
3765625000  -4.537635e+001  -1.569806e+002 
3768750000  -4.481379e+001  -1.540665e+002 
3771875000  -4.319483e+001  -1.524814e+002 
3775000000  -4.304468e+001  -1.598483e+002 
3778125000  -4.333041e+001  -1.646438e+002 
3781250000  -4.250011e+001  -1.651343e+002 
3784375000  -4.262368e+001  -1.655472e+002 
3787500000  -4.148013e+001  -1.688026e+002 
3790625000  -4.189251e+001  -1.762262e+002 
3793750000  -4.161823e+001  -1.785343e+002 
3796875000  -4.094677e+001  1.797527e+002 
3800000000  -3.918279e+001  1.776476e+002 
3803125000  -3.978795e+001  1.677003e+002 
3806250000  -4.055333e+001  1.636360e+002 
3809375000  -4.002025e+001  1.627243e+002 
3812500000  -3.914971e+001  1.559277e+002 
3815625000  -3.987737e+001  1.470712e+002 
3818750000  -4.093118e+001  1.449767e+002 
3821875000  -4.102475e+001  1.507349e+002 
3825000000  -3.900768e+001  1.538660e+002 
3828125000  -3.782100e+001  1.361730e+002 
3831250000  -3.847155e+001  1.226804e+002 
3834375000  -4.001133e+001  1.209126e+002 
3837500000  -4.078559e+001  1.253683e+002 
3840625000  -3.945672e+001  1.219383e+002 
3843750000  -3.859859e+001  1.113973e+002 
3846875000  -3.968040e+001  1.039955e+002 
3850000000  -4.084458e+001  1.072090e+002 
3853125000  -4.070825e+001  1.080436e+002 
3856250000  -4.023201e+001  1.032240e+002 
3859375000  -3.973068e+001  9.779945e+001 
3862500000  -3.938494e+001  9.023810e+001 
3865625000  -3.996660e+001  8.626315e+001 
3868750000  -3.983408e+001  8.541125e+001 
3871875000  -3.940839e+001  8.179836e+001 
3875000000  -3.955987e+001  7.156287e+001 
3878125000  -4.062040e+001  6.940469e+001 
3881250000  -4.067603e+001  7.277330e+001 
3884375000  -4.043215e+001  6.862366e+001 
3887500000  -4.054616e+001  6.580830e+001 
3890625000  -4.117977e+001  6.203154e+001 
3893750000  -4.131458e+001  6.116471e+001 
3896875000  -4.172036e+001  6.402860e+001 
3900000000  -4.164815e+001  6.202190e+001 
3903125000  -4.152606e+001  5.672383e+001 
3906250000  -4.108052e+001  5.833781e+001 
3909375000  -4.030483e+001  5.499758e+001 
3912500000  -4.033808e+001  4.767614e+001 
3915625000  -4.143555e+001  4.927347e+001 
3918750000  -4.118981e+001  4.877247e+001 
3921875000  -4.059567e+001  4.568821e+001 
3925000000  -3.962325e+001  4.386433e+001 
3928125000  -3.884106e+001  3.537200e+001 
3931250000  -3.940449e+001  3.281792e+001 
3934375000  -3.964933e+001  3.066138e+001 
3937500000  -3.973996e+001  2.754462e+001 
3940625000  -4.025254e+001  2.663259e+001 
3943750000  -3.904255e+001  2.576846e+001 
3946875000  -3.809882e+001  1.914285e+001 
3950000000  -3.868258e+001  1.009803e+001 
3953125000  -3.931823e+001  8.228805e+000 
3956250000  -3.852988e+001  1.303860e+001 
3959375000  -3.744716e+001  6.408570e+000 
3962500000  -3.684984e+001  2.425478e+000 
3965625000  -3.683943e+001  -8.050565e+000 
3968750000  -3.776375e+001  -1.619631e+001 
3971875000  -3.795993e+001  -2.052112e+001 
3975000000  -3.751971e+001  -2.170311e+001 
3978125000  -3.741383e+001  -2.595780e+001 
3981250000  -3.757566e+001  -3.117369e+001 
3984375000  -3.794754e+001  -3.874835e+001 
3987500000  -3.843167e+001  -4.012230e+001 
3990625000  -3.856429e+001  -4.198636e+001 
3993750000  -3.915257e+001  -4.716097e+001 
3996875000  -3.905896e+001  -5.085734e+001 
4000000000  -3.940607e+001  -5.206708e+001 
4003125000  -3.997232e+001  -4.942764e+001 
4006250000  -3.883677e+001  -5.127285e+001 
4009375000  -3.785433e+001  -6.502722e+001 
4012500000  -3.888243e+001  -7.189803e+001 
4015625000  -4.049311e+001  -6.897050e+001 
4018750000  -4.059609e+001  -6.730175e+001 
4021875000  -3.990697e+001  -7.018803e+001 
4025000000  -3.967358e+001  -7.277854e+001 
4028125000  -3.942036e+001  -7.827327e+001 
4031250000  -3.997019e+001  -7.980822e+001 
4034375000  -4.046025e+001  -7.914744e+001 
4037500000  -3.980352e+001  -7.805783e+001 
4040625000  -3.956102e+001  -8.180378e+001 
4043750000  -3.976281e+001  -8.329616e+001 
4046875000  -3.903099e+001  -8.249335e+001 
4050000000  -3.854839e+001  -8.929252e+001 
4053125000  -3.910550e+001  -9.032854e+001 
4056250000  -3.978518e+001  -8.942592e+001 
4059375000  -3.804120e+001  -8.868758e+001 
4062500000  -3.661309e+001  -9.413697e+001 
4065625000  -3.652769e+001  -9.823798e+001 
4068750000  -3.638074e+001  -1.045351e+002 
4071875000  -3.546984e+001  -1.129823e+002 
4075000000  -3.572540e+001  -1.207532e+002 
4078125000  -3.622820e+001  -1.234985e+002 
4081250000  -3.572299e+001  -1.267188e+002 
4084375000  -3.536814e+001  -1.348484e+002 
4087500000  -3.579874e+001  -1.417391e+002 
4090625000  -3.637224e+001  -1.431792e+002 
4093750000  -3.617352e+001  -1.451622e+002 
4096875000  -3.578958e+001  -1.524524e+002 
4100000000  -3.647552e+001  -1.601083e+002 
4103125000  -3.747639e+001  -1.601198e+002 
4106250000  -3.711873e+001  -1.568660e+002 
4109375000  -3.625505e+001  -1.588948e+002 
4112500000  -3.592266e+001  -1.684198e+002 
4115625000  -3.617212e+001  -1.732289e+002 
4118750000  -3.649005e+001  -1.773187e+002 
4121875000  -3.606972e+001  1.770070e+002 
4125000000  -3.656348e+001  1.727247e+002 
4128125000  -3.749590e+001  1.707131e+002 
4131250000  -3.754809e+001  1.771755e+002 
4134375000  -3.552125e+001  1.723721e+002 
4137500000  -3.529395e+001  1.525680e+002 
4140625000  -3.764557e+001  1.447239e+002 
4143750000  -3.887318e+001  1.479203e+002 
4146875000  -3.877659e+001  1.567420e+002 
4150000000  -3.802609e+001  1.523175e+002 
4153125000  -3.780442e+001  1.449938e+002 
4156250000  -3.869570e+001  1.424835e+002 
4159375000  -3.921979e+001  1.485110e+002 
4162500000  -3.825669e+001  1.529620e+002 
4165625000  -3.702340e+001  1.480238e+002 
4168750000  -3.641439e+001  1.408647e+002 
4171875000  -3.643454e+001  1.305130e+002 
4175000000  -3.732744e+001  1.266419e+002 
4178125000  -3.774507e+001  1.267796e+002 
4181250000  -3.743985e+001  1.257024e+002 
4184375000  -3.716433e+001  1.222989e+002 
4187500000  -3.704589e+001  1.197702e+002 
4190625000  -3.685207e+001  1.144191e+002 
4193750000  -3.775020e+001  1.105620e+002 
4196875000  -3.835956e+001  1.081661e+002 
4200000000  -3.927284e+001  1.101294e+002 
4203125000  -3.896745e+001  1.238930e+002 
4206250000  -3.518810e+001  1.232025e+002 
4209375000  -3.414003e+001  1.016866e+002 
4212500000  -3.589349e+001  9.176786e+001 
4215625000  -3.677996e+001  9.870532e+001 
4218750000  -3.531229e+001  1.054164e+002 
4221875000  -3.324792e+001  9.170003e+001 
4225000000  -3.420699e+001  7.980923e+001 
4228125000  -3.488538e+001  8.310164e+001 
4231250000  -3.325452e+001  7.895392e+001 
4234375000  -3.307455e+001  6.882273e+001 
4237500000  -3.273249e+001  6.386907e+001 
4240625000  -3.257420e+001  5.307694e+001 
4243750000  -3.367032e+001  4.507716e+001 
4246875000  -3.463715e+001  4.436255e+001 
4250000000  -3.469865e+001  4.641772e+001 
4253125000  -3.411322e+001  4.262127e+001 
4256250000  -3.443248e+001  3.688718e+001 
4259375000  -3.418877e+001  3.420110e+001 
4262500000  -3.444423e+001  2.857979e+001 
4265625000  -3.455489e+001  2.793594e+001 
4268750000  -3.365923e+001  2.318378e+001 
4271875000  -3.365040e+001  1.543144e+001 
4275000000  -3.315811e+001  6.554629e+000 
4278125000  -3.402317e+001  -4.536378e+000 
4281250000  -3.589624e+001  -8.200521e+000 
4284375000  -3.561472e+001  -6.499017e+000 
4287500000  -3.670361e+001  -1.230453e+001 
4290625000  -3.804151e+001  -4.025362e+000 
4293750000  -3.633263e+001  2.707538e+000 
4296875000  -3.525282e+001  -9.145559e+000 
4300000000  -3.627331e+001  -1.904467e+001 
4303125000  -3.759467e+001  -1.736458e+001 
4306250000  -3.675690e+001  -1.015112e+001 
4309375000  -3.561847e+001  -1.350564e+001 
4312500000  -3.568067e+001  -1.953335e+001 
4315625000  -3.560028e+001  -2.573329e+001 
4318750000  -3.606263e+001  -2.879576e+001 
4321875000  -3.621003e+001  -2.675095e+001 
4325000000  -3.561238e+001  -2.637695e+001 
4328125000  -3.487468e+001  -3.176720e+001 
4331250000  -3.468921e+001  -4.007927e+001 
4334375000  -3.499676e+001  -4.463641e+001 
4337500000  -3.570171e+001  -4.786728e+001 
4340625000  -3.614251e+001  -4.375134e+001 
4343750000  -3.524681e+001  -4.455252e+001 
4346875000  -3.490024e+001  -5.088356e+001 
4350000000  -3.472164e+001  -5.667262e+001 
4353125000  -3.453104e+001  -6.458530e+001 
4356250000  -3.616640e+001  -6.558180e+001 
4359375000  -3.659441e+001  -5.342113e+001 
4362500000  -3.366180e+001  -5.381198e+001 
4365625000  -3.203992e+001  -6.724496e+001 
4368750000  -3.266717e+001  -8.031957e+001 
4371875000  -3.366573e+001  -8.122854e+001 
4375000000  -3.316751e+001  -8.261713e+001 
4378125000  -3.244408e+001  -8.893296e+001 
4381250000  -3.264720e+001  -9.639742e+001 
4384375000  -3.247551e+001  -1.017401e+002 
4387500000  -3.319282e+001  -1.106198e+002 
4390625000  -3.400655e+001  -1.112344e+002 
4393750000  -3.349046e+001  -1.096593e+002 
4396875000  -3.292551e+001  -1.144234e+002 
4400000000  -3.238472e+001  -1.229272e+002 
4403125000  -3.297182e+001  -1.323051e+002 
4406250000  -3.385283e+001  -1.351854e+002 
4409375000  -3.409489e+001  -1.385830e+002 
4412500000  -3.520741e+001  -1.432704e+002 
4415625000  -3.568639e+001  -1.391729e+002 
