!Agilent Technologies,E8363B,MY43030201,A.06.04.32
!Agilent E8363B: A.06.04.32
!Date: Tuesday, November 11, 2014 21:05:37
!Correction: S21(Response(S21)) 
!S1P File: Measurement: S21:
# Hz S  dB   R 50
3000000000  -3.642634e+001  -5.012091e+001 
3003125000  -3.747309e+001  -5.636823e+001 
3006250000  -3.743871e+001  -5.817754e+001 
3009375000  -3.766927e+001  -5.418308e+001 
3012500000  -3.697720e+001  -5.622419e+001 
3015625000  -3.615352e+001  -6.296632e+001 
3018750000  -3.698960e+001  -6.425365e+001 
3021875000  -3.548711e+001  -6.293777e+001 
3025000000  -3.416787e+001  -6.622742e+001 
3028125000  -3.316465e+001  -7.285028e+001 
3031250000  -3.215386e+001  -8.452181e+001 
3034375000  -3.180873e+001  -9.761227e+001 
3037500000  -3.222061e+001  -1.098911e+002 
3040625000  -3.356462e+001  -1.147035e+002 
3043750000  -3.424811e+001  -1.193024e+002 
3046875000  -3.438386e+001  -1.253221e+002 
3050000000  -3.608831e+001  -1.323812e+002 
3053125000  -3.615384e+001  -1.260769e+002 
3056250000  -3.574009e+001  -1.228834e+002 
3059375000  -3.568296e+001  -1.229949e+002 
3062500000  -3.416950e+001  -1.266689e+002 
3065625000  -3.386150e+001  -1.325213e+002 
3068750000  -3.359944e+001  -1.393972e+002 
3071875000  -3.359372e+001  -1.420760e+002 
3075000000  -3.329445e+001  -1.458353e+002 
3078125000  -3.305379e+001  -1.495020e+002 
3081250000  -3.356408e+001  -1.542260e+002 
3084375000  -3.271017e+001  -1.576238e+002 
3087500000  -3.242744e+001  -1.623314e+002 
3090625000  -3.198997e+001  -1.715022e+002 
3093750000  -3.248202e+001  -1.795019e+002 
3096875000  -3.345640e+001  1.752223e+002 
3100000000  -3.334436e+001  1.723663e+002 
3103125000  -3.363281e+001  1.732497e+002 
3106250000  -3.316785e+001  1.689542e+002 
3109375000  -3.322378e+001  1.654900e+002 
3112500000  -3.314953e+001  1.630945e+002 
3115625000  -3.290242e+001  1.587004e+002 
3118750000  -3.313555e+001  1.586198e+002 
3121875000  -3.230046e+001  1.484826e+002 
3125000000  -3.350000e+001  1.446118e+002 
3128125000  -3.451677e+001  1.519128e+002 
3131250000  -3.203722e+001  1.501097e+002 
3134375000  -3.072783e+001  1.342596e+002 
3137500000  -3.128588e+001  1.199383e+002 
3140625000  -3.278474e+001  1.172915e+002 
3143750000  -3.381236e+001  1.192240e+002 
3146875000  -3.332934e+001  1.192613e+002 
3150000000  -3.228340e+001  1.201775e+002 
3153125000  -3.224183e+001  1.112294e+002 
3156250000  -3.335313e+001  1.158471e+002 
3159375000  -3.167409e+001  1.173382e+002 
3162500000  -2.971974e+001  1.023379e+002 
3165625000  -3.068153e+001  9.067532e+001 
3168750000  -3.104106e+001  9.050353e+001 
3171875000  -3.020063e+001  8.488847e+001 
3175000000  -3.089833e+001  7.600351e+001 
3178125000  -3.070719e+001  7.678401e+001 
3181250000  -2.955781e+001  7.172503e+001 
3184375000  -2.886225e+001  5.877128e+001 
3187500000  -3.010172e+001  4.305236e+001 
3190625000  -3.277411e+001  3.516935e+001 
3193750000  -3.335049e+001  4.431693e+001 
3196875000  -3.297479e+001  4.876217e+001 
3200000000  -3.210229e+001  4.632428e+001 
3203125000  -3.127446e+001  3.955516e+001 
3206250000  -3.163993e+001  3.305552e+001 
3209375000  -3.112040e+001  2.706903e+001 
3212500000  -3.137962e+001  2.000794e+001 
3215625000  -3.149368e+001  1.612208e+001 
3218750000  -3.218073e+001  9.319019e+000 
3221875000  -3.314684e+001  4.147940e+000 
3225000000  -3.266402e+001  2.281638e+000 
3228125000  -3.304860e+001  -2.527462e+000 
3231250000  -3.371918e+001  -4.747081e+000 
3234375000  -3.346021e+001  -5.090217e+000 
3237500000  -3.348927e+001  -6.691298e+000 
3240625000  -3.308779e+001  -9.501741e+000 
3243750000  -3.264195e+001  -1.695708e+001 
3246875000  -3.302186e+001  -2.409770e+001 
3250000000  -3.343930e+001  -2.616605e+001 
3253125000  -3.360400e+001  -2.896855e+001 
3256250000  -3.324034e+001  -3.518161e+001 
3259375000  -3.349086e+001  -4.380621e+001 
3262500000  -3.458561e+001  -4.767627e+001 
3265625000  -3.522656e+001  -4.443946e+001 
3268750000  -3.509097e+001  -4.238004e+001 
3271875000  -3.485905e+001  -4.336733e+001 
3275000000  -3.370457e+001  -4.956269e+001 
3278125000  -3.416356e+001  -5.624318e+001 
3281250000  -3.443694e+001  -5.512711e+001 
3284375000  -3.391728e+001  -6.282477e+001 
3287500000  -3.408884e+001  -6.629200e+001 
3290625000  -3.436472e+001  -7.209959e+001 
3293750000  -3.417902e+001  -7.804634e+001 
3296875000  -3.515085e+001  -7.773682e+001 
3300000000  -3.494856e+001  -7.752911e+001 
3303125000  -3.379601e+001  -8.311636e+001 
3306250000  -3.353066e+001  -9.039608e+001 
3309375000  -3.327653e+001  -9.629333e+001 
3312500000  -3.335208e+001  -1.077525e+002 
3315625000  -3.429290e+001  -1.163342e+002 
3318750000  -3.572511e+001  -1.189234e+002 
3321875000  -3.676357e+001  -1.196165e+002 
3325000000  -3.736522e+001  -1.140018e+002 
3328125000  -3.691827e+001  -1.145713e+002 
3331250000  -3.573927e+001  -1.073595e+002 
3334375000  -3.308878e+001  -1.178195e+002 
3337500000  -3.313926e+001  -1.363297e+002 
3340625000  -3.445255e+001  -1.476402e+002 
3343750000  -3.634294e+001  -1.491413e+002 
3346875000  -3.667892e+001  -1.461359e+002 
3350000000  -3.611828e+001  -1.488476e+002 
3353125000  -3.614976e+001  -1.531785e+002 
3356250000  -3.567381e+001  -1.610674e+002 
3359375000  -3.643990e+001  -1.700513e+002 
3362500000  -3.760582e+001  -1.758281e+002 
3365625000  -3.787188e+001  -1.771211e+002 
3368750000  -3.872607e+001  -1.795271e+002 
3371875000  -3.897932e+001  1.778761e+002 
3375000000  -4.056738e+001  1.763845e+002 
3378125000  -4.137682e+001  1.771269e+002 
3381250000  -4.274226e+001  -1.775457e+002 
3384375000  -4.106162e+001  -1.544834e+002 
3387500000  -3.764301e+001  -1.714622e+002 
3390625000  -3.940154e+001  1.692684e+002 
3393750000  -4.059084e+001  1.727720e+002 
3396875000  -3.911140e+001  1.751306e+002 
3400000000  -3.882669e+001  1.673332e+002 
3403125000  -3.934837e+001  1.606192e+002 
3406250000  -3.974238e+001  1.597760e+002 
3409375000  -3.952299e+001  1.525932e+002 
3412500000  -4.034093e+001  1.508086e+002 
3415625000  -4.098128e+001  1.524034e+002 
3418750000  -4.119134e+001  1.527975e+002 
3421875000  -4.134171e+001  1.560521e+002 
3425000000  -4.024588e+001  1.555863e+002 
3428125000  -3.943325e+001  1.515547e+002 
3431250000  -3.932823e+001  1.443248e+002 
3434375000  -3.917300e+001  1.381276e+002 
3437500000  -3.971867e+001  1.354179e+002 
3440625000  -4.005048e+001  1.366530e+002 
3443750000  -3.888263e+001  1.367053e+002 
3446875000  -3.810950e+001  1.292270e+002 
3450000000  -3.771552e+001  1.197997e+002 
3453125000  -3.804142e+001  1.099949e+002 
3456250000  -3.927610e+001  1.025295e+002 
3459375000  -4.018311e+001  1.047614e+002 
3462500000  -3.998140e+001  1.038395e+002 
3465625000  -3.981503e+001  9.923158e+001 
3468750000  -4.033881e+001  9.482582e+001 
3471875000  -4.019686e+001  9.274046e+001 
3475000000  -3.980621e+001  8.832904e+001 
3478125000  -4.043616e+001  8.001718e+001 
3481250000  -4.140160e+001  7.828078e+001 
3484375000  -4.244659e+001  8.133073e+001 
3487500000  -4.159419e+001  8.211623e+001 
3490625000  -4.101235e+001  7.740813e+001 
3493750000  -4.148788e+001  6.957703e+001 
3496875000  -4.178329e+001  6.718609e+001 
3500000000  -4.278541e+001  7.028699e+001 
3503125000  -4.206707e+001  7.358827e+001 
3506250000  -4.105671e+001  7.091890e+001 
3509375000  -4.094948e+001  5.862538e+001 
3512500000  -4.128868e+001  5.195861e+001 
3515625000  -4.195475e+001  4.866011e+001 
3518750000  -4.272447e+001  5.188673e+001 
3521875000  -4.279768e+001  4.829124e+001 
3525000000  -4.332805e+001  4.348532e+001 
3528125000  -4.324842e+001  5.208864e+001 
3531250000  -4.217987e+001  4.971534e+001 
3534375000  -4.200866e+001  3.984153e+001 
3537500000  -4.231771e+001  3.468924e+001 
3540625000  -4.298508e+001  3.396205e+001 
3543750000  -4.406449e+001  3.714891e+001 
3546875000  -4.415341e+001  4.950643e+001 
3550000000  -4.123785e+001  4.849701e+001 
3553125000  -4.001084e+001  3.067815e+001 
3556250000  -4.134457e+001  2.493335e+001 
3559375000  -4.089941e+001  2.535328e+001 
3562500000  -3.993842e+001  1.731688e+001 
3565625000  -4.096332e+001  9.010361e+000 
3568750000  -4.113626e+001  1.208729e+001 
3571875000  -4.093620e+001  1.017121e+001 
3575000000  -4.061987e+001  2.438828e+000 
3578125000  -4.116035e+001  -3.102122e+000 
3581250000  -4.129398e+001  -4.823322e+000 
3584375000  -4.048487e+001  -6.312916e+000 
3587500000  -4.021542e+001  -1.648041e+001 
3590625000  -4.051129e+001  -2.677123e+001 
3593750000  -4.177820e+001  -2.862299e+001 
3596875000  -4.155883e+001  -2.181543e+001 
3600000000  -4.035136e+001  -2.836142e+001 
3603125000  -4.069535e+001  -4.098940e+001 
3606250000  -4.165997e+001  -4.490343e+001 
3609375000  -4.240483e+001  -4.949081e+001 
3612500000  -4.294353e+001  -5.074842e+001 
3615625000  -4.330750e+001  -5.642060e+001 
3618750000  -4.394449e+001  -5.353611e+001 
3621875000  -4.389793e+001  -5.745908e+001 
3625000000  -4.449716e+001  -5.848200e+001 
3628125000  -4.494876e+001  -5.833646e+001 
3631250000  -4.431343e+001  -6.351315e+001 
3634375000  -4.584803e+001  -6.270112e+001 
3637500000  -4.609720e+001  -5.870422e+001 
3640625000  -4.488777e+001  -5.572984e+001 
3643750000  -4.459497e+001  -6.122871e+001 
3646875000  -4.501819e+001  -6.612593e+001 
3650000000  -4.587879e+001  -6.714429e+001 
3653125000  -4.536995e+001  -6.478723e+001 
3656250000  -4.552295e+001  -6.659544e+001 
3659375000  -4.583906e+001  -6.660767e+001 
3662500000  -4.479910e+001  -6.501056e+001 
3665625000  -4.462232e+001  -6.858227e+001 
3668750000  -4.346011e+001  -6.736382e+001 
3671875000  -4.249767e+001  -7.143914e+001 
3675000000  -4.291211e+001  -8.246407e+001 
3678125000  -4.295704e+001  -8.299089e+001 
3681250000  -4.282166e+001  -8.470715e+001 
3684375000  -4.263367e+001  -9.111021e+001 
3687500000  -4.276922e+001  -9.506465e+001 
3690625000  -4.287598e+001  -9.935143e+001 
3693750000  -4.369220e+001  -9.998808e+001 
3696875000  -4.341185e+001  -1.000598e+002 
3700000000  -4.272407e+001  -1.046970e+002 
3703125000  -4.256270e+001  -1.113669e+002 
3706250000  -4.374395e+001  -1.107883e+002 
3709375000  -4.306684e+001  -1.084825e+002 
3712500000  -4.209664e+001  -1.133731e+002 
3715625000  -4.136844e+001  -1.208864e+002 
3718750000  -4.089906e+001  -1.235786e+002 
3721875000  -4.106995e+001  -1.304450e+002 
3725000000  -4.148852e+001  -1.361575e+002 
3728125000  -4.190289e+001  -1.388517e+002 
3731250000  -4.171151e+001  -1.403459e+002 
3734375000  -4.127442e+001  -1.474760e+002 
3737500000  -4.213336e+001  -1.547919e+002 
3740625000  -4.328844e+001  -1.591294e+002 
3743750000  -4.304792e+001  -1.616772e+002 
3746875000  -4.350587e+001  -1.625798e+002 
3750000000  -4.430499e+001  -1.656791e+002 
3753125000  -4.451971e+001  -1.633783e+002 
3756250000  -4.432761e+001  -1.592793e+002 
3759375000  -4.468113e+001  -1.617796e+002 
3762500000  -4.464328e+001  -1.643730e+002 
3765625000  -4.466423e+001  -1.650747e+002 
3768750000  -4.472165e+001  -1.600313e+002 
3771875000  -4.340274e+001  -1.609761e+002 
3775000000  -4.309655e+001  -1.696595e+002 
3778125000  -4.338482e+001  -1.706681e+002 
3781250000  -4.325593e+001  -1.717325e+002 
3784375000  -4.267088e+001  -1.732119e+002 
3787500000  -4.172366e+001  -1.750763e+002 
3790625000  -4.253939e+001  1.780665e+002 
3793750000  -4.227113e+001  1.767939e+002 
3796875000  -4.120054e+001  1.737683e+002 
3800000000  -3.951679e+001  1.722471e+002 
3803125000  -4.002099e+001  1.615981e+002 
3806250000  -4.105905e+001  1.589637e+002 
3809375000  -4.058111e+001  1.583866e+002 
3812500000  -3.953099e+001  1.528253e+002 
3815625000  -4.019209e+001  1.406285e+002 
3818750000  -4.114074e+001  1.410149e+002 
3821875000  -4.124535e+001  1.506801e+002 
3825000000  -3.937695e+001  1.499169e+002 
3828125000  -3.795736e+001  1.347936e+002 
3831250000  -3.843180e+001  1.193640e+002 
3834375000  -4.006391e+001  1.185635e+002 
3837500000  -4.093892e+001  1.243938e+002 
3840625000  -4.027776e+001  1.197944e+002 
3843750000  -3.905959e+001  1.103293e+002 
3846875000  -3.970321e+001  1.006487e+002 
3850000000  -4.109654e+001  1.060202e+002 
3853125000  -4.029671e+001  1.094851e+002 
3856250000  -4.030130e+001  1.023502e+002 
3859375000  -3.960069e+001  9.690697e+001 
3862500000  -3.941906e+001  8.740207e+001 
3865625000  -4.000310e+001  8.211964e+001 
3868750000  -3.984328e+001  8.216631e+001 
3871875000  -3.935847e+001  7.931104e+001 
3875000000  -3.953627e+001  6.976677e+001 
3878125000  -4.075814e+001  6.738313e+001 
3881250000  -4.081398e+001  7.022801e+001 
3884375000  -4.015531e+001  6.638087e+001 
3887500000  -4.052601e+001  6.122319e+001 
3890625000  -4.094353e+001  5.740653e+001 
3893750000  -4.124337e+001  5.727376e+001 
3896875000  -4.171191e+001  5.881361e+001 
3900000000  -4.195113e+001  5.504325e+001 
3903125000  -4.118073e+001  5.300589e+001 
3906250000  -4.096951e+001  5.342945e+001 
3909375000  -4.034502e+001  4.918136e+001 
3912500000  -4.004601e+001  4.116687e+001 
3915625000  -4.112032e+001  4.303485e+001 
3918750000  -4.115206e+001  4.280310e+001 
3921875000  -4.105857e+001  4.133647e+001 
3925000000  -3.965935e+001  3.893049e+001 
3928125000  -3.903479e+001  3.119160e+001 
3931250000  -3.954252e+001  2.488106e+001 
3934375000  -3.991774e+001  2.533249e+001 
3937500000  -4.012931e+001  2.401950e+001 
3940625000  -4.067251e+001  2.161975e+001 
3943750000  -3.941009e+001  2.200933e+001 
3946875000  -3.829632e+001  1.625640e+001 
3950000000  -3.896573e+001  8.105639e+000 
3953125000  -3.988577e+001  5.225725e+000 
3956250000  -3.891900e+001  7.879230e+000 
3959375000  -3.776832e+001  3.161443e+000 
3962500000  -3.704657e+001  -1.470088e+000 
3965625000  -3.725855e+001  -1.414597e+001 
3968750000  -3.798723e+001  -1.967097e+001 
3971875000  -3.843848e+001  -2.210092e+001 
3975000000  -3.778204e+001  -2.426320e+001 
3978125000  -3.783335e+001  -2.766229e+001 
3981250000  -3.772533e+001  -3.310522e+001 
3984375000  -3.813168e+001  -4.064598e+001 
3987500000  -3.837860e+001  -4.197544e+001 
3990625000  -3.864149e+001  -4.487557e+001 
3993750000  -3.913643e+001  -4.914438e+001 
3996875000  -3.877975e+001  -5.228747e+001 
4000000000  -3.956917e+001  -5.403839e+001 
4003125000  -3.952982e+001  -5.224597e+001 
4006250000  -3.843133e+001  -5.096460e+001 
4009375000  -3.730561e+001  -6.437151e+001 
4012500000  -3.866001e+001  -7.384736e+001 
4015625000  -4.005062e+001  -7.067569e+001 
4018750000  -4.027375e+001  -7.057307e+001 
4021875000  -3.952205e+001  -7.233001e+001 
4025000000  -3.939977e+001  -7.695655e+001 
4028125000  -3.915887e+001  -8.072027e+001 
4031250000  -3.963190e+001  -8.450900e+001 
4034375000  -3.978174e+001  -8.600744e+001 
4037500000  -3.933544e+001  -8.422722e+001 
4040625000  -3.922210e+001  -8.757010e+001 
4043750000  -3.965181e+001  -8.781911e+001 
4046875000  -3.929560e+001  -8.712193e+001 
4050000000  -3.836782e+001  -9.557841e+001 
4053125000  -3.908481e+001  -9.718873e+001 
4056250000  -3.967753e+001  -9.410268e+001 
4059375000  -3.822001e+001  -9.385818e+001 
4062500000  -3.680109e+001  -9.906828e+001 
4065625000  -3.661608e+001  -1.042127e+002 
4068750000  -3.601094e+001  -1.105319e+002 
4071875000  -3.549956e+001  -1.182092e+002 
4075000000  -3.609745e+001  -1.251983e+002 
4078125000  -3.644794e+001  -1.278968e+002 
4081250000  -3.600899e+001  -1.323873e+002 
4084375000  -3.567449e+001  -1.391492e+002 
4087500000  -3.593416e+001  -1.461035e+002 
4090625000  -3.666447e+001  -1.477019e+002 
4093750000  -3.633055e+001  -1.485373e+002 
4096875000  -3.582076e+001  -1.573797e+002 
4100000000  -3.689946e+001  -1.625751e+002 
4103125000  -3.765879e+001  -1.638178e+002 
4106250000  -3.756289e+001  -1.595757e+002 
4109375000  -3.649560e+001  -1.620367e+002 
4112500000  -3.598561e+001  -1.692705e+002 
4115625000  -3.649573e+001  -1.745695e+002 
4118750000  -3.664542e+001  1.798055e+002 
4121875000  -3.614616e+001  1.758554e+002 
4125000000  -3.685908e+001  1.686210e+002 
4128125000  -3.772418e+001  1.697212e+002 
4131250000  -3.770694e+001  1.773634e+002 
4134375000  -3.521458e+001  1.712818e+002 
4137500000  -3.517890e+001  1.506084e+002 
4140625000  -3.755646e+001  1.424624e+002 
4143750000  -3.886215e+001  1.464072e+002 
4146875000  -3.845173e+001  1.536160e+002 
4150000000  -3.782069e+001  1.502824e+002 
4153125000  -3.744327e+001  1.437933e+002 
4156250000  -3.861681e+001  1.405374e+002 
4159375000  -3.870521e+001  1.448822e+002 
4162500000  -3.774367e+001  1.492442e+002 
4165625000  -3.667129e+001  1.449478e+002 
4168750000  -3.591876e+001  1.366599e+002 
4171875000  -3.617413e+001  1.277289e+002 
4175000000  -3.661549e+001  1.223230e+002 
4178125000  -3.726110e+001  1.218344e+002 
4181250000  -3.710868e+001  1.211344e+002 
4184375000  -3.693317e+001  1.175142e+002 
4187500000  -3.684890e+001  1.142717e+002 
4190625000  -3.658720e+001  1.082968e+002 
4193750000  -3.733570e+001  1.047787e+002 
4196875000  -3.811708e+001  1.031887e+002 
4200000000  -3.891572e+001  1.048352e+002 
4203125000  -3.870067e+001  1.173138e+002 
4206250000  -3.529606e+001  1.178529e+002 
4209375000  -3.412492e+001  9.536017e+001 
4212500000  -3.630431e+001  8.597447e+001 
4215625000  -3.695219e+001  9.188159e+001 
4218750000  -3.557337e+001  9.709637e+001 
4221875000  -3.322442e+001  8.843686e+001 
4225000000  -3.440831e+001  7.542216e+001 
4228125000  -3.494500e+001  7.803217e+001 
4231250000  -3.348682e+001  7.355854e+001 
4234375000  -3.317337e+001  6.385241e+001 
4237500000  -3.294981e+001  6.031847e+001 
4240625000  -3.296972e+001  4.875863e+001 
4243750000  -3.390067e+001  4.106758e+001 
4246875000  -3.495457e+001  4.108418e+001 
4250000000  -3.486395e+001  4.227289e+001 
4253125000  -3.433392e+001  3.858310e+001 
4256250000  -3.456902e+001  3.409612e+001 
4259375000  -3.427556e+001  3.028906e+001 
4262500000  -3.448610e+001  2.589202e+001 
4265625000  -3.477333e+001  2.472497e+001 
4268750000  -3.383542e+001  1.945317e+001 
4271875000  -3.384169e+001  1.266145e+001 
4275000000  -3.334806e+001  4.291368e+000 
4278125000  -3.406254e+001  -7.682944e+000 
4281250000  -3.600292e+001  -1.030483e+001 
4284375000  -3.569564e+001  -9.652944e+000 
4287500000  -3.685157e+001  -1.326765e+001 
4290625000  -3.810641e+001  -5.420620e+000 
4293750000  -3.642486e+001  7.908559e-001 
4296875000  -3.491691e+001  -1.047948e+001 
4300000000  -3.598740e+001  -1.855695e+001 
4303125000  -3.711619e+001  -1.911879e+001 
4306250000  -3.637272e+001  -1.281708e+001 
4309375000  -3.524562e+001  -1.433135e+001 
4312500000  -3.500461e+001  -2.255636e+001 
4315625000  -3.524765e+001  -2.802817e+001 
4318750000  -3.548502e+001  -3.114972e+001 
4321875000  -3.568869e+001  -3.098045e+001 
4325000000  -3.510661e+001  -3.098485e+001 
4328125000  -3.446463e+001  -3.707684e+001 
4331250000  -3.406799e+001  -4.593118e+001 
4334375000  -3.455828e+001  -5.106553e+001 
4337500000  -3.529798e+001  -5.363207e+001 
4340625000  -3.590192e+001  -5.007735e+001 
4343750000  -3.490086e+001  -5.109882e+001 
4346875000  -3.449504e+001  -5.746209e+001 
4350000000  -3.431173e+001  -6.326048e+001 
4353125000  -3.446705e+001  -7.146303e+001 
4356250000  -3.596046e+001  -7.333334e+001 
4359375000  -3.652514e+001  -5.999774e+001 
4362500000  -3.342217e+001  -6.003833e+001 
4365625000  -3.190792e+001  -7.412766e+001 
4368750000  -3.274195e+001  -8.739390e+001 
4371875000  -3.371602e+001  -8.694926e+001 
4375000000  -3.318270e+001  -8.950554e+001 
4378125000  -3.252947e+001  -9.516444e+001 
4381250000  -3.278257e+001  -1.024879e+002 
4384375000  -3.258993e+001  -1.085526e+002 
4387500000  -3.333281e+001  -1.158482e+002 
4390625000  -3.422426e+001  -1.166740e+002 
4393750000  -3.359650e+001  -1.154263e+002 
4396875000  -3.309626e+001  -1.183867e+002 
4400000000  -3.277039e+001  -1.274553e+002 
4403125000  -3.326361e+001  -1.366789e+002 
4406250000  -3.424478e+001  -1.385930e+002 
4409375000  -3.424137e+001  -1.420356e+002 
4412500000  -3.561222e+001  -1.461112e+002 
4415625000  -3.556670e+001  -1.422188e+002 
