!Agilent Technologies,E8363B,MY43030201,A.06.04.32
!Agilent E8363B: A.06.04.32
!Date: Tuesday, November 11, 2014 21:12:13
!Correction: S21(Response(S21)) 
!S1P File: Measurement: S21:
# Hz S  dB   R 50
3000000000  -3.654084e+001  -5.795590e+001 
3003125000  -3.764447e+001  -6.420068e+001 
3006250000  -3.747681e+001  -6.649421e+001 
3009375000  -3.782264e+001  -6.164399e+001 
3012500000  -3.692794e+001  -6.412907e+001 
3015625000  -3.622481e+001  -7.144513e+001 
3018750000  -3.686460e+001  -7.265391e+001 
3021875000  -3.548269e+001  -7.144396e+001 
3025000000  -3.413493e+001  -7.552087e+001 
3028125000  -3.326850e+001  -8.220924e+001 
3031250000  -3.222774e+001  -9.352401e+001 
3034375000  -3.177644e+001  -1.063699e+002 
3037500000  -3.236034e+001  -1.186198e+002 
3040625000  -3.373330e+001  -1.233719e+002 
3043750000  -3.434725e+001  -1.285439e+002 
3046875000  -3.454870e+001  -1.345006e+002 
3050000000  -3.615707e+001  -1.406900e+002 
3053125000  -3.595828e+001  -1.348253e+002 
3056250000  -3.556231e+001  -1.314342e+002 
3059375000  -3.556599e+001  -1.324460e+002 
3062500000  -3.415163e+001  -1.356258e+002 
3065625000  -3.392745e+001  -1.423663e+002 
3068750000  -3.357593e+001  -1.492346e+002 
3071875000  -3.350643e+001  -1.511192e+002 
3075000000  -3.335537e+001  -1.556504e+002 
3078125000  -3.308910e+001  -1.593633e+002 
3081250000  -3.353070e+001  -1.641555e+002 
3084375000  -3.260115e+001  -1.677298e+002 
3087500000  -3.247853e+001  -1.717295e+002 
3090625000  -3.192043e+001  1.779947e+002 
3093750000  -3.247732e+001  1.710078e+002 
3096875000  -3.346793e+001  1.661488e+002 
3100000000  -3.337943e+001  1.631886e+002 
3103125000  -3.365389e+001  1.637790e+002 
3106250000  -3.321140e+001  1.596012e+002 
3109375000  -3.328150e+001  1.556768e+002 
3112500000  -3.321321e+001  1.527961e+002 
3115625000  -3.281163e+001  1.483165e+002 
3118750000  -3.320400e+001  1.481380e+002 
3121875000  -3.230393e+001  1.387425e+002 
3125000000  -3.370163e+001  1.348462e+002 
3128125000  -3.450802e+001  1.428259e+002 
3131250000  -3.208073e+001  1.405618e+002 
3134375000  -3.079597e+001  1.248779e+002 
3137500000  -3.135161e+001  1.110122e+002 
3140625000  -3.283064e+001  1.088761e+002 
3143750000  -3.378722e+001  1.099446e+002 
3146875000  -3.338732e+001  1.106247e+002 
3150000000  -3.232390e+001  1.106973e+002 
3153125000  -3.240132e+001  1.015075e+002 
3156250000  -3.335198e+001  1.062298e+002 
3159375000  -3.148494e+001  1.074007e+002 
3162500000  -2.968533e+001  9.294074e+001 
3165625000  -3.072458e+001  8.093398e+001 
3168750000  -3.100552e+001  8.105039e+001 
3171875000  -3.014972e+001  7.535211e+001 
3175000000  -3.091169e+001  6.618980e+001 
3178125000  -3.061515e+001  6.687577e+001 
3181250000  -2.959232e+001  6.117370e+001 
3184375000  -2.898529e+001  4.854641e+001 
3187500000  -3.016203e+001  3.382954e+001 
3190625000  -3.281419e+001  2.623175e+001 
3193750000  -3.328287e+001  3.446516e+001 
3196875000  -3.295019e+001  3.915739e+001 
3200000000  -3.199630e+001  3.609663e+001 
3203125000  -3.122119e+001  2.937963e+001 
3206250000  -3.159813e+001  2.244948e+001 
3209375000  -3.113323e+001  1.692111e+001 
3212500000  -3.133043e+001  9.949685e+000 
3215625000  -3.144680e+001  6.758508e+000 
3218750000  -3.222004e+001  -2.000753e+000 
3221875000  -3.301976e+001  -6.709918e+000 
3225000000  -3.254860e+001  -7.533531e+000 
3228125000  -3.299797e+001  -1.285497e+001 
3231250000  -3.367569e+001  -1.521807e+001 
3234375000  -3.329343e+001  -1.505323e+001 
3237500000  -3.332192e+001  -1.698121e+001 
3240625000  -3.291727e+001  -2.016200e+001 
3243750000  -3.255904e+001  -2.779143e+001 
3246875000  -3.300701e+001  -3.398240e+001 
3250000000  -3.340778e+001  -3.696815e+001 
3253125000  -3.341614e+001  -3.862103e+001 
3256250000  -3.298876e+001  -4.564593e+001 
3259375000  -3.335713e+001  -5.446892e+001 
3262500000  -3.466528e+001  -5.837117e+001 
3265625000  -3.528070e+001  -5.576262e+001 
3268750000  -3.513219e+001  -5.324031e+001 
3271875000  -3.463348e+001  -5.323445e+001 
3275000000  -3.369954e+001  -6.093411e+001 
3278125000  -3.420911e+001  -6.758569e+001 
3281250000  -3.425996e+001  -6.625768e+001 
3284375000  -3.374360e+001  -7.293628e+001 
3287500000  -3.400834e+001  -7.619527e+001 
3290625000  -3.431640e+001  -8.284399e+001 
3293750000  -3.406272e+001  -8.863162e+001 
3296875000  -3.512415e+001  -8.946539e+001 
3300000000  -3.476723e+001  -8.861842e+001 
3303125000  -3.361642e+001  -9.429025e+001 
3306250000  -3.348387e+001  -1.011093e+002 
3309375000  -3.317393e+001  -1.075265e+002 
3312500000  -3.327182e+001  -1.190043e+002 
3315625000  -3.433294e+001  -1.262601e+002 
3318750000  -3.579151e+001  -1.291960e+002 
3321875000  -3.684045e+001  -1.297423e+002 
3325000000  -3.734956e+001  -1.225772e+002 
3328125000  -3.676850e+001  -1.229850e+002 
3331250000  -3.533888e+001  -1.166494e+002 
3334375000  -3.290141e+001  -1.281661e+002 
3337500000  -3.310768e+001  -1.478077e+002 
3340625000  -3.445649e+001  -1.581622e+002 
3343750000  -3.647409e+001  -1.588355e+002 
3346875000  -3.659017e+001  -1.570754e+002 
3350000000  -3.589030e+001  -1.600201e+002 
3353125000  -3.587844e+001  -1.644032e+002 
3356250000  -3.554125e+001  -1.722936e+002 
3359375000  -3.636629e+001  1.790258e+002 
3362500000  -3.744193e+001  1.737029e+002 
3365625000  -3.794321e+001  1.718193e+002 
3368750000  -3.882372e+001  1.693327e+002 
3371875000  -3.891875e+001  1.671431e+002 
3375000000  -4.036431e+001  1.649751e+002 
3378125000  -4.136170e+001  1.643355e+002 
3381250000  -4.235908e+001  1.735871e+002 
3384375000  -4.085812e+001  -1.658632e+002 
3387500000  -3.720880e+001  1.768272e+002 
3390625000  -3.919495e+001  1.568778e+002 
3393750000  -4.020886e+001  1.614135e+002 
3396875000  -3.903747e+001  1.630045e+002 
3400000000  -3.868073e+001  1.545573e+002 
3403125000  -3.899578e+001  1.491207e+002 
3406250000  -3.965252e+001  1.500488e+002 
3409375000  -3.977507e+001  1.411928e+002 
3412500000  -4.024779e+001  1.394173e+002 
3415625000  -4.094082e+001  1.411723e+002 
3418750000  -4.092056e+001  1.417114e+002 
3421875000  -4.103508e+001  1.429697e+002 
3425000000  -4.003926e+001  1.444961e+002 
3428125000  -3.933468e+001  1.396974e+002 
3431250000  -3.923001e+001  1.324490e+002 
3434375000  -3.905763e+001  1.273221e+002 
3437500000  -3.981480e+001  1.233545e+002 
3440625000  -4.000657e+001  1.250199e+002 
3443750000  -3.852696e+001  1.262813e+002 
3446875000  -3.793404e+001  1.185399e+002 
3450000000  -3.757189e+001  1.077238e+002 
3453125000  -3.803302e+001  9.767609e+001 
3456250000  -3.927006e+001  9.125468e+001 
3459375000  -3.997592e+001  9.178075e+001 
3462500000  -3.996230e+001  9.225195e+001 
3465625000  -3.999900e+001  8.743706e+001 
3468750000  -4.013620e+001  8.325169e+001 
3471875000  -4.005045e+001  8.151270e+001 
3475000000  -3.947609e+001  7.576794e+001 
3478125000  -4.024632e+001  6.945956e+001 
3481250000  -4.134784e+001  6.619329e+001 
3484375000  -4.227252e+001  7.076056e+001 
3487500000  -4.140085e+001  6.820705e+001 
3490625000  -4.067051e+001  6.435468e+001 
3493750000  -4.128641e+001  5.782394e+001 
3496875000  -4.222858e+001  5.863388e+001 
3500000000  -4.258294e+001  6.042936e+001 
3503125000  -4.206733e+001  6.373422e+001 
3506250000  -4.057158e+001  5.715780e+001 
3509375000  -4.043362e+001  4.598151e+001 
3512500000  -4.125566e+001  3.812336e+001 
3515625000  -4.206661e+001  3.609698e+001 
3518750000  -4.281842e+001  3.696697e+001 
3521875000  -4.222263e+001  3.396093e+001 
3525000000  -4.332315e+001  3.169176e+001 
3528125000  -4.331009e+001  3.947449e+001 
3531250000  -4.178637e+001  3.666551e+001 
3534375000  -4.173447e+001  2.597850e+001 
3537500000  -4.269142e+001  2.044547e+001 
3540625000  -4.325278e+001  2.085266e+001 
3543750000  -4.390834e+001  2.393006e+001 
3546875000  -4.404952e+001  3.548798e+001 
3550000000  -4.144420e+001  3.630509e+001 
3553125000  -4.008087e+001  1.881599e+001 
3556250000  -4.167088e+001  1.226295e+001 
3559375000  -4.139814e+001  1.462242e+001 
3562500000  -4.022375e+001  4.578710e+000 
3565625000  -4.096804e+001  -1.959707e+000 
3568750000  -4.113480e+001  1.056649e+000 
3571875000  -4.106760e+001  -2.043902e+000 
3575000000  -4.068665e+001  -8.841601e+000 
3578125000  -4.099378e+001  -1.383306e+001 
3581250000  -4.147586e+001  -1.366226e+001 
3584375000  -4.040272e+001  -1.714795e+001 
3587500000  -3.980947e+001  -2.656098e+001 
3590625000  -4.061432e+001  -3.581038e+001 
3593750000  -4.190959e+001  -3.890937e+001 
3596875000  -4.169730e+001  -3.297383e+001 
3600000000  -4.012652e+001  -3.912423e+001 
3603125000  -4.079919e+001  -5.356937e+001 
3606250000  -4.137614e+001  -5.632515e+001 
3609375000  -4.231147e+001  -5.807323e+001 
3612500000  -4.263765e+001  -6.357653e+001 
3615625000  -4.295781e+001  -6.790482e+001 
3618750000  -4.390148e+001  -6.777351e+001 
3621875000  -4.350994e+001  -7.012306e+001 
3625000000  -4.418671e+001  -6.933195e+001 
3628125000  -4.410171e+001  -7.283150e+001 
3631250000  -4.411651e+001  -7.505592e+001 
3634375000  -4.565016e+001  -7.646404e+001 
3637500000  -4.567583e+001  -6.976122e+001 
3640625000  -4.484083e+001  -7.096149e+001 
3643750000  -4.425430e+001  -7.598082e+001 
3646875000  -4.476735e+001  -8.279216e+001 
3650000000  -4.545589e+001  -8.057890e+001 
3653125000  -4.550189e+001  -8.165462e+001 
3656250000  -4.525750e+001  -8.114394e+001 
3659375000  -4.572847e+001  -7.894321e+001 
3662500000  -4.464184e+001  -8.102892e+001 
3665625000  -4.467957e+001  -8.131544e+001 
3668750000  -4.352281e+001  -8.066157e+001 
3671875000  -4.252128e+001  -8.916515e+001 
3675000000  -4.295015e+001  -9.588609e+001 
3678125000  -4.287891e+001  -9.615356e+001 
3681250000  -4.275351e+001  -9.760630e+001 
3684375000  -4.261990e+001  -1.032522e+002 
3687500000  -4.306456e+001  -1.070065e+002 
3690625000  -4.295978e+001  -1.103912e+002 
3693750000  -4.391906e+001  -1.128915e+002 
3696875000  -4.351210e+001  -1.110544e+002 
3700000000  -4.250637e+001  -1.179530e+002 
3703125000  -4.269818e+001  -1.216889e+002 
3706250000  -4.389490e+001  -1.240826e+002 
3709375000  -4.332072e+001  -1.219009e+002 
3712500000  -4.218563e+001  -1.246929e+002 
3715625000  -4.126258e+001  -1.312852e+002 
3718750000  -4.121933e+001  -1.379461e+002 
3721875000  -4.110217e+001  -1.440045e+002 
3725000000  -4.157236e+001  -1.501552e+002 
3728125000  -4.219635e+001  -1.497882e+002 
3731250000  -4.169905e+001  -1.541870e+002 
3734375000  -4.125151e+001  -1.596577e+002 
3737500000  -4.184512e+001  -1.686776e+002 
3740625000  -4.327525e+001  -1.715656e+002 
3743750000  -4.317985e+001  -1.716720e+002 
3746875000  -4.379441e+001  -1.744975e+002 
3750000000  -4.396349e+001  -1.783783e+002 
3753125000  -4.398748e+001  -1.768006e+002 
3756250000  -4.456161e+001  -1.757942e+002 
3759375000  -4.452214e+001  -1.764661e+002 
3762500000  -4.440138e+001  -1.761814e+002 
3765625000  -4.529437e+001  -1.792669e+002 
3768750000  -4.472712e+001  -1.757432e+002 
3771875000  -4.319978e+001  -1.760035e+002 
3775000000  -4.328736e+001  1.783735e+002 
3778125000  -4.347698e+001  1.752364e+002 
3781250000  -4.272635e+001  1.757358e+002 
3784375000  -4.313842e+001  1.730769e+002 
3787500000  -4.178364e+001  1.716653e+002 
3790625000  -4.226033e+001  1.659326e+002 
3793750000  -4.266849e+001  1.653035e+002 
3796875000  -4.134082e+001  1.621773e+002 
3800000000  -3.941698e+001  1.603570e+002 
3803125000  -4.051896e+001  1.485740e+002 
3806250000  -4.086864e+001  1.463815e+002 
3809375000  -4.056319e+001  1.452999e+002 
3812500000  -3.970365e+001  1.389392e+002 
3815625000  -4.046487e+001  1.284315e+002 
3818750000  -4.122569e+001  1.281107e+002 
3821875000  -4.131522e+001  1.343383e+002 
3825000000  -3.937506e+001  1.391041e+002 
3828125000  -3.793427e+001  1.215232e+002 
3831250000  -3.860958e+001  1.060673e+002 
3834375000  -4.028336e+001  1.072904e+002 
3837500000  -4.125124e+001  1.085317e+002 
3840625000  -3.993671e+001  1.070903e+002 
3843750000  -3.897175e+001  9.439175e+001 
3846875000  -3.994726e+001  8.893820e+001 
3850000000  -4.122494e+001  9.361092e+001 
3853125000  -4.022999e+001  9.647604e+001 
3856250000  -4.035555e+001  8.908733e+001 
3859375000  -3.975803e+001  8.016739e+001 
3862500000  -3.946239e+001  7.585262e+001 
3865625000  -3.988405e+001  7.153923e+001 
3868750000  -3.959755e+001  6.992470e+001 
3871875000  -3.912031e+001  6.677655e+001 
3875000000  -3.961949e+001  5.604646e+001 
3878125000  -4.060539e+001  5.552762e+001 
3881250000  -4.063708e+001  5.781839e+001 
3884375000  -4.001700e+001  5.252725e+001 
3887500000  -4.041098e+001  4.848387e+001 
3890625000  -4.123953e+001  4.510285e+001 
3893750000  -4.129966e+001  4.236184e+001 
3896875000  -4.155855e+001  4.435495e+001 
3900000000  -4.184385e+001  4.462549e+001 
3903125000  -4.146208e+001  4.130186e+001 
3906250000  -4.072284e+001  3.855117e+001 
3909375000  -4.006521e+001  3.521635e+001 
3912500000  -4.061684e+001  2.761559e+001 
3915625000  -4.146118e+001  2.947620e+001 
3918750000  -4.105424e+001  3.011927e+001 
3921875000  -4.073509e+001  2.706925e+001 
3925000000  -3.953977e+001  2.397843e+001 
3928125000  -3.918419e+001  1.724321e+001 
3931250000  -3.978443e+001  1.198566e+001 
3934375000  -4.007017e+001  1.217412e+001 
3937500000  -4.016460e+001  9.665728e+000 
3940625000  -4.055553e+001  1.065285e+001 
3943750000  -3.920435e+001  8.600065e+000 
3946875000  -3.830470e+001  2.028528e+000 
3950000000  -3.891628e+001  -6.131915e+000 
3953125000  -4.006503e+001  -7.940652e+000 
3956250000  -3.861863e+001  -5.301195e+000 
3959375000  -3.772544e+001  -9.467345e+000 
3962500000  -3.743614e+001  -1.540766e+001 
3965625000  -3.741581e+001  -2.533127e+001 
3968750000  -3.798822e+001  -3.225207e+001 
3971875000  -3.828833e+001  -3.478778e+001 
3975000000  -3.766011e+001  -3.776243e+001 
3978125000  -3.778915e+001  -4.140907e+001 
3981250000  -3.772625e+001  -4.809459e+001 
3984375000  -3.777814e+001  -5.418723e+001 
3987500000  -3.866890e+001  -5.520790e+001 
3990625000  -3.852629e+001  -5.686838e+001 
3993750000  -3.922847e+001  -6.207454e+001 
3996875000  -3.890091e+001  -6.555145e+001 
4000000000  -3.959311e+001  -6.507690e+001 
4003125000  -3.989499e+001  -6.568270e+001 
4006250000  -3.836061e+001  -6.691861e+001 
4009375000  -3.719185e+001  -7.918926e+001 
4012500000  -3.861258e+001  -8.591856e+001 
4015625000  -4.011963e+001  -8.598105e+001 
4018750000  -4.013352e+001  -8.359124e+001 
4021875000  -3.932931e+001  -8.580653e+001 
4025000000  -3.922720e+001  -9.168590e+001 
4028125000  -3.919733e+001  -9.615955e+001 
4031250000  -3.935366e+001  -9.908533e+001 
4034375000  -3.980797e+001  -9.854739e+001 
4037500000  -3.945541e+001  -9.759995e+001 
4040625000  -3.918018e+001  -1.018338e+002 
4043750000  -3.945045e+001  -1.027730e+002 
4046875000  -3.902729e+001  -1.043155e+002 
4050000000  -3.858092e+001  -1.089820e+002 
4053125000  -3.903901e+001  -1.117733e+002 
4056250000  -3.961501e+001  -1.091287e+002 
4059375000  -3.801186e+001  -1.077538e+002 
4062500000  -3.679532e+001  -1.140277e+002 
4065625000  -3.670489e+001  -1.193977e+002 
4068750000  -3.641585e+001  -1.262787e+002 
4071875000  -3.559679e+001  -1.341141e+002 
4075000000  -3.594492e+001  -1.394466e+002 
4078125000  -3.653159e+001  -1.429069e+002 
4081250000  -3.602083e+001  -1.466308e+002 
4084375000  -3.554430e+001  -1.542883e+002 
4087500000  -3.600985e+001  -1.615062e+002 
4090625000  -3.676373e+001  -1.627781e+002 
4093750000  -3.654592e+001  -1.640413e+002 
4096875000  -3.604133e+001  -1.705007e+002 
4100000000  -3.706123e+001  -1.784914e+002 
4103125000  -3.771947e+001  -1.777272e+002 
4106250000  -3.752847e+001  -1.732297e+002 
4109375000  -3.665961e+001  -1.759922e+002 
4112500000  -3.622444e+001  1.758438e+002 
4115625000  -3.655265e+001  1.707260e+002 
4118750000  -3.668006e+001  1.678827e+002 
4121875000  -3.621264e+001  1.615087e+002 
4125000000  -3.687527e+001  1.556138e+002 
4128125000  -3.795573e+001  1.562807e+002 
4131250000  -3.765056e+001  1.620685e+002 
4134375000  -3.531720e+001  1.555013e+002 
4137500000  -3.532944e+001  1.364466e+002 
4140625000  -3.755287e+001  1.289102e+002 
4143750000  -3.886963e+001  1.339260e+002 
4146875000  -3.844306e+001  1.405904e+002 
4150000000  -3.772943e+001  1.358241e+002 
4153125000  -3.763982e+001  1.288206e+002 
4156250000  -3.850440e+001  1.249155e+002 
4159375000  -3.878737e+001  1.308580e+002 
4162500000  -3.772128e+001  1.352241e+002 
4165625000  -3.648376e+001  1.292291e+002 
4168750000  -3.601077e+001  1.215984e+002 
4171875000  -3.615097e+001  1.115626e+002 
4175000000  -3.684285e+001  1.078112e+002 
4178125000  -3.734499e+001  1.064560e+002 
4181250000  -3.709240e+001  1.063520e+002 
4184375000  -3.691680e+001  1.013190e+002 
4187500000  -3.674443e+001  9.785136e+001 
4190625000  -3.681383e+001  9.295727e+001 
4193750000  -3.748567e+001  8.781627e+001 
4196875000  -3.819630e+001  8.947232e+001 
4200000000  -3.925427e+001  9.106763e+001 
4203125000  -3.889500e+001  1.058518e+002 
4206250000  -3.513966e+001  1.032974e+002 
4209375000  -3.435653e+001  8.109512e+001 
4212500000  -3.618014e+001  7.319028e+001 
4215625000  -3.695612e+001  7.793258e+001 
4218750000  -3.551511e+001  8.384541e+001 
4221875000  -3.347272e+001  7.227879e+001 
4225000000  -3.456733e+001  6.069328e+001 
4228125000  -3.515724e+001  6.426086e+001 
4231250000  -3.335345e+001  5.855956e+001 
4234375000  -3.330051e+001  4.968421e+001 
4237500000  -3.288861e+001  4.462589e+001 
4240625000  -3.294211e+001  3.471103e+001 
4243750000  -3.405479e+001  2.646878e+001 
4246875000  -3.507815e+001  2.540377e+001 
4250000000  -3.495953e+001  2.761006e+001 
4253125000  -3.450731e+001  2.327936e+001 
4256250000  -3.472893e+001  1.888526e+001 
4259375000  -3.438005e+001  1.513602e+001 
4262500000  -3.477793e+001  1.122036e+001 
4265625000  -3.468698e+001  9.261984e+000 
4268750000  -3.396511e+001  3.965746e+000 
4271875000  -3.375707e+001  -2.929023e+000 
4275000000  -3.338239e+001  -1.142452e+001 
4278125000  -3.433418e+001  -2.269859e+001 
4281250000  -3.611807e+001  -2.428337e+001 
4284375000  -3.575689e+001  -2.445177e+001 
4287500000  -3.708205e+001  -2.846570e+001 
4290625000  -3.815462e+001  -1.895148e+001 
4293750000  -3.622542e+001  -1.467452e+001 
4296875000  -3.488179e+001  -2.575766e+001 
4300000000  -3.615125e+001  -3.540825e+001 
4303125000  -3.707579e+001  -3.252610e+001 
4306250000  -3.655771e+001  -2.771715e+001 
4309375000  -3.510204e+001  -2.921519e+001 
4312500000  -3.492693e+001  -3.787848e+001 
4315625000  -3.521288e+001  -4.419134e+001 
4318750000  -3.556419e+001  -4.695171e+001 
4321875000  -3.557486e+001  -4.608496e+001 
4325000000  -3.488127e+001  -4.608243e+001 
4328125000  -3.441211e+001  -5.282036e+001 
4331250000  -3.423780e+001  -6.072586e+001 
4334375000  -3.459544e+001  -6.717572e+001 
4337500000  -3.550509e+001  -6.894270e+001 
4340625000  -3.591674e+001  -6.512459e+001 
4343750000  -3.495551e+001  -6.687038e+001 
4346875000  -3.453957e+001  -7.303368e+001 
4350000000  -3.443365e+001  -7.823643e+001 
4353125000  -3.448837e+001  -8.726893e+001 
4356250000  -3.641666e+001  -8.855592e+001 
4359375000  -3.635970e+001  -7.349626e+001 
4362500000  -3.322702e+001  -7.482088e+001 
4365625000  -3.202532e+001  -8.975827e+001 
4368750000  -3.293483e+001  -1.027120e+002 
4371875000  -3.377659e+001  -1.019093e+002 
4375000000  -3.332659e+001  -1.032669e+002 
4378125000  -3.268707e+001  -1.096245e+002 
4381250000  -3.282643e+001  -1.172955e+002 
4384375000  -3.267826e+001  -1.236556e+002 
4387500000  -3.361425e+001  -1.316553e+002 
4390625000  -3.443833e+001  -1.307755e+002 
4393750000  -3.369912e+001  -1.304556e+002 
4396875000  -3.313556e+001  -1.341741e+002 
4400000000  -3.258061e+001  -1.433215e+002 
4403125000  -3.344224e+001  -1.514003e+002 
4406250000  -3.429089e+001  -1.551148e+002 
4409375000  -3.459810e+001  -1.584864e+002 
4412500000  -3.562064e+001  -1.612525e+002 
4415625000  -3.606155e+001  -1.560383e+002 
