!Agilent Technologies,E8363B,MY43030201,A.06.04.32
!Agilent E8363B: A.06.04.32
!Date: Tuesday, November 11, 2014 21:03:31
!Correction: S21(Response(S21)) 
!S1P File: Measurement: S21:
# Hz S  dB   R 50
3000000000  -3.643326e+001  -4.665614e+001 
3003125000  -3.747971e+001  -5.264360e+001 
3006250000  -3.740812e+001  -5.501315e+001 
3009375000  -3.760746e+001  -5.089013e+001 
3012500000  -3.697934e+001  -5.206816e+001 
3015625000  -3.589182e+001  -5.947193e+001 
3018750000  -3.678328e+001  -6.116661e+001 
3021875000  -3.550645e+001  -5.984440e+001 
3025000000  -3.407997e+001  -6.402122e+001 
3028125000  -3.312841e+001  -6.923190e+001 
3031250000  -3.203214e+001  -8.102247e+001 
3034375000  -3.170838e+001  -9.458320e+001 
3037500000  -3.213376e+001  -1.068503e+002 
3040625000  -3.350794e+001  -1.116339e+002 
3043750000  -3.412751e+001  -1.165409e+002 
3046875000  -3.426403e+001  -1.223994e+002 
3050000000  -3.593977e+001  -1.289156e+002 
3053125000  -3.607035e+001  -1.230245e+002 
3056250000  -3.543778e+001  -1.203413e+002 
3059375000  -3.567400e+001  -1.202277e+002 
3062500000  -3.405192e+001  -1.236498e+002 
3065625000  -3.392129e+001  -1.297426e+002 
3068750000  -3.352189e+001  -1.370157e+002 
3071875000  -3.345529e+001  -1.398095e+002 
3075000000  -3.321956e+001  -1.430692e+002 
3078125000  -3.297255e+001  -1.478992e+002 
3081250000  -3.344300e+001  -1.521467e+002 
3084375000  -3.268759e+001  -1.555898e+002 
3087500000  -3.238364e+001  -1.592438e+002 
3090625000  -3.192698e+001  -1.695078e+002 
3093750000  -3.237298e+001  -1.768019e+002 
3096875000  -3.345764e+001  1.772195e+002 
3100000000  -3.336068e+001  1.756253e+002 
3103125000  -3.357904e+001  1.759981e+002 
3106250000  -3.312494e+001  1.717100e+002 
3109375000  -3.328224e+001  1.673464e+002 
3112500000  -3.317068e+001  1.657885e+002 
3115625000  -3.286363e+001  1.606553e+002 
3118750000  -3.312246e+001  1.607881e+002 
3121875000  -3.231971e+001  1.513633e+002 
3125000000  -3.345721e+001  1.474990e+002 
3128125000  -3.449943e+001  1.540953e+002 
3131250000  -3.206065e+001  1.525147e+002 
3134375000  -3.073173e+001  1.371980e+002 
3137500000  -3.130379e+001  1.234010e+002 
3140625000  -3.278244e+001  1.196759e+002 
3143750000  -3.388595e+001  1.218462e+002 
3146875000  -3.329224e+001  1.227681e+002 
3150000000  -3.237086e+001  1.227311e+002 
3153125000  -3.227142e+001  1.140046e+002 
3156250000  -3.333889e+001  1.188715e+002 
3159375000  -3.169866e+001  1.200188e+002 
3162500000  -2.971443e+001  1.052183e+002 
3165625000  -3.074273e+001  9.299290e+001 
3168750000  -3.103442e+001  9.321004e+001 
3171875000  -3.018571e+001  8.768067e+001 
3175000000  -3.088284e+001  7.914259e+001 
3178125000  -3.067065e+001  8.007872e+001 
3181250000  -2.956442e+001  7.447703e+001 
3184375000  -2.884589e+001  6.167144e+001 
3187500000  -3.002838e+001  4.610584e+001 
3190625000  -3.273183e+001  3.831162e+001 
3193750000  -3.329922e+001  4.716349e+001 
3196875000  -3.301483e+001  5.125603e+001 
3200000000  -3.205088e+001  4.853805e+001 
3203125000  -3.128653e+001  4.267157e+001 
3206250000  -3.160400e+001  3.612550e+001 
3209375000  -3.111015e+001  2.996820e+001 
3212500000  -3.136327e+001  2.313087e+001 
3215625000  -3.140119e+001  1.868893e+001 
3218750000  -3.223340e+001  1.178870e+001 
3221875000  -3.299147e+001  6.719541e+000 
3225000000  -3.271328e+001  5.569352e+000 
3228125000  -3.293864e+001  4.108333e-001 
3231250000  -3.365280e+001  -2.333853e+000 
3234375000  -3.334995e+001  -1.876715e+000 
3237500000  -3.336125e+001  -4.032773e+000 
3240625000  -3.300594e+001  -6.620965e+000 
3243750000  -3.259433e+001  -1.451431e+001 
3246875000  -3.298931e+001  -2.186838e+001 
3250000000  -3.341923e+001  -2.344967e+001 
3253125000  -3.355249e+001  -2.623915e+001 
3256250000  -3.318888e+001  -3.275651e+001 
3259375000  -3.341051e+001  -4.126950e+001 
3262500000  -3.453756e+001  -4.499946e+001 
3265625000  -3.530305e+001  -4.262352e+001 
3268750000  -3.517874e+001  -3.995947e+001 
3271875000  -3.477442e+001  -4.097273e+001 
3275000000  -3.373792e+001  -4.700967e+001 
3278125000  -3.415416e+001  -5.406912e+001 
3281250000  -3.432055e+001  -5.233932e+001 
3284375000  -3.397693e+001  -6.013930e+001 
3287500000  -3.414220e+001  -6.393489e+001 
3290625000  -3.433387e+001  -6.890179e+001 
3293750000  -3.405685e+001  -7.530220e+001 
3296875000  -3.519917e+001  -7.564215e+001 
3300000000  -3.492165e+001  -7.518761e+001 
3303125000  -3.371308e+001  -8.019410e+001 
3306250000  -3.357071e+001  -8.740694e+001 
3309375000  -3.320094e+001  -9.412681e+001 
3312500000  -3.327938e+001  -1.046519e+002 
3315625000  -3.432011e+001  -1.121212e+002 
3318750000  -3.561518e+001  -1.159405e+002 
3321875000  -3.666693e+001  -1.161762e+002 
3325000000  -3.738686e+001  -1.094988e+002 
3328125000  -3.686258e+001  -1.106205e+002 
3331250000  -3.566669e+001  -1.034058e+002 
3334375000  -3.301604e+001  -1.140761e+002 
3337500000  -3.306003e+001  -1.335677e+002 
3340625000  -3.440395e+001  -1.446517e+002 
3343750000  -3.649774e+001  -1.455686e+002 
3346875000  -3.667614e+001  -1.438430e+002 
3350000000  -3.594711e+001  -1.455556e+002 
3353125000  -3.601685e+001  -1.502705e+002 
3356250000  -3.554161e+001  -1.581556e+002 
3359375000  -3.640487e+001  -1.664600e+002 
3362500000  -3.742810e+001  -1.724254e+002 
3365625000  -3.803138e+001  -1.736663e+002 
3368750000  -3.872423e+001  -1.763356e+002 
3371875000  -3.888659e+001  -1.790816e+002 
3375000000  -4.032560e+001  1.783306e+002 
3378125000  -4.113856e+001  1.792140e+002 
3381250000  -4.231159e+001  -1.745663e+002 
3384375000  -4.129278e+001  -1.526120e+002 
3387500000  -3.752541e+001  -1.681718e+002 
3390625000  -3.909704e+001  1.736314e+002 
3393750000  -4.048388e+001  1.762417e+002 
3396875000  -3.910753e+001  1.788543e+002 
3400000000  -3.874897e+001  1.698648e+002 
3403125000  -3.939097e+001  1.642934e+002 
3406250000  -3.967064e+001  1.640571e+002 
3409375000  -3.979727e+001  1.561133e+002 
3412500000  -4.029898e+001  1.555690e+002 
3415625000  -4.103038e+001  1.554150e+002 
3418750000  -4.101052e+001  1.554108e+002 
3421875000  -4.127579e+001  1.572080e+002 
3425000000  -4.032281e+001  1.586535e+002 
3428125000  -3.932307e+001  1.544025e+002 
3431250000  -3.933202e+001  1.478948e+002 
3434375000  -3.913424e+001  1.429837e+002 
3437500000  -3.968753e+001  1.385525e+002 
3440625000  -4.012116e+001  1.401505e+002 
3443750000  -3.863475e+001  1.395459e+002 
3446875000  -3.803466e+001  1.331893e+002 
3450000000  -3.756724e+001  1.220694e+002 
3453125000  -3.774111e+001  1.132974e+002 
3456250000  -3.899383e+001  1.066252e+002 
3459375000  -4.015902e+001  1.071813e+002 
3462500000  -4.000196e+001  1.066918e+002 
3465625000  -3.978147e+001  1.011944e+002 
3468750000  -3.989657e+001  9.728335e+001 
3471875000  -3.995010e+001  9.627566e+001 
3475000000  -3.953275e+001  9.097501e+001 
3478125000  -4.040196e+001  8.333772e+001 
3481250000  -4.122724e+001  8.222292e+001 
3484375000  -4.238082e+001  8.550926e+001 
3487500000  -4.166336e+001  8.308418e+001 
3490625000  -4.066251e+001  7.983047e+001 
3493750000  -4.107176e+001  7.368268e+001 
3496875000  -4.175809e+001  7.212293e+001 
3500000000  -4.247346e+001  7.281666e+001 
3503125000  -4.182182e+001  7.510350e+001 
3506250000  -4.055166e+001  7.010417e+001 
3509375000  -4.054708e+001  6.170127e+001 
3512500000  -4.126260e+001  5.355767e+001 
3515625000  -4.185294e+001  5.076680e+001 
3518750000  -4.251728e+001  5.140293e+001 
3521875000  -4.233230e+001  4.867398e+001 
3525000000  -4.363168e+001  4.585632e+001 
3528125000  -4.336880e+001  5.142206e+001 
3531250000  -4.197002e+001  5.137266e+001 
3534375000  -4.203107e+001  3.915593e+001 
3537500000  -4.238683e+001  3.647395e+001 
3540625000  -4.350761e+001  3.531185e+001 
3543750000  -4.422100e+001  3.966579e+001 
3546875000  -4.396477e+001  4.952553e+001 
3550000000  -4.180687e+001  5.110915e+001 
3553125000  -3.996531e+001  3.277692e+001 
3556250000  -4.168359e+001  2.556569e+001 
3559375000  -4.140190e+001  2.968243e+001 
3562500000  -4.032372e+001  1.924097e+001 
3565625000  -4.091928e+001  1.280465e+001 
3568750000  -4.139709e+001  1.445820e+001 
3571875000  -4.113383e+001  1.261519e+001 
3575000000  -4.075653e+001  5.194484e+000 
3578125000  -4.121123e+001  9.767331e-001 
3581250000  -4.127731e+001  -7.880901e-001 
3584375000  -4.044434e+001  -2.765505e+000 
3587500000  -3.987848e+001  -1.125396e+001 
3590625000  -4.047819e+001  -2.165680e+001 
3593750000  -4.177596e+001  -2.397087e+001 
3596875000  -4.192059e+001  -1.708626e+001 
3600000000  -4.029679e+001  -2.432657e+001 
3603125000  -4.055725e+001  -3.868882e+001 
3606250000  -4.182998e+001  -4.251171e+001 
3609375000  -4.204103e+001  -4.612084e+001 
3612500000  -4.302280e+001  -5.019843e+001 
3615625000  -4.294815e+001  -5.156308e+001 
3618750000  -4.408079e+001  -5.160636e+001 
3621875000  -4.372998e+001  -5.476285e+001 
3625000000  -4.420886e+001  -5.729836e+001 
3628125000  -4.437307e+001  -5.797322e+001 
3631250000  -4.444247e+001  -6.371602e+001 
3634375000  -4.597898e+001  -6.219344e+001 
3637500000  -4.578496e+001  -5.905559e+001 
3640625000  -4.519180e+001  -5.420883e+001 
3643750000  -4.430785e+001  -5.791851e+001 
3646875000  -4.492574e+001  -6.490981e+001 
3650000000  -4.622217e+001  -6.622121e+001 
3653125000  -4.576099e+001  -6.621534e+001 
3656250000  -4.579486e+001  -6.804292e+001 
3659375000  -4.590001e+001  -6.417821e+001 
3662500000  -4.513512e+001  -6.403392e+001 
3665625000  -4.468359e+001  -6.524534e+001 
3668750000  -4.394157e+001  -6.355202e+001 
3671875000  -4.285266e+001  -7.238625e+001 
3675000000  -4.304523e+001  -7.836707e+001 
3678125000  -4.323573e+001  -8.056510e+001 
3681250000  -4.291244e+001  -8.257827e+001 
3684375000  -4.288594e+001  -8.586033e+001 
3687500000  -4.298787e+001  -9.083855e+001 
3690625000  -4.298634e+001  -9.466872e+001 
3693750000  -4.380605e+001  -9.441673e+001 
3696875000  -4.335692e+001  -9.659933e+001 
3700000000  -4.267069e+001  -1.013167e+002 
3703125000  -4.288931e+001  -1.073363e+002 
3706250000  -4.387975e+001  -1.069842e+002 
3709375000  -4.326824e+001  -1.026851e+002 
3712500000  -4.226544e+001  -1.093536e+002 
3715625000  -4.139265e+001  -1.143717e+002 
3718750000  -4.139149e+001  -1.203663e+002 
3721875000  -4.120323e+001  -1.270995e+002 
3725000000  -4.134294e+001  -1.326930e+002 
3728125000  -4.193372e+001  -1.344104e+002 
3731250000  -4.163468e+001  -1.367006e+002 
3734375000  -4.137729e+001  -1.446174e+002 
3737500000  -4.223409e+001  -1.527480e+002 
3740625000  -4.321011e+001  -1.552659e+002 
3743750000  -4.334819e+001  -1.550527e+002 
3746875000  -4.363222e+001  -1.605836e+002 
3750000000  -4.403546e+001  -1.591852e+002 
3753125000  -4.436960e+001  -1.601524e+002 
3756250000  -4.456134e+001  -1.594350e+002 
3759375000  -4.471495e+001  -1.603121e+002 
3762500000  -4.426880e+001  -1.615285e+002 
3765625000  -4.507581e+001  -1.624836e+002 
3768750000  -4.543425e+001  -1.579612e+002 
3771875000  -4.326993e+001  -1.589518e+002 
3775000000  -4.294685e+001  -1.670827e+002 
3778125000  -4.352870e+001  -1.702545e+002 
3781250000  -4.325533e+001  -1.680798e+002 
3784375000  -4.267525e+001  -1.666810e+002 
3787500000  -4.188566e+001  -1.711739e+002 
3790625000  -4.257401e+001  -1.780343e+002 
3793750000  -4.242703e+001  -1.773393e+002 
3796875000  -4.141774e+001  1.780638e+002 
3800000000  -3.980053e+001  1.753646e+002 
3803125000  -4.032121e+001  1.684707e+002 
3806250000  -4.076502e+001  1.639514e+002 
3809375000  -4.049858e+001  1.609445e+002 
3812500000  -4.002018e+001  1.547572e+002 
3815625000  -4.018418e+001  1.460217e+002 
3818750000  -4.134216e+001  1.457882e+002 
3821875000  -4.123625e+001  1.529754e+002 
3825000000  -3.942681e+001  1.541799e+002 
3828125000  -3.766982e+001  1.383755e+002 
3831250000  -3.872846e+001  1.239651e+002 
3834375000  -4.016709e+001  1.224569e+002 
3837500000  -4.116331e+001  1.256338e+002 
3840625000  -3.977955e+001  1.249971e+002 
3843750000  -3.872119e+001  1.116551e+002 
3846875000  -3.970084e+001  1.051768e+002 
3850000000  -4.101625e+001  1.079171e+002 
3853125000  -4.023241e+001  1.121155e+002 
3856250000  -4.024677e+001  1.043396e+002 
3859375000  -3.940116e+001  1.008432e+002 
3862500000  -3.946354e+001  9.308449e+001 
3865625000  -3.997650e+001  8.666517e+001 
3868750000  -3.966952e+001  8.621206e+001 
3871875000  -3.914775e+001  8.382766e+001 
3875000000  -3.956116e+001  7.268079e+001 
3878125000  -4.063120e+001  7.211096e+001 
3881250000  -4.069733e+001  7.583103e+001 
3884375000  -4.038971e+001  6.921963e+001 
3887500000  -4.048981e+001  6.464622e+001 
3890625000  -4.115859e+001  6.267153e+001 
3893750000  -4.138441e+001  6.051725e+001 
3896875000  -4.168783e+001  5.913382e+001 
3900000000  -4.193362e+001  5.882473e+001 
3903125000  -4.121215e+001  5.663999e+001 
3906250000  -4.098174e+001  5.672584e+001 
3909375000  -4.023399e+001  5.243667e+001 
3912500000  -3.999967e+001  4.580990e+001 
3915625000  -4.157171e+001  4.648398e+001 
3918750000  -4.117083e+001  4.709802e+001 
3921875000  -4.047123e+001  4.371142e+001 
3925000000  -4.006915e+001  4.119653e+001 
3928125000  -3.911754e+001  3.558198e+001 
3931250000  -3.958555e+001  3.130872e+001 
3934375000  -4.008642e+001  3.056215e+001 
3937500000  -4.036404e+001  2.825949e+001 
3940625000  -4.062251e+001  2.419706e+001 
3943750000  -3.949012e+001  2.472191e+001 
3946875000  -3.825117e+001  1.935374e+001 
3950000000  -3.882811e+001  1.091979e+001 
3953125000  -3.975574e+001  1.063511e+001 
3956250000  -3.878831e+001  1.203039e+001 
3959375000  -3.773938e+001  9.372776e+000 
3962500000  -3.709771e+001  2.632043e+000 
3965625000  -3.718788e+001  -9.906258e+000 
3968750000  -3.801231e+001  -1.544477e+001 
3971875000  -3.845793e+001  -1.865056e+001 
3975000000  -3.781089e+001  -1.934423e+001 
3978125000  -3.755916e+001  -2.371953e+001 
3981250000  -3.771657e+001  -2.931694e+001 
3984375000  -3.800263e+001  -3.510966e+001 
3987500000  -3.880269e+001  -3.857902e+001 
3990625000  -3.845468e+001  -3.979201e+001 
3993750000  -3.873439e+001  -4.432519e+001 
3996875000  -3.901011e+001  -4.749750e+001 
4000000000  -3.921572e+001  -5.048289e+001 
4003125000  -3.967015e+001  -4.749051e+001 
4006250000  -3.841365e+001  -5.006942e+001 
4009375000  -3.727385e+001  -6.343464e+001 
4012500000  -3.870300e+001  -6.849129e+001 
4015625000  -4.001484e+001  -6.695686e+001 
4018750000  -4.013501e+001  -6.542870e+001 
4021875000  -3.933281e+001  -6.797289e+001 
4025000000  -3.928562e+001  -7.304126e+001 
4028125000  -3.913592e+001  -7.638484e+001 
4031250000  -3.935065e+001  -8.171706e+001 
4034375000  -3.983671e+001  -8.216078e+001 
4037500000  -3.906134e+001  -7.997012e+001 
4040625000  -3.938554e+001  -8.321426e+001 
4043750000  -3.957145e+001  -8.570111e+001 
4046875000  -3.904084e+001  -8.604729e+001 
4050000000  -3.826896e+001  -9.238780e+001 
4053125000  -3.921793e+001  -9.446324e+001 
4056250000  -3.955846e+001  -9.056377e+001 
4059375000  -3.810545e+001  -8.921692e+001 
4062500000  -3.678526e+001  -9.518578e+001 
4065625000  -3.675769e+001  -9.986240e+001 
4068750000  -3.643736e+001  -1.063572e+002 
4071875000  -3.560833e+001  -1.153133e+002 
4075000000  -3.599730e+001  -1.221492e+002 
4078125000  -3.653132e+001  -1.233941e+002 
4081250000  -3.606644e+001  -1.270051e+002 
4084375000  -3.557867e+001  -1.347402e+002 
4087500000  -3.589769e+001  -1.422927e+002 
4090625000  -3.656944e+001  -1.439375e+002 
4093750000  -3.634769e+001  -1.444713e+002 
4096875000  -3.605330e+001  -1.513119e+002 
4100000000  -3.676562e+001  -1.598337e+002 
4103125000  -3.746759e+001  -1.588787e+002 
4106250000  -3.736387e+001  -1.543226e+002 
4109375000  -3.636215e+001  -1.583239e+002 
4112500000  -3.599970e+001  -1.644424e+002 
4115625000  -3.654763e+001  -1.712301e+002 
4118750000  -3.641117e+001  -1.747109e+002 
4121875000  -3.626405e+001  -1.798347e+002 
4125000000  -3.679122e+001  1.746078e+002 
4128125000  -3.762251e+001  1.728070e+002 
4131250000  -3.755893e+001  -1.783836e+002 
4134375000  -3.505482e+001  1.739721e+002 
4137500000  -3.513420e+001  1.552359e+002 
4140625000  -3.743042e+001  1.467660e+002 
4143750000  -3.854071e+001  1.526247e+002 
4146875000  -3.853776e+001  1.578496e+002 
4150000000  -3.735704e+001  1.539398e+002 
4153125000  -3.736996e+001  1.473002e+002 
4156250000  -3.829310e+001  1.444964e+002 
4159375000  -3.862045e+001  1.496056e+002 
4162500000  -3.754284e+001  1.523784e+002 
4165625000  -3.643599e+001  1.480560e+002 
4168750000  -3.597412e+001  1.406597e+002 
4171875000  -3.606149e+001  1.303617e+002 
4175000000  -3.662594e+001  1.257495e+002 
4178125000  -3.718419e+001  1.260049e+002 
4181250000  -3.680119e+001  1.243197e+002 
4184375000  -3.683125e+001  1.224488e+002 
4187500000  -3.680274e+001  1.179111e+002 
4190625000  -3.648709e+001  1.125491e+002 
4193750000  -3.727795e+001  1.093379e+002 
4196875000  -3.820317e+001  1.071453e+002 
4200000000  -3.891376e+001  1.098450e+002 
4203125000  -3.860723e+001  1.220450e+002 
4206250000  -3.535029e+001  1.229397e+002 
4209375000  -3.412628e+001  1.005438e+002 
4212500000  -3.598086e+001  9.130987e+001 
4215625000  -3.691825e+001  9.778409e+001 
4218750000  -3.558347e+001  1.025781e+002 
4221875000  -3.321626e+001  9.336011e+001 
4225000000  -3.429588e+001  7.999158e+001 
4228125000  -3.511045e+001  8.250606e+001 
4231250000  -3.355142e+001  7.888023e+001 
4234375000  -3.317411e+001  6.854734e+001 
4237500000  -3.283805e+001  6.398046e+001 
4240625000  -3.286063e+001  5.486220e+001 
4243750000  -3.381827e+001  4.583193e+001 
4246875000  -3.472997e+001  4.578964e+001 
4250000000  -3.465542e+001  4.700914e+001 
4253125000  -3.419071e+001  4.381113e+001 
4256250000  -3.446620e+001  3.819053e+001 
4259375000  -3.422789e+001  3.444659e+001 
4262500000  -3.422257e+001  3.022294e+001 
4265625000  -3.458241e+001  2.864448e+001 
4268750000  -3.368481e+001  2.407868e+001 
4271875000  -3.351662e+001  1.705150e+001 
4275000000  -3.301309e+001  9.778173e+000 
4278125000  -3.379441e+001  -2.914765e+000 
4281250000  -3.578740e+001  -5.865414e+000 
4284375000  -3.550663e+001  -6.959418e+000 
4287500000  -3.644580e+001  -9.912765e+000 
4290625000  -3.795312e+001  -4.591961e-001 
4293750000  -3.605510e+001  3.665566e+000 
4296875000  -3.468550e+001  -6.780893e+000 
4300000000  -3.571143e+001  -1.580190e+001 
4303125000  -3.702645e+001  -1.456636e+001 
4306250000  -3.636138e+001  -7.656314e+000 
4309375000  -3.491687e+001  -9.964347e+000 
4312500000  -3.487582e+001  -1.802943e+001 
4315625000  -3.495706e+001  -2.463386e+001 
4318750000  -3.529124e+001  -2.778345e+001 
4321875000  -3.542046e+001  -2.752789e+001 
4325000000  -3.488485e+001  -2.701136e+001 
4328125000  -3.413173e+001  -3.415691e+001 
4331250000  -3.391309e+001  -4.238649e+001 
4334375000  -3.435522e+001  -4.719086e+001 
4337500000  -3.522238e+001  -4.923528e+001 
4340625000  -3.563122e+001  -4.705167e+001 
4343750000  -3.464895e+001  -4.728880e+001 
4346875000  -3.424599e+001  -5.336891e+001 
4350000000  -3.418472e+001  -5.873637e+001 
4353125000  -3.412089e+001  -6.745863e+001 
4356250000  -3.579424e+001  -6.882223e+001 
4359375000  -3.632306e+001  -5.560559e+001 
4362500000  -3.318811e+001  -5.657662e+001 
4365625000  -3.159452e+001  -7.029709e+001 
4368750000  -3.232053e+001  -8.247633e+001 
4371875000  -3.347614e+001  -8.277795e+001 
4375000000  -3.305998e+001  -8.345711e+001 
4378125000  -3.232233e+001  -9.114749e+001 
4381250000  -3.248873e+001  -9.785232e+001 
4384375000  -3.224686e+001  -1.033914e+002 
4387500000  -3.290813e+001  -1.109993e+002 
4390625000  -3.398618e+001  -1.119826e+002 
4393750000  -3.343781e+001  -1.111641e+002 
4396875000  -3.266997e+001  -1.146620e+002 
4400000000  -3.218767e+001  -1.239494e+002 
4403125000  -3.296090e+001  -1.326493e+002 
4406250000  -3.374976e+001  -1.349628e+002 
4409375000  -3.387736e+001  -1.380607e+002 
4412500000  -3.499578e+001  -1.430536e+002 
4415625000  -3.521077e+001  -1.379514e+002 
