!Agilent Technologies,E8363B,MY43030201,A.06.04.32
!Agilent E8363B: A.06.04.32
!Date: Tuesday, November 11, 2014 21:12:43
!Correction: S21(Response(S21)) 
!S1P File: Measurement: S21:
# Hz S  dB   R 50
3000000000  -3.640917e+001  -6.064957e+001 
3003125000  -3.762496e+001  -6.689261e+001 
3006250000  -3.740430e+001  -6.895523e+001 
3009375000  -3.777766e+001  -6.523745e+001 
3012500000  -3.698260e+001  -6.682626e+001 
3015625000  -3.614163e+001  -7.433141e+001 
3018750000  -3.695218e+001  -7.507243e+001 
3021875000  -3.555678e+001  -7.432101e+001 
3025000000  -3.416003e+001  -7.813104e+001 
3028125000  -3.325314e+001  -8.439755e+001 
3031250000  -3.218003e+001  -9.576019e+001 
3034375000  -3.194667e+001  -1.100434e+002 
3037500000  -3.238446e+001  -1.212082e+002 
3040625000  -3.377679e+001  -1.261798e+002 
3043750000  -3.437369e+001  -1.308960e+002 
3046875000  -3.476329e+001  -1.372144e+002 
3050000000  -3.625237e+001  -1.422141e+002 
3053125000  -3.619222e+001  -1.357019e+002 
3056250000  -3.574373e+001  -1.333307e+002 
3059375000  -3.564675e+001  -1.341048e+002 
3062500000  -3.424259e+001  -1.375499e+002 
3065625000  -3.401768e+001  -1.439539e+002 
3068750000  -3.370357e+001  -1.502210e+002 
3071875000  -3.353382e+001  -1.523631e+002 
3075000000  -3.336620e+001  -1.566671e+002 
3078125000  -3.320493e+001  -1.609596e+002 
3081250000  -3.362912e+001  -1.646964e+002 
3084375000  -3.269242e+001  -1.685493e+002 
3087500000  -3.250325e+001  -1.728903e+002 
3090625000  -3.199988e+001  1.769303e+002 
3093750000  -3.256509e+001  1.699594e+002 
3096875000  -3.350562e+001  1.642573e+002 
3100000000  -3.338172e+001  1.619142e+002 
3103125000  -3.360770e+001  1.617936e+002 
3106250000  -3.312449e+001  1.583401e+002 
3109375000  -3.328307e+001  1.544950e+002 
3112500000  -3.318090e+001  1.513551e+002 
3115625000  -3.285094e+001  1.472689e+002 
3118750000  -3.313931e+001  1.474033e+002 
3121875000  -3.230179e+001  1.372658e+002 
3125000000  -3.373473e+001  1.335781e+002 
3128125000  -3.436682e+001  1.417698e+002 
3131250000  -3.198091e+001  1.388392e+002 
3134375000  -3.077250e+001  1.232275e+002 
3137500000  -3.138016e+001  1.091225e+002 
3140625000  -3.288006e+001  1.071419e+002 
3143750000  -3.383127e+001  1.068800e+002 
3146875000  -3.334025e+001  1.086613e+002 
3150000000  -3.232448e+001  1.084228e+002 
3153125000  -3.241573e+001  9.986845e+001 
3156250000  -3.337332e+001  1.048867e+002 
3159375000  -3.156598e+001  1.057859e+002 
3162500000  -2.967475e+001  9.047563e+001 
3165625000  -3.076489e+001  7.836095e+001 
3168750000  -3.100949e+001  7.919894e+001 
3171875000  -3.023051e+001  7.310207e+001 
3175000000  -3.101091e+001  6.443382e+001 
3178125000  -3.070620e+001  6.569189e+001 
3181250000  -2.970659e+001  5.929213e+001 
3184375000  -2.902014e+001  4.684719e+001 
3187500000  -3.028975e+001  3.219016e+001 
3190625000  -3.284953e+001  2.469941e+001 
3193750000  -3.334164e+001  3.273729e+001 
3196875000  -3.313132e+001  3.730437e+001 
3200000000  -3.212092e+001  3.498119e+001 
3203125000  -3.136913e+001  2.810706e+001 
3206250000  -3.177157e+001  2.138696e+001 
3209375000  -3.125574e+001  1.497744e+001 
3212500000  -3.158878e+001  8.426030e+000 
3215625000  -3.152280e+001  5.404268e+000 
3218750000  -3.237757e+001  -2.447005e+000 
3221875000  -3.299736e+001  -7.808313e+000 
3225000000  -3.271977e+001  -8.558929e+000 
3228125000  -3.320688e+001  -1.443057e+001 
3231250000  -3.381027e+001  -1.585922e+001 
3234375000  -3.346909e+001  -1.603832e+001 
3237500000  -3.344583e+001  -1.773183e+001 
3240625000  -3.301487e+001  -2.095693e+001 
3243750000  -3.265394e+001  -2.804869e+001 
3246875000  -3.299545e+001  -3.558644e+001 
3250000000  -3.350547e+001  -3.775257e+001 
3253125000  -3.357491e+001  -3.974856e+001 
3256250000  -3.321517e+001  -4.652725e+001 
3259375000  -3.357738e+001  -5.553885e+001 
3262500000  -3.475185e+001  -5.866034e+001 
3265625000  -3.525559e+001  -5.654185e+001 
3268750000  -3.511134e+001  -5.400172e+001 
3271875000  -3.465360e+001  -5.477194e+001 
3275000000  -3.370401e+001  -6.124607e+001 
3278125000  -3.421289e+001  -6.791690e+001 
3281250000  -3.426158e+001  -6.696465e+001 
3284375000  -3.377902e+001  -7.412685e+001 
3287500000  -3.405369e+001  -7.779154e+001 
3290625000  -3.432447e+001  -8.362601e+001 
3293750000  -3.403389e+001  -8.969985e+001 
3296875000  -3.517356e+001  -9.070953e+001 
3300000000  -3.478095e+001  -9.002302e+001 
3303125000  -3.359521e+001  -9.530430e+001 
3306250000  -3.351043e+001  -1.023811e+002 
3309375000  -3.316668e+001  -1.090611e+002 
3312500000  -3.337023e+001  -1.208629e+002 
3315625000  -3.438375e+001  -1.282304e+002 
3318750000  -3.588963e+001  -1.315930e+002 
3321875000  -3.704544e+001  -1.302772e+002 
3325000000  -3.742329e+001  -1.240175e+002 
3328125000  -3.655903e+001  -1.247980e+002 
3331250000  -3.555082e+001  -1.187798e+002 
3334375000  -3.287733e+001  -1.296813e+002 
3337500000  -3.311982e+001  -1.498544e+002 
3340625000  -3.455923e+001  -1.598181e+002 
3343750000  -3.658349e+001  -1.601135e+002 
3346875000  -3.661051e+001  -1.592642e+002 
3350000000  -3.604758e+001  -1.616166e+002 
3353125000  -3.607259e+001  -1.657793e+002 
3356250000  -3.563298e+001  -1.743036e+002 
3359375000  -3.650662e+001  1.782234e+002 
3362500000  -3.768828e+001  1.712610e+002 
3365625000  -3.817766e+001  1.712209e+002 
3368750000  -3.907416e+001  1.698655e+002 
3371875000  -3.939264e+001  1.670263e+002 
3375000000  -4.065017e+001  1.627747e+002 
3378125000  -4.134388e+001  1.633970e+002 
3381250000  -4.267237e+001  1.739524e+002 
3384375000  -4.115817e+001  -1.653032e+002 
3387500000  -3.771872e+001  1.772294e+002 
3390625000  -3.947687e+001  1.582912e+002 
3393750000  -4.041589e+001  1.614041e+002 
3396875000  -3.923954e+001  1.637812e+002 
3400000000  -3.881041e+001  1.559445e+002 
3403125000  -3.970917e+001  1.503336e+002 
3406250000  -3.992872e+001  1.494439e+002 
3409375000  -3.970271e+001  1.429888e+002 
3412500000  -4.018116e+001  1.410448e+002 
3415625000  -4.098001e+001  1.403690e+002 
3418750000  -4.096078e+001  1.421072e+002 
3421875000  -4.130413e+001  1.453445e+002 
3425000000  -4.019581e+001  1.445826e+002 
3428125000  -3.937055e+001  1.394413e+002 
3431250000  -3.918999e+001  1.324401e+002 
3434375000  -3.905401e+001  1.266916e+002 
3437500000  -3.993116e+001  1.230955e+002 
3440625000  -3.984510e+001  1.248384e+002 
3443750000  -3.874323e+001  1.246825e+002 
3446875000  -3.811258e+001  1.174835e+002 
3450000000  -3.754445e+001  1.074681e+002 
3453125000  -3.807044e+001  9.610502e+001 
3456250000  -3.939410e+001  9.008950e+001 
3459375000  -4.034073e+001  9.208343e+001 
3462500000  -4.020716e+001  9.171021e+001 
3465625000  -3.989839e+001  8.479184e+001 
3468750000  -4.051568e+001  8.057121e+001 
3471875000  -4.040788e+001  7.911851e+001 
3475000000  -4.002997e+001  7.540788e+001 
3478125000  -4.067271e+001  6.791751e+001 
3481250000  -4.165369e+001  6.554787e+001 
3484375000  -4.277297e+001  7.030999e+001 
3487500000  -4.190508e+001  7.068427e+001 
3490625000  -4.121901e+001  6.501444e+001 
3493750000  -4.179939e+001  6.067425e+001 
3496875000  -4.218761e+001  5.917181e+001 
3500000000  -4.311840e+001  6.136688e+001 
3503125000  -4.229466e+001  6.385525e+001 
3506250000  -4.093673e+001  5.971356e+001 
3509375000  -4.092129e+001  4.932539e+001 
3512500000  -4.145140e+001  4.140493e+001 
3515625000  -4.211205e+001  4.029737e+001 
3518750000  -4.265448e+001  4.105872e+001 
3521875000  -4.223173e+001  3.801658e+001 
3525000000  -4.305221e+001  3.540385e+001 
3528125000  -4.299268e+001  4.268021e+001 
3531250000  -4.168876e+001  3.947030e+001 
3534375000  -4.168141e+001  2.915136e+001 
3537500000  -4.193367e+001  2.546373e+001 
3540625000  -4.301295e+001  2.078659e+001 
3543750000  -4.330025e+001  2.665275e+001 
3546875000  -4.334354e+001  3.709528e+001 
3550000000  -4.058129e+001  3.815726e+001 
3553125000  -3.963496e+001  1.957281e+001 
3556250000  -4.095599e+001  1.114380e+001 
3559375000  -4.067670e+001  1.245577e+001 
3562500000  -3.955356e+001  3.150555e+000 
3565625000  -4.047342e+001  -4.815293e+000 
3568750000  -4.074807e+001  -2.543287e+000 
3571875000  -4.060805e+001  -2.850932e+000 
3575000000  -4.018788e+001  -1.285803e+001 
3578125000  -4.073521e+001  -1.771970e+001 
3581250000  -4.102528e+001  -1.762473e+001 
3584375000  -4.042139e+001  -2.127160e+001 
3587500000  -3.979846e+001  -3.041259e+001 
3590625000  -4.051091e+001  -4.062522e+001 
3593750000  -4.158384e+001  -4.249422e+001 
3596875000  -4.183910e+001  -3.553032e+001 
3600000000  -4.050245e+001  -4.201102e+001 
3603125000  -4.114397e+001  -5.677639e+001 
3606250000  -4.205168e+001  -5.944827e+001 
3609375000  -4.257231e+001  -6.354439e+001 
3612500000  -4.324812e+001  -6.586620e+001 
3615625000  -4.357922e+001  -6.905497e+001 
3618750000  -4.405323e+001  -6.842169e+001 
3621875000  -4.456738e+001  -6.847801e+001 
3625000000  -4.485814e+001  -6.925540e+001 
3628125000  -4.484316e+001  -6.785027e+001 
3631250000  -4.501466e+001  -7.517857e+001 
3634375000  -4.617782e+001  -7.454871e+001 
3637500000  -4.603201e+001  -6.904202e+001 
3640625000  -4.538118e+001  -6.388714e+001 
3643750000  -4.414576e+001  -6.901101e+001 
3646875000  -4.473539e+001  -7.461451e+001 
3650000000  -4.518864e+001  -7.393045e+001 
3653125000  -4.468974e+001  -7.531554e+001 
3656250000  -4.511169e+001  -7.542938e+001 
3659375000  -4.494764e+001  -7.487177e+001 
3662500000  -4.412102e+001  -7.849769e+001 
3665625000  -4.398268e+001  -7.991796e+001 
3668750000  -4.247276e+001  -8.006357e+001 
3671875000  -4.146674e+001  -8.626293e+001 
3675000000  -4.198082e+001  -9.429302e+001 
3678125000  -4.205722e+001  -9.766077e+001 
3681250000  -4.198627e+001  -9.988747e+001 
3684375000  -4.199961e+001  -1.066755e+002 
3687500000  -4.213637e+001  -1.101091e+002 
3690625000  -4.245947e+001  -1.148673e+002 
3693750000  -4.315618e+001  -1.159689e+002 
3696875000  -4.300153e+001  -1.179091e+002 
3700000000  -4.201000e+001  -1.207034e+002 
3703125000  -4.234671e+001  -1.256052e+002 
3706250000  -4.330643e+001  -1.273956e+002 
3709375000  -4.301021e+001  -1.255957e+002 
3712500000  -4.203392e+001  -1.301664e+002 
3715625000  -4.140557e+001  -1.364883e+002 
3718750000  -4.106608e+001  -1.421457e+002 
3721875000  -4.098857e+001  -1.477787e+002 
3725000000  -4.150621e+001  -1.549569e+002 
3728125000  -4.203631e+001  -1.550972e+002 
3731250000  -4.169682e+001  -1.583386e+002 
3734375000  -4.126345e+001  -1.634233e+002 
3737500000  -4.286062e+001  -1.723975e+002 
3740625000  -4.352730e+001  -1.714587e+002 
3743750000  -4.374677e+001  -1.749456e+002 
3746875000  -4.386377e+001  -1.794786e+002 
3750000000  -4.460590e+001  -1.782217e+002 
3753125000  -4.444026e+001  -1.790616e+002 
3756250000  -4.541433e+001  -1.722017e+002 
3759375000  -4.522311e+001  -1.747165e+002 
3762500000  -4.414893e+001  -1.772100e+002 
3765625000  -4.496529e+001  -1.768996e+002 
3768750000  -4.514455e+001  -1.713172e+002 
3771875000  -4.329786e+001  -1.738491e+002 
3775000000  -4.293159e+001  -1.782298e+002 
3778125000  -4.302808e+001  1.753534e+002 
3781250000  -4.289275e+001  1.770405e+002 
3784375000  -4.211049e+001  1.756679e+002 
3787500000  -4.127656e+001  1.715475e+002 
3790625000  -4.177276e+001  1.642038e+002 
3793750000  -4.191006e+001  1.629396e+002 
3796875000  -4.067764e+001  1.618961e+002 
3800000000  -3.908411e+001  1.581016e+002 
3803125000  -3.949320e+001  1.478642e+002 
3806250000  -4.048442e+001  1.465591e+002 
3809375000  -4.017056e+001  1.429134e+002 
3812500000  -3.917244e+001  1.359819e+002 
3815625000  -4.014339e+001  1.264794e+002 
3818750000  -4.095545e+001  1.237408e+002 
3821875000  -4.073215e+001  1.335761e+002 
3825000000  -3.902093e+001  1.360725e+002 
3828125000  -3.784224e+001  1.179589e+002 
3831250000  -3.840359e+001  1.023504e+002 
3834375000  -4.014268e+001  1.038155e+002 
3837500000  -4.092554e+001  1.061187e+002 
3840625000  -3.966900e+001  1.031861e+002 
3843750000  -3.885873e+001  9.132494e+001 
3846875000  -3.975753e+001  8.411067e+001 
3850000000  -4.106919e+001  9.090624e+001 
3853125000  -4.015316e+001  8.946535e+001 
3856250000  -4.046844e+001  8.354971e+001 
3859375000  -3.987403e+001  8.000115e+001 
3862500000  -3.943625e+001  7.229321e+001 
3865625000  -4.024897e+001  6.708405e+001 
3868750000  -4.010290e+001  6.642113e+001 
3871875000  -3.941763e+001  6.183158e+001 
3875000000  -3.971557e+001  5.443450e+001 
3878125000  -4.112857e+001  5.198978e+001 
3881250000  -4.132098e+001  5.675785e+001 
3884375000  -4.057200e+001  5.119039e+001 
3887500000  -4.083870e+001  4.708942e+001 
3890625000  -4.165394e+001  4.358679e+001 
3893750000  -4.174243e+001  4.539568e+001 
3896875000  -4.223187e+001  4.597309e+001 
3900000000  -4.180313e+001  4.550285e+001 
3903125000  -4.168769e+001  4.185019e+001 
3906250000  -4.091258e+001  4.053021e+001 
3909375000  -4.020522e+001  3.652087e+001 
3912500000  -4.033394e+001  2.832696e+001 
3915625000  -4.146889e+001  3.257991e+001 
3918750000  -4.119654e+001  3.145418e+001 
3921875000  -4.081326e+001  2.836341e+001 
3925000000  -3.970803e+001  2.669719e+001 
3928125000  -3.905640e+001  1.860988e+001 
3931250000  -3.939779e+001  1.200474e+001 
3934375000  -3.970459e+001  1.341752e+001 
3937500000  -3.992750e+001  1.096232e+001 
3940625000  -4.023817e+001  8.830385e+000 
3943750000  -3.891281e+001  8.700216e+000 
3946875000  -3.764097e+001  8.194947e-001 
3950000000  -3.877025e+001  -8.435541e+000 
3953125000  -3.955641e+001  -8.569267e+000 
3956250000  -3.837806e+001  -7.066910e+000 
3959375000  -3.743528e+001  -1.151405e+001 
3962500000  -3.705810e+001  -1.733029e+001 
3965625000  -3.680327e+001  -2.796130e+001 
3968750000  -3.770650e+001  -3.604567e+001 
3971875000  -3.814796e+001  -3.947672e+001 
3975000000  -3.746951e+001  -3.964945e+001 
3978125000  -3.750655e+001  -4.452243e+001 
3981250000  -3.765654e+001  -5.089342e+001 
3984375000  -3.790254e+001  -5.775720e+001 
3987500000  -3.858303e+001  -6.071409e+001 
3990625000  -3.849467e+001  -6.176051e+001 
3993750000  -3.902279e+001  -6.660246e+001 
3996875000  -3.900112e+001  -7.030884e+001 
4000000000  -3.932119e+001  -7.237067e+001 
4003125000  -3.995354e+001  -6.970075e+001 
4006250000  -3.880668e+001  -7.120995e+001 
4009375000  -3.771769e+001  -8.290422e+001 
4012500000  -3.910999e+001  -9.074122e+001 
4015625000  -4.036933e+001  -8.883000e+001 
4018750000  -4.063565e+001  -8.693863e+001 
4021875000  -3.985091e+001  -8.777373e+001 
4025000000  -3.995012e+001  -9.269807e+001 
4028125000  -3.982187e+001  -9.671951e+001 
4031250000  -4.023338e+001  -9.977133e+001 
4034375000  -4.037552e+001  -9.885746e+001 
4037500000  -3.977011e+001  -9.643972e+001 
4040625000  -3.971764e+001  -1.011120e+002 
4043750000  -3.986904e+001  -9.980687e+001 
4046875000  -3.949846e+001  -9.990063e+001 
4050000000  -3.900848e+001  -1.082448e+002 
4053125000  -3.922853e+001  -1.096839e+002 
4056250000  -3.952371e+001  -1.069431e+002 
4059375000  -3.800646e+001  -1.044054e+002 
4062500000  -3.662172e+001  -1.110170e+002 
4065625000  -3.658195e+001  -1.167878e+002 
4068750000  -3.613358e+001  -1.231205e+002 
4071875000  -3.554657e+001  -1.316030e+002 
4075000000  -3.576933e+001  -1.392378e+002 
4078125000  -3.635838e+001  -1.406276e+002 
4081250000  -3.577171e+001  -1.448909e+002 
4084375000  -3.538842e+001  -1.532429e+002 
4087500000  -3.562613e+001  -1.603067e+002 
4090625000  -3.636787e+001  -1.622608e+002 
4093750000  -3.614971e+001  -1.643410e+002 
4096875000  -3.570674e+001  -1.714096e+002 
4100000000  -3.657576e+001  -1.794938e+002 
4103125000  -3.723334e+001  -1.784542e+002 
4106250000  -3.734837e+001  -1.746226e+002 
4109375000  -3.629871e+001  -1.792468e+002 
4112500000  -3.589096e+001  1.743591e+002 
4115625000  -3.632904e+001  1.685529e+002 
4118750000  -3.650011e+001  1.634353e+002 
4121875000  -3.605954e+001  1.582598e+002 
4125000000  -3.672181e+001  1.518061e+002 
4128125000  -3.773830e+001  1.526496e+002 
4131250000  -3.747625e+001  1.598654e+002 
4134375000  -3.528038e+001  1.518745e+002 
4137500000  -3.531291e+001  1.318532e+002 
4140625000  -3.757949e+001  1.264534e+002 
4143750000  -3.898298e+001  1.303425e+002 
4146875000  -3.868945e+001  1.373838e+002 
4150000000  -3.771144e+001  1.325723e+002 
4153125000  -3.794254e+001  1.265032e+002 
4156250000  -3.892487e+001  1.234682e+002 
4159375000  -3.932302e+001  1.298378e+002 
4162500000  -3.805276e+001  1.335160e+002 
4165625000  -3.707533e+001  1.287692e+002 
4168750000  -3.659342e+001  1.194333e+002 
4171875000  -3.644139e+001  1.113646e+002 
4175000000  -3.735379e+001  1.052029e+002 
4178125000  -3.779372e+001  1.091995e+002 
4181250000  -3.747517e+001  1.075943e+002 
4184375000  -3.729192e+001  1.029217e+002 
4187500000  -3.711916e+001  1.003279e+002 
4190625000  -3.687574e+001  9.549659e+001 
4193750000  -3.775915e+001  9.005130e+001 
4196875000  -3.818545e+001  9.097934e+001 
4200000000  -3.927524e+001  9.264775e+001 
4203125000  -3.872882e+001  1.060561e+002 
4206250000  -3.521337e+001  1.043799e+002 
4209375000  -3.408189e+001  8.252493e+001 
4212500000  -3.620547e+001  7.321496e+001 
4215625000  -3.702666e+001  7.978837e+001 
4218750000  -3.546215e+001  8.421102e+001 
4221875000  -3.305388e+001  7.403344e+001 
4225000000  -3.437626e+001  6.136805e+001 
4228125000  -3.469347e+001  6.474758e+001 
4231250000  -3.313631e+001  5.850978e+001 
4234375000  -3.308574e+001  4.925203e+001 
4237500000  -3.263941e+001  4.455710e+001 
4240625000  -3.264629e+001  3.400662e+001 
4243750000  -3.370408e+001  2.626523e+001 
4246875000  -3.463208e+001  2.504893e+001 
4250000000  -3.439456e+001  2.602482e+001 
4253125000  -3.405877e+001  2.154892e+001 
4256250000  -3.443540e+001  1.621705e+001 
4259375000  -3.412022e+001  1.435318e+001 
4262500000  -3.438837e+001  7.898486e+000 
4265625000  -3.447247e+001  7.968743e+000 
4268750000  -3.369279e+001  1.048109e+000 
4271875000  -3.359273e+001  -6.406814e+000 
4275000000  -3.333829e+001  -1.397531e+001 
4278125000  -3.415446e+001  -2.808225e+001 
4281250000  -3.607001e+001  -2.747168e+001 
4284375000  -3.569874e+001  -2.754216e+001 
4287500000  -3.711169e+001  -3.192873e+001 
4290625000  -3.824819e+001  -2.120959e+001 
4293750000  -3.622805e+001  -1.753763e+001 
4296875000  -3.534780e+001  -2.953112e+001 
4300000000  -3.641626e+001  -3.848839e+001 
4303125000  -3.760259e+001  -3.426140e+001 
4306250000  -3.677827e+001  -2.942264e+001 
4309375000  -3.559414e+001  -3.151538e+001 
4312500000  -3.539946e+001  -3.979403e+001 
4315625000  -3.553122e+001  -4.527122e+001 
4318750000  -3.605065e+001  -4.871373e+001 
4321875000  -3.618085e+001  -4.545805e+001 
4325000000  -3.543703e+001  -4.602920e+001 
4328125000  -3.471223e+001  -5.237899e+001 
4331250000  -3.438903e+001  -6.068180e+001 
4334375000  -3.492104e+001  -6.582321e+001 
4337500000  -3.565393e+001  -6.685683e+001 
4340625000  -3.593559e+001  -6.305060e+001 
4343750000  -3.491510e+001  -6.503624e+001 
4346875000  -3.445079e+001  -7.099512e+001 
4350000000  -3.440106e+001  -7.717822e+001 
4353125000  -3.453258e+001  -8.570367e+001 
4356250000  -3.625216e+001  -8.789350e+001 
4359375000  -3.649341e+001  -7.161837e+001 
4362500000  -3.313737e+001  -7.397022e+001 
4365625000  -3.165344e+001  -8.819769e+001 
4368750000  -3.271414e+001  -1.014446e+002 
4371875000  -3.371733e+001  -1.025029e+002 
4375000000  -3.298334e+001  -1.028305e+002 
4378125000  -3.235580e+001  -1.108158e+002 
4381250000  -3.262466e+001  -1.177628e+002 
4384375000  -3.228854e+001  -1.244550e+002 
4387500000  -3.323985e+001  -1.316260e+002 
4390625000  -3.410749e+001  -1.315204e+002 
4393750000  -3.341125e+001  -1.315283e+002 
4396875000  -3.280775e+001  -1.355629e+002 
4400000000  -3.236568e+001  -1.450685e+002 
4403125000  -3.316254e+001  -1.544011e+002 
4406250000  -3.397069e+001  -1.567224e+002 
4409375000  -3.414287e+001  -1.603569e+002 
4412500000  -3.547946e+001  -1.637713e+002 
4415625000  -3.560930e+001  -1.599270e+002 
