!Agilent Technologies,E8363B,MY43030201,A.06.04.32
!Agilent E8363B: A.06.04.32
!Date: Tuesday, November 11, 2014 21:12:07
!Correction: S21(Response(S21)) 
!S1P File: Measurement: S21:
# Hz S  dB   R 50
3000000000  -3.649760e+001  -5.879286e+001 
3003125000  -3.774802e+001  -6.406591e+001 
3006250000  -3.753645e+001  -6.755615e+001 
3009375000  -3.778711e+001  -6.305413e+001 
3012500000  -3.697520e+001  -6.392225e+001 
3015625000  -3.615591e+001  -7.183961e+001 
3018750000  -3.689515e+001  -7.343571e+001 
3021875000  -3.544371e+001  -7.193828e+001 
3025000000  -3.415376e+001  -7.548719e+001 
3028125000  -3.322031e+001  -8.276001e+001 
3031250000  -3.224387e+001  -9.382628e+001 
3034375000  -3.189457e+001  -1.079609e+002 
3037500000  -3.237503e+001  -1.192702e+002 
3040625000  -3.372280e+001  -1.240988e+002 
3043750000  -3.427816e+001  -1.292924e+002 
3046875000  -3.464493e+001  -1.346095e+002 
3050000000  -3.623547e+001  -1.407427e+002 
3053125000  -3.616814e+001  -1.351781e+002 
3056250000  -3.566768e+001  -1.318564e+002 
3059375000  -3.565819e+001  -1.330902e+002 
3062500000  -3.422257e+001  -1.355999e+002 
3065625000  -3.391491e+001  -1.421979e+002 
3068750000  -3.360637e+001  -1.489373e+002 
3071875000  -3.361570e+001  -1.516750e+002 
3075000000  -3.331388e+001  -1.558082e+002 
3078125000  -3.315731e+001  -1.592971e+002 
3081250000  -3.354862e+001  -1.637758e+002 
3084375000  -3.268876e+001  -1.677270e+002 
3087500000  -3.251550e+001  -1.713804e+002 
3090625000  -3.199360e+001  1.782840e+002 
3093750000  -3.259409e+001  1.709718e+002 
3096875000  -3.350468e+001  1.648893e+002 
3100000000  -3.350241e+001  1.631220e+002 
3103125000  -3.365570e+001  1.639039e+002 
3106250000  -3.314126e+001  1.599852e+002 
3109375000  -3.323408e+001  1.559141e+002 
3112500000  -3.321193e+001  1.524590e+002 
3115625000  -3.287835e+001  1.481803e+002 
3118750000  -3.316312e+001  1.485360e+002 
3121875000  -3.221647e+001  1.390049e+002 
3125000000  -3.364917e+001  1.348893e+002 
3128125000  -3.447519e+001  1.415668e+002 
3131250000  -3.195457e+001  1.405158e+002 
3134375000  -3.074473e+001  1.247132e+002 
3137500000  -3.139306e+001  1.107317e+002 
3140625000  -3.287027e+001  1.081070e+002 
3143750000  -3.370541e+001  1.092789e+002 
3146875000  -3.334716e+001  1.104725e+002 
3150000000  -3.234760e+001  1.098554e+002 
3153125000  -3.236127e+001  1.011961e+002 
3156250000  -3.333904e+001  1.063387e+002 
3159375000  -3.148524e+001  1.069817e+002 
3162500000  -2.964340e+001  9.267484e+001 
3165625000  -3.077450e+001  8.068660e+001 
3168750000  -3.101496e+001  8.112514e+001 
3171875000  -3.019405e+001  7.472235e+001 
3175000000  -3.095262e+001  6.646595e+001 
3178125000  -3.067436e+001  6.692755e+001 
3181250000  -2.966327e+001  6.117503e+001 
3184375000  -2.899741e+001  4.854756e+001 
3187500000  -3.022417e+001  3.359985e+001 
3190625000  -3.285451e+001  2.565942e+001 
3193750000  -3.337361e+001  3.451538e+001 
3196875000  -3.299578e+001  3.874125e+001 
3200000000  -3.199565e+001  3.590231e+001 
3203125000  -3.126832e+001  2.965082e+001 
3206250000  -3.164835e+001  2.270976e+001 
3209375000  -3.117533e+001  1.727946e+001 
3212500000  -3.148040e+001  9.530841e+000 
3215625000  -3.143177e+001  6.725818e+000 
3218750000  -3.226380e+001  -7.524131e-001 
3221875000  -3.297076e+001  -5.792429e+000 
3225000000  -3.255045e+001  -7.685855e+000 
3228125000  -3.306996e+001  -1.311208e+001 
3231250000  -3.368789e+001  -1.512533e+001 
3234375000  -3.339299e+001  -1.446965e+001 
3237500000  -3.343541e+001  -1.688223e+001 
3240625000  -3.296698e+001  -1.966718e+001 
3243750000  -3.258493e+001  -2.664723e+001 
3246875000  -3.303507e+001  -3.442188e+001 
3250000000  -3.343617e+001  -3.701709e+001 
3253125000  -3.360020e+001  -3.855264e+001 
3256250000  -3.306898e+001  -4.473895e+001 
3259375000  -3.342080e+001  -5.453789e+001 
3262500000  -3.462627e+001  -5.815601e+001 
3265625000  -3.517533e+001  -5.521290e+001 
3268750000  -3.505498e+001  -5.322901e+001 
3271875000  -3.471342e+001  -5.363497e+001 
3275000000  -3.376001e+001  -6.075948e+001 
3278125000  -3.417708e+001  -6.752094e+001 
3281250000  -3.439484e+001  -6.639613e+001 
3284375000  -3.381515e+001  -7.298647e+001 
3287500000  -3.404250e+001  -7.643130e+001 
3290625000  -3.429397e+001  -8.309769e+001 
3293750000  -3.407908e+001  -8.832165e+001 
3296875000  -3.521872e+001  -8.918431e+001 
3300000000  -3.486106e+001  -8.783398e+001 
3303125000  -3.352985e+001  -9.355222e+001 
3306250000  -3.349566e+001  -1.014745e+002 
3309375000  -3.318863e+001  -1.077174e+002 
3312500000  -3.331634e+001  -1.192781e+002 
3315625000  -3.433788e+001  -1.266435e+002 
3318750000  -3.587677e+001  -1.289115e+002 
3321875000  -3.686636e+001  -1.285808e+002 
3325000000  -3.738450e+001  -1.230662e+002 
3328125000  -3.674733e+001  -1.226143e+002 
3331250000  -3.555983e+001  -1.171134e+002 
3334375000  -3.280853e+001  -1.284827e+002 
3337500000  -3.308730e+001  -1.479342e+002 
3340625000  -3.446000e+001  -1.585344e+002 
3343750000  -3.659956e+001  -1.593066e+002 
3346875000  -3.665219e+001  -1.572415e+002 
3350000000  -3.596880e+001  -1.586364e+002 
3353125000  -3.601284e+001  -1.639552e+002 
3356250000  -3.556152e+001  -1.726796e+002 
3359375000  -3.652630e+001  1.791024e+002 
3362500000  -3.761490e+001  1.729566e+002 
3365625000  -3.809131e+001  1.727831e+002 
3368750000  -3.874204e+001  1.703919e+002 
3371875000  -3.892484e+001  1.671039e+002 
3375000000  -4.044339e+001  1.639047e+002 
3378125000  -4.139606e+001  1.645837e+002 
3381250000  -4.253263e+001  1.740826e+002 
3384375000  -4.079316e+001  -1.640565e+002 
3387500000  -3.751599e+001  1.768919e+002 
3390625000  -3.939447e+001  1.599836e+002 
3393750000  -4.031737e+001  1.626007e+002 
3396875000  -3.919646e+001  1.643176e+002 
3400000000  -3.873031e+001  1.559361e+002 
3403125000  -3.918800e+001  1.502879e+002 
3406250000  -3.970531e+001  1.510559e+002 
3409375000  -3.973603e+001  1.421089e+002 
3412500000  -4.007896e+001  1.396877e+002 
3415625000  -4.091573e+001  1.410400e+002 
3418750000  -4.092270e+001  1.420305e+002 
3421875000  -4.120259e+001  1.454911e+002 
3425000000  -4.022909e+001  1.455679e+002 
3428125000  -3.940351e+001  1.398821e+002 
3431250000  -3.942994e+001  1.336974e+002 
3434375000  -3.906645e+001  1.282250e+002 
3437500000  -3.988994e+001  1.243890e+002 
3440625000  -3.982340e+001  1.267632e+002 
3443750000  -3.865039e+001  1.261896e+002 
3446875000  -3.764600e+001  1.171418e+002 
3450000000  -3.761072e+001  1.079543e+002 
3453125000  -3.790321e+001  9.745764e+001 
3456250000  -3.915987e+001  9.159355e+001 
3459375000  -4.002356e+001  9.284651e+001 
3462500000  -3.974550e+001  9.197895e+001 
3465625000  -3.990879e+001  8.705037e+001 
3468750000  -4.021979e+001  8.235670e+001 
3471875000  -3.990671e+001  8.147665e+001 
3475000000  -3.961948e+001  7.728050e+001 
3478125000  -4.054021e+001  6.861909e+001 
3481250000  -4.144376e+001  6.768932e+001 
3484375000  -4.244160e+001  7.275555e+001 
3487500000  -4.157320e+001  6.843732e+001 
3490625000  -4.098687e+001  6.658897e+001 
3493750000  -4.131809e+001  5.919786e+001 
3496875000  -4.226336e+001  5.779748e+001 
3500000000  -4.284008e+001  6.094062e+001 
3503125000  -4.214999e+001  6.612722e+001 
3506250000  -4.050489e+001  5.718856e+001 
3509375000  -4.065471e+001  4.906451e+001 
3512500000  -4.123653e+001  3.918652e+001 
3515625000  -4.209664e+001  3.736995e+001 
3518750000  -4.274551e+001  3.802744e+001 
3521875000  -4.232809e+001  3.469796e+001 
3525000000  -4.341739e+001  3.330794e+001 
3528125000  -4.316735e+001  4.114379e+001 
3531250000  -4.195910e+001  3.634050e+001 
3534375000  -4.215384e+001  2.751204e+001 
3537500000  -4.247464e+001  2.123280e+001 
3540625000  -4.331136e+001  2.120138e+001 
3543750000  -4.381218e+001  2.602111e+001 
3546875000  -4.370588e+001  3.655660e+001 
3550000000  -4.134185e+001  3.768036e+001 
3553125000  -3.987605e+001  2.015613e+001 
3556250000  -4.133141e+001  1.236222e+001 
3559375000  -4.100972e+001  1.494258e+001 
3562500000  -3.999694e+001  4.905097e+000 
3565625000  -4.083059e+001  -1.769421e+000 
3568750000  -4.117542e+001  -1.034634e+000 
3571875000  -4.115958e+001  -2.983531e+000 
3575000000  -4.050486e+001  -8.865034e+000 
3578125000  -4.108067e+001  -1.639541e+001 
3581250000  -4.117894e+001  -1.470027e+001 
3584375000  -4.046005e+001  -1.845257e+001 
3587500000  -3.998998e+001  -2.715448e+001 
3590625000  -4.052522e+001  -3.772488e+001 
3593750000  -4.170368e+001  -3.892074e+001 
3596875000  -4.152929e+001  -3.298673e+001 
3600000000  -4.028380e+001  -3.957083e+001 
3603125000  -4.072777e+001  -5.427536e+001 
3606250000  -4.157629e+001  -5.740057e+001 
3609375000  -4.229498e+001  -6.143330e+001 
3612500000  -4.294730e+001  -6.376717e+001 
3615625000  -4.301905e+001  -6.543243e+001 
3618750000  -4.380551e+001  -6.599171e+001 
3621875000  -4.382214e+001  -6.977266e+001 
3625000000  -4.464466e+001  -7.038416e+001 
3628125000  -4.475208e+001  -7.262516e+001 
3631250000  -4.448001e+001  -7.691251e+001 
3634375000  -4.580567e+001  -7.733022e+001 
3637500000  -4.569038e+001  -7.017287e+001 
3640625000  -4.481553e+001  -6.848257e+001 
3643750000  -4.446749e+001  -7.478020e+001 
3646875000  -4.525513e+001  -8.255472e+001 
3650000000  -4.573396e+001  -7.828985e+001 
3653125000  -4.517386e+001  -7.943294e+001 
3656250000  -4.575740e+001  -8.292011e+001 
3659375000  -4.535963e+001  -7.644886e+001 
3662500000  -4.455561e+001  -7.900948e+001 
3665625000  -4.466990e+001  -7.902174e+001 
3668750000  -4.362099e+001  -7.991885e+001 
3671875000  -4.251437e+001  -8.709037e+001 
3675000000  -4.269093e+001  -9.401026e+001 
3678125000  -4.257859e+001  -9.524077e+001 
3681250000  -4.258033e+001  -9.560644e+001 
3684375000  -4.259437e+001  -1.050950e+002 
3687500000  -4.267191e+001  -1.071243e+002 
3690625000  -4.288168e+001  -1.108757e+002 
3693750000  -4.355892e+001  -1.111176e+002 
3696875000  -4.316878e+001  -1.132739e+002 
3700000000  -4.240721e+001  -1.176903e+002 
3703125000  -4.247307e+001  -1.211047e+002 
3706250000  -4.367153e+001  -1.236836e+002 
3709375000  -4.341607e+001  -1.221067e+002 
3712500000  -4.228824e+001  -1.231332e+002 
3715625000  -4.133248e+001  -1.330030e+002 
3718750000  -4.112532e+001  -1.375188e+002 
3721875000  -4.119891e+001  -1.423201e+002 
3725000000  -4.151954e+001  -1.505181e+002 
3728125000  -4.195586e+001  -1.524081e+002 
3731250000  -4.192345e+001  -1.522557e+002 
3734375000  -4.121309e+001  -1.597397e+002 
3737500000  -4.237384e+001  -1.665740e+002 
3740625000  -4.346168e+001  -1.696228e+002 
3743750000  -4.335217e+001  -1.734299e+002 
3746875000  -4.422605e+001  -1.778973e+002 
3750000000  -4.444637e+001  -1.776260e+002 
3753125000  -4.485105e+001  -1.763416e+002 
3756250000  -4.473366e+001  -1.757071e+002 
3759375000  -4.495569e+001  -1.774568e+002 
3762500000  -4.407761e+001  -1.786012e+002 
3765625000  -4.508549e+001  -1.760333e+002 
3768750000  -4.471572e+001  -1.730517e+002 
3771875000  -4.308058e+001  -1.743235e+002 
3775000000  -4.294272e+001  1.776211e+002 
3778125000  -4.292749e+001  1.751161e+002 
3781250000  -4.285009e+001  1.765805e+002 
3784375000  -4.255672e+001  1.764309e+002 
3787500000  -4.181258e+001  1.724662e+002 
3790625000  -4.205834e+001  1.655637e+002 
3793750000  -4.217825e+001  1.635875e+002 
3796875000  -4.111278e+001  1.626699e+002 
3800000000  -3.956583e+001  1.597581e+002 
3803125000  -4.009892e+001  1.502809e+002 
3806250000  -4.081475e+001  1.453118e+002 
3809375000  -4.016972e+001  1.451636e+002 
3812500000  -3.958121e+001  1.389366e+002 
3815625000  -4.018158e+001  1.278583e+002 
3818750000  -4.126622e+001  1.293701e+002 
3821875000  -4.106834e+001  1.358319e+002 
3825000000  -3.920123e+001  1.398295e+002 
3828125000  -3.820814e+001  1.217326e+002 
3831250000  -3.857563e+001  1.064833e+002 
3834375000  -4.016024e+001  1.056112e+002 
3837500000  -4.092524e+001  1.085098e+002 
3840625000  -4.016099e+001  1.081461e+002 
3843750000  -3.886931e+001  9.415093e+001 
3846875000  -3.967920e+001  8.775332e+001 
3850000000  -4.124345e+001  9.283344e+001 
3853125000  -4.047163e+001  9.628120e+001 
3856250000  -4.020562e+001  8.748070e+001 
3859375000  -3.936689e+001  8.388318e+001 
3862500000  -3.930135e+001  7.516966e+001 
3865625000  -3.966899e+001  6.841373e+001 
3868750000  -3.984911e+001  6.890326e+001 
3871875000  -3.925633e+001  6.545361e+001 
3875000000  -3.957859e+001  5.563066e+001 
3878125000  -4.087021e+001  5.559100e+001 
3881250000  -4.082781e+001  5.589363e+001 
3884375000  -4.019703e+001  5.285098e+001 
3887500000  -4.048185e+001  4.936526e+001 
3890625000  -4.095575e+001  4.561375e+001 
3893750000  -4.117294e+001  4.310008e+001 
3896875000  -4.197189e+001  4.438258e+001 
3900000000  -4.156812e+001  4.314915e+001 
3903125000  -4.140980e+001  4.264253e+001 
3906250000  -4.118901e+001  3.892321e+001 
3909375000  -4.011944e+001  3.624329e+001 
3912500000  -4.018927e+001  2.795356e+001 
3915625000  -4.145331e+001  2.992349e+001 
3918750000  -4.126383e+001  3.130008e+001 
3921875000  -4.067259e+001  2.794876e+001 
3925000000  -3.973633e+001  2.491308e+001 
3928125000  -3.897546e+001  1.736619e+001 
3931250000  -3.963110e+001  1.363095e+001 
3934375000  -3.987920e+001  1.362734e+001 
3937500000  -4.009810e+001  1.201533e+001 
3940625000  -4.035312e+001  1.077100e+001 
3943750000  -3.930166e+001  1.101881e+001 
3946875000  -3.820699e+001  3.307527e+000 
3950000000  -3.924614e+001  -7.642354e+000 
3953125000  -3.964949e+001  -7.267474e+000 
3956250000  -3.880892e+001  -5.319518e+000 
3959375000  -3.775459e+001  -9.143651e+000 
3962500000  -3.707149e+001  -1.446754e+001 
3965625000  -3.707008e+001  -2.513090e+001 
3968750000  -3.804757e+001  -3.274538e+001 
3971875000  -3.821416e+001  -3.634405e+001 
3975000000  -3.779545e+001  -3.734095e+001 
3978125000  -3.776741e+001  -4.176030e+001 
3981250000  -3.768324e+001  -4.573337e+001 
3984375000  -3.803134e+001  -5.402409e+001 
3987500000  -3.866683e+001  -5.643508e+001 
3990625000  -3.849407e+001  -5.853334e+001 
3993750000  -3.899189e+001  -6.225196e+001 
3996875000  -3.907324e+001  -6.588054e+001 
4000000000  -3.935557e+001  -6.762901e+001 
4003125000  -3.976751e+001  -6.395338e+001 
4006250000  -3.838670e+001  -6.774193e+001 
4009375000  -3.741807e+001  -8.049691e+001 
4012500000  -3.861830e+001  -8.576380e+001 
4015625000  -4.022380e+001  -8.554871e+001 
4018750000  -4.014479e+001  -8.494185e+001 
4021875000  -3.949939e+001  -8.669659e+001 
4025000000  -3.892002e+001  -9.044028e+001 
4028125000  -3.909918e+001  -9.575686e+001 
4031250000  -3.969965e+001  -9.735998e+001 
4034375000  -3.980008e+001  -9.839864e+001 
4037500000  -3.968816e+001  -9.659349e+001 
4040625000  -3.958171e+001  -1.004067e+002 
4043750000  -3.933198e+001  -1.012271e+002 
4046875000  -3.911147e+001  -1.034652e+002 
4050000000  -3.862664e+001  -1.099772e+002 
4053125000  -3.906132e+001  -1.108443e+002 
4056250000  -3.953146e+001  -1.071746e+002 
4059375000  -3.808904e+001  -1.071268e+002 
4062500000  -3.684991e+001  -1.130724e+002 
4065625000  -3.691991e+001  -1.160761e+002 
4068750000  -3.634782e+001  -1.231605e+002 
4071875000  -3.565090e+001  -1.326928e+002 
4075000000  -3.609797e+001  -1.381543e+002 
4078125000  -3.663723e+001  -1.417058e+002 
4081250000  -3.597379e+001  -1.457418e+002 
4084375000  -3.556367e+001  -1.532777e+002 
4087500000  -3.592096e+001  -1.594255e+002 
4090625000  -3.652185e+001  -1.614006e+002 
4093750000  -3.650478e+001  -1.627760e+002 
4096875000  -3.602584e+001  -1.689793e+002 
4100000000  -3.683555e+001  -1.782360e+002 
4103125000  -3.763603e+001  -1.769024e+002 
4106250000  -3.762423e+001  -1.717307e+002 
4109375000  -3.636312e+001  -1.758177e+002 
4112500000  -3.601014e+001  1.761102e+002 
4115625000  -3.638383e+001  1.714286e+002 
4118750000  -3.663522e+001  1.675342e+002 
4121875000  -3.626876e+001  1.624303e+002 
4125000000  -3.673374e+001  1.560058e+002 
4128125000  -3.786885e+001  1.565213e+002 
4131250000  -3.765825e+001  1.641718e+002 
4134375000  -3.522089e+001  1.560051e+002 
4137500000  -3.509916e+001  1.370691e+002 
4140625000  -3.751783e+001  1.288181e+002 
4143750000  -3.865982e+001  1.335540e+002 
4146875000  -3.849607e+001  1.386599e+002 
4150000000  -3.769646e+001  1.351084e+002 
4153125000  -3.747627e+001  1.278666e+002 
4156250000  -3.858536e+001  1.259119e+002 
4159375000  -3.896909e+001  1.316675e+002 
4162500000  -3.778953e+001  1.360285e+002 
4165625000  -3.677866e+001  1.287582e+002 
4168750000  -3.598816e+001  1.225707e+002 
4171875000  -3.624076e+001  1.125495e+002 
4175000000  -3.686135e+001  1.086203e+002 
4178125000  -3.731914e+001  1.061088e+002 
4181250000  -3.704315e+001  1.057878e+002 
4184375000  -3.700772e+001  1.026571e+002 
4187500000  -3.681832e+001  9.999940e+001 
4190625000  -3.684265e+001  9.455801e+001 
4193750000  -3.752846e+001  8.962574e+001 
4196875000  -3.812611e+001  8.895721e+001 
4200000000  -3.940769e+001  9.166436e+001 
4203125000  -3.882203e+001  1.048129e+002 
4206250000  -3.498896e+001  1.034323e+002 
4209375000  -3.430474e+001  8.190941e+001 
4212500000  -3.617292e+001  7.333062e+001 
4215625000  -3.698129e+001  8.176330e+001 
4218750000  -3.539840e+001  8.632992e+001 
4221875000  -3.336400e+001  7.334541e+001 
4225000000  -3.460176e+001  6.189780e+001 
4228125000  -3.492220e+001  6.522792e+001 
4231250000  -3.340917e+001  5.876781e+001 
4234375000  -3.339690e+001  5.007112e+001 
4237500000  -3.286666e+001  4.687663e+001 
4240625000  -3.288086e+001  3.557178e+001 
4243750000  -3.386533e+001  2.696003e+001 
4246875000  -3.491703e+001  2.659680e+001 
4250000000  -3.495714e+001  2.701438e+001 
4253125000  -3.435128e+001  2.436138e+001 
4256250000  -3.465186e+001  2.030497e+001 
4259375000  -3.445474e+001  1.565117e+001 
4262500000  -3.452554e+001  1.115100e+001 
4265625000  -3.475593e+001  1.086121e+001 
4268750000  -3.365689e+001  5.228646e+000 
4271875000  -3.371829e+001  -2.395879e+000 
4275000000  -3.332709e+001  -9.976643e+000 
4278125000  -3.423397e+001  -2.121910e+001 
4281250000  -3.581670e+001  -2.426711e+001 
4284375000  -3.565001e+001  -2.376560e+001 
4287500000  -3.668577e+001  -2.806208e+001 
4290625000  -3.803918e+001  -1.864951e+001 
4293750000  -3.606456e+001  -1.506306e+001 
4296875000  -3.493286e+001  -2.509349e+001 
4300000000  -3.605652e+001  -3.365274e+001 
4303125000  -3.730205e+001  -3.261480e+001 
4306250000  -3.636547e+001  -2.765226e+001 
4309375000  -3.535497e+001  -2.984922e+001 
4312500000  -3.517430e+001  -3.680138e+001 
4315625000  -3.540336e+001  -4.319481e+001 
4318750000  -3.560672e+001  -4.646102e+001 
4321875000  -3.572310e+001  -4.581274e+001 
4325000000  -3.510272e+001  -4.447143e+001 
4328125000  -3.438720e+001  -5.167708e+001 
4331250000  -3.424555e+001  -6.115105e+001 
4334375000  -3.463760e+001  -6.586134e+001 
4337500000  -3.549979e+001  -6.768237e+001 
4340625000  -3.585321e+001  -6.341468e+001 
4343750000  -3.520221e+001  -6.476157e+001 
4346875000  -3.454004e+001  -7.108652e+001 
4350000000  -3.448799e+001  -7.775705e+001 
4353125000  -3.437595e+001  -8.666432e+001 
4356250000  -3.615591e+001  -8.605847e+001 
4359375000  -3.635855e+001  -7.143804e+001 
4362500000  -3.328411e+001  -7.380590e+001 
4365625000  -3.181507e+001  -8.850202e+001 
4368750000  -3.272641e+001  -1.015662e+002 
4371875000  -3.365015e+001  -1.005272e+002 
4375000000  -3.316991e+001  -1.024817e+002 
4378125000  -3.250922e+001  -1.092850e+002 
4381250000  -3.266766e+001  -1.165359e+002 
4384375000  -3.251067e+001  -1.231164e+002 
4387500000  -3.341841e+001  -1.304467e+002 
4390625000  -3.432798e+001  -1.294023e+002 
4393750000  -3.362573e+001  -1.290473e+002 
4396875000  -3.311092e+001  -1.330701e+002 
4400000000  -3.264433e+001  -1.425931e+002 
4403125000  -3.340562e+001  -1.501682e+002 
4406250000  -3.414600e+001  -1.536049e+002 
4409375000  -3.430267e+001  -1.576015e+002 
4412500000  -3.537705e+001  -1.607787e+002 
4415625000  -3.565012e+001  -1.557132e+002 
