!Agilent Technologies,E8363B,MY43030201,A.06.04.32
!Agilent E8363B: A.06.04.32
!Date: Tuesday, November 11, 2014 21:02:33
!Correction: S21(Response(S21)) 
!S1P File: Measurement: S21:
# Hz S  dB   R 50
3000000000  -3.609787e+001  -4.984898e+001 
3003125000  -3.724165e+001  -5.533192e+001 
3006250000  -3.727504e+001  -5.765549e+001 
3009375000  -3.748271e+001  -5.356077e+001 
3012500000  -3.686694e+001  -5.525752e+001 
3015625000  -3.598850e+001  -6.194020e+001 
3018750000  -3.672570e+001  -6.335571e+001 
3021875000  -3.533487e+001  -6.288573e+001 
3025000000  -3.400323e+001  -6.636580e+001 
3028125000  -3.306823e+001  -7.161768e+001 
3031250000  -3.208484e+001  -8.292645e+001 
3034375000  -3.180416e+001  -9.659364e+001 
3037500000  -3.217008e+001  -1.093607e+002 
3040625000  -3.346002e+001  -1.135346e+002 
3043750000  -3.429083e+001  -1.181772e+002 
3046875000  -3.452306e+001  -1.240188e+002 
3050000000  -3.606128e+001  -1.300395e+002 
3053125000  -3.612333e+001  -1.241104e+002 
3056250000  -3.556090e+001  -1.205435e+002 
3059375000  -3.562290e+001  -1.219081e+002 
3062500000  -3.409853e+001  -1.243667e+002 
3065625000  -3.383880e+001  -1.305730e+002 
3068750000  -3.361403e+001  -1.376671e+002 
3071875000  -3.350634e+001  -1.399560e+002 
3075000000  -3.336642e+001  -1.437945e+002 
3078125000  -3.300267e+001  -1.481891e+002 
3081250000  -3.355893e+001  -1.516738e+002 
3084375000  -3.259254e+001  -1.555841e+002 
3087500000  -3.243430e+001  -1.595499e+002 
3090625000  -3.197432e+001  -1.697252e+002 
3093750000  -3.231045e+001  -1.768707e+002 
3096875000  -3.343203e+001  1.769770e+002 
3100000000  -3.329679e+001  1.746927e+002 
3103125000  -3.345990e+001  1.753387e+002 
3106250000  -3.304601e+001  1.707154e+002 
3109375000  -3.319561e+001  1.669858e+002 
3112500000  -3.313185e+001  1.653693e+002 
3115625000  -3.271007e+001  1.599412e+002 
3118750000  -3.307225e+001  1.602321e+002 
3121875000  -3.219501e+001  1.504609e+002 
3125000000  -3.337875e+001  1.461055e+002 
3128125000  -3.435302e+001  1.532066e+002 
3131250000  -3.202503e+001  1.519810e+002 
3134375000  -3.068845e+001  1.362265e+002 
3137500000  -3.129381e+001  1.214781e+002 
3140625000  -3.275034e+001  1.188646e+002 
3143750000  -3.376967e+001  1.205683e+002 
3146875000  -3.331682e+001  1.216954e+002 
3150000000  -3.235949e+001  1.218912e+002 
3153125000  -3.236267e+001  1.126404e+002 
3156250000  -3.334735e+001  1.170903e+002 
3159375000  -3.162144e+001  1.185119e+002 
3162500000  -2.978747e+001  1.042621e+002 
3165625000  -3.075045e+001  9.135468e+001 
3168750000  -3.117899e+001  9.172047e+001 
3171875000  -3.022959e+001  8.628033e+001 
3175000000  -3.105844e+001  7.798852e+001 
3178125000  -3.082349e+001  7.905156e+001 
3181250000  -2.976762e+001  7.340450e+001 
3184375000  -2.902840e+001  6.009990e+001 
3187500000  -3.019360e+001  4.481106e+001 
3190625000  -3.291741e+001  3.742193e+001 
3193750000  -3.357838e+001  4.603886e+001 
3196875000  -3.318167e+001  5.083425e+001 
3200000000  -3.235071e+001  4.828888e+001 
3203125000  -3.145701e+001  4.203967e+001 
3206250000  -3.182818e+001  3.511400e+001 
3209375000  -3.136717e+001  2.956507e+001 
3212500000  -3.156802e+001  2.274571e+001 
3215625000  -3.162747e+001  1.846003e+001 
3218750000  -3.246715e+001  1.176104e+001 
3221875000  -3.322104e+001  5.815677e+000 
3225000000  -3.295317e+001  5.485963e+000 
3228125000  -3.323013e+001  1.231594e-001 
3231250000  -3.393609e+001  -2.370674e+000 
3234375000  -3.366191e+001  -1.475191e+000 
3237500000  -3.362065e+001  -3.630130e+000 
3240625000  -3.320811e+001  -6.194167e+000 
3243750000  -3.277755e+001  -1.346938e+001 
3246875000  -3.321580e+001  -2.074792e+001 
3250000000  -3.355907e+001  -2.330771e+001 
3253125000  -3.375021e+001  -2.523235e+001 
3256250000  -3.333548e+001  -3.170115e+001 
3259375000  -3.360678e+001  -4.019954e+001 
3262500000  -3.476699e+001  -4.399359e+001 
3265625000  -3.541696e+001  -4.139998e+001 
3268750000  -3.523425e+001  -3.988498e+001 
3271875000  -3.474553e+001  -4.010389e+001 
3275000000  -3.375557e+001  -4.683210e+001 
3278125000  -3.418407e+001  -5.353825e+001 
3281250000  -3.438227e+001  -5.273436e+001 
3284375000  -3.390907e+001  -5.943875e+001 
3287500000  -3.407296e+001  -6.268009e+001 
3290625000  -3.444623e+001  -6.886107e+001 
3293750000  -3.412305e+001  -7.513322e+001 
3296875000  -3.516353e+001  -7.562534e+001 
3300000000  -3.490233e+001  -7.516888e+001 
3303125000  -3.388517e+001  -8.094059e+001 
3306250000  -3.354898e+001  -8.809393e+001 
3309375000  -3.337531e+001  -9.442091e+001 
3312500000  -3.340783e+001  -1.056297e+002 
3315625000  -3.441697e+001  -1.142974e+002 
3318750000  -3.582902e+001  -1.161535e+002 
3321875000  -3.700249e+001  -1.172812e+002 
3325000000  -3.751868e+001  -1.119759e+002 
3328125000  -3.721224e+001  -1.118435e+002 
3331250000  -3.591321e+001  -1.050941e+002 
3334375000  -3.329393e+001  -1.142240e+002 
3337500000  -3.341137e+001  -1.337000e+002 
3340625000  -3.473418e+001  -1.453047e+002 
3343750000  -3.679184e+001  -1.469835e+002 
3346875000  -3.698119e+001  -1.449243e+002 
3350000000  -3.633918e+001  -1.458075e+002 
3353125000  -3.640862e+001  -1.506743e+002 
3356250000  -3.597871e+001  -1.584797e+002 
3359375000  -3.678815e+001  -1.667072e+002 
3362500000  -3.788133e+001  -1.727414e+002 
3365625000  -3.828629e+001  -1.737935e+002 
3368750000  -3.918512e+001  -1.764980e+002 
3371875000  -3.946217e+001  -1.772119e+002 
3375000000  -4.060007e+001  1.795124e+002 
3378125000  -4.158849e+001  1.786449e+002 
3381250000  -4.254763e+001  -1.714901e+002 
3384375000  -4.156903e+001  -1.499213e+002 
3387500000  -3.793954e+001  -1.673419e+002 
3390625000  -3.943351e+001  1.749848e+002 
3393750000  -4.078690e+001  1.787257e+002 
3396875000  -3.948062e+001  1.794647e+002 
3400000000  -3.891002e+001  1.721495e+002 
3403125000  -3.960483e+001  1.660626e+002 
3406250000  -3.968347e+001  1.664623e+002 
3409375000  -4.010504e+001  1.571098e+002 
3412500000  -4.049413e+001  1.561156e+002 
3415625000  -4.123287e+001  1.561010e+002 
3418750000  -4.121484e+001  1.579094e+002 
3421875000  -4.139987e+001  1.597621e+002 
3425000000  -4.032695e+001  1.601866e+002 
3428125000  -3.934487e+001  1.560045e+002 
3431250000  -3.940394e+001  1.493302e+002 
3434375000  -3.929128e+001  1.428758e+002 
3437500000  -3.962934e+001  1.392089e+002 
3440625000  -3.996027e+001  1.391543e+002 
3443750000  -3.897311e+001  1.419311e+002 
3446875000  -3.805793e+001  1.342575e+002 
3450000000  -3.763726e+001  1.238486e+002 
3453125000  -3.803673e+001  1.133517e+002 
3456250000  -3.921716e+001  1.073218e+002 
3459375000  -4.021128e+001  1.081342e+002 
3462500000  -4.015139e+001  1.086196e+002 
3465625000  -4.012688e+001  1.026659e+002 
3468750000  -4.025739e+001  9.842766e+001 
3471875000  -4.020413e+001  9.689828e+001 
3475000000  -3.980223e+001  9.270505e+001 
3478125000  -4.060368e+001  8.442196e+001 
3481250000  -4.152238e+001  8.334278e+001 
3484375000  -4.278944e+001  8.832912e+001 
3487500000  -4.169774e+001  8.732188e+001 
3490625000  -4.120146e+001  8.237134e+001 
3493750000  -4.145615e+001  7.549427e+001 
3496875000  -4.216120e+001  7.470781e+001 
3500000000  -4.289893e+001  7.566672e+001 
3503125000  -4.220064e+001  7.908154e+001 
3506250000  -4.080928e+001  7.559337e+001 
3509375000  -4.066346e+001  6.708280e+001 
3512500000  -4.141751e+001  5.766499e+001 
3515625000  -4.187671e+001  5.538262e+001 
3518750000  -4.238671e+001  5.685038e+001 
3521875000  -4.240878e+001  5.549034e+001 
3525000000  -4.355645e+001  5.116441e+001 
3528125000  -4.296282e+001  5.720644e+001 
3531250000  -4.147916e+001  5.580176e+001 
3534375000  -4.138444e+001  4.628549e+001 
3537500000  -4.211175e+001  4.116717e+001 
3540625000  -4.268829e+001  3.766911e+001 
3543750000  -4.368946e+001  4.080870e+001 
3546875000  -4.329819e+001  5.159097e+001 
3550000000  -4.074359e+001  5.293267e+001 
3553125000  -3.946531e+001  3.556423e+001 
3556250000  -4.095329e+001  2.691978e+001 
3559375000  -4.076987e+001  2.805533e+001 
3562500000  -3.978754e+001  1.950107e+001 
3565625000  -4.039950e+001  1.162902e+001 
3568750000  -4.089123e+001  1.337853e+001 
3571875000  -4.069316e+001  1.106101e+001 
3575000000  -4.051680e+001  2.684115e+000 
3578125000  -4.068414e+001  -1.503192e+000 
3581250000  -4.108564e+001  -2.213424e+000 
3584375000  -4.036152e+001  -6.338180e+000 
3587500000  -3.986216e+001  -1.370887e+001 
3590625000  -4.073249e+001  -2.555898e+001 
3593750000  -4.216465e+001  -2.858883e+001 
3596875000  -4.191579e+001  -2.245113e+001 
3600000000  -4.069646e+001  -2.569566e+001 
3603125000  -4.093834e+001  -4.158318e+001 
3606250000  -4.216237e+001  -4.607108e+001 
3609375000  -4.281240e+001  -4.926879e+001 
3612500000  -4.337741e+001  -4.920428e+001 
3615625000  -4.387163e+001  -5.208574e+001 
3618750000  -4.510263e+001  -5.137410e+001 
3621875000  -4.443615e+001  -5.553547e+001 
3625000000  -4.521724e+001  -5.399459e+001 
3628125000  -4.514185e+001  -5.230378e+001 
3631250000  -4.518399e+001  -5.810748e+001 
3634375000  -4.665207e+001  -5.858215e+001 
3637500000  -4.651107e+001  -5.000070e+001 
3640625000  -4.529881e+001  -4.617084e+001 
3643750000  -4.507581e+001  -4.964569e+001 
3646875000  -4.508811e+001  -5.873368e+001 
3650000000  -4.577377e+001  -5.808933e+001 
3653125000  -4.541750e+001  -5.473281e+001 
3656250000  -4.549837e+001  -5.696897e+001 
3659375000  -4.501627e+001  -5.593578e+001 
3662500000  -4.443552e+001  -5.655293e+001 
3665625000  -4.421671e+001  -5.830981e+001 
3668750000  -4.293329e+001  -6.082054e+001 
3671875000  -4.191084e+001  -6.702715e+001 
3675000000  -4.205913e+001  -7.730827e+001 
3678125000  -4.228241e+001  -7.751510e+001 
3681250000  -4.210233e+001  -8.112842e+001 
3684375000  -4.192290e+001  -8.621899e+001 
3687500000  -4.214545e+001  -9.134076e+001 
3690625000  -4.233477e+001  -9.529999e+001 
3693750000  -4.352559e+001  -9.624364e+001 
3696875000  -4.320269e+001  -9.698847e+001 
3700000000  -4.210643e+001  -1.034231e+002 
3703125000  -4.218658e+001  -1.086149e+002 
3706250000  -4.339471e+001  -1.098259e+002 
3709375000  -4.325242e+001  -1.077637e+002 
3712500000  -4.210921e+001  -1.106989e+002 
3715625000  -4.137473e+001  -1.186772e+002 
3718750000  -4.118651e+001  -1.244213e+002 
3721875000  -4.117729e+001  -1.303992e+002 
3725000000  -4.165314e+001  -1.380601e+002 
3728125000  -4.249648e+001  -1.385165e+002 
3731250000  -4.176437e+001  -1.417116e+002 
3734375000  -4.179859e+001  -1.475107e+002 
3737500000  -4.279588e+001  -1.541443e+002 
3740625000  -4.426505e+001  -1.569016e+002 
3743750000  -4.381332e+001  -1.562847e+002 
3746875000  -4.443289e+001  -1.599330e+002 
3750000000  -4.533054e+001  -1.594141e+002 
3753125000  -4.492517e+001  -1.573718e+002 
3756250000  -4.544954e+001  -1.562674e+002 
3759375000  -4.497736e+001  -1.524931e+002 
3762500000  -4.484823e+001  -1.559901e+002 
3765625000  -4.553790e+001  -1.548073e+002 
3768750000  -4.496237e+001  -1.519298e+002 
3771875000  -4.326765e+001  -1.529810e+002 
3775000000  -4.307254e+001  -1.601899e+002 
3778125000  -4.348604e+001  -1.611528e+002 
3781250000  -4.284273e+001  -1.620996e+002 
3784375000  -4.218859e+001  -1.641618e+002 
3787500000  -4.153910e+001  -1.677736e+002 
3790625000  -4.199705e+001  -1.724369e+002 
3793750000  -4.169728e+001  -1.772153e+002 
3796875000  -4.084639e+001  -1.792239e+002 
3800000000  -3.930320e+001  1.780363e+002 
3803125000  -3.961067e+001  1.672811e+002 
3806250000  -4.044412e+001  1.661770e+002 
3809375000  -4.014561e+001  1.626561e+002 
3812500000  -3.907094e+001  1.551116e+002 
3815625000  -3.975092e+001  1.462681e+002 
3818750000  -4.087702e+001  1.441441e+002 
3821875000  -4.084157e+001  1.521464e+002 
3825000000  -3.894118e+001  1.563458e+002 
3828125000  -3.767385e+001  1.373106e+002 
3831250000  -3.819487e+001  1.220729e+002 
3834375000  -4.001736e+001  1.215438e+002 
3837500000  -4.054954e+001  1.236491e+002 
3840625000  -3.982710e+001  1.225417e+002 
3843750000  -3.888281e+001  1.107658e+002 
3846875000  -3.969036e+001  1.025880e+002 
3850000000  -4.092338e+001  1.086266e+002 
3853125000  -4.023252e+001  1.101821e+002 
3856250000  -4.023883e+001  1.045940e+002 
3859375000  -3.967157e+001  9.923190e+001 
3862500000  -3.950023e+001  8.912755e+001 
3865625000  -3.990828e+001  8.584827e+001 
3868750000  -3.976339e+001  8.427998e+001 
3871875000  -3.938109e+001  8.112048e+001 
3875000000  -3.976200e+001  7.289685e+001 
3878125000  -4.069699e+001  7.007385e+001 
3881250000  -4.122068e+001  7.230206e+001 
3884375000  -4.045419e+001  6.878149e+001 
3887500000  -4.076254e+001  6.331297e+001 
3890625000  -4.135417e+001  6.355048e+001 
3893750000  -4.150313e+001  6.119120e+001 
3896875000  -4.188745e+001  6.412490e+001 
3900000000  -4.220039e+001  6.087576e+001 
3903125000  -4.150865e+001  5.922752e+001 
3906250000  -4.094775e+001  5.907108e+001 
3909375000  -4.031694e+001  5.637219e+001 
3912500000  -3.991644e+001  4.926248e+001 
3915625000  -4.132273e+001  5.009011e+001 
3918750000  -4.109968e+001  5.154265e+001 
3921875000  -4.105279e+001  4.680223e+001 
3925000000  -3.958549e+001  4.688367e+001 
3928125000  -3.899971e+001  3.778413e+001 
3931250000  -3.939532e+001  3.177615e+001 
3934375000  -3.953859e+001  3.183022e+001 
3937500000  -3.964108e+001  2.973354e+001 
3940625000  -4.004649e+001  2.926427e+001 
3943750000  -3.901525e+001  2.747770e+001 
3946875000  -3.770966e+001  2.201879e+001 
3950000000  -3.839985e+001  1.007620e+001 
3953125000  -3.950681e+001  1.068138e+001 
3956250000  -3.846270e+001  1.224559e+001 
3959375000  -3.707415e+001  6.863972e+000 
3962500000  -3.665367e+001  2.438509e+000 
3965625000  -3.667105e+001  -8.151258e+000 
3968750000  -3.762429e+001  -1.621248e+001 
3971875000  -3.801782e+001  -1.794599e+001 
3975000000  -3.739964e+001  -2.218656e+001 
3978125000  -3.729617e+001  -2.610086e+001 
3981250000  -3.741648e+001  -3.026753e+001 
3984375000  -3.767676e+001  -3.851677e+001 
3987500000  -3.839577e+001  -4.133451e+001 
3990625000  -3.832344e+001  -4.253056e+001 
3993750000  -3.878662e+001  -4.683796e+001 
3996875000  -3.886879e+001  -5.122789e+001 
4000000000  -3.934886e+001  -5.231513e+001 
4003125000  -3.986902e+001  -5.070811e+001 
4006250000  -3.868471e+001  -5.186406e+001 
4009375000  -3.777585e+001  -6.478082e+001 
4012500000  -3.882026e+001  -7.126001e+001 
4015625000  -4.028236e+001  -7.041805e+001 
4018750000  -4.042833e+001  -6.891160e+001 
4021875000  -3.991625e+001  -7.042452e+001 
4025000000  -3.989763e+001  -7.373396e+001 
4028125000  -3.969713e+001  -7.710839e+001 
4031250000  -4.020771e+001  -8.039074e+001 
4034375000  -4.036307e+001  -8.141231e+001 
4037500000  -3.980252e+001  -7.758517e+001 
4040625000  -3.969895e+001  -8.187511e+001 
4043750000  -3.983789e+001  -8.105097e+001 
4046875000  -3.932015e+001  -8.375738e+001 
4050000000  -3.897666e+001  -8.986237e+001 
4053125000  -3.932401e+001  -8.894963e+001 
4056250000  -3.961900e+001  -8.778918e+001 
4059375000  -3.811465e+001  -8.590916e+001 
4062500000  -3.668890e+001  -9.199684e+001 
4065625000  -3.645295e+001  -9.735220e+001 
4068750000  -3.617063e+001  -1.033334e+002 
4071875000  -3.548797e+001  -1.127591e+002 
4075000000  -3.574155e+001  -1.194598e+002 
4078125000  -3.626134e+001  -1.223192e+002 
4081250000  -3.575134e+001  -1.263889e+002 
4084375000  -3.530328e+001  -1.337899e+002 
4087500000  -3.557173e+001  -1.407630e+002 
4090625000  -3.613136e+001  -1.434996e+002 
4093750000  -3.608336e+001  -1.442493e+002 
4096875000  -3.554646e+001  -1.519948e+002 
4100000000  -3.642750e+001  -1.596605e+002 
4103125000  -3.739168e+001  -1.601995e+002 
4106250000  -3.710261e+001  -1.561806e+002 
4109375000  -3.632157e+001  -1.584829e+002 
4112500000  -3.586835e+001  -1.673744e+002 
4115625000  -3.609560e+001  -1.728511e+002 
4118750000  -3.652674e+001  -1.763460e+002 
4121875000  -3.591050e+001  1.776216e+002 
4125000000  -3.637697e+001  1.718398e+002 
4128125000  -3.746775e+001  1.710275e+002 
4131250000  -3.750352e+001  1.789532e+002 
4134375000  -3.519379e+001  1.722528e+002 
4137500000  -3.521889e+001  1.519023e+002 
4140625000  -3.733065e+001  1.438314e+002 
4143750000  -3.903060e+001  1.480381e+002 
4146875000  -3.860992e+001  1.546359e+002 
4150000000  -3.798851e+001  1.514813e+002 
4153125000  -3.788154e+001  1.440747e+002 
4156250000  -3.904473e+001  1.412228e+002 
4159375000  -3.920548e+001  1.468702e+002 
4162500000  -3.811512e+001  1.512511e+002 
4165625000  -3.720340e+001  1.467370e+002 
4168750000  -3.677493e+001  1.387844e+002 
4171875000  -3.666352e+001  1.303673e+002 
4175000000  -3.736014e+001  1.262300e+002 
4178125000  -3.787687e+001  1.261533e+002 
4181250000  -3.739728e+001  1.277902e+002 
4184375000  -3.742300e+001  1.230051e+002 
4187500000  -3.729605e+001  1.200085e+002 
4190625000  -3.709603e+001  1.153222e+002 
4193750000  -3.771488e+001  1.102306e+002 
4196875000  -3.840498e+001  1.093579e+002 
4200000000  -3.903595e+001  1.130562e+002 
4203125000  -3.879223e+001  1.245471e+002 
4206250000  -3.522483e+001  1.238778e+002 
4209375000  -3.423389e+001  1.022125e+002 
4212500000  -3.605288e+001  9.479436e+001 
4215625000  -3.693189e+001  9.971609e+001 
4218750000  -3.547810e+001  1.053213e+002 
4221875000  -3.304875e+001  9.430090e+001 
4225000000  -3.438852e+001  8.030564e+001 
4228125000  -3.487138e+001  8.523799e+001 
4231250000  -3.323360e+001  7.951524e+001 
4234375000  -3.297701e+001  6.887824e+001 
4237500000  -3.269353e+001  6.399283e+001 
4240625000  -3.247104e+001  5.379252e+001 
4243750000  -3.368798e+001  4.623832e+001 
4246875000  -3.462607e+001  4.467930e+001 
4250000000  -3.453226e+001  4.573326e+001 
4253125000  -3.412872e+001  4.181990e+001 
4256250000  -3.439377e+001  3.847414e+001 
4259375000  -3.412896e+001  3.341921e+001 
4262500000  -3.433158e+001  2.885448e+001 
4265625000  -3.423203e+001  2.784101e+001 
4268750000  -3.354477e+001  2.158299e+001 
4271875000  -3.364473e+001  1.415602e+001 
4275000000  -3.317686e+001  5.216717e+000 
4278125000  -3.404408e+001  -6.333871e+000 
4281250000  -3.589835e+001  -9.136480e+000 
4284375000  -3.581451e+001  -7.633838e+000 
4287500000  -3.662000e+001  -1.308906e+001 
4290625000  -3.828965e+001  -3.389309e+000 
4293750000  -3.648659e+001  -1.092356e-001 
4296875000  -3.539131e+001  -1.084812e+001 
4300000000  -3.640368e+001  -1.899789e+001 
4303125000  -3.748417e+001  -1.712193e+001 
4306250000  -3.704304e+001  -1.067342e+001 
4309375000  -3.576437e+001  -1.290630e+001 
4312500000  -3.566436e+001  -2.053400e+001 
4315625000  -3.582868e+001  -2.539872e+001 
4318750000  -3.620277e+001  -2.825127e+001 
4321875000  -3.638228e+001  -2.638614e+001 
4325000000  -3.570381e+001  -2.537148e+001 
4328125000  -3.503154e+001  -3.171982e+001 
4331250000  -3.466425e+001  -4.031837e+001 
4334375000  -3.505112e+001  -4.470157e+001 
4337500000  -3.578441e+001  -4.679346e+001 
4340625000  -3.616143e+001  -4.419580e+001 
4343750000  -3.543755e+001  -4.417943e+001 
4346875000  -3.485833e+001  -4.975923e+001 
4350000000  -3.462486e+001  -5.571321e+001 
4353125000  -3.462366e+001  -6.402143e+001 
4356250000  -3.614735e+001  -6.607603e+001 
4359375000  -3.644987e+001  -5.398869e+001 
4362500000  -3.360268e+001  -5.235182e+001 
4365625000  -3.182956e+001  -6.703082e+001 
4368750000  -3.257586e+001  -8.026755e+001 
4371875000  -3.345598e+001  -8.124566e+001 
4375000000  -3.308028e+001  -8.210410e+001 
4378125000  -3.231342e+001  -8.827553e+001 
4381250000  -3.251893e+001  -9.685478e+001 
4384375000  -3.224558e+001  -1.031869e+002 
4387500000  -3.304023e+001  -1.104433e+002 
4390625000  -3.393082e+001  -1.111496e+002 
4393750000  -3.326094e+001  -1.107731e+002 
4396875000  -3.276491e+001  -1.143554e+002 
4400000000  -3.223943e+001  -1.235908e+002 
4403125000  -3.297680e+001  -1.328116e+002 
4406250000  -3.383595e+001  -1.362367e+002 
4409375000  -3.398663e+001  -1.405740e+002 
4412500000  -3.502789e+001  -1.443205e+002 
4415625000  -3.576886e+001  -1.405971e+002 
