!Agilent Technologies,E8363B,MY43030201,A.06.04.32
!Agilent E8363B: A.06.04.32
!Date: Tuesday, November 11, 2014 21:10:22
!Correction: S21(Response(S21)) 
!S1P File: Measurement: S21:
# Hz S  dB   R 50
3000000000  -3.648055e+001  -5.457448e+001 
3003125000  -3.770494e+001  -6.096934e+001 
3006250000  -3.760260e+001  -6.275488e+001 
3009375000  -3.800547e+001  -5.834611e+001 
3012500000  -3.703073e+001  -6.056879e+001 
3015625000  -3.624557e+001  -6.837431e+001 
3018750000  -3.693051e+001  -6.909920e+001 
3021875000  -3.565357e+001  -6.843531e+001 
3025000000  -3.414670e+001  -7.170100e+001 
3028125000  -3.318719e+001  -7.856039e+001 
3031250000  -3.221763e+001  -9.004028e+001 
3034375000  -3.188052e+001  -1.033797e+002 
3037500000  -3.231328e+001  -1.155539e+002 
3040625000  -3.363293e+001  -1.197501e+002 
3043750000  -3.425671e+001  -1.255522e+002 
3046875000  -3.454583e+001  -1.319794e+002 
3050000000  -3.621834e+001  -1.378745e+002 
3053125000  -3.600494e+001  -1.311641e+002 
3056250000  -3.559592e+001  -1.288336e+002 
3059375000  -3.563196e+001  -1.292642e+002 
3062500000  -3.418710e+001  -1.321581e+002 
3065625000  -3.388622e+001  -1.386986e+002 
3068750000  -3.359987e+001  -1.461298e+002 
3071875000  -3.344623e+001  -1.479843e+002 
3075000000  -3.332388e+001  -1.519693e+002 
3078125000  -3.306038e+001  -1.560675e+002 
3081250000  -3.356255e+001  -1.606413e+002 
3084375000  -3.258139e+001  -1.637836e+002 
3087500000  -3.259071e+001  -1.679305e+002 
3090625000  -3.201637e+001  -1.783622e+002 
3093750000  -3.247509e+001  1.741697e+002 
3096875000  -3.348583e+001  1.685296e+002 
3100000000  -3.334494e+001  1.666299e+002 
3103125000  -3.365266e+001  1.671068e+002 
3106250000  -3.321171e+001  1.632023e+002 
3109375000  -3.324906e+001  1.587802e+002 
3112500000  -3.319910e+001  1.566622e+002 
3115625000  -3.298207e+001  1.517089e+002 
3118750000  -3.319653e+001  1.516527e+002 
3121875000  -3.232412e+001  1.426918e+002 
3125000000  -3.365302e+001  1.387480e+002 
3128125000  -3.447181e+001  1.460562e+002 
3131250000  -3.213121e+001  1.433521e+002 
3134375000  -3.078170e+001  1.282970e+002 
3137500000  -3.130298e+001  1.146351e+002 
3140625000  -3.282329e+001  1.116120e+002 
3143750000  -3.373079e+001  1.135591e+002 
3146875000  -3.327143e+001  1.139521e+002 
3150000000  -3.231466e+001  1.141161e+002 
3153125000  -3.236351e+001  1.047978e+002 
3156250000  -3.331596e+001  1.099339e+002 
3159375000  -3.154528e+001  1.111394e+002 
3162500000  -2.966573e+001  9.629467e+001 
3165625000  -3.073971e+001  8.411899e+001 
3168750000  -3.104703e+001  8.482142e+001 
3171875000  -3.011226e+001  7.877798e+001 
3175000000  -3.089459e+001  6.972896e+001 
3178125000  -3.060073e+001  7.129269e+001 
3181250000  -2.956740e+001  6.517415e+001 
3184375000  -2.891519e+001  5.287301e+001 
3187500000  -3.013687e+001  3.720514e+001 
3190625000  -3.277803e+001  2.963575e+001 
3193750000  -3.329853e+001  3.791916e+001 
3196875000  -3.298928e+001  4.247179e+001 
3200000000  -3.198840e+001  3.990456e+001 
3203125000  -3.124756e+001  3.317807e+001 
3206250000  -3.159560e+001  2.652285e+001 
3209375000  -3.104072e+001  2.035658e+001 
3212500000  -3.135814e+001  1.340916e+001 
3215625000  -3.137013e+001  9.944761e+000 
3218750000  -3.216302e+001  2.350045e+000 
3221875000  -3.289579e+001  -2.390558e+000 
3225000000  -3.257268e+001  -4.161771e+000 
3228125000  -3.298394e+001  -9.417656e+000 
3231250000  -3.367639e+001  -1.177975e+001 
3234375000  -3.332226e+001  -1.135616e+001 
3237500000  -3.330489e+001  -1.329348e+001 
3240625000  -3.290359e+001  -1.654515e+001 
3243750000  -3.250758e+001  -2.412753e+001 
3246875000  -3.299689e+001  -3.109045e+001 
3250000000  -3.343348e+001  -3.317334e+001 
3253125000  -3.347882e+001  -3.582857e+001 
3256250000  -3.301035e+001  -4.177775e+001 
3259375000  -3.335770e+001  -5.120831e+001 
3262500000  -3.464921e+001  -5.487815e+001 
3265625000  -3.524316e+001  -5.220993e+001 
3268750000  -3.508357e+001  -4.994746e+001 
3271875000  -3.469122e+001  -5.027727e+001 
3275000000  -3.365125e+001  -5.673113e+001 
3278125000  -3.414328e+001  -6.335409e+001 
3281250000  -3.427690e+001  -6.245898e+001 
3284375000  -3.392266e+001  -7.005068e+001 
3287500000  -3.399526e+001  -7.325378e+001 
3290625000  -3.424393e+001  -7.909441e+001 
3293750000  -3.411422e+001  -8.526397e+001 
3296875000  -3.504934e+001  -8.579941e+001 
3300000000  -3.475716e+001  -8.425091e+001 
3303125000  -3.363630e+001  -9.083115e+001 
3306250000  -3.348357e+001  -9.716042e+001 
3309375000  -3.319382e+001  -1.036492e+002 
3312500000  -3.321170e+001  -1.153587e+002 
3315625000  -3.425840e+001  -1.224897e+002 
3318750000  -3.564390e+001  -1.259691e+002 
3321875000  -3.675082e+001  -1.254576e+002 
3325000000  -3.717276e+001  -1.200158e+002 
3328125000  -3.675798e+001  -1.201103e+002 
3331250000  -3.564207e+001  -1.125618e+002 
3334375000  -3.290509e+001  -1.241757e+002 
3337500000  -3.297672e+001  -1.436833e+002 
3340625000  -3.436289e+001  -1.539288e+002 
3343750000  -3.647544e+001  -1.555733e+002 
3346875000  -3.651734e+001  -1.537272e+002 
3350000000  -3.591521e+001  -1.553879e+002 
3353125000  -3.608150e+001  -1.607305e+002 
3356250000  -3.540722e+001  -1.690156e+002 
3359375000  -3.634819e+001  -1.770158e+002 
3362500000  -3.743578e+001  1.779634e+002 
3365625000  -3.780944e+001  1.759354e+002 
3368750000  -3.854581e+001  1.739356e+002 
3371875000  -3.891877e+001  1.707419e+002 
3375000000  -4.021872e+001  1.691203e+002 
3378125000  -4.122514e+001  1.670985e+002 
3381250000  -4.250801e+001  1.765327e+002 
3384375000  -4.089520e+001  -1.622392e+002 
3387500000  -3.755920e+001  -1.791452e+002 
3390625000  -3.921355e+001  1.627298e+002 
3393750000  -4.045135e+001  1.653044e+002 
3396875000  -3.911892e+001  1.668665e+002 
3400000000  -3.852025e+001  1.581232e+002 
3403125000  -3.926357e+001  1.541783e+002 
3406250000  -3.966034e+001  1.536371e+002 
3409375000  -3.973933e+001  1.439983e+002 
3412500000  -4.018030e+001  1.436068e+002 
3415625000  -4.093956e+001  1.439437e+002 
3418750000  -4.091415e+001  1.442940e+002 
3421875000  -4.111162e+001  1.482758e+002 
3425000000  -4.015248e+001  1.483556e+002 
3428125000  -3.936619e+001  1.436461e+002 
3431250000  -3.926809e+001  1.365042e+002 
3434375000  -3.907107e+001  1.303229e+002 
3437500000  -3.975278e+001  1.271336e+002 
3440625000  -3.975842e+001  1.290254e+002 
3443750000  -3.878459e+001  1.304031e+002 
3446875000  -3.785555e+001  1.214475e+002 
3450000000  -3.759830e+001  1.111180e+002 
3453125000  -3.797409e+001  1.010443e+002 
3456250000  -3.911580e+001  9.504807e+001 
3459375000  -4.006377e+001  9.601069e+001 
3462500000  -3.957753e+001  9.686003e+001 
3465625000  -3.998043e+001  9.023395e+001 
3468750000  -4.005122e+001  8.636754e+001 
3471875000  -3.991973e+001  8.236837e+001 
3475000000  -3.971645e+001  8.069489e+001 
3478125000  -4.024393e+001  7.210899e+001 
3481250000  -4.142118e+001  6.905694e+001 
3484375000  -4.224985e+001  7.326990e+001 
3487500000  -4.135232e+001  7.379015e+001 
3490625000  -4.066029e+001  6.898438e+001 
3493750000  -4.105140e+001  6.180103e+001 
3496875000  -4.197955e+001  6.201691e+001 
3500000000  -4.250067e+001  6.295568e+001 
3503125000  -4.195753e+001  6.601636e+001 
3506250000  -4.052592e+001  5.924965e+001 
3509375000  -4.036435e+001  4.868647e+001 
3512500000  -4.093460e+001  4.116668e+001 
3515625000  -4.189154e+001  3.889610e+001 
3518750000  -4.254340e+001  3.940180e+001 
3521875000  -4.259437e+001  3.799183e+001 
3525000000  -4.343997e+001  3.442681e+001 
3528125000  -4.346597e+001  4.338263e+001 
3531250000  -4.194177e+001  4.075941e+001 
3534375000  -4.195746e+001  3.019428e+001 
3537500000  -4.241102e+001  2.366891e+001 
3540625000  -4.331019e+001  2.459212e+001 
3543750000  -4.389675e+001  2.660889e+001 
3546875000  -4.388836e+001  4.149346e+001 
3550000000  -4.117589e+001  3.964339e+001 
3553125000  -4.008371e+001  2.260250e+001 
3556250000  -4.164622e+001  1.637756e+001 
3559375000  -4.098639e+001  1.680599e+001 
3562500000  -4.025420e+001  9.288003e+000 
3565625000  -4.104089e+001  5.720540e-001 
3568750000  -4.138458e+001  3.716122e+000 
3571875000  -4.088486e+001  2.390087e+000 
3575000000  -4.052839e+001  -5.164651e+000 
3578125000  -4.117306e+001  -1.056914e+001 
3581250000  -4.131651e+001  -1.038524e+001 
3584375000  -4.070551e+001  -1.395735e+001 
3587500000  -3.977522e+001  -2.255471e+001 
3590625000  -4.052692e+001  -3.316830e+001 
3593750000  -4.167931e+001  -3.490908e+001 
3596875000  -4.145118e+001  -2.845709e+001 
3600000000  -4.020990e+001  -3.656050e+001 
3603125000  -4.057573e+001  -4.964507e+001 
3606250000  -4.155534e+001  -5.326253e+001 
3609375000  -4.212742e+001  -5.458285e+001 
3612500000  -4.250946e+001  -5.976883e+001 
3615625000  -4.286649e+001  -6.263013e+001 
3618750000  -4.348354e+001  -6.059133e+001 
3621875000  -4.370113e+001  -6.577715e+001 
3625000000  -4.433262e+001  -6.564041e+001 
3628125000  -4.428426e+001  -6.979245e+001 
3631250000  -4.383698e+001  -7.456336e+001 
3634375000  -4.585191e+001  -7.322760e+001 
3637500000  -4.582388e+001  -6.677410e+001 
3640625000  -4.464200e+001  -6.854991e+001 
3643750000  -4.447274e+001  -7.050054e+001 
3646875000  -4.511933e+001  -7.697520e+001 
3650000000  -4.568260e+001  -7.785744e+001 
3653125000  -4.578254e+001  -7.653633e+001 
3656250000  -4.535818e+001  -8.141235e+001 
3659375000  -4.534184e+001  -7.538495e+001 
3662500000  -4.457319e+001  -7.659905e+001 
3665625000  -4.496646e+001  -7.699623e+001 
3668750000  -4.379138e+001  -7.914619e+001 
3671875000  -4.282244e+001  -8.398923e+001 
3675000000  -4.285686e+001  -8.982008e+001 
3678125000  -4.331422e+001  -9.354736e+001 
3681250000  -4.290323e+001  -9.407571e+001 
3684375000  -4.268068e+001  -9.878994e+001 
3687500000  -4.306366e+001  -1.048719e+002 
3690625000  -4.323668e+001  -1.083296e+002 
3693750000  -4.403241e+001  -1.084899e+002 
3696875000  -4.350172e+001  -1.063676e+002 
3700000000  -4.275775e+001  -1.120312e+002 
3703125000  -4.318624e+001  -1.187949e+002 
3706250000  -4.381027e+001  -1.202489e+002 
3709375000  -4.343914e+001  -1.155240e+002 
3712500000  -4.253405e+001  -1.187574e+002 
3715625000  -4.119425e+001  -1.261842e+002 
3718750000  -4.109094e+001  -1.319686e+002 
3721875000  -4.116483e+001  -1.396326e+002 
3725000000  -4.150612e+001  -1.450881e+002 
3728125000  -4.186550e+001  -1.468857e+002 
3731250000  -4.161257e+001  -1.497467e+002 
3734375000  -4.123896e+001  -1.549261e+002 
3737500000  -4.227003e+001  -1.636068e+002 
3740625000  -4.302469e+001  -1.665760e+002 
3743750000  -4.349802e+001  -1.683224e+002 
3746875000  -4.336780e+001  -1.729980e+002 
3750000000  -4.407296e+001  -1.729726e+002 
3753125000  -4.387024e+001  -1.715026e+002 
3756250000  -4.465981e+001  -1.729960e+002 
3759375000  -4.452079e+001  -1.724330e+002 
3762500000  -4.412861e+001  -1.722908e+002 
3765625000  -4.499021e+001  -1.756399e+002 
3768750000  -4.496384e+001  -1.711994e+002 
3771875000  -4.324655e+001  -1.714648e+002 
3775000000  -4.318753e+001  -1.764801e+002 
3778125000  -4.348932e+001  1.776075e+002 
3781250000  -4.336985e+001  1.774772e+002 
3784375000  -4.278478e+001  1.773271e+002 
3787500000  -4.208541e+001  1.741681e+002 
3790625000  -4.280329e+001  1.685897e+002 
3793750000  -4.244546e+001  1.673824e+002 
3796875000  -4.125088e+001  1.651377e+002 
3800000000  -3.968426e+001  1.644520e+002 
3803125000  -4.025221e+001  1.553899e+002 
3806250000  -4.102353e+001  1.508264e+002 
3809375000  -4.062167e+001  1.501449e+002 
3812500000  -3.978465e+001  1.409376e+002 
3815625000  -4.051873e+001  1.339138e+002 
3818750000  -4.147166e+001  1.331388e+002 
3821875000  -4.121583e+001  1.408543e+002 
3825000000  -3.940139e+001  1.435336e+002 
3828125000  -3.798078e+001  1.281592e+002 
3831250000  -3.873376e+001  1.122763e+002 
3834375000  -4.010097e+001  1.108401e+002 
3837500000  -4.091744e+001  1.145779e+002 
3840625000  -3.983031e+001  1.128023e+002 
3843750000  -3.886692e+001  1.010468e+002 
3846875000  -3.975284e+001  9.280572e+001 
3850000000  -4.121388e+001  9.747530e+001 
3853125000  -4.014191e+001  1.008373e+002 
3856250000  -4.045580e+001  9.322087e+001 
3859375000  -3.967822e+001  8.779208e+001 
3862500000  -3.955630e+001  7.908208e+001 
3865625000  -3.978347e+001  7.455874e+001 
3868750000  -3.949286e+001  7.444353e+001 
3871875000  -3.910435e+001  7.045913e+001 
3875000000  -3.951936e+001  5.928444e+001 
3878125000  -4.091197e+001  6.076966e+001 
3881250000  -4.054079e+001  6.109423e+001 
3884375000  -4.017484e+001  5.620087e+001 
3887500000  -4.053048e+001  5.180756e+001 
3890625000  -4.101520e+001  5.073441e+001 
3893750000  -4.118763e+001  4.753211e+001 
3896875000  -4.171857e+001  4.859837e+001 
3900000000  -4.168897e+001  4.883691e+001 
3903125000  -4.111951e+001  4.496551e+001 
3906250000  -4.060064e+001  4.296467e+001 
3909375000  -4.020137e+001  3.854378e+001 
3912500000  -4.041142e+001  3.317419e+001 
3915625000  -4.144639e+001  3.457558e+001 
3918750000  -4.094578e+001  3.545568e+001 
3921875000  -4.070023e+001  3.185676e+001 
3925000000  -3.978876e+001  2.923035e+001 
3928125000  -3.921813e+001  2.006993e+001 
3931250000  -3.970950e+001  1.699452e+001 
3934375000  -4.007646e+001  1.883195e+001 
3937500000  -4.042538e+001  1.489467e+001 
3940625000  -4.033102e+001  1.217060e+001 
3943750000  -3.913636e+001  1.296323e+001 
3946875000  -3.818472e+001  6.519876e+000 
3950000000  -3.914911e+001  -2.644546e+000 
3953125000  -3.975261e+001  -3.549622e+000 
3956250000  -3.909804e+001  2.414748e-001 
3959375000  -3.761493e+001  -5.780754e+000 
3962500000  -3.729392e+001  -9.070936e+000 
3965625000  -3.704331e+001  -2.107350e+001 
3968750000  -3.817903e+001  -2.707109e+001 
3971875000  -3.834064e+001  -3.107525e+001 
3975000000  -3.788362e+001  -3.268781e+001 
3978125000  -3.770119e+001  -3.802517e+001 
3981250000  -3.770595e+001  -4.347230e+001 
3984375000  -3.799059e+001  -4.908259e+001 
3987500000  -3.873960e+001  -5.167822e+001 
3990625000  -3.868913e+001  -5.300237e+001 
3993750000  -3.884157e+001  -5.685695e+001 
3996875000  -3.890676e+001  -6.212464e+001 
4000000000  -3.934695e+001  -6.075636e+001 
4003125000  -3.955387e+001  -5.970176e+001 
4006250000  -3.840437e+001  -6.221216e+001 
4009375000  -3.717526e+001  -7.484111e+001 
4012500000  -3.852905e+001  -8.125260e+001 
4015625000  -3.994265e+001  -8.181095e+001 
4018750000  -3.993568e+001  -8.159902e+001 
4021875000  -3.912335e+001  -8.242660e+001 
4025000000  -3.909960e+001  -8.473197e+001 
4028125000  -3.914639e+001  -9.188760e+001 
4031250000  -3.967545e+001  -9.579135e+001 
4034375000  -3.987929e+001  -9.392218e+001 
4037500000  -3.966637e+001  -9.342179e+001 
4040625000  -3.927528e+001  -9.879330e+001 
4043750000  -3.946479e+001  -9.908749e+001 
4046875000  -3.903677e+001  -1.001485e+002 
4050000000  -3.838816e+001  -1.047812e+002 
4053125000  -3.930623e+001  -1.076731e+002 
4056250000  -3.938875e+001  -1.038039e+002 
4059375000  -3.815158e+001  -1.034716e+002 
4062500000  -3.687977e+001  -1.094572e+002 
4065625000  -3.662042e+001  -1.123032e+002 
4068750000  -3.639642e+001  -1.194360e+002 
4071875000  -3.574215e+001  -1.297268e+002 
4075000000  -3.620573e+001  -1.359057e+002 
4078125000  -3.678077e+001  -1.382327e+002 
4081250000  -3.607113e+001  -1.414131e+002 
4084375000  -3.573013e+001  -1.498380e+002 
4087500000  -3.606849e+001  -1.563266e+002 
4090625000  -3.684144e+001  -1.577552e+002 
4093750000  -3.648138e+001  -1.592067e+002 
4096875000  -3.614637e+001  -1.662096e+002 
4100000000  -3.676826e+001  -1.738326e+002 
4103125000  -3.776625e+001  -1.725697e+002 
4106250000  -3.744077e+001  -1.682359e+002 
4109375000  -3.650264e+001  -1.714101e+002 
4112500000  -3.618644e+001  -1.795022e+002 
4115625000  -3.660404e+001  1.769220e+002 
4118750000  -3.669691e+001  1.722738e+002 
4121875000  -3.641752e+001  1.659122e+002 
4125000000  -3.665917e+001  1.598119e+002 
4128125000  -3.792187e+001  1.616484e+002 
4131250000  -3.745618e+001  1.671237e+002 
4134375000  -3.505075e+001  1.599860e+002 
4137500000  -3.532436e+001  1.409129e+002 
4140625000  -3.754502e+001  1.338665e+002 
4143750000  -3.905013e+001  1.384094e+002 
4146875000  -3.828694e+001  1.450663e+002 
4150000000  -3.770162e+001  1.411075e+002 
4153125000  -3.765005e+001  1.333930e+002 
4156250000  -3.867523e+001  1.307560e+002 
4159375000  -3.874641e+001  1.348720e+002 
4162500000  -3.742397e+001  1.404717e+002 
4165625000  -3.664057e+001  1.343119e+002 
4168750000  -3.596096e+001  1.264554e+002 
4171875000  -3.602001e+001  1.165595e+002 
4175000000  -3.690030e+001  1.097892e+002 
4178125000  -3.725183e+001  1.101424e+002 
4181250000  -3.710774e+001  1.107723e+002 
4184375000  -3.696925e+001  1.069605e+002 
4187500000  -3.691842e+001  1.039995e+002 
4190625000  -3.692145e+001  9.754426e+001 
4193750000  -3.753092e+001  9.387939e+001 
4196875000  -3.841214e+001  9.319516e+001 
4200000000  -3.927341e+001  9.470094e+001 
4203125000  -3.890217e+001  1.092059e+002 
4206250000  -3.545559e+001  1.067054e+002 
4209375000  -3.435148e+001  8.694534e+001 
4212500000  -3.639999e+001  7.695128e+001 
4215625000  -3.730663e+001  8.305089e+001 
4218750000  -3.572663e+001  8.750392e+001 
4221875000  -3.315362e+001  7.868318e+001 
4225000000  -3.448056e+001  6.446078e+001 
4228125000  -3.503151e+001  6.815094e+001 
4231250000  -3.345515e+001  6.385793e+001 
4234375000  -3.343145e+001  5.440984e+001 
4237500000  -3.298108e+001  4.992661e+001 
4240625000  -3.302594e+001  3.890205e+001 
4243750000  -3.403182e+001  3.173060e+001 
4246875000  -3.512292e+001  3.119759e+001 
4250000000  -3.494207e+001  3.217503e+001 
4253125000  -3.449470e+001  3.011103e+001 
4256250000  -3.482481e+001  2.390542e+001 
4259375000  -3.448848e+001  2.102261e+001 
4262500000  -3.475233e+001  1.617144e+001 
4265625000  -3.492049e+001  1.367342e+001 
4268750000  -3.393439e+001  9.585226e+000 
4271875000  -3.372578e+001  2.659367e+000 
4275000000  -3.340067e+001  -5.688367e+000 
4278125000  -3.430428e+001  -1.767589e+001 
4281250000  -3.599443e+001  -1.957734e+001 
4284375000  -3.581437e+001  -1.996438e+001 
4287500000  -3.701928e+001  -2.378472e+001 
4290625000  -3.825721e+001  -1.485716e+001 
4293750000  -3.598310e+001  -1.048702e+001 
4296875000  -3.516768e+001  -2.191315e+001 
4300000000  -3.603080e+001  -2.997497e+001 
4303125000  -3.720993e+001  -2.874433e+001 
4306250000  -3.657128e+001  -2.140399e+001 
4309375000  -3.545772e+001  -2.409425e+001 
4312500000  -3.495792e+001  -3.407133e+001 
4315625000  -3.528716e+001  -3.925389e+001 
4318750000  -3.557426e+001  -4.248722e+001 
4321875000  -3.587355e+001  -4.116606e+001 
4325000000  -3.520807e+001  -4.118028e+001 
4328125000  -3.441778e+001  -4.772693e+001 
4331250000  -3.428261e+001  -5.673903e+001 
4334375000  -3.483321e+001  -6.147293e+001 
4337500000  -3.544415e+001  -6.485273e+001 
4340625000  -3.609308e+001  -6.116672e+001 
4343750000  -3.513454e+001  -6.147028e+001 
4346875000  -3.484826e+001  -6.849941e+001 
4350000000  -3.452784e+001  -7.381609e+001 
4353125000  -3.470114e+001  -8.183016e+001 
4356250000  -3.652393e+001  -8.514131e+001 
4359375000  -3.662972e+001  -6.907024e+001 
4362500000  -3.359699e+001  -7.061189e+001 
4365625000  -3.202438e+001  -8.503105e+001 
4368750000  -3.295209e+001  -9.737197e+001 
4371875000  -3.407250e+001  -9.731464e+001 
4375000000  -3.334351e+001  -9.840699e+001 
4378125000  -3.289610e+001  -1.058257e+002 
4381250000  -3.299862e+001  -1.119067e+002 
4384375000  -3.284515e+001  -1.188735e+002 
4387500000  -3.364191e+001  -1.255133e+002 
4390625000  -3.456723e+001  -1.259964e+002 
4393750000  -3.373944e+001  -1.251496e+002 
4396875000  -3.332301e+001  -1.290336e+002 
4400000000  -3.282501e+001  -1.371159e+002 
4403125000  -3.344647e+001  -1.462345e+002 
4406250000  -3.425283e+001  -1.482039e+002 
4409375000  -3.445466e+001  -1.531080e+002 
4412500000  -3.567521e+001  -1.556244e+002 
4415625000  -3.587746e+001  -1.503679e+002 
