!Agilent Technologies,E8363B,MY43030201,A.06.04.32
!Agilent E8363B: A.06.04.32
!Date: Tuesday, November 11, 2014 21:09:10
!Correction: S21(Response(S21)) 
!S1P File: Measurement: S21:
# Hz S  dB   R 50
3000000000  -3.637967e+001  -5.488116e+001 
3003125000  -3.759050e+001  -6.062643e+001 
3006250000  -3.740790e+001  -6.399238e+001 
3009375000  -3.790709e+001  -5.919872e+001 
3012500000  -3.702087e+001  -6.159143e+001 
3015625000  -3.611959e+001  -6.853065e+001 
3018750000  -3.689051e+001  -6.848792e+001 
3021875000  -3.546771e+001  -6.872874e+001 
3025000000  -3.407404e+001  -7.249678e+001 
3028125000  -3.318327e+001  -7.910450e+001 
3031250000  -3.219849e+001  -8.968943e+001 
3034375000  -3.185175e+001  -1.039956e+002 
3037500000  -3.235524e+001  -1.152050e+002 
3040625000  -3.371933e+001  -1.210729e+002 
3043750000  -3.434124e+001  -1.250342e+002 
3046875000  -3.455442e+001  -1.313064e+002 
3050000000  -3.627857e+001  -1.368710e+002 
3053125000  -3.612338e+001  -1.313148e+002 
3056250000  -3.573350e+001  -1.280679e+002 
3059375000  -3.575555e+001  -1.294012e+002 
3062500000  -3.419485e+001  -1.324042e+002 
3065625000  -3.395351e+001  -1.386170e+002 
3068750000  -3.362918e+001  -1.452913e+002 
3071875000  -3.356055e+001  -1.475863e+002 
3075000000  -3.325514e+001  -1.519844e+002 
3078125000  -3.308952e+001  -1.557899e+002 
3081250000  -3.356245e+001  -1.596396e+002 
3084375000  -3.267700e+001  -1.630217e+002 
3087500000  -3.246273e+001  -1.671094e+002 
3090625000  -3.199574e+001  -1.778085e+002 
3093750000  -3.245891e+001  1.744693e+002 
3096875000  -3.343488e+001  1.688749e+002 
3100000000  -3.337161e+001  1.674255e+002 
3103125000  -3.370919e+001  1.669366e+002 
3106250000  -3.316044e+001  1.633470e+002 
3109375000  -3.330333e+001  1.598313e+002 
3112500000  -3.322689e+001  1.572231e+002 
3115625000  -3.286008e+001  1.525126e+002 
3118750000  -3.322215e+001  1.526470e+002 
3121875000  -3.225996e+001  1.427541e+002 
3125000000  -3.357036e+001  1.391184e+002 
3128125000  -3.447937e+001  1.455020e+002 
3131250000  -3.201631e+001  1.447200e+002 
3134375000  -3.076992e+001  1.283437e+002 
3137500000  -3.132978e+001  1.145509e+002 
3140625000  -3.282050e+001  1.123467e+002 
3143750000  -3.380384e+001  1.135529e+002 
3146875000  -3.331581e+001  1.139653e+002 
3150000000  -3.225984e+001  1.146869e+002 
3153125000  -3.239590e+001  1.052230e+002 
3156250000  -3.334227e+001  1.103130e+002 
3159375000  -3.150414e+001  1.111982e+002 
3162500000  -2.966498e+001  9.672215e+001 
3165625000  -3.073450e+001  8.452862e+001 
3168750000  -3.106490e+001  8.484666e+001 
3171875000  -3.021506e+001  7.944826e+001 
3175000000  -3.095380e+001  7.032502e+001 
3178125000  -3.067243e+001  7.106609e+001 
3181250000  -2.957625e+001  6.553289e+001 
3184375000  -2.896227e+001  5.256361e+001 
3187500000  -3.027580e+001  3.729913e+001 
3190625000  -3.287672e+001  2.992768e+001 
3193750000  -3.335036e+001  3.822118e+001 
3196875000  -3.305175e+001  4.232384e+001 
3200000000  -3.205013e+001  4.008638e+001 
3203125000  -3.133914e+001  3.408527e+001 
3206250000  -3.163667e+001  2.695187e+001 
3209375000  -3.109884e+001  2.115999e+001 
3212500000  -3.149452e+001  1.443332e+001 
3215625000  -3.152290e+001  1.056414e+001 
3218750000  -3.222453e+001  3.324696e+000 
3221875000  -3.310719e+001  -2.027378e+000 
3225000000  -3.272111e+001  -2.829278e+000 
3228125000  -3.312887e+001  -8.652030e+000 
3231250000  -3.375961e+001  -1.104257e+001 
3234375000  -3.343663e+001  -1.000083e+001 
3237500000  -3.339603e+001  -1.217787e+001 
3240625000  -3.306879e+001  -1.495368e+001 
3243750000  -3.267399e+001  -2.282794e+001 
3246875000  -3.299935e+001  -2.997676e+001 
3250000000  -3.342471e+001  -3.175397e+001 
3253125000  -3.357999e+001  -3.452712e+001 
3256250000  -3.311566e+001  -4.121418e+001 
3259375000  -3.351194e+001  -5.000581e+001 
3262500000  -3.453949e+001  -5.318345e+001 
3265625000  -3.523953e+001  -5.052330e+001 
3268750000  -3.518375e+001  -4.861134e+001 
3271875000  -3.461372e+001  -4.848814e+001 
3275000000  -3.368008e+001  -5.580801e+001 
3278125000  -3.417962e+001  -6.264962e+001 
3281250000  -3.438662e+001  -6.141035e+001 
3284375000  -3.379472e+001  -6.806237e+001 
3287500000  -3.405393e+001  -7.178853e+001 
3290625000  -3.432663e+001  -7.815002e+001 
3293750000  -3.396315e+001  -8.400365e+001 
3296875000  -3.518163e+001  -8.421262e+001 
3300000000  -3.476702e+001  -8.363764e+001 
3303125000  -3.356170e+001  -8.950126e+001 
3306250000  -3.346038e+001  -9.664227e+001 
3309375000  -3.316990e+001  -1.034226e+002 
3312500000  -3.330556e+001  -1.142818e+002 
3315625000  -3.423513e+001  -1.220586e+002 
3318750000  -3.582582e+001  -1.243879e+002 
3321875000  -3.680937e+001  -1.251528e+002 
3325000000  -3.726805e+001  -1.176097e+002 
3328125000  -3.683955e+001  -1.193476e+002 
3331250000  -3.570473e+001  -1.132597e+002 
3334375000  -3.293945e+001  -1.236079e+002 
3337500000  -3.315902e+001  -1.433675e+002 
3340625000  -3.453289e+001  -1.542918e+002 
3343750000  -3.662227e+001  -1.554945e+002 
3346875000  -3.679802e+001  -1.529408e+002 
3350000000  -3.604892e+001  -1.553894e+002 
3353125000  -3.620962e+001  -1.591615e+002 
3356250000  -3.545441e+001  -1.680518e+002 
3359375000  -3.643093e+001  -1.757299e+002 
3362500000  -3.761616e+001  1.777111e+002 
3365625000  -3.800863e+001  1.776777e+002 
3368750000  -3.886601e+001  1.746289e+002 
3371875000  -3.896957e+001  1.723110e+002 
3375000000  -4.053273e+001  1.695765e+002 
3378125000  -4.119773e+001  1.702675e+002 
3381250000  -4.274248e+001  1.788871e+002 
3384375000  -4.112212e+001  -1.610861e+002 
3387500000  -3.758973e+001  -1.764767e+002 
3390625000  -3.912531e+001  1.630342e+002 
3393750000  -4.041739e+001  1.683466e+002 
3396875000  -3.932946e+001  1.682189e+002 
3400000000  -3.853109e+001  1.609016e+002 
3403125000  -3.922084e+001  1.560780e+002 
3406250000  -3.951805e+001  1.546940e+002 
3409375000  -3.989319e+001  1.470822e+002 
3412500000  -4.031194e+001  1.457752e+002 
3415625000  -4.081181e+001  1.471470e+002 
3418750000  -4.091734e+001  1.467911e+002 
3421875000  -4.109389e+001  1.489633e+002 
3425000000  -4.024064e+001  1.488139e+002 
3428125000  -3.934891e+001  1.450875e+002 
3431250000  -3.914688e+001  1.386460e+002 
3434375000  -3.904354e+001  1.322447e+002 
3437500000  -3.983117e+001  1.294431e+002 
3440625000  -3.993356e+001  1.303958e+002 
3443750000  -3.876281e+001  1.304359e+002 
3446875000  -3.800931e+001  1.225120e+002 
3450000000  -3.734767e+001  1.119769e+002 
3453125000  -3.800319e+001  1.028408e+002 
3456250000  -3.925739e+001  9.643728e+001 
3459375000  -4.006775e+001  9.822791e+001 
3462500000  -4.010144e+001  9.897998e+001 
3465625000  -3.995270e+001  9.134165e+001 
3468750000  -4.012062e+001  8.840711e+001 
3471875000  -4.004177e+001  8.694695e+001 
3475000000  -3.970397e+001  8.258717e+001 
3478125000  -4.022002e+001  7.349804e+001 
3481250000  -4.144088e+001  7.091221e+001 
3484375000  -4.255948e+001  7.491278e+001 
3487500000  -4.139949e+001  7.536922e+001 
3490625000  -4.086990e+001  6.989334e+001 
3493750000  -4.140395e+001  6.539213e+001 
3496875000  -4.216908e+001  6.347297e+001 
3500000000  -4.276603e+001  6.632469e+001 
3503125000  -4.242722e+001  6.714648e+001 
3506250000  -4.094405e+001  6.382147e+001 
3509375000  -4.057298e+001  5.355806e+001 
3512500000  -4.123007e+001  4.588208e+001 
3515625000  -4.201618e+001  4.412649e+001 
3518750000  -4.258664e+001  4.544999e+001 
3521875000  -4.237959e+001  4.142097e+001 
3525000000  -4.330682e+001  3.801605e+001 
3528125000  -4.348701e+001  4.456855e+001 
3531250000  -4.173864e+001  4.309097e+001 
3534375000  -4.182074e+001  3.453923e+001 
3537500000  -4.230878e+001  2.819735e+001 
3540625000  -4.312282e+001  2.592213e+001 
3543750000  -4.380828e+001  3.156650e+001 
3546875000  -4.369742e+001  4.197553e+001 
3550000000  -4.111172e+001  4.105415e+001 
3553125000  -3.983271e+001  2.508158e+001 
3556250000  -4.110091e+001  1.758322e+001 
3559375000  -4.095812e+001  1.806132e+001 
3562500000  -3.973908e+001  9.835929e+000 
3565625000  -4.058014e+001  8.614142e-001 
3568750000  -4.102943e+001  4.050409e+000 
3571875000  -4.064239e+001  5.796688e-001 
3575000000  -4.042484e+001  -5.480824e+000 
3578125000  -4.108575e+001  -1.051796e+001 
3581250000  -4.117656e+001  -1.106173e+001 
3584375000  -4.038748e+001  -1.390477e+001 
3587500000  -3.975296e+001  -2.279786e+001 
3590625000  -4.050201e+001  -3.365800e+001 
3593750000  -4.175252e+001  -3.392812e+001 
3596875000  -4.163113e+001  -2.955486e+001 
3600000000  -4.021271e+001  -3.538540e+001 
3603125000  -4.066172e+001  -4.979536e+001 
3606250000  -4.172781e+001  -5.479862e+001 
3609375000  -4.200083e+001  -5.609117e+001 
3612500000  -4.310970e+001  -5.726596e+001 
3615625000  -4.331884e+001  -6.325631e+001 
3618750000  -4.372600e+001  -6.263083e+001 
3621875000  -4.371741e+001  -6.352042e+001 
3625000000  -4.502364e+001  -6.512556e+001 
3628125000  -4.446910e+001  -6.426488e+001 
3631250000  -4.478419e+001  -6.859722e+001 
3634375000  -4.623141e+001  -7.029917e+001 
3637500000  -4.596319e+001  -6.547951e+001 
3640625000  -4.495624e+001  -6.080405e+001 
3643750000  -4.432666e+001  -6.764227e+001 
3646875000  -4.507261e+001  -7.181633e+001 
3650000000  -4.560004e+001  -6.848166e+001 
3653125000  -4.519273e+001  -7.446892e+001 
3656250000  -4.557098e+001  -7.441213e+001 
3659375000  -4.557150e+001  -7.243511e+001 
3662500000  -4.455459e+001  -7.183157e+001 
3665625000  -4.396788e+001  -7.289200e+001 
3668750000  -4.327996e+001  -7.312791e+001 
3671875000  -4.220122e+001  -8.007803e+001 
3675000000  -4.245906e+001  -8.878473e+001 
3678125000  -4.263334e+001  -9.016892e+001 
3681250000  -4.241869e+001  -9.217319e+001 
3684375000  -4.218142e+001  -9.859531e+001 
3687500000  -4.240326e+001  -1.025401e+002 
3690625000  -4.239894e+001  -1.076224e+002 
3693750000  -4.345464e+001  -1.081257e+002 
3696875000  -4.336269e+001  -1.094297e+002 
3700000000  -4.235484e+001  -1.125454e+002 
3703125000  -4.221839e+001  -1.187782e+002 
3706250000  -4.311410e+001  -1.180202e+002 
3709375000  -4.289798e+001  -1.199636e+002 
3712500000  -4.204652e+001  -1.225460e+002 
3715625000  -4.110412e+001  -1.295800e+002 
3718750000  -4.127973e+001  -1.349015e+002 
3721875000  -4.101309e+001  -1.406959e+002 
3725000000  -4.132590e+001  -1.478862e+002 
3728125000  -4.195210e+001  -1.476381e+002 
3731250000  -4.156774e+001  -1.498877e+002 
3734375000  -4.123302e+001  -1.583960e+002 
3737500000  -4.224586e+001  -1.640449e+002 
3740625000  -4.375096e+001  -1.665570e+002 
3743750000  -4.341274e+001  -1.686241e+002 
3746875000  -4.375708e+001  -1.720514e+002 
3750000000  -4.465744e+001  -1.720323e+002 
3753125000  -4.437740e+001  -1.729245e+002 
3756250000  -4.496981e+001  -1.678066e+002 
3759375000  -4.491920e+001  -1.699667e+002 
3762500000  -4.464462e+001  -1.730949e+002 
3765625000  -4.499409e+001  -1.747321e+002 
3768750000  -4.471177e+001  -1.686872e+002 
3771875000  -4.337159e+001  -1.693295e+002 
3775000000  -4.300440e+001  -1.752495e+002 
3778125000  -4.355911e+001  -1.793792e+002 
3781250000  -4.296431e+001  -1.785896e+002 
3784375000  -4.300833e+001  1.796284e+002 
3787500000  -4.186486e+001  1.760236e+002 
3790625000  -4.203924e+001  1.700170e+002 
3793750000  -4.215255e+001  1.702564e+002 
3796875000  -4.111927e+001  1.673114e+002 
3800000000  -3.929565e+001  1.652484e+002 
3803125000  -4.007543e+001  1.555568e+002 
3806250000  -4.073520e+001  1.525570e+002 
3809375000  -4.025478e+001  1.506096e+002 
3812500000  -3.959952e+001  1.412761e+002 
3815625000  -3.998717e+001  1.335105e+002 
3818750000  -4.096308e+001  1.330971e+002 
3821875000  -4.110083e+001  1.406059e+002 
3825000000  -3.922625e+001  1.403126e+002 
3828125000  -3.762222e+001  1.246624e+002 
3831250000  -3.851593e+001  1.100602e+002 
3834375000  -4.020028e+001  1.090400e+002 
3837500000  -4.097891e+001  1.141341e+002 
3840625000  -3.954851e+001  1.104889e+002 
3843750000  -3.880529e+001  1.000373e+002 
3846875000  -3.966380e+001  9.028528e+001 
3850000000  -4.104478e+001  9.588023e+001 
3853125000  -4.033298e+001  9.726212e+001 
3856250000  -4.035009e+001  9.218462e+001 
3859375000  -3.971745e+001  8.637652e+001 
3862500000  -3.955816e+001  8.007121e+001 
3865625000  -3.998196e+001  7.467094e+001 
3868750000  -3.993079e+001  7.291485e+001 
3871875000  -3.921424e+001  6.960044e+001 
3875000000  -3.974551e+001  6.023429e+001 
3878125000  -4.076556e+001  5.933549e+001 
3881250000  -4.079077e+001  6.105195e+001 
3884375000  -4.071749e+001  5.643029e+001 
3887500000  -4.059124e+001  5.171306e+001 
3890625000  -4.137029e+001  4.942529e+001 
3893750000  -4.142181e+001  4.986783e+001 
3896875000  -4.206141e+001  5.148527e+001 
3900000000  -4.195364e+001  4.834331e+001 
3903125000  -4.159074e+001  4.519747e+001 
3906250000  -4.092515e+001  4.494832e+001 
3909375000  -4.017985e+001  4.270096e+001 
3912500000  -4.029286e+001  3.659044e+001 
3915625000  -4.141545e+001  3.631503e+001 
3918750000  -4.116920e+001  3.686249e+001 
3921875000  -4.071819e+001  3.332521e+001 
3925000000  -3.977705e+001  3.012158e+001 
3928125000  -3.919224e+001  2.498490e+001 
3931250000  -3.956696e+001  2.019408e+001 
3934375000  -3.976242e+001  1.798434e+001 
3937500000  -3.976439e+001  1.806887e+001 
3940625000  -4.050143e+001  1.659618e+001 
3943750000  -3.921679e+001  1.495726e+001 
3946875000  -3.809597e+001  8.131548e+000 
3950000000  -3.899719e+001  -1.766490e+000 
3953125000  -3.964203e+001  -9.467858e-001 
3956250000  -3.869294e+001  -4.923074e-002 
3959375000  -3.739584e+001  -4.274082e+000 
3962500000  -3.733381e+001  -9.835629e+000 
3965625000  -3.687365e+001  -1.927244e+001 
3968750000  -3.806856e+001  -2.775121e+001 
3971875000  -3.813281e+001  -3.184594e+001 
3975000000  -3.750296e+001  -3.398386e+001 
3978125000  -3.746789e+001  -3.767155e+001 
3981250000  -3.757444e+001  -4.273985e+001 
3984375000  -3.789850e+001  -4.918129e+001 
3987500000  -3.837269e+001  -5.222137e+001 
3990625000  -3.863829e+001  -5.363835e+001 
3993750000  -3.865794e+001  -5.814853e+001 
3996875000  -3.886300e+001  -6.170910e+001 
4000000000  -3.958110e+001  -6.364363e+001 
4003125000  -3.975860e+001  -6.232790e+001 
4006250000  -3.844399e+001  -6.347226e+001 
4009375000  -3.746354e+001  -7.553975e+001 
4012500000  -3.921405e+001  -8.254931e+001 
4015625000  -4.016180e+001  -8.146388e+001 
4018750000  -4.035930e+001  -8.045861e+001 
4021875000  -3.991788e+001  -8.155920e+001 
4025000000  -3.967899e+001  -8.504163e+001 
4028125000  -3.952261e+001  -8.879717e+001 
4031250000  -3.998235e+001  -9.426060e+001 
4034375000  -4.002370e+001  -9.207390e+001 
4037500000  -3.980451e+001  -9.092793e+001 
4040625000  -3.965915e+001  -9.422173e+001 
4043750000  -3.969088e+001  -9.415233e+001 
4046875000  -3.916910e+001  -9.616610e+001 
4050000000  -3.883386e+001  -1.017407e+002 
4053125000  -3.938970e+001  -1.045914e+002 
4056250000  -3.972071e+001  -9.999855e+001 
4059375000  -3.820684e+001  -9.988398e+001 
4062500000  -3.687723e+001  -1.061417e+002 
4065625000  -3.684747e+001  -1.095718e+002 
4068750000  -3.638267e+001  -1.167821e+002 
4071875000  -3.550406e+001  -1.256252e+002 
4075000000  -3.575358e+001  -1.322513e+002 
4078125000  -3.645989e+001  -1.344447e+002 
4081250000  -3.579184e+001  -1.382602e+002 
4084375000  -3.551049e+001  -1.460616e+002 
4087500000  -3.590384e+001  -1.526975e+002 
4090625000  -3.644035e+001  -1.548876e+002 
4093750000  -3.607542e+001  -1.571909e+002 
4096875000  -3.575469e+001  -1.631970e+002 
4100000000  -3.664478e+001  -1.714128e+002 
4103125000  -3.764061e+001  -1.717679e+002 
4106250000  -3.743897e+001  -1.684225e+002 
4109375000  -3.646917e+001  -1.697545e+002 
4112500000  -3.590811e+001  -1.784381e+002 
4115625000  -3.636081e+001  1.772344e+002 
4118750000  -3.638409e+001  1.731016e+002 
4121875000  -3.589059e+001  1.660875e+002 
4125000000  -3.684619e+001  1.610747e+002 
4128125000  -3.763692e+001  1.613498e+002 
4131250000  -3.738514e+001  1.681961e+002 
4134375000  -3.523428e+001  1.608448e+002 
4137500000  -3.510393e+001  1.408088e+002 
4140625000  -3.752093e+001  1.315953e+002 
4143750000  -3.903428e+001  1.368343e+002 
4146875000  -3.837658e+001  1.445367e+002 
4150000000  -3.775538e+001  1.406867e+002 
4153125000  -3.777327e+001  1.322224e+002 
4156250000  -3.880166e+001  1.321296e+002 
4159375000  -3.900467e+001  1.359962e+002 
4162500000  -3.803009e+001  1.407290e+002 
4165625000  -3.682651e+001  1.359682e+002 
4168750000  -3.643884e+001  1.288606e+002 
4171875000  -3.641975e+001  1.197587e+002 
4175000000  -3.700134e+001  1.148433e+002 
4178125000  -3.754077e+001  1.142413e+002 
4181250000  -3.739459e+001  1.139176e+002 
4184375000  -3.710977e+001  1.098163e+002 
4187500000  -3.706525e+001  1.075002e+002 
4190625000  -3.683051e+001  1.015067e+002 
4193750000  -3.773802e+001  9.849048e+001 
4196875000  -3.821619e+001  9.653401e+001 
4200000000  -3.903815e+001  1.003100e+002 
4203125000  -3.895851e+001  1.127729e+002 
4206250000  -3.533708e+001  1.114955e+002 
4209375000  -3.407178e+001  8.906412e+001 
4212500000  -3.626954e+001  7.972691e+001 
4215625000  -3.704932e+001  8.649753e+001 
4218750000  -3.547124e+001  9.229305e+001 
4221875000  -3.309316e+001  8.180333e+001 
4225000000  -3.420234e+001  6.774587e+001 
4228125000  -3.469063e+001  7.166321e+001 
4231250000  -3.326682e+001  6.693970e+001 
4234375000  -3.311857e+001  5.667968e+001 
4237500000  -3.268938e+001  5.191126e+001 
4240625000  -3.272051e+001  4.112563e+001 
4243750000  -3.375957e+001  3.218254e+001 
4246875000  -3.471082e+001  3.282024e+001 
4250000000  -3.477620e+001  3.417276e+001 
4253125000  -3.411144e+001  3.059057e+001 
4256250000  -3.431810e+001  2.459201e+001 
4259375000  -3.441605e+001  2.151145e+001 
4262500000  -3.440936e+001  1.686210e+001 
4265625000  -3.450026e+001  1.511364e+001 
4268750000  -3.384734e+001  1.045031e+001 
4271875000  -3.353017e+001  2.679243e+000 
4275000000  -3.321432e+001  -4.720750e+000 
4278125000  -3.411792e+001  -1.597397e+001 
4281250000  -3.598506e+001  -1.999819e+001 
4284375000  -3.569787e+001  -2.089337e+001 
4287500000  -3.679844e+001  -2.242566e+001 
4290625000  -3.802324e+001  -1.325464e+001 
4293750000  -3.624147e+001  -9.482074e+000 
4296875000  -3.502895e+001  -2.064616e+001 
4300000000  -3.627436e+001  -3.003107e+001 
4303125000  -3.737355e+001  -2.794034e+001 
4306250000  -3.652466e+001  -2.073319e+001 
4309375000  -3.550217e+001  -2.363522e+001 
4312500000  -3.519642e+001  -3.177636e+001 
4315625000  -3.548377e+001  -3.657170e+001 
4318750000  -3.581385e+001  -4.061018e+001 
4321875000  -3.576331e+001  -3.838876e+001 
4325000000  -3.527856e+001  -3.858708e+001 
4328125000  -3.450521e+001  -4.426870e+001 
4331250000  -3.425362e+001  -5.366393e+001 
4334375000  -3.478833e+001  -5.883574e+001 
4337500000  -3.551060e+001  -5.992452e+001 
4340625000  -3.593136e+001  -5.716159e+001 
4343750000  -3.501219e+001  -5.816702e+001 
4346875000  -3.444275e+001  -6.393019e+001 
4350000000  -3.436908e+001  -7.119190e+001 
4353125000  -3.438609e+001  -7.887782e+001 
4356250000  -3.613661e+001  -8.004002e+001 
4359375000  -3.617297e+001  -6.629588e+001 
4362500000  -3.317080e+001  -6.830680e+001 
4365625000  -3.160248e+001  -8.074551e+001 
4368750000  -3.248937e+001  -9.341822e+001 
4371875000  -3.353831e+001  -9.411659e+001 
4375000000  -3.304102e+001  -9.491669e+001 
4378125000  -3.236019e+001  -1.029317e+002 
4381250000  -3.256126e+001  -1.095629e+002 
4384375000  -3.233966e+001  -1.172992e+002 
4387500000  -3.308663e+001  -1.238767e+002 
4390625000  -3.402203e+001  -1.243291e+002 
4393750000  -3.333028e+001  -1.245412e+002 
4396875000  -3.271329e+001  -1.284191e+002 
4400000000  -3.232054e+001  -1.370565e+002 
4403125000  -3.294633e+001  -1.452101e+002 
4406250000  -3.392052e+001  -1.479978e+002 
4409375000  -3.391510e+001  -1.526776e+002 
4412500000  -3.514835e+001  -1.559256e+002 
4415625000  -3.547169e+001  -1.524362e+002 
