!Agilent Technologies,E8363B,MY43030201,A.06.04.32
!Agilent E8363B: A.06.04.32
!Date: Tuesday, November 11, 2014 21:04:41
!Correction: S21(Response(S21)) 
!S1P File: Measurement: S21:
# Hz S  dB   R 50
3000000000  -3.616072e+001  -5.205341e+001 
3003125000  -3.721949e+001  -5.818892e+001 
3006250000  -3.728485e+001  -6.009211e+001 
3009375000  -3.764708e+001  -5.610427e+001 
3012500000  -3.688921e+001  -5.779493e+001 
3015625000  -3.594274e+001  -6.461463e+001 
3018750000  -3.687428e+001  -6.561993e+001 
3021875000  -3.544058e+001  -6.473289e+001 
3025000000  -3.416478e+001  -6.736899e+001 
3028125000  -3.318791e+001  -7.440899e+001 
3031250000  -3.214240e+001  -8.521642e+001 
3034375000  -3.182309e+001  -9.917370e+001 
3037500000  -3.226674e+001  -1.113199e+002 
3040625000  -3.364824e+001  -1.156086e+002 
3043750000  -3.432803e+001  -1.202380e+002 
3046875000  -3.449508e+001  -1.267098e+002 
3050000000  -3.612428e+001  -1.322796e+002 
3053125000  -3.613368e+001  -1.270074e+002 
3056250000  -3.568430e+001  -1.232449e+002 
3059375000  -3.574155e+001  -1.225896e+002 
3062500000  -3.428310e+001  -1.270017e+002 
3065625000  -3.397092e+001  -1.321841e+002 
3068750000  -3.371377e+001  -1.399055e+002 
3071875000  -3.351869e+001  -1.416021e+002 
3075000000  -3.337511e+001  -1.460826e+002 
3078125000  -3.302998e+001  -1.495559e+002 
3081250000  -3.356855e+001  -1.541549e+002 
3084375000  -3.266825e+001  -1.572136e+002 
3087500000  -3.246437e+001  -1.619114e+002 
3090625000  -3.191287e+001  -1.715626e+002 
3093750000  -3.239638e+001  -1.791192e+002 
3096875000  -3.341557e+001  1.750683e+002 
3100000000  -3.328580e+001  1.723324e+002 
3103125000  -3.356543e+001  1.732226e+002 
3106250000  -3.303070e+001  1.694635e+002 
3109375000  -3.314579e+001  1.652665e+002 
3112500000  -3.305652e+001  1.628549e+002 
3115625000  -3.273119e+001  1.576717e+002 
3118750000  -3.308004e+001  1.581550e+002 
3121875000  -3.217810e+001  1.484188e+002 
3125000000  -3.339140e+001  1.441434e+002 
3128125000  -3.442198e+001  1.511694e+002 
3131250000  -3.200727e+001  1.495430e+002 
3134375000  -3.065841e+001  1.338147e+002 
3137500000  -3.134810e+001  1.200526e+002 
3140625000  -3.283298e+001  1.172001e+002 
3143750000  -3.388395e+001  1.188419e+002 
3146875000  -3.327275e+001  1.193527e+002 
3150000000  -3.233752e+001  1.199480e+002 
3153125000  -3.234653e+001  1.104244e+002 
3156250000  -3.335329e+001  1.155961e+002 
3159375000  -3.168642e+001  1.164225e+002 
3162500000  -2.975618e+001  1.013222e+002 
3165625000  -3.084021e+001  8.957938e+001 
3168750000  -3.119741e+001  8.973924e+001 
3171875000  -3.030397e+001  8.402858e+001 
3175000000  -3.105979e+001  7.533540e+001 
3178125000  -3.079791e+001  7.601080e+001 
3181250000  -2.977817e+001  7.088981e+001 
3184375000  -2.907578e+001  5.821789e+001 
3187500000  -3.025034e+001  4.231314e+001 
3190625000  -3.304501e+001  3.511659e+001 
3193750000  -3.361986e+001  4.347080e+001 
3196875000  -3.319287e+001  4.811462e+001 
3200000000  -3.230199e+001  4.581388e+001 
3203125000  -3.157698e+001  3.941243e+001 
3206250000  -3.190783e+001  3.295964e+001 
3209375000  -3.148976e+001  2.772179e+001 
3212500000  -3.162934e+001  2.040555e+001 
3215625000  -3.168220e+001  1.644981e+001 
3218750000  -3.246143e+001  9.235749e+000 
3221875000  -3.331540e+001  4.391242e+000 
3225000000  -3.292442e+001  3.509670e+000 
3228125000  -3.326519e+001  -2.115031e+000 
3231250000  -3.391582e+001  -4.511405e+000 
3234375000  -3.365372e+001  -4.129647e+000 
3237500000  -3.363678e+001  -6.223300e+000 
3240625000  -3.329062e+001  -8.319128e+000 
3243750000  -3.282977e+001  -1.535717e+001 
3246875000  -3.319638e+001  -2.272104e+001 
3250000000  -3.361919e+001  -2.529357e+001 
3253125000  -3.367500e+001  -2.667234e+001 
3256250000  -3.333545e+001  -3.388609e+001 
3259375000  -3.356069e+001  -4.238620e+001 
3262500000  -3.468760e+001  -4.630179e+001 
3265625000  -3.532977e+001  -4.334927e+001 
3268750000  -3.521981e+001  -4.251542e+001 
3271875000  -3.488930e+001  -4.274340e+001 
3275000000  -3.382661e+001  -4.902735e+001 
3278125000  -3.419225e+001  -5.550250e+001 
3281250000  -3.435770e+001  -5.505846e+001 
3284375000  -3.387645e+001  -6.099087e+001 
3287500000  -3.408597e+001  -6.557020e+001 
3290625000  -3.437988e+001  -7.145541e+001 
3293750000  -3.411001e+001  -7.786812e+001 
3296875000  -3.525674e+001  -7.823724e+001 
3300000000  -3.490741e+001  -7.748130e+001 
3303125000  -3.370677e+001  -8.341624e+001 
3306250000  -3.358951e+001  -9.039535e+001 
3309375000  -3.330496e+001  -9.712350e+001 
3312500000  -3.343501e+001  -1.071241e+002 
3315625000  -3.444800e+001  -1.157724e+002 
3318750000  -3.581283e+001  -1.186071e+002 
3321875000  -3.696965e+001  -1.188653e+002 
3325000000  -3.758282e+001  -1.142990e+002 
3328125000  -3.708353e+001  -1.130797e+002 
3331250000  -3.601484e+001  -1.071482e+002 
3334375000  -3.324618e+001  -1.172736e+002 
3337500000  -3.322737e+001  -1.376785e+002 
3340625000  -3.470517e+001  -1.482105e+002 
3343750000  -3.682664e+001  -1.490750e+002 
3346875000  -3.710817e+001  -1.470239e+002 
3350000000  -3.647027e+001  -1.488094e+002 
3353125000  -3.651617e+001  -1.531564e+002 
3356250000  -3.600932e+001  -1.612911e+002 
3359375000  -3.689261e+001  -1.691997e+002 
3362500000  -3.763369e+001  -1.740022e+002 
3365625000  -3.820861e+001  -1.748057e+002 
3368750000  -3.872668e+001  -1.776765e+002 
3371875000  -3.918097e+001  1.797554e+002 
3375000000  -4.038522e+001  1.758872e+002 
3378125000  -4.127975e+001  1.767203e+002 
3381250000  -4.232778e+001  -1.743023e+002 
3384375000  -4.107478e+001  -1.533753e+002 
3387500000  -3.728808e+001  -1.695658e+002 
3390625000  -3.900598e+001  1.702694e+002 
3393750000  -4.053071e+001  1.767410e+002 
3396875000  -3.911486e+001  1.749962e+002 
3400000000  -3.882579e+001  1.681324e+002 
3403125000  -3.948096e+001  1.626725e+002 
3406250000  -3.959282e+001  1.629192e+002 
3409375000  -3.990269e+001  1.546793e+002 
3412500000  -4.044299e+001  1.541897e+002 
3415625000  -4.106153e+001  1.543871e+002 
3418750000  -4.117310e+001  1.547302e+002 
3421875000  -4.128713e+001  1.576432e+002 
3425000000  -4.044818e+001  1.580654e+002 
3428125000  -3.930281e+001  1.540443e+002 
3431250000  -3.919563e+001  1.466711e+002 
3434375000  -3.915514e+001  1.405431e+002 
3437500000  -3.964059e+001  1.371111e+002 
3440625000  -3.995555e+001  1.370609e+002 
3443750000  -3.872113e+001  1.396395e+002 
3446875000  -3.792020e+001  1.302454e+002 
3450000000  -3.753893e+001  1.211380e+002 
3453125000  -3.794369e+001  1.109926e+002 
3456250000  -3.900934e+001  1.036859e+002 
3459375000  -4.003594e+001  1.050378e+002 
3462500000  -3.976308e+001  1.052423e+002 
3465625000  -3.979226e+001  1.007290e+002 
3468750000  -4.016983e+001  9.659906e+001 
3471875000  -4.010751e+001  9.309725e+001 
3475000000  -3.960057e+001  9.052790e+001 
3478125000  -4.048955e+001  8.216467e+001 
3481250000  -4.132758e+001  8.030685e+001 
3484375000  -4.204451e+001  8.346687e+001 
3487500000  -4.121313e+001  8.253900e+001 
3490625000  -4.093336e+001  7.871239e+001 
3493750000  -4.134118e+001  7.251544e+001 
3496875000  -4.172135e+001  6.961058e+001 
3500000000  -4.245775e+001  7.281760e+001 
3503125000  -4.202021e+001  7.327312e+001 
3506250000  -4.073642e+001  7.015565e+001 
3509375000  -4.073450e+001  6.009214e+001 
3512500000  -4.127624e+001  5.282985e+001 
3515625000  -4.184545e+001  5.061798e+001 
3518750000  -4.262811e+001  5.225329e+001 
3521875000  -4.239585e+001  4.910303e+001 
3525000000  -4.343410e+001  4.365131e+001 
3528125000  -4.325022e+001  5.328962e+001 
3531250000  -4.203341e+001  5.070695e+001 
3534375000  -4.201808e+001  4.100963e+001 
3537500000  -4.224268e+001  3.553746e+001 
3540625000  -4.362305e+001  3.383157e+001 
3543750000  -4.404972e+001  3.459652e+001 
3546875000  -4.402109e+001  5.056317e+001 
3550000000  -4.130388e+001  4.918589e+001 
3553125000  -3.976690e+001  3.216056e+001 
3556250000  -4.126702e+001  2.655121e+001 
3559375000  -4.122897e+001  2.690400e+001 
3562500000  -4.000109e+001  1.765866e+001 
3565625000  -4.083975e+001  1.003951e+001 
3568750000  -4.131858e+001  1.293678e+001 
3571875000  -4.107511e+001  1.172566e+001 
3575000000  -4.048834e+001  3.151080e+000 
3578125000  -4.085121e+001  -2.674939e+000 
3581250000  -4.145280e+001  -2.906380e+000 
3584375000  -4.050847e+001  -6.897957e+000 
3587500000  -4.000719e+001  -1.550730e+001 
3590625000  -4.048057e+001  -2.630143e+001 
3593750000  -4.173740e+001  -2.698318e+001 
3596875000  -4.189130e+001  -2.127734e+001 
3600000000  -4.051885e+001  -2.643866e+001 
3603125000  -4.084644e+001  -4.153764e+001 
3606250000  -4.165525e+001  -4.778376e+001 
3609375000  -4.232947e+001  -4.880140e+001 
3612500000  -4.283471e+001  -5.003260e+001 
3615625000  -4.358133e+001  -5.506346e+001 
3618750000  -4.432278e+001  -5.463866e+001 
3621875000  -4.436041e+001  -5.993810e+001 
3625000000  -4.472995e+001  -5.691275e+001 
3628125000  -4.464901e+001  -5.920848e+001 
3631250000  -4.489294e+001  -6.366598e+001 
3634375000  -4.596749e+001  -6.268075e+001 
3637500000  -4.590900e+001  -5.665662e+001 
3640625000  -4.507785e+001  -5.576151e+001 
3643750000  -4.448127e+001  -6.194141e+001 
3646875000  -4.499660e+001  -6.745290e+001 
3650000000  -4.589732e+001  -6.295514e+001 
3653125000  -4.571494e+001  -6.717262e+001 
3656250000  -4.594185e+001  -6.612674e+001 
3659375000  -4.593570e+001  -6.177751e+001 
3662500000  -4.475909e+001  -6.325502e+001 
3665625000  -4.480577e+001  -6.791119e+001 
3668750000  -4.376372e+001  -6.436308e+001 
3671875000  -4.226670e+001  -7.303036e+001 
3675000000  -4.255079e+001  -8.027856e+001 
3678125000  -4.308906e+001  -8.107407e+001 
3681250000  -4.264726e+001  -8.437379e+001 
3684375000  -4.249181e+001  -8.728323e+001 
3687500000  -4.258854e+001  -9.408812e+001 
3690625000  -4.282320e+001  -9.725082e+001 
3693750000  -4.352961e+001  -9.708716e+001 
3696875000  -4.334300e+001  -9.871053e+001 
3700000000  -4.242744e+001  -1.046911e+002 
3703125000  -4.291315e+001  -1.088482e+002 
3706250000  -4.355175e+001  -1.086180e+002 
3709375000  -4.319174e+001  -1.093950e+002 
3712500000  -4.219596e+001  -1.113290e+002 
3715625000  -4.161003e+001  -1.176706e+002 
3718750000  -4.140106e+001  -1.240630e+002 
3721875000  -4.133170e+001  -1.311464e+002 
3725000000  -4.179859e+001  -1.361252e+002 
3728125000  -4.215441e+001  -1.383137e+002 
3731250000  -4.157343e+001  -1.411526e+002 
3734375000  -4.170357e+001  -1.462256e+002 
3737500000  -4.212395e+001  -1.558668e+002 
3740625000  -4.358569e+001  -1.584529e+002 
3743750000  -4.350350e+001  -1.606510e+002 
3746875000  -4.370929e+001  -1.622749e+002 
3750000000  -4.475246e+001  -1.655059e+002 
3753125000  -4.451954e+001  -1.623879e+002 
3756250000  -4.487934e+001  -1.629460e+002 
3759375000  -4.490427e+001  -1.601804e+002 
3762500000  -4.453053e+001  -1.631875e+002 
3765625000  -4.533588e+001  -1.619133e+002 
3768750000  -4.526129e+001  -1.570603e+002 
3771875000  -4.347568e+001  -1.602543e+002 
3775000000  -4.318590e+001  -1.646055e+002 
3778125000  -4.347178e+001  -1.670505e+002 
3781250000  -4.323852e+001  -1.673640e+002 
3784375000  -4.246865e+001  -1.693850e+002 
3787500000  -4.207518e+001  -1.711554e+002 
3790625000  -4.225226e+001  -1.795646e+002 
3793750000  -4.193351e+001  -1.787469e+002 
3796875000  -4.093827e+001  1.778574e+002 
3800000000  -3.951605e+001  1.755450e+002 
3803125000  -4.019677e+001  1.651856e+002 
3806250000  -4.097977e+001  1.634575e+002 
3809375000  -4.015623e+001  1.613444e+002 
3812500000  -3.952834e+001  1.544119e+002 
3815625000  -4.041477e+001  1.445611e+002 
3818750000  -4.117747e+001  1.435464e+002 
3821875000  -4.117657e+001  1.516866e+002 
3825000000  -3.929252e+001  1.538275e+002 
3828125000  -3.768789e+001  1.358651e+002 
3831250000  -3.862543e+001  1.213580e+002 
3834375000  -3.986949e+001  1.206892e+002 
3837500000  -4.141956e+001  1.246827e+002 
3840625000  -3.968775e+001  1.195902e+002 
3843750000  -3.854678e+001  1.098437e+002 
3846875000  -3.978263e+001  1.022812e+002 
3850000000  -4.112602e+001  1.050687e+002 
3853125000  -4.032903e+001  1.087872e+002 
3856250000  -4.024090e+001  1.030528e+002 
3859375000  -3.965608e+001  9.685690e+001 
3862500000  -3.927826e+001  8.702182e+001 
3865625000  -3.978867e+001  8.565363e+001 
3868750000  -3.968030e+001  8.410358e+001 
3871875000  -3.926656e+001  8.140656e+001 
3875000000  -3.939621e+001  7.074258e+001 
3878125000  -4.064832e+001  6.930715e+001 
3881250000  -4.093753e+001  7.288035e+001 
3884375000  -4.031107e+001  6.713403e+001 
3887500000  -4.068830e+001  6.395866e+001 
3890625000  -4.106694e+001  5.748733e+001 
3893750000  -4.125153e+001  5.728592e+001 
3896875000  -4.191402e+001  5.893887e+001 
3900000000  -4.193277e+001  5.886323e+001 
3903125000  -4.144813e+001  5.627674e+001 
3906250000  -4.087312e+001  5.469183e+001 
3909375000  -4.038007e+001  5.202233e+001 
3912500000  -4.009093e+001  4.362439e+001 
3915625000  -4.121665e+001  4.639535e+001 
3918750000  -4.147084e+001  4.701654e+001 
3921875000  -4.076281e+001  4.243439e+001 
3925000000  -4.005431e+001  4.085943e+001 
3928125000  -3.894135e+001  3.496664e+001 
3931250000  -3.949389e+001  2.998991e+001 
3934375000  -3.976242e+001  2.817210e+001 
3937500000  -3.995652e+001  2.681879e+001 
3940625000  -4.041035e+001  2.639922e+001 
3943750000  -3.913095e+001  2.411286e+001 
3946875000  -3.820998e+001  1.848290e+001 
3950000000  -3.884241e+001  9.907644e+000 
3953125000  -3.972152e+001  7.701236e+000 
3956250000  -3.906871e+001  1.016850e+001 
3959375000  -3.733284e+001  6.109609e+000 
3962500000  -3.701960e+001  1.954004e-001 
3965625000  -3.698229e+001  -9.635770e+000 
3968750000  -3.791764e+001  -1.833766e+001 
3971875000  -3.808150e+001  -2.034646e+001 
3975000000  -3.748505e+001  -2.395608e+001 
3978125000  -3.746014e+001  -2.729887e+001 
3981250000  -3.758191e+001  -3.242689e+001 
3984375000  -3.801220e+001  -3.922816e+001 
3987500000  -3.853434e+001  -4.134306e+001 
3990625000  -3.833939e+001  -4.438342e+001 
3993750000  -3.890072e+001  -4.684051e+001 
3996875000  -3.887105e+001  -5.218710e+001 
4000000000  -3.929086e+001  -5.247767e+001 
4003125000  -3.977113e+001  -5.085638e+001 
4006250000  -3.847107e+001  -5.375359e+001 
4009375000  -3.745100e+001  -6.411260e+001 
4012500000  -3.885045e+001  -7.317813e+001 
4015625000  -4.012283e+001  -7.078181e+001 
4018750000  -4.035892e+001  -7.074010e+001 
4021875000  -3.954558e+001  -7.249046e+001 
4025000000  -3.944413e+001  -7.624438e+001 
4028125000  -3.934298e+001  -8.021203e+001 
4031250000  -3.986315e+001  -8.416473e+001 
4034375000  -4.011082e+001  -8.468707e+001 
4037500000  -3.968008e+001  -8.273310e+001 
4040625000  -3.953397e+001  -8.593542e+001 
4043750000  -3.982836e+001  -8.670311e+001 
4046875000  -3.940454e+001  -8.734769e+001 
4050000000  -3.860130e+001  -9.343721e+001 
4053125000  -3.910205e+001  -9.507145e+001 
4056250000  -3.957928e+001  -9.087898e+001 
4059375000  -3.818870e+001  -8.970705e+001 
4062500000  -3.691653e+001  -9.697161e+001 
4065625000  -3.683926e+001  -9.971941e+001 
4068750000  -3.639824e+001  -1.079841e+002 
4071875000  -3.565635e+001  -1.164317e+002 
4075000000  -3.612350e+001  -1.238352e+002 
4078125000  -3.657277e+001  -1.252596e+002 
4081250000  -3.582590e+001  -1.287816e+002 
4084375000  -3.546816e+001  -1.363374e+002 
4087500000  -3.603242e+001  -1.437623e+002 
4090625000  -3.664711e+001  -1.465153e+002 
4093750000  -3.626548e+001  -1.463275e+002 
4096875000  -3.582426e+001  -1.540300e+002 
4100000000  -3.666336e+001  -1.603183e+002 
4103125000  -3.752455e+001  -1.625292e+002 
4106250000  -3.733990e+001  -1.580612e+002 
4109375000  -3.641872e+001  -1.589226e+002 
4112500000  -3.580410e+001  -1.678362e+002 
4115625000  -3.628923e+001  -1.731392e+002 
4118750000  -3.654126e+001  -1.772849e+002 
4121875000  -3.609931e+001  1.763393e+002 
4125000000  -3.650470e+001  1.702106e+002 
4128125000  -3.754994e+001  1.702473e+002 
4131250000  -3.748913e+001  1.777855e+002 
4134375000  -3.513670e+001  1.710816e+002 
4137500000  -3.515218e+001  1.501710e+002 
4140625000  -3.730027e+001  1.437255e+002 
4143750000  -3.878205e+001  1.477261e+002 
4146875000  -3.831958e+001  1.535919e+002 
4150000000  -3.773153e+001  1.499047e+002 
4153125000  -3.763824e+001  1.435959e+002 
4156250000  -3.853147e+001  1.399547e+002 
4159375000  -3.901889e+001  1.457906e+002 
4162500000  -3.785509e+001  1.499626e+002 
4165625000  -3.687967e+001  1.450148e+002 
4168750000  -3.626090e+001  1.369794e+002 
4171875000  -3.627299e+001  1.277935e+002 
4175000000  -3.707294e+001  1.250184e+002 
4178125000  -3.771910e+001  1.234632e+002 
4181250000  -3.722813e+001  1.221395e+002 
4184375000  -3.708879e+001  1.184209e+002 
4187500000  -3.711878e+001  1.154927e+002 
4190625000  -3.706304e+001  1.094034e+002 
4193750000  -3.764196e+001  1.065696e+002 
4196875000  -3.828378e+001  1.061992e+002 
4200000000  -3.927642e+001  1.080037e+002 
4203125000  -3.881081e+001  1.222091e+002 
4206250000  -3.532531e+001  1.204482e+002 
4209375000  -3.432244e+001  9.902923e+001 
4212500000  -3.630644e+001  9.100539e+001 
4215625000  -3.703227e+001  9.798472e+001 
4218750000  -3.540900e+001  1.020719e+002 
4221875000  -3.320688e+001  9.116826e+001 
4225000000  -3.436862e+001  7.770474e+001 
4228125000  -3.479105e+001  8.136314e+001 
4231250000  -3.333066e+001  7.669781e+001 
4234375000  -3.316396e+001  6.735818e+001 
4237500000  -3.264786e+001  6.358889e+001 
4240625000  -3.281166e+001  5.221995e+001 
4243750000  -3.377387e+001  4.290647e+001 
4246875000  -3.470436e+001  4.241917e+001 
4250000000  -3.455975e+001  4.465113e+001 
4253125000  -3.416704e+001  4.063525e+001 
4256250000  -3.445501e+001  3.615332e+001 
4259375000  -3.411814e+001  3.198953e+001 
4262500000  -3.438988e+001  2.698923e+001 
4265625000  -3.449862e+001  2.577637e+001 
4268750000  -3.378333e+001  2.088047e+001 
4271875000  -3.341050e+001  1.342110e+001 
4275000000  -3.323241e+001  6.225406e+000 
4278125000  -3.377262e+001  -7.356547e+000 
4281250000  -3.597347e+001  -9.332309e+000 
4284375000  -3.542770e+001  -8.791733e+000 
4287500000  -3.650235e+001  -1.326223e+001 
4290625000  -3.808605e+001  -4.931335e+000 
4293750000  -3.628885e+001  9.282990e-001 
4296875000  -3.500036e+001  -9.939105e+000 
4300000000  -3.612247e+001  -2.027008e+001 
4303125000  -3.734253e+001  -1.829481e+001 
4306250000  -3.669064e+001  -1.256895e+001 
4309375000  -3.539206e+001  -1.386958e+001 
4312500000  -3.514581e+001  -2.233127e+001 
4315625000  -3.541278e+001  -2.873230e+001 
4318750000  -3.569966e+001  -3.118764e+001 
4321875000  -3.578925e+001  -2.911830e+001 
4325000000  -3.527835e+001  -2.839542e+001 
4328125000  -3.462123e+001  -3.528072e+001 
4331250000  -3.450531e+001  -4.358258e+001 
4334375000  -3.479121e+001  -4.862223e+001 
4337500000  -3.560778e+001  -5.146282e+001 
4340625000  -3.592591e+001  -4.784793e+001 
4343750000  -3.514437e+001  -4.843140e+001 
4346875000  -3.471904e+001  -5.428834e+001 
4350000000  -3.444071e+001  -6.055590e+001 
4353125000  -3.457642e+001  -6.808239e+001 
4356250000  -3.610796e+001  -7.003078e+001 
4359375000  -3.643411e+001  -5.692228e+001 
4362500000  -3.345280e+001  -5.726993e+001 
4365625000  -3.191418e+001  -7.021860e+001 
4368750000  -3.251553e+001  -8.429546e+001 
4371875000  -3.365755e+001  -8.306316e+001 
4375000000  -3.312796e+001  -8.456851e+001 
4378125000  -3.245415e+001  -9.183159e+001 
4381250000  -3.254583e+001  -9.987384e+001 
4384375000  -3.237741e+001  -1.051405e+002 
4387500000  -3.299702e+001  -1.125398e+002 
4390625000  -3.397055e+001  -1.138093e+002 
4393750000  -3.330775e+001  -1.126479e+002 
4396875000  -3.278993e+001  -1.164800e+002 
4400000000  -3.220222e+001  -1.255181e+002 
4403125000  -3.297931e+001  -1.347507e+002 
4406250000  -3.388418e+001  -1.372985e+002 
4409375000  -3.387721e+001  -1.402643e+002 
4412500000  -3.520129e+001  -1.452989e+002 
4415625000  -3.558355e+001  -1.406415e+002 
