!Agilent Technologies,E8363B,MY43030201,A.06.04.32
!Agilent E8363B: A.06.04.32
!Date: Tuesday, November 11, 2014 21:01:08
!Correction: S21(Response(S21)) 
!S1P File: Measurement: S21:
# Hz S  dB   R 50
3000000000  -3.633659e+001  -4.455893e+001 
3003125000  -3.735942e+001  -5.029996e+001 
3006250000  -3.724108e+001  -5.322095e+001 
3009375000  -3.761178e+001  -4.823574e+001 
3012500000  -3.681934e+001  -4.996058e+001 
3015625000  -3.590158e+001  -5.780730e+001 
3018750000  -3.662999e+001  -5.908613e+001 
3021875000  -3.531631e+001  -5.851182e+001 
3025000000  -3.399438e+001  -6.214476e+001 
3028125000  -3.309880e+001  -6.750916e+001 
3031250000  -3.207337e+001  -7.909468e+001 
3034375000  -3.172296e+001  -9.276971e+001 
3037500000  -3.202053e+001  -1.051343e+002 
3040625000  -3.342189e+001  -1.095043e+002 
3043750000  -3.413499e+001  -1.142998e+002 
3046875000  -3.427439e+001  -1.208229e+002 
3050000000  -3.594616e+001  -1.272965e+002 
3053125000  -3.597436e+001  -1.211048e+002 
3056250000  -3.543342e+001  -1.187071e+002 
3059375000  -3.560011e+001  -1.184659e+002 
3062500000  -3.416819e+001  -1.222197e+002 
3065625000  -3.384914e+001  -1.283445e+002 
3068750000  -3.350824e+001  -1.353434e+002 
3071875000  -3.342760e+001  -1.379055e+002 
3075000000  -3.326498e+001  -1.418752e+002 
3078125000  -3.297998e+001  -1.455405e+002 
3081250000  -3.343672e+001  -1.497529e+002 
3084375000  -3.256859e+001  -1.539205e+002 
3087500000  -3.238346e+001  -1.571656e+002 
3090625000  -3.193728e+001  -1.672958e+002 
3093750000  -3.231978e+001  -1.750118e+002 
3096875000  -3.340026e+001  1.791854e+002 
3100000000  -3.331455e+001  1.768985e+002 
3103125000  -3.359433e+001  1.776848e+002 
3106250000  -3.317928e+001  1.738195e+002 
3109375000  -3.330751e+001  1.698087e+002 
3112500000  -3.322022e+001  1.677433e+002 
3115625000  -3.282785e+001  1.627923e+002 
3118750000  -3.326385e+001  1.624140e+002 
3121875000  -3.238264e+001  1.536708e+002 
3125000000  -3.350861e+001  1.490117e+002 
3128125000  -3.451572e+001  1.560642e+002 
3131250000  -3.211562e+001  1.547898e+002 
3134375000  -3.074276e+001  1.393925e+002 
3137500000  -3.135858e+001  1.246658e+002 
3140625000  -3.287397e+001  1.225128e+002 
3143750000  -3.389352e+001  1.243873e+002 
3146875000  -3.337759e+001  1.248228e+002 
3150000000  -3.228946e+001  1.253677e+002 
3153125000  -3.237796e+001  1.161965e+002 
3156250000  -3.340825e+001  1.204787e+002 
3159375000  -3.172592e+001  1.220858e+002 
3162500000  -2.978527e+001  1.080187e+002 
3165625000  -3.077648e+001  9.598504e+001 
3168750000  -3.114563e+001  9.588124e+001 
3171875000  -3.014117e+001  8.991830e+001 
3175000000  -3.092924e+001  8.121402e+001 
3178125000  -3.070221e+001  8.214989e+001 
3181250000  -2.962467e+001  7.688555e+001 
3184375000  -2.891494e+001  6.414199e+001 
3187500000  -3.005715e+001  4.867124e+001 
3190625000  -3.284153e+001  4.065900e+001 
3193750000  -3.346536e+001  4.899919e+001 
3196875000  -3.305297e+001  5.332629e+001 
3200000000  -3.218713e+001  5.088135e+001 
3203125000  -3.130186e+001  4.483789e+001 
3206250000  -3.167474e+001  3.800900e+001 
3209375000  -3.116651e+001  3.217594e+001 
3212500000  -3.127723e+001  2.510647e+001 
3215625000  -3.138951e+001  2.103221e+001 
3218750000  -3.211036e+001  1.307676e+001 
3221875000  -3.309248e+001  8.163865e+000 
3225000000  -3.267031e+001  7.371429e+000 
3228125000  -3.301978e+001  1.966620e+000 
3231250000  -3.375760e+001  -4.945896e-001 
3234375000  -3.352481e+001  -7.814613e-001 
3237500000  -3.345424e+001  -2.471446e+000 
3240625000  -3.306047e+001  -4.880023e+000 
3243750000  -3.272807e+001  -1.264331e+001 
3246875000  -3.307851e+001  -1.958248e+001 
3250000000  -3.343590e+001  -2.183180e+001 
3253125000  -3.351642e+001  -2.420862e+001 
3256250000  -3.333139e+001  -3.027218e+001 
3259375000  -3.353538e+001  -3.889968e+001 
3262500000  -3.472013e+001  -4.321467e+001 
3265625000  -3.543033e+001  -4.065984e+001 
3268750000  -3.526815e+001  -3.903559e+001 
3271875000  -3.490194e+001  -3.845279e+001 
3275000000  -3.388808e+001  -4.499238e+001 
3278125000  -3.437500e+001  -5.127607e+001 
3281250000  -3.445193e+001  -5.069547e+001 
3284375000  -3.393661e+001  -5.731669e+001 
3287500000  -3.424420e+001  -6.150951e+001 
3290625000  -3.446132e+001  -6.643215e+001 
3293750000  -3.422891e+001  -7.208566e+001 
3296875000  -3.527759e+001  -7.328968e+001 
3300000000  -3.510975e+001  -7.268143e+001 
3303125000  -3.391370e+001  -7.762199e+001 
3306250000  -3.366311e+001  -8.479240e+001 
3309375000  -3.338842e+001  -9.099232e+001 
3312500000  -3.342150e+001  -1.014682e+002 
3315625000  -3.442117e+001  -1.102049e+002 
3318750000  -3.582337e+001  -1.130370e+002 
3321875000  -3.704667e+001  -1.135024e+002 
3325000000  -3.730761e+001  -1.080768e+002 
3328125000  -3.696332e+001  -1.076657e+002 
3331250000  -3.592613e+001  -1.003373e+002 
3334375000  -3.324476e+001  -1.113655e+002 
3337500000  -3.325473e+001  -1.297093e+002 
3340625000  -3.460672e+001  -1.415228e+002 
3343750000  -3.652917e+001  -1.434312e+002 
3346875000  -3.680363e+001  -1.409215e+002 
3350000000  -3.611849e+001  -1.425998e+002 
3353125000  -3.624287e+001  -1.473508e+002 
3356250000  -3.571377e+001  -1.558372e+002 
3359375000  -3.647202e+001  -1.642709e+002 
3362500000  -3.758688e+001  -1.697790e+002 
3365625000  -3.785723e+001  -1.705430e+002 
3368750000  -3.880528e+001  -1.736273e+002 
3371875000  -3.915173e+001  -1.752634e+002 
3375000000  -4.051764e+001  -1.789565e+002 
3378125000  -4.140037e+001  1.788313e+002 
3381250000  -4.263444e+001  -1.705166e+002 
3384375000  -4.124823e+001  -1.486764e+002 
3387500000  -3.761353e+001  -1.649643e+002 
3390625000  -3.941153e+001  1.754620e+002 
3393750000  -4.065163e+001  1.786500e+002 
3396875000  -3.931560e+001  -1.796544e+002 
3400000000  -3.891527e+001  1.718748e+002 
3403125000  -3.956945e+001  1.673160e+002 
3406250000  -3.953717e+001  1.671247e+002 
3409375000  -4.012257e+001  1.580002e+002 
3412500000  -4.021428e+001  1.575207e+002 
3415625000  -4.102496e+001  1.576132e+002 
3418750000  -4.113373e+001  1.592522e+002 
3421875000  -4.146938e+001  1.601807e+002 
3425000000  -4.034286e+001  1.616686e+002 
3428125000  -3.943788e+001  1.575788e+002 
3431250000  -3.949918e+001  1.510553e+002 
3434375000  -3.923708e+001  1.453572e+002 
3437500000  -3.988317e+001  1.416559e+002 
3440625000  -3.992240e+001  1.415121e+002 
3443750000  -3.876312e+001  1.423591e+002 
3446875000  -3.806668e+001  1.357083e+002 
3450000000  -3.775616e+001  1.251912e+002 
3453125000  -3.772027e+001  1.146572e+002 
3456250000  -3.919071e+001  1.093781e+002 
3459375000  -4.009099e+001  1.106104e+002 
3462500000  -4.000459e+001  1.099037e+002 
3465625000  -3.986093e+001  1.041149e+002 
3468750000  -4.014314e+001  1.010378e+002 
3471875000  -3.995276e+001  9.918174e+001 
3475000000  -3.972054e+001  9.373151e+001 
3478125000  -4.025046e+001  8.612514e+001 
3481250000  -4.130684e+001  8.366095e+001 
3484375000  -4.220756e+001  8.860985e+001 
3487500000  -4.123760e+001  8.661366e+001 
3490625000  -4.077896e+001  8.183611e+001 
3493750000  -4.106232e+001  7.571638e+001 
3496875000  -4.183522e+001  7.254739e+001 
3500000000  -4.237910e+001  7.622276e+001 
3503125000  -4.202159e+001  7.631010e+001 
3506250000  -4.067903e+001  7.229412e+001 
3509375000  -4.062260e+001  6.397377e+001 
3512500000  -4.121856e+001  5.414734e+001 
3515625000  -4.180542e+001  5.127842e+001 
3518750000  -4.249020e+001  5.243539e+001 
3521875000  -4.253182e+001  4.998528e+001 
3525000000  -4.362968e+001  4.498553e+001 
3528125000  -4.360910e+001  5.449506e+001 
3531250000  -4.249068e+001  5.279679e+001 
3534375000  -4.258046e+001  4.329970e+001 
3537500000  -4.268691e+001  3.688565e+001 
3540625000  -4.369329e+001  3.636433e+001 
3543750000  -4.473879e+001  4.080096e+001 
3546875000  -4.448197e+001  5.175676e+001 
3550000000  -4.160065e+001  5.204129e+001 
3553125000  -4.044883e+001  3.450988e+001 
3556250000  -4.183575e+001  2.810061e+001 
3559375000  -4.175594e+001  3.000382e+001 
3562500000  -4.076546e+001  2.265703e+001 
3565625000  -4.135146e+001  1.471553e+001 
3568750000  -4.152874e+001  1.745966e+001 
3571875000  -4.150059e+001  1.695366e+001 
3575000000  -4.105415e+001  9.600687e+000 
3578125000  -4.181168e+001  2.475248e+000 
3581250000  -4.164402e+001  1.903152e+000 
3584375000  -4.092432e+001  7.850388e-001 
3587500000  -4.026814e+001  -9.114899e+000 
3590625000  -4.091587e+001  -1.835827e+001 
3593750000  -4.207125e+001  -2.017956e+001 
3596875000  -4.203773e+001  -1.606754e+001 
3600000000  -4.063181e+001  -2.036311e+001 
3603125000  -4.112567e+001  -3.604266e+001 
3606250000  -4.188429e+001  -3.652701e+001 
3609375000  -4.239566e+001  -4.194149e+001 
3612500000  -4.270071e+001  -4.545989e+001 
3615625000  -4.339816e+001  -4.820311e+001 
3618750000  -4.400816e+001  -4.863630e+001 
3621875000  -4.354551e+001  -5.371031e+001 
3625000000  -4.484068e+001  -5.462037e+001 
3628125000  -4.468588e+001  -5.739953e+001 
3631250000  -4.450150e+001  -5.991282e+001 
3634375000  -4.578851e+001  -6.261008e+001 
3637500000  -4.595685e+001  -5.699731e+001 
3640625000  -4.535248e+001  -5.303443e+001 
3643750000  -4.519828e+001  -6.148627e+001 
3646875000  -4.565469e+001  -6.450391e+001 
3650000000  -4.657039e+001  -6.235860e+001 
3653125000  -4.609732e+001  -6.345129e+001 
3656250000  -4.646690e+001  -6.350715e+001 
3659375000  -4.636802e+001  -6.079838e+001 
3662500000  -4.578514e+001  -6.169035e+001 
3665625000  -4.544874e+001  -6.295132e+001 
3668750000  -4.457628e+001  -6.232552e+001 
3671875000  -4.376814e+001  -6.686469e+001 
3675000000  -4.383395e+001  -7.297201e+001 
3678125000  -4.405141e+001  -7.526169e+001 
3681250000  -4.381465e+001  -7.873956e+001 
3684375000  -4.375129e+001  -8.363218e+001 
3687500000  -4.381869e+001  -8.519540e+001 
3690625000  -4.358996e+001  -9.107066e+001 
3693750000  -4.463557e+001  -8.937960e+001 
3696875000  -4.442661e+001  -8.952213e+001 
3700000000  -4.335415e+001  -9.475824e+001 
3703125000  -4.346826e+001  -9.913147e+001 
3706250000  -4.441254e+001  -1.017335e+002 
3709375000  -4.367940e+001  -9.738959e+001 
3712500000  -4.304038e+001  -1.000195e+002 
3715625000  -4.212350e+001  -1.085600e+002 
3718750000  -4.165644e+001  -1.149184e+002 
3721875000  -4.165131e+001  -1.186238e+002 
3725000000  -4.181923e+001  -1.278196e+002 
3728125000  -4.252686e+001  -1.282526e+002 
3731250000  -4.183842e+001  -1.295182e+002 
3734375000  -4.168642e+001  -1.350740e+002 
3737500000  -4.229179e+001  -1.437893e+002 
3740625000  -4.338307e+001  -1.461998e+002 
3743750000  -4.361798e+001  -1.493269e+002 
3746875000  -4.353468e+001  -1.533519e+002 
3750000000  -4.441003e+001  -1.530263e+002 
3753125000  -4.407693e+001  -1.531683e+002 
3756250000  -4.452654e+001  -1.527176e+002 
3759375000  -4.442150e+001  -1.517269e+002 
3762500000  -4.408026e+001  -1.549801e+002 
3765625000  -4.442477e+001  -1.551691e+002 
3768750000  -4.505194e+001  -1.517100e+002 
3771875000  -4.318484e+001  -1.523117e+002 
3775000000  -4.295161e+001  -1.587926e+002 
3778125000  -4.310380e+001  -1.616093e+002 
3781250000  -4.302835e+001  -1.616192e+002 
3784375000  -4.290600e+001  -1.642476e+002 
3787500000  -4.174842e+001  -1.665535e+002 
3790625000  -4.237646e+001  -1.739734e+002 
3793750000  -4.227525e+001  -1.738030e+002 
3796875000  -4.143933e+001  -1.770250e+002 
3800000000  -3.995639e+001  -1.788565e+002 
3803125000  -4.011245e+001  1.721746e+002 
3806250000  -4.105353e+001  1.704807e+002 
3809375000  -4.044442e+001  1.682134e+002 
3812500000  -3.984573e+001  1.629840e+002 
3815625000  -4.033136e+001  1.509948e+002 
3818750000  -4.150993e+001  1.509889e+002 
3821875000  -4.130106e+001  1.576292e+002 
3825000000  -3.931723e+001  1.605597e+002 
3828125000  -3.801149e+001  1.445017e+002 
3831250000  -3.866043e+001  1.294279e+002 
3834375000  -4.016390e+001  1.295578e+002 
3837500000  -4.091500e+001  1.330189e+002 
3840625000  -3.991252e+001  1.304222e+002 
3843750000  -3.883754e+001  1.184427e+002 
3846875000  -3.967219e+001  1.114785e+002 
3850000000  -4.098259e+001  1.159629e+002 
3853125000  -4.050444e+001  1.170316e+002 
3856250000  -4.013679e+001  1.116005e+002 
3859375000  -3.937415e+001  1.059874e+002 
3862500000  -3.949799e+001  9.834898e+001 
3865625000  -3.955288e+001  9.240823e+001 
3868750000  -3.961195e+001  9.300658e+001 
3871875000  -3.883839e+001  8.944628e+001 
3875000000  -3.914486e+001  7.909264e+001 
3878125000  -4.036204e+001  7.767065e+001 
3881250000  -4.057162e+001  7.999998e+001 
3884375000  -3.994108e+001  7.454139e+001 
3887500000  -4.017745e+001  7.002421e+001 
3890625000  -4.062988e+001  6.734179e+001 
3893750000  -4.086546e+001  6.410983e+001 
3896875000  -4.119529e+001  6.781599e+001 
3900000000  -4.122789e+001  6.327243e+001 
3903125000  -4.094202e+001  6.132541e+001 
3906250000  -4.058765e+001  6.114896e+001 
3909375000  -3.965084e+001  5.640113e+001 
3912500000  -3.970618e+001  4.862399e+001 
3915625000  -4.113342e+001  4.899436e+001 
3918750000  -4.079181e+001  5.017810e+001 
3921875000  -4.034930e+001  4.698795e+001 
3925000000  -3.972191e+001  4.354883e+001 
3928125000  -3.895163e+001  3.865590e+001 
3931250000  -3.953269e+001  3.191737e+001 
3934375000  -3.966843e+001  3.152566e+001 
3937500000  -3.977234e+001  3.015418e+001 
3940625000  -4.020203e+001  2.839095e+001 
3943750000  -3.935462e+001  2.951503e+001 
3946875000  -3.815802e+001  2.118611e+001 
3950000000  -3.897837e+001  1.527422e+001 
3953125000  -3.976121e+001  1.199721e+001 
3956250000  -3.906539e+001  1.589246e+001 
3959375000  -3.790953e+001  1.141164e+001 
3962500000  -3.728494e+001  6.299371e+000 
3965625000  -3.718449e+001  -4.920087e+000 
3968750000  -3.820833e+001  -1.256575e+001 
3971875000  -3.827446e+001  -1.349887e+001 
3975000000  -3.783691e+001  -1.582652e+001 
3978125000  -3.802627e+001  -1.920319e+001 
3981250000  -3.764915e+001  -2.457344e+001 
3984375000  -3.813409e+001  -3.066161e+001 
3987500000  -3.838628e+001  -3.349849e+001 
3990625000  -3.816681e+001  -3.461906e+001 
3993750000  -3.884278e+001  -3.983771e+001 
3996875000  -3.894297e+001  -4.194110e+001 
4000000000  -3.900768e+001  -4.372423e+001 
4003125000  -3.934253e+001  -4.337765e+001 
4006250000  -3.801165e+001  -4.321239e+001 
4009375000  -3.695087e+001  -5.690488e+001 
4012500000  -3.824085e+001  -6.299413e+001 
4015625000  -3.959707e+001  -6.291858e+001 
4018750000  -3.976951e+001  -6.179490e+001 
4021875000  -3.888647e+001  -6.406451e+001 
4025000000  -3.850766e+001  -7.019697e+001 
4028125000  -3.849570e+001  -7.432982e+001 
4031250000  -3.902472e+001  -7.794700e+001 
4034375000  -3.951124e+001  -7.966486e+001 
4037500000  -3.892092e+001  -7.728706e+001 
4040625000  -3.876146e+001  -8.195221e+001 
4043750000  -3.912800e+001  -8.340939e+001 
4046875000  -3.850718e+001  -8.385643e+001 
4050000000  -3.814722e+001  -8.950004e+001 
4053125000  -3.861159e+001  -9.275087e+001 
4056250000  -3.923983e+001  -8.990107e+001 
4059375000  -3.790421e+001  -8.927676e+001 
4062500000  -3.668002e+001  -9.461279e+001 
4065625000  -3.653785e+001  -9.808867e+001 
4068750000  -3.625952e+001  -1.056999e+002 
4071875000  -3.579352e+001  -1.136514e+002 
4075000000  -3.607730e+001  -1.209768e+002 
4078125000  -3.649241e+001  -1.212037e+002 
4081250000  -3.620515e+001  -1.262925e+002 
4084375000  -3.568768e+001  -1.329375e+002 
4087500000  -3.616936e+001  -1.397390e+002 
4090625000  -3.665380e+001  -1.417695e+002 
4093750000  -3.642450e+001  -1.424353e+002 
4096875000  -3.614141e+001  -1.491057e+002 
4100000000  -3.687761e+001  -1.572615e+002 
4103125000  -3.780696e+001  -1.566100e+002 
4106250000  -3.777505e+001  -1.522762e+002 
4109375000  -3.657708e+001  -1.537811e+002 
4112500000  -3.620133e+001  -1.624561e+002 
4115625000  -3.642173e+001  -1.668077e+002 
4118750000  -3.679493e+001  -1.714108e+002 
4121875000  -3.621726e+001  -1.753404e+002 
4125000000  -3.663830e+001  1.772410e+002 
4128125000  -3.760196e+001  1.773204e+002 
4131250000  -3.757634e+001  -1.746758e+002 
4134375000  -3.499349e+001  1.791576e+002 
4137500000  -3.492603e+001  1.586042e+002 
4140625000  -3.740197e+001  1.531931e+002 
4143750000  -3.855809e+001  1.565504e+002 
4146875000  -3.815484e+001  1.624951e+002 
4150000000  -3.732133e+001  1.581656e+002 
4153125000  -3.717185e+001  1.514614e+002 
4156250000  -3.826073e+001  1.487093e+002 
4159375000  -3.861235e+001  1.523414e+002 
4162500000  -3.745863e+001  1.555393e+002 
4165625000  -3.635339e+001  1.517967e+002 
4168750000  -3.575343e+001  1.439582e+002 
4171875000  -3.583234e+001  1.337485e+002 
4175000000  -3.652639e+001  1.278469e+002 
4178125000  -3.696505e+001  1.280016e+002 
4181250000  -3.678723e+001  1.269944e+002 
4184375000  -3.666011e+001  1.225015e+002 
4187500000  -3.663961e+001  1.192089e+002 
4190625000  -3.636967e+001  1.139468e+002 
4193750000  -3.722595e+001  1.094444e+002 
4196875000  -3.798403e+001  1.076920e+002 
4200000000  -3.870296e+001  1.092777e+002 
4203125000  -3.855211e+001  1.231187e+002 
4206250000  -3.506317e+001  1.247460e+002 
4209375000  -3.417580e+001  1.011542e+002 
4212500000  -3.621258e+001  9.393222e+001 
4215625000  -3.693828e+001  9.902702e+001 
4218750000  -3.551989e+001  1.044172e+002 
4221875000  -3.341272e+001  9.458340e+001 
4225000000  -3.471200e+001  8.061398e+001 
4228125000  -3.524754e+001  8.348863e+001 
4231250000  -3.349324e+001  8.055746e+001 
4234375000  -3.341840e+001  7.043164e+001 
4237500000  -3.316530e+001  6.595234e+001 
4240625000  -3.313094e+001  5.629921e+001 
4243750000  -3.428603e+001  4.834463e+001 
4246875000  -3.504356e+001  4.697385e+001 
4250000000  -3.500030e+001  5.047625e+001 
4253125000  -3.460136e+001  4.561574e+001 
4256250000  -3.482732e+001  4.069403e+001 
4259375000  -3.469902e+001  3.939339e+001 
4262500000  -3.482409e+001  3.316671e+001 
4265625000  -3.493135e+001  3.257214e+001 
4268750000  -3.395160e+001  2.760437e+001 
4271875000  -3.391360e+001  2.083289e+001 
4275000000  -3.331806e+001  1.221854e+001 
4278125000  -3.405069e+001  1.090216e+000 
4281250000  -3.616384e+001  -1.182253e+000 
4284375000  -3.593113e+001  -8.549426e-001 
4287500000  -3.664320e+001  -4.968174e+000 
4290625000  -3.796506e+001  4.453796e+000 
4293750000  -3.622711e+001  9.576323e+000 
4296875000  -3.480258e+001  -1.513347e+000 
4300000000  -3.583199e+001  -1.214755e+001 
4303125000  -3.687327e+001  -9.330900e+000 
4306250000  -3.633480e+001  -5.151825e+000 
4309375000  -3.499953e+001  -6.975270e+000 
4312500000  -3.480798e+001  -1.526626e+001 
4315625000  -3.493315e+001  -2.070710e+001 
4318750000  -3.518129e+001  -2.460072e+001 
4321875000  -3.532766e+001  -2.460042e+001 
4325000000  -3.475866e+001  -2.442135e+001 
4328125000  -3.423371e+001  -3.041141e+001 
4331250000  -3.388258e+001  -3.951098e+001 
4334375000  -3.442081e+001  -4.492325e+001 
4337500000  -3.503133e+001  -4.734837e+001 
4340625000  -3.583960e+001  -4.372150e+001 
4343750000  -3.476645e+001  -4.541440e+001 
4346875000  -3.445373e+001  -5.190854e+001 
4350000000  -3.427614e+001  -5.703629e+001 
4353125000  -3.432687e+001  -6.654998e+001 
4356250000  -3.597051e+001  -6.820024e+001 
4359375000  -3.645952e+001  -5.458754e+001 
4362500000  -3.370732e+001  -5.550666e+001 
4365625000  -3.192193e+001  -6.731591e+001 
4368750000  -3.267989e+001  -8.049730e+001 
4371875000  -3.381189e+001  -8.094891e+001 
4375000000  -3.355038e+001  -8.128687e+001 
4378125000  -3.277468e+001  -8.861186e+001 
4381250000  -3.298526e+001  -9.568443e+001 
4384375000  -3.285768e+001  -1.015475e+002 
4387500000  -3.362646e+001  -1.091340e+002 
4390625000  -3.469411e+001  -1.097998e+002 
4393750000  -3.384807e+001  -1.078678e+002 
4396875000  -3.344596e+001  -1.113075e+002 
4400000000  -3.284535e+001  -1.193598e+002 
4403125000  -3.362499e+001  -1.285020e+002 
4406250000  -3.446733e+001  -1.302444e+002 
4409375000  -3.454301e+001  -1.338320e+002 
4412500000  -3.571161e+001  -1.375457e+002 
4415625000  -3.606023e+001  -1.334480e+002 
