!Agilent Technologies,E8363B,MY43030201,A.06.04.32
!Agilent E8363B: A.06.04.32
!Date: Tuesday, November 11, 2014 21:05:56
!Correction: S21(Response(S21)) 
!S1P File: Measurement: S21:
# Hz S  dB   R 50
3000000000  -3.653827e+001  -4.881541e+001 
3003125000  -3.745200e+001  -5.375627e+001 
3006250000  -3.745506e+001  -5.754375e+001 
3009375000  -3.774215e+001  -5.268427e+001 
3012500000  -3.702448e+001  -5.499490e+001 
3015625000  -3.611473e+001  -6.203509e+001 
3018750000  -3.698954e+001  -6.353850e+001 
3021875000  -3.551041e+001  -6.289581e+001 
3025000000  -3.416976e+001  -6.572493e+001 
3028125000  -3.319003e+001  -7.214223e+001 
3031250000  -3.217512e+001  -8.411013e+001 
3034375000  -3.176112e+001  -9.743857e+001 
3037500000  -3.215129e+001  -1.095465e+002 
3040625000  -3.359792e+001  -1.147048e+002 
3043750000  -3.423850e+001  -1.195698e+002 
3046875000  -3.451204e+001  -1.253386e+002 
3050000000  -3.604662e+001  -1.315230e+002 
3053125000  -3.609754e+001  -1.262385e+002 
3056250000  -3.561917e+001  -1.224569e+002 
3059375000  -3.573853e+001  -1.229743e+002 
3062500000  -3.405507e+001  -1.264829e+002 
3065625000  -3.388827e+001  -1.322711e+002 
3068750000  -3.357429e+001  -1.399057e+002 
3071875000  -3.349626e+001  -1.416107e+002 
3075000000  -3.330149e+001  -1.459498e+002 
3078125000  -3.297480e+001  -1.499416e+002 
3081250000  -3.356628e+001  -1.541463e+002 
3084375000  -3.263468e+001  -1.578890e+002 
3087500000  -3.242039e+001  -1.621392e+002 
3090625000  -3.193880e+001  -1.716794e+002 
3093750000  -3.235844e+001  -1.791788e+002 
3096875000  -3.346504e+001  1.752680e+002 
3100000000  -3.343415e+001  1.720887e+002 
3103125000  -3.360028e+001  1.734616e+002 
3106250000  -3.315397e+001  1.691673e+002 
3109375000  -3.325863e+001  1.651456e+002 
3112500000  -3.319882e+001  1.632999e+002 
3115625000  -3.286213e+001  1.584391e+002 
3118750000  -3.317780e+001  1.585005e+002 
3121875000  -3.236211e+001  1.487107e+002 
3125000000  -3.343973e+001  1.445309e+002 
3128125000  -3.446991e+001  1.513801e+002 
3131250000  -3.211015e+001  1.501739e+002 
3134375000  -3.079230e+001  1.350430e+002 
3137500000  -3.131804e+001  1.211690e+002 
3140625000  -3.277502e+001  1.173796e+002 
3143750000  -3.377814e+001  1.192614e+002 
3146875000  -3.330765e+001  1.203561e+002 
3150000000  -3.222673e+001  1.205511e+002 
3153125000  -3.231885e+001  1.113040e+002 
3156250000  -3.333555e+001  1.160259e+002 
3159375000  -3.164897e+001  1.170146e+002 
3162500000  -2.964088e+001  1.031488e+002 
3165625000  -3.069068e+001  9.051501e+001 
3168750000  -3.104783e+001  9.096624e+001 
3171875000  -3.016472e+001  8.504376e+001 
3175000000  -3.093622e+001  7.655348e+001 
3178125000  -3.060005e+001  7.661570e+001 
3181250000  -2.956737e+001  7.196447e+001 
3184375000  -2.886900e+001  5.950830e+001 
3187500000  -3.005434e+001  4.412465e+001 
3190625000  -3.281257e+001  3.521540e+001 
3193750000  -3.343321e+001  4.433334e+001 
3196875000  -3.296782e+001  4.830005e+001 
3200000000  -3.204392e+001  4.672298e+001 
3203125000  -3.124769e+001  3.948000e+001 
3206250000  -3.155064e+001  3.311289e+001 
3209375000  -3.113840e+001  2.686310e+001 
3212500000  -3.128022e+001  2.002318e+001 
3215625000  -3.141853e+001  1.632624e+001 
3218750000  -3.212081e+001  9.106494e+000 
3221875000  -3.299717e+001  2.925653e+000 
3225000000  -3.261853e+001  2.474537e+000 
3228125000  -3.302794e+001  -2.947197e+000 
3231250000  -3.371201e+001  -5.412395e+000 
3234375000  -3.334957e+001  -5.403747e+000 
3237500000  -3.339442e+001  -7.198645e+000 
3240625000  -3.298717e+001  -9.252993e+000 
3243750000  -3.259195e+001  -1.717699e+001 
3246875000  -3.293347e+001  -2.446474e+001 
3250000000  -3.338322e+001  -2.692151e+001 
3253125000  -3.354908e+001  -2.879926e+001 
3256250000  -3.313788e+001  -3.521616e+001 
3259375000  -3.349225e+001  -4.364382e+001 
3262500000  -3.460155e+001  -4.772437e+001 
3265625000  -3.520091e+001  -4.566393e+001 
3268750000  -3.513206e+001  -4.294035e+001 
3271875000  -3.473671e+001  -4.329007e+001 
3275000000  -3.373261e+001  -5.089117e+001 
3278125000  -3.416338e+001  -5.694727e+001 
3281250000  -3.437132e+001  -5.541822e+001 
3284375000  -3.398494e+001  -6.296793e+001 
3287500000  -3.409062e+001  -6.653484e+001 
3290625000  -3.432748e+001  -7.182864e+001 
3293750000  -3.408502e+001  -7.765411e+001 
3296875000  -3.514205e+001  -7.842976e+001 
3300000000  -3.485643e+001  -7.717425e+001 
3303125000  -3.379205e+001  -8.357893e+001 
3306250000  -3.337853e+001  -9.005669e+001 
3309375000  -3.325615e+001  -9.673979e+001 
3312500000  -3.326960e+001  -1.072902e+002 
3315625000  -3.438997e+001  -1.158848e+002 
3318750000  -3.571980e+001  -1.187381e+002 
3321875000  -3.681536e+001  -1.197726e+002 
3325000000  -3.737013e+001  -1.131392e+002 
3328125000  -3.695903e+001  -1.142275e+002 
3331250000  -3.566122e+001  -1.066384e+002 
3334375000  -3.297608e+001  -1.167320e+002 
3337500000  -3.307595e+001  -1.358736e+002 
3340625000  -3.448624e+001  -1.458964e+002 
3343750000  -3.642652e+001  -1.481080e+002 
3346875000  -3.666509e+001  -1.463425e+002 
3350000000  -3.611492e+001  -1.493152e+002 
3353125000  -3.595061e+001  -1.539550e+002 
3356250000  -3.555082e+001  -1.617147e+002 
3359375000  -3.631467e+001  -1.695301e+002 
3362500000  -3.754466e+001  -1.754513e+002 
3365625000  -3.800627e+001  -1.774993e+002 
3368750000  -3.872227e+001  -1.788629e+002 
3371875000  -3.886576e+001  1.776627e+002 
3375000000  -4.026589e+001  1.753422e+002 
3378125000  -4.117193e+001  1.753067e+002 
3381250000  -4.235591e+001  -1.757205e+002 
3384375000  -4.118007e+001  -1.556068e+002 
3387500000  -3.758034e+001  -1.698423e+002 
3390625000  -3.919682e+001  1.693549e+002 
3393750000  -4.037479e+001  1.736268e+002 
3396875000  -3.916154e+001  1.744907e+002 
3400000000  -3.859494e+001  1.659046e+002 
3403125000  -3.921806e+001  1.592569e+002 
3406250000  -3.988877e+001  1.601055e+002 
3409375000  -3.989029e+001  1.521319e+002 
3412500000  -4.017336e+001  1.506502e+002 
3415625000  -4.114152e+001  1.524301e+002 
3418750000  -4.103861e+001  1.515272e+002 
3421875000  -4.144762e+001  1.558015e+002 
3425000000  -4.016892e+001  1.557120e+002 
3428125000  -3.940325e+001  1.515238e+002 
3431250000  -3.934142e+001  1.442233e+002 
3434375000  -3.921215e+001  1.388266e+002 
3437500000  -3.965322e+001  1.330352e+002 
3440625000  -3.980533e+001  1.367296e+002 
3443750000  -3.892219e+001  1.377166e+002 
3446875000  -3.777656e+001  1.290148e+002 
3450000000  -3.756566e+001  1.194367e+002 
3453125000  -3.794297e+001  1.090018e+002 
3456250000  -3.906929e+001  1.028944e+002 
3459375000  -3.996241e+001  1.031052e+002 
3462500000  -3.988215e+001  1.040787e+002 
3465625000  -3.992608e+001  9.737698e+001 
3468750000  -4.030174e+001  9.340781e+001 
3471875000  -4.009913e+001  9.127318e+001 
3475000000  -3.971167e+001  8.886988e+001 
3478125000  -4.040891e+001  7.939915e+001 
3481250000  -4.128448e+001  7.778508e+001 
3484375000  -4.202577e+001  7.949847e+001 
3487500000  -4.163738e+001  8.059101e+001 
3490625000  -4.093026e+001  7.685274e+001 
3493750000  -4.138540e+001  7.102696e+001 
3496875000  -4.211773e+001  6.773725e+001 
3500000000  -4.253350e+001  7.148796e+001 
3503125000  -4.175983e+001  6.977965e+001 
3506250000  -4.073970e+001  6.971931e+001 
3509375000  -4.073029e+001  5.868674e+001 
3512500000  -4.111728e+001  5.048432e+001 
3515625000  -4.184083e+001  4.698506e+001 
3518750000  -4.235972e+001  4.715046e+001 
3521875000  -4.261096e+001  4.540516e+001 
3525000000  -4.330589e+001  4.328831e+001 
3528125000  -4.343189e+001  5.173737e+001 
3531250000  -4.189381e+001  4.899481e+001 
3534375000  -4.200133e+001  3.623042e+001 
3537500000  -4.242490e+001  3.453626e+001 
3540625000  -4.340863e+001  3.123911e+001 
3543750000  -4.432008e+001  3.558286e+001 
3546875000  -4.414464e+001  4.580343e+001 
3550000000  -4.158282e+001  4.830777e+001 
3553125000  -4.016930e+001  3.088498e+001 
3556250000  -4.153889e+001  2.389814e+001 
3559375000  -4.146407e+001  2.426798e+001 
3562500000  -4.024937e+001  1.765123e+001 
3565625000  -4.107731e+001  7.772588e+000 
3568750000  -4.131458e+001  1.053136e+001 
3571875000  -4.110339e+001  1.067569e+001 
3575000000  -4.070278e+001  1.960546e+000 
3578125000  -4.136417e+001  -3.084519e+000 
3581250000  -4.127046e+001  -1.990029e+000 
3584375000  -4.050560e+001  -6.612041e+000 
3587500000  -4.004944e+001  -1.440040e+001 
3590625000  -4.030414e+001  -2.524366e+001 
3593750000  -4.161975e+001  -2.700356e+001 
3596875000  -4.161325e+001  -1.940896e+001 
3600000000  -4.028202e+001  -2.710431e+001 
3603125000  -4.051322e+001  -4.303999e+001 
3606250000  -4.148055e+001  -4.542414e+001 
3609375000  -4.202781e+001  -4.868417e+001 
3612500000  -4.292210e+001  -5.085283e+001 
3615625000  -4.307681e+001  -5.621149e+001 
3618750000  -4.359622e+001  -5.402249e+001 
3621875000  -4.356272e+001  -5.853724e+001 
3625000000  -4.429338e+001  -5.973921e+001 
3628125000  -4.451918e+001  -5.927896e+001 
3631250000  -4.411168e+001  -6.313742e+001 
3634375000  -4.540408e+001  -6.650415e+001 
3637500000  -4.587710e+001  -5.797390e+001 
3640625000  -4.489737e+001  -5.718065e+001 
3643750000  -4.483949e+001  -6.558678e+001 
3646875000  -4.484103e+001  -7.000531e+001 
3650000000  -4.591846e+001  -7.004491e+001 
3653125000  -4.553061e+001  -6.979271e+001 
3656250000  -4.564279e+001  -7.069433e+001 
3659375000  -4.577301e+001  -6.951620e+001 
3662500000  -4.509993e+001  -6.684579e+001 
3665625000  -4.479059e+001  -6.933813e+001 
3668750000  -4.411155e+001  -7.281312e+001 
3671875000  -4.289578e+001  -7.501986e+001 
3675000000  -4.304640e+001  -8.235398e+001 
3678125000  -4.304736e+001  -8.471819e+001 
3681250000  -4.291036e+001  -8.637181e+001 
3684375000  -4.288376e+001  -9.054085e+001 
3687500000  -4.318581e+001  -9.629289e+001 
3690625000  -4.289896e+001  -9.986391e+001 
3693750000  -4.396709e+001  -9.978989e+001 
3696875000  -4.355989e+001  -1.005798e+002 
3700000000  -4.304305e+001  -1.035012e+002 
3703125000  -4.298925e+001  -1.106490e+002 
3706250000  -4.366857e+001  -1.099891e+002 
3709375000  -4.344273e+001  -1.079044e+002 
3712500000  -4.238856e+001  -1.080347e+002 
3715625000  -4.146025e+001  -1.183114e+002 
3718750000  -4.151580e+001  -1.250297e+002 
3721875000  -4.120318e+001  -1.314975e+002 
3725000000  -4.168833e+001  -1.378738e+002 
3728125000  -4.191295e+001  -1.375031e+002 
3731250000  -4.152901e+001  -1.406514e+002 
3734375000  -4.108891e+001  -1.465623e+002 
3737500000  -4.219701e+001  -1.550846e+002 
3740625000  -4.349414e+001  -1.583972e+002 
3743750000  -4.337209e+001  -1.611102e+002 
3746875000  -4.371896e+001  -1.620730e+002 
3750000000  -4.440042e+001  -1.647205e+002 
3753125000  -4.453440e+001  -1.652294e+002 
3756250000  -4.440517e+001  -1.635573e+002 
3759375000  -4.485061e+001  -1.597928e+002 
3762500000  -4.430289e+001  -1.661210e+002 
3765625000  -4.470777e+001  -1.655545e+002 
3768750000  -4.511118e+001  -1.608231e+002 
3771875000  -4.352674e+001  -1.660038e+002 
3775000000  -4.301872e+001  -1.704896e+002 
3778125000  -4.339058e+001  -1.711216e+002 
3781250000  -4.275000e+001  -1.724901e+002 
3784375000  -4.273988e+001  -1.720300e+002 
3787500000  -4.188742e+001  -1.752985e+002 
3790625000  -4.254278e+001  1.760191e+002 
3793750000  -4.270666e+001  1.773470e+002 
3796875000  -4.129764e+001  1.748597e+002 
3800000000  -3.949717e+001  1.721670e+002 
3803125000  -4.011577e+001  1.624949e+002 
3806250000  -4.084409e+001  1.593608e+002 
3809375000  -4.057232e+001  1.579830e+002 
3812500000  -3.945154e+001  1.522749e+002 
3815625000  -4.037432e+001  1.416289e+002 
3818750000  -4.154578e+001  1.410789e+002 
3821875000  -4.129519e+001  1.502248e+002 
3825000000  -3.953612e+001  1.531047e+002 
3828125000  -3.814060e+001  1.358440e+002 
3831250000  -3.860759e+001  1.185691e+002 
3834375000  -4.027374e+001  1.205938e+002 
3837500000  -4.097592e+001  1.220027e+002 
3840625000  -3.988097e+001  1.213453e+002 
3843750000  -3.893367e+001  1.075185e+002 
3846875000  -3.953369e+001  1.019467e+002 
3850000000  -4.120242e+001  1.068263e+002 
3853125000  -4.046944e+001  1.082188e+002 
3856250000  -4.050226e+001  1.031052e+002 
3859375000  -3.942534e+001  9.847437e+001 
3862500000  -3.962353e+001  8.853653e+001 
3865625000  -3.971182e+001  8.412922e+001 
3868750000  -3.962241e+001  8.331206e+001 
3871875000  -3.914647e+001  7.880927e+001 
3875000000  -3.955747e+001  6.943179e+001 
3878125000  -4.062022e+001  6.626554e+001 
3881250000  -4.073475e+001  6.947952e+001 
3884375000  -3.997647e+001  6.522807e+001 
3887500000  -4.056672e+001  6.093199e+001 
3890625000  -4.110328e+001  5.825152e+001 
3893750000  -4.116864e+001  5.608929e+001 
3896875000  -4.148972e+001  5.723064e+001 
3900000000  -4.177863e+001  5.566566e+001 
3903125000  -4.133988e+001  5.284676e+001 
3906250000  -4.097832e+001  5.125800e+001 
3909375000  -4.008967e+001  4.797549e+001 
3912500000  -3.998795e+001  4.013233e+001 
3915625000  -4.128664e+001  4.447670e+001 
3918750000  -4.120828e+001  4.316814e+001 
3921875000  -4.063659e+001  4.020724e+001 
3925000000  -3.949473e+001  3.723170e+001 
3928125000  -3.905052e+001  3.112223e+001 
3931250000  -3.941264e+001  2.690960e+001 
3934375000  -3.987393e+001  2.436428e+001 
3937500000  -4.006502e+001  2.382875e+001 
3940625000  -4.034138e+001  2.203119e+001 
3943750000  -3.935968e+001  2.153381e+001 
3946875000  -3.838049e+001  1.570565e+001 
3950000000  -3.894033e+001  7.182074e+000 
3953125000  -3.978616e+001  5.489541e+000 
3956250000  -3.911142e+001  7.424325e+000 
3959375000  -3.788150e+001  4.279493e+000 
3962500000  -3.716173e+001  -2.681865e+000 
3965625000  -3.713632e+001  -1.200353e+001 
3968750000  -3.838287e+001  -2.078226e+001 
3971875000  -3.833852e+001  -2.271272e+001 
3975000000  -3.789405e+001  -2.345238e+001 
3978125000  -3.761625e+001  -2.765037e+001 
3981250000  -3.783789e+001  -3.324439e+001 
3984375000  -3.809876e+001  -3.862873e+001 
3987500000  -3.855180e+001  -4.280763e+001 
3990625000  -3.862079e+001  -4.242281e+001 
3993750000  -3.887440e+001  -4.734122e+001 
3996875000  -3.892107e+001  -5.135459e+001 
4000000000  -3.932715e+001  -5.425360e+001 
4003125000  -3.979243e+001  -5.048611e+001 
4006250000  -3.860767e+001  -5.437300e+001 
4009375000  -3.739436e+001  -6.680074e+001 
4012500000  -3.862753e+001  -7.271370e+001 
4015625000  -3.989101e+001  -7.210844e+001 
4018750000  -3.996495e+001  -7.137589e+001 
4021875000  -3.934897e+001  -7.267841e+001 
4025000000  -3.898191e+001  -7.661983e+001 
4028125000  -3.900339e+001  -8.169299e+001 
4031250000  -3.943464e+001  -8.569421e+001 
4034375000  -3.981244e+001  -8.584855e+001 
4037500000  -3.934240e+001  -8.454534e+001 
4040625000  -3.941511e+001  -8.915072e+001 
4043750000  -3.942337e+001  -8.926220e+001 
4046875000  -3.886736e+001  -8.966792e+001 
4050000000  -3.828613e+001  -9.666272e+001 
4053125000  -3.912281e+001  -9.925198e+001 
4056250000  -3.945740e+001  -9.772080e+001 
4059375000  -3.817749e+001  -9.590804e+001 
4062500000  -3.673342e+001  -9.949804e+001 
4065625000  -3.676472e+001  -1.042666e+002 
4068750000  -3.648564e+001  -1.127514e+002 
4071875000  -3.577761e+001  -1.208501e+002 
4075000000  -3.606915e+001  -1.272311e+002 
4078125000  -3.651455e+001  -1.286651e+002 
4081250000  -3.615224e+001  -1.316856e+002 
4084375000  -3.568204e+001  -1.400810e+002 
4087500000  -3.606156e+001  -1.469833e+002 
4090625000  -3.662393e+001  -1.478633e+002 
4093750000  -3.633388e+001  -1.510076e+002 
4096875000  -3.607817e+001  -1.567166e+002 
4100000000  -3.682351e+001  -1.645870e+002 
4103125000  -3.771774e+001  -1.646744e+002 
4106250000  -3.752995e+001  -1.602700e+002 
4109375000  -3.666536e+001  -1.622536e+002 
4112500000  -3.615402e+001  -1.703905e+002 
4115625000  -3.654274e+001  -1.755943e+002 
4118750000  -3.683553e+001  -1.786996e+002 
4121875000  -3.635223e+001  1.749978e+002 
4125000000  -3.670406e+001  1.698802e+002 
4128125000  -3.777390e+001  1.688304e+002 
4131250000  -3.767478e+001  1.758479e+002 
4134375000  -3.545393e+001  1.701253e+002 
4137500000  -3.505391e+001  1.505886e+002 
4140625000  -3.747106e+001  1.427850e+002 
4143750000  -3.879006e+001  1.483701e+002 
4146875000  -3.841553e+001  1.554283e+002 
4150000000  -3.755387e+001  1.495899e+002 
4153125000  -3.742969e+001  1.417283e+002 
4156250000  -3.839067e+001  1.401813e+002 
4159375000  -3.877551e+001  1.447533e+002 
4162500000  -3.781526e+001  1.499311e+002 
4165625000  -3.665859e+001  1.448721e+002 
4168750000  -3.610663e+001  1.356754e+002 
4171875000  -3.596019e+001  1.273399e+002 
4175000000  -3.672878e+001  1.212626e+002 
4178125000  -3.735745e+001  1.201480e+002 
4181250000  -3.684263e+001  1.199063e+002 
4184375000  -3.673885e+001  1.167821e+002 
4187500000  -3.692158e+001  1.137108e+002 
4190625000  -3.676517e+001  1.071993e+002 
4193750000  -3.751591e+001  1.024798e+002 
4196875000  -3.835017e+001  1.025311e+002 
4200000000  -3.888624e+001  1.025847e+002 
4203125000  -3.888810e+001  1.178035e+002 
4206250000  -3.535211e+001  1.172453e+002 
4209375000  -3.418619e+001  9.509029e+001 
4212500000  -3.621995e+001  8.492549e+001 
4215625000  -3.706809e+001  9.268090e+001 
4218750000  -3.590583e+001  9.750905e+001 
4221875000  -3.320745e+001  8.824403e+001 
4225000000  -3.466300e+001  7.466297e+001 
4228125000  -3.497326e+001  7.799942e+001 
4231250000  -3.350143e+001  7.351903e+001 
4234375000  -3.352621e+001  6.296244e+001 
4237500000  -3.284582e+001  5.911446e+001 
4240625000  -3.304398e+001  4.932803e+001 
4243750000  -3.395840e+001  4.163606e+001 
4246875000  -3.489283e+001  3.950917e+001 
4250000000  -3.497649e+001  4.155453e+001 
4253125000  -3.434645e+001  3.849314e+001 
4256250000  -3.473391e+001  3.269204e+001 
4259375000  -3.439370e+001  2.924308e+001 
4262500000  -3.476528e+001  2.461869e+001 
4265625000  -3.481721e+001  2.426132e+001 
4268750000  -3.385819e+001  1.894507e+001 
4271875000  -3.374796e+001  1.189502e+001 
4275000000  -3.341940e+001  4.525993e+000 
4278125000  -3.418784e+001  -6.919776e+000 
4281250000  -3.589096e+001  -1.053435e+001 
4284375000  -3.583138e+001  -1.067963e+001 
4287500000  -3.680861e+001  -1.343666e+001 
4290625000  -3.800196e+001  -5.003531e+000 
4293750000  -3.616908e+001  1.783117e-001 
4296875000  -3.496466e+001  -1.095368e+001 
4300000000  -3.588751e+001  -2.066127e+001 
4303125000  -3.704829e+001  -1.884142e+001 
4306250000  -3.637362e+001  -1.437588e+001 
4309375000  -3.528984e+001  -1.605982e+001 
4312500000  -3.508900e+001  -2.352324e+001 
4315625000  -3.525480e+001  -2.925389e+001 
4318750000  -3.537531e+001  -3.251582e+001 
4321875000  -3.546646e+001  -3.128544e+001 
4325000000  -3.497098e+001  -3.245421e+001 
4328125000  -3.427246e+001  -3.771893e+001 
4331250000  -3.411589e+001  -4.647160e+001 
4334375000  -3.463265e+001  -5.176170e+001 
4337500000  -3.527048e+001  -5.445396e+001 
4340625000  -3.571894e+001  -5.277155e+001 
4343750000  -3.484328e+001  -5.161331e+001 
4346875000  -3.460975e+001  -5.821795e+001 
4350000000  -3.442048e+001  -6.431864e+001 
4353125000  -3.465158e+001  -7.341904e+001 
4356250000  -3.617902e+001  -7.472109e+001 
4359375000  -3.637625e+001  -6.080663e+001 
4362500000  -3.362888e+001  -6.152245e+001 
4365625000  -3.191357e+001  -7.514935e+001 
4368750000  -3.260823e+001  -8.762702e+001 
4371875000  -3.375432e+001  -8.882120e+001 
4375000000  -3.341124e+001  -8.898508e+001 
4378125000  -3.263319e+001  -9.602625e+001 
4381250000  -3.296744e+001  -1.025184e+002 
4384375000  -3.278188e+001  -1.092775e+002 
4387500000  -3.353959e+001  -1.159228e+002 
4390625000  -3.458712e+001  -1.164217e+002 
4393750000  -3.372469e+001  -1.154792e+002 
4396875000  -3.310572e+001  -1.194861e+002 
4400000000  -3.263955e+001  -1.269900e+002 
4403125000  -3.332594e+001  -1.363542e+002 
4406250000  -3.424190e+001  -1.393695e+002 
4409375000  -3.437873e+001  -1.424575e+002 
4412500000  -3.562596e+001  -1.460572e+002 
4415625000  -3.579437e+001  -1.411356e+002 
