!Agilent Technologies,E8363B,MY43030201,A.06.04.32
!Agilent E8363B: A.06.04.32
!Date: Tuesday, November 11, 2014 21:03:43
!Correction: S21(Response(S21)) 
!S1P File: Measurement: S21:
# Hz S  dB   R 50
3000000000  -3.629779e+001  -4.819630e+001 
3003125000  -3.752079e+001  -5.388309e+001 
3006250000  -3.736142e+001  -5.638040e+001 
3009375000  -3.761085e+001  -5.262501e+001 
3012500000  -3.694976e+001  -5.425833e+001 
3015625000  -3.604166e+001  -6.087895e+001 
3018750000  -3.682836e+001  -6.270758e+001 
3021875000  -3.541581e+001  -6.165453e+001 
3025000000  -3.413744e+001  -6.490105e+001 
3028125000  -3.319313e+001  -7.147414e+001 
3031250000  -3.209953e+001  -8.224751e+001 
3034375000  -3.185707e+001  -9.615005e+001 
3037500000  -3.217976e+001  -1.079171e+002 
3040625000  -3.351529e+001  -1.125770e+002 
3043750000  -3.422680e+001  -1.178499e+002 
3046875000  -3.440115e+001  -1.237384e+002 
3050000000  -3.611547e+001  -1.308779e+002 
3053125000  -3.614658e+001  -1.242815e+002 
3056250000  -3.546397e+001  -1.211172e+002 
3059375000  -3.582548e+001  -1.221778e+002 
3062500000  -3.420689e+001  -1.243942e+002 
3065625000  -3.399192e+001  -1.301417e+002 
3068750000  -3.359702e+001  -1.375668e+002 
3071875000  -3.346290e+001  -1.396048e+002 
3075000000  -3.330756e+001  -1.441152e+002 
3078125000  -3.305512e+001  -1.485620e+002 
3081250000  -3.357866e+001  -1.526537e+002 
3084375000  -3.260578e+001  -1.559552e+002 
3087500000  -3.245831e+001  -1.598587e+002 
3090625000  -3.197575e+001  -1.696891e+002 
3093750000  -3.239771e+001  -1.771947e+002 
3096875000  -3.347074e+001  1.766940e+002 
3100000000  -3.340525e+001  1.748291e+002 
3103125000  -3.359293e+001  1.750432e+002 
3106250000  -3.316381e+001  1.711942e+002 
3109375000  -3.317827e+001  1.669622e+002 
3112500000  -3.315582e+001  1.642180e+002 
3115625000  -3.281014e+001  1.599901e+002 
3118750000  -3.317057e+001  1.599725e+002 
3121875000  -3.225599e+001  1.507769e+002 
3125000000  -3.342404e+001  1.468292e+002 
3128125000  -3.443494e+001  1.538892e+002 
3131250000  -3.210863e+001  1.520374e+002 
3134375000  -3.073249e+001  1.370347e+002 
3137500000  -3.132939e+001  1.219305e+002 
3140625000  -3.281961e+001  1.189225e+002 
3143750000  -3.382854e+001  1.211261e+002 
3146875000  -3.326402e+001  1.218216e+002 
3150000000  -3.227618e+001  1.222521e+002 
3153125000  -3.227991e+001  1.128303e+002 
3156250000  -3.327314e+001  1.178699e+002 
3159375000  -3.168296e+001  1.192538e+002 
3162500000  -2.972191e+001  1.045981e+002 
3165625000  -3.076910e+001  9.198529e+001 
3168750000  -3.108738e+001  9.161678e+001 
3171875000  -3.023037e+001  8.688865e+001 
3175000000  -3.093693e+001  7.792929e+001 
3178125000  -3.068816e+001  7.875515e+001 
3181250000  -2.961263e+001  7.367372e+001 
3184375000  -2.892249e+001  6.060771e+001 
3187500000  -3.014371e+001  4.576783e+001 
3190625000  -3.292021e+001  3.642609e+001 
3193750000  -3.342805e+001  4.561956e+001 
3196875000  -3.303031e+001  5.096921e+001 
3200000000  -3.217562e+001  4.800953e+001 
3203125000  -3.131611e+001  4.185000e+001 
3206250000  -3.163344e+001  3.466096e+001 
3209375000  -3.122459e+001  2.974607e+001 
3212500000  -3.138265e+001  2.242609e+001 
3215625000  -3.151362e+001  1.845961e+001 
3218750000  -3.228562e+001  1.105233e+001 
3221875000  -3.318043e+001  5.919482e+000 
3225000000  -3.265878e+001  4.745639e+000 
3228125000  -3.303543e+001  -5.237213e-001 
3231250000  -3.380918e+001  -2.676262e+000 
3234375000  -3.353637e+001  -2.343359e+000 
3237500000  -3.343061e+001  -5.146905e+000 
3240625000  -3.305243e+001  -7.254834e+000 
3243750000  -3.268012e+001  -1.472500e+001 
3246875000  -3.308773e+001  -2.190607e+001 
3250000000  -3.346834e+001  -2.393639e+001 
3253125000  -3.359729e+001  -2.651806e+001 
3256250000  -3.329989e+001  -3.323907e+001 
3259375000  -3.349164e+001  -4.179504e+001 
3262500000  -3.469137e+001  -4.500591e+001 
3265625000  -3.519930e+001  -4.263942e+001 
3268750000  -3.507052e+001  -4.106946e+001 
3271875000  -3.480470e+001  -4.117736e+001 
3275000000  -3.379740e+001  -4.754016e+001 
3278125000  -3.422401e+001  -5.457856e+001 
3281250000  -3.433498e+001  -5.304441e+001 
3284375000  -3.389281e+001  -5.987777e+001 
3287500000  -3.403033e+001  -6.403471e+001 
3290625000  -3.434357e+001  -6.899453e+001 
3293750000  -3.410807e+001  -7.569423e+001 
3296875000  -3.505303e+001  -7.667673e+001 
3300000000  -3.491478e+001  -7.536400e+001 
3303125000  -3.371260e+001  -8.065860e+001 
3306250000  -3.348166e+001  -8.779511e+001 
3309375000  -3.319379e+001  -9.465703e+001 
3312500000  -3.330913e+001  -1.050316e+002 
3315625000  -3.424874e+001  -1.137032e+002 
3318750000  -3.571966e+001  -1.164117e+002 
3321875000  -3.679134e+001  -1.176400e+002 
3325000000  -3.751900e+001  -1.122955e+002 
3328125000  -3.717094e+001  -1.119381e+002 
3331250000  -3.586241e+001  -1.044875e+002 
3334375000  -3.298555e+001  -1.152808e+002 
3337500000  -3.326882e+001  -1.335742e+002 
3340625000  -3.464304e+001  -1.450089e+002 
3343750000  -3.659075e+001  -1.469279e+002 
3346875000  -3.669486e+001  -1.439682e+002 
3350000000  -3.618295e+001  -1.465234e+002 
3353125000  -3.618745e+001  -1.504008e+002 
3356250000  -3.573373e+001  -1.590689e+002 
3359375000  -3.648689e+001  -1.673769e+002 
3362500000  -3.766057e+001  -1.731305e+002 
3365625000  -3.795476e+001  -1.743442e+002 
3368750000  -3.876469e+001  -1.772467e+002 
3371875000  -3.924247e+001  -1.787664e+002 
3375000000  -4.051140e+001  1.775428e+002 
3378125000  -4.135642e+001  1.788074e+002 
3381250000  -4.258978e+001  -1.743158e+002 
3384375000  -4.117302e+001  -1.524153e+002 
3387500000  -3.763856e+001  -1.668171e+002 
3390625000  -3.944955e+001  1.735219e+002 
3393750000  -4.044995e+001  1.763929e+002 
3396875000  -3.929563e+001  1.770726e+002 
3400000000  -3.880068e+001  1.693560e+002 
3403125000  -3.970944e+001  1.647127e+002 
3406250000  -3.975661e+001  1.632302e+002 
3409375000  -3.997913e+001  1.564427e+002 
3412500000  -4.035926e+001  1.539186e+002 
3415625000  -4.105503e+001  1.540256e+002 
3418750000  -4.120192e+001  1.546669e+002 
3421875000  -4.122898e+001  1.586920e+002 
3425000000  -4.031168e+001  1.592038e+002 
3428125000  -3.930762e+001  1.547821e+002 
3431250000  -3.935054e+001  1.474544e+002 
3434375000  -3.930986e+001  1.413599e+002 
3437500000  -3.980222e+001  1.385713e+002 
3440625000  -4.000661e+001  1.388428e+002 
3443750000  -3.878420e+001  1.397237e+002 
3446875000  -3.801667e+001  1.325106e+002 
3450000000  -3.775967e+001  1.221449e+002 
3453125000  -3.812768e+001  1.121689e+002 
3456250000  -3.915486e+001  1.053194e+002 
3459375000  -4.011230e+001  1.056798e+002 
3462500000  -3.988015e+001  1.064347e+002 
3465625000  -3.995751e+001  1.010019e+002 
3468750000  -4.020064e+001  9.728052e+001 
3471875000  -4.024802e+001  9.576340e+001 
3475000000  -3.986212e+001  9.098058e+001 
3478125000  -4.051310e+001  8.399216e+001 
3481250000  -4.128611e+001  7.998597e+001 
3484375000  -4.240119e+001  8.557906e+001 
3487500000  -4.154318e+001  8.421282e+001 
3490625000  -4.115158e+001  8.144461e+001 
3493750000  -4.154860e+001  7.409563e+001 
3496875000  -4.227274e+001  7.353220e+001 
3500000000  -4.274102e+001  7.403434e+001 
3503125000  -4.199013e+001  7.825996e+001 
3506250000  -4.081352e+001  7.180974e+001 
3509375000  -4.099390e+001  6.282328e+001 
3512500000  -4.119608e+001  5.514248e+001 
3515625000  -4.199380e+001  5.311301e+001 
3518750000  -4.260250e+001  5.353370e+001 
3521875000  -4.240417e+001  5.106522e+001 
3525000000  -4.330627e+001  4.865825e+001 
3528125000  -4.336390e+001  5.496769e+001 
3531250000  -4.188223e+001  5.442954e+001 
3534375000  -4.184766e+001  4.453431e+001 
3537500000  -4.222749e+001  3.769175e+001 
3540625000  -4.323719e+001  3.549200e+001 
3543750000  -4.396352e+001  3.821742e+001 
3546875000  -4.368514e+001  4.907373e+001 
3550000000  -4.102047e+001  5.277279e+001 
3553125000  -3.978616e+001  3.369682e+001 
3556250000  -4.127746e+001  2.679633e+001 
3559375000  -4.107325e+001  2.806941e+001 
3562500000  -3.992414e+001  1.880908e+001 
3565625000  -4.075228e+001  1.025419e+001 
3568750000  -4.107372e+001  1.474825e+001 
3571875000  -4.100764e+001  1.258003e+001 
3575000000  -4.046749e+001  3.269179e+000 
3578125000  -4.083725e+001  -5.863860e-001 
3581250000  -4.118387e+001  -8.923359e-001 
3584375000  -4.034637e+001  -5.109182e+000 
3587500000  -4.002327e+001  -1.317073e+001 
3590625000  -4.022820e+001  -2.182900e+001 
3593750000  -4.176235e+001  -2.665231e+001 
3596875000  -4.176039e+001  -1.801168e+001 
3600000000  -4.049428e+001  -2.585162e+001 
3603125000  -4.080027e+001  -4.013854e+001 
3606250000  -4.187195e+001  -4.479719e+001 
3609375000  -4.238372e+001  -4.750262e+001 
3612500000  -4.293682e+001  -4.954535e+001 
3615625000  -4.340025e+001  -5.192640e+001 
3618750000  -4.437607e+001  -5.118933e+001 
3621875000  -4.408171e+001  -5.664800e+001 
3625000000  -4.467395e+001  -5.298991e+001 
3628125000  -4.461740e+001  -5.646758e+001 
3631250000  -4.464835e+001  -5.879221e+001 
3634375000  -4.605881e+001  -6.072414e+001 
3637500000  -4.586923e+001  -5.425526e+001 
3640625000  -4.527703e+001  -5.045387e+001 
3643750000  -4.481934e+001  -5.778217e+001 
3646875000  -4.503075e+001  -6.377081e+001 
3650000000  -4.598542e+001  -6.286340e+001 
3653125000  -4.506989e+001  -6.248799e+001 
3656250000  -4.534212e+001  -6.583154e+001 
3659375000  -4.539480e+001  -5.806450e+001 
3662500000  -4.458316e+001  -6.251730e+001 
3665625000  -4.435168e+001  -6.261831e+001 
3668750000  -4.335506e+001  -6.457278e+001 
3671875000  -4.243484e+001  -7.066602e+001 
3675000000  -4.278763e+001  -7.990951e+001 
3678125000  -4.284526e+001  -8.125670e+001 
3681250000  -4.266994e+001  -8.283373e+001 
3684375000  -4.242554e+001  -8.829910e+001 
3687500000  -4.235641e+001  -9.383470e+001 
3690625000  -4.257190e+001  -9.693868e+001 
3693750000  -4.339442e+001  -9.957784e+001 
3696875000  -4.329490e+001  -9.837721e+001 
3700000000  -4.263371e+001  -1.027798e+002 
3703125000  -4.260106e+001  -1.087749e+002 
3706250000  -4.335604e+001  -1.096742e+002 
3709375000  -4.309415e+001  -1.069887e+002 
3712500000  -4.227587e+001  -1.095177e+002 
3715625000  -4.163070e+001  -1.162710e+002 
3718750000  -4.096679e+001  -1.228854e+002 
3721875000  -4.126633e+001  -1.302346e+002 
3725000000  -4.138382e+001  -1.351129e+002 
3728125000  -4.203025e+001  -1.371469e+002 
3731250000  -4.171519e+001  -1.394121e+002 
3734375000  -4.136591e+001  -1.445793e+002 
3737500000  -4.226577e+001  -1.534680e+002 
3740625000  -4.357134e+001  -1.530108e+002 
3743750000  -4.312976e+001  -1.586252e+002 
3746875000  -4.367779e+001  -1.603065e+002 
3750000000  -4.453405e+001  -1.622348e+002 
3753125000  -4.467954e+001  -1.621593e+002 
3756250000  -4.459196e+001  -1.591685e+002 
3759375000  -4.463696e+001  -1.591254e+002 
3762500000  -4.459087e+001  -1.610907e+002 
3765625000  -4.493019e+001  -1.593409e+002 
3768750000  -4.509926e+001  -1.570592e+002 
3771875000  -4.317918e+001  -1.560090e+002 
3775000000  -4.272120e+001  -1.661255e+002 
3778125000  -4.346198e+001  -1.675192e+002 
3781250000  -4.279640e+001  -1.673839e+002 
3784375000  -4.281001e+001  -1.683101e+002 
3787500000  -4.169647e+001  -1.718900e+002 
3790625000  -4.199652e+001  -1.793245e+002 
3793750000  -4.183442e+001  -1.769989e+002 
3796875000  -4.108267e+001  1.782690e+002 
3800000000  -3.949598e+001  1.748073e+002 
3803125000  -4.023069e+001  1.651487e+002 
3806250000  -4.068508e+001  1.628773e+002 
3809375000  -4.040475e+001  1.606918e+002 
3812500000  -3.947268e+001  1.540606e+002 
3815625000  -4.023917e+001  1.445386e+002 
3818750000  -4.113665e+001  1.430371e+002 
3821875000  -4.103379e+001  1.492623e+002 
3825000000  -3.915187e+001  1.541471e+002 
3828125000  -3.815775e+001  1.351735e+002 
3831250000  -3.849392e+001  1.221598e+002 
3834375000  -4.013150e+001  1.212303e+002 
3837500000  -4.084457e+001  1.245749e+002 
3840625000  -3.980212e+001  1.228742e+002 
3843750000  -3.877909e+001  1.110016e+002 
3846875000  -3.938869e+001  1.037104e+002 
3850000000  -4.108872e+001  1.078900e+002 
3853125000  -4.029044e+001  1.116623e+002 
3856250000  -4.048796e+001  1.017073e+002 
3859375000  -3.982423e+001  9.759445e+001 
3862500000  -3.963663e+001  9.155508e+001 
3865625000  -3.969852e+001  8.436488e+001 
3868750000  -3.985308e+001  8.479218e+001 
3871875000  -3.918798e+001  8.063437e+001 
3875000000  -3.961994e+001  6.986935e+001 
3878125000  -4.068591e+001  6.973734e+001 
3881250000  -4.087479e+001  7.263491e+001 
3884375000  -4.053448e+001  6.831053e+001 
3887500000  -4.055753e+001  6.352492e+001 
3890625000  -4.141736e+001  6.084363e+001 
3893750000  -4.131976e+001  6.051702e+001 
3896875000  -4.161128e+001  6.062553e+001 
3900000000  -4.219939e+001  5.944613e+001 
3903125000  -4.145963e+001  5.647026e+001 
3906250000  -4.093757e+001  5.640311e+001 
3909375000  -4.024882e+001  5.393273e+001 
3912500000  -3.999881e+001  4.591255e+001 
3915625000  -4.134199e+001  4.688692e+001 
3918750000  -4.104697e+001  4.620129e+001 
3921875000  -4.077104e+001  4.426598e+001 
3925000000  -3.984665e+001  4.018828e+001 
3928125000  -3.901674e+001  3.448995e+001 
3931250000  -3.957182e+001  3.012148e+001 
3934375000  -3.985785e+001  2.830420e+001 
3937500000  -4.002044e+001  2.854822e+001 
3940625000  -4.037669e+001  2.506895e+001 
3943750000  -3.912701e+001  2.443052e+001 
3946875000  -3.832172e+001  1.671785e+001 
3950000000  -3.875624e+001  1.086462e+001 
3953125000  -3.972953e+001  8.314893e+000 
3956250000  -3.874797e+001  1.143841e+001 
3959375000  -3.771001e+001  5.915624e+000 
3962500000  -3.705946e+001  1.065491e+000 
3965625000  -3.700644e+001  -1.046472e+001 
3968750000  -3.798770e+001  -1.703366e+001 
3971875000  -3.824257e+001  -1.966516e+001 
3975000000  -3.778011e+001  -2.197469e+001 
3978125000  -3.768137e+001  -2.523311e+001 
3981250000  -3.779740e+001  -3.211963e+001 
3984375000  -3.814037e+001  -3.735754e+001 
3987500000  -3.857627e+001  -4.022992e+001 
3990625000  -3.853720e+001  -4.151388e+001 
3993750000  -3.916084e+001  -4.588148e+001 
3996875000  -3.902111e+001  -4.761597e+001 
4000000000  -3.910867e+001  -5.197359e+001 
4003125000  -3.976852e+001  -4.917417e+001 
4006250000  -3.866439e+001  -4.987303e+001 
4009375000  -3.761311e+001  -6.257894e+001 
4012500000  -3.885491e+001  -6.896564e+001 
4015625000  -4.015140e+001  -6.782195e+001 
4018750000  -4.022152e+001  -6.745669e+001 
4021875000  -3.937806e+001  -6.958654e+001 
4025000000  -3.929008e+001  -7.320271e+001 
4028125000  -3.946145e+001  -7.823271e+001 
4031250000  -3.971117e+001  -8.020870e+001 
4034375000  -3.991058e+001  -8.172215e+001 
4037500000  -3.957935e+001  -7.979907e+001 
4040625000  -3.926147e+001  -8.366720e+001 
4043750000  -3.970586e+001  -8.498727e+001 
4046875000  -3.904961e+001  -8.447334e+001 
4050000000  -3.861964e+001  -9.190022e+001 
4053125000  -3.906192e+001  -9.377007e+001 
4056250000  -3.964516e+001  -9.064895e+001 
4059375000  -3.796146e+001  -8.938367e+001 
4062500000  -3.684013e+001  -9.575597e+001 
4065625000  -3.676133e+001  -9.894458e+001 
4068750000  -3.618781e+001  -1.056172e+002 
4071875000  -3.558200e+001  -1.153616e+002 
4075000000  -3.603341e+001  -1.224412e+002 
4078125000  -3.655861e+001  -1.235696e+002 
4081250000  -3.588934e+001  -1.282233e+002 
4084375000  -3.551763e+001  -1.345860e+002 
4087500000  -3.589654e+001  -1.428344e+002 
4090625000  -3.664019e+001  -1.437504e+002 
4093750000  -3.620218e+001  -1.453689e+002 
4096875000  -3.585487e+001  -1.529431e+002 
4100000000  -3.671648e+001  -1.602972e+002 
4103125000  -3.742235e+001  -1.606743e+002 
4106250000  -3.749637e+001  -1.566929e+002 
4109375000  -3.652852e+001  -1.578543e+002 
4112500000  -3.590456e+001  -1.663141e+002 
4115625000  -3.644858e+001  -1.716931e+002 
4118750000  -3.677399e+001  -1.768380e+002 
4121875000  -3.616175e+001  1.787749e+002 
4125000000  -3.678902e+001  1.732383e+002 
4128125000  -3.769984e+001  1.730744e+002 
4131250000  -3.758222e+001  -1.784930e+002 
4134375000  -3.548890e+001  1.732740e+002 
4137500000  -3.505403e+001  1.536843e+002 
4140625000  -3.729218e+001  1.460098e+002 
4143750000  -3.897587e+001  1.501011e+002 
4146875000  -3.864893e+001  1.579613e+002 
4150000000  -3.779437e+001  1.535196e+002 
4153125000  -3.776174e+001  1.469266e+002 
4156250000  -3.868120e+001  1.431577e+002 
4159375000  -3.887564e+001  1.479955e+002 
4162500000  -3.758265e+001  1.531977e+002 
4165625000  -3.651717e+001  1.493179e+002 
4168750000  -3.624176e+001  1.401849e+002 
4171875000  -3.622545e+001  1.304806e+002 
4175000000  -3.703636e+001  1.254290e+002 
4178125000  -3.713775e+001  1.262377e+002 
4181250000  -3.707083e+001  1.249008e+002 
4184375000  -3.697491e+001  1.219224e+002 
4187500000  -3.675367e+001  1.183499e+002 
4190625000  -3.677748e+001  1.125303e+002 
4193750000  -3.741817e+001  1.078658e+002 
4196875000  -3.806427e+001  1.089136e+002 
4200000000  -3.898508e+001  1.093559e+002 
4203125000  -3.870295e+001  1.220814e+002 
4206250000  -3.521628e+001  1.223408e+002 
4209375000  -3.415884e+001  1.011099e+002 
4212500000  -3.602954e+001  9.164355e+001 
4215625000  -3.701404e+001  9.651385e+001 
4218750000  -3.532859e+001  1.030014e+002 
4221875000  -3.294202e+001  9.320684e+001 
4225000000  -3.425989e+001  7.919447e+001 
4228125000  -3.482128e+001  8.338686e+001 
4231250000  -3.328041e+001  7.813223e+001 
4234375000  -3.302444e+001  6.824229e+001 
4237500000  -3.256960e+001  6.344085e+001 
4240625000  -3.273266e+001  5.345293e+001 
4243750000  -3.374310e+001  4.546751e+001 
4246875000  -3.484202e+001  4.424866e+001 
4250000000  -3.463704e+001  4.476839e+001 
4253125000  -3.412670e+001  4.234523e+001 
4256250000  -3.443311e+001  3.775972e+001 
4259375000  -3.421711e+001  3.304107e+001 
4262500000  -3.454200e+001  2.851001e+001 
4265625000  -3.454164e+001  2.773594e+001 
4268750000  -3.360553e+001  2.311513e+001 
4271875000  -3.358980e+001  1.610567e+001 
4275000000  -3.320515e+001  9.220682e+000 
4278125000  -3.393819e+001  -4.437939e+000 
4281250000  -3.570047e+001  -5.640730e+000 
4284375000  -3.547086e+001  -6.132082e+000 
4287500000  -3.657697e+001  -1.122993e+001 
4290625000  -3.789165e+001  -1.467789e+000 
4293750000  -3.609610e+001  3.150933e+000 
4296875000  -3.485297e+001  -6.982617e+000 
4300000000  -3.587955e+001  -1.799722e+001 
4303125000  -3.687796e+001  -1.447747e+001 
4306250000  -3.646563e+001  -9.509803e+000 
4309375000  -3.511118e+001  -1.124923e+001 
4312500000  -3.495852e+001  -1.975679e+001 
4315625000  -3.543868e+001  -2.470085e+001 
4318750000  -3.526413e+001  -2.773298e+001 
4321875000  -3.566296e+001  -2.683968e+001 
4325000000  -3.473911e+001  -2.668226e+001 
4328125000  -3.418032e+001  -3.314269e+001 
4331250000  -3.406924e+001  -4.187941e+001 
4334375000  -3.435082e+001  -4.765244e+001 
4337500000  -3.513414e+001  -4.981328e+001 
4340625000  -3.574006e+001  -4.629572e+001 
4343750000  -3.474127e+001  -4.715468e+001 
4346875000  -3.425900e+001  -5.362341e+001 
4350000000  -3.409660e+001  -5.917995e+001 
4353125000  -3.395385e+001  -6.861594e+001 
4356250000  -3.570313e+001  -6.859714e+001 
4359375000  -3.636708e+001  -5.658602e+001 
4362500000  -3.327221e+001  -5.711267e+001 
4365625000  -3.166508e+001  -7.037909e+001 
4368750000  -3.232212e+001  -8.273713e+001 
4371875000  -3.352140e+001  -8.353223e+001 
4375000000  -3.292056e+001  -8.484641e+001 
4378125000  -3.225570e+001  -9.094987e+001 
4381250000  -3.249006e+001  -9.806525e+001 
4384375000  -3.233446e+001  -1.053688e+002 
4387500000  -3.314036e+001  -1.120908e+002 
4390625000  -3.411725e+001  -1.129420e+002 
4393750000  -3.335270e+001  -1.121613e+002 
4396875000  -3.278154e+001  -1.146891e+002 
4400000000  -3.227224e+001  -1.236016e+002 
4403125000  -3.291240e+001  -1.333103e+002 
4406250000  -3.392134e+001  -1.352616e+002 
4409375000  -3.406440e+001  -1.389624e+002 
4412500000  -3.496759e+001  -1.425044e+002 
4415625000  -3.549747e+001  -1.398279e+002 
