!Agilent Technologies,E8363B,MY43030201,A.06.04.32
!Agilent E8363B: A.06.04.32
!Date: Tuesday, November 11, 2014 21:05:51
!Correction: S21(Response(S21)) 
!S1P File: Measurement: S21:
# Hz S  dB   R 50
3000000000  -3.643763e+001  -4.948264e+001 
3003125000  -3.754885e+001  -5.517500e+001 
3006250000  -3.749110e+001  -5.802266e+001 
3009375000  -3.770321e+001  -5.324524e+001 
3012500000  -3.698750e+001  -5.440859e+001 
3015625000  -3.613428e+001  -6.217697e+001 
3018750000  -3.691954e+001  -6.406142e+001 
3021875000  -3.542224e+001  -6.213620e+001 
3025000000  -3.405795e+001  -6.631944e+001 
3028125000  -3.319487e+001  -7.284007e+001 
3031250000  -3.218760e+001  -8.380704e+001 
3034375000  -3.174054e+001  -9.727050e+001 
3037500000  -3.220671e+001  -1.094672e+002 
3040625000  -3.361060e+001  -1.141326e+002 
3043750000  -3.434413e+001  -1.194506e+002 
3046875000  -3.440436e+001  -1.251863e+002 
3050000000  -3.615377e+001  -1.323735e+002 
3053125000  -3.602564e+001  -1.252935e+002 
3056250000  -3.550463e+001  -1.225757e+002 
3059375000  -3.561845e+001  -1.237123e+002 
3062500000  -3.415485e+001  -1.266279e+002 
3065625000  -3.385511e+001  -1.327425e+002 
3068750000  -3.362099e+001  -1.400419e+002 
3071875000  -3.353551e+001  -1.420692e+002 
3075000000  -3.324110e+001  -1.454008e+002 
3078125000  -3.305023e+001  -1.500164e+002 
3081250000  -3.351970e+001  -1.541845e+002 
3084375000  -3.262419e+001  -1.575869e+002 
3087500000  -3.250642e+001  -1.618779e+002 
3090625000  -3.194400e+001  -1.717381e+002 
3093750000  -3.240953e+001  -1.795373e+002 
3096875000  -3.345869e+001  1.750885e+002 
3100000000  -3.335728e+001  1.726708e+002 
3103125000  -3.367134e+001  1.732393e+002 
3106250000  -3.315067e+001  1.688549e+002 
3109375000  -3.321874e+001  1.652782e+002 
3112500000  -3.326321e+001  1.633161e+002 
3115625000  -3.292161e+001  1.582638e+002 
3118750000  -3.311475e+001  1.585535e+002 
3121875000  -3.234699e+001  1.488643e+002 
3125000000  -3.354121e+001  1.444546e+002 
3128125000  -3.442419e+001  1.516509e+002 
3131250000  -3.207240e+001  1.500776e+002 
3134375000  -3.077661e+001  1.349223e+002 
3137500000  -3.129580e+001  1.203754e+002 
3140625000  -3.277243e+001  1.177010e+002 
3143750000  -3.380342e+001  1.192264e+002 
3146875000  -3.333031e+001  1.199604e+002 
3150000000  -3.234084e+001  1.205068e+002 
3153125000  -3.230683e+001  1.105689e+002 
3156250000  -3.331018e+001  1.162559e+002 
3159375000  -3.163585e+001  1.175486e+002 
3162500000  -2.971061e+001  1.029901e+002 
3165625000  -3.068049e+001  9.019176e+001 
3168750000  -3.103929e+001  9.031816e+001 
3171875000  -3.018670e+001  8.507142e+001 
3175000000  -3.085911e+001  7.636947e+001 
3178125000  -3.073322e+001  7.696878e+001 
3181250000  -2.957579e+001  7.156323e+001 
3184375000  -2.893959e+001  5.876441e+001 
3187500000  -3.001257e+001  4.327351e+001 
3190625000  -3.281890e+001  3.557005e+001 
3193750000  -3.337204e+001  4.417156e+001 
3196875000  -3.299070e+001  4.886849e+001 
3200000000  -3.205009e+001  4.602979e+001 
3203125000  -3.125555e+001  3.957481e+001 
3206250000  -3.161169e+001  3.323224e+001 
3209375000  -3.109830e+001  2.718421e+001 
3212500000  -3.131120e+001  2.002167e+001 
3215625000  -3.142972e+001  1.581151e+001 
3218750000  -3.213591e+001  8.765528e+000 
3221875000  -3.308270e+001  3.421592e+000 
3225000000  -3.267605e+001  3.006622e+000 
3228125000  -3.307262e+001  -2.705750e+000 
3231250000  -3.361357e+001  -5.710793e+000 
3234375000  -3.345959e+001  -5.087142e+000 
3237500000  -3.337388e+001  -6.808919e+000 
3240625000  -3.301014e+001  -9.183912e+000 
3243750000  -3.255904e+001  -1.706008e+001 
3246875000  -3.304711e+001  -2.463038e+001 
3250000000  -3.336931e+001  -2.650047e+001 
3253125000  -3.341586e+001  -2.859852e+001 
3256250000  -3.316988e+001  -3.532031e+001 
3259375000  -3.346069e+001  -4.399699e+001 
3262500000  -3.461419e+001  -4.851276e+001 
3265625000  -3.532241e+001  -4.540478e+001 
3268750000  -3.514720e+001  -4.319246e+001 
3271875000  -3.468508e+001  -4.349844e+001 
3275000000  -3.373977e+001  -5.045829e+001 
3278125000  -3.423421e+001  -5.723709e+001 
3281250000  -3.427193e+001  -5.538275e+001 
3284375000  -3.385977e+001  -6.184740e+001 
3287500000  -3.403132e+001  -6.668558e+001 
3290625000  -3.435282e+001  -7.164097e+001 
3293750000  -3.407074e+001  -7.826420e+001 
3296875000  -3.521801e+001  -7.879102e+001 
3300000000  -3.485680e+001  -7.859288e+001 
3303125000  -3.369802e+001  -8.332098e+001 
3306250000  -3.353329e+001  -9.034675e+001 
3309375000  -3.321626e+001  -9.670491e+001 
3312500000  -3.340416e+001  -1.072728e+002 
3315625000  -3.421723e+001  -1.157602e+002 
3318750000  -3.572009e+001  -1.189781e+002 
3321875000  -3.683263e+001  -1.200759e+002 
3325000000  -3.728906e+001  -1.134076e+002 
3328125000  -3.717939e+001  -1.143046e+002 
3331250000  -3.563614e+001  -1.051426e+002 
3334375000  -3.301024e+001  -1.171460e+002 
3337500000  -3.319044e+001  -1.365624e+002 
3340625000  -3.453837e+001  -1.476474e+002 
3343750000  -3.652779e+001  -1.484834e+002 
3346875000  -3.680760e+001  -1.471283e+002 
3350000000  -3.613675e+001  -1.489699e+002 
3353125000  -3.599471e+001  -1.533665e+002 
3356250000  -3.562996e+001  -1.617396e+002 
3359375000  -3.635392e+001  -1.702929e+002 
3362500000  -3.752037e+001  -1.758436e+002 
3365625000  -3.789367e+001  -1.772523e+002 
3368750000  -3.882952e+001  -1.790881e+002 
3371875000  -3.918939e+001  1.783083e+002 
3375000000  -4.045109e+001  1.755325e+002 
3378125000  -4.135246e+001  1.764301e+002 
3381250000  -4.235480e+001  -1.762318e+002 
3384375000  -4.110278e+001  -1.540336e+002 
3387500000  -3.759595e+001  -1.705422e+002 
3390625000  -3.925906e+001  1.696451e+002 
3393750000  -4.080428e+001  1.730822e+002 
3396875000  -3.921151e+001  1.751981e+002 
3400000000  -3.860267e+001  1.663319e+002 
3403125000  -3.928478e+001  1.613501e+002 
3406250000  -3.979345e+001  1.603893e+002 
3409375000  -3.979076e+001  1.525256e+002 
3412500000  -4.038651e+001  1.521107e+002 
3415625000  -4.104573e+001  1.516599e+002 
3418750000  -4.110310e+001  1.532305e+002 
3421875000  -4.139081e+001  1.558519e+002 
3425000000  -4.033209e+001  1.552881e+002 
3428125000  -3.958009e+001  1.499351e+002 
3431250000  -3.933216e+001  1.447506e+002 
3434375000  -3.925304e+001  1.381419e+002 
3437500000  -3.966122e+001  1.357009e+002 
3440625000  -3.991673e+001  1.349173e+002 
3443750000  -3.879160e+001  1.375736e+002 
3446875000  -3.798016e+001  1.290555e+002 
3450000000  -3.769410e+001  1.192346e+002 
3453125000  -3.809525e+001  1.087195e+002 
3456250000  -3.913541e+001  1.030980e+002 
3459375000  -4.020472e+001  1.038749e+002 
3462500000  -3.969459e+001  1.032216e+002 
3465625000  -3.990685e+001  9.785668e+001 
3468750000  -4.027012e+001  9.492490e+001 
3471875000  -4.016474e+001  9.292342e+001 
3475000000  -3.985690e+001  8.899846e+001 
3478125000  -4.054154e+001  7.916695e+001 
3481250000  -4.118165e+001  7.845207e+001 
3484375000  -4.238555e+001  8.217778e+001 
3487500000  -4.148702e+001  8.252447e+001 
3490625000  -4.106760e+001  7.743036e+001 
3493750000  -4.157182e+001  7.050196e+001 
3496875000  -4.192081e+001  6.761107e+001 
3500000000  -4.268786e+001  7.370158e+001 
3503125000  -4.225202e+001  7.245812e+001 
3506250000  -4.066430e+001  7.050481e+001 
3509375000  -4.070742e+001  6.082260e+001 
3512500000  -4.130931e+001  5.145162e+001 
3515625000  -4.207720e+001  4.886153e+001 
3518750000  -4.230199e+001  4.955462e+001 
3521875000  -4.248140e+001  4.582771e+001 
3525000000  -4.353498e+001  4.325518e+001 
3528125000  -4.355341e+001  5.386293e+001 
3531250000  -4.175710e+001  5.040374e+001 
3534375000  -4.207813e+001  3.843853e+001 
3537500000  -4.231524e+001  3.296600e+001 
3540625000  -4.335923e+001  3.270601e+001 
3543750000  -4.409909e+001  3.618123e+001 
3546875000  -4.370204e+001  4.831425e+001 
3550000000  -4.128659e+001  5.004000e+001 
3553125000  -3.986308e+001  3.009830e+001 
3556250000  -4.127956e+001  2.353795e+001 
3559375000  -4.105491e+001  2.544969e+001 
3562500000  -4.015725e+001  1.603960e+001 
3565625000  -4.099353e+001  7.989541e+000 
3568750000  -4.133202e+001  1.229471e+001 
3571875000  -4.118203e+001  9.407169e+000 
3575000000  -4.073443e+001  2.369764e+000 
3578125000  -4.128246e+001  -3.037698e+000 
3581250000  -4.124690e+001  -5.294796e+000 
3584375000  -4.052564e+001  -6.323097e+000 
3587500000  -3.994917e+001  -1.530749e+001 
3590625000  -4.051394e+001  -2.518070e+001 
3593750000  -4.183125e+001  -3.014270e+001 
3596875000  -4.196107e+001  -2.316752e+001 
3600000000  -4.014753e+001  -2.859432e+001 
3603125000  -4.081308e+001  -4.288374e+001 
3606250000  -4.155247e+001  -4.538863e+001 
3609375000  -4.214811e+001  -4.850098e+001 
3612500000  -4.303337e+001  -5.381402e+001 
3615625000  -4.308154e+001  -5.347705e+001 
3618750000  -4.426661e+001  -5.540233e+001 
3621875000  -4.416439e+001  -5.630853e+001 
3625000000  -4.459359e+001  -5.692240e+001 
3628125000  -4.456588e+001  -5.817645e+001 
3631250000  -4.457849e+001  -6.465096e+001 
3634375000  -4.590546e+001  -6.489292e+001 
3637500000  -4.623456e+001  -5.844141e+001 
3640625000  -4.526711e+001  -5.560236e+001 
3643750000  -4.461988e+001  -6.278378e+001 
3646875000  -4.519814e+001  -6.660249e+001 
3650000000  -4.551880e+001  -6.746646e+001 
3653125000  -4.516941e+001  -6.729421e+001 
3656250000  -4.567282e+001  -6.640470e+001 
3659375000  -4.578926e+001  -6.680256e+001 
3662500000  -4.500192e+001  -6.784037e+001 
3665625000  -4.460411e+001  -6.700200e+001 
3668750000  -4.373809e+001  -6.795276e+001 
3671875000  -4.227681e+001  -7.365927e+001 
3675000000  -4.287031e+001  -8.151088e+001 
3678125000  -4.301550e+001  -8.237395e+001 
3681250000  -4.287619e+001  -8.612502e+001 
3684375000  -4.258653e+001  -9.110925e+001 
3687500000  -4.277251e+001  -9.422225e+001 
3690625000  -4.258905e+001  -1.005676e+002 
3693750000  -4.367530e+001  -1.001947e+002 
3696875000  -4.318564e+001  -9.997537e+001 
3700000000  -4.288657e+001  -1.044510e+002 
3703125000  -4.271071e+001  -1.111332e+002 
3706250000  -4.356596e+001  -1.112681e+002 
3709375000  -4.357881e+001  -1.089237e+002 
3712500000  -4.251245e+001  -1.130330e+002 
3715625000  -4.149574e+001  -1.215015e+002 
3718750000  -4.122993e+001  -1.248072e+002 
3721875000  -4.115577e+001  -1.305846e+002 
3725000000  -4.143811e+001  -1.381255e+002 
3728125000  -4.174112e+001  -1.397694e+002 
3731250000  -4.164793e+001  -1.403918e+002 
3734375000  -4.128605e+001  -1.482617e+002 
3737500000  -4.246645e+001  -1.558446e+002 
3740625000  -4.329314e+001  -1.583041e+002 
3743750000  -4.314368e+001  -1.619138e+002 
3746875000  -4.367480e+001  -1.629034e+002 
3750000000  -4.424977e+001  -1.606153e+002 
3753125000  -4.476169e+001  -1.607980e+002 
3756250000  -4.468750e+001  -1.595012e+002 
3759375000  -4.490027e+001  -1.616647e+002 
3762500000  -4.466350e+001  -1.650924e+002 
3765625000  -4.499815e+001  -1.640588e+002 
3768750000  -4.518557e+001  -1.556205e+002 
3771875000  -4.330329e+001  -1.616002e+002 
3775000000  -4.334711e+001  -1.674251e+002 
3778125000  -4.340478e+001  -1.696698e+002 
3781250000  -4.289634e+001  -1.701939e+002 
3784375000  -4.268697e+001  -1.721081e+002 
3787500000  -4.189748e+001  -1.742999e+002 
3790625000  -4.214547e+001  1.785693e+002 
3793750000  -4.216671e+001  1.763746e+002 
3796875000  -4.138667e+001  1.751006e+002 
3800000000  -3.956206e+001  1.724685e+002 
3803125000  -4.027474e+001  1.640901e+002 
3806250000  -4.074025e+001  1.596951e+002 
3809375000  -4.036885e+001  1.580038e+002 
3812500000  -3.963208e+001  1.514424e+002 
3815625000  -4.027162e+001  1.415410e+002 
3818750000  -4.129394e+001  1.398716e+002 
3821875000  -4.083200e+001  1.495860e+002 
3825000000  -3.926566e+001  1.516017e+002 
3828125000  -3.783933e+001  1.343737e+002 
3831250000  -3.842920e+001  1.192023e+002 
3834375000  -3.974042e+001  1.184784e+002 
3837500000  -4.107275e+001  1.202681e+002 
3840625000  -4.010617e+001  1.190740e+002 
3843750000  -3.878363e+001  1.092510e+002 
3846875000  -3.972229e+001  1.014601e+002 
3850000000  -4.078504e+001  1.042384e+002 
3853125000  -4.055117e+001  1.072370e+002 
3856250000  -4.029290e+001  1.006294e+002 
3859375000  -3.947300e+001  9.516267e+001 
3862500000  -3.951215e+001  8.697636e+001 
3865625000  -4.004063e+001  8.437065e+001 
3868750000  -3.977421e+001  8.450350e+001 
3871875000  -3.918737e+001  7.892289e+001 
3875000000  -3.956148e+001  6.852916e+001 
3878125000  -4.077026e+001  6.764597e+001 
3881250000  -4.083594e+001  6.956487e+001 
3884375000  -4.035565e+001  6.523253e+001 
3887500000  -4.052864e+001  6.135197e+001 
3890625000  -4.118442e+001  5.669118e+001 
3893750000  -4.138703e+001  5.602773e+001 
3896875000  -4.128725e+001  5.781420e+001 
3900000000  -4.199318e+001  5.693831e+001 
3903125000  -4.123118e+001  5.582656e+001 
3906250000  -4.087125e+001  5.341647e+001 
3909375000  -4.013305e+001  5.019528e+001 
3912500000  -4.009258e+001  4.216938e+001 
3915625000  -4.141574e+001  4.060894e+001 
3918750000  -4.141225e+001  4.265920e+001 
3921875000  -4.091098e+001  4.196078e+001 
3925000000  -3.970762e+001  3.682672e+001 
3928125000  -3.916123e+001  3.113383e+001 
3931250000  -3.940764e+001  2.625683e+001 
3934375000  -3.990017e+001  2.469671e+001 
3937500000  -3.987782e+001  2.394300e+001 
3940625000  -4.058298e+001  2.219087e+001 
3943750000  -3.932592e+001  2.226907e+001 
3946875000  -3.811777e+001  1.401084e+001 
3950000000  -3.889399e+001  4.725204e+000 
3953125000  -3.988700e+001  5.592572e+000 
3956250000  -3.884529e+001  8.454365e+000 
3959375000  -3.751322e+001  4.010666e+000 
3962500000  -3.724580e+001  -1.965088e+000 
3965625000  -3.707552e+001  -1.301546e+001 
3968750000  -3.807462e+001  -2.067334e+001 
3971875000  -3.826483e+001  -2.308680e+001 
3975000000  -3.774609e+001  -2.326825e+001 
3978125000  -3.768222e+001  -2.935474e+001 
3981250000  -3.753516e+001  -3.424700e+001 
3984375000  -3.780627e+001  -3.986373e+001 
3987500000  -3.865754e+001  -4.192475e+001 
3990625000  -3.849353e+001  -4.536937e+001 
3993750000  -3.921201e+001  -4.883763e+001 
3996875000  -3.892802e+001  -5.209358e+001 
4000000000  -3.924288e+001  -5.400779e+001 
4003125000  -3.990803e+001  -5.427244e+001 
4006250000  -3.868842e+001  -5.262965e+001 
4009375000  -3.757587e+001  -6.738417e+001 
4012500000  -3.890279e+001  -7.294035e+001 
4015625000  -4.027176e+001  -7.231948e+001 
4018750000  -4.005838e+001  -7.092813e+001 
4021875000  -3.948459e+001  -7.452338e+001 
4025000000  -3.928695e+001  -7.777344e+001 
4028125000  -3.910226e+001  -8.218484e+001 
4031250000  -3.951453e+001  -8.395030e+001 
4034375000  -3.998189e+001  -8.474196e+001 
4037500000  -3.941577e+001  -8.185998e+001 
4040625000  -3.934758e+001  -8.768407e+001 
4043750000  -3.958137e+001  -8.842390e+001 
4046875000  -3.906763e+001  -8.948264e+001 
4050000000  -3.844846e+001  -9.571775e+001 
4053125000  -3.890770e+001  -9.695573e+001 
4056250000  -3.942136e+001  -9.459559e+001 
4059375000  -3.802607e+001  -9.390662e+001 
4062500000  -3.666905e+001  -9.936525e+001 
4065625000  -3.656806e+001  -1.036344e+002 
4068750000  -3.633589e+001  -1.103299e+002 
4071875000  -3.564750e+001  -1.190842e+002 
4075000000  -3.594833e+001  -1.256865e+002 
4078125000  -3.646925e+001  -1.274775e+002 
4081250000  -3.604781e+001  -1.317843e+002 
4084375000  -3.547289e+001  -1.388549e+002 
4087500000  -3.588447e+001  -1.461434e+002 
4090625000  -3.669357e+001  -1.495874e+002 
4093750000  -3.633201e+001  -1.503913e+002 
4096875000  -3.580158e+001  -1.563965e+002 
4100000000  -3.676112e+001  -1.639429e+002 
4103125000  -3.753905e+001  -1.645279e+002 
4106250000  -3.750844e+001  -1.598884e+002 
4109375000  -3.631025e+001  -1.623554e+002 
4112500000  -3.598356e+001  -1.703814e+002 
4115625000  -3.638995e+001  -1.751432e+002 
4118750000  -3.660016e+001  -1.797937e+002 
4121875000  -3.628389e+001  1.732922e+002 
4125000000  -3.671986e+001  1.682124e+002 
4128125000  -3.793201e+001  1.684654e+002 
4131250000  -3.744239e+001  1.754873e+002 
4134375000  -3.541904e+001  1.695033e+002 
4137500000  -3.519745e+001  1.493895e+002 
4140625000  -3.735762e+001  1.425602e+002 
4143750000  -3.882734e+001  1.466428e+002 
4146875000  -3.832490e+001  1.533222e+002 
4150000000  -3.778811e+001  1.500063e+002 
4153125000  -3.779432e+001  1.434461e+002 
4156250000  -3.869811e+001  1.409435e+002 
4159375000  -3.887781e+001  1.440112e+002 
4162500000  -3.781921e+001  1.485851e+002 
4165625000  -3.668054e+001  1.439753e+002 
4168750000  -3.621648e+001  1.363279e+002 
4171875000  -3.605391e+001  1.264785e+002 
4175000000  -3.678786e+001  1.223608e+002 
4178125000  -3.741019e+001  1.214519e+002 
4181250000  -3.696681e+001  1.210495e+002 
4184375000  -3.688585e+001  1.170358e+002 
4187500000  -3.686924e+001  1.134217e+002 
4190625000  -3.681866e+001  1.074673e+002 
4193750000  -3.745227e+001  1.038694e+002 
4196875000  -3.814428e+001  1.015166e+002 
4200000000  -3.910381e+001  1.050852e+002 
4203125000  -3.879599e+001  1.184305e+002 
4206250000  -3.536419e+001  1.178465e+002 
4209375000  -3.423561e+001  9.545980e+001 
4212500000  -3.603523e+001  8.711796e+001 
4215625000  -3.691185e+001  9.320196e+001 
4218750000  -3.562043e+001  9.782695e+001 
4221875000  -3.319766e+001  8.756407e+001 
4225000000  -3.444394e+001  7.422218e+001 
4228125000  -3.508513e+001  7.824168e+001 
4231250000  -3.329018e+001  7.370368e+001 
4234375000  -3.330957e+001  6.347675e+001 
4237500000  -3.294010e+001  5.997893e+001 
4240625000  -3.286855e+001  4.854799e+001 
4243750000  -3.402658e+001  4.102669e+001 
4246875000  -3.496598e+001  4.018138e+001 
4250000000  -3.493425e+001  4.180587e+001 
4253125000  -3.418227e+001  3.975593e+001 
4256250000  -3.470217e+001  3.323889e+001 
4259375000  -3.448177e+001  2.964062e+001 
4262500000  -3.457431e+001  2.562324e+001 
4265625000  -3.475067e+001  2.427634e+001 
4268750000  -3.402051e+001  1.912593e+001 
4271875000  -3.366068e+001  1.119859e+001 
4275000000  -3.329028e+001  4.478583e+000 
4278125000  -3.419035e+001  -8.033753e+000 
4281250000  -3.598363e+001  -1.022788e+001 
4284375000  -3.582164e+001  -9.712396e+000 
4287500000  -3.686319e+001  -1.333811e+001 
4290625000  -3.835250e+001  -5.871190e+000 
4293750000  -3.615002e+001  4.584027e-001 
4296875000  -3.499663e+001  -1.176560e+001 
4300000000  -3.615913e+001  -2.041226e+001 
4303125000  -3.706723e+001  -1.962814e+001 
4306250000  -3.654959e+001  -1.301469e+001 
4309375000  -3.527262e+001  -1.445392e+001 
4312500000  -3.509266e+001  -2.351169e+001 
4315625000  -3.527942e+001  -2.842200e+001 
4318750000  -3.567043e+001  -3.200708e+001 
4321875000  -3.569607e+001  -3.170714e+001 
4325000000  -3.496462e+001  -3.153296e+001 
4328125000  -3.446185e+001  -3.790044e+001 
4331250000  -3.416232e+001  -4.662823e+001 
4334375000  -3.463077e+001  -5.133563e+001 
4337500000  -3.551014e+001  -5.349607e+001 
4340625000  -3.576323e+001  -4.971262e+001 
4343750000  -3.489816e+001  -5.128004e+001 
4346875000  -3.444494e+001  -5.820201e+001 
4350000000  -3.445150e+001  -6.345316e+001 
4353125000  -3.436496e+001  -7.198286e+001 
4356250000  -3.612785e+001  -7.343465e+001 
4359375000  -3.646722e+001  -6.099773e+001 
4362500000  -3.357220e+001  -6.033928e+001 
4365625000  -3.195415e+001  -7.471856e+001 
4368750000  -3.270341e+001  -8.768445e+001 
4371875000  -3.373807e+001  -8.746760e+001 
4375000000  -3.320759e+001  -8.846010e+001 
4378125000  -3.245765e+001  -9.595701e+001 
4381250000  -3.279255e+001  -1.025218e+002 
4384375000  -3.253773e+001  -1.088996e+002 
4387500000  -3.341665e+001  -1.158797e+002 
4390625000  -3.435397e+001  -1.170686e+002 
4393750000  -3.378020e+001  -1.153921e+002 
4396875000  -3.299583e+001  -1.191026e+002 
4400000000  -3.260574e+001  -1.279173e+002 
4403125000  -3.328690e+001  -1.369328e+002 
4406250000  -3.412564e+001  -1.394997e+002 
4409375000  -3.420037e+001  -1.425993e+002 
4412500000  -3.534406e+001  -1.465694e+002 
4415625000  -3.582276e+001  -1.421589e+002 
