!Agilent Technologies,E8363B,MY43030201,A.06.04.32
!Agilent E8363B: A.06.04.32
!Date: Tuesday, November 11, 2014 21:01:01
!Correction: S21(Response(S21)) 
!S1P File: Measurement: S21:
# Hz S  dB   R 50
3000000000  -3.638189e+001  -4.333966e+001 
3003125000  -3.734513e+001  -4.911493e+001 
3006250000  -3.737080e+001  -5.202401e+001 
3009375000  -3.758068e+001  -4.767769e+001 
3012500000  -3.701241e+001  -4.930710e+001 
3015625000  -3.601146e+001  -5.623037e+001 
3018750000  -3.673402e+001  -5.826296e+001 
3021875000  -3.544455e+001  -5.670511e+001 
3025000000  -3.398666e+001  -6.093968e+001 
3028125000  -3.306750e+001  -6.684653e+001 
3031250000  -3.201843e+001  -7.815211e+001 
3034375000  -3.165911e+001  -9.207220e+001 
3037500000  -3.207983e+001  -1.040044e+002 
3040625000  -3.344020e+001  -1.089885e+002 
3043750000  -3.405121e+001  -1.140502e+002 
3046875000  -3.417339e+001  -1.199244e+002 
3050000000  -3.592629e+001  -1.265401e+002 
3053125000  -3.604491e+001  -1.210430e+002 
3056250000  -3.538995e+001  -1.178544e+002 
3059375000  -3.557020e+001  -1.178536e+002 
3062500000  -3.403738e+001  -1.214994e+002 
3065625000  -3.378126e+001  -1.274827e+002 
3068750000  -3.349003e+001  -1.350784e+002 
3071875000  -3.340254e+001  -1.374950e+002 
3075000000  -3.323840e+001  -1.412495e+002 
3078125000  -3.293645e+001  -1.454439e+002 
3081250000  -3.337883e+001  -1.497654e+002 
3084375000  -3.262569e+001  -1.531148e+002 
3087500000  -3.238937e+001  -1.574597e+002 
3090625000  -3.197203e+001  -1.672876e+002 
3093750000  -3.231902e+001  -1.746778e+002 
3096875000  -3.344637e+001  1.794115e+002 
3100000000  -3.342014e+001  1.770377e+002 
3103125000  -3.355924e+001  1.781147e+002 
3106250000  -3.320337e+001  1.740351e+002 
3109375000  -3.333662e+001  1.694853e+002 
3112500000  -3.316526e+001  1.677805e+002 
3115625000  -3.285735e+001  1.630123e+002 
3118750000  -3.317846e+001  1.631137e+002 
3121875000  -3.228613e+001  1.540173e+002 
3125000000  -3.351182e+001  1.492998e+002 
3128125000  -3.450414e+001  1.569223e+002 
3131250000  -3.214085e+001  1.555156e+002 
3134375000  -3.076037e+001  1.401058e+002 
3137500000  -3.138979e+001  1.252803e+002 
3140625000  -3.286314e+001  1.220451e+002 
3143750000  -3.395264e+001  1.246416e+002 
3146875000  -3.341576e+001  1.252830e+002 
3150000000  -3.233527e+001  1.255777e+002 
3153125000  -3.232809e+001  1.170299e+002 
3156250000  -3.330923e+001  1.209542e+002 
3159375000  -3.171967e+001  1.226771e+002 
3162500000  -2.972078e+001  1.079390e+002 
3165625000  -3.072295e+001  9.602829e+001 
3168750000  -3.108192e+001  9.624714e+001 
3171875000  -3.017476e+001  9.039432e+001 
3175000000  -3.088685e+001  8.216520e+001 
3178125000  -3.067104e+001  8.270875e+001 
3181250000  -2.956483e+001  7.766449e+001 
3184375000  -2.890553e+001  6.445425e+001 
3187500000  -3.003579e+001  4.919321e+001 
3190625000  -3.284958e+001  4.057695e+001 
3193750000  -3.339837e+001  4.911647e+001 
3196875000  -3.299453e+001  5.418573e+001 
3200000000  -3.209641e+001  5.177829e+001 
3203125000  -3.126508e+001  4.551416e+001 
3206250000  -3.157872e+001  3.829519e+001 
3209375000  -3.108598e+001  3.271003e+001 
3212500000  -3.126043e+001  2.557522e+001 
3215625000  -3.130904e+001  2.129387e+001 
3218750000  -3.216649e+001  1.421999e+001 
3221875000  -3.306955e+001  9.013594e+000 
3225000000  -3.267298e+001  7.996303e+000 
3228125000  -3.294819e+001  1.847753e+000 
3231250000  -3.365217e+001  -2.756144e-001 
3234375000  -3.344199e+001  -4.345191e-001 
3237500000  -3.341222e+001  -2.525809e+000 
3240625000  -3.300268e+001  -4.605227e+000 
3243750000  -3.250662e+001  -1.172705e+001 
3246875000  -3.303296e+001  -1.945326e+001 
3250000000  -3.347477e+001  -2.175656e+001 
3253125000  -3.358032e+001  -2.395057e+001 
3256250000  -3.321418e+001  -3.051670e+001 
3259375000  -3.359414e+001  -3.972034e+001 
3262500000  -3.472287e+001  -4.273384e+001 
3265625000  -3.534782e+001  -4.046188e+001 
3268750000  -3.516331e+001  -3.823591e+001 
3271875000  -3.493781e+001  -3.861342e+001 
3275000000  -3.392629e+001  -4.435199e+001 
3278125000  -3.429666e+001  -5.117479e+001 
3281250000  -3.441956e+001  -5.064998e+001 
3284375000  -3.398711e+001  -5.707002e+001 
3287500000  -3.422107e+001  -6.123850e+001 
3290625000  -3.456453e+001  -6.693840e+001 
3293750000  -3.430285e+001  -7.285348e+001 
3296875000  -3.524859e+001  -7.334336e+001 
3300000000  -3.508067e+001  -7.218107e+001 
3303125000  -3.386912e+001  -7.709356e+001 
3306250000  -3.366620e+001  -8.430205e+001 
3309375000  -3.331547e+001  -9.059176e+001 
3312500000  -3.345897e+001  -1.015741e+002 
3315625000  -3.442441e+001  -1.098222e+002 
3318750000  -3.572519e+001  -1.133728e+002 
3321875000  -3.697657e+001  -1.129689e+002 
3325000000  -3.752617e+001  -1.095506e+002 
3328125000  -3.704732e+001  -1.075084e+002 
3331250000  -3.587575e+001  -1.004013e+002 
3334375000  -3.312696e+001  -1.105863e+002 
3337500000  -3.316862e+001  -1.296287e+002 
3340625000  -3.448742e+001  -1.404382e+002 
3343750000  -3.641043e+001  -1.427874e+002 
3346875000  -3.673506e+001  -1.404206e+002 
3350000000  -3.622545e+001  -1.418627e+002 
3353125000  -3.601949e+001  -1.467446e+002 
3356250000  -3.571890e+001  -1.551933e+002 
3359375000  -3.631887e+001  -1.629903e+002 
3362500000  -3.749873e+001  -1.681961e+002 
3365625000  -3.780349e+001  -1.704183e+002 
3368750000  -3.872235e+001  -1.728087e+002 
3371875000  -3.896206e+001  -1.758359e+002 
3375000000  -4.035787e+001  -1.780158e+002 
3378125000  -4.118654e+001  -1.794657e+002 
3381250000  -4.262811e+001  -1.706245e+002 
3384375000  -4.151124e+001  -1.501048e+002 
3387500000  -3.764857e+001  -1.655590e+002 
3390625000  -3.918297e+001  1.772370e+002 
3393750000  -4.059954e+001  -1.793678e+002 
3396875000  -3.924674e+001  -1.793105e+002 
3400000000  -3.881958e+001  1.716983e+002 
3403125000  -3.929941e+001  1.661335e+002 
3406250000  -3.953392e+001  1.662045e+002 
3409375000  -3.993002e+001  1.577012e+002 
3412500000  -4.023747e+001  1.567315e+002 
3415625000  -4.104880e+001  1.578457e+002 
3418750000  -4.108100e+001  1.565113e+002 
3421875000  -4.150506e+001  1.617634e+002 
3425000000  -4.030172e+001  1.615907e+002 
3428125000  -3.937716e+001  1.575905e+002 
3431250000  -3.935977e+001  1.513011e+002 
3434375000  -3.933810e+001  1.434635e+002 
3437500000  -3.985945e+001  1.405487e+002 
3440625000  -3.995620e+001  1.424940e+002 
3443750000  -3.885970e+001  1.433272e+002 
3446875000  -3.808584e+001  1.356351e+002 
3450000000  -3.752703e+001  1.269324e+002 
3453125000  -3.781983e+001  1.156970e+002 
3456250000  -3.912119e+001  1.089444e+002 
3459375000  -3.994844e+001  1.098754e+002 
3462500000  -3.992815e+001  1.107901e+002 
3465625000  -3.999688e+001  1.049478e+002 
3468750000  -4.021891e+001  1.018190e+002 
3471875000  -4.006517e+001  9.965211e+001 
3475000000  -3.940112e+001  9.441825e+001 
3478125000  -4.019863e+001  8.644955e+001 
3481250000  -4.107537e+001  8.387659e+001 
3484375000  -4.192209e+001  8.956481e+001 
3487500000  -4.131791e+001  8.830006e+001 
3490625000  -4.053128e+001  8.159546e+001 
3493750000  -4.112474e+001  7.528590e+001 
3496875000  -4.185759e+001  7.298274e+001 
3500000000  -4.213405e+001  7.474547e+001 
3503125000  -4.179732e+001  7.659890e+001 
3506250000  -4.059037e+001  7.373599e+001 
3509375000  -4.048054e+001  6.337323e+001 
3512500000  -4.136261e+001  5.328519e+001 
3515625000  -4.210040e+001  5.024004e+001 
3518750000  -4.248008e+001  5.161138e+001 
3521875000  -4.234559e+001  4.799198e+001 
3525000000  -4.336418e+001  4.384406e+001 
3528125000  -4.383254e+001  5.133565e+001 
3531250000  -4.193398e+001  5.029923e+001 
3534375000  -4.240575e+001  4.006343e+001 
3537500000  -4.284863e+001  3.491296e+001 
3540625000  -4.372484e+001  3.429961e+001 
3543750000  -4.483990e+001  3.694413e+001 
3546875000  -4.466432e+001  5.052839e+001 
3550000000  -4.200637e+001  5.219996e+001 
3553125000  -4.055309e+001  3.588810e+001 
3556250000  -4.196849e+001  2.918996e+001 
3559375000  -4.180391e+001  3.090232e+001 
3562500000  -4.089355e+001  2.186343e+001 
3565625000  -4.140202e+001  1.475605e+001 
3568750000  -4.214025e+001  1.849487e+001 
3571875000  -4.154532e+001  1.552910e+001 
3575000000  -4.132487e+001  1.084154e+001 
3578125000  -4.169875e+001  6.252719e+000 
3581250000  -4.168027e+001  3.265477e+000 
3584375000  -4.087589e+001  1.437901e+000 
3587500000  -4.020574e+001  -7.454131e+000 
3590625000  -4.097953e+001  -1.904129e+001 
3593750000  -4.170486e+001  -2.007973e+001 
3596875000  -4.216278e+001  -1.426960e+001 
3600000000  -4.032534e+001  -1.939927e+001 
3603125000  -4.080848e+001  -3.421302e+001 
3606250000  -4.164104e+001  -3.852672e+001 
3609375000  -4.205132e+001  -4.067832e+001 
3612500000  -4.284559e+001  -4.479998e+001 
3615625000  -4.306837e+001  -4.709687e+001 
3618750000  -4.346377e+001  -4.896384e+001 
3621875000  -4.330127e+001  -5.100570e+001 
3625000000  -4.420933e+001  -5.469997e+001 
3628125000  -4.435506e+001  -5.379252e+001 
3631250000  -4.424353e+001  -6.111556e+001 
3634375000  -4.538972e+001  -6.308634e+001 
3637500000  -4.608558e+001  -5.609613e+001 
3640625000  -4.529419e+001  -5.715854e+001 
3643750000  -4.450193e+001  -6.338599e+001 
3646875000  -4.539245e+001  -6.771870e+001 
3650000000  -4.671743e+001  -6.856432e+001 
3653125000  -4.601178e+001  -6.752400e+001 
3656250000  -4.667714e+001  -6.700872e+001 
3659375000  -4.665026e+001  -6.471251e+001 
3662500000  -4.618522e+001  -6.347028e+001 
3665625000  -4.581759e+001  -6.621774e+001 
3668750000  -4.516881e+001  -6.385495e+001 
3671875000  -4.400338e+001  -6.857696e+001 
3675000000  -4.405181e+001  -7.209451e+001 
3678125000  -4.425319e+001  -7.703569e+001 
3681250000  -4.393128e+001  -7.884223e+001 
3684375000  -4.399197e+001  -8.146210e+001 
3687500000  -4.425944e+001  -8.629604e+001 
3690625000  -4.397895e+001  -8.914512e+001 
3693750000  -4.493393e+001  -8.975685e+001 
3696875000  -4.430895e+001  -8.932720e+001 
3700000000  -4.361003e+001  -9.267580e+001 
3703125000  -4.393963e+001  -9.904386e+001 
3706250000  -4.423729e+001  -1.000211e+002 
3709375000  -4.394822e+001  -9.545741e+001 
3712500000  -4.311278e+001  -1.008569e+002 
3715625000  -4.193458e+001  -1.060903e+002 
3718750000  -4.186806e+001  -1.128765e+002 
3721875000  -4.159599e+001  -1.177588e+002 
3725000000  -4.195826e+001  -1.230203e+002 
3728125000  -4.217595e+001  -1.256732e+002 
3731250000  -4.167690e+001  -1.270244e+002 
3734375000  -4.133478e+001  -1.348785e+002 
3737500000  -4.198368e+001  -1.428898e+002 
3740625000  -4.311723e+001  -1.464678e+002 
3743750000  -4.290085e+001  -1.499823e+002 
3746875000  -4.336676e+001  -1.516747e+002 
3750000000  -4.409486e+001  -1.535616e+002 
3753125000  -4.387994e+001  -1.525275e+002 
3756250000  -4.426324e+001  -1.540535e+002 
3759375000  -4.436976e+001  -1.528412e+002 
3762500000  -4.368113e+001  -1.560575e+002 
3765625000  -4.449939e+001  -1.565017e+002 
3768750000  -4.394469e+001  -1.550927e+002 
3771875000  -4.272850e+001  -1.554728e+002 
3775000000  -4.287428e+001  -1.613611e+002 
3778125000  -4.299111e+001  -1.631144e+002 
3781250000  -4.290999e+001  -1.658098e+002 
3784375000  -4.301684e+001  -1.654642e+002 
3787500000  -4.195660e+001  -1.654120e+002 
3790625000  -4.233114e+001  -1.733198e+002 
3793750000  -4.258627e+001  -1.754677e+002 
3796875000  -4.138853e+001  -1.777490e+002 
3800000000  -3.996061e+001  -1.791037e+002 
3803125000  -4.062106e+001  1.724366e+002 
3806250000  -4.101292e+001  1.692604e+002 
3809375000  -4.087255e+001  1.675368e+002 
3812500000  -4.001956e+001  1.593047e+002 
3815625000  -4.062428e+001  1.536923e+002 
3818750000  -4.147050e+001  1.516019e+002 
3821875000  -4.123939e+001  1.578784e+002 
3825000000  -3.942071e+001  1.610844e+002 
3828125000  -3.829825e+001  1.461391e+002 
3831250000  -3.881884e+001  1.295730e+002 
3834375000  -4.025904e+001  1.277137e+002 
3837500000  -4.108686e+001  1.331170e+002 
3840625000  -3.978165e+001  1.321921e+002 
3843750000  -3.887721e+001  1.191779e+002 
3846875000  -3.964374e+001  1.111431e+002 
3850000000  -4.063993e+001  1.168302e+002 
3853125000  -3.992374e+001  1.176322e+002 
3856250000  -3.988228e+001  1.147621e+002 
3859375000  -3.950432e+001  1.063984e+002 
3862500000  -3.907916e+001  9.873923e+001 
3865625000  -3.948319e+001  9.418099e+001 
3868750000  -3.924494e+001  9.262070e+001 
3871875000  -3.885603e+001  8.961407e+001 
3875000000  -3.896696e+001  8.078817e+001 
3878125000  -4.005191e+001  7.898147e+001 
3881250000  -4.009463e+001  7.946616e+001 
3884375000  -3.974973e+001  7.541264e+001 
3887500000  -3.959881e+001  6.950219e+001 
3890625000  -4.050257e+001  6.653004e+001 
3893750000  -4.037244e+001  6.379179e+001 
3896875000  -4.080344e+001  6.602667e+001 
3900000000  -4.129919e+001  6.328027e+001 
3903125000  -4.066778e+001  6.284213e+001 
3906250000  -4.052864e+001  5.670141e+001 
3909375000  -3.987814e+001  5.603439e+001 
3912500000  -3.981625e+001  4.781147e+001 
3915625000  -4.105816e+001  4.701234e+001 
3918750000  -4.096892e+001  4.743081e+001 
3921875000  -4.052932e+001  4.685534e+001 
3925000000  -3.967738e+001  4.389670e+001 
3928125000  -3.909616e+001  3.674445e+001 
3931250000  -3.960665e+001  3.098462e+001 
3934375000  -4.006219e+001  3.030083e+001 
3937500000  -4.002497e+001  3.027503e+001 
3940625000  -4.024325e+001  2.870593e+001 
3943750000  -3.942593e+001  2.893145e+001 
3946875000  -3.826450e+001  2.159371e+001 
3950000000  -3.889868e+001  1.262282e+001 
3953125000  -4.011155e+001  1.303561e+001 
3956250000  -3.932993e+001  1.502815e+001 
3959375000  -3.778252e+001  1.050154e+001 
3962500000  -3.723732e+001  7.344141e+000 
3965625000  -3.719421e+001  -3.785156e+000 
3968750000  -3.811925e+001  -1.020376e+001 
3971875000  -3.864560e+001  -1.299708e+001 
3975000000  -3.784655e+001  -1.365669e+001 
3978125000  -3.781171e+001  -1.842813e+001 
3981250000  -3.797002e+001  -2.259548e+001 
3984375000  -3.806451e+001  -2.851957e+001 
3987500000  -3.857934e+001  -3.142708e+001 
3990625000  -3.821794e+001  -3.322908e+001 
3993750000  -3.885740e+001  -3.669579e+001 
3996875000  -3.873957e+001  -4.210582e+001 
4000000000  -3.898580e+001  -4.248520e+001 
4003125000  -3.921260e+001  -4.152538e+001 
4006250000  -3.807407e+001  -4.230079e+001 
4009375000  -3.701836e+001  -5.470393e+001 
4012500000  -3.808016e+001  -6.228066e+001 
4015625000  -3.927354e+001  -6.152724e+001 
4018750000  -3.920576e+001  -6.168576e+001 
4021875000  -3.875215e+001  -6.355128e+001 
4025000000  -3.817611e+001  -6.956934e+001 
4028125000  -3.825090e+001  -7.403658e+001 
4031250000  -3.898277e+001  -7.768980e+001 
4034375000  -3.926622e+001  -7.748876e+001 
4037500000  -3.880619e+001  -7.755398e+001 
4040625000  -3.856009e+001  -8.179185e+001 
4043750000  -3.899302e+001  -8.248142e+001 
4046875000  -3.856438e+001  -8.351118e+001 
4050000000  -3.801467e+001  -9.014933e+001 
4053125000  -3.851896e+001  -9.374048e+001 
4056250000  -3.906041e+001  -8.941372e+001 
4059375000  -3.793237e+001  -8.988492e+001 
4062500000  -3.664660e+001  -9.485368e+001 
4065625000  -3.645721e+001  -9.918697e+001 
4068750000  -3.639035e+001  -1.065150e+002 
4071875000  -3.555365e+001  -1.149900e+002 
4075000000  -3.601470e+001  -1.203602e+002 
4078125000  -3.649260e+001  -1.237344e+002 
4081250000  -3.605957e+001  -1.269191e+002 
4084375000  -3.570209e+001  -1.344132e+002 
4087500000  -3.614509e+001  -1.409811e+002 
4090625000  -3.679810e+001  -1.423165e+002 
4093750000  -3.654941e+001  -1.424230e+002 
4096875000  -3.635450e+001  -1.495540e+002 
4100000000  -3.711115e+001  -1.577311e+002 
4103125000  -3.795712e+001  -1.565841e+002 
4106250000  -3.773002e+001  -1.505496e+002 
4109375000  -3.668598e+001  -1.529925e+002 
4112500000  -3.618881e+001  -1.613271e+002 
4115625000  -3.662653e+001  -1.660283e+002 
4118750000  -3.700520e+001  -1.705455e+002 
4121875000  -3.640823e+001  -1.756821e+002 
4125000000  -3.682520e+001  1.798866e+002 
4128125000  -3.780651e+001  1.783752e+002 
4131250000  -3.760935e+001  -1.735801e+002 
4134375000  -3.533910e+001  -1.796178e+002 
4137500000  -3.514888e+001  1.612439e+002 
4140625000  -3.714082e+001  1.526607e+002 
4143750000  -3.876364e+001  1.574985e+002 
4146875000  -3.836511e+001  1.635205e+002 
4150000000  -3.713683e+001  1.599271e+002 
4153125000  -3.728843e+001  1.529433e+002 
4156250000  -3.790720e+001  1.490723e+002 
4159375000  -3.826298e+001  1.545172e+002 
4162500000  -3.729545e+001  1.579141e+002 
4165625000  -3.599507e+001  1.512070e+002 
4168750000  -3.556200e+001  1.437138e+002 
4171875000  -3.573623e+001  1.340932e+002 
4175000000  -3.617175e+001  1.283052e+002 
4178125000  -3.692265e+001  1.272539e+002 
4181250000  -3.663591e+001  1.272006e+002 
4184375000  -3.639110e+001  1.231363e+002 
4187500000  -3.640561e+001  1.179931e+002 
4190625000  -3.631771e+001  1.128126e+002 
4193750000  -3.718393e+001  1.086194e+002 
4196875000  -3.792033e+001  1.071886e+002 
4200000000  -3.900388e+001  1.092296e+002 
4203125000  -3.850735e+001  1.221392e+002 
4206250000  -3.516589e+001  1.233622e+002 
4209375000  -3.416303e+001  9.936035e+001 
4212500000  -3.609257e+001  9.159859e+001 
4215625000  -3.698616e+001  9.737957e+001 
4218750000  -3.568771e+001  1.034346e+002 
4221875000  -3.326178e+001  9.230542e+001 
4225000000  -3.474386e+001  7.908679e+001 
4228125000  -3.523068e+001  8.441465e+001 
4231250000  -3.362920e+001  7.924078e+001 
4234375000  -3.361175e+001  7.006667e+001 
4237500000  -3.329207e+001  6.631139e+001 
4240625000  -3.320961e+001  5.623828e+001 
4243750000  -3.436519e+001  4.749035e+001 
4246875000  -3.523783e+001  4.737716e+001 
4250000000  -3.528544e+001  4.934082e+001 
4253125000  -3.482618e+001  4.619449e+001 
4256250000  -3.500156e+001  4.192611e+001 
4259375000  -3.479343e+001  3.862202e+001 
4262500000  -3.485895e+001  3.400150e+001 
4265625000  -3.508581e+001  3.323908e+001 
4268750000  -3.401694e+001  2.932634e+001 
4271875000  -3.406223e+001  2.180616e+001 
4275000000  -3.352798e+001  1.422807e+001 
4278125000  -3.408709e+001  3.135417e+000 
4281250000  -3.599429e+001  -2.076485e-001 
4284375000  -3.588628e+001  1.127876e+000 
4287500000  -3.668026e+001  -2.500938e+000 
4290625000  -3.797503e+001  6.257238e+000 
4293750000  -3.614774e+001  1.164305e+001 
4296875000  -3.484164e+001  -5.812579e-001 
4300000000  -3.584105e+001  -8.779137e+000 
4303125000  -3.683081e+001  -8.678650e+000 
4306250000  -3.606617e+001  -2.103595e+000 
4309375000  -3.474500e+001  -5.413915e+000 
4312500000  -3.454375e+001  -1.374224e+001 
4315625000  -3.472282e+001  -2.031994e+001 
4318750000  -3.511513e+001  -2.404488e+001 
4321875000  -3.508722e+001  -2.336688e+001 
4325000000  -3.452304e+001  -2.315424e+001 
4328125000  -3.387874e+001  -3.116940e+001 
4331250000  -3.379138e+001  -3.998802e+001 
4334375000  -3.412669e+001  -4.490228e+001 
4337500000  -3.496985e+001  -4.869454e+001 
4340625000  -3.547892e+001  -4.559481e+001 
4343750000  -3.471396e+001  -4.715810e+001 
4346875000  -3.423414e+001  -5.204021e+001 
4350000000  -3.433422e+001  -5.868511e+001 
4353125000  -3.431607e+001  -6.721478e+001 
4356250000  -3.574057e+001  -6.980685e+001 
4359375000  -3.632156e+001  -5.596902e+001 
4362500000  -3.367758e+001  -5.554152e+001 
4365625000  -3.203399e+001  -6.872947e+001 
4368750000  -3.282135e+001  -8.109913e+001 
4371875000  -3.397474e+001  -8.212116e+001 
4375000000  -3.355293e+001  -8.362252e+001 
4378125000  -3.291678e+001  -8.917361e+001 
4381250000  -3.317295e+001  -9.680009e+001 
4384375000  -3.296522e+001  -1.018696e+002 
4387500000  -3.379705e+001  -1.080736e+002 
4390625000  -3.489745e+001  -1.101357e+002 
4393750000  -3.421334e+001  -1.080879e+002 
4396875000  -3.356912e+001  -1.104147e+002 
4400000000  -3.313274e+001  -1.191509e+002 
4403125000  -3.367623e+001  -1.268305e+002 
4406250000  -3.456355e+001  -1.287570e+002 
4409375000  -3.475013e+001  -1.330989e+002 
4412500000  -3.577641e+001  -1.360631e+002 
4415625000  -3.621798e+001  -1.320104e+002 
