!Agilent Technologies,E8363B,MY43030201,A.06.04.32
!Agilent E8363B: A.06.04.32
!Date: Tuesday, November 11, 2014 21:08:12
!Correction: S21(Response(S21)) 
!S1P File: Measurement: S21:
# Hz S  dB   R 50
3000000000  -3.646302e+001  -5.235172e+001 
3003125000  -3.764998e+001  -5.893172e+001 
3006250000  -3.746358e+001  -6.104805e+001 
3009375000  -3.789436e+001  -5.643395e+001 
3012500000  -3.700224e+001  -5.935209e+001 
3015625000  -3.618880e+001  -6.595995e+001 
3018750000  -3.681607e+001  -6.727264e+001 
3021875000  -3.542625e+001  -6.667249e+001 
3025000000  -3.412245e+001  -6.987999e+001 
3028125000  -3.315685e+001  -7.635767e+001 
3031250000  -3.214867e+001  -8.764971e+001 
3034375000  -3.176531e+001  -1.015477e+002 
3037500000  -3.227822e+001  -1.137370e+002 
3040625000  -3.358771e+001  -1.186396e+002 
3043750000  -3.430780e+001  -1.238401e+002 
3046875000  -3.445988e+001  -1.291305e+002 
3050000000  -3.611815e+001  -1.350842e+002 
3053125000  -3.604158e+001  -1.299304e+002 
3056250000  -3.551157e+001  -1.263449e+002 
3059375000  -3.557100e+001  -1.270322e+002 
3062500000  -3.423469e+001  -1.306283e+002 
3065625000  -3.393535e+001  -1.370062e+002 
3068750000  -3.353891e+001  -1.442026e+002 
3071875000  -3.356705e+001  -1.460976e+002 
3075000000  -3.331372e+001  -1.500842e+002 
3078125000  -3.313219e+001  -1.544992e+002 
3081250000  -3.357267e+001  -1.588936e+002 
3084375000  -3.269666e+001  -1.622847e+002 
3087500000  -3.245875e+001  -1.661429e+002 
3090625000  -3.198781e+001  -1.761894e+002 
3093750000  -3.246830e+001  1.763721e+002 
3096875000  -3.350491e+001  1.706728e+002 
3100000000  -3.334465e+001  1.690091e+002 
3103125000  -3.369549e+001  1.696835e+002 
3106250000  -3.317543e+001  1.647731e+002 
3109375000  -3.327625e+001  1.608485e+002 
3112500000  -3.313858e+001  1.584182e+002 
3115625000  -3.289002e+001  1.539539e+002 
3118750000  -3.318948e+001  1.537051e+002 
3121875000  -3.229826e+001  1.444169e+002 
3125000000  -3.363683e+001  1.410340e+002 
3128125000  -3.445802e+001  1.481134e+002 
3131250000  -3.209801e+001  1.452337e+002 
3134375000  -3.069188e+001  1.299768e+002 
3137500000  -3.139491e+001  1.162120e+002 
3140625000  -3.281117e+001  1.132210e+002 
3143750000  -3.386175e+001  1.149979e+002 
3146875000  -3.324761e+001  1.167263e+002 
3150000000  -3.230095e+001  1.159803e+002 
3153125000  -3.234727e+001  1.064109e+002 
3156250000  -3.329412e+001  1.121965e+002 
3159375000  -3.160909e+001  1.132971e+002 
3162500000  -2.965664e+001  9.824885e+001 
3165625000  -3.078050e+001  8.642964e+001 
3168750000  -3.101804e+001  8.650468e+001 
3171875000  -3.015073e+001  8.133987e+001 
3175000000  -3.088299e+001  7.160530e+001 
3178125000  -3.063345e+001  7.284257e+001 
3181250000  -2.954136e+001  6.737013e+001 
3184375000  -2.884858e+001  5.437542e+001 
3187500000  -3.004454e+001  3.937686e+001 
3190625000  -3.274938e+001  3.118396e+001 
3193750000  -3.326092e+001  3.989386e+001 
3196875000  -3.296366e+001  4.506600e+001 
3200000000  -3.203949e+001  4.199977e+001 
3203125000  -3.126408e+001  3.566357e+001 
3206250000  -3.155208e+001  2.820737e+001 
3209375000  -3.114159e+001  2.267283e+001 
3212500000  -3.133335e+001  1.561033e+001 
3215625000  -3.133176e+001  1.197674e+001 
3218750000  -3.214561e+001  4.226954e+000 
3221875000  -3.305880e+001  -1.625266e-001 
3225000000  -3.245546e+001  -1.968156e+000 
3228125000  -3.303190e+001  -7.319858e+000 
3231250000  -3.364989e+001  -9.804810e+000 
3234375000  -3.345103e+001  -9.049289e+000 
3237500000  -3.327972e+001  -1.148971e+001 
3240625000  -3.287922e+001  -1.450010e+001 
3243750000  -3.258788e+001  -2.189536e+001 
3246875000  -3.294519e+001  -2.819121e+001 
3250000000  -3.337045e+001  -3.118212e+001 
3253125000  -3.344400e+001  -3.351678e+001 
3256250000  -3.305025e+001  -4.031442e+001 
3259375000  -3.346361e+001  -4.874237e+001 
3262500000  -3.461522e+001  -5.232941e+001 
3265625000  -3.518363e+001  -4.937838e+001 
3268750000  -3.512228e+001  -4.777795e+001 
3271875000  -3.473462e+001  -4.800166e+001 
3275000000  -3.366451e+001  -5.461870e+001 
3278125000  -3.418300e+001  -6.155912e+001 
3281250000  -3.424471e+001  -6.067694e+001 
3284375000  -3.390052e+001  -6.769601e+001 
3287500000  -3.398151e+001  -7.058265e+001 
3290625000  -3.431681e+001  -7.688021e+001 
3293750000  -3.406430e+001  -8.199522e+001 
3296875000  -3.512402e+001  -8.258022e+001 
3300000000  -3.486174e+001  -8.264392e+001 
3303125000  -3.369616e+001  -8.755283e+001 
3306250000  -3.346735e+001  -9.506313e+001 
3309375000  -3.318226e+001  -1.015612e+002 
3312500000  -3.328981e+001  -1.120848e+002 
3315625000  -3.422351e+001  -1.204545e+002 
3318750000  -3.572812e+001  -1.226930e+002 
3321875000  -3.685910e+001  -1.232530e+002 
3325000000  -3.748608e+001  -1.190656e+002 
3328125000  -3.685707e+001  -1.174393e+002 
3331250000  -3.571436e+001  -1.110706e+002 
3334375000  -3.297354e+001  -1.217439e+002 
3337500000  -3.306582e+001  -1.407416e+002 
3340625000  -3.446508e+001  -1.518162e+002 
3343750000  -3.645052e+001  -1.531003e+002 
3346875000  -3.655462e+001  -1.511304e+002 
3350000000  -3.604251e+001  -1.531877e+002 
3353125000  -3.593286e+001  -1.580636e+002 
3356250000  -3.547858e+001  -1.664174e+002 
3359375000  -3.633142e+001  -1.739700e+002 
3362500000  -3.741277e+001  1.798763e+002 
3365625000  -3.790873e+001  1.787309e+002 
3368750000  -3.860493e+001  1.763258e+002 
3371875000  -3.882175e+001  1.726920e+002 
3375000000  -4.035176e+001  1.694262e+002 
3378125000  -4.121341e+001  1.704026e+002 
3381250000  -4.262901e+001  1.790453e+002 
3384375000  -4.077507e+001  -1.600099e+002 
3387500000  -3.729226e+001  -1.771142e+002 
3390625000  -3.917389e+001  1.650581e+002 
3393750000  -4.024962e+001  1.656723e+002 
3396875000  -3.918485e+001  1.684036e+002 
3400000000  -3.863737e+001  1.609155e+002 
3403125000  -3.921944e+001  1.560023e+002 
3406250000  -3.959107e+001  1.552674e+002 
3409375000  -3.979845e+001  1.476083e+002 
3412500000  -4.012420e+001  1.465844e+002 
3415625000  -4.105482e+001  1.469780e+002 
3418750000  -4.107072e+001  1.470448e+002 
3421875000  -4.123934e+001  1.501013e+002 
3425000000  -4.009600e+001  1.495098e+002 
3428125000  -3.936186e+001  1.461059e+002 
3431250000  -3.920563e+001  1.393010e+002 
3434375000  -3.916822e+001  1.329781e+002 
3437500000  -3.961083e+001  1.289360e+002 
3440625000  -3.994719e+001  1.317527e+002 
3443750000  -3.869551e+001  1.324592e+002 
3446875000  -3.804195e+001  1.244956e+002 
3450000000  -3.760904e+001  1.146164e+002 
3453125000  -3.796309e+001  1.035543e+002 
3456250000  -3.899689e+001  9.687596e+001 
3459375000  -3.993686e+001  9.842383e+001 
3462500000  -3.979032e+001  9.761495e+001 
3465625000  -3.991593e+001  9.347040e+001 
3468750000  -4.008596e+001  8.988154e+001 
3471875000  -3.991474e+001  8.783531e+001 
3475000000  -3.961656e+001  8.325777e+001 
3478125000  -4.045356e+001  7.544548e+001 
3481250000  -4.128994e+001  7.177439e+001 
3484375000  -4.186732e+001  7.625011e+001 
3487500000  -4.123899e+001  7.675146e+001 
3490625000  -4.065250e+001  7.204424e+001 
3493750000  -4.109242e+001  6.621389e+001 
3496875000  -4.182909e+001  6.159412e+001 
3500000000  -4.263055e+001  6.587742e+001 
3503125000  -4.177053e+001  6.836760e+001 
3506250000  -4.066783e+001  6.338737e+001 
3509375000  -4.059029e+001  5.271353e+001 
3512500000  -4.111374e+001  4.438950e+001 
3515625000  -4.194780e+001  4.189805e+001 
3518750000  -4.243258e+001  4.139978e+001 
3521875000  -4.231374e+001  3.945156e+001 
3525000000  -4.338794e+001  3.728212e+001 
3528125000  -4.327891e+001  4.732623e+001 
3531250000  -4.211612e+001  4.241322e+001 
3534375000  -4.187228e+001  3.164090e+001 
3537500000  -4.267320e+001  2.629783e+001 
3540625000  -4.358236e+001  2.606453e+001 
3543750000  -4.450045e+001  2.913406e+001 
3546875000  -4.420213e+001  4.140206e+001 
3550000000  -4.163887e+001  4.313754e+001 
3553125000  -4.022085e+001  2.391469e+001 
3556250000  -4.140794e+001  1.681053e+001 
3559375000  -4.143256e+001  2.007167e+001 
3562500000  -4.033141e+001  1.164506e+001 
3565625000  -4.113273e+001  3.712683e+000 
3568750000  -4.165984e+001  7.363394e+000 
3571875000  -4.130211e+001  5.078770e+000 
3575000000  -4.082874e+001  -2.431405e+000 
3578125000  -4.111040e+001  -8.391733e+000 
3581250000  -4.153676e+001  -8.063154e+000 
3584375000  -4.044275e+001  -9.598867e+000 
3587500000  -4.008002e+001  -1.919775e+001 
3590625000  -4.058348e+001  -3.074862e+001 
3593750000  -4.173563e+001  -3.204609e+001 
3596875000  -4.183289e+001  -2.670137e+001 
3600000000  -4.043045e+001  -3.245441e+001 
3603125000  -4.086132e+001  -4.708426e+001 
3606250000  -4.152102e+001  -4.950613e+001 
3609375000  -4.201868e+001  -5.261060e+001 
3612500000  -4.263691e+001  -5.572829e+001 
3615625000  -4.288752e+001  -5.993484e+001 
3618750000  -4.360518e+001  -6.031945e+001 
3621875000  -4.347445e+001  -6.493993e+001 
3625000000  -4.444072e+001  -6.510603e+001 
3628125000  -4.431888e+001  -6.575162e+001 
3631250000  -4.421880e+001  -7.011687e+001 
3634375000  -4.560610e+001  -7.023837e+001 
3637500000  -4.541047e+001  -6.761331e+001 
3640625000  -4.450004e+001  -6.349261e+001 
3643750000  -4.446484e+001  -6.920144e+001 
3646875000  -4.536302e+001  -7.602598e+001 
3650000000  -4.557613e+001  -7.725854e+001 
3653125000  -4.557510e+001  -7.416985e+001 
3656250000  -4.580551e+001  -7.567533e+001 
3659375000  -4.599347e+001  -7.339236e+001 
3662500000  -4.491702e+001  -7.702396e+001 
3665625000  -4.499979e+001  -7.620804e+001 
3668750000  -4.418141e+001  -7.579295e+001 
3671875000  -4.289865e+001  -8.353514e+001 
3675000000  -4.324038e+001  -8.839646e+001 
3678125000  -4.360806e+001  -8.944283e+001 
3681250000  -4.297113e+001  -8.893390e+001 
3684375000  -4.326218e+001  -9.463577e+001 
3687500000  -4.336777e+001  -9.999718e+001 
3690625000  -4.305616e+001  -1.055889e+002 
3693750000  -4.395324e+001  -1.042376e+002 
3696875000  -4.371969e+001  -1.032436e+002 
3700000000  -4.323186e+001  -1.093739e+002 
3703125000  -4.291045e+001  -1.154474e+002 
3706250000  -4.355728e+001  -1.152482e+002 
3709375000  -4.384826e+001  -1.142166e+002 
3712500000  -4.247846e+001  -1.145636e+002 
3715625000  -4.180260e+001  -1.220435e+002 
3718750000  -4.145935e+001  -1.281379e+002 
3721875000  -4.163459e+001  -1.339303e+002 
3725000000  -4.146928e+001  -1.408221e+002 
3728125000  -4.220122e+001  -1.421230e+002 
3731250000  -4.154976e+001  -1.441320e+002 
3734375000  -4.147457e+001  -1.494826e+002 
3737500000  -4.199841e+001  -1.591995e+002 
3740625000  -4.306796e+001  -1.603623e+002 
3743750000  -4.282761e+001  -1.656288e+002 
3746875000  -4.348653e+001  -1.701888e+002 
3750000000  -4.376544e+001  -1.710650e+002 
3753125000  -4.418734e+001  -1.689026e+002 
3756250000  -4.408207e+001  -1.677621e+002 
3759375000  -4.428694e+001  -1.676606e+002 
3762500000  -4.412168e+001  -1.735042e+002 
3765625000  -4.486281e+001  -1.717131e+002 
3768750000  -4.428120e+001  -1.685484e+002 
3771875000  -4.312822e+001  -1.693271e+002 
3775000000  -4.311171e+001  -1.739422e+002 
3778125000  -4.371213e+001  -1.783875e+002 
3781250000  -4.336274e+001  -1.787189e+002 
3784375000  -4.279636e+001  -1.787299e+002 
3787500000  -4.169685e+001  1.780725e+002 
3790625000  -4.261934e+001  1.698582e+002 
3793750000  -4.225877e+001  1.699750e+002 
3796875000  -4.134172e+001  1.706171e+002 
3800000000  -3.988953e+001  1.655203e+002 
3803125000  -4.059077e+001  1.568061e+002 
3806250000  -4.091013e+001  1.535989e+002 
3809375000  -4.071024e+001  1.520106e+002 
3812500000  -3.984743e+001  1.462007e+002 
3815625000  -4.044200e+001  1.369679e+002 
3818750000  -4.162408e+001  1.356933e+002 
3821875000  -4.164675e+001  1.440578e+002 
3825000000  -3.938118e+001  1.463740e+002 
3828125000  -3.808489e+001  1.296784e+002 
3831250000  -3.881371e+001  1.152531e+002 
3834375000  -4.044777e+001  1.125235e+002 
3837500000  -4.113807e+001  1.149695e+002 
3840625000  -3.980460e+001  1.155765e+002 
3843750000  -3.889928e+001  1.025552e+002 
3846875000  -3.977413e+001  9.784418e+001 
3850000000  -4.108454e+001  1.029033e+002 
3853125000  -4.028358e+001  1.032848e+002 
3856250000  -4.035609e+001  9.931441e+001 
3859375000  -3.953153e+001  9.291814e+001 
3862500000  -3.939026e+001  8.303374e+001 
3865625000  -3.984959e+001  7.850154e+001 
3868750000  -3.951098e+001  7.690441e+001 
3871875000  -3.906311e+001  7.316898e+001 
3875000000  -3.955372e+001  6.465519e+001 
3878125000  -4.062317e+001  6.158958e+001 
3881250000  -4.053381e+001  6.467918e+001 
3884375000  -4.017130e+001  5.836031e+001 
3887500000  -4.021352e+001  5.671049e+001 
3890625000  -4.079500e+001  5.217608e+001 
3893750000  -4.098463e+001  4.947508e+001 
3896875000  -4.161881e+001  5.086658e+001 
3900000000  -4.152649e+001  4.978753e+001 
3903125000  -4.114293e+001  4.599679e+001 
3906250000  -4.077946e+001  4.566794e+001 
3909375000  -4.012181e+001  4.230621e+001 
3912500000  -4.039849e+001  3.240628e+001 
3915625000  -4.130606e+001  3.452410e+001 
3918750000  -4.107365e+001  3.792548e+001 
3921875000  -4.062208e+001  3.495971e+001 
3925000000  -3.983872e+001  3.170919e+001 
3928125000  -3.935354e+001  2.421274e+001 
3931250000  -3.957190e+001  2.012770e+001 
3934375000  -3.989286e+001  1.938824e+001 
3937500000  -3.988663e+001  1.754534e+001 
3940625000  -4.042513e+001  1.444559e+001 
3943750000  -3.929728e+001  1.512949e+001 
3946875000  -3.822122e+001  7.790553e+000 
3950000000  -3.899368e+001  -2.796276e-001 
3953125000  -4.005129e+001  -1.469882e+000 
3956250000  -3.896315e+001  1.256613e+000 
3959375000  -3.770134e+001  -1.435772e+000 
3962500000  -3.713720e+001  -7.863246e+000 
3965625000  -3.706188e+001  -1.751564e+001 
3968750000  -3.818318e+001  -2.353939e+001 
3971875000  -3.821979e+001  -2.745383e+001 
3975000000  -3.791717e+001  -3.051188e+001 
3978125000  -3.789516e+001  -3.449380e+001 
3981250000  -3.779272e+001  -3.968579e+001 
3984375000  -3.793147e+001  -4.470896e+001 
3987500000  -3.853945e+001  -4.720443e+001 
3990625000  -3.856589e+001  -4.935317e+001 
3993750000  -3.893769e+001  -5.467605e+001 
3996875000  -3.880562e+001  -5.638776e+001 
4000000000  -3.923384e+001  -5.871978e+001 
4003125000  -3.978396e+001  -5.653566e+001 
4006250000  -3.831122e+001  -5.851008e+001 
4009375000  -3.715537e+001  -7.197422e+001 
4012500000  -3.861995e+001  -7.775016e+001 
4015625000  -3.986823e+001  -7.798354e+001 
4018750000  -3.975397e+001  -7.441689e+001 
4021875000  -3.897927e+001  -7.849557e+001 
4025000000  -3.900967e+001  -8.340980e+001 
4028125000  -3.880597e+001  -8.786019e+001 
4031250000  -3.927797e+001  -9.249310e+001 
4034375000  -3.955805e+001  -9.272739e+001 
4037500000  -3.931839e+001  -9.135509e+001 
4040625000  -3.919152e+001  -9.610925e+001 
4043750000  -3.920882e+001  -9.638945e+001 
4046875000  -3.912401e+001  -9.567953e+001 
4050000000  -3.850106e+001  -1.040729e+002 
4053125000  -3.893591e+001  -1.051797e+002 
4056250000  -3.956259e+001  -1.005978e+002 
4059375000  -3.807452e+001  -1.015755e+002 
4062500000  -3.658377e+001  -1.063609e+002 
4065625000  -3.663508e+001  -1.104204e+002 
4068750000  -3.625608e+001  -1.172496e+002 
4071875000  -3.575507e+001  -1.268384e+002 
4075000000  -3.611917e+001  -1.346139e+002 
4078125000  -3.662756e+001  -1.358151e+002 
4081250000  -3.603763e+001  -1.381923e+002 
4084375000  -3.576027e+001  -1.460155e+002 
4087500000  -3.619444e+001  -1.542882e+002 
4090625000  -3.675188e+001  -1.553929e+002 
4093750000  -3.670340e+001  -1.569220e+002 
4096875000  -3.622109e+001  -1.639736e+002 
4100000000  -3.697094e+001  -1.708252e+002 
4103125000  -3.773432e+001  -1.718614e+002 
4106250000  -3.764952e+001  -1.659759e+002 
4109375000  -3.652645e+001  -1.678549e+002 
4112500000  -3.626736e+001  -1.760160e+002 
4115625000  -3.644895e+001  1.785895e+002 
4118750000  -3.679634e+001  1.744120e+002 
4121875000  -3.653419e+001  1.686852e+002 
4125000000  -3.676838e+001  1.617575e+002 
4128125000  -3.772775e+001  1.634770e+002 
4131250000  -3.779109e+001  1.708958e+002 
4134375000  -3.532114e+001  1.633951e+002 
4137500000  -3.521952e+001  1.450238e+002 
4140625000  -3.729531e+001  1.356345e+002 
4143750000  -3.873515e+001  1.415739e+002 
4146875000  -3.828277e+001  1.476419e+002 
4150000000  -3.739622e+001  1.433461e+002 
4153125000  -3.736952e+001  1.343682e+002 
4156250000  -3.831206e+001  1.341588e+002 
4159375000  -3.855424e+001  1.385103e+002 
4162500000  -3.762238e+001  1.413811e+002 
4165625000  -3.646177e+001  1.373365e+002 
4168750000  -3.601257e+001  1.293826e+002 
4171875000  -3.623124e+001  1.188365e+002 
4175000000  -3.652638e+001  1.133388e+002 
4178125000  -3.717998e+001  1.139623e+002 
4181250000  -3.694623e+001  1.114793e+002 
4184375000  -3.682571e+001  1.085805e+002 
4187500000  -3.679641e+001  1.057448e+002 
4190625000  -3.686611e+001  9.994971e+001 
4193750000  -3.745794e+001  9.601796e+001 
4196875000  -3.814285e+001  9.534766e+001 
4200000000  -3.916098e+001  9.658715e+001 
4203125000  -3.884598e+001  1.097015e+002 
4206250000  -3.540485e+001  1.106153e+002 
4209375000  -3.439661e+001  8.760221e+001 
4212500000  -3.631448e+001  7.862815e+001 
4215625000  -3.719765e+001  8.647382e+001 
4218750000  -3.566739e+001  8.925297e+001 
4221875000  -3.339362e+001  8.123768e+001 
4225000000  -3.486291e+001  6.689257e+001 
4228125000  -3.545393e+001  7.208319e+001 
4231250000  -3.365081e+001  6.614035e+001 
4234375000  -3.348271e+001  5.625449e+001 
4237500000  -3.308727e+001  5.202420e+001 
4240625000  -3.295297e+001  4.199581e+001 
4243750000  -3.423244e+001  3.438094e+001 
4246875000  -3.515990e+001  3.272921e+001 
4250000000  -3.510041e+001  3.577867e+001 
4253125000  -3.467650e+001  3.206147e+001 
4256250000  -3.499852e+001  2.642376e+001 
4259375000  -3.458872e+001  2.284955e+001 
4262500000  -3.479379e+001  1.809881e+001 
4265625000  -3.496763e+001  1.860278e+001 
4268750000  -3.407949e+001  1.270507e+001 
4271875000  -3.376159e+001  5.527360e+000 
4275000000  -3.350481e+001  -2.813161e+000 
4278125000  -3.432502e+001  -1.482941e+001 
4281250000  -3.612743e+001  -1.711553e+001 
4284375000  -3.606482e+001  -1.629935e+001 
4287500000  -3.696286e+001  -2.111073e+001 
4290625000  -3.836285e+001  -1.155384e+001 
4293750000  -3.639647e+001  -7.803821e+000 
4296875000  -3.517170e+001  -1.897864e+001 
4300000000  -3.589180e+001  -2.796105e+001 
4303125000  -3.711956e+001  -2.581199e+001 
4306250000  -3.650479e+001  -2.140329e+001 
4309375000  -3.526646e+001  -2.139117e+001 
4312500000  -3.527074e+001  -2.998840e+001 
4315625000  -3.511351e+001  -3.620375e+001 
4318750000  -3.561647e+001  -3.935478e+001 
4321875000  -3.580497e+001  -3.929111e+001 
4325000000  -3.494229e+001  -3.827083e+001 
4328125000  -3.449834e+001  -4.551469e+001 
4331250000  -3.414497e+001  -5.453331e+001 
4334375000  -3.472739e+001  -5.906034e+001 
4337500000  -3.543253e+001  -6.176064e+001 
4340625000  -3.620863e+001  -5.886817e+001 
4343750000  -3.510255e+001  -5.991881e+001 
4346875000  -3.466520e+001  -6.599564e+001 
4350000000  -3.455867e+001  -7.216676e+001 
4353125000  -3.467305e+001  -8.141311e+001 
4356250000  -3.639512e+001  -8.101878e+001 
4359375000  -3.668113e+001  -6.803369e+001 
4362500000  -3.369377e+001  -6.655078e+001 
4365625000  -3.220971e+001  -8.271119e+001 
4368750000  -3.301908e+001  -9.511514e+001 
4371875000  -3.422372e+001  -9.503719e+001 
4375000000  -3.348759e+001  -9.555521e+001 
4378125000  -3.288490e+001  -1.031140e+002 
4381250000  -3.324344e+001  -1.094784e+002 
4384375000  -3.293280e+001  -1.162374e+002 
4387500000  -3.380720e+001  -1.227128e+002 
4390625000  -3.453399e+001  -1.230844e+002 
4393750000  -3.412497e+001  -1.220666e+002 
4396875000  -3.347138e+001  -1.256000e+002 
4400000000  -3.290774e+001  -1.351757e+002 
4403125000  -3.382240e+001  -1.441064e+002 
4406250000  -3.450504e+001  -1.462485e+002 
4409375000  -3.471899e+001  -1.484889e+002 
4412500000  -3.582704e+001  -1.523239e+002 
4415625000  -3.616856e+001  -1.476001e+002 
