!Agilent Technologies,E8363B,MY43030201,A.06.04.32
!Agilent E8363B: A.06.04.32
!Date: Tuesday, November 11, 2014 21:09:45
!Correction: S21(Response(S21)) 
!S1P File: Measurement: S21:
# Hz S  dB   R 50
3000000000  -3.635232e+001  -5.626820e+001 
3003125000  -3.755348e+001  -6.236882e+001 
3006250000  -3.746761e+001  -6.483762e+001 
3009375000  -3.779829e+001  -6.002130e+001 
3012500000  -3.704805e+001  -6.222014e+001 
3015625000  -3.617503e+001  -6.925069e+001 
3018750000  -3.699945e+001  -7.048109e+001 
3021875000  -3.550882e+001  -6.907687e+001 
3025000000  -3.414062e+001  -7.341129e+001 
3028125000  -3.318277e+001  -8.000343e+001 
3031250000  -3.215384e+001  -9.135608e+001 
3034375000  -3.195186e+001  -1.045620e+002 
3037500000  -3.234906e+001  -1.163715e+002 
3040625000  -3.363818e+001  -1.215922e+002 
3043750000  -3.426286e+001  -1.261414e+002 
3046875000  -3.458062e+001  -1.320806e+002 
3050000000  -3.628301e+001  -1.377445e+002 
3053125000  -3.611376e+001  -1.320076e+002 
3056250000  -3.571653e+001  -1.290934e+002 
3059375000  -3.559983e+001  -1.292072e+002 
3062500000  -3.420577e+001  -1.328627e+002 
3065625000  -3.391567e+001  -1.386643e+002 
3068750000  -3.371994e+001  -1.461107e+002 
3071875000  -3.357064e+001  -1.480238e+002 
3075000000  -3.335935e+001  -1.519042e+002 
3078125000  -3.309687e+001  -1.566694e+002 
3081250000  -3.363295e+001  -1.606927e+002 
3084375000  -3.265672e+001  -1.643524e+002 
3087500000  -3.255915e+001  -1.678770e+002 
3090625000  -3.197704e+001  -1.783894e+002 
3093750000  -3.250381e+001  1.744337e+002 
3096875000  -3.347822e+001  1.685420e+002 
3100000000  -3.339301e+001  1.662337e+002 
3103125000  -3.356538e+001  1.665508e+002 
3106250000  -3.318797e+001  1.633362e+002 
3109375000  -3.318283e+001  1.587350e+002 
3112500000  -3.313032e+001  1.565550e+002 
3115625000  -3.284734e+001  1.514436e+002 
3118750000  -3.315844e+001  1.513327e+002 
3121875000  -3.225607e+001  1.421273e+002 
3125000000  -3.358348e+001  1.381449e+002 
3128125000  -3.441108e+001  1.450724e+002 
3131250000  -3.201288e+001  1.433121e+002 
3134375000  -3.074016e+001  1.283268e+002 
3137500000  -3.131782e+001  1.142242e+002 
3140625000  -3.274584e+001  1.110640e+002 
3143750000  -3.386635e+001  1.122768e+002 
3146875000  -3.334372e+001  1.137653e+002 
3150000000  -3.225760e+001  1.135832e+002 
3153125000  -3.239250e+001  1.041404e+002 
3156250000  -3.337239e+001  1.092054e+002 
3159375000  -3.159989e+001  1.107170e+002 
3162500000  -2.973097e+001  9.555483e+001 
3165625000  -3.077955e+001  8.366732e+001 
3168750000  -3.099869e+001  8.402446e+001 
3171875000  -3.014886e+001  7.808288e+001 
3175000000  -3.096781e+001  6.936772e+001 
3178125000  -3.068108e+001  7.014880e+001 
3181250000  -2.964380e+001  6.441109e+001 
3184375000  -2.894035e+001  5.158649e+001 
3187500000  -3.018959e+001  3.692162e+001 
3190625000  -3.286189e+001  2.928601e+001 
3193750000  -3.350506e+001  3.770631e+001 
3196875000  -3.310368e+001  4.258446e+001 
3200000000  -3.214474e+001  3.954270e+001 
3203125000  -3.136424e+001  3.287515e+001 
3206250000  -3.174058e+001  2.663039e+001 
3209375000  -3.117223e+001  2.022003e+001 
3212500000  -3.151300e+001  1.360677e+001 
3215625000  -3.159353e+001  9.693184e+000 
3218750000  -3.227045e+001  2.968842e+000 
3221875000  -3.312214e+001  -2.586334e+000 
3225000000  -3.265910e+001  -3.466979e+000 
3228125000  -3.318018e+001  -9.162192e+000 
3231250000  -3.372388e+001  -1.170544e+001 
3234375000  -3.347771e+001  -1.115339e+001 
3237500000  -3.343193e+001  -1.333097e+001 
3240625000  -3.302312e+001  -1.609903e+001 
3243750000  -3.265595e+001  -2.287338e+001 
3246875000  -3.302489e+001  -3.092700e+001 
3250000000  -3.347184e+001  -3.306289e+001 
3253125000  -3.360214e+001  -3.459930e+001 
3256250000  -3.315007e+001  -4.135405e+001 
3259375000  -3.345461e+001  -5.057121e+001 
3262500000  -3.468557e+001  -5.395912e+001 
3265625000  -3.517147e+001  -5.132704e+001 
3268750000  -3.505943e+001  -4.994457e+001 
3271875000  -3.467985e+001  -4.990371e+001 
3275000000  -3.364472e+001  -5.659874e+001 
3278125000  -3.429570e+001  -6.298378e+001 
3281250000  -3.431552e+001  -6.265382e+001 
3284375000  -3.386427e+001  -6.883891e+001 
3287500000  -3.407172e+001  -7.296066e+001 
3290625000  -3.425655e+001  -7.878941e+001 
3293750000  -3.400036e+001  -8.481155e+001 
3296875000  -3.509352e+001  -8.612981e+001 
3300000000  -3.482422e+001  -8.400613e+001 
3303125000  -3.369421e+001  -9.084612e+001 
3306250000  -3.352253e+001  -9.703551e+001 
3309375000  -3.316879e+001  -1.043639e+002 
3312500000  -3.328706e+001  -1.147476e+002 
3315625000  -3.436662e+001  -1.225356e+002 
3318750000  -3.586942e+001  -1.258593e+002 
3321875000  -3.697899e+001  -1.255657e+002 
3325000000  -3.744896e+001  -1.200122e+002 
3328125000  -3.685556e+001  -1.197287e+002 
3331250000  -3.560167e+001  -1.129476e+002 
3334375000  -3.300718e+001  -1.242051e+002 
3337500000  -3.317469e+001  -1.443649e+002 
3340625000  -3.457368e+001  -1.549005e+002 
3343750000  -3.654970e+001  -1.553333e+002 
3346875000  -3.676557e+001  -1.539635e+002 
3350000000  -3.604059e+001  -1.561715e+002 
3353125000  -3.607426e+001  -1.607712e+002 
3356250000  -3.565345e+001  -1.681064e+002 
3359375000  -3.651237e+001  -1.769664e+002 
3362500000  -3.758174e+001  1.777675e+002 
3365625000  -3.795243e+001  1.767864e+002 
3368750000  -3.889547e+001  1.742875e+002 
3371875000  -3.927990e+001  1.717348e+002 
3375000000  -4.053542e+001  1.678866e+002 
3378125000  -4.144802e+001  1.689123e+002 
3381250000  -4.265441e+001  1.785374e+002 
3384375000  -4.095635e+001  -1.615300e+002 
3387500000  -3.759567e+001  -1.783006e+002 
3390625000  -3.921331e+001  1.654088e+002 
3393750000  -4.040215e+001  1.665490e+002 
3396875000  -3.945571e+001  1.690309e+002 
3400000000  -3.862173e+001  1.603217e+002 
3403125000  -3.941211e+001  1.544551e+002 
3406250000  -3.977813e+001  1.543621e+002 
3409375000  -3.978168e+001  1.477240e+002 
3412500000  -4.033204e+001  1.456076e+002 
3415625000  -4.090451e+001  1.449279e+002 
3418750000  -4.120610e+001  1.458401e+002 
3421875000  -4.119400e+001  1.486193e+002 
3425000000  -4.020108e+001  1.484714e+002 
3428125000  -3.938577e+001  1.438558e+002 
3431250000  -3.923542e+001  1.376566e+002 
3434375000  -3.906792e+001  1.317373e+002 
3437500000  -3.975677e+001  1.289762e+002 
3440625000  -3.982620e+001  1.300025e+002 
3443750000  -3.871051e+001  1.300541e+002 
3446875000  -3.791076e+001  1.222922e+002 
3450000000  -3.764491e+001  1.114239e+002 
3453125000  -3.805716e+001  1.027144e+002 
3456250000  -3.915522e+001  9.551576e+001 
3459375000  -4.017303e+001  9.658986e+001 
3462500000  -3.991942e+001  9.648640e+001 
3465625000  -3.984564e+001  9.131400e+001 
3468750000  -4.027634e+001  8.777299e+001 
3471875000  -4.020137e+001  8.499266e+001 
3475000000  -3.992936e+001  8.008456e+001 
3478125000  -4.062230e+001  7.215992e+001 
3481250000  -4.145699e+001  7.227509e+001 
3484375000  -4.254313e+001  7.530124e+001 
3487500000  -4.143831e+001  7.565101e+001 
3490625000  -4.115667e+001  7.007174e+001 
3493750000  -4.167442e+001  6.404568e+001 
3496875000  -4.227013e+001  6.308541e+001 
3500000000  -4.275847e+001  6.608104e+001 
3503125000  -4.223771e+001  6.815606e+001 
3506250000  -4.069283e+001  6.357293e+001 
3509375000  -4.091443e+001  5.548917e+001 
3512500000  -4.121369e+001  4.539385e+001 
3515625000  -4.194497e+001  4.352844e+001 
3518750000  -4.251775e+001  4.470810e+001 
3521875000  -4.256635e+001  3.978915e+001 
3525000000  -4.340604e+001  3.993236e+001 
3528125000  -4.313206e+001  4.940184e+001 
3531250000  -4.155304e+001  4.384183e+001 
3534375000  -4.181085e+001  3.605492e+001 
3537500000  -4.210145e+001  2.880265e+001 
3540625000  -4.317997e+001  2.736769e+001 
3543750000  -4.380426e+001  2.959444e+001 
3546875000  -4.366228e+001  4.371826e+001 
3550000000  -4.090975e+001  4.345159e+001 
3553125000  -3.976078e+001  2.490462e+001 
3556250000  -4.116502e+001  1.705413e+001 
3559375000  -4.083544e+001  1.714425e+001 
3562500000  -3.977226e+001  9.459042e+000 
3565625000  -4.052806e+001  -8.017871e-002 
3568750000  -4.102147e+001  3.843818e+000 
3571875000  -4.060143e+001  1.576714e+000 
3575000000  -4.033676e+001  -6.352282e+000 
3578125000  -4.083708e+001  -1.147913e+001 
3581250000  -4.113515e+001  -1.121583e+001 
3584375000  -4.029885e+001  -1.446979e+001 
3587500000  -4.000399e+001  -2.479606e+001 
3590625000  -4.024540e+001  -3.542448e+001 
3593750000  -4.179074e+001  -3.616202e+001 
3596875000  -4.169995e+001  -2.980253e+001 
3600000000  -4.042710e+001  -3.646699e+001 
3603125000  -4.064385e+001  -4.985154e+001 
3606250000  -4.166937e+001  -5.542961e+001 
3609375000  -4.242492e+001  -5.786692e+001 
3612500000  -4.299564e+001  -5.898323e+001 
3615625000  -4.310817e+001  -6.158917e+001 
3618750000  -4.433429e+001  -6.175799e+001 
3621875000  -4.435090e+001  -6.455476e+001 
3625000000  -4.451567e+001  -6.350381e+001 
3628125000  -4.502353e+001  -6.449121e+001 
3631250000  -4.449197e+001  -6.838321e+001 
3634375000  -4.602340e+001  -6.923826e+001 
3637500000  -4.585008e+001  -6.481448e+001 
3640625000  -4.478692e+001  -6.333121e+001 
3643750000  -4.463824e+001  -6.530664e+001 
3646875000  -4.469176e+001  -7.137345e+001 
3650000000  -4.534113e+001  -7.101572e+001 
3653125000  -4.465493e+001  -7.156390e+001 
3656250000  -4.543716e+001  -7.276811e+001 
3659375000  -4.496294e+001  -7.086001e+001 
3662500000  -4.430953e+001  -7.546193e+001 
3665625000  -4.384668e+001  -7.266537e+001 
3668750000  -4.310349e+001  -7.562490e+001 
3671875000  -4.187450e+001  -8.251110e+001 
3675000000  -4.229845e+001  -9.150037e+001 
3678125000  -4.255348e+001  -9.077979e+001 
3681250000  -4.241529e+001  -9.391230e+001 
3684375000  -4.213928e+001  -9.917682e+001 
3687500000  -4.243243e+001  -1.041453e+002 
3690625000  -4.221426e+001  -1.070950e+002 
3693750000  -4.314387e+001  -1.104516e+002 
3696875000  -4.315308e+001  -1.097705e+002 
3700000000  -4.221179e+001  -1.151372e+002 
3703125000  -4.245417e+001  -1.208102e+002 
3706250000  -4.325081e+001  -1.213250e+002 
3709375000  -4.289628e+001  -1.191549e+002 
3712500000  -4.209078e+001  -1.231325e+002 
3715625000  -4.124458e+001  -1.290404e+002 
3718750000  -4.086209e+001  -1.367221e+002 
3721875000  -4.076733e+001  -1.427778e+002 
3725000000  -4.155902e+001  -1.483839e+002 
3728125000  -4.221478e+001  -1.485223e+002 
3731250000  -4.185714e+001  -1.520838e+002 
3734375000  -4.125280e+001  -1.554659e+002 
3737500000  -4.279197e+001  -1.680033e+002 
3740625000  -4.383294e+001  -1.683677e+002 
3743750000  -4.359536e+001  -1.711529e+002 
3746875000  -4.417830e+001  -1.738712e+002 
3750000000  -4.474928e+001  -1.709052e+002 
3753125000  -4.465226e+001  -1.702036e+002 
3756250000  -4.485048e+001  -1.688628e+002 
3759375000  -4.521564e+001  -1.712672e+002 
3762500000  -4.433706e+001  -1.701778e+002 
3765625000  -4.544024e+001  -1.736893e+002 
3768750000  -4.492815e+001  -1.668592e+002 
3771875000  -4.367171e+001  -1.687880e+002 
3775000000  -4.304069e+001  -1.766503e+002 
3778125000  -4.317162e+001  -1.776518e+002 
3781250000  -4.293212e+001  -1.783303e+002 
3784375000  -4.275015e+001  -1.774846e+002 
3787500000  -4.167455e+001  -1.789475e+002 
3790625000  -4.203011e+001  1.707637e+002 
3793750000  -4.204765e+001  1.714154e+002 
3796875000  -4.078964e+001  1.675192e+002 
3800000000  -3.944181e+001  1.645075e+002 
3803125000  -3.992693e+001  1.538551e+002 
3806250000  -4.063339e+001  1.514635e+002 
3809375000  -4.017683e+001  1.489721e+002 
3812500000  -3.966483e+001  1.427797e+002 
3815625000  -4.039521e+001  1.315925e+002 
3818750000  -4.118831e+001  1.332491e+002 
3821875000  -4.110043e+001  1.414769e+002 
3825000000  -3.902972e+001  1.415493e+002 
3828125000  -3.769313e+001  1.244860e+002 
3831250000  -3.847820e+001  1.107849e+002 
3834375000  -3.997029e+001  1.098472e+002 
3837500000  -4.106380e+001  1.134783e+002 
3840625000  -3.958536e+001  1.108242e+002 
3843750000  -3.898460e+001  9.879958e+001 
3846875000  -3.976321e+001  9.180924e+001 
3850000000  -4.096659e+001  9.613817e+001 
3853125000  -4.020745e+001  9.896717e+001 
3856250000  -4.042937e+001  9.142116e+001 
3859375000  -3.977082e+001  8.685688e+001 
3862500000  -3.950549e+001  8.051998e+001 
3865625000  -4.003091e+001  7.428897e+001 
3868750000  -3.979502e+001  7.364212e+001 
3871875000  -3.932938e+001  6.939176e+001 
3875000000  -3.971542e+001  6.034294e+001 
3878125000  -4.091827e+001  5.834681e+001 
3881250000  -4.090650e+001  6.096929e+001 
3884375000  -4.047442e+001  5.778560e+001 
3887500000  -4.076482e+001  5.250909e+001 
3890625000  -4.152341e+001  5.104881e+001 
3893750000  -4.134618e+001  5.007686e+001 
3896875000  -4.176916e+001  5.129187e+001 
3900000000  -4.188663e+001  4.857153e+001 
3903125000  -4.119858e+001  4.563459e+001 
3906250000  -4.094468e+001  4.580945e+001 
3909375000  -4.027591e+001  4.135097e+001 
3912500000  -4.035430e+001  3.412465e+001 
3915625000  -4.140213e+001  3.582732e+001 
3918750000  -4.157977e+001  3.602034e+001 
3921875000  -4.060149e+001  3.438588e+001 
3925000000  -3.985576e+001  3.062720e+001 
3928125000  -3.906686e+001  2.270699e+001 
3931250000  -3.945930e+001  1.910929e+001 
3934375000  -3.973962e+001  1.653064e+001 
3937500000  -3.984192e+001  1.545937e+001 
3940625000  -4.035384e+001  1.215119e+001 
3943750000  -3.894410e+001  1.344701e+001 
3946875000  -3.813773e+001  8.156871e+000 
3950000000  -3.898089e+001  -2.197774e+000 
3953125000  -3.978822e+001  -2.669374e+000 
3956250000  -3.881386e+001  -2.410660e-001 
3959375000  -3.736284e+001  -6.133191e+000 
3962500000  -3.704036e+001  -1.116008e+001 
3965625000  -3.690347e+001  -2.030445e+001 
3968750000  -3.809037e+001  -2.788405e+001 
3971875000  -3.801130e+001  -3.209321e+001 
3975000000  -3.755940e+001  -3.498974e+001 
3978125000  -3.763291e+001  -3.764964e+001 
3981250000  -3.753623e+001  -4.197040e+001 
3984375000  -3.778710e+001  -4.855605e+001 
3987500000  -3.854803e+001  -5.111318e+001 
3990625000  -3.849534e+001  -5.385286e+001 
3993750000  -3.894870e+001  -5.727882e+001 
3996875000  -3.904586e+001  -6.291179e+001 
4000000000  -3.934292e+001  -6.428107e+001 
4003125000  -4.004153e+001  -6.116381e+001 
4006250000  -3.868296e+001  -6.504636e+001 
4009375000  -3.750776e+001  -7.628621e+001 
4012500000  -3.888429e+001  -8.186206e+001 
4015625000  -4.014833e+001  -8.207182e+001 
4018750000  -4.045918e+001  -8.022601e+001 
4021875000  -3.983400e+001  -8.235748e+001 
4025000000  -3.952531e+001  -8.678759e+001 
4028125000  -3.965702e+001  -8.812312e+001 
4031250000  -3.996343e+001  -9.366306e+001 
4034375000  -4.014011e+001  -9.235071e+001 
4037500000  -3.975578e+001  -9.189552e+001 
4040625000  -3.953421e+001  -9.499372e+001 
4043750000  -3.984755e+001  -9.610303e+001 
4046875000  -3.916226e+001  -9.644157e+001 
4050000000  -3.858034e+001  -1.035846e+002 
4053125000  -3.926040e+001  -1.049491e+002 
4056250000  -3.962561e+001  -1.008643e+002 
4059375000  -3.805346e+001  -9.913995e+001 
4062500000  -3.666220e+001  -1.067650e+002 
4065625000  -3.666612e+001  -1.110970e+002 
4068750000  -3.613787e+001  -1.169164e+002 
4071875000  -3.528653e+001  -1.262883e+002 
4075000000  -3.596796e+001  -1.335078e+002 
4078125000  -3.644249e+001  -1.360584e+002 
4081250000  -3.588285e+001  -1.394382e+002 
4084375000  -3.525417e+001  -1.470313e+002 
4087500000  -3.576222e+001  -1.546926e+002 
4090625000  -3.648988e+001  -1.561988e+002 
4093750000  -3.628590e+001  -1.575653e+002 
4096875000  -3.585906e+001  -1.651977e+002 
4100000000  -3.664066e+001  -1.728340e+002 
4103125000  -3.761053e+001  -1.732233e+002 
4106250000  -3.738799e+001  -1.680941e+002 
4109375000  -3.649855e+001  -1.706623e+002 
4112500000  -3.585583e+001  -1.786804e+002 
4115625000  -3.626260e+001  1.759457e+002 
4118750000  -3.656709e+001  1.718970e+002 
4121875000  -3.624893e+001  1.658242e+002 
4125000000  -3.664017e+001  1.592080e+002 
4128125000  -3.780669e+001  1.589138e+002 
4131250000  -3.753444e+001  1.666770e+002 
4134375000  -3.518609e+001  1.590967e+002 
4137500000  -3.508075e+001  1.399562e+002 
4140625000  -3.760923e+001  1.330137e+002 
4143750000  -3.882015e+001  1.380848e+002 
4146875000  -3.875698e+001  1.450115e+002 
4150000000  -3.790347e+001  1.407237e+002 
4153125000  -3.762125e+001  1.329479e+002 
4156250000  -3.885406e+001  1.307232e+002 
4159375000  -3.872901e+001  1.357601e+002 
4162500000  -3.813412e+001  1.395159e+002 
4165625000  -3.694447e+001  1.364311e+002 
4168750000  -3.626856e+001  1.288367e+002 
4171875000  -3.613246e+001  1.182818e+002 
4175000000  -3.686729e+001  1.126980e+002 
4178125000  -3.731890e+001  1.141910e+002 
4181250000  -3.710546e+001  1.127786e+002 
4184375000  -3.704175e+001  1.105194e+002 
4187500000  -3.705710e+001  1.062898e+002 
4190625000  -3.675220e+001  1.000203e+002 
4193750000  -3.743290e+001  9.514182e+001 
4196875000  -3.813175e+001  9.597212e+001 
4200000000  -3.907661e+001  9.741637e+001 
4203125000  -3.858136e+001  1.101561e+002 
4206250000  -3.519104e+001  1.097036e+002 
4209375000  -3.421878e+001  8.825269e+001 
4212500000  -3.610075e+001  7.938807e+001 
4215625000  -3.690253e+001  8.592730e+001 
4218750000  -3.524068e+001  8.984524e+001 
4221875000  -3.298554e+001  8.101608e+001 
4225000000  -3.443225e+001  6.711427e+001 
4228125000  -3.490410e+001  6.897173e+001 
4231250000  -3.300893e+001  6.643749e+001 
4234375000  -3.289766e+001  5.527645e+001 
4237500000  -3.256952e+001  5.162349e+001 
4240625000  -3.273944e+001  4.041940e+001 
4243750000  -3.367691e+001  3.229517e+001 
4246875000  -3.465843e+001  3.207901e+001 
4250000000  -3.466594e+001  3.331947e+001 
4253125000  -3.424327e+001  2.944131e+001 
4256250000  -3.450396e+001  2.523714e+001 
4259375000  -3.417810e+001  2.088320e+001 
4262500000  -3.456312e+001  1.595550e+001 
4265625000  -3.445430e+001  1.558898e+001 
4268750000  -3.374972e+001  1.015759e+001 
4271875000  -3.361752e+001  1.393619e+000 
4275000000  -3.328087e+001  -5.796092e+000 
4278125000  -3.415304e+001  -1.770484e+001 
4281250000  -3.597345e+001  -1.985069e+001 
4284375000  -3.570179e+001  -1.938617e+001 
4287500000  -3.697875e+001  -2.502748e+001 
4290625000  -3.824107e+001  -1.442813e+001 
4293750000  -3.615396e+001  -8.589833e+000 
4296875000  -3.491010e+001  -2.068953e+001 
4300000000  -3.615060e+001  -2.916994e+001 
4303125000  -3.747971e+001  -2.794017e+001 
4306250000  -3.656354e+001  -2.089507e+001 
4309375000  -3.526477e+001  -2.425651e+001 
4312500000  -3.511795e+001  -3.105790e+001 
4315625000  -3.520697e+001  -3.787225e+001 
4318750000  -3.572373e+001  -4.080313e+001 
4321875000  -3.579780e+001  -3.883269e+001 
4325000000  -3.500224e+001  -3.940242e+001 
4328125000  -3.434842e+001  -4.599383e+001 
4331250000  -3.404821e+001  -5.365384e+001 
4334375000  -3.457878e+001  -5.961132e+001 
4337500000  -3.554528e+001  -6.132097e+001 
4340625000  -3.582226e+001  -5.742470e+001 
4343750000  -3.489000e+001  -5.954354e+001 
4346875000  -3.431472e+001  -6.505936e+001 
4350000000  -3.435645e+001  -7.114839e+001 
4353125000  -3.428539e+001  -7.953628e+001 
4356250000  -3.614560e+001  -8.041332e+001 
4359375000  -3.604813e+001  -6.763732e+001 
4362500000  -3.318743e+001  -6.897045e+001 
4365625000  -3.163109e+001  -8.224133e+001 
4368750000  -3.244413e+001  -9.521510e+001 
4371875000  -3.346708e+001  -9.545918e+001 
4375000000  -3.312064e+001  -9.656232e+001 
4378125000  -3.239921e+001  -1.033299e+002 
4381250000  -3.255669e+001  -1.115113e+002 
4384375000  -3.221754e+001  -1.180698e+002 
4387500000  -3.320565e+001  -1.251858e+002 
4390625000  -3.412042e+001  -1.258099e+002 
4393750000  -3.338498e+001  -1.244799e+002 
4396875000  -3.289719e+001  -1.291419e+002 
4400000000  -3.235545e+001  -1.375358e+002 
4403125000  -3.307032e+001  -1.469829e+002 
4406250000  -3.389177e+001  -1.488985e+002 
4409375000  -3.403831e+001  -1.525078e+002 
4412500000  -3.520460e+001  -1.573043e+002 
4415625000  -3.557147e+001  -1.520147e+002 
