!Agilent Technologies,E8363B,MY43030201,A.06.04.32
!Agilent E8363B: A.06.04.32
!Date: Tuesday, November 11, 2014 21:03:28
!Correction: S21(Response(S21)) 
!S1P File: Measurement: S21:
# Hz S  dB   R 50
3000000000  -3.621387e+001  -4.974616e+001 
3003125000  -3.741790e+001  -5.541154e+001 
3006250000  -3.730854e+001  -5.833484e+001 
3009375000  -3.764382e+001  -5.320713e+001 
3012500000  -3.689029e+001  -5.529346e+001 
3015625000  -3.592669e+001  -6.325866e+001 
3018750000  -3.672687e+001  -6.368449e+001 
3021875000  -3.537067e+001  -6.253688e+001 
3025000000  -3.410093e+001  -6.604121e+001 
3028125000  -3.301516e+001  -7.199638e+001 
3031250000  -3.220393e+001  -8.342528e+001 
3034375000  -3.176198e+001  -9.716228e+001 
3037500000  -3.222751e+001  -1.086817e+002 
3040625000  -3.354921e+001  -1.133871e+002 
3043750000  -3.426217e+001  -1.186118e+002 
3046875000  -3.443051e+001  -1.247287e+002 
3050000000  -3.614688e+001  -1.308456e+002 
3053125000  -3.618526e+001  -1.251356e+002 
3056250000  -3.565781e+001  -1.219172e+002 
3059375000  -3.563629e+001  -1.217228e+002 
3062500000  -3.419509e+001  -1.253956e+002 
3065625000  -3.388804e+001  -1.308021e+002 
3068750000  -3.360419e+001  -1.375799e+002 
3071875000  -3.346411e+001  -1.408000e+002 
3075000000  -3.334287e+001  -1.442026e+002 
3078125000  -3.307519e+001  -1.484272e+002 
3081250000  -3.360603e+001  -1.523678e+002 
3084375000  -3.263306e+001  -1.558023e+002 
3087500000  -3.243452e+001  -1.600726e+002 
3090625000  -3.198919e+001  -1.697693e+002 
3093750000  -3.236164e+001  -1.775180e+002 
3096875000  -3.342434e+001  1.768088e+002 
3100000000  -3.334626e+001  1.743531e+002 
3103125000  -3.358123e+001  1.750573e+002 
3106250000  -3.313374e+001  1.713010e+002 
3109375000  -3.315195e+001  1.667362e+002 
3112500000  -3.305038e+001  1.644261e+002 
3115625000  -3.278482e+001  1.599197e+002 
3118750000  -3.310509e+001  1.597274e+002 
3121875000  -3.230751e+001  1.504066e+002 
3125000000  -3.338621e+001  1.457937e+002 
3128125000  -3.438216e+001  1.531207e+002 
3131250000  -3.205293e+001  1.513679e+002 
3134375000  -3.067065e+001  1.362560e+002 
3137500000  -3.123118e+001  1.212836e+002 
3140625000  -3.284243e+001  1.186705e+002 
3143750000  -3.381650e+001  1.203064e+002 
3146875000  -3.328260e+001  1.208472e+002 
3150000000  -3.235382e+001  1.209843e+002 
3153125000  -3.230692e+001  1.118941e+002 
3156250000  -3.336217e+001  1.164787e+002 
3159375000  -3.166078e+001  1.184720e+002 
3162500000  -2.974721e+001  1.041522e+002 
3165625000  -3.067964e+001  9.162025e+001 
3168750000  -3.121139e+001  9.191224e+001 
3171875000  -3.021002e+001  8.600207e+001 
3175000000  -3.103546e+001  7.712008e+001 
3178125000  -3.077133e+001  7.788995e+001 
3181250000  -2.971132e+001  7.283606e+001 
3184375000  -2.896404e+001  6.021012e+001 
3187500000  -3.013173e+001  4.473792e+001 
3190625000  -3.299924e+001  3.608831e+001 
3193750000  -3.353337e+001  4.513142e+001 
3196875000  -3.317661e+001  5.059706e+001 
3200000000  -3.225903e+001  4.749700e+001 
3203125000  -3.144433e+001  4.127396e+001 
3206250000  -3.181134e+001  3.450865e+001 
3209375000  -3.134482e+001  2.881591e+001 
3212500000  -3.151437e+001  2.219273e+001 
3215625000  -3.159599e+001  1.820776e+001 
3218750000  -3.238143e+001  1.044000e+001 
3221875000  -3.328116e+001  5.647595e+000 
3225000000  -3.289255e+001  4.806073e+000 
3228125000  -3.314030e+001  -1.415858e-001 
3231250000  -3.386493e+001  -3.192863e+000 
3234375000  -3.355613e+001  -2.409041e+000 
3237500000  -3.361671e+001  -4.451356e+000 
3240625000  -3.321057e+001  -6.995913e+000 
3243750000  -3.272537e+001  -1.424057e+001 
3246875000  -3.314841e+001  -2.170340e+001 
3250000000  -3.350039e+001  -2.438812e+001 
3253125000  -3.367384e+001  -2.570965e+001 
3256250000  -3.326908e+001  -3.193834e+001 
3259375000  -3.352513e+001  -4.146709e+001 
3262500000  -3.465123e+001  -4.484932e+001 
3265625000  -3.529009e+001  -4.220419e+001 
3268750000  -3.523311e+001  -4.069184e+001 
3271875000  -3.476720e+001  -4.057338e+001 
3275000000  -3.372447e+001  -4.755650e+001 
3278125000  -3.418390e+001  -5.481119e+001 
3281250000  -3.440975e+001  -5.369773e+001 
3284375000  -3.388510e+001  -6.002720e+001 
3287500000  -3.407300e+001  -6.422237e+001 
3290625000  -3.433466e+001  -6.966888e+001 
3293750000  -3.417993e+001  -7.613633e+001 
3296875000  -3.514434e+001  -7.654573e+001 
3300000000  -3.497954e+001  -7.564114e+001 
3303125000  -3.371871e+001  -8.087725e+001 
3306250000  -3.359697e+001  -8.861963e+001 
3309375000  -3.320308e+001  -9.511304e+001 
3312500000  -3.338985e+001  -1.057732e+002 
3315625000  -3.428745e+001  -1.145781e+002 
3318750000  -3.573720e+001  -1.170365e+002 
3321875000  -3.679397e+001  -1.173234e+002 
3325000000  -3.744015e+001  -1.128912e+002 
3328125000  -3.717811e+001  -1.123272e+002 
3331250000  -3.582898e+001  -1.053701e+002 
3334375000  -3.323683e+001  -1.153671e+002 
3337500000  -3.330098e+001  -1.347372e+002 
3340625000  -3.462493e+001  -1.448455e+002 
3343750000  -3.659451e+001  -1.465481e+002 
3346875000  -3.678472e+001  -1.454778e+002 
3350000000  -3.637868e+001  -1.468403e+002 
3353125000  -3.623771e+001  -1.513075e+002 
3356250000  -3.586092e+001  -1.596678e+002 
3359375000  -3.665490e+001  -1.672214e+002 
3362500000  -3.774444e+001  -1.738536e+002 
3365625000  -3.839626e+001  -1.749182e+002 
3368750000  -3.919365e+001  -1.771283e+002 
3371875000  -3.929870e+001  -1.795604e+002 
3375000000  -4.085987e+001  1.782351e+002 
3378125000  -4.140601e+001  1.775647e+002 
3381250000  -4.290333e+001  -1.731857e+002 
3384375000  -4.135237e+001  -1.534438e+002 
3387500000  -3.782859e+001  -1.678621e+002 
3390625000  -3.950726e+001  1.737333e+002 
3393750000  -4.077511e+001  1.765773e+002 
3396875000  -3.955363e+001  1.775754e+002 
3400000000  -3.901754e+001  1.700527e+002 
3403125000  -3.955839e+001  1.657341e+002 
3406250000  -3.987448e+001  1.660295e+002 
3409375000  -3.993201e+001  1.571821e+002 
3412500000  -4.048310e+001  1.542083e+002 
3415625000  -4.115863e+001  1.555113e+002 
3418750000  -4.132687e+001  1.570993e+002 
3421875000  -4.117918e+001  1.601995e+002 
3425000000  -4.055267e+001  1.591446e+002 
3428125000  -3.926652e+001  1.549615e+002 
3431250000  -3.926788e+001  1.491700e+002 
3434375000  -3.923227e+001  1.425342e+002 
3437500000  -3.968720e+001  1.387478e+002 
3440625000  -4.028011e+001  1.389014e+002 
3443750000  -3.884359e+001  1.404567e+002 
3446875000  -3.817851e+001  1.313301e+002 
3450000000  -3.792286e+001  1.213050e+002 
3453125000  -3.811845e+001  1.119365e+002 
3456250000  -3.937674e+001  1.054744e+002 
3459375000  -4.026050e+001  1.067936e+002 
3462500000  -4.022591e+001  1.075118e+002 
3465625000  -4.030254e+001  1.017418e+002 
3468750000  -4.056570e+001  9.726566e+001 
3471875000  -4.043587e+001  9.562503e+001 
3475000000  -4.003725e+001  9.240459e+001 
3478125000  -4.082189e+001  8.403170e+001 
3481250000  -4.164359e+001  8.125896e+001 
3484375000  -4.252899e+001  8.664603e+001 
3487500000  -4.173830e+001  8.478859e+001 
3490625000  -4.117590e+001  8.209243e+001 
3493750000  -4.187679e+001  7.644730e+001 
3496875000  -4.221696e+001  7.360885e+001 
3500000000  -4.251846e+001  7.686391e+001 
3503125000  -4.233764e+001  7.886691e+001 
3506250000  -4.111807e+001  7.532586e+001 
3509375000  -4.083570e+001  6.725990e+001 
3512500000  -4.132390e+001  5.736860e+001 
3515625000  -4.216632e+001  5.632502e+001 
3518750000  -4.265746e+001  5.756945e+001 
3521875000  -4.227789e+001  5.461071e+001 
3525000000  -4.320290e+001  5.121981e+001 
3528125000  -4.287807e+001  5.693773e+001 
3531250000  -4.143553e+001  5.559367e+001 
3534375000  -4.158912e+001  4.578739e+001 
3537500000  -4.185706e+001  3.994460e+001 
3540625000  -4.281078e+001  3.862704e+001 
3543750000  -4.346793e+001  4.115144e+001 
3546875000  -4.321881e+001  5.208080e+001 
3550000000  -4.080074e+001  5.204570e+001 
3553125000  -3.943682e+001  3.468807e+001 
3556250000  -4.094339e+001  2.698164e+001 
3559375000  -4.089782e+001  2.723632e+001 
3562500000  -3.974477e+001  1.765250e+001 
3565625000  -4.076742e+001  9.965744e+000 
3568750000  -4.075581e+001  1.241463e+001 
3571875000  -4.040078e+001  1.109439e+001 
3575000000  -4.032765e+001  3.176418e+000 
3578125000  -4.079982e+001  -1.746040e+000 
3581250000  -4.091331e+001  -2.543443e+000 
3584375000  -4.048486e+001  -5.239653e+000 
3587500000  -4.015667e+001  -1.525246e+001 
3590625000  -4.073647e+001  -2.706778e+001 
3593750000  -4.179596e+001  -2.773028e+001 
3596875000  -4.193422e+001  -2.263250e+001 
3600000000  -4.051466e+001  -2.597149e+001 
3603125000  -4.097527e+001  -4.100932e+001 
3606250000  -4.220004e+001  -4.476091e+001 
3609375000  -4.293603e+001  -4.621127e+001 
3612500000  -4.333209e+001  -4.913343e+001 
3615625000  -4.388321e+001  -5.257858e+001 
3618750000  -4.444165e+001  -5.053061e+001 
3621875000  -4.467435e+001  -5.569147e+001 
3625000000  -4.517712e+001  -5.725972e+001 
3628125000  -4.555143e+001  -5.361351e+001 
3631250000  -4.511127e+001  -5.783925e+001 
3634375000  -4.656710e+001  -5.639986e+001 
3637500000  -4.603609e+001  -4.908677e+001 
3640625000  -4.510336e+001  -4.673855e+001 
3643750000  -4.444649e+001  -5.098281e+001 
3646875000  -4.497592e+001  -5.712235e+001 
3650000000  -4.533312e+001  -5.718473e+001 
3653125000  -4.495316e+001  -5.666079e+001 
3656250000  -4.510490e+001  -5.859410e+001 
3659375000  -4.530793e+001  -5.736476e+001 
3662500000  -4.419475e+001  -5.999070e+001 
3665625000  -4.361731e+001  -6.314732e+001 
3668750000  -4.265743e+001  -6.320448e+001 
3671875000  -4.172771e+001  -6.937624e+001 
3675000000  -4.196878e+001  -7.773971e+001 
3678125000  -4.226456e+001  -8.068111e+001 
3681250000  -4.208384e+001  -8.446780e+001 
3684375000  -4.191638e+001  -8.920308e+001 
3687500000  -4.208031e+001  -9.380191e+001 
3690625000  -4.216752e+001  -9.933570e+001 
3693750000  -4.309884e+001  -9.947808e+001 
3696875000  -4.337257e+001  -1.004317e+002 
3700000000  -4.231134e+001  -1.058910e+002 
3703125000  -4.216696e+001  -1.119001e+002 
3706250000  -4.322054e+001  -1.107545e+002 
3709375000  -4.309362e+001  -1.081592e+002 
3712500000  -4.213321e+001  -1.121888e+002 
3715625000  -4.138998e+001  -1.200656e+002 
3718750000  -4.133903e+001  -1.258551e+002 
3721875000  -4.154127e+001  -1.326284e+002 
3725000000  -4.151370e+001  -1.396989e+002 
3728125000  -4.204803e+001  -1.391633e+002 
3731250000  -4.169429e+001  -1.421620e+002 
3734375000  -4.161689e+001  -1.472900e+002 
3737500000  -4.245776e+001  -1.578403e+002 
3740625000  -4.373330e+001  -1.594385e+002 
3743750000  -4.355466e+001  -1.607717e+002 
3746875000  -4.393486e+001  -1.621011e+002 
3750000000  -4.500334e+001  -1.617024e+002 
3753125000  -4.453497e+001  -1.600985e+002 
3756250000  -4.482052e+001  -1.556825e+002 
3759375000  -4.515143e+001  -1.561235e+002 
3762500000  -4.450313e+001  -1.589594e+002 
3765625000  -4.464790e+001  -1.580659e+002 
3768750000  -4.495555e+001  -1.563319e+002 
3771875000  -4.329091e+001  -1.540291e+002 
3775000000  -4.268908e+001  -1.618569e+002 
3778125000  -4.292673e+001  -1.631261e+002 
3781250000  -4.230185e+001  -1.663769e+002 
3784375000  -4.241177e+001  -1.663375e+002 
3787500000  -4.160470e+001  -1.685302e+002 
3790625000  -4.180402e+001  -1.777195e+002 
3793750000  -4.194885e+001  -1.786954e+002 
3796875000  -4.078654e+001  1.783005e+002 
3800000000  -3.913345e+001  1.764377e+002 
3803125000  -3.964722e+001  1.657350e+002 
3806250000  -4.037569e+001  1.627194e+002 
3809375000  -4.009284e+001  1.601441e+002 
3812500000  -3.923791e+001  1.533168e+002 
3815625000  -3.987340e+001  1.419868e+002 
3818750000  -4.100972e+001  1.415676e+002 
3821875000  -4.097747e+001  1.499254e+002 
3825000000  -3.896811e+001  1.519232e+002 
3828125000  -3.788874e+001  1.368930e+002 
3831250000  -3.825191e+001  1.201785e+002 
3834375000  -4.001055e+001  1.189274e+002 
3837500000  -4.072676e+001  1.224528e+002 
3840625000  -3.992609e+001  1.205149e+002 
3843750000  -3.887585e+001  1.088318e+002 
3846875000  -3.966799e+001  1.013134e+002 
3850000000  -4.110474e+001  1.050904e+002 
3853125000  -4.030415e+001  1.087665e+002 
3856250000  -4.046634e+001  1.024716e+002 
3859375000  -3.963525e+001  9.705424e+001 
3862500000  -3.982511e+001  8.890215e+001 
3865625000  -3.993870e+001  8.546296e+001 
3868750000  -4.012563e+001  8.292925e+001 
3871875000  -3.936475e+001  7.924791e+001 
3875000000  -4.001571e+001  7.119577e+001 
3878125000  -4.086238e+001  6.922501e+001 
3881250000  -4.112816e+001  7.295191e+001 
3884375000  -4.056366e+001  6.770649e+001 
3887500000  -4.091008e+001  6.364911e+001 
3890625000  -4.146319e+001  6.191327e+001 
3893750000  -4.157663e+001  6.026313e+001 
3896875000  -4.176117e+001  6.283766e+001 
3900000000  -4.187183e+001  6.104906e+001 
3903125000  -4.155863e+001  6.002475e+001 
3906250000  -4.111121e+001  5.796896e+001 
3909375000  -4.039749e+001  5.529577e+001 
3912500000  -4.030544e+001  4.832575e+001 
3915625000  -4.125018e+001  4.695512e+001 
3918750000  -4.137183e+001  4.809917e+001 
3921875000  -4.066655e+001  4.640306e+001 
3925000000  -3.966062e+001  4.361986e+001 
3928125000  -3.915868e+001  3.560783e+001 
3931250000  -3.942591e+001  3.185999e+001 
3934375000  -3.965197e+001  2.936057e+001 
3937500000  -3.977493e+001  2.670518e+001 
3940625000  -4.048833e+001  2.490340e+001 
3943750000  -3.921085e+001  2.411856e+001 
3946875000  -3.797530e+001  1.735234e+001 
3950000000  -3.866680e+001  8.623666e+000 
3953125000  -3.971226e+001  8.743135e+000 
3956250000  -3.857339e+001  1.074664e+001 
3959375000  -3.741977e+001  5.496916e+000 
3962500000  -3.690776e+001  1.273523e-001 
3965625000  -3.670001e+001  -9.786418e+000 
3968750000  -3.792629e+001  -1.954136e+001 
3971875000  -3.807494e+001  -2.146587e+001 
3975000000  -3.768365e+001  -2.292588e+001 
3978125000  -3.769800e+001  -2.555454e+001 
3981250000  -3.749596e+001  -3.189789e+001 
3984375000  -3.803434e+001  -3.882903e+001 
3987500000  -3.844391e+001  -4.130639e+001 
3990625000  -3.860239e+001  -4.319097e+001 
3993750000  -3.910268e+001  -4.838467e+001 
3996875000  -3.938229e+001  -5.152432e+001 
4000000000  -3.937600e+001  -5.273726e+001 
4003125000  -3.985383e+001  -5.163702e+001 
4006250000  -3.895977e+001  -5.393336e+001 
4009375000  -3.774413e+001  -6.333289e+001 
4012500000  -3.915732e+001  -7.164916e+001 
4015625000  -4.051265e+001  -7.061976e+001 
4018750000  -4.068872e+001  -6.846655e+001 
4021875000  -3.978037e+001  -6.795788e+001 
4025000000  -3.992650e+001  -7.269475e+001 
4028125000  -3.980066e+001  -7.676975e+001 
4031250000  -4.026352e+001  -8.035477e+001 
4034375000  -4.042809e+001  -8.079510e+001 
4037500000  -3.971780e+001  -7.750271e+001 
4040625000  -3.959875e+001  -8.085759e+001 
4043750000  -3.996199e+001  -8.247928e+001 
4046875000  -3.926537e+001  -8.261183e+001 
4050000000  -3.864685e+001  -8.903436e+001 
4053125000  -3.903640e+001  -9.069932e+001 
4056250000  -3.944552e+001  -8.796217e+001 
4059375000  -3.807284e+001  -8.821505e+001 
4062500000  -3.653079e+001  -9.393050e+001 
4065625000  -3.644281e+001  -9.805856e+001 
4068750000  -3.620492e+001  -1.061954e+002 
4071875000  -3.543637e+001  -1.126573e+002 
4075000000  -3.572510e+001  -1.203055e+002 
4078125000  -3.622744e+001  -1.231260e+002 
4081250000  -3.566829e+001  -1.262524e+002 
4084375000  -3.526046e+001  -1.342674e+002 
4087500000  -3.578730e+001  -1.413814e+002 
4090625000  -3.622545e+001  -1.438266e+002 
4093750000  -3.604771e+001  -1.442818e+002 
4096875000  -3.566272e+001  -1.511664e+002 
4100000000  -3.642478e+001  -1.609426e+002 
4103125000  -3.730565e+001  -1.606219e+002 
4106250000  -3.728047e+001  -1.567383e+002 
4109375000  -3.635546e+001  -1.593912e+002 
4112500000  -3.576576e+001  -1.672337e+002 
4115625000  -3.611495e+001  -1.729088e+002 
4118750000  -3.641243e+001  -1.768074e+002 
4121875000  -3.600482e+001  1.776743e+002 
4125000000  -3.665497e+001  1.711763e+002 
4128125000  -3.762020e+001  1.711409e+002 
4131250000  -3.732586e+001  1.783865e+002 
4134375000  -3.540792e+001  1.735387e+002 
4137500000  -3.510161e+001  1.522457e+002 
4140625000  -3.735725e+001  1.454723e+002 
4143750000  -3.894191e+001  1.497343e+002 
4146875000  -3.854344e+001  1.565064e+002 
4150000000  -3.784543e+001  1.523011e+002 
4153125000  -3.767044e+001  1.454149e+002 
4156250000  -3.874706e+001  1.433317e+002 
4159375000  -3.924752e+001  1.489961e+002 
4162500000  -3.830027e+001  1.531682e+002 
4165625000  -3.703643e+001  1.479019e+002 
4168750000  -3.641789e+001  1.403023e+002 
4171875000  -3.632479e+001  1.322245e+002 
4175000000  -3.699886e+001  1.269359e+002 
4178125000  -3.746733e+001  1.272069e+002 
4181250000  -3.715567e+001  1.269360e+002 
4184375000  -3.723865e+001  1.239641e+002 
4187500000  -3.696652e+001  1.198729e+002 
4190625000  -3.683277e+001  1.138112e+002 
4193750000  -3.736393e+001  1.106870e+002 
4196875000  -3.814939e+001  1.091704e+002 
4200000000  -3.890035e+001  1.116083e+002 
4203125000  -3.856049e+001  1.258231e+002 
4206250000  -3.504671e+001  1.255358e+002 
4209375000  -3.401336e+001  1.023313e+002 
4212500000  -3.592689e+001  9.241468e+001 
4215625000  -3.674274e+001  9.986135e+001 
4218750000  -3.530712e+001  1.038561e+002 
4221875000  -3.290540e+001  9.526522e+001 
4225000000  -3.410015e+001  8.053925e+001 
4228125000  -3.468319e+001  8.338992e+001 
4231250000  -3.307551e+001  7.781059e+001 
4234375000  -3.287691e+001  6.896867e+001 
4237500000  -3.239706e+001  6.346401e+001 
4240625000  -3.251935e+001  5.339939e+001 
4243750000  -3.364680e+001  4.576135e+001 
4246875000  -3.434209e+001  4.423225e+001 
4250000000  -3.445579e+001  4.606833e+001 
4253125000  -3.384335e+001  4.137858e+001 
4256250000  -3.426701e+001  3.670722e+001 
4259375000  -3.403976e+001  3.308069e+001 
4262500000  -3.412229e+001  2.881994e+001 
4265625000  -3.443177e+001  2.784882e+001 
4268750000  -3.356559e+001  2.108837e+001 
4271875000  -3.355579e+001  1.448900e+001 
4275000000  -3.321791e+001  5.520498e+000 
4278125000  -3.378489e+001  -4.928905e+000 
4281250000  -3.582493e+001  -7.824148e+000 
4284375000  -3.569978e+001  -8.492685e+000 
4287500000  -3.666973e+001  -1.309937e+001 
4290625000  -3.822881e+001  -2.388329e+000 
4293750000  -3.624038e+001  2.965308e+000 
4296875000  -3.491853e+001  -8.651241e+000 
4300000000  -3.606041e+001  -1.839139e+001 
4303125000  -3.733501e+001  -1.568530e+001 
4306250000  -3.658187e+001  -8.551805e+000 
4309375000  -3.535474e+001  -1.090444e+001 
4312500000  -3.508425e+001  -1.882289e+001 
4315625000  -3.538812e+001  -2.379327e+001 
4318750000  -3.554924e+001  -2.675546e+001 
4321875000  -3.571424e+001  -2.628964e+001 
4325000000  -3.498874e+001  -2.554470e+001 
4328125000  -3.429009e+001  -3.125538e+001 
4331250000  -3.418048e+001  -3.971355e+001 
4334375000  -3.462076e+001  -4.545274e+001 
4337500000  -3.511803e+001  -4.853580e+001 
4340625000  -3.552290e+001  -4.541864e+001 
4343750000  -3.473185e+001  -4.568170e+001 
4346875000  -3.422881e+001  -5.154774e+001 
4350000000  -3.403547e+001  -5.777880e+001 
4353125000  -3.412539e+001  -6.636687e+001 
4356250000  -3.566083e+001  -6.723910e+001 
4359375000  -3.588609e+001  -5.524783e+001 
4362500000  -3.308197e+001  -5.678669e+001 
4365625000  -3.146135e+001  -6.878327e+001 
4368750000  -3.201649e+001  -8.319640e+001 
4371875000  -3.319238e+001  -8.392598e+001 
4375000000  -3.269695e+001  -8.323610e+001 
4378125000  -3.211734e+001  -9.139137e+001 
4381250000  -3.228440e+001  -9.759180e+001 
4384375000  -3.204770e+001  -1.042631e+002 
4387500000  -3.281578e+001  -1.116026e+002 
4390625000  -3.382915e+001  -1.125854e+002 
4393750000  -3.296838e+001  -1.120422e+002 
4396875000  -3.248714e+001  -1.163157e+002 
4400000000  -3.205063e+001  -1.252362e+002 
4403125000  -3.268880e+001  -1.338441e+002 
4406250000  -3.355441e+001  -1.365709e+002 
4409375000  -3.368972e+001  -1.406864e+002 
4412500000  -3.490646e+001  -1.443550e+002 
4415625000  -3.536291e+001  -1.407454e+002 
