!Agilent Technologies,E8363B,MY43030201,A.06.04.32
!Agilent E8363B: A.06.04.32
!Date: Tuesday, November 11, 2014 21:04:14
!Correction: S21(Response(S21)) 
!S1P File: Measurement: S21:
# Hz S  dB   R 50
3000000000  -3.649889e+001  -4.706600e+001 
3003125000  -3.760590e+001  -5.354757e+001 
3006250000  -3.742466e+001  -5.587889e+001 
3009375000  -3.773119e+001  -5.081250e+001 
3012500000  -3.701428e+001  -5.277550e+001 
3015625000  -3.613216e+001  -6.027872e+001 
3018750000  -3.690222e+001  -6.127033e+001 
3021875000  -3.538794e+001  -6.023480e+001 
3025000000  -3.408224e+001  -6.485194e+001 
3028125000  -3.316376e+001  -7.031699e+001 
3031250000  -3.212801e+001  -8.192352e+001 
3034375000  -3.176978e+001  -9.556013e+001 
3037500000  -3.215857e+001  -1.076366e+002 
3040625000  -3.360812e+001  -1.123526e+002 
3043750000  -3.415776e+001  -1.176584e+002 
3046875000  -3.442620e+001  -1.227868e+002 
3050000000  -3.597835e+001  -1.299955e+002 
3053125000  -3.607375e+001  -1.234971e+002 
3056250000  -3.548279e+001  -1.210179e+002 
3059375000  -3.555107e+001  -1.215571e+002 
3062500000  -3.410012e+001  -1.251027e+002 
3065625000  -3.391735e+001  -1.307773e+002 
3068750000  -3.357171e+001  -1.377228e+002 
3071875000  -3.341454e+001  -1.404380e+002 
3075000000  -3.326932e+001  -1.441443e+002 
3078125000  -3.300854e+001  -1.480598e+002 
3081250000  -3.350858e+001  -1.523594e+002 
3084375000  -3.273055e+001  -1.559311e+002 
3087500000  -3.246357e+001  -1.603922e+002 
3090625000  -3.200080e+001  -1.700386e+002 
3093750000  -3.237609e+001  -1.774492e+002 
3096875000  -3.343950e+001  1.768334e+002 
3100000000  -3.336463e+001  1.745121e+002 
3103125000  -3.359002e+001  1.752525e+002 
3106250000  -3.312798e+001  1.708186e+002 
3109375000  -3.325399e+001  1.670401e+002 
3112500000  -3.323326e+001  1.644839e+002 
3115625000  -3.286103e+001  1.597491e+002 
3118750000  -3.321544e+001  1.604399e+002 
3121875000  -3.231385e+001  1.510621e+002 
3125000000  -3.355762e+001  1.463360e+002 
3128125000  -3.451573e+001  1.538329e+002 
3131250000  -3.207063e+001  1.524038e+002 
3134375000  -3.074601e+001  1.370898e+002 
3137500000  -3.132052e+001  1.227362e+002 
3140625000  -3.281327e+001  1.196211e+002 
3143750000  -3.392239e+001  1.216312e+002 
3146875000  -3.332999e+001  1.223965e+002 
3150000000  -3.232547e+001  1.226860e+002 
3153125000  -3.233887e+001  1.136413e+002 
3156250000  -3.336709e+001  1.180746e+002 
3159375000  -3.169610e+001  1.194812e+002 
3162500000  -2.964934e+001  1.045410e+002 
3165625000  -3.074707e+001  9.248141e+001 
3168750000  -3.103480e+001  9.293564e+001 
3171875000  -3.008555e+001  8.737849e+001 
3175000000  -3.089783e+001  7.871910e+001 
3178125000  -3.067178e+001  7.911591e+001 
3181250000  -2.956311e+001  7.422234e+001 
3184375000  -2.880714e+001  6.096354e+001 
3187500000  -3.007269e+001  4.561055e+001 
3190625000  -3.269054e+001  3.746945e+001 
3193750000  -3.340771e+001  4.609139e+001 
3196875000  -3.295824e+001  5.066440e+001 
3200000000  -3.205488e+001  4.847285e+001 
3203125000  -3.125062e+001  4.212056e+001 
3206250000  -3.159196e+001  3.528695e+001 
3209375000  -3.110910e+001  2.932456e+001 
3212500000  -3.127721e+001  2.268340e+001 
3215625000  -3.138985e+001  1.818320e+001 
3218750000  -3.217922e+001  1.099980e+001 
3221875000  -3.303457e+001  5.515151e+000 
3225000000  -3.265341e+001  4.715516e+000 
3228125000  -3.298652e+001  -8.196158e-001 
3231250000  -3.365591e+001  -3.345563e+000 
3234375000  -3.338069e+001  -2.450475e+000 
3237500000  -3.333140e+001  -4.987984e+000 
3240625000  -3.295166e+001  -7.793586e+000 
3243750000  -3.256473e+001  -1.520247e+001 
3246875000  -3.296453e+001  -2.266682e+001 
3250000000  -3.338274e+001  -2.437479e+001 
3253125000  -3.349760e+001  -2.707757e+001 
3256250000  -3.317346e+001  -3.338925e+001 
3259375000  -3.345570e+001  -4.230403e+001 
3262500000  -3.464946e+001  -4.602287e+001 
3265625000  -3.526264e+001  -4.393105e+001 
3268750000  -3.517992e+001  -4.151291e+001 
3271875000  -3.481433e+001  -4.196631e+001 
3275000000  -3.380288e+001  -4.814685e+001 
3278125000  -3.415696e+001  -5.485068e+001 
3281250000  -3.439451e+001  -5.317326e+001 
3284375000  -3.387215e+001  -6.077209e+001 
3287500000  -3.404562e+001  -6.358215e+001 
3290625000  -3.436372e+001  -7.003008e+001 
3293750000  -3.407381e+001  -7.619571e+001 
3296875000  -3.505407e+001  -7.664325e+001 
3300000000  -3.489316e+001  -7.616909e+001 
3303125000  -3.379689e+001  -8.140633e+001 
3306250000  -3.352743e+001  -8.807092e+001 
3309375000  -3.323310e+001  -9.430836e+001 
3312500000  -3.328661e+001  -1.055240e+002 
3315625000  -3.435966e+001  -1.133233e+002 
3318750000  -3.576907e+001  -1.165609e+002 
3321875000  -3.688472e+001  -1.172449e+002 
3325000000  -3.738122e+001  -1.104852e+002 
3328125000  -3.679523e+001  -1.114904e+002 
3331250000  -3.581313e+001  -1.042929e+002 
3334375000  -3.300760e+001  -1.135136e+002 
3337500000  -3.307546e+001  -1.335588e+002 
3340625000  -3.450942e+001  -1.449196e+002 
3343750000  -3.642971e+001  -1.462611e+002 
3346875000  -3.659520e+001  -1.447012e+002 
3350000000  -3.599655e+001  -1.466125e+002 
3353125000  -3.598111e+001  -1.511130e+002 
3356250000  -3.561271e+001  -1.597829e+002 
3359375000  -3.632107e+001  -1.675980e+002 
3362500000  -3.749559e+001  -1.730322e+002 
3365625000  -3.794332e+001  -1.737371e+002 
3368750000  -3.881696e+001  -1.765910e+002 
3371875000  -3.904333e+001  -1.798825e+002 
3375000000  -4.016427e+001  1.766438e+002 
3378125000  -4.122470e+001  1.776401e+002 
3381250000  -4.250282e+001  -1.722735e+002 
3384375000  -4.110153e+001  -1.521477e+002 
3387500000  -3.753737e+001  -1.691554e+002 
3390625000  -3.918966e+001  1.707300e+002 
3393750000  -4.036270e+001  1.741355e+002 
3396875000  -3.910325e+001  1.770950e+002 
3400000000  -3.859682e+001  1.687163e+002 
3403125000  -3.926185e+001  1.624971e+002 
3406250000  -3.963105e+001  1.634976e+002 
3409375000  -3.986036e+001  1.546841e+002 
3412500000  -4.030862e+001  1.528160e+002 
3415625000  -4.089411e+001  1.536916e+002 
3418750000  -4.086279e+001  1.532710e+002 
3421875000  -4.120644e+001  1.558372e+002 
3425000000  -4.033141e+001  1.580291e+002 
3428125000  -3.938049e+001  1.541006e+002 
3431250000  -3.920290e+001  1.478055e+002 
3434375000  -3.900647e+001  1.413726e+002 
3437500000  -3.971294e+001  1.366938e+002 
3440625000  -4.017372e+001  1.386595e+002 
3443750000  -3.872266e+001  1.391821e+002 
3446875000  -3.806950e+001  1.318589e+002 
3450000000  -3.784213e+001  1.213369e+002 
3453125000  -3.791563e+001  1.113239e+002 
3456250000  -3.900519e+001  1.061900e+002 
3459375000  -4.003741e+001  1.054858e+002 
3462500000  -3.994019e+001  1.049774e+002 
3465625000  -3.964911e+001  1.003557e+002 
3468750000  -4.024302e+001  9.563686e+001 
3471875000  -3.993369e+001  9.509638e+001 
3475000000  -3.964832e+001  9.122694e+001 
3478125000  -4.049805e+001  8.120984e+001 
3481250000  -4.118155e+001  8.048080e+001 
3484375000  -4.236681e+001  8.262467e+001 
3487500000  -4.162402e+001  8.199989e+001 
3490625000  -4.059457e+001  8.021590e+001 
3493750000  -4.128617e+001  7.190990e+001 
3496875000  -4.177571e+001  6.955083e+001 
3500000000  -4.229689e+001  7.222182e+001 
3503125000  -4.161560e+001  7.530376e+001 
3506250000  -4.076292e+001  6.901302e+001 
3509375000  -4.076152e+001  6.060079e+001 
3512500000  -4.123774e+001  5.074094e+001 
3515625000  -4.189479e+001  4.869857e+001 
3518750000  -4.262144e+001  4.965315e+001 
3521875000  -4.243539e+001  4.839234e+001 
3525000000  -4.340944e+001  4.332481e+001 
3528125000  -4.343510e+001  5.112682e+001 
3531250000  -4.201758e+001  4.998668e+001 
3534375000  -4.230591e+001  4.115617e+001 
3537500000  -4.247554e+001  3.452385e+001 
3540625000  -4.335419e+001  3.225245e+001 
3543750000  -4.447998e+001  3.683917e+001 
3546875000  -4.443167e+001  5.078560e+001 
3550000000  -4.147219e+001  5.068290e+001 
3553125000  -4.030903e+001  3.279766e+001 
3556250000  -4.181711e+001  2.681600e+001 
3559375000  -4.162795e+001  2.830145e+001 
3562500000  -4.045599e+001  1.835464e+001 
3565625000  -4.106608e+001  1.220288e+001 
3568750000  -4.129322e+001  1.470546e+001 
3571875000  -4.122313e+001  1.105177e+001 
3575000000  -4.111629e+001  5.718636e+000 
3578125000  -4.131794e+001  1.310455e-001 
3581250000  -4.158092e+001  9.326820e-001 
3584375000  -4.061318e+001  -3.633753e+000 
3587500000  -4.023891e+001  -1.141846e+001 
3590625000  -4.048614e+001  -2.171861e+001 
3593750000  -4.197448e+001  -2.402531e+001 
3596875000  -4.201050e+001  -1.906055e+001 
3600000000  -4.032797e+001  -2.456875e+001 
3603125000  -4.060616e+001  -3.811644e+001 
3606250000  -4.155931e+001  -4.209126e+001 
3609375000  -4.212567e+001  -4.465038e+001 
3612500000  -4.265098e+001  -4.858552e+001 
3615625000  -4.299485e+001  -5.177828e+001 
3618750000  -4.347811e+001  -5.337392e+001 
3621875000  -4.354791e+001  -5.490425e+001 
3625000000  -4.386954e+001  -5.672665e+001 
3628125000  -4.395247e+001  -5.520335e+001 
3631250000  -4.429983e+001  -6.199116e+001 
3634375000  -4.541101e+001  -6.401170e+001 
3637500000  -4.545208e+001  -5.841843e+001 
3640625000  -4.480539e+001  -5.752482e+001 
3643750000  -4.456140e+001  -6.155176e+001 
3646875000  -4.461409e+001  -6.771208e+001 
3650000000  -4.606908e+001  -6.748764e+001 
3653125000  -4.529507e+001  -6.974957e+001 
3656250000  -4.578668e+001  -6.894455e+001 
3659375000  -4.607505e+001  -6.611333e+001 
3662500000  -4.483719e+001  -6.565536e+001 
3665625000  -4.502703e+001  -6.867683e+001 
3668750000  -4.393458e+001  -6.750754e+001 
3671875000  -4.306783e+001  -7.416002e+001 
3675000000  -4.329703e+001  -8.055840e+001 
3678125000  -4.354016e+001  -8.333172e+001 
3681250000  -4.330815e+001  -8.262267e+001 
3684375000  -4.295661e+001  -8.957504e+001 
3687500000  -4.346257e+001  -9.290475e+001 
3690625000  -4.296924e+001  -9.733581e+001 
3693750000  -4.397380e+001  -9.462726e+001 
3696875000  -4.371503e+001  -9.767040e+001 
3700000000  -4.258710e+001  -1.011465e+002 
3703125000  -4.277077e+001  -1.075010e+002 
3706250000  -4.403714e+001  -1.060290e+002 
3709375000  -4.346304e+001  -1.049817e+002 
3712500000  -4.274702e+001  -1.062232e+002 
3715625000  -4.172097e+001  -1.141005e+002 
3718750000  -4.155085e+001  -1.212960e+002 
3721875000  -4.096872e+001  -1.276607e+002 
3725000000  -4.149335e+001  -1.328377e+002 
3728125000  -4.187490e+001  -1.337055e+002 
3731250000  -4.170058e+001  -1.380793e+002 
3734375000  -4.100911e+001  -1.435950e+002 
3737500000  -4.193558e+001  -1.525482e+002 
3740625000  -4.304089e+001  -1.547331e+002 
3743750000  -4.288495e+001  -1.574050e+002 
3746875000  -4.330129e+001  -1.611979e+002 
3750000000  -4.422432e+001  -1.614557e+002 
3753125000  -4.399846e+001  -1.600489e+002 
3756250000  -4.447140e+001  -1.601607e+002 
3759375000  -4.466367e+001  -1.600636e+002 
3762500000  -4.372455e+001  -1.615370e+002 
3765625000  -4.497081e+001  -1.633277e+002 
3768750000  -4.489919e+001  -1.609232e+002 
3771875000  -4.307283e+001  -1.639217e+002 
3775000000  -4.315183e+001  -1.688762e+002 
3778125000  -4.299067e+001  -1.695069e+002 
3781250000  -4.265828e+001  -1.693028e+002 
3784375000  -4.281033e+001  -1.708591e+002 
3787500000  -4.230865e+001  -1.742446e+002 
3790625000  -4.221502e+001  1.794817e+002 
3793750000  -4.274849e+001  1.789149e+002 
3796875000  -4.140433e+001  1.770425e+002 
3800000000  -3.969767e+001  1.739978e+002 
3803125000  -4.057445e+001  1.661392e+002 
3806250000  -4.103638e+001  1.609087e+002 
3809375000  -4.062578e+001  1.603083e+002 
3812500000  -4.011496e+001  1.549593e+002 
3815625000  -4.067720e+001  1.444477e+002 
3818750000  -4.153984e+001  1.419970e+002 
3821875000  -4.126304e+001  1.516993e+002 
3825000000  -3.951564e+001  1.548427e+002 
3828125000  -3.792786e+001  1.367190e+002 
3831250000  -3.882875e+001  1.226205e+002 
3834375000  -4.026105e+001  1.215119e+002 
3837500000  -4.115281e+001  1.262899e+002 
3840625000  -3.990896e+001  1.264105e+002 
3843750000  -3.874276e+001  1.101418e+002 
3846875000  -3.950361e+001  1.047986e+002 
3850000000  -4.126491e+001  1.097969e+002 
3853125000  -4.036661e+001  1.111569e+002 
3856250000  -4.065028e+001  1.039853e+002 
3859375000  -3.939472e+001  1.001353e+002 
3862500000  -3.935023e+001  9.114933e+001 
3865625000  -3.965032e+001  8.855878e+001 
3868750000  -3.964418e+001  8.670776e+001 
3871875000  -3.920141e+001  8.260357e+001 
3875000000  -3.949564e+001  7.271027e+001 
3878125000  -4.060065e+001  7.059744e+001 
3881250000  -4.068658e+001  7.285333e+001 
3884375000  -4.023372e+001  6.998703e+001 
3887500000  -4.020335e+001  6.400968e+001 
3890625000  -4.078004e+001  6.156035e+001 
3893750000  -4.101532e+001  5.938802e+001 
3896875000  -4.129342e+001  6.086369e+001 
3900000000  -4.185187e+001  6.016948e+001 
3903125000  -4.120104e+001  5.723546e+001 
3906250000  -4.080928e+001  5.328355e+001 
3909375000  -4.000921e+001  5.058483e+001 
3912500000  -4.007009e+001  4.328964e+001 
3915625000  -4.163332e+001  4.358632e+001 
3918750000  -4.124055e+001  4.529405e+001 
3921875000  -4.054248e+001  4.231600e+001 
3925000000  -3.984031e+001  3.972566e+001 
3928125000  -3.911325e+001  3.371413e+001 
3931250000  -3.959842e+001  2.731469e+001 
3934375000  -4.008546e+001  2.752184e+001 
3937500000  -4.014665e+001  2.440545e+001 
3940625000  -4.042134e+001  2.451330e+001 
3943750000  -3.938876e+001  2.332190e+001 
3946875000  -3.851010e+001  1.800182e+001 
3950000000  -3.898975e+001  9.070277e+000 
3953125000  -4.003833e+001  6.463058e+000 
3956250000  -3.890220e+001  9.554799e+000 
3959375000  -3.768792e+001  6.179780e+000 
3962500000  -3.733197e+001  1.021966e+000 
3965625000  -3.699868e+001  -9.192017e+000 
3968750000  -3.812376e+001  -1.725166e+001 
3971875000  -3.841069e+001  -1.714962e+001 
3975000000  -3.799780e+001  -2.137804e+001 
3978125000  -3.781581e+001  -2.512582e+001 
3981250000  -3.790406e+001  -3.062383e+001 
3984375000  -3.817352e+001  -3.754805e+001 
3987500000  -3.874776e+001  -3.840773e+001 
3990625000  -3.849195e+001  -3.999671e+001 
3993750000  -3.900137e+001  -4.440354e+001 
3996875000  -3.884637e+001  -4.852471e+001 
4000000000  -3.928919e+001  -4.976521e+001 
4003125000  -3.957917e+001  -4.760999e+001 
4006250000  -3.828749e+001  -4.983336e+001 
4009375000  -3.712542e+001  -6.255673e+001 
4012500000  -3.834246e+001  -6.933792e+001 
4015625000  -3.996577e+001  -6.853911e+001 
4018750000  -3.990759e+001  -6.724361e+001 
4021875000  -3.927718e+001  -6.870466e+001 
4025000000  -3.911818e+001  -7.481512e+001 
4028125000  -3.893425e+001  -7.858260e+001 
4031250000  -3.944654e+001  -8.280008e+001 
4034375000  -3.951859e+001  -8.334419e+001 
4037500000  -3.914849e+001  -8.277238e+001 
4040625000  -3.902845e+001  -8.550860e+001 
4043750000  -3.927520e+001  -8.650813e+001 
4046875000  -3.882627e+001  -8.796480e+001 
4050000000  -3.839193e+001  -9.498340e+001 
4053125000  -3.898241e+001  -9.735635e+001 
4056250000  -3.926305e+001  -9.249997e+001 
4059375000  -3.824245e+001  -9.226003e+001 
4062500000  -3.695060e+001  -9.687291e+001 
4065625000  -3.687872e+001  -1.015115e+002 
4068750000  -3.625598e+001  -1.084048e+002 
4071875000  -3.576102e+001  -1.176586e+002 
4075000000  -3.593164e+001  -1.246202e+002 
4078125000  -3.672906e+001  -1.260126e+002 
4081250000  -3.615553e+001  -1.302464e+002 
4084375000  -3.578345e+001  -1.375553e+002 
4087500000  -3.606937e+001  -1.436015e+002 
4090625000  -3.652375e+001  -1.452104e+002 
4093750000  -3.643863e+001  -1.470043e+002 
4096875000  -3.609118e+001  -1.533011e+002 
4100000000  -3.689900e+001  -1.611422e+002 
4103125000  -3.772715e+001  -1.613919e+002 
4106250000  -3.748674e+001  -1.559191e+002 
4109375000  -3.685075e+001  -1.583262e+002 
4112500000  -3.607974e+001  -1.662010e+002 
4115625000  -3.665756e+001  -1.720513e+002 
4118750000  -3.671359e+001  -1.745360e+002 
4121875000  -3.629045e+001  1.788746e+002 
4125000000  -3.683459e+001  1.726328e+002 
4128125000  -3.779736e+001  1.737704e+002 
4131250000  -3.769014e+001  1.794950e+002 
4134375000  -3.511040e+001  1.741926e+002 
4137500000  -3.495528e+001  1.545346e+002 
4140625000  -3.730906e+001  1.466592e+002 
4143750000  -3.887714e+001  1.518594e+002 
4146875000  -3.859020e+001  1.573871e+002 
4150000000  -3.745429e+001  1.535544e+002 
4153125000  -3.730143e+001  1.468047e+002 
4156250000  -3.844617e+001  1.436114e+002 
4159375000  -3.857129e+001  1.481202e+002 
4162500000  -3.752970e+001  1.514350e+002 
4165625000  -3.633459e+001  1.481451e+002 
4168750000  -3.589217e+001  1.382492e+002 
4171875000  -3.576932e+001  1.302178e+002 
4175000000  -3.653918e+001  1.253720e+002 
4178125000  -3.685580e+001  1.249554e+002 
4181250000  -3.684937e+001  1.230448e+002 
4184375000  -3.655890e+001  1.180585e+002 
4187500000  -3.652662e+001  1.161209e+002 
4190625000  -3.656988e+001  1.108391e+002 
4193750000  -3.714054e+001  1.059112e+002 
4196875000  -3.820442e+001  1.051508e+002 
4200000000  -3.875914e+001  1.065225e+002 
4203125000  -3.873189e+001  1.199555e+002 
4206250000  -3.529807e+001  1.192728e+002 
4209375000  -3.408109e+001  9.699105e+001 
4212500000  -3.621813e+001  8.967516e+001 
4215625000  -3.691480e+001  9.611265e+001 
4218750000  -3.561592e+001  9.986214e+001 
4221875000  -3.321453e+001  9.103577e+001 
4225000000  -3.462474e+001  7.705615e+001 
4228125000  -3.520698e+001  8.162782e+001 
4231250000  -3.356691e+001  7.583789e+001 
4234375000  -3.335531e+001  6.679114e+001 
4237500000  -3.296750e+001  6.261865e+001 
4240625000  -3.305449e+001  5.256487e+001 
4243750000  -3.390929e+001  4.454466e+001 
4246875000  -3.499035e+001  4.356921e+001 
4250000000  -3.503899e+001  4.531191e+001 
4253125000  -3.439331e+001  4.105524e+001 
4256250000  -3.489025e+001  3.575285e+001 
4259375000  -3.465331e+001  3.395378e+001 
4262500000  -3.453157e+001  2.834500e+001 
4265625000  -3.490662e+001  2.829045e+001 
4268750000  -3.400916e+001  2.291239e+001 
4271875000  -3.359452e+001  1.658708e+001 
4275000000  -3.322908e+001  8.135345e+000 
4278125000  -3.392657e+001  -3.168312e+000 
4281250000  -3.611911e+001  -5.191843e+000 
4284375000  -3.582546e+001  -5.817592e+000 
4287500000  -3.666507e+001  -1.028675e+001 
4290625000  -3.792182e+001  7.856205e-001 
4293750000  -3.602748e+001  5.289257e+000 
4296875000  -3.468778e+001  -6.379067e+000 
4300000000  -3.552007e+001  -1.656077e+001 
4303125000  -3.698901e+001  -1.573825e+001 
4306250000  -3.631160e+001  -9.785815e+000 
4309375000  -3.484057e+001  -1.034461e+001 
4312500000  -3.475090e+001  -1.965694e+001 
4315625000  -3.484244e+001  -2.581291e+001 
4318750000  -3.519151e+001  -2.811257e+001 
4321875000  -3.531012e+001  -2.868043e+001 
4325000000  -3.463390e+001  -2.893289e+001 
4328125000  -3.403067e+001  -3.449004e+001 
4331250000  -3.388081e+001  -4.357630e+001 
4334375000  -3.429217e+001  -4.885576e+001 
4337500000  -3.515690e+001  -5.259774e+001 
4340625000  -3.564787e+001  -4.985982e+001 
4343750000  -3.474769e+001  -4.937102e+001 
4346875000  -3.418111e+001  -5.431257e+001 
4350000000  -3.417635e+001  -6.244662e+001 
4353125000  -3.407491e+001  -7.043359e+001 
4356250000  -3.592467e+001  -7.082725e+001 
4359375000  -3.623162e+001  -5.808725e+001 
4362500000  -3.329356e+001  -5.790781e+001 
4365625000  -3.195816e+001  -7.290181e+001 
4368750000  -3.273795e+001  -8.413010e+001 
4371875000  -3.376731e+001  -8.617346e+001 
4375000000  -3.322802e+001  -8.638716e+001 
4378125000  -3.249036e+001  -9.298008e+001 
4381250000  -3.286792e+001  -9.914428e+001 
4384375000  -3.247548e+001  -1.066874e+002 
4387500000  -3.342774e+001  -1.118162e+002 
4390625000  -3.427624e+001  -1.136183e+002 
4393750000  -3.373419e+001  -1.127631e+002 
4396875000  -3.308978e+001  -1.147788e+002 
4400000000  -3.270516e+001  -1.246711e+002 
4403125000  -3.323522e+001  -1.330428e+002 
4406250000  -3.405336e+001  -1.347757e+002 
4409375000  -3.419703e+001  -1.383013e+002 
4412500000  -3.541638e+001  -1.428091e+002 
4415625000  -3.586583e+001  -1.376541e+002 
