!Agilent Technologies,E8363B,MY43030201,A.06.04.32
!Agilent E8363B: A.06.04.32
!Date: Tuesday, November 11, 2014 21:10:34
!Correction: S21(Response(S21)) 
!S1P File: Measurement: S21:
# Hz S  dB   R 50
3000000000  -3.645766e+001  -5.478974e+001 
3003125000  -3.778243e+001  -6.136173e+001 
3006250000  -3.754488e+001  -6.284874e+001 
3009375000  -3.780587e+001  -5.849277e+001 
3012500000  -3.706442e+001  -6.066720e+001 
3015625000  -3.611944e+001  -6.843457e+001 
3018750000  -3.694177e+001  -6.917711e+001 
3021875000  -3.551375e+001  -6.804905e+001 
3025000000  -3.413147e+001  -7.263827e+001 
3028125000  -3.320652e+001  -7.856046e+001 
3031250000  -3.214954e+001  -9.040746e+001 
3034375000  -3.182390e+001  -1.035206e+002 
3037500000  -3.227108e+001  -1.159077e+002 
3040625000  -3.363412e+001  -1.202937e+002 
3043750000  -3.424697e+001  -1.254073e+002 
3046875000  -3.459167e+001  -1.314572e+002 
3050000000  -3.624536e+001  -1.371719e+002 
3053125000  -3.600317e+001  -1.311790e+002 
3056250000  -3.565386e+001  -1.283163e+002 
3059375000  -3.573776e+001  -1.287484e+002 
3062500000  -3.413108e+001  -1.328636e+002 
3065625000  -3.397398e+001  -1.386246e+002 
3068750000  -3.360550e+001  -1.457359e+002 
3071875000  -3.359520e+001  -1.487373e+002 
3075000000  -3.332837e+001  -1.524713e+002 
3078125000  -3.309119e+001  -1.565756e+002 
3081250000  -3.351839e+001  -1.612485e+002 
3084375000  -3.269376e+001  -1.638532e+002 
3087500000  -3.246777e+001  -1.677664e+002 
3090625000  -3.207233e+001  -1.786546e+002 
3093750000  -3.247814e+001  1.742464e+002 
3096875000  -3.347202e+001  1.684611e+002 
3100000000  -3.331803e+001  1.663651e+002 
3103125000  -3.365553e+001  1.664495e+002 
3106250000  -3.312157e+001  1.628346e+002 
3109375000  -3.326955e+001  1.584825e+002 
3112500000  -3.321662e+001  1.564220e+002 
3115625000  -3.289905e+001  1.515452e+002 
3118750000  -3.324594e+001  1.520775e+002 
3121875000  -3.232197e+001  1.417665e+002 
3125000000  -3.363689e+001  1.381621e+002 
3128125000  -3.449638e+001  1.460244e+002 
3131250000  -3.203804e+001  1.434508e+002 
3134375000  -3.088300e+001  1.280956e+002 
3137500000  -3.131987e+001  1.145091e+002 
3140625000  -3.271350e+001  1.118716e+002 
3143750000  -3.381363e+001  1.128866e+002 
3146875000  -3.321461e+001  1.142489e+002 
3150000000  -3.223742e+001  1.139361e+002 
3153125000  -3.233696e+001  1.048036e+002 
3156250000  -3.331487e+001  1.100253e+002 
3159375000  -3.151590e+001  1.108958e+002 
3162500000  -2.968269e+001  9.640843e+001 
3165625000  -3.072246e+001  8.425309e+001 
3168750000  -3.100871e+001  8.434054e+001 
3171875000  -3.011488e+001  7.858622e+001 
3175000000  -3.082472e+001  6.970193e+001 
3178125000  -3.059579e+001  7.009335e+001 
3181250000  -2.957740e+001  6.501279e+001 
3184375000  -2.894567e+001  5.187631e+001 
3187500000  -3.011513e+001  3.646839e+001 
3190625000  -3.265721e+001  2.883542e+001 
3193750000  -3.322624e+001  3.744085e+001 
3196875000  -3.296275e+001  4.241216e+001 
3200000000  -3.197394e+001  3.934422e+001 
3203125000  -3.125141e+001  3.316636e+001 
3206250000  -3.148864e+001  2.607234e+001 
3209375000  -3.097336e+001  2.044442e+001 
3212500000  -3.135237e+001  1.321727e+001 
3215625000  -3.137002e+001  9.933146e+000 
3218750000  -3.211193e+001  1.870533e+000 
3221875000  -3.283694e+001  -2.746678e+000 
3225000000  -3.250977e+001  -4.175589e+000 
3228125000  -3.295255e+001  -9.925671e+000 
3231250000  -3.362817e+001  -1.270342e+001 
3234375000  -3.329558e+001  -1.221443e+001 
3237500000  -3.331179e+001  -1.401638e+001 
3240625000  -3.301473e+001  -1.646780e+001 
3243750000  -3.251107e+001  -2.457491e+001 
3246875000  -3.290112e+001  -3.157307e+001 
3250000000  -3.334686e+001  -3.416251e+001 
3253125000  -3.344703e+001  -3.538802e+001 
3256250000  -3.303610e+001  -4.280600e+001 
3259375000  -3.343077e+001  -5.186062e+001 
3262500000  -3.457844e+001  -5.481735e+001 
3265625000  -3.520608e+001  -5.197302e+001 
3268750000  -3.505383e+001  -4.964810e+001 
3271875000  -3.475772e+001  -5.029211e+001 
3275000000  -3.370528e+001  -5.767734e+001 
3278125000  -3.423772e+001  -6.467928e+001 
3281250000  -3.436807e+001  -6.293575e+001 
3284375000  -3.378128e+001  -6.960163e+001 
3287500000  -3.404945e+001  -7.350750e+001 
3290625000  -3.427322e+001  -7.932912e+001 
3293750000  -3.401798e+001  -8.541203e+001 
3296875000  -3.519828e+001  -8.610193e+001 
3300000000  -3.479801e+001  -8.496156e+001 
3303125000  -3.360250e+001  -9.069984e+001 
3306250000  -3.343425e+001  -9.789449e+001 
3309375000  -3.317147e+001  -1.039046e+002 
3312500000  -3.328235e+001  -1.152566e+002 
3315625000  -3.424960e+001  -1.235613e+002 
3318750000  -3.581540e+001  -1.263756e+002 
3321875000  -3.695182e+001  -1.262344e+002 
3325000000  -3.726354e+001  -1.216553e+002 
3328125000  -3.669878e+001  -1.199629e+002 
3331250000  -3.542174e+001  -1.136278e+002 
3334375000  -3.289845e+001  -1.244245e+002 
3337500000  -3.295395e+001  -1.434968e+002 
3340625000  -3.430274e+001  -1.547482e+002 
3343750000  -3.649535e+001  -1.550862e+002 
3346875000  -3.643624e+001  -1.537647e+002 
3350000000  -3.582706e+001  -1.555307e+002 
3353125000  -3.585841e+001  -1.615042e+002 
3356250000  -3.543828e+001  -1.682862e+002 
3359375000  -3.617505e+001  -1.769891e+002 
3362500000  -3.728958e+001  1.777141e+002 
3365625000  -3.776369e+001  1.758431e+002 
3368750000  -3.855258e+001  1.724346e+002 
3371875000  -3.875324e+001  1.700415e+002 
3375000000  -4.027108e+001  1.681044e+002 
3378125000  -4.114450e+001  1.675016e+002 
3381250000  -4.242274e+001  1.771291e+002 
3384375000  -4.092014e+001  -1.619109e+002 
3387500000  -3.731408e+001  -1.797512e+002 
3390625000  -3.916859e+001  1.627346e+002 
3393750000  -4.023669e+001  1.650992e+002 
3396875000  -3.913250e+001  1.669003e+002 
3400000000  -3.852754e+001  1.575870e+002 
3403125000  -3.904347e+001  1.527802e+002 
3406250000  -3.965837e+001  1.520813e+002 
3409375000  -3.946482e+001  1.452458e+002 
3412500000  -4.014079e+001  1.423913e+002 
3415625000  -4.064037e+001  1.426824e+002 
3418750000  -4.097405e+001  1.454028e+002 
3421875000  -4.119152e+001  1.477309e+002 
3425000000  -4.014009e+001  1.470480e+002 
3428125000  -3.928922e+001  1.429992e+002 
3431250000  -3.907116e+001  1.360298e+002 
3434375000  -3.906443e+001  1.304477e+002 
3437500000  -3.972125e+001  1.276088e+002 
3440625000  -3.986558e+001  1.281552e+002 
3443750000  -3.876732e+001  1.281828e+002 
3446875000  -3.795562e+001  1.210989e+002 
3450000000  -3.743618e+001  1.112955e+002 
3453125000  -3.794406e+001  1.010976e+002 
3456250000  -3.909863e+001  9.480421e+001 
3459375000  -4.008629e+001  9.615203e+001 
3462500000  -3.972962e+001  9.701855e+001 
3465625000  -3.996373e+001  9.034903e+001 
3468750000  -4.017675e+001  8.471192e+001 
3471875000  -4.011163e+001  8.455552e+001 
3475000000  -3.968614e+001  7.982066e+001 
3478125000  -4.027861e+001  7.106793e+001 
3481250000  -4.110872e+001  7.022765e+001 
3484375000  -4.212852e+001  7.335439e+001 
3487500000  -4.130474e+001  7.244194e+001 
3490625000  -4.060433e+001  6.722219e+001 
3493750000  -4.104231e+001  6.061570e+001 
3496875000  -4.175011e+001  6.078974e+001 
3500000000  -4.211911e+001  6.185463e+001 
3503125000  -4.184861e+001  6.425951e+001 
3506250000  -4.050006e+001  5.965119e+001 
3509375000  -4.062601e+001  4.895309e+001 
3512500000  -4.106369e+001  4.061808e+001 
3515625000  -4.177672e+001  3.934346e+001 
3518750000  -4.276153e+001  3.939279e+001 
3521875000  -4.251929e+001  3.874489e+001 
3525000000  -4.349591e+001  3.324810e+001 
3528125000  -4.326756e+001  4.404293e+001 
3531250000  -4.211914e+001  3.879214e+001 
3534375000  -4.241185e+001  2.926346e+001 
3537500000  -4.287085e+001  2.325701e+001 
3540625000  -4.361176e+001  2.189858e+001 
3543750000  -4.450198e+001  2.652106e+001 
3546875000  -4.422455e+001  3.871467e+001 
3550000000  -4.137769e+001  3.971911e+001 
3553125000  -4.042176e+001  2.258824e+001 
3556250000  -4.171893e+001  1.617055e+001 
3559375000  -4.131656e+001  1.827215e+001 
3562500000  -4.043896e+001  9.402233e+000 
3565625000  -4.129658e+001  1.432287e-001 
3568750000  -4.141999e+001  3.285173e+000 
3571875000  -4.096051e+001  2.459434e+000 
3575000000  -4.076360e+001  -4.626370e+000 
3578125000  -4.134138e+001  -9.499481e+000 
3581250000  -4.150253e+001  -9.645889e+000 
3584375000  -4.051718e+001  -1.538024e+001 
3587500000  -4.005472e+001  -2.374492e+001 
3590625000  -4.033706e+001  -3.311493e+001 
3593750000  -4.156162e+001  -3.378803e+001 
3596875000  -4.185925e+001  -2.688689e+001 
3600000000  -4.006474e+001  -3.397085e+001 
3603125000  -4.035921e+001  -4.920633e+001 
3606250000  -4.134212e+001  -5.308285e+001 
3609375000  -4.212078e+001  -5.384681e+001 
3612500000  -4.231949e+001  -5.941699e+001 
3615625000  -4.270693e+001  -6.152475e+001 
3618750000  -4.339494e+001  -6.199463e+001 
3621875000  -4.320084e+001  -6.641003e+001 
3625000000  -4.391451e+001  -6.799503e+001 
3628125000  -4.427766e+001  -6.803738e+001 
3631250000  -4.371367e+001  -7.427757e+001 
3634375000  -4.501109e+001  -7.370834e+001 
3637500000  -4.501168e+001  -6.750300e+001 
3640625000  -4.419692e+001  -6.844478e+001 
3643750000  -4.383959e+001  -7.501311e+001 
3646875000  -4.467270e+001  -8.233884e+001 
3650000000  -4.544199e+001  -8.141987e+001 
3653125000  -4.501722e+001  -8.242660e+001 
3656250000  -4.597383e+001  -7.978851e+001 
3659375000  -4.587266e+001  -7.617790e+001 
3662500000  -4.503448e+001  -7.828641e+001 
3665625000  -4.490285e+001  -8.119732e+001 
3668750000  -4.365311e+001  -8.109668e+001 
3671875000  -4.291953e+001  -8.692748e+001 
3675000000  -4.329288e+001  -9.178500e+001 
3678125000  -4.345175e+001  -9.245046e+001 
3681250000  -4.297168e+001  -9.505284e+001 
3684375000  -4.315208e+001  -1.003439e+002 
3687500000  -4.329473e+001  -1.038957e+002 
3690625000  -4.323707e+001  -1.068646e+002 
3693750000  -4.422903e+001  -1.081146e+002 
3696875000  -4.368136e+001  -1.060158e+002 
3700000000  -4.297368e+001  -1.110079e+002 
3703125000  -4.295326e+001  -1.188615e+002 
3706250000  -4.394283e+001  -1.177875e+002 
3709375000  -4.356921e+001  -1.171467e+002 
3712500000  -4.231759e+001  -1.181099e+002 
3715625000  -4.153736e+001  -1.240118e+002 
3718750000  -4.099226e+001  -1.307931e+002 
3721875000  -4.109127e+001  -1.364569e+002 
3725000000  -4.168557e+001  -1.445364e+002 
3728125000  -4.215699e+001  -1.444713e+002 
3731250000  -4.153444e+001  -1.496564e+002 
3734375000  -4.119618e+001  -1.534016e+002 
3737500000  -4.184818e+001  -1.631138e+002 
3740625000  -4.306299e+001  -1.652803e+002 
3743750000  -4.305859e+001  -1.686691e+002 
3746875000  -4.338219e+001  -1.727502e+002 
3750000000  -4.407709e+001  -1.748641e+002 
3753125000  -4.367330e+001  -1.742799e+002 
3756250000  -4.445100e+001  -1.714760e+002 
3759375000  -4.411068e+001  -1.714543e+002 
3762500000  -4.407485e+001  -1.762696e+002 
3765625000  -4.492279e+001  -1.750189e+002 
3768750000  -4.473581e+001  -1.722630e+002 
3771875000  -4.291880e+001  -1.747637e+002 
3775000000  -4.261858e+001  -1.791765e+002 
3778125000  -4.318803e+001  1.778953e+002 
3781250000  -4.300825e+001  1.771377e+002 
3784375000  -4.286047e+001  1.766448e+002 
3787500000  -4.222512e+001  1.749154e+002 
3790625000  -4.238435e+001  1.667938e+002 
3793750000  -4.247414e+001  1.663723e+002 
3796875000  -4.128202e+001  1.643109e+002 
3800000000  -3.980440e+001  1.639739e+002 
3803125000  -4.030401e+001  1.514826e+002 
3806250000  -4.086352e+001  1.512740e+002 
3809375000  -4.086132e+001  1.492769e+002 
3812500000  -4.007862e+001  1.417003e+002 
3815625000  -4.072976e+001  1.329629e+002 
3818750000  -4.173695e+001  1.308513e+002 
3821875000  -4.151817e+001  1.400728e+002 
3825000000  -3.961481e+001  1.414388e+002 
3828125000  -3.805935e+001  1.274084e+002 
3831250000  -3.872504e+001  1.110857e+002 
3834375000  -4.021838e+001  1.116134e+002 
3837500000  -4.140269e+001  1.165240e+002 
3840625000  -4.012641e+001  1.114876e+002 
3843750000  -3.902399e+001  1.003544e+002 
3846875000  -3.984346e+001  9.326692e+001 
3850000000  -4.120554e+001  9.734020e+001 
3853125000  -4.035902e+001  1.002763e+002 
3856250000  -4.039658e+001  9.511754e+001 
3859375000  -3.942300e+001  8.757196e+001 
3862500000  -3.949968e+001  8.077867e+001 
3865625000  -3.964703e+001  7.651431e+001 
3868750000  -3.963430e+001  7.349454e+001 
3871875000  -3.906863e+001  7.093418e+001 
3875000000  -3.927208e+001  6.095133e+001 
3878125000  -4.039193e+001  5.778927e+001 
3881250000  -4.049071e+001  6.153637e+001 
3884375000  -3.996008e+001  5.566827e+001 
3887500000  -4.034125e+001  5.371685e+001 
3890625000  -4.089624e+001  4.919693e+001 
3893750000  -4.090098e+001  4.746948e+001 
3896875000  -4.103693e+001  4.828550e+001 
3900000000  -4.157003e+001  4.435690e+001 
3903125000  -4.129583e+001  4.366744e+001 
3906250000  -4.048336e+001  4.383931e+001 
3909375000  -3.993668e+001  3.927525e+001 
3912500000  -4.022485e+001  3.073633e+001 
3915625000  -4.156562e+001  3.184117e+001 
3918750000  -4.114921e+001  3.300206e+001 
3921875000  -4.065730e+001  3.026305e+001 
3925000000  -3.974018e+001  2.768601e+001 
3928125000  -3.931332e+001  1.997143e+001 
3931250000  -3.946434e+001  1.457332e+001 
3934375000  -3.986386e+001  1.574415e+001 
3937500000  -4.030833e+001  1.392896e+001 
3940625000  -4.072889e+001  1.128129e+001 
3943750000  -3.932542e+001  1.035851e+001 
3946875000  -3.846229e+001  4.954093e+000 
3950000000  -3.934372e+001  -2.541023e+000 
3953125000  -4.000922e+001  -4.759366e+000 
3956250000  -3.929409e+001  -1.687920e+000 
3959375000  -3.759799e+001  -5.950649e+000 
3962500000  -3.779914e+001  -1.144629e+001 
3965625000  -3.729312e+001  -2.082158e+001 
3968750000  -3.827677e+001  -2.915998e+001 
3971875000  -3.852113e+001  -3.101560e+001 
3975000000  -3.776777e+001  -3.394139e+001 
3978125000  -3.797036e+001  -3.694442e+001 
3981250000  -3.808384e+001  -4.195747e+001 
3984375000  -3.825180e+001  -4.828627e+001 
3987500000  -3.890897e+001  -4.982350e+001 
3990625000  -3.862049e+001  -5.257702e+001 
3993750000  -3.911370e+001  -5.578358e+001 
3996875000  -3.901714e+001  -5.979359e+001 
4000000000  -3.913554e+001  -6.104733e+001 
4003125000  -3.965655e+001  -5.747081e+001 
4006250000  -3.849842e+001  -6.024480e+001 
4009375000  -3.704967e+001  -7.531815e+001 
4012500000  -3.839858e+001  -8.036813e+001 
4015625000  -4.011611e+001  -8.005788e+001 
4018750000  -3.978775e+001  -7.934866e+001 
4021875000  -3.929248e+001  -8.168904e+001 
4025000000  -3.888080e+001  -8.696103e+001 
4028125000  -3.881479e+001  -9.223029e+001 
4031250000  -3.927971e+001  -9.471069e+001 
4034375000  -3.954332e+001  -9.501166e+001 
4037500000  -3.919147e+001  -9.370584e+001 
4040625000  -3.903167e+001  -9.708834e+001 
4043750000  -3.948817e+001  -9.912476e+001 
4046875000  -3.869777e+001  -1.008005e+002 
4050000000  -3.836476e+001  -1.057934e+002 
4053125000  -3.906886e+001  -1.092027e+002 
4056250000  -3.941676e+001  -1.055546e+002 
4059375000  -3.786138e+001  -1.054270e+002 
4062500000  -3.686025e+001  -1.108126e+002 
4065625000  -3.674254e+001  -1.146852e+002 
4068750000  -3.652673e+001  -1.225479e+002 
4071875000  -3.565248e+001  -1.299544e+002 
4075000000  -3.617278e+001  -1.371726e+002 
4078125000  -3.670895e+001  -1.390775e+002 
4081250000  -3.620108e+001  -1.425426e+002 
4084375000  -3.562257e+001  -1.499639e+002 
4087500000  -3.612125e+001  -1.579917e+002 
4090625000  -3.693555e+001  -1.589082e+002 
4093750000  -3.663500e+001  -1.591784e+002 
4096875000  -3.614429e+001  -1.663375e+002 
4100000000  -3.717699e+001  -1.738772e+002 
4103125000  -3.783497e+001  -1.738202e+002 
4106250000  -3.778178e+001  -1.696511e+002 
4109375000  -3.664135e+001  -1.715833e+002 
4112500000  -3.634557e+001  -1.793437e+002 
4115625000  -3.672201e+001  1.749704e+002 
4118750000  -3.676122e+001  1.716564e+002 
4121875000  -3.637790e+001  1.651980e+002 
4125000000  -3.687278e+001  1.599527e+002 
4128125000  -3.794417e+001  1.595176e+002 
4131250000  -3.755703e+001  1.694662e+002 
4134375000  -3.528042e+001  1.604958e+002 
4137500000  -3.516019e+001  1.418640e+002 
4140625000  -3.745898e+001  1.350015e+002 
4143750000  -3.889047e+001  1.388540e+002 
4146875000  -3.836758e+001  1.453609e+002 
4150000000  -3.733130e+001  1.402828e+002 
4153125000  -3.752188e+001  1.339740e+002 
4156250000  -3.844976e+001  1.305292e+002 
4159375000  -3.862919e+001  1.353693e+002 
4162500000  -3.753539e+001  1.387739e+002 
4165625000  -3.649724e+001  1.342338e+002 
4168750000  -3.578507e+001  1.255378e+002 
4171875000  -3.587952e+001  1.163716e+002 
4175000000  -3.649193e+001  1.109753e+002 
4178125000  -3.720515e+001  1.115958e+002 
4181250000  -3.694234e+001  1.093479e+002 
4184375000  -3.687481e+001  1.046982e+002 
4187500000  -3.682224e+001  1.019516e+002 
4190625000  -3.677529e+001  9.525915e+001 
4193750000  -3.753265e+001  9.179021e+001 
4196875000  -3.820365e+001  9.205726e+001 
4200000000  -3.889476e+001  9.193933e+001 
4203125000  -3.860511e+001  1.080370e+002 
4206250000  -3.510767e+001  1.046450e+002 
4209375000  -3.437769e+001  8.301917e+001 
4212500000  -3.629104e+001  7.590180e+001 
4215625000  -3.702821e+001  8.241096e+001 
4218750000  -3.572162e+001  8.685132e+001 
4221875000  -3.345426e+001  7.730561e+001 
4225000000  -3.474280e+001  6.319840e+001 
4228125000  -3.539310e+001  6.803075e+001 
4231250000  -3.375655e+001  6.183432e+001 
4234375000  -3.364095e+001  5.234110e+001 
4237500000  -3.300480e+001  4.923352e+001 
4240625000  -3.311138e+001  3.856470e+001 
4243750000  -3.418311e+001  2.998419e+001 
4246875000  -3.523857e+001  3.047665e+001 
4250000000  -3.522568e+001  3.241536e+001 
4253125000  -3.472953e+001  2.773697e+001 
4256250000  -3.504899e+001  2.271745e+001 
4259375000  -3.457590e+001  2.087542e+001 
4262500000  -3.488194e+001  1.581597e+001 
4265625000  -3.511932e+001  1.459701e+001 
4268750000  -3.404932e+001  1.069752e+001 
4271875000  -3.389406e+001  1.583042e+000 
4275000000  -3.350989e+001  -5.318222e+000 
4278125000  -3.431432e+001  -1.703132e+001 
4281250000  -3.626816e+001  -1.843266e+001 
4284375000  -3.579958e+001  -1.851919e+001 
4287500000  -3.709254e+001  -2.331932e+001 
4290625000  -3.807212e+001  -1.290636e+001 
4293750000  -3.620537e+001  -8.482239e+000 
4296875000  -3.496336e+001  -1.926582e+001 
4300000000  -3.571609e+001  -3.020138e+001 
4303125000  -3.725689e+001  -2.754719e+001 
4306250000  -3.645903e+001  -2.072428e+001 
4309375000  -3.508229e+001  -2.456764e+001 
4312500000  -3.481165e+001  -3.255336e+001 
4315625000  -3.506908e+001  -3.856084e+001 
4318750000  -3.541728e+001  -4.364346e+001 
4321875000  -3.558088e+001  -4.207220e+001 
4325000000  -3.487901e+001  -4.137529e+001 
4328125000  -3.420337e+001  -4.928261e+001 
4331250000  -3.403814e+001  -5.727853e+001 
4334375000  -3.457338e+001  -6.317194e+001 
4337500000  -3.545904e+001  -6.573444e+001 
4340625000  -3.594005e+001  -6.203793e+001 
4343750000  -3.488363e+001  -6.234216e+001 
4346875000  -3.451288e+001  -6.978694e+001 
4350000000  -3.441808e+001  -7.634535e+001 
4353125000  -3.468195e+001  -8.377069e+001 
4356250000  -3.653824e+001  -8.490569e+001 
4359375000  -3.680173e+001  -7.057333e+001 
4362500000  -3.354843e+001  -7.243396e+001 
4365625000  -3.200029e+001  -8.701880e+001 
4368750000  -3.282540e+001  -9.873534e+001 
4371875000  -3.410625e+001  -9.925321e+001 
4375000000  -3.346449e+001  -1.003165e+002 
4378125000  -3.286303e+001  -1.061971e+002 
4381250000  -3.321305e+001  -1.124949e+002 
4384375000  -3.286087e+001  -1.195667e+002 
4387500000  -3.379760e+001  -1.267777e+002 
4390625000  -3.479823e+001  -1.268495e+002 
4393750000  -3.419692e+001  -1.258268e+002 
4396875000  -3.347741e+001  -1.288892e+002 
4400000000  -3.287822e+001  -1.375242e+002 
4403125000  -3.393132e+001  -1.456757e+002 
4406250000  -3.442606e+001  -1.489808e+002 
4409375000  -3.459534e+001  -1.518537e+002 
4412500000  -3.595478e+001  -1.558793e+002 
4415625000  -3.632383e+001  -1.516431e+002 
