!Agilent Technologies,E8363B,MY43030201,A.06.04.32
!Agilent E8363B: A.06.04.32
!Date: Tuesday, November 11, 2014 21:01:09
!Correction: S21(Response(S21)) 
!S1P File: Measurement: S21:
# Hz S  dB   R 50
3000000000  -3.634666e+001  -4.335552e+001 
3003125000  -3.749128e+001  -5.047198e+001 
3006250000  -3.746746e+001  -5.250934e+001 
3009375000  -3.756449e+001  -4.817855e+001 
3012500000  -3.699229e+001  -4.948022e+001 
3015625000  -3.596622e+001  -5.658723e+001 
3018750000  -3.677543e+001  -5.862909e+001 
3021875000  -3.535413e+001  -5.732486e+001 
3025000000  -3.404931e+001  -6.100452e+001 
3028125000  -3.305544e+001  -6.709818e+001 
3031250000  -3.206877e+001  -7.858584e+001 
3034375000  -3.174811e+001  -9.227750e+001 
3037500000  -3.206711e+001  -1.045965e+002 
3040625000  -3.336435e+001  -1.091771e+002 
3043750000  -3.411220e+001  -1.141648e+002 
3046875000  -3.422757e+001  -1.203583e+002 
3050000000  -3.600541e+001  -1.270160e+002 
3053125000  -3.589429e+001  -1.208564e+002 
3056250000  -3.535532e+001  -1.180162e+002 
3059375000  -3.555277e+001  -1.188748e+002 
3062500000  -3.404147e+001  -1.218084e+002 
3065625000  -3.381463e+001  -1.280372e+002 
3068750000  -3.350394e+001  -1.351538e+002 
3071875000  -3.345875e+001  -1.377355e+002 
3075000000  -3.323559e+001  -1.419381e+002 
3078125000  -3.295389e+001  -1.455829e+002 
3081250000  -3.343405e+001  -1.498048e+002 
3084375000  -3.259822e+001  -1.534769e+002 
3087500000  -3.239639e+001  -1.572251e+002 
3090625000  -3.186292e+001  -1.673482e+002 
3093750000  -3.237971e+001  -1.748333e+002 
3096875000  -3.340762e+001  1.793310e+002 
3100000000  -3.338831e+001  1.773201e+002 
3103125000  -3.369321e+001  1.778005e+002 
3106250000  -3.320293e+001  1.737412e+002 
3109375000  -3.330424e+001  1.698287e+002 
3112500000  -3.329502e+001  1.677986e+002 
3115625000  -3.282975e+001  1.626008e+002 
3118750000  -3.322804e+001  1.633319e+002 
3121875000  -3.236741e+001  1.537606e+002 
3125000000  -3.352090e+001  1.494515e+002 
3128125000  -3.465273e+001  1.559933e+002 
3131250000  -3.213405e+001  1.549529e+002 
3134375000  -3.078634e+001  1.396163e+002 
3137500000  -3.139240e+001  1.252694e+002 
3140625000  -3.294419e+001  1.220574e+002 
3143750000  -3.391807e+001  1.244618e+002 
3146875000  -3.342163e+001  1.255031e+002 
3150000000  -3.234027e+001  1.260690e+002 
3153125000  -3.233745e+001  1.160897e+002 
3156250000  -3.332272e+001  1.208604e+002 
3159375000  -3.172805e+001  1.223012e+002 
3162500000  -2.974770e+001  1.085373e+002 
3165625000  -3.078021e+001  9.532566e+001 
3168750000  -3.109946e+001  9.558655e+001 
3171875000  -3.024304e+001  9.039837e+001 
3175000000  -3.093828e+001  8.169996e+001 
3178125000  -3.073226e+001  8.208626e+001 
3181250000  -2.962529e+001  7.711226e+001 
3184375000  -2.883787e+001  6.438484e+001 
3187500000  -3.006628e+001  4.858183e+001 
3190625000  -3.274928e+001  4.045815e+001 
3193750000  -3.343342e+001  4.958002e+001 
3196875000  -3.305305e+001  5.365421e+001 
3200000000  -3.209996e+001  5.130165e+001 
3203125000  -3.128714e+001  4.504919e+001 
3206250000  -3.160431e+001  3.851104e+001 
3209375000  -3.111739e+001  3.236401e+001 
3212500000  -3.133062e+001  2.531287e+001 
3215625000  -3.142486e+001  2.117238e+001 
3218750000  -3.208391e+001  1.363698e+001 
3221875000  -3.314244e+001  8.601286e+000 
3225000000  -3.268407e+001  7.602628e+000 
3228125000  -3.298813e+001  1.486830e+000 
3231250000  -3.364590e+001  -1.933619e-001 
3234375000  -3.343387e+001  -2.905256e-001 
3237500000  -3.354318e+001  -2.598290e+000 
3240625000  -3.304671e+001  -4.813164e+000 
3243750000  -3.268382e+001  -1.238926e+001 
3246875000  -3.309645e+001  -1.987993e+001 
3250000000  -3.346669e+001  -2.152671e+001 
3253125000  -3.362810e+001  -2.358321e+001 
3256250000  -3.327513e+001  -3.046799e+001 
3259375000  -3.358041e+001  -3.893557e+001 
3262500000  -3.473811e+001  -4.274823e+001 
3265625000  -3.537805e+001  -3.976474e+001 
3268750000  -3.520697e+001  -3.838799e+001 
3271875000  -3.488561e+001  -3.858418e+001 
3275000000  -3.386393e+001  -4.515835e+001 
3278125000  -3.431033e+001  -5.181649e+001 
3281250000  -3.447761e+001  -5.035776e+001 
3284375000  -3.402510e+001  -5.745879e+001 
3287500000  -3.423954e+001  -6.088953e+001 
3290625000  -3.454211e+001  -6.684255e+001 
3293750000  -3.421327e+001  -7.302692e+001 
3296875000  -3.525983e+001  -7.342551e+001 
3300000000  -3.507539e+001  -7.273902e+001 
3303125000  -3.390225e+001  -7.776820e+001 
3306250000  -3.374099e+001  -8.485416e+001 
3309375000  -3.339810e+001  -9.087047e+001 
3312500000  -3.343791e+001  -1.017564e+002 
3315625000  -3.446902e+001  -1.096117e+002 
3318750000  -3.575522e+001  -1.141170e+002 
3321875000  -3.691527e+001  -1.144084e+002 
3325000000  -3.741114e+001  -1.092930e+002 
3328125000  -3.706488e+001  -1.071556e+002 
3331250000  -3.580877e+001  -1.004970e+002 
3334375000  -3.314805e+001  -1.109487e+002 
3337500000  -3.320574e+001  -1.295531e+002 
3340625000  -3.454546e+001  -1.411257e+002 
3343750000  -3.651189e+001  -1.427714e+002 
3346875000  -3.662717e+001  -1.404617e+002 
3350000000  -3.603836e+001  -1.421774e+002 
3353125000  -3.603574e+001  -1.472626e+002 
3356250000  -3.554848e+001  -1.553646e+002 
3359375000  -3.647460e+001  -1.632477e+002 
3362500000  -3.757305e+001  -1.692666e+002 
3365625000  -3.796018e+001  -1.700493e+002 
3368750000  -3.883747e+001  -1.736195e+002 
3371875000  -3.896429e+001  -1.757685e+002 
3375000000  -4.020858e+001  -1.786695e+002 
3378125000  -4.096093e+001  -1.782056e+002 
3381250000  -4.225869e+001  -1.711798e+002 
3384375000  -4.117926e+001  -1.507074e+002 
3387500000  -3.768052e+001  -1.654345e+002 
3390625000  -3.920995e+001  1.753623e+002 
3393750000  -4.059951e+001  1.784000e+002 
3396875000  -3.930320e+001  -1.784369e+002 
3400000000  -3.865393e+001  1.729360e+002 
3403125000  -3.938606e+001  1.666295e+002 
3406250000  -3.957655e+001  1.662879e+002 
3409375000  -3.998922e+001  1.582955e+002 
3412500000  -4.022187e+001  1.562406e+002 
3415625000  -4.103230e+001  1.576754e+002 
3418750000  -4.110559e+001  1.602753e+002 
3421875000  -4.138190e+001  1.614471e+002 
3425000000  -4.035698e+001  1.617576e+002 
3428125000  -3.949152e+001  1.583849e+002 
3431250000  -3.920376e+001  1.495808e+002 
3434375000  -3.922607e+001  1.447473e+002 
3437500000  -3.983850e+001  1.406565e+002 
3440625000  -4.011319e+001  1.427408e+002 
3443750000  -3.874166e+001  1.432192e+002 
3446875000  -3.794691e+001  1.354256e+002 
3450000000  -3.777727e+001  1.255198e+002 
3453125000  -3.792420e+001  1.160535e+002 
3456250000  -3.919858e+001  1.094099e+002 
3459375000  -3.997915e+001  1.082765e+002 
3462500000  -3.994861e+001  1.101729e+002 
3465625000  -3.963292e+001  1.054658e+002 
3468750000  -4.006522e+001  9.921796e+001 
3471875000  -4.011977e+001  9.848689e+001 
3475000000  -3.935947e+001  9.440325e+001 
3478125000  -4.036156e+001  8.667326e+001 
3481250000  -4.118623e+001  8.306644e+001 
3484375000  -4.213452e+001  8.726925e+001 
3487500000  -4.131236e+001  8.622430e+001 
3490625000  -4.057364e+001  8.118644e+001 
3493750000  -4.123946e+001  7.684187e+001 
3496875000  -4.175124e+001  7.304624e+001 
3500000000  -4.247532e+001  7.474227e+001 
3503125000  -4.195294e+001  7.851279e+001 
3506250000  -4.062672e+001  7.206041e+001 
3509375000  -4.051225e+001  6.276105e+001 
3512500000  -4.112585e+001  5.371574e+001 
3515625000  -4.186111e+001  5.063458e+001 
3518750000  -4.250845e+001  5.194593e+001 
3521875000  -4.255934e+001  4.922561e+001 
3525000000  -4.315857e+001  4.630484e+001 
3528125000  -4.345461e+001  5.254084e+001 
3531250000  -4.197871e+001  5.297773e+001 
3534375000  -4.242098e+001  4.213957e+001 
3537500000  -4.273775e+001  3.470010e+001 
3540625000  -4.380938e+001  3.335698e+001 
3543750000  -4.462246e+001  3.613841e+001 
3546875000  -4.502460e+001  5.078725e+001 
3550000000  -4.197433e+001  5.114377e+001 
3553125000  -4.063279e+001  3.535988e+001 
3556250000  -4.210274e+001  2.778152e+001 
3559375000  -4.182607e+001  3.042942e+001 
3562500000  -4.065145e+001  2.181385e+001 
3565625000  -4.137541e+001  1.405593e+001 
3568750000  -4.174262e+001  1.703087e+001 
3571875000  -4.155643e+001  1.663116e+001 
3575000000  -4.120320e+001  9.317950e+000 
3578125000  -4.161306e+001  2.969106e+000 
3581250000  -4.157115e+001  3.240218e+000 
3584375000  -4.077160e+001  5.097316e-001 
3587500000  -4.019973e+001  -7.526526e+000 
3590625000  -4.075636e+001  -1.800571e+001 
3593750000  -4.189165e+001  -2.124982e+001 
3596875000  -4.194683e+001  -1.297663e+001 
3600000000  -4.040836e+001  -1.924297e+001 
3603125000  -4.074849e+001  -3.452680e+001 
3606250000  -4.156503e+001  -3.915856e+001 
3609375000  -4.217988e+001  -4.137891e+001 
3612500000  -4.304209e+001  -4.454476e+001 
3615625000  -4.315165e+001  -5.087240e+001 
3618750000  -4.349857e+001  -4.861650e+001 
3621875000  -4.384422e+001  -5.371217e+001 
3625000000  -4.424874e+001  -5.498881e+001 
3628125000  -4.441729e+001  -5.323788e+001 
3631250000  -4.439832e+001  -6.099932e+001 
3634375000  -4.553298e+001  -6.131750e+001 
3637500000  -4.594385e+001  -5.640630e+001 
3640625000  -4.506604e+001  -5.627726e+001 
3643750000  -4.459835e+001  -5.983618e+001 
3646875000  -4.586955e+001  -6.546346e+001 
3650000000  -4.696015e+001  -6.389268e+001 
3653125000  -4.635358e+001  -6.646078e+001 
3656250000  -4.660108e+001  -6.654327e+001 
3659375000  -4.702769e+001  -6.137290e+001 
3662500000  -4.594228e+001  -6.621544e+001 
3665625000  -4.620306e+001  -6.437154e+001 
3668750000  -4.508746e+001  -6.139231e+001 
3671875000  -4.382120e+001  -6.831887e+001 
3675000000  -4.396660e+001  -7.360873e+001 
3678125000  -4.432769e+001  -7.580141e+001 
3681250000  -4.380883e+001  -7.730013e+001 
3684375000  -4.359819e+001  -8.077581e+001 
3687500000  -4.419735e+001  -8.539801e+001 
3690625000  -4.408432e+001  -9.037531e+001 
3693750000  -4.472278e+001  -8.961321e+001 
3696875000  -4.421637e+001  -8.862168e+001 
3700000000  -4.382207e+001  -9.399937e+001 
3703125000  -4.380282e+001  -9.972552e+001 
3706250000  -4.487399e+001  -9.726476e+001 
3709375000  -4.414531e+001  -9.685950e+001 
3712500000  -4.301711e+001  -1.006962e+002 
3715625000  -4.227350e+001  -1.059023e+002 
3718750000  -4.158330e+001  -1.131284e+002 
3721875000  -4.170029e+001  -1.203403e+002 
3725000000  -4.187772e+001  -1.228629e+002 
3728125000  -4.249374e+001  -1.277433e+002 
3731250000  -4.185788e+001  -1.285219e+002 
3734375000  -4.172855e+001  -1.347891e+002 
3737500000  -4.232160e+001  -1.437045e+002 
3740625000  -4.330800e+001  -1.442836e+002 
3743750000  -4.297053e+001  -1.498837e+002 
3746875000  -4.351770e+001  -1.510093e+002 
3750000000  -4.413937e+001  -1.533859e+002 
3753125000  -4.411051e+001  -1.536124e+002 
3756250000  -4.446067e+001  -1.522266e+002 
3759375000  -4.467094e+001  -1.514483e+002 
3762500000  -4.397786e+001  -1.591603e+002 
3765625000  -4.459950e+001  -1.556223e+002 
3768750000  -4.499164e+001  -1.529719e+002 
3771875000  -4.316528e+001  -1.540078e+002 
3775000000  -4.277543e+001  -1.618820e+002 
3778125000  -4.355899e+001  -1.611189e+002 
3781250000  -4.281751e+001  -1.628212e+002 
3784375000  -4.285967e+001  -1.624767e+002 
3787500000  -4.205069e+001  -1.681122e+002 
3790625000  -4.237200e+001  -1.730454e+002 
3793750000  -4.278874e+001  -1.733771e+002 
3796875000  -4.112275e+001  -1.774010e+002 
3800000000  -3.981866e+001  -1.791914e+002 
3803125000  -4.057937e+001  1.723366e+002 
3806250000  -4.124333e+001  1.702654e+002 
3809375000  -4.071691e+001  1.688722e+002 
3812500000  -3.984599e+001  1.616732e+002 
3815625000  -4.030787e+001  1.510050e+002 
3818750000  -4.126775e+001  1.514164e+002 
3821875000  -4.119181e+001  1.566640e+002 
3825000000  -3.938696e+001  1.604846e+002 
3828125000  -3.806546e+001  1.445650e+002 
3831250000  -3.877414e+001  1.304694e+002 
3834375000  -4.003529e+001  1.284879e+002 
3837500000  -4.113878e+001  1.320212e+002 
3840625000  -3.993869e+001  1.320137e+002 
3843750000  -3.885410e+001  1.185340e+002 
3846875000  -3.939031e+001  1.131508e+002 
3850000000  -4.101106e+001  1.143004e+002 
3853125000  -4.021185e+001  1.170577e+002 
3856250000  -4.029482e+001  1.106240e+002 
3859375000  -3.945154e+001  1.056489e+002 
3862500000  -3.925593e+001  9.764201e+001 
3865625000  -3.952848e+001  9.422258e+001 
3868750000  -3.948642e+001  9.324323e+001 
3871875000  -3.889387e+001  8.913326e+001 
3875000000  -3.897459e+001  7.934946e+001 
3878125000  -4.044676e+001  7.756717e+001 
3881250000  -4.045963e+001  7.999346e+001 
3884375000  -3.975982e+001  7.309132e+001 
3887500000  -3.999346e+001  7.059406e+001 
3890625000  -4.067019e+001  6.740765e+001 
3893750000  -4.075281e+001  6.457890e+001 
3896875000  -4.107071e+001  6.723927e+001 
3900000000  -4.094977e+001  6.345117e+001 
3903125000  -4.080505e+001  6.055802e+001 
3906250000  -4.058413e+001  5.909123e+001 
3909375000  -3.986422e+001  5.697617e+001 
3912500000  -3.964794e+001  4.775743e+001 
3915625000  -4.137839e+001  4.904911e+001 
3918750000  -4.116079e+001  4.901498e+001 
3921875000  -4.042185e+001  4.499685e+001 
3925000000  -3.967497e+001  4.396051e+001 
3928125000  -3.891581e+001  3.812950e+001 
3931250000  -3.940249e+001  3.196622e+001 
3934375000  -3.951310e+001  3.169785e+001 
3937500000  -4.011198e+001  2.991543e+001 
3940625000  -4.040212e+001  2.871823e+001 
3943750000  -3.940366e+001  3.006219e+001 
3946875000  -3.848374e+001  2.241672e+001 
3950000000  -3.906380e+001  1.480407e+001 
3953125000  -4.016843e+001  1.289023e+001 
3956250000  -3.894237e+001  1.619386e+001 
3959375000  -3.797273e+001  1.127130e+001 
3962500000  -3.722403e+001  7.134618e+000 
3965625000  -3.706688e+001  -2.665649e+000 
3968750000  -3.840628e+001  -1.149771e+001 
3971875000  -3.852605e+001  -1.317552e+001 
3975000000  -3.792261e+001  -1.534150e+001 
3978125000  -3.768688e+001  -1.819590e+001 
3981250000  -3.788146e+001  -2.368784e+001 
3984375000  -3.785216e+001  -2.971435e+001 
3987500000  -3.838953e+001  -3.303649e+001 
3990625000  -3.821348e+001  -3.396132e+001 
3993750000  -3.882453e+001  -3.798241e+001 
3996875000  -3.884026e+001  -4.168088e+001 
4000000000  -3.879519e+001  -4.287975e+001 
4003125000  -3.922610e+001  -4.262687e+001 
4006250000  -3.822307e+001  -4.214877e+001 
4009375000  -3.698326e+001  -5.531925e+001 
4012500000  -3.801833e+001  -6.208028e+001 
4015625000  -3.937016e+001  -6.181579e+001 
4018750000  -3.967682e+001  -6.165723e+001 
4021875000  -3.875387e+001  -6.405280e+001 
4025000000  -3.851202e+001  -6.838110e+001 
4028125000  -3.855085e+001  -7.321455e+001 
4031250000  -3.897440e+001  -7.788094e+001 
4034375000  -3.954528e+001  -7.921438e+001 
4037500000  -3.875074e+001  -7.834374e+001 
4040625000  -3.863617e+001  -8.065469e+001 
4043750000  -3.896275e+001  -8.316377e+001 
4046875000  -3.874120e+001  -8.355626e+001 
4050000000  -3.800758e+001  -9.132352e+001 
4053125000  -3.861536e+001  -9.274084e+001 
4056250000  -3.911332e+001  -8.973419e+001 
4059375000  -3.782642e+001  -8.870436e+001 
4062500000  -3.671637e+001  -9.458678e+001 
4065625000  -3.660765e+001  -9.773858e+001 
4068750000  -3.617360e+001  -1.058545e+002 
4071875000  -3.566845e+001  -1.126934e+002 
4075000000  -3.603658e+001  -1.209707e+002 
4078125000  -3.666702e+001  -1.223496e+002 
4081250000  -3.601748e+001  -1.262006e+002 
4084375000  -3.562990e+001  -1.331709e+002 
4087500000  -3.594165e+001  -1.409240e+002 
4090625000  -3.689418e+001  -1.414359e+002 
4093750000  -3.650531e+001  -1.417822e+002 
4096875000  -3.611975e+001  -1.487490e+002 
4100000000  -3.688727e+001  -1.577549e+002 
4103125000  -3.795293e+001  -1.559451e+002 
4106250000  -3.762967e+001  -1.515821e+002 
4109375000  -3.674435e+001  -1.541050e+002 
4112500000  -3.603259e+001  -1.626386e+002 
4115625000  -3.659610e+001  -1.676867e+002 
4118750000  -3.684477e+001  -1.707659e+002 
4121875000  -3.626880e+001  -1.762522e+002 
4125000000  -3.688760e+001  1.789650e+002 
4128125000  -3.774821e+001  1.770367e+002 
4131250000  -3.770747e+001  -1.748701e+002 
4134375000  -3.516927e+001  -1.794957e+002 
4137500000  -3.498362e+001  1.591596e+002 
4140625000  -3.730564e+001  1.508153e+002 
4143750000  -3.847353e+001  1.551453e+002 
4146875000  -3.850517e+001  1.619562e+002 
4150000000  -3.736389e+001  1.596314e+002 
4153125000  -3.729873e+001  1.529510e+002 
4156250000  -3.822278e+001  1.478877e+002 
4159375000  -3.834777e+001  1.537259e+002 
4162500000  -3.739672e+001  1.570099e+002 
4165625000  -3.634003e+001  1.521513e+002 
4168750000  -3.575460e+001  1.430501e+002 
4171875000  -3.584858e+001  1.325967e+002 
4175000000  -3.651140e+001  1.273246e+002 
4178125000  -3.683744e+001  1.279506e+002 
4181250000  -3.671315e+001  1.270553e+002 
4184375000  -3.659916e+001  1.213882e+002 
4187500000  -3.657027e+001  1.195084e+002 
4190625000  -3.654207e+001  1.122096e+002 
4193750000  -3.719596e+001  1.095852e+002 
4196875000  -3.800721e+001  1.088849e+002 
4200000000  -3.883530e+001  1.102355e+002 
4203125000  -3.889157e+001  1.208974e+002 
4206250000  -3.503960e+001  1.211636e+002 
4209375000  -3.420659e+001  1.012841e+002 
4212500000  -3.608147e+001  9.227543e+001 
4215625000  -3.695111e+001  9.854516e+001 
4218750000  -3.556751e+001  1.024255e+002 
4221875000  -3.327302e+001  9.317347e+001 
4225000000  -3.457030e+001  8.074891e+001 
4228125000  -3.520063e+001  8.534122e+001 
4231250000  -3.372466e+001  8.061275e+001 
4234375000  -3.339680e+001  7.000198e+001 
4237500000  -3.317207e+001  6.702846e+001 
4240625000  -3.322947e+001  5.700463e+001 
4243750000  -3.406364e+001  4.890900e+001 
4246875000  -3.522944e+001  4.714767e+001 
4250000000  -3.510061e+001  4.869644e+001 
4253125000  -3.446596e+001  4.637199e+001 
4256250000  -3.493373e+001  4.103899e+001 
4259375000  -3.454767e+001  3.793608e+001 
4262500000  -3.480958e+001  3.359612e+001 
4265625000  -3.501530e+001  3.381191e+001 
4268750000  -3.391183e+001  2.727918e+001 
4271875000  -3.384062e+001  2.028103e+001 
4275000000  -3.335210e+001  1.334991e+001 
4278125000  -3.413942e+001  1.966486e+000 
4281250000  -3.615597e+001  -1.270271e+000 
4284375000  -3.596200e+001  -4.293986e-001 
4287500000  -3.668635e+001  -4.326568e+000 
4290625000  -3.806163e+001  5.579987e+000 
4293750000  -3.587647e+001  8.721579e+000 
4296875000  -3.472272e+001  -2.648584e+000 
4300000000  -3.571437e+001  -1.145990e+001 
4303125000  -3.674219e+001  -1.024433e+001 
4306250000  -3.634204e+001  -5.916455e+000 
4309375000  -3.503864e+001  -6.998342e+000 
4312500000  -3.466296e+001  -1.521803e+001 
4315625000  -3.484272e+001  -2.141391e+001 
4318750000  -3.521798e+001  -2.434103e+001 
4321875000  -3.522002e+001  -2.392823e+001 
4325000000  -3.477851e+001  -2.442884e+001 
4328125000  -3.411031e+001  -3.207931e+001 
4331250000  -3.396975e+001  -4.066784e+001 
4334375000  -3.416396e+001  -4.483538e+001 
4337500000  -3.507767e+001  -4.849693e+001 
4340625000  -3.553162e+001  -4.483331e+001 
4343750000  -3.474863e+001  -4.626640e+001 
4346875000  -3.420929e+001  -5.233905e+001 
4350000000  -3.444895e+001  -5.819278e+001 
4353125000  -3.419494e+001  -6.521110e+001 
4356250000  -3.611878e+001  -6.702987e+001 
4359375000  -3.653656e+001  -5.415952e+001 
4362500000  -3.368261e+001  -5.459150e+001 
4365625000  -3.198896e+001  -6.739588e+001 
4368750000  -3.271887e+001  -8.011038e+001 
4371875000  -3.391142e+001  -8.049933e+001 
4375000000  -3.340684e+001  -8.215224e+001 
4378125000  -3.277690e+001  -8.826404e+001 
4381250000  -3.297575e+001  -9.486922e+001 
4384375000  -3.287154e+001  -1.018817e+002 
4387500000  -3.362179e+001  -1.078588e+002 
4390625000  -3.459017e+001  -1.088928e+002 
4393750000  -3.401104e+001  -1.068775e+002 
4396875000  -3.324634e+001  -1.105589e+002 
4400000000  -3.288881e+001  -1.192945e+002 
4403125000  -3.357792e+001  -1.273705e+002 
4406250000  -3.454556e+001  -1.302291e+002 
4409375000  -3.472147e+001  -1.339933e+002 
4412500000  -3.580704e+001  -1.370955e+002 
4415625000  -3.604292e+001  -1.321596e+002 
