!Agilent Technologies,E8363B,MY43030201,A.06.04.32
!Agilent E8363B: A.06.04.32
!Date: Tuesday, November 11, 2014 21:01:23
!Correction: S21(Response(S21)) 
!S1P File: Measurement: S21:
# Hz S  dB   R 50
3000000000  -3.641953e+001  -4.396204e+001 
3003125000  -3.737858e+001  -4.977276e+001 
3006250000  -3.731331e+001  -5.286137e+001 
3009375000  -3.771999e+001  -4.807702e+001 
3012500000  -3.692901e+001  -4.976498e+001 
3015625000  -3.591286e+001  -5.645440e+001 
3018750000  -3.684351e+001  -5.807412e+001 
3021875000  -3.530506e+001  -5.764605e+001 
3025000000  -3.406740e+001  -6.171469e+001 
3028125000  -3.303696e+001  -6.750419e+001 
3031250000  -3.201838e+001  -7.859227e+001 
3034375000  -3.166189e+001  -9.217088e+001 
3037500000  -3.204236e+001  -1.049513e+002 
3040625000  -3.346547e+001  -1.095993e+002 
3043750000  -3.408407e+001  -1.144191e+002 
3046875000  -3.431323e+001  -1.207520e+002 
3050000000  -3.601194e+001  -1.271819e+002 
3053125000  -3.599378e+001  -1.211012e+002 
3056250000  -3.549346e+001  -1.188281e+002 
3059375000  -3.557616e+001  -1.190275e+002 
3062500000  -3.405021e+001  -1.222651e+002 
3065625000  -3.367547e+001  -1.277952e+002 
3068750000  -3.337921e+001  -1.353203e+002 
3071875000  -3.342033e+001  -1.374999e+002 
3075000000  -3.329621e+001  -1.417886e+002 
3078125000  -3.301662e+001  -1.457677e+002 
3081250000  -3.348779e+001  -1.498981e+002 
3084375000  -3.257294e+001  -1.537330e+002 
3087500000  -3.240429e+001  -1.576754e+002 
3090625000  -3.190796e+001  -1.676319e+002 
3093750000  -3.235385e+001  -1.753774e+002 
3096875000  -3.348567e+001  1.787772e+002 
3100000000  -3.340416e+001  1.768196e+002 
3103125000  -3.365408e+001  1.776514e+002 
3106250000  -3.313887e+001  1.735931e+002 
3109375000  -3.332281e+001  1.698997e+002 
3112500000  -3.316776e+001  1.671057e+002 
3115625000  -3.293795e+001  1.626119e+002 
3118750000  -3.322093e+001  1.623764e+002 
3121875000  -3.241758e+001  1.536877e+002 
3125000000  -3.354212e+001  1.489669e+002 
3128125000  -3.453777e+001  1.563121e+002 
3131250000  -3.215695e+001  1.552525e+002 
3134375000  -3.076579e+001  1.395843e+002 
3137500000  -3.142955e+001  1.252327e+002 
3140625000  -3.291136e+001  1.219425e+002 
3143750000  -3.385093e+001  1.240112e+002 
3146875000  -3.333655e+001  1.249373e+002 
3150000000  -3.234547e+001  1.256560e+002 
3153125000  -3.236341e+001  1.161177e+002 
3156250000  -3.345293e+001  1.210429e+002 
3159375000  -3.171657e+001  1.226921e+002 
3162500000  -2.970151e+001  1.080760e+002 
3165625000  -3.075670e+001  9.522701e+001 
3168750000  -3.109183e+001  9.551990e+001 
3171875000  -3.020635e+001  9.056715e+001 
3175000000  -3.096136e+001  8.132098e+001 
3178125000  -3.072089e+001  8.189990e+001 
3181250000  -2.958551e+001  7.704643e+001 
3184375000  -2.883600e+001  6.379000e+001 
3187500000  -3.010898e+001  4.879632e+001 
3190625000  -3.268982e+001  4.039350e+001 
3193750000  -3.334681e+001  4.890547e+001 
3196875000  -3.301570e+001  5.377830e+001 
3200000000  -3.208143e+001  5.089354e+001 
3203125000  -3.123840e+001  4.458904e+001 
3206250000  -3.160218e+001  3.765780e+001 
3209375000  -3.106465e+001  3.186658e+001 
3212500000  -3.131186e+001  2.517388e+001 
3215625000  -3.142235e+001  2.137993e+001 
3218750000  -3.227331e+001  1.390676e+001 
3221875000  -3.307859e+001  8.622770e+000 
3225000000  -3.262241e+001  7.357504e+000 
3228125000  -3.301227e+001  1.981308e+000 
3231250000  -3.373479e+001  -7.948958e-001 
3234375000  -3.349950e+001  -3.150910e-001 
3237500000  -3.337005e+001  -2.787117e+000 
3240625000  -3.305164e+001  -5.336611e+000 
3243750000  -3.267806e+001  -1.239600e+001 
3246875000  -3.306369e+001  -1.956663e+001 
3250000000  -3.346006e+001  -2.223553e+001 
3253125000  -3.352765e+001  -2.416963e+001 
3256250000  -3.329577e+001  -3.045205e+001 
3259375000  -3.352315e+001  -3.967500e+001 
3262500000  -3.467094e+001  -4.291657e+001 
3265625000  -3.532767e+001  -4.067601e+001 
3268750000  -3.521238e+001  -3.887512e+001 
3271875000  -3.491302e+001  -3.922931e+001 
3275000000  -3.385062e+001  -4.535273e+001 
3278125000  -3.430441e+001  -5.161732e+001 
3281250000  -3.443051e+001  -5.131408e+001 
3284375000  -3.403266e+001  -5.781467e+001 
3287500000  -3.413815e+001  -6.152449e+001 
3290625000  -3.449480e+001  -6.694871e+001 
3293750000  -3.419216e+001  -7.278679e+001 
3296875000  -3.531692e+001  -7.387914e+001 
3300000000  -3.497491e+001  -7.281995e+001 
3303125000  -3.401097e+001  -7.772015e+001 
3306250000  -3.372537e+001  -8.520283e+001 
3309375000  -3.341515e+001  -9.155563e+001 
3312500000  -3.350375e+001  -1.021572e+002 
3315625000  -3.434047e+001  -1.105413e+002 
3318750000  -3.584174e+001  -1.127917e+002 
3321875000  -3.687564e+001  -1.129995e+002 
3325000000  -3.749857e+001  -1.088765e+002 
3328125000  -3.706411e+001  -1.067093e+002 
3331250000  -3.588128e+001  -1.004721e+002 
3334375000  -3.323397e+001  -1.113782e+002 
3337500000  -3.312875e+001  -1.301956e+002 
3340625000  -3.454305e+001  -1.413365e+002 
3343750000  -3.660657e+001  -1.434521e+002 
3346875000  -3.672572e+001  -1.404759e+002 
3350000000  -3.610321e+001  -1.426863e+002 
3353125000  -3.606395e+001  -1.469885e+002 
3356250000  -3.561344e+001  -1.555088e+002 
3359375000  -3.650036e+001  -1.641404e+002 
3362500000  -3.758375e+001  -1.696098e+002 
3365625000  -3.804215e+001  -1.717016e+002 
3368750000  -3.871366e+001  -1.732055e+002 
3371875000  -3.918030e+001  -1.752035e+002 
3375000000  -4.017571e+001  -1.793454e+002 
3378125000  -4.147402e+001  -1.786465e+002 
3381250000  -4.235910e+001  -1.704191e+002 
3384375000  -4.138792e+001  -1.496253e+002 
3387500000  -3.763204e+001  -1.641082e+002 
3390625000  -3.916930e+001  1.745906e+002 
3393750000  -4.010460e+001  1.791465e+002 
3396875000  -3.932824e+001  -1.796751e+002 
3400000000  -3.867831e+001  1.724964e+002 
3403125000  -3.933860e+001  1.670246e+002 
3406250000  -3.961531e+001  1.664891e+002 
3409375000  -4.001998e+001  1.590584e+002 
3412500000  -4.040642e+001  1.566220e+002 
3415625000  -4.121591e+001  1.568092e+002 
3418750000  -4.135527e+001  1.567339e+002 
3421875000  -4.151307e+001  1.610181e+002 
3425000000  -4.040902e+001  1.612037e+002 
3428125000  -3.939060e+001  1.562050e+002 
3431250000  -3.931236e+001  1.503630e+002 
3434375000  -3.932993e+001  1.444083e+002 
3437500000  -3.992799e+001  1.400010e+002 
3440625000  -3.998120e+001  1.422480e+002 
3443750000  -3.870551e+001  1.438309e+002 
3446875000  -3.803878e+001  1.355168e+002 
3450000000  -3.763136e+001  1.253895e+002 
3453125000  -3.790288e+001  1.144991e+002 
3456250000  -3.909689e+001  1.093574e+002 
3459375000  -3.988112e+001  1.095263e+002 
3462500000  -3.999846e+001  1.090815e+002 
3465625000  -3.981186e+001  1.048594e+002 
3468750000  -4.006564e+001  1.003972e+002 
3471875000  -3.994947e+001  9.860726e+001 
3475000000  -3.935982e+001  9.365102e+001 
3478125000  -4.037583e+001  8.450037e+001 
3481250000  -4.103272e+001  8.435528e+001 
3484375000  -4.225343e+001  8.664525e+001 
3487500000  -4.129357e+001  8.644412e+001 
3490625000  -4.062040e+001  8.163889e+001 
3493750000  -4.106040e+001  7.556374e+001 
3496875000  -4.174872e+001  7.287206e+001 
3500000000  -4.250467e+001  7.342133e+001 
3503125000  -4.174740e+001  7.830434e+001 
3506250000  -4.045045e+001  7.249662e+001 
3509375000  -4.054518e+001  6.158965e+001 
3512500000  -4.090485e+001  5.436325e+001 
3515625000  -4.169436e+001  4.945542e+001 
3518750000  -4.260725e+001  5.068080e+001 
3521875000  -4.260469e+001  4.780269e+001 
3525000000  -4.361484e+001  4.630088e+001 
3528125000  -4.329403e+001  5.395400e+001 
3531250000  -4.231670e+001  5.306003e+001 
3534375000  -4.229938e+001  4.052058e+001 
3537500000  -4.308382e+001  3.513834e+001 
3540625000  -4.358800e+001  3.423655e+001 
3543750000  -4.468356e+001  4.018730e+001 
3546875000  -4.451591e+001  5.144557e+001 
3550000000  -4.192728e+001  5.128296e+001 
3553125000  -4.053547e+001  3.324057e+001 
3556250000  -4.205780e+001  2.904942e+001 
3559375000  -4.186782e+001  2.776788e+001 
3562500000  -4.070499e+001  2.095741e+001 
3565625000  -4.159291e+001  1.463201e+001 
3568750000  -4.177525e+001  1.566635e+001 
3571875000  -4.170797e+001  1.508332e+001 
3575000000  -4.115770e+001  9.381260e+000 
3578125000  -4.162763e+001  2.987525e+000 
3581250000  -4.153220e+001  1.494739e+000 
3584375000  -4.105412e+001  -8.520181e-001 
3587500000  -4.025225e+001  -8.867120e+000 
3590625000  -4.104208e+001  -1.959284e+001 
3593750000  -4.187918e+001  -2.315078e+001 
3596875000  -4.221218e+001  -1.490478e+001 
3600000000  -4.064588e+001  -1.883831e+001 
3603125000  -4.071925e+001  -3.587178e+001 
3606250000  -4.195284e+001  -3.971753e+001 
3609375000  -4.217030e+001  -4.195871e+001 
3612500000  -4.300034e+001  -4.544838e+001 
3615625000  -4.315973e+001  -4.891010e+001 
3618750000  -4.389666e+001  -4.979232e+001 
3621875000  -4.394443e+001  -5.277070e+001 
3625000000  -4.436073e+001  -5.604547e+001 
3628125000  -4.489883e+001  -5.602961e+001 
3631250000  -4.441903e+001  -6.025794e+001 
3634375000  -4.578105e+001  -5.962469e+001 
3637500000  -4.590161e+001  -5.767720e+001 
3640625000  -4.556275e+001  -5.494991e+001 
3643750000  -4.507907e+001  -5.937451e+001 
3646875000  -4.555383e+001  -6.929155e+001 
3650000000  -4.648907e+001  -6.741144e+001 
3653125000  -4.618443e+001  -6.970050e+001 
3656250000  -4.691996e+001  -6.830712e+001 
3659375000  -4.687604e+001  -6.634593e+001 
3662500000  -4.587661e+001  -6.421733e+001 
3665625000  -4.582408e+001  -6.118398e+001 
3668750000  -4.465310e+001  -6.531296e+001 
3671875000  -4.367675e+001  -6.905297e+001 
3675000000  -4.409045e+001  -7.541961e+001 
3678125000  -4.416161e+001  -7.598100e+001 
3681250000  -4.382563e+001  -7.771519e+001 
3684375000  -4.372504e+001  -8.347081e+001 
3687500000  -4.396135e+001  -8.617204e+001 
3690625000  -4.364846e+001  -9.004615e+001 
3693750000  -4.519871e+001  -8.850630e+001 
3696875000  -4.408917e+001  -8.826144e+001 
3700000000  -4.362093e+001  -9.405631e+001 
3703125000  -4.342778e+001  -1.000219e+002 
3706250000  -4.461990e+001  -1.004915e+002 
3709375000  -4.392438e+001  -9.879914e+001 
3712500000  -4.295628e+001  -9.899482e+001 
3715625000  -4.229036e+001  -1.082355e+002 
3718750000  -4.181427e+001  -1.134911e+002 
3721875000  -4.184459e+001  -1.178054e+002 
3725000000  -4.223893e+001  -1.266055e+002 
3728125000  -4.250483e+001  -1.268149e+002 
3731250000  -4.179656e+001  -1.287110e+002 
3734375000  -4.157445e+001  -1.364005e+002 
3737500000  -4.242154e+001  -1.440060e+002 
3740625000  -4.310138e+001  -1.467090e+002 
3743750000  -4.311760e+001  -1.504386e+002 
3746875000  -4.357526e+001  -1.539577e+002 
3750000000  -4.421509e+001  -1.532705e+002 
3753125000  -4.438262e+001  -1.546252e+002 
3756250000  -4.413668e+001  -1.519357e+002 
3759375000  -4.437533e+001  -1.505703e+002 
3762500000  -4.400704e+001  -1.571692e+002 
3765625000  -4.493037e+001  -1.559496e+002 
3768750000  -4.471698e+001  -1.536308e+002 
3771875000  -4.319542e+001  -1.527825e+002 
3775000000  -4.307682e+001  -1.611838e+002 
3778125000  -4.330094e+001  -1.640845e+002 
3781250000  -4.298588e+001  -1.631229e+002 
3784375000  -4.294426e+001  -1.654838e+002 
3787500000  -4.208801e+001  -1.655778e+002 
3790625000  -4.216127e+001  -1.737774e+002 
3793750000  -4.273734e+001  -1.743462e+002 
3796875000  -4.161842e+001  -1.768652e+002 
3800000000  -3.983468e+001  1.796293e+002 
3803125000  -4.049233e+001  1.710215e+002 
3806250000  -4.095086e+001  1.684155e+002 
3809375000  -4.058096e+001  1.663034e+002 
3812500000  -3.996318e+001  1.615752e+002 
3815625000  -4.033605e+001  1.512242e+002 
3818750000  -4.135753e+001  1.505382e+002 
3821875000  -4.148829e+001  1.583513e+002 
3825000000  -3.946891e+001  1.609477e+002 
3828125000  -3.816759e+001  1.459631e+002 
3831250000  -3.864829e+001  1.295392e+002 
3834375000  -4.016575e+001  1.284880e+002 
3837500000  -4.117168e+001  1.326740e+002 
3840625000  -4.002160e+001  1.297177e+002 
3843750000  -3.873869e+001  1.180182e+002 
3846875000  -3.954461e+001  1.098256e+002 
3850000000  -4.103157e+001  1.153467e+002 
3853125000  -4.043953e+001  1.181599e+002 
3856250000  -4.037540e+001  1.120484e+002 
3859375000  -3.932489e+001  1.070910e+002 
3862500000  -3.899755e+001  9.666557e+001 
3865625000  -3.940578e+001  9.400168e+001 
3868750000  -3.959296e+001  9.203529e+001 
3871875000  -3.886625e+001  8.728172e+001 
3875000000  -3.914508e+001  7.924646e+001 
3878125000  -4.040461e+001  7.718431e+001 
3881250000  -4.037184e+001  7.966306e+001 
3884375000  -3.973880e+001  7.434769e+001 
3887500000  -3.994006e+001  6.859895e+001 
3890625000  -4.045309e+001  6.571317e+001 
3893750000  -4.080352e+001  6.485014e+001 
3896875000  -4.114694e+001  6.605286e+001 
3900000000  -4.137208e+001  6.250116e+001 
3903125000  -4.086723e+001  6.041646e+001 
3906250000  -4.076738e+001  6.025989e+001 
3909375000  -3.961912e+001  5.591800e+001 
3912500000  -3.975117e+001  4.792090e+001 
3915625000  -4.107220e+001  4.880165e+001 
3918750000  -4.096915e+001  4.837632e+001 
3921875000  -4.043493e+001  4.776704e+001 
3925000000  -3.968139e+001  4.256257e+001 
3928125000  -3.924809e+001  3.707744e+001 
3931250000  -3.952319e+001  3.296555e+001 
3934375000  -3.980259e+001  3.166114e+001 
3937500000  -3.975925e+001  3.030120e+001 
3940625000  -4.027836e+001  2.951539e+001 
3943750000  -3.959935e+001  2.862648e+001 
3946875000  -3.815229e+001  2.163996e+001 
3950000000  -3.896658e+001  1.270571e+001 
3953125000  -3.998574e+001  1.167502e+001 
3956250000  -3.900077e+001  1.447945e+001 
3959375000  -3.782382e+001  1.174418e+001 
3962500000  -3.735069e+001  5.780165e+000 
3965625000  -3.723958e+001  -4.940372e+000 
3968750000  -3.818697e+001  -1.129414e+001 
3971875000  -3.846336e+001  -1.340952e+001 
3975000000  -3.794496e+001  -1.698002e+001 
3978125000  -3.772942e+001  -1.937283e+001 
3981250000  -3.785130e+001  -2.366448e+001 
3984375000  -3.772647e+001  -3.130539e+001 
3987500000  -3.853795e+001  -3.352789e+001 
3990625000  -3.853104e+001  -3.417917e+001 
3993750000  -3.867342e+001  -3.879870e+001 
3996875000  -3.885598e+001  -4.238068e+001 
4000000000  -3.895647e+001  -4.404788e+001 
4003125000  -3.948658e+001  -4.219549e+001 
4006250000  -3.827010e+001  -4.304979e+001 
4009375000  -3.689884e+001  -5.728774e+001 
4012500000  -3.834577e+001  -6.409331e+001 
4015625000  -3.940969e+001  -6.472987e+001 
4018750000  -3.973139e+001  -6.274174e+001 
4021875000  -3.893218e+001  -6.560969e+001 
4025000000  -3.853637e+001  -7.065221e+001 
4028125000  -3.840390e+001  -7.261707e+001 
4031250000  -3.904430e+001  -7.902971e+001 
4034375000  -3.950797e+001  -7.904079e+001 
4037500000  -3.873827e+001  -7.930019e+001 
4040625000  -3.875201e+001  -8.132389e+001 
4043750000  -3.913526e+001  -8.548625e+001 
4046875000  -3.861646e+001  -8.364631e+001 
4050000000  -3.832676e+001  -9.159898e+001 
4053125000  -3.853364e+001  -9.183418e+001 
4056250000  -3.914843e+001  -9.006041e+001 
4059375000  -3.774117e+001  -8.795181e+001 
4062500000  -3.682700e+001  -9.483923e+001 
4065625000  -3.642035e+001  -9.774551e+001 
4068750000  -3.627900e+001  -1.047937e+002 
4071875000  -3.552579e+001  -1.143493e+002 
4075000000  -3.603181e+001  -1.211474e+002 
4078125000  -3.678077e+001  -1.224339e+002 
4081250000  -3.613499e+001  -1.269624e+002 
4084375000  -3.562791e+001  -1.332807e+002 
4087500000  -3.610949e+001  -1.409812e+002 
4090625000  -3.655849e+001  -1.411680e+002 
4093750000  -3.639556e+001  -1.422363e+002 
4096875000  -3.601882e+001  -1.500196e+002 
4100000000  -3.690026e+001  -1.569207e+002 
4103125000  -3.764386e+001  -1.576773e+002 
4106250000  -3.758341e+001  -1.519426e+002 
4109375000  -3.684927e+001  -1.536822e+002 
4112500000  -3.605194e+001  -1.626602e+002 
4115625000  -3.658795e+001  -1.663905e+002 
4118750000  -3.685176e+001  -1.702278e+002 
4121875000  -3.635556e+001  -1.755302e+002 
4125000000  -3.663922e+001  1.772995e+002 
4128125000  -3.757155e+001  1.770212e+002 
4131250000  -3.740847e+001  -1.748849e+002 
4134375000  -3.522290e+001  1.785356e+002 
4137500000  -3.509793e+001  1.598784e+002 
4140625000  -3.721887e+001  1.511601e+002 
4143750000  -3.850810e+001  1.564873e+002 
4146875000  -3.822509e+001  1.614025e+002 
4150000000  -3.722348e+001  1.591318e+002 
4153125000  -3.733354e+001  1.496966e+002 
4156250000  -3.813686e+001  1.487831e+002 
4159375000  -3.873950e+001  1.518848e+002 
4162500000  -3.756253e+001  1.559212e+002 
4165625000  -3.618884e+001  1.504497e+002 
4168750000  -3.562001e+001  1.431570e+002 
4171875000  -3.585769e+001  1.328691e+002 
4175000000  -3.628071e+001  1.278268e+002 
4178125000  -3.718274e+001  1.266382e+002 
4181250000  -3.678843e+001  1.268253e+002 
4184375000  -3.667521e+001  1.224303e+002 
4187500000  -3.670063e+001  1.186737e+002 
4190625000  -3.661436e+001  1.128634e+002 
4193750000  -3.721196e+001  1.082361e+002 
4196875000  -3.771614e+001  1.076335e+002 
4200000000  -3.877534e+001  1.098222e+002 
4203125000  -3.858024e+001  1.233494e+002 
4206250000  -3.528640e+001  1.219082e+002 
4209375000  -3.418027e+001  1.006719e+002 
4212500000  -3.630707e+001  9.262905e+001 
4215625000  -3.705037e+001  9.924754e+001 
4218750000  -3.561036e+001  1.029441e+002 
4221875000  -3.331075e+001  9.338120e+001 
4225000000  -3.460933e+001  7.842256e+001 
4228125000  -3.517117e+001  8.479902e+001 
4231250000  -3.363238e+001  8.059762e+001 
4234375000  -3.366872e+001  7.023119e+001 
4237500000  -3.303807e+001  6.677977e+001 
4240625000  -3.317156e+001  5.650657e+001 
4243750000  -3.420881e+001  4.814682e+001 
4246875000  -3.494567e+001  4.672924e+001 
4250000000  -3.507280e+001  4.972614e+001 
4253125000  -3.468435e+001  4.665810e+001 
4256250000  -3.477085e+001  4.053179e+001 
4259375000  -3.474663e+001  3.774744e+001 
4262500000  -3.471906e+001  3.321824e+001 
4265625000  -3.493615e+001  3.232792e+001 
4268750000  -3.406982e+001  2.794180e+001 
4271875000  -3.387804e+001  2.015319e+001 
4275000000  -3.328896e+001  1.216332e+001 
4278125000  -3.419891e+001  7.446555e-001 
4281250000  -3.598213e+001  -1.127499e+000 
4284375000  -3.546920e+001  -7.377073e-001 
4287500000  -3.683204e+001  -6.528799e+000 
4290625000  -3.796819e+001  3.913093e+000 
4293750000  -3.609414e+001  7.456983e+000 
4296875000  -3.485061e+001  -2.481233e+000 
4300000000  -3.581639e+001  -1.168674e+001 
4303125000  -3.689911e+001  -1.087735e+001 
4306250000  -3.608457e+001  -4.776947e+000 
4309375000  -3.498021e+001  -6.749247e+000 
4312500000  -3.483720e+001  -1.499226e+001 
4315625000  -3.474015e+001  -2.233242e+001 
4318750000  -3.514087e+001  -2.542354e+001 
4321875000  -3.533172e+001  -2.437823e+001 
4325000000  -3.481004e+001  -2.479436e+001 
4328125000  -3.408720e+001  -3.117314e+001 
4331250000  -3.395484e+001  -3.983981e+001 
4334375000  -3.447741e+001  -4.526697e+001 
4337500000  -3.510864e+001  -4.793750e+001 
4340625000  -3.560360e+001  -4.533572e+001 
4343750000  -3.479633e+001  -4.641990e+001 
4346875000  -3.447384e+001  -5.174732e+001 
4350000000  -3.422066e+001  -5.895224e+001 
4353125000  -3.421630e+001  -6.635201e+001 
4356250000  -3.599409e+001  -6.940077e+001 
4359375000  -3.664154e+001  -5.722430e+001 
4362500000  -3.338928e+001  -5.490941e+001 
4365625000  -3.191148e+001  -6.768721e+001 
4368750000  -3.291109e+001  -8.092243e+001 
4371875000  -3.390602e+001  -8.129285e+001 
4375000000  -3.351363e+001  -8.150451e+001 
4378125000  -3.281706e+001  -8.944638e+001 
4381250000  -3.315716e+001  -9.476409e+001 
4384375000  -3.278585e+001  -1.014391e+002 
4387500000  -3.352322e+001  -1.079317e+002 
4390625000  -3.454257e+001  -1.098504e+002 
4393750000  -3.391552e+001  -1.080551e+002 
4396875000  -3.338367e+001  -1.109263e+002 
4400000000  -3.280464e+001  -1.198192e+002 
4403125000  -3.343030e+001  -1.286551e+002 
4406250000  -3.442741e+001  -1.305483e+002 
4409375000  -3.444827e+001  -1.340750e+002 
4412500000  -3.562635e+001  -1.363740e+002 
4415625000  -3.608019e+001  -1.321135e+002 
