!Agilent Technologies,E8363B,MY43030201,A.06.04.32
!Agilent E8363B: A.06.04.32
!Date: Tuesday, November 11, 2014 21:10:47
!Correction: S21(Response(S21)) 
!S1P File: Measurement: S21:
# Hz S  dB   R 50
3000000000  -3.646247e+001  -5.530152e+001 
3003125000  -3.777336e+001  -6.068267e+001 
3006250000  -3.754767e+001  -6.387433e+001 
3009375000  -3.785798e+001  -5.807396e+001 
3012500000  -3.719254e+001  -6.044668e+001 
3015625000  -3.629467e+001  -6.856284e+001 
3018750000  -3.695766e+001  -6.927791e+001 
3021875000  -3.551134e+001  -6.837938e+001 
3025000000  -3.418999e+001  -7.281660e+001 
3028125000  -3.329108e+001  -7.881741e+001 
3031250000  -3.213783e+001  -9.016663e+001 
3034375000  -3.185092e+001  -1.038696e+002 
3037500000  -3.221830e+001  -1.159341e+002 
3040625000  -3.366310e+001  -1.208510e+002 
3043750000  -3.429517e+001  -1.266718e+002 
3046875000  -3.456303e+001  -1.311972e+002 
3050000000  -3.621514e+001  -1.380807e+002 
3053125000  -3.612175e+001  -1.310516e+002 
3056250000  -3.554401e+001  -1.287243e+002 
3059375000  -3.564428e+001  -1.290540e+002 
3062500000  -3.415001e+001  -1.326134e+002 
3065625000  -3.389627e+001  -1.389518e+002 
3068750000  -3.355334e+001  -1.458150e+002 
3071875000  -3.351249e+001  -1.484629e+002 
3075000000  -3.321371e+001  -1.527818e+002 
3078125000  -3.308459e+001  -1.569083e+002 
3081250000  -3.354800e+001  -1.610540e+002 
3084375000  -3.262972e+001  -1.642438e+002 
3087500000  -3.249548e+001  -1.683323e+002 
3090625000  -3.197389e+001  -1.786722e+002 
3093750000  -3.255987e+001  1.736635e+002 
3096875000  -3.350761e+001  1.683916e+002 
3100000000  -3.330415e+001  1.661640e+002 
3103125000  -3.362907e+001  1.669334e+002 
3106250000  -3.313881e+001  1.628345e+002 
3109375000  -3.321521e+001  1.585893e+002 
3112500000  -3.317205e+001  1.566649e+002 
3115625000  -3.282854e+001  1.519134e+002 
3118750000  -3.317842e+001  1.517312e+002 
3121875000  -3.232478e+001  1.423649e+002 
3125000000  -3.364322e+001  1.384167e+002 
3128125000  -3.452636e+001  1.462285e+002 
3131250000  -3.196056e+001  1.434706e+002 
3134375000  -3.075074e+001  1.284892e+002 
3137500000  -3.129539e+001  1.143339e+002 
3140625000  -3.277621e+001  1.119174e+002 
3143750000  -3.388189e+001  1.128963e+002 
3146875000  -3.320810e+001  1.145480e+002 
3150000000  -3.228264e+001  1.144726e+002 
3153125000  -3.228106e+001  1.052122e+002 
3156250000  -3.333664e+001  1.095716e+002 
3159375000  -3.149052e+001  1.108538e+002 
3162500000  -2.967315e+001  9.615680e+001 
3165625000  -3.070184e+001  8.364357e+001 
3168750000  -3.102375e+001  8.360526e+001 
3171875000  -3.014007e+001  7.855947e+001 
3175000000  -3.089134e+001  6.943492e+001 
3178125000  -3.060991e+001  7.106904e+001 
3181250000  -2.952595e+001  6.466256e+001 
3184375000  -2.885203e+001  5.209217e+001 
3187500000  -3.013012e+001  3.656182e+001 
3190625000  -3.272358e+001  2.958577e+001 
3193750000  -3.329531e+001  3.785765e+001 
3196875000  -3.291980e+001  4.241492e+001 
3200000000  -3.198111e+001  3.930673e+001 
3203125000  -3.113381e+001  3.286828e+001 
3206250000  -3.154904e+001  2.625922e+001 
3209375000  -3.105258e+001  2.000827e+001 
3212500000  -3.129014e+001  1.316658e+001 
3215625000  -3.135506e+001  9.837175e+000 
3218750000  -3.211207e+001  1.600718e+000 
3221875000  -3.293058e+001  -3.365761e+000 
3225000000  -3.248584e+001  -4.087988e+000 
3228125000  -3.301643e+001  -1.005163e+001 
3231250000  -3.360572e+001  -1.219949e+001 
3234375000  -3.334816e+001  -1.164064e+001 
3237500000  -3.339884e+001  -1.463762e+001 
3240625000  -3.293040e+001  -1.735278e+001 
3243750000  -3.252409e+001  -2.387910e+001 
3246875000  -3.284184e+001  -3.187798e+001 
3250000000  -3.334412e+001  -3.421215e+001 
3253125000  -3.348382e+001  -3.606215e+001 
3256250000  -3.309393e+001  -4.301748e+001 
3259375000  -3.335247e+001  -5.111660e+001 
3262500000  -3.457269e+001  -5.520993e+001 
3265625000  -3.508405e+001  -5.226579e+001 
3268750000  -3.500204e+001  -5.000358e+001 
3271875000  -3.467731e+001  -5.098896e+001 
3275000000  -3.364273e+001  -5.738031e+001 
3278125000  -3.411439e+001  -6.432522e+001 
3281250000  -3.428926e+001  -6.294151e+001 
3284375000  -3.386901e+001  -7.062939e+001 
3287500000  -3.406613e+001  -7.302923e+001 
3290625000  -3.422879e+001  -7.989243e+001 
3293750000  -3.399556e+001  -8.549024e+001 
3296875000  -3.515106e+001  -8.648510e+001 
3300000000  -3.482038e+001  -8.495398e+001 
3303125000  -3.360305e+001  -9.068270e+001 
3306250000  -3.343831e+001  -9.760074e+001 
3309375000  -3.313139e+001  -1.046008e+002 
3312500000  -3.331565e+001  -1.156030e+002 
3315625000  -3.422873e+001  -1.235876e+002 
3318750000  -3.576357e+001  -1.267397e+002 
3321875000  -3.681966e+001  -1.258218e+002 
3325000000  -3.722623e+001  -1.217918e+002 
3328125000  -3.673050e+001  -1.205921e+002 
3331250000  -3.552007e+001  -1.141504e+002 
3334375000  -3.299121e+001  -1.248626e+002 
3337500000  -3.302819e+001  -1.440312e+002 
3340625000  -3.441258e+001  -1.550393e+002 
3343750000  -3.635915e+001  -1.559221e+002 
3346875000  -3.655337e+001  -1.543037e+002 
3350000000  -3.582685e+001  -1.564263e+002 
3353125000  -3.591129e+001  -1.604469e+002 
3356250000  -3.551265e+001  -1.685737e+002 
3359375000  -3.623662e+001  -1.780498e+002 
3362500000  -3.730806e+001  1.762469e+002 
3365625000  -3.771658e+001  1.752942e+002 
3368750000  -3.860029e+001  1.731354e+002 
3371875000  -3.885389e+001  1.708900e+002 
3375000000  -4.027081e+001  1.682802e+002 
3378125000  -4.111659e+001  1.684395e+002 
3381250000  -4.238609e+001  1.780205e+002 
3384375000  -4.077992e+001  -1.621620e+002 
3387500000  -3.730205e+001  -1.790421e+002 
3390625000  -3.920295e+001  1.627613e+002 
3393750000  -4.002304e+001  1.650410e+002 
3396875000  -3.913223e+001  1.651424e+002 
3400000000  -3.851141e+001  1.582576e+002 
3403125000  -3.923816e+001  1.524053e+002 
3406250000  -3.955953e+001  1.529423e+002 
3409375000  -3.952174e+001  1.440971e+002 
3412500000  -4.029161e+001  1.430178e+002 
3415625000  -4.075948e+001  1.432555e+002 
3418750000  -4.087937e+001  1.445729e+002 
3421875000  -4.113180e+001  1.480758e+002 
3425000000  -4.019791e+001  1.478695e+002 
3428125000  -3.933726e+001  1.434022e+002 
3431250000  -3.906953e+001  1.364360e+002 
3434375000  -3.909133e+001  1.297098e+002 
3437500000  -3.978846e+001  1.262097e+002 
3440625000  -3.992004e+001  1.289499e+002 
3443750000  -3.877608e+001  1.281772e+002 
3446875000  -3.781985e+001  1.220675e+002 
3450000000  -3.747843e+001  1.113320e+002 
3453125000  -3.772763e+001  1.014970e+002 
3456250000  -3.898645e+001  9.452807e+001 
3459375000  -4.011393e+001  9.421198e+001 
3462500000  -3.966079e+001  9.703495e+001 
3465625000  -3.983566e+001  9.159944e+001 
3468750000  -4.003836e+001  8.517618e+001 
3471875000  -3.986291e+001  8.427016e+001 
3475000000  -3.943831e+001  7.988433e+001 
3478125000  -4.033931e+001  7.030118e+001 
3481250000  -4.141139e+001  7.006448e+001 
3484375000  -4.215817e+001  7.434776e+001 
3487500000  -4.139888e+001  7.220847e+001 
3490625000  -4.069590e+001  6.765933e+001 
3493750000  -4.126876e+001  5.968592e+001 
3496875000  -4.155967e+001  6.076395e+001 
3500000000  -4.242973e+001  6.321708e+001 
3503125000  -4.174029e+001  6.462653e+001 
3506250000  -4.072756e+001  5.894908e+001 
3509375000  -4.065120e+001  5.027167e+001 
3512500000  -4.107907e+001  4.039966e+001 
3515625000  -4.206099e+001  3.784615e+001 
3518750000  -4.257887e+001  3.801432e+001 
3521875000  -4.262984e+001  3.580497e+001 
3525000000  -4.345321e+001  3.545832e+001 
3528125000  -4.348196e+001  4.261906e+001 
3531250000  -4.218369e+001  3.923199e+001 
3534375000  -4.203489e+001  2.877520e+001 
3537500000  -4.251755e+001  2.302482e+001 
3540625000  -4.347351e+001  2.400639e+001 
3543750000  -4.402861e+001  2.744226e+001 
3546875000  -4.407701e+001  3.953514e+001 
3550000000  -4.155967e+001  4.029043e+001 
3553125000  -4.057420e+001  2.299333e+001 
3556250000  -4.166840e+001  1.523919e+001 
3559375000  -4.144335e+001  1.703445e+001 
3562500000  -4.040775e+001  8.107165e+000 
3565625000  -4.130322e+001  4.455226e-001 
3568750000  -4.144939e+001  3.269021e+000 
3571875000  -4.106474e+001  1.998618e+000 
3575000000  -4.055212e+001  -5.479951e+000 
3578125000  -4.129546e+001  -8.138936e+000 
3581250000  -4.124898e+001  -1.104349e+001 
3584375000  -4.036551e+001  -1.405431e+001 
3587500000  -3.982824e+001  -2.046826e+001 
3590625000  -4.043538e+001  -3.270258e+001 
3593750000  -4.171446e+001  -3.362288e+001 
3596875000  -4.169538e+001  -2.897192e+001 
3600000000  -4.017562e+001  -3.464833e+001 
3603125000  -4.062442e+001  -4.932151e+001 
3606250000  -4.139066e+001  -5.285552e+001 
3609375000  -4.186931e+001  -5.459494e+001 
3612500000  -4.269302e+001  -6.105757e+001 
3615625000  -4.256122e+001  -6.435725e+001 
3618750000  -4.352899e+001  -6.423418e+001 
3621875000  -4.332010e+001  -6.729123e+001 
3625000000  -4.414373e+001  -6.616249e+001 
3628125000  -4.424873e+001  -6.711622e+001 
3631250000  -4.402603e+001  -7.399952e+001 
3634375000  -4.545926e+001  -7.316771e+001 
3637500000  -4.520849e+001  -6.831828e+001 
3640625000  -4.444499e+001  -6.659110e+001 
3643750000  -4.394609e+001  -7.576629e+001 
3646875000  -4.481966e+001  -8.092980e+001 
3650000000  -4.541482e+001  -7.899606e+001 
3653125000  -4.513812e+001  -8.113201e+001 
3656250000  -4.560967e+001  -8.075047e+001 
3659375000  -4.586832e+001  -7.539053e+001 
3662500000  -4.502188e+001  -7.989253e+001 
3665625000  -4.483443e+001  -7.797553e+001 
3668750000  -4.406472e+001  -7.844623e+001 
3671875000  -4.302355e+001  -8.484811e+001 
3675000000  -4.310666e+001  -9.233549e+001 
3678125000  -4.320740e+001  -9.306007e+001 
3681250000  -4.303842e+001  -9.367840e+001 
3684375000  -4.287730e+001  -1.004876e+002 
3687500000  -4.326918e+001  -1.054900e+002 
3690625000  -4.304604e+001  -1.094506e+002 
3693750000  -4.396369e+001  -1.073902e+002 
3696875000  -4.354568e+001  -1.081903e+002 
3700000000  -4.266672e+001  -1.119983e+002 
3703125000  -4.294000e+001  -1.179854e+002 
3706250000  -4.365415e+001  -1.193152e+002 
3709375000  -4.339125e+001  -1.175818e+002 
3712500000  -4.242030e+001  -1.184958e+002 
3715625000  -4.139291e+001  -1.248977e+002 
3718750000  -4.128765e+001  -1.307053e+002 
3721875000  -4.124246e+001  -1.405580e+002 
3725000000  -4.148627e+001  -1.445534e+002 
3728125000  -4.212441e+001  -1.454141e+002 
3731250000  -4.139322e+001  -1.493332e+002 
3734375000  -4.103828e+001  -1.540695e+002 
3737500000  -4.200092e+001  -1.642192e+002 
3740625000  -4.261259e+001  -1.651044e+002 
3743750000  -4.296963e+001  -1.694435e+002 
3746875000  -4.330302e+001  -1.704669e+002 
3750000000  -4.423002e+001  -1.735415e+002 
3753125000  -4.385164e+001  -1.716350e+002 
3756250000  -4.416934e+001  -1.725439e+002 
3759375000  -4.435373e+001  -1.707961e+002 
3762500000  -4.381570e+001  -1.761305e+002 
3765625000  -4.503908e+001  -1.772503e+002 
3768750000  -4.445759e+001  -1.710148e+002 
3771875000  -4.274977e+001  -1.721143e+002 
3775000000  -4.264794e+001  1.785482e+002 
3778125000  -4.320189e+001  1.789188e+002 
3781250000  -4.292810e+001  1.765534e+002 
3784375000  -4.285295e+001  1.763670e+002 
3787500000  -4.206313e+001  1.709970e+002 
3790625000  -4.263916e+001  1.664706e+002 
3793750000  -4.228656e+001  1.678346e+002 
3796875000  -4.114964e+001  1.658742e+002 
3800000000  -3.959792e+001  1.630984e+002 
3803125000  -4.062849e+001  1.529202e+002 
3806250000  -4.106698e+001  1.500925e+002 
3809375000  -4.073531e+001  1.485939e+002 
3812500000  -4.008377e+001  1.406629e+002 
3815625000  -4.074704e+001  1.317874e+002 
3818750000  -4.170675e+001  1.333206e+002 
3821875000  -4.174634e+001  1.423091e+002 
3825000000  -3.946672e+001  1.431136e+002 
3828125000  -3.800682e+001  1.251060e+002 
3831250000  -3.894642e+001  1.103761e+002 
3834375000  -4.023273e+001  1.091573e+002 
3837500000  -4.105071e+001  1.142044e+002 
3840625000  -4.008470e+001  1.111368e+002 
3843750000  -3.865837e+001  9.921265e+001 
3846875000  -3.992619e+001  9.338592e+001 
3850000000  -4.122923e+001  9.733247e+001 
3853125000  -4.032540e+001  9.846140e+001 
3856250000  -4.027259e+001  9.382794e+001 
3859375000  -3.960671e+001  8.804758e+001 
3862500000  -3.928595e+001  7.988544e+001 
3865625000  -3.968628e+001  7.525941e+001 
3868750000  -3.975513e+001  7.405877e+001 
3871875000  -3.901223e+001  6.969362e+001 
3875000000  -3.928810e+001  6.056401e+001 
3878125000  -4.072448e+001  5.915841e+001 
3881250000  -4.056968e+001  6.249584e+001 
3884375000  -3.982953e+001  5.699925e+001 
3887500000  -4.008945e+001  5.139500e+001 
3890625000  -4.071671e+001  4.911776e+001 
3893750000  -4.111473e+001  4.630248e+001 
3896875000  -4.163615e+001  4.882556e+001 
3900000000  -4.153752e+001  4.535989e+001 
3903125000  -4.099825e+001  4.299553e+001 
3906250000  -4.064479e+001  4.217577e+001 
3909375000  -4.032667e+001  3.983938e+001 
3912500000  -4.022726e+001  3.194094e+001 
3915625000  -4.146965e+001  3.234224e+001 
3918750000  -4.124989e+001  3.413919e+001 
3921875000  -4.075518e+001  3.146581e+001 
3925000000  -3.962055e+001  2.728822e+001 
3928125000  -3.926831e+001  2.136039e+001 
3931250000  -3.972841e+001  1.564852e+001 
3934375000  -3.991725e+001  1.592834e+001 
3937500000  -4.022565e+001  1.334003e+001 
3940625000  -4.097167e+001  1.075001e+001 
3943750000  -3.918708e+001  1.212082e+001 
3946875000  -3.825437e+001  5.129435e+000 
3950000000  -3.901926e+001  -3.654507e+000 
3953125000  -4.005153e+001  -4.346488e+000 
3956250000  -3.888655e+001  -3.393461e+000 
3959375000  -3.801268e+001  -6.567241e+000 
3962500000  -3.747349e+001  -1.266547e+001 
3965625000  -3.748445e+001  -2.229741e+001 
3968750000  -3.831169e+001  -2.883078e+001 
3971875000  -3.866715e+001  -3.183671e+001 
3975000000  -3.781819e+001  -3.315551e+001 
3978125000  -3.788659e+001  -3.631577e+001 
3981250000  -3.777752e+001  -4.337259e+001 
3984375000  -3.811466e+001  -4.936465e+001 
3987500000  -3.859790e+001  -5.111962e+001 
3990625000  -3.859797e+001  -5.264493e+001 
3993750000  -3.909737e+001  -5.792711e+001 
3996875000  -3.900064e+001  -5.966501e+001 
4000000000  -3.957764e+001  -6.106150e+001 
4003125000  -3.984411e+001  -6.087056e+001 
4006250000  -3.828868e+001  -6.202813e+001 
4009375000  -3.713483e+001  -7.571358e+001 
4012500000  -3.861002e+001  -8.178971e+001 
4015625000  -3.995509e+001  -8.098444e+001 
4018750000  -4.010008e+001  -7.962715e+001 
4021875000  -3.935172e+001  -8.139044e+001 
4025000000  -3.902895e+001  -8.585293e+001 
4028125000  -3.871036e+001  -9.153702e+001 
4031250000  -3.967025e+001  -9.659403e+001 
4034375000  -3.955783e+001  -9.610220e+001 
4037500000  -3.915130e+001  -9.436586e+001 
4040625000  -3.928069e+001  -9.918349e+001 
4043750000  -3.934805e+001  -1.011483e+002 
4046875000  -3.910973e+001  -1.009185e+002 
4050000000  -3.833176e+001  -1.072712e+002 
4053125000  -3.916341e+001  -1.075897e+002 
4056250000  -3.933129e+001  -1.055268e+002 
4059375000  -3.790575e+001  -1.054186e+002 
4062500000  -3.670788e+001  -1.109335e+002 
4065625000  -3.657123e+001  -1.146790e+002 
4068750000  -3.625844e+001  -1.225382e+002 
4071875000  -3.578344e+001  -1.310858e+002 
4075000000  -3.613939e+001  -1.371693e+002 
4078125000  -3.673466e+001  -1.394021e+002 
4081250000  -3.614214e+001  -1.421831e+002 
4084375000  -3.577418e+001  -1.505631e+002 
4087500000  -3.635619e+001  -1.565365e+002 
4090625000  -3.688812e+001  -1.591624e+002 
4093750000  -3.661926e+001  -1.594010e+002 
4096875000  -3.621526e+001  -1.666282e+002 
4100000000  -3.709544e+001  -1.745388e+002 
4103125000  -3.789328e+001  -1.750549e+002 
4106250000  -3.795850e+001  -1.689959e+002 
4109375000  -3.661681e+001  -1.711711e+002 
4112500000  -3.622114e+001  -1.795700e+002 
4115625000  -3.659664e+001  1.748495e+002 
4118750000  -3.688976e+001  1.717947e+002 
4121875000  -3.645722e+001  1.658632e+002 
4125000000  -3.692259e+001  1.599463e+002 
4128125000  -3.799667e+001  1.597658e+002 
4131250000  -3.765575e+001  1.682814e+002 
4134375000  -3.522091e+001  1.609696e+002 
4137500000  -3.539404e+001  1.420725e+002 
4140625000  -3.758273e+001  1.339379e+002 
4143750000  -3.885288e+001  1.377165e+002 
4146875000  -3.840628e+001  1.445063e+002 
4150000000  -3.750092e+001  1.409683e+002 
4153125000  -3.756506e+001  1.333869e+002 
4156250000  -3.848188e+001  1.312005e+002 
4159375000  -3.872199e+001  1.344260e+002 
4162500000  -3.759625e+001  1.378673e+002 
4165625000  -3.653781e+001  1.342843e+002 
4168750000  -3.590903e+001  1.254141e+002 
4171875000  -3.581385e+001  1.146554e+002 
4175000000  -3.694640e+001  1.100060e+002 
4178125000  -3.720815e+001  1.108102e+002 
4181250000  -3.682006e+001  1.091073e+002 
4184375000  -3.700762e+001  1.057940e+002 
4187500000  -3.682954e+001  1.014725e+002 
4190625000  -3.659831e+001  9.687544e+001 
4193750000  -3.740409e+001  9.196259e+001 
4196875000  -3.817441e+001  9.009046e+001 
4200000000  -3.921855e+001  9.363065e+001 
4203125000  -3.881178e+001  1.084537e+002 
4206250000  -3.534198e+001  1.052341e+002 
4209375000  -3.440928e+001  8.415840e+001 
4212500000  -3.619942e+001  7.477262e+001 
4215625000  -3.727977e+001  8.160474e+001 
4218750000  -3.580052e+001  8.710235e+001 
4221875000  -3.340668e+001  7.594552e+001 
4225000000  -3.472631e+001  6.387131e+001 
4228125000  -3.524129e+001  6.698912e+001 
4231250000  -3.369474e+001  6.145640e+001 
4234375000  -3.364953e+001  5.347328e+001 
4237500000  -3.309160e+001  4.931351e+001 
4240625000  -3.311435e+001  3.860995e+001 
4243750000  -3.406470e+001  3.014305e+001 
4246875000  -3.511468e+001  3.045911e+001 
4250000000  -3.506035e+001  3.171976e+001 
4253125000  -3.462565e+001  2.763912e+001 
4256250000  -3.488500e+001  2.293408e+001 
4259375000  -3.467423e+001  1.915696e+001 
4262500000  -3.476756e+001  1.499270e+001 
4265625000  -3.495102e+001  1.543626e+001 
4268750000  -3.387253e+001  8.749873e+000 
4271875000  -3.392208e+001  1.837185e+000 
4275000000  -3.355481e+001  -5.730194e+000 
4278125000  -3.436658e+001  -1.794779e+001 
4281250000  -3.595172e+001  -2.046794e+001 
4284375000  -3.591309e+001  -1.944813e+001 
4287500000  -3.675956e+001  -2.411615e+001 
4290625000  -3.794802e+001  -1.348894e+001 
4293750000  -3.609447e+001  -9.447044e+000 
4296875000  -3.490408e+001  -2.014484e+001 
4300000000  -3.587295e+001  -3.040454e+001 
4303125000  -3.716715e+001  -2.963803e+001 
4306250000  -3.642598e+001  -2.179067e+001 
4309375000  -3.513730e+001  -2.503156e+001 
4312500000  -3.477291e+001  -3.286048e+001 
4315625000  -3.498471e+001  -3.902349e+001 
4318750000  -3.555330e+001  -4.263131e+001 
4321875000  -3.555360e+001  -4.299545e+001 
4325000000  -3.475993e+001  -4.173002e+001 
4328125000  -3.425029e+001  -4.828357e+001 
4331250000  -3.401678e+001  -5.794420e+001 
4334375000  -3.465447e+001  -6.327285e+001 
4337500000  -3.549133e+001  -6.526022e+001 
4340625000  -3.582956e+001  -6.266475e+001 
4343750000  -3.512800e+001  -6.264593e+001 
4346875000  -3.458031e+001  -6.996326e+001 
4350000000  -3.456724e+001  -7.548303e+001 
4353125000  -3.425142e+001  -8.345841e+001 
4356250000  -3.646729e+001  -8.520845e+001 
4359375000  -3.645633e+001  -7.071424e+001 
4362500000  -3.336337e+001  -7.158525e+001 
4365625000  -3.199042e+001  -8.661978e+001 
4368750000  -3.277260e+001  -9.852074e+001 
4371875000  -3.410914e+001  -9.821962e+001 
4375000000  -3.339885e+001  -1.001189e+002 
4378125000  -3.281214e+001  -1.071075e+002 
4381250000  -3.303362e+001  -1.130683e+002 
4384375000  -3.294022e+001  -1.195281e+002 
4387500000  -3.367347e+001  -1.271598e+002 
4390625000  -3.471748e+001  -1.266889e+002 
4393750000  -3.396166e+001  -1.257051e+002 
4396875000  -3.341841e+001  -1.301692e+002 
4400000000  -3.291128e+001  -1.385758e+002 
4403125000  -3.359349e+001  -1.470215e+002 
4406250000  -3.444995e+001  -1.486079e+002 
4409375000  -3.472563e+001  -1.529565e+002 
4412500000  -3.592044e+001  -1.568333e+002 
4415625000  -3.607483e+001  -1.503472e+002 
